! This data is being provided by Wuerth Elektronik eiSos GmbH & Co. KG to the industry for analysis.
!
! Document information:
! Version:rev19a Date: 16/12/2019
!
! Component information:
! Match Code: WE-CNSW P/N: 744235601 Size: 1812
!------------------------------------------------------------------------------------------------------------------
! Disclaimer:  While Würth Elektronik eiSos has made every reasonable effort to ensure the accuracy
! of the information provided, Würth Elektronik eiSos does not guarantee the exemption of error on the
! data collection measurements, nor does Würth Elektronik eiSos guarantee that the information is current.
! Würth Elektronik eiSos reserves the right to make any adjustments at any time without notice.
! Würth Elektronik eiSos expressly disclaims all implied warranties regarding this measurement data collection.
!
! Note 1 – This data measurement is representative according to the product implementation into the fixture.
! Component behavior is sensitive to implementation into the fixture, which includes board
! materials, trace geometry information, connector pin out, layer connection, use of de-embedding
! techniques, etc.
!
! Note 2 - The fixture was designed specifically to match the 50 Ohm line impedance, as well as the connector impedance,
! in order to accomplish a reliable measurement without reflections in the trace. Any other implementation of the fixture will change the obtained
! measurement performance. The used fixture behavior was de-embedded to accomplish reliable measurement results.
!
!------------------------------------------------------------------------------------------------------------------
!
! The test setup consisted of the following:
!   - Agilent VNA E5071C or E5071B
!   - Calibrations are SOLT (short open load thru)
!   - De-embedding of the SMA's or line cards were included
!   - Equipment Settings -
!            - Sampling - 501 points
!            - IF BW – 70 kHz
!            - Averaging – Not used
!
!
!
!             Port 1----->|1|        |2| -----> Port 3
!                            |   DUT  |
!             Port 2----->|3|        |4| -----> Port 4
!
!
!*VNA Port --> |Port in Datasheet|
! |Port in Datasheet| --> VNA Port
!
!
! For further information regarding this testing, please contact
! Wuerth Elektronik eiSos
! Contact: EDA team in QDC
! Email: libraries@we-online.com or libraries@we-online.de
!
!
# Hz S dB R 50
300000	-3.354553e+001	8.519335e+001	-6.816402e-002	-9.855299e-001	-3.603597e+001	8.618500e+001	-3.574325e+001	-9.763955e+001
	-3.259738e-002	-1.175984e+000	-3.578103e+001	8.341709e+001	-3.537307e+001	-9.740795e+001	-3.583285e+001	8.438583e+001
	-3.536338e+001	8.414243e+001	-3.546755e+001	-8.879287e+001	-3.390271e+001	9.135770e+001	-4.749932e-002	-8.430792e-001
	-3.623462e+001	-1.004061e+002	-3.572232e+001	8.815608e+001	-2.753035e-002	-1.020847e+000	-3.553537e+001	7.820443e+001
307335	-3.416947e+001	8.592108e+001	-3.438116e-002	-8.332446e-001	-3.461796e+001	8.849970e+001	-3.625542e+001	-9.577268e+001
	-4.276417e-002	-8.919470e-001	-3.499531e+001	8.084608e+001	-3.618077e+001	-9.137638e+001	-3.579850e+001	8.586491e+001
	-3.515612e+001	8.916075e+001	-3.602695e+001	-9.626983e+001	-3.375785e+001	9.038830e+001	-6.068783e-002	-9.972886e-001
	-3.545134e+001	-8.990619e+001	-3.515222e+001	8.604773e+001	-3.323697e-002	-1.117017e+000	-3.548992e+001	8.245830e+001
314670	-3.422373e+001	8.620153e+001	-5.066381e-002	-1.007298e+000	-3.434704e+001	8.579423e+001	-3.504917e+001	-9.096161e+001
	-6.305529e-002	-1.023963e+000	-3.590695e+001	7.644467e+001	-3.566332e+001	-9.024370e+001	-3.494715e+001	8.696981e+001
	-3.467938e+001	8.522313e+001	-3.563525e+001	-9.525107e+001	-3.451220e+001	8.529014e+001	-6.545709e-002	-9.071533e-001
	-3.568692e+001	-9.181083e+001	-3.574449e+001	8.636172e+001	-4.142356e-002	-1.002462e+000	-3.612203e+001	7.879023e+001
322004	-3.532879e+001	8.023488e+001	-5.831345e-002	-1.035398e+000	-3.461854e+001	8.561217e+001	-3.522686e+001	-9.165366e+001
	-6.151752e-002	-9.652024e-001	-3.527690e+001	8.483371e+001	-3.540786e+001	-9.056075e+001	-3.502349e+001	8.864269e+001
	-3.532957e+001	8.557306e+001	-3.534752e+001	-9.357085e+001	-3.424785e+001	8.377177e+001	-2.071113e-002	-1.266394e+000
	-3.518962e+001	-9.125060e+001	-3.499512e+001	9.037340e+001	-4.191335e-002	-1.028745e+000	-3.514784e+001	8.545207e+001
329339	-3.554045e+001	7.741884e+001	-3.701086e-002	-8.936397e-001	-3.502401e+001	8.438448e+001	-3.486527e+001	-8.998886e+001
	-5.749557e-002	-1.049355e+000	-3.601605e+001	7.762278e+001	-3.533190e+001	-9.075453e+001	-3.450592e+001	8.706948e+001
	-3.438539e+001	8.508136e+001	-3.573596e+001	-9.300314e+001	-3.557658e+001	8.402857e+001	-2.868542e-002	-9.268611e-001
	-3.505693e+001	-9.046851e+001	-3.463115e+001	8.796196e+001	-6.123114e-002	-1.002374e+000	-3.622306e+001	8.769406e+001
336674	-3.324343e+001	8.177429e+001	-5.009375e-002	-1.099029e+000	-3.425795e+001	8.860128e+001	-3.500461e+001	-9.428374e+001
	-3.738699e-002	-1.111027e+000	-3.375529e+001	8.116894e+001	-3.507238e+001	-9.661975e+001	-3.384456e+001	8.416160e+001
	-3.478932e+001	8.920581e+001	-3.505139e+001	-9.315623e+001	-3.484649e+001	8.343418e+001	-3.877187e-002	-1.090733e+000
	-3.493422e+001	-9.324101e+001	-3.443552e+001	8.638209e+001	-4.065479e-002	-9.922098e-001	-3.540018e+001	8.875731e+001
344009	-3.244342e+001	8.271247e+001	-4.018124e-002	-1.103480e+000	-3.409996e+001	8.439642e+001	-3.503731e+001	-9.207285e+001
	-3.491339e-002	-1.259902e+000	-3.376353e+001	8.506241e+001	-3.426003e+001	-9.524016e+001	-3.441801e+001	8.776770e+001
	-3.474231e+001	8.583070e+001	-3.483165e+001	-9.040906e+001	-3.340472e+001	8.638510e+001	-5.728809e-002	-1.118529e+000
	-3.525754e+001	-9.418942e+001	-3.440910e+001	8.582376e+001	-6.443897e-002	-1.197371e+000	-3.424874e+001	8.047488e+001
351344	-3.393579e+001	8.534741e+001	-1.293215e-002	-1.237431e+000	-3.392943e+001	8.538324e+001	-3.426008e+001	-9.242216e+001
	-2.902358e-002	-1.235678e+000	-3.356257e+001	8.698082e+001	-3.445054e+001	-9.602014e+001	-3.419746e+001	8.765320e+001
	-3.396865e+001	8.770556e+001	-3.464294e+001	-9.003401e+001	-3.337452e+001	9.287135e+001	-2.637131e-002	-1.172975e+000
	-3.434844e+001	-9.148156e+001	-3.396701e+001	8.832370e+001	-3.561728e-002	-1.125948e+000	-3.491853e+001	9.119112e+001
358679	-3.343235e+001	7.789295e+001	-3.013949e-002	-1.142104e+000	-3.377948e+001	8.614423e+001	-3.470705e+001	-9.273403e+001
	-5.471848e-002	-1.190868e+000	-3.448116e+001	9.269065e+001	-3.441446e+001	-9.110800e+001	-3.385940e+001	8.700423e+001
	-3.423183e+001	8.748843e+001	-3.342939e+001	-9.422740e+001	-3.341632e+001	8.460056e+001	-4.469636e-002	-1.189817e+000
	-3.443284e+001	-9.181508e+001	-3.374721e+001	8.482184e+001	-3.138935e-002	-1.299369e+000	-3.441588e+001	8.643589e+001
366013	-3.437574e+001	8.523744e+001	-6.395083e-003	-1.222914e+000	-3.399138e+001	9.030309e+001	-3.379240e+001	-9.299604e+001
	-2.110971e-002	-1.207901e+000	-3.332904e+001	8.777016e+001	-3.421981e+001	-9.642403e+001	-3.345856e+001	8.593829e+001
	-3.363103e+001	8.940667e+001	-3.402170e+001	-9.441649e+001	-3.271950e+001	9.172137e+001	-4.162140e-002	-1.104457e+000
	-3.454173e+001	-9.665656e+001	-3.382793e+001	8.612538e+001	-4.400653e-002	-1.240961e+000	-3.412530e+001	9.021479e+001
373348	-3.423494e+001	7.801722e+001	-5.423716e-002	-1.158148e+000	-3.370311e+001	8.444404e+001	-3.370315e+001	-9.426965e+001
	-3.925962e-002	-1.216295e+000	-3.351972e+001	8.072095e+001	-3.345945e+001	-9.603218e+001	-3.329013e+001	8.719519e+001
	-3.427439e+001	9.038343e+001	-3.425779e+001	-9.207848e+001	-3.245173e+001	8.482197e+001	-3.642559e-002	-1.258326e+000
	-3.373276e+001	-9.769838e+001	-3.348708e+001	8.829783e+001	-3.459259e-002	-1.172234e+000	-3.493543e+001	8.828958e+001
380683	-3.316233e+001	7.827193e+001	-4.626769e-002	-1.075111e+000	-3.340709e+001	8.812974e+001	-3.392478e+001	-9.693095e+001
	-3.943420e-002	-1.250065e+000	-3.406150e+001	8.241542e+001	-3.390952e+001	-9.233192e+001	-3.325825e+001	8.653913e+001
	-3.359722e+001	8.443709e+001	-3.349803e+001	-9.449163e+001	-3.273745e+001	8.824623e+001	-3.629564e-002	-1.214140e+000
	-3.368925e+001	-9.627843e+001	-3.362037e+001	8.354195e+001	-2.447508e-002	-1.259437e+000	-3.311344e+001	8.032160e+001
388018	-3.272544e+001	8.265015e+001	-3.809361e-002	-1.061543e+000	-3.288304e+001	8.472597e+001	-3.330125e+001	-9.238055e+001
	-2.572661e-002	-1.362139e+000	-3.329157e+001	8.691956e+001	-3.336859e+001	-9.199667e+001	-3.304393e+001	8.493405e+001
	-3.300530e+001	8.637059e+001	-3.395103e+001	-9.217654e+001	-3.293206e+001	8.410635e+001	-5.183630e-002	-1.295720e+000
	-3.352434e+001	-9.304434e+001	-3.328794e+001	8.352708e+001	-2.335503e-002	-1.173903e+000	-3.341692e+001	8.683623e+001
395353	-3.373733e+001	8.236638e+001	-4.249275e-002	-1.344536e+000	-3.321271e+001	8.532622e+001	-3.316383e+001	-9.526030e+001
	-2.493057e-002	-1.264074e+000	-3.242048e+001	8.544650e+001	-3.354355e+001	-9.310066e+001	-3.283460e+001	8.498668e+001
	-3.327302e+001	8.622939e+001	-3.330407e+001	-9.480692e+001	-3.225174e+001	8.683523e+001	-4.606375e-002	-1.282093e+000
	-3.402784e+001	-9.352037e+001	-3.336255e+001	8.692650e+001	-2.682958e-002	-1.300112e+000	-3.356782e+001	9.090645e+001
402688	-3.294628e+001	8.636213e+001	-3.351571e-002	-1.258581e+000	-3.267801e+001	8.855335e+001	-3.318897e+001	-9.512205e+001
	-2.309510e-002	-1.244701e+000	-3.266083e+001	8.188821e+001	-3.315504e+001	-9.347588e+001	-3.321600e+001	8.641256e+001
	-3.286578e+001	8.540906e+001	-3.307603e+001	-9.358706e+001	-3.293784e+001	8.478561e+001	-3.620830e-002	-1.256989e+000
	-3.317031e+001	-9.188751e+001	-3.294089e+001	8.429476e+001	-1.711415e-002	-1.297163e+000	-3.272969e+001	8.627084e+001
410022	-3.220323e+001	8.330547e+001	-3.391470e-002	-1.240824e+000	-3.263864e+001	8.723084e+001	-3.323855e+001	-9.613096e+001
	-3.953019e-002	-1.463645e+000	-3.305862e+001	7.981555e+001	-3.315833e+001	-9.341329e+001	-3.289498e+001	8.648177e+001
	-3.265735e+001	8.437297e+001	-3.290903e+001	-9.164930e+001	-3.202491e+001	8.036052e+001	-3.984554e-002	-1.182653e+000
	-3.360532e+001	-9.577874e+001	-3.258660e+001	8.709352e+001	-2.701739e-002	-1.369826e+000	-3.265935e+001	8.695863e+001
418652	-3.231920e+001	8.270176e+001	-3.348786e-002	-1.282799e+000	-3.256963e+001	8.825949e+001	-3.305759e+001	-9.280671e+001
	-4.912879e-002	-1.370905e+000	-3.307302e+001	7.757506e+001	-3.305761e+001	-9.407683e+001	-3.264659e+001	8.805340e+001
	-3.276868e+001	8.766974e+001	-3.322243e+001	-9.389601e+001	-3.188765e+001	8.261878e+001	-2.236496e-002	-1.329866e+000
	-3.292546e+001	-9.314451e+001	-3.237812e+001	8.827277e+001	-3.511941e-002	-1.458208e+000	-3.249758e+001	8.382503e+001
428777	-3.172212e+001	8.669135e+001	-3.746466e-002	-1.404317e+000	-3.228279e+001	8.604746e+001	-3.299786e+001	-9.410622e+001
	-2.320916e-002	-1.430605e+000	-3.317329e+001	8.693020e+001	-3.265361e+001	-9.501626e+001	-3.230503e+001	8.792054e+001
	-3.204440e+001	8.686448e+001	-3.293258e+001	-9.549841e+001	-3.192769e+001	8.300141e+001	-5.038888e-002	-1.389775e+000
	-3.284797e+001	-9.459842e+001	-3.195912e+001	8.534128e+001	-2.460926e-002	-1.330247e+000	-3.270430e+001	7.737570e+001
438901	-3.227224e+001	7.794768e+001	-3.317144e-002	-1.258361e+000	-3.218645e+001	8.671098e+001	-3.275842e+001	-9.440979e+001
	-4.168983e-002	-1.373296e+000	-3.226072e+001	7.755102e+001	-3.255337e+001	-9.529524e+001	-3.210898e+001	8.770866e+001
	-3.233236e+001	8.523840e+001	-3.271560e+001	-9.611357e+001	-3.209203e+001	9.125358e+001	-3.868181e-002	-1.401844e+000
	-3.243216e+001	-9.543734e+001	-3.192327e+001	8.745536e+001	-5.516827e-002	-1.448880e+000	-3.308646e+001	8.620630e+001
449026	-3.204553e+001	7.938150e+001	-5.732256e-002	-1.466598e+000	-3.198818e+001	8.726640e+001	-3.184603e+001	-9.300995e+001
	-4.258073e-002	-1.349171e+000	-3.302326e+001	7.879886e+001	-3.243549e+001	-9.619469e+001	-3.223734e+001	8.663816e+001
	-3.204240e+001	8.607728e+001	-3.268892e+001	-9.361051e+001	-3.121990e+001	8.481192e+001	-3.283486e-002	-1.455456e+000
	-3.270165e+001	-9.454076e+001	-3.207987e+001	8.632950e+001	-6.323988e-002	-1.496005e+000	-3.158377e+001	8.250389e+001
459150	-3.190961e+001	8.642586e+001	-1.268380e-002	-1.529693e+000	-3.200062e+001	8.519975e+001	-3.293782e+001	-9.725762e+001
	-3.069877e-002	-1.516015e+000	-3.151203e+001	8.752925e+001	-3.216652e+001	-9.189290e+001	-3.148193e+001	8.526343e+001
	-3.167924e+001	8.833831e+001	-3.208492e+001	-9.300974e+001	-3.159718e+001	8.612689e+001	-4.160375e-002	-1.463247e+000
	-3.254970e+001	-9.191710e+001	-3.177510e+001	8.743292e+001	-3.104537e-002	-1.417356e+000	-3.297288e+001	8.258806e+001
469275	-3.186968e+001	8.062179e+001	-2.214119e-002	-1.460747e+000	-3.146508e+001	8.671205e+001	-3.201195e+001	-9.600055e+001
	-4.123693e-002	-1.371882e+000	-3.264451e+001	8.281401e+001	-3.220055e+001	-9.448877e+001	-3.146343e+001	8.720151e+001
	-3.192850e+001	8.749896e+001	-3.200213e+001	-9.300289e+001	-3.188287e+001	7.970759e+001	-4.534682e-002	-1.546949e+000
	-3.220292e+001	-9.431841e+001	-3.178756e+001	8.709610e+001	-2.126722e-002	-1.480902e+000	-3.288176e+001	8.117078e+001
479399	-3.184629e+001	7.958738e+001	-4.145485e-002	-1.599919e+000	-3.166524e+001	8.496306e+001	-3.195936e+001	-9.140100e+001
	-3.360663e-002	-1.561245e+000	-3.269427e+001	8.127225e+001	-3.165037e+001	-9.438313e+001	-3.167151e+001	8.531499e+001
	-3.120857e+001	8.440472e+001	-3.173354e+001	-9.397270e+001	-3.042221e+001	8.457029e+001	-2.628065e-002	-1.489643e+000
	-3.165507e+001	-9.285247e+001	-3.158500e+001	8.625694e+001	-2.445180e-002	-1.485961e+000	-3.245973e+001	8.490517e+001
489523	-3.199590e+001	7.872926e+001	-1.852023e-002	-1.476611e+000	-3.136076e+001	8.720804e+001	-3.190517e+001	-9.620002e+001
	-2.695272e-002	-1.525860e+000	-3.204433e+001	8.625345e+001	-3.152298e+001	-9.362247e+001	-3.114717e+001	8.475364e+001
	-3.125581e+001	8.714183e+001	-3.159814e+001	-9.446564e+001	-3.064148e+001	8.071484e+001	-5.748040e-002	-1.591590e+000
	-3.161447e+001	-9.436777e+001	-3.170841e+001	8.533091e+001	-3.470912e-002	-1.616164e+000	-3.177869e+001	7.926187e+001
499648	-3.128366e+001	8.092582e+001	-4.752432e-002	-1.590877e+000	-3.107890e+001	8.594544e+001	-3.146281e+001	-9.512197e+001
	-3.154532e-002	-1.615596e+000	-3.069787e+001	7.675964e+001	-3.152458e+001	-9.159430e+001	-3.091392e+001	8.689975e+001
	-3.090845e+001	8.500405e+001	-3.173599e+001	-9.644138e+001	-3.178476e+001	8.253769e+001	-4.738593e-002	-1.457783e+000
	-3.164362e+001	-9.464488e+001	-3.128075e+001	8.444330e+001	-2.734257e-002	-1.469304e+000	-3.213325e+001	8.172176e+001
509772	-3.129863e+001	7.855983e+001	-5.284338e-002	-1.462268e+000	-3.093746e+001	8.630615e+001	-3.140012e+001	-9.509531e+001
	-3.615726e-002	-1.635018e+000	-3.173708e+001	7.795005e+001	-3.124625e+001	-9.526459e+001	-3.081834e+001	8.600071e+001
	-3.092307e+001	8.559079e+001	-3.135134e+001	-9.601819e+001	-3.090072e+001	7.529923e+001	-4.406969e-002	-1.640729e+000
	-3.116915e+001	-9.481644e+001	-3.064558e+001	8.643057e+001	-6.330818e-002	-1.592568e+000	-3.178945e+001	7.939292e+001
519897	-3.113926e+001	7.602598e+001	-2.133157e-002	-1.609767e+000	-3.078945e+001	8.541555e+001	-3.060299e+001	-9.388327e+001
	-2.897215e-002	-1.626668e+000	-3.143252e+001	8.253929e+001	-3.111614e+001	-9.509329e+001	-3.087450e+001	8.672552e+001
	-3.088255e+001	8.522906e+001	-3.114985e+001	-9.373667e+001	-3.062658e+001	8.257602e+001	-3.528501e-002	-1.683300e+000
	-3.111404e+001	-9.385393e+001	-3.070541e+001	8.562267e+001	-3.581018e-002	-1.757804e+000	-3.099391e+001	8.046333e+001
530021	-3.038096e+001	8.290070e+001	-3.660208e-002	-1.653481e+000	-3.069717e+001	8.555923e+001	-3.086963e+001	-9.606434e+001
	-4.050526e-002	-1.887237e+000	-3.106420e+001	8.080272e+001	-3.070524e+001	-9.245357e+001	-3.057013e+001	8.664533e+001
	-3.041429e+001	8.554433e+001	-3.121693e+001	-9.608666e+001	-3.035396e+001	8.035210e+001	-4.967300e-002	-1.604063e+000
	-3.097351e+001	-9.564142e+001	-3.058985e+001	8.497714e+001	-5.178981e-002	-1.719463e+000	-3.094253e+001	8.126172e+001
540146	-3.066074e+001	8.431895e+001	-5.116995e-002	-1.681159e+000	-3.044943e+001	8.764948e+001	-3.105776e+001	-9.365240e+001
	-2.645985e-002	-1.661716e+000	-3.080925e+001	7.948887e+001	-3.074334e+001	-9.813151e+001	-3.048081e+001	8.636022e+001
	-3.021630e+001	8.692257e+001	-3.104866e+001	-9.325303e+001	-3.068489e+001	8.247711e+001	-4.962612e-002	-1.734366e+000
	-3.112864e+001	-9.455895e+001	-3.021046e+001	8.658965e+001	-4.000590e-002	-1.571176e+000	-3.104349e+001	7.932951e+001
550270	-3.003390e+001	7.666536e+001	-3.489046e-002	-1.901457e+000	-2.984857e+001	8.633300e+001	-3.044556e+001	-9.300124e+001
	-3.961579e-002	-1.749291e+000	-3.065956e+001	8.065341e+001	-3.107833e+001	-9.557180e+001	-3.053378e+001	8.538037e+001
	-3.014687e+001	8.534682e+001	-3.075840e+001	-9.468949e+001	-3.047934e+001	8.048389e+001	-4.678800e-002	-1.716696e+000
	-3.054180e+001	-9.455601e+001	-3.023846e+001	8.492781e+001	-3.596412e-002	-1.779303e+000	-3.074602e+001	8.325575e+001
560395	-3.020782e+001	7.617139e+001	-4.042593e-002	-1.816358e+000	-3.005176e+001	8.415273e+001	-3.029145e+001	-9.531890e+001
	-4.262268e-002	-1.915769e+000	-3.018827e+001	8.217638e+001	-3.071830e+001	-9.312418e+001	-3.031329e+001	8.543319e+001
	-3.022502e+001	8.457817e+001	-3.026083e+001	-9.515403e+001	-2.969120e+001	8.528507e+001	-3.268218e-002	-1.801763e+000
	-3.034652e+001	-9.603167e+001	-3.010471e+001	8.505680e+001	-3.973765e-002	-1.838727e+000	-3.008822e+001	8.299577e+001
572189	-3.048590e+001	7.712811e+001	-2.774500e-002	-1.816255e+000	-3.008639e+001	8.265377e+001	-3.020549e+001	-9.281871e+001
	-2.902171e-002	-1.771788e+000	-2.972676e+001	7.771217e+001	-3.007070e+001	-9.319570e+001	-3.032674e+001	8.400878e+001
	-3.001031e+001	8.642220e+001	-2.994325e+001	-9.459322e+001	-3.018933e+001	8.329158e+001	-5.403093e-002	-1.860394e+000
	-3.012886e+001	-9.549346e+001	-2.990396e+001	8.486491e+001	-4.444544e-002	-1.771967e+000	-3.007620e+001	8.095054e+001
586179	-2.978789e+001	7.871323e+001	-3.327441e-002	-1.832499e+000	-2.981165e+001	8.260899e+001	-3.014613e+001	-9.592615e+001
	-5.060812e-002	-1.840919e+000	-2.992605e+001	8.025857e+001	-3.000538e+001	-9.579150e+001	-2.992982e+001	8.378486e+001
	-2.995431e+001	8.319654e+001	-2.993647e+001	-9.555502e+001	-2.980778e+001	8.432289e+001	-6.280988e-002	-1.901307e+000
	-3.010703e+001	-9.411734e+001	-2.992055e+001	8.496867e+001	-4.916417e-002	-1.856716e+000	-2.991916e+001	8.050863e+001
600169	-2.976408e+001	8.339308e+001	-2.981545e-002	-1.898863e+000	-2.965979e+001	8.730192e+001	-3.009782e+001	-9.351167e+001
	-1.805084e-002	-1.960538e+000	-2.990530e+001	8.245074e+001	-2.981457e+001	-9.506839e+001	-2.955561e+001	8.438257e+001
	-2.963917e+001	8.536179e+001	-2.982506e+001	-9.461526e+001	-2.980176e+001	8.002623e+001	-4.428832e-002	-1.869712e+000
	-3.004445e+001	-9.550357e+001	-2.933929e+001	8.482670e+001	-5.471271e-002	-1.804038e+000	-3.034279e+001	8.146183e+001
614158	-2.969102e+001	7.540665e+001	-5.553936e-002	-1.948556e+000	-2.934496e+001	8.409074e+001	-2.967464e+001	-9.570594e+001
	-4.153945e-002	-1.911488e+000	-2.991366e+001	7.883532e+001	-2.934802e+001	-9.443492e+001	-2.958765e+001	8.605393e+001
	-2.965816e+001	8.468157e+001	-2.990493e+001	-9.562587e+001	-2.938911e+001	8.297168e+001	-4.098863e-002	-1.960505e+000
	-2.988814e+001	-9.468883e+001	-2.949368e+001	8.519166e+001	-1.870017e-002	-1.977139e+000	-2.976651e+001	8.144099e+001
628148	-2.997859e+001	8.008414e+001	-5.275818e-002	-1.999822e+000	-2.907052e+001	8.426330e+001	-2.958565e+001	-9.514046e+001
	-3.911254e-002	-1.969791e+000	-2.971540e+001	8.059512e+001	-2.955770e+001	-9.502443e+001	-2.877154e+001	8.363408e+001
	-2.913728e+001	8.632417e+001	-2.968032e+001	-9.453007e+001	-3.010301e+001	8.000663e+001	-2.683574e-002	-2.129873e+000
	-2.931609e+001	-9.439504e+001	-2.949354e+001	8.621464e+001	-5.967873e-002	-2.030098e+000	-2.921585e+001	8.624534e+001
642138	-2.966955e+001	7.710151e+001	-5.495460e-002	-2.005222e+000	-2.889324e+001	8.577284e+001	-2.967721e+001	-9.578781e+001
