!Murata Part Number: GRM31C5C2J103JWA3
!These Parameters are Measured in Series Mode Connection
!Data Generated on Mar 30, 2021
!       o--ll--o
!Port1            Port2
!       o------o
!Operation Temp=25[degC], DC Bias Voltage=0[V]
!Freq. Start=100[kHz] Stop=1000[MHz] 401[Steps]
# Hz S RI R 50
!Freq.(Hz) S11(Real) S11(Imag) S21(Real) S21(Imag) S12(Real) S12(Imag) S22(Real) S22(Imag)
100000 0.7199711 -0.4477140 0.2800289 0.4477140 0.2800289 0.4477140 0.7199711 -0.4477140
102329 0.7106467 -0.4521767 0.2893533 0.4521767 0.2893533 0.4521767 0.7106467 -0.4521767
104713 0.7011395 -0.4564869 0.2988605 0.4564869 0.2988605 0.4564869 0.7011395 -0.4564869
107152 0.6914543 -0.4606357 0.3085457 0.4606357 0.3085457 0.4606357 0.6914543 -0.4606357
109648 0.6815965 -0.4646140 0.3184035 0.4646140 0.3184035 0.4646140 0.6815965 -0.4646140
112202 0.6715720 -0.4684132 0.3284280 0.4684132 0.3284280 0.4684132 0.6715720 -0.4684132
114815 0.6613875 -0.4720246 0.3386125 0.4720246 0.3386125 0.4720246 0.6613875 -0.4720246
117490 0.6510498 -0.4754402 0.3489502 0.4754402 0.3489502 0.4754402 0.6510498 -0.4754402
120226 0.6405668 -0.4786517 0.3594332 0.4786517 0.3594332 0.4786517 0.6405668 -0.4786517
123027 0.6299464 -0.4816517 0.3700536 0.4816517 0.3700536 0.4816517 0.6299464 -0.4816517
125893 0.6191974 -0.4844328 0.3808026 0.4844328 0.3808026 0.4844328 0.6191974 -0.4844328
128825 0.6083289 -0.4869883 0.3916711 0.4869883 0.3916711 0.4869883 0.6083289 -0.4869883
131826 0.5973506 -0.4893117 0.4026494 0.4893117 0.4026494 0.4893117 0.5973506 -0.4893117
134896 0.5862724 -0.4913972 0.4137276 0.4913972 0.4137276 0.4913972 0.5862724 -0.4913972
138038 0.5751048 -0.4932395 0.4248952 0.4932395 0.4248952 0.4932395 0.5751048 -0.4932395
141254 0.5638587 -0.4948338 0.4361413 0.4948338 0.4361413 0.4948338 0.5638587 -0.4948338
144544 0.5525451 -0.4961759 0.4474549 0.4961759 0.4474549 0.4961759 0.5525451 -0.4961759
147911 0.5411755 -0.4972623 0.4588245 0.4972623 0.4588245 0.4972623 0.5411755 -0.4972623
151356 0.5297616 -0.4980902 0.4702384 0.4980902 0.4702384 0.4980902 0.5297616 -0.4980902
154882 0.5183151 -0.4986571 0.4816849 0.4986571 0.4816849 0.4986571 0.5183151 -0.4986571
158489 0.5068482 -0.4989618 0.4931518 0.4989618 0.4931518 0.4989618 0.5068482 -0.4989618
162181 0.4953727 -0.4990031 0.5046273 0.4990031 0.5046273 0.4990031 0.4953727 -0.4990031
165959 0.4839009 -0.4987811 0.5160991 0.4987811 0.5160991 0.4987811 0.4839009 -0.4987811
169824 0.4724448 -0.4982961 0.5275552 0.4982961 0.5275552 0.4982961 0.4724448 -0.4982961
173780 0.4610166 -0.4975495 0.5389834 0.4975495 0.5389834 0.4975495 0.4610166 -0.4975495
177828 0.4496280 -0.4965432 0.5503720 0.4965432 0.5503720 0.4965432 0.4496280 -0.4965432
181970 0.4382909 -0.4952797 0.5617091 0.4952797 0.5617091 0.4952797 0.4382909 -0.4952797
186209 0.4270168 -0.4937622 0.5729832 0.4937622 0.5729832 0.4937622 0.4270168 -0.4937622
190546 0.4158170 -0.4919947 0.5841830 0.4919947 0.5841830 0.4919947 0.4158170 -0.4919947
194984 0.4047025 -0.4899817 0.5952975 0.4899817 0.5952975 0.4899817 0.4047025 -0.4899817
199526 0.3936839 -0.4877281 0.6063161 0.4877281 0.6063161 0.4877281 0.3936839 -0.4877281
204174 0.3827716 -0.4852397 0.6172284 0.4852397 0.6172284 0.4852397 0.3827716 -0.4852397
208930 0.3719753 -0.4825225 0.6280247 0.4825225 0.6280247 0.4825225 0.3719753 -0.4825225
213796 0.3613044 -0.4795833 0.6386956 0.4795833 0.6386956 0.4795833 0.3613044 -0.4795833
218776 0.3507679 -0.4764291 0.6492321 0.4764291 0.6492321 0.4764291 0.3507679 -0.4764291
223872 0.3403741 -0.4730673 0.6596259 0.4730673 0.6596259 0.4730673 0.3403741 -0.4730673
229087 0.3301310 -0.4695058 0.6698690 0.4695058 0.6698690 0.4695058 0.3301310 -0.4695058
234423 0.3200459 -0.4657529 0.6799541 0.4657529 0.6799541 0.4657529 0.3200459 -0.4657529
239883 0.3101257 -0.4618169 0.6898743 0.4618169 0.6898743 0.4618169 0.3101257 -0.4618169
245471 0.3003765 -0.4577065 0.6996235 0.4577065 0.6996235 0.4577065 0.3003765 -0.4577065
251189 0.2908040 -0.4534307 0.7091960 0.4534307 0.7091960 0.4534307 0.2908040 -0.4534307
257040 0.2814133 -0.4489984 0.7185867 0.4489984 0.7185867 0.4489984 0.2814133 -0.4489984
263027 0.2722090 -0.4444188 0.7277910 0.4444188 0.7277910 0.4444188 0.2722090 -0.4444188
269153 0.2631950 -0.4397011 0.7368050 0.4397011 0.7368050 0.4397011 0.2631950 -0.4397011
275423 0.2543747 -0.4348546 0.7456253 0.4348546 0.7456253 0.4348546 0.2543747 -0.4348546
281838 0.2457510 -0.4298885 0.7542490 0.4298885 0.7542490 0.4298885 0.2457510 -0.4298885
288403 0.2373263 -0.4248119 0.7626737 0.4248119 0.7626737 0.4248119 0.2373263 -0.4248119
295121 0.2291022 -0.4196341 0.7708978 0.4196341 0.7708978 0.4196341 0.2291022 -0.4196341
301995 0.2210802 -0.4143641 0.7789198 0.4143641 0.7789198 0.4143641 0.2210802 -0.4143641
309030 0.2132611 -0.4090107 0.7867389 0.4090107 0.7867389 0.4090107 0.2132611 -0.4090107
316228 0.2056453 -0.4035827 0.7943547 0.4035827 0.7943547 0.4035827 0.2056453 -0.4035827
323594 0.1982326 -0.3980887 0.8017674 0.3980887 0.8017674 0.3980887 0.1982326 -0.3980887
331131 0.1910226 -0.3925370 0.8089774 0.3925370 0.8089774 0.3925370 0.1910226 -0.3925370
338844 0.1840145 -0.3869357 0.8159855 0.3869357 0.8159855 0.3869357 0.1840145 -0.3869357
346737 0.1772069 -0.3812927 0.8227931 0.3812927 0.8227931 0.3812927 0.1772069 -0.3812927
354813 0.1705984 -0.3756157 0.8294016 0.3756157 0.8294016 0.3756157 0.1705984 -0.3756157
363078 0.1641870 -0.3699120 0.8358130 0.3699120 0.8358130 0.3699120 0.1641870 -0.3699120
371535 0.1579705 -0.3641888 0.8420295 0.3641888 0.8420295 0.3641888 0.1579705 -0.3641888
380189 0.1519464 -0.3584528 0.8480536 0.3584528 0.8480536 0.3584528 0.1519464 -0.3584528
389045 0.1461121 -0.3527105 0.8538879 0.3527105 0.8538879 0.3527105 0.1461121 -0.3527105
398107 0.1404646 -0.3469683 0.8595354 0.3469683 0.8595354 0.3469683 0.1404646 -0.3469683
407380 0.1350007 -0.3412320 0.8649993 0.3412320 0.8649993 0.3412320 0.1350007 -0.3412320
416869 0.1297173 -0.3355072 0.8702827 0.3355072 0.8702827 0.3355072 0.1297173 -0.3355072
426580 0.1246108 -0.3297994 0.8753892 0.3297994 0.8753892 0.3297994 0.1246108 -0.3297994
436516 0.1196776 -0.3241134 0.8803224 0.3241134 0.8803224 0.3241134 0.1196776 -0.3241134
446684 0.1149140 -0.3184542 0.8850860 0.3184542 0.8850860 0.3184542 0.1149140 -0.3184542
457088 0.1103162 -0.3128262 0.8896838 0.3128262 0.8896838 0.3128262 0.1103162 -0.3128262
467735 0.1058803 -0.3072335 0.8941197 0.3072335 0.8941197 0.3072335 0.1058803 -0.3072335
478630 0.1016024 -0.3016800 0.8983976 0.3016800 0.8983976 0.3016800 0.1016024 -0.3016800
489779 0.0974785 -0.2961695 0.9025215 0.2961695 0.9025215 0.2961695 0.0974785 -0.2961695
501187 0.0935046 -0.2907052 0.9064954 0.2907052 0.9064954 0.2907052 0.0935046 -0.2907052
512861 0.0896765 -0.2852902 0.9103235 0.2852902 0.9103235 0.2852902 0.0896765 -0.2852902
524807 0.0859903 -0.2799275 0.9140097 0.2799275 0.9140097 0.2799275 0.0859903 -0.2799275
537032 0.0824419 -0.2746197 0.9175581 0.2746197 0.9175581 0.2746197 0.0824419 -0.2746197
549541 0.0790273 -0.2693692 0.9209727 0.2693692 0.9209727 0.2693692 0.0790273 -0.2693692
562341 0.0757425 -0.2641781 0.9242575 0.2641781 0.9242575 0.2641781 0.0757425 -0.2641781
575440 0.0725834 -0.2590485 0.9274166 0.2590485 0.9274166 0.2590485 0.0725834 -0.2590485
588844 0.0695463 -0.2539821 0.9304537 0.2539821 0.9304537 0.2539821 0.0695463 -0.2539821
602560 0.0666271 -0.2489805 0.9333729 0.2489805 0.9333729 0.2489805 0.0666271 -0.2489805
616595 0.0638221 -0.2440450 0.9361779 0.2440450 0.9361779 0.2440450 0.0638221 -0.2440450
630957 0.0611274 -0.2391770 0.9388726 0.2391770 0.9388726 0.2391770 0.0611274 -0.2391770
645654 0.0585395 -0.2343773 0.9414605 0.2343773 0.9414605 0.2343773 0.0585395 -0.2343773
660693 0.0560546 -0.2296471 0.9439454 0.2296471 0.9439454 0.2296471 0.0560546 -0.2296471
676083 0.0536693 -0.2249869 0.9463307 0.2249869 0.9463307 0.2249869 0.0536693 -0.2249869
691831 0.0513800 -0.2203974 0.9486200 0.2203974 0.9486200 0.2203974 0.0513800 -0.2203974
707946 0.0491833 -0.2158792 0.9508167 0.2158792 0.9508167 0.2158792 0.0491833 -0.2158792
724436 0.0470759 -0.2114324 0.9529241 0.2114324 0.9529241 0.2114324 0.0470759 -0.2114324
741310 0.0450546 -0.2070574 0.9549454 0.2070574 0.9549454 0.2070574 0.0450546 -0.2070574
758578 0.0431162 -0.2027544 0.9568838 0.2027544 0.9568838 0.2027544 0.0431162 -0.2027544
776247 0.0412576 -0.1985232 0.9587424 0.1985232 0.9587424 0.1985232 0.0412576 -0.1985232
794328 0.0394759 -0.1943640 0.9605241 0.1943640 0.9605241 0.1943640 0.0394759 -0.1943640
812831 0.0377682 -0.1902764 0.9622318 0.1902764 0.9622318 0.1902764 0.0377682 -0.1902764
831764 0.0361317 -0.1862604 0.9638683 0.1862604 0.9638683 0.1862604 0.0361317 -0.1862604
851138 0.0345636 -0.1823155 0.9654364 0.1823155 0.9654364 0.1823155 0.0345636 -0.1823155
870964 0.0330612 -0.1784414 0.9669388 0.1784414 0.9669388 0.1784414 0.0330612 -0.1784414
891251 0.0316221 -0.1746377 0.9683779 0.1746377 0.9683779 0.1746377 0.0316221 -0.1746377
912011 0.0302438 -0.1709038 0.9697562 0.1709038 0.9697562 0.1709038 0.0302438 -0.1709038
933254 0.0289238 -0.1672393 0.9710762 0.1672393 0.9710762 0.1672393 0.0289238 -0.1672393
954993 0.0276598 -0.1636434 0.9723402 0.1636434 0.9723402 0.1636434 0.0276598 -0.1636434
977237 0.0264497 -0.1601157 0.9735503 0.1601157 0.9735503 0.1601157 0.0264497 -0.1601157
1000000 0.0252912 -0.1566552 0.9747088 0.1566552 0.9747088 0.1566552 0.0252912 -0.1566552
1023293 0.0241822 -0.1532615 0.9758178 0.1532615 0.9758178 0.1532615 0.0241822 -0.1532615
1047129 0.0231208 -0.1499336 0.9768792 0.1499336 0.9768792 0.1499336 0.0231208 -0.1499336
1071519 0.0221050 -0.1466708 0.9778950 0.1466708 0.9778950 0.1466708 0.0221050 -0.1466708
1096478 0.0211329 -0.1434723 0.9788671 0.1434723 0.9788671 0.1434723 0.0211329 -0.1434723
1122018 0.0202027 -0.1403373 0.9797973 0.1403373 0.9797973 0.1403373 0.0202027 -0.1403373
1148154 0.0193128 -0.1372649 0.9806872 0.1372649 0.9806872 0.1372649 0.0193128 -0.1372649
1174898 0.0184614 -0.1342542 0.9815386 0.1342542 0.9815386 0.1342542 0.0184614 -0.1342542
1202264 0.0176470 -0.1313043 0.9823530 0.1313043 0.9823530 0.1313043 0.0176470 -0.1313043
1230269 0.0168679 -0.1284145 0.9831321 0.1284145 0.9831321 0.1284145 0.0168679 -0.1284145
1258925 0.0161227 -0.1255836 0.9838773 0.1255836 0.9838773 0.1255836 0.0161227 -0.1255836
1288250 0.0154100 -0.1228109 0.9845900 0.1228109 0.9845900 0.1228109 0.0154100 -0.1228109
1318257 0.0147285 -0.1200953 0.9852715 0.1200953 0.9852715 0.1200953 0.0147285 -0.1200953
1348963 0.0140767 -0.1174361 0.9859233 0.1174361 0.9859233 0.1174361 0.0140767 -0.1174361
1380384 0.0134534 -0.1148322 0.9865466 0.1148322 0.9865466 0.1148322 0.0134534 -0.1148322
1412538 0.0128575 -0.1122827 0.9871425 0.1122827 0.9871425 0.1122827 0.0128575 -0.1122827
1445440 0.0122877 -0.1097867 0.9877123 0.1097867 0.9877123 0.1097867 0.0122877 -0.1097867
1479108 0.0117430 -0.1073432 0.9882570 0.1073432 0.9882570 0.1073432 0.0117430 -0.1073432
1513561 0.0112222 -0.1049514 0.9887778 0.1049514 0.9887778 0.1049514 0.0112222 -0.1049514
1548817 0.0107243 -0.1026102 0.9892757 0.1026102 0.9892757 0.1026102 0.0107243 -0.1026102
1584893 0.0102484 -0.1003189 0.9897516 0.1003189 0.9897516 0.1003189 0.0102484 -0.1003189
1621810 0.0097934 -0.0980764 0.9902066 0.0980764 0.9902066 0.0980764 0.0097934 -0.0980764
1659587 0.0093586 -0.0958819 0.9906414 0.0958819 0.9906414 0.0958819 0.0093586 -0.0958819
1698244 0.0089430 -0.0937345 0.9910570 0.0937345 0.9910570 0.0937345 0.0089430 -0.0937345
1737801 0.0085457 -0.0916332 0.9914543 0.0916332 0.9914543 0.0916332 0.0085457 -0.0916332
1778279 0.0081660 -0.0895772 0.9918340 0.0895772 0.9918340 0.0895772 0.0081660 -0.0895772
1819701 0.0078032 -0.0875657 0.9921968 0.0875657 0.9921968 0.0875657 0.0078032 -0.0875657
1862087 0.0074564 -0.0855977 0.9925436 0.0855977 0.9925436 0.0855977 0.0074564 -0.0855977
1905461 0.0071251 -0.0836724 0.9928749 0.0836724 0.9928749 0.0836724 0.0071251 -0.0836724
1949845 0.0068084 -0.0817890 0.9931916 0.0817890 0.9931916 0.0817890 0.0068084 -0.0817890
1995262 0.0065058 -0.0799465 0.9934942 0.0799465 0.9934942 0.0799465 0.0065058 -0.0799465
2041738 0.0062167 -0.0781443 0.9937833 0.0781443 0.9937833 0.0781443 0.0062167 -0.0781443
2089296 0.0059404 -0.0763815 0.9940596 0.0763815 0.9940596 0.0763815 0.0059404 -0.0763815
2137962 0.0056764 -0.0746573 0.9943236 0.0746573 0.9943236 0.0746573 0.0056764 -0.0746573
2187762 0.0054242 -0.0729708 0.9945758 0.0729708 0.9945758 0.0729708 0.0054242 -0.0729708
2238721 0.0051832 -0.0713214 0.9948168 0.0713214 0.9948168 0.0713214 0.0051832 -0.0713214
2290868 0.0049530 -0.0697083 0.9950470 0.0697083 0.9950470 0.0697083 0.0049530 -0.0697083
2344229 0.0047330 -0.0681306 0.9952670 0.0681306 0.9952670 0.0681306 0.0047330 -0.0681306
2398833 0.0045228 -0.0665877 0.9954772 0.0665877 0.9954772 0.0665877 0.0045228 -0.0665877
2454709 0.0043221 -0.0650789 0.9956779 0.0650789 0.9956779 0.0650789 0.0043221 -0.0650789
2511886 0.0041303 -0.0636034 0.9958697 0.0636034 0.9958697 0.0636034 0.0041303 -0.0636034
2570396 0.0039470 -0.0621605 0.9960530 0.0621605 0.9960530 0.0621605 0.0039470 -0.0621605
2630268 0.0037720 -0.0607495 0.9962280 0.0607495 0.9962280 0.0607495 0.0037720 -0.0607495
2691535 0.0036048 -0.0593698 0.9963952 0.0593698 0.9963952 0.0593698 0.0036048 -0.0593698
2754229 0.0034451 -0.0580207 0.9965549 0.0580207 0.9965549 0.0580207 0.0034451 -0.0580207
2818383 0.0032925 -0.0567014 0.9967075 0.0567014 0.9967075 0.0567014 0.0032925 -0.0567014
2884032 0.0031467 -0.0554115 0.9968533 0.0554115 0.9968533 0.0554115 0.0031467 -0.0554115
2951209 0.0030075 -0.0541502 0.9969925 0.0541502 0.9969925 0.0541502 0.0030075 -0.0541502
3019952 0.0028746 -0.0529170 0.9971254 0.0529170 0.9971254 0.0529170 0.0028746 -0.0529170
3090295 0.0027476 -0.0517111 0.9972524 0.0517111 0.9972524 0.0517111 0.0027476 -0.0517111
3162278 0.0026263 -0.0505321 0.9973737 0.0505321 0.9973737 0.0505321 0.0026263 -0.0505321
3235937 0.0025104 -0.0493793 0.9974896 0.0493793 0.9974896 0.0493793 0.0025104 -0.0493793
3311311 0.0023998 -0.0482522 0.9976002 0.0482522 0.9976002 0.0482522 0.0023998 -0.0482522
3388442 0.0022941 -0.0471502 0.9977059 0.0471502 0.9977059 0.0471502 0.0022941 -0.0471502
3467369 0.0021931 -0.0460728 0.9978069 0.0460728 0.9978069 0.0460728 0.0021931 -0.0460728
3548134 0.0020967 -0.0450193 0.9979033 0.0450193 0.9979033 0.0450193 0.0020967 -0.0450193
3630781 0.0020047 -0.0439894 0.9979953 0.0439894 0.9979953 0.0439894 0.0020047 -0.0439894
3715352 0.0019168 -0.0429823 0.9980832 0.0429823 0.9980832 0.0429823 0.0019168 -0.0429823
3801894 0.0018328 -0.0419978 0.9981672 0.0419978 0.9981672 0.0419978 0.0018328 -0.0419978
3890451 0.0017527 -0.0410352 0.9982473 0.0410352 0.9982473 0.0410352 0.0017527 -0.0410352
3981072 0.0016761 -0.0400940 0.9983239 0.0400940 0.9983239 0.0400940 0.0016761 -0.0400940
4073803 0.0016030 -0.0391739 0.9983970 0.0391739 0.9983970 0.0391739 0.0016030 -0.0391739
4168694 0.0015332 -0.0382742 0.9984668 0.0382742 0.9984668 0.0382742 0.0015332 -0.0382742
4265795 0.0014666 -0.0373946 0.9985334 0.0373946 0.9985334 0.0373946 0.0014666 -0.0373946
4365158 0.0014030 -0.0365346 0.9985970 0.0365346 0.9985970 0.0365346 0.0014030 -0.0365346
4466836 0.0013423 -0.0356938 0.9986577 0.0356938 0.9986577 0.0356938 0.0013423 -0.0356938
4570882 0.0012843 -0.0348717 0.9987157 0.0348717 0.9987157 0.0348717 0.0012843 -0.0348717
4677351 0.0012289 -0.0340679 0.9987711 0.0340679 0.9987711 0.0340679 0.0012289 -0.0340679
4786301 0.0011761 -0.0332820 0.9988239 0.0332820 0.9988239 0.0332820 0.0011761 -0.0332820
4897788 0.0011256 -0.0325136 0.9988744 0.0325136 0.9988744 0.0325136 0.0011256 -0.0325136
5011872 0.0010775 -0.0317623 0.9989225 0.0317623 0.9989225 0.0317623 0.0010775 -0.0317623
5128614 0.0010315 -0.0310277 0.9989685 0.0310277 0.9989685 0.0310277 0.0010315 -0.0310277
5248075 0.0009877 -0.0303094 0.9990123 0.0303094 0.9990123 0.0303094 0.0009877 -0.0303094
5370318 0.0009458 -0.0296071 0.9990542 0.0296071 0.9990542 0.0296071 0.0009458 -0.0296071
5495409 0.0009059 -0.0289204 0.9990941 0.0289204 0.9990941 0.0289204 0.0009059 -0.0289204
5623413 0.0008678 -0.0282489 0.9991322 0.0282489 0.9991322 0.0282489 0.0008678 -0.0282489
5754399 0.0008314 -0.0275923 0.9991686 0.0275923 0.9991686 0.0275923 0.0008314 -0.0275923
5888437 0.0007968 -0.0269503 0.9992032 0.0269503 0.9992032 0.0269503 0.0007968 -0.0269503
6025596 0.0007637 -0.0263224 0.9992363 0.0263224 0.9992363 0.0263224 0.0007637 -0.0263224
6165950 0.0007321 -0.0257085 0.9992679 0.0257085 0.9992679 0.0257085 0.0007321 -0.0257085
6309573 0.0007020 -0.0251081 0.9992980 0.0251081 0.9992980 0.0251081 0.0007020 -0.0251081
6456542 0.0006733 -0.0245210 0.9993267 0.0245210 0.9993267 0.0245210 0.0006733 -0.0245210
6606934 0.0006460 -0.0239468 0.9993540 0.0239468 0.9993540 0.0239468 0.0006460 -0.0239468
6760830 0.0006199 -0.0233853 0.9993801 0.0233853 0.9993801 0.0233853 0.0006199 -0.0233853
6918310 0.0005950 -0.0228362 0.9994050 0.0228362 0.9994050 0.0228362 0.0005950 -0.0228362
7079458 0.0005714 -0.0222991 0.9994286 0.0222991 0.9994286 0.0222991 0.0005714 -0.0222991
7244360 0.0005488 -0.0217738 0.9994512 0.0217738 0.9994512 0.0217738 0.0005488 -0.0217738
7413102 0.0005273 -0.0212600 0.9994727 0.0212600 0.9994727 0.0212600 0.0005273 -0.0212600
7585776 0.0005068 -0.0207574 0.9994932 0.0207574 0.9994932 0.0207574 0.0005068 -0.0207574
7762471 0.0004873 -0.0202659 0.9995127 0.0202659 0.9995127 0.0202659 0.0004873 -0.0202659
7943282 0.0004688 -0.0197851 0.9995312 0.0197851 0.9995312 0.0197851 0.0004688 -0.0197851
8128305 0.0004511 -0.0193147 0.9995489 0.0193147 0.9995489 0.0193147 0.0004511 -0.0193147
8317638 0.0004343 -0.0188546 0.9995657 0.0188546 0.9995657 0.0188546 0.0004343 -0.0188546
8511380 0.0004183 -0.0184045 0.9995817 0.0184045 0.9995817 0.0184045 0.0004183 -0.0184045
8709636 0.0004031 -0.0179641 0.9995969 0.0179641 0.9995969 0.0179641 0.0004031 -0.0179641
8912509 0.0003886 -0.0175333 0.9996114 0.0175333 0.9996114 0.0175333 0.0003886 -0.0175333
9120108 0.0003749 -0.0171117 0.9996251 0.0171117 0.9996251 0.0171117 0.0003749 -0.0171117
9332543 0.0003619 -0.0166993 0.9996381 0.0166993 0.9996381 0.0166993 0.0003619 -0.0166993
9549926 0.0003495 -0.0162956 0.9996505 0.0162956 0.9996505 0.0162956 0.0003495 -0.0162956
9772372 0.0003378 -0.0159007 0.9996622 0.0159007 0.9996622 0.0159007 0.0003378 -0.0159007
10000000 0.0003266 -0.0155142 0.9996734 0.0155142 0.9996734 0.0155142 0.0003266 -0.0155142
10232930 0.0003161 -0.0151359 0.9996839 0.0151359 0.9996839 0.0151359 0.0003161 -0.0151359
10471285 0.0003061 -0.0147657 0.9996939 0.0147657 0.9996939 0.0147657 0.0003061 -0.0147657
10715193 0.0002966 -0.0144033 0.9997034 0.0144033 0.9997034 0.0144033 0.0002966 -0.0144033
10964782 0.0002876 -0.0140486 0.9997124 0.0140486 0.9997124 0.0140486 0.0002876 -0.0140486
11220185 0.0002791 -0.0137014 0.9997209 0.0137014 0.9997209 0.0137014 0.0002791 -0.0137014
11481536 0.0002711 -0.0133614 0.9997289 0.0133614 0.9997289 0.0133614 0.0002711 -0.0133614
11748976 0.0002636 -0.0130286 0.9997364 0.0130286 0.9997364 0.0130286 0.0002636 -0.0130286
12022644 0.0002565 -0.0127027 0.9997435 0.0127027 0.9997435 0.0127027 0.0002565 -0.0127027
12302688 0.0002497 -0.0123836 0.9997503 0.0123836 0.9997503 0.0123836 0.0002497 -0.0123836
12589254 0.0002434 -0.0120711 0.9997566 0.0120711 0.9997566 0.0120711 0.0002434 -0.0120711
12882496 0.0002375 -0.0117650 0.9997625 0.0117650 0.9997625 0.0117650 0.0002375 -0.0117650
13182567 0.0002319 -0.0114652 0.9997681 0.0114652 0.9997681 0.0114652 0.0002319 -0.0114652
13489629 0.0002267 -0.0111715 0.9997733 0.0111715 0.9997733 0.0111715 0.0002267 -0.0111715
13803843 0.0002218 -0.0108838 0.9997782 0.0108838 0.9997782 0.0108838 0.0002218 -0.0108838
14125375 0.0002172 -0.0106019 0.9997828 0.0106019 0.9997828 0.0106019 0.0002172 -0.0106019
14454398 0.0002129 -0.0103257 0.9997871 0.0103257 0.9997871 0.0103257 0.0002129 -0.0103257
14791084 0.0002089 -0.0100549 0.9997911 0.0100549 0.9997911 0.0100549 0.0002089 -0.0100549
