!Murata Part Number: GRM0335C1H8R5BA01
!These Parameters are Measured in Series Mode Connection
!Data Generated on Mar 30, 2021
!       o--ll--o
!Port1            Port2
!       o------o
!Operation Temp=25[degC], DC Bias Voltage=0[V]
!Freq. Start=100[MHz] Stop=9[GHz] 401[Steps]
# Hz S RI R 50
!Freq.(Hz) S11(Real) S11(Imag) S21(Real) S21(Imag) S12(Real) S12(Imag) S22(Real) S22(Imag)
100000000 0.7775443 -0.4154126 0.2224557 0.4154126 0.2224557 0.4154126 0.7775443 -0.4154126
121000000 0.7046621 -0.4556095 0.2953379 0.4556095 0.2953379 0.4556095 0.7046621 -0.4556095
142000000 0.6338671 -0.4810591 0.3661329 0.4810591 0.3661329 0.4810591 0.6338671 -0.4810591
163000000 0.5676343 -0.4946145 0.4323657 0.4946145 0.4323657 0.4946145 0.5676343 -0.4946145
184000000 0.5072334 -0.4990546 0.4927666 0.4990546 0.4927666 0.4990546 0.5072334 -0.4990546
205000000 0.4530834 -0.4967973 0.5469166 0.4967973 0.5469166 0.4967973 0.4530834 -0.4967973
226000000 0.4050698 -0.4898048 0.5949302 0.4898048 0.5949302 0.4898048 0.4050698 -0.4898048
247000000 0.3627812 -0.4795970 0.6372188 0.4795970 0.6372188 0.4795970 0.3627812 -0.4795970
268000000 0.3256691 -0.4673136 0.6743309 0.4673136 0.6743309 0.4673136 0.3256691 -0.4673136
289000000 0.2931459 -0.4537880 0.7068541 0.4537880 0.7068541 0.4537880 0.2931459 -0.4537880
310000000 0.2646406 -0.4396181 0.7353594 0.4396181 0.7353594 0.4396181 0.2646406 -0.4396181
331000000 0.2396269 -0.4252247 0.7603731 0.4252247 0.7603731 0.4252247 0.2396269 -0.4252247
352000000 0.2176348 -0.4108982 0.7823652 0.4108982 0.7823652 0.4108982 0.2176348 -0.4108982
373000000 0.1982521 -0.3968342 0.8017479 0.3968342 0.8017479 0.3968342 0.1982521 -0.3968342
394000000 0.1811227 -0.3831605 0.8188773 0.3831605 0.8188773 0.3831605 0.1811227 -0.3831605
415000000 0.1659400 -0.3699562 0.8340600 0.3699562 0.8340600 0.3699562 0.1659400 -0.3699562
436000000 0.1524424 -0.3572660 0.8475576 0.3572660 0.8475576 0.3572660 0.1524424 -0.3572660
457000000 0.1404059 -0.3451110 0.8595941 0.3451110 0.8595941 0.3451110 0.1404059 -0.3451110
478000000 0.1296399 -0.3334953 0.8703601 0.3334953 0.8703601 0.3334953 0.1296399 -0.3334953
499000000 0.1199814 -0.3224121 0.8800186 0.3224121 0.8800186 0.3224121 0.1199814 -0.3224121
520000000 0.1112911 -0.3118472 0.8887089 0.3118472 0.8887089 0.3118472 0.1112911 -0.3118472
541000000 0.1034498 -0.3017814 0.8965502 0.3017814 0.8965502 0.3017814 0.1034498 -0.3017814
562000000 0.0963550 -0.2921931 0.9036450 0.2921931 0.9036450 0.2921931 0.0963550 -0.2921931
583000000 0.0899187 -0.2830590 0.9100813 0.2830590 0.9100813 0.2830590 0.0899187 -0.2830590
604000000 0.0840648 -0.2743553 0.9159352 0.2743553 0.9159352 0.2743553 0.0840648 -0.2743553
625000000 0.0787275 -0.2660583 0.9212725 0.2660583 0.9212725 0.2660583 0.0787275 -0.2660583
646000000 0.0738499 -0.2581450 0.9261501 0.2581450 0.9261501 0.2581450 0.0738499 -0.2581450
667000000 0.0693823 -0.2505930 0.9306177 0.2505930 0.9306177 0.2505930 0.0693823 -0.2505930
688000000 0.0652814 -0.2433812 0.9347186 0.2433812 0.9347186 0.2433812 0.0652814 -0.2433812
709000000 0.0615092 -0.2364892 0.9384908 0.2364892 0.9384908 0.2364892 0.0615092 -0.2364892
730000000 0.0580327 -0.2298980 0.9419673 0.2298980 0.9419673 0.2298980 0.0580327 -0.2298980
751000000 0.0548224 -0.2235898 0.9451776 0.2235898 0.9451776 0.2235898 0.0548224 -0.2235898
772000000 0.0518527 -0.2175476 0.9481473 0.2175476 0.9481473 0.2175476 0.0518527 -0.2175476
793000000 0.0491008 -0.2117558 0.9508992 0.2117558 0.9508992 0.2117558 0.0491008 -0.2117558
814000000 0.0465464 -0.2061996 0.9534536 0.2061996 0.9534536 0.2061996 0.0465464 -0.2061996
835000000 0.0441716 -0.2008652 0.9558284 0.2008652 0.9558284 0.2008652 0.0441716 -0.2008652
856000000 0.0419603 -0.1957400 0.9580397 0.1957400 0.9580397 0.1957400 0.0419603 -0.1957400
877000000 0.0398984 -0.1908118 0.9601016 0.1908118 0.9601016 0.1908118 0.0398984 -0.1908118
898000000 0.0379730 -0.1860696 0.9620270 0.1860696 0.9620270 0.1860696 0.0379730 -0.1860696
919000000 0.0361727 -0.1815030 0.9638273 0.1815030 0.9638273 0.1815030 0.0361727 -0.1815030
940000000 0.0344872 -0.1771022 0.9655128 0.1771022 0.9655128 0.1771022 0.0344872 -0.1771022
961000000 0.0329072 -0.1728582 0.9670928 0.1728582 0.9670928 0.1728582 0.0329072 -0.1728582
982000000 0.0314244 -0.1687625 0.9685756 0.1687625 0.9685756 0.1687625 0.0314244 -0.1687625
1003000000 0.0300312 -0.1648073 0.9699688 0.1648073 0.9699688 0.1648073 0.0300312 -0.1648073
1024000000 0.0287208 -0.1609851 0.9712792 0.1609851 0.9712792 0.1609851 0.0287208 -0.1609851
1045000000 0.0274870 -0.1572890 0.9725130 0.1572890 0.9725130 0.1572890 0.0274870 -0.1572890
1066000000 0.0263240 -0.1537127 0.9736760 0.1537127 0.9736760 0.1537127 0.0263240 -0.1537127
1087000000 0.0252269 -0.1502500 0.9747731 0.1502500 0.9747731 0.1502500 0.0252269 -0.1502500
1108000000 0.0241910 -0.1468953 0.9758090 0.1468953 0.9758090 0.1468953 0.0241910 -0.1468953
1129000000 0.0232118 -0.1436433 0.9767882 0.1436433 0.9767882 0.1436433 0.0232118 -0.1436433
1150000000 0.0222857 -0.1404889 0.9777143 0.1404889 0.9777143 0.1404889 0.0222857 -0.1404889
1171000000 0.0214089 -0.1374276 0.9785911 0.1374276 0.9785911 0.1374276 0.0214089 -0.1374276
1192000000 0.0205782 -0.1344549 0.9794218 0.1344549 0.9794218 0.1344549 0.0205782 -0.1344549
1213000000 0.0197905 -0.1315667 0.9802095 0.1315667 0.9802095 0.1315667 0.0197905 -0.1315667
1234000000 0.0190432 -0.1287591 0.9809568 0.1287591 0.9809568 0.1287591 0.0190432 -0.1287591
1255000000 0.0183337 -0.1260285 0.9816663 0.1260285 0.9816663 0.1260285 0.0183337 -0.1260285
1276000000 0.0176596 -0.1233714 0.9823404 0.1233714 0.9823404 0.1233714 0.0176596 -0.1233714
1297000000 0.0170187 -0.1207845 0.9829813 0.1207845 0.9829813 0.1207845 0.0170187 -0.1207845
1318000000 0.0164090 -0.1182648 0.9835910 0.1182648 0.9835910 0.1182648 0.0164090 -0.1182648
1339000000 0.0158288 -0.1158094 0.9841712 0.1158094 0.9841712 0.1158094 0.0158288 -0.1158094
1360000000 0.0152761 -0.1134156 0.9847239 0.1134156 0.9847239 0.1134156 0.0152761 -0.1134156
1381000000 0.0147496 -0.1110807 0.9852504 0.1110807 0.9852504 0.1110807 0.0147496 -0.1110807
1402000000 0.0142476 -0.1088024 0.9857524 0.1088024 0.9857524 0.1088024 0.0142476 -0.1088024
1423000000 0.0137688 -0.1065782 0.9862312 0.1065782 0.9862312 0.1065782 0.0137688 -0.1065782
1444000000 0.0133120 -0.1044061 0.9866880 0.1044061 0.9866880 0.1044061 0.0133120 -0.1044061
1465000000 0.0128759 -0.1022840 0.9871241 0.1022840 0.9871241 0.1022840 0.0128759 -0.1022840
1486000000 0.0124594 -0.1002098 0.9875406 0.1002098 0.9875406 0.1002098 0.0124594 -0.1002098
1507000000 0.0120615 -0.0981817 0.9879385 0.0981817 0.9879385 0.0981817 0.0120615 -0.0981817
1528000000 0.0116812 -0.0961980 0.9883188 0.0961980 0.9883188 0.0961980 0.0116812 -0.0961980
1549000000 0.0113176 -0.0942569 0.9886824 0.0942569 0.9886824 0.0942569 0.0113176 -0.0942569
1570000000 0.0109699 -0.0923568 0.9890301 0.0923568 0.9890301 0.0923568 0.0109699 -0.0923568
1591000000 0.0106372 -0.0904962 0.9893628 0.0904962 0.9893628 0.0904962 0.0106372 -0.0904962
1612000000 0.0103189 -0.0886737 0.9896811 0.0886737 0.9896811 0.0886737 0.0103189 -0.0886737
1633000000 0.0100142 -0.0868879 0.9899858 0.0868879 0.9899858 0.0868879 0.0100142 -0.0868879
1654000000 0.0097225 -0.0851375 0.9902775 0.0851375 0.9902775 0.0851375 0.0097225 -0.0851375
1675000000 0.0094431 -0.0834211 0.9905569 0.0834211 0.9905569 0.0834211 0.0094431 -0.0834211
1696000000 0.0091755 -0.0817377 0.9908245 0.0817377 0.9908245 0.0817377 0.0091755 -0.0817377
1717000000 0.0089191 -0.0800860 0.9910809 0.0800860 0.9910809 0.0800860 0.0089191 -0.0800860
1738000000 0.0086735 -0.0784650 0.9913265 0.0784650 0.9913265 0.0784650 0.0086735 -0.0784650
1759000000 0.0084381 -0.0768737 0.9915619 0.0768737 0.9915619 0.0768737 0.0084381 -0.0768737
1780000000 0.0082125 -0.0753110 0.9917875 0.0753110 0.9917875 0.0753110 0.0082125 -0.0753110
1801000000 0.0079962 -0.0737760 0.9920038 0.0737760 0.9920038 0.0737760 0.0079962 -0.0737760
1822000000 0.0077889 -0.0722677 0.9922111 0.0722677 0.9922111 0.0722677 0.0077889 -0.0722677
1843000000 0.0075902 -0.0707854 0.9924098 0.0707854 0.9924098 0.0707854 0.0075902 -0.0707854
1864000000 0.0073997 -0.0693282 0.9926003 0.0693282 0.9926003 0.0693282 0.0073997 -0.0693282
1885000000 0.0072170 -0.0678952 0.9927830 0.0678952 0.9927830 0.0678952 0.0072170 -0.0678952
1906000000 0.0070419 -0.0664858 0.9929581 0.0664858 0.9929581 0.0664858 0.0070419 -0.0664858
1927000000 0.0068740 -0.0650991 0.9931260 0.0650991 0.9931260 0.0650991 0.0068740 -0.0650991
1948000000 0.0067130 -0.0637345 0.9932870 0.0637345 0.9932870 0.0637345 0.0067130 -0.0637345
1969000000 0.0065587 -0.0623913 0.9934413 0.0623913 0.9934413 0.0623913 0.0065587 -0.0623913
1990000000 0.0064108 -0.0610689 0.9935892 0.0610689 0.9935892 0.0610689 0.0064108 -0.0610689
2011000000 0.0062691 -0.0597666 0.9937309 0.0597666 0.9937309 0.0597666 0.0062691 -0.0597666
2032000000 0.0061333 -0.0584839 0.9938667 0.0584839 0.9938667 0.0584839 0.0061333 -0.0584839
2053000000 0.0060032 -0.0572201 0.9939968 0.0572201 0.9939968 0.0572201 0.0060032 -0.0572201
2074000000 0.0058786 -0.0559747 0.9941214 0.0559747 0.9941214 0.0559747 0.0058786 -0.0559747
2095000000 0.0057592 -0.0547472 0.9942408 0.0547472 0.9942408 0.0547472 0.0057592 -0.0547472
2116000000 0.0056449 -0.0535371 0.9943551 0.0535371 0.9943551 0.0535371 0.0056449 -0.0535371
2137000000 0.0055356 -0.0523439 0.9944644 0.0523439 0.9944644 0.0523439 0.0055356 -0.0523439
2158000000 0.0054309 -0.0511670 0.9945691 0.0511670 0.9945691 0.0511670 0.0054309 -0.0511670
2179000000 0.0053309 -0.0500062 0.9946691 0.0500062 0.9946691 0.0500062 0.0053309 -0.0500062
2200000000 0.0052352 -0.0488608 0.9947648 0.0488608 0.9947648 0.0488608 0.0052352 -0.0488608
2221000000 0.0051438 -0.0477306 0.9948562 0.0477306 0.9948562 0.0477306 0.0051438 -0.0477306
2242000000 0.0050565 -0.0466150 0.9949435 0.0466150 0.9949435 0.0466150 0.0050565 -0.0466150
2263000000 0.0049731 -0.0455138 0.9950269 0.0455138 0.9950269 0.0455138 0.0049731 -0.0455138
2284000000 0.0048936 -0.0444264 0.9951064 0.0444264 0.9951064 0.0444264 0.0048936 -0.0444264
2305000000 0.0048178 -0.0433526 0.9951822 0.0433526 0.9951822 0.0433526 0.0048178 -0.0433526
2326000000 0.0047456 -0.0422920 0.9952544 0.0422920 0.9952544 0.0422920 0.0047456 -0.0422920
2347000000 0.0046768 -0.0412443 0.9953232 0.0412443 0.9953232 0.0412443 0.0046768 -0.0412443
2368000000 0.0046114 -0.0402091 0.9953886 0.0402091 0.9953886 0.0402091 0.0046114 -0.0402091
2389000000 0.0045493 -0.0391861 0.9954507 0.0391861 0.9954507 0.0391861 0.0045493 -0.0391861
2410000000 0.0044903 -0.0381751 0.9955097 0.0381751 0.9955097 0.0381751 0.0044903 -0.0381751
2431000000 0.0044344 -0.0371756 0.9955656 0.0371756 0.9955656 0.0371756 0.0044344 -0.0371756
2452000000 0.0043815 -0.0361875 0.9956185 0.0361875 0.9956185 0.0361875 0.0043815 -0.0361875
2473000000 0.0043314 -0.0352104 0.9956686 0.0352104 0.9956686 0.0352104 0.0043314 -0.0352104
2494000000 0.0042841 -0.0342441 0.9957159 0.0342441 0.9957159 0.0342441 0.0042841 -0.0342441
2515000000 0.0042395 -0.0332883 0.9957605 0.0332883 0.9957605 0.0332883 0.0042395 -0.0332883
2536000000 0.0041975 -0.0323428 0.9958025 0.0323428 0.9958025 0.0323428 0.0041975 -0.0323428
2557000000 0.0041581 -0.0314073 0.9958419 0.0314073 0.9958419 0.0314073 0.0041581 -0.0314073
2578000000 0.0041212 -0.0304816 0.9958788 0.0304816 0.9958788 0.0304816 0.0041212 -0.0304816
2599000000 0.0040867 -0.0295655 0.9959133 0.0295655 0.9959133 0.0295655 0.0040867 -0.0295655
2620000000 0.0040545 -0.0286587 0.9959455 0.0286587 0.9959455 0.0286587 0.0040545 -0.0286587
2641000000 0.0040246 -0.0277610 0.9959754 0.0277610 0.9959754 0.0277610 0.0040246 -0.0277610
2662000000 0.0039969 -0.0268723 0.9960031 0.0268723 0.9960031 0.0268723 0.0039969 -0.0268723
2683000000 0.0039714 -0.0259923 0.9960286 0.0259923 0.9960286 0.0259923 0.0039714 -0.0259923
2704000000 0.0039479 -0.0251208 0.9960521 0.0251208 0.9960521 0.0251208 0.0039479 -0.0251208
2725000000 0.0039265 -0.0242577 0.9960735 0.0242577 0.9960735 0.0242577 0.0039265 -0.0242577
2746000000 0.0039071 -0.0234027 0.9960929 0.0234027 0.9960929 0.0234027 0.0039071 -0.0234027
2767000000 0.0038897 -0.0225557 0.9961103 0.0225557 0.9961103 0.0225557 0.0038897 -0.0225557
2788000000 0.0038741 -0.0217165 0.9961259 0.0217165 0.9961259 0.0217165 0.0038741 -0.0217165
2809000000 0.0038604 -0.0208849 0.9961396 0.0208849 0.9961396 0.0208849 0.0038604 -0.0208849
2830000000 0.0038484 -0.0200608 0.9961516 0.0200608 0.9961516 0.0200608 0.0038484 -0.0200608
2851000000 0.0038382 -0.0192440 0.9961618 0.0192440 0.9961618 0.0192440 0.0038382 -0.0192440
2872000000 0.0038297 -0.0184344 0.9961703 0.0184344 0.9961703 0.0184344 0.0038297 -0.0184344
2893000000 0.0038229 -0.0176317 0.9961771 0.0176317 0.9961771 0.0176317 0.0038229 -0.0176317
2914000000 0.0038177 -0.0168360 0.9961823 0.0168360 0.9961823 0.0168360 0.0038177 -0.0168360
2935000000 0.0038141 -0.0160470 0.9961859 0.0160470 0.9961859 0.0160470 0.0038141 -0.0160470
2956000000 0.0038120 -0.0152645 0.9961880 0.0152645 0.9961880 0.0152645 0.0038120 -0.0152645
2977000000 0.0038115 -0.0144885 0.9961885 0.0144885 0.9961885 0.0144885 0.0038115 -0.0144885
2998000000 0.0038124 -0.0137189 0.9961876 0.0137189 0.9961876 0.0137189 0.0038124 -0.0137189
3019000000 0.0038148 -0.0129554 0.9961852 0.0129554 0.9961852 0.0129554 0.0038148 -0.0129554
3040000000 0.0038185 -0.0121980 0.9961815 0.0121980 0.9961815 0.0121980 0.0038185 -0.0121980
3061000000 0.0038237 -0.0114466 0.9961763 0.0114466 0.9961763 0.0114466 0.0038237 -0.0114466
3082000000 0.0038302 -0.0107010 0.9961698 0.0107010 0.9961698 0.0107010 0.0038302 -0.0107010
3103000000 0.0038381 -0.0099611 0.9961619 0.0099611 0.9961619 0.0099611 0.0038381 -0.0099611
3124000000 0.0038472 -0.0092269 0.9961528 0.0092269 0.9961528 0.0092269 0.0038472 -0.0092269
3145000000 0.0038576 -0.0084981 0.9961424 0.0084981 0.9961424 0.0084981 0.0038576 -0.0084981
3166000000 0.0038692 -0.0077748 0.9961308 0.0077748 0.9961308 0.0077748 0.0038692 -0.0077748
3187000000 0.0038821 -0.0070567 0.9961179 0.0070567 0.9961179 0.0070567 0.0038821 -0.0070567
3208000000 0.0038961 -0.0063439 0.9961039 0.0063439 0.9961039 0.0063439 0.0038961 -0.0063439
3229000000 0.0039113 -0.0056361 0.9960887 0.0056361 0.9960887 0.0056361 0.0039113 -0.0056361
3250000000 0.0039276 -0.0049334 0.9960724 0.0049334 0.9960724 0.0049334 0.0039276 -0.0049334
3271000000 0.0039450 -0.0042356 0.9960550 0.0042356 0.9960550 0.0042356 0.0039450 -0.0042356
3292000000 0.0039636 -0.0035426 0.9960364 0.0035426 0.9960364 0.0035426 0.0039636 -0.0035426
3313000000 0.0039832 -0.0028543 0.9960168 0.0028543 0.9960168 0.0028543 0.0039832 -0.0028543
3334000000 0.0040039 -0.0021707 0.9959961 0.0021707 0.9959961 0.0021707 0.0040039 -0.0021707
3355000000 0.0040256 -0.0014917 0.9959744 0.0014917 0.9959744 0.0014917 0.0040256 -0.0014917
3376000000 0.0040483 -0.0008172 0.9959517 0.0008172 0.9959517 0.0008172 0.0040483 -0.0008172
3397000000 0.0040720 -0.0001471 0.9959280 0.0001471 0.9959280 0.0001471 0.0040720 -0.0001471
3418000000 0.0040966 0.0005187 0.9959034 -0.0005187 0.9959034 -0.0005187 0.0040966 0.0005187
3439000000 0.0041223 0.0011803 0.9958777 -0.0011803 0.9958777 -0.0011803 0.0041223 0.0011803
3460000000 0.0041489 0.0018376 0.9958511 -0.0018376 0.9958511 -0.0018376 0.0041489 0.0018376
3481000000 0.0041763 0.0024909 0.9958237 -0.0024909 0.9958237 -0.0024909 0.0041763 0.0024909
3502000000 0.0042047 0.0031401 0.9957953 -0.0031401 0.9957953 -0.0031401 0.0042047 0.0031401
3523000000 0.0042340 0.0037853 0.9957660 -0.0037853 0.9957660 -0.0037853 0.0042340 0.0037853
3544000000 0.0042642 0.0044266 0.9957358 -0.0044266 0.9957358 -0.0044266 0.0042642 0.0044266
3565000000 0.0042952 0.0050641 0.9957048 -0.0050641 0.9957048 -0.0050641 0.0042952 0.0050641
3586000000 0.0043271 0.0056978 0.9956729 -0.0056978 0.9956729 -0.0056978 0.0043271 0.0056978
3607000000 0.0043598 0.0063278 0.9956402 -0.0063278 0.9956402 -0.0063278 0.0043598 0.0063278
3628000000 0.0043933 0.0069542 0.9956067 -0.0069542 0.9956067 -0.0069542 0.0043933 0.0069542
3649000000 0.0044276 0.0075769 0.9955724 -0.0075769 0.9955724 -0.0075769 0.0044276 0.0075769
3670000000 0.0044627 0.0081962 0.9955373 -0.0081962 0.9955373 -0.0081962 0.0044627 0.0081962
3691000000 0.0044986 0.0088119 0.9955014 -0.0088119 0.9955014 -0.0088119 0.0044986 0.0088119
3712000000 0.0045353 0.0094243 0.9954647 -0.0094243 0.9954647 -0.0094243 0.0045353 0.0094243
3733000000 0.0045727 0.0100333 0.9954273 -0.0100333 0.9954273 -0.0100333 0.0045727 0.0100333
3754000000 0.0046108 0.0106389 0.9953892 -0.0106389 0.9953892 -0.0106389 0.0046108 0.0106389
3775000000 0.0046497 0.0112414 0.9953503 -0.0112414 0.9953503 -0.0112414 0.0046497 0.0112414
3796000000 0.0046893 0.0118406 0.9953107 -0.0118406 0.9953107 -0.0118406 0.0046893 0.0118406
3817000000 0.0047296 0.0124366 0.9952704 -0.0124366 0.9952704 -0.0124366 0.0047296 0.0124366
3838000000 0.0047706 0.0130296 0.9952294 -0.0130296 0.9952294 -0.0130296 0.0047706 0.0130296
3859000000 0.0048123 0.0136195 0.9951877 -0.0136195 0.9951877 -0.0136195 0.0048123 0.0136195
3880000000 0.0048546 0.0142064 0.9951454 -0.0142064 0.9951454 -0.0142064 0.0048546 0.0142064
3901000000 0.0048976 0.0147903 0.9951024 -0.0147903 0.9951024 -0.0147903 0.0048976 0.0147903
3922000000 0.0049413 0.0153714 0.9950587 -0.0153714 0.9950587 -0.0153714 0.0049413 0.0153714
3943000000 0.0049857 0.0159495 0.9950143 -0.0159495 0.9950143 -0.0159495 0.0049857 0.0159495
3964000000 0.0050306 0.0165248 0.9949694 -0.0165248 0.9949694 -0.0165248 0.0050306 0.0165248
3985000000 0.0050763 0.0170974 0.9949237 -0.0170974 0.9949237 -0.0170974 0.0050763 0.0170974
4006000000 0.0051225 0.0176672 0.9948775 -0.0176672 0.9948775 -0.0176672 0.0051225 0.0176672
4027000000 0.0051693 0.0182342 0.9948307 -0.0182342 0.9948307 -0.0182342 0.0051693 0.0182342
4048000000 0.0052168 0.0187987 0.9947832 -0.0187987 0.9947832 -0.0187987 0.0052168 0.0187987
4069000000 0.0052648 0.0193605 0.9947352 -0.0193605 0.9947352 -0.0193605 0.0052648 0.0193605
4090000000 0.0053135 0.0199197 0.9946865 -0.0199197 0.9946865 -0.0199197 0.0053135 0.0199197
4111000000 0.0053627 0.0204764 0.9946373 -0.0204764 0.9946373 -0.0204764 0.0053627 0.0204764
4132000000 0.0054125 0.0210306 0.9945875 -0.0210306 0.9945875 -0.0210306 0.0054125 0.0210306
4153000000 0.0054629 0.0215823 0.9945371 -0.0215823 0.9945371 -0.0215823 0.0054629 0.0215823
4174000000 0.0055138 0.0221315 0.9944862 -0.0221315 0.9944862 -0.0221315 0.0055138 0.0221315
4195000000 0.0055653 0.0226784 0.9944347 -0.0226784 0.9944347 -0.0226784 0.0055653 0.0226784
4216000000 0.0056173 0.0232229 0.9943827 -0.0232229 0.9943827 -0.0232229 0.0056173 0.0232229
4237000000 0.0056699 0.0237651 0.9943301 -0.0237651 0.9943301 -0.0237651 0.0056699 0.0237651
4258000000 0.0057231 0.0243049 0.9942769 -0.0243049 0.9942769 -0.0243049 0.0057231 0.0243049
4279000000 0.0057767 0.0248425 0.9942233 -0.0248425 0.9942233 -0.0248425 0.0057767 0.0248425
4300000000 0.0058309 0.0253779 0.9941691 -0.0253779 0.9941691 -0.0253779 0.0058309 0.0253779
4321000000 0.0058856 0.0259111 0.9941144 -0.0259111 0.9941144 -0.0259111 0.0058856 0.0259111
4342000000 0.0059408 0.0264421 0.9940592 -0.0264421 0.9940592 -0.0264421 0.0059408 0.0264421
4363000000 0.0059965 0.0269709 0.9940035 -0.0269709 0.9940035 -0.0269709 0.0059965 0.0269709
4384000000 0.0060527 0.0274977 0.9939473 -0.0274977 0.9939473 -0.0274977 0.0060527 0.0274977
4405000000 0.0061095 0.0280223 0.9938905 -0.0280223 0.9938905 -0.0280223 0.0061095 0.0280223
4426000000 0.0061667 0.0285449 0.9938333 -0.0285449 0.9938333 -0.0285449 0.0061667 0.0285449
4447000000 0.0062244 0.0290655 0.9937756 -0.0290655 0.9937756 -0.0290655 0.0062244 0.0290655
4468000000 0.0062826 0.0295841 0.9937174 -0.0295841 0.9937174 -0.0295841 0.0062826 0.0295841
4489000000 0.0063412 0.0301007 0.9936588 -0.0301007 0.9936588 -0.0301007 0.0063412 0.0301007
4510000000 0.0064004 0.0306154 0.9935996 -0.0306154 0.9935996 -0.0306154 0.0064004 0.0306154
