!Murata Part Number: GRM0335C1H270GA01
!These Parameters are Measured in Series Mode Connection
!Data Generated on Mar 30, 2021
!       o--ll--o
!Port1            Port2
!       o------o
!Operation Temp=25[degC], DC Bias Voltage=0[V]
!Freq. Start=100[MHz] Stop=9[GHz] 401[Steps]
# Hz S RI R 50
!Freq.(Hz) S11(Real) S11(Imag) S21(Real) S21(Imag) S12(Real) S12(Imag) S22(Real) S22(Imag)
100000000 0.2573895 -0.4359278 0.7426105 0.4359278 0.7426105 0.4359278 0.2573895 -0.4359278
121000000 0.1913477 -0.3918250 0.8086523 0.3918250 0.8086523 0.3918250 0.1913477 -0.3918250
142000000 0.1465549 -0.3518536 0.8534451 0.3518536 0.8534451 0.3518536 0.1465549 -0.3518536
163000000 0.1152370 -0.3172267 0.8847630 0.3172267 0.8847630 0.3172267 0.1152370 -0.3172267
184000000 0.0926779 -0.2876243 0.9073221 0.2876243 0.9073221 0.2876243 0.0926779 -0.2876243
205000000 0.0759816 -0.2623346 0.9240184 0.2623346 0.9240184 0.2623346 0.0759816 -0.2623346
226000000 0.0633244 -0.2406307 0.9366756 0.2406307 0.9366756 0.2406307 0.0633244 -0.2406307
247000000 0.0535253 -0.2218799 0.9464747 0.2218799 0.9464747 0.2218799 0.0535253 -0.2218799
268000000 0.0457979 -0.2055607 0.9542021 0.2055607 0.9542021 0.2055607 0.0457979 -0.2055607
289000000 0.0396051 -0.1912525 0.9603949 0.1912525 0.9603949 0.1912525 0.0396051 -0.1912525
310000000 0.0345709 -0.1786183 0.9654291 0.1786183 0.9654291 0.1786183 0.0345709 -0.1786183
331000000 0.0304268 -0.1673871 0.9695732 0.1673871 0.9695732 0.1673871 0.0304268 -0.1673871
352000000 0.0269770 -0.1573406 0.9730230 0.1573406 0.9730230 0.1573406 0.0269770 -0.1573406
373000000 0.0240764 -0.1483016 0.9759236 0.1483016 0.9759236 0.1483016 0.0240764 -0.1483016
394000000 0.0216155 -0.1401255 0.9783845 0.1401255 0.9783845 0.1401255 0.0216155 -0.1401255
415000000 0.0195108 -0.1326931 0.9804892 0.1326931 0.9804892 0.1326931 0.0195108 -0.1326931
436000000 0.0176976 -0.1259056 0.9823024 0.1259056 0.9823024 0.1259056 0.0176976 -0.1259056
457000000 0.0161252 -0.1196808 0.9838748 0.1196808 0.9838748 0.1196808 0.0161252 -0.1196808
478000000 0.0147532 -0.1139494 0.9852468 0.1139494 0.9852468 0.1139494 0.0147532 -0.1139494
499000000 0.0135497 -0.1086530 0.9864503 0.1086530 0.9864503 0.1086530 0.0135497 -0.1086530
520000000 0.0124886 -0.1037418 0.9875114 0.1037418 0.9875114 0.1037418 0.0124886 -0.1037418
541000000 0.0115487 -0.0991732 0.9884513 0.0991732 0.9884513 0.0991732 0.0115487 -0.0991732
562000000 0.0107127 -0.0949107 0.9892873 0.0949107 0.9892873 0.0949107 0.0107127 -0.0949107
583000000 0.0099662 -0.0909227 0.9900338 0.0909227 0.9900338 0.0909227 0.0099662 -0.0909227
604000000 0.0092973 -0.0871816 0.9907027 0.0871816 0.9907027 0.0871816 0.0092973 -0.0871816
625000000 0.0086959 -0.0836636 0.9913041 0.0836636 0.9913041 0.0836636 0.0086959 -0.0836636
646000000 0.0081536 -0.0803477 0.9918464 0.0803477 0.9918464 0.0803477 0.0081536 -0.0803477
667000000 0.0076632 -0.0772154 0.9923368 0.0772154 0.9923368 0.0772154 0.0076632 -0.0772154
688000000 0.0072186 -0.0742505 0.9927814 0.0742505 0.9927814 0.0742505 0.0072186 -0.0742505
709000000 0.0068146 -0.0714385 0.9931854 0.0714385 0.9931854 0.0714385 0.0068146 -0.0714385
730000000 0.0064467 -0.0687665 0.9935533 0.0687665 0.9935533 0.0687665 0.0064467 -0.0687665
751000000 0.0061109 -0.0662232 0.9938891 0.0662232 0.9938891 0.0662232 0.0061109 -0.0662232
772000000 0.0058041 -0.0637984 0.9941959 0.0637984 0.9941959 0.0637984 0.0058041 -0.0637984
793000000 0.0055230 -0.0614827 0.9944770 0.0614827 0.9944770 0.0614827 0.0055230 -0.0614827
814000000 0.0052654 -0.0592680 0.9947346 0.0592680 0.9947346 0.0592680 0.0052654 -0.0592680
835000000 0.0050287 -0.0571469 0.9949713 0.0571469 0.9949713 0.0571469 0.0050287 -0.0571469
856000000 0.0048112 -0.0551125 0.9951888 0.0551125 0.9951888 0.0551125 0.0048112 -0.0551125
877000000 0.0046110 -0.0531587 0.9953890 0.0531587 0.9953890 0.0531587 0.0046110 -0.0531587
898000000 0.0044267 -0.0512801 0.9955733 0.0512801 0.9955733 0.0512801 0.0044267 -0.0512801
919000000 0.0042567 -0.0494715 0.9957433 0.0494715 0.9957433 0.0494715 0.0042567 -0.0494715
940000000 0.0040999 -0.0477283 0.9959001 0.0477283 0.9959001 0.0477283 0.0040999 -0.0477283
961000000 0.0039552 -0.0460463 0.9960448 0.0460463 0.9960448 0.0460463 0.0039552 -0.0460463
982000000 0.0038216 -0.0444217 0.9961784 0.0444217 0.9961784 0.0444217 0.0038216 -0.0444217
1003000000 0.0036982 -0.0428509 0.9963018 0.0428509 0.9963018 0.0428509 0.0036982 -0.0428509
1024000000 0.0035843 -0.0413306 0.9964157 0.0413306 0.9964157 0.0413306 0.0035843 -0.0413306
1045000000 0.0034791 -0.0398579 0.9965209 0.0398579 0.9965209 0.0398579 0.0034791 -0.0398579
1066000000 0.0033820 -0.0384299 0.9966180 0.0384299 0.9966180 0.0384299 0.0033820 -0.0384299
1087000000 0.0032924 -0.0370441 0.9967076 0.0370441 0.9967076 0.0370441 0.0032924 -0.0370441
1108000000 0.0032097 -0.0356981 0.9967903 0.0356981 0.9967903 0.0356981 0.0032097 -0.0356981
1129000000 0.0031335 -0.0343898 0.9968665 0.0343898 0.9968665 0.0343898 0.0031335 -0.0343898
1150000000 0.0030634 -0.0331170 0.9969366 0.0331170 0.9969366 0.0331170 0.0030634 -0.0331170
1171000000 0.0029989 -0.0318780 0.9970011 0.0318780 0.9970011 0.0318780 0.0029989 -0.0318780
1192000000 0.0029397 -0.0306709 0.9970603 0.0306709 0.9970603 0.0306709 0.0029397 -0.0306709
1213000000 0.0028855 -0.0294940 0.9971145 0.0294940 0.9971145 0.0294940 0.0028855 -0.0294940
1234000000 0.0028359 -0.0283460 0.9971641 0.0283460 0.9971641 0.0283460 0.0028359 -0.0283460
1255000000 0.0027906 -0.0272252 0.9972094 0.0272252 0.9972094 0.0272252 0.0027906 -0.0272252
1276000000 0.0027495 -0.0261305 0.9972505 0.0261305 0.9972505 0.0261305 0.0027495 -0.0261305
1297000000 0.0027122 -0.0250605 0.9972878 0.0250605 0.9972878 0.0250605 0.0027122 -0.0250605
1318000000 0.0026786 -0.0240140 0.9973214 0.0240140 0.9973214 0.0240140 0.0026786 -0.0240140
1339000000 0.0026484 -0.0229901 0.9973516 0.0229901 0.9973516 0.0229901 0.0026484 -0.0229901
1360000000 0.0026214 -0.0219875 0.9973786 0.0219875 0.9973786 0.0219875 0.0026214 -0.0219875
1381000000 0.0025976 -0.0210054 0.9974024 0.0210054 0.9974024 0.0210054 0.0025976 -0.0210054
1402000000 0.0025767 -0.0200428 0.9974233 0.0200428 0.9974233 0.0200428 0.0025767 -0.0200428
1423000000 0.0025585 -0.0190989 0.9974415 0.0190989 0.9974415 0.0190989 0.0025585 -0.0190989
1444000000 0.0025430 -0.0181729 0.9974570 0.0181729 0.9974570 0.0181729 0.0025430 -0.0181729
1465000000 0.0025300 -0.0172640 0.9974700 0.0172640 0.9974700 0.0172640 0.0025300 -0.0172640
1486000000 0.0025194 -0.0163714 0.9974806 0.0163714 0.9974806 0.0163714 0.0025194 -0.0163714
1507000000 0.0025110 -0.0154945 0.9974890 0.0154945 0.9974890 0.0154945 0.0025110 -0.0154945
1528000000 0.0025049 -0.0146327 0.9974951 0.0146327 0.9974951 0.0146327 0.0025049 -0.0146327
1549000000 0.0025008 -0.0137853 0.9974992 0.0137853 0.9974992 0.0137853 0.0025008 -0.0137853
1570000000 0.0024987 -0.0129518 0.9975013 0.0129518 0.9975013 0.0129518 0.0024987 -0.0129518
1591000000 0.0024985 -0.0121315 0.9975015 0.0121315 0.9975015 0.0121315 0.0024985 -0.0121315
1612000000 0.0025001 -0.0113241 0.9974999 0.0113241 0.9974999 0.0113241 0.0025001 -0.0113241
1633000000 0.0025035 -0.0105289 0.9974965 0.0105289 0.9974965 0.0105289 0.0025035 -0.0105289
1654000000 0.0025086 -0.0097455 0.9974914 0.0097455 0.9974914 0.0097455 0.0025086 -0.0097455
1675000000 0.0025152 -0.0089735 0.9974848 0.0089735 0.9974848 0.0089735 0.0025152 -0.0089735
1696000000 0.0025235 -0.0082124 0.9974765 0.0082124 0.9974765 0.0082124 0.0025235 -0.0082124
1717000000 0.0025332 -0.0074619 0.9974668 0.0074619 0.9974668 0.0074619 0.0025332 -0.0074619
1738000000 0.0025444 -0.0067215 0.9974556 0.0067215 0.9974556 0.0067215 0.0025444 -0.0067215
1759000000 0.0025569 -0.0059909 0.9974431 0.0059909 0.9974431 0.0059909 0.0025569 -0.0059909
1780000000 0.0025708 -0.0052697 0.9974292 0.0052697 0.9974292 0.0052697 0.0025708 -0.0052697
1801000000 0.0025861 -0.0045577 0.9974139 0.0045577 0.9974139 0.0045577 0.0025861 -0.0045577
1822000000 0.0026025 -0.0038544 0.9973975 0.0038544 0.9973975 0.0038544 0.0026025 -0.0038544
1843000000 0.0026202 -0.0031595 0.9973798 0.0031595 0.9973798 0.0031595 0.0026202 -0.0031595
1864000000 0.0026391 -0.0024729 0.9973609 0.0024729 0.9973609 0.0024729 0.0026391 -0.0024729
1885000000 0.0026592 -0.0017941 0.9973408 0.0017941 0.9973408 0.0017941 0.0026592 -0.0017941
1906000000 0.0026803 -0.0011230 0.9973197 0.0011230 0.9973197 0.0011230 0.0026803 -0.0011230
1927000000 0.0027026 -0.0004592 0.9972974 0.0004592 0.9972974 0.0004592 0.0027026 -0.0004592
1948000000 0.0027259 0.0001974 0.9972741 -0.0001974 0.9972741 -0.0001974 0.0027259 0.0001974
1969000000 0.0027502 0.0008471 0.9972498 -0.0008471 0.9972498 -0.0008471 0.0027502 0.0008471
1990000000 0.0027755 0.0014902 0.9972245 -0.0014902 0.9972245 -0.0014902 0.0027755 0.0014902
2011000000 0.0028018 0.0021268 0.9971982 -0.0021268 0.9971982 -0.0021268 0.0028018 0.0021268
2032000000 0.0028291 0.0027572 0.9971709 -0.0027572 0.9971709 -0.0027572 0.0028291 0.0027572
2053000000 0.0028573 0.0033815 0.9971427 -0.0033815 0.9971427 -0.0033815 0.0028573 0.0033815
2074000000 0.0028864 0.0040000 0.9971136 -0.0040000 0.9971136 -0.0040000 0.0028864 0.0040000
2095000000 0.0029164 0.0046128 0.9970836 -0.0046128 0.9970836 -0.0046128 0.0029164 0.0046128
2116000000 0.0029473 0.0052201 0.9970527 -0.0052201 0.9970527 -0.0052201 0.0029473 0.0052201
2137000000 0.0029790 0.0058221 0.9970210 -0.0058221 0.9970210 -0.0058221 0.0029790 0.0058221
2158000000 0.0030116 0.0064189 0.9969884 -0.0064189 0.9969884 -0.0064189 0.0030116 0.0064189
2179000000 0.0030450 0.0070107 0.9969550 -0.0070107 0.9969550 -0.0070107 0.0030450 0.0070107
2200000000 0.0030792 0.0075977 0.9969208 -0.0075977 0.9969208 -0.0075977 0.0030792 0.0075977
2221000000 0.0031143 0.0081800 0.9968857 -0.0081800 0.9968857 -0.0081800 0.0031143 0.0081800
2242000000 0.0031501 0.0087577 0.9968499 -0.0087577 0.9968499 -0.0087577 0.0031501 0.0087577
2263000000 0.0031867 0.0093309 0.9968133 -0.0093309 0.9968133 -0.0093309 0.0031867 0.0093309
2284000000 0.0032240 0.0098999 0.9967760 -0.0098999 0.9967760 -0.0098999 0.0032240 0.0098999
2305000000 0.0032621 0.0104648 0.9967379 -0.0104648 0.9967379 -0.0104648 0.0032621 0.0104648
2326000000 0.0033010 0.0110255 0.9966990 -0.0110255 0.9966990 -0.0110255 0.0033010 0.0110255
2347000000 0.0033405 0.0115824 0.9966595 -0.0115824 0.9966595 -0.0115824 0.0033405 0.0115824
2368000000 0.0033808 0.0121354 0.9966192 -0.0121354 0.9966192 -0.0121354 0.0033808 0.0121354
2389000000 0.0034219 0.0126847 0.9965781 -0.0126847 0.9965781 -0.0126847 0.0034219 0.0126847
2410000000 0.0034636 0.0132305 0.9965364 -0.0132305 0.9965364 -0.0132305 0.0034636 0.0132305
2431000000 0.0035061 0.0137727 0.9964939 -0.0137727 0.9964939 -0.0137727 0.0035061 0.0137727
2452000000 0.0035492 0.0143116 0.9964508 -0.0143116 0.9964508 -0.0143116 0.0035492 0.0143116
2473000000 0.0035930 0.0148471 0.9964070 -0.0148471 0.9964070 -0.0148471 0.0035930 0.0148471
2494000000 0.0036375 0.0153795 0.9963625 -0.0153795 0.9963625 -0.0153795 0.0036375 0.0153795
2515000000 0.0036827 0.0159087 0.9963173 -0.0159087 0.9963173 -0.0159087 0.0036827 0.0159087
2536000000 0.0037286 0.0164349 0.9962714 -0.0164349 0.9962714 -0.0164349 0.0037286 0.0164349
2557000000 0.0037752 0.0169582 0.9962248 -0.0169582 0.9962248 -0.0169582 0.0037752 0.0169582
2578000000 0.0038224 0.0174786 0.9961776 -0.0174786 0.9961776 -0.0174786 0.0038224 0.0174786
2599000000 0.0038703 0.0179962 0.9961297 -0.0179962 0.9961297 -0.0179962 0.0038703 0.0179962
2620000000 0.0039188 0.0185112 0.9960812 -0.0185112 0.9960812 -0.0185112 0.0039188 0.0185112
2641000000 0.0039680 0.0190235 0.9960320 -0.0190235 0.9960320 -0.0190235 0.0039680 0.0190235
2662000000 0.0040179 0.0195332 0.9959821 -0.0195332 0.9959821 -0.0195332 0.0040179 0.0195332
2683000000 0.0040684 0.0200405 0.9959316 -0.0200405 0.9959316 -0.0200405 0.0040684 0.0200405
2704000000 0.0041196 0.0205454 0.9958804 -0.0205454 0.9958804 -0.0205454 0.0041196 0.0205454
2725000000 0.0041715 0.0210479 0.9958285 -0.0210479 0.9958285 -0.0210479 0.0041715 0.0210479
2746000000 0.0042240 0.0215481 0.9957760 -0.0215481 0.9957760 -0.0215481 0.0042240 0.0215481
2767000000 0.0042771 0.0220461 0.9957229 -0.0220461 0.9957229 -0.0220461 0.0042771 0.0220461
2788000000 0.0043309 0.0225420 0.9956691 -0.0225420 0.9956691 -0.0225420 0.0043309 0.0225420
2809000000 0.0043853 0.0230357 0.9956147 -0.0230357 0.9956147 -0.0230357 0.0043853 0.0230357
2830000000 0.0044404 0.0235275 0.9955596 -0.0235275 0.9955596 -0.0235275 0.0044404 0.0235275
2851000000 0.0044962 0.0240172 0.9955038 -0.0240172 0.9955038 -0.0240172 0.0044962 0.0240172
2872000000 0.0045526 0.0245050 0.9954474 -0.0245050 0.9954474 -0.0245050 0.0045526 0.0245050
2893000000 0.0046096 0.0249909 0.9953904 -0.0249909 0.9953904 -0.0249909 0.0046096 0.0249909
2914000000 0.0046674 0.0254750 0.9953326 -0.0254750 0.9953326 -0.0254750 0.0046674 0.0254750
2935000000 0.0047257 0.0259574 0.9952743 -0.0259574 0.9952743 -0.0259574 0.0047257 0.0259574
2956000000 0.0047848 0.0264380 0.9952152 -0.0264380 0.9952152 -0.0264380 0.0047848 0.0264380
2977000000 0.0048445 0.0269169 0.9951555 -0.0269169 0.9951555 -0.0269169 0.0048445 0.0269169
2998000000 0.0049048 0.0273942 0.9950952 -0.0273942 0.9950952 -0.0273942 0.0049048 0.0273942
3019000000 0.0049658 0.0278699 0.9950342 -0.0278699 0.9950342 -0.0278699 0.0049658 0.0278699
3040000000 0.0050275 0.0283441 0.9949725 -0.0283441 0.9949725 -0.0283441 0.0050275 0.0283441
3061000000 0.0050899 0.0288168 0.9949101 -0.0288168 0.9949101 -0.0288168 0.0050899 0.0288168
3082000000 0.0051529 0.0292880 0.9948471 -0.0292880 0.9948471 -0.0292880 0.0051529 0.0292880
3103000000 0.0052166 0.0297578 0.9947834 -0.0297578 0.9947834 -0.0297578 0.0052166 0.0297578
3124000000 0.0052810 0.0302263 0.9947190 -0.0302263 0.9947190 -0.0302263 0.0052810 0.0302263
3145000000 0.0053461 0.0306934 0.9946539 -0.0306934 0.9946539 -0.0306934 0.0053461 0.0306934
3166000000 0.0054119 0.0311592 0.9945881 -0.0311592 0.9945881 -0.0311592 0.0054119 0.0311592
3187000000 0.0054783 0.0316237 0.9945217 -0.0316237 0.9945217 -0.0316237 0.0054783 0.0316237
3208000000 0.0055455 0.0320870 0.9944545 -0.0320870 0.9944545 -0.0320870 0.0055455 0.0320870
3229000000 0.0056133 0.0325492 0.9943867 -0.0325492 0.9943867 -0.0325492 0.0056133 0.0325492
3250000000 0.0056819 0.0330102 0.9943181 -0.0330102 0.9943181 -0.0330102 0.0056819 0.0330102
3271000000 0.0057511 0.0334700 0.9942489 -0.0334700 0.9942489 -0.0334700 0.0057511 0.0334700
3292000000 0.0058211 0.0339288 0.9941789 -0.0339288 0.9941789 -0.0339288 0.0058211 0.0339288
3313000000 0.0058918 0.0343865 0.9941082 -0.0343865 0.9941082 -0.0343865 0.0058918 0.0343865
3334000000 0.0059632 0.0348432 0.9940368 -0.0348432 0.9940368 -0.0348432 0.0059632 0.0348432
3355000000 0.0060354 0.0352989 0.9939646 -0.0352989 0.9939646 -0.0352989 0.0060354 0.0352989
3376000000 0.0061083 0.0357537 0.9938917 -0.0357537 0.9938917 -0.0357537 0.0061083 0.0357537
3397000000 0.0061819 0.0362075 0.9938181 -0.0362075 0.9938181 -0.0362075 0.0061819 0.0362075
3418000000 0.0062563 0.0366604 0.9937437 -0.0366604 0.9937437 -0.0366604 0.0062563 0.0366604
3439000000 0.0063314 0.0371125 0.9936686 -0.0371125 0.9936686 -0.0371125 0.0063314 0.0371125
3460000000 0.0064073 0.0375637 0.9935927 -0.0375637 0.9935927 -0.0375637 0.0064073 0.0375637
3481000000 0.0064840 0.0380140 0.9935160 -0.0380140 0.9935160 -0.0380140 0.0064840 0.0380140
3502000000 0.0065614 0.0384636 0.9934386 -0.0384636 0.9934386 -0.0384636 0.0065614 0.0384636
3523000000 0.0066396 0.0389124 0.9933604 -0.0389124 0.9933604 -0.0389124 0.0066396 0.0389124
3544000000 0.0067186 0.0393605 0.9932814 -0.0393605 0.9932814 -0.0393605 0.0067186 0.0393605
3565000000 0.0067984 0.0398079 0.9932016 -0.0398079 0.9932016 -0.0398079 0.0067984 0.0398079
3586000000 0.0068790 0.0402545 0.9931210 -0.0402545 0.9931210 -0.0402545 0.0068790 0.0402545
3607000000 0.0069604 0.0407005 0.9930396 -0.0407005 0.9930396 -0.0407005 0.0069604 0.0407005
3628000000 0.0070426 0.0411459 0.9929574 -0.0411459 0.9929574 -0.0411459 0.0070426 0.0411459
3649000000 0.0071256 0.0415906 0.9928744 -0.0415906 0.9928744 -0.0415906 0.0071256 0.0415906
3670000000 0.0072095 0.0420347 0.9927905 -0.0420347 0.9927905 -0.0420347 0.0072095 0.0420347
3691000000 0.0072942 0.0424782 0.9927058 -0.0424782 0.9927058 -0.0424782 0.0072942 0.0424782
3712000000 0.0073798 0.0429212 0.9926202 -0.0429212 0.9926202 -0.0429212 0.0073798 0.0429212
3733000000 0.0074662 0.0433636 0.9925338 -0.0433636 0.9925338 -0.0433636 0.0074662 0.0433636
3754000000 0.0075535 0.0438055 0.9924465 -0.0438055 0.9924465 -0.0438055 0.0075535 0.0438055
3775000000 0.0076417 0.0442469 0.9923583 -0.0442469 0.9923583 -0.0442469 0.0076417 0.0442469
3796000000 0.0077307 0.0446878 0.9922693 -0.0446878 0.9922693 -0.0446878 0.0077307 0.0446878
3817000000 0.0078206 0.0451283 0.9921794 -0.0451283 0.9921794 -0.0451283 0.0078206 0.0451283
3838000000 0.0079115 0.0455683 0.9920885 -0.0455683 0.9920885 -0.0455683 0.0079115 0.0455683
3859000000 0.0080032 0.0460079 0.9919968 -0.0460079 0.9919968 -0.0460079 0.0080032 0.0460079
3880000000 0.0080959 0.0464471 0.9919041 -0.0464471 0.9919041 -0.0464471 0.0080959 0.0464471
3901000000 0.0081895 0.0468859 0.9918105 -0.0468859 0.9918105 -0.0468859 0.0081895 0.0468859
3922000000 0.0082841 0.0473243 0.9917159 -0.0473243 0.9917159 -0.0473243 0.0082841 0.0473243
3943000000 0.0083796 0.0477624 0.9916204 -0.0477624 0.9916204 -0.0477624 0.0083796 0.0477624
3964000000 0.0084760 0.0482001 0.9915240 -0.0482001 0.9915240 -0.0482001 0.0084760 0.0482001
3985000000 0.0085734 0.0486375 0.9914266 -0.0486375 0.9914266 -0.0486375 0.0085734 0.0486375
4006000000 0.0086719 0.0490746 0.9913281 -0.0490746 0.9913281 -0.0490746 0.0086719 0.0490746
4027000000 0.0087713 0.0495114 0.9912287 -0.0495114 0.9912287 -0.0495114 0.0087713 0.0495114
4048000000 0.0088717 0.0499479 0.9911283 -0.0499479 0.9911283 -0.0499479 0.0088717 0.0499479
4069000000 0.0089731 0.0503842 0.9910269 -0.0503842 0.9910269 -0.0503842 0.0089731 0.0503842
4090000000 0.0090756 0.0508202 0.9909244 -0.0508202 0.9909244 -0.0508202 0.0090756 0.0508202
4111000000 0.0091791 0.0512559 0.9908209 -0.0512559 0.9908209 -0.0512559 0.0091791 0.0512559
4132000000 0.0092836 0.0516915 0.9907164 -0.0516915 0.9907164 -0.0516915 0.0092836 0.0516915
4153000000 0.0093892 0.0521268 0.9906108 -0.0521268 0.9906108 -0.0521268 0.0093892 0.0521268
4174000000 0.0094959 0.0525619 0.9905041 -0.0525619 0.9905041 -0.0525619 0.0094959 0.0525619
4195000000 0.0096037 0.0529968 0.9903963 -0.0529968 0.9903963 -0.0529968 0.0096037 0.0529968
4216000000 0.0097125 0.0534316 0.9902875 -0.0534316 0.9902875 -0.0534316 0.0097125 0.0534316
4237000000 0.0098225 0.0538662 0.9901775 -0.0538662 0.9901775 -0.0538662 0.0098225 0.0538662
4258000000 0.0099336 0.0543006 0.9900664 -0.0543006 0.9900664 -0.0543006 0.0099336 0.0543006
4279000000 0.0100459 0.0547349 0.9899541 -0.0547349 0.9899541 -0.0547349 0.0100459 0.0547349
4300000000 0.0101593 0.0551691 0.9898407 -0.0551691 0.9898407 -0.0551691 0.0101593 0.0551691
4321000000 0.0102739 0.0556031 0.9897261 -0.0556031 0.9897261 -0.0556031 0.0102739 0.0556031
4342000000 0.0103896 0.0560371 0.9896104 -0.0560371 0.9896104 -0.0560371 0.0103896 0.0560371
4363000000 0.0105066 0.0564709 0.9894934 -0.0564709 0.9894934 -0.0564709 0.0105066 0.0564709
4384000000 0.0106247 0.0569046 0.9893753 -0.0569046 0.9893753 -0.0569046 0.0106247 0.0569046
4405000000 0.0107441 0.0573383 0.9892559 -0.0573383 0.9892559 -0.0573383 0.0107441 0.0573383
4426000000 0.0108647 0.0577718 0.9891353 -0.0577718 0.9891353 -0.0577718 0.0108647 0.0577718
4447000000 0.0109866 0.0582053 0.9890134 -0.0582053 0.9890134 -0.0582053 0.0109866 0.0582053
4468000000 0.0111097 0.0586388 0.9888903 -0.0586388 0.9888903 -0.0586388 0.0111097 0.0586388
4489000000 0.0112341 0.0590722 0.9887659 -0.0590722 0.9887659 -0.0590722 0.0112341 0.0590722
4510000000 0.0113599 0.0595055 0.9886401 -0.0595055 0.9886401 -0.0595055 0.0113599 0.0595055
