!Murata Part Number: GRM0335C1H121GA01
!These Parameters are Measured in Series Mode Connection
!Data Generated on Mar 30, 2021
!       o--ll--o
!Port1            Port2
!       o------o
!Operation Temp=25[degC], DC Bias Voltage=0[V]
!Freq. Start=100[MHz] Stop=9[GHz] 401[Steps]
# Hz S RI R 50
!Freq.(Hz) S11(Real) S11(Imag) S21(Real) S21(Imag) S12(Real) S12(Imag) S22(Real) S22(Imag)
100000000 0.0177599 -0.1286795 0.9822401 0.1286795 0.9822401 0.1286795 0.0177599 -0.1286795
121000000 0.0123578 -0.1063618 0.9876422 0.1063618 0.9876422 0.1063618 0.0123578 -0.1063618
142000000 0.0091430 -0.0903476 0.9908570 0.0903476 0.9908570 0.0903476 0.0091430 -0.0903476
163000000 0.0070791 -0.0782847 0.9929209 0.0782847 0.9929209 0.0782847 0.0070791 -0.0782847
184000000 0.0056771 -0.0688554 0.9943229 0.0688554 0.9943229 0.0688554 0.0056771 -0.0688554
205000000 0.0046826 -0.0612669 0.9953174 0.0612669 0.9953174 0.0612669 0.0046826 -0.0612669
226000000 0.0039526 -0.0550143 0.9960474 0.0550143 0.9960474 0.0550143 0.0039526 -0.0550143
247000000 0.0034016 -0.0497614 0.9965984 0.0497614 0.9965984 0.0497614 0.0034016 -0.0497614
268000000 0.0029761 -0.0452759 0.9970239 0.0452759 0.9970239 0.0452759 0.0029761 -0.0452759
289000000 0.0026413 -0.0413920 0.9973587 0.0413920 0.9973587 0.0413920 0.0026413 -0.0413920
310000000 0.0023738 -0.0379884 0.9976262 0.0379884 0.9976262 0.0379884 0.0023738 -0.0379884
331000000 0.0021571 -0.0349744 0.9978429 0.0349744 0.9978429 0.0349744 0.0021571 -0.0349744
352000000 0.0019796 -0.0322806 0.9980204 0.0322806 0.9980204 0.0322806 0.0019796 -0.0322806
373000000 0.0018329 -0.0298532 0.9981671 0.0298532 0.9981671 0.0298532 0.0018329 -0.0298532
394000000 0.0017107 -0.0276497 0.9982893 0.0276497 0.9982893 0.0276497 0.0017107 -0.0276497
415000000 0.0016082 -0.0256364 0.9983918 0.0256364 0.9983918 0.0256364 0.0016082 -0.0256364
436000000 0.0015220 -0.0237857 0.9984780 0.0237857 0.9984780 0.0237857 0.0015220 -0.0237857
457000000 0.0014491 -0.0220753 0.9985509 0.0220753 0.9985509 0.0220753 0.0014491 -0.0220753
478000000 0.0013874 -0.0204868 0.9986126 0.0204868 0.9986126 0.0204868 0.0013874 -0.0204868
499000000 0.0013351 -0.0190048 0.9986649 0.0190048 0.9986649 0.0190048 0.0013351 -0.0190048
520000000 0.0012908 -0.0176163 0.9987092 0.0176163 0.9987092 0.0176163 0.0012908 -0.0176163
541000000 0.0012533 -0.0163104 0.9987467 0.0163104 0.9987467 0.0163104 0.0012533 -0.0163104
562000000 0.0012219 -0.0150779 0.9987781 0.0150779 0.9987781 0.0150779 0.0012219 -0.0150779
583000000 0.0011956 -0.0139109 0.9988044 0.0139109 0.9988044 0.0139109 0.0011956 -0.0139109
604000000 0.0011739 -0.0128024 0.9988261 0.0128024 0.9988261 0.0128024 0.0011739 -0.0128024
625000000 0.0011562 -0.0117465 0.9988438 0.0117465 0.9988438 0.0117465 0.0011562 -0.0117465
646000000 0.0011421 -0.0107381 0.9988579 0.0107381 0.9988579 0.0107381 0.0011421 -0.0107381
667000000 0.0011313 -0.0097726 0.9988687 0.0097726 0.9988687 0.0097726 0.0011313 -0.0097726
688000000 0.0011234 -0.0088461 0.9988766 0.0088461 0.9988766 0.0088461 0.0011234 -0.0088461
709000000 0.0011182 -0.0079551 0.9988818 0.0079551 0.9988818 0.0079551 0.0011182 -0.0079551
730000000 0.0011154 -0.0070964 0.9988846 0.0070964 0.9988846 0.0070964 0.0011154 -0.0070964
751000000 0.0011148 -0.0062673 0.9988852 0.0062673 0.9988852 0.0062673 0.0011148 -0.0062673
772000000 0.0011163 -0.0054653 0.9988837 0.0054653 0.9988837 0.0054653 0.0011163 -0.0054653
793000000 0.0011198 -0.0046883 0.9988802 0.0046883 0.9988802 0.0046883 0.0011198 -0.0046883
814000000 0.0011251 -0.0039343 0.9988749 0.0039343 0.9988749 0.0039343 0.0011251 -0.0039343
835000000 0.0011322 -0.0032014 0.9988678 0.0032014 0.9988678 0.0032014 0.0011322 -0.0032014
856000000 0.0011408 -0.0024880 0.9988592 0.0024880 0.9988592 0.0024880 0.0011408 -0.0024880
877000000 0.0011511 -0.0017928 0.9988489 0.0017928 0.9988489 0.0017928 0.0011511 -0.0017928
898000000 0.0011628 -0.0011143 0.9988372 0.0011143 0.9988372 0.0011143 0.0011628 -0.0011143
919000000 0.0011760 -0.0004514 0.9988240 0.0004514 0.9988240 0.0004514 0.0011760 -0.0004514
940000000 0.0011907 0.0001970 0.9988093 -0.0001970 0.9988093 -0.0001970 0.0011907 0.0001970
961000000 0.0012067 0.0008320 0.9987933 -0.0008320 0.9987933 -0.0008320 0.0012067 0.0008320
982000000 0.0012240 0.0014545 0.9987760 -0.0014545 0.9987760 -0.0014545 0.0012240 0.0014545
1003000000 0.0012427 0.0020653 0.9987573 -0.0020653 0.9987573 -0.0020653 0.0012427 0.0020653
1024000000 0.0012628 0.0026652 0.9987372 -0.0026652 0.9987372 -0.0026652 0.0012628 0.0026652
1045000000 0.0012841 0.0032549 0.9987159 -0.0032549 0.9987159 -0.0032549 0.0012841 0.0032549
1066000000 0.0013068 0.0038352 0.9986932 -0.0038352 0.9986932 -0.0038352 0.0013068 0.0038352
1087000000 0.0013308 0.0044065 0.9986692 -0.0044065 0.9986692 -0.0044065 0.0013308 0.0044065
1108000000 0.0013562 0.0049697 0.9986438 -0.0049697 0.9986438 -0.0049697 0.0013562 0.0049697
1129000000 0.0013829 0.0055250 0.9986171 -0.0055250 0.9986171 -0.0055250 0.0013829 0.0055250
1150000000 0.0014110 0.0060731 0.9985890 -0.0060731 0.9985890 -0.0060731 0.0014110 0.0060731
1171000000 0.0014405 0.0066145 0.9985595 -0.0066145 0.9985595 -0.0066145 0.0014405 0.0066145
1192000000 0.0014714 0.0071495 0.9985286 -0.0071495 0.9985286 -0.0071495 0.0014714 0.0071495
1213000000 0.0015039 0.0076787 0.9984961 -0.0076787 0.9984961 -0.0076787 0.0015039 0.0076787
1234000000 0.0015379 0.0082023 0.9984621 -0.0082023 0.9984621 -0.0082023 0.0015379 0.0082023
1255000000 0.0015736 0.0087207 0.9984264 -0.0087207 0.9984264 -0.0087207 0.0015736 0.0087207
1276000000 0.0016108 0.0092344 0.9983892 -0.0092344 0.9983892 -0.0092344 0.0016108 0.0092344
1297000000 0.0016499 0.0097437 0.9983501 -0.0097437 0.9983501 -0.0097437 0.0016499 0.0097437
1318000000 0.0016908 0.0102488 0.9983092 -0.0102488 0.9983092 -0.0102488 0.0016908 0.0102488
1339000000 0.0017336 0.0107500 0.9982664 -0.0107500 0.9982664 -0.0107500 0.0017336 0.0107500
1360000000 0.0017784 0.0112477 0.9982216 -0.0112477 0.9982216 -0.0112477 0.0017784 0.0112477
1381000000 0.0018254 0.0117421 0.9981746 -0.0117421 0.9981746 -0.0117421 0.0018254 0.0117421
1402000000 0.0018747 0.0122335 0.9981253 -0.0122335 0.9981253 -0.0122335 0.0018747 0.0122335
1423000000 0.0019264 0.0127221 0.9980736 -0.0127221 0.9980736 -0.0127221 0.0019264 0.0127221
1444000000 0.0019808 0.0132082 0.9980192 -0.0132082 0.9980192 -0.0132082 0.0019808 0.0132082
1465000000 0.0020379 0.0136919 0.9979621 -0.0136919 0.9979621 -0.0136919 0.0020379 0.0136919
1486000000 0.0020981 0.0141735 0.9979019 -0.0141735 0.9979019 -0.0141735 0.0020981 0.0141735
1507000000 0.0021616 0.0146531 0.9978384 -0.0146531 0.9978384 -0.0146531 0.0021616 0.0146531
1528000000 0.0022286 0.0151310 0.9977714 -0.0151310 0.9977714 -0.0151310 0.0022286 0.0151310
1549000000 0.0022995 0.0156072 0.9977005 -0.0156072 0.9977005 -0.0156072 0.0022995 0.0156072
1570000000 0.0023745 0.0160819 0.9976255 -0.0160819 0.9976255 -0.0160819 0.0023745 0.0160819
1591000000 0.0024541 0.0165551 0.9975459 -0.0165551 0.9975459 -0.0165551 0.0024541 0.0165551
1612000000 0.0025388 0.0170269 0.9974612 -0.0170269 0.9974612 -0.0170269 0.0025388 0.0170269
1633000000 0.0026290 0.0174973 0.9973710 -0.0174973 0.9973710 -0.0174973 0.0026290 0.0174973
1654000000 0.0027252 0.0179662 0.9972748 -0.0179662 0.9972748 -0.0179662 0.0027252 0.0179662
1675000000 0.0028280 0.0184335 0.9971720 -0.0184335 0.9971720 -0.0184335 0.0028280 0.0184335
1696000000 0.0029382 0.0188989 0.9970618 -0.0188989 0.9970618 -0.0188989 0.0029382 0.0188989
1717000000 0.0030564 0.0193619 0.9969436 -0.0193619 0.9969436 -0.0193619 0.0030564 0.0193619
1738000000 0.0031834 0.0198221 0.9968166 -0.0198221 0.9968166 -0.0198221 0.0031834 0.0198221
1759000000 0.0033200 0.0202787 0.9966800 -0.0202787 0.9966800 -0.0202787 0.0033200 0.0202787
1780000000 0.0034670 0.0207306 0.9965330 -0.0207306 0.9965330 -0.0207306 0.0034670 0.0207306
1801000000 0.0036252 0.0211766 0.9963748 -0.0211766 0.9963748 -0.0211766 0.0036252 0.0211766
1822000000 0.0037952 0.0216150 0.9962048 -0.0216150 0.9962048 -0.0216150 0.0037952 0.0216150
1843000000 0.0039774 0.0220438 0.9960226 -0.0220438 0.9960226 -0.0220438 0.0039774 0.0220438
1864000000 0.0041721 0.0224604 0.9958279 -0.0224604 0.9958279 -0.0224604 0.0041721 0.0224604
1885000000 0.0043786 0.0228620 0.9956214 -0.0228620 0.9956214 -0.0228620 0.0043786 0.0228620
1906000000 0.0045959 0.0232452 0.9954041 -0.0232452 0.9954041 -0.0232452 0.0045959 0.0232452
1927000000 0.0048216 0.0236069 0.9951784 -0.0236069 0.9951784 -0.0236069 0.0048216 0.0236069
1948000000 0.0050524 0.0239435 0.9949476 -0.0239435 0.9949476 -0.0239435 0.0050524 0.0239435
1969000000 0.0052835 0.0242525 0.9947165 -0.0242525 0.9947165 -0.0242525 0.0052835 0.0242525
1990000000 0.0055087 0.0245325 0.9944913 -0.0245325 0.9944913 -0.0245325 0.0055087 0.0245325
2011000000 0.0057209 0.0247837 0.9942791 -0.0247837 0.9942791 -0.0247837 0.0057209 0.0247837
2032000000 0.0059128 0.0250089 0.9940872 -0.0250089 0.9940872 -0.0250089 0.0059128 0.0250089
2053000000 0.0060777 0.0252133 0.9939223 -0.0252133 0.9939223 -0.0252133 0.0060777 0.0252133
2074000000 0.0062105 0.0254047 0.9937895 -0.0254047 0.9937895 -0.0254047 0.0062105 0.0254047
2095000000 0.0063091 0.0255921 0.9936909 -0.0255921 0.9936909 -0.0255921 0.0063091 0.0255921
2116000000 0.0063741 0.0257849 0.9936259 -0.0257849 0.9936259 -0.0257849 0.0063741 0.0257849
2137000000 0.0064095 0.0259917 0.9935905 -0.0259917 0.9935905 -0.0259917 0.0064095 0.0259917
2158000000 0.0064212 0.0262190 0.9935788 -0.0262190 0.9935788 -0.0262190 0.0064212 0.0262190
2179000000 0.0064165 0.0264710 0.9935835 -0.0264710 0.9935835 -0.0264710 0.0064165 0.0264710
2200000000 0.0064029 0.0267493 0.9935971 -0.0267493 0.9935971 -0.0267493 0.0064029 0.0267493
2221000000 0.0063872 0.0270535 0.9936128 -0.0270535 0.9936128 -0.0270535 0.0063872 0.0270535
2242000000 0.0063752 0.0273818 0.9936248 -0.0273818 0.9936248 -0.0273818 0.0063752 0.0273818
2263000000 0.0063716 0.0277312 0.9936284 -0.0277312 0.9936284 -0.0277312 0.0063716 0.0277312
2284000000 0.0063797 0.0280984 0.9936203 -0.0280984 0.9936203 -0.0280984 0.0063797 0.0280984
2305000000 0.0064017 0.0284802 0.9935983 -0.0284802 0.9935983 -0.0284802 0.0064017 0.0284802
2326000000 0.0064392 0.0288732 0.9935608 -0.0288732 0.9935608 -0.0288732 0.0064392 0.0288732
2347000000 0.0064930 0.0292746 0.9935070 -0.0292746 0.9935070 -0.0292746 0.0064930 0.0292746
2368000000 0.0065634 0.0296816 0.9934366 -0.0296816 0.9934366 -0.0296816 0.0065634 0.0296816
2389000000 0.0066506 0.0300921 0.9933494 -0.0300921 0.9933494 -0.0300921 0.0066506 0.0300921
2410000000 0.0067546 0.0305039 0.9932454 -0.0305039 0.9932454 -0.0305039 0.0067546 0.0305039
2431000000 0.0068751 0.0309151 0.9931249 -0.0309151 0.9931249 -0.0309151 0.0068751 0.0309151
2452000000 0.0070120 0.0313242 0.9929880 -0.0313242 0.9929880 -0.0313242 0.0070120 0.0313242
2473000000 0.0071649 0.0317295 0.9928351 -0.0317295 0.9928351 -0.0317295 0.0071649 0.0317295
2494000000 0.0073337 0.0321295 0.9926663 -0.0321295 0.9926663 -0.0321295 0.0073337 0.0321295
2515000000 0.0075180 0.0325229 0.9924820 -0.0325229 0.9924820 -0.0325229 0.0075180 0.0325229
2536000000 0.0077176 0.0329080 0.9922824 -0.0329080 0.9922824 -0.0329080 0.0077176 0.0329080
2557000000 0.0079321 0.0332834 0.9920679 -0.0332834 0.9920679 -0.0332834 0.0079321 0.0332834
2578000000 0.0081611 0.0336475 0.9918389 -0.0336475 0.9918389 -0.0336475 0.0081611 0.0336475
2599000000 0.0084041 0.0339987 0.9915959 -0.0339987 0.9915959 -0.0339987 0.0084041 0.0339987
2620000000 0.0086604 0.0343353 0.9913396 -0.0343353 0.9913396 -0.0343353 0.0086604 0.0343353
2641000000 0.0089292 0.0346554 0.9910708 -0.0346554 0.9910708 -0.0346554 0.0089292 0.0346554
2662000000 0.0092096 0.0349573 0.9907904 -0.0349573 0.9907904 -0.0349573 0.0092096 0.0349573
2683000000 0.0095000 0.0352390 0.9905000 -0.0352390 0.9905000 -0.0352390 0.0095000 0.0352390
2704000000 0.0097991 0.0354987 0.9902009 -0.0354987 0.9902009 -0.0354987 0.0097991 0.0354987
2725000000 0.0101047 0.0357345 0.9898953 -0.0357345 0.9898953 -0.0357345 0.0101047 0.0357345
2746000000 0.0104147 0.0359448 0.9895853 -0.0359448 0.9895853 -0.0359448 0.0104147 0.0359448
2767000000 0.0107262 0.0361280 0.9892738 -0.0361280 0.9892738 -0.0361280 0.0107262 0.0361280
2788000000 0.0110363 0.0362828 0.9889637 -0.0362828 0.9889637 -0.0362828 0.0110363 0.0362828
2809000000 0.0113414 0.0364085 0.9886586 -0.0364085 0.9886586 -0.0364085 0.0113414 0.0364085
2830000000 0.0116378 0.0365047 0.9883622 -0.0365047 0.9883622 -0.0365047 0.0116378 0.0365047
2851000000 0.0119215 0.0365715 0.9880785 -0.0365715 0.9880785 -0.0365715 0.0119215 0.0365715
2872000000 0.0121884 0.0366100 0.9878116 -0.0366100 0.9878116 -0.0366100 0.0121884 0.0366100
2893000000 0.0124342 0.0366217 0.9875658 -0.0366217 0.9875658 -0.0366217 0.0124342 0.0366217
2914000000 0.0126551 0.0366090 0.9873449 -0.0366090 0.9873449 -0.0366090 0.0126551 0.0366090
2935000000 0.0128473 0.0365752 0.9871527 -0.0365752 0.9871527 -0.0365752 0.0128473 0.0365752
2956000000 0.0130079 0.0365240 0.9869921 -0.0365240 0.9869921 -0.0365240 0.0130079 0.0365240
2977000000 0.0131342 0.0364598 0.9868658 -0.0364598 0.9868658 -0.0364598 0.0131342 0.0364598
2998000000 0.0132248 0.0363875 0.9867752 -0.0363875 0.9867752 -0.0363875 0.0132248 0.0363875
3019000000 0.0132788 0.0363122 0.9867212 -0.0363122 0.9867212 -0.0363122 0.0132788 0.0363122
3040000000 0.0132965 0.0362391 0.9867035 -0.0362391 0.9867035 -0.0362391 0.0132965 0.0362391
3061000000 0.0132788 0.0361729 0.9867212 -0.0361729 0.9867212 -0.0361729 0.0132788 0.0361729
3082000000 0.0132278 0.0361184 0.9867722 -0.0361184 0.9867722 -0.0361184 0.0132278 0.0361184
3103000000 0.0131459 0.0360797 0.9868541 -0.0360797 0.9868541 -0.0360797 0.0131459 0.0360797
3124000000 0.0130365 0.0360601 0.9869635 -0.0360601 0.9869635 -0.0360601 0.0130365 0.0360601
3145000000 0.0129030 0.0360624 0.9870970 -0.0360624 0.9870970 -0.0360624 0.0129030 0.0360624
3166000000 0.0127493 0.0360887 0.9872507 -0.0360887 0.9872507 -0.0360887 0.0127493 0.0360887
3187000000 0.0125792 0.0361402 0.9874208 -0.0361402 0.9874208 -0.0361402 0.0125792 0.0361402
3208000000 0.0123965 0.0362175 0.9876035 -0.0362175 0.9876035 -0.0362175 0.0123965 0.0362175
3229000000 0.0122047 0.0363207 0.9877953 -0.0363207 0.9877953 -0.0363207 0.0122047 0.0363207
3250000000 0.0120073 0.0364492 0.9879927 -0.0364492 0.9879927 -0.0364492 0.0120073 0.0364492
3271000000 0.0118072 0.0366023 0.9881928 -0.0366023 0.9881928 -0.0366023 0.0118072 0.0366023
3292000000 0.0116070 0.0367786 0.9883930 -0.0367786 0.9883930 -0.0367786 0.0116070 0.0367786
3313000000 0.0114090 0.0369769 0.9885910 -0.0369769 0.9885910 -0.0369769 0.0114090 0.0369769
3334000000 0.0112151 0.0371954 0.9887849 -0.0371954 0.9887849 -0.0371954 0.0112151 0.0371954
3355000000 0.0110268 0.0374327 0.9889732 -0.0374327 0.9889732 -0.0374327 0.0110268 0.0374327
3376000000 0.0108454 0.0376870 0.9891546 -0.0376870 0.9891546 -0.0376870 0.0108454 0.0376870
3397000000 0.0106718 0.0379567 0.9893282 -0.0379567 0.9893282 -0.0379567 0.0106718 0.0379567
3418000000 0.0105068 0.0382401 0.9894932 -0.0382401 0.9894932 -0.0382401 0.0105068 0.0382401
3439000000 0.0103507 0.0385359 0.9896493 -0.0385359 0.9896493 -0.0385359 0.0103507 0.0385359
3460000000 0.0102040 0.0388425 0.9897960 -0.0388425 0.9897960 -0.0388425 0.0102040 0.0388425
3481000000 0.0100667 0.0391587 0.9899333 -0.0391587 0.9899333 -0.0391587 0.0100667 0.0391587
3502000000 0.0099389 0.0394833 0.9900611 -0.0394833 0.9900611 -0.0394833 0.0099389 0.0394833
3523000000 0.0098206 0.0398151 0.9901794 -0.0398151 0.9901794 -0.0398151 0.0098206 0.0398151
3544000000 0.0097116 0.0401532 0.9902884 -0.0401532 0.9902884 -0.0401532 0.0097116 0.0401532
3565000000 0.0096117 0.0404966 0.9903883 -0.0404966 0.9903883 -0.0404966 0.0096117 0.0404966
3586000000 0.0095206 0.0408445 0.9904794 -0.0408445 0.9904794 -0.0408445 0.0095206 0.0408445
3607000000 0.0094382 0.0411963 0.9905618 -0.0411963 0.9905618 -0.0411963 0.0094382 0.0411963
3628000000 0.0093640 0.0415513 0.9906360 -0.0415513 0.9906360 -0.0415513 0.0093640 0.0415513
3649000000 0.0092977 0.0419089 0.9907023 -0.0419089 0.9907023 -0.0419089 0.0092977 0.0419089
3670000000 0.0092391 0.0422686 0.9907609 -0.0422686 0.9907609 -0.0422686 0.0092391 0.0422686
3691000000 0.0091879 0.0426300 0.9908121 -0.0426300 0.9908121 -0.0426300 0.0091879 0.0426300
3712000000 0.0091436 0.0429926 0.9908564 -0.0429926 0.9908564 -0.0429926 0.0091436 0.0429926
3733000000 0.0091060 0.0433562 0.9908940 -0.0433562 0.9908940 -0.0433562 0.0091060 0.0433562
3754000000 0.0090749 0.0437205 0.9909251 -0.0437205 0.9909251 -0.0437205 0.0090749 0.0437205
3775000000 0.0090498 0.0440852 0.9909502 -0.0440852 0.9909502 -0.0440852 0.0090498 0.0440852
3796000000 0.0090306 0.0444500 0.9909694 -0.0444500 0.9909694 -0.0444500 0.0090306 0.0444500
3817000000 0.0090169 0.0448148 0.9909831 -0.0448148 0.9909831 -0.0448148 0.0090169 0.0448148
3838000000 0.0090085 0.0451794 0.9909915 -0.0451794 0.9909915 -0.0451794 0.0090085 0.0451794
3859000000 0.0090052 0.0455436 0.9909948 -0.0455436 0.9909948 -0.0455436 0.0090052 0.0455436
3880000000 0.0090067 0.0459074 0.9909933 -0.0459074 0.9909933 -0.0459074 0.0090067 0.0459074
3901000000 0.0090129 0.0462706 0.9909871 -0.0462706 0.9909871 -0.0462706 0.0090129 0.0462706
3922000000 0.0090234 0.0466331 0.9909766 -0.0466331 0.9909766 -0.0466331 0.0090234 0.0466331
3943000000 0.0090381 0.0469949 0.9909619 -0.0469949 0.9909619 -0.0469949 0.0090381 0.0469949
3964000000 0.0090569 0.0473558 0.9909431 -0.0473558 0.9909431 -0.0473558 0.0090569 0.0473558
3985000000 0.0090795 0.0477159 0.9909205 -0.0477159 0.9909205 -0.0477159 0.0090795 0.0477159
4006000000 0.0091059 0.0480751 0.9908941 -0.0480751 0.9908941 -0.0480751 0.0091059 0.0480751
4027000000 0.0091358 0.0484333 0.9908642 -0.0484333 0.9908642 -0.0484333 0.0091358 0.0484333
4048000000 0.0091690 0.0487905 0.9908310 -0.0487905 0.9908310 -0.0487905 0.0091690 0.0487905
4069000000 0.0092056 0.0491467 0.9907944 -0.0491467 0.9907944 -0.0491467 0.0092056 0.0491467
4090000000 0.0092453 0.0495018 0.9907547 -0.0495018 0.9907547 -0.0495018 0.0092453 0.0495018
4111000000 0.0092881 0.0498559 0.9907119 -0.0498559 0.9907119 -0.0498559 0.0092881 0.0498559
4132000000 0.0093338 0.0502089 0.9906662 -0.0502089 0.9906662 -0.0502089 0.0093338 0.0502089
4153000000 0.0093823 0.0505608 0.9906177 -0.0505608 0.9906177 -0.0505608 0.0093823 0.0505608
4174000000 0.0094335 0.0509116 0.9905665 -0.0509116 0.9905665 -0.0509116 0.0094335 0.0509116
4195000000 0.0094874 0.0512613 0.9905126 -0.0512613 0.9905126 -0.0512613 0.0094874 0.0512613
4216000000 0.0095438 0.0516099 0.9904562 -0.0516099 0.9904562 -0.0516099 0.0095438 0.0516099
4237000000 0.0096027 0.0519575 0.9903973 -0.0519575 0.9903973 -0.0519575 0.0096027 0.0519575
4258000000 0.0096640 0.0523039 0.9903360 -0.0523039 0.9903360 -0.0523039 0.0096640 0.0523039
4279000000 0.0097277 0.0526492 0.9902723 -0.0526492 0.9902723 -0.0526492 0.0097277 0.0526492
4300000000 0.0097936 0.0529934 0.9902064 -0.0529934 0.9902064 -0.0529934 0.0097936 0.0529934
4321000000 0.0098617 0.0533365 0.9901383 -0.0533365 0.9901383 -0.0533365 0.0098617 0.0533365
4342000000 0.0099320 0.0536785 0.9900680 -0.0536785 0.9900680 -0.0536785 0.0099320 0.0536785
4363000000 0.0100044 0.0540195 0.9899956 -0.0540195 0.9899956 -0.0540195 0.0100044 0.0540195
4384000000 0.0100789 0.0543593 0.9899211 -0.0543593 0.9899211 -0.0543593 0.0100789 0.0543593
4405000000 0.0101554 0.0546980 0.9898446 -0.0546980 0.9898446 -0.0546980 0.0101554 0.0546980
4426000000 0.0102338 0.0550357 0.9897662 -0.0550357 0.9897662 -0.0550357 0.0102338 0.0550357
4447000000 0.0103142 0.0553723 0.9896858 -0.0553723 0.9896858 -0.0553723 0.0103142 0.0553723
4468000000 0.0103965 0.0557078 0.9896035 -0.0557078 0.9896035 -0.0557078 0.0103965 0.0557078
4489000000 0.0104806 0.0560423 0.9895194 -0.0560423 0.9895194 -0.0560423 0.0104806 0.0560423
4510000000 0.0105665 0.0563757 0.9894335 -0.0563757 0.9894335 -0.0563757 0.0105665 0.0563757
