!Murata Part Number: GRM0335C2A1R5CA01
!These Parameters are Measured in Series Mode Connection
!Data Generated on Mar 30, 2021
!       o--ll--o
!Port1            Port2
!       o------o
!Operation Temp=25[degC], DC Bias Voltage=0[V]
!Freq. Start=100[MHz] Stop=9[GHz] 401[Steps]
# Hz S RI R 50
!Freq.(Hz) S11(Real) S11(Imag) S21(Real) S21(Imag) S12(Real) S12(Imag) S22(Real) S22(Imag)
100000000 0.9911678 -0.0934272 0.0088322 0.0934272 0.0088322 0.0934272 0.9911678 -0.0934272
121000000 0.9871199 -0.1125919 0.0128801 0.1125919 0.0128801 0.1125919 0.9871199 -0.1125919
142000000 0.9823442 -0.1315027 0.0176558 0.1315027 0.0176558 0.1315027 0.9823442 -0.1315027
163000000 0.9768616 -0.1501200 0.0231384 0.1501200 0.0231384 0.1501200 0.9768616 -0.1501200
184000000 0.9706957 -0.1684066 0.0293043 0.1684066 0.0293043 0.1684066 0.9706957 -0.1684066
205000000 0.9638723 -0.1863274 0.0361277 0.1863274 0.0361277 0.1863274 0.9638723 -0.1863274
226000000 0.9564198 -0.2038498 0.0435802 0.2038498 0.0435802 0.2038498 0.9564198 -0.2038498
247000000 0.9483684 -0.2209440 0.0516316 0.2209440 0.0516316 0.2209440 0.9483684 -0.2209440
268000000 0.9397498 -0.2375828 0.0602502 0.2375828 0.0602502 0.2375828 0.9397498 -0.2375828
289000000 0.9305972 -0.2537419 0.0694028 0.2537419 0.0694028 0.2537419 0.9305972 -0.2537419
310000000 0.9209449 -0.2693999 0.0790551 0.2693999 0.0790551 0.2693999 0.9209449 -0.2693999
331000000 0.9108277 -0.2845383 0.0891723 0.2845383 0.0891723 0.2845383 0.9108277 -0.2845383
352000000 0.9002814 -0.2991415 0.0997186 0.2991415 0.0997186 0.2991415 0.9002814 -0.2991415
373000000 0.8893415 -0.3131968 0.1106585 0.3131968 0.1106585 0.3131968 0.8893415 -0.3131968
394000000 0.8780437 -0.3266941 0.1219563 0.3266941 0.1219563 0.3266941 0.8780437 -0.3266941
415000000 0.8664236 -0.3396261 0.1335764 0.3396261 0.1335764 0.3396261 0.8664236 -0.3396261
436000000 0.8545161 -0.3519883 0.1454839 0.3519883 0.1454839 0.3519883 0.8545161 -0.3519883
457000000 0.8423556 -0.3637782 0.1576444 0.3637782 0.1576444 0.3637782 0.8423556 -0.3637782
478000000 0.8299754 -0.3749960 0.1700246 0.3749960 0.1700246 0.3749960 0.8299754 -0.3749960
499000000 0.8174080 -0.3856438 0.1825920 0.3856438 0.1825920 0.3856438 0.8174080 -0.3856438
520000000 0.8046849 -0.3957257 0.1953151 0.3957257 0.1953151 0.3957257 0.8046849 -0.3957257
541000000 0.7918360 -0.4052477 0.2081640 0.4052477 0.2081640 0.4052477 0.7918360 -0.4052477
562000000 0.7788901 -0.4142176 0.2211099 0.4142176 0.2211099 0.4142176 0.7788901 -0.4142176
583000000 0.7658747 -0.4226444 0.2341253 0.4226444 0.2341253 0.4226444 0.7658747 -0.4226444
604000000 0.7528156 -0.4305385 0.2471844 0.4305385 0.2471844 0.4305385 0.7528156 -0.4305385
625000000 0.7397373 -0.4379117 0.2602627 0.4379117 0.2602627 0.4379117 0.7397373 -0.4379117
646000000 0.7266626 -0.4447763 0.2733374 0.4447763 0.2733374 0.4447763 0.7266626 -0.4447763
667000000 0.7136130 -0.4511461 0.2863870 0.4511461 0.2863870 0.4511461 0.7136130 -0.4511461
688000000 0.7006084 -0.4570350 0.2993916 0.4570350 0.2993916 0.4570350 0.7006084 -0.4570350
709000000 0.6876672 -0.4624579 0.3123328 0.4624579 0.3123328 0.4624579 0.6876672 -0.4624579
730000000 0.6748064 -0.4674299 0.3251936 0.4674299 0.3251936 0.4674299 0.6748064 -0.4674299
751000000 0.6620415 -0.4719666 0.3379585 0.4719666 0.3379585 0.4719666 0.6620415 -0.4719666
772000000 0.6493868 -0.4760837 0.3506132 0.4760837 0.3506132 0.4760837 0.6493868 -0.4760837
793000000 0.6368549 -0.4797971 0.3631451 0.4797971 0.3631451 0.4797971 0.6368549 -0.4797971
814000000 0.6244576 -0.4831227 0.3755424 0.4831227 0.3755424 0.4831227 0.6244576 -0.4831227
835000000 0.6122052 -0.4860765 0.3877948 0.4860765 0.3877948 0.4860765 0.6122052 -0.4860765
856000000 0.6001069 -0.4886742 0.3998931 0.4886742 0.3998931 0.4886742 0.6001069 -0.4886742
877000000 0.5881708 -0.4909314 0.4118292 0.4909314 0.4118292 0.4909314 0.5881708 -0.4909314
898000000 0.5764040 -0.4928635 0.4235960 0.4928635 0.4235960 0.4928635 0.5764040 -0.4928635
919000000 0.5648127 -0.4944856 0.4351873 0.4944856 0.4351873 0.4944856 0.5648127 -0.4944856
940000000 0.5534020 -0.4958125 0.4465980 0.4958125 0.4465980 0.4958125 0.5534020 -0.4958125
961000000 0.5421764 -0.4968587 0.4578236 0.4968587 0.4578236 0.4968587 0.5421764 -0.4968587
982000000 0.5311393 -0.4976383 0.4688607 0.4976383 0.4688607 0.4976383 0.5311393 -0.4976383
1003000000 0.5202937 -0.4981648 0.4797063 0.4981648 0.4797063 0.4981648 0.5202937 -0.4981648
1024000000 0.5096418 -0.4984517 0.4903582 0.4984517 0.4903582 0.4984517 0.5096418 -0.4984517
1045000000 0.4991851 -0.4985117 0.5008149 0.4985117 0.5008149 0.4985117 0.4991851 -0.4985117
1066000000 0.4889247 -0.4983572 0.5110753 0.4983572 0.5110753 0.4983572 0.4889247 -0.4983572
1087000000 0.4788609 -0.4980002 0.5211391 0.4980002 0.5211391 0.4980002 0.4788609 -0.4980002
1108000000 0.4689939 -0.4974521 0.5310061 0.4974521 0.5310061 0.4974521 0.4689939 -0.4974521
1129000000 0.4593232 -0.4967241 0.5406768 0.4967241 0.5406768 0.4967241 0.4593232 -0.4967241
1150000000 0.4498480 -0.4958267 0.5501520 0.4958267 0.5501520 0.4958267 0.4498480 -0.4958267
1171000000 0.4405671 -0.4947702 0.5594329 0.4947702 0.5594329 0.4947702 0.4405671 -0.4947702
1192000000 0.4314792 -0.4935642 0.5685208 0.4935642 0.5685208 0.4935642 0.4314792 -0.4935642
1213000000 0.4225824 -0.4922180 0.5774176 0.4922180 0.5774176 0.4922180 0.4225824 -0.4922180
1234000000 0.4138747 -0.4907406 0.5861253 0.4907406 0.5861253 0.4907406 0.4138747 -0.4907406
1255000000 0.4053541 -0.4891403 0.5946459 0.4891403 0.5946459 0.4891403 0.4053541 -0.4891403
1276000000 0.3970180 -0.4874254 0.6029820 0.4874254 0.6029820 0.4874254 0.3970180 -0.4874254
1297000000 0.3888639 -0.4856035 0.6111361 0.4856035 0.6111361 0.4856035 0.3888639 -0.4856035
1318000000 0.3808892 -0.4836819 0.6191108 0.4836819 0.6191108 0.4836819 0.3808892 -0.4836819
1339000000 0.3730909 -0.4816676 0.6269091 0.4816676 0.6269091 0.4816676 0.3730909 -0.4816676
1360000000 0.3654662 -0.4795672 0.6345338 0.4795672 0.6345338 0.4795672 0.3654662 -0.4795672
1381000000 0.3580121 -0.4773870 0.6419879 0.4773870 0.6419879 0.4773870 0.3580121 -0.4773870
1402000000 0.3507254 -0.4751329 0.6492746 0.4751329 0.6492746 0.4751329 0.3507254 -0.4751329
1423000000 0.3436030 -0.4728105 0.6563970 0.4728105 0.6563970 0.4728105 0.3436030 -0.4728105
1444000000 0.3366419 -0.4704253 0.6633581 0.4704253 0.6633581 0.4704253 0.3366419 -0.4704253
1465000000 0.3298387 -0.4679822 0.6701613 0.4679822 0.6701613 0.4679822 0.3298387 -0.4679822
1486000000 0.3231902 -0.4654860 0.6768098 0.4654860 0.6768098 0.4654860 0.3231902 -0.4654860
1507000000 0.3166933 -0.4629414 0.6833067 0.4629414 0.6833067 0.4629414 0.3166933 -0.4629414
1528000000 0.3103447 -0.4603524 0.6896553 0.4603524 0.6896553 0.4603524 0.3103447 -0.4603524
1549000000 0.3041412 -0.4577233 0.6958588 0.4577233 0.6958588 0.4577233 0.3041412 -0.4577233
1570000000 0.2980796 -0.4550577 0.7019204 0.4550577 0.7019204 0.4550577 0.2980796 -0.4550577
1591000000 0.2921567 -0.4523593 0.7078433 0.4523593 0.7078433 0.4523593 0.2921567 -0.4523593
1612000000 0.2863694 -0.4496314 0.7136306 0.4496314 0.7136306 0.4496314 0.2863694 -0.4496314
1633000000 0.2807145 -0.4468774 0.7192855 0.4468774 0.7192855 0.4468774 0.2807145 -0.4468774
1654000000 0.2751890 -0.4441000 0.7248110 0.4441000 0.7248110 0.4441000 0.2751890 -0.4441000
1675000000 0.2697899 -0.4413022 0.7302101 0.4413022 0.7302101 0.4413022 0.2697899 -0.4413022
1696000000 0.2645141 -0.4384867 0.7354859 0.4384867 0.7354859 0.4384867 0.2645141 -0.4384867
1717000000 0.2593587 -0.4356559 0.7406413 0.4356559 0.7406413 0.4356559 0.2593587 -0.4356559
1738000000 0.2543209 -0.4328122 0.7456791 0.4328122 0.7456791 0.4328122 0.2543209 -0.4328122
1759000000 0.2493977 -0.4299578 0.7506023 0.4299578 0.7506023 0.4299578 0.2493977 -0.4299578
1780000000 0.2445863 -0.4270948 0.7554137 0.4270948 0.7554137 0.4270948 0.2445863 -0.4270948
1801000000 0.2398841 -0.4242250 0.7601159 0.4242250 0.7601159 0.4242250 0.2398841 -0.4242250
1822000000 0.2352884 -0.4213504 0.7647116 0.4213504 0.7647116 0.4213504 0.2352884 -0.4213504
1843000000 0.2307964 -0.4184726 0.7692036 0.4184726 0.7692036 0.4184726 0.2307964 -0.4184726
1864000000 0.2264057 -0.4155932 0.7735943 0.4155932 0.7735943 0.4155932 0.2264057 -0.4155932
1885000000 0.2221137 -0.4127138 0.7778863 0.4127138 0.7778863 0.4127138 0.2221137 -0.4127138
1906000000 0.2179180 -0.4098356 0.7820820 0.4098356 0.7820820 0.4098356 0.2179180 -0.4098356
1927000000 0.2138161 -0.4069601 0.7861839 0.4069601 0.7861839 0.4069601 0.2138161 -0.4069601
1948000000 0.2098057 -0.4040884 0.7901943 0.4040884 0.7901943 0.4040884 0.2098057 -0.4040884
1969000000 0.2058845 -0.4012216 0.7941155 0.4012216 0.7941155 0.4012216 0.2058845 -0.4012216
1990000000 0.2020503 -0.3983609 0.7979497 0.3983609 0.7979497 0.3983609 0.2020503 -0.3983609
2011000000 0.1983008 -0.3955071 0.8016992 0.3955071 0.8016992 0.3955071 0.1983008 -0.3955071
2032000000 0.1946340 -0.3926613 0.8053660 0.3926613 0.8053660 0.3926613 0.1946340 -0.3926613
2053000000 0.1910477 -0.3898243 0.8089523 0.3898243 0.8089523 0.3898243 0.1910477 -0.3898243
2074000000 0.1875400 -0.3869968 0.8124600 0.3869968 0.8124600 0.3869968 0.1875400 -0.3869968
2095000000 0.1841088 -0.3841796 0.8158912 0.3841796 0.8158912 0.3841796 0.1841088 -0.3841796
2116000000 0.1807523 -0.3813733 0.8192477 0.3813733 0.8192477 0.3813733 0.1807523 -0.3813733
2137000000 0.1774685 -0.3785786 0.8225315 0.3785786 0.8225315 0.3785786 0.1774685 -0.3785786
2158000000 0.1742556 -0.3757961 0.8257444 0.3757961 0.8257444 0.3757961 0.1742556 -0.3757961
2179000000 0.1711119 -0.3730262 0.8288881 0.3730262 0.8288881 0.3730262 0.1711119 -0.3730262
2200000000 0.1680356 -0.3702695 0.8319644 0.3702695 0.8319644 0.3702695 0.1680356 -0.3702695
2221000000 0.1650250 -0.3675264 0.8349750 0.3675264 0.8349750 0.3675264 0.1650250 -0.3675264
2242000000 0.1620785 -0.3647974 0.8379215 0.3647974 0.8379215 0.3647974 0.1620785 -0.3647974
2263000000 0.1591945 -0.3620827 0.8408055 0.3620827 0.8408055 0.3620827 0.1591945 -0.3620827
2284000000 0.1563715 -0.3593827 0.8436285 0.3593827 0.8436285 0.3593827 0.1563715 -0.3593827
2305000000 0.1536078 -0.3566978 0.8463922 0.3566978 0.8463922 0.3566978 0.1536078 -0.3566978
2326000000 0.1509022 -0.3540282 0.8490978 0.3540282 0.8490978 0.3540282 0.1509022 -0.3540282
2347000000 0.1482530 -0.3513741 0.8517470 0.3513741 0.8517470 0.3513741 0.1482530 -0.3513741
2368000000 0.1456590 -0.3487358 0.8543410 0.3487358 0.8543410 0.3487358 0.1456590 -0.3487358
2389000000 0.1431187 -0.3461134 0.8568813 0.3461134 0.8568813 0.3461134 0.1431187 -0.3461134
2410000000 0.1406309 -0.3435073 0.8593691 0.3435073 0.8593691 0.3435073 0.1406309 -0.3435073
2431000000 0.1381942 -0.3409173 0.8618058 0.3409173 0.8618058 0.3409173 0.1381942 -0.3409173
2452000000 0.1358075 -0.3383439 0.8641925 0.3383439 0.8641925 0.3383439 0.1358075 -0.3383439
2473000000 0.1334695 -0.3357869 0.8665305 0.3357869 0.8665305 0.3357869 0.1334695 -0.3357869
2494000000 0.1311790 -0.3332466 0.8688210 0.3332466 0.8688210 0.3332466 0.1311790 -0.3332466
2515000000 0.1289349 -0.3307230 0.8710651 0.3307230 0.8710651 0.3307230 0.1289349 -0.3307230
2536000000 0.1267361 -0.3282161 0.8732639 0.3282161 0.8732639 0.3282161 0.1267361 -0.3282161
2557000000 0.1245814 -0.3257260 0.8754186 0.3257260 0.8754186 0.3257260 0.1245814 -0.3257260
2578000000 0.1224699 -0.3232528 0.8775301 0.3232528 0.8775301 0.3232528 0.1224699 -0.3232528
2599000000 0.1204004 -0.3207964 0.8795996 0.3207964 0.8795996 0.3207964 0.1204004 -0.3207964
2620000000 0.1183721 -0.3183569 0.8816279 0.3183569 0.8816279 0.3183569 0.1183721 -0.3183569
2641000000 0.1163838 -0.3159343 0.8836162 0.3159343 0.8836162 0.3159343 0.1163838 -0.3159343
2662000000 0.1144348 -0.3135285 0.8855652 0.3135285 0.8855652 0.3135285 0.1144348 -0.3135285
2683000000 0.1125240 -0.3111395 0.8874760 0.3111395 0.8874760 0.3111395 0.1125240 -0.3111395
2704000000 0.1106505 -0.3087673 0.8893495 0.3087673 0.8893495 0.3087673 0.1106505 -0.3087673
2725000000 0.1088135 -0.3064119 0.8911865 0.3064119 0.8911865 0.3064119 0.1088135 -0.3064119
2746000000 0.1070122 -0.3040731 0.8929878 0.3040731 0.8929878 0.3040731 0.1070122 -0.3040731
2767000000 0.1052457 -0.3017510 0.8947543 0.3017510 0.8947543 0.3017510 0.1052457 -0.3017510
2788000000 0.1035132 -0.2994454 0.8964868 0.2994454 0.8964868 0.2994454 0.1035132 -0.2994454
2809000000 0.1018139 -0.2971564 0.8981861 0.2971564 0.8981861 0.2971564 0.1018139 -0.2971564
2830000000 0.1001471 -0.2948837 0.8998529 0.2948837 0.8998529 0.2948837 0.1001471 -0.2948837
2851000000 0.0985121 -0.2926274 0.9014879 0.2926274 0.9014879 0.2926274 0.0985121 -0.2926274
2872000000 0.0969080 -0.2903874 0.9030920 0.2903874 0.9030920 0.2903874 0.0969080 -0.2903874
2893000000 0.0953343 -0.2881635 0.9046657 0.2881635 0.9046657 0.2881635 0.0953343 -0.2881635
2914000000 0.0937902 -0.2859556 0.9062098 0.2859556 0.9062098 0.2859556 0.0937902 -0.2859556
2935000000 0.0922751 -0.2837638 0.9077249 0.2837638 0.9077249 0.2837638 0.0922751 -0.2837638
2956000000 0.0907883 -0.2815878 0.9092117 0.2815878 0.9092117 0.2815878 0.0907883 -0.2815878
2977000000 0.0893291 -0.2794275 0.9106709 0.2794275 0.9106709 0.2794275 0.0893291 -0.2794275
2998000000 0.0878971 -0.2772829 0.9121029 0.2772829 0.9121029 0.2772829 0.0878971 -0.2772829
3019000000 0.0864915 -0.2751538 0.9135085 0.2751538 0.9135085 0.2751538 0.0864915 -0.2751538
3040000000 0.0851119 -0.2730401 0.9148881 0.2730401 0.9148881 0.2730401 0.0851119 -0.2730401
3061000000 0.0837576 -0.2709418 0.9162424 0.2709418 0.9162424 0.2709418 0.0837576 -0.2709418
3082000000 0.0824281 -0.2688586 0.9175719 0.2688586 0.9175719 0.2688586 0.0824281 -0.2688586
3103000000 0.0811228 -0.2667905 0.9188772 0.2667905 0.9188772 0.2667905 0.0811228 -0.2667905
3124000000 0.0798413 -0.2647373 0.9201587 0.2647373 0.9201587 0.2647373 0.0798413 -0.2647373
3145000000 0.0785830 -0.2626989 0.9214170 0.2626989 0.9214170 0.2626989 0.0785830 -0.2626989
3166000000 0.0773474 -0.2606752 0.9226526 0.2606752 0.9226526 0.2606752 0.0773474 -0.2606752
3187000000 0.0761340 -0.2586661 0.9238660 0.2586661 0.9238660 0.2586661 0.0761340 -0.2586661
3208000000 0.0749425 -0.2566714 0.9250575 0.2566714 0.9250575 0.2566714 0.0749425 -0.2566714
3229000000 0.0737722 -0.2546910 0.9262278 0.2546910 0.9262278 0.2546910 0.0737722 -0.2546910
3250000000 0.0726228 -0.2527248 0.9273772 0.2527248 0.9273772 0.2527248 0.0726228 -0.2527248
3271000000 0.0714939 -0.2507727 0.9285061 0.2507727 0.9285061 0.2507727 0.0714939 -0.2507727
3292000000 0.0703849 -0.2488345 0.9296151 0.2488345 0.9296151 0.2488345 0.0703849 -0.2488345
3313000000 0.0692956 -0.2469101 0.9307044 0.2469101 0.9307044 0.2469101 0.0692956 -0.2469101
3334000000 0.0682255 -0.2449994 0.9317745 0.2449994 0.9317745 0.2449994 0.0682255 -0.2449994
3355000000 0.0671741 -0.2431022 0.9328259 0.2431022 0.9328259 0.2431022 0.0671741 -0.2431022
3376000000 0.0661412 -0.2412184 0.9338588 0.2412184 0.9338588 0.2412184 0.0661412 -0.2412184
3397000000 0.0651263 -0.2393479 0.9348737 0.2393479 0.9348737 0.2393479 0.0651263 -0.2393479
3418000000 0.0641291 -0.2374905 0.9358709 0.2374905 0.9358709 0.2374905 0.0641291 -0.2374905
3439000000 0.0631492 -0.2356462 0.9368508 0.2356462 0.9368508 0.2356462 0.0631492 -0.2356462
3460000000 0.0621863 -0.2338148 0.9378137 0.2338148 0.9378137 0.2338148 0.0621863 -0.2338148
3481000000 0.0612401 -0.2319962 0.9387599 0.2319962 0.9387599 0.2319962 0.0612401 -0.2319962
3502000000 0.0603101 -0.2301902 0.9396899 0.2301902 0.9396899 0.2301902 0.0603101 -0.2301902
3523000000 0.0593962 -0.2283967 0.9406038 0.2283967 0.9406038 0.2283967 0.0593962 -0.2283967
3544000000 0.0584979 -0.2266156 0.9415021 0.2266156 0.9415021 0.2266156 0.0584979 -0.2266156
3565000000 0.0576150 -0.2248469 0.9423850 0.2248469 0.9423850 0.2248469 0.0576150 -0.2248469
3586000000 0.0567472 -0.2230902 0.9432528 0.2230902 0.9432528 0.2230902 0.0567472 -0.2230902
3607000000 0.0558942 -0.2213456 0.9441058 0.2213456 0.9441058 0.2213456 0.0558942 -0.2213456
3628000000 0.0550556 -0.2196129 0.9449444 0.2196129 0.9449444 0.2196129 0.0550556 -0.2196129
3649000000 0.0542313 -0.2178920 0.9457687 0.2178920 0.9457687 0.2178920 0.0542313 -0.2178920
3670000000 0.0534210 -0.2161827 0.9465790 0.2161827 0.9465790 0.2161827 0.0534210 -0.2161827
3691000000 0.0526243 -0.2144850 0.9473757 0.2144850 0.9473757 0.2144850 0.0526243 -0.2144850
3712000000 0.0518410 -0.2127987 0.9481590 0.2127987 0.9481590 0.2127987 0.0518410 -0.2127987
3733000000 0.0510710 -0.2111238 0.9489290 0.2111238 0.9489290 0.2111238 0.0510710 -0.2111238
3754000000 0.0503138 -0.2094600 0.9496862 0.2094600 0.9496862 0.2094600 0.0503138 -0.2094600
3775000000 0.0495694 -0.2078073 0.9504306 0.2078073 0.9504306 0.2078073 0.0495694 -0.2078073
3796000000 0.0488374 -0.2061656 0.9511626 0.2061656 0.9511626 0.2061656 0.0488374 -0.2061656
3817000000 0.0481176 -0.2045347 0.9518824 0.2045347 0.9518824 0.2045347 0.0481176 -0.2045347
3838000000 0.0474099 -0.2029145 0.9525901 0.2029145 0.9525901 0.2029145 0.0474099 -0.2029145
3859000000 0.0467139 -0.2013050 0.9532861 0.2013050 0.9532861 0.2013050 0.0467139 -0.2013050
3880000000 0.0460295 -0.1997060 0.9539705 0.1997060 0.9539705 0.1997060 0.0460295 -0.1997060
3901000000 0.0453565 -0.1981174 0.9546435 0.1981174 0.9546435 0.1981174 0.0453565 -0.1981174
3922000000 0.0446946 -0.1965391 0.9553054 0.1965391 0.9553054 0.1965391 0.0446946 -0.1965391
3943000000 0.0440437 -0.1949711 0.9559563 0.1949711 0.9559563 0.1949711 0.0440437 -0.1949711
3964000000 0.0434036 -0.1934131 0.9565964 0.1934131 0.9565964 0.1934131 0.0434036 -0.1934131
3985000000 0.0427741 -0.1918650 0.9572259 0.1918650 0.9572259 0.1918650 0.0427741 -0.1918650
4006000000 0.0421549 -0.1903269 0.9578451 0.1903269 0.9578451 0.1903269 0.0421549 -0.1903269
4027000000 0.0415460 -0.1887985 0.9584540 0.1887985 0.9584540 0.1887985 0.0415460 -0.1887985
4048000000 0.0409471 -0.1872799 0.9590529 0.1872799 0.9590529 0.1872799 0.0409471 -0.1872799
4069000000 0.0403580 -0.1857708 0.9596420 0.1857708 0.9596420 0.1857708 0.0403580 -0.1857708
4090000000 0.0397787 -0.1842711 0.9602213 0.1842711 0.9602213 0.1842711 0.0397787 -0.1842711
4111000000 0.0392088 -0.1827809 0.9607912 0.1827809 0.9607912 0.1827809 0.0392088 -0.1827809
4132000000 0.0386484 -0.1812999 0.9613516 0.1812999 0.9613516 0.1812999 0.0386484 -0.1812999
4153000000 0.0380971 -0.1798282 0.9619029 0.1798282 0.9619029 0.1798282 0.0380971 -0.1798282
4174000000 0.0375549 -0.1783655 0.9624451 0.1783655 0.9624451 0.1783655 0.0375549 -0.1783655
4195000000 0.0370217 -0.1769118 0.9629783 0.1769118 0.9629783 0.1769118 0.0370217 -0.1769118
4216000000 0.0364971 -0.1754671 0.9635029 0.1754671 0.9635029 0.1754671 0.0364971 -0.1754671
4237000000 0.0359812 -0.1740311 0.9640188 0.1740311 0.9640188 0.1740311 0.0359812 -0.1740311
4258000000 0.0354737 -0.1726039 0.9645263 0.1726039 0.9645263 0.1726039 0.0354737 -0.1726039
4279000000 0.0349746 -0.1711853 0.9650254 0.1711853 0.9650254 0.1711853 0.0349746 -0.1711853
4300000000 0.0344837 -0.1697753 0.9655163 0.1697753 0.9655163 0.1697753 0.0344837 -0.1697753
4321000000 0.0340008 -0.1683737 0.9659992 0.1683737 0.9659992 0.1683737 0.0340008 -0.1683737
4342000000 0.0335258 -0.1669806 0.9664742 0.1669806 0.9664742 0.1669806 0.0335258 -0.1669806
4363000000 0.0330587 -0.1655957 0.9669413 0.1655957 0.9669413 0.1655957 0.0330587 -0.1655957
4384000000 0.0325992 -0.1642190 0.9674008 0.1642190 0.9674008 0.1642190 0.0325992 -0.1642190
4405000000 0.0321473 -0.1628505 0.9678527 0.1628505 0.9678527 0.1628505 0.0321473 -0.1628505
4426000000 0.0317029 -0.1614900 0.9682971 0.1614900 0.9682971 0.1614900 0.0317029 -0.1614900
4447000000 0.0312657 -0.1601374 0.9687343 0.1601374 0.9687343 0.1601374 0.0312657 -0.1601374
4468000000 0.0308358 -0.1587928 0.9691642 0.1587928 0.9691642 0.1587928 0.0308358 -0.1587928
4489000000 0.0304129 -0.1574560 0.9695871 0.1574560 0.9695871 0.1574560 0.0304129 -0.1574560
4510000000 0.0299971 -0.1561269 0.9700029 0.1561269 0.9700029 0.1561269 0.0299971 -0.1561269
