!Murata Part Number: GRM0335C2A820GA01
!These Parameters are Measured in Series Mode Connection
!Data Generated on Mar 30, 2021
!       o--ll--o
!Port1            Port2
!       o------o
!Operation Temp=25[degC], DC Bias Voltage=0[V]
!Freq. Start=100[MHz] Stop=9[GHz] 401[Steps]
# Hz S RI R 50
!Freq.(Hz) S11(Real) S11(Imag) S21(Real) S21(Imag) S12(Real) S12(Imag) S22(Real) S22(Imag)
100000000 0.0367433 -0.1851691 0.9632567 0.1851691 0.9632567 0.1851691 0.0367433 -0.1851691
121000000 0.0255524 -0.1541983 0.9744476 0.1541983 0.9744476 0.1541983 0.0255524 -0.1541983
142000000 0.0188279 -0.1316765 0.9811721 0.1316765 0.9811721 0.1316765 0.0188279 -0.1316765
163000000 0.0144848 -0.1145864 0.9855152 0.1145864 0.9855152 0.1145864 0.0144848 -0.1145864
184000000 0.0115232 -0.1011736 0.9884768 0.1011736 0.9884768 0.1011736 0.0115232 -0.1011736
205000000 0.0094166 -0.0903579 0.9905834 0.0903579 0.9905834 0.0903579 0.0094166 -0.0903579
226000000 0.0078669 -0.0814411 0.9921331 0.0814411 0.9921331 0.0814411 0.0078669 -0.0814411
247000000 0.0066955 -0.0739530 0.9933045 0.0739530 0.9933045 0.0739530 0.0066955 -0.0739530
268000000 0.0057897 -0.0675659 0.9942103 0.0675659 0.9942103 0.0675659 0.0057897 -0.0675659
289000000 0.0050762 -0.0620448 0.9949238 0.0620448 0.9949238 0.0620448 0.0050762 -0.0620448
310000000 0.0045051 -0.0572170 0.9954949 0.0572170 0.9954949 0.0572170 0.0045051 -0.0572170
331000000 0.0040419 -0.0529526 0.9959581 0.0529526 0.9959581 0.0529526 0.0040419 -0.0529526
352000000 0.0036618 -0.0491522 0.9963382 0.0491522 0.9963382 0.0491522 0.0036618 -0.0491522
373000000 0.0033470 -0.0457384 0.9966530 0.0457384 0.9966530 0.0457384 0.0033470 -0.0457384
394000000 0.0030839 -0.0426502 0.9969161 0.0426502 0.9969161 0.0426502 0.0030839 -0.0426502
415000000 0.0028626 -0.0398385 0.9971374 0.0398385 0.9971374 0.0398385 0.0028626 -0.0398385
436000000 0.0026753 -0.0372640 0.9973247 0.0372640 0.9973247 0.0372640 0.0026753 -0.0372640
457000000 0.0025160 -0.0348941 0.9974840 0.0348941 0.9974840 0.0348941 0.0025160 -0.0348941
478000000 0.0023800 -0.0327022 0.9976200 0.0327022 0.9976200 0.0327022 0.0023800 -0.0327022
499000000 0.0022635 -0.0306660 0.9977365 0.0306660 0.9977365 0.0306660 0.0022635 -0.0306660
520000000 0.0021635 -0.0287667 0.9978365 0.0287667 0.9978365 0.0287667 0.0021635 -0.0287667
541000000 0.0020776 -0.0269885 0.9979224 0.0269885 0.9979224 0.0269885 0.0020776 -0.0269885
562000000 0.0020036 -0.0253179 0.9979964 0.0253179 0.9979964 0.0253179 0.0020036 -0.0253179
583000000 0.0019400 -0.0237434 0.9980600 0.0237434 0.9980600 0.0237434 0.0019400 -0.0237434
604000000 0.0018855 -0.0222551 0.9981145 0.0222551 0.9981145 0.0222551 0.0018855 -0.0222551
625000000 0.0018387 -0.0208442 0.9981613 0.0208442 0.9981613 0.0208442 0.0018387 -0.0208442
646000000 0.0017989 -0.0195033 0.9982011 0.0195033 0.9982011 0.0195033 0.0017989 -0.0195033
667000000 0.0017651 -0.0182258 0.9982349 0.0182258 0.9982349 0.0182258 0.0017651 -0.0182258
688000000 0.0017367 -0.0170059 0.9982633 0.0170059 0.9982633 0.0170059 0.0017367 -0.0170059
709000000 0.0017130 -0.0158385 0.9982870 0.0158385 0.9982870 0.0158385 0.0017130 -0.0158385
730000000 0.0016936 -0.0147191 0.9983064 0.0147191 0.9983064 0.0147191 0.0016936 -0.0147191
751000000 0.0016780 -0.0136436 0.9983220 0.0136436 0.9983220 0.0136436 0.0016780 -0.0136436
772000000 0.0016658 -0.0126086 0.9983342 0.0126086 0.9983342 0.0126086 0.0016658 -0.0126086
793000000 0.0016568 -0.0116107 0.9983432 0.0116107 0.9983432 0.0116107 0.0016568 -0.0116107
814000000 0.0016505 -0.0106472 0.9983495 0.0106472 0.9983495 0.0106472 0.0016505 -0.0106472
835000000 0.0016469 -0.0097154 0.9983531 0.0097154 0.9983531 0.0097154 0.0016469 -0.0097154
856000000 0.0016455 -0.0088129 0.9983545 0.0088129 0.9983545 0.0088129 0.0016455 -0.0088129
877000000 0.0016464 -0.0079377 0.9983536 0.0079377 0.9983536 0.0079377 0.0016464 -0.0079377
898000000 0.0016492 -0.0070878 0.9983508 0.0070878 0.9983508 0.0070878 0.0016492 -0.0070878
919000000 0.0016538 -0.0062615 0.9983462 0.0062615 0.9983462 0.0062615 0.0016538 -0.0062615
940000000 0.0016601 -0.0054573 0.9983399 0.0054573 0.9983399 0.0054573 0.0016601 -0.0054573
961000000 0.0016680 -0.0046735 0.9983320 0.0046735 0.9983320 0.0046735 0.0016680 -0.0046735
982000000 0.0016774 -0.0039090 0.9983226 0.0039090 0.9983226 0.0039090 0.0016774 -0.0039090
1003000000 0.0016881 -0.0031624 0.9983119 0.0031624 0.9983119 0.0031624 0.0016881 -0.0031624
1024000000 0.0017002 -0.0024327 0.9982998 0.0024327 0.9982998 0.0024327 0.0017002 -0.0024327
1045000000 0.0017135 -0.0017189 0.9982865 0.0017189 0.9982865 0.0017189 0.0017135 -0.0017189
1066000000 0.0017280 -0.0010199 0.9982720 0.0010199 0.9982720 0.0010199 0.0017280 -0.0010199
1087000000 0.0017435 -0.0003349 0.9982565 0.0003349 0.9982565 0.0003349 0.0017435 -0.0003349
1108000000 0.0017602 0.0003369 0.9982398 -0.0003369 0.9982398 -0.0003369 0.0017602 0.0003369
1129000000 0.0017778 0.0009963 0.9982222 -0.0009963 0.9982222 -0.0009963 0.0017778 0.0009963
1150000000 0.0017964 0.0016439 0.9982036 -0.0016439 0.9982036 -0.0016439 0.0017964 0.0016439
1171000000 0.0018160 0.0022805 0.9981840 -0.0022805 0.9981840 -0.0022805 0.0018160 0.0022805
1192000000 0.0018365 0.0029066 0.9981635 -0.0029066 0.9981635 -0.0029066 0.0018365 0.0029066
1213000000 0.0018579 0.0035228 0.9981421 -0.0035228 0.9981421 -0.0035228 0.0018579 0.0035228
1234000000 0.0018802 0.0041296 0.9981198 -0.0041296 0.9981198 -0.0041296 0.0018802 0.0041296
1255000000 0.0019033 0.0047275 0.9980967 -0.0047275 0.9980967 -0.0047275 0.0019033 0.0047275
1276000000 0.0019272 0.0053170 0.9980728 -0.0053170 0.9980728 -0.0053170 0.0019272 0.0053170
1297000000 0.0019520 0.0058985 0.9980480 -0.0058985 0.9980480 -0.0058985 0.0019520 0.0058985
1318000000 0.0019776 0.0064724 0.9980224 -0.0064724 0.9980224 -0.0064724 0.0019776 0.0064724
1339000000 0.0020040 0.0070390 0.9979960 -0.0070390 0.9979960 -0.0070390 0.0020040 0.0070390
1360000000 0.0020312 0.0075988 0.9979688 -0.0075988 0.9979688 -0.0075988 0.0020312 0.0075988
1381000000 0.0020592 0.0081521 0.9979408 -0.0081521 0.9979408 -0.0081521 0.0020592 0.0081521
1402000000 0.0020880 0.0086991 0.9979120 -0.0086991 0.9979120 -0.0086991 0.0020880 0.0086991
1423000000 0.0021176 0.0092402 0.9978824 -0.0092402 0.9978824 -0.0092402 0.0021176 0.0092402
1444000000 0.0021480 0.0097757 0.9978520 -0.0097757 0.9978520 -0.0097757 0.0021480 0.0097757
1465000000 0.0021793 0.0103058 0.9978207 -0.0103058 0.9978207 -0.0103058 0.0021793 0.0103058
1486000000 0.0022113 0.0108307 0.9977887 -0.0108307 0.9977887 -0.0108307 0.0022113 0.0108307
1507000000 0.0022442 0.0113507 0.9977558 -0.0113507 0.9977558 -0.0113507 0.0022442 0.0113507
1528000000 0.0022779 0.0118661 0.9977221 -0.0118661 0.9977221 -0.0118661 0.0022779 0.0118661
1549000000 0.0023125 0.0123769 0.9976875 -0.0123769 0.9976875 -0.0123769 0.0023125 0.0123769
1570000000 0.0023479 0.0128835 0.9976521 -0.0128835 0.9976521 -0.0128835 0.0023479 0.0128835
1591000000 0.0023842 0.0133860 0.9976158 -0.0133860 0.9976158 -0.0133860 0.0023842 0.0133860
1612000000 0.0024214 0.0138845 0.9975786 -0.0138845 0.9975786 -0.0138845 0.0024214 0.0138845
1633000000 0.0024595 0.0143793 0.9975405 -0.0143793 0.9975405 -0.0143793 0.0024595 0.0143793
1654000000 0.0024986 0.0148705 0.9975014 -0.0148705 0.9975014 -0.0148705 0.0024986 0.0148705
1675000000 0.0025386 0.0153582 0.9974614 -0.0153582 0.9974614 -0.0153582 0.0025386 0.0153582
1696000000 0.0025796 0.0158426 0.9974204 -0.0158426 0.9974204 -0.0158426 0.0025796 0.0158426
1717000000 0.0026217 0.0163238 0.9973783 -0.0163238 0.9973783 -0.0163238 0.0026217 0.0163238
1738000000 0.0026647 0.0168020 0.9973353 -0.0168020 0.9973353 -0.0168020 0.0026647 0.0168020
1759000000 0.0027089 0.0172771 0.9972911 -0.0172771 0.9972911 -0.0172771 0.0027089 0.0172771
1780000000 0.0027541 0.0177494 0.9972459 -0.0177494 0.9972459 -0.0177494 0.0027541 0.0177494
1801000000 0.0028005 0.0182189 0.9971995 -0.0182189 0.9971995 -0.0182189 0.0028005 0.0182189
1822000000 0.0028480 0.0186858 0.9971520 -0.0186858 0.9971520 -0.0186858 0.0028480 0.0186858
1843000000 0.0028967 0.0191500 0.9971033 -0.0191500 0.9971033 -0.0191500 0.0028967 0.0191500
1864000000 0.0029467 0.0196117 0.9970533 -0.0196117 0.9970533 -0.0196117 0.0029467 0.0196117
1885000000 0.0029980 0.0200709 0.9970020 -0.0200709 0.9970020 -0.0200709 0.0029980 0.0200709
1906000000 0.0030505 0.0205276 0.9969495 -0.0205276 0.9969495 -0.0205276 0.0030505 0.0205276
1927000000 0.0031044 0.0209820 0.9968956 -0.0209820 0.9968956 -0.0209820 0.0031044 0.0209820
1948000000 0.0031597 0.0214341 0.9968403 -0.0214341 0.9968403 -0.0214341 0.0031597 0.0214341
1969000000 0.0032164 0.0218838 0.9967836 -0.0218838 0.9967836 -0.0218838 0.0032164 0.0218838
1990000000 0.0032746 0.0223312 0.9967254 -0.0223312 0.9967254 -0.0223312 0.0032746 0.0223312
2011000000 0.0033342 0.0227763 0.9966658 -0.0227763 0.9966658 -0.0227763 0.0033342 0.0227763
2032000000 0.0033954 0.0232191 0.9966046 -0.0232191 0.9966046 -0.0232191 0.0033954 0.0232191
2053000000 0.0034581 0.0236596 0.9965419 -0.0236596 0.9965419 -0.0236596 0.0034581 0.0236596
2074000000 0.0035224 0.0240977 0.9964776 -0.0240977 0.9964776 -0.0240977 0.0035224 0.0240977
2095000000 0.0035883 0.0245334 0.9964117 -0.0245334 0.9964117 -0.0245334 0.0035883 0.0245334
2116000000 0.0036557 0.0249666 0.9963443 -0.0249666 0.9963443 -0.0249666 0.0036557 0.0249666
2137000000 0.0037247 0.0253973 0.9962753 -0.0253973 0.9962753 -0.0253973 0.0037247 0.0253973
2158000000 0.0037952 0.0258255 0.9962048 -0.0258255 0.9962048 -0.0258255 0.0037952 0.0258255
2179000000 0.0038672 0.0262510 0.9961328 -0.0262510 0.9961328 -0.0262510 0.0038672 0.0262510
2200000000 0.0039407 0.0266738 0.9960593 -0.0266738 0.9960593 -0.0266738 0.0039407 0.0266738
2221000000 0.0040156 0.0270937 0.9959844 -0.0270937 0.9959844 -0.0270937 0.0040156 0.0270937
2242000000 0.0040918 0.0275107 0.9959082 -0.0275107 0.9959082 -0.0275107 0.0040918 0.0275107
2263000000 0.0041691 0.0279247 0.9958309 -0.0279247 0.9958309 -0.0279247 0.0041691 0.0279247
2284000000 0.0042474 0.0283357 0.9957526 -0.0283357 0.9957526 -0.0283357 0.0042474 0.0283357
2305000000 0.0043266 0.0287434 0.9956734 -0.0287434 0.9956734 -0.0287434 0.0043266 0.0287434
2326000000 0.0044065 0.0291479 0.9955935 -0.0291479 0.9955935 -0.0291479 0.0044065 0.0291479
2347000000 0.0044867 0.0295492 0.9955133 -0.0295492 0.9955133 -0.0295492 0.0044867 0.0295492
2368000000 0.0045672 0.0299472 0.9954328 -0.0299472 0.9954328 -0.0299472 0.0045672 0.0299472
2389000000 0.0046476 0.0303420 0.9953524 -0.0303420 0.9953524 -0.0303420 0.0046476 0.0303420
2410000000 0.0047276 0.0307336 0.9952724 -0.0307336 0.9952724 -0.0307336 0.0047276 0.0307336
2431000000 0.0048070 0.0311221 0.9951930 -0.0311221 0.9951930 -0.0311221 0.0048070 0.0311221
2452000000 0.0048855 0.0315076 0.9951145 -0.0315076 0.9951145 -0.0315076 0.0048855 0.0315076
2473000000 0.0049627 0.0318905 0.9950373 -0.0318905 0.9950373 -0.0318905 0.0049627 0.0318905
2494000000 0.0050386 0.0322708 0.9949614 -0.0322708 0.9949614 -0.0322708 0.0050386 0.0322708
2515000000 0.0051127 0.0326490 0.9948873 -0.0326490 0.9948873 -0.0326490 0.0051127 0.0326490
2536000000 0.0051850 0.0330253 0.9948150 -0.0330253 0.9948150 -0.0330253 0.0051850 0.0330253
2557000000 0.0052553 0.0334001 0.9947447 -0.0334001 0.9947447 -0.0334001 0.0052553 0.0334001
2578000000 0.0053235 0.0337738 0.9946765 -0.0337738 0.9946765 -0.0337738 0.0053235 0.0337738
2599000000 0.0053896 0.0341468 0.9946104 -0.0341468 0.9946104 -0.0341468 0.0053896 0.0341468
2620000000 0.0054536 0.0345196 0.9945464 -0.0345196 0.9945464 -0.0345196 0.0054536 0.0345196
2641000000 0.0055155 0.0348924 0.9944845 -0.0348924 0.9944845 -0.0348924 0.0055155 0.0348924
2662000000 0.0055757 0.0352656 0.9944243 -0.0352656 0.9944243 -0.0352656 0.0055757 0.0352656
2683000000 0.0056341 0.0356397 0.9943659 -0.0356397 0.9943659 -0.0356397 0.0056341 0.0356397
2704000000 0.0056912 0.0360150 0.9943088 -0.0360150 0.9943088 -0.0360150 0.0056912 0.0360150
2725000000 0.0057471 0.0363916 0.9942529 -0.0363916 0.9942529 -0.0363916 0.0057471 0.0363916
2746000000 0.0058021 0.0367698 0.9941979 -0.0367698 0.9941979 -0.0367698 0.0058021 0.0367698
2767000000 0.0058566 0.0371499 0.9941434 -0.0371499 0.9941434 -0.0371499 0.0058566 0.0371499
2788000000 0.0059108 0.0375318 0.9940892 -0.0375318 0.9940892 -0.0375318 0.0059108 0.0375318
2809000000 0.0059651 0.0379158 0.9940349 -0.0379158 0.9940349 -0.0379158 0.0059651 0.0379158
2830000000 0.0060199 0.0383018 0.9939801 -0.0383018 0.9939801 -0.0383018 0.0060199 0.0383018
2851000000 0.0060753 0.0386899 0.9939247 -0.0386899 0.9939247 -0.0386899 0.0060753 0.0386899
2872000000 0.0061317 0.0390800 0.9938683 -0.0390800 0.9938683 -0.0390800 0.0061317 0.0390800
2893000000 0.0061894 0.0394721 0.9938106 -0.0394721 0.9938106 -0.0394721 0.0061894 0.0394721
2914000000 0.0062485 0.0398661 0.9937515 -0.0398661 0.9937515 -0.0398661 0.0062485 0.0398661
2935000000 0.0063093 0.0402619 0.9936907 -0.0402619 0.9936907 -0.0402619 0.0063093 0.0402619
2956000000 0.0063721 0.0406595 0.9936279 -0.0406595 0.9936279 -0.0406595 0.0063721 0.0406595
2977000000 0.0064369 0.0410587 0.9935631 -0.0410587 0.9935631 -0.0410587 0.0064369 0.0410587
2998000000 0.0065041 0.0414594 0.9934959 -0.0414594 0.9934959 -0.0414594 0.0065041 0.0414594
3019000000 0.0065736 0.0418615 0.9934264 -0.0418615 0.9934264 -0.0418615 0.0065736 0.0418615
3040000000 0.0066457 0.0422649 0.9933543 -0.0422649 0.9933543 -0.0422649 0.0066457 0.0422649
3061000000 0.0067205 0.0426695 0.9932795 -0.0426695 0.9932795 -0.0426695 0.0067205 0.0426695
3082000000 0.0067981 0.0430751 0.9932019 -0.0430751 0.9932019 -0.0430751 0.0067981 0.0430751
3103000000 0.0068786 0.0434816 0.9931214 -0.0434816 0.9931214 -0.0434816 0.0068786 0.0434816
3124000000 0.0069621 0.0438890 0.9930379 -0.0438890 0.9930379 -0.0438890 0.0069621 0.0438890
3145000000 0.0070487 0.0442971 0.9929513 -0.0442971 0.9929513 -0.0442971 0.0070487 0.0442971
3166000000 0.0071385 0.0447057 0.9928615 -0.0447057 0.9928615 -0.0447057 0.0071385 0.0447057
3187000000 0.0072316 0.0451149 0.9927684 -0.0451149 0.9927684 -0.0451149 0.0072316 0.0451149
3208000000 0.0073280 0.0455244 0.9926720 -0.0455244 0.9926720 -0.0455244 0.0073280 0.0455244
3229000000 0.0074279 0.0459343 0.9925721 -0.0459343 0.9925721 -0.0459343 0.0074279 0.0459343
3250000000 0.0075314 0.0463442 0.9924686 -0.0463442 0.9924686 -0.0463442 0.0075314 0.0463442
3271000000 0.0076385 0.0467542 0.9923615 -0.0467542 0.9923615 -0.0467542 0.0076385 0.0467542
3292000000 0.0077494 0.0471642 0.9922506 -0.0471642 0.9922506 -0.0471642 0.0077494 0.0471642
3313000000 0.0078641 0.0475739 0.9921359 -0.0475739 0.9921359 -0.0475739 0.0078641 0.0475739
3334000000 0.0079827 0.0479833 0.9920173 -0.0479833 0.9920173 -0.0479833 0.0079827 0.0479833
3355000000 0.0081054 0.0483922 0.9918946 -0.0483922 0.9918946 -0.0483922 0.0081054 0.0483922
3376000000 0.0082322 0.0488005 0.9917678 -0.0488005 0.9917678 -0.0488005 0.0082322 0.0488005
3397000000 0.0083633 0.0492080 0.9916367 -0.0492080 0.9916367 -0.0492080 0.0083633 0.0492080
3418000000 0.0084987 0.0496146 0.9915013 -0.0496146 0.9915013 -0.0496146 0.0084987 0.0496146
3439000000 0.0086385 0.0500201 0.9913615 -0.0500201 0.9913615 -0.0500201 0.0086385 0.0500201
3460000000 0.0087830 0.0504242 0.9912170 -0.0504242 0.9912170 -0.0504242 0.0087830 0.0504242
3481000000 0.0089320 0.0508267 0.9910680 -0.0508267 0.9910680 -0.0508267 0.0089320 0.0508267
3502000000 0.0090859 0.0512275 0.9909141 -0.0512275 0.9909141 -0.0512275 0.0090859 0.0512275
3523000000 0.0092446 0.0516262 0.9907554 -0.0516262 0.9907554 -0.0516262 0.0092446 0.0516262
3544000000 0.0094083 0.0520226 0.9905917 -0.0520226 0.9905917 -0.0520226 0.0094083 0.0520226
3565000000 0.0095770 0.0524163 0.9904230 -0.0524163 0.9904230 -0.0524163 0.0095770 0.0524163
3586000000 0.0097508 0.0528071 0.9902492 -0.0528071 0.9902492 -0.0528071 0.0097508 0.0528071
3607000000 0.0099297 0.0531945 0.9900703 -0.0531945 0.9900703 -0.0531945 0.0099297 0.0531945
3628000000 0.0101139 0.0535782 0.9898861 -0.0535782 0.9898861 -0.0535782 0.0101139 0.0535782
3649000000 0.0103032 0.0539578 0.9896968 -0.0539578 0.9896968 -0.0539578 0.0103032 0.0539578
3670000000 0.0104977 0.0543329 0.9895023 -0.0543329 0.9895023 -0.0543329 0.0104977 0.0543329
3691000000 0.0106972 0.0547029 0.9893028 -0.0547029 0.9893028 -0.0547029 0.0106972 0.0547029
3712000000 0.0109018 0.0550673 0.9890982 -0.0550673 0.9890982 -0.0550673 0.0109018 0.0550673
3733000000 0.0111113 0.0554257 0.9888887 -0.0554257 0.9888887 -0.0554257 0.0111113 0.0554257
3754000000 0.0113253 0.0557774 0.9886747 -0.0557774 0.9886747 -0.0557774 0.0113253 0.0557774
3775000000 0.0115438 0.0561220 0.9884562 -0.0561220 0.9884562 -0.0561220 0.0115438 0.0561220
3796000000 0.0117664 0.0564588 0.9882336 -0.0564588 0.9882336 -0.0564588 0.0117664 0.0564588
3817000000 0.0119925 0.0567873 0.9880075 -0.0567873 0.9880075 -0.0567873 0.0119925 0.0567873
3838000000 0.0122219 0.0571068 0.9877781 -0.0571068 0.9877781 -0.0571068 0.0122219 0.0571068
3859000000 0.0124538 0.0574168 0.9875462 -0.0574168 0.9875462 -0.0574168 0.0124538 0.0574168
3880000000 0.0126876 0.0577168 0.9873124 -0.0577168 0.9873124 -0.0577168 0.0126876 0.0577168
3901000000 0.0129225 0.0580061 0.9870775 -0.0580061 0.9870775 -0.0580061 0.0129225 0.0580061
3922000000 0.0131577 0.0582845 0.9868423 -0.0582845 0.9868423 -0.0582845 0.0131577 0.0582845
3943000000 0.0133921 0.0585516 0.9866079 -0.0585516 0.9866079 -0.0585516 0.0133921 0.0585516
3964000000 0.0136248 0.0588070 0.9863752 -0.0588070 0.9863752 -0.0588070 0.0136248 0.0588070
3985000000 0.0138545 0.0590505 0.9861455 -0.0590505 0.9861455 -0.0590505 0.0138545 0.0590505
4006000000 0.0140801 0.0592823 0.9859199 -0.0592823 0.9859199 -0.0592823 0.0140801 0.0592823
4027000000 0.0143002 0.0595023 0.9856998 -0.0595023 0.9856998 -0.0595023 0.0143002 0.0595023
4048000000 0.0145137 0.0597109 0.9854863 -0.0597109 0.9854863 -0.0597109 0.0145137 0.0597109
4069000000 0.0147190 0.0599085 0.9852810 -0.0599085 0.9852810 -0.0599085 0.0147190 0.0599085
4090000000 0.0149150 0.0600959 0.9850850 -0.0600959 0.9850850 -0.0600959 0.0149150 0.0600959
4111000000 0.0151004 0.0602738 0.9848996 -0.0602738 0.9848996 -0.0602738 0.0151004 0.0602738
4132000000 0.0152741 0.0604433 0.9847259 -0.0604433 0.9847259 -0.0604433 0.0152741 0.0604433
4153000000 0.0154350 0.0606056 0.9845650 -0.0606056 0.9845650 -0.0606056 0.0154350 0.0606056
4174000000 0.0155823 0.0607620 0.9844177 -0.0607620 0.9844177 -0.0607620 0.0155823 0.0607620
4195000000 0.0157152 0.0609142 0.9842848 -0.0609142 0.9842848 -0.0609142 0.0157152 0.0609142
4216000000 0.0158333 0.0610636 0.9841667 -0.0610636 0.9841667 -0.0610636 0.0158333 0.0610636
4237000000 0.0159364 0.0612120 0.9840636 -0.0612120 0.9840636 -0.0612120 0.0159364 0.0612120
4258000000 0.0160243 0.0613610 0.9839757 -0.0613610 0.9839757 -0.0613610 0.0160243 0.0613610
4279000000 0.0160972 0.0615123 0.9839028 -0.0615123 0.9839028 -0.0615123 0.0160972 0.0615123
4300000000 0.0161557 0.0616676 0.9838443 -0.0616676 0.9838443 -0.0616676 0.0161557 0.0616676
4321000000 0.0162004 0.0618283 0.9837996 -0.0618283 0.9837996 -0.0618283 0.0162004 0.0618283
4342000000 0.0162320 0.0619960 0.9837680 -0.0619960 0.9837680 -0.0619960 0.0162320 0.0619960
4363000000 0.0162516 0.0621718 0.9837484 -0.0621718 0.9837484 -0.0621718 0.0162516 0.0621718
4384000000 0.0162602 0.0623568 0.9837398 -0.0623568 0.9837398 -0.0623568 0.0162602 0.0623568
4405000000 0.0162592 0.0625520 0.9837408 -0.0625520 0.9837408 -0.0625520 0.0162592 0.0625520
4426000000 0.0162498 0.0627581 0.9837502 -0.0627581 0.9837502 -0.0627581 0.0162498 0.0627581
4447000000 0.0162333 0.0629757 0.9837667 -0.0629757 0.9837667 -0.0629757 0.0162333 0.0629757
4468000000 0.0162110 0.0632049 0.9837890 -0.0632049 0.9837890 -0.0632049 0.0162110 0.0632049
4489000000 0.0161842 0.0634462 0.9838158 -0.0634462 0.9838158 -0.0634462 0.0161842 0.0634462
4510000000 0.0161542 0.0636994 0.9838458 -0.0636994 0.9838458 -0.0636994 0.0161542 0.0636994
