!Murata Part Number: GRM0335C2AR90WA01
!These Parameters are Measured in Series Mode Connection
!Data Generated on Mar 30, 2021
!       o--ll--o
!Port1            Port2
!       o------o
!Operation Temp=25[degC], DC Bias Voltage=0[V]
!Freq. Start=100[MHz] Stop=20[GHz] 401[Steps]
# Hz S RI R 50
!Freq.(Hz) S11(Real) S11(Imag) S21(Real) S21(Imag) S12(Real) S12(Imag) S22(Real) S22(Imag)
100000000 0.9967871 -0.0563716 0.0032129 0.0563716 0.0032129 0.0563716 0.9967871 -0.0563716
149750000 0.9928220 -0.0840891 0.0071780 0.0840891 0.0071780 0.0840891 0.9928220 -0.0840891
199500000 0.9873267 -0.1114210 0.0126733 0.1114210 0.0126733 0.1114210 0.9873267 -0.1114210
249250000 0.9803494 -0.1382479 0.0196506 0.1382479 0.0196506 0.1382479 0.9803494 -0.1382479
299000000 0.9719499 -0.1644577 0.0280501 0.1644577 0.0280501 0.1644577 0.9719499 -0.1644577
348750000 0.9621989 -0.1899470 0.0378011 0.1899470 0.0378011 0.1899470 0.9621989 -0.1899470
398500000 0.9511760 -0.2146220 0.0488240 0.2146220 0.0488240 0.2146220 0.9511760 -0.2146220
448250000 0.9389688 -0.2383998 0.0610312 0.2383998 0.0610312 0.2383998 0.9389688 -0.2383998
498000000 0.9256705 -0.2612083 0.0743295 0.2612083 0.0743295 0.2612083 0.9256705 -0.2612083
547750000 0.9113791 -0.2829874 0.0886209 0.2829874 0.0886209 0.2829874 0.9113791 -0.2829874
597500000 0.8961951 -0.3036884 0.1038049 0.3036884 0.1038049 0.3036884 0.8961951 -0.3036884
647250000 0.8802204 -0.3232740 0.1197796 0.3232740 0.1197796 0.3232740 0.8802204 -0.3232740
697000000 0.8635566 -0.3417182 0.1364434 0.3417182 0.1364434 0.3417182 0.8635566 -0.3417182
746750000 0.8463039 -0.3590053 0.1536961 0.3590053 0.1536961 0.3590053 0.8463039 -0.3590053
796500000 0.8285600 -0.3751297 0.1714400 0.3751297 0.1714400 0.3751297 0.8285600 -0.3751297
846250000 0.8104188 -0.3900945 0.1895812 0.3900945 0.1895812 0.3900945 0.8104188 -0.3900945
896000000 0.7919700 -0.4039113 0.2080300 0.4039113 0.2080300 0.4039113 0.7919700 -0.4039113
945750000 0.7732982 -0.4165986 0.2267018 0.4165986 0.2267018 0.4165986 0.7732982 -0.4165986
995500000 0.7544825 -0.4281814 0.2455175 0.4281814 0.2455175 0.4281814 0.7544825 -0.4281814
1045250000 0.7355964 -0.4386899 0.2644036 0.4386899 0.2644036 0.4386899 0.7355964 -0.4386899
1095000000 0.7167072 -0.4481588 0.2832928 0.4481588 0.2832928 0.4481588 0.7167072 -0.4481588
1144750000 0.6978761 -0.4566263 0.3021239 0.4566263 0.3021239 0.4566263 0.6978761 -0.4566263
1194500000 0.6791586 -0.4641333 0.3208414 0.4641333 0.3208414 0.4641333 0.6791586 -0.4641333
1244250000 0.6606041 -0.4707231 0.3393959 0.4707231 0.3393959 0.4707231 0.6606041 -0.4707231
1294000000 0.6422563 -0.4764399 0.3577437 0.4764399 0.3577437 0.4764399 0.6422563 -0.4764399
1343750000 0.6241535 -0.4813289 0.3758465 0.4813289 0.3758465 0.4813289 0.6241535 -0.4813289
1393500000 0.6063288 -0.4854355 0.3936712 0.4854355 0.3936712 0.4854355 0.6063288 -0.4854355
1443250000 0.5888108 -0.4888050 0.4111892 0.4888050 0.4111892 0.4888050 0.5888108 -0.4888050
1493000000 0.5716231 -0.4914821 0.4283769 0.4914821 0.4283769 0.4914821 0.5716231 -0.4914821
1542750000 0.5547855 -0.4935104 0.4452145 0.4935104 0.4452145 0.4935104 0.5547855 -0.4935104
1592500000 0.5383141 -0.4949326 0.4616859 0.4949326 0.4616859 0.4949326 0.5383141 -0.4949326
1642250000 0.5222213 -0.4957899 0.4777787 0.4957899 0.4777787 0.4957899 0.5222213 -0.4957899
1692000000 0.5065164 -0.4961221 0.4934836 0.4961221 0.4934836 0.4961221 0.5065164 -0.4961221
1741750000 0.4912063 -0.4959672 0.5087937 0.4959672 0.5087937 0.4959672 0.4912063 -0.4959672
1791500000 0.4762949 -0.4953616 0.5237051 0.4953616 0.5237051 0.4953616 0.4762949 -0.4953616
1841250000 0.4617844 -0.4943399 0.5382156 0.4943399 0.5382156 0.4943399 0.4617844 -0.4943399
1891000000 0.4476746 -0.4929350 0.5523254 0.4929350 0.5523254 0.4929350 0.4476746 -0.4929350
1940750000 0.4339639 -0.4911777 0.5660361 0.4911777 0.5660361 0.4911777 0.4339639 -0.4911777
1990500000 0.4206494 -0.4890975 0.5793506 0.4890975 0.5793506 0.4890975 0.4206494 -0.4890975
2040250000 0.4077265 -0.4867217 0.5922735 0.4867217 0.5922735 0.4867217 0.4077265 -0.4867217
2090000000 0.3951899 -0.4840762 0.6048101 0.4840762 0.6048101 0.4840762 0.3951899 -0.4840762
2139750000 0.3830333 -0.4811851 0.6169667 0.4811851 0.6169667 0.4811851 0.3830333 -0.4811851
2189500000 0.3712497 -0.4780711 0.6287503 0.4780711 0.6287503 0.4780711 0.3712497 -0.4780711
2239250000 0.3598314 -0.4747551 0.6401686 0.4747551 0.6401686 0.4747551 0.3598314 -0.4747551
2289000000 0.3487702 -0.4712569 0.6512298 0.4712569 0.6512298 0.4712569 0.3487702 -0.4712569
2338750000 0.3380578 -0.4675946 0.6619422 0.4675946 0.6619422 0.4675946 0.3380578 -0.4675946
2388500000 0.3276852 -0.4637852 0.6723148 0.4637852 0.6723148 0.4637852 0.3276852 -0.4637852
2438250000 0.3176435 -0.4598444 0.6823565 0.4598444 0.6823565 0.4598444 0.3176435 -0.4598444
2488000000 0.3079236 -0.4557867 0.6920764 0.4557867 0.6920764 0.4557867 0.3079236 -0.4557867
2537750000 0.2985163 -0.4516256 0.7014837 0.4516256 0.7014837 0.4516256 0.2985163 -0.4516256
2587500000 0.2894124 -0.4473735 0.7105876 0.4473735 0.7105876 0.4473735 0.2894124 -0.4473735
2637250000 0.2806026 -0.4430418 0.7193974 0.4430418 0.7193974 0.4430418 0.2806026 -0.4430418
2687000000 0.2720781 -0.4386412 0.7279219 0.4386412 0.7279219 0.4386412 0.2720781 -0.4386412
2736750000 0.2638296 -0.4341814 0.7361704 0.4341814 0.7361704 0.4341814 0.2638296 -0.4341814
2786500000 0.2558485 -0.4296712 0.7441515 0.4296712 0.7441515 0.4296712 0.2558485 -0.4296712
2836250000 0.2481259 -0.4251190 0.7518741 0.4251190 0.7518741 0.4251190 0.2481259 -0.4251190
2886000000 0.2406534 -0.4205323 0.7593466 0.4205323 0.7593466 0.4205323 0.2406534 -0.4205323
2935750000 0.2334226 -0.4159179 0.7665774 0.4159179 0.7665774 0.4159179 0.2334226 -0.4159179
2985500000 0.2264254 -0.4112823 0.7735746 0.4112823 0.7735746 0.4112823 0.2264254 -0.4112823
3035250000 0.2196539 -0.4066312 0.7803461 0.4066312 0.7803461 0.4066312 0.2196539 -0.4066312
3085000000 0.2131003 -0.4019698 0.7868997 0.4019698 0.7868997 0.4019698 0.2131003 -0.4019698
3134750000 0.2067572 -0.3973031 0.7932428 0.3973031 0.7932428 0.3973031 0.2067572 -0.3973031
3184500000 0.2006172 -0.3926354 0.7993828 0.3926354 0.7993828 0.3926354 0.2006172 -0.3926354
3234250000 0.1946734 -0.3879707 0.8053266 0.3879707 0.8053266 0.3879707 0.1946734 -0.3879707
3284000000 0.1889190 -0.3833127 0.8110810 0.3833127 0.8110810 0.3833127 0.1889190 -0.3833127
3333750000 0.1833473 -0.3786646 0.8166527 0.3786646 0.8166527 0.3786646 0.1833473 -0.3786646
3383500000 0.1779519 -0.3740295 0.8220481 0.3740295 0.8220481 0.3740295 0.1779519 -0.3740295
3433250000 0.1727268 -0.3694100 0.8272732 0.3694100 0.8272732 0.3694100 0.1727268 -0.3694100
3483000000 0.1676660 -0.3648085 0.8323340 0.3648085 0.8323340 0.3648085 0.1676660 -0.3648085
3532750000 0.1627636 -0.3602273 0.8372364 0.3602273 0.8372364 0.3602273 0.1627636 -0.3602273
3582500000 0.1580143 -0.3556683 0.8419857 0.3556683 0.8419857 0.3556683 0.1580143 -0.3556683
3632250000 0.1534127 -0.3511333 0.8465873 0.3511333 0.8465873 0.3511333 0.1534127 -0.3511333
3682000000 0.1489536 -0.3466237 0.8510464 0.3466237 0.8510464 0.3466237 0.1489536 -0.3466237
3731750000 0.1446321 -0.3421411 0.8553679 0.3421411 0.8553679 0.3421411 0.1446321 -0.3421411
3781500000 0.1404434 -0.3376866 0.8595566 0.3376866 0.8595566 0.3376866 0.1404434 -0.3376866
3831250000 0.1363829 -0.3332613 0.8636171 0.3332613 0.8636171 0.3332613 0.1363829 -0.3332613
3881000000 0.1324463 -0.3288662 0.8675537 0.3288662 0.8675537 0.3288662 0.1324463 -0.3288662
3930750000 0.1286293 -0.3245021 0.8713707 0.3245021 0.8713707 0.3245021 0.1286293 -0.3245021
3980500000 0.1249277 -0.3201696 0.8750723 0.3201696 0.8750723 0.3201696 0.1249277 -0.3201696
4030250000 0.1213377 -0.3158695 0.8786623 0.3158695 0.8786623 0.3158695 0.1213377 -0.3158695
4080000000 0.1178555 -0.3116021 0.8821445 0.3116021 0.8821445 0.3116021 0.1178555 -0.3116021
4129750000 0.1144774 -0.3073679 0.8855226 0.3073679 0.8855226 0.3073679 0.1144774 -0.3073679
4179500000 0.1111999 -0.3031672 0.8888001 0.3031672 0.8888001 0.3031672 0.1111999 -0.3031672
4229250000 0.1080197 -0.2990003 0.8919803 0.2990003 0.8919803 0.2990003 0.1080197 -0.2990003
4279000000 0.1049335 -0.2948675 0.8950665 0.2948675 0.8950665 0.2948675 0.1049335 -0.2948675
4328750000 0.1019383 -0.2907687 0.8980617 0.2907687 0.8980617 0.2907687 0.1019383 -0.2907687
4378500000 0.0990309 -0.2867042 0.9009691 0.2867042 0.9009691 0.2867042 0.0990309 -0.2867042
4428250000 0.0962085 -0.2826739 0.9037915 0.2826739 0.9037915 0.2826739 0.0962085 -0.2826739
4478000000 0.0934684 -0.2786779 0.9065316 0.2786779 0.9065316 0.2786779 0.0934684 -0.2786779
4527750000 0.0908079 -0.2747160 0.9091921 0.2747160 0.9091921 0.2747160 0.0908079 -0.2747160
4577500000 0.0882244 -0.2707882 0.9117756 0.2707882 0.9117756 0.2707882 0.0882244 -0.2707882
4627250000 0.0857154 -0.2668943 0.9142846 0.2668943 0.9142846 0.2668943 0.0857154 -0.2668943
4677000000 0.0832786 -0.2630342 0.9167214 0.2630342 0.9167214 0.2630342 0.0832786 -0.2630342
4726750000 0.0809117 -0.2592077 0.9190883 0.2592077 0.9190883 0.2592077 0.0809117 -0.2592077
4776500000 0.0786125 -0.2554145 0.9213875 0.2554145 0.9213875 0.2554145 0.0786125 -0.2554145
4826250000 0.0763788 -0.2516546 0.9236212 0.2516546 0.9236212 0.2516546 0.0763788 -0.2516546
4876000000 0.0742087 -0.2479275 0.9257913 0.2479275 0.9257913 0.2479275 0.0742087 -0.2479275
4925750000 0.0721001 -0.2442330 0.9278999 0.2442330 0.9278999 0.2442330 0.0721001 -0.2442330
4975500000 0.0700511 -0.2405708 0.9299489 0.2405708 0.9299489 0.2405708 0.0700511 -0.2405708
5025250000 0.0680600 -0.2369407 0.9319400 0.2369407 0.9319400 0.2369407 0.0680600 -0.2369407
5075000000 0.0661250 -0.2333423 0.9338750 0.2333423 0.9338750 0.2333423 0.0661250 -0.2333423
5124750000 0.0642444 -0.2297753 0.9357556 0.2297753 0.9357556 0.2297753 0.0642444 -0.2297753
5174500000 0.0624166 -0.2262393 0.9375834 0.2262393 0.9375834 0.2262393 0.0624166 -0.2262393
5224250000 0.0606400 -0.2227340 0.9393600 0.2227340 0.9393600 0.2227340 0.0606400 -0.2227340
5274000000 0.0589131 -0.2192591 0.9410869 0.2192591 0.9410869 0.2192591 0.0589131 -0.2192591
5323750000 0.0572344 -0.2158142 0.9427656 0.2158142 0.9427656 0.2158142 0.0572344 -0.2158142
5373500000 0.0556025 -0.2123989 0.9443975 0.2123989 0.9443975 0.2123989 0.0556025 -0.2123989
5423250000 0.0540162 -0.2090129 0.9459838 0.2090129 0.9459838 0.2090129 0.0540162 -0.2090129
5473000000 0.0524740 -0.2056558 0.9475260 0.2056558 0.9475260 0.2056558 0.0524740 -0.2056558
5522750000 0.0509747 -0.2023273 0.9490253 0.2023273 0.9490253 0.2023273 0.0509747 -0.2023273
5572500000 0.0495172 -0.1990269 0.9504828 0.1990269 0.9504828 0.1990269 0.0495172 -0.1990269
5622250000 0.0481001 -0.1957544 0.9518999 0.1957544 0.9518999 0.1957544 0.0481001 -0.1957544
5672000000 0.0467225 -0.1925093 0.9532775 0.1925093 0.9532775 0.1925093 0.0467225 -0.1925093
5721750000 0.0453832 -0.1892912 0.9546168 0.1892912 0.9546168 0.1892912 0.0453832 -0.1892912
5771500000 0.0440811 -0.1860998 0.9559189 0.1860998 0.9559189 0.1860998 0.0440811 -0.1860998
5821250000 0.0428153 -0.1829348 0.9571847 0.1829348 0.9571847 0.1829348 0.0428153 -0.1829348
5871000000 0.0415848 -0.1797957 0.9584152 0.1797957 0.9584152 0.1797957 0.0415848 -0.1797957
5920750000 0.0403886 -0.1766822 0.9596114 0.1766822 0.9596114 0.1766822 0.0403886 -0.1766822
5970500000 0.0392257 -0.1735939 0.9607743 0.1735939 0.9607743 0.1735939 0.0392257 -0.1735939
6020250000 0.0380954 -0.1705305 0.9619046 0.1705305 0.9619046 0.1705305 0.0380954 -0.1705305
6070000000 0.0369968 -0.1674916 0.9630032 0.1674916 0.9630032 0.1674916 0.0369968 -0.1674916
6119750000 0.0359290 -0.1644768 0.9640710 0.1644768 0.9640710 0.1644768 0.0359290 -0.1644768
6169500000 0.0348912 -0.1614859 0.9651088 0.1614859 0.9651088 0.1614859 0.0348912 -0.1614859
6219250000 0.0338828 -0.1585184 0.9661172 0.1585184 0.9661172 0.1585184 0.0338828 -0.1585184
6269000000 0.0329028 -0.1555740 0.9670972 0.1555740 0.9670972 0.1555740 0.0329028 -0.1555740
6318750000 0.0319507 -0.1526524 0.9680493 0.1526524 0.9680493 0.1526524 0.0319507 -0.1526524
6368500000 0.0310256 -0.1497533 0.9689744 0.1497533 0.9689744 0.1497533 0.0310256 -0.1497533
6418250000 0.0301270 -0.1468762 0.9698730 0.1468762 0.9698730 0.1468762 0.0301270 -0.1468762
6468000000 0.0292542 -0.1440209 0.9707458 0.1440209 0.9707458 0.1440209 0.0292542 -0.1440209
6517750000 0.0284066 -0.1411870 0.9715934 0.1411870 0.9715934 0.1411870 0.0284066 -0.1411870
6567500000 0.0275835 -0.1383743 0.9724165 0.1383743 0.9724165 0.1383743 0.0275835 -0.1383743
6617250000 0.0267843 -0.1355824 0.9732157 0.1355824 0.9732157 0.1355824 0.0267843 -0.1355824
6667000000 0.0260085 -0.1328109 0.9739915 0.1328109 0.9739915 0.1328109 0.0260085 -0.1328109
6716750000 0.0252556 -0.1300597 0.9747444 0.1300597 0.9747444 0.1300597 0.0252556 -0.1300597
6766500000 0.0245250 -0.1273283 0.9754750 0.1273283 0.9754750 0.1273283 0.0245250 -0.1273283
6816250000 0.0238161 -0.1246166 0.9761839 0.1246166 0.9761839 0.1246166 0.0238161 -0.1246166
6866000000 0.0231285 -0.1219241 0.9768715 0.1219241 0.9768715 0.1219241 0.0231285 -0.1219241
6915750000 0.0224617 -0.1192506 0.9775383 0.1192506 0.9775383 0.1192506 0.0224617 -0.1192506
6965500000 0.0218153 -0.1165958 0.9781847 0.1165958 0.9781847 0.1165958 0.0218153 -0.1165958
7015250000 0.0211886 -0.1139595 0.9788114 0.1139595 0.9788114 0.1139595 0.0211886 -0.1139595
7065000000 0.0205815 -0.1113412 0.9794185 0.1113412 0.9794185 0.1113412 0.0205815 -0.1113412
7114750000 0.0199933 -0.1087409 0.9800067 0.1087409 0.9800067 0.1087409 0.0199933 -0.1087409
7164500000 0.0194236 -0.1061582 0.9805764 0.1061582 0.9805764 0.1061582 0.0194236 -0.1061582
7214250000 0.0188722 -0.1035928 0.9811278 0.1035928 0.9811278 0.1035928 0.0188722 -0.1035928
7264000000 0.0183385 -0.1010445 0.9816615 0.1010445 0.9816615 0.1010445 0.0183385 -0.1010445
7313750000 0.0178222 -0.0985130 0.9821778 0.0985130 0.9821778 0.0985130 0.0178222 -0.0985130
7363500000 0.0173230 -0.0959981 0.9826770 0.0959981 0.9826770 0.0959981 0.0173230 -0.0959981
7413250000 0.0168404 -0.0934995 0.9831596 0.0934995 0.9831596 0.0934995 0.0168404 -0.0934995
7463000000 0.0163742 -0.0910169 0.9836258 0.0910169 0.9836258 0.0910169 0.0163742 -0.0910169
7512750000 0.0159240 -0.0885502 0.9840760 0.0885502 0.9840760 0.0885502 0.0159240 -0.0885502
7562500000 0.0154894 -0.0860991 0.9845106 0.0860991 0.9845106 0.0860991 0.0154894 -0.0860991
7612250000 0.0150702 -0.0836633 0.9849298 0.0836633 0.9849298 0.0836633 0.0150702 -0.0836633
7662000000 0.0146661 -0.0812427 0.9853339 0.0812427 0.9853339 0.0812427 0.0146661 -0.0812427
7711750000 0.0142767 -0.0788370 0.9857233 0.0788370 0.9857233 0.0788370 0.0142767 -0.0788370
7761500000 0.0139017 -0.0764459 0.9860983 0.0764459 0.9860983 0.0764459 0.0139017 -0.0764459
7811250000 0.0135410 -0.0740693 0.9864590 0.0740693 0.9864590 0.0740693 0.0135410 -0.0740693
7861000000 0.0131941 -0.0717070 0.9868059 0.0717070 0.9868059 0.0717070 0.0131941 -0.0717070
7910750000 0.0128610 -0.0693586 0.9871390 0.0693586 0.9871390 0.0693586 0.0128610 -0.0693586
7960500000 0.0125412 -0.0670241 0.9874588 0.0670241 0.9874588 0.0670241 0.0125412 -0.0670241
8010250000 0.0122345 -0.0647033 0.9877655 0.0647033 0.9877655 0.0647033 0.0122345 -0.0647033
8060000000 0.0119407 -0.0623958 0.9880593 0.0623958 0.9880593 0.0623958 0.0119407 -0.0623958
8109750000 0.0116597 -0.0601015 0.9883403 0.0601015 0.9883403 0.0601015 0.0116597 -0.0601015
8159500000 0.0113910 -0.0578203 0.9886090 0.0578203 0.9886090 0.0578203 0.0113910 -0.0578203
8209250000 0.0111345 -0.0555519 0.9888655 0.0555519 0.9888655 0.0555519 0.0111345 -0.0555519
8259000000 0.0108901 -0.0532961 0.9891099 0.0532961 0.9891099 0.0532961 0.0108901 -0.0532961
8308750000 0.0106574 -0.0510528 0.9893426 0.0510528 0.9893426 0.0510528 0.0106574 -0.0510528
8358500000 0.0104364 -0.0488218 0.9895636 0.0488218 0.9895636 0.0488218 0.0104364 -0.0488218
8408250000 0.0102267 -0.0466028 0.9897733 0.0466028 0.9897733 0.0466028 0.0102267 -0.0466028
8458000000 0.0100282 -0.0443958 0.9899718 0.0443958 0.9899718 0.0443958 0.0100282 -0.0443958
8507750000 0.0098407 -0.0422005 0.9901593 0.0422005 0.9901593 0.0422005 0.0098407 -0.0422005
8557500000 0.0096640 -0.0400168 0.9903360 0.0400168 0.9903360 0.0400168 0.0096640 -0.0400168
8607250000 0.0094980 -0.0378445 0.9905020 0.0378445 0.9905020 0.0378445 0.0094980 -0.0378445
8657000000 0.0093425 -0.0356834 0.9906575 0.0356834 0.9906575 0.0356834 0.0093425 -0.0356834
8706750000 0.0091972 -0.0335333 0.9908028 0.0335333 0.9908028 0.0335333 0.0091972 -0.0335333
8756500000 0.0090622 -0.0313942 0.9909378 0.0313942 0.9909378 0.0313942 0.0090622 -0.0313942
8806250000 0.0089371 -0.0292659 0.9910629 0.0292659 0.9910629 0.0292659 0.0089371 -0.0292659
8856000000 0.0088218 -0.0271481 0.9911782 0.0271481 0.9911782 0.0271481 0.0088218 -0.0271481
8905750000 0.0087162 -0.0250408 0.9912838 0.0250408 0.9912838 0.0250408 0.0087162 -0.0250408
8955500000 0.0086202 -0.0229438 0.9913798 0.0229438 0.9913798 0.0229438 0.0086202 -0.0229438
9005250000 0.0085335 -0.0208569 0.9914665 0.0208569 0.9914665 0.0208569 0.0085335 -0.0208569
9055000000 0.0084561 -0.0187800 0.9915439 0.0187800 0.9915439 0.0187800 0.0084561 -0.0187800
9104750000 0.0083879 -0.0167130 0.9916121 0.0167130 0.9916121 0.0167130 0.0083879 -0.0167130
9154500000 0.0083286 -0.0146557 0.9916714 0.0146557 0.9916714 0.0146557 0.0083286 -0.0146557
9204250000 0.0082782 -0.0126080 0.9917218 0.0126080 0.9917218 0.0126080 0.0082782 -0.0126080
9254000000 0.0082366 -0.0105697 0.9917634 0.0105697 0.9917634 0.0105697 0.0082366 -0.0105697
9303750000 0.0082036 -0.0085407 0.9917964 0.0085407 0.9917964 0.0085407 0.0082036 -0.0085407
9353500000 0.0081791 -0.0065209 0.9918209 0.0065209 0.9918209 0.0065209 0.0081791 -0.0065209
9403250000 0.0081629 -0.0045102 0.9918371 0.0045102 0.9918371 0.0045102 0.0081629 -0.0045102
9453000000 0.0081551 -0.0025083 0.9918449 0.0025083 0.9918449 0.0025083 0.0081551 -0.0025083
9502750000 0.0081555 -0.0005153 0.9918445 0.0005153 0.9918445 0.0005153 0.0081555 -0.0005153
9552500000 0.0081639 0.0014691 0.9918361 -0.0014691 0.9918361 -0.0014691 0.0081639 0.0014691
9602250000 0.0081803 0.0034450 0.9918197 -0.0034450 0.9918197 -0.0034450 0.0081803 0.0034450
9652000000 0.0082046 0.0054124 0.9917954 -0.0054124 0.9917954 -0.0054124 0.0082046 0.0054124
9701750000 0.0082366 0.0073715 0.9917634 -0.0073715 0.9917634 -0.0073715 0.0082366 0.0073715
9751500000 0.0082764 0.0093225 0.9917236 -0.0093225 0.9917236 -0.0093225 0.0082764 0.0093225
9801250000 0.0083237 0.0112653 0.9916763 -0.0112653 0.9916763 -0.0112653 0.0083237 0.0112653
9851000000 0.0083785 0.0132003 0.9916215 -0.0132003 0.9916215 -0.0132003 0.0083785 0.0132003
9900750000 0.0084408 0.0151273 0.9915592 -0.0151273 0.9915592 -0.0151273 0.0084408 0.0151273
9950500000 0.0085104 0.0170467 0.9914896 -0.0170467 0.9914896 -0.0170467 0.0085104 0.0170467
10000250000 0.0085872 0.0189584 0.9914128 -0.0189584 0.9914128 -0.0189584 0.0085872 0.0189584
10050000000 0.0086713 0.0208626 0.9913287 -0.0208626 0.9913287 -0.0208626 0.0086713 0.0208626
10099750000 0.0087624 0.0227594 0.9912376 -0.0227594 0.9912376 -0.0227594 0.0087624 0.0227594
10149500000 0.0088606 0.0246489 0.9911394 -0.0246489 0.9911394 -0.0246489 0.0088606 0.0246489
10199250000 0.0089657 0.0265311 0.9910343 -0.0265311 0.9910343 -0.0265311 0.0089657 0.0265311
10249000000 0.0090777 0.0284063 0.9909223 -0.0284063 0.9909223 -0.0284063 0.0090777 0.0284063
10298750000 0.0091965 0.0302745 0.9908035 -0.0302745 0.9908035 -0.0302745 0.0091965 0.0302745
10348500000 0.0093220 0.0321357 0.9906780 -0.0321357 0.9906780 -0.0321357 0.0093220 0.0321357
10398250000 0.0094543 0.0339902 0.9905457 -0.0339902 0.9905457 -0.0339902 0.0094543 0.0339902
10448000000 0.0095931 0.0358379 0.9904069 -0.0358379 0.9904069 -0.0358379 0.0095931 0.0358379
10497750000 0.0097385 0.0376790 0.9902615 -0.0376790 0.9902615 -0.0376790 0.0097385 0.0376790
