!Murata Part Number: GRM0335C1HR50BA01
!These Parameters are Measured in Series Mode Connection
!Data Generated on Mar 30, 2021
!       o--ll--o
!Port1            Port2
!       o------o
!Operation Temp=25[degC], DC Bias Voltage=0[V]
!Freq. Start=100[MHz] Stop=20[GHz] 401[Steps]
# Hz S RI R 50
!Freq.(Hz) S11(Real) S11(Imag) S21(Real) S21(Imag) S12(Real) S12(Imag) S22(Real) S22(Imag)
100000000 0.9990050 -0.0313862 0.0009950 0.0313862 0.0009950 0.0313862 0.9990050 -0.0313862
149750000 0.9977712 -0.0469456 0.0022288 0.0469456 0.0022288 0.0469456 0.9977712 -0.0469456
199500000 0.9960505 -0.0624393 0.0039495 0.0624393 0.0039495 0.0624393 0.9960505 -0.0624393
249250000 0.9938472 -0.0778459 0.0061528 0.0778459 0.0061528 0.0778459 0.9938472 -0.0778459
299000000 0.9911672 -0.0931443 0.0088328 0.0931443 0.0088328 0.0931443 0.9911672 -0.0931443
348750000 0.9880175 -0.1083141 0.0119825 0.1083141 0.0119825 0.1083141 0.9880175 -0.1083141
398500000 0.9844060 -0.1233352 0.0155940 0.1233352 0.0155940 0.1233352 0.9844060 -0.1233352
448250000 0.9803420 -0.1381883 0.0196580 0.1381883 0.0196580 0.1381883 0.9803420 -0.1381883
498000000 0.9758358 -0.1528546 0.0241642 0.1528546 0.0241642 0.1528546 0.9758358 -0.1528546
547750000 0.9708985 -0.1673164 0.0291015 0.1673164 0.0291015 0.1673164 0.9708985 -0.1673164
597500000 0.9655422 -0.1815565 0.0344578 0.1815565 0.0344578 0.1815565 0.9655422 -0.1815565
647250000 0.9597800 -0.1955586 0.0402200 0.1955586 0.0402200 0.1955586 0.9597800 -0.1955586
697000000 0.9536256 -0.2093076 0.0463744 0.2093076 0.0463744 0.2093076 0.9536256 -0.2093076
746750000 0.9470935 -0.2227891 0.0529065 0.2227891 0.0529065 0.2227891 0.9470935 -0.2227891
796500000 0.9401985 -0.2359899 0.0598015 0.2359899 0.0598015 0.2359899 0.9401985 -0.2359899
846250000 0.9329564 -0.2488976 0.0670436 0.2488976 0.0670436 0.2488976 0.9329564 -0.2488976
896000000 0.9253832 -0.2615011 0.0746168 0.2615011 0.0746168 0.2615011 0.9253832 -0.2615011
945750000 0.9174952 -0.2737901 0.0825048 0.2737901 0.0825048 0.2737901 0.9174952 -0.2737901
995500000 0.9093091 -0.2857555 0.0906909 0.2857555 0.0906909 0.2857555 0.9093091 -0.2857555
1045250000 0.9008418 -0.2973892 0.0991582 0.2973892 0.0991582 0.2973892 0.9008418 -0.2973892
1095000000 0.8921103 -0.3086843 0.1078897 0.3086843 0.1078897 0.3086843 0.8921103 -0.3086843
1144750000 0.8831318 -0.3196347 0.1168682 0.3196347 0.1168682 0.3196347 0.8831318 -0.3196347
1194500000 0.8739232 -0.3302354 0.1260768 0.3302354 0.1260768 0.3302354 0.8739232 -0.3302354
1244250000 0.8645017 -0.3404825 0.1354983 0.3404825 0.1354983 0.3404825 0.8645017 -0.3404825
1294000000 0.8548841 -0.3503728 0.1451159 0.3503728 0.1451159 0.3503728 0.8548841 -0.3503728
1343750000 0.8450872 -0.3599044 0.1549128 0.3599044 0.1549128 0.3599044 0.8450872 -0.3599044
1393500000 0.8351273 -0.3690760 0.1648727 0.3690760 0.1648727 0.3690760 0.8351273 -0.3690760
1443250000 0.8250206 -0.3778871 0.1749794 0.3778871 0.1749794 0.3778871 0.8250206 -0.3778871
1493000000 0.8147829 -0.3863382 0.1852171 0.3863382 0.1852171 0.3863382 0.8147829 -0.3863382
1542750000 0.8044297 -0.3944306 0.1955703 0.3944306 0.1955703 0.3944306 0.8044297 -0.3944306
1592500000 0.7939761 -0.4021661 0.2060239 0.4021661 0.2060239 0.4021661 0.7939761 -0.4021661
1642250000 0.7834366 -0.4095473 0.2165634 0.4095473 0.2165634 0.4095473 0.7834366 -0.4095473
1692000000 0.7728253 -0.4165775 0.2271747 0.4165775 0.2271747 0.4165775 0.7728253 -0.4165775
1741750000 0.7621558 -0.4232604 0.2378442 0.4232604 0.2378442 0.4232604 0.7621558 -0.4232604
1791500000 0.7514414 -0.4296004 0.2485586 0.4296004 0.2485586 0.4296004 0.7514414 -0.4296004
1841250000 0.7406945 -0.4356022 0.2593055 0.4356022 0.2593055 0.4356022 0.7406945 -0.4356022
1891000000 0.7299272 -0.4412712 0.2700728 0.4412712 0.2700728 0.4412712 0.7299272 -0.4412712
1940750000 0.7191511 -0.4466131 0.2808489 0.4466131 0.2808489 0.4466131 0.7191511 -0.4466131
1990500000 0.7083771 -0.4516337 0.2916229 0.4516337 0.2916229 0.4516337 0.7083771 -0.4516337
2040250000 0.6976156 -0.4563396 0.3023844 0.4563396 0.3023844 0.4563396 0.6976156 -0.4563396
2090000000 0.6868765 -0.4607373 0.3131235 0.4607373 0.3131235 0.4607373 0.6868765 -0.4607373
2139750000 0.6761691 -0.4648336 0.3238309 0.4648336 0.3238309 0.4648336 0.6761691 -0.4648336
2189500000 0.6655022 -0.4686357 0.3344978 0.4686357 0.3344978 0.4686357 0.6655022 -0.4686357
2239250000 0.6548840 -0.4721507 0.3451160 0.4721507 0.3451160 0.4721507 0.6548840 -0.4721507
2289000000 0.6443223 -0.4753859 0.3556777 0.4753859 0.3556777 0.4753859 0.6443223 -0.4753859
2338750000 0.6338244 -0.4783490 0.3661756 0.4783490 0.3661756 0.4783490 0.6338244 -0.4783490
2388500000 0.6233969 -0.4810473 0.3766031 0.4810473 0.3766031 0.4810473 0.6233969 -0.4810473
2438250000 0.6130461 -0.4834886 0.3869539 0.4834886 0.3869539 0.4834886 0.6130461 -0.4834886
2488000000 0.6027778 -0.4856803 0.3972222 0.4856803 0.3972222 0.4856803 0.6027778 -0.4856803
2537750000 0.5925973 -0.4876301 0.4074027 0.4876301 0.4074027 0.4876301 0.5925973 -0.4876301
2587500000 0.5825095 -0.4893457 0.4174905 0.4893457 0.4174905 0.4893457 0.5825095 -0.4893457
2637250000 0.5725189 -0.4908344 0.4274811 0.4908344 0.4274811 0.4908344 0.5725189 -0.4908344
2687000000 0.5626296 -0.4921040 0.4373704 0.4921040 0.4373704 0.4921040 0.5626296 -0.4921040
2736750000 0.5528451 -0.4931617 0.4471549 0.4931617 0.4471549 0.4931617 0.5528451 -0.4931617
2786500000 0.5431690 -0.4940149 0.4568310 0.4940149 0.4568310 0.4940149 0.5431690 -0.4940149
2836250000 0.5336041 -0.4946708 0.4663959 0.4946708 0.4663959 0.4946708 0.5336041 -0.4946708
2886000000 0.5241530 -0.4951366 0.4758470 0.4951366 0.4758470 0.4951366 0.5241530 -0.4951366
2935750000 0.5148182 -0.4954193 0.4851818 0.4954193 0.4851818 0.4954193 0.5148182 -0.4954193
2985500000 0.5056015 -0.4955257 0.4943985 0.4955257 0.4943985 0.4955257 0.5056015 -0.4955257
3035250000 0.4965048 -0.4954626 0.5034952 0.4954626 0.5034952 0.4954626 0.4965048 -0.4954626
3085000000 0.4875295 -0.4952366 0.5124705 0.4952366 0.5124705 0.4952366 0.4875295 -0.4952366
3134750000 0.4786768 -0.4948541 0.5213232 0.4948541 0.5213232 0.4948541 0.4786768 -0.4948541
3184500000 0.4699477 -0.4943214 0.5300523 0.4943214 0.5300523 0.4943214 0.4699477 -0.4943214
3234250000 0.4613430 -0.4936447 0.5386570 0.4936447 0.5386570 0.4936447 0.4613430 -0.4936447
3284000000 0.4528631 -0.4928299 0.5471369 0.4928299 0.5471369 0.4928299 0.4528631 -0.4928299
3333750000 0.4445086 -0.4918828 0.5554914 0.4918828 0.5554914 0.4918828 0.4445086 -0.4918828
3383500000 0.4362794 -0.4908092 0.5637206 0.4908092 0.5637206 0.4908092 0.4362794 -0.4908092
3433250000 0.4281757 -0.4896144 0.5718243 0.4896144 0.5718243 0.4896144 0.4281757 -0.4896144
3483000000 0.4201973 -0.4883039 0.5798027 0.4883039 0.5798027 0.4883039 0.4201973 -0.4883039
3532750000 0.4123438 -0.4868827 0.5876562 0.4868827 0.5876562 0.4868827 0.4123438 -0.4868827
3582500000 0.4046149 -0.4853560 0.5953851 0.4853560 0.5953851 0.4853560 0.4046149 -0.4853560
3632250000 0.3970100 -0.4837285 0.6029900 0.4837285 0.6029900 0.4837285 0.3970100 -0.4837285
3682000000 0.3895283 -0.4820049 0.6104717 0.4820049 0.6104717 0.4820049 0.3895283 -0.4820049
3731750000 0.3821693 -0.4801898 0.6178307 0.4801898 0.6178307 0.4801898 0.3821693 -0.4801898
3781500000 0.3749318 -0.4782875 0.6250682 0.4782875 0.6250682 0.4782875 0.3749318 -0.4782875
3831250000 0.3678151 -0.4763023 0.6321849 0.4763023 0.6321849 0.4763023 0.3678151 -0.4763023
3881000000 0.3608181 -0.4742383 0.6391819 0.4742383 0.6391819 0.4742383 0.3608181 -0.4742383
3930750000 0.3539396 -0.4720993 0.6460604 0.4720993 0.6460604 0.4720993 0.3539396 -0.4720993
3980500000 0.3471785 -0.4698891 0.6528215 0.4698891 0.6528215 0.4698891 0.3471785 -0.4698891
4030250000 0.3405335 -0.4676115 0.6594665 0.4676115 0.6594665 0.4676115 0.3405335 -0.4676115
4080000000 0.3340034 -0.4652700 0.6659966 0.4652700 0.6659966 0.4652700 0.3340034 -0.4652700
4129750000 0.3275869 -0.4628678 0.6724131 0.4628678 0.6724131 0.4628678 0.3275869 -0.4628678
4179500000 0.3212825 -0.4604083 0.6787175 0.4604083 0.6787175 0.4604083 0.3212825 -0.4604083
4229250000 0.3150889 -0.4578946 0.6849111 0.4578946 0.6849111 0.4578946 0.3150889 -0.4578946
4279000000 0.3090046 -0.4553297 0.6909954 0.4553297 0.6909954 0.4553297 0.3090046 -0.4553297
4328750000 0.3030282 -0.4527165 0.6969718 0.4527165 0.6969718 0.4527165 0.3030282 -0.4527165
4378500000 0.2971582 -0.4500578 0.7028418 0.4500578 0.7028418 0.4500578 0.2971582 -0.4500578
4428250000 0.2913930 -0.4473562 0.7086070 0.4473562 0.7086070 0.4473562 0.2913930 -0.4473562
4478000000 0.2857313 -0.4446143 0.7142687 0.4446143 0.7142687 0.4446143 0.2857313 -0.4446143
4527750000 0.2801714 -0.4418345 0.7198286 0.4418345 0.7198286 0.4418345 0.2801714 -0.4418345
4577500000 0.2747118 -0.4390192 0.7252882 0.4390192 0.7252882 0.4390192 0.2747118 -0.4390192
4627250000 0.2693510 -0.4361706 0.7306490 0.4361706 0.7306490 0.4361706 0.2693510 -0.4361706
4677000000 0.2640875 -0.4332909 0.7359125 0.4332909 0.7359125 0.4332909 0.2640875 -0.4332909
4726750000 0.2589196 -0.4303822 0.7410804 0.4303822 0.7410804 0.4303822 0.2589196 -0.4303822
4776500000 0.2538460 -0.4274464 0.7461540 0.4274464 0.7461540 0.4274464 0.2538460 -0.4274464
4826250000 0.2488649 -0.4244854 0.7511351 0.4244854 0.7511351 0.4244854 0.2488649 -0.4244854
4876000000 0.2439750 -0.4215011 0.7560250 0.4215011 0.7560250 0.4215011 0.2439750 -0.4215011
4925750000 0.2391747 -0.4184951 0.7608253 0.4184951 0.7608253 0.4184951 0.2391747 -0.4184951
4975500000 0.2344625 -0.4154691 0.7655375 0.4154691 0.7655375 0.4154691 0.2344625 -0.4154691
5025250000 0.2298368 -0.4124248 0.7701632 0.4124248 0.7701632 0.4124248 0.2298368 -0.4124248
5075000000 0.2252963 -0.4093635 0.7747037 0.4093635 0.7747037 0.4093635 0.2252963 -0.4093635
5124750000 0.2208394 -0.4062869 0.7791606 0.4062869 0.7791606 0.4062869 0.2208394 -0.4062869
5174500000 0.2164647 -0.4031962 0.7835353 0.4031962 0.7835353 0.4031962 0.2164647 -0.4031962
5224250000 0.2121707 -0.4000927 0.7878293 0.4000927 0.7878293 0.4000927 0.2121707 -0.4000927
5274000000 0.2079561 -0.3969778 0.7920439 0.3969778 0.7920439 0.3969778 0.2079561 -0.3969778
5323750000 0.2038194 -0.3938525 0.7961806 0.3938525 0.7961806 0.3938525 0.2038194 -0.3938525
5373500000 0.1997592 -0.3907182 0.8002408 0.3907182 0.8002408 0.3907182 0.1997592 -0.3907182
5423250000 0.1957741 -0.3875758 0.8042259 0.3875758 0.8042259 0.3875758 0.1957741 -0.3875758
5473000000 0.1918628 -0.3844264 0.8081372 0.3844264 0.8081372 0.3844264 0.1918628 -0.3844264
5522750000 0.1880240 -0.3812709 0.8119760 0.3812709 0.8119760 0.3812709 0.1880240 -0.3812709
5572500000 0.1842564 -0.3781104 0.8157436 0.3781104 0.8157436 0.3781104 0.1842564 -0.3781104
5622250000 0.1805585 -0.3749457 0.8194415 0.3749457 0.8194415 0.3749457 0.1805585 -0.3749457
5672000000 0.1769293 -0.3717777 0.8230707 0.3717777 0.8230707 0.3717777 0.1769293 -0.3717777
5721750000 0.1733674 -0.3686072 0.8266326 0.3686072 0.8266326 0.3686072 0.1733674 -0.3686072
5771500000 0.1698716 -0.3654349 0.8301284 0.3654349 0.8301284 0.3654349 0.1698716 -0.3654349
5821250000 0.1664406 -0.3622617 0.8335594 0.3622617 0.8335594 0.3622617 0.1664406 -0.3622617
5871000000 0.1630734 -0.3590881 0.8369266 0.3590881 0.8369266 0.3590881 0.1630734 -0.3590881
5920750000 0.1597686 -0.3559149 0.8402314 0.3559149 0.8402314 0.3559149 0.1597686 -0.3559149
5970500000 0.1565252 -0.3527427 0.8434748 0.3527427 0.8434748 0.3527427 0.1565252 -0.3527427
6020250000 0.1533420 -0.3495721 0.8466580 0.3495721 0.8466580 0.3495721 0.1533420 -0.3495721
6070000000 0.1502180 -0.3464036 0.8497820 0.3464036 0.8497820 0.3464036 0.1502180 -0.3464036
6119750000 0.1471519 -0.3432378 0.8528481 0.3432378 0.8528481 0.3432378 0.1471519 -0.3432378
6169500000 0.1441428 -0.3400751 0.8558572 0.3400751 0.8558572 0.3400751 0.1441428 -0.3400751
6219250000 0.1411896 -0.3369162 0.8588104 0.3369162 0.8588104 0.3369162 0.1411896 -0.3369162
6269000000 0.1382912 -0.3337614 0.8617088 0.3337614 0.8617088 0.3337614 0.1382912 -0.3337614
6318750000 0.1354467 -0.3306111 0.8645533 0.3306111 0.8645533 0.3306111 0.1354467 -0.3306111
6368500000 0.1326550 -0.3274658 0.8673450 0.3274658 0.8673450 0.3274658 0.1326550 -0.3274658
6418250000 0.1299152 -0.3243259 0.8700848 0.3243259 0.8700848 0.3243259 0.1299152 -0.3243259
6468000000 0.1272264 -0.3211916 0.8727736 0.3211916 0.8727736 0.3211916 0.1272264 -0.3211916
6517750000 0.1245875 -0.3180635 0.8754125 0.3180635 0.8754125 0.3180635 0.1245875 -0.3180635
6567500000 0.1219977 -0.3149416 0.8780023 0.3149416 0.8780023 0.3149416 0.1219977 -0.3149416
6617250000 0.1194560 -0.3118265 0.8805440 0.3118265 0.8805440 0.3118265 0.1194560 -0.3118265
6667000000 0.1169617 -0.3087183 0.8830383 0.3087183 0.8830383 0.3087183 0.1169617 -0.3087183
6716750000 0.1145137 -0.3056173 0.8854863 0.3056173 0.8854863 0.3056173 0.1145137 -0.3056173
6766500000 0.1121114 -0.3025238 0.8878886 0.3025238 0.8878886 0.3025238 0.1121114 -0.3025238
6816250000 0.1097538 -0.2994381 0.8902462 0.2994381 0.8902462 0.2994381 0.1097538 -0.2994381
6866000000 0.1074401 -0.2963602 0.8925599 0.2963602 0.8925599 0.2963602 0.1074401 -0.2963602
6915750000 0.1051695 -0.2932905 0.8948305 0.2932905 0.8948305 0.2932905 0.1051695 -0.2932905
6965500000 0.1029413 -0.2902291 0.8970587 0.2902291 0.8970587 0.2902291 0.1029413 -0.2902291
7015250000 0.1007547 -0.2871761 0.8992453 0.2871761 0.8992453 0.2871761 0.1007547 -0.2871761
7065000000 0.0986089 -0.2841319 0.9013911 0.2841319 0.9013911 0.2841319 0.0986089 -0.2841319
7114750000 0.0965032 -0.2810965 0.9034968 0.2810965 0.9034968 0.2810965 0.0965032 -0.2810965
7164500000 0.0944369 -0.2780700 0.9055631 0.2780700 0.9055631 0.2780700 0.0944369 -0.2780700
7214250000 0.0924093 -0.2750526 0.9075907 0.2750526 0.9075907 0.2750526 0.0924093 -0.2750526
7264000000 0.0904198 -0.2720444 0.9095802 0.2720444 0.9095802 0.2720444 0.0904198 -0.2720444
7313750000 0.0884675 -0.2690455 0.9115325 0.2690455 0.9115325 0.2690455 0.0884675 -0.2690455
7363500000 0.0865519 -0.2660560 0.9134481 0.2660560 0.9134481 0.2660560 0.0865519 -0.2660560
7413250000 0.0846723 -0.2630761 0.9153277 0.2630761 0.9153277 0.2630761 0.0846723 -0.2630761
7463000000 0.0828281 -0.2601057 0.9171719 0.2601057 0.9171719 0.2601057 0.0828281 -0.2601057
7512750000 0.0810187 -0.2571450 0.9189813 0.2571450 0.9189813 0.2571450 0.0810187 -0.2571450
7562500000 0.0792434 -0.2541941 0.9207566 0.2541941 0.9207566 0.2541941 0.0792434 -0.2541941
7612250000 0.0775017 -0.2512529 0.9224983 0.2512529 0.9224983 0.2512529 0.0775017 -0.2512529
7662000000 0.0757930 -0.2483215 0.9242070 0.2483215 0.9242070 0.2483215 0.0757930 -0.2483215
7711750000 0.0741168 -0.2454001 0.9258832 0.2454001 0.9258832 0.2454001 0.0741168 -0.2454001
7761500000 0.0724724 -0.2424885 0.9275276 0.2424885 0.9275276 0.2424885 0.0724724 -0.2424885
7811250000 0.0708593 -0.2395869 0.9291407 0.2395869 0.9291407 0.2395869 0.0708593 -0.2395869
7861000000 0.0692770 -0.2366953 0.9307230 0.2366953 0.9307230 0.2366953 0.0692770 -0.2366953
7910750000 0.0677250 -0.2338137 0.9322750 0.2338137 0.9322750 0.2338137 0.0677250 -0.2338137
7960500000 0.0662027 -0.2309422 0.9337973 0.2309422 0.9337973 0.2309422 0.0662027 -0.2309422
8010250000 0.0647097 -0.2280806 0.9352903 0.2280806 0.9352903 0.2280806 0.0647097 -0.2280806
8060000000 0.0632455 -0.2252291 0.9367545 0.2252291 0.9367545 0.2252291 0.0632455 -0.2252291
8109750000 0.0618095 -0.2223876 0.9381905 0.2223876 0.9381905 0.2223876 0.0618095 -0.2223876
8159500000 0.0604014 -0.2195561 0.9395986 0.2195561 0.9395986 0.2195561 0.0604014 -0.2195561
8209250000 0.0590206 -0.2167347 0.9409794 0.2167347 0.9409794 0.2167347 0.0590206 -0.2167347
8259000000 0.0576668 -0.2139233 0.9423332 0.2139233 0.9423332 0.2139233 0.0576668 -0.2139233
8308750000 0.0563394 -0.2111219 0.9436606 0.2111219 0.9436606 0.2111219 0.0563394 -0.2111219
8358500000 0.0550381 -0.2083304 0.9449619 0.2083304 0.9449619 0.2083304 0.0550381 -0.2083304
8408250000 0.0537624 -0.2055489 0.9462376 0.2055489 0.9462376 0.2055489 0.0537624 -0.2055489
8458000000 0.0525119 -0.2027774 0.9474881 0.2027774 0.9474881 0.2027774 0.0525119 -0.2027774
8507750000 0.0512863 -0.2000157 0.9487137 0.2000157 0.9487137 0.2000157 0.0512863 -0.2000157
8557500000 0.0500850 -0.1972639 0.9499150 0.1972639 0.9499150 0.1972639 0.0500850 -0.1972639
8607250000 0.0489078 -0.1945220 0.9510922 0.1945220 0.9510922 0.1945220 0.0489078 -0.1945220
8657000000 0.0477543 -0.1917898 0.9522457 0.1917898 0.9522457 0.1917898 0.0477543 -0.1917898
8706750000 0.0466240 -0.1890675 0.9533760 0.1890675 0.9533760 0.1890675 0.0466240 -0.1890675
8756500000 0.0455167 -0.1863548 0.9544833 0.1863548 0.9544833 0.1863548 0.0455167 -0.1863548
8806250000 0.0444319 -0.1836518 0.9555681 0.1836518 0.9555681 0.1836518 0.0444319 -0.1836518
8856000000 0.0433694 -0.1809585 0.9566306 0.1809585 0.9566306 0.1809585 0.0433694 -0.1809585
8905750000 0.0423287 -0.1782747 0.9576713 0.1782747 0.9576713 0.1782747 0.0423287 -0.1782747
8955500000 0.0413096 -0.1756005 0.9586904 0.1756005 0.9586904 0.1756005 0.0413096 -0.1756005
9005250000 0.0403117 -0.1729358 0.9596883 0.1729358 0.9596883 0.1729358 0.0403117 -0.1729358
9055000000 0.0393347 -0.1702805 0.9606653 0.1702805 0.9606653 0.1702805 0.0393347 -0.1702805
9104750000 0.0383783 -0.1676346 0.9616217 0.1676346 0.9616217 0.1676346 0.0383783 -0.1676346
9154500000 0.0374422 -0.1649980 0.9625578 0.1649980 0.9625578 0.1649980 0.0374422 -0.1649980
9204250000 0.0365261 -0.1623707 0.9634739 0.1623707 0.9634739 0.1623707 0.0365261 -0.1623707
9254000000 0.0356298 -0.1597527 0.9643702 0.1597527 0.9643702 0.1597527 0.0356298 -0.1597527
9303750000 0.0347528 -0.1571437 0.9652472 0.1571437 0.9652472 0.1571437 0.0347528 -0.1571437
9353500000 0.0338949 -0.1545439 0.9661051 0.1545439 0.9661051 0.1545439 0.0338949 -0.1545439
9403250000 0.0330560 -0.1519531 0.9669440 0.1519531 0.9669440 0.1519531 0.0330560 -0.1519531
9453000000 0.0322356 -0.1493713 0.9677644 0.1493713 0.9677644 0.1493713 0.0322356 -0.1493713
9502750000 0.0314336 -0.1467984 0.9685664 0.1467984 0.9685664 0.1467984 0.0314336 -0.1467984
9552500000 0.0306496 -0.1442344 0.9693504 0.1442344 0.9693504 0.1442344 0.0306496 -0.1442344
9602250000 0.0298835 -0.1416791 0.9701165 0.1416791 0.9701165 0.1416791 0.0298835 -0.1416791
9652000000 0.0291349 -0.1391326 0.9708651 0.1391326 0.9708651 0.1391326 0.0291349 -0.1391326
9701750000 0.0284037 -0.1365947 0.9715963 0.1365947 0.9715963 0.1365947 0.0284037 -0.1365947
9751500000 0.0276895 -0.1340654 0.9723105 0.1340654 0.9723105 0.1340654 0.0276895 -0.1340654
9801250000 0.0269923 -0.1315447 0.9730077 0.1315447 0.9730077 0.1315447 0.0269923 -0.1315447
9851000000 0.0263117 -0.1290324 0.9736883 0.1290324 0.9736883 0.1290324 0.0263117 -0.1290324
9900750000 0.0256475 -0.1265285 0.9743525 0.1265285 0.9743525 0.1265285 0.0256475 -0.1265285
9950500000 0.0249996 -0.1240329 0.9750004 0.1240329 0.9750004 0.1240329 0.0249996 -0.1240329
10000250000 0.0243676 -0.1215456 0.9756324 0.1215456 0.9756324 0.1215456 0.0243676 -0.1215456
10050000000 0.0237514 -0.1190665 0.9762486 0.1190665 0.9762486 0.1190665 0.0237514 -0.1190665
10099750000 0.0231508 -0.1165955 0.9768492 0.1165955 0.9768492 0.1165955 0.0231508 -0.1165955
10149500000 0.0225656 -0.1141325 0.9774344 0.1141325 0.9774344 0.1141325 0.0225656 -0.1141325
10199250000 0.0219956 -0.1116776 0.9780044 0.1116776 0.9780044 0.1116776 0.0219956 -0.1116776
10249000000 0.0214406 -0.1092305 0.9785594 0.1092305 0.9785594 0.1092305 0.0214406 -0.1092305
10298750000 0.0209004 -0.1067913 0.9790996 0.1067913 0.9790996 0.1067913 0.0209004 -0.1067913
10348500000 0.0203749 -0.1043599 0.9796251 0.1043599 0.9796251 0.1043599 0.0203749 -0.1043599
10398250000 0.0198638 -0.1019362 0.9801362 0.1019362 0.9801362 0.1019362 0.0198638 -0.1019362
10448000000 0.0193670 -0.0995202 0.9806330 0.0995202 0.9806330 0.0995202 0.0193670 -0.0995202
10497750000 0.0188843 -0.0971117 0.9811157 0.0971117 0.9811157 0.0971117 0.0188843 -0.0971117
