!Murata Part Number: GRM0332C2A750GA01
!These Parameters are Measured in Series Mode Connection
!Data Generated on Mar 30, 2021
!       o--ll--o
!Port1            Port2
!       o------o
!Operation Temp=25[degC], DC Bias Voltage=0[V]
!Freq. Start=100[MHz] Stop=9[GHz] 401[Steps]
# Hz S RI R 50
!Freq.(Hz) S11(Real) S11(Imag) S21(Real) S21(Imag) S12(Real) S12(Imag) S22(Real) S22(Imag)
100000000 0.0434314 -0.2012252 0.9565686 0.2012252 0.9565686 0.2012252 0.0434314 -0.2012252
121000000 0.0302062 -0.1680013 0.9697938 0.1680013 0.9697938 0.1680013 0.0302062 -0.1680013
142000000 0.0222292 -0.1437204 0.9777708 0.1437204 0.9777708 0.1437204 0.0222292 -0.1437204
163000000 0.0170638 -0.1252428 0.9829362 0.1252428 0.9829362 0.1252428 0.0170638 -0.1252428
184000000 0.0135341 -0.1107171 0.9864659 0.1107171 0.9864659 0.1107171 0.0135341 -0.1107171
205000000 0.0110186 -0.0989930 0.9889814 0.0989930 0.9889814 0.0989930 0.0110186 -0.0989930
226000000 0.0091645 -0.0893226 0.9908355 0.0893226 0.9908355 0.0893226 0.0091645 -0.0893226
247000000 0.0077598 -0.0812003 0.9922402 0.0812003 0.9922402 0.0812003 0.0077598 -0.0812003
268000000 0.0066711 -0.0742726 0.9933289 0.0742726 0.9933289 0.0742726 0.0066711 -0.0742726
289000000 0.0058109 -0.0682856 0.9941891 0.0682856 0.9941891 0.0682856 0.0058109 -0.0682856
310000000 0.0051201 -0.0630520 0.9948799 0.0630520 0.9948799 0.0630520 0.0051201 -0.0630520
331000000 0.0045575 -0.0584311 0.9954425 0.0584311 0.9954425 0.0584311 0.0045575 -0.0584311
352000000 0.0040938 -0.0543150 0.9959062 0.0543150 0.9959062 0.0543150 0.0040938 -0.0543150
373000000 0.0037075 -0.0506195 0.9962925 0.0506195 0.9962925 0.0506195 0.0037075 -0.0506195
394000000 0.0033828 -0.0472783 0.9966172 0.0472783 0.9966172 0.0472783 0.0033828 -0.0472783
415000000 0.0031077 -0.0442380 0.9968923 0.0442380 0.9968923 0.0442380 0.0031077 -0.0442380
436000000 0.0028730 -0.0414558 0.9971270 0.0414558 0.9971270 0.0414558 0.0028730 -0.0414558
457000000 0.0026716 -0.0388962 0.9973284 0.0388962 0.9973284 0.0388962 0.0026716 -0.0388962
478000000 0.0024978 -0.0365301 0.9975022 0.0365301 0.9975022 0.0365301 0.0024978 -0.0365301
499000000 0.0023473 -0.0343333 0.9976527 0.0343333 0.9976527 0.0343333 0.0023473 -0.0343333
520000000 0.0022163 -0.0322854 0.9977837 0.0322854 0.9977837 0.0322854 0.0022163 -0.0322854
541000000 0.0021021 -0.0303691 0.9978979 0.0303691 0.9978979 0.0303691 0.0021021 -0.0303691
562000000 0.0020023 -0.0285697 0.9979977 0.0285697 0.9979977 0.0285697 0.0020023 -0.0285697
583000000 0.0019149 -0.0268746 0.9980851 0.0268746 0.9980851 0.0268746 0.0019149 -0.0268746
604000000 0.0018383 -0.0252729 0.9981617 0.0252729 0.9981617 0.0252729 0.0018383 -0.0252729
625000000 0.0017711 -0.0237552 0.9982289 0.0237552 0.9982289 0.0237552 0.0017711 -0.0237552
646000000 0.0017122 -0.0223134 0.9982878 0.0223134 0.9982878 0.0223134 0.0017122 -0.0223134
667000000 0.0016607 -0.0209403 0.9983393 0.0209403 0.9983393 0.0209403 0.0016607 -0.0209403
688000000 0.0016158 -0.0196295 0.9983842 0.0196295 0.9983842 0.0196295 0.0016158 -0.0196295
709000000 0.0015767 -0.0183756 0.9984233 0.0183756 0.9984233 0.0183756 0.0015767 -0.0183756
730000000 0.0015429 -0.0171735 0.9984571 0.0171735 0.9984571 0.0171735 0.0015429 -0.0171735
751000000 0.0015138 -0.0160189 0.9984862 0.0160189 0.9984862 0.0160189 0.0015138 -0.0160189
772000000 0.0014891 -0.0149079 0.9985109 0.0149079 0.9985109 0.0149079 0.0014891 -0.0149079
793000000 0.0014683 -0.0138370 0.9985317 0.0138370 0.9985317 0.0138370 0.0014683 -0.0138370
814000000 0.0014511 -0.0128032 0.9985489 0.0128032 0.9985489 0.0128032 0.0014511 -0.0128032
835000000 0.0014372 -0.0118034 0.9985628 0.0118034 0.9985628 0.0118034 0.0014372 -0.0118034
856000000 0.0014264 -0.0108353 0.9985736 0.0108353 0.9985736 0.0108353 0.0014264 -0.0108353
877000000 0.0014185 -0.0098964 0.9985815 0.0098964 0.9985815 0.0098964 0.0014185 -0.0098964
898000000 0.0014132 -0.0089848 0.9985868 0.0089848 0.9985868 0.0089848 0.0014132 -0.0089848
919000000 0.0014103 -0.0080985 0.9985897 0.0080985 0.9985897 0.0080985 0.0014103 -0.0080985
940000000 0.0014098 -0.0072358 0.9985902 0.0072358 0.9985902 0.0072358 0.0014098 -0.0072358
961000000 0.0014115 -0.0063950 0.9985885 0.0063950 0.9985885 0.0063950 0.0014115 -0.0063950
982000000 0.0014153 -0.0055749 0.9985847 0.0055749 0.9985847 0.0055749 0.0014153 -0.0055749
1003000000 0.0014211 -0.0047739 0.9985789 0.0047739 0.9985789 0.0047739 0.0014211 -0.0047739
1024000000 0.0014288 -0.0039909 0.9985712 0.0039909 0.9985712 0.0039909 0.0014288 -0.0039909
1045000000 0.0014382 -0.0032248 0.9985618 0.0032248 0.9985618 0.0032248 0.0014382 -0.0032248
1066000000 0.0014494 -0.0024746 0.9985506 0.0024746 0.9985506 0.0024746 0.0014494 -0.0024746
1087000000 0.0014623 -0.0017392 0.9985377 0.0017392 0.9985377 0.0017392 0.0014623 -0.0017392
1108000000 0.0014769 -0.0010178 0.9985231 0.0010178 0.9985231 0.0010178 0.0014769 -0.0010178
1129000000 0.0014930 -0.0003096 0.9985070 0.0003096 0.9985070 0.0003096 0.0014930 -0.0003096
1150000000 0.0015107 0.0003862 0.9984893 -0.0003862 0.9984893 -0.0003862 0.0015107 0.0003862
1171000000 0.0015298 0.0010703 0.9984702 -0.0010703 0.9984702 -0.0010703 0.0015298 0.0010703
1192000000 0.0015505 0.0017433 0.9984495 -0.0017433 0.9984495 -0.0017433 0.0015505 0.0017433
1213000000 0.0015726 0.0024059 0.9984274 -0.0024059 0.9984274 -0.0024059 0.0015726 0.0024059
1234000000 0.0015962 0.0030586 0.9984038 -0.0030586 0.9984038 -0.0030586 0.0015962 0.0030586
1255000000 0.0016211 0.0037020 0.9983789 -0.0037020 0.9983789 -0.0037020 0.0016211 0.0037020
1276000000 0.0016475 0.0043365 0.9983525 -0.0043365 0.9983525 -0.0043365 0.0016475 0.0043365
1297000000 0.0016753 0.0049627 0.9983247 -0.0049627 0.9983247 -0.0049627 0.0016753 0.0049627
1318000000 0.0017045 0.0055809 0.9982955 -0.0055809 0.9982955 -0.0055809 0.0017045 0.0055809
1339000000 0.0017352 0.0061917 0.9982648 -0.0061917 0.9982648 -0.0061917 0.0017352 0.0061917
1360000000 0.0017672 0.0067953 0.9982328 -0.0067953 0.9982328 -0.0067953 0.0017672 0.0067953
1381000000 0.0018006 0.0073921 0.9981994 -0.0073921 0.9981994 -0.0073921 0.0018006 0.0073921
1402000000 0.0018354 0.0079825 0.9981646 -0.0079825 0.9981646 -0.0079825 0.0018354 0.0079825
1423000000 0.0018717 0.0085667 0.9981283 -0.0085667 0.9981283 -0.0085667 0.0018717 0.0085667
1444000000 0.0019094 0.0091452 0.9980906 -0.0091452 0.9980906 -0.0091452 0.0019094 0.0091452
1465000000 0.0019486 0.0097181 0.9980514 -0.0097181 0.9980514 -0.0097181 0.0019486 0.0097181
1486000000 0.0019892 0.0102858 0.9980108 -0.0102858 0.9980108 -0.0102858 0.0019892 0.0102858
1507000000 0.0020314 0.0108485 0.9979686 -0.0108485 0.9979686 -0.0108485 0.0020314 0.0108485
1528000000 0.0020750 0.0114063 0.9979250 -0.0114063 0.9979250 -0.0114063 0.0020750 0.0114063
1549000000 0.0021202 0.0119597 0.9978798 -0.0119597 0.9978798 -0.0119597 0.0021202 0.0119597
1570000000 0.0021670 0.0125086 0.9978330 -0.0125086 0.9978330 -0.0125086 0.0021670 0.0125086
1591000000 0.0022153 0.0130535 0.9977847 -0.0130535 0.9977847 -0.0130535 0.0022153 0.0130535
1612000000 0.0022653 0.0135943 0.9977347 -0.0135943 0.9977347 -0.0135943 0.0022653 0.0135943
1633000000 0.0023170 0.0141314 0.9976830 -0.0141314 0.9976830 -0.0141314 0.0023170 0.0141314
1654000000 0.0023703 0.0146648 0.9976297 -0.0146648 0.9976297 -0.0146648 0.0023703 0.0146648
1675000000 0.0024254 0.0151948 0.9975746 -0.0151948 0.9975746 -0.0151948 0.0024254 0.0151948
1696000000 0.0024822 0.0157214 0.9975178 -0.0157214 0.9975178 -0.0157214 0.0024822 0.0157214
1717000000 0.0025409 0.0162449 0.9974591 -0.0162449 0.9974591 -0.0162449 0.0025409 0.0162449
1738000000 0.0026014 0.0167652 0.9973986 -0.0167652 0.9973986 -0.0167652 0.0026014 0.0167652
1759000000 0.0026639 0.0172826 0.9973361 -0.0172826 0.9973361 -0.0172826 0.0026639 0.0172826
1780000000 0.0027283 0.0177971 0.9972717 -0.0177971 0.9972717 -0.0177971 0.0027283 0.0177971
1801000000 0.0027946 0.0183088 0.9972054 -0.0183088 0.9972054 -0.0183088 0.0027946 0.0183088
1822000000 0.0028630 0.0188179 0.9971370 -0.0188179 0.9971370 -0.0188179 0.0028630 0.0188179
1843000000 0.0029336 0.0193244 0.9970664 -0.0193244 0.9970664 -0.0193244 0.0029336 0.0193244
1864000000 0.0030062 0.0198283 0.9969938 -0.0198283 0.9969938 -0.0198283 0.0030062 0.0198283
1885000000 0.0030811 0.0203297 0.9969189 -0.0203297 0.9969189 -0.0203297 0.0030811 0.0203297
1906000000 0.0031582 0.0208287 0.9968418 -0.0208287 0.9968418 -0.0208287 0.0031582 0.0208287
1927000000 0.0032376 0.0213252 0.9967624 -0.0213252 0.9967624 -0.0213252 0.0032376 0.0213252
1948000000 0.0033193 0.0218195 0.9966807 -0.0218195 0.9966807 -0.0218195 0.0033193 0.0218195
1969000000 0.0034035 0.0223113 0.9965965 -0.0223113 0.9965965 -0.0223113 0.0034035 0.0223113
1990000000 0.0034901 0.0228009 0.9965099 -0.0228009 0.9965099 -0.0228009 0.0034901 0.0228009
2011000000 0.0035792 0.0232880 0.9964208 -0.0232880 0.9964208 -0.0232880 0.0035792 0.0232880
2032000000 0.0036709 0.0237729 0.9963291 -0.0237729 0.9963291 -0.0237729 0.0036709 0.0237729
2053000000 0.0037651 0.0242554 0.9962349 -0.0242554 0.9962349 -0.0242554 0.0037651 0.0242554
2074000000 0.0038620 0.0247354 0.9961380 -0.0247354 0.9961380 -0.0247354 0.0038620 0.0247354
2095000000 0.0039615 0.0252131 0.9960385 -0.0252131 0.9960385 -0.0252131 0.0039615 0.0252131
2116000000 0.0040638 0.0256882 0.9959362 -0.0256882 0.9959362 -0.0256882 0.0040638 0.0256882
2137000000 0.0041687 0.0261609 0.9958313 -0.0261609 0.9958313 -0.0261609 0.0041687 0.0261609
2158000000 0.0042764 0.0266309 0.9957236 -0.0266309 0.9957236 -0.0266309 0.0042764 0.0266309
2179000000 0.0043868 0.0270982 0.9956132 -0.0270982 0.9956132 -0.0270982 0.0043868 0.0270982
2200000000 0.0044999 0.0275627 0.9955001 -0.0275627 0.9955001 -0.0275627 0.0044999 0.0275627
2221000000 0.0046158 0.0280244 0.9953842 -0.0280244 0.9953842 -0.0280244 0.0046158 0.0280244
2242000000 0.0047343 0.0284830 0.9952657 -0.0284830 0.9952657 -0.0284830 0.0047343 0.0284830
2263000000 0.0048555 0.0289386 0.9951445 -0.0289386 0.9951445 -0.0289386 0.0048555 0.0289386
2284000000 0.0049792 0.0293910 0.9950208 -0.0293910 0.9950208 -0.0293910 0.0049792 0.0293910
2305000000 0.0051055 0.0298401 0.9948945 -0.0298401 0.9948945 -0.0298401 0.0051055 0.0298401
2326000000 0.0052341 0.0302857 0.9947659 -0.0302857 0.9947659 -0.0302857 0.0052341 0.0302857
2347000000 0.0053650 0.0307278 0.9946350 -0.0307278 0.9946350 -0.0307278 0.0053650 0.0307278
2368000000 0.0054981 0.0311662 0.9945019 -0.0311662 0.9945019 -0.0311662 0.0054981 0.0311662
2389000000 0.0056332 0.0316008 0.9943668 -0.0316008 0.9943668 -0.0316008 0.0056332 0.0316008
2410000000 0.0057701 0.0320315 0.9942299 -0.0320315 0.9942299 -0.0320315 0.0057701 0.0320315
2431000000 0.0059086 0.0324582 0.9940914 -0.0324582 0.9940914 -0.0324582 0.0059086 0.0324582
2452000000 0.0060485 0.0328809 0.9939515 -0.0328809 0.9939515 -0.0328809 0.0060485 0.0328809
2473000000 0.0061895 0.0332995 0.9938105 -0.0332995 0.9938105 -0.0332995 0.0061895 0.0332995
2494000000 0.0063314 0.0337139 0.9936686 -0.0337139 0.9936686 -0.0337139 0.0063314 0.0337139
2515000000 0.0064739 0.0341242 0.9935261 -0.0341242 0.9935261 -0.0341242 0.0064739 0.0341242
2536000000 0.0066167 0.0345303 0.9933833 -0.0345303 0.9933833 -0.0345303 0.0066167 0.0345303
2557000000 0.0067595 0.0349324 0.9932405 -0.0349324 0.9932405 -0.0349324 0.0067595 0.0349324
2578000000 0.0069019 0.0353305 0.9930981 -0.0353305 0.9930981 -0.0353305 0.0069019 0.0353305
2599000000 0.0070438 0.0357247 0.9929562 -0.0357247 0.9929562 -0.0357247 0.0070438 0.0357247
2620000000 0.0071847 0.0361152 0.9928153 -0.0361152 0.9928153 -0.0361152 0.0071847 0.0361152
2641000000 0.0073243 0.0365023 0.9926757 -0.0365023 0.9926757 -0.0365023 0.0073243 0.0365023
2662000000 0.0074625 0.0368862 0.9925375 -0.0368862 0.9925375 -0.0368862 0.0074625 0.0368862
2683000000 0.0075988 0.0372671 0.9924012 -0.0372671 0.9924012 -0.0372671 0.0075988 0.0372671
2704000000 0.0077331 0.0376454 0.9922669 -0.0376454 0.9922669 -0.0376454 0.0077331 0.0376454
2725000000 0.0078652 0.0380215 0.9921348 -0.0380215 0.9921348 -0.0380215 0.0078652 0.0380215
2746000000 0.0079949 0.0383957 0.9920051 -0.0383957 0.9920051 -0.0383957 0.0079949 0.0383957
2767000000 0.0081221 0.0387685 0.9918779 -0.0387685 0.9918779 -0.0387685 0.0081221 0.0387685
2788000000 0.0082467 0.0391403 0.9917533 -0.0391403 0.9917533 -0.0391403 0.0082467 0.0391403
2809000000 0.0083687 0.0395116 0.9916313 -0.0395116 0.9916313 -0.0395116 0.0083687 0.0395116
2830000000 0.0084881 0.0398828 0.9915119 -0.0398828 0.9915119 -0.0398828 0.0084881 0.0398828
2851000000 0.0086050 0.0402543 0.9913950 -0.0402543 0.9913950 -0.0402543 0.0086050 0.0402543
2872000000 0.0087195 0.0406265 0.9912805 -0.0406265 0.9912805 -0.0406265 0.0087195 0.0406265
2893000000 0.0088319 0.0410000 0.9911681 -0.0410000 0.9911681 -0.0410000 0.0088319 0.0410000
2914000000 0.0089424 0.0413751 0.9910576 -0.0413751 0.9910576 -0.0413751 0.0089424 0.0413751
2935000000 0.0090511 0.0417522 0.9909489 -0.0417522 0.9909489 -0.0417522 0.0090511 0.0417522
2956000000 0.0091585 0.0421316 0.9908415 -0.0421316 0.9908415 -0.0421316 0.0091585 0.0421316
2977000000 0.0092649 0.0425136 0.9907351 -0.0425136 0.9907351 -0.0425136 0.0092649 0.0425136
2998000000 0.0093706 0.0428984 0.9906294 -0.0428984 0.9906294 -0.0428984 0.0093706 0.0428984
3019000000 0.0094761 0.0432864 0.9905239 -0.0432864 0.9905239 -0.0432864 0.0094761 0.0432864
3040000000 0.0095817 0.0436776 0.9904183 -0.0436776 0.9904183 -0.0436776 0.0095817 0.0436776
3061000000 0.0096879 0.0440722 0.9903121 -0.0440722 0.9903121 -0.0440722 0.0096879 0.0440722
3082000000 0.0097951 0.0444703 0.9902049 -0.0444703 0.9902049 -0.0444703 0.0097951 0.0444703
3103000000 0.0099036 0.0448719 0.9900964 -0.0448719 0.9900964 -0.0448719 0.0099036 0.0448719
3124000000 0.0100140 0.0452770 0.9899860 -0.0452770 0.9899860 -0.0452770 0.0100140 0.0452770
3145000000 0.0101267 0.0456857 0.9898733 -0.0456857 0.9898733 -0.0456857 0.0101267 0.0456857
3166000000 0.0102420 0.0460977 0.9897580 -0.0460977 0.9897580 -0.0460977 0.0102420 0.0460977
3187000000 0.0103603 0.0465131 0.9896397 -0.0465131 0.9896397 -0.0465131 0.0103603 0.0465131
3208000000 0.0104820 0.0469318 0.9895180 -0.0469318 0.9895180 -0.0469318 0.0104820 0.0469318
3229000000 0.0106075 0.0473535 0.9893925 -0.0473535 0.9893925 -0.0473535 0.0106075 0.0473535
3250000000 0.0107371 0.0477780 0.9892629 -0.0477780 0.9892629 -0.0477780 0.0107371 0.0477780
3271000000 0.0108711 0.0482053 0.9891289 -0.0482053 0.9891289 -0.0482053 0.0108711 0.0482053
3292000000 0.0110098 0.0486350 0.9889902 -0.0486350 0.9889902 -0.0486350 0.0110098 0.0486350
3313000000 0.0111535 0.0490669 0.9888465 -0.0490669 0.9888465 -0.0490669 0.0111535 0.0490669
3334000000 0.0113024 0.0495008 0.9886976 -0.0495008 0.9886976 -0.0495008 0.0113024 0.0495008
3355000000 0.0114569 0.0499364 0.9885431 -0.0499364 0.9885431 -0.0499364 0.0114569 0.0499364
3376000000 0.0116170 0.0503735 0.9883830 -0.0503735 0.9883830 -0.0503735 0.0116170 0.0503735
3397000000 0.0117830 0.0508117 0.9882170 -0.0508117 0.9882170 -0.0508117 0.0117830 0.0508117
3418000000 0.0119552 0.0512507 0.9880448 -0.0512507 0.9880448 -0.0512507 0.0119552 0.0512507
3439000000 0.0121336 0.0516903 0.9878664 -0.0516903 0.9878664 -0.0516903 0.0121336 0.0516903
3460000000 0.0123184 0.0521301 0.9876816 -0.0521301 0.9876816 -0.0521301 0.0123184 0.0521301
3481000000 0.0125098 0.0525698 0.9874902 -0.0525698 0.9874902 -0.0525698 0.0125098 0.0525698
3502000000 0.0127078 0.0530090 0.9872922 -0.0530090 0.9872922 -0.0530090 0.0127078 0.0530090
3523000000 0.0129125 0.0534475 0.9870875 -0.0534475 0.9870875 -0.0534475 0.0129125 0.0534475
3544000000 0.0131241 0.0538849 0.9868759 -0.0538849 0.9868759 -0.0538849 0.0131241 0.0538849
3565000000 0.0133425 0.0543207 0.9866575 -0.0543207 0.9866575 -0.0543207 0.0133425 0.0543207
3586000000 0.0135679 0.0547548 0.9864321 -0.0547548 0.9864321 -0.0547548 0.0135679 0.0547548
3607000000 0.0138001 0.0551866 0.9861999 -0.0551866 0.9861999 -0.0551866 0.0138001 0.0551866
3628000000 0.0140392 0.0556159 0.9859608 -0.0556159 0.9859608 -0.0556159 0.0140392 0.0556159
3649000000 0.0142853 0.0560422 0.9857147 -0.0560422 0.9857147 -0.0560422 0.0142853 0.0560422
3670000000 0.0145381 0.0564652 0.9854619 -0.0564652 0.9854619 -0.0564652 0.0145381 0.0564652
3691000000 0.0147977 0.0568845 0.9852023 -0.0568845 0.9852023 -0.0568845 0.0147977 0.0568845
3712000000 0.0150639 0.0572997 0.9849361 -0.0572997 0.9849361 -0.0572997 0.0150639 0.0572997
3733000000 0.0153366 0.0577105 0.9846634 -0.0577105 0.9846634 -0.0577105 0.0153366 0.0577105
3754000000 0.0156156 0.0581164 0.9843844 -0.0581164 0.9843844 -0.0581164 0.0156156 0.0581164
3775000000 0.0159007 0.0585170 0.9840993 -0.0585170 0.9840993 -0.0585170 0.0159007 0.0585170
3796000000 0.0161918 0.0589121 0.9838082 -0.0589121 0.9838082 -0.0589121 0.0161918 0.0589121
3817000000 0.0164885 0.0593011 0.9835115 -0.0593011 0.9835115 -0.0593011 0.0164885 0.0593011
3838000000 0.0167905 0.0596839 0.9832095 -0.0596839 0.9832095 -0.0596839 0.0167905 0.0596839
3859000000 0.0170976 0.0600601 0.9829024 -0.0600601 0.9829024 -0.0600601 0.0170976 0.0600601
3880000000 0.0174093 0.0604292 0.9825907 -0.0604292 0.9825907 -0.0604292 0.0174093 0.0604292
3901000000 0.0177253 0.0607912 0.9822747 -0.0607912 0.9822747 -0.0607912 0.0177253 0.0607912
3922000000 0.0180450 0.0611456 0.9819550 -0.0611456 0.9819550 -0.0611456 0.0180450 0.0611456
3943000000 0.0183681 0.0614924 0.9816319 -0.0614924 0.9816319 -0.0614924 0.0183681 0.0614924
3964000000 0.0186940 0.0618312 0.9813060 -0.0618312 0.9813060 -0.0618312 0.0186940 0.0618312
3985000000 0.0190222 0.0621620 0.9809778 -0.0621620 0.9809778 -0.0621620 0.0190222 0.0621620
4006000000 0.0193521 0.0624847 0.9806479 -0.0624847 0.9806479 -0.0624847 0.0193521 0.0624847
4027000000 0.0196832 0.0627992 0.9803168 -0.0627992 0.9803168 -0.0627992 0.0196832 0.0627992
4048000000 0.0200147 0.0631056 0.9799853 -0.0631056 0.9799853 -0.0631056 0.0200147 0.0631056
4069000000 0.0203462 0.0634040 0.9796538 -0.0634040 0.9796538 -0.0634040 0.0203462 0.0634040
4090000000 0.0206769 0.0636945 0.9793231 -0.0636945 0.9793231 -0.0636945 0.0206769 0.0636945
4111000000 0.0210063 0.0639774 0.9789937 -0.0639774 0.9789937 -0.0639774 0.0210063 0.0639774
4132000000 0.0213337 0.0642531 0.9786663 -0.0642531 0.9786663 -0.0642531 0.0213337 0.0642531
4153000000 0.0216585 0.0645219 0.9783415 -0.0645219 0.9783415 -0.0645219 0.0216585 0.0645219
4174000000 0.0219802 0.0647844 0.9780198 -0.0647844 0.9780198 -0.0647844 0.0219802 0.0647844
4195000000 0.0222982 0.0650410 0.9777018 -0.0650410 0.9777018 -0.0650410 0.0222982 0.0650410
4216000000 0.0226119 0.0652926 0.9773881 -0.0652926 0.9773881 -0.0652926 0.0226119 0.0652926
4237000000 0.0229211 0.0655399 0.9770789 -0.0655399 0.9770789 -0.0655399 0.0229211 0.0655399
4258000000 0.0232254 0.0657837 0.9767746 -0.0657837 0.9767746 -0.0657837 0.0232254 0.0657837
4279000000 0.0235244 0.0660250 0.9764756 -0.0660250 0.9764756 -0.0660250 0.0235244 0.0660250
4300000000 0.0238181 0.0662648 0.9761819 -0.0662648 0.9761819 -0.0662648 0.0238181 0.0662648
4321000000 0.0241064 0.0665041 0.9758936 -0.0665041 0.9758936 -0.0665041 0.0241064 0.0665041
4342000000 0.0243895 0.0667440 0.9756105 -0.0667440 0.9756105 -0.0667440 0.0243895 0.0667440
4363000000 0.0246675 0.0669859 0.9753325 -0.0669859 0.9753325 -0.0669859 0.0246675 0.0669859
4384000000 0.0249408 0.0672308 0.9750592 -0.0672308 0.9750592 -0.0672308 0.0249408 0.0672308
4405000000 0.0252099 0.0674800 0.9747901 -0.0674800 0.9747901 -0.0674800 0.0252099 0.0674800
4426000000 0.0254757 0.0677348 0.9745243 -0.0677348 0.9745243 -0.0677348 0.0254757 0.0677348
4447000000 0.0257390 0.0679964 0.9742610 -0.0679964 0.9742610 -0.0679964 0.0257390 0.0679964
4468000000 0.0260009 0.0682660 0.9739991 -0.0682660 0.9739991 -0.0682660 0.0260009 0.0682660
4489000000 0.0262627 0.0685449 0.9737373 -0.0685449 0.9737373 -0.0685449 0.0262627 0.0685449
4510000000 0.0265259 0.0688341 0.9734741 -0.0688341 0.9734741 -0.0688341 0.0265259 0.0688341
