!Murata Part Number: GRM0332C1H9R8BA01
!These Parameters are Measured in Series Mode Connection
!Data Generated on Mar 30, 2021
!       o--ll--o
!Port1            Port2
!       o------o
!Operation Temp=25[degC], DC Bias Voltage=0[V]
!Freq. Start=100[MHz] Stop=9[GHz] 401[Steps]
# Hz S RI R 50
!Freq.(Hz) S11(Real) S11(Imag) S21(Real) S21(Imag) S12(Real) S12(Imag) S22(Real) S22(Imag)
100000000 0.7244603 -0.4462461 0.2755397 0.4462461 0.2755397 0.4462461 0.7244603 -0.4462461
121000000 0.6421748 -0.4787066 0.3578252 0.4787066 0.3578252 0.4787066 0.6421748 -0.4787066
142000000 0.5656152 -0.4949078 0.4343848 0.4949078 0.4343848 0.4949078 0.5656152 -0.4949078
163000000 0.4968142 -0.4991069 0.5031858 0.4991069 0.5031858 0.4991069 0.4968142 -0.4991069
184000000 0.4363189 -0.4949298 0.5636811 0.4949298 0.5636811 0.4949298 0.4363189 -0.4949298
205000000 0.3838156 -0.4851996 0.6161844 0.4851996 0.6161844 0.4851996 0.3838156 -0.4851996
226000000 0.3385698 -0.4719924 0.6614302 0.4719924 0.6614302 0.4719924 0.3385698 -0.4719924
247000000 0.2996973 -0.4567772 0.7003027 0.4567772 0.7003027 0.4567772 0.2996973 -0.4567772
268000000 0.2663123 -0.4405632 0.7336877 0.4405632 0.7336877 0.4405632 0.2663123 -0.4405632
289000000 0.2375990 -0.4240269 0.7624010 0.4240269 0.7624010 0.4240269 0.2375990 -0.4240269
310000000 0.2128398 -0.4076102 0.7871602 0.4076102 0.7871602 0.4076102 0.2128398 -0.4076102
331000000 0.1914195 -0.3915925 0.8085805 0.3915925 0.8085805 0.3915925 0.1914195 -0.3915925
352000000 0.1728184 -0.3761423 0.8271816 0.3761423 0.8271816 0.3761423 0.1728184 -0.3761423
373000000 0.1566013 -0.3613535 0.8433987 0.3613535 0.8433987 0.3613535 0.1566013 -0.3613535
394000000 0.1424052 -0.3472700 0.8575948 0.3472700 0.8575948 0.3472700 0.1424052 -0.3472700
415000000 0.1299279 -0.3339033 0.8700721 0.3339033 0.8700721 0.3339033 0.1299279 -0.3339033
436000000 0.1189173 -0.3212435 0.8810827 0.3212435 0.8810827 0.3212435 0.1189173 -0.3212435
457000000 0.1091634 -0.3092681 0.8908366 0.3092681 0.8908366 0.3092681 0.1091634 -0.3092681
478000000 0.1004903 -0.2979467 0.8995097 0.2979467 0.8995097 0.2979467 0.1004903 -0.2979467
499000000 0.0927502 -0.2872447 0.9072498 0.2872447 0.9072498 0.2872447 0.0927502 -0.2872447
520000000 0.0858189 -0.2771261 0.9141811 0.2771261 0.9141811 0.2771261 0.0858189 -0.2771261
541000000 0.0795914 -0.2675544 0.9204086 0.2675544 0.9204086 0.2675544 0.0795914 -0.2675544
562000000 0.0739785 -0.2584940 0.9260215 0.2584940 0.9260215 0.2584940 0.0739785 -0.2584940
583000000 0.0689044 -0.2499110 0.9310956 0.2499110 0.9310956 0.2499110 0.0689044 -0.2499110
604000000 0.0643041 -0.2417729 0.9356959 0.2417729 0.9356959 0.2417729 0.0643041 -0.2417729
625000000 0.0601221 -0.2340494 0.9398779 0.2340494 0.9398779 0.2340494 0.0601221 -0.2340494
646000000 0.0563105 -0.2267121 0.9436895 0.2267121 0.9436895 0.2267121 0.0563105 -0.2267121
667000000 0.0528279 -0.2197346 0.9471721 0.2197346 0.9471721 0.2197346 0.0528279 -0.2197346
688000000 0.0496384 -0.2130924 0.9503616 0.2130924 0.9503616 0.2130924 0.0496384 -0.2130924
709000000 0.0467109 -0.2067629 0.9532891 0.2067629 0.9532891 0.2067629 0.0467109 -0.2067629
730000000 0.0440180 -0.2007251 0.9559820 0.2007251 0.9559820 0.2007251 0.0440180 -0.2007251
751000000 0.0415361 -0.1949598 0.9584639 0.1949598 0.9584639 0.1949598 0.0415361 -0.1949598
772000000 0.0392441 -0.1894491 0.9607559 0.1894491 0.9607559 0.1894491 0.0392441 -0.1894491
793000000 0.0371237 -0.1841765 0.9628763 0.1841765 0.9628763 0.1841765 0.0371237 -0.1841765
814000000 0.0351584 -0.1791269 0.9648416 0.1791269 0.9648416 0.1791269 0.0351584 -0.1791269
835000000 0.0333341 -0.1742863 0.9666659 0.1742863 0.9666659 0.1742863 0.0333341 -0.1742863
856000000 0.0316378 -0.1696416 0.9683622 0.1696416 0.9683622 0.1696416 0.0316378 -0.1696416
877000000 0.0300581 -0.1651810 0.9699419 0.1651810 0.9699419 0.1651810 0.0300581 -0.1651810
898000000 0.0285850 -0.1608934 0.9714150 0.1608934 0.9714150 0.1608934 0.0285850 -0.1608934
919000000 0.0272093 -0.1567684 0.9727907 0.1567684 0.9727907 0.1567684 0.0272093 -0.1567684
940000000 0.0259228 -0.1527967 0.9740772 0.1527967 0.9740772 0.1527967 0.0259228 -0.1527967
961000000 0.0247184 -0.1489693 0.9752816 0.1489693 0.9752816 0.1489693 0.0247184 -0.1489693
982000000 0.0235893 -0.1452782 0.9764107 0.1452782 0.9764107 0.1452782 0.0235893 -0.1452782
1003000000 0.0225296 -0.1417156 0.9774704 0.1417156 0.9774704 0.1417156 0.0225296 -0.1417156
1024000000 0.0215341 -0.1382747 0.9784659 0.1382747 0.9784659 0.1382747 0.0215341 -0.1382747
1045000000 0.0205978 -0.1349487 0.9794022 0.1349487 0.9794022 0.1349487 0.0205978 -0.1349487
1066000000 0.0197162 -0.1317316 0.9802838 0.1317316 0.9802838 0.1317316 0.0197162 -0.1317316
1087000000 0.0188855 -0.1286176 0.9811145 0.1286176 0.9811145 0.1286176 0.0188855 -0.1286176
1108000000 0.0181020 -0.1256015 0.9818980 0.1256015 0.9818980 0.1256015 0.0181020 -0.1256015
1129000000 0.0173623 -0.1226782 0.9826377 0.1226782 0.9826377 0.1226782 0.0173623 -0.1226782
1150000000 0.0166634 -0.1198430 0.9833366 0.1198430 0.9833366 0.1198430 0.0166634 -0.1198430
1171000000 0.0160026 -0.1170917 0.9839974 0.1170917 0.9839974 0.1170917 0.0160026 -0.1170917
1192000000 0.0153772 -0.1144201 0.9846228 0.1144201 0.9846228 0.1144201 0.0153772 -0.1144201
1213000000 0.0147849 -0.1118244 0.9852151 0.1118244 0.9852151 0.1118244 0.0147849 -0.1118244
1234000000 0.0142237 -0.1093010 0.9857763 0.1093010 0.9857763 0.1093010 0.0142237 -0.1093010
1255000000 0.0136915 -0.1068465 0.9863085 0.1068465 0.9863085 0.1068465 0.0136915 -0.1068465
1276000000 0.0131866 -0.1044578 0.9868134 0.1044578 0.9868134 0.1044578 0.0131866 -0.1044578
1297000000 0.0127072 -0.1021319 0.9872928 0.1021319 0.9872928 0.1021319 0.0127072 -0.1021319
1318000000 0.0122518 -0.0998659 0.9877482 0.0998659 0.9877482 0.0998659 0.0122518 -0.0998659
1339000000 0.0118189 -0.0976572 0.9881811 0.0976572 0.9881811 0.0976572 0.0118189 -0.0976572
1360000000 0.0114074 -0.0955033 0.9885926 0.0955033 0.9885926 0.0955033 0.0114074 -0.0955033
1381000000 0.0110158 -0.0934019 0.9889842 0.0934019 0.9889842 0.0934019 0.0110158 -0.0934019
1402000000 0.0106431 -0.0913506 0.9893569 0.0913506 0.9893569 0.0913506 0.0106431 -0.0913506
1423000000 0.0102883 -0.0893476 0.9897117 0.0893476 0.9897117 0.0893476 0.0102883 -0.0893476
1444000000 0.0099502 -0.0873906 0.9900498 0.0873906 0.9900498 0.0873906 0.0099502 -0.0873906
1465000000 0.0096282 -0.0854779 0.9903718 0.0854779 0.9903718 0.0854779 0.0096282 -0.0854779
1486000000 0.0093212 -0.0836076 0.9906788 0.0836076 0.9906788 0.0836076 0.0093212 -0.0836076
1507000000 0.0090285 -0.0817781 0.9909715 0.0817781 0.9909715 0.0817781 0.0090285 -0.0817781
1528000000 0.0087493 -0.0799877 0.9912507 0.0799877 0.9912507 0.0799877 0.0087493 -0.0799877
1549000000 0.0084830 -0.0782350 0.9915170 0.0782350 0.9915170 0.0782350 0.0084830 -0.0782350
1570000000 0.0082289 -0.0765185 0.9917711 0.0765185 0.9917711 0.0765185 0.0082289 -0.0765185
1591000000 0.0079864 -0.0748368 0.9920136 0.0748368 0.9920136 0.0748368 0.0079864 -0.0748368
1612000000 0.0077549 -0.0731886 0.9922451 0.0731886 0.9922451 0.0731886 0.0077549 -0.0731886
1633000000 0.0075339 -0.0715727 0.9924661 0.0715727 0.9924661 0.0715727 0.0075339 -0.0715727
1654000000 0.0073230 -0.0699879 0.9926770 0.0699879 0.9926770 0.0699879 0.0073230 -0.0699879
1675000000 0.0071215 -0.0684330 0.9928785 0.0684330 0.9928785 0.0684330 0.0071215 -0.0684330
1696000000 0.0069292 -0.0669070 0.9930708 0.0669070 0.9930708 0.0669070 0.0069292 -0.0669070
1717000000 0.0067455 -0.0654089 0.9932545 0.0654089 0.9932545 0.0654089 0.0067455 -0.0654089
1738000000 0.0065701 -0.0639377 0.9934299 0.0639377 0.9934299 0.0639377 0.0065701 -0.0639377
1759000000 0.0064027 -0.0624924 0.9935973 0.0624924 0.9935973 0.0624924 0.0064027 -0.0624924
1780000000 0.0062428 -0.0610722 0.9937572 0.0610722 0.9937572 0.0610722 0.0062428 -0.0610722
1801000000 0.0060902 -0.0596762 0.9939098 0.0596762 0.9939098 0.0596762 0.0060902 -0.0596762
1822000000 0.0059445 -0.0583036 0.9940555 0.0583036 0.9940555 0.0583036 0.0059445 -0.0583036
1843000000 0.0058055 -0.0569537 0.9941945 0.0569537 0.9941945 0.0569537 0.0058055 -0.0569537
1864000000 0.0056729 -0.0556256 0.9943271 0.0556256 0.9943271 0.0556256 0.0056729 -0.0556256
1885000000 0.0055463 -0.0543187 0.9944537 0.0543187 0.9944537 0.0543187 0.0055463 -0.0543187
1906000000 0.0054257 -0.0530323 0.9945743 0.0530323 0.9945743 0.0530323 0.0054257 -0.0530323
1927000000 0.0053107 -0.0517658 0.9946893 0.0517658 0.9946893 0.0517658 0.0053107 -0.0517658
1948000000 0.0052011 -0.0505184 0.9947989 0.0505184 0.9947989 0.0505184 0.0052011 -0.0505184
1969000000 0.0050967 -0.0492897 0.9949033 0.0492897 0.9949033 0.0492897 0.0050967 -0.0492897
1990000000 0.0049974 -0.0480790 0.9950026 0.0480790 0.9950026 0.0480790 0.0049974 -0.0480790
2011000000 0.0049028 -0.0468858 0.9950972 0.0468858 0.9950972 0.0468858 0.0049028 -0.0468858
2032000000 0.0048130 -0.0457095 0.9951870 0.0457095 0.9951870 0.0457095 0.0048130 -0.0457095
2053000000 0.0047276 -0.0445497 0.9952724 0.0445497 0.9952724 0.0445497 0.0047276 -0.0445497
2074000000 0.0046465 -0.0434058 0.9953535 0.0434058 0.9953535 0.0434058 0.0046465 -0.0434058
2095000000 0.0045696 -0.0422774 0.9954304 0.0422774 0.9954304 0.0422774 0.0045696 -0.0422774
2116000000 0.0044967 -0.0411641 0.9955033 0.0411641 0.9955033 0.0411641 0.0044967 -0.0411641
2137000000 0.0044277 -0.0400653 0.9955723 0.0400653 0.9955723 0.0400653 0.0044277 -0.0400653
2158000000 0.0043625 -0.0389808 0.9956375 0.0389808 0.9956375 0.0389808 0.0043625 -0.0389808
2179000000 0.0043009 -0.0379100 0.9956991 0.0379100 0.9956991 0.0379100 0.0043009 -0.0379100
2200000000 0.0042428 -0.0368525 0.9957572 0.0368525 0.9957572 0.0368525 0.0042428 -0.0368525
2221000000 0.0041881 -0.0358081 0.9958119 0.0358081 0.9958119 0.0358081 0.0041881 -0.0358081
2242000000 0.0041366 -0.0347764 0.9958634 0.0347764 0.9958634 0.0347764 0.0041366 -0.0347764
2263000000 0.0040884 -0.0337569 0.9959116 0.0337569 0.9959116 0.0337569 0.0040884 -0.0337569
2284000000 0.0040432 -0.0327495 0.9959568 0.0327495 0.9959568 0.0327495 0.0040432 -0.0327495
2305000000 0.0040011 -0.0317536 0.9959989 0.0317536 0.9959989 0.0317536 0.0040011 -0.0317536
2326000000 0.0039618 -0.0307691 0.9960382 0.0307691 0.9960382 0.0307691 0.0039618 -0.0307691
2347000000 0.0039253 -0.0297956 0.9960747 0.0297956 0.9960747 0.0297956 0.0039253 -0.0297956
2368000000 0.0038916 -0.0288329 0.9961084 0.0288329 0.9961084 0.0288329 0.0038916 -0.0288329
2389000000 0.0038605 -0.0278806 0.9961395 0.0278806 0.9961395 0.0278806 0.0038605 -0.0278806
2410000000 0.0038320 -0.0269385 0.9961680 0.0269385 0.9961680 0.0269385 0.0038320 -0.0269385
2431000000 0.0038060 -0.0260064 0.9961940 0.0260064 0.9961940 0.0260064 0.0038060 -0.0260064
2452000000 0.0037824 -0.0250839 0.9962176 0.0250839 0.9962176 0.0250839 0.0037824 -0.0250839
2473000000 0.0037612 -0.0241708 0.9962388 0.0241708 0.9962388 0.0241708 0.0037612 -0.0241708
2494000000 0.0037423 -0.0232670 0.9962577 0.0232670 0.9962577 0.0232670 0.0037423 -0.0232670
2515000000 0.0037257 -0.0223721 0.9962743 0.0223721 0.9962743 0.0223721 0.0037257 -0.0223721
2536000000 0.0037112 -0.0214859 0.9962888 0.0214859 0.9962888 0.0214859 0.0037112 -0.0214859
2557000000 0.0036989 -0.0206082 0.9963011 0.0206082 0.9963011 0.0206082 0.0036989 -0.0206082
2578000000 0.0036886 -0.0197389 0.9963114 0.0197389 0.9963114 0.0197389 0.0036886 -0.0197389
2599000000 0.0036804 -0.0188777 0.9963196 0.0188777 0.9963196 0.0188777 0.0036804 -0.0188777
2620000000 0.0036741 -0.0180244 0.9963259 0.0180244 0.9963259 0.0180244 0.0036741 -0.0180244
2641000000 0.0036697 -0.0171789 0.9963303 0.0171789 0.9963303 0.0171789 0.0036697 -0.0171789
2662000000 0.0036673 -0.0163408 0.9963327 0.0163408 0.9963327 0.0163408 0.0036673 -0.0163408
2683000000 0.0036666 -0.0155102 0.9963334 0.0155102 0.9963334 0.0155102 0.0036666 -0.0155102
2704000000 0.0036678 -0.0146867 0.9963322 0.0146867 0.9963322 0.0146867 0.0036678 -0.0146867
2725000000 0.0036707 -0.0138703 0.9963293 0.0138703 0.9963293 0.0138703 0.0036707 -0.0138703
2746000000 0.0036754 -0.0130608 0.9963246 0.0130608 0.9963246 0.0130608 0.0036754 -0.0130608
2767000000 0.0036817 -0.0122579 0.9963183 0.0122579 0.9963183 0.0122579 0.0036817 -0.0122579
2788000000 0.0036896 -0.0114616 0.9963104 0.0114616 0.9963104 0.0114616 0.0036896 -0.0114616
2809000000 0.0036992 -0.0106718 0.9963008 0.0106718 0.9963008 0.0106718 0.0036992 -0.0106718
2830000000 0.0037103 -0.0098881 0.9962897 0.0098881 0.9962897 0.0098881 0.0037103 -0.0098881
2851000000 0.0037229 -0.0091107 0.9962771 0.0091107 0.9962771 0.0091107 0.0037229 -0.0091107
2872000000 0.0037371 -0.0083392 0.9962629 0.0083392 0.9962629 0.0083392 0.0037371 -0.0083392
2893000000 0.0037528 -0.0075735 0.9962472 0.0075735 0.9962472 0.0075735 0.0037528 -0.0075735
2914000000 0.0037699 -0.0068136 0.9962301 0.0068136 0.9962301 0.0068136 0.0037699 -0.0068136
2935000000 0.0037884 -0.0060593 0.9962116 0.0060593 0.9962116 0.0060593 0.0037884 -0.0060593
2956000000 0.0038083 -0.0053105 0.9961917 0.0053105 0.9961917 0.0053105 0.0038083 -0.0053105
2977000000 0.0038296 -0.0045670 0.9961704 0.0045670 0.9961704 0.0045670 0.0038296 -0.0045670
2998000000 0.0038522 -0.0038288 0.9961478 0.0038288 0.9961478 0.0038288 0.0038522 -0.0038288
3019000000 0.0038761 -0.0030957 0.9961239 0.0030957 0.9961239 0.0030957 0.0038761 -0.0030957
3040000000 0.0039014 -0.0023676 0.9960986 0.0023676 0.9960986 0.0023676 0.0039014 -0.0023676
3061000000 0.0039279 -0.0016445 0.9960721 0.0016445 0.9960721 0.0016445 0.0039279 -0.0016445
3082000000 0.0039556 -0.0009262 0.9960444 0.0009262 0.9960444 0.0009262 0.0039556 -0.0009262
3103000000 0.0039846 -0.0002126 0.9960154 0.0002126 0.9960154 0.0002126 0.0039846 -0.0002126
3124000000 0.0040148 0.0004964 0.9959852 -0.0004964 0.9959852 -0.0004964 0.0040148 0.0004964
3145000000 0.0040462 0.0012009 0.9959538 -0.0012009 0.9959538 -0.0012009 0.0040462 0.0012009
3166000000 0.0040788 0.0019009 0.9959212 -0.0019009 0.9959212 -0.0019009 0.0040788 0.0019009
3187000000 0.0041125 0.0025966 0.9958875 -0.0025966 0.9958875 -0.0025966 0.0041125 0.0025966
3208000000 0.0041473 0.0032880 0.9958527 -0.0032880 0.9958527 -0.0032880 0.0041473 0.0032880
3229000000 0.0041833 0.0039753 0.9958167 -0.0039753 0.9958167 -0.0039753 0.0041833 0.0039753
3250000000 0.0042204 0.0046584 0.9957796 -0.0046584 0.9957796 -0.0046584 0.0042204 0.0046584
3271000000 0.0042585 0.0053376 0.9957415 -0.0053376 0.9957415 -0.0053376 0.0042585 0.0053376
3292000000 0.0042978 0.0060129 0.9957022 -0.0060129 0.9957022 -0.0060129 0.0042978 0.0060129
3313000000 0.0043380 0.0066843 0.9956620 -0.0066843 0.9956620 -0.0066843 0.0043380 0.0066843
3334000000 0.0043794 0.0073519 0.9956206 -0.0073519 0.9956206 -0.0073519 0.0043794 0.0073519
3355000000 0.0044217 0.0080159 0.9955783 -0.0080159 0.9955783 -0.0080159 0.0044217 0.0080159
3376000000 0.0044651 0.0086762 0.9955349 -0.0086762 0.9955349 -0.0086762 0.0044651 0.0086762
3397000000 0.0045094 0.0093330 0.9954906 -0.0093330 0.9954906 -0.0093330 0.0045094 0.0093330
3418000000 0.0045548 0.0099863 0.9954452 -0.0099863 0.9954452 -0.0099863 0.0045548 0.0099863
3439000000 0.0046011 0.0106362 0.9953989 -0.0106362 0.9953989 -0.0106362 0.0046011 0.0106362
3460000000 0.0046484 0.0112827 0.9953516 -0.0112827 0.9953516 -0.0112827 0.0046484 0.0112827
3481000000 0.0046966 0.0119259 0.9953034 -0.0119259 0.9953034 -0.0119259 0.0046966 0.0119259
3502000000 0.0047458 0.0125660 0.9952542 -0.0125660 0.9952542 -0.0125660 0.0047458 0.0125660
3523000000 0.0047959 0.0132028 0.9952041 -0.0132028 0.9952041 -0.0132028 0.0047959 0.0132028
3544000000 0.0048470 0.0138366 0.9951530 -0.0138366 0.9951530 -0.0138366 0.0048470 0.0138366
3565000000 0.0048989 0.0144673 0.9951011 -0.0144673 0.9951011 -0.0144673 0.0048989 0.0144673
3586000000 0.0049517 0.0150951 0.9950483 -0.0150951 0.9950483 -0.0150951 0.0049517 0.0150951
3607000000 0.0050054 0.0157199 0.9949946 -0.0157199 0.9949946 -0.0157199 0.0050054 0.0157199
3628000000 0.0050601 0.0163418 0.9949399 -0.0163418 0.9949399 -0.0163418 0.0050601 0.0163418
3649000000 0.0051155 0.0169609 0.9948845 -0.0169609 0.9948845 -0.0169609 0.0051155 0.0169609
3670000000 0.0051719 0.0175773 0.9948281 -0.0175773 0.9948281 -0.0175773 0.0051719 0.0175773
3691000000 0.0052290 0.0181909 0.9947710 -0.0181909 0.9947710 -0.0181909 0.0052290 0.0181909
3712000000 0.0052871 0.0188019 0.9947129 -0.0188019 0.9947129 -0.0188019 0.0052871 0.0188019
3733000000 0.0053459 0.0194103 0.9946541 -0.0194103 0.9946541 -0.0194103 0.0053459 0.0194103
3754000000 0.0054056 0.0200161 0.9945944 -0.0200161 0.9945944 -0.0200161 0.0054056 0.0200161
3775000000 0.0054662 0.0206193 0.9945338 -0.0206193 0.9945338 -0.0206193 0.0054662 0.0206193
3796000000 0.0055275 0.0212201 0.9944725 -0.0212201 0.9944725 -0.0212201 0.0055275 0.0212201
3817000000 0.0055896 0.0218185 0.9944104 -0.0218185 0.9944104 -0.0218185 0.0055896 0.0218185
3838000000 0.0056526 0.0224145 0.9943474 -0.0224145 0.9943474 -0.0224145 0.0056526 0.0224145
3859000000 0.0057163 0.0230081 0.9942837 -0.0230081 0.9942837 -0.0230081 0.0057163 0.0230081
3880000000 0.0057809 0.0235995 0.9942191 -0.0235995 0.9942191 -0.0235995 0.0057809 0.0235995
3901000000 0.0058462 0.0241886 0.9941538 -0.0241886 0.9941538 -0.0241886 0.0058462 0.0241886
3922000000 0.0059122 0.0247754 0.9940878 -0.0247754 0.9940878 -0.0247754 0.0059122 0.0247754
3943000000 0.0059791 0.0253601 0.9940209 -0.0253601 0.9940209 -0.0253601 0.0059791 0.0253601
3964000000 0.0060467 0.0259427 0.9939533 -0.0259427 0.9939533 -0.0259427 0.0060467 0.0259427
3985000000 0.0061151 0.0265232 0.9938849 -0.0265232 0.9938849 -0.0265232 0.0061151 0.0265232
4006000000 0.0061842 0.0271016 0.9938158 -0.0271016 0.9938158 -0.0271016 0.0061842 0.0271016
4027000000 0.0062541 0.0276780 0.9937459 -0.0276780 0.9937459 -0.0276780 0.0062541 0.0276780
4048000000 0.0063247 0.0282524 0.9936753 -0.0282524 0.9936753 -0.0282524 0.0063247 0.0282524
4069000000 0.0063961 0.0288248 0.9936039 -0.0288248 0.9936039 -0.0288248 0.0063961 0.0288248
4090000000 0.0064682 0.0293954 0.9935318 -0.0293954 0.9935318 -0.0293954 0.0064682 0.0293954
4111000000 0.0065410 0.0299640 0.9934590 -0.0299640 0.9934590 -0.0299640 0.0065410 0.0299640
4132000000 0.0066145 0.0305308 0.9933855 -0.0305308 0.9933855 -0.0305308 0.0066145 0.0305308
4153000000 0.0066888 0.0310958 0.9933112 -0.0310958 0.9933112 -0.0310958 0.0066888 0.0310958
4174000000 0.0067638 0.0316591 0.9932362 -0.0316591 0.9932362 -0.0316591 0.0067638 0.0316591
4195000000 0.0068395 0.0322205 0.9931605 -0.0322205 0.9931605 -0.0322205 0.0068395 0.0322205
4216000000 0.0069159 0.0327803 0.9930841 -0.0327803 0.9930841 -0.0327803 0.0069159 0.0327803
4237000000 0.0069930 0.0333383 0.9930070 -0.0333383 0.9930070 -0.0333383 0.0069930 0.0333383
4258000000 0.0070708 0.0338948 0.9929292 -0.0338948 0.9929292 -0.0338948 0.0070708 0.0338948
4279000000 0.0071493 0.0344495 0.9928507 -0.0344495 0.9928507 -0.0344495 0.0071493 0.0344495
4300000000 0.0072285 0.0350027 0.9927715 -0.0350027 0.9927715 -0.0350027 0.0072285 0.0350027
4321000000 0.0073084 0.0355544 0.9926916 -0.0355544 0.9926916 -0.0355544 0.0073084 0.0355544
4342000000 0.0073889 0.0361045 0.9926111 -0.0361045 0.9926111 -0.0361045 0.0073889 0.0361045
4363000000 0.0074702 0.0366530 0.9925298 -0.0366530 0.9925298 -0.0366530 0.0074702 0.0366530
4384000000 0.0075521 0.0372001 0.9924479 -0.0372001 0.9924479 -0.0372001 0.0075521 0.0372001
4405000000 0.0076347 0.0377458 0.9923653 -0.0377458 0.9923653 -0.0377458 0.0076347 0.0377458
4426000000 0.0077180 0.0382900 0.9922820 -0.0382900 0.9922820 -0.0382900 0.0077180 0.0382900
4447000000 0.0078020 0.0388328 0.9921980 -0.0388328 0.9921980 -0.0388328 0.0078020 0.0388328
4468000000 0.0078866 0.0393742 0.9921134 -0.0393742 0.9921134 -0.0393742 0.0078866 0.0393742
4489000000 0.0079719 0.0399143 0.9920281 -0.0399143 0.9920281 -0.0399143 0.0079719 0.0399143
4510000000 0.0080579 0.0404530 0.9919421 -0.0404530 0.9919421 -0.0404530 0.0080579 0.0404530
