!Murata Part Number: GRM0335C2A360JA01
!These Parameters are Measured in Series Mode Connection
!Data Generated on Mar 30, 2021
!       o--ll--o
!Port1            Port2
!       o------o
!Operation Temp=25[degC], DC Bias Voltage=0[V]
!Freq. Start=100[MHz] Stop=9[GHz] 401[Steps]
# Hz S RI R 50
!Freq.(Hz) S11(Real) S11(Imag) S21(Real) S21(Imag) S12(Real) S12(Imag) S22(Real) S22(Imag)
100000000 0.1632600 -0.3680802 0.8367400 0.3680802 0.8367400 0.3680802 0.1632600 -0.3680802
121000000 0.1175796 -0.3202614 0.8824204 0.3202614 0.8824204 0.3202614 0.1175796 -0.3202614
142000000 0.0882037 -0.2814133 0.9117963 0.2814133 0.9117963 0.2814133 0.0882037 -0.2814133
163000000 0.0683867 -0.2498973 0.9316133 0.2498973 0.9316133 0.2498973 0.0683867 -0.2498973
184000000 0.0544644 -0.2240827 0.9455356 0.2240827 0.9455356 0.2240827 0.0544644 -0.2240827
205000000 0.0443451 -0.2026684 0.9556549 0.2026684 0.9556549 0.2026684 0.0443451 -0.2026684
226000000 0.0367770 -0.1846725 0.9632230 0.1846725 0.9632230 0.1846725 0.0367770 -0.1846725
247000000 0.0309786 -0.1693628 0.9690214 0.1693628 0.9690214 0.1693628 0.0309786 -0.1693628
268000000 0.0264437 -0.1561915 0.9735563 0.1561915 0.9735563 0.1561915 0.0264437 -0.1561915
289000000 0.0228338 -0.1447443 0.9771662 0.1447443 0.9771662 0.1447443 0.0228338 -0.1447443
310000000 0.0199158 -0.1347039 0.9800842 0.1347039 0.9800842 0.1347039 0.0199158 -0.1347039
331000000 0.0175253 -0.1258246 0.9824747 0.1258246 0.9824747 0.1258246 0.0175253 -0.1258246
352000000 0.0155439 -0.1179136 0.9844561 0.1179136 0.9844561 0.1179136 0.0155439 -0.1179136
373000000 0.0138844 -0.1108176 0.9861156 0.1108176 0.9861156 0.1108176 0.0138844 -0.1108176
394000000 0.0124818 -0.1044137 0.9875182 0.1044137 0.9875182 0.1044137 0.0124818 -0.1044137
415000000 0.0112864 -0.0986022 0.9887136 0.0986022 0.9887136 0.0986022 0.0112864 -0.0986022
436000000 0.0102602 -0.0933013 0.9897398 0.0933013 0.9897398 0.0933013 0.0102602 -0.0933013
457000000 0.0093734 -0.0884436 0.9906266 0.0884436 0.9906266 0.0884436 0.0093734 -0.0884436
478000000 0.0086025 -0.0839729 0.9913975 0.0839729 0.9913975 0.0839729 0.0086025 -0.0839729
499000000 0.0079288 -0.0798421 0.9920712 0.0798421 0.9920712 0.0798421 0.0079288 -0.0798421
520000000 0.0073372 -0.0760112 0.9926628 0.0760112 0.9926628 0.0760112 0.0073372 -0.0760112
541000000 0.0068154 -0.0724464 0.9931846 0.0724464 0.9931846 0.0724464 0.0068154 -0.0724464
562000000 0.0063535 -0.0691188 0.9936465 0.0691188 0.9936465 0.0691188 0.0063535 -0.0691188
583000000 0.0059430 -0.0660033 0.9940570 0.0660033 0.9940570 0.0660033 0.0059430 -0.0660033
604000000 0.0055771 -0.0630783 0.9944229 0.0630783 0.9944229 0.0630783 0.0055771 -0.0630783
625000000 0.0052501 -0.0603252 0.9947499 0.0603252 0.9947499 0.0603252 0.0052501 -0.0603252
646000000 0.0049571 -0.0577274 0.9950429 0.0577274 0.9950429 0.0577274 0.0049571 -0.0577274
667000000 0.0046938 -0.0552707 0.9953062 0.0552707 0.9953062 0.0552707 0.0046938 -0.0552707
688000000 0.0044570 -0.0529424 0.9955430 0.0529424 0.9955430 0.0529424 0.0044570 -0.0529424
709000000 0.0042435 -0.0507313 0.9957565 0.0507313 0.9957565 0.0507313 0.0042435 -0.0507313
730000000 0.0040507 -0.0486275 0.9959493 0.0486275 0.9959493 0.0486275 0.0040507 -0.0486275
751000000 0.0038765 -0.0466220 0.9961235 0.0466220 0.9961235 0.0466220 0.0038765 -0.0466220
772000000 0.0037189 -0.0447072 0.9962811 0.0447072 0.9962811 0.0447072 0.0037189 -0.0447072
793000000 0.0035763 -0.0428758 0.9964237 0.0428758 0.9964237 0.0428758 0.0035763 -0.0428758
814000000 0.0034470 -0.0411215 0.9965530 0.0411215 0.9965530 0.0411215 0.0034470 -0.0411215
835000000 0.0033300 -0.0394386 0.9966700 0.0394386 0.9966700 0.0394386 0.0033300 -0.0394386
856000000 0.0032239 -0.0378219 0.9967761 0.0378219 0.9967761 0.0378219 0.0032239 -0.0378219
877000000 0.0031278 -0.0362668 0.9968722 0.0362668 0.9968722 0.0362668 0.0031278 -0.0362668
898000000 0.0030409 -0.0347689 0.9969591 0.0347689 0.9969591 0.0347689 0.0030409 -0.0347689
919000000 0.0029623 -0.0333245 0.9970377 0.0333245 0.9970377 0.0333245 0.0029623 -0.0333245
940000000 0.0028913 -0.0319299 0.9971087 0.0319299 0.9971087 0.0319299 0.0028913 -0.0319299
961000000 0.0028273 -0.0305820 0.9971727 0.0305820 0.9971727 0.0305820 0.0028273 -0.0305820
982000000 0.0027697 -0.0292778 0.9972303 0.0292778 0.9972303 0.0292778 0.0027697 -0.0292778
1003000000 0.0027180 -0.0280146 0.9972820 0.0280146 0.9972820 0.0280146 0.0027180 -0.0280146
1024000000 0.0026718 -0.0267900 0.9973282 0.0267900 0.9973282 0.0267900 0.0026718 -0.0267900
1045000000 0.0026306 -0.0256015 0.9973694 0.0256015 0.9973694 0.0256015 0.0026306 -0.0256015
1066000000 0.0025941 -0.0244472 0.9974059 0.0244472 0.9974059 0.0244472 0.0025941 -0.0244472
1087000000 0.0025620 -0.0233250 0.9974380 0.0233250 0.9974380 0.0233250 0.0025620 -0.0233250
1108000000 0.0025338 -0.0222332 0.9974662 0.0222332 0.9974662 0.0222332 0.0025338 -0.0222332
1129000000 0.0025094 -0.0211701 0.9974906 0.0211701 0.9974906 0.0211701 0.0025094 -0.0211701
1150000000 0.0024884 -0.0201341 0.9975116 0.0201341 0.9975116 0.0201341 0.0024884 -0.0201341
1171000000 0.0024707 -0.0191238 0.9975293 0.0191238 0.9975293 0.0191238 0.0024707 -0.0191238
1192000000 0.0024561 -0.0181378 0.9975439 0.0181378 0.9975439 0.0181378 0.0024561 -0.0181378
1213000000 0.0024442 -0.0171749 0.9975558 0.0171749 0.9975558 0.0171749 0.0024442 -0.0171749
1234000000 0.0024351 -0.0162339 0.9975649 0.0162339 0.9975649 0.0162339 0.0024351 -0.0162339
1255000000 0.0024284 -0.0153138 0.9975716 0.0153138 0.9975716 0.0153138 0.0024284 -0.0153138
1276000000 0.0024241 -0.0144135 0.9975759 0.0144135 0.9975759 0.0144135 0.0024241 -0.0144135
1297000000 0.0024220 -0.0135320 0.9975780 0.0135320 0.9975780 0.0135320 0.0024220 -0.0135320
1318000000 0.0024219 -0.0126685 0.9975781 0.0126685 0.9975781 0.0126685 0.0024219 -0.0126685
1339000000 0.0024238 -0.0118221 0.9975762 0.0118221 0.9975762 0.0118221 0.0024238 -0.0118221
1360000000 0.0024276 -0.0109921 0.9975724 0.0109921 0.9975724 0.0109921 0.0024276 -0.0109921
1381000000 0.0024331 -0.0101776 0.9975669 0.0101776 0.9975669 0.0101776 0.0024331 -0.0101776
1402000000 0.0024403 -0.0093780 0.9975597 0.0093780 0.9975597 0.0093780 0.0024403 -0.0093780
1423000000 0.0024490 -0.0085927 0.9975510 0.0085927 0.9975510 0.0085927 0.0024490 -0.0085927
1444000000 0.0024592 -0.0078210 0.9975408 0.0078210 0.9975408 0.0078210 0.0024592 -0.0078210
1465000000 0.0024707 -0.0070623 0.9975293 0.0070623 0.9975293 0.0070623 0.0024707 -0.0070623
1486000000 0.0024837 -0.0063161 0.9975163 0.0063161 0.9975163 0.0063161 0.0024837 -0.0063161
1507000000 0.0024979 -0.0055819 0.9975021 0.0055819 0.9975021 0.0055819 0.0024979 -0.0055819
1528000000 0.0025133 -0.0048591 0.9974867 0.0048591 0.9974867 0.0048591 0.0025133 -0.0048591
1549000000 0.0025298 -0.0041473 0.9974702 0.0041473 0.9974702 0.0041473 0.0025298 -0.0041473
1570000000 0.0025475 -0.0034460 0.9974525 0.0034460 0.9974525 0.0034460 0.0025475 -0.0034460
1591000000 0.0025662 -0.0027548 0.9974338 0.0027548 0.9974338 0.0027548 0.0025662 -0.0027548
1612000000 0.0025859 -0.0020734 0.9974141 0.0020734 0.9974141 0.0020734 0.0025859 -0.0020734
1633000000 0.0026065 -0.0014014 0.9973935 0.0014014 0.9973935 0.0014014 0.0026065 -0.0014014
1654000000 0.0026281 -0.0007383 0.9973719 0.0007383 0.9973719 0.0007383 0.0026281 -0.0007383
1675000000 0.0026506 -0.0000838 0.9973494 0.0000838 0.9973494 0.0000838 0.0026506 -0.0000838
1696000000 0.0026739 0.0005624 0.9973261 -0.0005624 0.9973261 -0.0005624 0.0026739 0.0005624
1717000000 0.0026980 0.0012005 0.9973020 -0.0012005 0.9973020 -0.0012005 0.0026980 0.0012005
1738000000 0.0027229 0.0018310 0.9972771 -0.0018310 0.9972771 -0.0018310 0.0027229 0.0018310
1759000000 0.0027486 0.0024540 0.9972514 -0.0024540 0.9972514 -0.0024540 0.0027486 0.0024540
1780000000 0.0027750 0.0030699 0.9972250 -0.0030699 0.9972250 -0.0030699 0.0027750 0.0030699
1801000000 0.0028021 0.0036789 0.9971979 -0.0036789 0.9971979 -0.0036789 0.0028021 0.0036789
1822000000 0.0028299 0.0042812 0.9971701 -0.0042812 0.9971701 -0.0042812 0.0028299 0.0042812
1843000000 0.0028583 0.0048772 0.9971417 -0.0048772 0.9971417 -0.0048772 0.0028583 0.0048772
1864000000 0.0028874 0.0054669 0.9971126 -0.0054669 0.9971126 -0.0054669 0.0028874 0.0054669
1885000000 0.0029172 0.0060507 0.9970828 -0.0060507 0.9970828 -0.0060507 0.0029172 0.0060507
1906000000 0.0029475 0.0066288 0.9970525 -0.0066288 0.9970525 -0.0066288 0.0029475 0.0066288
1927000000 0.0029784 0.0072013 0.9970216 -0.0072013 0.9970216 -0.0072013 0.0029784 0.0072013
1948000000 0.0030099 0.0077684 0.9969901 -0.0077684 0.9969901 -0.0077684 0.0030099 0.0077684
1969000000 0.0030419 0.0083303 0.9969581 -0.0083303 0.9969581 -0.0083303 0.0030419 0.0083303
1990000000 0.0030745 0.0088872 0.9969255 -0.0088872 0.9969255 -0.0088872 0.0030745 0.0088872
2011000000 0.0031076 0.0094393 0.9968924 -0.0094393 0.9968924 -0.0094393 0.0031076 0.0094393
2032000000 0.0031413 0.0099867 0.9968587 -0.0099867 0.9968587 -0.0099867 0.0031413 0.0099867
2053000000 0.0031755 0.0105295 0.9968245 -0.0105295 0.9968245 -0.0105295 0.0031755 0.0105295
2074000000 0.0032101 0.0110680 0.9967899 -0.0110680 0.9967899 -0.0110680 0.0032101 0.0110680
2095000000 0.0032453 0.0116022 0.9967547 -0.0116022 0.9967547 -0.0116022 0.0032453 0.0116022
2116000000 0.0032810 0.0121324 0.9967190 -0.0121324 0.9967190 -0.0121324 0.0032810 0.0121324
2137000000 0.0033171 0.0126586 0.9966829 -0.0126586 0.9966829 -0.0126586 0.0033171 0.0126586
2158000000 0.0033537 0.0131809 0.9966463 -0.0131809 0.9966463 -0.0131809 0.0033537 0.0131809
2179000000 0.0033908 0.0136995 0.9966092 -0.0136995 0.9966092 -0.0136995 0.0033908 0.0136995
2200000000 0.0034284 0.0142145 0.9965716 -0.0142145 0.9965716 -0.0142145 0.0034284 0.0142145
2221000000 0.0034664 0.0147260 0.9965336 -0.0147260 0.9965336 -0.0147260 0.0034664 0.0147260
2242000000 0.0035049 0.0152342 0.9964951 -0.0152342 0.9964951 -0.0152342 0.0035049 0.0152342
2263000000 0.0035438 0.0157391 0.9964562 -0.0157391 0.9964562 -0.0157391 0.0035438 0.0157391
2284000000 0.0035832 0.0162408 0.9964168 -0.0162408 0.9964168 -0.0162408 0.0035832 0.0162408
2305000000 0.0036231 0.0167395 0.9963769 -0.0167395 0.9963769 -0.0167395 0.0036231 0.0167395
2326000000 0.0036633 0.0172352 0.9963367 -0.0172352 0.9963367 -0.0172352 0.0036633 0.0172352
2347000000 0.0037041 0.0177280 0.9962959 -0.0177280 0.9962959 -0.0177280 0.0037041 0.0177280
2368000000 0.0037452 0.0182180 0.9962548 -0.0182180 0.9962548 -0.0182180 0.0037452 0.0182180
2389000000 0.0037869 0.0187053 0.9962131 -0.0187053 0.9962131 -0.0187053 0.0037869 0.0187053
2410000000 0.0038289 0.0191900 0.9961711 -0.0191900 0.9961711 -0.0191900 0.0038289 0.0191900
2431000000 0.0038714 0.0196721 0.9961286 -0.0196721 0.9961286 -0.0196721 0.0038714 0.0196721
2452000000 0.0039144 0.0201518 0.9960856 -0.0201518 0.9960856 -0.0201518 0.0039144 0.0201518
2473000000 0.0039578 0.0206292 0.9960422 -0.0206292 0.9960422 -0.0206292 0.0039578 0.0206292
2494000000 0.0040016 0.0211041 0.9959984 -0.0211041 0.9959984 -0.0211041 0.0040016 0.0211041
2515000000 0.0040459 0.0215769 0.9959541 -0.0215769 0.9959541 -0.0215769 0.0040459 0.0215769
2536000000 0.0040906 0.0220475 0.9959094 -0.0220475 0.9959094 -0.0220475 0.0040906 0.0220475
2557000000 0.0041358 0.0225160 0.9958642 -0.0225160 0.9958642 -0.0225160 0.0041358 0.0225160
2578000000 0.0041815 0.0229824 0.9958185 -0.0229824 0.9958185 -0.0229824 0.0041815 0.0229824
2599000000 0.0042276 0.0234469 0.9957724 -0.0234469 0.9957724 -0.0234469 0.0042276 0.0234469
2620000000 0.0042741 0.0239094 0.9957259 -0.0239094 0.9957259 -0.0239094 0.0042741 0.0239094
2641000000 0.0043212 0.0243701 0.9956788 -0.0243701 0.9956788 -0.0243701 0.0043212 0.0243701
2662000000 0.0043687 0.0248289 0.9956313 -0.0248289 0.9956313 -0.0248289 0.0043687 0.0248289
2683000000 0.0044166 0.0252861 0.9955834 -0.0252861 0.9955834 -0.0252861 0.0044166 0.0252861
2704000000 0.0044651 0.0257415 0.9955349 -0.0257415 0.9955349 -0.0257415 0.0044651 0.0257415
2725000000 0.0045140 0.0261953 0.9954860 -0.0261953 0.9954860 -0.0261953 0.0045140 0.0261953
2746000000 0.0045634 0.0266475 0.9954366 -0.0266475 0.9954366 -0.0266475 0.0045634 0.0266475
2767000000 0.0046133 0.0270982 0.9953867 -0.0270982 0.9953867 -0.0270982 0.0046133 0.0270982
2788000000 0.0046636 0.0275473 0.9953364 -0.0275473 0.9953364 -0.0275473 0.0046636 0.0275473
2809000000 0.0047145 0.0279951 0.9952855 -0.0279951 0.9952855 -0.0279951 0.0047145 0.0279951
2830000000 0.0047659 0.0284414 0.9952341 -0.0284414 0.9952341 -0.0284414 0.0047659 0.0284414
2851000000 0.0048178 0.0288863 0.9951822 -0.0288863 0.9951822 -0.0288863 0.0048178 0.0288863
2872000000 0.0048702 0.0293300 0.9951298 -0.0293300 0.9951298 -0.0293300 0.0048702 0.0293300
2893000000 0.0049232 0.0297724 0.9950768 -0.0297724 0.9950768 -0.0297724 0.0049232 0.0297724
2914000000 0.0049766 0.0302135 0.9950234 -0.0302135 0.9950234 -0.0302135 0.0049766 0.0302135
2935000000 0.0050307 0.0306534 0.9949693 -0.0306534 0.9949693 -0.0306534 0.0050307 0.0306534
2956000000 0.0050852 0.0310922 0.9949148 -0.0310922 0.9949148 -0.0310922 0.0050852 0.0310922
2977000000 0.0051403 0.0315299 0.9948597 -0.0315299 0.9948597 -0.0315299 0.0051403 0.0315299
2998000000 0.0051960 0.0319665 0.9948040 -0.0319665 0.9948040 -0.0319665 0.0051960 0.0319665
3019000000 0.0052522 0.0324020 0.9947478 -0.0324020 0.9947478 -0.0324020 0.0052522 0.0324020
3040000000 0.0053090 0.0328365 0.9946910 -0.0328365 0.9946910 -0.0328365 0.0053090 0.0328365
3061000000 0.0053664 0.0332701 0.9946336 -0.0332701 0.9946336 -0.0332701 0.0053664 0.0332701
3082000000 0.0054244 0.0337027 0.9945756 -0.0337027 0.9945756 -0.0337027 0.0054244 0.0337027
3103000000 0.0054829 0.0341344 0.9945171 -0.0341344 0.9945171 -0.0341344 0.0054829 0.0341344
3124000000 0.0055421 0.0345652 0.9944579 -0.0345652 0.9944579 -0.0345652 0.0055421 0.0345652
3145000000 0.0056019 0.0349951 0.9943981 -0.0349951 0.9943981 -0.0349951 0.0056019 0.0349951
3166000000 0.0056623 0.0354242 0.9943377 -0.0354242 0.9943377 -0.0354242 0.0056623 0.0354242
3187000000 0.0057234 0.0358525 0.9942766 -0.0358525 0.9942766 -0.0358525 0.0057234 0.0358525
3208000000 0.0057851 0.0362800 0.9942149 -0.0362800 0.9942149 -0.0362800 0.0057851 0.0362800
3229000000 0.0058475 0.0367068 0.9941525 -0.0367068 0.9941525 -0.0367068 0.0058475 0.0367068
3250000000 0.0059105 0.0371329 0.9940895 -0.0371329 0.9940895 -0.0371329 0.0059105 0.0371329
3271000000 0.0059742 0.0375583 0.9940258 -0.0375583 0.9940258 -0.0375583 0.0059742 0.0375583
3292000000 0.0060386 0.0379830 0.9939614 -0.0379830 0.9939614 -0.0379830 0.0060386 0.0379830
3313000000 0.0061037 0.0384070 0.9938963 -0.0384070 0.9938963 -0.0384070 0.0061037 0.0384070
3334000000 0.0061695 0.0388304 0.9938305 -0.0388304 0.9938305 -0.0388304 0.0061695 0.0388304
3355000000 0.0062360 0.0392533 0.9937640 -0.0392533 0.9937640 -0.0392533 0.0062360 0.0392533
3376000000 0.0063033 0.0396755 0.9936967 -0.0396755 0.9936967 -0.0396755 0.0063033 0.0396755
3397000000 0.0063713 0.0400972 0.9936287 -0.0400972 0.9936287 -0.0400972 0.0063713 0.0400972
3418000000 0.0064400 0.0405183 0.9935600 -0.0405183 0.9935600 -0.0405183 0.0064400 0.0405183
3439000000 0.0065096 0.0409390 0.9934904 -0.0409390 0.9934904 -0.0409390 0.0065096 0.0409390
3460000000 0.0065799 0.0413591 0.9934201 -0.0413591 0.9934201 -0.0413591 0.0065799 0.0413591
3481000000 0.0066510 0.0417787 0.9933490 -0.0417787 0.9933490 -0.0417787 0.0066510 0.0417787
3502000000 0.0067229 0.0421979 0.9932771 -0.0421979 0.9932771 -0.0421979 0.0067229 0.0421979
3523000000 0.0067956 0.0426166 0.9932044 -0.0426166 0.9932044 -0.0426166 0.0067956 0.0426166
3544000000 0.0068692 0.0430349 0.9931308 -0.0430349 0.9931308 -0.0430349 0.0068692 0.0430349
3565000000 0.0069436 0.0434527 0.9930564 -0.0434527 0.9930564 -0.0434527 0.0069436 0.0434527
3586000000 0.0070189 0.0438702 0.9929811 -0.0438702 0.9929811 -0.0438702 0.0070189 0.0438702
3607000000 0.0070950 0.0442872 0.9929050 -0.0442872 0.9929050 -0.0442872 0.0070950 0.0442872
3628000000 0.0071721 0.0447039 0.9928279 -0.0447039 0.9928279 -0.0447039 0.0071721 0.0447039
3649000000 0.0072500 0.0451203 0.9927500 -0.0451203 0.9927500 -0.0451203 0.0072500 0.0451203
3670000000 0.0073289 0.0455362 0.9926711 -0.0455362 0.9926711 -0.0455362 0.0073289 0.0455362
3691000000 0.0074087 0.0459519 0.9925913 -0.0459519 0.9925913 -0.0459519 0.0074087 0.0459519
3712000000 0.0074895 0.0463672 0.9925105 -0.0463672 0.9925105 -0.0463672 0.0074895 0.0463672
3733000000 0.0075712 0.0467821 0.9924288 -0.0467821 0.9924288 -0.0467821 0.0075712 0.0467821
3754000000 0.0076539 0.0471968 0.9923461 -0.0471968 0.9923461 -0.0471968 0.0076539 0.0471968
3775000000 0.0077376 0.0476112 0.9922624 -0.0476112 0.9922624 -0.0476112 0.0077376 0.0476112
3796000000 0.0078224 0.0480252 0.9921776 -0.0480252 0.9921776 -0.0480252 0.0078224 0.0480252
3817000000 0.0079081 0.0484390 0.9920919 -0.0484390 0.9920919 -0.0484390 0.0079081 0.0484390
3838000000 0.0079950 0.0488525 0.9920050 -0.0488525 0.9920050 -0.0488525 0.0079950 0.0488525
3859000000 0.0080829 0.0492658 0.9919171 -0.0492658 0.9919171 -0.0492658 0.0080829 0.0492658
3880000000 0.0081719 0.0496787 0.9918281 -0.0496787 0.9918281 -0.0496787 0.0081719 0.0496787
3901000000 0.0082619 0.0500914 0.9917381 -0.0500914 0.9917381 -0.0500914 0.0082619 0.0500914
3922000000 0.0083532 0.0505038 0.9916468 -0.0505038 0.9916468 -0.0505038 0.0083532 0.0505038
3943000000 0.0084455 0.0509160 0.9915545 -0.0509160 0.9915545 -0.0509160 0.0084455 0.0509160
3964000000 0.0085390 0.0513279 0.9914610 -0.0513279 0.9914610 -0.0513279 0.0085390 0.0513279
3985000000 0.0086337 0.0517396 0.9913663 -0.0517396 0.9913663 -0.0517396 0.0086337 0.0517396
4006000000 0.0087296 0.0521510 0.9912704 -0.0521510 0.9912704 -0.0521510 0.0087296 0.0521510
4027000000 0.0088267 0.0525621 0.9911733 -0.0525621 0.9911733 -0.0525621 0.0088267 0.0525621
4048000000 0.0089251 0.0529730 0.9910749 -0.0529730 0.9910749 -0.0529730 0.0089251 0.0529730
4069000000 0.0090247 0.0533836 0.9909753 -0.0533836 0.9909753 -0.0533836 0.0090247 0.0533836
4090000000 0.0091256 0.0537940 0.9908744 -0.0537940 0.9908744 -0.0537940 0.0091256 0.0537940
4111000000 0.0092278 0.0542040 0.9907722 -0.0542040 0.9907722 -0.0542040 0.0092278 0.0542040
4132000000 0.0093313 0.0546138 0.9906687 -0.0546138 0.9906687 -0.0546138 0.0093313 0.0546138
4153000000 0.0094361 0.0550234 0.9905639 -0.0550234 0.9905639 -0.0550234 0.0094361 0.0550234
4174000000 0.0095423 0.0554326 0.9904577 -0.0554326 0.9904577 -0.0554326 0.0095423 0.0554326
4195000000 0.0096499 0.0558415 0.9903501 -0.0558415 0.9903501 -0.0558415 0.0096499 0.0558415
4216000000 0.0097588 0.0562501 0.9902412 -0.0562501 0.9902412 -0.0562501 0.0097588 0.0562501
4237000000 0.0098692 0.0566584 0.9901308 -0.0566584 0.9901308 -0.0566584 0.0098692 0.0566584
4258000000 0.0099810 0.0570664 0.9900190 -0.0570664 0.9900190 -0.0570664 0.0099810 0.0570664
4279000000 0.0100943 0.0574740 0.9899057 -0.0574740 0.9899057 -0.0574740 0.0100943 0.0574740
4300000000 0.0102091 0.0578812 0.9897909 -0.0578812 0.9897909 -0.0578812 0.0102091 0.0578812
4321000000 0.0103253 0.0582881 0.9896747 -0.0582881 0.9896747 -0.0582881 0.0103253 0.0582881
4342000000 0.0104431 0.0586946 0.9895569 -0.0586946 0.9895569 -0.0586946 0.0104431 0.0586946
4363000000 0.0105624 0.0591006 0.9894376 -0.0591006 0.9894376 -0.0591006 0.0105624 0.0591006
4384000000 0.0106832 0.0595062 0.9893168 -0.0595062 0.9893168 -0.0595062 0.0106832 0.0595062
4405000000 0.0108057 0.0599114 0.9891943 -0.0599114 0.9891943 -0.0599114 0.0108057 0.0599114
4426000000 0.0109297 0.0603161 0.9890703 -0.0603161 0.9890703 -0.0603161 0.0109297 0.0603161
4447000000 0.0110553 0.0607203 0.9889447 -0.0607203 0.9889447 -0.0607203 0.0110553 0.0607203
4468000000 0.0111826 0.0611239 0.9888174 -0.0611239 0.9888174 -0.0611239 0.0111826 0.0611239
4489000000 0.0113115 0.0615270 0.9886885 -0.0615270 0.9886885 -0.0615270 0.0113115 0.0615270
4510000000 0.0114421 0.0619295 0.9885579 -0.0619295 0.9885579 -0.0619295 0.0114421 0.0619295
