!Murata Part Number: GRM0335C1H3R4BA01
!These Parameters are Measured in Series Mode Connection
!Data Generated on Mar 30, 2021
!       o--ll--o
!Port1            Port2
!       o------o
!Operation Temp=25[degC], DC Bias Voltage=0[V]
!Freq. Start=100[MHz] Stop=9[GHz] 401[Steps]
# Hz S RI R 50
!Freq.(Hz) S11(Real) S11(Imag) S21(Real) S21(Imag) S12(Real) S12(Imag) S22(Real) S22(Imag)
100000000 0.9562290 -0.2043199 0.0437710 0.2043199 0.0437710 0.2043199 0.9562290 -0.2043199
121000000 0.9371763 -0.2423244 0.0628237 0.2423244 0.0628237 0.2423244 0.9371763 -0.2423244
142000000 0.9154578 -0.2778220 0.0845422 0.2778220 0.0845422 0.2778220 0.9154578 -0.2778220
163000000 0.8914838 -0.3105980 0.1085162 0.3105980 0.1085162 0.3105980 0.8914838 -0.3105980
184000000 0.8656730 -0.3405138 0.1343270 0.3405138 0.1343270 0.3405138 0.8656730 -0.3405138
205000000 0.8384376 -0.3675030 0.1615624 0.3675030 0.1615624 0.3675030 0.8384376 -0.3675030
226000000 0.8101707 -0.3915636 0.1898293 0.3915636 0.1898293 0.3915636 0.8101707 -0.3915636
247000000 0.7812365 -0.4127487 0.2187635 0.4127487 0.2187635 0.4127487 0.7812365 -0.4127487
268000000 0.7519644 -0.4311566 0.2480356 0.4311566 0.2480356 0.4311566 0.7519644 -0.4311566
289000000 0.7226447 -0.4469203 0.2773553 0.4469203 0.2773553 0.4469203 0.7226447 -0.4469203
310000000 0.6935271 -0.4601981 0.3064729 0.4601981 0.3064729 0.4601981 0.6935271 -0.4601981
331000000 0.6648218 -0.4711648 0.3351782 0.4711648 0.3351782 0.4711648 0.6648218 -0.4711648
352000000 0.6367006 -0.4800043 0.3632994 0.4800043 0.3632994 0.4800043 0.6367006 -0.4800043
373000000 0.6093004 -0.4869033 0.3906996 0.4869033 0.3906996 0.4869033 0.6093004 -0.4869033
394000000 0.5827264 -0.4920466 0.4172736 0.4920466 0.4172736 0.4920466 0.5827264 -0.4920466
415000000 0.5570560 -0.4956130 0.4429440 0.4956130 0.4429440 0.4956130 0.5570560 -0.4956130
436000000 0.5323425 -0.4977730 0.4676575 0.4977730 0.4676575 0.4977730 0.5323425 -0.4977730
457000000 0.5086186 -0.4986865 0.4913814 0.4986865 0.4913814 0.4986865 0.5086186 -0.4986865
478000000 0.4859003 -0.4985022 0.5140997 0.4985022 0.5140997 0.4985022 0.4859003 -0.4985022
499000000 0.4641896 -0.4973570 0.5358104 0.4973570 0.5358104 0.4973570 0.4641896 -0.4973570
520000000 0.4434772 -0.4953755 0.5565228 0.4953755 0.5565228 0.4953755 0.4434772 -0.4953755
541000000 0.4237451 -0.4926707 0.5762549 0.4926707 0.5762549 0.4926707 0.4237451 -0.4926707
562000000 0.4049687 -0.4893444 0.5950313 0.4893444 0.5950313 0.4893444 0.4049687 -0.4893444
583000000 0.3871182 -0.4854878 0.6128818 0.4854878 0.6128818 0.4854878 0.3871182 -0.4854878
604000000 0.3701603 -0.4811821 0.6298397 0.4811821 0.6298397 0.4811821 0.3701603 -0.4811821
625000000 0.3540594 -0.4764993 0.6459406 0.4764993 0.6459406 0.4764993 0.3540594 -0.4764993
646000000 0.3387783 -0.4715033 0.6612217 0.4715033 0.6612217 0.4715033 0.3387783 -0.4715033
667000000 0.3242793 -0.4662503 0.6757207 0.4662503 0.6757207 0.4662503 0.3242793 -0.4662503
688000000 0.3105246 -0.4607896 0.6894754 0.4607896 0.6894754 0.4607896 0.3105246 -0.4607896
709000000 0.2974767 -0.4551646 0.7025233 0.4551646 0.7025233 0.4551646 0.2974767 -0.4551646
730000000 0.2850990 -0.4494129 0.7149010 0.4494129 0.7149010 0.4494129 0.2850990 -0.4494129
751000000 0.2733559 -0.4435676 0.7266441 0.4435676 0.7266441 0.4435676 0.2733559 -0.4435676
772000000 0.2622131 -0.4376572 0.7377869 0.4376572 0.7377869 0.4376572 0.2622131 -0.4376572
793000000 0.2516376 -0.4317064 0.7483624 0.4317064 0.7483624 0.4317064 0.2516376 -0.4317064
814000000 0.2415978 -0.4257366 0.7584022 0.4257366 0.7584022 0.4257366 0.2415978 -0.4257366
835000000 0.2320637 -0.4197660 0.7679363 0.4197660 0.7679363 0.4197660 0.2320637 -0.4197660
856000000 0.2230067 -0.4138106 0.7769933 0.4138106 0.7769933 0.4138106 0.2230067 -0.4138106
877000000 0.2143997 -0.4078836 0.7856003 0.4078836 0.7856003 0.4078836 0.2143997 -0.4078836
898000000 0.2062172 -0.4019965 0.7937828 0.4019965 0.7937828 0.4019965 0.2062172 -0.4019965
919000000 0.1984351 -0.3961589 0.8015649 0.3961589 0.8015649 0.3961589 0.1984351 -0.3961589
940000000 0.1910305 -0.3903789 0.8089695 0.3903789 0.8089695 0.3903789 0.1910305 -0.3903789
961000000 0.1839821 -0.3846631 0.8160179 0.3846631 0.8160179 0.3846631 0.1839821 -0.3846631
982000000 0.1772696 -0.3790172 0.8227304 0.3790172 0.8227304 0.3790172 0.1772696 -0.3790172
1003000000 0.1708740 -0.3734456 0.8291260 0.3734456 0.8291260 0.3734456 0.1708740 -0.3734456
1024000000 0.1647776 -0.3679519 0.8352224 0.3679519 0.8352224 0.3679519 0.1647776 -0.3679519
1045000000 0.1589636 -0.3625390 0.8410364 0.3625390 0.8410364 0.3625390 0.1589636 -0.3625390
1066000000 0.1534163 -0.3572090 0.8465837 0.3572090 0.8465837 0.3572090 0.1534163 -0.3572090
1087000000 0.1481209 -0.3519635 0.8518791 0.3519635 0.8518791 0.3519635 0.1481209 -0.3519635
1108000000 0.1430636 -0.3468036 0.8569364 0.3468036 0.8569364 0.3468036 0.1430636 -0.3468036
1129000000 0.1382314 -0.3417299 0.8617686 0.3417299 0.8617686 0.3417299 0.1382314 -0.3417299
1150000000 0.1336120 -0.3367426 0.8663880 0.3367426 0.8663880 0.3367426 0.1336120 -0.3367426
1171000000 0.1291940 -0.3318418 0.8708060 0.3318418 0.8708060 0.3318418 0.1291940 -0.3318418
1192000000 0.1249667 -0.3270270 0.8750333 0.3270270 0.8750333 0.3270270 0.1249667 -0.3270270
1213000000 0.1209199 -0.3222978 0.8790801 0.3222978 0.8790801 0.3222978 0.1209199 -0.3222978
1234000000 0.1170442 -0.3176533 0.8829558 0.3176533 0.8829558 0.3176533 0.1170442 -0.3176533
1255000000 0.1133306 -0.3130927 0.8866694 0.3130927 0.8866694 0.3130927 0.1133306 -0.3130927
1276000000 0.1097708 -0.3086148 0.8902292 0.3086148 0.8902292 0.3086148 0.1097708 -0.3086148
1297000000 0.1063568 -0.3042186 0.8936432 0.3042186 0.8936432 0.3042186 0.1063568 -0.3042186
1318000000 0.1030813 -0.2999028 0.8969187 0.2999028 0.8969187 0.2999028 0.1030813 -0.2999028
1339000000 0.0999373 -0.2956660 0.9000627 0.2956660 0.9000627 0.2956660 0.0999373 -0.2956660
1360000000 0.0969183 -0.2915068 0.9030817 0.2915068 0.9030817 0.2915068 0.0969183 -0.2915068
1381000000 0.0940180 -0.2874237 0.9059820 0.2874237 0.9059820 0.2874237 0.0940180 -0.2874237
1402000000 0.0912306 -0.2834154 0.9087694 0.2834154 0.9087694 0.2834154 0.0912306 -0.2834154
1423000000 0.0885507 -0.2794803 0.9114493 0.2794803 0.9114493 0.2794803 0.0885507 -0.2794803
1444000000 0.0859731 -0.2756168 0.9140269 0.2756168 0.9140269 0.2756168 0.0859731 -0.2756168
1465000000 0.0834928 -0.2718235 0.9165072 0.2718235 0.9165072 0.2718235 0.0834928 -0.2718235
1486000000 0.0811054 -0.2680989 0.9188946 0.2680989 0.9188946 0.2680989 0.0811054 -0.2680989
1507000000 0.0788065 -0.2644413 0.9211935 0.2644413 0.9211935 0.2644413 0.0788065 -0.2644413
1528000000 0.0765919 -0.2608494 0.9234081 0.2608494 0.9234081 0.2608494 0.0765919 -0.2608494
1549000000 0.0744578 -0.2573215 0.9255422 0.2573215 0.9255422 0.2573215 0.0744578 -0.2573215
1570000000 0.0724005 -0.2538563 0.9275995 0.2538563 0.9275995 0.2538563 0.0724005 -0.2538563
1591000000 0.0704166 -0.2504522 0.9295834 0.2504522 0.9295834 0.2504522 0.0704166 -0.2504522
1612000000 0.0685027 -0.2471078 0.9314973 0.2471078 0.9314973 0.2471078 0.0685027 -0.2471078
1633000000 0.0666559 -0.2438217 0.9333441 0.2438217 0.9333441 0.2438217 0.0666559 -0.2438217
1654000000 0.0648731 -0.2405926 0.9351269 0.2405926 0.9351269 0.2405926 0.0648731 -0.2405926
1675000000 0.0631515 -0.2374189 0.9368485 0.2374189 0.9368485 0.2374189 0.0631515 -0.2374189
1696000000 0.0614886 -0.2342995 0.9385114 0.2342995 0.9385114 0.2342995 0.0614886 -0.2342995
1717000000 0.0598818 -0.2312329 0.9401182 0.2312329 0.9401182 0.2312329 0.0598818 -0.2312329
1738000000 0.0583287 -0.2282179 0.9416713 0.2282179 0.9416713 0.2282179 0.0583287 -0.2282179
1759000000 0.0568271 -0.2252533 0.9431729 0.2252533 0.9431729 0.2252533 0.0568271 -0.2252533
1780000000 0.0553749 -0.2223378 0.9446251 0.2223378 0.9446251 0.2223378 0.0553749 -0.2223378
1801000000 0.0539701 -0.2194702 0.9460299 0.2194702 0.9460299 0.2194702 0.0539701 -0.2194702
1822000000 0.0526106 -0.2166493 0.9473894 0.2166493 0.9473894 0.2166493 0.0526106 -0.2166493
1843000000 0.0512947 -0.2138741 0.9487053 0.2138741 0.9487053 0.2138741 0.0512947 -0.2138741
1864000000 0.0500206 -0.2111433 0.9499794 0.2111433 0.9499794 0.2111433 0.0500206 -0.2111433
1885000000 0.0487867 -0.2084560 0.9512133 0.2084560 0.9512133 0.2084560 0.0487867 -0.2084560
1906000000 0.0475914 -0.2058110 0.9524086 0.2058110 0.9524086 0.2058110 0.0475914 -0.2058110
1927000000 0.0464331 -0.2032074 0.9535669 0.2032074 0.9535669 0.2032074 0.0464331 -0.2032074
1948000000 0.0453105 -0.2006441 0.9546895 0.2006441 0.9546895 0.2006441 0.0453105 -0.2006441
1969000000 0.0442222 -0.1981201 0.9557778 0.1981201 0.9557778 0.1981201 0.0442222 -0.1981201
1990000000 0.0431669 -0.1956346 0.9568331 0.1956346 0.9568331 0.1956346 0.0431669 -0.1956346
2011000000 0.0421433 -0.1931865 0.9578567 0.1931865 0.9578567 0.1931865 0.0421433 -0.1931865
2032000000 0.0411503 -0.1907750 0.9588497 0.1907750 0.9588497 0.1907750 0.0411503 -0.1907750
2053000000 0.0401867 -0.1883993 0.9598133 0.1883993 0.9598133 0.1883993 0.0401867 -0.1883993
2074000000 0.0392514 -0.1860584 0.9607486 0.1860584 0.9607486 0.1860584 0.0392514 -0.1860584
2095000000 0.0383435 -0.1837515 0.9616565 0.1837515 0.9616565 0.1837515 0.0383435 -0.1837515
2116000000 0.0374619 -0.1814779 0.9625381 0.1814779 0.9625381 0.1814779 0.0374619 -0.1814779
2137000000 0.0366057 -0.1792367 0.9633943 0.1792367 0.9633943 0.1792367 0.0366057 -0.1792367
2158000000 0.0357740 -0.1770272 0.9642260 0.1770272 0.9642260 0.1770272 0.0357740 -0.1770272
2179000000 0.0349659 -0.1748486 0.9650341 0.1748486 0.9650341 0.1748486 0.0349659 -0.1748486
2200000000 0.0341807 -0.1727002 0.9658193 0.1727002 0.9658193 0.1727002 0.0341807 -0.1727002
2221000000 0.0334174 -0.1705814 0.9665826 0.1705814 0.9665826 0.1705814 0.0334174 -0.1705814
2242000000 0.0326754 -0.1684913 0.9673246 0.1684913 0.9673246 0.1684913 0.0326754 -0.1684913
2263000000 0.0319540 -0.1664295 0.9680460 0.1664295 0.9680460 0.1664295 0.0319540 -0.1664295
2284000000 0.0312524 -0.1643951 0.9687476 0.1643951 0.9687476 0.1643951 0.0312524 -0.1643951
2305000000 0.0305701 -0.1623877 0.9694299 0.1623877 0.9694299 0.1623877 0.0305701 -0.1623877
2326000000 0.0299062 -0.1604065 0.9700938 0.1604065 0.9700938 0.1604065 0.0299062 -0.1604065
2347000000 0.0292603 -0.1584510 0.9707397 0.1584510 0.9707397 0.1584510 0.0292603 -0.1584510
2368000000 0.0286318 -0.1565207 0.9713682 0.1565207 0.9713682 0.1565207 0.0286318 -0.1565207
2389000000 0.0280201 -0.1546148 0.9719799 0.1546148 0.9719799 0.1546148 0.0280201 -0.1546148
2410000000 0.0274246 -0.1527330 0.9725754 0.1527330 0.9725754 0.1527330 0.0274246 -0.1527330
2431000000 0.0268449 -0.1508746 0.9731551 0.1508746 0.9731551 0.1508746 0.0268449 -0.1508746
2452000000 0.0262804 -0.1490391 0.9737196 0.1490391 0.9737196 0.1490391 0.0262804 -0.1490391
2473000000 0.0257307 -0.1472261 0.9742693 0.1472261 0.9742693 0.1472261 0.0257307 -0.1472261
2494000000 0.0251953 -0.1454350 0.9748047 0.1454350 0.9748047 0.1454350 0.0251953 -0.1454350
2515000000 0.0246738 -0.1436653 0.9753262 0.1436653 0.9753262 0.1436653 0.0246738 -0.1436653
2536000000 0.0241657 -0.1419167 0.9758343 0.1419167 0.9758343 0.1419167 0.0241657 -0.1419167
2557000000 0.0236706 -0.1401885 0.9763294 0.1401885 0.9763294 0.1401885 0.0236706 -0.1401885
2578000000 0.0231882 -0.1384805 0.9768118 0.1384805 0.9768118 0.1384805 0.0231882 -0.1384805
2599000000 0.0227181 -0.1367921 0.9772819 0.1367921 0.9772819 0.1367921 0.0227181 -0.1367921
2620000000 0.0222598 -0.1351229 0.9777402 0.1351229 0.9777402 0.1351229 0.0222598 -0.1351229
2641000000 0.0218131 -0.1334726 0.9781869 0.1334726 0.9781869 0.1334726 0.0218131 -0.1334726
2662000000 0.0213777 -0.1318406 0.9786223 0.1318406 0.9786223 0.1318406 0.0213777 -0.1318406
2683000000 0.0209531 -0.1302267 0.9790469 0.1302267 0.9790469 0.1302267 0.0209531 -0.1302267
2704000000 0.0205391 -0.1286305 0.9794609 0.1286305 0.9794609 0.1286305 0.0205391 -0.1286305
2725000000 0.0201354 -0.1270515 0.9798646 0.1270515 0.9798646 0.1270515 0.0201354 -0.1270515
2746000000 0.0197417 -0.1254895 0.9802583 0.1254895 0.9802583 0.1254895 0.0197417 -0.1254895
2767000000 0.0193577 -0.1239440 0.9806423 0.1239440 0.9806423 0.1239440 0.0193577 -0.1239440
2788000000 0.0189831 -0.1224147 0.9810169 0.1224147 0.9810169 0.1224147 0.0189831 -0.1224147
2809000000 0.0186178 -0.1209013 0.9813822 0.1209013 0.9813822 0.1209013 0.0186178 -0.1209013
2830000000 0.0182613 -0.1194035 0.9817387 0.1194035 0.9817387 0.1194035 0.0182613 -0.1194035
2851000000 0.0179136 -0.1179209 0.9820864 0.1179209 0.9820864 0.1179209 0.0179136 -0.1179209
2872000000 0.0175742 -0.1164532 0.9824258 0.1164532 0.9824258 0.1164532 0.0175742 -0.1164532
2893000000 0.0172432 -0.1150002 0.9827568 0.1150002 0.9827568 0.1150002 0.0172432 -0.1150002
2914000000 0.0169201 -0.1135614 0.9830799 0.1135614 0.9830799 0.1135614 0.0169201 -0.1135614
2935000000 0.0166048 -0.1121367 0.9833952 0.1121367 0.9833952 0.1121367 0.0166048 -0.1121367
2956000000 0.0162972 -0.1107258 0.9837028 0.1107258 0.9837028 0.1107258 0.0162972 -0.1107258
2977000000 0.0159969 -0.1093283 0.9840031 0.1093283 0.9840031 0.1093283 0.0159969 -0.1093283
2998000000 0.0157038 -0.1079441 0.9842962 0.1079441 0.9842962 0.1079441 0.0157038 -0.1079441
3019000000 0.0154178 -0.1065728 0.9845822 0.1065728 0.9845822 0.1065728 0.0154178 -0.1065728
3040000000 0.0151386 -0.1052141 0.9848614 0.1052141 0.9848614 0.1052141 0.0151386 -0.1052141
3061000000 0.0148661 -0.1038679 0.9851339 0.1038679 0.9851339 0.1038679 0.0148661 -0.1038679
3082000000 0.0146001 -0.1025339 0.9853999 0.1025339 0.9853999 0.1025339 0.0146001 -0.1025339
3103000000 0.0143404 -0.1012119 0.9856596 0.1012119 0.9856596 0.1012119 0.0143404 -0.1012119
3124000000 0.0140870 -0.0999015 0.9859130 0.0999015 0.9859130 0.0999015 0.0140870 -0.0999015
3145000000 0.0138396 -0.0986026 0.9861604 0.0986026 0.9861604 0.0986026 0.0138396 -0.0986026
3166000000 0.0135981 -0.0973150 0.9864019 0.0973150 0.9864019 0.0973150 0.0135981 -0.0973150
3187000000 0.0133623 -0.0960385 0.9866377 0.0960385 0.9866377 0.0960385 0.0133623 -0.0960385
3208000000 0.0131322 -0.0947727 0.9868678 0.0947727 0.9868678 0.0947727 0.0131322 -0.0947727
3229000000 0.0129076 -0.0935176 0.9870924 0.0935176 0.9870924 0.0935176 0.0129076 -0.0935176
3250000000 0.0126883 -0.0922728 0.9873117 0.0922728 0.9873117 0.0922728 0.0126883 -0.0922728
3271000000 0.0124743 -0.0910383 0.9875257 0.0910383 0.9875257 0.0910383 0.0124743 -0.0910383
3292000000 0.0122654 -0.0898138 0.9877346 0.0898138 0.9877346 0.0898138 0.0122654 -0.0898138
3313000000 0.0120615 -0.0885991 0.9879385 0.0885991 0.9879385 0.0885991 0.0120615 -0.0885991
3334000000 0.0118625 -0.0873941 0.9881375 0.0873941 0.9881375 0.0873941 0.0118625 -0.0873941
3355000000 0.0116683 -0.0861984 0.9883317 0.0861984 0.9883317 0.0861984 0.0116683 -0.0861984
3376000000 0.0114787 -0.0850121 0.9885213 0.0850121 0.9885213 0.0850121 0.0114787 -0.0850121
3397000000 0.0112938 -0.0838348 0.9887062 0.0838348 0.9887062 0.0838348 0.0112938 -0.0838348
3418000000 0.0111133 -0.0826665 0.9888867 0.0826665 0.9888867 0.0826665 0.0111133 -0.0826665
3439000000 0.0109372 -0.0815069 0.9890628 0.0815069 0.9890628 0.0815069 0.0109372 -0.0815069
3460000000 0.0107654 -0.0803559 0.9892346 0.0803559 0.9892346 0.0803559 0.0107654 -0.0803559
3481000000 0.0105978 -0.0792133 0.9894022 0.0792133 0.9894022 0.0792133 0.0105978 -0.0792133
3502000000 0.0104342 -0.0780789 0.9895658 0.0780789 0.9895658 0.0780789 0.0104342 -0.0780789
3523000000 0.0102748 -0.0769527 0.9897252 0.0769527 0.9897252 0.0769527 0.0102748 -0.0769527
3544000000 0.0101192 -0.0758344 0.9898808 0.0758344 0.9898808 0.0758344 0.0101192 -0.0758344
3565000000 0.0099675 -0.0747239 0.9900325 0.0747239 0.9900325 0.0747239 0.0099675 -0.0747239
3586000000 0.0098196 -0.0736210 0.9901804 0.0736210 0.9901804 0.0736210 0.0098196 -0.0736210
3607000000 0.0096754 -0.0725257 0.9903246 0.0725257 0.9903246 0.0725257 0.0096754 -0.0725257
3628000000 0.0095349 -0.0714377 0.9904651 0.0714377 0.9904651 0.0714377 0.0095349 -0.0714377
3649000000 0.0093979 -0.0703569 0.9906021 0.0703569 0.9906021 0.0703569 0.0093979 -0.0703569
3670000000 0.0092644 -0.0692833 0.9907356 0.0692833 0.9907356 0.0692833 0.0092644 -0.0692833
3691000000 0.0091343 -0.0682166 0.9908657 0.0682166 0.9908657 0.0682166 0.0091343 -0.0682166
3712000000 0.0090077 -0.0671567 0.9909923 0.0671567 0.9909923 0.0671567 0.0090077 -0.0671567
3733000000 0.0088843 -0.0661035 0.9911157 0.0661035 0.9911157 0.0661035 0.0088843 -0.0661035
3754000000 0.0087641 -0.0650569 0.9912359 0.0650569 0.9912359 0.0650569 0.0087641 -0.0650569
3775000000 0.0086471 -0.0640167 0.9913529 0.0640167 0.9913529 0.0640167 0.0086471 -0.0640167
3796000000 0.0085333 -0.0629828 0.9914667 0.0629828 0.9914667 0.0629828 0.0085333 -0.0629828
3817000000 0.0084225 -0.0619552 0.9915775 0.0619552 0.9915775 0.0619552 0.0084225 -0.0619552
3838000000 0.0083147 -0.0609336 0.9916853 0.0609336 0.9916853 0.0609336 0.0083147 -0.0609336
3859000000 0.0082099 -0.0599180 0.9917901 0.0599180 0.9917901 0.0599180 0.0082099 -0.0599180
3880000000 0.0081080 -0.0589082 0.9918920 0.0589082 0.9918920 0.0589082 0.0081080 -0.0589082
3901000000 0.0080090 -0.0579042 0.9919910 0.0579042 0.9919910 0.0579042 0.0080090 -0.0579042
3922000000 0.0079128 -0.0569059 0.9920872 0.0569059 0.9920872 0.0569059 0.0079128 -0.0569059
3943000000 0.0078193 -0.0559130 0.9921807 0.0559130 0.9921807 0.0559130 0.0078193 -0.0559130
3964000000 0.0077286 -0.0549256 0.9922714 0.0549256 0.9922714 0.0549256 0.0077286 -0.0549256
3985000000 0.0076405 -0.0539435 0.9923595 0.0539435 0.9923595 0.0539435 0.0076405 -0.0539435
4006000000 0.0075551 -0.0529666 0.9924449 0.0529666 0.9924449 0.0529666 0.0075551 -0.0529666
4027000000 0.0074722 -0.0519948 0.9925278 0.0519948 0.9925278 0.0519948 0.0074722 -0.0519948
4048000000 0.0073919 -0.0510281 0.9926081 0.0510281 0.9926081 0.0510281 0.0073919 -0.0510281
4069000000 0.0073142 -0.0500662 0.9926858 0.0500662 0.9926858 0.0500662 0.0073142 -0.0500662
4090000000 0.0072389 -0.0491092 0.9927611 0.0491092 0.9927611 0.0491092 0.0072389 -0.0491092
4111000000 0.0071660 -0.0481569 0.9928340 0.0481569 0.9928340 0.0481569 0.0071660 -0.0481569
4132000000 0.0070955 -0.0472092 0.9929045 0.0472092 0.9929045 0.0472092 0.0070955 -0.0472092
4153000000 0.0070274 -0.0462661 0.9929726 0.0462661 0.9929726 0.0462661 0.0070274 -0.0462661
4174000000 0.0069617 -0.0453274 0.9930383 0.0453274 0.9930383 0.0453274 0.0069617 -0.0453274
4195000000 0.0068982 -0.0443930 0.9931018 0.0443930 0.9931018 0.0443930 0.0068982 -0.0443930
4216000000 0.0068370 -0.0434630 0.9931630 0.0434630 0.9931630 0.0434630 0.0068370 -0.0434630
4237000000 0.0067780 -0.0425371 0.9932220 0.0425371 0.9932220 0.0425371 0.0067780 -0.0425371
4258000000 0.0067213 -0.0416153 0.9932787 0.0416153 0.9932787 0.0416153 0.0067213 -0.0416153
4279000000 0.0066667 -0.0406976 0.9933333 0.0406976 0.9933333 0.0406976 0.0066667 -0.0406976
4300000000 0.0066143 -0.0397837 0.9933857 0.0397837 0.9933857 0.0397837 0.0066143 -0.0397837
4321000000 0.0065640 -0.0388738 0.9934360 0.0388738 0.9934360 0.0388738 0.0065640 -0.0388738
4342000000 0.0065158 -0.0379676 0.9934842 0.0379676 0.9934842 0.0379676 0.0065158 -0.0379676
4363000000 0.0064696 -0.0370650 0.9935304 0.0370650 0.9935304 0.0370650 0.0064696 -0.0370650
4384000000 0.0064255 -0.0361661 0.9935745 0.0361661 0.9935745 0.0361661 0.0064255 -0.0361661
4405000000 0.0063835 -0.0352708 0.9936165 0.0352708 0.9936165 0.0352708 0.0063835 -0.0352708
4426000000 0.0063434 -0.0343788 0.9936566 0.0343788 0.9936566 0.0343788 0.0063434 -0.0343788
4447000000 0.0063053 -0.0334903 0.9936947 0.0334903 0.9936947 0.0334903 0.0063053 -0.0334903
4468000000 0.0062691 -0.0326051 0.9937309 0.0326051 0.9937309 0.0326051 0.0062691 -0.0326051
4489000000 0.0062349 -0.0317231 0.9937651 0.0317231 0.9937651 0.0317231 0.0062349 -0.0317231
4510000000 0.0062026 -0.0308443 0.9937974 0.0308443 0.9937974 0.0308443 0.0062026 -0.0308443
