!Murata Part Number: GRM0333C2A2R2WA01
!These Parameters are Measured in Series Mode Connection
!Data Generated on Mar 30, 2021
!       o--ll--o
!Port1            Port2
!       o------o
!Operation Temp=25[degC], DC Bias Voltage=0[V]
!Freq. Start=100[MHz] Stop=9[GHz] 401[Steps]
# Hz S RI R 50
!Freq.(Hz) S11(Real) S11(Imag) S21(Real) S21(Imag) S12(Real) S12(Imag) S22(Real) S22(Imag)
100000000 0.9811955 -0.1356474 0.0188045 0.1356474 0.0188045 0.1356474 0.9811955 -0.1356474
121000000 0.9727028 -0.1627219 0.0272972 0.1627219 0.0272972 0.1627219 0.9727028 -0.1627219
142000000 0.9627828 -0.1890282 0.0372172 0.1890282 0.0372172 0.1890282 0.9627828 -0.1890282
163000000 0.9515251 -0.2144628 0.0484749 0.2144628 0.0484749 0.2144628 0.9515251 -0.2144628
184000000 0.9390280 -0.2389347 0.0609720 0.2389347 0.0609720 0.2389347 0.9390280 -0.2389347
205000000 0.9253966 -0.2623664 0.0746034 0.2623664 0.0746034 0.2623664 0.9253966 -0.2623664
226000000 0.9107410 -0.2846937 0.0892590 0.2846937 0.0892590 0.2846937 0.9107410 -0.2846937
247000000 0.8951736 -0.3058663 0.1048264 0.3058663 0.1048264 0.3058663 0.8951736 -0.3058663
268000000 0.8788081 -0.3258470 0.1211919 0.3258470 0.1211919 0.3258470 0.8788081 -0.3258470
289000000 0.8617571 -0.3446115 0.1382429 0.3446115 0.1382429 0.3446115 0.8617571 -0.3446115
310000000 0.8441312 -0.3621474 0.1558688 0.3621474 0.1558688 0.3621474 0.8441312 -0.3621474
331000000 0.8260373 -0.3784537 0.1739627 0.3784537 0.1739627 0.3784537 0.8260373 -0.3784537
352000000 0.8075773 -0.3935391 0.1924227 0.3935391 0.1924227 0.3935391 0.8075773 -0.3935391
373000000 0.7888478 -0.4074213 0.2111522 0.4074213 0.2111522 0.4074213 0.7888478 -0.4074213
394000000 0.7699391 -0.4201259 0.2300609 0.4201259 0.2300609 0.4201259 0.7699391 -0.4201259
415000000 0.7509349 -0.4316849 0.2490651 0.4316849 0.2490651 0.4316849 0.7509349 -0.4316849
436000000 0.7319116 -0.4421360 0.2680884 0.4421360 0.2680884 0.4421360 0.7319116 -0.4421360
457000000 0.7129388 -0.4515211 0.2870612 0.4515211 0.2870612 0.4515211 0.7129388 -0.4515211
478000000 0.6940790 -0.4598855 0.3059210 0.4598855 0.3059210 0.4598855 0.6940790 -0.4598855
499000000 0.6753877 -0.4672771 0.3246123 0.4672771 0.3246123 0.4672771 0.6753877 -0.4672771
520000000 0.6569138 -0.4737452 0.3430862 0.4737452 0.3430862 0.4737452 0.6569138 -0.4737452
541000000 0.6386997 -0.4793402 0.3613003 0.4793402 0.3613003 0.4793402 0.6386997 -0.4793402
562000000 0.6207820 -0.4841128 0.3792180 0.4841128 0.3792180 0.4841128 0.6207820 -0.4841128
583000000 0.6031915 -0.4881131 0.3968085 0.4881131 0.3968085 0.4881131 0.6031915 -0.4881131
604000000 0.5859539 -0.4913909 0.4140461 0.4913909 0.4140461 0.4913909 0.5859539 -0.4913909
625000000 0.5690900 -0.4939945 0.4309100 0.4939945 0.4309100 0.4939945 0.5690900 -0.4939945
646000000 0.5526166 -0.4959711 0.4473834 0.4959711 0.4473834 0.4959711 0.5526166 -0.4959711
667000000 0.5365462 -0.4973659 0.4634538 0.4973659 0.4634538 0.4973659 0.5365462 -0.4973659
688000000 0.5208881 -0.4982225 0.4791119 0.4982225 0.4791119 0.4982225 0.5208881 -0.4982225
709000000 0.5056484 -0.4985825 0.4943516 0.4985825 0.4943516 0.4985825 0.5056484 -0.4985825
730000000 0.4908304 -0.4984853 0.5091696 0.4984853 0.5091696 0.4984853 0.4908304 -0.4984853
751000000 0.4764350 -0.4979685 0.5235650 0.4979685 0.5235650 0.4979685 0.4764350 -0.4979685
772000000 0.4624612 -0.4970673 0.5375388 0.4970673 0.5375388 0.4970673 0.4624612 -0.4970673
793000000 0.4489059 -0.4958150 0.5510941 0.4958150 0.5510941 0.4958150 0.4489059 -0.4958150
814000000 0.4357648 -0.4942427 0.5642352 0.4942427 0.5642352 0.4942427 0.4357648 -0.4942427
835000000 0.4230319 -0.4923797 0.5769681 0.4923797 0.5769681 0.4923797 0.4230319 -0.4923797
856000000 0.4107005 -0.4902531 0.5892995 0.4902531 0.5892995 0.4902531 0.4107005 -0.4902531
877000000 0.3987628 -0.4878883 0.6012372 0.4878883 0.6012372 0.4878883 0.3987628 -0.4878883
898000000 0.3872103 -0.4853090 0.6127897 0.4853090 0.6127897 0.4853090 0.3872103 -0.4853090
919000000 0.3760340 -0.4825369 0.6239660 0.4825369 0.6239660 0.4825369 0.3760340 -0.4825369
940000000 0.3652243 -0.4795924 0.6347757 0.4795924 0.6347757 0.4795924 0.3652243 -0.4795924
961000000 0.3547715 -0.4764941 0.6452285 0.4764941 0.6452285 0.4764941 0.3547715 -0.4764941
982000000 0.3446656 -0.4732595 0.6553344 0.4732595 0.6553344 0.4732595 0.3446656 -0.4732595
1003000000 0.3348962 -0.4699044 0.6651038 0.4699044 0.6651038 0.4699044 0.3348962 -0.4699044
1024000000 0.3254533 -0.4664435 0.6745467 0.4664435 0.6745467 0.4664435 0.3254533 -0.4664435
1045000000 0.3163265 -0.4628904 0.6836735 0.4628904 0.6836735 0.4628904 0.3163265 -0.4628904
1066000000 0.3075056 -0.4592575 0.6924944 0.4592575 0.6924944 0.4592575 0.3075056 -0.4592575
1087000000 0.2989806 -0.4555561 0.7010194 0.4555561 0.7010194 0.4555561 0.2989806 -0.4555561
1108000000 0.2907415 -0.4517966 0.7092585 0.4517966 0.7092585 0.4517966 0.2907415 -0.4517966
1129000000 0.2827786 -0.4479887 0.7172214 0.4479887 0.7172214 0.4479887 0.2827786 -0.4479887
1150000000 0.2750822 -0.4441410 0.7249178 0.4441410 0.7249178 0.4441410 0.2750822 -0.4441410
1171000000 0.2676429 -0.4402615 0.7323571 0.4402615 0.7323571 0.4402615 0.2676429 -0.4402615
1192000000 0.2604517 -0.4363575 0.7395483 0.4363575 0.7395483 0.4363575 0.2604517 -0.4363575
1213000000 0.2534996 -0.4324356 0.7465004 0.4324356 0.7465004 0.4324356 0.2534996 -0.4324356
1234000000 0.2467780 -0.4285017 0.7532220 0.4285017 0.7532220 0.4285017 0.2467780 -0.4285017
1255000000 0.2402785 -0.4245614 0.7597215 0.4245614 0.7597215 0.4245614 0.2402785 -0.4245614
1276000000 0.2339929 -0.4206195 0.7660071 0.4206195 0.7660071 0.4206195 0.2339929 -0.4206195
1297000000 0.2279134 -0.4166807 0.7720866 0.4166807 0.7720866 0.4166807 0.2279134 -0.4166807
1318000000 0.2220325 -0.4127488 0.7779675 0.4127488 0.7779675 0.4127488 0.2220325 -0.4127488
1339000000 0.2163427 -0.4088277 0.7836573 0.4088277 0.7836573 0.4088277 0.2163427 -0.4088277
1360000000 0.2108369 -0.4049205 0.7891631 0.4049205 0.7891631 0.4049205 0.2108369 -0.4049205
1381000000 0.2055084 -0.4010303 0.7944916 0.4010303 0.7944916 0.4010303 0.2055084 -0.4010303
1402000000 0.2003506 -0.3971596 0.7996494 0.3971596 0.7996494 0.3971596 0.2003506 -0.3971596
1423000000 0.1953572 -0.3933109 0.8046428 0.3933109 0.8046428 0.3933109 0.1953572 -0.3933109
1444000000 0.1905219 -0.3894862 0.8094781 0.3894862 0.8094781 0.3894862 0.1905219 -0.3894862
1465000000 0.1858391 -0.3856875 0.8141609 0.3856875 0.8141609 0.3856875 0.1858391 -0.3856875
1486000000 0.1813030 -0.3819164 0.8186970 0.3819164 0.8186970 0.3819164 0.1813030 -0.3819164
1507000000 0.1769082 -0.3781743 0.8230918 0.3781743 0.8230918 0.3781743 0.1769082 -0.3781743
1528000000 0.1726496 -0.3744625 0.8273504 0.3744625 0.8273504 0.3744625 0.1726496 -0.3744625
1549000000 0.1685220 -0.3707822 0.8314780 0.3707822 0.8314780 0.3707822 0.1685220 -0.3707822
1570000000 0.1645208 -0.3671342 0.8354792 0.3671342 0.8354792 0.3671342 0.1645208 -0.3671342
1591000000 0.1606413 -0.3635195 0.8393587 0.3635195 0.8393587 0.3635195 0.1606413 -0.3635195
1612000000 0.1568790 -0.3599387 0.8431210 0.3599387 0.8431210 0.3599387 0.1568790 -0.3599387
1633000000 0.1532297 -0.3563924 0.8467703 0.3563924 0.8467703 0.3563924 0.1532297 -0.3563924
1654000000 0.1496893 -0.3528811 0.8503107 0.3528811 0.8503107 0.3528811 0.1496893 -0.3528811
1675000000 0.1462540 -0.3494051 0.8537460 0.3494051 0.8537460 0.3494051 0.1462540 -0.3494051
1696000000 0.1429198 -0.3459648 0.8570802 0.3459648 0.8570802 0.3459648 0.1429198 -0.3459648
1717000000 0.1396833 -0.3425603 0.8603167 0.3425603 0.8603167 0.3425603 0.1396833 -0.3425603
1738000000 0.1365410 -0.3391919 0.8634590 0.3391919 0.8634590 0.3391919 0.1365410 -0.3391919
1759000000 0.1334894 -0.3358595 0.8665106 0.3358595 0.8665106 0.3358595 0.1334894 -0.3358595
1780000000 0.1305255 -0.3325633 0.8694745 0.3325633 0.8694745 0.3325633 0.1305255 -0.3325633
1801000000 0.1276461 -0.3293032 0.8723539 0.3293032 0.8723539 0.3293032 0.1276461 -0.3293032
1822000000 0.1248483 -0.3260790 0.8751517 0.3260790 0.8751517 0.3260790 0.1248483 -0.3260790
1843000000 0.1221293 -0.3228908 0.8778707 0.3228908 0.8778707 0.3228908 0.1221293 -0.3228908
1864000000 0.1194864 -0.3197383 0.8805136 0.3197383 0.8805136 0.3197383 0.1194864 -0.3197383
1885000000 0.1169169 -0.3166213 0.8830831 0.3166213 0.8830831 0.3166213 0.1169169 -0.3166213
1906000000 0.1144184 -0.3135396 0.8855816 0.3135396 0.8855816 0.3135396 0.1144184 -0.3135396
1927000000 0.1119883 -0.3104930 0.8880117 0.3104930 0.8880117 0.3104930 0.1119883 -0.3104930
1948000000 0.1096245 -0.3074811 0.8903755 0.3074811 0.8903755 0.3074811 0.1096245 -0.3074811
1969000000 0.1073247 -0.3045038 0.8926753 0.3045038 0.8926753 0.3045038 0.1073247 -0.3045038
1990000000 0.1050868 -0.3015606 0.8949132 0.3015606 0.8949132 0.3015606 0.1050868 -0.3015606
2011000000 0.1029086 -0.2986512 0.8970914 0.2986512 0.8970914 0.2986512 0.1029086 -0.2986512
2032000000 0.1007883 -0.2957753 0.8992117 0.2957753 0.8992117 0.2957753 0.1007883 -0.2957753
2053000000 0.0987240 -0.2929325 0.9012760 0.2929325 0.9012760 0.2929325 0.0987240 -0.2929325
2074000000 0.0967137 -0.2901224 0.9032863 0.2901224 0.9032863 0.2901224 0.0967137 -0.2901224
2095000000 0.0947558 -0.2873447 0.9052442 0.2873447 0.9052442 0.2873447 0.0947558 -0.2873447
2116000000 0.0928486 -0.2845989 0.9071514 0.2845989 0.9071514 0.2845989 0.0928486 -0.2845989
2137000000 0.0909904 -0.2818847 0.9090096 0.2818847 0.9090096 0.2818847 0.0909904 -0.2818847
2158000000 0.0891797 -0.2792016 0.9108203 0.2792016 0.9108203 0.2792016 0.0891797 -0.2792016
2179000000 0.0874150 -0.2765493 0.9125850 0.2765493 0.9125850 0.2765493 0.0874150 -0.2765493
2200000000 0.0856948 -0.2739273 0.9143052 0.2739273 0.9143052 0.2739273 0.0856948 -0.2739273
2221000000 0.0840178 -0.2713353 0.9159822 0.2713353 0.9159822 0.2713353 0.0840178 -0.2713353
2242000000 0.0823825 -0.2687727 0.9176175 0.2687727 0.9176175 0.2687727 0.0823825 -0.2687727
2263000000 0.0807878 -0.2662392 0.9192122 0.2662392 0.9192122 0.2662392 0.0807878 -0.2662392
2284000000 0.0792323 -0.2637345 0.9207677 0.2637345 0.9207677 0.2637345 0.0792323 -0.2637345
2305000000 0.0777149 -0.2612579 0.9222851 0.2612579 0.9222851 0.2612579 0.0777149 -0.2612579
2326000000 0.0762344 -0.2588092 0.9237656 0.2588092 0.9237656 0.2588092 0.0762344 -0.2588092
2347000000 0.0747897 -0.2563879 0.9252103 0.2563879 0.9252103 0.2563879 0.0747897 -0.2563879
2368000000 0.0733797 -0.2539937 0.9266203 0.2539937 0.9266203 0.2539937 0.0733797 -0.2539937
2389000000 0.0720034 -0.2516260 0.9279966 0.2516260 0.9279966 0.2516260 0.0720034 -0.2516260
2410000000 0.0706598 -0.2492846 0.9293402 0.2492846 0.9293402 0.2492846 0.0706598 -0.2492846
2431000000 0.0693479 -0.2469689 0.9306521 0.2469689 0.9306521 0.2469689 0.0693479 -0.2469689
2452000000 0.0680669 -0.2446787 0.9319331 0.2446787 0.9319331 0.2446787 0.0680669 -0.2446787
2473000000 0.0668157 -0.2424135 0.9331843 0.2424135 0.9331843 0.2424135 0.0668157 -0.2424135
2494000000 0.0655935 -0.2401728 0.9344065 0.2401728 0.9344065 0.2401728 0.0655935 -0.2401728
2515000000 0.0643996 -0.2379564 0.9356004 0.2379564 0.9356004 0.2379564 0.0643996 -0.2379564
2536000000 0.0632331 -0.2357639 0.9367669 0.2357639 0.9367669 0.2357639 0.0632331 -0.2357639
2557000000 0.0620931 -0.2335948 0.9379069 0.2335948 0.9379069 0.2335948 0.0620931 -0.2335948
2578000000 0.0609791 -0.2314488 0.9390209 0.2314488 0.9390209 0.2314488 0.0609791 -0.2314488
2599000000 0.0598902 -0.2293255 0.9401098 0.2293255 0.9401098 0.2293255 0.0598902 -0.2293255
2620000000 0.0588257 -0.2272246 0.9411743 0.2272246 0.9411743 0.2272246 0.0588257 -0.2272246
2641000000 0.0577850 -0.2251457 0.9422150 0.2251457 0.9422150 0.2251457 0.0577850 -0.2251457
2662000000 0.0567674 -0.2230885 0.9432326 0.2230885 0.9432326 0.2230885 0.0567674 -0.2230885
2683000000 0.0557723 -0.2210525 0.9442277 0.2210525 0.9442277 0.2210525 0.0557723 -0.2210525
2704000000 0.0547991 -0.2190375 0.9452009 0.2190375 0.9452009 0.2190375 0.0547991 -0.2190375
2725000000 0.0538471 -0.2170431 0.9461529 0.2170431 0.9461529 0.2170431 0.0538471 -0.2170431
2746000000 0.0529158 -0.2150690 0.9470842 0.2150690 0.9470842 0.2150690 0.0529158 -0.2150690
2767000000 0.0520047 -0.2131148 0.9479953 0.2131148 0.9479953 0.2131148 0.0520047 -0.2131148
2788000000 0.0511132 -0.2111803 0.9488868 0.2111803 0.9488868 0.2111803 0.0511132 -0.2111803
2809000000 0.0502408 -0.2092650 0.9497592 0.2092650 0.9497592 0.2092650 0.0502408 -0.2092650
2830000000 0.0493870 -0.2073687 0.9506130 0.2073687 0.9506130 0.2073687 0.0493870 -0.2073687
2851000000 0.0485513 -0.2054912 0.9514487 0.2054912 0.9514487 0.2054912 0.0485513 -0.2054912
2872000000 0.0477332 -0.2036319 0.9522668 0.2036319 0.9522668 0.2036319 0.0477332 -0.2036319
2893000000 0.0469324 -0.2017908 0.9530676 0.2017908 0.9530676 0.2017908 0.0469324 -0.2017908
2914000000 0.0461482 -0.1999675 0.9538518 0.1999675 0.9538518 0.1999675 0.0461482 -0.1999675
2935000000 0.0453804 -0.1981616 0.9546196 0.1981616 0.9546196 0.1981616 0.0453804 -0.1981616
2956000000 0.0446285 -0.1963729 0.9553715 0.1963729 0.9553715 0.1963729 0.0446285 -0.1963729
2977000000 0.0438921 -0.1946012 0.9561079 0.1946012 0.9561079 0.1946012 0.0438921 -0.1946012
2998000000 0.0431708 -0.1928461 0.9568292 0.1928461 0.9568292 0.1928461 0.0431708 -0.1928461
3019000000 0.0424643 -0.1911074 0.9575357 0.1911074 0.9575357 0.1911074 0.0424643 -0.1911074
3040000000 0.0417721 -0.1893847 0.9582279 0.1893847 0.9582279 0.1893847 0.0417721 -0.1893847
3061000000 0.0410940 -0.1876780 0.9589060 0.1876780 0.9589060 0.1876780 0.0410940 -0.1876780
3082000000 0.0404295 -0.1859868 0.9595705 0.1859868 0.9595705 0.1859868 0.0404295 -0.1859868
3103000000 0.0397784 -0.1843109 0.9602216 0.1843109 0.9602216 0.1843109 0.0397784 -0.1843109
3124000000 0.0391403 -0.1826501 0.9608597 0.1826501 0.9608597 0.1826501 0.0391403 -0.1826501
3145000000 0.0385149 -0.1810042 0.9614851 0.1810042 0.9614851 0.1810042 0.0385149 -0.1810042
3166000000 0.0379019 -0.1793728 0.9620981 0.1793728 0.9620981 0.1793728 0.0379019 -0.1793728
3187000000 0.0373010 -0.1777558 0.9626990 0.1777558 0.9626990 0.1777558 0.0373010 -0.1777558
3208000000 0.0367120 -0.1761530 0.9632880 0.1761530 0.9632880 0.1761530 0.0367120 -0.1761530
3229000000 0.0361345 -0.1745640 0.9638655 0.1745640 0.9638655 0.1745640 0.0361345 -0.1745640
3250000000 0.0355682 -0.1729887 0.9644318 0.1729887 0.9644318 0.1729887 0.0355682 -0.1729887
3271000000 0.0350130 -0.1714268 0.9649870 0.1714268 0.9649870 0.1714268 0.0350130 -0.1714268
3292000000 0.0344686 -0.1698782 0.9655314 0.1698782 0.9655314 0.1698782 0.0344686 -0.1698782
3313000000 0.0339347 -0.1683425 0.9660653 0.1683425 0.9660653 0.1683425 0.0339347 -0.1683425
3334000000 0.0334111 -0.1668197 0.9665889 0.1668197 0.9665889 0.1668197 0.0334111 -0.1668197
3355000000 0.0328975 -0.1653095 0.9671025 0.1653095 0.9671025 0.1653095 0.0328975 -0.1653095
3376000000 0.0323937 -0.1638116 0.9676063 0.1638116 0.9676063 0.1638116 0.0323937 -0.1638116
3397000000 0.0318995 -0.1623260 0.9681005 0.1623260 0.9681005 0.1623260 0.0318995 -0.1623260
3418000000 0.0314147 -0.1608523 0.9685853 0.1608523 0.9685853 0.1608523 0.0314147 -0.1608523
3439000000 0.0309391 -0.1593905 0.9690609 0.1593905 0.9690609 0.1593905 0.0309391 -0.1593905
3460000000 0.0304724 -0.1579402 0.9695276 0.1579402 0.9695276 0.1579402 0.0304724 -0.1579402
3481000000 0.0300146 -0.1565014 0.9699854 0.1565014 0.9699854 0.1565014 0.0300146 -0.1565014
3502000000 0.0295653 -0.1550738 0.9704347 0.1550738 0.9704347 0.1550738 0.0295653 -0.1550738
3523000000 0.0291244 -0.1536573 0.9708756 0.1536573 0.9708756 0.1536573 0.0291244 -0.1536573
3544000000 0.0286918 -0.1522516 0.9713082 0.1522516 0.9713082 0.1522516 0.0286918 -0.1522516
3565000000 0.0282672 -0.1508567 0.9717328 0.1508567 0.9717328 0.1508567 0.0282672 -0.1508567
3586000000 0.0278505 -0.1494723 0.9721495 0.1494723 0.9721495 0.1494723 0.0278505 -0.1494723
3607000000 0.0274414 -0.1480982 0.9725586 0.1480982 0.9725586 0.1480982 0.0274414 -0.1480982
3628000000 0.0270400 -0.1467344 0.9729600 0.1467344 0.9729600 0.1467344 0.0270400 -0.1467344
3649000000 0.0266459 -0.1453805 0.9733541 0.1453805 0.9733541 0.1453805 0.0266459 -0.1453805
3670000000 0.0262590 -0.1440366 0.9737410 0.1440366 0.9737410 0.1440366 0.0262590 -0.1440366
3691000000 0.0258793 -0.1427023 0.9741207 0.1427023 0.9741207 0.1427023 0.0258793 -0.1427023
3712000000 0.0255065 -0.1413776 0.9744935 0.1413776 0.9744935 0.1413776 0.0255065 -0.1413776
3733000000 0.0251405 -0.1400623 0.9748595 0.1400623 0.9748595 0.1400623 0.0251405 -0.1400623
3754000000 0.0247811 -0.1387562 0.9752189 0.1387562 0.9752189 0.1387562 0.0247811 -0.1387562
3775000000 0.0244283 -0.1374593 0.9755717 0.1374593 0.9755717 0.1374593 0.0244283 -0.1374593
3796000000 0.0240819 -0.1361713 0.9759181 0.1361713 0.9759181 0.1361713 0.0240819 -0.1361713
3817000000 0.0237417 -0.1348921 0.9762583 0.1348921 0.9762583 0.1348921 0.0237417 -0.1348921
3838000000 0.0234077 -0.1336215 0.9765923 0.1336215 0.9765923 0.1336215 0.0234077 -0.1336215
3859000000 0.0230798 -0.1323595 0.9769202 0.1323595 0.9769202 0.1323595 0.0230798 -0.1323595
3880000000 0.0227577 -0.1311059 0.9772423 0.1311059 0.9772423 0.1311059 0.0227577 -0.1311059
3901000000 0.0224414 -0.1298605 0.9775586 0.1298605 0.9775586 0.1298605 0.0224414 -0.1298605
3922000000 0.0221309 -0.1286232 0.9778691 0.1286232 0.9778691 0.1286232 0.0221309 -0.1286232
3943000000 0.0218259 -0.1273940 0.9781741 0.1273940 0.9781741 0.1273940 0.0218259 -0.1273940
3964000000 0.0215263 -0.1261726 0.9784737 0.1261726 0.9784737 0.1261726 0.0215263 -0.1261726
3985000000 0.0212322 -0.1249589 0.9787678 0.1249589 0.9787678 0.1249589 0.0212322 -0.1249589
4006000000 0.0209433 -0.1237528 0.9790567 0.1237528 0.9790567 0.1237528 0.0209433 -0.1237528
4027000000 0.0206596 -0.1225542 0.9793404 0.1225542 0.9793404 0.1225542 0.0206596 -0.1225542
4048000000 0.0203809 -0.1213629 0.9796191 0.1213629 0.9796191 0.1213629 0.0203809 -0.1213629
4069000000 0.0201073 -0.1201789 0.9798927 0.1201789 0.9798927 0.1201789 0.0201073 -0.1201789
4090000000 0.0198385 -0.1190020 0.9801615 0.1190020 0.9801615 0.1190020 0.0198385 -0.1190020
4111000000 0.0195745 -0.1178321 0.9804255 0.1178321 0.9804255 0.1178321 0.0195745 -0.1178321
4132000000 0.0193152 -0.1166691 0.9806848 0.1166691 0.9806848 0.1166691 0.0193152 -0.1166691
4153000000 0.0190606 -0.1155129 0.9809394 0.1155129 0.9809394 0.1155129 0.0190606 -0.1155129
4174000000 0.0188105 -0.1143633 0.9811895 0.1143633 0.9811895 0.1143633 0.0188105 -0.1143633
4195000000 0.0185649 -0.1132203 0.9814351 0.1132203 0.9814351 0.1132203 0.0185649 -0.1132203
4216000000 0.0183237 -0.1120837 0.9816763 0.1120837 0.9816763 0.1120837 0.0183237 -0.1120837
4237000000 0.0180868 -0.1109534 0.9819132 0.1109534 0.9819132 0.1109534 0.0180868 -0.1109534
4258000000 0.0178541 -0.1098294 0.9821459 0.1098294 0.9821459 0.1098294 0.0178541 -0.1098294
4279000000 0.0176256 -0.1087115 0.9823744 0.1087115 0.9823744 0.1087115 0.0176256 -0.1087115
4300000000 0.0174012 -0.1075996 0.9825988 0.1075996 0.9825988 0.1075996 0.0174012 -0.1075996
4321000000 0.0171808 -0.1064936 0.9828192 0.1064936 0.9828192 0.1064936 0.0171808 -0.1064936
4342000000 0.0169644 -0.1053935 0.9830356 0.1053935 0.9830356 0.1053935 0.0169644 -0.1053935
4363000000 0.0167519 -0.1042990 0.9832481 0.1042990 0.9832481 0.1042990 0.0167519 -0.1042990
4384000000 0.0165432 -0.1032102 0.9834568 0.1032102 0.9834568 0.1032102 0.0165432 -0.1032102
4405000000 0.0163383 -0.1021269 0.9836617 0.1021269 0.9836617 0.1021269 0.0163383 -0.1021269
4426000000 0.0161371 -0.1010491 0.9838629 0.1010491 0.9838629 0.1010491 0.0161371 -0.1010491
4447000000 0.0159396 -0.0999766 0.9840604 0.0999766 0.9840604 0.0999766 0.0159396 -0.0999766
4468000000 0.0157456 -0.0989093 0.9842544 0.0989093 0.9842544 0.0989093 0.0157456 -0.0989093
4489000000 0.0155552 -0.0978471 0.9844448 0.0978471 0.9844448 0.0978471 0.0155552 -0.0978471
4510000000 0.0153683 -0.0967901 0.9846317 0.0967901 0.9846317 0.0967901 0.0153683 -0.0967901
