!Murata Part Number: GRM0332C1H9R0CA01
!These Parameters are Measured in Series Mode Connection
!Data Generated on Mar 30, 2021
!       o--ll--o
!Port1            Port2
!       o------o
!Operation Temp=25[degC], DC Bias Voltage=0[V]
!Freq. Start=100[MHz] Stop=9[GHz] 401[Steps]
# Hz S RI R 50
!Freq.(Hz) S11(Real) S11(Imag) S21(Real) S21(Imag) S12(Real) S12(Imag) S22(Real) S22(Imag)
100000000 0.7571520 -0.4282943 0.2428480 0.4282943 0.2428480 0.4282943 0.7571520 -0.4282943
121000000 0.6803381 -0.4657283 0.3196619 0.4657283 0.3196619 0.4657283 0.6803381 -0.4657283
142000000 0.6069680 -0.4876987 0.3930320 0.4876987 0.3930320 0.4876987 0.6069680 -0.4876987
163000000 0.5394093 -0.4976111 0.4605907 0.4976111 0.4605907 0.4976111 0.5394093 -0.4976111
184000000 0.4786914 -0.4986036 0.5213086 0.4986036 0.5213086 0.4986036 0.4786914 -0.4986036
205000000 0.4249660 -0.4932866 0.5750340 0.4932866 0.5750340 0.4932866 0.4249660 -0.4932866
226000000 0.3778789 -0.4836962 0.6221211 0.4836962 0.6221211 0.4836962 0.3778789 -0.4836962
247000000 0.3368277 -0.4713542 0.6631723 0.4713542 0.6631723 0.4713542 0.3368277 -0.4713542
268000000 0.3011220 -0.4573635 0.6988780 0.4573635 0.6988780 0.4573635 0.3011220 -0.4573635
289000000 0.2700745 -0.4425043 0.7299255 0.4425043 0.7299255 0.4425043 0.2700745 -0.4425043
310000000 0.2430474 -0.4273174 0.7569526 0.4273174 0.7569526 0.4273174 0.2430474 -0.4273174
331000000 0.2194717 -0.4121695 0.7805283 0.4121695 0.7805283 0.4121695 0.2194717 -0.4121695
352000000 0.1988516 -0.3973029 0.8011484 0.3973029 0.8011484 0.3973029 0.1988516 -0.3973029
373000000 0.1807614 -0.3828721 0.8192386 0.3828721 0.8192386 0.3828721 0.1807614 -0.3828721
394000000 0.1648383 -0.3689704 0.8351617 0.3689704 0.8351617 0.3689704 0.1648383 -0.3689704
415000000 0.1507752 -0.3556485 0.8492248 0.3556485 0.8492248 0.3556485 0.1507752 -0.3556485
436000000 0.1383122 -0.3429281 0.8616878 0.3429281 0.8616878 0.3429281 0.1383122 -0.3429281
457000000 0.1272296 -0.3308114 0.8727704 0.3308114 0.8727704 0.3308114 0.1272296 -0.3308114
478000000 0.1173415 -0.3192877 0.8826585 0.3192877 0.8826585 0.3192877 0.1173415 -0.3192877
499000000 0.1084904 -0.3083379 0.8915096 0.3083379 0.8915096 0.3083379 0.1084904 -0.3083379
520000000 0.1005425 -0.2979381 0.8994575 0.2979381 0.8994575 0.2979381 0.1005425 -0.2979381
541000000 0.0933841 -0.2880614 0.9066159 0.2880614 0.9066159 0.2880614 0.0933841 -0.2880614
562000000 0.0869177 -0.2786799 0.9130823 0.2786799 0.9130823 0.2786799 0.0869177 -0.2786799
583000000 0.0810601 -0.2697654 0.9189399 0.2697654 0.9189399 0.2697654 0.0810601 -0.2697654
604000000 0.0757397 -0.2612900 0.9242603 0.2612900 0.9242603 0.2612900 0.0757397 -0.2612900
625000000 0.0708948 -0.2532271 0.9291052 0.2532271 0.9291052 0.2532271 0.0708948 -0.2532271
646000000 0.0664720 -0.2455509 0.9335280 0.2455509 0.9335280 0.2455509 0.0664720 -0.2455509
667000000 0.0624251 -0.2382373 0.9375749 0.2382373 0.9375749 0.2382373 0.0624251 -0.2382373
688000000 0.0587139 -0.2312634 0.9412861 0.2312634 0.9412861 0.2312634 0.0587139 -0.2312634
709000000 0.0553031 -0.2246077 0.9446969 0.2246077 0.9446969 0.2246077 0.0553031 -0.2246077
730000000 0.0521620 -0.2182504 0.9478380 0.2182504 0.9478380 0.2182504 0.0521620 -0.2182504
751000000 0.0492637 -0.2121726 0.9507363 0.2121726 0.9507363 0.2121726 0.0492637 -0.2121726
772000000 0.0465844 -0.2063570 0.9534156 0.2063570 0.9534156 0.2063570 0.0465844 -0.2063570
793000000 0.0441030 -0.2007875 0.9558970 0.2007875 0.9558970 0.2007875 0.0441030 -0.2007875
814000000 0.0418011 -0.1954491 0.9581989 0.1954491 0.9581989 0.1954491 0.0418011 -0.1954491
835000000 0.0396622 -0.1903277 0.9603378 0.1903277 0.9603378 0.1903277 0.0396622 -0.1903277
856000000 0.0376717 -0.1854105 0.9623283 0.1854105 0.9623283 0.1854105 0.0376717 -0.1854105
877000000 0.0358164 -0.1806854 0.9641836 0.1806854 0.9641836 0.1806854 0.0358164 -0.1806854
898000000 0.0340847 -0.1761412 0.9659153 0.1761412 0.9659153 0.1761412 0.0340847 -0.1761412
919000000 0.0324662 -0.1717676 0.9675338 0.1717676 0.9675338 0.1717676 0.0324662 -0.1717676
940000000 0.0309515 -0.1675548 0.9690485 0.1675548 0.9690485 0.1675548 0.0309515 -0.1675548
961000000 0.0295321 -0.1634939 0.9704679 0.1634939 0.9704679 0.1634939 0.0295321 -0.1634939
982000000 0.0282005 -0.1595765 0.9717995 0.1595765 0.9717995 0.1595765 0.0282005 -0.1595765
1003000000 0.0269498 -0.1557947 0.9730502 0.1557947 0.9730502 0.1557947 0.0269498 -0.1557947
1024000000 0.0257737 -0.1521414 0.9742263 0.1521414 0.9742263 0.1521414 0.0257737 -0.1521414
1045000000 0.0246667 -0.1486096 0.9753333 0.1486096 0.9753333 0.1486096 0.0246667 -0.1486096
1066000000 0.0236237 -0.1451931 0.9763763 0.1451931 0.9763763 0.1451931 0.0236237 -0.1451931
1087000000 0.0226399 -0.1418860 0.9773601 0.1418860 0.9773601 0.1418860 0.0226399 -0.1418860
1108000000 0.0217112 -0.1386826 0.9782888 0.1386826 0.9782888 0.1386826 0.0217112 -0.1386826
1129000000 0.0208336 -0.1355778 0.9791664 0.1355778 0.9791664 0.1355778 0.0208336 -0.1355778
1150000000 0.0200038 -0.1325668 0.9799962 0.1325668 0.9799962 0.1325668 0.0200038 -0.1325668
1171000000 0.0192183 -0.1296449 0.9807817 0.1296449 0.9807817 0.1296449 0.0192183 -0.1296449
1192000000 0.0184744 -0.1268079 0.9815256 0.1268079 0.9815256 0.1268079 0.0184744 -0.1268079
1213000000 0.0177692 -0.1240518 0.9822308 0.1240518 0.9822308 0.1240518 0.0177692 -0.1240518
1234000000 0.0171002 -0.1213727 0.9828998 0.1213727 0.9828998 0.1213727 0.0171002 -0.1213727
1255000000 0.0164652 -0.1187672 0.9835348 0.1187672 0.9835348 0.1187672 0.0164652 -0.1187672
1276000000 0.0158620 -0.1162319 0.9841380 0.1162319 0.9841380 0.1162319 0.0158620 -0.1162319
1297000000 0.0152887 -0.1137637 0.9847113 0.1137637 0.9847113 0.1137637 0.0152887 -0.1137637
1318000000 0.0147434 -0.1113595 0.9852566 0.1113595 0.9852566 0.1113595 0.0147434 -0.1113595
1339000000 0.0142246 -0.1090166 0.9857754 0.1090166 0.9857754 0.1090166 0.0142246 -0.1090166
1360000000 0.0137306 -0.1067324 0.9862694 0.1067324 0.9862694 0.1067324 0.0137306 -0.1067324
1381000000 0.0132600 -0.1045042 0.9867400 0.1045042 0.9867400 0.1045042 0.0132600 -0.1045042
1402000000 0.0128115 -0.1023299 0.9871885 0.1023299 0.9871885 0.1023299 0.0128115 -0.1023299
1423000000 0.0123838 -0.1002071 0.9876162 0.1002071 0.9876162 0.1002071 0.0123838 -0.1002071
1444000000 0.0119759 -0.0981337 0.9880241 0.0981337 0.9880241 0.0981337 0.0119759 -0.0981337
1465000000 0.0115865 -0.0961078 0.9884135 0.0961078 0.9884135 0.0961078 0.0115865 -0.0961078
1486000000 0.0112148 -0.0941274 0.9887852 0.0941274 0.9887852 0.0941274 0.0112148 -0.0941274
1507000000 0.0108598 -0.0921907 0.9891402 0.0921907 0.9891402 0.0921907 0.0108598 -0.0921907
1528000000 0.0105206 -0.0902960 0.9894794 0.0902960 0.9894794 0.0902960 0.0105206 -0.0902960
1549000000 0.0101964 -0.0884418 0.9898036 0.0884418 0.9898036 0.0884418 0.0101964 -0.0884418
1570000000 0.0098864 -0.0866263 0.9901136 0.0866263 0.9901136 0.0866263 0.0098864 -0.0866263
1591000000 0.0095901 -0.0848483 0.9904099 0.0848483 0.9904099 0.0848483 0.0095901 -0.0848483
1612000000 0.0093065 -0.0831063 0.9906935 0.0831063 0.9906935 0.0831063 0.0093065 -0.0831063
1633000000 0.0090353 -0.0813989 0.9909647 0.0813989 0.9909647 0.0813989 0.0090353 -0.0813989
1654000000 0.0087757 -0.0797249 0.9912243 0.0797249 0.9912243 0.0797249 0.0087757 -0.0797249
1675000000 0.0085272 -0.0780831 0.9914728 0.0780831 0.9914728 0.0780831 0.0085272 -0.0780831
1696000000 0.0082893 -0.0764724 0.9917107 0.0764724 0.9917107 0.0764724 0.0082893 -0.0764724
1717000000 0.0080615 -0.0748916 0.9919385 0.0748916 0.9919385 0.0748916 0.0080615 -0.0748916
1738000000 0.0078434 -0.0733397 0.9921566 0.0733397 0.9921566 0.0733397 0.0078434 -0.0733397
1759000000 0.0076345 -0.0718157 0.9923655 0.0718157 0.9923655 0.0718157 0.0076345 -0.0718157
1780000000 0.0074344 -0.0703187 0.9925656 0.0703187 0.9925656 0.0703187 0.0074344 -0.0703187
1801000000 0.0072428 -0.0688477 0.9927572 0.0688477 0.9927572 0.0688477 0.0072428 -0.0688477
1822000000 0.0070592 -0.0674018 0.9929408 0.0674018 0.9929408 0.0674018 0.0070592 -0.0674018
1843000000 0.0068833 -0.0659803 0.9931167 0.0659803 0.9931167 0.0659803 0.0068833 -0.0659803
1864000000 0.0067149 -0.0645824 0.9932851 0.0645824 0.9932851 0.0645824 0.0067149 -0.0645824
1885000000 0.0065536 -0.0632072 0.9934464 0.0632072 0.9934464 0.0632072 0.0065536 -0.0632072
1906000000 0.0063991 -0.0618540 0.9936009 0.0618540 0.9936009 0.0618540 0.0063991 -0.0618540
1927000000 0.0062511 -0.0605221 0.9937489 0.0605221 0.9937489 0.0605221 0.0062511 -0.0605221
1948000000 0.0061094 -0.0592109 0.9938906 0.0592109 0.9938906 0.0592109 0.0061094 -0.0592109
1969000000 0.0059737 -0.0579198 0.9940263 0.0579198 0.9940263 0.0579198 0.0059737 -0.0579198
1990000000 0.0058438 -0.0566480 0.9941562 0.0566480 0.9941562 0.0566480 0.0058438 -0.0566480
2011000000 0.0057196 -0.0553950 0.9942804 0.0553950 0.9942804 0.0553950 0.0057196 -0.0553950
2032000000 0.0056007 -0.0541602 0.9943993 0.0541602 0.9943993 0.0541602 0.0056007 -0.0541602
2053000000 0.0054869 -0.0529431 0.9945131 0.0529431 0.9945131 0.0529431 0.0054869 -0.0529431
2074000000 0.0053782 -0.0517431 0.9946218 0.0517431 0.9946218 0.0517431 0.0053782 -0.0517431
2095000000 0.0052743 -0.0505598 0.9947257 0.0505598 0.9947257 0.0505598 0.0052743 -0.0505598
2116000000 0.0051750 -0.0493926 0.9948250 0.0493926 0.9948250 0.0493926 0.0051750 -0.0493926
2137000000 0.0050802 -0.0482411 0.9949198 0.0482411 0.9949198 0.0482411 0.0050802 -0.0482411
2158000000 0.0049896 -0.0471048 0.9950104 0.0471048 0.9950104 0.0471048 0.0049896 -0.0471048
2179000000 0.0049033 -0.0459833 0.9950967 0.0459833 0.9950967 0.0459833 0.0049033 -0.0459833
2200000000 0.0048210 -0.0448761 0.9951790 0.0448761 0.9951790 0.0448761 0.0048210 -0.0448761
2221000000 0.0047426 -0.0437830 0.9952574 0.0437830 0.9952574 0.0437830 0.0047426 -0.0437830
2242000000 0.0046680 -0.0427034 0.9953320 0.0427034 0.9953320 0.0427034 0.0046680 -0.0427034
2263000000 0.0045970 -0.0416369 0.9954030 0.0416369 0.9954030 0.0416369 0.0045970 -0.0416369
2284000000 0.0045295 -0.0405834 0.9954705 0.0405834 0.9954705 0.0405834 0.0045295 -0.0405834
2305000000 0.0044655 -0.0395423 0.9955345 0.0395423 0.9955345 0.0395423 0.0044655 -0.0395423
2326000000 0.0044047 -0.0385133 0.9955953 0.0385133 0.9955953 0.0385133 0.0044047 -0.0385133
2347000000 0.0043472 -0.0374962 0.9956528 0.0374962 0.9956528 0.0374962 0.0043472 -0.0374962
2368000000 0.0042928 -0.0364905 0.9957072 0.0364905 0.9957072 0.0364905 0.0042928 -0.0364905
2389000000 0.0042415 -0.0354961 0.9957585 0.0354961 0.9957585 0.0354961 0.0042415 -0.0354961
2410000000 0.0041930 -0.0345125 0.9958070 0.0345125 0.9958070 0.0345125 0.0041930 -0.0345125
2431000000 0.0041474 -0.0335396 0.9958526 0.0335396 0.9958526 0.0335396 0.0041474 -0.0335396
2452000000 0.0041046 -0.0325770 0.9958954 0.0325770 0.9958954 0.0325770 0.0041046 -0.0325770
2473000000 0.0040645 -0.0316245 0.9959355 0.0316245 0.9959355 0.0316245 0.0040645 -0.0316245
2494000000 0.0040270 -0.0306818 0.9959730 0.0306818 0.9959730 0.0306818 0.0040270 -0.0306818
2515000000 0.0039920 -0.0297486 0.9960080 0.0297486 0.9960080 0.0297486 0.0039920 -0.0297486
2536000000 0.0039595 -0.0288248 0.9960405 0.0288248 0.9960405 0.0288248 0.0039595 -0.0288248
2557000000 0.0039294 -0.0279101 0.9960706 0.0279101 0.9960706 0.0279101 0.0039294 -0.0279101
2578000000 0.0039017 -0.0270042 0.9960983 0.0270042 0.9960983 0.0270042 0.0039017 -0.0270042
2599000000 0.0038762 -0.0261070 0.9961238 0.0261070 0.9961238 0.0261070 0.0038762 -0.0261070
2620000000 0.0038530 -0.0252182 0.9961470 0.0252182 0.9961470 0.0252182 0.0038530 -0.0252182
2641000000 0.0038320 -0.0243376 0.9961680 0.0243376 0.9961680 0.0243376 0.0038320 -0.0243376
2662000000 0.0038130 -0.0234651 0.9961870 0.0234651 0.9961870 0.0234651 0.0038130 -0.0234651
2683000000 0.0037962 -0.0226003 0.9962038 0.0226003 0.9962038 0.0226003 0.0037962 -0.0226003
2704000000 0.0037814 -0.0217433 0.9962186 0.0217433 0.9962186 0.0217433 0.0037814 -0.0217433
2725000000 0.0037685 -0.0208936 0.9962315 0.0208936 0.9962315 0.0208936 0.0037685 -0.0208936
2746000000 0.0037576 -0.0200513 0.9962424 0.0200513 0.9962424 0.0200513 0.0037576 -0.0200513
2767000000 0.0037486 -0.0192160 0.9962514 0.0192160 0.9962514 0.0192160 0.0037486 -0.0192160
2788000000 0.0037414 -0.0183877 0.9962586 0.0183877 0.9962586 0.0183877 0.0037414 -0.0183877
2809000000 0.0037360 -0.0175662 0.9962640 0.0175662 0.9962640 0.0175662 0.0037360 -0.0175662
2830000000 0.0037323 -0.0167513 0.9962677 0.0167513 0.9962677 0.0167513 0.0037323 -0.0167513
2851000000 0.0037304 -0.0159429 0.9962696 0.0159429 0.9962696 0.0159429 0.0037304 -0.0159429
2872000000 0.0037302 -0.0151407 0.9962698 0.0151407 0.9962698 0.0151407 0.0037302 -0.0151407
2893000000 0.0037317 -0.0143448 0.9962683 0.0143448 0.9962683 0.0143448 0.0037317 -0.0143448
2914000000 0.0037347 -0.0135549 0.9962653 0.0135549 0.9962653 0.0135549 0.0037347 -0.0135549
2935000000 0.0037394 -0.0127708 0.9962606 0.0127708 0.9962606 0.0127708 0.0037394 -0.0127708
2956000000 0.0037456 -0.0119925 0.9962544 0.0119925 0.9962544 0.0119925 0.0037456 -0.0119925
2977000000 0.0037533 -0.0112199 0.9962467 0.0112199 0.9962467 0.0112199 0.0037533 -0.0112199
2998000000 0.0037626 -0.0104527 0.9962374 0.0104527 0.9962374 0.0104527 0.0037626 -0.0104527
3019000000 0.0037733 -0.0096909 0.9962267 0.0096909 0.9962267 0.0096909 0.0037733 -0.0096909
3040000000 0.0037855 -0.0089344 0.9962145 0.0089344 0.9962145 0.0089344 0.0037855 -0.0089344
3061000000 0.0037991 -0.0081830 0.9962009 0.0081830 0.9962009 0.0081830 0.0037991 -0.0081830
3082000000 0.0038141 -0.0074366 0.9961859 0.0074366 0.9961859 0.0074366 0.0038141 -0.0074366
3103000000 0.0038305 -0.0066952 0.9961695 0.0066952 0.9961695 0.0066952 0.0038305 -0.0066952
3124000000 0.0038482 -0.0059585 0.9961518 0.0059585 0.9961518 0.0059585 0.0038482 -0.0059585
3145000000 0.0038672 -0.0052266 0.9961328 0.0052266 0.9961328 0.0052266 0.0038672 -0.0052266
3166000000 0.0038876 -0.0044992 0.9961124 0.0044992 0.9961124 0.0044992 0.0038876 -0.0044992
3187000000 0.0039092 -0.0037764 0.9960908 0.0037764 0.9960908 0.0037764 0.0039092 -0.0037764
3208000000 0.0039321 -0.0030579 0.9960679 0.0030579 0.9960679 0.0030579 0.0039321 -0.0030579
3229000000 0.0039563 -0.0023437 0.9960437 0.0023437 0.9960437 0.0023437 0.0039563 -0.0023437
3250000000 0.0039817 -0.0016338 0.9960183 0.0016338 0.9960183 0.0016338 0.0039817 -0.0016338
3271000000 0.0040083 -0.0009279 0.9959917 0.0009279 0.9959917 0.0009279 0.0040083 -0.0009279
3292000000 0.0040361 -0.0002261 0.9959639 0.0002261 0.9959639 0.0002261 0.0040361 -0.0002261
3313000000 0.0040651 0.0004717 0.9959349 -0.0004717 0.9959349 -0.0004717 0.0040651 0.0004717
3334000000 0.0040953 0.0011658 0.9959047 -0.0011658 0.9959047 -0.0011658 0.0040953 0.0011658
3355000000 0.0041266 0.0018560 0.9958734 -0.0018560 0.9958734 -0.0018560 0.0041266 0.0018560
3376000000 0.0041590 0.0025426 0.9958410 -0.0025426 0.9958410 -0.0025426 0.0041590 0.0025426
3397000000 0.0041926 0.0032255 0.9958074 -0.0032255 0.9958074 -0.0032255 0.0041926 0.0032255
3418000000 0.0042272 0.0039049 0.9957728 -0.0039049 0.9957728 -0.0039049 0.0042272 0.0039049
3439000000 0.0042630 0.0045809 0.9957370 -0.0045809 0.9957370 -0.0045809 0.0042630 0.0045809
3460000000 0.0042998 0.0052535 0.9957002 -0.0052535 0.9957002 -0.0052535 0.0042998 0.0052535
3481000000 0.0043378 0.0059228 0.9956622 -0.0059228 0.9956622 -0.0059228 0.0043378 0.0059228
3502000000 0.0043767 0.0065888 0.9956233 -0.0065888 0.9956233 -0.0065888 0.0043767 0.0065888
3523000000 0.0044168 0.0072517 0.9955832 -0.0072517 0.9955832 -0.0072517 0.0044168 0.0072517
3544000000 0.0044578 0.0079114 0.9955422 -0.0079114 0.9955422 -0.0079114 0.0044578 0.0079114
3565000000 0.0044999 0.0085681 0.9955001 -0.0085681 0.9955001 -0.0085681 0.0044999 0.0085681
3586000000 0.0045430 0.0092219 0.9954570 -0.0092219 0.9954570 -0.0092219 0.0045430 0.0092219
3607000000 0.0045871 0.0098728 0.9954129 -0.0098728 0.9954129 -0.0098728 0.0045871 0.0098728
3628000000 0.0046322 0.0105208 0.9953678 -0.0105208 0.9953678 -0.0105208 0.0046322 0.0105208
3649000000 0.0046783 0.0111660 0.9953217 -0.0111660 0.9953217 -0.0111660 0.0046783 0.0111660
3670000000 0.0047254 0.0118085 0.9952746 -0.0118085 0.9952746 -0.0118085 0.0047254 0.0118085
3691000000 0.0047734 0.0124484 0.9952266 -0.0124484 0.9952266 -0.0124484 0.0047734 0.0124484
3712000000 0.0048225 0.0130856 0.9951775 -0.0130856 0.9951775 -0.0130856 0.0048225 0.0130856
3733000000 0.0048724 0.0137203 0.9951276 -0.0137203 0.9951276 -0.0137203 0.0048724 0.0137203
3754000000 0.0049233 0.0143525 0.9950767 -0.0143525 0.9950767 -0.0143525 0.0049233 0.0143525
3775000000 0.0049752 0.0149823 0.9950248 -0.0149823 0.9950248 -0.0149823 0.0049752 0.0149823
3796000000 0.0050280 0.0156097 0.9949720 -0.0156097 0.9949720 -0.0156097 0.0050280 0.0156097
3817000000 0.0050818 0.0162348 0.9949182 -0.0162348 0.9949182 -0.0162348 0.0050818 0.0162348
3838000000 0.0051364 0.0168576 0.9948636 -0.0168576 0.9948636 -0.0168576 0.0051364 0.0168576
3859000000 0.0051920 0.0174781 0.9948080 -0.0174781 0.9948080 -0.0174781 0.0051920 0.0174781
3880000000 0.0052485 0.0180965 0.9947515 -0.0180965 0.9947515 -0.0180965 0.0052485 0.0180965
3901000000 0.0053059 0.0187128 0.9946941 -0.0187128 0.9946941 -0.0187128 0.0053059 0.0187128
3922000000 0.0053642 0.0193269 0.9946358 -0.0193269 0.9946358 -0.0193269 0.0053642 0.0193269
3943000000 0.0054234 0.0199391 0.9945766 -0.0199391 0.9945766 -0.0199391 0.0054234 0.0199391
3964000000 0.0054836 0.0205492 0.9945164 -0.0205492 0.9945164 -0.0205492 0.0054836 0.0205492
3985000000 0.0055446 0.0211574 0.9944554 -0.0211574 0.9944554 -0.0211574 0.0055446 0.0211574
4006000000 0.0056064 0.0217638 0.9943936 -0.0217638 0.9943936 -0.0217638 0.0056064 0.0217638
4027000000 0.0056692 0.0223682 0.9943308 -0.0223682 0.9943308 -0.0223682 0.0056692 0.0223682
4048000000 0.0057329 0.0229709 0.9942671 -0.0229709 0.9942671 -0.0229709 0.0057329 0.0229709
4069000000 0.0057974 0.0235718 0.9942026 -0.0235718 0.9942026 -0.0235718 0.0057974 0.0235718
4090000000 0.0058628 0.0241709 0.9941372 -0.0241709 0.9941372 -0.0241709 0.0058628 0.0241709
4111000000 0.0059291 0.0247684 0.9940709 -0.0247684 0.9940709 -0.0247684 0.0059291 0.0247684
4132000000 0.0059963 0.0253643 0.9940037 -0.0253643 0.9940037 -0.0253643 0.0059963 0.0253643
4153000000 0.0060643 0.0259585 0.9939357 -0.0259585 0.9939357 -0.0259585 0.0060643 0.0259585
4174000000 0.0061332 0.0265512 0.9938668 -0.0265512 0.9938668 -0.0265512 0.0061332 0.0265512
4195000000 0.0062030 0.0271423 0.9937970 -0.0271423 0.9937970 -0.0271423 0.0062030 0.0271423
4216000000 0.0062736 0.0277320 0.9937264 -0.0277320 0.9937264 -0.0277320 0.0062736 0.0277320
4237000000 0.0063451 0.0283202 0.9936549 -0.0283202 0.9936549 -0.0283202 0.0063451 0.0283202
4258000000 0.0064175 0.0289071 0.9935825 -0.0289071 0.9935825 -0.0289071 0.0064175 0.0289071
4279000000 0.0064907 0.0294925 0.9935093 -0.0294925 0.9935093 -0.0294925 0.0064907 0.0294925
4300000000 0.0065648 0.0300766 0.9934352 -0.0300766 0.9934352 -0.0300766 0.0065648 0.0300766
4321000000 0.0066397 0.0306594 0.9933603 -0.0306594 0.9933603 -0.0306594 0.0066397 0.0306594
4342000000 0.0067155 0.0312409 0.9932845 -0.0312409 0.9932845 -0.0312409 0.0067155 0.0312409
4363000000 0.0067921 0.0318213 0.9932079 -0.0318213 0.9932079 -0.0318213 0.0067921 0.0318213
4384000000 0.0068697 0.0324004 0.9931303 -0.0324004 0.9931303 -0.0324004 0.0068697 0.0324004
4405000000 0.0069480 0.0329783 0.9930520 -0.0329783 0.9930520 -0.0329783 0.0069480 0.0329783
4426000000 0.0070273 0.0335551 0.9929727 -0.0335551 0.9929727 -0.0335551 0.0070273 0.0335551
4447000000 0.0071073 0.0341309 0.9928927 -0.0341309 0.9928927 -0.0341309 0.0071073 0.0341309
4468000000 0.0071883 0.0347055 0.9928117 -0.0347055 0.9928117 -0.0347055 0.0071883 0.0347055
4489000000 0.0072701 0.0352792 0.9927299 -0.0352792 0.9927299 -0.0352792 0.0072701 0.0352792
4510000000 0.0073528 0.0358518 0.9926472 -0.0358518 0.9926472 -0.0358518 0.0073528 0.0358518
