!Murata Part Number: GRM0332C2A8R2DA01
!These Parameters are Measured in Series Mode Connection
!Data Generated on Mar 30, 2021
!       o--ll--o
!Port1            Port2
!       o------o
!Operation Temp=25[degC], DC Bias Voltage=0[V]
!Freq. Start=100[MHz] Stop=9[GHz] 401[Steps]
# Hz S RI R 50
!Freq.(Hz) S11(Real) S11(Imag) S21(Real) S21(Imag) S12(Real) S12(Imag) S22(Real) S22(Imag)
100000000 0.7897203 -0.4070295 0.2102797 0.4070295 0.2102797 0.4070295 0.7897203 -0.4070295
121000000 0.7193883 -0.4487193 0.2806117 0.4487193 0.2806117 0.4487193 0.7193883 -0.4487193
142000000 0.6503728 -0.4761718 0.3496272 0.4761718 0.3496272 0.4761718 0.6503728 -0.4761718
163000000 0.5851733 -0.4919097 0.4148267 0.4919097 0.4148267 0.4919097 0.5851733 -0.4919097
184000000 0.5251747 -0.4984808 0.4748253 0.4984808 0.4748253 0.4984808 0.5251747 -0.4984808
205000000 0.4709420 -0.4981666 0.5290580 0.4981666 0.5290580 0.4981666 0.4709420 -0.4981666
226000000 0.4225003 -0.4928649 0.5774997 0.4928649 0.5774997 0.4928649 0.4225003 -0.4928649
247000000 0.3795557 -0.4840792 0.6204443 0.4840792 0.6204443 0.4840792 0.3795557 -0.4840792
268000000 0.3416507 -0.4729602 0.6583493 0.4729602 0.6583493 0.4729602 0.3416507 -0.4729602
289000000 0.3082645 -0.4603668 0.6917355 0.4603668 0.6917355 0.4603668 0.3082645 -0.4603668
310000000 0.2788729 -0.4469275 0.7211271 0.4469275 0.7211271 0.4469275 0.2788729 -0.4469275
331000000 0.2529809 -0.4330939 0.7470191 0.4330939 0.7470191 0.4330939 0.2529809 -0.4330939
352000000 0.2301385 -0.4191850 0.7698615 0.4191850 0.7698615 0.4191850 0.2301385 -0.4191850
373000000 0.2099458 -0.4054221 0.7900542 0.4054221 0.7900542 0.4054221 0.2099458 -0.4054221
394000000 0.1920530 -0.3919543 0.8079470 0.3919543 0.8079470 0.3919543 0.1920530 -0.3919543
415000000 0.1761566 -0.3788790 0.8238434 0.3788790 0.8238434 0.3788790 0.1761566 -0.3788790
436000000 0.1619949 -0.3662562 0.8380051 0.3662562 0.8380051 0.3662562 0.1619949 -0.3662562
457000000 0.1493430 -0.3541191 0.8506570 0.3541191 0.8506570 0.3541191 0.1493430 -0.3541191
478000000 0.1380079 -0.3424824 0.8619921 0.3424824 0.8619921 0.3424824 0.1380079 -0.3424824
499000000 0.1278239 -0.3313472 0.8721761 0.3313472 0.8721761 0.3313472 0.1278239 -0.3313472
520000000 0.1186489 -0.3207062 0.8813511 0.3207062 0.8813511 0.3207062 0.1186489 -0.3207062
541000000 0.1103604 -0.3105456 0.8896396 0.3105456 0.8896396 0.3105456 0.1103604 -0.3105456
562000000 0.1028532 -0.3008481 0.8971468 0.3008481 0.8971468 0.3008481 0.1028532 -0.3008481
583000000 0.0960364 -0.2915940 0.9039636 0.2915940 0.9039636 0.2915940 0.0960364 -0.2915940
604000000 0.0898312 -0.2827624 0.9101688 0.2827624 0.9101688 0.2827624 0.0898312 -0.2827624
625000000 0.0841693 -0.2743319 0.9158307 0.2743319 0.9158307 0.2743319 0.0841693 -0.2743319
646000000 0.0789916 -0.2662813 0.9210084 0.2662813 0.9210084 0.2662813 0.0789916 -0.2662813
667000000 0.0742462 -0.2585898 0.9257538 0.2585898 0.9257538 0.2585898 0.0742462 -0.2585898
688000000 0.0698879 -0.2512374 0.9301121 0.2512374 0.9301121 0.2512374 0.0698879 -0.2512374
709000000 0.0658771 -0.2442047 0.9341229 0.2442047 0.9341229 0.2442047 0.0658771 -0.2442047
730000000 0.0621789 -0.2374735 0.9378211 0.2374735 0.9378211 0.2374735 0.0621789 -0.2374735
751000000 0.0587627 -0.2310265 0.9412373 0.2310265 0.9412373 0.2310265 0.0587627 -0.2310265
772000000 0.0556015 -0.2248473 0.9443985 0.2248473 0.9443985 0.2248473 0.0556015 -0.2248473
793000000 0.0526711 -0.2189205 0.9473289 0.2189205 0.9473289 0.2189205 0.0526711 -0.2189205
814000000 0.0499504 -0.2132316 0.9500496 0.2132316 0.9500496 0.2132316 0.0499504 -0.2132316
835000000 0.0474203 -0.2077673 0.9525797 0.2077673 0.9525797 0.2077673 0.0474203 -0.2077673
856000000 0.0450641 -0.2025148 0.9549359 0.2025148 0.9549359 0.2025148 0.0450641 -0.2025148
877000000 0.0428666 -0.1974621 0.9571334 0.1974621 0.9571334 0.1974621 0.0428666 -0.1974621
898000000 0.0408143 -0.1925984 0.9591857 0.1925984 0.9591857 0.1925984 0.0408143 -0.1925984
919000000 0.0388951 -0.1879132 0.9611049 0.1879132 0.9611049 0.1879132 0.0388951 -0.1879132
940000000 0.0370981 -0.1833967 0.9629019 0.1833967 0.9629019 0.1833967 0.0370981 -0.1833967
961000000 0.0354135 -0.1790400 0.9645865 0.1790400 0.9645865 0.1790400 0.0354135 -0.1790400
982000000 0.0338324 -0.1748346 0.9661676 0.1748346 0.9661676 0.1748346 0.0338324 -0.1748346
1003000000 0.0323468 -0.1707725 0.9676532 0.1707725 0.9676532 0.1707725 0.0323468 -0.1707725
1024000000 0.0309495 -0.1668463 0.9690505 0.1668463 0.9690505 0.1668463 0.0309495 -0.1668463
1045000000 0.0296338 -0.1630491 0.9703662 0.1630491 0.9703662 0.1630491 0.0296338 -0.1630491
1066000000 0.0283937 -0.1593743 0.9716063 0.1593743 0.9716063 0.1593743 0.0283937 -0.1593743
1087000000 0.0272239 -0.1558159 0.9727761 0.1558159 0.9727761 0.1558159 0.0272239 -0.1558159
1108000000 0.0261192 -0.1523681 0.9738808 0.1523681 0.9738808 0.1523681 0.0261192 -0.1523681
1129000000 0.0250753 -0.1490256 0.9749247 0.1490256 0.9749247 0.1490256 0.0250753 -0.1490256
1150000000 0.0240878 -0.1457832 0.9759122 0.1457832 0.9759122 0.1457832 0.0240878 -0.1457832
1171000000 0.0231531 -0.1426363 0.9768469 0.1426363 0.9768469 0.1426363 0.0231531 -0.1426363
1192000000 0.0222675 -0.1395804 0.9777325 0.1395804 0.9777325 0.1395804 0.0222675 -0.1395804
1213000000 0.0214279 -0.1366113 0.9785721 0.1366113 0.9785721 0.1366113 0.0214279 -0.1366113
1234000000 0.0206314 -0.1337250 0.9793686 0.1337250 0.9793686 0.1337250 0.0206314 -0.1337250
1255000000 0.0198752 -0.1309179 0.9801248 0.1309179 0.9801248 0.1309179 0.0198752 -0.1309179
1276000000 0.0191567 -0.1281863 0.9808433 0.1281863 0.9808433 0.1281863 0.0191567 -0.1281863
1297000000 0.0184738 -0.1255271 0.9815262 0.1255271 0.9815262 0.1255271 0.0184738 -0.1255271
1318000000 0.0178241 -0.1229370 0.9821759 0.1229370 0.9821759 0.1229370 0.0178241 -0.1229370
1339000000 0.0172058 -0.1204132 0.9827942 0.1204132 0.9827942 0.1204132 0.0172058 -0.1204132
1360000000 0.0166170 -0.1179528 0.9833830 0.1179528 0.9833830 0.1179528 0.0166170 -0.1179528
1381000000 0.0160560 -0.1155531 0.9839440 0.1155531 0.9839440 0.1155531 0.0160560 -0.1155531
1402000000 0.0155213 -0.1132118 0.9844787 0.1132118 0.9844787 0.1132118 0.0155213 -0.1132118
1423000000 0.0150112 -0.1109264 0.9849888 0.1109264 0.9849888 0.1109264 0.0150112 -0.1109264
1444000000 0.0145245 -0.1086946 0.9854755 0.1086946 0.9854755 0.1086946 0.0145245 -0.1086946
1465000000 0.0140599 -0.1065144 0.9859401 0.1065144 0.9859401 0.1065144 0.0140599 -0.1065144
1486000000 0.0136162 -0.1043836 0.9863838 0.1043836 0.9863838 0.1043836 0.0136162 -0.1043836
1507000000 0.0131923 -0.1023005 0.9868077 0.1023005 0.9868077 0.1023005 0.0131923 -0.1023005
1528000000 0.0127871 -0.1002632 0.9872129 0.1002632 0.9872129 0.1002632 0.0127871 -0.1002632
1549000000 0.0123997 -0.0982700 0.9876003 0.0982700 0.9876003 0.0982700 0.0123997 -0.0982700
1570000000 0.0120291 -0.0963191 0.9879709 0.0963191 0.9879709 0.0963191 0.0120291 -0.0963191
1591000000 0.0116746 -0.0944091 0.9883254 0.0944091 0.9883254 0.0944091 0.0116746 -0.0944091
1612000000 0.0113352 -0.0925384 0.9886648 0.0925384 0.9886648 0.0925384 0.0113352 -0.0925384
1633000000 0.0110103 -0.0907056 0.9889897 0.0907056 0.9889897 0.0907056 0.0110103 -0.0907056
1654000000 0.0106992 -0.0889095 0.9893008 0.0889095 0.9893008 0.0889095 0.0106992 -0.0889095
1675000000 0.0104012 -0.0871486 0.9895988 0.0871486 0.9895988 0.0871486 0.0104012 -0.0871486
1696000000 0.0101156 -0.0854217 0.9898844 0.0854217 0.9898844 0.0854217 0.0101156 -0.0854217
1717000000 0.0098419 -0.0837277 0.9901581 0.0837277 0.9901581 0.0837277 0.0098419 -0.0837277
1738000000 0.0095795 -0.0820655 0.9904205 0.0820655 0.9904205 0.0820655 0.0095795 -0.0820655
1759000000 0.0093280 -0.0804339 0.9906720 0.0804339 0.9906720 0.0804339 0.0093280 -0.0804339
1780000000 0.0090868 -0.0788320 0.9909132 0.0788320 0.9909132 0.0788320 0.0090868 -0.0788320
1801000000 0.0088554 -0.0772588 0.9911446 0.0772588 0.9911446 0.0772588 0.0088554 -0.0772588
1822000000 0.0086335 -0.0757133 0.9913665 0.0757133 0.9913665 0.0757133 0.0086335 -0.0757133
1843000000 0.0084206 -0.0741946 0.9915794 0.0741946 0.9915794 0.0741946 0.0084206 -0.0741946
1864000000 0.0082163 -0.0727019 0.9917837 0.0727019 0.9917837 0.0727019 0.0082163 -0.0727019
1885000000 0.0080203 -0.0712343 0.9919797 0.0712343 0.9919797 0.0712343 0.0080203 -0.0712343
1906000000 0.0078321 -0.0697910 0.9921679 0.0697910 0.9921679 0.0697910 0.0078321 -0.0697910
1927000000 0.0076516 -0.0683714 0.9923484 0.0683714 0.9923484 0.0683714 0.0076516 -0.0683714
1948000000 0.0074783 -0.0669746 0.9925217 0.0669746 0.9925217 0.0669746 0.0074783 -0.0669746
1969000000 0.0073119 -0.0656000 0.9926881 0.0656000 0.9926881 0.0656000 0.0073119 -0.0656000
1990000000 0.0071523 -0.0642469 0.9928477 0.0642469 0.9928477 0.0642469 0.0071523 -0.0642469
2011000000 0.0069990 -0.0629146 0.9930010 0.0629146 0.9930010 0.0629146 0.0069990 -0.0629146
2032000000 0.0068519 -0.0616026 0.9931481 0.0616026 0.9931481 0.0616026 0.0068519 -0.0616026
2053000000 0.0067107 -0.0603102 0.9932893 0.0603102 0.9932893 0.0603102 0.0067107 -0.0603102
2074000000 0.0065752 -0.0590369 0.9934248 0.0590369 0.9934248 0.0590369 0.0065752 -0.0590369
2095000000 0.0064452 -0.0577821 0.9935548 0.0577821 0.9935548 0.0577821 0.0064452 -0.0577821
2116000000 0.0063204 -0.0565453 0.9936796 0.0565453 0.9936796 0.0565453 0.0063204 -0.0565453
2137000000 0.0062007 -0.0553259 0.9937993 0.0553259 0.9937993 0.0553259 0.0062007 -0.0553259
2158000000 0.0060859 -0.0541235 0.9939141 0.0541235 0.9939141 0.0541235 0.0060859 -0.0541235
2179000000 0.0059757 -0.0529377 0.9940243 0.0529377 0.9940243 0.0529377 0.0059757 -0.0529377
2200000000 0.0058701 -0.0517679 0.9941299 0.0517679 0.9941299 0.0517679 0.0058701 -0.0517679
2221000000 0.0057689 -0.0506137 0.9942311 0.0506137 0.9942311 0.0506137 0.0057689 -0.0506137
2242000000 0.0056718 -0.0494747 0.9943282 0.0494747 0.9943282 0.0494747 0.0056718 -0.0494747
2263000000 0.0055788 -0.0483505 0.9944212 0.0483505 0.9944212 0.0483505 0.0055788 -0.0483505
2284000000 0.0054897 -0.0472407 0.9945103 0.0472407 0.9945103 0.0472407 0.0054897 -0.0472407
2305000000 0.0054043 -0.0461449 0.9945957 0.0461449 0.9945957 0.0461449 0.0054043 -0.0461449
2326000000 0.0053226 -0.0450627 0.9946774 0.0450627 0.9946774 0.0450627 0.0053226 -0.0450627
2347000000 0.0052444 -0.0439938 0.9947556 0.0439938 0.9947556 0.0439938 0.0052444 -0.0439938
2368000000 0.0051697 -0.0429379 0.9948303 0.0429379 0.9948303 0.0429379 0.0051697 -0.0429379
2389000000 0.0050982 -0.0418946 0.9949018 0.0418946 0.9949018 0.0418946 0.0050982 -0.0418946
2410000000 0.0050299 -0.0408635 0.9949701 0.0408635 0.9949701 0.0408635 0.0050299 -0.0408635
2431000000 0.0049646 -0.0398445 0.9950354 0.0398445 0.9950354 0.0398445 0.0049646 -0.0398445
2452000000 0.0049023 -0.0388371 0.9950977 0.0388371 0.9950977 0.0388371 0.0049023 -0.0388371
2473000000 0.0048429 -0.0378411 0.9951571 0.0378411 0.9951571 0.0378411 0.0048429 -0.0378411
2494000000 0.0047863 -0.0368563 0.9952137 0.0368563 0.9952137 0.0368563 0.0047863 -0.0368563
2515000000 0.0047324 -0.0358822 0.9952676 0.0358822 0.9952676 0.0358822 0.0047324 -0.0358822
2536000000 0.0046811 -0.0349188 0.9953189 0.0349188 0.9953189 0.0349188 0.0046811 -0.0349188
2557000000 0.0046324 -0.0339656 0.9953676 0.0339656 0.9953676 0.0339656 0.0046324 -0.0339656
2578000000 0.0045861 -0.0330226 0.9954139 0.0330226 0.9954139 0.0330226 0.0045861 -0.0330226
2599000000 0.0045421 -0.0320894 0.9954579 0.0320894 0.9954579 0.0320894 0.0045421 -0.0320894
2620000000 0.0045005 -0.0311658 0.9954995 0.0311658 0.9954995 0.0311658 0.0045005 -0.0311658
2641000000 0.0044611 -0.0302515 0.9955389 0.0302515 0.9955389 0.0302515 0.0044611 -0.0302515
2662000000 0.0044239 -0.0293464 0.9955761 0.0293464 0.9955761 0.0293464 0.0044239 -0.0293464
2683000000 0.0043888 -0.0284503 0.9956112 0.0284503 0.9956112 0.0284503 0.0043888 -0.0284503
2704000000 0.0043558 -0.0275629 0.9956442 0.0275629 0.9956442 0.0275629 0.0043558 -0.0275629
2725000000 0.0043247 -0.0266841 0.9956753 0.0266841 0.9956753 0.0266841 0.0043247 -0.0266841
2746000000 0.0042956 -0.0258136 0.9957044 0.0258136 0.9957044 0.0258136 0.0042956 -0.0258136
2767000000 0.0042683 -0.0249513 0.9957317 0.0249513 0.9957317 0.0249513 0.0042683 -0.0249513
2788000000 0.0042429 -0.0240970 0.9957571 0.0240970 0.9957571 0.0240970 0.0042429 -0.0240970
2809000000 0.0042193 -0.0232505 0.9957807 0.0232505 0.9957807 0.0232505 0.0042193 -0.0232505
2830000000 0.0041974 -0.0224116 0.9958026 0.0224116 0.9958026 0.0224116 0.0041974 -0.0224116
2851000000 0.0041772 -0.0215802 0.9958228 0.0215802 0.9958228 0.0215802 0.0041772 -0.0215802
2872000000 0.0041586 -0.0207561 0.9958414 0.0207561 0.9958414 0.0207561 0.0041586 -0.0207561
2893000000 0.0041416 -0.0199391 0.9958584 0.0199391 0.9958584 0.0199391 0.0041416 -0.0199391
2914000000 0.0041262 -0.0191291 0.9958738 0.0191291 0.9958738 0.0191291 0.0041262 -0.0191291
2935000000 0.0041122 -0.0183260 0.9958878 0.0183260 0.9958878 0.0183260 0.0041122 -0.0183260
2956000000 0.0040998 -0.0175296 0.9959002 0.0175296 0.9959002 0.0175296 0.0040998 -0.0175296
2977000000 0.0040888 -0.0167398 0.9959112 0.0167398 0.9959112 0.0167398 0.0040888 -0.0167398
2998000000 0.0040792 -0.0159563 0.9959208 0.0159563 0.9959208 0.0159563 0.0040792 -0.0159563
3019000000 0.0040710 -0.0151792 0.9959290 0.0151792 0.9959290 0.0151792 0.0040710 -0.0151792
3040000000 0.0040641 -0.0144082 0.9959359 0.0144082 0.9959359 0.0144082 0.0040641 -0.0144082
3061000000 0.0040585 -0.0136432 0.9959415 0.0136432 0.9959415 0.0136432 0.0040585 -0.0136432
3082000000 0.0040541 -0.0128842 0.9959459 0.0128842 0.9959459 0.0128842 0.0040541 -0.0128842
3103000000 0.0040510 -0.0121310 0.9959490 0.0121310 0.9959490 0.0121310 0.0040510 -0.0121310
3124000000 0.0040492 -0.0113834 0.9959508 0.0113834 0.9959508 0.0113834 0.0040492 -0.0113834
3145000000 0.0040485 -0.0106414 0.9959515 0.0106414 0.9959515 0.0106414 0.0040485 -0.0106414
3166000000 0.0040489 -0.0099048 0.9959511 0.0099048 0.9959511 0.0099048 0.0040489 -0.0099048
3187000000 0.0040505 -0.0091736 0.9959495 0.0091736 0.9959495 0.0091736 0.0040505 -0.0091736
3208000000 0.0040533 -0.0084476 0.9959467 0.0084476 0.9959467 0.0084476 0.0040533 -0.0084476
3229000000 0.0040570 -0.0077267 0.9959430 0.0077267 0.9959430 0.0077267 0.0040570 -0.0077267
3250000000 0.0040619 -0.0070109 0.9959381 0.0070109 0.9959381 0.0070109 0.0040619 -0.0070109
3271000000 0.0040678 -0.0063000 0.9959322 0.0063000 0.9959322 0.0063000 0.0040678 -0.0063000
3292000000 0.0040747 -0.0055939 0.9959253 0.0055939 0.9959253 0.0055939 0.0040747 -0.0055939
3313000000 0.0040826 -0.0048926 0.9959174 0.0048926 0.9959174 0.0048926 0.0040826 -0.0048926
3334000000 0.0040915 -0.0041959 0.9959085 0.0041959 0.9959085 0.0041959 0.0040915 -0.0041959
3355000000 0.0041013 -0.0035039 0.9958987 0.0035039 0.9958987 0.0035039 0.0041013 -0.0035039
3376000000 0.0041120 -0.0028163 0.9958880 0.0028163 0.9958880 0.0028163 0.0041120 -0.0028163
3397000000 0.0041237 -0.0021330 0.9958763 0.0021330 0.9958763 0.0021330 0.0041237 -0.0021330
3418000000 0.0041363 -0.0014541 0.9958637 0.0014541 0.9958637 0.0014541 0.0041363 -0.0014541
3439000000 0.0041497 -0.0007795 0.9958503 0.0007795 0.9958503 0.0007795 0.0041497 -0.0007795
3460000000 0.0041641 -0.0001090 0.9958359 0.0001090 0.9958359 0.0001090 0.0041641 -0.0001090
3481000000 0.0041792 0.0005575 0.9958208 -0.0005575 0.9958208 -0.0005575 0.0041792 0.0005575
3502000000 0.0041952 0.0012199 0.9958048 -0.0012199 0.9958048 -0.0012199 0.0041952 0.0012199
3523000000 0.0042120 0.0018784 0.9957880 -0.0018784 0.9957880 -0.0018784 0.0042120 0.0018784
3544000000 0.0042297 0.0025330 0.9957703 -0.0025330 0.9957703 -0.0025330 0.0042297 0.0025330
3565000000 0.0042481 0.0031839 0.9957519 -0.0031839 0.9957519 -0.0031839 0.0042481 0.0031839
3586000000 0.0042673 0.0038310 0.9957327 -0.0038310 0.9957327 -0.0038310 0.0042673 0.0038310
3607000000 0.0042872 0.0044745 0.9957128 -0.0044745 0.9957128 -0.0044745 0.0042872 0.0044745
3628000000 0.0043079 0.0051144 0.9956921 -0.0051144 0.9956921 -0.0051144 0.0043079 0.0051144
3649000000 0.0043294 0.0057508 0.9956706 -0.0057508 0.9956706 -0.0057508 0.0043294 0.0057508
3670000000 0.0043516 0.0063837 0.9956484 -0.0063837 0.9956484 -0.0063837 0.0043516 0.0063837
3691000000 0.0043744 0.0070132 0.9956256 -0.0070132 0.9956256 -0.0070132 0.0043744 0.0070132
3712000000 0.0043980 0.0076393 0.9956020 -0.0076393 0.9956020 -0.0076393 0.0043980 0.0076393
3733000000 0.0044223 0.0082622 0.9955777 -0.0082622 0.9955777 -0.0082622 0.0044223 0.0082622
3754000000 0.0044473 0.0088818 0.9955527 -0.0088818 0.9955527 -0.0088818 0.0044473 0.0088818
3775000000 0.0044729 0.0094983 0.9955271 -0.0094983 0.9955271 -0.0094983 0.0044729 0.0094983
3796000000 0.0044992 0.0101117 0.9955008 -0.0101117 0.9955008 -0.0101117 0.0044992 0.0101117
3817000000 0.0045262 0.0107220 0.9954738 -0.0107220 0.9954738 -0.0107220 0.0045262 0.0107220
3838000000 0.0045538 0.0113292 0.9954462 -0.0113292 0.9954462 -0.0113292 0.0045538 0.0113292
3859000000 0.0045820 0.0119336 0.9954180 -0.0119336 0.9954180 -0.0119336 0.0045820 0.0119336
3880000000 0.0046109 0.0125350 0.9953891 -0.0125350 0.9953891 -0.0125350 0.0046109 0.0125350
3901000000 0.0046404 0.0131335 0.9953596 -0.0131335 0.9953596 -0.0131335 0.0046404 0.0131335
3922000000 0.0046705 0.0137293 0.9953295 -0.0137293 0.9953295 -0.0137293 0.0046705 0.0137293
3943000000 0.0047012 0.0143223 0.9952988 -0.0143223 0.9952988 -0.0143223 0.0047012 0.0143223
3964000000 0.0047325 0.0149125 0.9952675 -0.0149125 0.9952675 -0.0149125 0.0047325 0.0149125
3985000000 0.0047644 0.0155001 0.9952356 -0.0155001 0.9952356 -0.0155001 0.0047644 0.0155001
4006000000 0.0047969 0.0160850 0.9952031 -0.0160850 0.9952031 -0.0160850 0.0047969 0.0160850
4027000000 0.0048300 0.0166674 0.9951700 -0.0166674 0.9951700 -0.0166674 0.0048300 0.0166674
4048000000 0.0048636 0.0172472 0.9951364 -0.0172472 0.9951364 -0.0172472 0.0048636 0.0172472
4069000000 0.0048978 0.0178245 0.9951022 -0.0178245 0.9951022 -0.0178245 0.0048978 0.0178245
4090000000 0.0049326 0.0183994 0.9950674 -0.0183994 0.9950674 -0.0183994 0.0049326 0.0183994
4111000000 0.0049679 0.0189718 0.9950321 -0.0189718 0.9950321 -0.0189718 0.0049679 0.0189718
4132000000 0.0050037 0.0195419 0.9949963 -0.0195419 0.9949963 -0.0195419 0.0050037 0.0195419
4153000000 0.0050401 0.0201096 0.9949599 -0.0201096 0.9949599 -0.0201096 0.0050401 0.0201096
4174000000 0.0050771 0.0206750 0.9949229 -0.0206750 0.9949229 -0.0206750 0.0050771 0.0206750
4195000000 0.0051145 0.0212381 0.9948855 -0.0212381 0.9948855 -0.0212381 0.0051145 0.0212381
4216000000 0.0051525 0.0217990 0.9948475 -0.0217990 0.9948475 -0.0217990 0.0051525 0.0217990
4237000000 0.0051910 0.0223577 0.9948090 -0.0223577 0.9948090 -0.0223577 0.0051910 0.0223577
4258000000 0.0052301 0.0229142 0.9947699 -0.0229142 0.9947699 -0.0229142 0.0052301 0.0229142
4279000000 0.0052696 0.0234686 0.9947304 -0.0234686 0.9947304 -0.0234686 0.0052696 0.0234686
4300000000 0.0053097 0.0240209 0.9946903 -0.0240209 0.9946903 -0.0240209 0.0053097 0.0240209
4321000000 0.0053503 0.0245712 0.9946497 -0.0245712 0.9946497 -0.0245712 0.0053503 0.0245712
4342000000 0.0053914 0.0251194 0.9946086 -0.0251194 0.9946086 -0.0251194 0.0053914 0.0251194
4363000000 0.0054329 0.0256656 0.9945671 -0.0256656 0.9945671 -0.0256656 0.0054329 0.0256656
4384000000 0.0054750 0.0262098 0.9945250 -0.0262098 0.9945250 -0.0262098 0.0054750 0.0262098
4405000000 0.0055176 0.0267521 0.9944824 -0.0267521 0.9944824 -0.0267521 0.0055176 0.0267521
4426000000 0.0055606 0.0272925 0.9944394 -0.0272925 0.9944394 -0.0272925 0.0055606 0.0272925
4447000000 0.0056042 0.0278310 0.9943958 -0.0278310 0.9943958 -0.0278310 0.0056042 0.0278310
4468000000 0.0056482 0.0283677 0.9943518 -0.0283677 0.9943518 -0.0283677 0.0056482 0.0283677
4489000000 0.0056927 0.0289025 0.9943073 -0.0289025 0.9943073 -0.0289025 0.0056927 0.0289025
4510000000 0.0057377 0.0294355 0.9942623 -0.0294355 0.9942623 -0.0294355 0.0057377 0.0294355
