!Murata Part Number: GRM0332C1H4R8WA01
!These Parameters are Measured in Series Mode Connection
!Data Generated on Mar 30, 2021
!       o--ll--o
!Port1            Port2
!       o------o
!Operation Temp=25[degC], DC Bias Voltage=0[V]
!Freq. Start=100[MHz] Stop=9[GHz] 401[Steps]
# Hz S RI R 50
!Freq.(Hz) S11(Real) S11(Imag) S21(Real) S21(Imag) S12(Real) S12(Imag) S22(Real) S22(Imag)
100000000 0.9163966 -0.2764673 0.0836034 0.2764673 0.0836034 0.2764673 0.9163966 -0.2764673
121000000 0.8821275 -0.3220635 0.1178725 0.3220635 0.1178725 0.3220635 0.8821275 -0.3220635
142000000 0.8445127 -0.3619061 0.1554873 0.3619061 0.1554873 0.3619061 0.8445127 -0.3619061
163000000 0.8046808 -0.3959145 0.1953192 0.3959145 0.1953192 0.3959145 0.8046808 -0.3959145
184000000 0.7636556 -0.4242348 0.2363444 0.4242348 0.2363444 0.4242348 0.7636556 -0.4242348
205000000 0.7223187 -0.4471840 0.2776813 0.4471840 0.2776813 0.4471840 0.7223187 -0.4471840
226000000 0.6813934 -0.4651943 0.3186066 0.4651943 0.3186066 0.4651943 0.6813934 -0.4651943
247000000 0.6414455 -0.4787633 0.3585545 0.4787633 0.3585545 0.4787633 0.6414455 -0.4787633
268000000 0.6028945 -0.4884140 0.3971055 0.4884140 0.3971055 0.4884140 0.6028945 -0.4884140
289000000 0.5660326 -0.4946643 0.4339674 0.4946643 0.4339674 0.4946643 0.5660326 -0.4946643
310000000 0.5310450 -0.4980064 0.4689550 0.4980064 0.4689550 0.4980064 0.5310450 -0.4980064
331000000 0.4980310 -0.4988939 0.5019690 0.4988939 0.5019690 0.4988939 0.4980310 -0.4988939
352000000 0.4670237 -0.4977351 0.5329763 0.4977351 0.5329763 0.4977351 0.4670237 -0.4977351
373000000 0.4380059 -0.4948908 0.5619941 0.4948908 0.5619941 0.4948908 0.4380059 -0.4948908
394000000 0.4109251 -0.4906751 0.5890749 0.4906751 0.5890749 0.4906751 0.4109251 -0.4906751
415000000 0.3857038 -0.4853581 0.6142962 0.4853581 0.6142962 0.4853581 0.3857038 -0.4853581
436000000 0.3622492 -0.4791700 0.6377508 0.4791700 0.6377508 0.4791700 0.3622492 -0.4791700
457000000 0.3404592 -0.4723051 0.6595408 0.4723051 0.6595408 0.4723051 0.3404592 -0.4723051
478000000 0.3202280 -0.4649264 0.6797720 0.4649264 0.6797720 0.4649264 0.3202280 -0.4649264
499000000 0.3014495 -0.4571697 0.6985505 0.4571697 0.6985505 0.4571697 0.3014495 -0.4571697
520000000 0.2840195 -0.4491471 0.7159805 0.4491471 0.7159805 0.4491471 0.2840195 -0.4491471
541000000 0.2678380 -0.4409515 0.7321620 0.4409515 0.7321620 0.4409515 0.2678380 -0.4409515
562000000 0.2528100 -0.4326583 0.7471900 0.4326583 0.7471900 0.4326583 0.2528100 -0.4326583
583000000 0.2388461 -0.4243293 0.7611539 0.4243293 0.7611539 0.4243293 0.2388461 -0.4243293
604000000 0.2258627 -0.4160142 0.7741373 0.4160142 0.7741373 0.4160142 0.2258627 -0.4160142
625000000 0.2137823 -0.4077530 0.7862177 0.4077530 0.7862177 0.4077530 0.2137823 -0.4077530
646000000 0.2025332 -0.3995773 0.7974668 0.3995773 0.7974668 0.3995773 0.2025332 -0.3995773
667000000 0.1920494 -0.3915120 0.8079506 0.3915120 0.8079506 0.3915120 0.1920494 -0.3915120
688000000 0.1822702 -0.3835764 0.8177298 0.3835764 0.8177298 0.3835764 0.1822702 -0.3835764
709000000 0.1731399 -0.3757852 0.8268601 0.3757852 0.8268601 0.3757852 0.1731399 -0.3757852
730000000 0.1646074 -0.3681492 0.8353926 0.3681492 0.8353926 0.3681492 0.1646074 -0.3681492
751000000 0.1566260 -0.3606760 0.8433740 0.3606760 0.8433740 0.3606760 0.1566260 -0.3606760
772000000 0.1491531 -0.3533709 0.8508469 0.3533709 0.8508469 0.3533709 0.1491531 -0.3533709
793000000 0.1421496 -0.3462369 0.8578504 0.3462369 0.8578504 0.3462369 0.1421496 -0.3462369
814000000 0.1355797 -0.3392753 0.8644203 0.3392753 0.8644203 0.3392753 0.1355797 -0.3392753
835000000 0.1294107 -0.3324863 0.8705893 0.3324863 0.8705893 0.3324863 0.1294107 -0.3324863
856000000 0.1236128 -0.3258687 0.8763872 0.3258687 0.8763872 0.3258687 0.1236128 -0.3258687
877000000 0.1181587 -0.3194207 0.8818413 0.3194207 0.8818413 0.3194207 0.1181587 -0.3194207
898000000 0.1130232 -0.3131396 0.8869768 0.3131396 0.8869768 0.3131396 0.1130232 -0.3131396
919000000 0.1081834 -0.3070223 0.8918166 0.3070223 0.8918166 0.3070223 0.1081834 -0.3070223
940000000 0.1036184 -0.3010654 0.8963816 0.3010654 0.8963816 0.3010654 0.1036184 -0.3010654
961000000 0.0993087 -0.2952650 0.9006913 0.2952650 0.9006913 0.2952650 0.0993087 -0.2952650
982000000 0.0952366 -0.2896171 0.9047634 0.2896171 0.9047634 0.2896171 0.0952366 -0.2896171
1003000000 0.0913860 -0.2841175 0.9086140 0.2841175 0.9086140 0.2841175 0.0913860 -0.2841175
1024000000 0.0877417 -0.2787621 0.9122583 0.2787621 0.9122583 0.2787621 0.0877417 -0.2787621
1045000000 0.0842901 -0.2735464 0.9157099 0.2735464 0.9157099 0.2735464 0.0842901 -0.2735464
1066000000 0.0810183 -0.2684664 0.9189817 0.2684664 0.9189817 0.2684664 0.0810183 -0.2684664
1087000000 0.0779148 -0.2635176 0.9220852 0.2635176 0.9220852 0.2635176 0.0779148 -0.2635176
1108000000 0.0749686 -0.2586958 0.9250314 0.2586958 0.9250314 0.2586958 0.0749686 -0.2586958
1129000000 0.0721699 -0.2539971 0.9278301 0.2539971 0.9278301 0.2539971 0.0721699 -0.2539971
1150000000 0.0695093 -0.2494172 0.9304907 0.2494172 0.9304907 0.2494172 0.0695093 -0.2494172
1171000000 0.0669783 -0.2449523 0.9330217 0.2449523 0.9330217 0.2449523 0.0669783 -0.2449523
1192000000 0.0645691 -0.2405984 0.9354309 0.2405984 0.9354309 0.2405984 0.0645691 -0.2405984
1213000000 0.0622742 -0.2363520 0.9377258 0.2363520 0.9377258 0.2363520 0.0622742 -0.2363520
1234000000 0.0600870 -0.2322092 0.9399130 0.2322092 0.9399130 0.2322092 0.0600870 -0.2322092
1255000000 0.0580009 -0.2281667 0.9419991 0.2281667 0.9419991 0.2281667 0.0580009 -0.2281667
1276000000 0.0560103 -0.2242209 0.9439897 0.2242209 0.9439897 0.2242209 0.0560103 -0.2242209
1297000000 0.0541095 -0.2203686 0.9458905 0.2203686 0.9458905 0.2203686 0.0541095 -0.2203686
1318000000 0.0522936 -0.2166067 0.9477064 0.2166067 0.9477064 0.2166067 0.0522936 -0.2166067
1339000000 0.0505577 -0.2129320 0.9494423 0.2129320 0.9494423 0.2129320 0.0505577 -0.2129320
1360000000 0.0488975 -0.2093417 0.9511025 0.2093417 0.9511025 0.2093417 0.0488975 -0.2093417
1381000000 0.0473089 -0.2058329 0.9526911 0.2058329 0.9526911 0.2058329 0.0473089 -0.2058329
1402000000 0.0457879 -0.2024027 0.9542121 0.2024027 0.9542121 0.2024027 0.0457879 -0.2024027
1423000000 0.0443310 -0.1990487 0.9556690 0.1990487 0.9556690 0.1990487 0.0443310 -0.1990487
1444000000 0.0429348 -0.1957683 0.9570652 0.1957683 0.9570652 0.1957683 0.0429348 -0.1957683
1465000000 0.0415961 -0.1925590 0.9584039 0.1925590 0.9584039 0.1925590 0.0415961 -0.1925590
1486000000 0.0403120 -0.1894185 0.9596880 0.1894185 0.9596880 0.1894185 0.0403120 -0.1894185
1507000000 0.0390797 -0.1863445 0.9609203 0.1863445 0.9609203 0.1863445 0.0390797 -0.1863445
1528000000 0.0378967 -0.1833348 0.9621033 0.1833348 0.9621033 0.1833348 0.0378967 -0.1833348
1549000000 0.0367604 -0.1803874 0.9632396 0.1803874 0.9632396 0.1803874 0.0367604 -0.1803874
1570000000 0.0356685 -0.1775003 0.9643315 0.1775003 0.9643315 0.1775003 0.0356685 -0.1775003
1591000000 0.0346190 -0.1746716 0.9653810 0.1746716 0.9653810 0.1746716 0.0346190 -0.1746716
1612000000 0.0336098 -0.1718993 0.9663902 0.1718993 0.9663902 0.1718993 0.0336098 -0.1718993
1633000000 0.0326389 -0.1691817 0.9673611 0.1691817 0.9673611 0.1691817 0.0326389 -0.1691817
1654000000 0.0317047 -0.1665170 0.9682953 0.1665170 0.9682953 0.1665170 0.0317047 -0.1665170
1675000000 0.0308052 -0.1639037 0.9691948 0.1639037 0.9691948 0.1639037 0.0308052 -0.1639037
1696000000 0.0299391 -0.1613402 0.9700609 0.1613402 0.9700609 0.1613402 0.0299391 -0.1613402
1717000000 0.0291047 -0.1588248 0.9708953 0.1588248 0.9708953 0.1588248 0.0291047 -0.1588248
1738000000 0.0283007 -0.1563562 0.9716993 0.1563562 0.9716993 0.1563562 0.0283007 -0.1563562
1759000000 0.0275256 -0.1539329 0.9724744 0.1539329 0.9724744 0.1539329 0.0275256 -0.1539329
1780000000 0.0267782 -0.1515536 0.9732218 0.1515536 0.9732218 0.1515536 0.0267782 -0.1515536
1801000000 0.0260574 -0.1492169 0.9739426 0.1492169 0.9739426 0.1492169 0.0260574 -0.1492169
1822000000 0.0253619 -0.1469215 0.9746381 0.1469215 0.9746381 0.1469215 0.0253619 -0.1469215
1843000000 0.0246906 -0.1446664 0.9753094 0.1446664 0.9753094 0.1446664 0.0246906 -0.1446664
1864000000 0.0240426 -0.1424502 0.9759574 0.1424502 0.9759574 0.1424502 0.0240426 -0.1424502
1885000000 0.0234169 -0.1402719 0.9765831 0.1402719 0.9765831 0.1402719 0.0234169 -0.1402719
1906000000 0.0228126 -0.1381304 0.9771874 0.1381304 0.9771874 0.1381304 0.0228126 -0.1381304
1927000000 0.0222287 -0.1360245 0.9777713 0.1360245 0.9777713 0.1360245 0.0222287 -0.1360245
1948000000 0.0216645 -0.1339534 0.9783355 0.1339534 0.9783355 0.1339534 0.0216645 -0.1339534
1969000000 0.0211192 -0.1319160 0.9788808 0.1319160 0.9788808 0.1319160 0.0211192 -0.1319160
1990000000 0.0205919 -0.1299114 0.9794081 0.1299114 0.9794081 0.1299114 0.0205919 -0.1299114
2011000000 0.0200821 -0.1279387 0.9799179 0.1279387 0.9799179 0.1279387 0.0200821 -0.1279387
2032000000 0.0195890 -0.1259969 0.9804110 0.1259969 0.9804110 0.1259969 0.0195890 -0.1259969
2053000000 0.0191119 -0.1240853 0.9808881 0.1240853 0.9808881 0.1240853 0.0191119 -0.1240853
2074000000 0.0186503 -0.1222031 0.9813497 0.1222031 0.9813497 0.1222031 0.0186503 -0.1222031
2095000000 0.0182036 -0.1203493 0.9817964 0.1203493 0.9817964 0.1203493 0.0182036 -0.1203493
2116000000 0.0177712 -0.1185234 0.9822288 0.1185234 0.9822288 0.1185234 0.0177712 -0.1185234
2137000000 0.0173526 -0.1167245 0.9826474 0.1167245 0.9826474 0.1167245 0.0173526 -0.1167245
2158000000 0.0169472 -0.1149519 0.9830528 0.1149519 0.9830528 0.1149519 0.0169472 -0.1149519
2179000000 0.0165547 -0.1132050 0.9834453 0.1132050 0.9834453 0.1132050 0.0165547 -0.1132050
2200000000 0.0161744 -0.1114830 0.9838256 0.1114830 0.9838256 0.1114830 0.0161744 -0.1114830
2221000000 0.0158061 -0.1097853 0.9841939 0.1097853 0.9841939 0.1097853 0.0158061 -0.1097853
2242000000 0.0154492 -0.1081114 0.9845508 0.1081114 0.9845508 0.1081114 0.0154492 -0.1081114
2263000000 0.0151034 -0.1064606 0.9848966 0.1064606 0.9848966 0.1064606 0.0151034 -0.1064606
2284000000 0.0147683 -0.1048322 0.9852317 0.1048322 0.9852317 0.1048322 0.0147683 -0.1048322
2305000000 0.0144434 -0.1032259 0.9855566 0.1032259 0.9855566 0.1032259 0.0144434 -0.1032259
2326000000 0.0141286 -0.1016409 0.9858714 0.1016409 0.9858714 0.1016409 0.0141286 -0.1016409
2347000000 0.0138233 -0.1000768 0.9861767 0.1000768 0.9861767 0.1000768 0.0138233 -0.1000768
2368000000 0.0135273 -0.0985330 0.9864727 0.0985330 0.9864727 0.0985330 0.0135273 -0.0985330
2389000000 0.0132403 -0.0970092 0.9867597 0.0970092 0.9867597 0.0970092 0.0132403 -0.0970092
2410000000 0.0129621 -0.0955047 0.9870379 0.0955047 0.9870379 0.0955047 0.0129621 -0.0955047
2431000000 0.0126922 -0.0940191 0.9873078 0.0940191 0.9873078 0.0940191 0.0126922 -0.0940191
2452000000 0.0124304 -0.0925519 0.9875696 0.0925519 0.9875696 0.0925519 0.0124304 -0.0925519
2473000000 0.0121765 -0.0911028 0.9878235 0.0911028 0.9878235 0.0911028 0.0121765 -0.0911028
2494000000 0.0119303 -0.0896713 0.9880697 0.0896713 0.9880697 0.0896713 0.0119303 -0.0896713
2515000000 0.0116914 -0.0882570 0.9883086 0.0882570 0.9883086 0.0882570 0.0116914 -0.0882570
2536000000 0.0114597 -0.0868595 0.9885403 0.0868595 0.9885403 0.0868595 0.0114597 -0.0868595
2557000000 0.0112348 -0.0854783 0.9887652 0.0854783 0.9887652 0.0854783 0.0112348 -0.0854783
2578000000 0.0110168 -0.0841132 0.9889832 0.0841132 0.9889832 0.0841132 0.0110168 -0.0841132
2599000000 0.0108052 -0.0827637 0.9891948 0.0827637 0.9891948 0.0827637 0.0108052 -0.0827637
2620000000 0.0105999 -0.0814295 0.9894001 0.0814295 0.9894001 0.0814295 0.0105999 -0.0814295
2641000000 0.0104008 -0.0801103 0.9895992 0.0801103 0.9895992 0.0801103 0.0104008 -0.0801103
2662000000 0.0102076 -0.0788056 0.9897924 0.0788056 0.9897924 0.0788056 0.0102076 -0.0788056
2683000000 0.0100202 -0.0775153 0.9899798 0.0775153 0.9899798 0.0775153 0.0100202 -0.0775153
2704000000 0.0098384 -0.0762389 0.9901616 0.0762389 0.9901616 0.0762389 0.0098384 -0.0762389
2725000000 0.0096620 -0.0749762 0.9903380 0.0749762 0.9903380 0.0749762 0.0096620 -0.0749762
2746000000 0.0094909 -0.0737268 0.9905091 0.0737268 0.9905091 0.0737268 0.0094909 -0.0737268
2767000000 0.0093250 -0.0724905 0.9906750 0.0724905 0.9906750 0.0724905 0.0093250 -0.0724905
2788000000 0.0091640 -0.0712670 0.9908360 0.0712670 0.9908360 0.0712670 0.0091640 -0.0712670
2809000000 0.0090079 -0.0700560 0.9909921 0.0700560 0.9909921 0.0700560 0.0090079 -0.0700560
2830000000 0.0088565 -0.0688573 0.9911435 0.0688573 0.9911435 0.0688573 0.0088565 -0.0688573
2851000000 0.0087097 -0.0676705 0.9912903 0.0676705 0.9912903 0.0676705 0.0087097 -0.0676705
2872000000 0.0085674 -0.0664955 0.9914326 0.0664955 0.9914326 0.0664955 0.0085674 -0.0664955
2893000000 0.0084294 -0.0653319 0.9915706 0.0653319 0.9915706 0.0653319 0.0084294 -0.0653319
2914000000 0.0082957 -0.0641796 0.9917043 0.0641796 0.9917043 0.0641796 0.0082957 -0.0641796
2935000000 0.0081661 -0.0630383 0.9918339 0.0630383 0.9918339 0.0630383 0.0081661 -0.0630383
2956000000 0.0080404 -0.0619077 0.9919596 0.0619077 0.9919596 0.0619077 0.0080404 -0.0619077
2977000000 0.0079188 -0.0607877 0.9920812 0.0607877 0.9920812 0.0607877 0.0079188 -0.0607877
2998000000 0.0078009 -0.0596781 0.9921991 0.0596781 0.9921991 0.0596781 0.0078009 -0.0596781
3019000000 0.0076867 -0.0585786 0.9923133 0.0585786 0.9923133 0.0585786 0.0076867 -0.0585786
3040000000 0.0075762 -0.0574890 0.9924238 0.0574890 0.9924238 0.0574890 0.0075762 -0.0574890
3061000000 0.0074691 -0.0564091 0.9925309 0.0564091 0.9925309 0.0564091 0.0074691 -0.0564091
3082000000 0.0073656 -0.0553387 0.9926344 0.0553387 0.9926344 0.0553387 0.0073656 -0.0553387
3103000000 0.0072654 -0.0542777 0.9927346 0.0542777 0.9927346 0.0542777 0.0072654 -0.0542777
3124000000 0.0071685 -0.0532259 0.9928315 0.0532259 0.9928315 0.0532259 0.0071685 -0.0532259
3145000000 0.0070747 -0.0521830 0.9929253 0.0521830 0.9929253 0.0521830 0.0070747 -0.0521830
3166000000 0.0069841 -0.0511489 0.9930159 0.0511489 0.9930159 0.0511489 0.0069841 -0.0511489
3187000000 0.0068966 -0.0501234 0.9931034 0.0501234 0.9931034 0.0501234 0.0068966 -0.0501234
3208000000 0.0068121 -0.0491064 0.9931879 0.0491064 0.9931879 0.0491064 0.0068121 -0.0491064
3229000000 0.0067304 -0.0480976 0.9932696 0.0480976 0.9932696 0.0480976 0.0067304 -0.0480976
3250000000 0.0066516 -0.0470970 0.9933484 0.0470970 0.9933484 0.0470970 0.0066516 -0.0470970
3271000000 0.0065756 -0.0461044 0.9934244 0.0461044 0.9934244 0.0461044 0.0065756 -0.0461044
3292000000 0.0065024 -0.0451195 0.9934976 0.0451195 0.9934976 0.0451195 0.0065024 -0.0451195
3313000000 0.0064318 -0.0441424 0.9935682 0.0441424 0.9935682 0.0441424 0.0064318 -0.0441424
3334000000 0.0063638 -0.0431727 0.9936362 0.0431727 0.9936362 0.0431727 0.0063638 -0.0431727
3355000000 0.0062983 -0.0422105 0.9937017 0.0422105 0.9937017 0.0422105 0.0062983 -0.0422105
3376000000 0.0062354 -0.0412555 0.9937646 0.0412555 0.9937646 0.0412555 0.0062354 -0.0412555
3397000000 0.0061749 -0.0403076 0.9938251 0.0403076 0.9938251 0.0403076 0.0061749 -0.0403076
3418000000 0.0061168 -0.0393666 0.9938832 0.0393666 0.9938832 0.0393666 0.0061168 -0.0393666
3439000000 0.0060610 -0.0384326 0.9939390 0.0384326 0.9939390 0.0384326 0.0060610 -0.0384326
3460000000 0.0060076 -0.0375052 0.9939924 0.0375052 0.9939924 0.0375052 0.0060076 -0.0375052
3481000000 0.0059564 -0.0365844 0.9940436 0.0365844 0.9940436 0.0365844 0.0059564 -0.0365844
3502000000 0.0059074 -0.0356701 0.9940926 0.0356701 0.9940926 0.0356701 0.0059074 -0.0356701
3523000000 0.0058606 -0.0347622 0.9941394 0.0347622 0.9941394 0.0347622 0.0058606 -0.0347622
3544000000 0.0058159 -0.0338604 0.9941841 0.0338604 0.9941841 0.0338604 0.0058159 -0.0338604
3565000000 0.0057733 -0.0329649 0.9942267 0.0329649 0.9942267 0.0329649 0.0057733 -0.0329649
3586000000 0.0057327 -0.0320753 0.9942673 0.0320753 0.9942673 0.0320753 0.0057327 -0.0320753
3607000000 0.0056942 -0.0311916 0.9943058 0.0311916 0.9943058 0.0311916 0.0056942 -0.0311916
3628000000 0.0056576 -0.0303137 0.9943424 0.0303137 0.9943424 0.0303137 0.0056576 -0.0303137
3649000000 0.0056230 -0.0294416 0.9943770 0.0294416 0.9943770 0.0294416 0.0056230 -0.0294416
3670000000 0.0055902 -0.0285750 0.9944098 0.0285750 0.9944098 0.0285750 0.0055902 -0.0285750
3691000000 0.0055593 -0.0277139 0.9944407 0.0277139 0.9944407 0.0277139 0.0055593 -0.0277139
3712000000 0.0055303 -0.0268582 0.9944697 0.0268582 0.9944697 0.0268582 0.0055303 -0.0268582
3733000000 0.0055031 -0.0260078 0.9944969 0.0260078 0.9944969 0.0260078 0.0055031 -0.0260078
3754000000 0.0054776 -0.0251626 0.9945224 0.0251626 0.9945224 0.0251626 0.0054776 -0.0251626
3775000000 0.0054540 -0.0243225 0.9945460 0.0243225 0.9945460 0.0243225 0.0054540 -0.0243225
3796000000 0.0054320 -0.0234875 0.9945680 0.0234875 0.9945680 0.0234875 0.0054320 -0.0234875
3817000000 0.0054117 -0.0226573 0.9945883 0.0226573 0.9945883 0.0226573 0.0054117 -0.0226573
3838000000 0.0053931 -0.0218321 0.9946069 0.0218321 0.9946069 0.0218321 0.0053931 -0.0218321
3859000000 0.0053761 -0.0210116 0.9946239 0.0210116 0.9946239 0.0210116 0.0053761 -0.0210116
3880000000 0.0053607 -0.0201958 0.9946393 0.0201958 0.9946393 0.0201958 0.0053607 -0.0201958
3901000000 0.0053470 -0.0193845 0.9946530 0.0193845 0.9946530 0.0193845 0.0053470 -0.0193845
3922000000 0.0053348 -0.0185778 0.9946652 0.0185778 0.9946652 0.0185778 0.0053348 -0.0185778
3943000000 0.0053241 -0.0177756 0.9946759 0.0177756 0.9946759 0.0177756 0.0053241 -0.0177756
3964000000 0.0053150 -0.0169777 0.9946850 0.0169777 0.9946850 0.0169777 0.0053150 -0.0169777
3985000000 0.0053073 -0.0161841 0.9946927 0.0161841 0.9946927 0.0161841 0.0053073 -0.0161841
4006000000 0.0053012 -0.0153948 0.9946988 0.0153948 0.9946988 0.0153948 0.0053012 -0.0153948
4027000000 0.0052965 -0.0146095 0.9947035 0.0146095 0.9947035 0.0146095 0.0052965 -0.0146095
4048000000 0.0052933 -0.0138284 0.9947067 0.0138284 0.9947067 0.0138284 0.0052933 -0.0138284
4069000000 0.0052915 -0.0130513 0.9947085 0.0130513 0.9947085 0.0130513 0.0052915 -0.0130513
4090000000 0.0052911 -0.0122780 0.9947089 0.0122780 0.9947089 0.0122780 0.0052911 -0.0122780
4111000000 0.0052920 -0.0115087 0.9947080 0.0115087 0.9947080 0.0115087 0.0052920 -0.0115087
4132000000 0.0052944 -0.0107432 0.9947056 0.0107432 0.9947056 0.0107432 0.0052944 -0.0107432
4153000000 0.0052981 -0.0099814 0.9947019 0.0099814 0.9947019 0.0099814 0.0052981 -0.0099814
4174000000 0.0053032 -0.0092233 0.9946968 0.0092233 0.9946968 0.0092233 0.0053032 -0.0092233
4195000000 0.0053096 -0.0084688 0.9946904 0.0084688 0.9946904 0.0084688 0.0053096 -0.0084688
4216000000 0.0053173 -0.0077179 0.9946827 0.0077179 0.9946827 0.0077179 0.0053173 -0.0077179
4237000000 0.0053263 -0.0069704 0.9946737 0.0069704 0.9946737 0.0069704 0.0053263 -0.0069704
4258000000 0.0053366 -0.0062264 0.9946634 0.0062264 0.9946634 0.0062264 0.0053366 -0.0062264
4279000000 0.0053481 -0.0054858 0.9946519 0.0054858 0.9946519 0.0054858 0.0053481 -0.0054858
4300000000 0.0053609 -0.0047485 0.9946391 0.0047485 0.9946391 0.0047485 0.0053609 -0.0047485
4321000000 0.0053750 -0.0040145 0.9946250 0.0040145 0.9946250 0.0040145 0.0053750 -0.0040145
4342000000 0.0053903 -0.0032836 0.9946097 0.0032836 0.9946097 0.0032836 0.0053903 -0.0032836
4363000000 0.0054068 -0.0025559 0.9945932 0.0025559 0.9945932 0.0025559 0.0054068 -0.0025559
4384000000 0.0054246 -0.0018314 0.9945754 0.0018314 0.9945754 0.0018314 0.0054246 -0.0018314
4405000000 0.0054435 -0.0011098 0.9945565 0.0011098 0.9945565 0.0011098 0.0054435 -0.0011098
4426000000 0.0054637 -0.0003913 0.9945363 0.0003913 0.9945363 0.0003913 0.0054637 -0.0003913
4447000000 0.0054850 0.0003243 0.9945150 -0.0003243 0.9945150 -0.0003243 0.0054850 0.0003243
4468000000 0.0055075 0.0010370 0.9944925 -0.0010370 0.9944925 -0.0010370 0.0055075 0.0010370
4489000000 0.0055312 0.0017468 0.9944688 -0.0017468 0.9944688 -0.0017468 0.0055312 0.0017468
4510000000 0.0055560 0.0024538 0.9944440 -0.0024538 0.9944440 -0.0024538 0.0055560 0.0024538
