!Murata Part Number: GRM0332C1H6R9WA01
!These Parameters are Measured in Series Mode Connection
!Data Generated on Mar 30, 2021
!       o--ll--o
!Port1            Port2
!       o------o
!Operation Temp=25[degC], DC Bias Voltage=0[V]
!Freq. Start=100[MHz] Stop=9[GHz] 401[Steps]
# Hz S RI R 50
!Freq.(Hz) S11(Real) S11(Imag) S21(Real) S21(Imag) S12(Real) S12(Imag) S22(Real) S22(Imag)
100000000 0.8413894 -0.3648894 0.1586106 0.3648894 0.1586106 0.3648894 0.8413894 -0.3648894
121000000 0.7836222 -0.4112624 0.2163778 0.4112624 0.2163778 0.4112624 0.7836222 -0.4112624
142000000 0.7243775 -0.4462258 0.2756225 0.4462258 0.2756225 0.4462258 0.7243775 -0.4462258
163000000 0.6659221 -0.4709758 0.3340779 0.4709758 0.3340779 0.4709758 0.6659221 -0.4709758
184000000 0.6098555 -0.4870014 0.3901445 0.4870014 0.3901445 0.4870014 0.6098555 -0.4870014
205000000 0.5571853 -0.4958478 0.4428147 0.4958478 0.4428147 0.4958478 0.5571853 -0.4958478
226000000 0.5084491 -0.4989668 0.4915509 0.4989668 0.4915509 0.4989668 0.5084491 -0.4989668
247000000 0.4638405 -0.4976381 0.5361595 0.4976381 0.5361595 0.4976381 0.4638405 -0.4976381
268000000 0.4233201 -0.4929413 0.5766799 0.4929413 0.5766799 0.4929413 0.4233201 -0.4929413
289000000 0.3867022 -0.4857589 0.6132978 0.4857589 0.6132978 0.4857589 0.3867022 -0.4857589
310000000 0.3537192 -0.4767956 0.6462808 0.4767956 0.6462808 0.4767956 0.3537192 -0.4767956
331000000 0.3240650 -0.4666040 0.6759350 0.4666040 0.6759350 0.4666040 0.3240650 -0.4666040
352000000 0.2974240 -0.4556111 0.7025760 0.4556111 0.7025760 0.4556111 0.2974240 -0.4556111
373000000 0.2734892 -0.4441424 0.7265108 0.4441424 0.7265108 0.4441424 0.2734892 -0.4441424
394000000 0.2519717 -0.4324433 0.7480283 0.4324433 0.7480283 0.4324433 0.2519717 -0.4324433
415000000 0.2326063 -0.4206966 0.7673937 0.4206966 0.7673937 0.4206966 0.2326063 -0.4206966
436000000 0.2151531 -0.4090361 0.7848469 0.4090361 0.7848469 0.4090361 0.2151531 -0.4090361
457000000 0.1993974 -0.3975585 0.8006026 0.3975585 0.8006026 0.3975585 0.1993974 -0.3975585
478000000 0.1851485 -0.3863320 0.8148515 0.3863320 0.8148515 0.3863320 0.1851485 -0.3863320
499000000 0.1722376 -0.3754029 0.8277624 0.3754029 0.8277624 0.3754029 0.1722376 -0.3754029
520000000 0.1605161 -0.3648012 0.8394839 0.3648012 0.8394839 0.3648012 0.1605161 -0.3648012
541000000 0.1498530 -0.3545448 0.8501470 0.3545448 0.8501470 0.3545448 0.1498530 -0.3545448
562000000 0.1401333 -0.3446423 0.8598667 0.3446423 0.8598667 0.3446423 0.1401333 -0.3446423
583000000 0.1312557 -0.3350954 0.8687443 0.3350954 0.8687443 0.3350954 0.1312557 -0.3350954
604000000 0.1231315 -0.3259011 0.8768685 0.3259011 0.8768685 0.3259011 0.1231315 -0.3259011
625000000 0.1156821 -0.3170528 0.8843179 0.3170528 0.8843179 0.3170528 0.1156821 -0.3170528
646000000 0.1088386 -0.3085415 0.8911614 0.3085415 0.8911614 0.3085415 0.1088386 -0.3085415
667000000 0.1025400 -0.3003564 0.8974600 0.3003564 0.8974600 0.3003564 0.1025400 -0.3003564
688000000 0.0967326 -0.2924857 0.9032674 0.2924857 0.9032674 0.2924857 0.0967326 -0.2924857
709000000 0.0913686 -0.2849171 0.9086314 0.2849171 0.9086314 0.2849171 0.0913686 -0.2849171
730000000 0.0864059 -0.2776377 0.9135941 0.2776377 0.9135941 0.2776377 0.0864059 -0.2776377
751000000 0.0818068 -0.2706349 0.9181932 0.2706349 0.9181932 0.2706349 0.0818068 -0.2706349
772000000 0.0775380 -0.2638961 0.9224620 0.2638961 0.9224620 0.2638961 0.0775380 -0.2638961
793000000 0.0735697 -0.2574090 0.9264303 0.2574090 0.9264303 0.2574090 0.0735697 -0.2574090
814000000 0.0698752 -0.2511617 0.9301248 0.2511617 0.9301248 0.2511617 0.0698752 -0.2511617
835000000 0.0664308 -0.2451426 0.9335692 0.2451426 0.9335692 0.2451426 0.0664308 -0.2451426
856000000 0.0632150 -0.2393407 0.9367850 0.2393407 0.9367850 0.2393407 0.0632150 -0.2393407
877000000 0.0602087 -0.2337455 0.9397913 0.2337455 0.9397913 0.2337455 0.0602087 -0.2337455
898000000 0.0573947 -0.2283469 0.9426053 0.2283469 0.9426053 0.2283469 0.0573947 -0.2283469
919000000 0.0547574 -0.2231353 0.9452426 0.2231353 0.9452426 0.2231353 0.0547574 -0.2231353
940000000 0.0522826 -0.2181017 0.9477174 0.2181017 0.9477174 0.2181017 0.0522826 -0.2181017
961000000 0.0499578 -0.2132374 0.9500422 0.2132374 0.9500422 0.2132374 0.0499578 -0.2132374
982000000 0.0477714 -0.2085342 0.9522286 0.2085342 0.9522286 0.2085342 0.0477714 -0.2085342
1003000000 0.0457129 -0.2039844 0.9542871 0.2039844 0.9542871 0.2039844 0.0457129 -0.2039844
1024000000 0.0437729 -0.1995808 0.9562271 0.1995808 0.9562271 0.1995808 0.0437729 -0.1995808
1045000000 0.0419427 -0.1953164 0.9580573 0.1953164 0.9580573 0.1953164 0.0419427 -0.1953164
1066000000 0.0402144 -0.1911847 0.9597856 0.1911847 0.9597856 0.1911847 0.0402144 -0.1911847
1087000000 0.0385809 -0.1871795 0.9614191 0.1871795 0.9614191 0.1871795 0.0385809 -0.1871795
1108000000 0.0370355 -0.1832950 0.9629645 0.1832950 0.9629645 0.1832950 0.0370355 -0.1832950
1129000000 0.0355722 -0.1795257 0.9644278 0.1795257 0.9644278 0.1795257 0.0355722 -0.1795257
1150000000 0.0341855 -0.1758663 0.9658145 0.1758663 0.9658145 0.1758663 0.0341855 -0.1758663
1171000000 0.0328703 -0.1723121 0.9671297 0.1723121 0.9671297 0.1723121 0.0328703 -0.1723121
1192000000 0.0316220 -0.1688582 0.9683780 0.1688582 0.9683780 0.1688582 0.0316220 -0.1688582
1213000000 0.0304363 -0.1655003 0.9695637 0.1655003 0.9695637 0.1655003 0.0304363 -0.1655003
1234000000 0.0293092 -0.1622342 0.9706908 0.1622342 0.9706908 0.1622342 0.0293092 -0.1622342
1255000000 0.0282370 -0.1590560 0.9717630 0.1590560 0.9717630 0.1590560 0.0282370 -0.1590560
1276000000 0.0272165 -0.1559620 0.9727835 0.1559620 0.9727835 0.1559620 0.0272165 -0.1559620
1297000000 0.0262444 -0.1529485 0.9737556 0.1529485 0.9737556 0.1529485 0.0262444 -0.1529485
1318000000 0.0253179 -0.1500123 0.9746821 0.1500123 0.9746821 0.1500123 0.0253179 -0.1500123
1339000000 0.0244343 -0.1471501 0.9755657 0.1471501 0.9755657 0.1471501 0.0244343 -0.1471501
1360000000 0.0235912 -0.1443591 0.9764088 0.1443591 0.9764088 0.1443591 0.0235912 -0.1443591
1381000000 0.0227861 -0.1416361 0.9772139 0.1416361 0.9772139 0.1416361 0.0227861 -0.1416361
1402000000 0.0220171 -0.1389787 0.9779829 0.1389787 0.9779829 0.1389787 0.0220171 -0.1389787
1423000000 0.0212820 -0.1363841 0.9787180 0.1363841 0.9787180 0.1363841 0.0212820 -0.1363841
1444000000 0.0205790 -0.1338500 0.9794210 0.1338500 0.9794210 0.1338500 0.0205790 -0.1338500
1465000000 0.0199065 -0.1313739 0.9800935 0.1313739 0.9800935 0.1313739 0.0199065 -0.1313739
1486000000 0.0192627 -0.1289538 0.9807373 0.1289538 0.9807373 0.1289538 0.0192627 -0.1289538
1507000000 0.0186462 -0.1265874 0.9813538 0.1265874 0.9813538 0.1265874 0.0186462 -0.1265874
1528000000 0.0180555 -0.1242727 0.9819445 0.1242727 0.9819445 0.1242727 0.0180555 -0.1242727
1549000000 0.0174894 -0.1220079 0.9825106 0.1220079 0.9825106 0.1220079 0.0174894 -0.1220079
1570000000 0.0169465 -0.1197910 0.9830535 0.1197910 0.9830535 0.1197910 0.0169465 -0.1197910
1591000000 0.0164258 -0.1176205 0.9835742 0.1176205 0.9835742 0.1176205 0.0164258 -0.1176205
1612000000 0.0159261 -0.1154945 0.9840739 0.1154945 0.9840739 0.1154945 0.0159261 -0.1154945
1633000000 0.0154465 -0.1134116 0.9845535 0.1134116 0.9845535 0.1134116 0.0154465 -0.1134116
1654000000 0.0149859 -0.1113701 0.9850141 0.1113701 0.9850141 0.1113701 0.0149859 -0.1113701
1675000000 0.0145435 -0.1093688 0.9854565 0.1093688 0.9854565 0.1093688 0.0145435 -0.1093688
1696000000 0.0141183 -0.1074061 0.9858817 0.1074061 0.9858817 0.1074061 0.0141183 -0.1074061
1717000000 0.0137098 -0.1054807 0.9862902 0.1054807 0.9862902 0.1054807 0.0137098 -0.1054807
1738000000 0.0133169 -0.1035915 0.9866831 0.1035915 0.9866831 0.1035915 0.0133169 -0.1035915
1759000000 0.0129391 -0.1017371 0.9870609 0.1017371 0.9870609 0.1017371 0.0129391 -0.1017371
1780000000 0.0125758 -0.0999165 0.9874242 0.0999165 0.9874242 0.0999165 0.0125758 -0.0999165
1801000000 0.0122261 -0.0981284 0.9877739 0.0981284 0.9877739 0.0981284 0.0122261 -0.0981284
1822000000 0.0118897 -0.0963720 0.9881103 0.0963720 0.9881103 0.0963720 0.0118897 -0.0963720
1843000000 0.0115658 -0.0946461 0.9884342 0.0946461 0.9884342 0.0946461 0.0115658 -0.0946461
1864000000 0.0112540 -0.0929497 0.9887460 0.0929497 0.9887460 0.0929497 0.0112540 -0.0929497
1885000000 0.0109537 -0.0912820 0.9890463 0.0912820 0.9890463 0.0912820 0.0109537 -0.0912820
1906000000 0.0106645 -0.0896420 0.9893355 0.0896420 0.9893355 0.0896420 0.0106645 -0.0896420
1927000000 0.0103860 -0.0880288 0.9896140 0.0880288 0.9896140 0.0880288 0.0103860 -0.0880288
1948000000 0.0101176 -0.0864417 0.9898824 0.0864417 0.9898824 0.0864417 0.0101176 -0.0864417
1969000000 0.0098591 -0.0848799 0.9901409 0.0848799 0.9901409 0.0848799 0.0098591 -0.0848799
1990000000 0.0096099 -0.0833425 0.9903901 0.0833425 0.9903901 0.0833425 0.0096099 -0.0833425
2011000000 0.0093698 -0.0818289 0.9906302 0.0818289 0.9906302 0.0818289 0.0093698 -0.0818289
2032000000 0.0091384 -0.0803383 0.9908616 0.0803383 0.9908616 0.0803383 0.0091384 -0.0803383
2053000000 0.0089154 -0.0788701 0.9910846 0.0788701 0.9910846 0.0788701 0.0089154 -0.0788701
2074000000 0.0087004 -0.0774236 0.9912996 0.0774236 0.9912996 0.0774236 0.0087004 -0.0774236
2095000000 0.0084931 -0.0759982 0.9915069 0.0759982 0.9915069 0.0759982 0.0084931 -0.0759982
2116000000 0.0082933 -0.0745932 0.9917067 0.0745932 0.9917067 0.0745932 0.0082933 -0.0745932
2137000000 0.0081007 -0.0732081 0.9918993 0.0732081 0.9918993 0.0732081 0.0081007 -0.0732081
2158000000 0.0079151 -0.0718423 0.9920849 0.0718423 0.9920849 0.0718423 0.0079151 -0.0718423
2179000000 0.0077362 -0.0704953 0.9922638 0.0704953 0.9922638 0.0704953 0.0077362 -0.0704953
2200000000 0.0075637 -0.0691666 0.9924363 0.0691666 0.9924363 0.0691666 0.0075637 -0.0691666
2221000000 0.0073974 -0.0678556 0.9926026 0.0678556 0.9926026 0.0678556 0.0073974 -0.0678556
2242000000 0.0072372 -0.0665619 0.9927628 0.0665619 0.9927628 0.0665619 0.0072372 -0.0665619
2263000000 0.0070828 -0.0652850 0.9929172 0.0652850 0.9929172 0.0652850 0.0070828 -0.0652850
2284000000 0.0069340 -0.0640244 0.9930660 0.0640244 0.9930660 0.0640244 0.0069340 -0.0640244
2305000000 0.0067906 -0.0627797 0.9932094 0.0627797 0.9932094 0.0627797 0.0067906 -0.0627797
2326000000 0.0066525 -0.0615505 0.9933475 0.0615505 0.9933475 0.0615505 0.0066525 -0.0615505
2347000000 0.0065195 -0.0603363 0.9934805 0.0603363 0.9934805 0.0603363 0.0065195 -0.0603363
2368000000 0.0063915 -0.0591368 0.9936085 0.0591368 0.9936085 0.0591368 0.0063915 -0.0591368
2389000000 0.0062682 -0.0579516 0.9937318 0.0579516 0.9937318 0.0579516 0.0062682 -0.0579516
2410000000 0.0061495 -0.0567803 0.9938505 0.0567803 0.9938505 0.0567803 0.0061495 -0.0567803
2431000000 0.0060353 -0.0556226 0.9939647 0.0556226 0.9939647 0.0556226 0.0060353 -0.0556226
2452000000 0.0059255 -0.0544781 0.9940745 0.0544781 0.9940745 0.0544781 0.0059255 -0.0544781
2473000000 0.0058199 -0.0533464 0.9941801 0.0533464 0.9941801 0.0533464 0.0058199 -0.0533464
2494000000 0.0057184 -0.0522273 0.9942816 0.0522273 0.9942816 0.0522273 0.0057184 -0.0522273
2515000000 0.0056208 -0.0511205 0.9943792 0.0511205 0.9943792 0.0511205 0.0056208 -0.0511205
2536000000 0.0055271 -0.0500255 0.9944729 0.0500255 0.9944729 0.0500255 0.0055271 -0.0500255
2557000000 0.0054372 -0.0489422 0.9945628 0.0489422 0.9945628 0.0489422 0.0054372 -0.0489422
2578000000 0.0053509 -0.0478703 0.9946491 0.0478703 0.9946491 0.0478703 0.0053509 -0.0478703
2599000000 0.0052682 -0.0468094 0.9947318 0.0468094 0.9947318 0.0468094 0.0052682 -0.0468094
2620000000 0.0051889 -0.0457593 0.9948111 0.0457593 0.9948111 0.0457593 0.0051889 -0.0457593
2641000000 0.0051129 -0.0447197 0.9948871 0.0447197 0.9948871 0.0447197 0.0051129 -0.0447197
2662000000 0.0050402 -0.0436905 0.9949598 0.0436905 0.9949598 0.0436905 0.0050402 -0.0436905
2683000000 0.0049707 -0.0426712 0.9950293 0.0426712 0.9950293 0.0426712 0.0049707 -0.0426712
2704000000 0.0049043 -0.0416618 0.9950957 0.0416618 0.9950957 0.0416618 0.0049043 -0.0416618
2725000000 0.0048409 -0.0406619 0.9951591 0.0406619 0.9951591 0.0406619 0.0048409 -0.0406619
2746000000 0.0047804 -0.0396714 0.9952196 0.0396714 0.9952196 0.0396714 0.0047804 -0.0396714
2767000000 0.0047228 -0.0386900 0.9952772 0.0386900 0.9952772 0.0386900 0.0047228 -0.0386900
2788000000 0.0046680 -0.0377175 0.9953320 0.0377175 0.9953320 0.0377175 0.0046680 -0.0377175
2809000000 0.0046159 -0.0367537 0.9953841 0.0367537 0.9953841 0.0367537 0.0046159 -0.0367537
2830000000 0.0045665 -0.0357983 0.9954335 0.0357983 0.9954335 0.0357983 0.0045665 -0.0357983
2851000000 0.0045197 -0.0348513 0.9954803 0.0348513 0.9954803 0.0348513 0.0045197 -0.0348513
2872000000 0.0044754 -0.0339125 0.9955246 0.0339125 0.9955246 0.0339125 0.0044754 -0.0339125
2893000000 0.0044335 -0.0329815 0.9955665 0.0329815 0.9955665 0.0329815 0.0044335 -0.0329815
2914000000 0.0043941 -0.0320583 0.9956059 0.0320583 0.9956059 0.0320583 0.0043941 -0.0320583
2935000000 0.0043571 -0.0311426 0.9956429 0.0311426 0.9956429 0.0311426 0.0043571 -0.0311426
2956000000 0.0043224 -0.0302344 0.9956776 0.0302344 0.9956776 0.0302344 0.0043224 -0.0302344
2977000000 0.0042899 -0.0293333 0.9957101 0.0293333 0.9957101 0.0293333 0.0042899 -0.0293333
2998000000 0.0042597 -0.0284394 0.9957403 0.0284394 0.9957403 0.0284394 0.0042597 -0.0284394
3019000000 0.0042316 -0.0275524 0.9957684 0.0275524 0.9957684 0.0275524 0.0042316 -0.0275524
3040000000 0.0042057 -0.0266721 0.9957943 0.0266721 0.9957943 0.0266721 0.0042057 -0.0266721
3061000000 0.0041818 -0.0257984 0.9958182 0.0257984 0.9958182 0.0257984 0.0041818 -0.0257984
3082000000 0.0041600 -0.0249312 0.9958400 0.0249312 0.9958400 0.0249312 0.0041600 -0.0249312
3103000000 0.0041402 -0.0240703 0.9958598 0.0240703 0.9958598 0.0240703 0.0041402 -0.0240703
3124000000 0.0041223 -0.0232156 0.9958777 0.0232156 0.9958777 0.0232156 0.0041223 -0.0232156
3145000000 0.0041064 -0.0223669 0.9958936 0.0223669 0.9958936 0.0223669 0.0041064 -0.0223669
3166000000 0.0040923 -0.0215242 0.9959077 0.0215242 0.9959077 0.0215242 0.0040923 -0.0215242
3187000000 0.0040801 -0.0206872 0.9959199 0.0206872 0.9959199 0.0206872 0.0040801 -0.0206872
3208000000 0.0040697 -0.0198559 0.9959303 0.0198559 0.9959303 0.0198559 0.0040697 -0.0198559
3229000000 0.0040611 -0.0190301 0.9959389 0.0190301 0.9959389 0.0190301 0.0040611 -0.0190301
3250000000 0.0040543 -0.0182097 0.9959457 0.0182097 0.9959457 0.0182097 0.0040543 -0.0182097
3271000000 0.0040491 -0.0173946 0.9959509 0.0173946 0.9959509 0.0173946 0.0040491 -0.0173946
3292000000 0.0040457 -0.0165847 0.9959543 0.0165847 0.9959543 0.0165847 0.0040457 -0.0165847
3313000000 0.0040440 -0.0157798 0.9959560 0.0157798 0.9959560 0.0157798 0.0040440 -0.0157798
3334000000 0.0040438 -0.0149799 0.9959562 0.0149799 0.9959562 0.0149799 0.0040438 -0.0149799
3355000000 0.0040453 -0.0141849 0.9959547 0.0141849 0.9959547 0.0141849 0.0040453 -0.0141849
3376000000 0.0040484 -0.0133946 0.9959516 0.0133946 0.9959516 0.0133946 0.0040484 -0.0133946
3397000000 0.0040530 -0.0126089 0.9959470 0.0126089 0.9959470 0.0126089 0.0040530 -0.0126089
3418000000 0.0040592 -0.0118278 0.9959408 0.0118278 0.9959408 0.0118278 0.0040592 -0.0118278
3439000000 0.0040669 -0.0110511 0.9959331 0.0110511 0.9959331 0.0110511 0.0040669 -0.0110511
3460000000 0.0040761 -0.0102788 0.9959239 0.0102788 0.9959239 0.0102788 0.0040761 -0.0102788
3481000000 0.0040868 -0.0095107 0.9959132 0.0095107 0.9959132 0.0095107 0.0040868 -0.0095107
3502000000 0.0040989 -0.0087467 0.9959011 0.0087467 0.9959011 0.0087467 0.0040989 -0.0087467
3523000000 0.0041125 -0.0079868 0.9958875 0.0079868 0.9958875 0.0079868 0.0041125 -0.0079868
3544000000 0.0041275 -0.0072309 0.9958725 0.0072309 0.9958725 0.0072309 0.0041275 -0.0072309
3565000000 0.0041439 -0.0064789 0.9958561 0.0064789 0.9958561 0.0064789 0.0041439 -0.0064789
3586000000 0.0041617 -0.0057307 0.9958383 0.0057307 0.9958383 0.0057307 0.0041617 -0.0057307
3607000000 0.0041808 -0.0049862 0.9958192 0.0049862 0.9958192 0.0049862 0.0041808 -0.0049862
3628000000 0.0042013 -0.0042454 0.9957987 0.0042454 0.9957987 0.0042454 0.0042013 -0.0042454
3649000000 0.0042231 -0.0035081 0.9957769 0.0035081 0.9957769 0.0035081 0.0042231 -0.0035081
3670000000 0.0042462 -0.0027742 0.9957538 0.0027742 0.9957538 0.0027742 0.0042462 -0.0027742
3691000000 0.0042707 -0.0020438 0.9957293 0.0020438 0.9957293 0.0020438 0.0042707 -0.0020438
3712000000 0.0042964 -0.0013167 0.9957036 0.0013167 0.9957036 0.0013167 0.0042964 -0.0013167
3733000000 0.0043234 -0.0005928 0.9956766 0.0005928 0.9956766 0.0005928 0.0043234 -0.0005928
3754000000 0.0043517 0.0001279 0.9956483 -0.0001279 0.9956483 -0.0001279 0.0043517 0.0001279
3775000000 0.0043812 0.0008454 0.9956188 -0.0008454 0.9956188 -0.0008454 0.0043812 0.0008454
3796000000 0.0044120 0.0015600 0.9955880 -0.0015600 0.9955880 -0.0015600 0.0044120 0.0015600
3817000000 0.0044440 0.0022716 0.9955560 -0.0022716 0.9955560 -0.0022716 0.0044440 0.0022716
3838000000 0.0044772 0.0029803 0.9955228 -0.0029803 0.9955228 -0.0029803 0.0044772 0.0029803
3859000000 0.0045117 0.0036862 0.9954883 -0.0036862 0.9954883 -0.0036862 0.0045117 0.0036862
3880000000 0.0045473 0.0043893 0.9954527 -0.0043893 0.9954527 -0.0043893 0.0045473 0.0043893
3901000000 0.0045841 0.0050897 0.9954159 -0.0050897 0.9954159 -0.0050897 0.0045841 0.0050897
3922000000 0.0046221 0.0057875 0.9953779 -0.0057875 0.9953779 -0.0057875 0.0046221 0.0057875
3943000000 0.0046613 0.0064828 0.9953387 -0.0064828 0.9953387 -0.0064828 0.0046613 0.0064828
3964000000 0.0047017 0.0071755 0.9952983 -0.0071755 0.9952983 -0.0071755 0.0047017 0.0071755
3985000000 0.0047432 0.0078658 0.9952568 -0.0078658 0.9952568 -0.0078658 0.0047432 0.0078658
4006000000 0.0047859 0.0085537 0.9952141 -0.0085537 0.9952141 -0.0085537 0.0047859 0.0085537
4027000000 0.0048297 0.0092393 0.9951703 -0.0092393 0.9951703 -0.0092393 0.0048297 0.0092393
4048000000 0.0048746 0.0099227 0.9951254 -0.0099227 0.9951254 -0.0099227 0.0048746 0.0099227
4069000000 0.0049207 0.0106038 0.9950793 -0.0106038 0.9950793 -0.0106038 0.0049207 0.0106038
4090000000 0.0049679 0.0112828 0.9950321 -0.0112828 0.9950321 -0.0112828 0.0049679 0.0112828
4111000000 0.0050163 0.0119597 0.9949837 -0.0119597 0.9949837 -0.0119597 0.0050163 0.0119597
4132000000 0.0050657 0.0126346 0.9949343 -0.0126346 0.9949343 -0.0126346 0.0050657 0.0126346
4153000000 0.0051163 0.0133075 0.9948837 -0.0133075 0.9948837 -0.0133075 0.0051163 0.0133075
4174000000 0.0051680 0.0139785 0.9948320 -0.0139785 0.9948320 -0.0139785 0.0051680 0.0139785
4195000000 0.0052207 0.0146476 0.9947793 -0.0146476 0.9947793 -0.0146476 0.0052207 0.0146476
4216000000 0.0052746 0.0153150 0.9947254 -0.0153150 0.9947254 -0.0153150 0.0052746 0.0153150
4237000000 0.0053296 0.0159805 0.9946704 -0.0159805 0.9946704 -0.0159805 0.0053296 0.0159805
4258000000 0.0053857 0.0166443 0.9946143 -0.0166443 0.9946143 -0.0166443 0.0053857 0.0166443
4279000000 0.0054429 0.0173065 0.9945571 -0.0173065 0.9945571 -0.0173065 0.0054429 0.0173065
4300000000 0.0055012 0.0179671 0.9944988 -0.0179671 0.9944988 -0.0179671 0.0055012 0.0179671
4321000000 0.0055606 0.0186261 0.9944394 -0.0186261 0.9944394 -0.0186261 0.0055606 0.0186261
4342000000 0.0056210 0.0192837 0.9943790 -0.0192837 0.9943790 -0.0192837 0.0056210 0.0192837
4363000000 0.0056826 0.0199397 0.9943174 -0.0199397 0.9943174 -0.0199397 0.0056826 0.0199397
4384000000 0.0057452 0.0205944 0.9942548 -0.0205944 0.9942548 -0.0205944 0.0057452 0.0205944
4405000000 0.0058090 0.0212477 0.9941910 -0.0212477 0.9941910 -0.0212477 0.0058090 0.0212477
4426000000 0.0058738 0.0218997 0.9941262 -0.0218997 0.9941262 -0.0218997 0.0058738 0.0218997
4447000000 0.0059397 0.0225504 0.9940603 -0.0225504 0.9940603 -0.0225504 0.0059397 0.0225504
4468000000 0.0060067 0.0232000 0.9939933 -0.0232000 0.9939933 -0.0232000 0.0060067 0.0232000
4489000000 0.0060748 0.0238483 0.9939252 -0.0238483 0.9939252 -0.0238483 0.0060748 0.0238483
4510000000 0.0061440 0.0244956 0.9938560 -0.0244956 0.9938560 -0.0244956 0.0061440 0.0244956
