!Murata Part Number: GRM0332C2A7R6WA01
!These Parameters are Measured in Series Mode Connection
!Data Generated on Mar 30, 2021
!       o--ll--o
!Port1            Port2
!       o------o
!Operation Temp=25[degC], DC Bias Voltage=0[V]
!Freq. Start=100[MHz] Stop=9[GHz] 401[Steps]
# Hz S RI R 50
!Freq.(Hz) S11(Real) S11(Imag) S21(Real) S21(Imag) S12(Real) S12(Imag) S22(Real) S22(Imag)
100000000 0.8138636 -0.3887501 0.1861364 0.3887501 0.1861364 0.3887501 0.8138636 -0.3887501
121000000 0.7490583 -0.4329900 0.2509417 0.4329900 0.2509417 0.4329900 0.7490583 -0.4329900
142000000 0.6841601 -0.4641858 0.3158399 0.4641858 0.3158399 0.4641858 0.6841601 -0.4641858
163000000 0.6216255 -0.4842191 0.3783745 0.4842191 0.3783745 0.4842191 0.6216255 -0.4842191
184000000 0.5629973 -0.4951535 0.4370027 0.4951535 0.4370027 0.4951535 0.5629973 -0.4951535
205000000 0.5090866 -0.4989558 0.4909134 0.4989558 0.4909134 0.4989558 0.5090866 -0.4989558
226000000 0.4601780 -0.4973500 0.5398220 0.4973500 0.5398220 0.4973500 0.4601780 -0.4973500
247000000 0.4162107 -0.4917671 0.5837893 0.4917671 0.5837893 0.4917671 0.4162107 -0.4917671
268000000 0.3769180 -0.4833507 0.6230820 0.4833507 0.6230820 0.4833507 0.3769180 -0.4833507
289000000 0.3419259 -0.4729899 0.6580741 0.4729899 0.6580741 0.4729899 0.3419259 -0.4729899
310000000 0.3108181 -0.4613612 0.6891819 0.4613612 0.6891819 0.4613612 0.3108181 -0.4613612
331000000 0.2831763 -0.4489712 0.7168237 0.4489712 0.7168237 0.4489712 0.2831763 -0.4489712
352000000 0.2586026 -0.4361930 0.7413974 0.4361930 0.7413974 0.4361930 0.2586026 -0.4361930
373000000 0.2367311 -0.4232978 0.7632689 0.4232978 0.7632689 0.4232978 0.2367311 -0.4232978
394000000 0.2172331 -0.4104794 0.7827669 0.4104794 0.7827669 0.4104794 0.2172331 -0.4104794
415000000 0.1998168 -0.3978734 0.8001832 0.3978734 0.8001832 0.3978734 0.1998168 -0.3978734
436000000 0.1842260 -0.3855725 0.8157740 0.3855725 0.8157740 0.3855725 0.1842260 -0.3855725
457000000 0.1702369 -0.3736372 0.8297631 0.3736372 0.8297631 0.3736372 0.1702369 -0.3736372
478000000 0.1576548 -0.3621047 0.8423452 0.3621047 0.8423452 0.3621047 0.1576548 -0.3621047
499000000 0.1463106 -0.3509952 0.8536894 0.3509952 0.8536894 0.3509952 0.1463106 -0.3509952
520000000 0.1360575 -0.3403167 0.8639425 0.3403167 0.8639425 0.3403167 0.1360575 -0.3403167
541000000 0.1267682 -0.3300683 0.8732318 0.3300683 0.8732318 0.3300683 0.1267682 -0.3300683
562000000 0.1183321 -0.3202431 0.8816679 0.3202431 0.8816679 0.3202431 0.1183321 -0.3202431
583000000 0.1106530 -0.3108299 0.8893470 0.3108299 0.8893470 0.3108299 0.1106530 -0.3108299
604000000 0.1036473 -0.3018147 0.8963527 0.3018147 0.8963527 0.3018147 0.1036473 -0.3018147
625000000 0.0972417 -0.2931821 0.9027583 0.2931821 0.9027583 0.2931821 0.0972417 -0.2931821
646000000 0.0913725 -0.2849153 0.9086275 0.2849153 0.9086275 0.2849153 0.0913725 -0.2849153
667000000 0.0859836 -0.2769974 0.9140164 0.2769974 0.9140164 0.2769974 0.0859836 -0.2769974
688000000 0.0810260 -0.2694115 0.9189740 0.2694115 0.9189740 0.2694115 0.0810260 -0.2694115
709000000 0.0764564 -0.2621408 0.9235436 0.2621408 0.9235436 0.2621408 0.0764564 -0.2621408
730000000 0.0722367 -0.2551691 0.9277633 0.2551691 0.9277633 0.2551691 0.0722367 -0.2551691
751000000 0.0683332 -0.2484807 0.9316668 0.2484807 0.9316668 0.2484807 0.0683332 -0.2484807
772000000 0.0647161 -0.2420605 0.9352839 0.2420605 0.9352839 0.2420605 0.0647161 -0.2420605
793000000 0.0613587 -0.2358942 0.9386413 0.2358942 0.9386413 0.2358942 0.0613587 -0.2358942
814000000 0.0582377 -0.2299684 0.9417623 0.2299684 0.9417623 0.2299684 0.0582377 -0.2299684
835000000 0.0553318 -0.2242700 0.9446682 0.2242700 0.9446682 0.2242700 0.0553318 -0.2242700
856000000 0.0526224 -0.2187869 0.9473776 0.2187869 0.9473776 0.2187869 0.0526224 -0.2187869
877000000 0.0500927 -0.2135078 0.9499073 0.2135078 0.9499073 0.2135078 0.0500927 -0.2135078
898000000 0.0477274 -0.2084217 0.9522726 0.2084217 0.9522726 0.2084217 0.0477274 -0.2084217
919000000 0.0455131 -0.2035186 0.9544869 0.2035186 0.9544869 0.2035186 0.0455131 -0.2035186
940000000 0.0434376 -0.1987890 0.9565624 0.1987890 0.9565624 0.1987890 0.0434376 -0.1987890
961000000 0.0414897 -0.1942237 0.9585103 0.1942237 0.9585103 0.1942237 0.0414897 -0.1942237
982000000 0.0396596 -0.1898145 0.9603404 0.1898145 0.9603404 0.1898145 0.0396596 -0.1898145
1003000000 0.0379382 -0.1855533 0.9620618 0.1855533 0.9620618 0.1855533 0.0379382 -0.1855533
1024000000 0.0363173 -0.1814328 0.9636827 0.1814328 0.9636827 0.1814328 0.0363173 -0.1814328
1045000000 0.0347895 -0.1774460 0.9652105 0.1774460 0.9652105 0.1774460 0.0347895 -0.1774460
1066000000 0.0333480 -0.1735862 0.9666520 0.1735862 0.9666520 0.1735862 0.0333480 -0.1735862
1087000000 0.0319866 -0.1698473 0.9680134 0.1698473 0.9680134 0.1698473 0.0319866 -0.1698473
1108000000 0.0306998 -0.1662234 0.9693002 0.1662234 0.9693002 0.1662234 0.0306998 -0.1662234
1129000000 0.0294822 -0.1627092 0.9705178 0.1627092 0.9705178 0.1627092 0.0294822 -0.1627092
1150000000 0.0283293 -0.1592994 0.9716707 0.1592994 0.9716707 0.1592994 0.0283293 -0.1592994
1171000000 0.0272368 -0.1559893 0.9727632 0.1559893 0.9727632 0.1559893 0.0272368 -0.1559893
1192000000 0.0262005 -0.1527741 0.9737995 0.1527741 0.9737995 0.1527741 0.0262005 -0.1527741
1213000000 0.0252169 -0.1496496 0.9747831 0.1496496 0.9747831 0.1496496 0.0252169 -0.1496496
1234000000 0.0242826 -0.1466118 0.9757174 0.1466118 0.9757174 0.1466118 0.0242826 -0.1466118
1255000000 0.0233946 -0.1436568 0.9766054 0.1436568 0.9766054 0.1436568 0.0233946 -0.1436568
1276000000 0.0225499 -0.1407809 0.9774501 0.1407809 0.9774501 0.1407809 0.0225499 -0.1407809
1297000000 0.0217459 -0.1379808 0.9782541 0.1379808 0.9782541 0.1379808 0.0217459 -0.1379808
1318000000 0.0209802 -0.1352532 0.9790198 0.1352532 0.9790198 0.1352532 0.0209802 -0.1352532
1339000000 0.0202505 -0.1325950 0.9797495 0.1325950 0.9797495 0.1325950 0.0202505 -0.1325950
1360000000 0.0195547 -0.1300034 0.9804453 0.1300034 0.9804453 0.1300034 0.0195547 -0.1300034
1381000000 0.0188909 -0.1274755 0.9811091 0.1274755 0.9811091 0.1274755 0.0188909 -0.1274755
1402000000 0.0182572 -0.1250088 0.9817428 0.1250088 0.9817428 0.1250088 0.0182572 -0.1250088
1423000000 0.0176520 -0.1226008 0.9823480 0.1226008 0.9823480 0.1226008 0.0176520 -0.1226008
1444000000 0.0170737 -0.1202492 0.9829263 0.1202492 0.9829263 0.1202492 0.0170737 -0.1202492
1465000000 0.0165208 -0.1179517 0.9834792 0.1179517 0.9834792 0.1179517 0.0165208 -0.1179517
1486000000 0.0159921 -0.1157062 0.9840079 0.1157062 0.9840079 0.1157062 0.0159921 -0.1157062
1507000000 0.0154861 -0.1135108 0.9845139 0.1135108 0.9845139 0.1135108 0.0154861 -0.1135108
1528000000 0.0150018 -0.1113634 0.9849982 0.1113634 0.9849982 0.1113634 0.0150018 -0.1113634
1549000000 0.0145379 -0.1092624 0.9854621 0.1092624 0.9854621 0.1092624 0.0145379 -0.1092624
1570000000 0.0140936 -0.1072059 0.9859064 0.1072059 0.9859064 0.1072059 0.0140936 -0.1072059
1591000000 0.0136677 -0.1051923 0.9863323 0.1051923 0.9863323 0.1051923 0.0136677 -0.1051923
1612000000 0.0132595 -0.1032200 0.9867405 0.1032200 0.9867405 0.1032200 0.0132595 -0.1032200
1633000000 0.0128680 -0.1012877 0.9871320 0.1012877 0.9871320 0.1012877 0.0128680 -0.1012877
1654000000 0.0124924 -0.0993937 0.9875076 0.0993937 0.9875076 0.0993937 0.0124924 -0.0993937
1675000000 0.0121319 -0.0975368 0.9878681 0.0975368 0.9878681 0.0975368 0.0121319 -0.0975368
1696000000 0.0117860 -0.0957157 0.9882140 0.0957157 0.9882140 0.0957157 0.0117860 -0.0957157
1717000000 0.0114538 -0.0939290 0.9885462 0.0939290 0.9885462 0.0939290 0.0114538 -0.0939290
1738000000 0.0111348 -0.0921758 0.9888652 0.0921758 0.9888652 0.0921758 0.0111348 -0.0921758
1759000000 0.0108284 -0.0904547 0.9891716 0.0904547 0.9891716 0.0904547 0.0108284 -0.0904547
1780000000 0.0105339 -0.0887647 0.9894661 0.0887647 0.9894661 0.0887647 0.0105339 -0.0887647
1801000000 0.0102510 -0.0871048 0.9897490 0.0871048 0.9897490 0.0871048 0.0102510 -0.0871048
1822000000 0.0099790 -0.0854740 0.9900210 0.0854740 0.9900210 0.0854740 0.0099790 -0.0854740
1843000000 0.0097176 -0.0838714 0.9902824 0.0838714 0.9902824 0.0838714 0.0097176 -0.0838714
1864000000 0.0094662 -0.0822959 0.9905338 0.0822959 0.9905338 0.0822959 0.0094662 -0.0822959
1885000000 0.0092244 -0.0807468 0.9907756 0.0807468 0.9907756 0.0807468 0.0092244 -0.0807468
1906000000 0.0089919 -0.0792232 0.9910081 0.0792232 0.9910081 0.0792232 0.0089919 -0.0792232
1927000000 0.0087683 -0.0777243 0.9912317 0.0777243 0.9912317 0.0777243 0.0087683 -0.0777243
1948000000 0.0085532 -0.0762494 0.9914468 0.0762494 0.9914468 0.0762494 0.0085532 -0.0762494
1969000000 0.0083463 -0.0747976 0.9916537 0.0747976 0.9916537 0.0747976 0.0083463 -0.0747976
1990000000 0.0081472 -0.0733683 0.9918528 0.0733683 0.9918528 0.0733683 0.0081472 -0.0733683
2011000000 0.0079556 -0.0719609 0.9920444 0.0719609 0.9920444 0.0719609 0.0079556 -0.0719609
2032000000 0.0077713 -0.0705745 0.9922287 0.0705745 0.9922287 0.0705745 0.0077713 -0.0705745
2053000000 0.0075940 -0.0692087 0.9924060 0.0692087 0.9924060 0.0692087 0.0075940 -0.0692087
2074000000 0.0074234 -0.0678627 0.9925766 0.0678627 0.9925766 0.0678627 0.0074234 -0.0678627
2095000000 0.0072593 -0.0665361 0.9927407 0.0665361 0.9927407 0.0665361 0.0072593 -0.0665361
2116000000 0.0071014 -0.0652282 0.9928986 0.0652282 0.9928986 0.0652282 0.0071014 -0.0652282
2137000000 0.0069494 -0.0639385 0.9930506 0.0639385 0.9930506 0.0639385 0.0069494 -0.0639385
2158000000 0.0068033 -0.0626665 0.9931967 0.0626665 0.9931967 0.0626665 0.0068033 -0.0626665
2179000000 0.0066628 -0.0614117 0.9933372 0.0614117 0.9933372 0.0614117 0.0066628 -0.0614117
2200000000 0.0065276 -0.0601736 0.9934724 0.0601736 0.9934724 0.0601736 0.0065276 -0.0601736
2221000000 0.0063977 -0.0589517 0.9936023 0.0589517 0.9936023 0.0589517 0.0063977 -0.0589517
2242000000 0.0062727 -0.0577456 0.9937273 0.0577456 0.9937273 0.0577456 0.0062727 -0.0577456
2263000000 0.0061527 -0.0565548 0.9938473 0.0565548 0.9938473 0.0565548 0.0061527 -0.0565548
2284000000 0.0060373 -0.0553789 0.9939627 0.0553789 0.9939627 0.0553789 0.0060373 -0.0553789
2305000000 0.0059264 -0.0542175 0.9940736 0.0542175 0.9940736 0.0542175 0.0059264 -0.0542175
2326000000 0.0058199 -0.0530703 0.9941801 0.0530703 0.9941801 0.0530703 0.0058199 -0.0530703
2347000000 0.0057177 -0.0519368 0.9942823 0.0519368 0.9942823 0.0519368 0.0057177 -0.0519368
2368000000 0.0056196 -0.0508166 0.9943804 0.0508166 0.9943804 0.0508166 0.0056196 -0.0508166
2389000000 0.0055255 -0.0497095 0.9944745 0.0497095 0.9944745 0.0497095 0.0055255 -0.0497095
2410000000 0.0054352 -0.0486151 0.9945648 0.0486151 0.9945648 0.0486151 0.0054352 -0.0486151
2431000000 0.0053486 -0.0475330 0.9946514 0.0475330 0.9946514 0.0475330 0.0053486 -0.0475330
2452000000 0.0052657 -0.0464629 0.9947343 0.0464629 0.9947343 0.0464629 0.0052657 -0.0464629
2473000000 0.0051863 -0.0454045 0.9948137 0.0454045 0.9948137 0.0454045 0.0051863 -0.0454045
2494000000 0.0051103 -0.0443575 0.9948897 0.0443575 0.9948897 0.0443575 0.0051103 -0.0443575
2515000000 0.0050376 -0.0433217 0.9949624 0.0433217 0.9949624 0.0433217 0.0050376 -0.0433217
2536000000 0.0049681 -0.0422967 0.9950319 0.0422967 0.9950319 0.0422967 0.0049681 -0.0422967
2557000000 0.0049018 -0.0412823 0.9950982 0.0412823 0.9950982 0.0412823 0.0049018 -0.0412823
2578000000 0.0048385 -0.0402781 0.9951615 0.0402781 0.9951615 0.0402781 0.0048385 -0.0402781
2599000000 0.0047781 -0.0392840 0.9952219 0.0392840 0.9952219 0.0392840 0.0047781 -0.0392840
2620000000 0.0047206 -0.0382997 0.9952794 0.0382997 0.9952794 0.0382997 0.0047206 -0.0382997
2641000000 0.0046659 -0.0373249 0.9953341 0.0373249 0.9953341 0.0373249 0.0046659 -0.0373249
2662000000 0.0046139 -0.0363595 0.9953861 0.0363595 0.9953861 0.0363595 0.0046139 -0.0363595
2683000000 0.0045645 -0.0354031 0.9954355 0.0354031 0.9954355 0.0354031 0.0045645 -0.0354031
2704000000 0.0045177 -0.0344556 0.9954823 0.0344556 0.9954823 0.0344556 0.0045177 -0.0344556
2725000000 0.0044734 -0.0335168 0.9955266 0.0335168 0.9955266 0.0335168 0.0044734 -0.0335168
2746000000 0.0044316 -0.0325864 0.9955684 0.0325864 0.9955684 0.0325864 0.0044316 -0.0325864
2767000000 0.0043921 -0.0316642 0.9956079 0.0316642 0.9956079 0.0316642 0.0043921 -0.0316642
2788000000 0.0043549 -0.0307501 0.9956451 0.0307501 0.9956451 0.0307501 0.0043549 -0.0307501
2809000000 0.0043200 -0.0298439 0.9956800 0.0298439 0.9956800 0.0298439 0.0043200 -0.0298439
2830000000 0.0042873 -0.0289453 0.9957127 0.0289453 0.9957127 0.0289453 0.0042873 -0.0289453
2851000000 0.0042568 -0.0280542 0.9957432 0.0280542 0.9957432 0.0280542 0.0042568 -0.0280542
2872000000 0.0042284 -0.0271704 0.9957716 0.0271704 0.9957716 0.0271704 0.0042284 -0.0271704
2893000000 0.0042020 -0.0262937 0.9957980 0.0262937 0.9957980 0.0262937 0.0042020 -0.0262937
2914000000 0.0041776 -0.0254240 0.9958224 0.0254240 0.9958224 0.0254240 0.0041776 -0.0254240
2935000000 0.0041552 -0.0245612 0.9958448 0.0245612 0.9958448 0.0245612 0.0041552 -0.0245612
2956000000 0.0041347 -0.0237049 0.9958653 0.0237049 0.9958653 0.0237049 0.0041347 -0.0237049
2977000000 0.0041160 -0.0228552 0.9958840 0.0228552 0.9958840 0.0228552 0.0041160 -0.0228552
2998000000 0.0040992 -0.0220118 0.9959008 0.0220118 0.9959008 0.0220118 0.0040992 -0.0220118
3019000000 0.0040842 -0.0211747 0.9959158 0.0211747 0.9959158 0.0211747 0.0040842 -0.0211747
3040000000 0.0040709 -0.0203435 0.9959291 0.0203435 0.9959291 0.0203435 0.0040709 -0.0203435
3061000000 0.0040593 -0.0195183 0.9959407 0.0195183 0.9959407 0.0195183 0.0040593 -0.0195183
3082000000 0.0040495 -0.0186989 0.9959505 0.0186989 0.9959505 0.0186989 0.0040495 -0.0186989
3103000000 0.0040412 -0.0178852 0.9959588 0.0178852 0.9959588 0.0178852 0.0040412 -0.0178852
3124000000 0.0040346 -0.0170769 0.9959654 0.0170769 0.9959654 0.0170769 0.0040346 -0.0170769
3145000000 0.0040296 -0.0162741 0.9959704 0.0162741 0.9959704 0.0162741 0.0040296 -0.0162741
3166000000 0.0040261 -0.0154765 0.9959739 0.0154765 0.9959739 0.0154765 0.0040261 -0.0154765
3187000000 0.0040241 -0.0146841 0.9959759 0.0146841 0.9959759 0.0146841 0.0040241 -0.0146841
3208000000 0.0040236 -0.0138967 0.9959764 0.0138967 0.9959764 0.0138967 0.0040236 -0.0138967
3229000000 0.0040246 -0.0131143 0.9959754 0.0131143 0.9959754 0.0131143 0.0040246 -0.0131143
3250000000 0.0040270 -0.0123367 0.9959730 0.0123367 0.9959730 0.0123367 0.0040270 -0.0123367
3271000000 0.0040308 -0.0115637 0.9959692 0.0115637 0.9959692 0.0115637 0.0040308 -0.0115637
3292000000 0.0040360 -0.0107954 0.9959640 0.0107954 0.9959640 0.0107954 0.0040360 -0.0107954
3313000000 0.0040425 -0.0100316 0.9959575 0.0100316 0.9959575 0.0100316 0.0040425 -0.0100316
3334000000 0.0040504 -0.0092721 0.9959496 0.0092721 0.9959496 0.0092721 0.0040504 -0.0092721
3355000000 0.0040596 -0.0085170 0.9959404 0.0085170 0.9959404 0.0085170 0.0040596 -0.0085170
3376000000 0.0040701 -0.0077660 0.9959299 0.0077660 0.9959299 0.0077660 0.0040701 -0.0077660
3397000000 0.0040819 -0.0070191 0.9959181 0.0070191 0.9959181 0.0070191 0.0040819 -0.0070191
3418000000 0.0040949 -0.0062763 0.9959051 0.0062763 0.9959051 0.0062763 0.0040949 -0.0062763
3439000000 0.0041092 -0.0055373 0.9958908 0.0055373 0.9958908 0.0055373 0.0041092 -0.0055373
3460000000 0.0041246 -0.0048022 0.9958754 0.0048022 0.9958754 0.0048022 0.0041246 -0.0048022
3481000000 0.0041413 -0.0040708 0.9958587 0.0040708 0.9958587 0.0040708 0.0041413 -0.0040708
3502000000 0.0041591 -0.0033431 0.9958409 0.0033431 0.9958409 0.0033431 0.0041591 -0.0033431
3523000000 0.0041780 -0.0026189 0.9958220 0.0026189 0.9958220 0.0026189 0.0041780 -0.0026189
3544000000 0.0041982 -0.0018983 0.9958018 0.0018983 0.9958018 0.0018983 0.0041982 -0.0018983
3565000000 0.0042194 -0.0011810 0.9957806 0.0011810 0.9957806 0.0011810 0.0042194 -0.0011810
3586000000 0.0042417 -0.0004670 0.9957583 0.0004670 0.9957583 0.0004670 0.0042417 -0.0004670
3607000000 0.0042652 0.0002437 0.9957348 -0.0002437 0.9957348 -0.0002437 0.0042652 0.0002437
3628000000 0.0042897 0.0009512 0.9957103 -0.0009512 0.9957103 -0.0009512 0.0042897 0.0009512
3649000000 0.0043153 0.0016556 0.9956847 -0.0016556 0.9956847 -0.0016556 0.0043153 0.0016556
3670000000 0.0043419 0.0023570 0.9956581 -0.0023570 0.9956581 -0.0023570 0.0043419 0.0023570
3691000000 0.0043695 0.0030555 0.9956305 -0.0030555 0.9956305 -0.0030555 0.0043695 0.0030555
3712000000 0.0043982 0.0037511 0.9956018 -0.0037511 0.9956018 -0.0037511 0.0043982 0.0037511
3733000000 0.0044279 0.0044438 0.9955721 -0.0044438 0.9955721 -0.0044438 0.0044279 0.0044438
3754000000 0.0044586 0.0051339 0.9955414 -0.0051339 0.9955414 -0.0051339 0.0044586 0.0051339
3775000000 0.0044903 0.0058212 0.9955097 -0.0058212 0.9955097 -0.0058212 0.0044903 0.0058212
3796000000 0.0045230 0.0065060 0.9954770 -0.0065060 0.9954770 -0.0065060 0.0045230 0.0065060
3817000000 0.0045566 0.0071882 0.9954434 -0.0071882 0.9954434 -0.0071882 0.0045566 0.0071882
3838000000 0.0045912 0.0078679 0.9954088 -0.0078679 0.9954088 -0.0078679 0.0045912 0.0078679
3859000000 0.0046267 0.0085452 0.9953733 -0.0085452 0.9953733 -0.0085452 0.0046267 0.0085452
3880000000 0.0046632 0.0092201 0.9953368 -0.0092201 0.9953368 -0.0092201 0.0046632 0.0092201
3901000000 0.0047006 0.0098927 0.9952994 -0.0098927 0.9952994 -0.0098927 0.0047006 0.0098927
3922000000 0.0047389 0.0105631 0.9952611 -0.0105631 0.9952611 -0.0105631 0.0047389 0.0105631
3943000000 0.0047782 0.0112313 0.9952218 -0.0112313 0.9952218 -0.0112313 0.0047782 0.0112313
3964000000 0.0048183 0.0118974 0.9951817 -0.0118974 0.9951817 -0.0118974 0.0048183 0.0118974
3985000000 0.0048593 0.0125615 0.9951407 -0.0125615 0.9951407 -0.0125615 0.0048593 0.0125615
4006000000 0.0049013 0.0132235 0.9950987 -0.0132235 0.9950987 -0.0132235 0.0049013 0.0132235
4027000000 0.0049441 0.0138836 0.9950559 -0.0138836 0.9950559 -0.0138836 0.0049441 0.0138836
4048000000 0.0049877 0.0145417 0.9950123 -0.0145417 0.9950123 -0.0145417 0.0049877 0.0145417
4069000000 0.0050323 0.0151981 0.9949677 -0.0151981 0.9949677 -0.0151981 0.0050323 0.0151981
4090000000 0.0050777 0.0158526 0.9949223 -0.0158526 0.9949223 -0.0158526 0.0050777 0.0158526
4111000000 0.0051239 0.0165054 0.9948761 -0.0165054 0.9948761 -0.0165054 0.0051239 0.0165054
4132000000 0.0051710 0.0171565 0.9948290 -0.0171565 0.9948290 -0.0171565 0.0051710 0.0171565
4153000000 0.0052190 0.0178060 0.9947810 -0.0178060 0.9947810 -0.0178060 0.0052190 0.0178060
4174000000 0.0052678 0.0184538 0.9947322 -0.0184538 0.9947322 -0.0184538 0.0052678 0.0184538
4195000000 0.0053174 0.0191002 0.9946826 -0.0191002 0.9946826 -0.0191002 0.0053174 0.0191002
4216000000 0.0053678 0.0197450 0.9946322 -0.0197450 0.9946322 -0.0197450 0.0053678 0.0197450
4237000000 0.0054191 0.0203884 0.9945809 -0.0203884 0.9945809 -0.0203884 0.0054191 0.0203884
4258000000 0.0054712 0.0210304 0.9945288 -0.0210304 0.9945288 -0.0210304 0.0054712 0.0210304
4279000000 0.0055241 0.0216711 0.9944759 -0.0216711 0.9944759 -0.0216711 0.0055241 0.0216711
4300000000 0.0055778 0.0223104 0.9944222 -0.0223104 0.9944222 -0.0223104 0.0055778 0.0223104
4321000000 0.0056324 0.0229485 0.9943676 -0.0229485 0.9943676 -0.0229485 0.0056324 0.0229485
4342000000 0.0056877 0.0235854 0.9943123 -0.0235854 0.9943123 -0.0235854 0.0056877 0.0235854
4363000000 0.0057438 0.0242212 0.9942562 -0.0242212 0.9942562 -0.0242212 0.0057438 0.0242212
4384000000 0.0058008 0.0248558 0.9941992 -0.0248558 0.9941992 -0.0248558 0.0058008 0.0248558
4405000000 0.0058585 0.0254893 0.9941415 -0.0254893 0.9941415 -0.0254893 0.0058585 0.0254893
4426000000 0.0059170 0.0261218 0.9940830 -0.0261218 0.9940830 -0.0261218 0.0059170 0.0261218
4447000000 0.0059764 0.0267533 0.9940236 -0.0267533 0.9940236 -0.0267533 0.0059764 0.0267533
4468000000 0.0060365 0.0273839 0.9939635 -0.0273839 0.9939635 -0.0273839 0.0060365 0.0273839
4489000000 0.0060974 0.0280135 0.9939026 -0.0280135 0.9939026 -0.0280135 0.0060974 0.0280135
4510000000 0.0061591 0.0286423 0.9938409 -0.0286423 0.9938409 -0.0286423 0.0061591 0.0286423
