!Murata Part Number: GRM0332C2A390JA01
!These Parameters are Measured in Series Mode Connection
!Data Generated on Mar 30, 2021
!       o--ll--o
!Port1            Port2
!       o------o
!Operation Temp=25[degC], DC Bias Voltage=0[V]
!Freq. Start=100[MHz] Stop=9[GHz] 401[Steps]
# Hz S RI R 50
!Freq.(Hz) S11(Real) S11(Imag) S21(Real) S21(Imag) S12(Real) S12(Imag) S22(Real) S22(Imag)
100000000 0.1426301 -0.3480895 0.8573699 0.3480895 0.8573699 0.3480895 0.1426301 -0.3480895
121000000 0.1020439 -0.3007575 0.8979561 0.3007575 0.8979561 0.3007575 0.1020439 -0.3007575
142000000 0.0762377 -0.2630834 0.9237623 0.2630834 0.9237623 0.2630834 0.0762377 -0.2630834
163000000 0.0589569 -0.2328994 0.9410431 0.2328994 0.9410431 0.2328994 0.0589569 -0.2328994
184000000 0.0468775 -0.2083777 0.9531225 0.2083777 0.9531225 0.2083777 0.0468775 -0.2083777
205000000 0.0381291 -0.1881502 0.9618709 0.1881502 0.9618709 0.1881502 0.0381291 -0.1881502
226000000 0.0316036 -0.1712200 0.9683964 0.1712200 0.9683964 0.1712200 0.0316036 -0.1712200
247000000 0.0266138 -0.1568595 0.9733862 0.1568595 0.9733862 0.1568595 0.0266138 -0.1568595
268000000 0.0227174 -0.1445320 0.9772826 0.1445320 0.9772826 0.1445320 0.0227174 -0.1445320
289000000 0.0196195 -0.1338359 0.9803805 0.1338359 0.9803805 0.1338359 0.0196195 -0.1338359
310000000 0.0171177 -0.1244665 0.9828823 0.1244665 0.9828823 0.1244665 0.0171177 -0.1244665
331000000 0.0150699 -0.1161887 0.9849301 0.1161887 0.9849301 0.1161887 0.0150699 -0.1161887
352000000 0.0133736 -0.1088190 0.9866264 0.1088190 0.9866264 0.1088190 0.0133736 -0.1088190
373000000 0.0119538 -0.1022124 0.9880462 0.1022124 0.9880462 0.1022124 0.0119538 -0.1022124
394000000 0.0107541 -0.0962526 0.9892459 0.0962526 0.9892459 0.0962526 0.0107541 -0.0962526
415000000 0.0097322 -0.0908458 0.9902678 0.0908458 0.9902678 0.0908458 0.0097322 -0.0908458
436000000 0.0088552 -0.0859150 0.9911448 0.0859150 0.9911448 0.0859150 0.0088552 -0.0859150
457000000 0.0080975 -0.0813971 0.9919025 0.0813971 0.9919025 0.0813971 0.0080975 -0.0813971
478000000 0.0074390 -0.0772393 0.9925610 0.0772393 0.9925610 0.0772393 0.0074390 -0.0772393
499000000 0.0068637 -0.0733975 0.9931363 0.0733975 0.9931363 0.0733975 0.0068637 -0.0733975
520000000 0.0063586 -0.0698344 0.9936414 0.0698344 0.9936414 0.0698344 0.0063586 -0.0698344
541000000 0.0059132 -0.0665185 0.9940868 0.0665185 0.9940868 0.0665185 0.0059132 -0.0665185
562000000 0.0055190 -0.0634227 0.9944810 0.0634227 0.9944810 0.0634227 0.0055190 -0.0634227
583000000 0.0051687 -0.0605237 0.9948313 0.0605237 0.9948313 0.0605237 0.0051687 -0.0605237
604000000 0.0048565 -0.0578015 0.9951435 0.0578015 0.9951435 0.0578015 0.0048565 -0.0578015
625000000 0.0045775 -0.0552384 0.9954225 0.0552384 0.9954225 0.0552384 0.0045775 -0.0552384
646000000 0.0043275 -0.0528195 0.9956725 0.0528195 0.9956725 0.0528195 0.0043275 -0.0528195
667000000 0.0041030 -0.0505311 0.9958970 0.0505311 0.9958970 0.0505311 0.0041030 -0.0505311
688000000 0.0039011 -0.0483617 0.9960989 0.0483617 0.9960989 0.0483617 0.0039011 -0.0483617
709000000 0.0037190 -0.0463008 0.9962810 0.0463008 0.9962810 0.0463008 0.0037190 -0.0463008
730000000 0.0035547 -0.0443391 0.9964453 0.0443391 0.9964453 0.0443391 0.0035547 -0.0443391
751000000 0.0034062 -0.0424685 0.9965938 0.0424685 0.9965938 0.0424685 0.0034062 -0.0424685
772000000 0.0032719 -0.0406817 0.9967281 0.0406817 0.9967281 0.0406817 0.0032719 -0.0406817
793000000 0.0031503 -0.0389720 0.9968497 0.0389720 0.9968497 0.0389720 0.0031503 -0.0389720
814000000 0.0030402 -0.0373337 0.9969598 0.0373337 0.9969598 0.0373337 0.0030402 -0.0373337
835000000 0.0029405 -0.0357613 0.9970595 0.0357613 0.9970595 0.0357613 0.0029405 -0.0357613
856000000 0.0028502 -0.0342501 0.9971498 0.0342501 0.9971498 0.0342501 0.0028502 -0.0342501
877000000 0.0027685 -0.0327958 0.9972315 0.0327958 0.9972315 0.0327958 0.0027685 -0.0327958
898000000 0.0026945 -0.0313944 0.9973055 0.0313944 0.9973055 0.0313944 0.0026945 -0.0313944
919000000 0.0026277 -0.0300423 0.9973723 0.0300423 0.9973723 0.0300423 0.0026277 -0.0300423
940000000 0.0025673 -0.0287362 0.9974327 0.0287362 0.9974327 0.0287362 0.0025673 -0.0287362
961000000 0.0025130 -0.0274733 0.9974870 0.0274733 0.9974870 0.0274733 0.0025130 -0.0274733
982000000 0.0024641 -0.0262506 0.9975359 0.0262506 0.9975359 0.0262506 0.0024641 -0.0262506
1003000000 0.0024203 -0.0250658 0.9975797 0.0250658 0.9975797 0.0250658 0.0024203 -0.0250658
1024000000 0.0023812 -0.0239165 0.9976188 0.0239165 0.9976188 0.0239165 0.0023812 -0.0239165
1045000000 0.0023464 -0.0228006 0.9976536 0.0228006 0.9976536 0.0228006 0.0023464 -0.0228006
1066000000 0.0023156 -0.0217161 0.9976844 0.0217161 0.9976844 0.0217161 0.0023156 -0.0217161
1087000000 0.0022885 -0.0206613 0.9977115 0.0206613 0.9977115 0.0206613 0.0022885 -0.0206613
1108000000 0.0022649 -0.0196344 0.9977351 0.0196344 0.9977351 0.0196344 0.0022649 -0.0196344
1129000000 0.0022445 -0.0186340 0.9977555 0.0186340 0.9977555 0.0186340 0.0022445 -0.0186340
1150000000 0.0022271 -0.0176585 0.9977729 0.0176585 0.9977729 0.0176585 0.0022271 -0.0176585
1171000000 0.0022125 -0.0167067 0.9977875 0.0167067 0.9977875 0.0167067 0.0022125 -0.0167067
1192000000 0.0022006 -0.0157773 0.9977994 0.0157773 0.9977994 0.0157773 0.0022006 -0.0157773
1213000000 0.0021911 -0.0148691 0.9978089 0.0148691 0.9978089 0.0148691 0.0021911 -0.0148691
1234000000 0.0021838 -0.0139811 0.9978162 0.0139811 0.9978162 0.0139811 0.0021838 -0.0139811
1255000000 0.0021788 -0.0131122 0.9978212 0.0131122 0.9978212 0.0131122 0.0021788 -0.0131122
1276000000 0.0021758 -0.0122615 0.9978242 0.0122615 0.9978242 0.0122615 0.0021758 -0.0122615
1297000000 0.0021748 -0.0114282 0.9978252 0.0114282 0.9978252 0.0114282 0.0021748 -0.0114282
1318000000 0.0021755 -0.0106113 0.9978245 0.0106113 0.9978245 0.0106113 0.0021755 -0.0106113
1339000000 0.0021780 -0.0098102 0.9978220 0.0098102 0.9978220 0.0098102 0.0021780 -0.0098102
1360000000 0.0021821 -0.0090240 0.9978179 0.0090240 0.9978179 0.0090240 0.0021821 -0.0090240
1381000000 0.0021877 -0.0082522 0.9978123 0.0082522 0.9978123 0.0082522 0.0021877 -0.0082522
1402000000 0.0021948 -0.0074940 0.9978052 0.0074940 0.9978052 0.0074940 0.0021948 -0.0074940
1423000000 0.0022033 -0.0067489 0.9977967 0.0067489 0.9977967 0.0067489 0.0022033 -0.0067489
1444000000 0.0022131 -0.0060162 0.9977869 0.0060162 0.9977869 0.0060162 0.0022131 -0.0060162
1465000000 0.0022241 -0.0052955 0.9977759 0.0052955 0.9977759 0.0052955 0.0022241 -0.0052955
1486000000 0.0022364 -0.0045862 0.9977636 0.0045862 0.9977636 0.0045862 0.0022364 -0.0045862
1507000000 0.0022498 -0.0038878 0.9977502 0.0038878 0.9977502 0.0038878 0.0022498 -0.0038878
1528000000 0.0022643 -0.0031999 0.9977357 0.0031999 0.9977357 0.0031999 0.0022643 -0.0031999
1549000000 0.0022799 -0.0025220 0.9977201 0.0025220 0.9977201 0.0025220 0.0022799 -0.0025220
1570000000 0.0022965 -0.0018538 0.9977035 0.0018538 0.9977035 0.0018538 0.0022965 -0.0018538
1591000000 0.0023140 -0.0011948 0.9976860 0.0011948 0.9976860 0.0011948 0.0023140 -0.0011948
1612000000 0.0023325 -0.0005447 0.9976675 0.0005447 0.9976675 0.0005447 0.0023325 -0.0005447
1633000000 0.0023519 0.0000969 0.9976481 -0.0000969 0.9976481 -0.0000969 0.0023519 0.0000969
1654000000 0.0023721 0.0007303 0.9976279 -0.0007303 0.9976279 -0.0007303 0.0023721 0.0007303
1675000000 0.0023932 0.0013559 0.9976068 -0.0013559 0.9976068 -0.0013559 0.0023932 0.0013559
1696000000 0.0024151 0.0019739 0.9975849 -0.0019739 0.9975849 -0.0019739 0.0024151 0.0019739
1717000000 0.0024378 0.0025846 0.9975622 -0.0025846 0.9975622 -0.0025846 0.0024378 0.0025846
1738000000 0.0024613 0.0031883 0.9975387 -0.0031883 0.9975387 -0.0031883 0.0024613 0.0031883
1759000000 0.0024855 0.0037853 0.9975145 -0.0037853 0.9975145 -0.0037853 0.0024855 0.0037853
1780000000 0.0025104 0.0043758 0.9974896 -0.0043758 0.9974896 -0.0043758 0.0025104 0.0043758
1801000000 0.0025361 0.0049600 0.9974639 -0.0049600 0.9974639 -0.0049600 0.0025361 0.0049600
1822000000 0.0025624 0.0055382 0.9974376 -0.0055382 0.9974376 -0.0055382 0.0025624 0.0055382
1843000000 0.0025894 0.0061107 0.9974106 -0.0061107 0.9974106 -0.0061107 0.0025894 0.0061107
1864000000 0.0026171 0.0066775 0.9973829 -0.0066775 0.9973829 -0.0066775 0.0026171 0.0066775
1885000000 0.0026454 0.0072389 0.9973546 -0.0072389 0.9973546 -0.0072389 0.0026454 0.0072389
1906000000 0.0026744 0.0077952 0.9973256 -0.0077952 0.9973256 -0.0077952 0.0026744 0.0077952
1927000000 0.0027039 0.0083464 0.9972961 -0.0083464 0.9972961 -0.0083464 0.0027039 0.0083464
1948000000 0.0027341 0.0088928 0.9972659 -0.0088928 0.9972659 -0.0088928 0.0027341 0.0088928
1969000000 0.0027650 0.0094346 0.9972350 -0.0094346 0.9972350 -0.0094346 0.0027650 0.0094346
1990000000 0.0027964 0.0099718 0.9972036 -0.0099718 0.9972036 -0.0099718 0.0027964 0.0099718
2011000000 0.0028284 0.0105047 0.9971716 -0.0105047 0.9971716 -0.0105047 0.0028284 0.0105047
2032000000 0.0028610 0.0110334 0.9971390 -0.0110334 0.9971390 -0.0110334 0.0028610 0.0110334
2053000000 0.0028942 0.0115580 0.9971058 -0.0115580 0.9971058 -0.0115580 0.0028942 0.0115580
2074000000 0.0029280 0.0120788 0.9970720 -0.0120788 0.9970720 -0.0120788 0.0029280 0.0120788
2095000000 0.0029624 0.0125957 0.9970376 -0.0125957 0.9970376 -0.0125957 0.0029624 0.0125957
2116000000 0.0029974 0.0131090 0.9970026 -0.0131090 0.9970026 -0.0131090 0.0029974 0.0131090
2137000000 0.0030329 0.0136188 0.9969671 -0.0136188 0.9969671 -0.0136188 0.0030329 0.0136188
2158000000 0.0030690 0.0141251 0.9969310 -0.0141251 0.9969310 -0.0141251 0.0030690 0.0141251
2179000000 0.0031057 0.0146282 0.9968943 -0.0146282 0.9968943 -0.0146282 0.0031057 0.0146282
2200000000 0.0031430 0.0151281 0.9968570 -0.0151281 0.9968570 -0.0151281 0.0031430 0.0151281
2221000000 0.0031809 0.0156249 0.9968191 -0.0156249 0.9968191 -0.0156249 0.0031809 0.0156249
2242000000 0.0032194 0.0161188 0.9967806 -0.0161188 0.9967806 -0.0161188 0.0032194 0.0161188
2263000000 0.0032584 0.0166098 0.9967416 -0.0166098 0.9967416 -0.0166098 0.0032584 0.0166098
2284000000 0.0032981 0.0170980 0.9967019 -0.0170980 0.9967019 -0.0170980 0.0032981 0.0170980
2305000000 0.0033383 0.0175836 0.9966617 -0.0175836 0.9966617 -0.0175836 0.0033383 0.0175836
2326000000 0.0033792 0.0180665 0.9966208 -0.0180665 0.9966208 -0.0180665 0.0033792 0.0180665
2347000000 0.0034207 0.0185470 0.9965793 -0.0185470 0.9965793 -0.0185470 0.0034207 0.0185470
2368000000 0.0034628 0.0190250 0.9965372 -0.0190250 0.9965372 -0.0190250 0.0034628 0.0190250
2389000000 0.0035056 0.0195008 0.9964944 -0.0195008 0.9964944 -0.0195008 0.0035056 0.0195008
2410000000 0.0035489 0.0199742 0.9964511 -0.0199742 0.9964511 -0.0199742 0.0035489 0.0199742
2431000000 0.0035930 0.0204455 0.9964070 -0.0204455 0.9964070 -0.0204455 0.0035930 0.0204455
2452000000 0.0036377 0.0209148 0.9963623 -0.0209148 0.9963623 -0.0209148 0.0036377 0.0209148
2473000000 0.0036830 0.0213819 0.9963170 -0.0213819 0.9963170 -0.0213819 0.0036830 0.0213819
2494000000 0.0037291 0.0218472 0.9962709 -0.0218472 0.9962709 -0.0218472 0.0037291 0.0218472
2515000000 0.0037759 0.0223105 0.9962241 -0.0223105 0.9962241 -0.0223105 0.0037759 0.0223105
2536000000 0.0038233 0.0227721 0.9961767 -0.0227721 0.9961767 -0.0227721 0.0038233 0.0227721
2557000000 0.0038715 0.0232319 0.9961285 -0.0232319 0.9961285 -0.0232319 0.0038715 0.0232319
2578000000 0.0039205 0.0236900 0.9960795 -0.0236900 0.9960795 -0.0236900 0.0039205 0.0236900
2599000000 0.0039702 0.0241464 0.9960298 -0.0241464 0.9960298 -0.0241464 0.0039702 0.0241464
2620000000 0.0040206 0.0246013 0.9959794 -0.0246013 0.9959794 -0.0246013 0.0040206 0.0246013
2641000000 0.0040719 0.0250547 0.9959281 -0.0250547 0.9959281 -0.0250547 0.0040719 0.0250547
2662000000 0.0041240 0.0255067 0.9958760 -0.0255067 0.9958760 -0.0255067 0.0041240 0.0255067
2683000000 0.0041770 0.0259572 0.9958230 -0.0259572 0.9958230 -0.0259572 0.0041770 0.0259572
2704000000 0.0042308 0.0264064 0.9957692 -0.0264064 0.9957692 -0.0264064 0.0042308 0.0264064
2725000000 0.0042855 0.0268543 0.9957145 -0.0268543 0.9957145 -0.0268543 0.0042855 0.0268543
2746000000 0.0043411 0.0273010 0.9956589 -0.0273010 0.9956589 -0.0273010 0.0043411 0.0273010
2767000000 0.0043977 0.0277465 0.9956023 -0.0277465 0.9956023 -0.0277465 0.0043977 0.0277465
2788000000 0.0044553 0.0281908 0.9955447 -0.0281908 0.9955447 -0.0281908 0.0044553 0.0281908
2809000000 0.0045138 0.0286340 0.9954862 -0.0286340 0.9954862 -0.0286340 0.0045138 0.0286340
2830000000 0.0045734 0.0290761 0.9954266 -0.0290761 0.9954266 -0.0290761 0.0045734 0.0290761
2851000000 0.0046341 0.0295172 0.9953659 -0.0295172 0.9953659 -0.0295172 0.0046341 0.0295172
2872000000 0.0046959 0.0299574 0.9953041 -0.0299574 0.9953041 -0.0299574 0.0046959 0.0299574
2893000000 0.0047589 0.0303966 0.9952411 -0.0303966 0.9952411 -0.0303966 0.0047589 0.0303966
2914000000 0.0048230 0.0308349 0.9951770 -0.0308349 0.9951770 -0.0308349 0.0048230 0.0308349
2935000000 0.0048884 0.0312723 0.9951116 -0.0312723 0.9951116 -0.0312723 0.0048884 0.0312723
2956000000 0.0049551 0.0317088 0.9950449 -0.0317088 0.9950449 -0.0317088 0.0049551 0.0317088
2977000000 0.0050232 0.0321446 0.9949768 -0.0321446 0.9949768 -0.0321446 0.0050232 0.0321446
2998000000 0.0050926 0.0325795 0.9949074 -0.0325795 0.9949074 -0.0325795 0.0050926 0.0325795
3019000000 0.0051635 0.0330137 0.9948365 -0.0330137 0.9948365 -0.0330137 0.0051635 0.0330137
3040000000 0.0052359 0.0334471 0.9947641 -0.0334471 0.9947641 -0.0334471 0.0052359 0.0334471
3061000000 0.0053099 0.0338798 0.9946901 -0.0338798 0.9946901 -0.0338798 0.0053099 0.0338798
3082000000 0.0053856 0.0343118 0.9946144 -0.0343118 0.9946144 -0.0343118 0.0053856 0.0343118
3103000000 0.0054629 0.0347430 0.9945371 -0.0347430 0.9945371 -0.0347430 0.0054629 0.0347430
3124000000 0.0055421 0.0351736 0.9944579 -0.0351736 0.9944579 -0.0351736 0.0055421 0.0351736
3145000000 0.0056231 0.0356034 0.9943769 -0.0356034 0.9943769 -0.0356034 0.0056231 0.0356034
3166000000 0.0057062 0.0360325 0.9942938 -0.0360325 0.9942938 -0.0360325 0.0057062 0.0360325
3187000000 0.0057912 0.0364608 0.9942088 -0.0364608 0.9942088 -0.0364608 0.0057912 0.0364608
3208000000 0.0058784 0.0368883 0.9941216 -0.0368883 0.9941216 -0.0368883 0.0058784 0.0368883
3229000000 0.0059679 0.0373151 0.9940321 -0.0373151 0.9940321 -0.0373151 0.0059679 0.0373151
3250000000 0.0060597 0.0377409 0.9939403 -0.0377409 0.9939403 -0.0377409 0.0060597 0.0377409
3271000000 0.0061540 0.0381659 0.9938460 -0.0381659 0.9938460 -0.0381659 0.0061540 0.0381659
3292000000 0.0062509 0.0385898 0.9937491 -0.0385898 0.9937491 -0.0385898 0.0062509 0.0385898
3313000000 0.0063504 0.0390127 0.9936496 -0.0390127 0.9936496 -0.0390127 0.0063504 0.0390127
3334000000 0.0064528 0.0394344 0.9935472 -0.0394344 0.9935472 -0.0394344 0.0064528 0.0394344
3355000000 0.0065581 0.0398548 0.9934419 -0.0398548 0.9934419 -0.0398548 0.0065581 0.0398548
3376000000 0.0066664 0.0402737 0.9933336 -0.0402737 0.9933336 -0.0402737 0.0066664 0.0402737
3397000000 0.0067778 0.0406910 0.9932222 -0.0406910 0.9932222 -0.0406910 0.0067778 0.0406910
3418000000 0.0068925 0.0411065 0.9931075 -0.0411065 0.9931075 -0.0411065 0.0068925 0.0411065
3439000000 0.0070106 0.0415200 0.9929894 -0.0415200 0.9929894 -0.0415200 0.0070106 0.0415200
3460000000 0.0071322 0.0419312 0.9928678 -0.0419312 0.9928678 -0.0419312 0.0071322 0.0419312
3481000000 0.0072572 0.0423399 0.9927428 -0.0423399 0.9927428 -0.0423399 0.0072572 0.0423399
3502000000 0.0073859 0.0427457 0.9926141 -0.0427457 0.9926141 -0.0427457 0.0073859 0.0427457
3523000000 0.0075181 0.0431483 0.9924819 -0.0431483 0.9924819 -0.0431483 0.0075181 0.0431483
3544000000 0.0076540 0.0435473 0.9923460 -0.0435473 0.9923460 -0.0435473 0.0076540 0.0435473
3565000000 0.0077934 0.0439422 0.9922066 -0.0439422 0.9922066 -0.0439422 0.0077934 0.0439422
3586000000 0.0079362 0.0443327 0.9920638 -0.0443327 0.9920638 -0.0443327 0.0079362 0.0443327
3607000000 0.0080822 0.0447183 0.9919178 -0.0447183 0.9919178 -0.0447183 0.0080822 0.0447183
3628000000 0.0082312 0.0450985 0.9917688 -0.0450985 0.9917688 -0.0450985 0.0082312 0.0450985
3649000000 0.0083829 0.0454727 0.9916171 -0.0454727 0.9916171 -0.0454727 0.0083829 0.0454727
3670000000 0.0085368 0.0458406 0.9914632 -0.0458406 0.9914632 -0.0458406 0.0085368 0.0458406
3691000000 0.0086924 0.0462015 0.9913076 -0.0462015 0.9913076 -0.0462015 0.0086924 0.0462015
3712000000 0.0088490 0.0465552 0.9911510 -0.0465552 0.9911510 -0.0465552 0.0088490 0.0465552
3733000000 0.0090059 0.0469012 0.9909941 -0.0469012 0.9909941 -0.0469012 0.0090059 0.0469012
3754000000 0.0091621 0.0472392 0.9908379 -0.0472392 0.9908379 -0.0472392 0.0091621 0.0472392
3775000000 0.0093168 0.0475692 0.9906832 -0.0475692 0.9906832 -0.0475692 0.0093168 0.0475692
3796000000 0.0094689 0.0478911 0.9905311 -0.0478911 0.9905311 -0.0478911 0.0094689 0.0478911
3817000000 0.0096172 0.0482052 0.9903828 -0.0482052 0.9903828 -0.0482052 0.0096172 0.0482052
3838000000 0.0097607 0.0485119 0.9902393 -0.0485119 0.9902393 -0.0485119 0.0097607 0.0485119
3859000000 0.0098983 0.0488117 0.9901017 -0.0488117 0.9901017 -0.0488117 0.0098983 0.0488117
3880000000 0.0100289 0.0491055 0.9899711 -0.0491055 0.9899711 -0.0491055 0.0100289 0.0491055
3901000000 0.0101518 0.0493943 0.9898482 -0.0493943 0.9898482 -0.0493943 0.0101518 0.0493943
3922000000 0.0102661 0.0496794 0.9897339 -0.0496794 0.9897339 -0.0496794 0.0102661 0.0496794
3943000000 0.0103715 0.0499620 0.9896285 -0.0499620 0.9896285 -0.0499620 0.0103715 0.0499620
3964000000 0.0104678 0.0502436 0.9895322 -0.0502436 0.9895322 -0.0502436 0.0104678 0.0502436
3985000000 0.0105549 0.0505257 0.9894451 -0.0505257 0.9894451 -0.0505257 0.0105549 0.0505257
4006000000 0.0106331 0.0508096 0.9893669 -0.0508096 0.9893669 -0.0508096 0.0106331 0.0508096
4027000000 0.0107031 0.0510967 0.9892969 -0.0510967 0.9892969 -0.0510967 0.0107031 0.0510967
4048000000 0.0107656 0.0513881 0.9892344 -0.0513881 0.9892344 -0.0513881 0.0107656 0.0513881
4069000000 0.0108214 0.0516848 0.9891786 -0.0516848 0.9891786 -0.0516848 0.0108214 0.0516848
4090000000 0.0108717 0.0519877 0.9891283 -0.0519877 0.9891283 -0.0519877 0.0108717 0.0519877
4111000000 0.0109177 0.0522973 0.9890823 -0.0522973 0.9890823 -0.0522973 0.0109177 0.0522973
4132000000 0.0109604 0.0526140 0.9890396 -0.0526140 0.9890396 -0.0526140 0.0109604 0.0526140
4153000000 0.0110009 0.0529378 0.9889991 -0.0529378 0.9889991 -0.0529378 0.0110009 0.0529378
4174000000 0.0110405 0.0532689 0.9889595 -0.0532689 0.9889595 -0.0532689 0.0110405 0.0532689
4195000000 0.0110800 0.0536070 0.9889200 -0.0536070 0.9889200 -0.0536070 0.0110800 0.0536070
4216000000 0.0111203 0.0539519 0.9888797 -0.0539519 0.9888797 -0.0539519 0.0111203 0.0539519
4237000000 0.0111624 0.0543031 0.9888376 -0.0543031 0.9888376 -0.0543031 0.0111624 0.0543031
4258000000 0.0112068 0.0546602 0.9887932 -0.0546602 0.9887932 -0.0546602 0.0112068 0.0546602
4279000000 0.0112541 0.0550227 0.9887459 -0.0550227 0.9887459 -0.0550227 0.0112541 0.0550227
4300000000 0.0113048 0.0553900 0.9886952 -0.0553900 0.9886952 -0.0553900 0.0113048 0.0553900
4321000000 0.0113592 0.0557617 0.9886408 -0.0557617 0.9886408 -0.0557617 0.0113592 0.0557617
4342000000 0.0114178 0.0561373 0.9885822 -0.0561373 0.9885822 -0.0561373 0.0114178 0.0561373
4363000000 0.0114805 0.0565161 0.9885195 -0.0565161 0.9885195 -0.0565161 0.0114805 0.0565161
4384000000 0.0115478 0.0568978 0.9884522 -0.0568978 0.9884522 -0.0568978 0.0115478 0.0568978
4405000000 0.0116195 0.0572818 0.9883805 -0.0572818 0.9883805 -0.0572818 0.0116195 0.0572818
4426000000 0.0116958 0.0576679 0.9883042 -0.0576679 0.9883042 -0.0576679 0.0116958 0.0576679
4447000000 0.0117768 0.0580554 0.9882232 -0.0580554 0.9882232 -0.0580554 0.0117768 0.0580554
4468000000 0.0118623 0.0584442 0.9881377 -0.0584442 0.9881377 -0.0584442 0.0118623 0.0584442
4489000000 0.0119524 0.0588338 0.9880476 -0.0588338 0.9880476 -0.0588338 0.0119524 0.0588338
4510000000 0.0120469 0.0592240 0.9879531 -0.0592240 0.9879531 -0.0592240 0.0120469 0.0592240
