!Murata Part Number: GRM0335C1H5R0WA01
!These Parameters are Measured in Series Mode Connection
!Data Generated on Mar 30, 2021
!       o--ll--o
!Port1            Port2
!       o------o
!Operation Temp=25[degC], DC Bias Voltage=0[V]
!Freq. Start=100[MHz] Stop=9[GHz] 401[Steps]
# Hz S RI R 50
!Freq.(Hz) S11(Real) S11(Imag) S21(Real) S21(Imag) S12(Real) S12(Imag) S22(Real) S22(Imag)
100000000 0.9099370 -0.2859419 0.0900630 0.2859419 0.0900630 0.2859419 0.9099370 -0.2859419
121000000 0.8733908 -0.3321350 0.1266092 0.3321350 0.1266092 0.3321350 0.8733908 -0.3321350
142000000 0.8335214 -0.3720404 0.1664786 0.3720404 0.1664786 0.3720404 0.8335214 -0.3720404
163000000 0.7915787 -0.4056405 0.2084213 0.4056405 0.2084213 0.4056405 0.7915787 -0.4056405
184000000 0.7486739 -0.4331666 0.2513261 0.4331666 0.2513261 0.4331666 0.7486739 -0.4331666
205000000 0.7057422 -0.4550292 0.2942578 0.4550292 0.2942578 0.4550292 0.7057422 -0.4550292
226000000 0.6635306 -0.4717520 0.3364694 0.4717520 0.3364694 0.4717520 0.6635306 -0.4717520
247000000 0.6226049 -0.4839149 0.3773951 0.4839149 0.3773951 0.4839149 0.6226049 -0.4839149
268000000 0.5833680 -0.4921098 0.4166320 0.4921098 0.4166320 0.4921098 0.5833680 -0.4921098
289000000 0.5460844 -0.4969096 0.4539156 0.4969096 0.4539156 0.4969096 0.5460844 -0.4969096
310000000 0.5109064 -0.4988475 0.4890936 0.4988475 0.4890936 0.4988475 0.5109064 -0.4988475
331000000 0.4778984 -0.4984061 0.5221016 0.4984061 0.5221016 0.4984061 0.4778984 -0.4984061
352000000 0.4470593 -0.4960121 0.5529407 0.4960121 0.5529407 0.4960121 0.4470593 -0.4960121
373000000 0.4183405 -0.4920369 0.5816595 0.4920369 0.5816595 0.4920369 0.4183405 -0.4920369
394000000 0.3916611 -0.4867991 0.6083389 0.4867991 0.6083389 0.4867991 0.3916611 -0.4867991
415000000 0.3669192 -0.4805684 0.6330808 0.4805684 0.6330808 0.4805684 0.3669192 -0.4805684
436000000 0.3440008 -0.4735719 0.6559992 0.4735719 0.6559992 0.4735719 0.3440008 -0.4735719
457000000 0.3227867 -0.4659984 0.6772133 0.4659984 0.6772133 0.4659984 0.3227867 -0.4659984
478000000 0.3031566 -0.4580042 0.6968434 0.4580042 0.6968434 0.4580042 0.3031566 -0.4580042
499000000 0.2849927 -0.4497178 0.7150073 0.4497178 0.7150073 0.4497178 0.2849927 -0.4497178
520000000 0.2681819 -0.4412441 0.7318181 0.4412441 0.7318181 0.4412441 0.2681819 -0.4412441
541000000 0.2526168 -0.4326681 0.7473832 0.4326681 0.7473832 0.4326681 0.2526168 -0.4326681
562000000 0.2381967 -0.4240585 0.7618033 0.4240585 0.7618033 0.4240585 0.2381967 -0.4240585
583000000 0.2248281 -0.4154701 0.7751719 0.4154701 0.7751719 0.4154701 0.2248281 -0.4154701
604000000 0.2124243 -0.4069466 0.7875757 0.4069466 0.7875757 0.4069466 0.2124243 -0.4069466
625000000 0.2009055 -0.3985221 0.7990945 0.3985221 0.7990945 0.3985221 0.2009055 -0.3985221
646000000 0.1901986 -0.3902230 0.8098014 0.3902230 0.8098014 0.3902230 0.1901986 -0.3902230
667000000 0.1802365 -0.3820697 0.8197635 0.3820697 0.8197635 0.3820697 0.1802365 -0.3820697
688000000 0.1709581 -0.3740771 0.8290419 0.3740771 0.8290419 0.3740771 0.1709581 -0.3740771
709000000 0.1623076 -0.3662560 0.8376924 0.3662560 0.8376924 0.3662560 0.1623076 -0.3662560
730000000 0.1542339 -0.3586140 0.8457661 0.3586140 0.8457661 0.3586140 0.1542339 -0.3586140
751000000 0.1466908 -0.3511556 0.8533092 0.3511556 0.8533092 0.3511556 0.1466908 -0.3511556
772000000 0.1396360 -0.3438834 0.8603640 0.3438834 0.8603640 0.3438834 0.1396360 -0.3438834
793000000 0.1330311 -0.3367981 0.8669689 0.3367981 0.8669689 0.3367981 0.1330311 -0.3367981
814000000 0.1268408 -0.3298988 0.8731592 0.3298988 0.8731592 0.3298988 0.1268408 -0.3298988
835000000 0.1210333 -0.3231839 0.8789667 0.3231839 0.8789667 0.3231839 0.1210333 -0.3231839
856000000 0.1155795 -0.3166505 0.8844205 0.3166505 0.8844205 0.3166505 0.1155795 -0.3166505
877000000 0.1104526 -0.3102953 0.8895474 0.3102953 0.8895474 0.3102953 0.1104526 -0.3102953
898000000 0.1056285 -0.3041145 0.8943715 0.3041145 0.8943715 0.3041145 0.1056285 -0.3041145
919000000 0.1010849 -0.2981037 0.8989151 0.2981037 0.8989151 0.2981037 0.1010849 -0.2981037
940000000 0.0968015 -0.2922585 0.9031985 0.2922585 0.9031985 0.2922585 0.0968015 -0.2922585
961000000 0.0927596 -0.2865741 0.9072404 0.2865741 0.9072404 0.2865741 0.0927596 -0.2865741
982000000 0.0889424 -0.2810459 0.9110576 0.2810459 0.9110576 0.2810459 0.0889424 -0.2810459
1003000000 0.0853341 -0.2756688 0.9146659 0.2756688 0.9146659 0.2756688 0.0853341 -0.2756688
1024000000 0.0819204 -0.2704382 0.9180796 0.2704382 0.9180796 0.2704382 0.0819204 -0.2704382
1045000000 0.0786881 -0.2653491 0.9213119 0.2653491 0.9213119 0.2653491 0.0786881 -0.2653491
1066000000 0.0756251 -0.2603968 0.9243749 0.2603968 0.9243749 0.2603968 0.0756251 -0.2603968
1087000000 0.0727202 -0.2555767 0.9272798 0.2555767 0.9272798 0.2555767 0.0727202 -0.2555767
1108000000 0.0699632 -0.2508841 0.9300368 0.2508841 0.9300368 0.2508841 0.0699632 -0.2508841
1129000000 0.0673445 -0.2463147 0.9326555 0.2463147 0.9326555 0.2463147 0.0673445 -0.2463147
1150000000 0.0648554 -0.2418641 0.9351446 0.2418641 0.9351446 0.2418641 0.0648554 -0.2418641
1171000000 0.0624879 -0.2375281 0.9375121 0.2375281 0.9375121 0.2375281 0.0624879 -0.2375281
1192000000 0.0602343 -0.2333027 0.9397657 0.2333027 0.9397657 0.2333027 0.0602343 -0.2333027
1213000000 0.0580878 -0.2291839 0.9419122 0.2291839 0.9419122 0.2291839 0.0580878 -0.2291839
1234000000 0.0560419 -0.2251679 0.9439581 0.2251679 0.9439581 0.2251679 0.0560419 -0.2251679
1255000000 0.0540907 -0.2212511 0.9459093 0.2212511 0.9459093 0.2212511 0.0540907 -0.2212511
1276000000 0.0522287 -0.2174299 0.9477713 0.2174299 0.9477713 0.2174299 0.0522287 -0.2174299
1297000000 0.0504506 -0.2137009 0.9495494 0.2137009 0.9495494 0.2137009 0.0504506 -0.2137009
1318000000 0.0487518 -0.2100609 0.9512482 0.2100609 0.9512482 0.2100609 0.0487518 -0.2100609
1339000000 0.0471277 -0.2065068 0.9528723 0.2065068 0.9528723 0.2065068 0.0471277 -0.2065068
1360000000 0.0455742 -0.2030355 0.9544258 0.2030355 0.9544258 0.2030355 0.0455742 -0.2030355
1381000000 0.0440874 -0.1996442 0.9559126 0.1996442 0.9559126 0.1996442 0.0440874 -0.1996442
1402000000 0.0426637 -0.1963299 0.9573363 0.1963299 0.9573363 0.1963299 0.0426637 -0.1963299
1423000000 0.0412997 -0.1930902 0.9587003 0.1930902 0.9587003 0.1930902 0.0412997 -0.1930902
1444000000 0.0399923 -0.1899224 0.9600077 0.1899224 0.9600077 0.1899224 0.0399923 -0.1899224
1465000000 0.0387385 -0.1868240 0.9612615 0.1868240 0.9612615 0.1868240 0.0387385 -0.1868240
1486000000 0.0375356 -0.1837927 0.9624644 0.1837927 0.9624644 0.1837927 0.0375356 -0.1837927
1507000000 0.0363809 -0.1808262 0.9636191 0.1808262 0.9636191 0.1808262 0.0363809 -0.1808262
1528000000 0.0352721 -0.1779223 0.9647279 0.1779223 0.9647279 0.1779223 0.0352721 -0.1779223
1549000000 0.0342068 -0.1750790 0.9657932 0.1750790 0.9657932 0.1750790 0.0342068 -0.1750790
1570000000 0.0331829 -0.1722942 0.9668171 0.1722942 0.9668171 0.1722942 0.0331829 -0.1722942
1591000000 0.0321984 -0.1695660 0.9678016 0.1695660 0.9678016 0.1695660 0.0321984 -0.1695660
1612000000 0.0312514 -0.1668926 0.9687486 0.1668926 0.9687486 0.1668926 0.0312514 -0.1668926
1633000000 0.0303402 -0.1642722 0.9696598 0.1642722 0.9696598 0.1642722 0.0303402 -0.1642722
1654000000 0.0294629 -0.1617030 0.9705371 0.1617030 0.9705371 0.1617030 0.0294629 -0.1617030
1675000000 0.0286182 -0.1591834 0.9713818 0.1591834 0.9713818 0.1591834 0.0286182 -0.1591834
1696000000 0.0278045 -0.1567119 0.9721955 0.1567119 0.9721955 0.1567119 0.0278045 -0.1567119
1717000000 0.0270203 -0.1542869 0.9729797 0.1542869 0.9729797 0.1542869 0.0270203 -0.1542869
1738000000 0.0262644 -0.1519070 0.9737356 0.1519070 0.9737356 0.1519070 0.0262644 -0.1519070
1759000000 0.0255355 -0.1495707 0.9744645 0.1495707 0.9744645 0.1495707 0.0255355 -0.1495707
1780000000 0.0248324 -0.1472768 0.9751676 0.1472768 0.9751676 0.1472768 0.0248324 -0.1472768
1801000000 0.0241540 -0.1450238 0.9758460 0.1450238 0.9758460 0.1450238 0.0241540 -0.1450238
1822000000 0.0234992 -0.1428107 0.9765008 0.1428107 0.9765008 0.1428107 0.0234992 -0.1428107
1843000000 0.0228671 -0.1406361 0.9771329 0.1406361 0.9771329 0.1406361 0.0228671 -0.1406361
1864000000 0.0222566 -0.1384990 0.9777434 0.1384990 0.9777434 0.1384990 0.0222566 -0.1384990
1885000000 0.0216670 -0.1363982 0.9783330 0.1363982 0.9783330 0.1363982 0.0216670 -0.1363982
1906000000 0.0210973 -0.1343326 0.9789027 0.1343326 0.9789027 0.1343326 0.0210973 -0.1343326
1927000000 0.0205467 -0.1323012 0.9794533 0.1323012 0.9794533 0.1323012 0.0205467 -0.1323012
1948000000 0.0200144 -0.1303030 0.9799856 0.1303030 0.9799856 0.1303030 0.0200144 -0.1303030
1969000000 0.0194998 -0.1283370 0.9805002 0.1283370 0.9805002 0.1283370 0.0194998 -0.1283370
1990000000 0.0190022 -0.1264024 0.9809978 0.1264024 0.9809978 0.1264024 0.0190022 -0.1264024
2011000000 0.0185208 -0.1244982 0.9814792 0.1244982 0.9814792 0.1244982 0.0185208 -0.1244982
2032000000 0.0180550 -0.1226235 0.9819450 0.1226235 0.9819450 0.1226235 0.0180550 -0.1226235
2053000000 0.0176043 -0.1207776 0.9823957 0.1207776 0.9823957 0.1207776 0.0176043 -0.1207776
2074000000 0.0171681 -0.1189597 0.9828319 0.1189597 0.9828319 0.1189597 0.0171681 -0.1189597
2095000000 0.0167458 -0.1171689 0.9832542 0.1171689 0.9832542 0.1171689 0.0167458 -0.1171689
2116000000 0.0163370 -0.1154045 0.9836630 0.1154045 0.9836630 0.1154045 0.0163370 -0.1154045
2137000000 0.0159411 -0.1136658 0.9840589 0.1136658 0.9840589 0.1136658 0.0159411 -0.1136658
2158000000 0.0155576 -0.1119522 0.9844424 0.1119522 0.9844424 0.1119522 0.0155576 -0.1119522
2179000000 0.0151862 -0.1102628 0.9848138 0.1102628 0.9848138 0.1102628 0.0151862 -0.1102628
2200000000 0.0148264 -0.1085971 0.9851736 0.1085971 0.9851736 0.1085971 0.0148264 -0.1085971
2221000000 0.0144777 -0.1069545 0.9855223 0.1069545 0.9855223 0.1069545 0.0144777 -0.1069545
2242000000 0.0141399 -0.1053343 0.9858601 0.1053343 0.9858601 0.1053343 0.0141399 -0.1053343
2263000000 0.0138125 -0.1037360 0.9861875 0.1037360 0.9861875 0.1037360 0.0138125 -0.1037360
2284000000 0.0134952 -0.1021590 0.9865048 0.1021590 0.9865048 0.1021590 0.0134952 -0.1021590
2305000000 0.0131876 -0.1006026 0.9868124 0.1006026 0.9868124 0.1006026 0.0131876 -0.1006026
2326000000 0.0128894 -0.0990665 0.9871106 0.0990665 0.9871106 0.0990665 0.0128894 -0.0990665
2347000000 0.0126004 -0.0975501 0.9873996 0.0975501 0.9873996 0.0975501 0.0126004 -0.0975501
2368000000 0.0123201 -0.0960529 0.9876799 0.0960529 0.9876799 0.0960529 0.0123201 -0.0960529
2389000000 0.0120483 -0.0945743 0.9879517 0.0945743 0.9879517 0.0945743 0.0120483 -0.0945743
2410000000 0.0117848 -0.0931140 0.9882152 0.0931140 0.9882152 0.0931140 0.0117848 -0.0931140
2431000000 0.0115293 -0.0916714 0.9884707 0.0916714 0.9884707 0.0916714 0.0115293 -0.0916714
2452000000 0.0112815 -0.0902462 0.9887185 0.0902462 0.9887185 0.0902462 0.0112815 -0.0902462
2473000000 0.0110412 -0.0888379 0.9889588 0.0888379 0.9889588 0.0888379 0.0110412 -0.0888379
2494000000 0.0108082 -0.0874461 0.9891918 0.0874461 0.9891918 0.0874461 0.0108082 -0.0874461
2515000000 0.0105822 -0.0860704 0.9894178 0.0860704 0.9894178 0.0860704 0.0105822 -0.0860704
2536000000 0.0103630 -0.0847104 0.9896370 0.0847104 0.9896370 0.0847104 0.0103630 -0.0847104
2557000000 0.0101505 -0.0833657 0.9898495 0.0833657 0.9898495 0.0833657 0.0101505 -0.0833657
2578000000 0.0099443 -0.0820360 0.9900557 0.0820360 0.9900557 0.0820360 0.0099443 -0.0820360
2599000000 0.0097445 -0.0807209 0.9902555 0.0807209 0.9902555 0.0807209 0.0097445 -0.0807209
2620000000 0.0095507 -0.0794200 0.9904493 0.0794200 0.9904493 0.0794200 0.0095507 -0.0794200
2641000000 0.0093628 -0.0781331 0.9906372 0.0781331 0.9906372 0.0781331 0.0093628 -0.0781331
2662000000 0.0091806 -0.0768597 0.9908194 0.0768597 0.9908194 0.0768597 0.0091806 -0.0768597
2683000000 0.0090039 -0.0755997 0.9909961 0.0755997 0.9909961 0.0755997 0.0090039 -0.0755997
2704000000 0.0088327 -0.0743526 0.9911673 0.0743526 0.9911673 0.0743526 0.0088327 -0.0743526
2725000000 0.0086668 -0.0731181 0.9913332 0.0731181 0.9913332 0.0731181 0.0086668 -0.0731181
2746000000 0.0085059 -0.0718961 0.9914941 0.0718961 0.9914941 0.0718961 0.0085059 -0.0718961
2767000000 0.0083500 -0.0706861 0.9916500 0.0706861 0.9916500 0.0706861 0.0083500 -0.0706861
2788000000 0.0081990 -0.0694879 0.9918010 0.0694879 0.9918010 0.0694879 0.0081990 -0.0694879
2809000000 0.0080527 -0.0683014 0.9919473 0.0683014 0.9919473 0.0683014 0.0080527 -0.0683014
2830000000 0.0079110 -0.0671260 0.9920890 0.0671260 0.9920890 0.0671260 0.0079110 -0.0671260
2851000000 0.0077738 -0.0659618 0.9922262 0.0659618 0.9922262 0.0659618 0.0077738 -0.0659618
2872000000 0.0076409 -0.0648083 0.9923591 0.0648083 0.9923591 0.0648083 0.0076409 -0.0648083
2893000000 0.0075123 -0.0636654 0.9924877 0.0636654 0.9924877 0.0636654 0.0075123 -0.0636654
2914000000 0.0073879 -0.0625327 0.9926121 0.0625327 0.9926121 0.0625327 0.0073879 -0.0625327
2935000000 0.0072674 -0.0614102 0.9927326 0.0614102 0.9927326 0.0614102 0.0072674 -0.0614102
2956000000 0.0071510 -0.0602975 0.9928490 0.0602975 0.9928490 0.0602975 0.0071510 -0.0602975
2977000000 0.0070383 -0.0591945 0.9929617 0.0591945 0.9929617 0.0591945 0.0070383 -0.0591945
2998000000 0.0069295 -0.0581009 0.9930705 0.0581009 0.9930705 0.0581009 0.0069295 -0.0581009
3019000000 0.0068243 -0.0570165 0.9931757 0.0570165 0.9931757 0.0570165 0.0068243 -0.0570165
3040000000 0.0067227 -0.0559412 0.9932773 0.0559412 0.9932773 0.0559412 0.0067227 -0.0559412
3061000000 0.0066246 -0.0548747 0.9933754 0.0548747 0.9933754 0.0548747 0.0066246 -0.0548747
3082000000 0.0065299 -0.0538168 0.9934701 0.0538168 0.9934701 0.0538168 0.0065299 -0.0538168
3103000000 0.0064386 -0.0527674 0.9935614 0.0527674 0.9935614 0.0527674 0.0064386 -0.0527674
3124000000 0.0063505 -0.0517263 0.9936495 0.0517263 0.9936495 0.0517263 0.0063505 -0.0517263
3145000000 0.0062657 -0.0506933 0.9937343 0.0506933 0.9937343 0.0506933 0.0062657 -0.0506933
3166000000 0.0061839 -0.0496682 0.9938161 0.0496682 0.9938161 0.0496682 0.0061839 -0.0496682
3187000000 0.0061053 -0.0486508 0.9938947 0.0486508 0.9938947 0.0486508 0.0061053 -0.0486508
3208000000 0.0060296 -0.0476411 0.9939704 0.0476411 0.9939704 0.0476411 0.0060296 -0.0476411
3229000000 0.0059568 -0.0466387 0.9940432 0.0466387 0.9940432 0.0466387 0.0059568 -0.0466387
3250000000 0.0058870 -0.0456437 0.9941130 0.0456437 0.9941130 0.0456437 0.0058870 -0.0456437
3271000000 0.0058199 -0.0446557 0.9941801 0.0446557 0.9941801 0.0446557 0.0058199 -0.0446557
3292000000 0.0057557 -0.0436748 0.9942443 0.0436748 0.9942443 0.0436748 0.0057557 -0.0436748
3313000000 0.0056941 -0.0427006 0.9943059 0.0427006 0.9943059 0.0427006 0.0056941 -0.0427006
3334000000 0.0056351 -0.0417331 0.9943649 0.0417331 0.9943649 0.0417331 0.0056351 -0.0417331
3355000000 0.0055788 -0.0407722 0.9944212 0.0407722 0.9944212 0.0407722 0.0055788 -0.0407722
3376000000 0.0055250 -0.0398177 0.9944750 0.0398177 0.9944750 0.0398177 0.0055250 -0.0398177
3397000000 0.0054737 -0.0388694 0.9945263 0.0388694 0.9945263 0.0388694 0.0054737 -0.0388694
3418000000 0.0054249 -0.0379272 0.9945751 0.0379272 0.9945751 0.0379272 0.0054249 -0.0379272
3439000000 0.0053785 -0.0369911 0.9946215 0.0369911 0.9946215 0.0369911 0.0053785 -0.0369911
3460000000 0.0053344 -0.0360608 0.9946656 0.0360608 0.9946656 0.0360608 0.0053344 -0.0360608
3481000000 0.0052927 -0.0351364 0.9947073 0.0351364 0.9947073 0.0351364 0.0052927 -0.0351364
3502000000 0.0052533 -0.0342175 0.9947467 0.0342175 0.9947467 0.0342175 0.0052533 -0.0342175
3523000000 0.0052161 -0.0333041 0.9947839 0.0333041 0.9947839 0.0333041 0.0052161 -0.0333041
3544000000 0.0051811 -0.0323962 0.9948189 0.0323962 0.9948189 0.0323962 0.0051811 -0.0323962
3565000000 0.0051482 -0.0314936 0.9948518 0.0314936 0.9948518 0.0314936 0.0051482 -0.0314936
3586000000 0.0051175 -0.0305961 0.9948825 0.0305961 0.9948825 0.0305961 0.0051175 -0.0305961
3607000000 0.0050889 -0.0297037 0.9949111 0.0297037 0.9949111 0.0297037 0.0050889 -0.0297037
3628000000 0.0050624 -0.0288162 0.9949376 0.0288162 0.9949376 0.0288162 0.0050624 -0.0288162
3649000000 0.0050379 -0.0279337 0.9949621 0.0279337 0.9949621 0.0279337 0.0050379 -0.0279337
3670000000 0.0050154 -0.0270558 0.9949846 0.0270558 0.9949846 0.0270558 0.0050154 -0.0270558
3691000000 0.0049948 -0.0261827 0.9950052 0.0261827 0.9950052 0.0261827 0.0049948 -0.0261827
3712000000 0.0049762 -0.0253141 0.9950238 0.0253141 0.9950238 0.0253141 0.0049762 -0.0253141
3733000000 0.0049595 -0.0244499 0.9950405 0.0244499 0.9950405 0.0244499 0.0049595 -0.0244499
3754000000 0.0049447 -0.0235902 0.9950553 0.0235902 0.9950553 0.0235902 0.0049447 -0.0235902
3775000000 0.0049317 -0.0227347 0.9950683 0.0227347 0.9950683 0.0227347 0.0049317 -0.0227347
3796000000 0.0049206 -0.0218833 0.9950794 0.0218833 0.9950794 0.0218833 0.0049206 -0.0218833
3817000000 0.0049112 -0.0210361 0.9950888 0.0210361 0.9950888 0.0210361 0.0049112 -0.0210361
3838000000 0.0049037 -0.0201929 0.9950963 0.0201929 0.9950963 0.0201929 0.0049037 -0.0201929
3859000000 0.0048979 -0.0193536 0.9951021 0.0193536 0.9951021 0.0193536 0.0048979 -0.0193536
3880000000 0.0048938 -0.0185181 0.9951062 0.0185181 0.9951062 0.0185181 0.0048938 -0.0185181
3901000000 0.0048914 -0.0176864 0.9951086 0.0176864 0.9951086 0.0176864 0.0048914 -0.0176864
3922000000 0.0048907 -0.0168583 0.9951093 0.0168583 0.9951093 0.0168583 0.0048907 -0.0168583
3943000000 0.0048917 -0.0160339 0.9951083 0.0160339 0.9951083 0.0160339 0.0048917 -0.0160339
3964000000 0.0048944 -0.0152129 0.9951056 0.0152129 0.9951056 0.0152129 0.0048944 -0.0152129
3985000000 0.0048986 -0.0143954 0.9951014 0.0143954 0.9951014 0.0143954 0.0048986 -0.0143954
4006000000 0.0049045 -0.0135812 0.9950955 0.0135812 0.9950955 0.0135812 0.0049045 -0.0135812
4027000000 0.0049119 -0.0127704 0.9950881 0.0127704 0.9950881 0.0127704 0.0049119 -0.0127704
4048000000 0.0049210 -0.0119627 0.9950790 0.0119627 0.9950790 0.0119627 0.0049210 -0.0119627
4069000000 0.0049315 -0.0111581 0.9950685 0.0111581 0.9950685 0.0111581 0.0049315 -0.0111581
4090000000 0.0049436 -0.0103566 0.9950564 0.0103566 0.9950564 0.0103566 0.0049436 -0.0103566
4111000000 0.0049573 -0.0095582 0.9950427 0.0095582 0.9950427 0.0095582 0.0049573 -0.0095582
4132000000 0.0049724 -0.0087626 0.9950276 0.0087626 0.9950276 0.0087626 0.0049724 -0.0087626
4153000000 0.0049890 -0.0079699 0.9950110 0.0079699 0.9950110 0.0079699 0.0049890 -0.0079699
4174000000 0.0050071 -0.0071799 0.9949929 0.0071799 0.9949929 0.0071799 0.0050071 -0.0071799
4195000000 0.0050267 -0.0063927 0.9949733 0.0063927 0.9949733 0.0063927 0.0050267 -0.0063927
4216000000 0.0050477 -0.0056081 0.9949523 0.0056081 0.9949523 0.0056081 0.0050477 -0.0056081
4237000000 0.0050701 -0.0048262 0.9949299 0.0048262 0.9949299 0.0048262 0.0050701 -0.0048262
4258000000 0.0050940 -0.0040467 0.9949060 0.0040467 0.9949060 0.0040467 0.0050940 -0.0040467
4279000000 0.0051193 -0.0032697 0.9948807 0.0032697 0.9948807 0.0032697 0.0051193 -0.0032697
4300000000 0.0051460 -0.0024951 0.9948540 0.0024951 0.9948540 0.0024951 0.0051460 -0.0024951
4321000000 0.0051740 -0.0017229 0.9948260 0.0017229 0.9948260 0.0017229 0.0051740 -0.0017229
4342000000 0.0052034 -0.0009529 0.9947966 0.0009529 0.9947966 0.0009529 0.0052034 -0.0009529
4363000000 0.0052342 -0.0001851 0.9947658 0.0001851 0.9947658 0.0001851 0.0052342 -0.0001851
4384000000 0.0052664 0.0005804 0.9947336 -0.0005804 0.9947336 -0.0005804 0.0052664 0.0005804
4405000000 0.0052999 0.0013439 0.9947001 -0.0013439 0.9947001 -0.0013439 0.0052999 0.0013439
4426000000 0.0053347 0.0021054 0.9946653 -0.0021054 0.9946653 -0.0021054 0.0053347 0.0021054
4447000000 0.0053709 0.0028648 0.9946291 -0.0028648 0.9946291 -0.0028648 0.0053709 0.0028648
4468000000 0.0054083 0.0036224 0.9945917 -0.0036224 0.9945917 -0.0036224 0.0054083 0.0036224
4489000000 0.0054471 0.0043780 0.9945529 -0.0043780 0.9945529 -0.0043780 0.0054471 0.0043780
4510000000 0.0054872 0.0051318 0.9945128 -0.0051318 0.9945128 -0.0051318 0.0054872 0.0051318
