!Murata Part Number: GRM0335C1HR30WA01
!These Parameters are Measured in Series Mode Connection
!Data Generated on Mar 30, 2021
!       o--ll--o
!Port1            Port2
!       o------o
!Operation Temp=25[degC], DC Bias Voltage=0[V]
!Freq. Start=100[MHz] Stop=20[GHz] 401[Steps]
# Hz S RI R 50
!Freq.(Hz) S11(Real) S11(Imag) S21(Real) S21(Imag) S12(Real) S12(Imag) S22(Real) S22(Imag)
100000000 0.9996414 -0.0188434 0.0003586 0.0188434 0.0003586 0.0188434 0.9996414 -0.0188434
149750000 0.9991961 -0.0282066 0.0008039 0.0282066 0.0008039 0.0282066 0.9991961 -0.0282066
199500000 0.9985739 -0.0375561 0.0014261 0.0375561 0.0014261 0.0375561 0.9985739 -0.0375561
249250000 0.9977753 -0.0468876 0.0022247 0.0468876 0.0022247 0.0468876 0.9977753 -0.0468876
299000000 0.9968012 -0.0561964 0.0031988 0.0561964 0.0031988 0.0561964 0.9968012 -0.0561964
348750000 0.9956522 -0.0654782 0.0043478 0.0654782 0.0043478 0.0654782 0.9956522 -0.0654782
398500000 0.9943293 -0.0747285 0.0056707 0.0747285 0.0056707 0.0747285 0.9943293 -0.0747285
448250000 0.9928337 -0.0839431 0.0071663 0.0839431 0.0071663 0.0839431 0.9928337 -0.0839431
498000000 0.9911667 -0.0931175 0.0088333 0.0931175 0.0088333 0.0931175 0.9911667 -0.0931175
547750000 0.9893296 -0.1022476 0.0106704 0.1022476 0.0106704 0.1022476 0.9893296 -0.1022476
597500000 0.9873240 -0.1113291 0.0126760 0.1113291 0.0126760 0.1113291 0.9873240 -0.1113291
647250000 0.9851516 -0.1203580 0.0148484 0.1203580 0.0148484 0.1203580 0.9851516 -0.1203580
697000000 0.9828142 -0.1293301 0.0171858 0.1293301 0.0171858 0.1293301 0.9828142 -0.1293301
746750000 0.9803136 -0.1382415 0.0196864 0.1382415 0.0196864 0.1382415 0.9803136 -0.1382415
796500000 0.9776521 -0.1470883 0.0223479 0.1470883 0.0223479 0.1470883 0.9776521 -0.1470883
846250000 0.9748316 -0.1558667 0.0251684 0.1558667 0.0251684 0.1558667 0.9748316 -0.1558667
896000000 0.9718547 -0.1645729 0.0281453 0.1645729 0.0281453 0.1645729 0.9718547 -0.1645729
945750000 0.9687235 -0.1732034 0.0312765 0.1732034 0.0312765 0.1732034 0.9687235 -0.1732034
995500000 0.9654407 -0.1817546 0.0345593 0.1817546 0.0345593 0.1817546 0.9654407 -0.1817546
1045250000 0.9620088 -0.1902231 0.0379912 0.1902231 0.0379912 0.1902231 0.9620088 -0.1902231
1095000000 0.9584306 -0.1986056 0.0415694 0.1986056 0.0415694 0.1986056 0.9584306 -0.1986056
1144750000 0.9547088 -0.2068988 0.0452912 0.2068988 0.0452912 0.2068988 0.9547088 -0.2068988
1194500000 0.9508464 -0.2150997 0.0491536 0.2150997 0.0491536 0.2150997 0.9508464 -0.2150997
1244250000 0.9468462 -0.2232052 0.0531538 0.2232052 0.0531538 0.2232052 0.9468462 -0.2232052
1294000000 0.9427113 -0.2312126 0.0572887 0.2312126 0.0572887 0.2312126 0.9427113 -0.2312126
1343750000 0.9384449 -0.2391190 0.0615551 0.2391190 0.0615551 0.2391190 0.9384449 -0.2391190
1393500000 0.9340500 -0.2469218 0.0659500 0.2469218 0.0659500 0.2469218 0.9340500 -0.2469218
1443250000 0.9295299 -0.2546186 0.0704701 0.2546186 0.0704701 0.2546186 0.9295299 -0.2546186
1493000000 0.9248880 -0.2622068 0.0751120 0.2622068 0.0751120 0.2622068 0.9248880 -0.2622068
1542750000 0.9201274 -0.2696843 0.0798726 0.2696843 0.0798726 0.2696843 0.9201274 -0.2696843
1592500000 0.9152517 -0.2770490 0.0847483 0.2770490 0.0847483 0.2770490 0.9152517 -0.2770490
1642250000 0.9102642 -0.2842987 0.0897358 0.2842987 0.0897358 0.2842987 0.9102642 -0.2842987
1692000000 0.9051683 -0.2914316 0.0948317 0.2914316 0.0948317 0.2914316 0.9051683 -0.2914316
1741750000 0.8999676 -0.2984459 0.1000324 0.2984459 0.1000324 0.2984459 0.8999676 -0.2984459
1791500000 0.8946654 -0.3053400 0.1053346 0.3053400 0.1053346 0.3053400 0.8946654 -0.3053400
1841250000 0.8892654 -0.3121124 0.1107346 0.3121124 0.1107346 0.3121124 0.8892654 -0.3121124
1891000000 0.8837711 -0.3187616 0.1162289 0.3187616 0.1162289 0.3187616 0.8837711 -0.3187616
1940750000 0.8781859 -0.3252863 0.1218141 0.3252863 0.1218141 0.3252863 0.8781859 -0.3252863
1990500000 0.8725134 -0.3316855 0.1274866 0.3316855 0.1274866 0.3316855 0.8725134 -0.3316855
2040250000 0.8667572 -0.3379580 0.1332428 0.3379580 0.1332428 0.3379580 0.8667572 -0.3379580
2090000000 0.8609208 -0.3441030 0.1390792 0.3441030 0.1390792 0.3441030 0.8609208 -0.3441030
2139750000 0.8550076 -0.3501196 0.1449924 0.3501196 0.1449924 0.3501196 0.8550076 -0.3501196
2189500000 0.8490213 -0.3560071 0.1509787 0.3560071 0.1509787 0.3560071 0.8490213 -0.3560071
2239250000 0.8429652 -0.3617649 0.1570348 0.3617649 0.1570348 0.3617649 0.8429652 -0.3617649
2289000000 0.8368428 -0.3673926 0.1631572 0.3673926 0.1631572 0.3673926 0.8368428 -0.3673926
2338750000 0.8306577 -0.3728897 0.1693423 0.3728897 0.1693423 0.3728897 0.8306577 -0.3728897
2388500000 0.8244131 -0.3782561 0.1755869 0.3782561 0.1755869 0.3782561 0.8244131 -0.3782561
2438250000 0.8181125 -0.3834914 0.1818875 0.3834914 0.1818875 0.3834914 0.8181125 -0.3834914
2488000000 0.8117591 -0.3885958 0.1882409 0.3885958 0.1882409 0.3885958 0.8117591 -0.3885958
2537750000 0.8053564 -0.3935691 0.1946436 0.3935691 0.1946436 0.3935691 0.8053564 -0.3935691
2587500000 0.7989075 -0.3984116 0.2010925 0.3984116 0.2010925 0.3984116 0.7989075 -0.3984116
2637250000 0.7924157 -0.4031233 0.2075843 0.4031233 0.2075843 0.4031233 0.7924157 -0.4031233
2687000000 0.7858841 -0.4077047 0.2141159 0.4077047 0.2141159 0.4077047 0.7858841 -0.4077047
2736750000 0.7793159 -0.4121561 0.2206841 0.4121561 0.2206841 0.4121561 0.7793159 -0.4121561
2786500000 0.7727141 -0.4164779 0.2272859 0.4164779 0.2272859 0.4164779 0.7727141 -0.4164779
2836250000 0.7660818 -0.4206707 0.2339182 0.4206707 0.2339182 0.4206707 0.7660818 -0.4206707
2886000000 0.7594219 -0.4247351 0.2405781 0.4247351 0.2405781 0.4247351 0.7594219 -0.4247351
2935750000 0.7527373 -0.4286718 0.2472627 0.4286718 0.2472627 0.4286718 0.7527373 -0.4286718
2985500000 0.7460308 -0.4324815 0.2539692 0.4324815 0.2539692 0.4324815 0.7460308 -0.4324815
3035250000 0.7393053 -0.4361651 0.2606947 0.4361651 0.2606947 0.4361651 0.7393053 -0.4361651
3085000000 0.7325635 -0.4397235 0.2674365 0.4397235 0.2674365 0.4397235 0.7325635 -0.4397235
3134750000 0.7258081 -0.4431575 0.2741919 0.4431575 0.2741919 0.4431575 0.7258081 -0.4431575
3184500000 0.7190416 -0.4464682 0.2809584 0.4464682 0.2809584 0.4464682 0.7190416 -0.4464682
3234250000 0.7122666 -0.4496566 0.2877334 0.4496566 0.2877334 0.4496566 0.7122666 -0.4496566
3284000000 0.7054856 -0.4527238 0.2945144 0.4527238 0.2945144 0.4527238 0.7054856 -0.4527238
3333750000 0.6987010 -0.4556711 0.3012990 0.4556711 0.3012990 0.4556711 0.6987010 -0.4556711
3383500000 0.6919152 -0.4584995 0.3080848 0.4584995 0.3080848 0.4584995 0.6919152 -0.4584995
3433250000 0.6851304 -0.4612103 0.3148696 0.4612103 0.3148696 0.4612103 0.6851304 -0.4612103
3483000000 0.6783489 -0.4638048 0.3216511 0.4638048 0.3216511 0.4638048 0.6783489 -0.4638048
3532750000 0.6715728 -0.4662843 0.3284272 0.4662843 0.3284272 0.4662843 0.6715728 -0.4662843
3582500000 0.6648043 -0.4686502 0.3351957 0.4686502 0.3351957 0.4686502 0.6648043 -0.4686502
3632250000 0.6580453 -0.4709037 0.3419547 0.4709037 0.3419547 0.4709037 0.6580453 -0.4709037
3682000000 0.6512979 -0.4730464 0.3487021 0.4730464 0.3487021 0.4730464 0.6512979 -0.4730464
3731750000 0.6445639 -0.4750797 0.3554361 0.4750797 0.3554361 0.4750797 0.6445639 -0.4750797
3781500000 0.6378452 -0.4770049 0.3621548 0.4770049 0.3621548 0.4770049 0.6378452 -0.4770049
3831250000 0.6311435 -0.4788237 0.3688565 0.4788237 0.3688565 0.4788237 0.6311435 -0.4788237
3881000000 0.6244606 -0.4805374 0.3755394 0.4805374 0.3755394 0.4805374 0.6244606 -0.4805374
3930750000 0.6177982 -0.4821476 0.3822018 0.4821476 0.3822018 0.4821476 0.6177982 -0.4821476
3980500000 0.6111577 -0.4836559 0.3888423 0.4836559 0.3888423 0.4836559 0.6111577 -0.4836559
4030250000 0.6045409 -0.4850637 0.3954591 0.4850637 0.3954591 0.4850637 0.6045409 -0.4850637
4080000000 0.5979490 -0.4863726 0.4020510 0.4863726 0.4020510 0.4863726 0.5979490 -0.4863726
4129750000 0.5913837 -0.4875842 0.4086163 0.4875842 0.4086163 0.4875842 0.5913837 -0.4875842
4179500000 0.5848461 -0.4887000 0.4151539 0.4887000 0.4151539 0.4887000 0.5848461 -0.4887000
4229250000 0.5783377 -0.4897217 0.4216623 0.4897217 0.4216623 0.4897217 0.5783377 -0.4897217
4279000000 0.5718596 -0.4906507 0.4281404 0.4906507 0.4281404 0.4906507 0.5718596 -0.4906507
4328750000 0.5654131 -0.4914887 0.4345869 0.4914887 0.4345869 0.4914887 0.5654131 -0.4914887
4378500000 0.5589993 -0.4922373 0.4410007 0.4922373 0.4410007 0.4922373 0.5589993 -0.4922373
4428250000 0.5526193 -0.4928979 0.4473807 0.4928979 0.4473807 0.4928979 0.5526193 -0.4928979
4478000000 0.5462742 -0.4934723 0.4537258 0.4934723 0.4537258 0.4934723 0.5462742 -0.4934723
4527750000 0.5399648 -0.4939619 0.4600352 0.4939619 0.4600352 0.4939619 0.5399648 -0.4939619
4577500000 0.5336922 -0.4943684 0.4663078 0.4943684 0.4663078 0.4943684 0.5336922 -0.4943684
4627250000 0.5274572 -0.4946933 0.4725428 0.4946933 0.4725428 0.4946933 0.5274572 -0.4946933
4677000000 0.5212607 -0.4949382 0.4787393 0.4949382 0.4787393 0.4949382 0.5212607 -0.4949382
4726750000 0.5151035 -0.4951045 0.4848965 0.4951045 0.4848965 0.4951045 0.5151035 -0.4951045
4776500000 0.5089864 -0.4951939 0.4910136 0.4951939 0.4910136 0.4951939 0.5089864 -0.4951939
4826250000 0.5029100 -0.4952079 0.4970900 0.4952079 0.4970900 0.4952079 0.5029100 -0.4952079
4876000000 0.4968749 -0.4951480 0.5031251 0.4951480 0.5031251 0.4951480 0.4968749 -0.4951480
4925750000 0.4908820 -0.4950157 0.5091180 0.4950157 0.5091180 0.4950157 0.4908820 -0.4950157
4975500000 0.4849316 -0.4948124 0.5150684 0.4948124 0.5150684 0.4948124 0.4849316 -0.4948124
5025250000 0.4790244 -0.4945397 0.5209756 0.4945397 0.5209756 0.4945397 0.4790244 -0.4945397
5075000000 0.4731609 -0.4941991 0.5268391 0.4941991 0.5268391 0.4941991 0.4731609 -0.4941991
5124750000 0.4673416 -0.4937919 0.5326584 0.4937919 0.5326584 0.4937919 0.4673416 -0.4937919
5174500000 0.4615668 -0.4933197 0.5384332 0.4933197 0.5384332 0.4933197 0.4615668 -0.4933197
5224250000 0.4558371 -0.4927837 0.5441629 0.4927837 0.5441629 0.4927837 0.4558371 -0.4927837
5274000000 0.4501527 -0.4921856 0.5498473 0.4921856 0.5498473 0.4921856 0.4501527 -0.4921856
5323750000 0.4445140 -0.4915266 0.5554860 0.4915266 0.5554860 0.4915266 0.4445140 -0.4915266
5373500000 0.4389213 -0.4908080 0.5610787 0.4908080 0.5610787 0.4908080 0.4389213 -0.4908080
5423250000 0.4333749 -0.4900314 0.5666251 0.4900314 0.5666251 0.4900314 0.4333749 -0.4900314
5473000000 0.4278750 -0.4891979 0.5721250 0.4891979 0.5721250 0.4891979 0.4278750 -0.4891979
5522750000 0.4224218 -0.4883089 0.5775782 0.4883089 0.5775782 0.4883089 0.4224218 -0.4883089
5572500000 0.4170156 -0.4873658 0.5829844 0.4873658 0.5829844 0.4873658 0.4170156 -0.4873658
5622250000 0.4116565 -0.4863697 0.5883435 0.4863697 0.5883435 0.4863697 0.4116565 -0.4863697
5672000000 0.4063447 -0.4853220 0.5936553 0.4853220 0.5936553 0.4853220 0.4063447 -0.4853220
5721750000 0.4010802 -0.4842239 0.5989198 0.4842239 0.5989198 0.4842239 0.4010802 -0.4842239
5771500000 0.3958631 -0.4830766 0.6041369 0.4830766 0.6041369 0.4830766 0.3958631 -0.4830766
5821250000 0.3906936 -0.4818814 0.6093064 0.4818814 0.6093064 0.4818814 0.3906936 -0.4818814
5871000000 0.3855717 -0.4806393 0.6144283 0.4806393 0.6144283 0.4806393 0.3855717 -0.4806393
5920750000 0.3804973 -0.4793517 0.6195027 0.4793517 0.6195027 0.4793517 0.3804973 -0.4793517
5970500000 0.3754706 -0.4780196 0.6245294 0.4780196 0.6245294 0.4780196 0.3754706 -0.4780196
6020250000 0.3704915 -0.4766441 0.6295085 0.4766441 0.6295085 0.4766441 0.3704915 -0.4766441
6070000000 0.3655599 -0.4752265 0.6344401 0.4752265 0.6344401 0.4752265 0.3655599 -0.4752265
6119750000 0.3606758 -0.4737677 0.6393242 0.4737677 0.6393242 0.4737677 0.3606758 -0.4737677
6169500000 0.3558392 -0.4722688 0.6441608 0.4722688 0.6441608 0.4722688 0.3558392 -0.4722688
6219250000 0.3510500 -0.4707310 0.6489500 0.4707310 0.6489500 0.4707310 0.3510500 -0.4707310
6269000000 0.3463081 -0.4691552 0.6536919 0.4691552 0.6536919 0.4691552 0.3463081 -0.4691552
6318750000 0.3416133 -0.4675424 0.6583867 0.4675424 0.6583867 0.4675424 0.3416133 -0.4675424
6368500000 0.3369656 -0.4658937 0.6630344 0.4658937 0.6630344 0.4658937 0.3369656 -0.4658937
6418250000 0.3323648 -0.4642100 0.6676352 0.4642100 0.6676352 0.4642100 0.3323648 -0.4642100
6468000000 0.3278107 -0.4624923 0.6721893 0.4624923 0.6721893 0.4624923 0.3278107 -0.4624923
6517750000 0.3233033 -0.4607415 0.6766967 0.4607415 0.6766967 0.4607415 0.3233033 -0.4607415
6567500000 0.3188422 -0.4589586 0.6811578 0.4589586 0.6811578 0.4589586 0.3188422 -0.4589586
6617250000 0.3144274 -0.4571444 0.6855726 0.4571444 0.6855726 0.4571444 0.3144274 -0.4571444
6667000000 0.3100587 -0.4552999 0.6899413 0.4552999 0.6899413 0.4552999 0.3100587 -0.4552999
6716750000 0.3057358 -0.4534259 0.6942642 0.4534259 0.6942642 0.4534259 0.3057358 -0.4534259
6766500000 0.3014585 -0.4515232 0.6985415 0.4515232 0.6985415 0.4515232 0.3014585 -0.4515232
6816250000 0.2972266 -0.4495928 0.7027734 0.4495928 0.7027734 0.4495928 0.2972266 -0.4495928
6866000000 0.2930399 -0.4476354 0.7069601 0.4476354 0.7069601 0.4476354 0.2930399 -0.4476354
6915750000 0.2888981 -0.4456518 0.7111019 0.4456518 0.7111019 0.4456518 0.2888981 -0.4456518
6965500000 0.2848011 -0.4436428 0.7151989 0.4436428 0.7151989 0.4436428 0.2848011 -0.4436428
7015250000 0.2807484 -0.4416092 0.7192516 0.4416092 0.7192516 0.4416092 0.2807484 -0.4416092
7065000000 0.2767399 -0.4395518 0.7232601 0.4395518 0.7232601 0.4395518 0.2767399 -0.4395518
7114750000 0.2727754 -0.4374712 0.7272246 0.4374712 0.7272246 0.4374712 0.2727754 -0.4374712
7164500000 0.2688545 -0.4353682 0.7311455 0.4353682 0.7311455 0.4353682 0.2688545 -0.4353682
7214250000 0.2649769 -0.4332435 0.7350231 0.4332435 0.7350231 0.4332435 0.2649769 -0.4332435
7264000000 0.2611424 -0.4310977 0.7388576 0.4310977 0.7388576 0.4310977 0.2611424 -0.4310977
7313750000 0.2573507 -0.4289317 0.7426493 0.4289317 0.7426493 0.4289317 0.2573507 -0.4289317
7363500000 0.2536016 -0.4267460 0.7463984 0.4267460 0.7463984 0.4267460 0.2536016 -0.4267460
7413250000 0.2498946 -0.4245412 0.7501054 0.4245412 0.7501054 0.4245412 0.2498946 -0.4245412
7463000000 0.2462296 -0.4223180 0.7537704 0.4223180 0.7537704 0.4223180 0.2462296 -0.4223180
7512750000 0.2426061 -0.4200771 0.7573939 0.4200771 0.7573939 0.4200771 0.2426061 -0.4200771
7562500000 0.2390240 -0.4178189 0.7609760 0.4178189 0.7609760 0.4178189 0.2390240 -0.4178189
7612250000 0.2354829 -0.4155442 0.7645171 0.4155442 0.7645171 0.4155442 0.2354829 -0.4155442
7662000000 0.2319824 -0.4132535 0.7680176 0.4132535 0.7680176 0.4132535 0.2319824 -0.4132535
7711750000 0.2285224 -0.4109473 0.7714776 0.4109473 0.7714776 0.4109473 0.2285224 -0.4109473
7761500000 0.2251024 -0.4086262 0.7748976 0.4086262 0.7748976 0.4086262 0.2251024 -0.4086262
7811250000 0.2217222 -0.4062907 0.7782778 0.4062907 0.7782778 0.4062907 0.2217222 -0.4062907
7861000000 0.2183814 -0.4039414 0.7816186 0.4039414 0.7816186 0.4039414 0.2183814 -0.4039414
7910750000 0.2150797 -0.4015787 0.7849203 0.4015787 0.7849203 0.4015787 0.2150797 -0.4015787
7960500000 0.2118169 -0.3992033 0.7881831 0.3992033 0.7881831 0.3992033 0.2118169 -0.3992033
8010250000 0.2085925 -0.3968155 0.7914075 0.3968155 0.7914075 0.3968155 0.2085925 -0.3968155
8060000000 0.2054063 -0.3944158 0.7945937 0.3944158 0.7945937 0.3944158 0.2054063 -0.3944158
8109750000 0.2022579 -0.3920047 0.7977421 0.3920047 0.7977421 0.3920047 0.2022579 -0.3920047
8159500000 0.1991471 -0.3895827 0.8008529 0.3895827 0.8008529 0.3895827 0.1991471 -0.3895827
8209250000 0.1960734 -0.3871501 0.8039266 0.3871501 0.8039266 0.3871501 0.1960734 -0.3871501
8259000000 0.1930367 -0.3847076 0.8069633 0.3847076 0.8069633 0.3847076 0.1930367 -0.3847076
8308750000 0.1900365 -0.3822553 0.8099635 0.3822553 0.8099635 0.3822553 0.1900365 -0.3822553
8358500000 0.1870725 -0.3797938 0.8129275 0.3797938 0.8129275 0.3797938 0.1870725 -0.3797938
8408250000 0.1841445 -0.3773235 0.8158555 0.3773235 0.8158555 0.3773235 0.1841445 -0.3773235
8458000000 0.1812521 -0.3748448 0.8187479 0.3748448 0.8187479 0.3748448 0.1812521 -0.3748448
8507750000 0.1783949 -0.3723579 0.8216051 0.3723579 0.8216051 0.3723579 0.1783949 -0.3723579
8557500000 0.1755727 -0.3698634 0.8244273 0.3698634 0.8244273 0.3698634 0.1755727 -0.3698634
8607250000 0.1727852 -0.3673616 0.8272148 0.3673616 0.8272148 0.3673616 0.1727852 -0.3673616
8657000000 0.1700320 -0.3648528 0.8299680 0.3648528 0.8299680 0.3648528 0.1700320 -0.3648528
8706750000 0.1673128 -0.3623373 0.8326872 0.3623373 0.8326872 0.3623373 0.1673128 -0.3623373
8756500000 0.1646273 -0.3598156 0.8353727 0.3598156 0.8353727 0.3598156 0.1646273 -0.3598156
8806250000 0.1619753 -0.3572879 0.8380247 0.3572879 0.8380247 0.3572879 0.1619753 -0.3572879
8856000000 0.1593563 -0.3547546 0.8406437 0.3547546 0.8406437 0.3547546 0.1593563 -0.3547546
8905750000 0.1567701 -0.3522159 0.8432299 0.3522159 0.8432299 0.3522159 0.1567701 -0.3522159
8955500000 0.1542163 -0.3496722 0.8457837 0.3496722 0.8457837 0.3496722 0.1542163 -0.3496722
9005250000 0.1516948 -0.3471237 0.8483052 0.3471237 0.8483052 0.3471237 0.1516948 -0.3471237
9055000000 0.1492050 -0.3445709 0.8507950 0.3445709 0.8507950 0.3445709 0.1492050 -0.3445709
9104750000 0.1467469 -0.3420138 0.8532531 0.3420138 0.8532531 0.3420138 0.1467469 -0.3420138
9154500000 0.1443200 -0.3394528 0.8556800 0.3394528 0.8556800 0.3394528 0.1443200 -0.3394528
9204250000 0.1419240 -0.3368883 0.8580760 0.3368883 0.8580760 0.3368883 0.1419240 -0.3368883
9254000000 0.1395588 -0.3343203 0.8604412 0.3343203 0.8604412 0.3343203 0.1395588 -0.3343203
9303750000 0.1372238 -0.3317492 0.8627762 0.3317492 0.8627762 0.3317492 0.1372238 -0.3317492
9353500000 0.1349190 -0.3291752 0.8650810 0.3291752 0.8650810 0.3291752 0.1349190 -0.3291752
9403250000 0.1326440 -0.3265986 0.8673560 0.3265986 0.8673560 0.3265986 0.1326440 -0.3265986
9453000000 0.1303984 -0.3240196 0.8696016 0.3240196 0.8696016 0.3240196 0.1303984 -0.3240196
9502750000 0.1281821 -0.3214384 0.8718179 0.3214384 0.8718179 0.3214384 0.1281821 -0.3214384
9552500000 0.1259947 -0.3188553 0.8740053 0.3188553 0.8740053 0.3188553 0.1259947 -0.3188553
9602250000 0.1238360 -0.3162704 0.8761640 0.3162704 0.8761640 0.3162704 0.1238360 -0.3162704
9652000000 0.1217056 -0.3136839 0.8782944 0.3136839 0.8782944 0.3136839 0.1217056 -0.3136839
9701750000 0.1196033 -0.3110961 0.8803967 0.3110961 0.8803967 0.3110961 0.1196033 -0.3110961
9751500000 0.1175288 -0.3085072 0.8824712 0.3085072 0.8824712 0.3085072 0.1175288 -0.3085072
9801250000 0.1154819 -0.3059173 0.8845181 0.3059173 0.8845181 0.3059173 0.1154819 -0.3059173
9851000000 0.1134623 -0.3033266 0.8865377 0.3033266 0.8865377 0.3033266 0.1134623 -0.3033266
9900750000 0.1114696 -0.3007353 0.8885304 0.3007353 0.8885304 0.3007353 0.1114696 -0.3007353
9950500000 0.1095037 -0.2981436 0.8904963 0.2981436 0.8904963 0.2981436 0.1095037 -0.2981436
10000250000 0.1075643 -0.2955517 0.8924357 0.2955517 0.8924357 0.2955517 0.1075643 -0.2955517
10050000000 0.1056512 -0.2929597 0.8943488 0.2929597 0.8943488 0.2929597 0.1056512 -0.2929597
10099750000 0.1037639 -0.2903677 0.8962361 0.2903677 0.8962361 0.2903677 0.1037639 -0.2903677
10149500000 0.1019024 -0.2877760 0.8980976 0.2877760 0.8980976 0.2877760 0.1019024 -0.2877760
10199250000 0.1000664 -0.2851847 0.8999336 0.2851847 0.8999336 0.2851847 0.1000664 -0.2851847
10249000000 0.0982555 -0.2825938 0.9017445 0.2825938 0.9017445 0.2825938 0.0982555 -0.2825938
10298750000 0.0964697 -0.2800037 0.9035303 0.2800037 0.9035303 0.2800037 0.0964697 -0.2800037
10348500000 0.0947085 -0.2774144 0.9052915 0.2774144 0.9052915 0.2774144 0.0947085 -0.2774144
10398250000 0.0929718 -0.2748259 0.9070282 0.2748259 0.9070282 0.2748259 0.0929718 -0.2748259
10448000000 0.0912593 -0.2722386 0.9087407 0.2722386 0.9087407 0.2722386 0.0912593 -0.2722386
10497750000 0.0895708 -0.2696525 0.9104292 0.2696525 0.9104292 0.2696525 0.0895708 -0.2696525
