!Murata Part Number: GRM0332C2A4R3WA01
!These Parameters are Measured in Series Mode Connection
!Data Generated on Mar 30, 2021
!       o--ll--o
!Port1            Port2
!       o------o
!Operation Temp=25[degC], DC Bias Voltage=0[V]
!Freq. Start=100[MHz] Stop=9[GHz] 401[Steps]
# Hz S RI R 50
!Freq.(Hz) S11(Real) S11(Imag) S21(Real) S21(Imag) S12(Real) S12(Imag) S22(Real) S22(Imag)
100000000 0.9317783 -0.2518150 0.0682217 0.2518150 0.0682217 0.2518150 0.9317783 -0.2518150
121000000 0.9031525 -0.2953735 0.0968475 0.2953735 0.0968475 0.2953735 0.9031525 -0.2953735
142000000 0.8712750 -0.3344532 0.1287250 0.3344532 0.1287250 0.3344532 0.8712750 -0.3344532
163000000 0.8369855 -0.3688710 0.1630145 0.3688710 0.1630145 0.3688710 0.8369855 -0.3688710
184000000 0.8010814 -0.3986128 0.1989186 0.3986128 0.1989186 0.3986128 0.8010814 -0.3986128
205000000 0.7642863 -0.4238040 0.2357137 0.4238040 0.2357137 0.4238040 0.7642863 -0.4238040
226000000 0.7272307 -0.4446768 0.2727693 0.4446768 0.2727693 0.4446768 0.7272307 -0.4446768
247000000 0.6904425 -0.4615381 0.3095575 0.4615381 0.3095575 0.4615381 0.6904425 -0.4615381
268000000 0.6543479 -0.4747404 0.3456521 0.4747404 0.3456521 0.4747404 0.6543479 -0.4747404
289000000 0.6192764 -0.4846576 0.3807236 0.4846576 0.3807236 0.4846576 0.6192764 -0.4846576
310000000 0.5854710 -0.4916659 0.4145290 0.4916659 0.4145290 0.4916659 0.5854710 -0.4916659
331000000 0.5531003 -0.4961298 0.4468997 0.4961298 0.4468997 0.4961298 0.5531003 -0.4961298
352000000 0.5222701 -0.4983931 0.4777299 0.4983931 0.4777299 0.4983931 0.5222701 -0.4983931
373000000 0.4930357 -0.4987722 0.5069643 0.4987722 0.5069643 0.4987722 0.4930357 -0.4987722
394000000 0.4654125 -0.4975540 0.5345875 0.4975540 0.5345875 0.4975540 0.4654125 -0.4975540
415000000 0.4393853 -0.4949946 0.5606147 0.4949946 0.5606147 0.4949946 0.4393853 -0.4949946
436000000 0.4149162 -0.4913201 0.5850838 0.4913201 0.5850838 0.4913201 0.4149162 -0.4913201
457000000 0.3919511 -0.4867280 0.6080489 0.4867280 0.6080489 0.4867280 0.3919511 -0.4867280
478000000 0.3704252 -0.4813899 0.6295748 0.4813899 0.6295748 0.4813899 0.3704252 -0.4813899
499000000 0.3502667 -0.4754534 0.6497333 0.4754534 0.6497333 0.4754534 0.3502667 -0.4754534
520000000 0.3314002 -0.4690447 0.6685998 0.4690447 0.6685998 0.4690447 0.3314002 -0.4690447
541000000 0.3137493 -0.4622715 0.6862507 0.4622715 0.6862507 0.4622715 0.3137493 -0.4622715
562000000 0.2972378 -0.4552248 0.7027622 0.4552248 0.7027622 0.4552248 0.2972378 -0.4552248
583000000 0.2817918 -0.4479814 0.7182082 0.4479814 0.7182082 0.4479814 0.2817918 -0.4479814
604000000 0.2673397 -0.4406058 0.7326603 0.4406058 0.7326603 0.4406058 0.2673397 -0.4406058
625000000 0.2538135 -0.4331519 0.7461865 0.4331519 0.7461865 0.4331519 0.2538135 -0.4331519
646000000 0.2411486 -0.4256643 0.7588514 0.4256643 0.7588514 0.4256643 0.2411486 -0.4256643
667000000 0.2292842 -0.4181802 0.7707158 0.4181802 0.7707158 0.4181802 0.2292842 -0.4181802
688000000 0.2181636 -0.4107298 0.7818364 0.4107298 0.7818364 0.4107298 0.2181636 -0.4107298
709000000 0.2077337 -0.4033380 0.7922663 0.4033380 0.7922663 0.4033380 0.2077337 -0.4033380
730000000 0.1979452 -0.3960248 0.8020548 0.3960248 0.8020548 0.3960248 0.1979452 -0.3960248
751000000 0.1887522 -0.3888064 0.8112478 0.3888064 0.8112478 0.3888064 0.1887522 -0.3888064
772000000 0.1801122 -0.3816953 0.8198878 0.3816953 0.8198878 0.3816953 0.1801122 -0.3816953
793000000 0.1719860 -0.3747016 0.8280140 0.3747016 0.8280140 0.3747016 0.1719860 -0.3747016
814000000 0.1643374 -0.3678327 0.8356626 0.3678327 0.8356626 0.3678327 0.1643374 -0.3678327
835000000 0.1571326 -0.3610941 0.8428674 0.3610941 0.8428674 0.3610941 0.1571326 -0.3610941
856000000 0.1503408 -0.3544896 0.8496592 0.3544896 0.8496592 0.3544896 0.1503408 -0.3544896
877000000 0.1439334 -0.3480218 0.8560666 0.3480218 0.8560666 0.3480218 0.1439334 -0.3480218
898000000 0.1378840 -0.3416919 0.8621160 0.3416919 0.8621160 0.3416919 0.1378840 -0.3416919
919000000 0.1321683 -0.3355005 0.8678317 0.3355005 0.8678317 0.3355005 0.1321683 -0.3355005
940000000 0.1267636 -0.3294470 0.8732364 0.3294470 0.8732364 0.3294470 0.1267636 -0.3294470
961000000 0.1216494 -0.3235304 0.8783506 0.3235304 0.8783506 0.3235304 0.1216494 -0.3235304
982000000 0.1168064 -0.3177493 0.8831936 0.3177493 0.8831936 0.3177493 0.1168064 -0.3177493
1003000000 0.1122168 -0.3121017 0.8877832 0.3121017 0.8877832 0.3121017 0.1122168 -0.3121017
1024000000 0.1078643 -0.3065853 0.8921357 0.3065853 0.8921357 0.3065853 0.1078643 -0.3065853
1045000000 0.1037338 -0.3011976 0.8962662 0.3011976 0.8962662 0.3011976 0.1037338 -0.3011976
1066000000 0.0998111 -0.2959360 0.9001889 0.2959360 0.9001889 0.2959360 0.0998111 -0.2959360
1087000000 0.0960833 -0.2907975 0.9039167 0.2907975 0.9039167 0.2907975 0.0960833 -0.2907975
1108000000 0.0925383 -0.2857791 0.9074617 0.2857791 0.9074617 0.2857791 0.0925383 -0.2857791
1129000000 0.0891650 -0.2808779 0.9108350 0.2808779 0.9108350 0.2808779 0.0891650 -0.2808779
1150000000 0.0859530 -0.2760908 0.9140470 0.2760908 0.9140470 0.2760908 0.0859530 -0.2760908
1171000000 0.0828926 -0.2714148 0.9171074 0.2714148 0.9171074 0.2714148 0.0828926 -0.2714148
1192000000 0.0799748 -0.2668466 0.9200252 0.2668466 0.9200252 0.2668466 0.0799748 -0.2668466
1213000000 0.0771915 -0.2623834 0.9228085 0.2623834 0.9228085 0.2623834 0.0771915 -0.2623834
1234000000 0.0745348 -0.2580220 0.9254652 0.2580220 0.9254652 0.2580220 0.0745348 -0.2580220
1255000000 0.0719974 -0.2537594 0.9280026 0.2537594 0.9280026 0.2537594 0.0719974 -0.2537594
1276000000 0.0695727 -0.2495929 0.9304273 0.2495929 0.9304273 0.2495929 0.0695727 -0.2495929
1297000000 0.0672544 -0.2455194 0.9327456 0.2455194 0.9327456 0.2455194 0.0672544 -0.2455194
1318000000 0.0650367 -0.2415363 0.9349633 0.2415363 0.9349633 0.2415363 0.0650367 -0.2415363
1339000000 0.0629140 -0.2376407 0.9370860 0.2376407 0.9370860 0.2376407 0.0629140 -0.2376407
1360000000 0.0608813 -0.2338300 0.9391187 0.2338300 0.9391187 0.2338300 0.0608813 -0.2338300
1381000000 0.0589337 -0.2301016 0.9410663 0.2301016 0.9410663 0.2301016 0.0589337 -0.2301016
1402000000 0.0570668 -0.2264531 0.9429332 0.2264531 0.9429332 0.2264531 0.0570668 -0.2264531
1423000000 0.0552765 -0.2228819 0.9447235 0.2228819 0.9447235 0.2228819 0.0552765 -0.2228819
1444000000 0.0535587 -0.2193857 0.9464413 0.2193857 0.9464413 0.2193857 0.0535587 -0.2193857
1465000000 0.0519097 -0.2159623 0.9480903 0.2159623 0.9480903 0.2159623 0.0519097 -0.2159623
1486000000 0.0503262 -0.2126093 0.9496738 0.2126093 0.9496738 0.2126093 0.0503262 -0.2126093
1507000000 0.0488049 -0.2093247 0.9511951 0.2093247 0.9511951 0.2093247 0.0488049 -0.2093247
1528000000 0.0473427 -0.2061064 0.9526573 0.2061064 0.9526573 0.2061064 0.0473427 -0.2061064
1549000000 0.0459368 -0.2029524 0.9540632 0.2029524 0.9540632 0.2029524 0.0459368 -0.2029524
1570000000 0.0445843 -0.1998607 0.9554157 0.1998607 0.9554157 0.1998607 0.0445843 -0.1998607
1591000000 0.0432829 -0.1968294 0.9567171 0.1968294 0.9567171 0.1968294 0.0432829 -0.1968294
1612000000 0.0420301 -0.1938568 0.9579699 0.1938568 0.9579699 0.1938568 0.0420301 -0.1938568
1633000000 0.0408237 -0.1909410 0.9591763 0.1909410 0.9591763 0.1909410 0.0408237 -0.1909410
1654000000 0.0396614 -0.1880805 0.9603386 0.1880805 0.9603386 0.1880805 0.0396614 -0.1880805
1675000000 0.0385414 -0.1852736 0.9614586 0.1852736 0.9614586 0.1852736 0.0385414 -0.1852736
1696000000 0.0374617 -0.1825186 0.9625383 0.1825186 0.9625383 0.1825186 0.0374617 -0.1825186
1717000000 0.0364204 -0.1798142 0.9635796 0.1798142 0.9635796 0.1798142 0.0364204 -0.1798142
1738000000 0.0354160 -0.1771587 0.9645840 0.1771587 0.9645840 0.1771587 0.0354160 -0.1771587
1759000000 0.0344468 -0.1745508 0.9655532 0.1745508 0.9655532 0.1745508 0.0344468 -0.1745508
1780000000 0.0335113 -0.1719892 0.9664887 0.1719892 0.9664887 0.1719892 0.0335113 -0.1719892
1801000000 0.0326080 -0.1694725 0.9673920 0.1694725 0.9673920 0.1694725 0.0326080 -0.1694725
1822000000 0.0317356 -0.1669994 0.9682644 0.1669994 0.9682644 0.1669994 0.0317356 -0.1669994
1843000000 0.0308928 -0.1645687 0.9691072 0.1645687 0.9691072 0.1645687 0.0308928 -0.1645687
1864000000 0.0300784 -0.1621792 0.9699216 0.1621792 0.9699216 0.1621792 0.0300784 -0.1621792
1885000000 0.0292911 -0.1598298 0.9707089 0.1598298 0.9707089 0.1598298 0.0292911 -0.1598298
1906000000 0.0285300 -0.1575193 0.9714700 0.1575193 0.9714700 0.1575193 0.0285300 -0.1575193
1927000000 0.0277939 -0.1552467 0.9722061 0.1552467 0.9722061 0.1552467 0.0277939 -0.1552467
1948000000 0.0270819 -0.1530109 0.9729181 0.1530109 0.9729181 0.1530109 0.0270819 -0.1530109
1969000000 0.0263929 -0.1508110 0.9736071 0.1508110 0.9736071 0.1508110 0.0263929 -0.1508110
1990000000 0.0257262 -0.1486459 0.9742738 0.1486459 0.9742738 0.1486459 0.0257262 -0.1486459
2011000000 0.0250808 -0.1465148 0.9749192 0.1465148 0.9749192 0.1465148 0.0250808 -0.1465148
2032000000 0.0244559 -0.1444167 0.9755441 0.1444167 0.9755441 0.1444167 0.0244559 -0.1444167
2053000000 0.0238508 -0.1423507 0.9761492 0.1423507 0.9761492 0.1423507 0.0238508 -0.1423507
2074000000 0.0232647 -0.1403161 0.9767353 0.1403161 0.9767353 0.1403161 0.0232647 -0.1403161
2095000000 0.0226969 -0.1383119 0.9773031 0.1383119 0.9773031 0.1383119 0.0226969 -0.1383119
2116000000 0.0221467 -0.1363375 0.9778533 0.1363375 0.9778533 0.1363375 0.0221467 -0.1363375
2137000000 0.0216135 -0.1343920 0.9783865 0.1343920 0.9783865 0.1343920 0.0216135 -0.1343920
2158000000 0.0210967 -0.1324746 0.9789033 0.1324746 0.9789033 0.1324746 0.0210967 -0.1324746
2179000000 0.0205957 -0.1305848 0.9794043 0.1305848 0.9794043 0.1305848 0.0205957 -0.1305848
2200000000 0.0201098 -0.1287217 0.9798902 0.1287217 0.9798902 0.1287217 0.0201098 -0.1287217
2221000000 0.0196387 -0.1268848 0.9803613 0.1268848 0.9803613 0.1268848 0.0196387 -0.1268848
2242000000 0.0191818 -0.1250732 0.9808182 0.1250732 0.9808182 0.1250732 0.0191818 -0.1250732
2263000000 0.0187385 -0.1232866 0.9812615 0.1232866 0.9812615 0.1232866 0.0187385 -0.1232866
2284000000 0.0183084 -0.1215241 0.9816916 0.1215241 0.9816916 0.1215241 0.0183084 -0.1215241
2305000000 0.0178912 -0.1197852 0.9821088 0.1197852 0.9821088 0.1197852 0.0178912 -0.1197852
2326000000 0.0174862 -0.1180694 0.9825138 0.1180694 0.9825138 0.1180694 0.0174862 -0.1180694
2347000000 0.0170932 -0.1163761 0.9829068 0.1163761 0.9829068 0.1163761 0.0170932 -0.1163761
2368000000 0.0167118 -0.1147048 0.9832882 0.1147048 0.9832882 0.1147048 0.0167118 -0.1147048
2389000000 0.0163415 -0.1130549 0.9836585 0.1130549 0.9836585 0.1130549 0.0163415 -0.1130549
2410000000 0.0159820 -0.1114258 0.9840180 0.1114258 0.9840180 0.1114258 0.0159820 -0.1114258
2431000000 0.0156329 -0.1098173 0.9843671 0.1098173 0.9843671 0.1098173 0.0156329 -0.1098173
2452000000 0.0152940 -0.1082286 0.9847060 0.1082286 0.9847060 0.1082286 0.0152940 -0.1082286
2473000000 0.0149649 -0.1066595 0.9850351 0.1066595 0.9850351 0.1066595 0.0149649 -0.1066595
2494000000 0.0146452 -0.1051094 0.9853548 0.1051094 0.9853548 0.1051094 0.0146452 -0.1051094
2515000000 0.0143348 -0.1035779 0.9856652 0.1035779 0.9856652 0.1035779 0.0143348 -0.1035779
2536000000 0.0140333 -0.1020646 0.9859667 0.1020646 0.9859667 0.1020646 0.0140333 -0.1020646
2557000000 0.0137404 -0.1005690 0.9862596 0.1005690 0.9862596 0.1005690 0.0137404 -0.1005690
2578000000 0.0134559 -0.0990908 0.9865441 0.0990908 0.9865441 0.0990908 0.0134559 -0.0990908
2599000000 0.0131796 -0.0976296 0.9868204 0.0976296 0.9868204 0.0976296 0.0131796 -0.0976296
2620000000 0.0129111 -0.0961849 0.9870889 0.0961849 0.9870889 0.0961849 0.0129111 -0.0961849
2641000000 0.0126504 -0.0947565 0.9873496 0.0947565 0.9873496 0.0947565 0.0126504 -0.0947565
2662000000 0.0123970 -0.0933440 0.9876030 0.0933440 0.9876030 0.0933440 0.0123970 -0.0933440
2683000000 0.0121509 -0.0919470 0.9878491 0.0919470 0.9878491 0.0919470 0.0121509 -0.0919470
2704000000 0.0119118 -0.0905652 0.9880882 0.0905652 0.9880882 0.0905652 0.0119118 -0.0905652
2725000000 0.0116795 -0.0891983 0.9883205 0.0891983 0.9883205 0.0891983 0.0116795 -0.0891983
2746000000 0.0114538 -0.0878459 0.9885462 0.0878459 0.9885462 0.0878459 0.0114538 -0.0878459
2767000000 0.0112346 -0.0865077 0.9887654 0.0865077 0.9887654 0.0865077 0.0112346 -0.0865077
2788000000 0.0110216 -0.0851835 0.9889784 0.0851835 0.9889784 0.0851835 0.0110216 -0.0851835
2809000000 0.0108147 -0.0838729 0.9891853 0.0838729 0.9891853 0.0838729 0.0108147 -0.0838729
2830000000 0.0106138 -0.0825757 0.9893862 0.0825757 0.9893862 0.0825757 0.0106138 -0.0825757
2851000000 0.0104186 -0.0812915 0.9895814 0.0812915 0.9895814 0.0812915 0.0104186 -0.0812915
2872000000 0.0102290 -0.0800201 0.9897710 0.0800201 0.9897710 0.0800201 0.0102290 -0.0800201
2893000000 0.0100449 -0.0787613 0.9899551 0.0787613 0.9899551 0.0787613 0.0100449 -0.0787613
2914000000 0.0098660 -0.0775148 0.9901340 0.0775148 0.9901340 0.0775148 0.0098660 -0.0775148
2935000000 0.0096924 -0.0762802 0.9903076 0.0762802 0.9903076 0.0762802 0.0096924 -0.0762802
2956000000 0.0095238 -0.0750575 0.9904762 0.0750575 0.9904762 0.0750575 0.0095238 -0.0750575
2977000000 0.0093602 -0.0738463 0.9906398 0.0738463 0.9906398 0.0738463 0.0093602 -0.0738463
2998000000 0.0092013 -0.0726464 0.9907987 0.0726464 0.9907987 0.0726464 0.0092013 -0.0726464
3019000000 0.0090471 -0.0714577 0.9909529 0.0714577 0.9909529 0.0714577 0.0090471 -0.0714577
3040000000 0.0088975 -0.0702797 0.9911025 0.0702797 0.9911025 0.0702797 0.0088975 -0.0702797
3061000000 0.0087522 -0.0691125 0.9912478 0.0691125 0.9912478 0.0691125 0.0087522 -0.0691125
3082000000 0.0086114 -0.0679557 0.9913886 0.0679557 0.9913886 0.0679557 0.0086114 -0.0679557
3103000000 0.0084747 -0.0668091 0.9915253 0.0668091 0.9915253 0.0668091 0.0084747 -0.0668091
3124000000 0.0083422 -0.0656725 0.9916578 0.0656725 0.9916578 0.0656725 0.0083422 -0.0656725
3145000000 0.0082137 -0.0645459 0.9917863 0.0645459 0.9917863 0.0645459 0.0082137 -0.0645459
3166000000 0.0080891 -0.0634288 0.9919109 0.0634288 0.9919109 0.0634288 0.0080891 -0.0634288
3187000000 0.0079684 -0.0623213 0.9920316 0.0623213 0.9920316 0.0623213 0.0079684 -0.0623213
3208000000 0.0078514 -0.0612230 0.9921486 0.0612230 0.9921486 0.0612230 0.0078514 -0.0612230
3229000000 0.0077381 -0.0601338 0.9922619 0.0601338 0.9922619 0.0601338 0.0077381 -0.0601338
3250000000 0.0076284 -0.0590536 0.9923716 0.0590536 0.9923716 0.0590536 0.0076284 -0.0590536
3271000000 0.0075222 -0.0579822 0.9924778 0.0579822 0.9924778 0.0579822 0.0075222 -0.0579822
3292000000 0.0074193 -0.0569193 0.9925807 0.0569193 0.9925807 0.0569193 0.0074193 -0.0569193
3313000000 0.0073199 -0.0558649 0.9926801 0.0558649 0.9926801 0.0558649 0.0073199 -0.0558649
3334000000 0.0072237 -0.0548188 0.9927763 0.0548188 0.9927763 0.0548188 0.0072237 -0.0548188
3355000000 0.0071307 -0.0537809 0.9928693 0.0537809 0.9928693 0.0537809 0.0071307 -0.0537809
3376000000 0.0070408 -0.0527509 0.9929592 0.0527509 0.9929592 0.0527509 0.0070408 -0.0527509
3397000000 0.0069540 -0.0517287 0.9930460 0.0517287 0.9930460 0.0517287 0.0069540 -0.0517287
3418000000 0.0068702 -0.0507143 0.9931298 0.0507143 0.9931298 0.0507143 0.0068702 -0.0507143
3439000000 0.0067893 -0.0497074 0.9932107 0.0497074 0.9932107 0.0497074 0.0067893 -0.0497074
3460000000 0.0067113 -0.0487079 0.9932887 0.0487079 0.9932887 0.0487079 0.0067113 -0.0487079
3481000000 0.0066361 -0.0477158 0.9933639 0.0477158 0.9933639 0.0477158 0.0066361 -0.0477158
3502000000 0.0065637 -0.0467307 0.9934363 0.0467307 0.9934363 0.0467307 0.0065637 -0.0467307
3523000000 0.0064939 -0.0457527 0.9935061 0.0457527 0.9935061 0.0457527 0.0064939 -0.0457527
3544000000 0.0064268 -0.0447816 0.9935732 0.0447816 0.9935732 0.0447816 0.0064268 -0.0447816
3565000000 0.0063623 -0.0438173 0.9936377 0.0438173 0.9936377 0.0438173 0.0063623 -0.0438173
3586000000 0.0063004 -0.0428597 0.9936996 0.0428597 0.9936996 0.0428597 0.0063004 -0.0428597
3607000000 0.0062409 -0.0419085 0.9937591 0.0419085 0.9937591 0.0419085 0.0062409 -0.0419085
3628000000 0.0061839 -0.0409639 0.9938161 0.0409639 0.9938161 0.0409639 0.0061839 -0.0409639
3649000000 0.0061293 -0.0400255 0.9938707 0.0400255 0.9938707 0.0400255 0.0061293 -0.0400255
3670000000 0.0060771 -0.0390933 0.9939229 0.0390933 0.9939229 0.0390933 0.0060771 -0.0390933
3691000000 0.0060271 -0.0381672 0.9939729 0.0381672 0.9939729 0.0381672 0.0060271 -0.0381672
3712000000 0.0059794 -0.0372471 0.9940206 0.0372471 0.9940206 0.0372471 0.0059794 -0.0372471
3733000000 0.0059340 -0.0363329 0.9940660 0.0363329 0.9940660 0.0363329 0.0059340 -0.0363329
3754000000 0.0058907 -0.0354245 0.9941093 0.0354245 0.9941093 0.0354245 0.0058907 -0.0354245
3775000000 0.0058496 -0.0345218 0.9941504 0.0345218 0.9941504 0.0345218 0.0058496 -0.0345218
3796000000 0.0058106 -0.0336246 0.9941894 0.0336246 0.9941894 0.0336246 0.0058106 -0.0336246
3817000000 0.0057736 -0.0327330 0.9942264 0.0327330 0.9942264 0.0327330 0.0057736 -0.0327330
3838000000 0.0057387 -0.0318467 0.9942613 0.0318467 0.9942613 0.0318467 0.0057387 -0.0318467
3859000000 0.0057058 -0.0309658 0.9942942 0.0309658 0.9942942 0.0309658 0.0057058 -0.0309658
3880000000 0.0056749 -0.0300901 0.9943251 0.0300901 0.9943251 0.0300901 0.0056749 -0.0300901
3901000000 0.0056459 -0.0292195 0.9943541 0.0292195 0.9943541 0.0292195 0.0056459 -0.0292195
3922000000 0.0056188 -0.0283539 0.9943812 0.0283539 0.9943812 0.0283539 0.0056188 -0.0283539
3943000000 0.0055935 -0.0274933 0.9944065 0.0274933 0.9944065 0.0274933 0.0055935 -0.0274933
3964000000 0.0055701 -0.0266376 0.9944299 0.0266376 0.9944299 0.0266376 0.0055701 -0.0266376
3985000000 0.0055486 -0.0257867 0.9944514 0.0257867 0.9944514 0.0257867 0.0055486 -0.0257867
4006000000 0.0055288 -0.0249404 0.9944712 0.0249404 0.9944712 0.0249404 0.0055288 -0.0249404
4027000000 0.0055107 -0.0240989 0.9944893 0.0240989 0.9944893 0.0240989 0.0055107 -0.0240989
4048000000 0.0054944 -0.0232618 0.9945056 0.0232618 0.9945056 0.0232618 0.0054944 -0.0232618
4069000000 0.0054798 -0.0224293 0.9945202 0.0224293 0.9945202 0.0224293 0.0054798 -0.0224293
4090000000 0.0054669 -0.0216012 0.9945331 0.0216012 0.9945331 0.0216012 0.0054669 -0.0216012
4111000000 0.0054556 -0.0207774 0.9945444 0.0207774 0.9945444 0.0207774 0.0054556 -0.0207774
4132000000 0.0054459 -0.0199579 0.9945541 0.0199579 0.9945541 0.0199579 0.0054459 -0.0199579
4153000000 0.0054379 -0.0191425 0.9945621 0.0191425 0.9945621 0.0191425 0.0054379 -0.0191425
4174000000 0.0054314 -0.0183313 0.9945686 0.0183313 0.9945686 0.0183313 0.0054314 -0.0183313
4195000000 0.0054265 -0.0175242 0.9945735 0.0175242 0.9945735 0.0175242 0.0054265 -0.0175242
4216000000 0.0054231 -0.0167210 0.9945769 0.0167210 0.9945769 0.0167210 0.0054231 -0.0167210
4237000000 0.0054213 -0.0159218 0.9945787 0.0159218 0.9945787 0.0159218 0.0054213 -0.0159218
4258000000 0.0054209 -0.0151264 0.9945791 0.0151264 0.9945791 0.0151264 0.0054209 -0.0151264
4279000000 0.0054220 -0.0143348 0.9945780 0.0143348 0.9945780 0.0143348 0.0054220 -0.0143348
4300000000 0.0054246 -0.0135470 0.9945754 0.0135470 0.9945754 0.0135470 0.0054246 -0.0135470
4321000000 0.0054286 -0.0127629 0.9945714 0.0127629 0.9945714 0.0127629 0.0054286 -0.0127629
4342000000 0.0054341 -0.0119823 0.9945659 0.0119823 0.9945659 0.0119823 0.0054341 -0.0119823
4363000000 0.0054409 -0.0112053 0.9945591 0.0112053 0.9945591 0.0112053 0.0054409 -0.0112053
4384000000 0.0054492 -0.0104319 0.9945508 0.0104319 0.9945508 0.0104319 0.0054492 -0.0104319
4405000000 0.0054588 -0.0096618 0.9945412 0.0096618 0.9945412 0.0096618 0.0054588 -0.0096618
4426000000 0.0054697 -0.0088952 0.9945303 0.0088952 0.9945303 0.0088952 0.0054697 -0.0088952
4447000000 0.0054820 -0.0081319 0.9945180 0.0081319 0.9945180 0.0081319 0.0054820 -0.0081319
4468000000 0.0054956 -0.0073718 0.9945044 0.0073718 0.9945044 0.0073718 0.0054956 -0.0073718
4489000000 0.0055106 -0.0066150 0.9944894 0.0066150 0.9944894 0.0066150 0.0055106 -0.0066150
4510000000 0.0055268 -0.0058614 0.9944732 0.0058614 0.9944732 0.0058614 0.0055268 -0.0058614
