!Murata Part Number: GRM0334C1H1R1CA01
!These Parameters are Measured in Series Mode Connection
!Data Generated on Mar 30, 2021
!       o--ll--o
!Port1            Port2
!       o------o
!Operation Temp=25[degC], DC Bias Voltage=0[V]
!Freq. Start=100[MHz] Stop=9[GHz] 401[Steps]
# Hz S RI R 50
!Freq.(Hz) S11(Real) S11(Imag) S21(Real) S21(Imag) S12(Real) S12(Imag) S22(Real) S22(Imag)
100000000 0.9952291 -0.0687913 0.0047709 0.0687913 0.0047709 0.0687913 0.9952291 -0.0687913
121000000 0.9930298 -0.0830568 0.0069702 0.0830568 0.0069702 0.0830568 0.9930298 -0.0830568
142000000 0.9904246 -0.0972206 0.0095754 0.0972206 0.0095754 0.0972206 0.9904246 -0.0972206
163000000 0.9874197 -0.1112659 0.0125803 0.1112659 0.0125803 0.1112659 0.9874197 -0.1112659
184000000 0.9840223 -0.1251766 0.0159777 0.1251766 0.0159777 0.1251766 0.9840223 -0.1251766
205000000 0.9802402 -0.1389369 0.0197598 0.1389369 0.0197598 0.1389369 0.9802402 -0.1389369
226000000 0.9760822 -0.1525317 0.0239178 0.1525317 0.0239178 0.1525317 0.9760822 -0.1525317
247000000 0.9715578 -0.1659466 0.0284422 0.1659466 0.0284422 0.1659466 0.9715578 -0.1659466
268000000 0.9666771 -0.1791677 0.0333229 0.1791677 0.0333229 0.1791677 0.9666771 -0.1791677
289000000 0.9614511 -0.1921820 0.0385489 0.1921820 0.0385489 0.1921820 0.9614511 -0.1921820
310000000 0.9558912 -0.2049770 0.0441088 0.2049770 0.0441088 0.2049770 0.9558912 -0.2049770
331000000 0.9500092 -0.2175412 0.0499908 0.2175412 0.0499908 0.2175412 0.9500092 -0.2175412
352000000 0.9438177 -0.2298638 0.0561823 0.2298638 0.0561823 0.2298638 0.9438177 -0.2298638
373000000 0.9373296 -0.2419348 0.0626704 0.2419348 0.0626704 0.2419348 0.9373296 -0.2419348
394000000 0.9305579 -0.2537449 0.0694421 0.2537449 0.0694421 0.2537449 0.9305579 -0.2537449
415000000 0.9235162 -0.2652860 0.0764838 0.2652860 0.0764838 0.2652860 0.9235162 -0.2652860
436000000 0.9162182 -0.2765504 0.0837818 0.2765504 0.0837818 0.2765504 0.9162182 -0.2765504
457000000 0.9086778 -0.2875315 0.0913222 0.2875315 0.0913222 0.2875315 0.9086778 -0.2875315
478000000 0.9009090 -0.2982235 0.0990910 0.2982235 0.0990910 0.2982235 0.9009090 -0.2982235
499000000 0.8929257 -0.3086214 0.1070743 0.3086214 0.1070743 0.3086214 0.8929257 -0.3086214
520000000 0.8847422 -0.3187209 0.1152578 0.3187209 0.1152578 0.3187209 0.8847422 -0.3187209
541000000 0.8763723 -0.3285186 0.1236277 0.3285186 0.1236277 0.3285186 0.8763723 -0.3285186
562000000 0.8678300 -0.3380118 0.1321700 0.3380118 0.1321700 0.3380118 0.8678300 -0.3380118
583000000 0.8591291 -0.3471985 0.1408709 0.3471985 0.1408709 0.3471985 0.8591291 -0.3471985
604000000 0.8502831 -0.3560777 0.1497169 0.3560777 0.1497169 0.3560777 0.8502831 -0.3560777
625000000 0.8413055 -0.3646486 0.1586945 0.3646486 0.1586945 0.3646486 0.8413055 -0.3646486
646000000 0.8322093 -0.3729114 0.1677907 0.3729114 0.1677907 0.3729114 0.8322093 -0.3729114
667000000 0.8230074 -0.3808668 0.1769926 0.3808668 0.1769926 0.3808668 0.8230074 -0.3808668
688000000 0.8137124 -0.3885162 0.1862876 0.3885162 0.1862876 0.3885162 0.8137124 -0.3885162
709000000 0.8043363 -0.3958613 0.1956637 0.3958613 0.1956637 0.3958613 0.8043363 -0.3958613
730000000 0.7948910 -0.4029047 0.2051090 0.4029047 0.2051090 0.4029047 0.7948910 -0.4029047
751000000 0.7853880 -0.4096490 0.2146120 0.4096490 0.2146120 0.4096490 0.7853880 -0.4096490
772000000 0.7758383 -0.4160976 0.2241617 0.4160976 0.2241617 0.4160976 0.7758383 -0.4160976
793000000 0.7662525 -0.4222542 0.2337475 0.4222542 0.2337475 0.4222542 0.7662525 -0.4222542
814000000 0.7566410 -0.4281229 0.2433590 0.4281229 0.2433590 0.4281229 0.7566410 -0.4281229
835000000 0.7470134 -0.4337082 0.2529866 0.4337082 0.2529866 0.4337082 0.7470134 -0.4337082
856000000 0.7373791 -0.4390146 0.2626209 0.4390146 0.2626209 0.4390146 0.7373791 -0.4390146
877000000 0.7277471 -0.4440474 0.2722529 0.4440474 0.2722529 0.4440474 0.7277471 -0.4440474
898000000 0.7181258 -0.4488116 0.2818742 0.4488116 0.2818742 0.4488116 0.7181258 -0.4488116
919000000 0.7085234 -0.4533128 0.2914766 0.4533128 0.2914766 0.4533128 0.7085234 -0.4533128
940000000 0.6989475 -0.4575567 0.3010525 0.4575567 0.3010525 0.4575567 0.6989475 -0.4575567
961000000 0.6894053 -0.4615489 0.3105947 0.4615489 0.3105947 0.4615489 0.6894053 -0.4615489
982000000 0.6799035 -0.4652956 0.3200965 0.4652956 0.3200965 0.4652956 0.6799035 -0.4652956
1003000000 0.6704487 -0.4688026 0.3295513 0.4688026 0.3295513 0.4688026 0.6704487 -0.4688026
1024000000 0.6610466 -0.4720763 0.3389534 0.4720763 0.3389534 0.4720763 0.6610466 -0.4720763
1045000000 0.6517030 -0.4751227 0.3482970 0.4751227 0.3482970 0.4751227 0.6517030 -0.4751227
1066000000 0.6424230 -0.4779480 0.3575770 0.4779480 0.3575770 0.4779480 0.6424230 -0.4779480
1087000000 0.6332116 -0.4805587 0.3667884 0.4805587 0.3667884 0.4805587 0.6332116 -0.4805587
1108000000 0.6240730 -0.4829608 0.3759270 0.4829608 0.3759270 0.4829608 0.6240730 -0.4829608
1129000000 0.6150115 -0.4851608 0.3849885 0.4851608 0.3849885 0.4851608 0.6150115 -0.4851608
1150000000 0.6060309 -0.4871647 0.3939691 0.4871647 0.3939691 0.4871647 0.6060309 -0.4871647
1171000000 0.5971346 -0.4889788 0.4028654 0.4889788 0.4028654 0.4889788 0.5971346 -0.4889788
1192000000 0.5883258 -0.4906092 0.4116742 0.4906092 0.4116742 0.4906092 0.5883258 -0.4906092
1213000000 0.5796073 -0.4920621 0.4203927 0.4920621 0.4203927 0.4920621 0.5796073 -0.4920621
1234000000 0.5709817 -0.4933433 0.4290183 0.4933433 0.4290183 0.4933433 0.5709817 -0.4933433
1255000000 0.5624514 -0.4944588 0.4375486 0.4944588 0.4375486 0.4944588 0.5624514 -0.4944588
1276000000 0.5540183 -0.4954145 0.4459817 0.4954145 0.4459817 0.4954145 0.5540183 -0.4954145
1297000000 0.5456844 -0.4962160 0.4543156 0.4962160 0.4543156 0.4962160 0.5456844 -0.4962160
1318000000 0.5374510 -0.4968689 0.4625490 0.4968689 0.4625490 0.4968689 0.5374510 -0.4968689
1339000000 0.5293197 -0.4973789 0.4706803 0.4973789 0.4706803 0.4973789 0.5293197 -0.4973789
1360000000 0.5212916 -0.4977512 0.4787084 0.4977512 0.4787084 0.4977512 0.5212916 -0.4977512
1381000000 0.5133675 -0.4979911 0.4866325 0.4979911 0.4866325 0.4979911 0.5133675 -0.4979911
1402000000 0.5055483 -0.4981039 0.4944517 0.4981039 0.4944517 0.4981039 0.5055483 -0.4981039
1423000000 0.4978345 -0.4980945 0.5021655 0.4980945 0.5021655 0.4980945 0.4978345 -0.4980945
1444000000 0.4902266 -0.4979678 0.5097734 0.4979678 0.5097734 0.4979678 0.4902266 -0.4979678
1465000000 0.4827249 -0.4977286 0.5172751 0.4977286 0.5172751 0.4977286 0.4827249 -0.4977286
1486000000 0.4753295 -0.4973816 0.5246705 0.4973816 0.5246705 0.4973816 0.4753295 -0.4973816
1507000000 0.4680403 -0.4969313 0.5319597 0.4969313 0.5319597 0.4969313 0.4680403 -0.4969313
1528000000 0.4608573 -0.4963820 0.5391427 0.4963820 0.5391427 0.4963820 0.4608573 -0.4963820
1549000000 0.4537802 -0.4957381 0.5462198 0.4957381 0.5462198 0.4957381 0.4537802 -0.4957381
1570000000 0.4468086 -0.4950036 0.5531914 0.4950036 0.5531914 0.4950036 0.4468086 -0.4950036
1591000000 0.4399422 -0.4941827 0.5600578 0.4941827 0.5600578 0.4941827 0.4399422 -0.4941827
1612000000 0.4331803 -0.4932791 0.5668197 0.4932791 0.5668197 0.4932791 0.4331803 -0.4932791
1633000000 0.4265224 -0.4922966 0.5734776 0.4922966 0.5734776 0.4922966 0.4265224 -0.4922966
1654000000 0.4199678 -0.4912389 0.5800322 0.4912389 0.5800322 0.4912389 0.4199678 -0.4912389
1675000000 0.4135156 -0.4901095 0.5864844 0.4901095 0.5864844 0.4901095 0.4135156 -0.4901095
1696000000 0.4071651 -0.4889117 0.5928349 0.4889117 0.5928349 0.4889117 0.4071651 -0.4889117
1717000000 0.4009153 -0.4876490 0.5990847 0.4876490 0.5990847 0.4876490 0.4009153 -0.4876490
1738000000 0.3947653 -0.4863243 0.6052347 0.4863243 0.6052347 0.4863243 0.3947653 -0.4863243
1759000000 0.3887141 -0.4849409 0.6112859 0.4849409 0.6112859 0.4849409 0.3887141 -0.4849409
1780000000 0.3827607 -0.4835016 0.6172393 0.4835016 0.6172393 0.4835016 0.3827607 -0.4835016
1801000000 0.3769040 -0.4820093 0.6230960 0.4820093 0.6230960 0.4820093 0.3769040 -0.4820093
1822000000 0.3711428 -0.4804668 0.6288572 0.4804668 0.6288572 0.4804668 0.3711428 -0.4804668
1843000000 0.3654761 -0.4788766 0.6345239 0.4788766 0.6345239 0.4788766 0.3654761 -0.4788766
1864000000 0.3599026 -0.4772414 0.6400974 0.4772414 0.6400974 0.4772414 0.3599026 -0.4772414
1885000000 0.3544212 -0.4755635 0.6455788 0.4755635 0.6455788 0.4755635 0.3544212 -0.4755635
1906000000 0.3490307 -0.4738454 0.6509693 0.4738454 0.6509693 0.4738454 0.3490307 -0.4738454
1927000000 0.3437298 -0.4720892 0.6562702 0.4720892 0.6562702 0.4720892 0.3437298 -0.4720892
1948000000 0.3385173 -0.4702972 0.6614827 0.4702972 0.6614827 0.4702972 0.3385173 -0.4702972
1969000000 0.3333920 -0.4684715 0.6666080 0.4684715 0.6666080 0.4684715 0.3333920 -0.4684715
1990000000 0.3283525 -0.4666141 0.6716475 0.4666141 0.6716475 0.4666141 0.3283525 -0.4666141
2011000000 0.3233977 -0.4647268 0.6766023 0.4647268 0.6766023 0.4647268 0.3233977 -0.4647268
2032000000 0.3185262 -0.4628116 0.6814738 0.4628116 0.6814738 0.4628116 0.3185262 -0.4628116
2053000000 0.3137368 -0.4608702 0.6862632 0.4608702 0.6862632 0.4608702 0.3137368 -0.4608702
2074000000 0.3090282 -0.4589044 0.6909718 0.4589044 0.6909718 0.4589044 0.3090282 -0.4589044
2095000000 0.3043991 -0.4569158 0.6956009 0.4569158 0.6956009 0.4569158 0.3043991 -0.4569158
2116000000 0.2998484 -0.4549058 0.7001516 0.4549058 0.7001516 0.4549058 0.2998484 -0.4549058
2137000000 0.2953746 -0.4528762 0.7046254 0.4528762 0.7046254 0.4528762 0.2953746 -0.4528762
2158000000 0.2909766 -0.4508282 0.7090234 0.4508282 0.7090234 0.4508282 0.2909766 -0.4508282
2179000000 0.2866531 -0.4487633 0.7133469 0.4487633 0.7133469 0.4487633 0.2866531 -0.4487633
2200000000 0.2824029 -0.4466829 0.7175971 0.4466829 0.7175971 0.4466829 0.2824029 -0.4466829
2221000000 0.2782248 -0.4445880 0.7217752 0.4445880 0.7217752 0.4445880 0.2782248 -0.4445880
2242000000 0.2741174 -0.4424801 0.7258826 0.4424801 0.7258826 0.4424801 0.2741174 -0.4424801
2263000000 0.2700797 -0.4403602 0.7299203 0.4403602 0.7299203 0.4403602 0.2700797 -0.4403602
2284000000 0.2661104 -0.4382294 0.7338896 0.4382294 0.7338896 0.4382294 0.2661104 -0.4382294
2305000000 0.2622083 -0.4360889 0.7377917 0.4360889 0.7377917 0.4360889 0.2622083 -0.4360889
2326000000 0.2583724 -0.4339396 0.7416276 0.4339396 0.7416276 0.4339396 0.2583724 -0.4339396
2347000000 0.2546013 -0.4317824 0.7453987 0.4317824 0.7453987 0.4317824 0.2546013 -0.4317824
2368000000 0.2508940 -0.4296184 0.7491060 0.4296184 0.7491060 0.4296184 0.2508940 -0.4296184
2389000000 0.2472493 -0.4274485 0.7527507 0.4274485 0.7527507 0.4274485 0.2472493 -0.4274485
2410000000 0.2436662 -0.4252733 0.7563338 0.4252733 0.7563338 0.4252733 0.2436662 -0.4252733
2431000000 0.2401434 -0.4230939 0.7598566 0.4230939 0.7598566 0.4230939 0.2401434 -0.4230939
2452000000 0.2366801 -0.4209108 0.7633199 0.4209108 0.7633199 0.4209108 0.2366801 -0.4209108
2473000000 0.2332750 -0.4187249 0.7667250 0.4187249 0.7667250 0.4187249 0.2332750 -0.4187249
2494000000 0.2299271 -0.4165369 0.7700729 0.4165369 0.7700729 0.4165369 0.2299271 -0.4165369
2515000000 0.2266354 -0.4143475 0.7733646 0.4143475 0.7733646 0.4143475 0.2266354 -0.4143475
2536000000 0.2233989 -0.4121572 0.7766011 0.4121572 0.7766011 0.4121572 0.2233989 -0.4121572
2557000000 0.2202166 -0.4099667 0.7797834 0.4099667 0.7797834 0.4099667 0.2202166 -0.4099667
2578000000 0.2170874 -0.4077765 0.7829126 0.4077765 0.7829126 0.4077765 0.2170874 -0.4077765
2599000000 0.2140104 -0.4055873 0.7859896 0.4055873 0.7859896 0.4055873 0.2140104 -0.4055873
2620000000 0.2109847 -0.4033994 0.7890153 0.4033994 0.7890153 0.4033994 0.2109847 -0.4033994
2641000000 0.2080093 -0.4012136 0.7919907 0.4012136 0.7919907 0.4012136 0.2080093 -0.4012136
2662000000 0.2050833 -0.3990301 0.7949167 0.3990301 0.7949167 0.3990301 0.2050833 -0.3990301
2683000000 0.2022058 -0.3968494 0.7977942 0.3968494 0.7977942 0.3968494 0.2022058 -0.3968494
2704000000 0.1993758 -0.3946721 0.8006242 0.3946721 0.8006242 0.3946721 0.1993758 -0.3946721
2725000000 0.1965925 -0.3924984 0.8034075 0.3924984 0.8034075 0.3924984 0.1965925 -0.3924984
2746000000 0.1938551 -0.3903288 0.8061449 0.3903288 0.8061449 0.3903288 0.1938551 -0.3903288
2767000000 0.1911627 -0.3881636 0.8088373 0.3881636 0.8088373 0.3881636 0.1911627 -0.3881636
2788000000 0.1885145 -0.3860032 0.8114855 0.3860032 0.8114855 0.3860032 0.1885145 -0.3860032
2809000000 0.1859097 -0.3838479 0.8140903 0.3838479 0.8140903 0.3838479 0.1859097 -0.3838479
2830000000 0.1833473 -0.3816980 0.8166527 0.3816980 0.8166527 0.3816980 0.1833473 -0.3816980
2851000000 0.1808268 -0.3795538 0.8191732 0.3795538 0.8191732 0.3795538 0.1808268 -0.3795538
2872000000 0.1783473 -0.3774156 0.8216527 0.3774156 0.8216527 0.3774156 0.1783473 -0.3774156
2893000000 0.1759080 -0.3752836 0.8240920 0.3752836 0.8240920 0.3752836 0.1759080 -0.3752836
2914000000 0.1735082 -0.3731581 0.8264918 0.3731581 0.8264918 0.3731581 0.1735082 -0.3731581
2935000000 0.1711472 -0.3710394 0.8288528 0.3710394 0.8288528 0.3710394 0.1711472 -0.3710394
2956000000 0.1688242 -0.3689276 0.8311758 0.3689276 0.8311758 0.3689276 0.1688242 -0.3689276
2977000000 0.1665387 -0.3668229 0.8334613 0.3668229 0.8334613 0.3668229 0.1665387 -0.3668229
2998000000 0.1642898 -0.3647256 0.8357102 0.3647256 0.8357102 0.3647256 0.1642898 -0.3647256
3019000000 0.1620769 -0.3626358 0.8379231 0.3626358 0.8379231 0.3626358 0.1620769 -0.3626358
3040000000 0.1598993 -0.3605537 0.8401007 0.3605537 0.8401007 0.3605537 0.1598993 -0.3605537
3061000000 0.1577564 -0.3584794 0.8422436 0.3584794 0.8422436 0.3584794 0.1577564 -0.3584794
3082000000 0.1556476 -0.3564131 0.8443524 0.3564131 0.8443524 0.3564131 0.1556476 -0.3564131
3103000000 0.1535723 -0.3543550 0.8464277 0.3543550 0.8464277 0.3543550 0.1535723 -0.3543550
3124000000 0.1515297 -0.3523052 0.8484703 0.3523052 0.8484703 0.3523052 0.1515297 -0.3523052
3145000000 0.1495194 -0.3502637 0.8504806 0.3502637 0.8504806 0.3502637 0.1495194 -0.3502637
3166000000 0.1475407 -0.3482307 0.8524593 0.3482307 0.8524593 0.3482307 0.1475407 -0.3482307
3187000000 0.1455931 -0.3462064 0.8544069 0.3462064 0.8544069 0.3462064 0.1455931 -0.3462064
3208000000 0.1436760 -0.3441907 0.8563240 0.3441907 0.8563240 0.3441907 0.1436760 -0.3441907
3229000000 0.1417889 -0.3421838 0.8582111 0.3421838 0.8582111 0.3421838 0.1417889 -0.3421838
3250000000 0.1399312 -0.3401858 0.8600688 0.3401858 0.8600688 0.3401858 0.1399312 -0.3401858
3271000000 0.1381023 -0.3381967 0.8618977 0.3381967 0.8618977 0.3381967 0.1381023 -0.3381967
3292000000 0.1363018 -0.3362167 0.8636982 0.3362167 0.8636982 0.3362167 0.1363018 -0.3362167
3313000000 0.1345292 -0.3342457 0.8654708 0.3342457 0.8654708 0.3342457 0.1345292 -0.3342457
3334000000 0.1327839 -0.3322838 0.8672161 0.3322838 0.8672161 0.3322838 0.1327839 -0.3322838
3355000000 0.1310654 -0.3303311 0.8689346 0.3303311 0.8689346 0.3303311 0.1310654 -0.3303311
3376000000 0.1293733 -0.3283876 0.8706267 0.3283876 0.8706267 0.3283876 0.1293733 -0.3283876
3397000000 0.1277072 -0.3264534 0.8722928 0.3264534 0.8722928 0.3264534 0.1277072 -0.3264534
3418000000 0.1260665 -0.3245284 0.8739335 0.3245284 0.8739335 0.3245284 0.1260665 -0.3245284
3439000000 0.1244508 -0.3226128 0.8755492 0.3226128 0.8755492 0.3226128 0.1244508 -0.3226128
3460000000 0.1228596 -0.3207065 0.8771404 0.3207065 0.8771404 0.3207065 0.1228596 -0.3207065
3481000000 0.1212926 -0.3188096 0.8787074 0.3188096 0.8787074 0.3188096 0.1212926 -0.3188096
3502000000 0.1197492 -0.3169220 0.8802508 0.3169220 0.8802508 0.3169220 0.1197492 -0.3169220
3523000000 0.1182291 -0.3150438 0.8817709 0.3150438 0.8817709 0.3150438 0.1182291 -0.3150438
3544000000 0.1167319 -0.3131750 0.8832681 0.3131750 0.8832681 0.3131750 0.1167319 -0.3131750
3565000000 0.1152572 -0.3113156 0.8847428 0.3113156 0.8847428 0.3113156 0.1152572 -0.3113156
3586000000 0.1138045 -0.3094656 0.8861955 0.3094656 0.8861955 0.3094656 0.1138045 -0.3094656
3607000000 0.1123735 -0.3076250 0.8876265 0.3076250 0.8876265 0.3076250 0.1123735 -0.3076250
3628000000 0.1109639 -0.3057938 0.8890361 0.3057938 0.8890361 0.3057938 0.1109639 -0.3057938
3649000000 0.1095751 -0.3039720 0.8904249 0.3039720 0.8904249 0.3039720 0.1095751 -0.3039720
3670000000 0.1082070 -0.3021595 0.8917930 0.3021595 0.8917930 0.3021595 0.1082070 -0.3021595
3691000000 0.1068590 -0.3003564 0.8931410 0.3003564 0.8931410 0.3003564 0.1068590 -0.3003564
3712000000 0.1055310 -0.2985627 0.8944690 0.2985627 0.8944690 0.2985627 0.1055310 -0.2985627
3733000000 0.1042225 -0.2967782 0.8957775 0.2967782 0.8957775 0.2967782 0.1042225 -0.2967782
3754000000 0.1029332 -0.2950031 0.8970668 0.2950031 0.8970668 0.2950031 0.1029332 -0.2950031
3775000000 0.1016627 -0.2932372 0.8983373 0.2932372 0.8983373 0.2932372 0.1016627 -0.2932372
3796000000 0.1004108 -0.2914806 0.8995892 0.2914806 0.8995892 0.2914806 0.1004108 -0.2914806
3817000000 0.0991771 -0.2897332 0.9008229 0.2897332 0.9008229 0.2897332 0.0991771 -0.2897332
3838000000 0.0979614 -0.2879950 0.9020386 0.2879950 0.9020386 0.2879950 0.0979614 -0.2879950
3859000000 0.0967633 -0.2862659 0.9032367 0.2862659 0.9032367 0.2862659 0.0967633 -0.2862659
3880000000 0.0955825 -0.2845460 0.9044175 0.2845460 0.9044175 0.2845460 0.0955825 -0.2845460
3901000000 0.0944187 -0.2828352 0.9055813 0.2828352 0.9055813 0.2828352 0.0944187 -0.2828352
3922000000 0.0932717 -0.2811335 0.9067283 0.2811335 0.9067283 0.2811335 0.0932717 -0.2811335
3943000000 0.0921412 -0.2794407 0.9078588 0.2794407 0.9078588 0.2794407 0.0921412 -0.2794407
3964000000 0.0910268 -0.2777570 0.9089732 0.2777570 0.9089732 0.2777570 0.0910268 -0.2777570
3985000000 0.0899284 -0.2760822 0.9100716 0.2760822 0.9100716 0.2760822 0.0899284 -0.2760822
4006000000 0.0888456 -0.2744163 0.9111544 0.2744163 0.9111544 0.2744163 0.0888456 -0.2744163
4027000000 0.0877782 -0.2727593 0.9122218 0.2727593 0.9122218 0.2727593 0.0877782 -0.2727593
4048000000 0.0867260 -0.2711112 0.9132740 0.2711112 0.9132740 0.2711112 0.0867260 -0.2711112
4069000000 0.0856887 -0.2694718 0.9143113 0.2694718 0.9143113 0.2694718 0.0856887 -0.2694718
4090000000 0.0846660 -0.2678411 0.9153340 0.2678411 0.9153340 0.2678411 0.0846660 -0.2678411
4111000000 0.0836577 -0.2662191 0.9163423 0.2662191 0.9163423 0.2662191 0.0836577 -0.2662191
4132000000 0.0826637 -0.2646058 0.9173363 0.2646058 0.9173363 0.2646058 0.0826637 -0.2646058
4153000000 0.0816835 -0.2630011 0.9183165 0.2630011 0.9183165 0.2630011 0.0816835 -0.2630011
4174000000 0.0807171 -0.2614049 0.9192829 0.2614049 0.9192829 0.2614049 0.0807171 -0.2614049
4195000000 0.0797642 -0.2598173 0.9202358 0.2598173 0.9202358 0.2598173 0.0797642 -0.2598173
4216000000 0.0788246 -0.2582381 0.9211754 0.2582381 0.9211754 0.2582381 0.0788246 -0.2582381
4237000000 0.0778980 -0.2566673 0.9221020 0.2566673 0.9221020 0.2566673 0.0778980 -0.2566673
4258000000 0.0769843 -0.2551049 0.9230157 0.2551049 0.9230157 0.2551049 0.0769843 -0.2551049
4279000000 0.0760832 -0.2535508 0.9239168 0.2535508 0.9239168 0.2535508 0.0760832 -0.2535508
4300000000 0.0751946 -0.2520049 0.9248054 0.2520049 0.9248054 0.2520049 0.0751946 -0.2520049
4321000000 0.0743183 -0.2504673 0.9256817 0.2504673 0.9256817 0.2504673 0.0743183 -0.2504673
4342000000 0.0734540 -0.2489378 0.9265460 0.2489378 0.9265460 0.2489378 0.0734540 -0.2489378
4363000000 0.0726015 -0.2474165 0.9273985 0.2474165 0.9273985 0.2474165 0.0726015 -0.2474165
4384000000 0.0717608 -0.2459032 0.9282392 0.2459032 0.9282392 0.2459032 0.0717608 -0.2459032
4405000000 0.0709316 -0.2443979 0.9290684 0.2443979 0.9290684 0.2443979 0.0709316 -0.2443979
4426000000 0.0701136 -0.2429006 0.9298864 0.2429006 0.9298864 0.2429006 0.0701136 -0.2429006
4447000000 0.0693068 -0.2414112 0.9306932 0.2414112 0.9306932 0.2414112 0.0693068 -0.2414112
4468000000 0.0685110 -0.2399296 0.9314890 0.2399296 0.9314890 0.2399296 0.0685110 -0.2399296
4489000000 0.0677260 -0.2384558 0.9322740 0.2384558 0.9322740 0.2384558 0.0677260 -0.2384558
4510000000 0.0669516 -0.2369898 0.9330484 0.2369898 0.9330484 0.2369898 0.0669516 -0.2369898
