!Murata Part Number: GRM0335C2A4R7WA01
!These Parameters are Measured in Series Mode Connection
!Data Generated on Mar 30, 2021
!       o--ll--o
!Port1            Port2
!       o------o
!Operation Temp=25[degC], DC Bias Voltage=0[V]
!Freq. Start=100[MHz] Stop=9[GHz] 401[Steps]
# Hz S RI R 50
!Freq.(Hz) S11(Real) S11(Imag) S21(Real) S21(Imag) S12(Real) S12(Imag) S22(Real) S22(Imag)
100000000 0.9195675 -0.2716435 0.0804325 0.2716435 0.0804325 0.2716435 0.9195675 -0.2716435
121000000 0.8864377 -0.3168935 0.1135623 0.3168935 0.1135623 0.3168935 0.8864377 -0.3168935
142000000 0.8499653 -0.3566525 0.1500347 0.3566525 0.1500347 0.3566525 0.8499653 -0.3566525
163000000 0.8112194 -0.3908136 0.1887806 0.3908136 0.1887806 0.3908136 0.8112194 -0.3908136
184000000 0.7711788 -0.4194851 0.2288212 0.4194851 0.2288212 0.4194851 0.7711788 -0.4194851
205000000 0.7306958 -0.4429410 0.2693042 0.4429410 0.2693042 0.4429410 0.7306958 -0.4429410
226000000 0.6904786 -0.4615700 0.3095214 0.4615700 0.3095214 0.4615700 0.6904786 -0.4615700
247000000 0.6510895 -0.4758298 0.3489105 0.4758298 0.3489105 0.4758298 0.6510895 -0.4758298
268000000 0.6129532 -0.4862088 0.3870468 0.4862088 0.3870468 0.4862088 0.6129532 -0.4862088
289000000 0.5763727 -0.4931965 0.4236273 0.4931965 0.4236273 0.4931965 0.5763727 -0.4931965
310000000 0.5415476 -0.4972634 0.4584524 0.4972634 0.4584524 0.4972634 0.5415476 -0.4972634
331000000 0.5085932 -0.4988470 0.4914068 0.4988470 0.4914068 0.4988470 0.5085932 -0.4988470
352000000 0.4775586 -0.4983445 0.5224414 0.4983445 0.5224414 0.4983445 0.4775586 -0.4983445
373000000 0.4484419 -0.4961098 0.5515581 0.4961098 0.5515581 0.4961098 0.4484419 -0.4961098
394000000 0.4212045 -0.4924534 0.5787955 0.4924534 0.5787955 0.4924534 0.4212045 -0.4924534
415000000 0.3957814 -0.4876443 0.6042186 0.4876443 0.6042186 0.4876443 0.3957814 -0.4876443
436000000 0.3720905 -0.4819131 0.6279095 0.4819131 0.6279095 0.4819131 0.3720905 -0.4819131
457000000 0.3500389 -0.4754561 0.6499611 0.4754561 0.6499611 0.4754561 0.3500389 -0.4754561
478000000 0.3295284 -0.4684387 0.6704716 0.4684387 0.6704716 0.4684387 0.3295284 -0.4684387
499000000 0.3104590 -0.4609999 0.6895410 0.4609999 0.6895410 0.4609999 0.3104590 -0.4609999
520000000 0.2927319 -0.4532553 0.7072681 0.4532553 0.7072681 0.4532553 0.2927319 -0.4532553
541000000 0.2762512 -0.4453010 0.7237488 0.4453010 0.7237488 0.4453010 0.2762512 -0.4453010
562000000 0.2609249 -0.4372158 0.7390751 0.4372158 0.7390751 0.4372158 0.2609249 -0.4372158
583000000 0.2466662 -0.4290648 0.7533338 0.4290648 0.7533338 0.4290648 0.2466662 -0.4290648
604000000 0.2333934 -0.4209007 0.7666066 0.4209007 0.7666066 0.4209007 0.2333934 -0.4209007
625000000 0.2210306 -0.4127662 0.7789694 0.4127662 0.7789694 0.4127662 0.2210306 -0.4127662
646000000 0.2095071 -0.4046956 0.7904929 0.4046956 0.7904929 0.4046956 0.2095071 -0.4046956
667000000 0.1987575 -0.3967163 0.8012425 0.3967163 0.8012425 0.3967163 0.1987575 -0.3967163
688000000 0.1887216 -0.3888496 0.8112784 0.3888496 0.8112784 0.3888496 0.1887216 -0.3888496
709000000 0.1793440 -0.3811121 0.8206560 0.3811121 0.8206560 0.3811121 0.1793440 -0.3811121
730000000 0.1705738 -0.3735165 0.8294262 0.3735165 0.8294262 0.3735165 0.1705738 -0.3735165
751000000 0.1623642 -0.3660719 0.8376358 0.3660719 0.8376358 0.3660719 0.1623642 -0.3660719
772000000 0.1546725 -0.3587850 0.8453275 0.3587850 0.8453275 0.3587850 0.1546725 -0.3587850
793000000 0.1474593 -0.3516600 0.8525407 0.3516600 0.8525407 0.3516600 0.1474593 -0.3516600
814000000 0.1406888 -0.3446995 0.8593112 0.3446995 0.8593112 0.3446995 0.1406888 -0.3446995
835000000 0.1343279 -0.3379044 0.8656721 0.3379044 0.8656721 0.3379044 0.1343279 -0.3379044
856000000 0.1283465 -0.3312747 0.8716535 0.3312747 0.8716535 0.3312747 0.1283465 -0.3312747
877000000 0.1227169 -0.3248092 0.8772831 0.3248092 0.8772831 0.3248092 0.1227169 -0.3248092
898000000 0.1174138 -0.3185060 0.8825862 0.3185060 0.8825862 0.3185060 0.1174138 -0.3185060
919000000 0.1124138 -0.3123626 0.8875862 0.3123626 0.8875862 0.3123626 0.1124138 -0.3123626
940000000 0.1076957 -0.3063760 0.8923043 0.3063760 0.8923043 0.3063760 0.1076957 -0.3063760
961000000 0.1032397 -0.3005429 0.8967603 0.3005429 0.8967603 0.3005429 0.1032397 -0.3005429
982000000 0.0990278 -0.2948598 0.9009722 0.2948598 0.9009722 0.2948598 0.0990278 -0.2948598
1003000000 0.0950435 -0.2893228 0.9049565 0.2893228 0.9049565 0.2893228 0.0950435 -0.2893228
1024000000 0.0912714 -0.2839281 0.9087286 0.2839281 0.9087286 0.2839281 0.0912714 -0.2839281
1045000000 0.0876976 -0.2786716 0.9123024 0.2786716 0.9123024 0.2786716 0.0876976 -0.2786716
1066000000 0.0843089 -0.2735494 0.9156911 0.2735494 0.9156911 0.2735494 0.0843089 -0.2735494
1087000000 0.0810935 -0.2685574 0.9189065 0.2685574 0.9189065 0.2685574 0.0810935 -0.2685574
1108000000 0.0780403 -0.2636916 0.9219597 0.2636916 0.9219597 0.2636916 0.0780403 -0.2636916
1129000000 0.0751391 -0.2589481 0.9248609 0.2589481 0.9248609 0.2589481 0.0751391 -0.2589481
1150000000 0.0723803 -0.2543231 0.9276197 0.2543231 0.9276197 0.2543231 0.0723803 -0.2543231
1171000000 0.0697553 -0.2498126 0.9302447 0.2498126 0.9302447 0.2498126 0.0697553 -0.2498126
1192000000 0.0672560 -0.2454129 0.9327440 0.2454129 0.9327440 0.2454129 0.0672560 -0.2454129
1213000000 0.0648747 -0.2411205 0.9351253 0.2411205 0.9351253 0.2411205 0.0648747 -0.2411205
1234000000 0.0626045 -0.2369317 0.9373955 0.2369317 0.9373955 0.2369317 0.0626045 -0.2369317
1255000000 0.0604390 -0.2328432 0.9395610 0.2328432 0.9395610 0.2328432 0.0604390 -0.2328432
1276000000 0.0583720 -0.2288517 0.9416280 0.2288517 0.9416280 0.2288517 0.0583720 -0.2288517
1297000000 0.0563979 -0.2249538 0.9436021 0.2249538 0.9436021 0.2249538 0.0563979 -0.2249538
1318000000 0.0545116 -0.2211465 0.9454884 0.2211465 0.9454884 0.2211465 0.0545116 -0.2211465
1339000000 0.0527081 -0.2174268 0.9472919 0.2174268 0.9472919 0.2174268 0.0527081 -0.2174268
1360000000 0.0509829 -0.2137917 0.9490171 0.2137917 0.9490171 0.2137917 0.0509829 -0.2137917
1381000000 0.0493317 -0.2102385 0.9506683 0.2102385 0.9506683 0.2102385 0.0493317 -0.2102385
1402000000 0.0477505 -0.2067644 0.9522495 0.2067644 0.9522495 0.2067644 0.0477505 -0.2067644
1423000000 0.0462357 -0.2033669 0.9537643 0.2033669 0.9537643 0.2033669 0.0462357 -0.2033669
1444000000 0.0447837 -0.2000434 0.9552163 0.2000434 0.9552163 0.2000434 0.0447837 -0.2000434
1465000000 0.0433914 -0.1967915 0.9566086 0.1967915 0.9566086 0.1967915 0.0433914 -0.1967915
1486000000 0.0420555 -0.1936088 0.9579445 0.1936088 0.9579445 0.1936088 0.0420555 -0.1936088
1507000000 0.0407734 -0.1904932 0.9592266 0.1904932 0.9592266 0.1904932 0.0407734 -0.1904932
1528000000 0.0395423 -0.1874425 0.9604577 0.1874425 0.9604577 0.1874425 0.0395423 -0.1874425
1549000000 0.0383596 -0.1844546 0.9616404 0.1844546 0.9616404 0.1844546 0.0383596 -0.1844546
1570000000 0.0372230 -0.1815274 0.9627770 0.1815274 0.9627770 0.1815274 0.0372230 -0.1815274
1591000000 0.0361303 -0.1786592 0.9638697 0.1786592 0.9638697 0.1786592 0.0361303 -0.1786592
1612000000 0.0350794 -0.1758479 0.9649206 0.1758479 0.9649206 0.1758479 0.0350794 -0.1758479
1633000000 0.0340683 -0.1730919 0.9659317 0.1730919 0.9659317 0.1730919 0.0340683 -0.1730919
1654000000 0.0330951 -0.1703894 0.9669049 0.1703894 0.9669049 0.1703894 0.0330951 -0.1703894
1675000000 0.0321581 -0.1677387 0.9678419 0.1677387 0.9678419 0.1677387 0.0321581 -0.1677387
1696000000 0.0312556 -0.1651383 0.9687444 0.1651383 0.9687444 0.1651383 0.0312556 -0.1651383
1717000000 0.0303861 -0.1625867 0.9696139 0.1625867 0.9696139 0.1625867 0.0303861 -0.1625867
1738000000 0.0295480 -0.1600823 0.9704520 0.1600823 0.9704520 0.1600823 0.0295480 -0.1600823
1759000000 0.0287400 -0.1576238 0.9712600 0.1576238 0.9712600 0.1576238 0.0287400 -0.1576238
1780000000 0.0279608 -0.1552097 0.9720392 0.1552097 0.9720392 0.1552097 0.0279608 -0.1552097
1801000000 0.0272091 -0.1528388 0.9727909 0.1528388 0.9727909 0.1528388 0.0272091 -0.1528388
1822000000 0.0264837 -0.1505098 0.9735163 0.1505098 0.9735163 0.1505098 0.0264837 -0.1505098
1843000000 0.0257835 -0.1482214 0.9742165 0.1482214 0.9742165 0.1482214 0.0257835 -0.1482214
1864000000 0.0251074 -0.1459725 0.9748926 0.1459725 0.9748926 0.1459725 0.0251074 -0.1459725
1885000000 0.0244545 -0.1437620 0.9755455 0.1437620 0.9755455 0.1437620 0.0244545 -0.1437620
1906000000 0.0238238 -0.1415887 0.9761762 0.1415887 0.9761762 0.1415887 0.0238238 -0.1415887
1927000000 0.0232143 -0.1394516 0.9767857 0.1394516 0.9767857 0.1394516 0.0232143 -0.1394516
1948000000 0.0226253 -0.1373497 0.9773747 0.1373497 0.9773747 0.1373497 0.0226253 -0.1373497
1969000000 0.0220558 -0.1352819 0.9779442 0.1352819 0.9779442 0.1352819 0.0220558 -0.1352819
1990000000 0.0215052 -0.1332475 0.9784948 0.1332475 0.9784948 0.1332475 0.0215052 -0.1332475
2011000000 0.0209727 -0.1312453 0.9790273 0.1312453 0.9790273 0.1312453 0.0209727 -0.1312453
2032000000 0.0204575 -0.1292745 0.9795425 0.1292745 0.9795425 0.1292745 0.0204575 -0.1292745
2053000000 0.0199590 -0.1273344 0.9800410 0.1273344 0.9800410 0.1273344 0.0199590 -0.1273344
2074000000 0.0194766 -0.1254240 0.9805234 0.1254240 0.9805234 0.1254240 0.0194766 -0.1254240
2095000000 0.0190096 -0.1235425 0.9809904 0.1235425 0.9809904 0.1235425 0.0190096 -0.1235425
2116000000 0.0185575 -0.1216893 0.9814425 0.1216893 0.9814425 0.1216893 0.0185575 -0.1216893
2137000000 0.0181198 -0.1198635 0.9818802 0.1198635 0.9818802 0.1198635 0.0181198 -0.1198635
2158000000 0.0176958 -0.1180644 0.9823042 0.1180644 0.9823042 0.1180644 0.0176958 -0.1180644
2179000000 0.0172851 -0.1162913 0.9827149 0.1162913 0.9827149 0.1162913 0.0172851 -0.1162913
2200000000 0.0168873 -0.1145436 0.9831127 0.1145436 0.9831127 0.1145436 0.0168873 -0.1145436
2221000000 0.0165018 -0.1128206 0.9834982 0.1128206 0.9834982 0.1128206 0.0165018 -0.1128206
2242000000 0.0161282 -0.1111217 0.9838718 0.1111217 0.9838718 0.1111217 0.0161282 -0.1111217
2263000000 0.0157661 -0.1094462 0.9842339 0.1094462 0.9842339 0.1094462 0.0157661 -0.1094462
2284000000 0.0154151 -0.1077936 0.9845849 0.1077936 0.9845849 0.1077936 0.0154151 -0.1077936
2305000000 0.0150748 -0.1061633 0.9849252 0.1061633 0.9849252 0.1061633 0.0150748 -0.1061633
2326000000 0.0147449 -0.1045547 0.9852551 0.1045547 0.9852551 0.1045547 0.0147449 -0.1045547
2347000000 0.0144250 -0.1029673 0.9855750 0.1029673 0.9855750 0.1029673 0.0144250 -0.1029673
2368000000 0.0141147 -0.1014007 0.9858853 0.1014007 0.9858853 0.1014007 0.0141147 -0.1014007
2389000000 0.0138138 -0.0998542 0.9861862 0.0998542 0.9861862 0.0998542 0.0138138 -0.0998542
2410000000 0.0135219 -0.0983274 0.9864781 0.0983274 0.9864781 0.0983274 0.0135219 -0.0983274
2431000000 0.0132388 -0.0968199 0.9867612 0.0968199 0.9867612 0.0968199 0.0132388 -0.0968199
2452000000 0.0129641 -0.0953311 0.9870359 0.0953311 0.9870359 0.0953311 0.0129641 -0.0953311
2473000000 0.0126976 -0.0938606 0.9873024 0.0938606 0.9873024 0.0938606 0.0126976 -0.0938606
2494000000 0.0124390 -0.0924081 0.9875610 0.0924081 0.9875610 0.0924081 0.0124390 -0.0924081
2515000000 0.0121881 -0.0909730 0.9878119 0.0909730 0.9878119 0.0909730 0.0121881 -0.0909730
2536000000 0.0119447 -0.0895549 0.9880553 0.0895549 0.9880553 0.0895549 0.0119447 -0.0895549
2557000000 0.0117084 -0.0881536 0.9882916 0.0881536 0.9882916 0.0881536 0.0117084 -0.0881536
2578000000 0.0114791 -0.0867685 0.9885209 0.0867685 0.9885209 0.0867685 0.0114791 -0.0867685
2599000000 0.0112566 -0.0853994 0.9887434 0.0853994 0.9887434 0.0853994 0.0112566 -0.0853994
2620000000 0.0110407 -0.0840458 0.9889593 0.0840458 0.9889593 0.0840458 0.0110407 -0.0840458
2641000000 0.0108311 -0.0827074 0.9891689 0.0827074 0.9891689 0.0827074 0.0108311 -0.0827074
2662000000 0.0106277 -0.0813839 0.9893723 0.0813839 0.9893723 0.0813839 0.0106277 -0.0813839
2683000000 0.0104303 -0.0800749 0.9895697 0.0800749 0.9895697 0.0800749 0.0104303 -0.0800749
2704000000 0.0102388 -0.0787801 0.9897612 0.0787801 0.9897612 0.0787801 0.0102388 -0.0787801
2725000000 0.0100528 -0.0774992 0.9899472 0.0774992 0.9899472 0.0774992 0.0100528 -0.0774992
2746000000 0.0098724 -0.0762320 0.9901276 0.0762320 0.9901276 0.0762320 0.0098724 -0.0762320
2767000000 0.0096974 -0.0749780 0.9903026 0.0749780 0.9903026 0.0749780 0.0096974 -0.0749780
2788000000 0.0095275 -0.0737371 0.9904725 0.0737371 0.9904725 0.0737371 0.0095275 -0.0737371
2809000000 0.0093627 -0.0725088 0.9906373 0.0725088 0.9906373 0.0725088 0.0093627 -0.0725088
2830000000 0.0092027 -0.0712931 0.9907973 0.0712931 0.9907973 0.0712931 0.0092027 -0.0712931
2851000000 0.0090476 -0.0700895 0.9909524 0.0700895 0.9909524 0.0700895 0.0090476 -0.0700895
2872000000 0.0088971 -0.0688979 0.9911029 0.0688979 0.9911029 0.0688979 0.0088971 -0.0688979
2893000000 0.0087511 -0.0677180 0.9912489 0.0677180 0.9912489 0.0677180 0.0087511 -0.0677180
2914000000 0.0086095 -0.0665495 0.9913905 0.0665495 0.9913905 0.0665495 0.0086095 -0.0665495
2935000000 0.0084722 -0.0653922 0.9915278 0.0653922 0.9915278 0.0653922 0.0084722 -0.0653922
2956000000 0.0083391 -0.0642459 0.9916609 0.0642459 0.9916609 0.0642459 0.0083391 -0.0642459
2977000000 0.0082100 -0.0631103 0.9917900 0.0631103 0.9917900 0.0631103 0.0082100 -0.0631103
2998000000 0.0080849 -0.0619853 0.9919151 0.0619853 0.9919151 0.0619853 0.0080849 -0.0619853
3019000000 0.0079636 -0.0608706 0.9920364 0.0608706 0.9920364 0.0608706 0.0079636 -0.0608706
3040000000 0.0078462 -0.0597660 0.9921538 0.0597660 0.9921538 0.0597660 0.0078462 -0.0597660
3061000000 0.0077324 -0.0586713 0.9922676 0.0586713 0.9922676 0.0586713 0.0077324 -0.0586713
3082000000 0.0076221 -0.0575863 0.9923779 0.0575863 0.9923779 0.0575863 0.0076221 -0.0575863
3103000000 0.0075154 -0.0565108 0.9924846 0.0565108 0.9924846 0.0565108 0.0075154 -0.0565108
3124000000 0.0074121 -0.0554446 0.9925879 0.0554446 0.9925879 0.0554446 0.0074121 -0.0554446
3145000000 0.0073121 -0.0543876 0.9926879 0.0543876 0.9926879 0.0543876 0.0073121 -0.0543876
3166000000 0.0072153 -0.0533395 0.9927847 0.0533395 0.9927847 0.0533395 0.0072153 -0.0533395
3187000000 0.0071217 -0.0523003 0.9928783 0.0523003 0.9928783 0.0523003 0.0071217 -0.0523003
3208000000 0.0070313 -0.0512696 0.9929687 0.0512696 0.9929687 0.0512696 0.0070313 -0.0512696
3229000000 0.0069438 -0.0502474 0.9930562 0.0502474 0.9930562 0.0502474 0.0069438 -0.0502474
3250000000 0.0068593 -0.0492334 0.9931407 0.0492334 0.9931407 0.0492334 0.0068593 -0.0492334
3271000000 0.0067777 -0.0482276 0.9932223 0.0482276 0.9932223 0.0482276 0.0067777 -0.0482276
3292000000 0.0066990 -0.0472298 0.9933010 0.0472298 0.9933010 0.0472298 0.0066990 -0.0472298
3313000000 0.0066230 -0.0462397 0.9933770 0.0462397 0.9933770 0.0462397 0.0066230 -0.0462397
3334000000 0.0065497 -0.0452574 0.9934503 0.0452574 0.9934503 0.0452574 0.0065497 -0.0452574
3355000000 0.0064790 -0.0442825 0.9935210 0.0442825 0.9935210 0.0442825 0.0064790 -0.0442825
3376000000 0.0064110 -0.0433151 0.9935890 0.0433151 0.9935890 0.0433151 0.0064110 -0.0433151
3397000000 0.0063455 -0.0423549 0.9936545 0.0423549 0.9936545 0.0423549 0.0063455 -0.0423549
3418000000 0.0062825 -0.0414018 0.9937175 0.0414018 0.9937175 0.0414018 0.0062825 -0.0414018
3439000000 0.0062219 -0.0404556 0.9937781 0.0404556 0.9937781 0.0404556 0.0062219 -0.0404556
3460000000 0.0061637 -0.0395164 0.9938363 0.0395164 0.9938363 0.0395164 0.0061637 -0.0395164
3481000000 0.0061078 -0.0385838 0.9938922 0.0385838 0.9938922 0.0385838 0.0061078 -0.0385838
3502000000 0.0060542 -0.0376579 0.9939458 0.0376579 0.9939458 0.0376579 0.0060542 -0.0376579
3523000000 0.0060029 -0.0367384 0.9939971 0.0367384 0.9939971 0.0367384 0.0060029 -0.0367384
3544000000 0.0059538 -0.0358253 0.9940462 0.0358253 0.9940462 0.0358253 0.0059538 -0.0358253
3565000000 0.0059068 -0.0349184 0.9940932 0.0349184 0.9940932 0.0349184 0.0059068 -0.0349184
3586000000 0.0058620 -0.0340177 0.9941380 0.0340177 0.9941380 0.0340177 0.0058620 -0.0340177
3607000000 0.0058192 -0.0331230 0.9941808 0.0331230 0.9941808 0.0331230 0.0058192 -0.0331230
3628000000 0.0057785 -0.0322342 0.9942215 0.0322342 0.9942215 0.0322342 0.0057785 -0.0322342
3649000000 0.0057398 -0.0313512 0.9942602 0.0313512 0.9942602 0.0313512 0.0057398 -0.0313512
3670000000 0.0057031 -0.0304739 0.9942969 0.0304739 0.9942969 0.0304739 0.0057031 -0.0304739
3691000000 0.0056683 -0.0296022 0.9943317 0.0296022 0.9943317 0.0296022 0.0056683 -0.0296022
3712000000 0.0056354 -0.0287361 0.9943646 0.0287361 0.9943646 0.0287361 0.0056354 -0.0287361
3733000000 0.0056044 -0.0278753 0.9943956 0.0278753 0.9943956 0.0278753 0.0056044 -0.0278753
3754000000 0.0055752 -0.0270199 0.9944248 0.0270199 0.9944248 0.0270199 0.0055752 -0.0270199
3775000000 0.0055478 -0.0261696 0.9944522 0.0261696 0.9944522 0.0261696 0.0055478 -0.0261696
3796000000 0.0055222 -0.0253245 0.9944778 0.0253245 0.9944778 0.0253245 0.0055222 -0.0253245
3817000000 0.0054983 -0.0244844 0.9945017 0.0244844 0.9945017 0.0244844 0.0054983 -0.0244844
3838000000 0.0054762 -0.0236493 0.9945238 0.0236493 0.9945238 0.0236493 0.0054762 -0.0236493
3859000000 0.0054558 -0.0228191 0.9945442 0.0228191 0.9945442 0.0228191 0.0054558 -0.0228191
3880000000 0.0054370 -0.0219936 0.9945630 0.0219936 0.9945630 0.0219936 0.0054370 -0.0219936
3901000000 0.0054199 -0.0211728 0.9945801 0.0211728 0.9945801 0.0211728 0.0054199 -0.0211728
3922000000 0.0054044 -0.0203567 0.9945956 0.0203567 0.9945956 0.0203567 0.0054044 -0.0203567
3943000000 0.0053905 -0.0195450 0.9946095 0.0195450 0.9946095 0.0195450 0.0053905 -0.0195450
3964000000 0.0053782 -0.0187379 0.9946218 0.0187379 0.9946218 0.0187379 0.0053782 -0.0187379
3985000000 0.0053674 -0.0179351 0.9946326 0.0179351 0.9946326 0.0179351 0.0053674 -0.0179351
4006000000 0.0053582 -0.0171366 0.9946418 0.0171366 0.9946418 0.0171366 0.0053582 -0.0171366
4027000000 0.0053504 -0.0163424 0.9946496 0.0163424 0.9946496 0.0163424 0.0053504 -0.0163424
4048000000 0.0053442 -0.0155523 0.9946558 0.0155523 0.9946558 0.0155523 0.0053442 -0.0155523
4069000000 0.0053394 -0.0147663 0.9946606 0.0147663 0.9946606 0.0147663 0.0053394 -0.0147663
4090000000 0.0053361 -0.0139843 0.9946639 0.0139843 0.9946639 0.0139843 0.0053361 -0.0139843
4111000000 0.0053342 -0.0132063 0.9946658 0.0132063 0.9946658 0.0132063 0.0053342 -0.0132063
4132000000 0.0053338 -0.0124322 0.9946662 0.0124322 0.9946662 0.0124322 0.0053338 -0.0124322
4153000000 0.0053347 -0.0116619 0.9946653 0.0116619 0.9946653 0.0116619 0.0053347 -0.0116619
4174000000 0.0053370 -0.0108954 0.9946630 0.0108954 0.9946630 0.0108954 0.0053370 -0.0108954
4195000000 0.0053407 -0.0101325 0.9946593 0.0101325 0.9946593 0.0101325 0.0053407 -0.0101325
4216000000 0.0053457 -0.0093733 0.9946543 0.0093733 0.9946543 0.0093733 0.0053457 -0.0093733
4237000000 0.0053521 -0.0086176 0.9946479 0.0086176 0.9946479 0.0086176 0.0053521 -0.0086176
4258000000 0.0053598 -0.0078655 0.9946402 0.0078655 0.9946402 0.0078655 0.0053598 -0.0078655
4279000000 0.0053688 -0.0071168 0.9946312 0.0071168 0.9946312 0.0071168 0.0053688 -0.0071168
4300000000 0.0053791 -0.0063715 0.9946209 0.0063715 0.9946209 0.0063715 0.0053791 -0.0063715
4321000000 0.0053907 -0.0056296 0.9946093 0.0056296 0.9946093 0.0056296 0.0053907 -0.0056296
4342000000 0.0054035 -0.0048909 0.9945965 0.0048909 0.9945965 0.0048909 0.0054035 -0.0048909
4363000000 0.0054176 -0.0041554 0.9945824 0.0041554 0.9945824 0.0041554 0.0054176 -0.0041554
4384000000 0.0054330 -0.0034231 0.9945670 0.0034231 0.9945670 0.0034231 0.0054330 -0.0034231
4405000000 0.0054496 -0.0026940 0.9945504 0.0026940 0.9945504 0.0026940 0.0054496 -0.0026940
4426000000 0.0054674 -0.0019679 0.9945326 0.0019679 0.9945326 0.0019679 0.0054674 -0.0019679
4447000000 0.0054864 -0.0012448 0.9945136 0.0012448 0.9945136 0.0012448 0.0054864 -0.0012448
4468000000 0.0055067 -0.0005246 0.9944933 0.0005246 0.9944933 0.0005246 0.0055067 -0.0005246
4489000000 0.0055281 0.0001926 0.9944719 -0.0001926 0.9944719 -0.0001926 0.0055281 0.0001926
4510000000 0.0055508 0.0009069 0.9944492 -0.0009069 0.9944492 -0.0009069 0.0055508 0.0009069
