!Murata Part Number: GRM0332C1H7R0CA01
!These Parameters are Measured in Series Mode Connection
!Data Generated on Mar 30, 2021
!       o--ll--o
!Port1            Port2
!       o------o
!Operation Temp=25[degC], DC Bias Voltage=0[V]
!Freq. Start=100[MHz] Stop=9[GHz] 401[Steps]
# Hz S RI R 50
!Freq.(Hz) S11(Real) S11(Imag) S21(Real) S21(Imag) S12(Real) S12(Imag) S22(Real) S22(Imag)
100000000 0.8375099 -0.3684705 0.1624901 0.3684705 0.1624901 0.3684705 0.8375099 -0.3684705
121000000 0.7787007 -0.4146018 0.2212993 0.4146018 0.2212993 0.4146018 0.7787007 -0.4146018
142000000 0.7185913 -0.4490760 0.2814087 0.4490760 0.2814087 0.4490760 0.7185913 -0.4490760
163000000 0.6594844 -0.4731813 0.3405156 0.4731813 0.3405156 0.4731813 0.6594844 -0.4731813
184000000 0.6029799 -0.4884877 0.3970201 0.4884877 0.3970201 0.4884877 0.6029799 -0.4884877
205000000 0.5500645 -0.4966033 0.4499355 0.4966033 0.4499355 0.4966033 0.5500645 -0.4966033
226000000 0.5012441 -0.4990227 0.4987559 0.4990227 0.4987559 0.4990227 0.5012441 -0.4990227
247000000 0.4566782 -0.4970517 0.5433218 0.4970517 0.5433218 0.4970517 0.4566782 -0.4970517
268000000 0.4162953 -0.4917832 0.5837047 0.4917832 0.5837047 0.4917832 0.4162953 -0.4917832
289000000 0.3798825 -0.4841038 0.6201175 0.4841038 0.6201175 0.4841038 0.3798825 -0.4841038
310000000 0.3471494 -0.4747167 0.6528506 0.4747167 0.6528506 0.4747167 0.3471494 -0.4747167
331000000 0.3177726 -0.4641694 0.6822274 0.4641694 0.6822274 0.4641694 0.3177726 -0.4641694
352000000 0.2914233 -0.4528824 0.7085767 0.4528824 0.7085767 0.4528824 0.2914233 -0.4528824
373000000 0.2677847 -0.4411740 0.7322153 0.4411740 0.7322153 0.4411740 0.2677847 -0.4411740
394000000 0.2465611 -0.4292824 0.7534389 0.4292824 0.7534389 0.4292824 0.2465611 -0.4292824
415000000 0.2274826 -0.4173837 0.7725174 0.4173837 0.7725174 0.4173837 0.2274826 -0.4173837
436000000 0.2103060 -0.4056058 0.7896940 0.4056058 0.7896940 0.4056058 0.2103060 -0.4056058
457000000 0.1948147 -0.3940400 0.8051853 0.3940400 0.8051853 0.3940400 0.1948147 -0.3940400
478000000 0.1808168 -0.3827498 0.8191832 0.3827498 0.8191832 0.3827498 0.1808168 -0.3827498
499000000 0.1681433 -0.3717775 0.8318567 0.3717775 0.8318567 0.3717775 0.1681433 -0.3717775
520000000 0.1566453 -0.3611498 0.8433547 0.3611498 0.8433547 0.3611498 0.1566453 -0.3611498
541000000 0.1461923 -0.3508815 0.8538077 0.3508815 0.8538077 0.3508815 0.1461923 -0.3508815
562000000 0.1366696 -0.3409787 0.8633304 0.3409787 0.8633304 0.3409787 0.1366696 -0.3409787
583000000 0.1279767 -0.3314413 0.8720233 0.3314413 0.8720233 0.3314413 0.1279767 -0.3314413
604000000 0.1200253 -0.3222645 0.8799747 0.3222645 0.8799747 0.3222645 0.1200253 -0.3222645
625000000 0.1127376 -0.3134401 0.8872624 0.3134401 0.8872624 0.3134401 0.1127376 -0.3134401
646000000 0.1060454 -0.3049578 0.8939546 0.3049578 0.8939546 0.3049578 0.1060454 -0.3049578
667000000 0.0998885 -0.2968060 0.9001115 0.2968060 0.9001115 0.2968060 0.0998885 -0.2968060
688000000 0.0942136 -0.2889720 0.9057864 0.2889720 0.9057864 0.2889720 0.0942136 -0.2889720
709000000 0.0889738 -0.2814425 0.9110262 0.2814425 0.9110262 0.2814425 0.0889738 -0.2814425
730000000 0.0841273 -0.2742044 0.9158727 0.2742044 0.9158727 0.2742044 0.0841273 -0.2742044
751000000 0.0796373 -0.2672443 0.9203627 0.2672443 0.9203627 0.2672443 0.0796373 -0.2672443
772000000 0.0754708 -0.2605494 0.9245292 0.2605494 0.9245292 0.2605494 0.0754708 -0.2605494
793000000 0.0715985 -0.2541068 0.9284015 0.2541068 0.9284015 0.2541068 0.0715985 -0.2541068
814000000 0.0679942 -0.2479045 0.9320058 0.2479045 0.9320058 0.2479045 0.0679942 -0.2479045
835000000 0.0646346 -0.2419306 0.9353654 0.2419306 0.9353654 0.2419306 0.0646346 -0.2419306
856000000 0.0614987 -0.2361740 0.9385013 0.2361740 0.9385013 0.2361740 0.0614987 -0.2361740
877000000 0.0585676 -0.2306238 0.9414324 0.2306238 0.9414324 0.2306238 0.0585676 -0.2306238
898000000 0.0558244 -0.2252700 0.9441756 0.2252700 0.9441756 0.2252700 0.0558244 -0.2252700
919000000 0.0532539 -0.2201027 0.9467461 0.2201027 0.9467461 0.2201027 0.0532539 -0.2201027
940000000 0.0508423 -0.2151129 0.9491577 0.2151129 0.9491577 0.2151129 0.0508423 -0.2151129
961000000 0.0485771 -0.2102918 0.9514229 0.2102918 0.9514229 0.2102918 0.0485771 -0.2102918
982000000 0.0464471 -0.2056312 0.9535529 0.2056312 0.9535529 0.2056312 0.0464471 -0.2056312
1003000000 0.0444420 -0.2011234 0.9555580 0.2011234 0.9555580 0.2011234 0.0444420 -0.2011234
1024000000 0.0425525 -0.1967610 0.9574475 0.1967610 0.9574475 0.1967610 0.0425525 -0.1967610
1045000000 0.0407703 -0.1925371 0.9592297 0.1925371 0.9592297 0.1925371 0.0407703 -0.1925371
1066000000 0.0390875 -0.1884452 0.9609125 0.1884452 0.9609125 0.1884452 0.0390875 -0.1884452
1087000000 0.0374971 -0.1844790 0.9625029 0.1844790 0.9625029 0.1844790 0.0374971 -0.1844790
1108000000 0.0359927 -0.1806327 0.9640073 0.1806327 0.9640073 0.1806327 0.0359927 -0.1806327
1129000000 0.0345684 -0.1769009 0.9654316 0.1769009 0.9654316 0.1769009 0.0345684 -0.1769009
1150000000 0.0332188 -0.1732782 0.9667812 0.1732782 0.9667812 0.1732782 0.0332188 -0.1732782
1171000000 0.0319390 -0.1697598 0.9680610 0.1697598 0.9680610 0.1697598 0.0319390 -0.1697598
1192000000 0.0307243 -0.1663411 0.9692757 0.1663411 0.9692757 0.1663411 0.0307243 -0.1663411
1213000000 0.0295707 -0.1630176 0.9704293 0.1630176 0.9704293 0.1630176 0.0295707 -0.1630176
1234000000 0.0284742 -0.1597852 0.9715258 0.1597852 0.9715258 0.1597852 0.0284742 -0.1597852
1255000000 0.0274312 -0.1566399 0.9725688 0.1566399 0.9725688 0.1566399 0.0274312 -0.1566399
1276000000 0.0264386 -0.1535781 0.9735614 0.1535781 0.9735614 0.1535781 0.0264386 -0.1535781
1297000000 0.0254932 -0.1505962 0.9745068 0.1505962 0.9745068 0.1505962 0.0254932 -0.1505962
1318000000 0.0245922 -0.1476908 0.9754078 0.1476908 0.9754078 0.1476908 0.0245922 -0.1476908
1339000000 0.0237330 -0.1448588 0.9762670 0.1448588 0.9762670 0.1448588 0.0237330 -0.1448588
1360000000 0.0229133 -0.1420972 0.9770867 0.1420972 0.9770867 0.1420972 0.0229133 -0.1420972
1381000000 0.0221306 -0.1394032 0.9778694 0.1394032 0.9778694 0.1394032 0.0221306 -0.1394032
1402000000 0.0213830 -0.1367740 0.9786170 0.1367740 0.9786170 0.1367740 0.0213830 -0.1367740
1423000000 0.0206686 -0.1342070 0.9793314 0.1342070 0.9793314 0.1342070 0.0206686 -0.1342070
1444000000 0.0199854 -0.1316999 0.9800146 0.1316999 0.9800146 0.1316999 0.0199854 -0.1316999
1465000000 0.0193318 -0.1292503 0.9806682 0.1292503 0.9806682 0.1292503 0.0193318 -0.1292503
1486000000 0.0187062 -0.1268560 0.9812938 0.1268560 0.9812938 0.1268560 0.0187062 -0.1268560
1507000000 0.0181072 -0.1245149 0.9818928 0.1245149 0.9818928 0.1245149 0.0181072 -0.1245149
1528000000 0.0175334 -0.1222250 0.9824666 0.1222250 0.9824666 0.1222250 0.0175334 -0.1222250
1549000000 0.0169835 -0.1199844 0.9830165 0.1199844 0.9830165 0.1199844 0.0169835 -0.1199844
1570000000 0.0164562 -0.1177914 0.9835438 0.1177914 0.9835438 0.1177914 0.0164562 -0.1177914
1591000000 0.0159505 -0.1156441 0.9840495 0.1156441 0.9840495 0.1156441 0.0159505 -0.1156441
1612000000 0.0154653 -0.1135409 0.9845347 0.1135409 0.9845347 0.1135409 0.0154653 -0.1135409
1633000000 0.0149996 -0.1114802 0.9850004 0.1114802 0.9850004 0.1114802 0.0149996 -0.1114802
1654000000 0.0145524 -0.1094606 0.9854476 0.1094606 0.9854476 0.1094606 0.0145524 -0.1094606
1675000000 0.0141230 -0.1074806 0.9858770 0.1074806 0.9858770 0.1074806 0.0141230 -0.1074806
1696000000 0.0137104 -0.1055389 0.9862896 0.1055389 0.9862896 0.1055389 0.0137104 -0.1055389
1717000000 0.0133139 -0.1036341 0.9866861 0.1036341 0.9866861 0.1036341 0.0133139 -0.1036341
1738000000 0.0129327 -0.1017650 0.9870673 0.1017650 0.9870673 0.1017650 0.0129327 -0.1017650
1759000000 0.0125662 -0.0999303 0.9874338 0.0999303 0.9874338 0.0999303 0.0125662 -0.0999303
1780000000 0.0122137 -0.0981290 0.9877863 0.0981290 0.9877863 0.0981290 0.0122137 -0.0981290
1801000000 0.0118746 -0.0963600 0.9881254 0.0963600 0.9881254 0.0963600 0.0118746 -0.0963600
1822000000 0.0115483 -0.0946221 0.9884517 0.0946221 0.9884517 0.0946221 0.0115483 -0.0946221
1843000000 0.0112343 -0.0929144 0.9887657 0.0929144 0.9887657 0.0929144 0.0112343 -0.0929144
1864000000 0.0109320 -0.0912359 0.9890680 0.0912359 0.9890680 0.0912359 0.0109320 -0.0912359
1885000000 0.0106409 -0.0895857 0.9893591 0.0895857 0.9893591 0.0895857 0.0106409 -0.0895857
1906000000 0.0103607 -0.0879629 0.9896393 0.0879629 0.9896393 0.0879629 0.0103607 -0.0879629
1927000000 0.0100908 -0.0863667 0.9899092 0.0863667 0.9899092 0.0863667 0.0100908 -0.0863667
1948000000 0.0098309 -0.0847962 0.9901691 0.0847962 0.9901691 0.0847962 0.0098309 -0.0847962
1969000000 0.0095804 -0.0832506 0.9904196 0.0832506 0.9904196 0.0832506 0.0095804 -0.0832506
1990000000 0.0093392 -0.0817292 0.9906608 0.0817292 0.9906608 0.0817292 0.0093392 -0.0817292
2011000000 0.0091067 -0.0802312 0.9908933 0.0802312 0.9908933 0.0802312 0.0091067 -0.0802312
2032000000 0.0088827 -0.0787561 0.9911173 0.0787561 0.9911173 0.0787561 0.0088827 -0.0787561
2053000000 0.0086669 -0.0773030 0.9913331 0.0773030 0.9913331 0.0773030 0.0086669 -0.0773030
2074000000 0.0084589 -0.0758713 0.9915411 0.0758713 0.9915411 0.0758713 0.0084589 -0.0758713
2095000000 0.0082584 -0.0744604 0.9917416 0.0744604 0.9917416 0.0744604 0.0082584 -0.0744604
2116000000 0.0080653 -0.0730698 0.9919347 0.0730698 0.9919347 0.0730698 0.0080653 -0.0730698
2137000000 0.0078791 -0.0716988 0.9921209 0.0716988 0.9921209 0.0716988 0.0078791 -0.0716988
2158000000 0.0076997 -0.0703469 0.9923003 0.0703469 0.9923003 0.0703469 0.0076997 -0.0703469
2179000000 0.0075268 -0.0690135 0.9924732 0.0690135 0.9924732 0.0690135 0.0075268 -0.0690135
2200000000 0.0073602 -0.0676981 0.9926398 0.0676981 0.9926398 0.0676981 0.0073602 -0.0676981
2221000000 0.0071997 -0.0664003 0.9928003 0.0664003 0.9928003 0.0664003 0.0071997 -0.0664003
2242000000 0.0070450 -0.0651195 0.9929550 0.0651195 0.9929550 0.0651195 0.0070450 -0.0651195
2263000000 0.0068960 -0.0638552 0.9931040 0.0638552 0.9931040 0.0638552 0.0068960 -0.0638552
2284000000 0.0067525 -0.0626071 0.9932475 0.0626071 0.9932475 0.0626071 0.0067525 -0.0626071
2305000000 0.0066143 -0.0613747 0.9933857 0.0613747 0.9933857 0.0613747 0.0066143 -0.0613747
2326000000 0.0064812 -0.0601576 0.9935188 0.0601576 0.9935188 0.0601576 0.0064812 -0.0601576
2347000000 0.0063531 -0.0589553 0.9936469 0.0589553 0.9936469 0.0589553 0.0063531 -0.0589553
2368000000 0.0062298 -0.0577675 0.9937702 0.0577675 0.9937702 0.0577675 0.0062298 -0.0577675
2389000000 0.0061111 -0.0565939 0.9938889 0.0565939 0.9938889 0.0565939 0.0061111 -0.0565939
2410000000 0.0059970 -0.0554339 0.9940030 0.0554339 0.9940030 0.0554339 0.0059970 -0.0554339
2431000000 0.0058872 -0.0542873 0.9941128 0.0542873 0.9941128 0.0542873 0.0058872 -0.0542873
2452000000 0.0057817 -0.0531538 0.9942183 0.0531538 0.9942183 0.0531538 0.0057817 -0.0531538
2473000000 0.0056803 -0.0520329 0.9943197 0.0520329 0.9943197 0.0520329 0.0056803 -0.0520329
2494000000 0.0055828 -0.0509245 0.9944172 0.0509245 0.9944172 0.0509245 0.0055828 -0.0509245
2515000000 0.0054893 -0.0498281 0.9945107 0.0498281 0.9945107 0.0498281 0.0054893 -0.0498281
2536000000 0.0053995 -0.0487435 0.9946005 0.0487435 0.9946005 0.0487435 0.0053995 -0.0487435
2557000000 0.0053134 -0.0476704 0.9946866 0.0476704 0.9946866 0.0476704 0.0053134 -0.0476704
2578000000 0.0052308 -0.0466084 0.9947692 0.0466084 0.9947692 0.0466084 0.0052308 -0.0466084
2599000000 0.0051517 -0.0455574 0.9948483 0.0455574 0.9948483 0.0455574 0.0051517 -0.0455574
2620000000 0.0050759 -0.0445170 0.9949241 0.0445170 0.9949241 0.0445170 0.0050759 -0.0445170
2641000000 0.0050034 -0.0434871 0.9949966 0.0434871 0.9949966 0.0434871 0.0050034 -0.0434871
2662000000 0.0049341 -0.0424672 0.9950659 0.0424672 0.9950659 0.0424672 0.0049341 -0.0424672
2683000000 0.0048679 -0.0414573 0.9951321 0.0414573 0.9951321 0.0414573 0.0048679 -0.0414573
2704000000 0.0048047 -0.0404570 0.9951953 0.0404570 0.9951953 0.0404570 0.0048047 -0.0404570
2725000000 0.0047445 -0.0394662 0.9952555 0.0394662 0.9952555 0.0394662 0.0047445 -0.0394662
2746000000 0.0046871 -0.0384846 0.9953129 0.0384846 0.9953129 0.0384846 0.0046871 -0.0384846
2767000000 0.0046325 -0.0375119 0.9953675 0.0375119 0.9953675 0.0375119 0.0046325 -0.0375119
2788000000 0.0045806 -0.0365481 0.9954194 0.0365481 0.9954194 0.0365481 0.0045806 -0.0365481
2809000000 0.0045314 -0.0355928 0.9954686 0.0355928 0.9954686 0.0355928 0.0045314 -0.0355928
2830000000 0.0044848 -0.0346460 0.9955152 0.0346460 0.9955152 0.0346460 0.0044848 -0.0346460
2851000000 0.0044408 -0.0337073 0.9955592 0.0337073 0.9955592 0.0337073 0.0044408 -0.0337073
2872000000 0.0043992 -0.0327766 0.9956008 0.0327766 0.9956008 0.0327766 0.0043992 -0.0327766
2893000000 0.0043600 -0.0318537 0.9956400 0.0318537 0.9956400 0.0318537 0.0043600 -0.0318537
2914000000 0.0043232 -0.0309384 0.9956768 0.0309384 0.9956768 0.0309384 0.0043232 -0.0309384
2935000000 0.0042887 -0.0300306 0.9957113 0.0300306 0.9957113 0.0300306 0.0042887 -0.0300306
2956000000 0.0042565 -0.0291302 0.9957435 0.0291302 0.9957435 0.0291302 0.0042565 -0.0291302
2977000000 0.0042265 -0.0282368 0.9957735 0.0282368 0.9957735 0.0282368 0.0042265 -0.0282368
2998000000 0.0041986 -0.0273504 0.9958014 0.0273504 0.9958014 0.0273504 0.0041986 -0.0273504
3019000000 0.0041729 -0.0264708 0.9958271 0.0264708 0.9958271 0.0264708 0.0041729 -0.0264708
3040000000 0.0041493 -0.0255979 0.9958507 0.0255979 0.9958507 0.0255979 0.0041493 -0.0255979
3061000000 0.0041277 -0.0247315 0.9958723 0.0247315 0.9958723 0.0247315 0.0041277 -0.0247315
3082000000 0.0041080 -0.0238715 0.9958920 0.0238715 0.9958920 0.0238715 0.0041080 -0.0238715
3103000000 0.0040904 -0.0230177 0.9959096 0.0230177 0.9959096 0.0230177 0.0040904 -0.0230177
3124000000 0.0040746 -0.0221700 0.9959254 0.0221700 0.9959254 0.0221700 0.0040746 -0.0221700
3145000000 0.0040608 -0.0213282 0.9959392 0.0213282 0.9959392 0.0213282 0.0040608 -0.0213282
3166000000 0.0040488 -0.0204923 0.9959512 0.0204923 0.9959512 0.0204923 0.0040488 -0.0204923
3187000000 0.0040386 -0.0196621 0.9959614 0.0196621 0.9959614 0.0196621 0.0040386 -0.0196621
3208000000 0.0040301 -0.0188374 0.9959699 0.0188374 0.9959699 0.0188374 0.0040301 -0.0188374
3229000000 0.0040235 -0.0180182 0.9959765 0.0180182 0.9959765 0.0180182 0.0040235 -0.0180182
3250000000 0.0040185 -0.0172043 0.9959815 0.0172043 0.9959815 0.0172043 0.0040185 -0.0172043
3271000000 0.0040152 -0.0163956 0.9959848 0.0163956 0.9959848 0.0163956 0.0040152 -0.0163956
3292000000 0.0040136 -0.0155920 0.9959864 0.0155920 0.9959864 0.0155920 0.0040136 -0.0155920
3313000000 0.0040137 -0.0147935 0.9959863 0.0147935 0.9959863 0.0147935 0.0040137 -0.0147935
3334000000 0.0040153 -0.0139998 0.9959847 0.0139998 0.9959847 0.0139998 0.0040153 -0.0139998
3355000000 0.0040185 -0.0132108 0.9959815 0.0132108 0.9959815 0.0132108 0.0040185 -0.0132108
3376000000 0.0040233 -0.0124266 0.9959767 0.0124266 0.9959767 0.0124266 0.0040233 -0.0124266
3397000000 0.0040296 -0.0116469 0.9959704 0.0116469 0.9959704 0.0116469 0.0040296 -0.0116469
3418000000 0.0040374 -0.0108717 0.9959626 0.0108717 0.9959626 0.0108717 0.0040374 -0.0108717
3439000000 0.0040467 -0.0101008 0.9959533 0.0101008 0.9959533 0.0101008 0.0040467 -0.0101008
3460000000 0.0040575 -0.0093342 0.9959425 0.0093342 0.9959425 0.0093342 0.0040575 -0.0093342
3481000000 0.0040698 -0.0085718 0.9959302 0.0085718 0.9959302 0.0085718 0.0040698 -0.0085718
3502000000 0.0040834 -0.0078135 0.9959166 0.0078135 0.9959166 0.0078135 0.0040834 -0.0078135
3523000000 0.0040985 -0.0070592 0.9959015 0.0070592 0.9959015 0.0070592 0.0040985 -0.0070592
3544000000 0.0041150 -0.0063089 0.9958850 0.0063089 0.9958850 0.0063089 0.0041150 -0.0063089
3565000000 0.0041328 -0.0055623 0.9958672 0.0055623 0.9958672 0.0055623 0.0041328 -0.0055623
3586000000 0.0041520 -0.0048195 0.9958480 0.0048195 0.9958480 0.0048195 0.0041520 -0.0048195
3607000000 0.0041725 -0.0040803 0.9958275 0.0040803 0.9958275 0.0040803 0.0041725 -0.0040803
3628000000 0.0041944 -0.0033447 0.9958056 0.0033447 0.9958056 0.0033447 0.0041944 -0.0033447
3649000000 0.0042176 -0.0026126 0.9957824 0.0026126 0.9957824 0.0026126 0.0042176 -0.0026126
3670000000 0.0042421 -0.0018840 0.9957579 0.0018840 0.9957579 0.0018840 0.0042421 -0.0018840
3691000000 0.0042678 -0.0011587 0.9957322 0.0011587 0.9957322 0.0011587 0.0042678 -0.0011587
3712000000 0.0042948 -0.0004366 0.9957052 0.0004366 0.9957052 0.0004366 0.0042948 -0.0004366
3733000000 0.0043231 0.0002823 0.9956769 -0.0002823 0.9956769 -0.0002823 0.0043231 0.0002823
3754000000 0.0043527 0.0009980 0.9956473 -0.0009980 0.9956473 -0.0009980 0.0043527 0.0009980
3775000000 0.0043834 0.0017107 0.9956166 -0.0017107 0.9956166 -0.0017107 0.0043834 0.0017107
3796000000 0.0044154 0.0024204 0.9955846 -0.0024204 0.9955846 -0.0024204 0.0044154 0.0024204
3817000000 0.0044486 0.0031272 0.9955514 -0.0031272 0.9955514 -0.0031272 0.0044486 0.0031272
3838000000 0.0044830 0.0038312 0.9955170 -0.0038312 0.9955170 -0.0038312 0.0044830 0.0038312
3859000000 0.0045186 0.0045323 0.9954814 -0.0045323 0.9954814 -0.0045323 0.0045186 0.0045323
3880000000 0.0045554 0.0052308 0.9954446 -0.0052308 0.9954446 -0.0052308 0.0045554 0.0052308
3901000000 0.0045934 0.0059267 0.9954066 -0.0059267 0.9954066 -0.0059267 0.0045934 0.0059267
3922000000 0.0046325 0.0066199 0.9953675 -0.0066199 0.9953675 -0.0066199 0.0046325 0.0066199
3943000000 0.0046728 0.0073106 0.9953272 -0.0073106 0.9953272 -0.0073106 0.0046728 0.0073106
3964000000 0.0047142 0.0079989 0.9952858 -0.0079989 0.9952858 -0.0079989 0.0047142 0.0079989
3985000000 0.0047568 0.0086848 0.9952432 -0.0086848 0.9952432 -0.0086848 0.0047568 0.0086848
4006000000 0.0048005 0.0093683 0.9951995 -0.0093683 0.9951995 -0.0093683 0.0048005 0.0093683
4027000000 0.0048454 0.0100496 0.9951546 -0.0100496 0.9951546 -0.0100496 0.0048454 0.0100496
4048000000 0.0048913 0.0107287 0.9951087 -0.0107287 0.9951087 -0.0107287 0.0048913 0.0107287
4069000000 0.0049384 0.0114056 0.9950616 -0.0114056 0.9950616 -0.0114056 0.0049384 0.0114056
4090000000 0.0049866 0.0120804 0.9950134 -0.0120804 0.9950134 -0.0120804 0.0049866 0.0120804
4111000000 0.0050360 0.0127531 0.9949640 -0.0127531 0.9949640 -0.0127531 0.0050360 0.0127531
4132000000 0.0050864 0.0134239 0.9949136 -0.0134239 0.9949136 -0.0134239 0.0050864 0.0134239
4153000000 0.0051379 0.0140927 0.9948621 -0.0140927 0.9948621 -0.0140927 0.0051379 0.0140927
4174000000 0.0051905 0.0147596 0.9948095 -0.0147596 0.9948095 -0.0147596 0.0051905 0.0147596
4195000000 0.0052442 0.0154248 0.9947558 -0.0154248 0.9947558 -0.0154248 0.0052442 0.0154248
4216000000 0.0052991 0.0160881 0.9947009 -0.0160881 0.9947009 -0.0160881 0.0052991 0.0160881
4237000000 0.0053550 0.0167497 0.9946450 -0.0167497 0.9946450 -0.0167497 0.0053550 0.0167497
4258000000 0.0054119 0.0174097 0.9945881 -0.0174097 0.9945881 -0.0174097 0.0054119 0.0174097
4279000000 0.0054700 0.0180680 0.9945300 -0.0180680 0.9945300 -0.0180680 0.0054700 0.0180680
4300000000 0.0055292 0.0187247 0.9944708 -0.0187247 0.9944708 -0.0187247 0.0055292 0.0187247
4321000000 0.0055894 0.0193800 0.9944106 -0.0193800 0.9944106 -0.0193800 0.0055894 0.0193800
4342000000 0.0056507 0.0200337 0.9943493 -0.0200337 0.9943493 -0.0200337 0.0056507 0.0200337
4363000000 0.0057131 0.0206861 0.9942869 -0.0206861 0.9942869 -0.0206861 0.0057131 0.0206861
4384000000 0.0057766 0.0213370 0.9942234 -0.0213370 0.9942234 -0.0213370 0.0057766 0.0213370
4405000000 0.0058411 0.0219867 0.9941589 -0.0219867 0.9941589 -0.0219867 0.0058411 0.0219867
4426000000 0.0059067 0.0226351 0.9940933 -0.0226351 0.9940933 -0.0226351 0.0059067 0.0226351
4447000000 0.0059734 0.0232822 0.9940266 -0.0232822 0.9940266 -0.0232822 0.0059734 0.0232822
4468000000 0.0060412 0.0239282 0.9939588 -0.0239282 0.9939588 -0.0239282 0.0060412 0.0239282
4489000000 0.0061101 0.0245730 0.9938899 -0.0245730 0.9938899 -0.0245730 0.0061101 0.0245730
4510000000 0.0061801 0.0252168 0.9938199 -0.0252168 0.9938199 -0.0252168 0.0061801 0.0252168
