!Murata Part Number: GRM0335C1H300GA01
!These Parameters are Measured in Series Mode Connection
!Data Generated on Mar 30, 2021
!       o--ll--o
!Port1            Port2
!       o------o
!Operation Temp=25[degC], DC Bias Voltage=0[V]
!Freq. Start=100[MHz] Stop=9[GHz] 401[Steps]
# Hz S RI R 50
!Freq.(Hz) S11(Real) S11(Imag) S21(Real) S21(Imag) S12(Real) S12(Imag) S22(Real) S22(Imag)
100000000 0.2192447 -0.4123793 0.7807553 0.4123793 0.7807553 0.4123793 0.2192447 -0.4123793
121000000 0.1608812 -0.3657779 0.8391188 0.3657779 0.8391188 0.3657779 0.1608812 -0.3657779
142000000 0.1221540 -0.3255303 0.8778460 0.3255303 0.8778460 0.3255303 0.1221540 -0.3255303
163000000 0.0954775 -0.2916480 0.9045225 0.2916480 0.9045225 0.2916480 0.0954775 -0.2916480
184000000 0.0764623 -0.2632165 0.9235377 0.2632165 0.9235377 0.2632165 0.0764623 -0.2632165
205000000 0.0624957 -0.2392364 0.9375043 0.2392364 0.9375043 0.2392364 0.0624957 -0.2392364
226000000 0.0519680 -0.2188445 0.9480320 0.2188445 0.9480320 0.2188445 0.0519680 -0.2188445
247000000 0.0438530 -0.2013458 0.9561470 0.2013458 0.9561470 0.2013458 0.0438530 -0.2013458
268000000 0.0374756 -0.1861939 0.9625244 0.1861939 0.9625244 0.1861939 0.0374756 -0.1861939
289000000 0.0323785 -0.1729610 0.9676215 0.1729610 0.9676215 0.1729610 0.0323785 -0.1729610
310000000 0.0282444 -0.1613114 0.9717556 0.1613114 0.9717556 0.1613114 0.0282444 -0.1613114
331000000 0.0248475 -0.1509800 0.9751525 0.1509800 0.9751525 0.1509800 0.0248475 -0.1509800
352000000 0.0220243 -0.1417554 0.9779757 0.1417554 0.9779757 0.1417554 0.0220243 -0.1417554
373000000 0.0196536 -0.1334680 0.9803464 0.1334680 0.9803464 0.1334680 0.0196536 -0.1334680
394000000 0.0176449 -0.1259802 0.9823551 0.1259802 0.9823551 0.1259802 0.0176449 -0.1259802
415000000 0.0159287 -0.1191793 0.9840713 0.1191793 0.9840713 0.1191793 0.0159287 -0.1191793
436000000 0.0144517 -0.1129727 0.9855483 0.1129727 0.9855483 0.1129727 0.0144517 -0.1129727
457000000 0.0131720 -0.1072832 0.9868280 0.1072832 0.9868280 0.1072832 0.0131720 -0.1072832
478000000 0.0120565 -0.1020465 0.9879435 0.1020465 0.9879435 0.1020465 0.0120565 -0.1020465
499000000 0.0110788 -0.0972082 0.9889212 0.0972082 0.9889212 0.0972082 0.0110788 -0.0972082
520000000 0.0102175 -0.0927222 0.9897825 0.0927222 0.9897825 0.0927222 0.0102175 -0.0927222
541000000 0.0094553 -0.0885491 0.9905447 0.0885491 0.9905447 0.0885491 0.0094553 -0.0885491
562000000 0.0087780 -0.0846553 0.9912220 0.0846553 0.9912220 0.0846553 0.0087780 -0.0846553
583000000 0.0081737 -0.0810117 0.9918263 0.0810117 0.9918263 0.0810117 0.0081737 -0.0810117
604000000 0.0076327 -0.0775930 0.9923673 0.0775930 0.9923673 0.0775930 0.0076327 -0.0775930
625000000 0.0071469 -0.0743773 0.9928531 0.0743773 0.9928531 0.0743773 0.0071469 -0.0743773
646000000 0.0067093 -0.0713453 0.9932907 0.0713453 0.9932907 0.0713453 0.0067093 -0.0713453
667000000 0.0063140 -0.0684802 0.9936860 0.0684802 0.9936860 0.0684802 0.0063140 -0.0684802
688000000 0.0059561 -0.0657671 0.9940439 0.0657671 0.9940439 0.0657671 0.0059561 -0.0657671
709000000 0.0056312 -0.0631928 0.9943688 0.0631928 0.9943688 0.0631928 0.0056312 -0.0631928
730000000 0.0053359 -0.0607456 0.9946641 0.0607456 0.9946641 0.0607456 0.0053359 -0.0607456
751000000 0.0050668 -0.0584150 0.9949332 0.0584150 0.9949332 0.0584150 0.0050668 -0.0584150
772000000 0.0048212 -0.0561918 0.9951788 0.0561918 0.9951788 0.0561918 0.0048212 -0.0561918
793000000 0.0045967 -0.0540677 0.9954033 0.0540677 0.9954033 0.0540677 0.0045967 -0.0540677
814000000 0.0043913 -0.0520349 0.9956087 0.0520349 0.9956087 0.0520349 0.0043913 -0.0520349
835000000 0.0042031 -0.0500869 0.9957969 0.0500869 0.9957969 0.0500869 0.0042031 -0.0500869
856000000 0.0040305 -0.0482175 0.9959695 0.0482175 0.9959695 0.0482175 0.0040305 -0.0482175
877000000 0.0038720 -0.0464211 0.9961280 0.0464211 0.9961280 0.0464211 0.0038720 -0.0464211
898000000 0.0037264 -0.0446927 0.9962736 0.0446927 0.9962736 0.0446927 0.0037264 -0.0446927
919000000 0.0035927 -0.0430276 0.9964073 0.0430276 0.9964073 0.0430276 0.0035927 -0.0430276
940000000 0.0034697 -0.0414218 0.9965303 0.0414218 0.9965303 0.0414218 0.0034697 -0.0414218
961000000 0.0033566 -0.0398713 0.9966434 0.0398713 0.9966434 0.0398713 0.0033566 -0.0398713
982000000 0.0032526 -0.0383728 0.9967474 0.0383728 0.9967474 0.0383728 0.0032526 -0.0383728
1003000000 0.0031569 -0.0369229 0.9968431 0.0369229 0.9968431 0.0369229 0.0031569 -0.0369229
1024000000 0.0030690 -0.0355187 0.9969310 0.0355187 0.9969310 0.0355187 0.0030690 -0.0355187
1045000000 0.0029883 -0.0341575 0.9970117 0.0341575 0.9970117 0.0341575 0.0029883 -0.0341575
1066000000 0.0029142 -0.0328368 0.9970858 0.0328368 0.9970858 0.0328368 0.0029142 -0.0328368
1087000000 0.0028462 -0.0315542 0.9971538 0.0315542 0.9971538 0.0315542 0.0028462 -0.0315542
1108000000 0.0027840 -0.0303077 0.9972160 0.0303077 0.9972160 0.0303077 0.0027840 -0.0303077
1129000000 0.0027270 -0.0290952 0.9972730 0.0290952 0.9972730 0.0290952 0.0027270 -0.0290952
1150000000 0.0026751 -0.0279149 0.9973249 0.0279149 0.9973249 0.0279149 0.0026751 -0.0279149
1171000000 0.0026278 -0.0267651 0.9973722 0.0267651 0.9973722 0.0267651 0.0026278 -0.0267651
1192000000 0.0025848 -0.0256442 0.9974152 0.0256442 0.9974152 0.0256442 0.0025848 -0.0256442
1213000000 0.0025459 -0.0245506 0.9974541 0.0245506 0.9974541 0.0245506 0.0025459 -0.0245506
1234000000 0.0025109 -0.0234831 0.9974891 0.0234831 0.9974891 0.0234831 0.0025109 -0.0234831
1255000000 0.0024794 -0.0224403 0.9975206 0.0224403 0.9975206 0.0224403 0.0024794 -0.0224403
1276000000 0.0024513 -0.0214210 0.9975487 0.0214210 0.9975487 0.0214210 0.0024513 -0.0214210
1297000000 0.0024264 -0.0204241 0.9975736 0.0204241 0.9975736 0.0204241 0.0024264 -0.0204241
1318000000 0.0024045 -0.0194485 0.9975955 0.0194485 0.9975955 0.0194485 0.0024045 -0.0194485
1339000000 0.0023854 -0.0184933 0.9976146 0.0184933 0.9976146 0.0184933 0.0023854 -0.0184933
1360000000 0.0023691 -0.0175574 0.9976309 0.0175574 0.9976309 0.0175574 0.0023691 -0.0175574
1381000000 0.0023553 -0.0166401 0.9976447 0.0166401 0.9976447 0.0166401 0.0023553 -0.0166401
1402000000 0.0023439 -0.0157404 0.9976561 0.0157404 0.9976561 0.0157404 0.0023439 -0.0157404
1423000000 0.0023348 -0.0148577 0.9976652 0.0148577 0.9976652 0.0148577 0.0023348 -0.0148577
1444000000 0.0023279 -0.0139911 0.9976721 0.0139911 0.9976721 0.0139911 0.0023279 -0.0139911
1465000000 0.0023230 -0.0131400 0.9976770 0.0131400 0.9976770 0.0131400 0.0023230 -0.0131400
1486000000 0.0023201 -0.0123038 0.9976799 0.0123038 0.9976799 0.0123038 0.0023201 -0.0123038
1507000000 0.0023192 -0.0114818 0.9976808 0.0114818 0.9976808 0.0114818 0.0023192 -0.0114818
1528000000 0.0023200 -0.0106734 0.9976800 0.0106734 0.9976800 0.0106734 0.0023200 -0.0106734
1549000000 0.0023225 -0.0098781 0.9976775 0.0098781 0.9976775 0.0098781 0.0023225 -0.0098781
1570000000 0.0023267 -0.0090954 0.9976733 0.0090954 0.9976733 0.0090954 0.0023267 -0.0090954
1591000000 0.0023325 -0.0083248 0.9976675 0.0083248 0.9976675 0.0083248 0.0023325 -0.0083248
1612000000 0.0023397 -0.0075657 0.9976603 0.0075657 0.9976603 0.0075657 0.0023397 -0.0075657
1633000000 0.0023484 -0.0068178 0.9976516 0.0068178 0.9976516 0.0068178 0.0023484 -0.0068178
1654000000 0.0023585 -0.0060806 0.9976415 0.0060806 0.9976415 0.0060806 0.0023585 -0.0060806
1675000000 0.0023700 -0.0053537 0.9976300 0.0053537 0.9976300 0.0053537 0.0023700 -0.0053537
1696000000 0.0023827 -0.0046368 0.9976173 0.0046368 0.9976173 0.0046368 0.0023827 -0.0046368
1717000000 0.0023967 -0.0039294 0.9976033 0.0039294 0.9976033 0.0039294 0.0023967 -0.0039294
1738000000 0.0024118 -0.0032313 0.9975882 0.0032313 0.9975882 0.0032313 0.0024118 -0.0032313
1759000000 0.0024281 -0.0025421 0.9975719 0.0025421 0.9975719 0.0025421 0.0024281 -0.0025421
1780000000 0.0024456 -0.0018614 0.9975544 0.0018614 0.9975544 0.0018614 0.0024456 -0.0018614
1801000000 0.0024640 -0.0011890 0.9975360 0.0011890 0.9975360 0.0011890 0.0024640 -0.0011890
1822000000 0.0024836 -0.0005246 0.9975164 0.0005246 0.9975164 0.0005246 0.0024836 -0.0005246
1843000000 0.0025041 0.0001321 0.9974959 -0.0001321 0.9974959 -0.0001321 0.0025041 0.0001321
1864000000 0.0025256 0.0007813 0.9974744 -0.0007813 0.9974744 -0.0007813 0.0025256 0.0007813
1885000000 0.0025481 0.0014233 0.9974519 -0.0014233 0.9974519 -0.0014233 0.0025481 0.0014233
1906000000 0.0025714 0.0020584 0.9974286 -0.0020584 0.9974286 -0.0020584 0.0025714 0.0020584
1927000000 0.0025957 0.0026868 0.9974043 -0.0026868 0.9974043 -0.0026868 0.0025957 0.0026868
1948000000 0.0026208 0.0033086 0.9973792 -0.0033086 0.9973792 -0.0033086 0.0026208 0.0033086
1969000000 0.0026468 0.0039242 0.9973532 -0.0039242 0.9973532 -0.0039242 0.0026468 0.0039242
1990000000 0.0026735 0.0045336 0.9973265 -0.0045336 0.9973265 -0.0045336 0.0026735 0.0045336
2011000000 0.0027011 0.0051372 0.9972989 -0.0051372 0.9972989 -0.0051372 0.0027011 0.0051372
2032000000 0.0027294 0.0057350 0.9972706 -0.0057350 0.9972706 -0.0057350 0.0027294 0.0057350
2053000000 0.0027585 0.0063274 0.9972415 -0.0063274 0.9972415 -0.0063274 0.0027585 0.0063274
2074000000 0.0027884 0.0069144 0.9972116 -0.0069144 0.9972116 -0.0069144 0.0027884 0.0069144
2095000000 0.0028189 0.0074961 0.9971811 -0.0074961 0.9971811 -0.0074961 0.0028189 0.0074961
2116000000 0.0028502 0.0080729 0.9971498 -0.0080729 0.9971498 -0.0080729 0.0028502 0.0080729
2137000000 0.0028822 0.0086448 0.9971178 -0.0086448 0.9971178 -0.0086448 0.0028822 0.0086448
2158000000 0.0029148 0.0092119 0.9970852 -0.0092119 0.9970852 -0.0092119 0.0029148 0.0092119
2179000000 0.0029481 0.0097745 0.9970519 -0.0097745 0.9970519 -0.0097745 0.0029481 0.0097745
2200000000 0.0029820 0.0103326 0.9970180 -0.0103326 0.9970180 -0.0103326 0.0029820 0.0103326
2221000000 0.0030166 0.0108863 0.9969834 -0.0108863 0.9969834 -0.0108863 0.0030166 0.0108863
2242000000 0.0030518 0.0114359 0.9969482 -0.0114359 0.9969482 -0.0114359 0.0030518 0.0114359
2263000000 0.0030876 0.0119815 0.9969124 -0.0119815 0.9969124 -0.0119815 0.0030876 0.0119815
2284000000 0.0031241 0.0125230 0.9968759 -0.0125230 0.9968759 -0.0125230 0.0031241 0.0125230
2305000000 0.0031611 0.0130608 0.9968389 -0.0130608 0.9968389 -0.0130608 0.0031611 0.0130608
2326000000 0.0031987 0.0135948 0.9968013 -0.0135948 0.9968013 -0.0135948 0.0031987 0.0135948
2347000000 0.0032369 0.0141252 0.9967631 -0.0141252 0.9967631 -0.0141252 0.0032369 0.0141252
2368000000 0.0032756 0.0146521 0.9967244 -0.0146521 0.9967244 -0.0146521 0.0032756 0.0146521
2389000000 0.0033150 0.0151755 0.9966850 -0.0151755 0.9966850 -0.0151755 0.0033150 0.0151755
2410000000 0.0033548 0.0156957 0.9966452 -0.0156957 0.9966452 -0.0156957 0.0033548 0.0156957
2431000000 0.0033953 0.0162126 0.9966047 -0.0162126 0.9966047 -0.0162126 0.0033953 0.0162126
2452000000 0.0034362 0.0167264 0.9965638 -0.0167264 0.9965638 -0.0167264 0.0034362 0.0167264
2473000000 0.0034777 0.0172371 0.9965223 -0.0172371 0.9965223 -0.0172371 0.0034777 0.0172371
2494000000 0.0035198 0.0177448 0.9964802 -0.0177448 0.9964802 -0.0177448 0.0035198 0.0177448
2515000000 0.0035623 0.0182497 0.9964377 -0.0182497 0.9964377 -0.0182497 0.0035623 0.0182497
2536000000 0.0036054 0.0187518 0.9963946 -0.0187518 0.9963946 -0.0187518 0.0036054 0.0187518
2557000000 0.0036490 0.0192511 0.9963510 -0.0192511 0.9963510 -0.0192511 0.0036490 0.0192511
2578000000 0.0036931 0.0197478 0.9963069 -0.0197478 0.9963069 -0.0197478 0.0036931 0.0197478
2599000000 0.0037377 0.0202419 0.9962623 -0.0202419 0.9962623 -0.0202419 0.0037377 0.0202419
2620000000 0.0037829 0.0207335 0.9962171 -0.0207335 0.9962171 -0.0207335 0.0037829 0.0207335
2641000000 0.0038285 0.0212227 0.9961715 -0.0212227 0.9961715 -0.0212227 0.0038285 0.0212227
2662000000 0.0038747 0.0217094 0.9961253 -0.0217094 0.9961253 -0.0217094 0.0038747 0.0217094
2683000000 0.0039213 0.0221939 0.9960787 -0.0221939 0.9960787 -0.0221939 0.0039213 0.0221939
2704000000 0.0039684 0.0226761 0.9960316 -0.0226761 0.9960316 -0.0226761 0.0039684 0.0226761
2725000000 0.0040161 0.0231561 0.9959839 -0.0231561 0.9959839 -0.0231561 0.0040161 0.0231561
2746000000 0.0040642 0.0236340 0.9959358 -0.0236340 0.9959358 -0.0236340 0.0040642 0.0236340
2767000000 0.0041128 0.0241098 0.9958872 -0.0241098 0.9958872 -0.0241098 0.0041128 0.0241098
2788000000 0.0041620 0.0245836 0.9958380 -0.0245836 0.9958380 -0.0245836 0.0041620 0.0245836
2809000000 0.0042116 0.0250554 0.9957884 -0.0250554 0.9957884 -0.0250554 0.0042116 0.0250554
2830000000 0.0042617 0.0255253 0.9957383 -0.0255253 0.9957383 -0.0255253 0.0042617 0.0255253
2851000000 0.0043123 0.0259933 0.9956877 -0.0259933 0.9956877 -0.0259933 0.0043123 0.0259933
2872000000 0.0043633 0.0264596 0.9956367 -0.0264596 0.9956367 -0.0264596 0.0043633 0.0264596
2893000000 0.0044149 0.0269240 0.9955851 -0.0269240 0.9955851 -0.0269240 0.0044149 0.0269240
2914000000 0.0044670 0.0273867 0.9955330 -0.0273867 0.9955330 -0.0273867 0.0044670 0.0273867
2935000000 0.0045195 0.0278478 0.9954805 -0.0278478 0.9954805 -0.0278478 0.0045195 0.0278478
2956000000 0.0045726 0.0283072 0.9954274 -0.0283072 0.9954274 -0.0283072 0.0045726 0.0283072
2977000000 0.0046261 0.0287651 0.9953739 -0.0287651 0.9953739 -0.0287651 0.0046261 0.0287651
2998000000 0.0046802 0.0292214 0.9953198 -0.0292214 0.9953198 -0.0292214 0.0046802 0.0292214
3019000000 0.0047347 0.0296762 0.9952653 -0.0296762 0.9952653 -0.0296762 0.0047347 0.0296762
3040000000 0.0047898 0.0301295 0.9952102 -0.0301295 0.9952102 -0.0301295 0.0047898 0.0301295
3061000000 0.0048453 0.0305814 0.9951547 -0.0305814 0.9951547 -0.0305814 0.0048453 0.0305814
3082000000 0.0049014 0.0310319 0.9950986 -0.0310319 0.9950986 -0.0310319 0.0049014 0.0310319
3103000000 0.0049579 0.0314811 0.9950421 -0.0314811 0.9950421 -0.0314811 0.0049579 0.0314811
3124000000 0.0050150 0.0319289 0.9949850 -0.0319289 0.9949850 -0.0319289 0.0050150 0.0319289
3145000000 0.0050726 0.0323755 0.9949274 -0.0323755 0.9949274 -0.0323755 0.0050726 0.0323755
3166000000 0.0051306 0.0328208 0.9948694 -0.0328208 0.9948694 -0.0328208 0.0051306 0.0328208
3187000000 0.0051892 0.0332649 0.9948108 -0.0332649 0.9948108 -0.0332649 0.0051892 0.0332649
3208000000 0.0052484 0.0337078 0.9947516 -0.0337078 0.9947516 -0.0337078 0.0052484 0.0337078
3229000000 0.0053080 0.0341496 0.9946920 -0.0341496 0.9946920 -0.0341496 0.0053080 0.0341496
3250000000 0.0053682 0.0345903 0.9946318 -0.0345903 0.9946318 -0.0345903 0.0053682 0.0345903
3271000000 0.0054289 0.0350298 0.9945711 -0.0350298 0.9945711 -0.0350298 0.0054289 0.0350298
3292000000 0.0054901 0.0354684 0.9945099 -0.0354684 0.9945099 -0.0354684 0.0054901 0.0354684
3313000000 0.0055519 0.0359058 0.9944481 -0.0359058 0.9944481 -0.0359058 0.0055519 0.0359058
3334000000 0.0056142 0.0363423 0.9943858 -0.0363423 0.9943858 -0.0363423 0.0056142 0.0363423
3355000000 0.0056771 0.0367778 0.9943229 -0.0367778 0.9943229 -0.0367778 0.0056771 0.0367778
3376000000 0.0057405 0.0372124 0.9942595 -0.0372124 0.9942595 -0.0372124 0.0057405 0.0372124
3397000000 0.0058045 0.0376460 0.9941955 -0.0376460 0.9941955 -0.0376460 0.0058045 0.0376460
3418000000 0.0058690 0.0380788 0.9941310 -0.0380788 0.9941310 -0.0380788 0.0058690 0.0380788
3439000000 0.0059341 0.0385107 0.9940659 -0.0385107 0.9940659 -0.0385107 0.0059341 0.0385107
3460000000 0.0059998 0.0389417 0.9940002 -0.0389417 0.9940002 -0.0389417 0.0059998 0.0389417
3481000000 0.0060660 0.0393719 0.9939340 -0.0393719 0.9939340 -0.0393719 0.0060660 0.0393719
3502000000 0.0061329 0.0398013 0.9938671 -0.0398013 0.9938671 -0.0398013 0.0061329 0.0398013
3523000000 0.0062003 0.0402299 0.9937997 -0.0402299 0.9937997 -0.0402299 0.0062003 0.0402299
3544000000 0.0062683 0.0406578 0.9937317 -0.0406578 0.9937317 -0.0406578 0.0062683 0.0406578
3565000000 0.0063369 0.0410849 0.9936631 -0.0410849 0.9936631 -0.0410849 0.0063369 0.0410849
3586000000 0.0064061 0.0415113 0.9935939 -0.0415113 0.9935939 -0.0415113 0.0064061 0.0415113
3607000000 0.0064759 0.0419370 0.9935241 -0.0419370 0.9935241 -0.0419370 0.0064759 0.0419370
3628000000 0.0065464 0.0423620 0.9934536 -0.0423620 0.9934536 -0.0423620 0.0065464 0.0423620
3649000000 0.0066174 0.0427864 0.9933826 -0.0427864 0.9933826 -0.0427864 0.0066174 0.0427864
3670000000 0.0066891 0.0432102 0.9933109 -0.0432102 0.9933109 -0.0432102 0.0066891 0.0432102
3691000000 0.0067614 0.0436333 0.9932386 -0.0436333 0.9932386 -0.0436333 0.0067614 0.0436333
3712000000 0.0068344 0.0440558 0.9931656 -0.0440558 0.9931656 -0.0440558 0.0068344 0.0440558
3733000000 0.0069080 0.0444777 0.9930920 -0.0444777 0.9930920 -0.0444777 0.0069080 0.0444777
3754000000 0.0069823 0.0448991 0.9930177 -0.0448991 0.9930177 -0.0448991 0.0069823 0.0448991
3775000000 0.0070573 0.0453199 0.9929427 -0.0453199 0.9929427 -0.0453199 0.0070573 0.0453199
3796000000 0.0071329 0.0457401 0.9928671 -0.0457401 0.9928671 -0.0457401 0.0071329 0.0457401
3817000000 0.0072092 0.0461599 0.9927908 -0.0461599 0.9927908 -0.0461599 0.0072092 0.0461599
3838000000 0.0072861 0.0465791 0.9927139 -0.0465791 0.9927139 -0.0465791 0.0072861 0.0465791
3859000000 0.0073638 0.0469978 0.9926362 -0.0469978 0.9926362 -0.0469978 0.0073638 0.0469978
3880000000 0.0074422 0.0474161 0.9925578 -0.0474161 0.9925578 -0.0474161 0.0074422 0.0474161
3901000000 0.0075213 0.0478339 0.9924787 -0.0478339 0.9924787 -0.0478339 0.0075213 0.0478339
3922000000 0.0076011 0.0482512 0.9923989 -0.0482512 0.9923989 -0.0482512 0.0076011 0.0482512
3943000000 0.0076816 0.0486681 0.9923184 -0.0486681 0.9923184 -0.0486681 0.0076816 0.0486681
3964000000 0.0077629 0.0490846 0.9922371 -0.0490846 0.9922371 -0.0490846 0.0077629 0.0490846
3985000000 0.0078449 0.0495006 0.9921551 -0.0495006 0.9921551 -0.0495006 0.0078449 0.0495006
4006000000 0.0079277 0.0499162 0.9920723 -0.0499162 0.9920723 -0.0499162 0.0079277 0.0499162
4027000000 0.0080112 0.0503315 0.9919888 -0.0503315 0.9919888 -0.0503315 0.0080112 0.0503315
4048000000 0.0080955 0.0507463 0.9919045 -0.0507463 0.9919045 -0.0507463 0.0080955 0.0507463
4069000000 0.0081806 0.0511608 0.9918194 -0.0511608 0.9918194 -0.0511608 0.0081806 0.0511608
4090000000 0.0082664 0.0515749 0.9917336 -0.0515749 0.9917336 -0.0515749 0.0082664 0.0515749
4111000000 0.0083531 0.0519886 0.9916469 -0.0519886 0.9916469 -0.0519886 0.0083531 0.0519886
4132000000 0.0084406 0.0524020 0.9915594 -0.0524020 0.9915594 -0.0524020 0.0084406 0.0524020
4153000000 0.0085288 0.0528150 0.9914712 -0.0528150 0.9914712 -0.0528150 0.0085288 0.0528150
4174000000 0.0086180 0.0532277 0.9913820 -0.0532277 0.9913820 -0.0532277 0.0086180 0.0532277
4195000000 0.0087079 0.0536401 0.9912921 -0.0536401 0.9912921 -0.0536401 0.0087079 0.0536401
4216000000 0.0087987 0.0540522 0.9912013 -0.0540522 0.9912013 -0.0540522 0.0087987 0.0540522
4237000000 0.0088903 0.0544639 0.9911097 -0.0544639 0.9911097 -0.0544639 0.0088903 0.0544639
4258000000 0.0089828 0.0548753 0.9910172 -0.0548753 0.9910172 -0.0548753 0.0089828 0.0548753
4279000000 0.0090762 0.0552864 0.9909238 -0.0552864 0.9909238 -0.0552864 0.0090762 0.0552864
4300000000 0.0091705 0.0556972 0.9908295 -0.0556972 0.9908295 -0.0556972 0.0091705 0.0556972
4321000000 0.0092656 0.0561077 0.9907344 -0.0561077 0.9907344 -0.0561077 0.0092656 0.0561077
4342000000 0.0093617 0.0565179 0.9906383 -0.0565179 0.9906383 -0.0565179 0.0093617 0.0565179
4363000000 0.0094587 0.0569278 0.9905413 -0.0569278 0.9905413 -0.0569278 0.0094587 0.0569278
4384000000 0.0095566 0.0573375 0.9904434 -0.0573375 0.9904434 -0.0573375 0.0095566 0.0573375
4405000000 0.0096554 0.0577468 0.9903446 -0.0577468 0.9903446 -0.0577468 0.0096554 0.0577468
4426000000 0.0097552 0.0581558 0.9902448 -0.0581558 0.9902448 -0.0581558 0.0097552 0.0581558
4447000000 0.0098559 0.0585646 0.9901441 -0.0585646 0.9901441 -0.0585646 0.0098559 0.0585646
4468000000 0.0099576 0.0589731 0.9900424 -0.0589731 0.9900424 -0.0589731 0.0099576 0.0589731
4489000000 0.0100603 0.0593813 0.9899397 -0.0593813 0.9899397 -0.0593813 0.0100603 0.0593813
4510000000 0.0101639 0.0597892 0.9898361 -0.0597892 0.9898361 -0.0597892 0.0101639 0.0597892
