!Murata Part Number: GRM0335C1H6R8BA01
!These Parameters are Measured in Series Mode Connection
!Data Generated on Mar 30, 2021
!       o--ll--o
!Port1            Port2
!       o------o
!Operation Temp=25[degC], DC Bias Voltage=0[V]
!Freq. Start=100[MHz] Stop=9[GHz] 401[Steps]
# Hz S RI R 50
!Freq.(Hz) S11(Real) S11(Imag) S21(Real) S21(Imag) S12(Real) S12(Imag) S22(Real) S22(Imag)
100000000 0.8452484 -0.3612507 0.1547516 0.3612507 0.1547516 0.3612507 0.8452484 -0.3612507
121000000 0.7885342 -0.4078431 0.2114658 0.4078431 0.2114658 0.4078431 0.7885342 -0.4078431
142000000 0.7301722 -0.4432773 0.2698278 0.4432773 0.2698278 0.4432773 0.7301722 -0.4432773
163000000 0.6723912 -0.4686601 0.3276088 0.4686601 0.3276088 0.4686601 0.6723912 -0.4686601
184000000 0.6167871 -0.4853997 0.3832129 0.4853997 0.3832129 0.4853997 0.6167871 -0.4853997
205000000 0.5643861 -0.4949784 0.4356139 0.4949784 0.4356139 0.4949784 0.5643861 -0.4949784
226000000 0.5157556 -0.4988039 0.4842444 0.4988039 0.4842444 0.4988039 0.5157556 -0.4988039
247000000 0.4711226 -0.4981280 0.5288774 0.4981280 0.5288774 0.4981280 0.4711226 -0.4981280
268000000 0.4304792 -0.4940160 0.5695208 0.4940160 0.5695208 0.4940160 0.4304792 -0.4940160
289000000 0.3936673 -0.4873449 0.6063327 0.4873449 0.6063327 0.4873449 0.3936673 -0.4873449
310000000 0.3604419 -0.4788203 0.6395581 0.4788203 0.6395581 0.4788203 0.3604419 -0.4788203
331000000 0.3305150 -0.4689989 0.6694850 0.4689989 0.6694850 0.4689989 0.3305150 -0.4689989
352000000 0.3035846 -0.4583139 0.6964154 0.4583139 0.6964154 0.4583139 0.3035846 -0.4583139
373000000 0.2793538 -0.4470978 0.7206462 0.4470978 0.7206462 0.4470978 0.2793538 -0.4470978
394000000 0.2575411 -0.4356030 0.7424589 0.4356030 0.7424589 0.4356030 0.2575411 -0.4356030
415000000 0.2378865 -0.4240188 0.7621135 0.4240188 0.7621135 0.4240188 0.2378865 -0.4240188
436000000 0.2201534 -0.4124852 0.7798466 0.4124852 0.7798466 0.4124852 0.2201534 -0.4124852
457000000 0.2041294 -0.4011043 0.7958706 0.4011043 0.7958706 0.4011043 0.2041294 -0.4011043
478000000 0.1896250 -0.3899489 0.8103750 0.3899489 0.8103750 0.3899489 0.1896250 -0.3899489
499000000 0.1764721 -0.3790694 0.8235279 0.3790694 0.8235279 0.3790694 0.1764721 -0.3790694
520000000 0.1645222 -0.3684995 0.8354778 0.3684995 0.8354778 0.3684995 0.1645222 -0.3684995
541000000 0.1536441 -0.3582598 0.8463559 0.3582598 0.8463559 0.3582598 0.1536441 -0.3582598
562000000 0.1437224 -0.3483616 0.8562776 0.3483616 0.8562776 0.3483616 0.1437224 -0.3483616
583000000 0.1346554 -0.3388088 0.8653446 0.3388088 0.8653446 0.3388088 0.1346554 -0.3388088
604000000 0.1263536 -0.3296001 0.8736464 0.3296001 0.8736464 0.3296001 0.1263536 -0.3296001
625000000 0.1187378 -0.3207305 0.8812622 0.3207305 0.8812622 0.3207305 0.1187378 -0.3207305
646000000 0.1117385 -0.3121922 0.8882615 0.3121922 0.8882615 0.3121922 0.1117385 -0.3121922
667000000 0.1052940 -0.3039756 0.8947060 0.3039756 0.8947060 0.3039756 0.1052940 -0.3039756
688000000 0.0993499 -0.2960697 0.9006501 0.2960697 0.9006501 0.2960697 0.0993499 -0.2960697
709000000 0.0938578 -0.2884630 0.9061422 0.2884630 0.9061422 0.2884630 0.0938578 -0.2884630
730000000 0.0887750 -0.2811433 0.9112250 0.2811433 0.9112250 0.2811433 0.0887750 -0.2811433
751000000 0.0840632 -0.2740984 0.9159368 0.2740984 0.9159368 0.2740984 0.0840632 -0.2740984
772000000 0.0796886 -0.2673163 0.9203114 0.2673163 0.9203114 0.2673163 0.0796886 -0.2673163
793000000 0.0756209 -0.2607850 0.9243791 0.2607850 0.9243791 0.2607850 0.0756209 -0.2607850
814000000 0.0718331 -0.2544928 0.9281669 0.2544928 0.9281669 0.2544928 0.0718331 -0.2544928
835000000 0.0683008 -0.2484286 0.9316992 0.2484286 0.9316992 0.2484286 0.0683008 -0.2484286
856000000 0.0650023 -0.2425815 0.9349977 0.2425815 0.9349977 0.2425815 0.0650023 -0.2425815
877000000 0.0619181 -0.2369412 0.9380819 0.2369412 0.9380819 0.2369412 0.0619181 -0.2369412
898000000 0.0590306 -0.2314976 0.9409694 0.2314976 0.9409694 0.2314976 0.0590306 -0.2314976
919000000 0.0563239 -0.2262414 0.9436761 0.2262414 0.9436761 0.2262414 0.0563239 -0.2262414
940000000 0.0537837 -0.2211636 0.9462163 0.2211636 0.9462163 0.2211636 0.0537837 -0.2211636
961000000 0.0513970 -0.2162556 0.9486030 0.2162556 0.9486030 0.2162556 0.0513970 -0.2162556
982000000 0.0491520 -0.2115094 0.9508480 0.2115094 0.9508480 0.2115094 0.0491520 -0.2115094
1003000000 0.0470381 -0.2069172 0.9529619 0.2069172 0.9529619 0.2069172 0.0470381 -0.2069172
1024000000 0.0450456 -0.2024718 0.9549544 0.2024718 0.9549544 0.2024718 0.0450456 -0.2024718
1045000000 0.0431656 -0.1981663 0.9568344 0.1981663 0.9568344 0.1981663 0.0431656 -0.1981663
1066000000 0.0413901 -0.1939943 0.9586099 0.1939943 0.9586099 0.1939943 0.0413901 -0.1939943
1087000000 0.0397116 -0.1899496 0.9602884 0.1899496 0.9602884 0.1899496 0.0397116 -0.1899496
1108000000 0.0381236 -0.1860262 0.9618764 0.1860262 0.9618764 0.1860262 0.0381236 -0.1860262
1129000000 0.0366198 -0.1822189 0.9633802 0.1822189 0.9633802 0.1822189 0.0366198 -0.1822189
1150000000 0.0351945 -0.1785222 0.9648055 0.1785222 0.9648055 0.1785222 0.0351945 -0.1785222
1171000000 0.0338427 -0.1749314 0.9661573 0.1749314 0.9661573 0.1749314 0.0338427 -0.1749314
1192000000 0.0325594 -0.1714418 0.9674406 0.1714418 0.9674406 0.1714418 0.0325594 -0.1714418
1213000000 0.0313402 -0.1680488 0.9686598 0.1680488 0.9686598 0.1680488 0.0313402 -0.1680488
1234000000 0.0301813 -0.1647485 0.9698187 0.1647485 0.9698187 0.1647485 0.0301813 -0.1647485
1255000000 0.0290787 -0.1615367 0.9709213 0.1615367 0.9709213 0.1615367 0.0290787 -0.1615367
1276000000 0.0280291 -0.1584098 0.9719709 0.1584098 0.9719709 0.1584098 0.0280291 -0.1584098
1297000000 0.0270293 -0.1553642 0.9729707 0.1553642 0.9729707 0.1553642 0.0270293 -0.1553642
1318000000 0.0260762 -0.1523965 0.9739238 0.1523965 0.9739238 0.1523965 0.0260762 -0.1523965
1339000000 0.0251672 -0.1495036 0.9748328 0.1495036 0.9748328 0.1495036 0.0251672 -0.1495036
1360000000 0.0242997 -0.1466824 0.9757003 0.1466824 0.9757003 0.1466824 0.0242997 -0.1466824
1381000000 0.0234713 -0.1439300 0.9765287 0.1439300 0.9765287 0.1439300 0.0234713 -0.1439300
1402000000 0.0226799 -0.1412437 0.9773201 0.1412437 0.9773201 0.1412437 0.0226799 -0.1412437
1423000000 0.0219234 -0.1386209 0.9780766 0.1386209 0.9780766 0.1386209 0.0219234 -0.1386209
1444000000 0.0211998 -0.1360592 0.9788002 0.1360592 0.9788002 0.1360592 0.0211998 -0.1360592
1465000000 0.0205075 -0.1335561 0.9794925 0.1335561 0.9794925 0.1335561 0.0205075 -0.1335561
1486000000 0.0198447 -0.1311095 0.9801553 0.1311095 0.9801553 0.1311095 0.0198447 -0.1311095
1507000000 0.0192100 -0.1287171 0.9807900 0.1287171 0.9807900 0.1287171 0.0192100 -0.1287171
1528000000 0.0186017 -0.1263771 0.9813983 0.1263771 0.9813983 0.1263771 0.0186017 -0.1263771
1549000000 0.0180187 -0.1240875 0.9819813 0.1240875 0.9819813 0.1240875 0.0180187 -0.1240875
1570000000 0.0174596 -0.1218463 0.9825404 0.1218463 0.9825404 0.1218463 0.0174596 -0.1218463
1591000000 0.0169232 -0.1196520 0.9830768 0.1196520 0.9830768 0.1196520 0.0169232 -0.1196520
1612000000 0.0164085 -0.1175027 0.9835915 0.1175027 0.9835915 0.1175027 0.0164085 -0.1175027
1633000000 0.0159143 -0.1153969 0.9840857 0.1153969 0.9840857 0.1153969 0.0159143 -0.1153969
1654000000 0.0154397 -0.1133331 0.9845603 0.1133331 0.9845603 0.1133331 0.0154397 -0.1133331
1675000000 0.0149838 -0.1113099 0.9850162 0.1113099 0.9850162 0.1113099 0.0149838 -0.1113099
1696000000 0.0145456 -0.1093257 0.9854544 0.1093257 0.9854544 0.1093257 0.0145456 -0.1093257
1717000000 0.0141244 -0.1073793 0.9858756 0.1073793 0.9858756 0.1073793 0.0141244 -0.1073793
1738000000 0.0137194 -0.1054694 0.9862806 0.1054694 0.9862806 0.1054694 0.0137194 -0.1054694
1759000000 0.0133299 -0.1035949 0.9866701 0.1035949 0.9866701 0.1035949 0.0133299 -0.1035949
1780000000 0.0129552 -0.1017544 0.9870448 0.1017544 0.9870448 0.1017544 0.0129552 -0.1017544
1801000000 0.0125946 -0.0999469 0.9874054 0.0999469 0.9874054 0.0999469 0.0125946 -0.0999469
1822000000 0.0122475 -0.0981714 0.9877525 0.0981714 0.9877525 0.0981714 0.0122475 -0.0981714
1843000000 0.0119133 -0.0964268 0.9880867 0.0964268 0.9880867 0.0964268 0.0119133 -0.0964268
1864000000 0.0115916 -0.0947121 0.9884084 0.0947121 0.9884084 0.0947121 0.0115916 -0.0947121
1885000000 0.0112817 -0.0930264 0.9887183 0.0930264 0.9887183 0.0930264 0.0112817 -0.0930264
1906000000 0.0109832 -0.0913687 0.9890168 0.0913687 0.9890168 0.0913687 0.0109832 -0.0913687
1927000000 0.0106956 -0.0897383 0.9893044 0.0897383 0.9893044 0.0897383 0.0106956 -0.0897383
1948000000 0.0104185 -0.0881342 0.9895815 0.0881342 0.9895815 0.0881342 0.0104185 -0.0881342
1969000000 0.0101514 -0.0865557 0.9898486 0.0865557 0.9898486 0.0865557 0.0101514 -0.0865557
1990000000 0.0098941 -0.0850019 0.9901059 0.0850019 0.9901059 0.0850019 0.0098941 -0.0850019
2011000000 0.0096460 -0.0834722 0.9903540 0.0834722 0.9903540 0.0834722 0.0096460 -0.0834722
2032000000 0.0094068 -0.0819658 0.9905932 0.0819658 0.9905932 0.0819658 0.0094068 -0.0819658
2053000000 0.0091763 -0.0804821 0.9908237 0.0804821 0.9908237 0.0804821 0.0091763 -0.0804821
2074000000 0.0089540 -0.0790204 0.9910460 0.0790204 0.9910460 0.0790204 0.0089540 -0.0790204
2095000000 0.0087396 -0.0775799 0.9912604 0.0775799 0.9912604 0.0775799 0.0087396 -0.0775799
2116000000 0.0085330 -0.0761603 0.9914670 0.0761603 0.9914670 0.0761603 0.0085330 -0.0761603
2137000000 0.0083337 -0.0747607 0.9916663 0.0747607 0.9916663 0.0747607 0.0083337 -0.0747607
2158000000 0.0081415 -0.0733808 0.9918585 0.0733808 0.9918585 0.0733808 0.0081415 -0.0733808
2179000000 0.0079563 -0.0720198 0.9920437 0.0720198 0.9920437 0.0720198 0.0079563 -0.0720198
2200000000 0.0077776 -0.0706773 0.9922224 0.0706773 0.9922224 0.0706773 0.0077776 -0.0706773
2221000000 0.0076054 -0.0693529 0.9923946 0.0693529 0.9923946 0.0693529 0.0076054 -0.0693529
2242000000 0.0074393 -0.0680459 0.9925607 0.0680459 0.9925607 0.0680459 0.0074393 -0.0680459
2263000000 0.0072792 -0.0667559 0.9927208 0.0667559 0.9927208 0.0667559 0.0072792 -0.0667559
2284000000 0.0071249 -0.0654825 0.9928751 0.0654825 0.9928751 0.0654825 0.0071249 -0.0654825
2305000000 0.0069762 -0.0642252 0.9930238 0.0642252 0.9930238 0.0642252 0.0069762 -0.0642252
2326000000 0.0068329 -0.0629835 0.9931671 0.0629835 0.9931671 0.0629835 0.0068329 -0.0629835
2347000000 0.0066948 -0.0617571 0.9933052 0.0617571 0.9933052 0.0617571 0.0066948 -0.0617571
2368000000 0.0065618 -0.0605456 0.9934382 0.0605456 0.9934382 0.0605456 0.0065618 -0.0605456
2389000000 0.0064337 -0.0593486 0.9935663 0.0593486 0.9935663 0.0593486 0.0064337 -0.0593486
2410000000 0.0063103 -0.0581657 0.9936897 0.0581657 0.9936897 0.0581657 0.0063103 -0.0581657
2431000000 0.0061915 -0.0569965 0.9938085 0.0569965 0.9938085 0.0569965 0.0061915 -0.0569965
2452000000 0.0060772 -0.0558407 0.9939228 0.0558407 0.9939228 0.0558407 0.0060772 -0.0558407
2473000000 0.0059672 -0.0546979 0.9940328 0.0546979 0.9940328 0.0546979 0.0059672 -0.0546979
2494000000 0.0058614 -0.0535679 0.9941386 0.0535679 0.9941386 0.0535679 0.0058614 -0.0535679
2515000000 0.0057597 -0.0524503 0.9942403 0.0524503 0.9942403 0.0524503 0.0057597 -0.0524503
2536000000 0.0056620 -0.0513447 0.9943380 0.0513447 0.9943380 0.0513447 0.0056620 -0.0513447
2557000000 0.0055681 -0.0502510 0.9944319 0.0502510 0.9944319 0.0502510 0.0055681 -0.0502510
2578000000 0.0054779 -0.0491687 0.9945221 0.0491687 0.9945221 0.0491687 0.0054779 -0.0491687
2599000000 0.0053914 -0.0480977 0.9946086 0.0480977 0.9946086 0.0480977 0.0053914 -0.0480977
2620000000 0.0053084 -0.0470376 0.9946916 0.0470376 0.9946916 0.0470376 0.0053084 -0.0470376
2641000000 0.0052288 -0.0459882 0.9947712 0.0459882 0.9947712 0.0459882 0.0052288 -0.0459882
2662000000 0.0051526 -0.0449492 0.9948474 0.0449492 0.9948474 0.0449492 0.0051526 -0.0449492
2683000000 0.0050796 -0.0439205 0.9949204 0.0439205 0.9949204 0.0439205 0.0050796 -0.0439205
2704000000 0.0050098 -0.0429016 0.9949902 0.0429016 0.9949902 0.0429016 0.0050098 -0.0429016
2725000000 0.0049431 -0.0418924 0.9950569 0.0418924 0.9950569 0.0418924 0.0049431 -0.0418924
2746000000 0.0048795 -0.0408927 0.9951205 0.0408927 0.9951205 0.0408927 0.0048795 -0.0408927
2767000000 0.0048187 -0.0399023 0.9951813 0.0399023 0.9951813 0.0399023 0.0048187 -0.0399023
2788000000 0.0047608 -0.0389209 0.9952392 0.0389209 0.9952392 0.0389209 0.0047608 -0.0389209
2809000000 0.0047057 -0.0379483 0.9952943 0.0379483 0.9952943 0.0379483 0.0047057 -0.0379483
2830000000 0.0046533 -0.0369843 0.9953467 0.0369843 0.9953467 0.0369843 0.0046533 -0.0369843
2851000000 0.0046036 -0.0360288 0.9953964 0.0360288 0.9953964 0.0360288 0.0046036 -0.0360288
2872000000 0.0045565 -0.0350815 0.9954435 0.0350815 0.9954435 0.0350815 0.0045565 -0.0350815
2893000000 0.0045119 -0.0341422 0.9954881 0.0341422 0.9954881 0.0341422 0.0045119 -0.0341422
2914000000 0.0044698 -0.0332108 0.9955302 0.0332108 0.9955302 0.0332108 0.0044698 -0.0332108
2935000000 0.0044301 -0.0322870 0.9955699 0.0322870 0.9955699 0.0322870 0.0044301 -0.0322870
2956000000 0.0043928 -0.0313708 0.9956072 0.0313708 0.9956072 0.0313708 0.0043928 -0.0313708
2977000000 0.0043578 -0.0304619 0.9956422 0.0304619 0.9956422 0.0304619 0.0043578 -0.0304619
2998000000 0.0043250 -0.0295602 0.9956750 0.0295602 0.9956750 0.0295602 0.0043250 -0.0295602
3019000000 0.0042945 -0.0286655 0.9957055 0.0286655 0.9957055 0.0286655 0.0042945 -0.0286655
3040000000 0.0042662 -0.0277776 0.9957338 0.0277776 0.9957338 0.0277776 0.0042662 -0.0277776
3061000000 0.0042400 -0.0268965 0.9957600 0.0268965 0.9957600 0.0268965 0.0042400 -0.0268965
3082000000 0.0042158 -0.0260219 0.9957842 0.0260219 0.9957842 0.0260219 0.0042158 -0.0260219
3103000000 0.0041938 -0.0251537 0.9958062 0.0251537 0.9958062 0.0251537 0.0041938 -0.0251537
3124000000 0.0041737 -0.0242918 0.9958263 0.0242918 0.9958263 0.0242918 0.0041737 -0.0242918
3145000000 0.0041556 -0.0234360 0.9958444 0.0234360 0.9958444 0.0234360 0.0041556 -0.0234360
3166000000 0.0041394 -0.0225862 0.9958606 0.0225862 0.9958606 0.0225862 0.0041394 -0.0225862
3187000000 0.0041251 -0.0217423 0.9958749 0.0217423 0.9958749 0.0217423 0.0041251 -0.0217423
3208000000 0.0041126 -0.0209042 0.9958874 0.0209042 0.9958874 0.0209042 0.0041126 -0.0209042
3229000000 0.0041020 -0.0200716 0.9958980 0.0200716 0.9958980 0.0200716 0.0041020 -0.0200716
3250000000 0.0040932 -0.0192445 0.9959068 0.0192445 0.9959068 0.0192445 0.0040932 -0.0192445
3271000000 0.0040861 -0.0184229 0.9959139 0.0184229 0.9959139 0.0184229 0.0040861 -0.0184229
3292000000 0.0040808 -0.0176064 0.9959192 0.0176064 0.9959192 0.0176064 0.0040808 -0.0176064
3313000000 0.0040772 -0.0167951 0.9959228 0.0167951 0.9959228 0.0167951 0.0040772 -0.0167951
3334000000 0.0040752 -0.0159889 0.9959248 0.0159889 0.9959248 0.0159889 0.0040752 -0.0159889
3355000000 0.0040749 -0.0151875 0.9959251 0.0151875 0.9959251 0.0151875 0.0040749 -0.0151875
3376000000 0.0040762 -0.0143910 0.9959238 0.0143910 0.9959238 0.0143910 0.0040762 -0.0143910
3397000000 0.0040791 -0.0135992 0.9959209 0.0135992 0.9959209 0.0135992 0.0040791 -0.0135992
3418000000 0.0040836 -0.0128120 0.9959164 0.0128120 0.9959164 0.0128120 0.0040836 -0.0128120
3439000000 0.0040896 -0.0120293 0.9959104 0.0120293 0.9959104 0.0120293 0.0040896 -0.0120293
3460000000 0.0040972 -0.0112510 0.9959028 0.0112510 0.9959028 0.0112510 0.0040972 -0.0112510
3481000000 0.0041062 -0.0104770 0.9958938 0.0104770 0.9958938 0.0104770 0.0041062 -0.0104770
3502000000 0.0041167 -0.0097073 0.9958833 0.0097073 0.9958833 0.0097073 0.0041167 -0.0097073
3523000000 0.0041287 -0.0089417 0.9958713 0.0089417 0.9958713 0.0089417 0.0041287 -0.0089417
3544000000 0.0041422 -0.0081801 0.9958578 0.0081801 0.9958578 0.0081801 0.0041422 -0.0081801
3565000000 0.0041571 -0.0074225 0.9958429 0.0074225 0.9958429 0.0074225 0.0041571 -0.0074225
3586000000 0.0041733 -0.0066687 0.9958267 0.0066687 0.9958267 0.0066687 0.0041733 -0.0066687
3607000000 0.0041910 -0.0059187 0.9958090 0.0059187 0.9958090 0.0059187 0.0041910 -0.0059187
3628000000 0.0042100 -0.0051724 0.9957900 0.0051724 0.9957900 0.0051724 0.0042100 -0.0051724
3649000000 0.0042304 -0.0044298 0.9957696 0.0044298 0.9957696 0.0044298 0.0042304 -0.0044298
3670000000 0.0042522 -0.0036906 0.9957478 0.0036906 0.9957478 0.0036906 0.0042522 -0.0036906
3691000000 0.0042752 -0.0029550 0.9957248 0.0029550 0.9957248 0.0029550 0.0042752 -0.0029550
3712000000 0.0042996 -0.0022227 0.9957004 0.0022227 0.9957004 0.0022227 0.0042996 -0.0022227
3733000000 0.0043253 -0.0014937 0.9956747 0.0014937 0.9956747 0.0014937 0.0043253 -0.0014937
3754000000 0.0043523 -0.0007679 0.9956477 0.0007679 0.9956477 0.0007679 0.0043523 -0.0007679
3775000000 0.0043805 -0.0000453 0.9956195 0.0000453 0.9956195 0.0000453 0.0043805 -0.0000453
3796000000 0.0044100 0.0006743 0.9955900 -0.0006743 0.9955900 -0.0006743 0.0044100 0.0006743
3817000000 0.0044408 0.0013908 0.9955592 -0.0013908 0.9955592 -0.0013908 0.0044408 0.0013908
3838000000 0.0044727 0.0021044 0.9955273 -0.0021044 0.9955273 -0.0021044 0.0044727 0.0021044
3859000000 0.0045060 0.0028151 0.9954940 -0.0028151 0.9954940 -0.0028151 0.0045060 0.0028151
3880000000 0.0045404 0.0035230 0.9954596 -0.0035230 0.9954596 -0.0035230 0.0045404 0.0035230
3901000000 0.0045761 0.0042282 0.9954239 -0.0042282 0.9954239 -0.0042282 0.0045761 0.0042282
3922000000 0.0046129 0.0049306 0.9953871 -0.0049306 0.9953871 -0.0049306 0.0046129 0.0049306
3943000000 0.0046510 0.0056305 0.9953490 -0.0056305 0.9953490 -0.0056305 0.0046510 0.0056305
3964000000 0.0046902 0.0063278 0.9953098 -0.0063278 0.9953098 -0.0063278 0.0046902 0.0063278
3985000000 0.0047306 0.0070227 0.9952694 -0.0070227 0.9952694 -0.0070227 0.0047306 0.0070227
4006000000 0.0047721 0.0077151 0.9952279 -0.0077151 0.9952279 -0.0077151 0.0047721 0.0077151
4027000000 0.0048149 0.0084052 0.9951851 -0.0084052 0.9951851 -0.0084052 0.0048149 0.0084052
4048000000 0.0048588 0.0090929 0.9951412 -0.0090929 0.9951412 -0.0090929 0.0048588 0.0090929
4069000000 0.0049038 0.0097784 0.9950962 -0.0097784 0.9950962 -0.0097784 0.0049038 0.0097784
4090000000 0.0049500 0.0104618 0.9950500 -0.0104618 0.9950500 -0.0104618 0.0049500 0.0104618
4111000000 0.0049973 0.0111430 0.9950027 -0.0111430 0.9950027 -0.0111430 0.0049973 0.0111430
4132000000 0.0050457 0.0118221 0.9949543 -0.0118221 0.9949543 -0.0118221 0.0050457 0.0118221
4153000000 0.0050953 0.0124992 0.9949047 -0.0124992 0.9949047 -0.0124992 0.0050953 0.0124992
4174000000 0.0051460 0.0131744 0.9948540 -0.0131744 0.9948540 -0.0131744 0.0051460 0.0131744
4195000000 0.0051978 0.0138476 0.9948022 -0.0138476 0.9948022 -0.0138476 0.0051978 0.0138476
4216000000 0.0052508 0.0145190 0.9947492 -0.0145190 0.9947492 -0.0145190 0.0052508 0.0145190
4237000000 0.0053048 0.0151886 0.9946952 -0.0151886 0.9946952 -0.0151886 0.0053048 0.0151886
4258000000 0.0053600 0.0158565 0.9946400 -0.0158565 0.9946400 -0.0158565 0.0053600 0.0158565
4279000000 0.0054162 0.0165226 0.9945838 -0.0165226 0.9945838 -0.0165226 0.0054162 0.0165226
4300000000 0.0054736 0.0171871 0.9945264 -0.0171871 0.9945264 -0.0171871 0.0054736 0.0171871
4321000000 0.0055321 0.0178501 0.9944679 -0.0178501 0.9944679 -0.0178501 0.0055321 0.0178501
4342000000 0.0055917 0.0185115 0.9944083 -0.0185115 0.9944083 -0.0185115 0.0055917 0.0185115
4363000000 0.0056523 0.0191714 0.9943477 -0.0191714 0.9943477 -0.0191714 0.0056523 0.0191714
4384000000 0.0057141 0.0198298 0.9942859 -0.0198298 0.9942859 -0.0198298 0.0057141 0.0198298
4405000000 0.0057770 0.0204869 0.9942230 -0.0204869 0.9942230 -0.0204869 0.0057770 0.0204869
4426000000 0.0058410 0.0211426 0.9941590 -0.0211426 0.9941590 -0.0211426 0.0058410 0.0211426
4447000000 0.0059061 0.0217970 0.9940939 -0.0217970 0.9940939 -0.0217970 0.0059061 0.0217970
4468000000 0.0059722 0.0224502 0.9940278 -0.0224502 0.9940278 -0.0224502 0.0059722 0.0224502
4489000000 0.0060395 0.0231022 0.9939605 -0.0231022 0.9939605 -0.0231022 0.0060395 0.0231022
4510000000 0.0061079 0.0237531 0.9938921 -0.0237531 0.9938921 -0.0237531 0.0061079 0.0237531
