!Murata Part Number: GRM0335C2AR20WA01
!These Parameters are Measured in Series Mode Connection
!Data Generated on Mar 30, 2021
!       o--ll--o
!Port1            Port2
!       o------o
!Operation Temp=25[degC], DC Bias Voltage=0[V]
!Freq. Start=100[MHz] Stop=20[GHz] 401[Steps]
# Hz S RI R 50
!Freq.(Hz) S11(Real) S11(Imag) S21(Real) S21(Imag) S12(Real) S12(Imag) S22(Real) S22(Imag)
100000000 0.9998406 -0.0125647 0.0001594 0.0125647 0.0001594 0.0125647 0.9998406 -0.0125647
149750000 0.9996425 -0.0188124 0.0003575 0.0188124 0.0003575 0.0188124 0.9996425 -0.0188124
199500000 0.9993657 -0.0250565 0.0006343 0.0250565 0.0006343 0.0250565 0.9993657 -0.0250565
249250000 0.9990101 -0.0312954 0.0009899 0.0312954 0.0009899 0.0312954 0.9990101 -0.0312954
299000000 0.9985760 -0.0375282 0.0014240 0.0375282 0.0014240 0.0375282 0.9985760 -0.0375282
348750000 0.9980634 -0.0437534 0.0019366 0.0437534 0.0019366 0.0437534 0.9980634 -0.0437534
398500000 0.9974724 -0.0499699 0.0025276 0.0499699 0.0025276 0.0499699 0.9974724 -0.0499699
448250000 0.9968034 -0.0561764 0.0031966 0.0561764 0.0031966 0.0561764 0.9968034 -0.0561764
498000000 0.9960565 -0.0623717 0.0039435 0.0623717 0.0039435 0.0623717 0.9960565 -0.0623717
547750000 0.9952319 -0.0685546 0.0047681 0.0685546 0.0047681 0.0685546 0.9952319 -0.0685546
597500000 0.9943300 -0.0747238 0.0056700 0.0747238 0.0056700 0.0747238 0.9943300 -0.0747238
647250000 0.9933509 -0.0808782 0.0066491 0.0808782 0.0066491 0.0808782 0.9933509 -0.0808782
697000000 0.9922950 -0.0870166 0.0077050 0.0870166 0.0077050 0.0870166 0.9922950 -0.0870166
746750000 0.9911627 -0.0931376 0.0088373 0.0931376 0.0088373 0.0931376 0.9911627 -0.0931376
796500000 0.9899544 -0.0992403 0.0100456 0.0992403 0.0100456 0.0992403 0.9899544 -0.0992403
846250000 0.9886703 -0.1053233 0.0113297 0.1053233 0.0113297 0.1053233 0.9886703 -0.1053233
896000000 0.9873109 -0.1113856 0.0126891 0.1113856 0.0126891 0.1113856 0.9873109 -0.1113856
945750000 0.9858766 -0.1174259 0.0141234 0.1174259 0.0141234 0.1174259 0.9858766 -0.1174259
995500000 0.9843679 -0.1234431 0.0156321 0.1234431 0.0156321 0.1234431 0.9843679 -0.1234431
1045250000 0.9827853 -0.1294361 0.0172147 0.1294361 0.0172147 0.1294361 0.9827853 -0.1294361
1095000000 0.9811292 -0.1354038 0.0188708 0.1354038 0.0188708 0.1354038 0.9811292 -0.1354038
1144750000 0.9794002 -0.1413451 0.0205998 0.1413451 0.0205998 0.1413451 0.9794002 -0.1413451
1194500000 0.9775988 -0.1472588 0.0224012 0.1472588 0.0224012 0.1472588 0.9775988 -0.1472588
1244250000 0.9757255 -0.1531438 0.0242745 0.1531438 0.0242745 0.1531438 0.9757255 -0.1531438
1294000000 0.9737810 -0.1589992 0.0262190 0.1589992 0.0262190 0.1589992 0.9737810 -0.1589992
1343750000 0.9717659 -0.1648238 0.0282341 0.1648238 0.0282341 0.1648238 0.9717659 -0.1648238
1393500000 0.9696807 -0.1706167 0.0303193 0.1706167 0.0303193 0.1706167 0.9696807 -0.1706167
1443250000 0.9675261 -0.1763767 0.0324739 0.1763767 0.0324739 0.1763767 0.9675261 -0.1763767
1493000000 0.9653027 -0.1821029 0.0346973 0.1821029 0.0346973 0.1821029 0.9653027 -0.1821029
1542750000 0.9630113 -0.1877943 0.0369887 0.1877943 0.0369887 0.1877943 0.9630113 -0.1877943
1592500000 0.9606525 -0.1934499 0.0393475 0.1934499 0.0393475 0.1934499 0.9606525 -0.1934499
1642250000 0.9582271 -0.1990688 0.0417729 0.1990688 0.0417729 0.1990688 0.9582271 -0.1990688
1692000000 0.9557357 -0.2046499 0.0442643 0.2046499 0.0442643 0.2046499 0.9557357 -0.2046499
1741750000 0.9531791 -0.2101925 0.0468209 0.2101925 0.0468209 0.2101925 0.9531791 -0.2101925
1791500000 0.9505580 -0.2156955 0.0494420 0.2156955 0.0494420 0.2156955 0.9505580 -0.2156955
1841250000 0.9478733 -0.2211581 0.0521267 0.2211581 0.0521267 0.2211581 0.9478733 -0.2211581
1891000000 0.9451257 -0.2265794 0.0548743 0.2265794 0.0548743 0.2265794 0.9451257 -0.2265794
1940750000 0.9423160 -0.2319586 0.0576840 0.2319586 0.0576840 0.2319586 0.9423160 -0.2319586
1990500000 0.9394450 -0.2372948 0.0605550 0.2372948 0.0605550 0.2372948 0.9394450 -0.2372948
2040250000 0.9365136 -0.2425873 0.0634864 0.2425873 0.0634864 0.2425873 0.9365136 -0.2425873
2090000000 0.9335226 -0.2478352 0.0664774 0.2478352 0.0664774 0.2478352 0.9335226 -0.2478352
2139750000 0.9304729 -0.2530377 0.0695271 0.2530377 0.0695271 0.2530377 0.9304729 -0.2530377
2189500000 0.9273652 -0.2581941 0.0726348 0.2581941 0.0726348 0.2581941 0.9273652 -0.2581941
2239250000 0.9242006 -0.2633037 0.0757994 0.2633037 0.0757994 0.2633037 0.9242006 -0.2633037
2289000000 0.9209798 -0.2683657 0.0790202 0.2683657 0.0790202 0.2683657 0.9209798 -0.2683657
2338750000 0.9177038 -0.2733795 0.0822962 0.2733795 0.0822962 0.2733795 0.9177038 -0.2733795
2388500000 0.9143735 -0.2783443 0.0856265 0.2783443 0.0856265 0.2783443 0.9143735 -0.2783443
2438250000 0.9109897 -0.2832596 0.0890103 0.2832596 0.0890103 0.2832596 0.9109897 -0.2832596
2488000000 0.9075535 -0.2881247 0.0924465 0.2881247 0.0924465 0.2881247 0.9075535 -0.2881247
2537750000 0.9040658 -0.2929389 0.0959342 0.2929389 0.0959342 0.2929389 0.9040658 -0.2929389
2587500000 0.9005274 -0.2977017 0.0994726 0.2977017 0.0994726 0.2977017 0.9005274 -0.2977017
2637250000 0.8969393 -0.3024126 0.1030607 0.3024126 0.1030607 0.3024126 0.8969393 -0.3024126
2687000000 0.8933025 -0.3070709 0.1066975 0.3070709 0.1066975 0.3070709 0.8933025 -0.3070709
2736750000 0.8896179 -0.3116761 0.1103821 0.3116761 0.1103821 0.3116761 0.8896179 -0.3116761
2786500000 0.8858865 -0.3162278 0.1141135 0.3162278 0.1141135 0.3162278 0.8858865 -0.3162278
2836250000 0.8821093 -0.3207254 0.1178907 0.3207254 0.1178907 0.3207254 0.8821093 -0.3207254
2886000000 0.8782872 -0.3251684 0.1217128 0.3251684 0.1217128 0.3251684 0.8782872 -0.3251684
2935750000 0.8744212 -0.3295565 0.1255788 0.3295565 0.1255788 0.3295565 0.8744212 -0.3295565
2985500000 0.8705122 -0.3338892 0.1294878 0.3338892 0.1294878 0.3338892 0.8705122 -0.3338892
3035250000 0.8665613 -0.3381661 0.1334387 0.3381661 0.1334387 0.3381661 0.8665613 -0.3381661
3085000000 0.8625695 -0.3423868 0.1374305 0.3423868 0.1374305 0.3423868 0.8625695 -0.3423868
3134750000 0.8585376 -0.3465509 0.1414624 0.3465509 0.1414624 0.3465509 0.8585376 -0.3465509
3184500000 0.8544667 -0.3506581 0.1455333 0.3506581 0.1455333 0.3506581 0.8544667 -0.3506581
3234250000 0.8503579 -0.3547081 0.1496421 0.3547081 0.1496421 0.3547081 0.8503579 -0.3547081
3284000000 0.8462119 -0.3587006 0.1537881 0.3587006 0.1537881 0.3587006 0.8462119 -0.3587006
3333750000 0.8420300 -0.3626352 0.1579700 0.3626352 0.1579700 0.3626352 0.8420300 -0.3626352
3383500000 0.8378129 -0.3665118 0.1621871 0.3665118 0.1621871 0.3665118 0.8378129 -0.3665118
3433250000 0.8335618 -0.3703300 0.1664382 0.3703300 0.1664382 0.3703300 0.8335618 -0.3703300
3483000000 0.8292775 -0.3740897 0.1707225 0.3740897 0.1707225 0.3740897 0.8292775 -0.3740897
3532750000 0.8249612 -0.3777906 0.1750388 0.3777906 0.1750388 0.3777906 0.8249612 -0.3777906
3582500000 0.8206136 -0.3814326 0.1793864 0.3814326 0.1793864 0.3814326 0.8206136 -0.3814326
3632250000 0.8162359 -0.3850154 0.1837641 0.3850154 0.1837641 0.3850154 0.8162359 -0.3850154
3682000000 0.8118290 -0.3885390 0.1881710 0.3885390 0.1881710 0.3885390 0.8118290 -0.3885390
3731750000 0.8073938 -0.3920031 0.1926062 0.3920031 0.1926062 0.3920031 0.8073938 -0.3920031
3781500000 0.8029313 -0.3954078 0.1970687 0.3954078 0.1970687 0.3954078 0.8029313 -0.3954078
3831250000 0.7984425 -0.3987528 0.2015575 0.3987528 0.2015575 0.3987528 0.7984425 -0.3987528
3881000000 0.7939284 -0.4020381 0.2060716 0.4020381 0.2060716 0.4020381 0.7939284 -0.4020381
3930750000 0.7893898 -0.4052637 0.2106102 0.4052637 0.2106102 0.4052637 0.7893898 -0.4052637
3980500000 0.7848277 -0.4084295 0.2151723 0.4084295 0.2151723 0.4084295 0.7848277 -0.4084295
4030250000 0.7802431 -0.4115354 0.2197569 0.4115354 0.2197569 0.4115354 0.7802431 -0.4115354
4080000000 0.7756368 -0.4145815 0.2243632 0.4145815 0.2243632 0.4145815 0.7756368 -0.4145815
4129750000 0.7710099 -0.4175678 0.2289901 0.4175678 0.2289901 0.4175678 0.7710099 -0.4175678
4179500000 0.7663632 -0.4204942 0.2336368 0.4204942 0.2336368 0.4204942 0.7663632 -0.4204942
4229250000 0.7616977 -0.4233609 0.2383023 0.4233609 0.2383023 0.4233609 0.7616977 -0.4233609
4279000000 0.7570142 -0.4261678 0.2429858 0.4261678 0.2429858 0.4261678 0.7570142 -0.4261678
4328750000 0.7523136 -0.4289151 0.2476864 0.4289151 0.2476864 0.4289151 0.7523136 -0.4289151
4378500000 0.7475969 -0.4316028 0.2524031 0.4316028 0.2524031 0.4316028 0.7475969 -0.4316028
4428250000 0.7428648 -0.4342310 0.2571352 0.4342310 0.2571352 0.4342310 0.7428648 -0.4342310
4478000000 0.7381184 -0.4367998 0.2618816 0.4367998 0.2618816 0.4367998 0.7381184 -0.4367998
4527750000 0.7333584 -0.4393094 0.2666416 0.4393094 0.2666416 0.4393094 0.7333584 -0.4393094
4577500000 0.7285857 -0.4417598 0.2714143 0.4417598 0.2714143 0.4417598 0.7285857 -0.4417598
4627250000 0.7238012 -0.4441513 0.2761988 0.4441513 0.2761988 0.4441513 0.7238012 -0.4441513
4677000000 0.7190057 -0.4464840 0.2809943 0.4464840 0.2809943 0.4464840 0.7190057 -0.4464840
4726750000 0.7141999 -0.4487581 0.2858001 0.4487581 0.2858001 0.4487581 0.7141999 -0.4487581
4776500000 0.7093849 -0.4509738 0.2906151 0.4509738 0.2906151 0.4509738 0.7093849 -0.4509738
4826250000 0.7045613 -0.4531312 0.2954387 0.4531312 0.2954387 0.4531312 0.7045613 -0.4531312
4876000000 0.6997299 -0.4552306 0.3002701 0.4552306 0.3002701 0.4552306 0.6997299 -0.4552306
4925750000 0.6948916 -0.4572722 0.3051084 0.4572722 0.3051084 0.4572722 0.6948916 -0.4572722
4975500000 0.6900471 -0.4592563 0.3099529 0.4592563 0.3099529 0.4592563 0.6900471 -0.4592563
5025250000 0.6851972 -0.4611830 0.3148028 0.4611830 0.3148028 0.4611830 0.6851972 -0.4611830
5075000000 0.6803427 -0.4630527 0.3196573 0.4630527 0.3196573 0.4630527 0.6803427 -0.4630527
5124750000 0.6754843 -0.4648657 0.3245157 0.4648657 0.3245157 0.4648657 0.6754843 -0.4648657
5174500000 0.6706228 -0.4666221 0.3293772 0.4666221 0.3293772 0.4666221 0.6706228 -0.4666221
5224250000 0.6657588 -0.4683222 0.3342412 0.4683222 0.3342412 0.4683222 0.6657588 -0.4683222
5274000000 0.6608932 -0.4699665 0.3391068 0.4699665 0.3391068 0.4699665 0.6608932 -0.4699665
5323750000 0.6560265 -0.4715551 0.3439735 0.4715551 0.3439735 0.4715551 0.6560265 -0.4715551
5373500000 0.6511596 -0.4730885 0.3488404 0.4730885 0.3488404 0.4730885 0.6511596 -0.4730885
5423250000 0.6462931 -0.4745668 0.3537069 0.4745668 0.3537069 0.4745668 0.6462931 -0.4745668
5473000000 0.6414276 -0.4759905 0.3585724 0.4759905 0.3585724 0.4759905 0.6414276 -0.4759905
5522750000 0.6365639 -0.4773599 0.3634361 0.4773599 0.3634361 0.4773599 0.6365639 -0.4773599
5572500000 0.6317027 -0.4786753 0.3682973 0.4786753 0.3682973 0.4786753 0.6317027 -0.4786753
5622250000 0.6268444 -0.4799370 0.3731556 0.4799370 0.3731556 0.4799370 0.6268444 -0.4799370
5672000000 0.6219899 -0.4811456 0.3780101 0.4811456 0.3780101 0.4811456 0.6219899 -0.4811456
5721750000 0.6171396 -0.4823012 0.3828604 0.4823012 0.3828604 0.4823012 0.6171396 -0.4823012
5771500000 0.6122943 -0.4834043 0.3877057 0.4834043 0.3877057 0.4834043 0.6122943 -0.4834043
5821250000 0.6074545 -0.4844553 0.3925455 0.4844553 0.3925455 0.4844553 0.6074545 -0.4844553
5871000000 0.6026208 -0.4854545 0.3973792 0.4854545 0.3973792 0.4854545 0.6026208 -0.4854545
5920750000 0.5977938 -0.4864023 0.4022062 0.4864023 0.4022062 0.4864023 0.5977938 -0.4864023
5970500000 0.5929741 -0.4872992 0.4070259 0.4872992 0.4070259 0.4872992 0.5929741 -0.4872992
6020250000 0.5881621 -0.4881455 0.4118379 0.4881455 0.4118379 0.4881455 0.5881621 -0.4881455
6070000000 0.5833586 -0.4889416 0.4166414 0.4889416 0.4166414 0.4889416 0.5833586 -0.4889416
6119750000 0.5785639 -0.4896880 0.4214361 0.4896880 0.4214361 0.4896880 0.5785639 -0.4896880
6169500000 0.5737787 -0.4903850 0.4262213 0.4903850 0.4262213 0.4903850 0.5737787 -0.4903850
6219250000 0.5690035 -0.4910331 0.4309965 0.4910331 0.4309965 0.4910331 0.5690035 -0.4910331
6269000000 0.5642386 -0.4916327 0.4357614 0.4916327 0.4357614 0.4916327 0.5642386 -0.4916327
6318750000 0.5594848 -0.4921843 0.4405152 0.4921843 0.4405152 0.4921843 0.5594848 -0.4921843
6368500000 0.5547423 -0.4926882 0.4452577 0.4926882 0.4452577 0.4926882 0.5547423 -0.4926882
6418250000 0.5500118 -0.4931449 0.4499882 0.4931449 0.4499882 0.4931449 0.5500118 -0.4931449
6468000000 0.5452936 -0.4935548 0.4547064 0.4935548 0.4547064 0.4935548 0.5452936 -0.4935548
6517750000 0.5405882 -0.4939183 0.4594118 0.4939183 0.4594118 0.4939183 0.5405882 -0.4939183
6567500000 0.5358961 -0.4942360 0.4641039 0.4942360 0.4641039 0.4942360 0.5358961 -0.4942360
6617250000 0.5312177 -0.4945082 0.4687823 0.4945082 0.4687823 0.4945082 0.5312177 -0.4945082
6667000000 0.5265534 -0.4947354 0.4734466 0.4947354 0.4734466 0.4947354 0.5265534 -0.4947354
6716750000 0.5219037 -0.4949181 0.4780963 0.4949181 0.4780963 0.4949181 0.5219037 -0.4949181
6766500000 0.5172688 -0.4950566 0.4827312 0.4950566 0.4827312 0.4950566 0.5172688 -0.4950566
6816250000 0.5126493 -0.4951514 0.4873507 0.4951514 0.4873507 0.4951514 0.5126493 -0.4951514
6866000000 0.5080455 -0.4952031 0.4919545 0.4952031 0.4919545 0.4952031 0.5080455 -0.4952031
6915750000 0.5034577 -0.4952119 0.4965423 0.4952119 0.4965423 0.4952119 0.5034577 -0.4952119
6965500000 0.4988864 -0.4951785 0.5011136 0.4951785 0.5011136 0.4951785 0.4988864 -0.4951785
7015250000 0.4943319 -0.4951032 0.5056681 0.4951032 0.5056681 0.4951032 0.4943319 -0.4951032
7065000000 0.4897945 -0.4949865 0.5102055 0.4949865 0.5102055 0.4949865 0.4897945 -0.4949865
7114750000 0.4852746 -0.4948289 0.5147254 0.4948289 0.5147254 0.4948289 0.4852746 -0.4948289
7164500000 0.4807725 -0.4946308 0.5192275 0.4946308 0.5192275 0.4946308 0.4807725 -0.4946308
7214250000 0.4762885 -0.4943926 0.5237115 0.4943926 0.5237115 0.4943926 0.4762885 -0.4943926
7264000000 0.4718229 -0.4941149 0.5281771 0.4941149 0.5281771 0.4941149 0.4718229 -0.4941149
7313750000 0.4673760 -0.4937980 0.5326240 0.4937980 0.5326240 0.4937980 0.4673760 -0.4937980
7363500000 0.4629481 -0.4934425 0.5370519 0.4934425 0.5370519 0.4934425 0.4629481 -0.4934425
7413250000 0.4585396 -0.4930488 0.5414604 0.4930488 0.5414604 0.4930488 0.4585396 -0.4930488
7463000000 0.4541505 -0.4926173 0.5458495 0.4926173 0.5458495 0.4926173 0.4541505 -0.4926173
7512750000 0.4497813 -0.4921485 0.5502187 0.4921485 0.5502187 0.4921485 0.4497813 -0.4921485
7562500000 0.4454322 -0.4916428 0.5545678 0.4916428 0.5545678 0.4916428 0.4454322 -0.4916428
7612250000 0.4411034 -0.4911008 0.5588966 0.4911008 0.5588966 0.4911008 0.4411034 -0.4911008
7662000000 0.4367952 -0.4905228 0.5632048 0.4905228 0.5632048 0.4905228 0.4367952 -0.4905228
7711750000 0.4325078 -0.4899093 0.5674922 0.4899093 0.5674922 0.4899093 0.4325078 -0.4899093
7761500000 0.4282414 -0.4892607 0.5717586 0.4892607 0.5717586 0.4892607 0.4282414 -0.4892607
7811250000 0.4239963 -0.4885775 0.5760037 0.4885775 0.5760037 0.4885775 0.4239963 -0.4885775
7861000000 0.4197726 -0.4878602 0.5802274 0.4878602 0.5802274 0.4878602 0.4197726 -0.4878602
7910750000 0.4155705 -0.4871092 0.5844295 0.4871092 0.5844295 0.4871092 0.4155705 -0.4871092
7960500000 0.4113903 -0.4863249 0.5886097 0.4863249 0.5886097 0.4863249 0.4113903 -0.4863249
8010250000 0.4072321 -0.4855077 0.5927679 0.4855077 0.5927679 0.4855077 0.4072321 -0.4855077
8060000000 0.4030961 -0.4846582 0.5969039 0.4846582 0.5969039 0.4846582 0.4030961 -0.4846582
8109750000 0.3989825 -0.4837767 0.6010175 0.4837767 0.6010175 0.4837767 0.3989825 -0.4837767
8159500000 0.3948915 -0.4828637 0.6051085 0.4828637 0.6051085 0.4828637 0.3948915 -0.4828637
8209250000 0.3908231 -0.4819196 0.6091769 0.4819196 0.6091769 0.4819196 0.3908231 -0.4819196
8259000000 0.3867776 -0.4809448 0.6132224 0.4809448 0.6132224 0.4809448 0.3867776 -0.4809448
8308750000 0.3827551 -0.4799398 0.6172449 0.4799398 0.6172449 0.4799398 0.3827551 -0.4799398
8358500000 0.3787557 -0.4789050 0.6212443 0.4789050 0.6212443 0.4789050 0.3787557 -0.4789050
8408250000 0.3747796 -0.4778408 0.6252204 0.4778408 0.6252204 0.4778408 0.3747796 -0.4778408
8458000000 0.3708269 -0.4767476 0.6291731 0.4767476 0.6291731 0.4767476 0.3708269 -0.4767476
8507750000 0.3668977 -0.4756259 0.6331023 0.4756259 0.6331023 0.4756259 0.3668977 -0.4756259
8557500000 0.3629922 -0.4744760 0.6370078 0.4744760 0.6370078 0.4744760 0.3629922 -0.4744760
8607250000 0.3591103 -0.4732985 0.6408897 0.4732985 0.6408897 0.4732985 0.3591103 -0.4732985
8657000000 0.3552523 -0.4720936 0.6447477 0.4720936 0.6447477 0.4720936 0.3552523 -0.4720936
8706750000 0.3514182 -0.4708618 0.6485818 0.4708618 0.6485818 0.4708618 0.3514182 -0.4708618
8756500000 0.3476082 -0.4696035 0.6523918 0.4696035 0.6523918 0.4696035 0.3476082 -0.4696035
8806250000 0.3438222 -0.4683192 0.6561778 0.4683192 0.6561778 0.4683192 0.3438222 -0.4683192
8856000000 0.3400605 -0.4670091 0.6599395 0.4670091 0.6599395 0.4670091 0.3400605 -0.4670091
8905750000 0.3363230 -0.4656737 0.6636770 0.4656737 0.6636770 0.4656737 0.3363230 -0.4656737
8955500000 0.3326098 -0.4643135 0.6673902 0.4643135 0.6673902 0.4643135 0.3326098 -0.4643135
9005250000 0.3289210 -0.4629287 0.6710790 0.4629287 0.6710790 0.4629287 0.3289210 -0.4629287
9055000000 0.3252567 -0.4615198 0.6747433 0.4615198 0.6747433 0.4615198 0.3252567 -0.4615198
9104750000 0.3216168 -0.4600871 0.6783832 0.4600871 0.6783832 0.4600871 0.3216168 -0.4600871
9154500000 0.3180016 -0.4586311 0.6819984 0.4586311 0.6819984 0.4586311 0.3180016 -0.4586311
9204250000 0.3144109 -0.4571521 0.6855891 0.4571521 0.6855891 0.4571521 0.3144109 -0.4571521
9254000000 0.3108448 -0.4556504 0.6891552 0.4556504 0.6891552 0.4556504 0.3108448 -0.4556504
9303750000 0.3073035 -0.4541266 0.6926965 0.4541266 0.6926965 0.4541266 0.3073035 -0.4541266
9353500000 0.3037868 -0.4525808 0.6962132 0.4525808 0.6962132 0.4525808 0.3037868 -0.4525808
9403250000 0.3002949 -0.4510136 0.6997051 0.4510136 0.6997051 0.4510136 0.3002949 -0.4510136
9453000000 0.2968277 -0.4494252 0.7031723 0.4494252 0.7031723 0.4494252 0.2968277 -0.4494252
9502750000 0.2933853 -0.4478160 0.7066147 0.4478160 0.7066147 0.4478160 0.2933853 -0.4478160
9552500000 0.2899677 -0.4461864 0.7100323 0.4461864 0.7100323 0.4461864 0.2899677 -0.4461864
9602250000 0.2865749 -0.4445367 0.7134251 0.4445367 0.7134251 0.4445367 0.2865749 -0.4445367
9652000000 0.2832069 -0.4428673 0.7167931 0.4428673 0.7167931 0.4428673 0.2832069 -0.4428673
9701750000 0.2798637 -0.4411785 0.7201363 0.4411785 0.7201363 0.4411785 0.2798637 -0.4411785
9751500000 0.2765453 -0.4394706 0.7234547 0.4394706 0.7234547 0.4394706 0.2765453 -0.4394706
9801250000 0.2732517 -0.4377441 0.7267483 0.4377441 0.7267483 0.4377441 0.2732517 -0.4377441
9851000000 0.2699829 -0.4359991 0.7300171 0.4359991 0.7300171 0.4359991 0.2699829 -0.4359991
9900750000 0.2667389 -0.4342362 0.7332611 0.4342362 0.7332611 0.4342362 0.2667389 -0.4342362
9950500000 0.2635197 -0.4324555 0.7364803 0.4324555 0.7364803 0.4324555 0.2635197 -0.4324555
10000250000 0.2603252 -0.4306575 0.7396748 0.4306575 0.7396748 0.4306575 0.2603252 -0.4306575
10050000000 0.2571554 -0.4288424 0.7428446 0.4288424 0.7428446 0.4288424 0.2571554 -0.4288424
10099750000 0.2540104 -0.4270106 0.7459896 0.4270106 0.7459896 0.4270106 0.2540104 -0.4270106
10149500000 0.2508900 -0.4251623 0.7491100 0.4251623 0.7491100 0.4251623 0.2508900 -0.4251623
10199250000 0.2477943 -0.4232979 0.7522057 0.4232979 0.7522057 0.4232979 0.2477943 -0.4232979
10249000000 0.2447233 -0.4214178 0.7552767 0.4214178 0.7552767 0.4214178 0.2447233 -0.4214178
10298750000 0.2416768 -0.4195221 0.7583232 0.4195221 0.7583232 0.4195221 0.2416768 -0.4195221
10348500000 0.2386548 -0.4176113 0.7613452 0.4176113 0.7613452 0.4176113 0.2386548 -0.4176113
10398250000 0.2356574 -0.4156856 0.7643426 0.4156856 0.7643426 0.4156856 0.2356574 -0.4156856
10448000000 0.2326844 -0.4137452 0.7673156 0.4137452 0.7673156 0.4137452 0.2326844 -0.4137452
10497750000 0.2297359 -0.4117906 0.7702641 0.4117906 0.7702641 0.4117906 0.2297359 -0.4117906
