!Murata Part Number: GRM0333C1H3R8BA01
!These Parameters are Measured in Series Mode Connection
!Data Generated on Mar 30, 2021
!       o--ll--o
!Port1            Port2
!       o------o
!Operation Temp=25[degC], DC Bias Voltage=0[V]
!Freq. Start=100[MHz] Stop=9[GHz] 401[Steps]
# Hz S RI R 50
!Freq.(Hz) S11(Real) S11(Imag) S21(Real) S21(Imag) S12(Real) S12(Imag) S22(Real) S22(Imag)
100000000 0.9459167 -0.2258984 0.0540833 0.2258984 0.0540833 0.2258984 0.9459167 -0.2258984
121000000 0.9227362 -0.2666664 0.0772638 0.2666664 0.0772638 0.2666664 0.9227362 -0.2666664
142000000 0.8965738 -0.3041118 0.1034262 0.3041118 0.1034262 0.3041118 0.8965738 -0.3041118
163000000 0.8680129 -0.3380140 0.1319871 0.3380140 0.1319871 0.3380140 0.8680129 -0.3380140
184000000 0.8376310 -0.3682663 0.1623690 0.3682663 0.1623690 0.3682663 0.8376310 -0.3682663
205000000 0.8059775 -0.3948637 0.1940225 0.3948637 0.1940225 0.3948637 0.8059775 -0.3948637
226000000 0.7735565 -0.4178867 0.2264435 0.4178867 0.2264435 0.4178867 0.7735565 -0.4178867
247000000 0.7408166 -0.4374836 0.2591834 0.4374836 0.2591834 0.4374836 0.7408166 -0.4374836
268000000 0.7081444 -0.4538530 0.2918556 0.4538530 0.2918556 0.4538530 0.7081444 -0.4538530
289000000 0.6758636 -0.4672276 0.3241364 0.4672276 0.3241364 0.4672276 0.6758636 -0.4672276
310000000 0.6442369 -0.4778596 0.3557631 0.4778596 0.3557631 0.4778596 0.6442369 -0.4778596
331000000 0.6134705 -0.4860092 0.3865295 0.4860092 0.3865295 0.4860092 0.6134705 -0.4860092
352000000 0.5837195 -0.4919352 0.4162805 0.4919352 0.4162805 0.4919352 0.5837195 -0.4919352
373000000 0.5550949 -0.4958881 0.4449051 0.4958881 0.4449051 0.4958881 0.5550949 -0.4958881
394000000 0.5276699 -0.4981052 0.4723301 0.4981052 0.4723301 0.4981052 0.5276699 -0.4981052
415000000 0.5014864 -0.4988077 0.4985136 0.4988077 0.4985136 0.4988077 0.5014864 -0.4988077
436000000 0.4765609 -0.4981984 0.5234391 0.4981984 0.5234391 0.4981984 0.4765609 -0.4981984
457000000 0.4528895 -0.4964617 0.5471105 0.4964617 0.5471105 0.4964617 0.4528895 -0.4964617
478000000 0.4304528 -0.4937634 0.5695472 0.4937634 0.5695472 0.4937634 0.4304528 -0.4937634
499000000 0.4092195 -0.4902511 0.5907805 0.4902511 0.5907805 0.4902511 0.4092195 -0.4902511
520000000 0.3891496 -0.4860558 0.6108504 0.4860558 0.6108504 0.4860558 0.3891496 -0.4860558
541000000 0.3701972 -0.4812928 0.6298028 0.4812928 0.6298028 0.4812928 0.3701972 -0.4812928
562000000 0.3523126 -0.4760628 0.6476874 0.4760628 0.6476874 0.4760628 0.3523126 -0.4760628
583000000 0.3354438 -0.4704537 0.6645562 0.4704537 0.6645562 0.4704537 0.3354438 -0.4704537
604000000 0.3195380 -0.4645420 0.6804620 0.4645420 0.6804620 0.4645420 0.3195380 -0.4645420
625000000 0.3045425 -0.4583934 0.6954575 0.4583934 0.6954575 0.4583934 0.3045425 -0.4583934
646000000 0.2904056 -0.4520649 0.7095944 0.4520649 0.7095944 0.4520649 0.2904056 -0.4520649
667000000 0.2770768 -0.4456051 0.7229232 0.4456051 0.7229232 0.4456051 0.2770768 -0.4456051
688000000 0.2645077 -0.4390557 0.7354923 0.4390557 0.7354923 0.4390557 0.2645077 -0.4390557
709000000 0.2526519 -0.4324521 0.7473481 0.4324521 0.7473481 0.4324521 0.2526519 -0.4324521
730000000 0.2414651 -0.4258246 0.7585349 0.4258246 0.7585349 0.4258246 0.2414651 -0.4258246
751000000 0.2309055 -0.4191985 0.7690945 0.4191985 0.7690945 0.4191985 0.2309055 -0.4191985
772000000 0.2209337 -0.4125952 0.7790663 0.4125952 0.7790663 0.4125952 0.2209337 -0.4125952
793000000 0.2115123 -0.4060326 0.7884877 0.4060326 0.7884877 0.4060326 0.2115123 -0.4060326
814000000 0.2026065 -0.3995256 0.7973935 0.3995256 0.7973935 0.3995256 0.2026065 -0.3995256
835000000 0.1941836 -0.3930864 0.8058164 0.3930864 0.8058164 0.3930864 0.1941836 -0.3930864
856000000 0.1862130 -0.3867252 0.8137870 0.3867252 0.8137870 0.3867252 0.1862130 -0.3867252
877000000 0.1786661 -0.3804498 0.8213339 0.3804498 0.8213339 0.3804498 0.1786661 -0.3804498
898000000 0.1715163 -0.3742669 0.8284837 0.3742669 0.8284837 0.3742669 0.1715163 -0.3742669
919000000 0.1647386 -0.3681815 0.8352614 0.3681815 0.8352614 0.3681815 0.1647386 -0.3681815
940000000 0.1583098 -0.3621974 0.8416902 0.3621974 0.8416902 0.3621974 0.1583098 -0.3621974
961000000 0.1522083 -0.3563174 0.8477917 0.3563174 0.8477917 0.3563174 0.1522083 -0.3563174
982000000 0.1464140 -0.3505434 0.8535860 0.3505434 0.8535860 0.3505434 0.1464140 -0.3505434
1003000000 0.1409081 -0.3448766 0.8590919 0.3448766 0.8590919 0.3448766 0.1409081 -0.3448766
1024000000 0.1356731 -0.3393177 0.8643269 0.3393177 0.8643269 0.3393177 0.1356731 -0.3393177
1045000000 0.1306926 -0.3338667 0.8693074 0.3338667 0.8693074 0.3338667 0.1306926 -0.3338667
1066000000 0.1259516 -0.3285231 0.8740484 0.3285231 0.8740484 0.3285231 0.1259516 -0.3285231
1087000000 0.1214358 -0.3232862 0.8785642 0.3232862 0.8785642 0.3232862 0.1214358 -0.3232862
1108000000 0.1171321 -0.3181549 0.8828679 0.3181549 0.8828679 0.3181549 0.1171321 -0.3181549
1129000000 0.1130281 -0.3131279 0.8869719 0.3131279 0.8869719 0.3131279 0.1130281 -0.3131279
1150000000 0.1091124 -0.3082037 0.8908876 0.3082037 0.8908876 0.3082037 0.1091124 -0.3082037
1171000000 0.1053743 -0.3033806 0.8946257 0.3033806 0.8946257 0.3033806 0.1053743 -0.3033806
1192000000 0.1018036 -0.2986568 0.8981964 0.2986568 0.8981964 0.2986568 0.1018036 -0.2986568
1213000000 0.0983912 -0.2940303 0.9016088 0.2940303 0.9016088 0.2940303 0.0983912 -0.2940303
1234000000 0.0951282 -0.2894991 0.9048718 0.2894991 0.9048718 0.2894991 0.0951282 -0.2894991
1255000000 0.0920064 -0.2850612 0.9079936 0.2850612 0.9079936 0.2850612 0.0920064 -0.2850612
1276000000 0.0890183 -0.2807145 0.9109817 0.2807145 0.9109817 0.2807145 0.0890183 -0.2807145
1297000000 0.0861566 -0.2764568 0.9138434 0.2764568 0.9138434 0.2764568 0.0861566 -0.2764568
1318000000 0.0834147 -0.2722861 0.9165853 0.2722861 0.9165853 0.2722861 0.0834147 -0.2722861
1339000000 0.0807862 -0.2682001 0.9192138 0.2682001 0.9192138 0.2682001 0.0807862 -0.2682001
1360000000 0.0782653 -0.2641969 0.9217347 0.2641969 0.9217347 0.2641969 0.0782653 -0.2641969
1381000000 0.0758464 -0.2602742 0.9241536 0.2602742 0.9241536 0.2602742 0.0758464 -0.2602742
1402000000 0.0735243 -0.2564301 0.9264757 0.2564301 0.9264757 0.2564301 0.0735243 -0.2564301
1423000000 0.0712942 -0.2526624 0.9287058 0.2526624 0.9287058 0.2526624 0.0712942 -0.2526624
1444000000 0.0691514 -0.2489691 0.9308486 0.2489691 0.9308486 0.2489691 0.0691514 -0.2489691
1465000000 0.0670917 -0.2453483 0.9329083 0.2453483 0.9329083 0.2453483 0.0670917 -0.2453483
1486000000 0.0651110 -0.2417981 0.9348890 0.2417981 0.9348890 0.2417981 0.0651110 -0.2417981
1507000000 0.0632055 -0.2383164 0.9367945 0.2383164 0.9367945 0.2383164 0.0632055 -0.2383164
1528000000 0.0613716 -0.2349016 0.9386284 0.2349016 0.9386284 0.2349016 0.0613716 -0.2349016
1549000000 0.0596059 -0.2315517 0.9403941 0.2315517 0.9403941 0.2315517 0.0596059 -0.2315517
1570000000 0.0579052 -0.2282651 0.9420948 0.2282651 0.9420948 0.2282651 0.0579052 -0.2282651
1591000000 0.0562665 -0.2250399 0.9437335 0.2250399 0.9437335 0.2250399 0.0562665 -0.2250399
1612000000 0.0546869 -0.2218745 0.9453131 0.2218745 0.9453131 0.2218745 0.0546869 -0.2218745
1633000000 0.0531638 -0.2187673 0.9468362 0.2187673 0.9468362 0.2187673 0.0531638 -0.2187673
1654000000 0.0516946 -0.2157168 0.9483054 0.2157168 0.9483054 0.2157168 0.0516946 -0.2157168
1675000000 0.0502769 -0.2127213 0.9497231 0.2127213 0.9497231 0.2127213 0.0502769 -0.2127213
1696000000 0.0489085 -0.2097793 0.9510915 0.2097793 0.9510915 0.2097793 0.0489085 -0.2097793
1717000000 0.0475872 -0.2068895 0.9524128 0.2068895 0.9524128 0.2068895 0.0475872 -0.2068895
1738000000 0.0463109 -0.2040504 0.9536891 0.2040504 0.9536891 0.2040504 0.0463109 -0.2040504
1759000000 0.0450777 -0.2012606 0.9549223 0.2012606 0.9549223 0.2012606 0.0450777 -0.2012606
1780000000 0.0438859 -0.1985188 0.9561141 0.1985188 0.9561141 0.1985188 0.0438859 -0.1985188
1801000000 0.0427336 -0.1958238 0.9572664 0.1958238 0.9572664 0.1958238 0.0427336 -0.1958238
1822000000 0.0416192 -0.1931742 0.9583808 0.1931742 0.9583808 0.1931742 0.0416192 -0.1931742
1843000000 0.0405412 -0.1905689 0.9594588 0.1905689 0.9594588 0.1905689 0.0405412 -0.1905689
1864000000 0.0394981 -0.1880067 0.9605019 0.1880067 0.9605019 0.1880067 0.0394981 -0.1880067
1885000000 0.0384885 -0.1854864 0.9615115 0.1854864 0.9615115 0.1854864 0.0384885 -0.1854864
1906000000 0.0375110 -0.1830069 0.9624890 0.1830069 0.9624890 0.1830069 0.0375110 -0.1830069
1927000000 0.0365644 -0.1805672 0.9634356 0.1805672 0.9634356 0.1805672 0.0365644 -0.1805672
1948000000 0.0356474 -0.1781663 0.9643526 0.1781663 0.9643526 0.1781663 0.0356474 -0.1781663
1969000000 0.0347589 -0.1758031 0.9652411 0.1758031 0.9652411 0.1758031 0.0347589 -0.1758031
1990000000 0.0338979 -0.1734766 0.9661021 0.1734766 0.9661021 0.1734766 0.0338979 -0.1734766
2011000000 0.0330632 -0.1711859 0.9669368 0.1711859 0.9669368 0.1711859 0.0330632 -0.1711859
2032000000 0.0322539 -0.1689301 0.9677461 0.1689301 0.9677461 0.1689301 0.0322539 -0.1689301
2053000000 0.0314690 -0.1667083 0.9685310 0.1667083 0.9685310 0.1667083 0.0314690 -0.1667083
2074000000 0.0307076 -0.1645197 0.9692924 0.1645197 0.9692924 0.1645197 0.0307076 -0.1645197
2095000000 0.0299689 -0.1623633 0.9700311 0.1623633 0.9700311 0.1623633 0.0299689 -0.1623633
2116000000 0.0292520 -0.1602384 0.9707480 0.1602384 0.9707480 0.1602384 0.0292520 -0.1602384
2137000000 0.0285561 -0.1581442 0.9714439 0.1581442 0.9714439 0.1581442 0.0285561 -0.1581442
2158000000 0.0278806 -0.1560799 0.9721194 0.1560799 0.9721194 0.1560799 0.0278806 -0.1560799
2179000000 0.0272246 -0.1540448 0.9727754 0.1540448 0.9727754 0.1540448 0.0272246 -0.1540448
2200000000 0.0265875 -0.1520382 0.9734125 0.1520382 0.9734125 0.1520382 0.0265875 -0.1520382
2221000000 0.0259686 -0.1500594 0.9740314 0.1500594 0.9740314 0.1500594 0.0259686 -0.1500594
2242000000 0.0253674 -0.1481076 0.9746326 0.1481076 0.9746326 0.1481076 0.0253674 -0.1481076
2263000000 0.0247831 -0.1461823 0.9752169 0.1461823 0.9752169 0.1461823 0.0247831 -0.1461823
2284000000 0.0242153 -0.1442828 0.9757847 0.1442828 0.9757847 0.1442828 0.0242153 -0.1442828
2305000000 0.0236634 -0.1424085 0.9763366 0.1424085 0.9763366 0.1424085 0.0236634 -0.1424085
2326000000 0.0231268 -0.1405588 0.9768732 0.1405588 0.9768732 0.1405588 0.0231268 -0.1405588
2347000000 0.0226051 -0.1387330 0.9773949 0.1387330 0.9773949 0.1387330 0.0226051 -0.1387330
2368000000 0.0220977 -0.1369307 0.9779023 0.1369307 0.9779023 0.1369307 0.0220977 -0.1369307
2389000000 0.0216042 -0.1351513 0.9783958 0.1351513 0.9783958 0.1351513 0.0216042 -0.1351513
2410000000 0.0211242 -0.1333942 0.9788758 0.1333942 0.9788758 0.1333942 0.0211242 -0.1333942
2431000000 0.0206573 -0.1316589 0.9793427 0.1316589 0.9793427 0.1316589 0.0206573 -0.1316589
2452000000 0.0202029 -0.1299450 0.9797971 0.1299450 0.9797971 0.1299450 0.0202029 -0.1299450
2473000000 0.0197608 -0.1282519 0.9802392 0.1282519 0.9802392 0.1282519 0.0197608 -0.1282519
2494000000 0.0193305 -0.1265791 0.9806695 0.1265791 0.9806695 0.1265791 0.0193305 -0.1265791
2515000000 0.0189118 -0.1249262 0.9810882 0.1249262 0.9810882 0.1249262 0.0189118 -0.1249262
2536000000 0.0185041 -0.1232928 0.9814959 0.1232928 0.9814959 0.1232928 0.0185041 -0.1232928
2557000000 0.0181073 -0.1216783 0.9818927 0.1216783 0.9818927 0.1216783 0.0181073 -0.1216783
2578000000 0.0177210 -0.1200825 0.9822790 0.1200825 0.9822790 0.1200825 0.0177210 -0.1200825
2599000000 0.0173448 -0.1185048 0.9826552 0.1185048 0.9826552 0.1185048 0.0173448 -0.1185048
2620000000 0.0169785 -0.1169448 0.9830215 0.1169448 0.9830215 0.1169448 0.0169785 -0.1169448
2641000000 0.0166218 -0.1154022 0.9833782 0.1154022 0.9833782 0.1154022 0.0166218 -0.1154022
2662000000 0.0162745 -0.1138766 0.9837255 0.1138766 0.9837255 0.1138766 0.0162745 -0.1138766
2683000000 0.0159361 -0.1123675 0.9840639 0.1123675 0.9840639 0.1123675 0.0159361 -0.1123675
2704000000 0.0156066 -0.1108748 0.9843934 0.1108748 0.9843934 0.1108748 0.0156066 -0.1108748
2725000000 0.0152857 -0.1093979 0.9847143 0.1093979 0.9847143 0.1093979 0.0152857 -0.1093979
2746000000 0.0149730 -0.1079365 0.9850270 0.1079365 0.9850270 0.1079365 0.0149730 -0.1079365
2767000000 0.0146685 -0.1064904 0.9853315 0.1064904 0.9853315 0.1064904 0.0146685 -0.1064904
2788000000 0.0143718 -0.1050591 0.9856282 0.1050591 0.9856282 0.1050591 0.0143718 -0.1050591
2809000000 0.0140827 -0.1036425 0.9859173 0.1036425 0.9859173 0.1036425 0.0140827 -0.1036425
2830000000 0.0138012 -0.1022400 0.9861988 0.1022400 0.9861988 0.1022400 0.0138012 -0.1022400
2851000000 0.0135268 -0.1008516 0.9864732 0.1008516 0.9864732 0.1008516 0.0135268 -0.1008516
2872000000 0.0132596 -0.0994768 0.9867404 0.0994768 0.9867404 0.0994768 0.0132596 -0.0994768
2893000000 0.0129992 -0.0981153 0.9870008 0.0981153 0.9870008 0.0981153 0.0129992 -0.0981153
2914000000 0.0127455 -0.0967670 0.9872545 0.0967670 0.9872545 0.0967670 0.0127455 -0.0967670
2935000000 0.0124984 -0.0954315 0.9875016 0.0954315 0.9875016 0.0954315 0.0124984 -0.0954315
2956000000 0.0122577 -0.0941085 0.9877423 0.0941085 0.9877423 0.0941085 0.0122577 -0.0941085
2977000000 0.0120231 -0.0927979 0.9879769 0.0927979 0.9879769 0.0927979 0.0120231 -0.0927979
2998000000 0.0117947 -0.0914993 0.9882053 0.0914993 0.9882053 0.0914993 0.0117947 -0.0914993
3019000000 0.0115721 -0.0902125 0.9884279 0.0902125 0.9884279 0.0902125 0.0115721 -0.0902125
3040000000 0.0113553 -0.0889372 0.9886447 0.0889372 0.9886447 0.0889372 0.0113553 -0.0889372
3061000000 0.0111441 -0.0876733 0.9888559 0.0876733 0.9888559 0.0876733 0.0111441 -0.0876733
3082000000 0.0109385 -0.0864204 0.9890615 0.0864204 0.9890615 0.0864204 0.0109385 -0.0864204
3103000000 0.0107382 -0.0851785 0.9892618 0.0851785 0.9892618 0.0851785 0.0107382 -0.0851785
3124000000 0.0105431 -0.0839472 0.9894569 0.0839472 0.9894569 0.0839472 0.0105431 -0.0839472
3145000000 0.0103532 -0.0827263 0.9896468 0.0827263 0.9896468 0.0827263 0.0103532 -0.0827263
3166000000 0.0101683 -0.0815157 0.9898317 0.0815157 0.9898317 0.0815157 0.0101683 -0.0815157
3187000000 0.0099883 -0.0803150 0.9900117 0.0803150 0.9900117 0.0803150 0.0099883 -0.0803150
3208000000 0.0098130 -0.0791242 0.9901870 0.0791242 0.9901870 0.0791242 0.0098130 -0.0791242
3229000000 0.0096425 -0.0779431 0.9903575 0.0779431 0.9903575 0.0779431 0.0096425 -0.0779431
3250000000 0.0094765 -0.0767714 0.9905235 0.0767714 0.9905235 0.0767714 0.0094765 -0.0767714
3271000000 0.0093150 -0.0756089 0.9906850 0.0756089 0.9906850 0.0756089 0.0093150 -0.0756089
3292000000 0.0091579 -0.0744555 0.9908421 0.0744555 0.9908421 0.0744555 0.0091579 -0.0744555
3313000000 0.0090050 -0.0733110 0.9909950 0.0733110 0.9909950 0.0733110 0.0090050 -0.0733110
3334000000 0.0088564 -0.0721752 0.9911436 0.0721752 0.9911436 0.0721752 0.0088564 -0.0721752
3355000000 0.0087119 -0.0710480 0.9912881 0.0710480 0.9912881 0.0710480 0.0087119 -0.0710480
3376000000 0.0085714 -0.0699292 0.9914286 0.0699292 0.9914286 0.0699292 0.0085714 -0.0699292
3397000000 0.0084349 -0.0688186 0.9915651 0.0688186 0.9915651 0.0688186 0.0084349 -0.0688186
3418000000 0.0083022 -0.0677160 0.9916978 0.0677160 0.9916978 0.0677160 0.0083022 -0.0677160
3439000000 0.0081734 -0.0666214 0.9918266 0.0666214 0.9918266 0.0666214 0.0081734 -0.0666214
3460000000 0.0080482 -0.0655345 0.9919518 0.0655345 0.9919518 0.0655345 0.0080482 -0.0655345
3481000000 0.0079267 -0.0644553 0.9920733 0.0644553 0.9920733 0.0644553 0.0079267 -0.0644553
3502000000 0.0078088 -0.0633834 0.9921912 0.0633834 0.9921912 0.0633834 0.0078088 -0.0633834
3523000000 0.0076944 -0.0623189 0.9923056 0.0623189 0.9923056 0.0623189 0.0076944 -0.0623189
3544000000 0.0075834 -0.0612616 0.9924166 0.0612616 0.9924166 0.0612616 0.0075834 -0.0612616
3565000000 0.0074759 -0.0602114 0.9925241 0.0602114 0.9925241 0.0602114 0.0074759 -0.0602114
3586000000 0.0073716 -0.0591680 0.9926284 0.0591680 0.9926284 0.0591680 0.0073716 -0.0591680
3607000000 0.0072706 -0.0581314 0.9927294 0.0581314 0.9927294 0.0581314 0.0072706 -0.0581314
3628000000 0.0071729 -0.0571014 0.9928271 0.0571014 0.9928271 0.0571014 0.0071729 -0.0571014
3649000000 0.0070782 -0.0560780 0.9929218 0.0560780 0.9929218 0.0560780 0.0070782 -0.0560780
3670000000 0.0069867 -0.0550610 0.9930133 0.0550610 0.9930133 0.0550610 0.0069867 -0.0550610
3691000000 0.0068982 -0.0540502 0.9931018 0.0540502 0.9931018 0.0540502 0.0068982 -0.0540502
3712000000 0.0068127 -0.0530456 0.9931873 0.0530456 0.9931873 0.0530456 0.0068127 -0.0530456
3733000000 0.0067302 -0.0520471 0.9932698 0.0520471 0.9932698 0.0520471 0.0067302 -0.0520471
3754000000 0.0066506 -0.0510544 0.9933494 0.0510544 0.9933494 0.0510544 0.0066506 -0.0510544
3775000000 0.0065738 -0.0500676 0.9934262 0.0500676 0.9934262 0.0500676 0.0065738 -0.0500676
3796000000 0.0064998 -0.0490865 0.9935002 0.0490865 0.9935002 0.0490865 0.0064998 -0.0490865
3817000000 0.0064286 -0.0481109 0.9935714 0.0481109 0.9935714 0.0481109 0.0064286 -0.0481109
3838000000 0.0063601 -0.0471409 0.9936399 0.0471409 0.9936399 0.0471409 0.0063601 -0.0471409
3859000000 0.0062942 -0.0461762 0.9937058 0.0461762 0.9937058 0.0461762 0.0062942 -0.0461762
3880000000 0.0062310 -0.0452168 0.9937690 0.0452168 0.9937690 0.0452168 0.0062310 -0.0452168
3901000000 0.0061705 -0.0442626 0.9938295 0.0442626 0.9938295 0.0442626 0.0061705 -0.0442626
3922000000 0.0061125 -0.0433135 0.9938875 0.0433135 0.9938875 0.0433135 0.0061125 -0.0433135
3943000000 0.0060570 -0.0423694 0.9939430 0.0423694 0.9939430 0.0423694 0.0060570 -0.0423694
3964000000 0.0060040 -0.0414301 0.9939960 0.0414301 0.9939960 0.0414301 0.0060040 -0.0414301
3985000000 0.0059534 -0.0404957 0.9940466 0.0404957 0.9940466 0.0404957 0.0059534 -0.0404957
4006000000 0.0059053 -0.0395659 0.9940947 0.0395659 0.9940947 0.0395659 0.0059053 -0.0395659
4027000000 0.0058596 -0.0386408 0.9941404 0.0386408 0.9941404 0.0386408 0.0058596 -0.0386408
4048000000 0.0058163 -0.0377202 0.9941837 0.0377202 0.9941837 0.0377202 0.0058163 -0.0377202
4069000000 0.0057753 -0.0368040 0.9942247 0.0368040 0.9942247 0.0368040 0.0057753 -0.0368040
4090000000 0.0057366 -0.0358922 0.9942634 0.0358922 0.9942634 0.0358922 0.0057366 -0.0358922
4111000000 0.0057001 -0.0349847 0.9942999 0.0349847 0.9942999 0.0349847 0.0057001 -0.0349847
4132000000 0.0056659 -0.0340814 0.9943341 0.0340814 0.9943341 0.0340814 0.0056659 -0.0340814
4153000000 0.0056340 -0.0331821 0.9943660 0.0331821 0.9943660 0.0331821 0.0056340 -0.0331821
4174000000 0.0056042 -0.0322869 0.9943958 0.0322869 0.9943958 0.0322869 0.0056042 -0.0322869
4195000000 0.0055766 -0.0313956 0.9944234 0.0313956 0.9944234 0.0313956 0.0055766 -0.0313956
4216000000 0.0055512 -0.0305082 0.9944488 0.0305082 0.9944488 0.0305082 0.0055512 -0.0305082
4237000000 0.0055278 -0.0296246 0.9944722 0.0296246 0.9944722 0.0296246 0.0055278 -0.0296246
4258000000 0.0055066 -0.0287448 0.9944934 0.0287448 0.9944934 0.0287448 0.0055066 -0.0287448
4279000000 0.0054875 -0.0278685 0.9945125 0.0278685 0.9945125 0.0278685 0.0054875 -0.0278685
4300000000 0.0054704 -0.0269959 0.9945296 0.0269959 0.9945296 0.0269959 0.0054704 -0.0269959
4321000000 0.0054554 -0.0261267 0.9945446 0.0261267 0.9945446 0.0261267 0.0054554 -0.0261267
4342000000 0.0054423 -0.0252610 0.9945577 0.0252610 0.9945577 0.0252610 0.0054423 -0.0252610
4363000000 0.0054313 -0.0243986 0.9945687 0.0243986 0.9945687 0.0243986 0.0054313 -0.0243986
4384000000 0.0054222 -0.0235395 0.9945778 0.0235395 0.9945778 0.0235395 0.0054222 -0.0235395
4405000000 0.0054151 -0.0226837 0.9945849 0.0226837 0.9945849 0.0226837 0.0054151 -0.0226837
4426000000 0.0054100 -0.0218310 0.9945900 0.0218310 0.9945900 0.0218310 0.0054100 -0.0218310
4447000000 0.0054068 -0.0209814 0.9945932 0.0209814 0.9945932 0.0209814 0.0054068 -0.0209814
4468000000 0.0054055 -0.0201348 0.9945945 0.0201348 0.9945945 0.0201348 0.0054055 -0.0201348
4489000000 0.0054060 -0.0192912 0.9945940 0.0192912 0.9945940 0.0192912 0.0054060 -0.0192912
4510000000 0.0054085 -0.0184505 0.9945915 0.0184505 0.9945915 0.0184505 0.0054085 -0.0184505
