!Murata Part Number: GRM0333C1H3R1WA01
!These Parameters are Measured in Series Mode Connection
!Data Generated on Mar 30, 2021
!       o--ll--o
!Port1            Port2
!       o------o
!Operation Temp=25[degC], DC Bias Voltage=0[V]
!Freq. Start=100[MHz] Stop=9[GHz] 401[Steps]
# Hz S RI R 50
!Freq.(Hz) S11(Real) S11(Imag) S21(Real) S21(Imag) S12(Real) S12(Imag) S22(Real) S22(Imag)
100000000 0.9633389 -0.1876840 0.0366611 0.1876840 0.0366611 0.1876840 0.9633389 -0.1876840
121000000 0.9472087 -0.2233206 0.0527913 0.2233206 0.0527913 0.2233206 0.9472087 -0.2233206
142000000 0.9286923 -0.2569903 0.0713077 0.2569903 0.0713077 0.2569903 0.9286923 -0.2569903
163000000 0.9080912 -0.2884973 0.0919088 0.2884973 0.0919088 0.2884973 0.9080912 -0.2884973
184000000 0.8857197 -0.3176993 0.1142803 0.3176993 0.1142803 0.3176993 0.8857197 -0.3176993
205000000 0.8618946 -0.3445060 0.1381054 0.3445060 0.1381054 0.3445060 0.8618946 -0.3445060
226000000 0.8369259 -0.3688758 0.1630741 0.3688758 0.1630741 0.3688758 0.8369259 -0.3688758
247000000 0.8111099 -0.3908106 0.1888901 0.3908106 0.1888901 0.3908106 0.8111099 -0.3908106
268000000 0.7847226 -0.4103504 0.2152774 0.4103504 0.2152774 0.4103504 0.7847226 -0.4103504
289000000 0.7580163 -0.4275663 0.2419837 0.4275663 0.2419837 0.4275663 0.7580163 -0.4275663
310000000 0.7312163 -0.4425546 0.2687837 0.4425546 0.2687837 0.4425546 0.7312163 -0.4425546
331000000 0.7045206 -0.4554306 0.2954794 0.4554306 0.2954794 0.4554306 0.7045206 -0.4554306
352000000 0.6780992 -0.4663225 0.3219008 0.4663225 0.3219008 0.4663225 0.6780992 -0.4663225
373000000 0.6520952 -0.4753671 0.3479048 0.4753671 0.3479048 0.4753671 0.6520952 -0.4753671
394000000 0.6266266 -0.4827051 0.3733734 0.4827051 0.3733734 0.4827051 0.6266266 -0.4827051
415000000 0.6017881 -0.4884777 0.3982119 0.4884777 0.3982119 0.4884777 0.6017881 -0.4884777
436000000 0.5776534 -0.4928238 0.4223466 0.4928238 0.4223466 0.4928238 0.5776534 -0.4928238
457000000 0.5542776 -0.4958777 0.4457224 0.4958777 0.4457224 0.4958777 0.5542776 -0.4958777
478000000 0.5316995 -0.4977677 0.4683005 0.4977677 0.4683005 0.4977677 0.5316995 -0.4977677
499000000 0.5099440 -0.4986152 0.4900560 0.4986152 0.4900560 0.4986152 0.5099440 -0.4986152
520000000 0.4890242 -0.4985334 0.5109758 0.4985334 0.5109758 0.4985334 0.4890242 -0.4985334
541000000 0.4689434 -0.4976274 0.5310566 0.4976274 0.5310566 0.4976274 0.4689434 -0.4976274
562000000 0.4496966 -0.4959943 0.5503034 0.4959943 0.5503034 0.4959943 0.4496966 -0.4959943
583000000 0.4312725 -0.4937226 0.5687275 0.4937226 0.5687275 0.4937226 0.4312725 -0.4937226
604000000 0.4136545 -0.4908933 0.5863455 0.4908933 0.5863455 0.4908933 0.4136545 -0.4908933
625000000 0.3968220 -0.4875796 0.6031780 0.4875796 0.6031780 0.4875796 0.3968220 -0.4875796
646000000 0.3807514 -0.4838476 0.6192486 0.4838476 0.6192486 0.4838476 0.3807514 -0.4838476
667000000 0.3654169 -0.4797570 0.6345831 0.4797570 0.6345831 0.4797570 0.3654169 -0.4797570
688000000 0.3507913 -0.4753610 0.6492087 0.4753610 0.6492087 0.4753610 0.3507913 -0.4753610
709000000 0.3368463 -0.4707073 0.6631537 0.4707073 0.6631537 0.4707073 0.3368463 -0.4707073
730000000 0.3235535 -0.4658385 0.6764465 0.4658385 0.6764465 0.4658385 0.3235535 -0.4658385
751000000 0.3108841 -0.4607924 0.6891159 0.4607924 0.6891159 0.4607924 0.3108841 -0.4607924
772000000 0.2988098 -0.4556024 0.7011902 0.4556024 0.7011902 0.4556024 0.2988098 -0.4556024
793000000 0.2873026 -0.4502983 0.7126974 0.4502983 0.7126974 0.4502983 0.2873026 -0.4502983
814000000 0.2763353 -0.4449061 0.7236647 0.4449061 0.7236647 0.4449061 0.2763353 -0.4449061
835000000 0.2658815 -0.4394490 0.7341185 0.4394490 0.7341185 0.4394490 0.2658815 -0.4394490
856000000 0.2559156 -0.4339471 0.7440844 0.4339471 0.7440844 0.4339471 0.2559156 -0.4339471
877000000 0.2464131 -0.4284182 0.7535869 0.4284182 0.7535869 0.4284182 0.2464131 -0.4284182
898000000 0.2373503 -0.4228778 0.7626497 0.4228778 0.7626497 0.4228778 0.2373503 -0.4228778
919000000 0.2287049 -0.4173394 0.7712951 0.4173394 0.7712951 0.4173394 0.2287049 -0.4173394
940000000 0.2204552 -0.4118146 0.7795448 0.4118146 0.7795448 0.4118146 0.2204552 -0.4118146
961000000 0.2125808 -0.4063137 0.7874192 0.4063137 0.7874192 0.4063137 0.2125808 -0.4063137
982000000 0.2050623 -0.4008453 0.7949377 0.4008453 0.7949377 0.4008453 0.2050623 -0.4008453
1003000000 0.1978812 -0.3954169 0.8021188 0.3954169 0.8021188 0.3954169 0.1978812 -0.3954169
1024000000 0.1910199 -0.3900350 0.8089801 0.3900350 0.8089801 0.3900350 0.1910199 -0.3900350
1045000000 0.1844620 -0.3847050 0.8155380 0.3847050 0.8155380 0.3847050 0.1844620 -0.3847050
1066000000 0.1781916 -0.3794314 0.8218084 0.3794314 0.8218084 0.3794314 0.1781916 -0.3794314
1087000000 0.1721941 -0.3742180 0.8278059 0.3742180 0.8278059 0.3742180 0.1721941 -0.3742180
1108000000 0.1664553 -0.3690681 0.8335447 0.3690681 0.8335447 0.3690681 0.1664553 -0.3690681
1129000000 0.1609620 -0.3639841 0.8390380 0.3639841 0.8390380 0.3639841 0.1609620 -0.3639841
1150000000 0.1557017 -0.3589680 0.8442983 0.3589680 0.8442983 0.3589680 0.1557017 -0.3589680
1171000000 0.1506625 -0.3540216 0.8493375 0.3540216 0.8493375 0.3540216 0.1506625 -0.3540216
1192000000 0.1458334 -0.3491458 0.8541666 0.3491458 0.8541666 0.3491458 0.1458334 -0.3491458
1213000000 0.1412037 -0.3443417 0.8587963 0.3443417 0.8587963 0.3443417 0.1412037 -0.3443417
1234000000 0.1367636 -0.3396096 0.8632364 0.3396096 0.8632364 0.3396096 0.1367636 -0.3396096
1255000000 0.1325035 -0.3349499 0.8674965 0.3349499 0.8674965 0.3349499 0.1325035 -0.3349499
1276000000 0.1284147 -0.3303627 0.8715853 0.3303627 0.8715853 0.3303627 0.1284147 -0.3303627
1297000000 0.1244889 -0.3258477 0.8755111 0.3258477 0.8755111 0.3258477 0.1244889 -0.3258477
1318000000 0.1207179 -0.3214046 0.8792821 0.3214046 0.8792821 0.3214046 0.1207179 -0.3214046
1339000000 0.1170946 -0.3170329 0.8829054 0.3170329 0.8829054 0.3170329 0.1170946 -0.3170329
1360000000 0.1136116 -0.3127321 0.8863884 0.3127321 0.8863884 0.3127321 0.1136116 -0.3127321
1381000000 0.1102625 -0.3085014 0.8897375 0.3085014 0.8897375 0.3085014 0.1102625 -0.3085014
1402000000 0.1070408 -0.3043399 0.8929592 0.3043399 0.8929592 0.3043399 0.1070408 -0.3043399
1423000000 0.1039407 -0.3002469 0.8960593 0.3002469 0.8960593 0.3002469 0.1039407 -0.3002469
1444000000 0.1009565 -0.2962213 0.8990435 0.2962213 0.8990435 0.2962213 0.1009565 -0.2962213
1465000000 0.0980828 -0.2922621 0.9019172 0.2922621 0.9019172 0.2922621 0.0980828 -0.2922621
1486000000 0.0953147 -0.2883684 0.9046853 0.2883684 0.9046853 0.2883684 0.0953147 -0.2883684
1507000000 0.0926473 -0.2845389 0.9073527 0.2845389 0.9073527 0.2845389 0.0926473 -0.2845389
1528000000 0.0900761 -0.2807727 0.9099239 0.2807727 0.9099239 0.2807727 0.0900761 -0.2807727
1549000000 0.0875968 -0.2770685 0.9124032 0.2770685 0.9124032 0.2770685 0.0875968 -0.2770685
1570000000 0.0852055 -0.2734253 0.9147945 0.2734253 0.9147945 0.2734253 0.0852055 -0.2734253
1591000000 0.0828981 -0.2698418 0.9171019 0.2698418 0.9171019 0.2698418 0.0828981 -0.2698418
1612000000 0.0806712 -0.2663170 0.9193288 0.2663170 0.9193288 0.2663170 0.0806712 -0.2663170
1633000000 0.0785211 -0.2628496 0.9214789 0.2628496 0.9214789 0.2628496 0.0785211 -0.2628496
1654000000 0.0764447 -0.2594386 0.9235553 0.2594386 0.9235553 0.2594386 0.0764447 -0.2594386
1675000000 0.0744388 -0.2560827 0.9255612 0.2560827 0.9255612 0.2560827 0.0744388 -0.2560827
1696000000 0.0725004 -0.2527809 0.9274996 0.2527809 0.9274996 0.2527809 0.0725004 -0.2527809
1717000000 0.0706268 -0.2495319 0.9293732 0.2495319 0.9293732 0.2495319 0.0706268 -0.2495319
1738000000 0.0688153 -0.2463348 0.9311847 0.2463348 0.9311847 0.2463348 0.0688153 -0.2463348
1759000000 0.0670632 -0.2431883 0.9329368 0.2431883 0.9329368 0.2431883 0.0670632 -0.2431883
1780000000 0.0653683 -0.2400915 0.9346317 0.2400915 0.9346317 0.2400915 0.0653683 -0.2400915
1801000000 0.0637281 -0.2370432 0.9362719 0.2370432 0.9362719 0.2370432 0.0637281 -0.2370432
1822000000 0.0621406 -0.2340424 0.9378594 0.2340424 0.9378594 0.2340424 0.0621406 -0.2340424
1843000000 0.0606036 -0.2310880 0.9393964 0.2310880 0.9393964 0.2310880 0.0606036 -0.2310880
1864000000 0.0591152 -0.2281791 0.9408848 0.2281791 0.9408848 0.2281791 0.0591152 -0.2281791
1885000000 0.0576733 -0.2253146 0.9423267 0.2253146 0.9423267 0.2253146 0.0576733 -0.2253146
1906000000 0.0562764 -0.2224936 0.9437236 0.2224936 0.9437236 0.2224936 0.0562764 -0.2224936
1927000000 0.0549225 -0.2197151 0.9450775 0.2197151 0.9450775 0.2197151 0.0549225 -0.2197151
1948000000 0.0536102 -0.2169782 0.9463898 0.2169782 0.9463898 0.2169782 0.0536102 -0.2169782
1969000000 0.0523377 -0.2142820 0.9476623 0.2142820 0.9476623 0.2142820 0.0523377 -0.2142820
1990000000 0.0511037 -0.2116255 0.9488963 0.2116255 0.9488963 0.2116255 0.0511037 -0.2116255
2011000000 0.0499067 -0.2090080 0.9500933 0.2090080 0.9500933 0.2090080 0.0499067 -0.2090080
2032000000 0.0487454 -0.2064285 0.9512546 0.2064285 0.9512546 0.2064285 0.0487454 -0.2064285
2053000000 0.0476183 -0.2038862 0.9523817 0.2038862 0.9523817 0.2038862 0.0476183 -0.2038862
2074000000 0.0465244 -0.2013803 0.9534756 0.2013803 0.9534756 0.2013803 0.0465244 -0.2013803
2095000000 0.0454623 -0.1989099 0.9545377 0.1989099 0.9545377 0.1989099 0.0454623 -0.1989099
2116000000 0.0444311 -0.1964744 0.9555689 0.1964744 0.9555689 0.1964744 0.0444311 -0.1964744
2137000000 0.0434294 -0.1940730 0.9565706 0.1940730 0.9565706 0.1940730 0.0434294 -0.1940730
2158000000 0.0424565 -0.1917048 0.9575435 0.1917048 0.9575435 0.1917048 0.0424565 -0.1917048
2179000000 0.0415111 -0.1893693 0.9584889 0.1893693 0.9584889 0.1893693 0.0415111 -0.1893693
2200000000 0.0405925 -0.1870656 0.9594075 0.1870656 0.9594075 0.1870656 0.0405925 -0.1870656
2221000000 0.0396996 -0.1847931 0.9603004 0.1847931 0.9603004 0.1847931 0.0396996 -0.1847931
2242000000 0.0388316 -0.1825511 0.9611684 0.1825511 0.9611684 0.1825511 0.0388316 -0.1825511
2263000000 0.0379876 -0.1803390 0.9620124 0.1803390 0.9620124 0.1803390 0.0379876 -0.1803390
2284000000 0.0371669 -0.1781561 0.9628331 0.1781561 0.9628331 0.1781561 0.0371669 -0.1781561
2305000000 0.0363687 -0.1760018 0.9636313 0.1760018 0.9636313 0.1760018 0.0363687 -0.1760018
2326000000 0.0355922 -0.1738755 0.9644078 0.1738755 0.9644078 0.1738755 0.0355922 -0.1738755
2347000000 0.0348367 -0.1717766 0.9651633 0.1717766 0.9651633 0.1717766 0.0348367 -0.1717766
2368000000 0.0341015 -0.1697045 0.9658985 0.1697045 0.9658985 0.1697045 0.0341015 -0.1697045
2389000000 0.0333860 -0.1676586 0.9666140 0.1676586 0.9666140 0.1676586 0.0333860 -0.1676586
2410000000 0.0326896 -0.1656384 0.9673104 0.1656384 0.9673104 0.1656384 0.0326896 -0.1656384
2431000000 0.0320116 -0.1636434 0.9679884 0.1636434 0.9679884 0.1636434 0.0320116 -0.1636434
2452000000 0.0313514 -0.1616731 0.9686486 0.1616731 0.9686486 0.1616731 0.0313514 -0.1616731
2473000000 0.0307086 -0.1597268 0.9692914 0.1597268 0.9692914 0.1597268 0.0307086 -0.1597268
2494000000 0.0300825 -0.1578042 0.9699175 0.1578042 0.9699175 0.1578042 0.0300825 -0.1578042
2515000000 0.0294727 -0.1559048 0.9705273 0.1559048 0.9705273 0.1559048 0.0294727 -0.1559048
2536000000 0.0288786 -0.1540280 0.9711214 0.1540280 0.9711214 0.1540280 0.0288786 -0.1540280
2557000000 0.0282998 -0.1521734 0.9717002 0.1521734 0.9717002 0.1521734 0.0282998 -0.1521734
2578000000 0.0277358 -0.1503405 0.9722642 0.1503405 0.9722642 0.1503405 0.0277358 -0.1503405
2599000000 0.0271861 -0.1485290 0.9728139 0.1485290 0.9728139 0.1485290 0.0271861 -0.1485290
2620000000 0.0266504 -0.1467383 0.9733496 0.1467383 0.9733496 0.1467383 0.0266504 -0.1467383
2641000000 0.0261283 -0.1449681 0.9738717 0.1449681 0.9738717 0.1449681 0.0261283 -0.1449681
2662000000 0.0256192 -0.1432180 0.9743808 0.1432180 0.9743808 0.1432180 0.0256192 -0.1432180
2683000000 0.0251229 -0.1414875 0.9748771 0.1414875 0.9748771 0.1414875 0.0251229 -0.1414875
2704000000 0.0246390 -0.1397763 0.9753610 0.1397763 0.9753610 0.1397763 0.0246390 -0.1397763
2725000000 0.0241671 -0.1380840 0.9758329 0.1380840 0.9758329 0.1380840 0.0241671 -0.1380840
2746000000 0.0237069 -0.1364102 0.9762931 0.1364102 0.9762931 0.1364102 0.0237069 -0.1364102
2767000000 0.0232580 -0.1347546 0.9767420 0.1347546 0.9767420 0.1347546 0.0232580 -0.1347546
2788000000 0.0228202 -0.1331167 0.9771798 0.1331167 0.9771798 0.1331167 0.0228202 -0.1331167
2809000000 0.0223930 -0.1314963 0.9776070 0.1314963 0.9776070 0.1314963 0.0223930 -0.1314963
2830000000 0.0219764 -0.1298931 0.9780236 0.1298931 0.9780236 0.1298931 0.0219764 -0.1298931
2851000000 0.0215698 -0.1283066 0.9784302 0.1283066 0.9784302 0.1283066 0.0215698 -0.1283066
2872000000 0.0211731 -0.1267366 0.9788269 0.1267366 0.9788269 0.1267366 0.0211731 -0.1267366
2893000000 0.0207860 -0.1251827 0.9792140 0.1251827 0.9792140 0.1251827 0.0207860 -0.1251827
2914000000 0.0204083 -0.1236448 0.9795917 0.1236448 0.9795917 0.1236448 0.0204083 -0.1236448
2935000000 0.0200396 -0.1221223 0.9799604 0.1221223 0.9799604 0.1221223 0.0200396 -0.1221223
2956000000 0.0196798 -0.1206152 0.9803202 0.1206152 0.9803202 0.1206152 0.0196798 -0.1206152
2977000000 0.0193286 -0.1191230 0.9806714 0.1191230 0.9806714 0.1191230 0.0193286 -0.1191230
2998000000 0.0189858 -0.1176455 0.9810142 0.1176455 0.9810142 0.1176455 0.0189858 -0.1176455
3019000000 0.0186512 -0.1161824 0.9813488 0.1161824 0.9813488 0.1161824 0.0186512 -0.1161824
3040000000 0.0183245 -0.1147335 0.9816755 0.1147335 0.9816755 0.1147335 0.0183245 -0.1147335
3061000000 0.0180056 -0.1132985 0.9819944 0.1132985 0.9819944 0.1132985 0.0180056 -0.1132985
3082000000 0.0176943 -0.1118771 0.9823057 0.1118771 0.9823057 0.1118771 0.0176943 -0.1118771
3103000000 0.0173903 -0.1104692 0.9826097 0.1104692 0.9826097 0.1104692 0.0173903 -0.1104692
3124000000 0.0170935 -0.1090744 0.9829065 0.1090744 0.9829065 0.1090744 0.0170935 -0.1090744
3145000000 0.0168037 -0.1076925 0.9831963 0.1076925 0.9831963 0.1076925 0.0168037 -0.1076925
3166000000 0.0165207 -0.1063233 0.9834793 0.1063233 0.9834793 0.1063233 0.0165207 -0.1063233
3187000000 0.0162444 -0.1049666 0.9837556 0.1049666 0.9837556 0.1049666 0.0162444 -0.1049666
3208000000 0.0159746 -0.1036221 0.9840254 0.1036221 0.9840254 0.1036221 0.0159746 -0.1036221
3229000000 0.0157112 -0.1022896 0.9842888 0.1022896 0.9842888 0.1022896 0.0157112 -0.1022896
3250000000 0.0154539 -0.1009690 0.9845461 0.1009690 0.9845461 0.1009690 0.0154539 -0.1009690
3271000000 0.0152027 -0.0996599 0.9847973 0.0996599 0.9847973 0.0996599 0.0152027 -0.0996599
3292000000 0.0149574 -0.0983623 0.9850426 0.0983623 0.9850426 0.0983623 0.0149574 -0.0983623
3313000000 0.0147179 -0.0970758 0.9852821 0.0970758 0.9852821 0.0970758 0.0147179 -0.0970758
3334000000 0.0144840 -0.0958004 0.9855160 0.0958004 0.9855160 0.0958004 0.0144840 -0.0958004
3355000000 0.0142555 -0.0945358 0.9857445 0.0945358 0.9857445 0.0945358 0.0142555 -0.0945358
3376000000 0.0140325 -0.0932818 0.9859675 0.0932818 0.9859675 0.0932818 0.0140325 -0.0932818
3397000000 0.0138147 -0.0920382 0.9861853 0.0920382 0.9861853 0.0920382 0.0138147 -0.0920382
3418000000 0.0136020 -0.0908050 0.9863980 0.0908050 0.9863980 0.0908050 0.0136020 -0.0908050
3439000000 0.0133944 -0.0895818 0.9866056 0.0895818 0.9866056 0.0895818 0.0133944 -0.0895818
3460000000 0.0131916 -0.0883686 0.9868084 0.0883686 0.9868084 0.0883686 0.0131916 -0.0883686
3481000000 0.0129937 -0.0871651 0.9870063 0.0871651 0.9870063 0.0871651 0.0129937 -0.0871651
3502000000 0.0128004 -0.0859713 0.9871996 0.0859713 0.9871996 0.0859713 0.0128004 -0.0859713
3523000000 0.0126117 -0.0847868 0.9873883 0.0847868 0.9873883 0.0847868 0.0126117 -0.0847868
3544000000 0.0124275 -0.0836117 0.9875725 0.0836117 0.9875725 0.0836117 0.0124275 -0.0836117
3565000000 0.0122477 -0.0824457 0.9877523 0.0824457 0.9877523 0.0824457 0.0122477 -0.0824457
3586000000 0.0120722 -0.0812886 0.9879278 0.0812886 0.9879278 0.0812886 0.0120722 -0.0812886
3607000000 0.0119009 -0.0801404 0.9880991 0.0801404 0.9880991 0.0801404 0.0119009 -0.0801404
3628000000 0.0117337 -0.0790009 0.9882663 0.0790009 0.9882663 0.0790009 0.0117337 -0.0790009
3649000000 0.0115706 -0.0778699 0.9884294 0.0778699 0.9884294 0.0778699 0.0115706 -0.0778699
3670000000 0.0114114 -0.0767474 0.9885886 0.0767474 0.9885886 0.0767474 0.0114114 -0.0767474
3691000000 0.0112560 -0.0756331 0.9887440 0.0756331 0.9887440 0.0756331 0.0112560 -0.0756331
3712000000 0.0111045 -0.0745269 0.9888955 0.0745269 0.9888955 0.0745269 0.0111045 -0.0745269
3733000000 0.0109566 -0.0734288 0.9890434 0.0734288 0.9890434 0.0734288 0.0109566 -0.0734288
3754000000 0.0108124 -0.0723385 0.9891876 0.0723385 0.9891876 0.0723385 0.0108124 -0.0723385
3775000000 0.0106718 -0.0712560 0.9893282 0.0712560 0.9893282 0.0712560 0.0106718 -0.0712560
3796000000 0.0105346 -0.0701812 0.9894654 0.0701812 0.9894654 0.0701812 0.0105346 -0.0701812
3817000000 0.0104009 -0.0691138 0.9895991 0.0691138 0.9895991 0.0691138 0.0104009 -0.0691138
3838000000 0.0102705 -0.0680538 0.9897295 0.0680538 0.9897295 0.0680538 0.0102705 -0.0680538
3859000000 0.0101435 -0.0670011 0.9898565 0.0670011 0.9898565 0.0670011 0.0101435 -0.0670011
3880000000 0.0100196 -0.0659556 0.9899804 0.0659556 0.9899804 0.0659556 0.0100196 -0.0659556
3901000000 0.0098989 -0.0649172 0.9901011 0.0649172 0.9901011 0.0649172 0.0098989 -0.0649172
3922000000 0.0097814 -0.0638857 0.9902186 0.0638857 0.9902186 0.0638857 0.0097814 -0.0638857
3943000000 0.0096669 -0.0628610 0.9903331 0.0628610 0.9903331 0.0628610 0.0096669 -0.0628610
3964000000 0.0095553 -0.0618430 0.9904447 0.0618430 0.9904447 0.0618430 0.0095553 -0.0618430
3985000000 0.0094468 -0.0608317 0.9905532 0.0608317 0.9905532 0.0608317 0.0094468 -0.0608317
4006000000 0.0093411 -0.0598269 0.9906589 0.0598269 0.9906589 0.0598269 0.0093411 -0.0598269
4027000000 0.0092382 -0.0588286 0.9907618 0.0588286 0.9907618 0.0588286 0.0092382 -0.0588286
4048000000 0.0091381 -0.0578366 0.9908619 0.0578366 0.9908619 0.0578366 0.0091381 -0.0578366
4069000000 0.0090408 -0.0568508 0.9909592 0.0568508 0.9909592 0.0568508 0.0090408 -0.0568508
4090000000 0.0089462 -0.0558712 0.9910538 0.0558712 0.9910538 0.0558712 0.0089462 -0.0558712
4111000000 0.0088541 -0.0548976 0.9911459 0.0548976 0.9911459 0.0548976 0.0088541 -0.0548976
4132000000 0.0087647 -0.0539300 0.9912353 0.0539300 0.9912353 0.0539300 0.0087647 -0.0539300
4153000000 0.0086779 -0.0529682 0.9913221 0.0529682 0.9913221 0.0529682 0.0086779 -0.0529682
4174000000 0.0085935 -0.0520123 0.9914065 0.0520123 0.9914065 0.0520123 0.0085935 -0.0520123
4195000000 0.0085116 -0.0510621 0.9914884 0.0510621 0.9914884 0.0510621 0.0085116 -0.0510621
4216000000 0.0084321 -0.0501174 0.9915679 0.0501174 0.9915679 0.0501174 0.0084321 -0.0501174
4237000000 0.0083550 -0.0491783 0.9916450 0.0491783 0.9916450 0.0491783 0.0083550 -0.0491783
4258000000 0.0082803 -0.0482447 0.9917197 0.0482447 0.9917197 0.0482447 0.0082803 -0.0482447
4279000000 0.0082079 -0.0473164 0.9917921 0.0473164 0.9917921 0.0473164 0.0082079 -0.0473164
4300000000 0.0081377 -0.0463935 0.9918623 0.0463935 0.9918623 0.0463935 0.0081377 -0.0463935
4321000000 0.0080698 -0.0454757 0.9919302 0.0454757 0.9919302 0.0454757 0.0080698 -0.0454757
4342000000 0.0080040 -0.0445631 0.9919960 0.0445631 0.9919960 0.0445631 0.0080040 -0.0445631
4363000000 0.0079405 -0.0436556 0.9920595 0.0436556 0.9920595 0.0436556 0.0079405 -0.0436556
4384000000 0.0078791 -0.0427531 0.9921209 0.0427531 0.9921209 0.0427531 0.0078791 -0.0427531
4405000000 0.0078197 -0.0418555 0.9921803 0.0418555 0.9921803 0.0418555 0.0078197 -0.0418555
4426000000 0.0077625 -0.0409628 0.9922375 0.0409628 0.9922375 0.0409628 0.0077625 -0.0409628
4447000000 0.0077072 -0.0400748 0.9922928 0.0400748 0.9922928 0.0400748 0.0077072 -0.0400748
4468000000 0.0076540 -0.0391916 0.9923460 0.0391916 0.9923460 0.0391916 0.0076540 -0.0391916
4489000000 0.0076028 -0.0383130 0.9923972 0.0383130 0.9923972 0.0383130 0.0076028 -0.0383130
4510000000 0.0075535 -0.0374391 0.9924465 0.0374391 0.9924465 0.0374391 0.0075535 -0.0374391
