!Murata Part Number: GRM0332C1H7R5DA01
!These Parameters are Measured in Series Mode Connection
!Data Generated on Mar 30, 2021
!       o--ll--o
!Port1            Port2
!       o------o
!Operation Temp=25[degC], DC Bias Voltage=0[V]
!Freq. Start=100[MHz] Stop=9[GHz] 401[Steps]
# Hz S RI R 50
!Freq.(Hz) S11(Real) S11(Imag) S21(Real) S21(Imag) S12(Real) S12(Imag) S22(Real) S22(Imag)
100000000 0.8178445 -0.3855122 0.1821555 0.3855122 0.1821555 0.3855122 0.8178445 -0.3855122
121000000 0.7540068 -0.4301169 0.2459932 0.4301169 0.2459932 0.4301169 0.7540068 -0.4301169
142000000 0.6898595 -0.4618960 0.3101405 0.4618960 0.3101405 0.4618960 0.6898595 -0.4618960
163000000 0.6278406 -0.4826280 0.3721594 0.4826280 0.3721594 0.4826280 0.6278406 -0.4826280
184000000 0.5695099 -0.4942942 0.4304901 0.4942942 0.4304901 0.4942942 0.5695099 -0.4942942
205000000 0.5157130 -0.4988041 0.4842870 0.4988041 0.4842870 0.4988041 0.5157130 -0.4988041
226000000 0.4667749 -0.4978472 0.5332251 0.4978472 0.5332251 0.4978472 0.4667749 -0.4978472
247000000 0.4226726 -0.4928373 0.5773274 0.4928373 0.5773274 0.4928373 0.4226726 -0.4928373
268000000 0.3831721 -0.4849130 0.6168279 0.4849130 0.6168279 0.4849130 0.3831721 -0.4849130
289000000 0.3479256 -0.4749653 0.6520744 0.4749653 0.6520744 0.4749653 0.3479256 -0.4749653
310000000 0.3165365 -0.4636770 0.6834635 0.4636770 0.6834635 0.4636770 0.3165365 -0.4636770
331000000 0.2886012 -0.4515627 0.7113988 0.4515627 0.7113988 0.4515627 0.2886012 -0.4515627
352000000 0.2637319 -0.4390040 0.7362681 0.4390040 0.7362681 0.4390040 0.2637319 -0.4390040
373000000 0.2415700 -0.4262805 0.7584300 0.4262805 0.7584300 0.4262805 0.2415700 -0.4262805
394000000 0.2217912 -0.4135932 0.7782088 0.4135932 0.7782088 0.4135932 0.2217912 -0.4135932
415000000 0.2041067 -0.4010847 0.7958933 0.4010847 0.7958933 0.4010847 0.2041067 -0.4010847
436000000 0.1882619 -0.3888531 0.8117381 0.3888531 0.8117381 0.3888531 0.1882619 -0.3888531
457000000 0.1740336 -0.3769640 0.8259664 0.3769640 0.8259664 0.3769640 0.1740336 -0.3769640
478000000 0.1612272 -0.3654588 0.8387728 0.3654588 0.8387728 0.3654588 0.1612272 -0.3654588
499000000 0.1496734 -0.3543612 0.8503266 0.3543612 0.8503266 0.3543612 0.1496734 -0.3543612
520000000 0.1392248 -0.3436819 0.8607752 0.3436819 0.8607752 0.3436819 0.1392248 -0.3436819
541000000 0.1297534 -0.3334225 0.8702466 0.3334225 0.8702466 0.3334225 0.1297534 -0.3334225
562000000 0.1211478 -0.3235780 0.8788522 0.3235780 0.8788522 0.3235780 0.1211478 -0.3235780
583000000 0.1133111 -0.3141390 0.8866889 0.3141390 0.8866889 0.3141390 0.1133111 -0.3141390
604000000 0.1061586 -0.3050928 0.8938414 0.3050928 0.8938414 0.3050928 0.1061586 -0.3050928
625000000 0.0996165 -0.2964251 0.9003835 0.2964251 0.9003835 0.2964251 0.0996165 -0.2964251
646000000 0.0936202 -0.2881201 0.9063798 0.2881201 0.9063798 0.2881201 0.0936202 -0.2881201
667000000 0.0881130 -0.2801617 0.9118870 0.2801617 0.9118870 0.2801617 0.0881130 -0.2801617
688000000 0.0830450 -0.2725334 0.9169550 0.2725334 0.9169550 0.2725334 0.0830450 -0.2725334
709000000 0.0783725 -0.2652191 0.9216275 0.2652191 0.9216275 0.2652191 0.0783725 -0.2652191
730000000 0.0740567 -0.2582029 0.9259433 0.2582029 0.9259433 0.2582029 0.0740567 -0.2582029
751000000 0.0700634 -0.2514696 0.9299366 0.2514696 0.9299366 0.2514696 0.0700634 -0.2514696
772000000 0.0663622 -0.2450043 0.9336378 0.2450043 0.9336378 0.2450043 0.0663622 -0.2450043
793000000 0.0629263 -0.2387929 0.9370737 0.2387929 0.9370737 0.2387929 0.0629263 -0.2387929
814000000 0.0597315 -0.2328222 0.9402685 0.2328222 0.9402685 0.2328222 0.0597315 -0.2328222
835000000 0.0567565 -0.2270793 0.9432435 0.2270793 0.9432435 0.2270793 0.0567565 -0.2270793
856000000 0.0539822 -0.2215523 0.9460178 0.2215523 0.9460178 0.2215523 0.0539822 -0.2215523
877000000 0.0513914 -0.2162297 0.9486086 0.2162297 0.9486086 0.2162297 0.0513914 -0.2162297
898000000 0.0489688 -0.2111009 0.9510312 0.2111009 0.9510312 0.2111009 0.0489688 -0.2111009
919000000 0.0467004 -0.2061558 0.9532996 0.2061558 0.9532996 0.2061558 0.0467004 -0.2061558
940000000 0.0445739 -0.2013848 0.9554261 0.2013848 0.9554261 0.2013848 0.0445739 -0.2013848
961000000 0.0425780 -0.1967791 0.9574220 0.1967791 0.9574220 0.1967791 0.0425780 -0.1967791
982000000 0.0407025 -0.1923301 0.9592975 0.1923301 0.9592975 0.1923301 0.0407025 -0.1923301
1003000000 0.0389382 -0.1880301 0.9610618 0.1880301 0.9610618 0.1880301 0.0389382 -0.1880301
1024000000 0.0372767 -0.1838716 0.9627233 0.1838716 0.9627233 0.1838716 0.0372767 -0.1838716
1045000000 0.0357105 -0.1798476 0.9642895 0.1798476 0.9642895 0.1798476 0.0357105 -0.1798476
1066000000 0.0342326 -0.1759515 0.9657674 0.1759515 0.9657674 0.1759515 0.0342326 -0.1759515
1087000000 0.0328367 -0.1721771 0.9671633 0.1721771 0.9671633 0.1721771 0.0328367 -0.1721771
1108000000 0.0315171 -0.1685185 0.9684829 0.1685185 0.9684829 0.1685185 0.0315171 -0.1685185
1129000000 0.0302684 -0.1649704 0.9697316 0.1649704 0.9697316 0.1649704 0.0302684 -0.1649704
1150000000 0.0290860 -0.1615276 0.9709140 0.1615276 0.9709140 0.1615276 0.0290860 -0.1615276
1171000000 0.0279652 -0.1581851 0.9720348 0.1581851 0.9720348 0.1581851 0.0279652 -0.1581851
1192000000 0.0269022 -0.1549384 0.9730978 0.1549384 0.9730978 0.1549384 0.0269022 -0.1549384
1213000000 0.0258930 -0.1517831 0.9741070 0.1517831 0.9741070 0.1517831 0.0258930 -0.1517831
1234000000 0.0249344 -0.1487152 0.9750656 0.1487152 0.9750656 0.1487152 0.0249344 -0.1487152
1255000000 0.0240232 -0.1457308 0.9759768 0.1457308 0.9759768 0.1457308 0.0240232 -0.1457308
1276000000 0.0231563 -0.1428263 0.9768437 0.1428263 0.9768437 0.1428263 0.0231563 -0.1428263
1297000000 0.0223312 -0.1399982 0.9776688 0.1399982 0.9776688 0.1399982 0.0223312 -0.1399982
1318000000 0.0215452 -0.1372433 0.9784548 0.1372433 0.9784548 0.1372433 0.0215452 -0.1372433
1339000000 0.0207962 -0.1345584 0.9792038 0.1345584 0.9792038 0.1345584 0.0207962 -0.1345584
1360000000 0.0200819 -0.1319407 0.9799181 0.1319407 0.9799181 0.1319407 0.0200819 -0.1319407
1381000000 0.0194003 -0.1293873 0.9805997 0.1293873 0.9805997 0.1293873 0.0194003 -0.1293873
1402000000 0.0187496 -0.1268958 0.9812504 0.1268958 0.9812504 0.1268958 0.0187496 -0.1268958
1423000000 0.0181281 -0.1244635 0.9818719 0.1244635 0.9818719 0.1244635 0.0181281 -0.1244635
1444000000 0.0175342 -0.1220881 0.9824658 0.1220881 0.9824658 0.1220881 0.0175342 -0.1220881
1465000000 0.0169663 -0.1197674 0.9830337 0.1197674 0.9830337 0.1197674 0.0169663 -0.1197674
1486000000 0.0164232 -0.1174993 0.9835768 0.1174993 0.9835768 0.1174993 0.0164232 -0.1174993
1507000000 0.0159034 -0.1152816 0.9840966 0.1152816 0.9840966 0.1152816 0.0159034 -0.1152816
1528000000 0.0154057 -0.1131126 0.9845943 0.1131126 0.9845943 0.1131126 0.0154057 -0.1131126
1549000000 0.0149291 -0.1109903 0.9850709 0.1109903 0.9850709 0.1109903 0.0149291 -0.1109903
1570000000 0.0144725 -0.1089131 0.9855275 0.1089131 0.9855275 0.1089131 0.0144725 -0.1089131
1591000000 0.0140348 -0.1068793 0.9859652 0.1068793 0.9859652 0.1068793 0.0140348 -0.1068793
1612000000 0.0136151 -0.1048872 0.9863849 0.1048872 0.9863849 0.1048872 0.0136151 -0.1048872
1633000000 0.0132126 -0.1029354 0.9867874 0.1029354 0.9867874 0.1029354 0.0132126 -0.1029354
1654000000 0.0128264 -0.1010224 0.9871736 0.1010224 0.9871736 0.1010224 0.0128264 -0.1010224
1675000000 0.0124558 -0.0991469 0.9875442 0.0991469 0.9875442 0.0991469 0.0124558 -0.0991469
1696000000 0.0121000 -0.0973076 0.9879000 0.0973076 0.9879000 0.0973076 0.0121000 -0.0973076
1717000000 0.0117583 -0.0955031 0.9882417 0.0955031 0.9882417 0.0955031 0.0117583 -0.0955031
1738000000 0.0114301 -0.0937324 0.9885699 0.0937324 0.9885699 0.0937324 0.0114301 -0.0937324
1759000000 0.0111148 -0.0919942 0.9888852 0.0919942 0.9888852 0.0919942 0.0111148 -0.0919942
1780000000 0.0108118 -0.0902875 0.9891882 0.0902875 0.9891882 0.0902875 0.0108118 -0.0902875
1801000000 0.0105206 -0.0886112 0.9894794 0.0886112 0.9894794 0.0886112 0.0105206 -0.0886112
1822000000 0.0102406 -0.0869643 0.9897594 0.0869643 0.9897594 0.0869643 0.0102406 -0.0869643
1843000000 0.0099714 -0.0853459 0.9900286 0.0853459 0.9900286 0.0853459 0.0099714 -0.0853459
1864000000 0.0097125 -0.0837550 0.9902875 0.0837550 0.9902875 0.0837550 0.0097125 -0.0837550
1885000000 0.0094635 -0.0821907 0.9905365 0.0821907 0.9905365 0.0821907 0.0094635 -0.0821907
1906000000 0.0092240 -0.0806523 0.9907760 0.0806523 0.9907760 0.0806523 0.0092240 -0.0806523
1927000000 0.0089936 -0.0791388 0.9910064 0.0791388 0.9910064 0.0791388 0.0089936 -0.0791388
1948000000 0.0087719 -0.0776495 0.9912281 0.0776495 0.9912281 0.0776495 0.0087719 -0.0776495
1969000000 0.0085586 -0.0761838 0.9914414 0.0761838 0.9914414 0.0761838 0.0085586 -0.0761838
1990000000 0.0083533 -0.0747407 0.9916467 0.0747407 0.9916467 0.0747407 0.0083533 -0.0747407
2011000000 0.0081557 -0.0733197 0.9918443 0.0733197 0.9918443 0.0733197 0.0081557 -0.0733197
2032000000 0.0079656 -0.0719201 0.9920344 0.0719201 0.9920344 0.0719201 0.0079656 -0.0719201
2053000000 0.0077826 -0.0705413 0.9922174 0.0705413 0.9922174 0.0705413 0.0077826 -0.0705413
2074000000 0.0076065 -0.0691825 0.9923935 0.0691825 0.9923935 0.0691825 0.0076065 -0.0691825
2095000000 0.0074370 -0.0678434 0.9925630 0.0678434 0.9925630 0.0678434 0.0074370 -0.0678434
2116000000 0.0072740 -0.0665231 0.9927260 0.0665231 0.9927260 0.0665231 0.0072740 -0.0665231
2137000000 0.0071170 -0.0652214 0.9928830 0.0652214 0.9928830 0.0652214 0.0071170 -0.0652214
2158000000 0.0069660 -0.0639375 0.9930340 0.0639375 0.9930340 0.0639375 0.0069660 -0.0639375
2179000000 0.0068207 -0.0626710 0.9931793 0.0626710 0.9931793 0.0626710 0.0068207 -0.0626710
2200000000 0.0066809 -0.0614214 0.9933191 0.0614214 0.9933191 0.0614214 0.0066809 -0.0614214
2221000000 0.0065465 -0.0601882 0.9934535 0.0601882 0.9934535 0.0601882 0.0065465 -0.0601882
2242000000 0.0064172 -0.0589710 0.9935828 0.0589710 0.9935828 0.0589710 0.0064172 -0.0589710
2263000000 0.0062928 -0.0577693 0.9937072 0.0577693 0.9937072 0.0577693 0.0062928 -0.0577693
2284000000 0.0061733 -0.0565827 0.9938267 0.0565827 0.9938267 0.0565827 0.0061733 -0.0565827
2305000000 0.0060584 -0.0554108 0.9939416 0.0554108 0.9939416 0.0554108 0.0060584 -0.0554108
2326000000 0.0059480 -0.0542532 0.9940520 0.0542532 0.9940520 0.0542532 0.0059480 -0.0542532
2347000000 0.0058420 -0.0531095 0.9941580 0.0531095 0.9941580 0.0531095 0.0058420 -0.0531095
2368000000 0.0057401 -0.0519793 0.9942599 0.0519793 0.9942599 0.0519793 0.0057401 -0.0519793
2389000000 0.0056423 -0.0508623 0.9943577 0.0508623 0.9943577 0.0508623 0.0056423 -0.0508623
2410000000 0.0055485 -0.0497582 0.9944515 0.0497582 0.9944515 0.0497582 0.0055485 -0.0497582
2431000000 0.0054585 -0.0486665 0.9945415 0.0486665 0.9945415 0.0486665 0.0054585 -0.0486665
2452000000 0.0053722 -0.0475870 0.9946278 0.0475870 0.9946278 0.0475870 0.0053722 -0.0475870
2473000000 0.0052895 -0.0465194 0.9947105 0.0465194 0.9947105 0.0465194 0.0052895 -0.0465194
2494000000 0.0052103 -0.0454633 0.9947897 0.0454633 0.9947897 0.0454633 0.0052103 -0.0454633
2515000000 0.0051345 -0.0444185 0.9948655 0.0444185 0.9948655 0.0444185 0.0051345 -0.0444185
2536000000 0.0050620 -0.0433847 0.9949380 0.0433847 0.9949380 0.0433847 0.0050620 -0.0433847
2557000000 0.0049927 -0.0423615 0.9950073 0.0423615 0.9950073 0.0423615 0.0049927 -0.0423615
2578000000 0.0049265 -0.0413488 0.9950735 0.0413488 0.9950735 0.0413488 0.0049265 -0.0413488
2599000000 0.0048632 -0.0403463 0.9951368 0.0403463 0.9951368 0.0403463 0.0048632 -0.0403463
2620000000 0.0048030 -0.0393537 0.9951970 0.0393537 0.9951970 0.0393537 0.0048030 -0.0393537
2641000000 0.0047455 -0.0383707 0.9952545 0.0383707 0.9952545 0.0383707 0.0047455 -0.0383707
2662000000 0.0046909 -0.0373972 0.9953091 0.0373972 0.9953091 0.0373972 0.0046909 -0.0373972
2683000000 0.0046389 -0.0364329 0.9953611 0.0364329 0.9953611 0.0364329 0.0046389 -0.0364329
2704000000 0.0045896 -0.0354776 0.9954104 0.0354776 0.9954104 0.0354776 0.0045896 -0.0354776
2725000000 0.0045428 -0.0345310 0.9954572 0.0345310 0.9954572 0.0345310 0.0045428 -0.0345310
2746000000 0.0044986 -0.0335930 0.9955014 0.0335930 0.9955014 0.0335930 0.0044986 -0.0335930
2767000000 0.0044567 -0.0326634 0.9955433 0.0326634 0.9955433 0.0326634 0.0044567 -0.0326634
2788000000 0.0044172 -0.0317419 0.9955828 0.0317419 0.9955828 0.0317419 0.0044172 -0.0317419
2809000000 0.0043801 -0.0308283 0.9956199 0.0308283 0.9956199 0.0308283 0.0043801 -0.0308283
2830000000 0.0043452 -0.0299226 0.9956548 0.0299226 0.9956548 0.0299226 0.0043452 -0.0299226
2851000000 0.0043125 -0.0290244 0.9956875 0.0290244 0.9956875 0.0290244 0.0043125 -0.0290244
2872000000 0.0042819 -0.0281336 0.9957181 0.0281336 0.9957181 0.0281336 0.0042819 -0.0281336
2893000000 0.0042534 -0.0272500 0.9957466 0.0272500 0.9957466 0.0272500 0.0042534 -0.0272500
2914000000 0.0042270 -0.0263736 0.9957730 0.0263736 0.9957730 0.0263736 0.0042270 -0.0263736
2935000000 0.0042026 -0.0255040 0.9957974 0.0255040 0.9957974 0.0255040 0.0042026 -0.0255040
2956000000 0.0041801 -0.0246411 0.9958199 0.0246411 0.9958199 0.0246411 0.0041801 -0.0246411
2977000000 0.0041596 -0.0237849 0.9958404 0.0237849 0.9958404 0.0237849 0.0041596 -0.0237849
2998000000 0.0041409 -0.0229351 0.9958591 0.0229351 0.9958591 0.0229351 0.0041409 -0.0229351
3019000000 0.0041240 -0.0220915 0.9958760 0.0220915 0.9958760 0.0220915 0.0041240 -0.0220915
3040000000 0.0041090 -0.0212541 0.9958910 0.0212541 0.9958910 0.0212541 0.0041090 -0.0212541
3061000000 0.0040956 -0.0204227 0.9959044 0.0204227 0.9959044 0.0204227 0.0040956 -0.0204227
3082000000 0.0040840 -0.0195972 0.9959160 0.0195972 0.9959160 0.0195972 0.0040840 -0.0195972
3103000000 0.0040741 -0.0187774 0.9959259 0.0187774 0.9959259 0.0187774 0.0040741 -0.0187774
3124000000 0.0040658 -0.0179632 0.9959342 0.0179632 0.9959342 0.0179632 0.0040658 -0.0179632
3145000000 0.0040591 -0.0171545 0.9959409 0.0171545 0.9959409 0.0171545 0.0040591 -0.0171545
3166000000 0.0040540 -0.0163511 0.9959460 0.0163511 0.9959460 0.0163511 0.0040540 -0.0163511
3187000000 0.0040505 -0.0155530 0.9959495 0.0155530 0.9959495 0.0155530 0.0040505 -0.0155530
3208000000 0.0040484 -0.0147599 0.9959516 0.0147599 0.9959516 0.0147599 0.0040484 -0.0147599
3229000000 0.0040479 -0.0139719 0.9959521 0.0139719 0.9959521 0.0139719 0.0040479 -0.0139719
3250000000 0.0040488 -0.0131887 0.9959512 0.0131887 0.9959512 0.0131887 0.0040488 -0.0131887
3271000000 0.0040512 -0.0124103 0.9959488 0.0124103 0.9959488 0.0124103 0.0040512 -0.0124103
3292000000 0.0040549 -0.0116366 0.9959451 0.0116366 0.9959451 0.0116366 0.0040549 -0.0116366
3313000000 0.0040601 -0.0108675 0.9959399 0.0108675 0.9959399 0.0108675 0.0040601 -0.0108675
3334000000 0.0040666 -0.0101027 0.9959334 0.0101027 0.9959334 0.0101027 0.0040666 -0.0101027
3355000000 0.0040744 -0.0093424 0.9959256 0.0093424 0.9959256 0.0093424 0.0040744 -0.0093424
3376000000 0.0040836 -0.0085863 0.9959164 0.0085863 0.9959164 0.0085863 0.0040836 -0.0085863
3397000000 0.0040941 -0.0078343 0.9959059 0.0078343 0.9959059 0.0078343 0.0040941 -0.0078343
3418000000 0.0041058 -0.0070865 0.9958942 0.0070865 0.9958942 0.0070865 0.0041058 -0.0070865
3439000000 0.0041188 -0.0063426 0.9958812 0.0063426 0.9958812 0.0063426 0.0041188 -0.0063426
3460000000 0.0041330 -0.0056025 0.9958670 0.0056025 0.9958670 0.0056025 0.0041330 -0.0056025
3481000000 0.0041484 -0.0048663 0.9958516 0.0048663 0.9958516 0.0048663 0.0041484 -0.0048663
3502000000 0.0041650 -0.0041338 0.9958350 0.0041338 0.9958350 0.0041338 0.0041650 -0.0041338
3523000000 0.0041828 -0.0034049 0.9958172 0.0034049 0.9958172 0.0034049 0.0041828 -0.0034049
3544000000 0.0042017 -0.0026795 0.9957983 0.0026795 0.9957983 0.0026795 0.0042017 -0.0026795
3565000000 0.0042218 -0.0019576 0.9957782 0.0019576 0.9957782 0.0019576 0.0042218 -0.0019576
3586000000 0.0042431 -0.0012391 0.9957569 0.0012391 0.9957569 0.0012391 0.0042431 -0.0012391
3607000000 0.0042654 -0.0005239 0.9957346 0.0005239 0.9957346 0.0005239 0.0042654 -0.0005239
3628000000 0.0042888 0.0001882 0.9957112 -0.0001882 0.9957112 -0.0001882 0.0042888 0.0001882
3649000000 0.0043133 0.0008970 0.9956867 -0.0008970 0.9956867 -0.0008970 0.0043133 0.0008970
3670000000 0.0043389 0.0016028 0.9956611 -0.0016028 0.9956611 -0.0016028 0.0043389 0.0016028
3691000000 0.0043655 0.0023056 0.9956345 -0.0023056 0.9956345 -0.0023056 0.0043655 0.0023056
3712000000 0.0043932 0.0030055 0.9956068 -0.0030055 0.9956068 -0.0030055 0.0043932 0.0030055
3733000000 0.0044219 0.0037025 0.9955781 -0.0037025 0.9955781 -0.0037025 0.0044219 0.0037025
3754000000 0.0044516 0.0043967 0.9955484 -0.0043967 0.9955484 -0.0043967 0.0044516 0.0043967
3775000000 0.0044823 0.0050882 0.9955177 -0.0050882 0.9955177 -0.0050882 0.0044823 0.0050882
3796000000 0.0045140 0.0057771 0.9954860 -0.0057771 0.9954860 -0.0057771 0.0045140 0.0057771
3817000000 0.0045467 0.0064633 0.9954533 -0.0064633 0.9954533 -0.0064633 0.0045467 0.0064633
3838000000 0.0045803 0.0071470 0.9954197 -0.0071470 0.9954197 -0.0071470 0.0045803 0.0071470
3859000000 0.0046149 0.0078283 0.9953851 -0.0078283 0.9953851 -0.0078283 0.0046149 0.0078283
3880000000 0.0046505 0.0085072 0.9953495 -0.0085072 0.9953495 -0.0085072 0.0046505 0.0085072
3901000000 0.0046870 0.0091837 0.9953130 -0.0091837 0.9953130 -0.0091837 0.0046870 0.0091837
3922000000 0.0047245 0.0098580 0.9952755 -0.0098580 0.9952755 -0.0098580 0.0047245 0.0098580
3943000000 0.0047628 0.0105300 0.9952372 -0.0105300 0.9952372 -0.0105300 0.0047628 0.0105300
3964000000 0.0048021 0.0111999 0.9951979 -0.0111999 0.9951979 -0.0111999 0.0048021 0.0111999
3985000000 0.0048423 0.0118677 0.9951577 -0.0118677 0.9951577 -0.0118677 0.0048423 0.0118677
4006000000 0.0048834 0.0125334 0.9951166 -0.0125334 0.9951166 -0.0125334 0.0048834 0.0125334
4027000000 0.0049254 0.0131972 0.9950746 -0.0131972 0.9950746 -0.0131972 0.0049254 0.0131972
4048000000 0.0049682 0.0138590 0.9950318 -0.0138590 0.9950318 -0.0138590 0.0049682 0.0138590
4069000000 0.0050120 0.0145189 0.9949880 -0.0145189 0.9949880 -0.0145189 0.0050120 0.0145189
4090000000 0.0050566 0.0151770 0.9949434 -0.0151770 0.9949434 -0.0151770 0.0050566 0.0151770
4111000000 0.0051021 0.0158333 0.9948979 -0.0158333 0.9948979 -0.0158333 0.0051021 0.0158333
4132000000 0.0051484 0.0164879 0.9948516 -0.0164879 0.9948516 -0.0164879 0.0051484 0.0164879
4153000000 0.0051956 0.0171408 0.9948044 -0.0171408 0.9948044 -0.0171408 0.0051956 0.0171408
4174000000 0.0052437 0.0177921 0.9947563 -0.0177921 0.9947563 -0.0177921 0.0052437 0.0177921
4195000000 0.0052925 0.0184418 0.9947075 -0.0184418 0.9947075 -0.0184418 0.0052925 0.0184418
4216000000 0.0053423 0.0190900 0.9946577 -0.0190900 0.9946577 -0.0190900 0.0053423 0.0190900
4237000000 0.0053928 0.0197368 0.9946072 -0.0197368 0.9946072 -0.0197368 0.0053928 0.0197368
4258000000 0.0054442 0.0203821 0.9945558 -0.0203821 0.9945558 -0.0203821 0.0054442 0.0203821
4279000000 0.0054964 0.0210260 0.9945036 -0.0210260 0.9945036 -0.0210260 0.0054964 0.0210260
4300000000 0.0055494 0.0216686 0.9944506 -0.0216686 0.9944506 -0.0216686 0.0055494 0.0216686
4321000000 0.0056033 0.0223099 0.9943967 -0.0223099 0.9943967 -0.0223099 0.0056033 0.0223099
4342000000 0.0056580 0.0229500 0.9943420 -0.0229500 0.9943420 -0.0229500 0.0056580 0.0229500
4363000000 0.0057134 0.0235889 0.9942866 -0.0235889 0.9942866 -0.0235889 0.0057134 0.0235889
4384000000 0.0057697 0.0242266 0.9942303 -0.0242266 0.9942303 -0.0242266 0.0057697 0.0242266
4405000000 0.0058268 0.0248632 0.9941732 -0.0248632 0.9941732 -0.0248632 0.0058268 0.0248632
4426000000 0.0058847 0.0254988 0.9941153 -0.0254988 0.9941153 -0.0254988 0.0058847 0.0254988
4447000000 0.0059434 0.0261333 0.9940566 -0.0261333 0.9940566 -0.0261333 0.0059434 0.0261333
4468000000 0.0060028 0.0267669 0.9939972 -0.0267669 0.9939972 -0.0267669 0.0060028 0.0267669
4489000000 0.0060631 0.0273996 0.9939369 -0.0273996 0.9939369 -0.0273996 0.0060631 0.0273996
4510000000 0.0061242 0.0280313 0.9938758 -0.0280313 0.9938758 -0.0280313 0.0061242 0.0280313
