!Murata Part Number: GRM0335C1H9R3CA01
!These Parameters are Measured in Series Mode Connection
!Data Generated on Mar 30, 2021
!       o--ll--o
!Port1            Port2
!       o------o
!Operation Temp=25[degC], DC Bias Voltage=0[V]
!Freq. Start=100[MHz] Stop=9[GHz] 401[Steps]
# Hz S RI R 50
!Freq.(Hz) S11(Real) S11(Imag) S21(Real) S21(Imag) S12(Real) S12(Imag) S22(Real) S22(Imag)
100000000 0.7448829 -0.4354146 0.2551171 0.4354146 0.2551171 0.4354146 0.7448829 -0.4354146
121000000 0.6658911 -0.4710573 0.3341089 0.4710573 0.3341089 0.4710573 0.6658911 -0.4710573
142000000 0.5911851 -0.4908855 0.4088149 0.4908855 0.4088149 0.4908855 0.5911851 -0.4908855
163000000 0.5230306 -0.4986306 0.4769694 0.4986306 0.4769694 0.4986306 0.5230306 -0.4986306
184000000 0.4622892 -0.4976273 0.5377108 0.4976273 0.5377108 0.4976273 0.4622892 -0.4976273
205000000 0.4089425 -0.4905796 0.5910575 0.4905796 0.5910575 0.4905796 0.4089425 -0.4905796
226000000 0.3624928 -0.4795498 0.6375072 0.4795498 0.6375072 0.4795498 0.3624928 -0.4795498
247000000 0.3222279 -0.4660475 0.6777721 0.4660475 0.6777721 0.4660475 0.3222279 -0.4660475
268000000 0.2873795 -0.4511450 0.7126205 0.4511450 0.7126205 0.4511450 0.2873795 -0.4511450
289000000 0.2572079 -0.4355861 0.7427921 0.4355861 0.7427921 0.4355861 0.2572079 -0.4355861
310000000 0.2310415 -0.4198753 0.7689585 0.4198753 0.7689585 0.4198753 0.2310415 -0.4198753
331000000 0.2082910 -0.4043465 0.7917090 0.4043465 0.7917090 0.4043465 0.2082910 -0.4043465
352000000 0.1884493 -0.3892140 0.8115507 0.3892140 0.8115507 0.3892140 0.1884493 -0.3892140
373000000 0.1710854 -0.3746087 0.8289146 0.3746087 0.8289146 0.3746087 0.1710854 -0.3746087
394000000 0.1558353 -0.3606047 0.8441647 0.3606047 0.8441647 0.3606047 0.1558353 -0.3606047
415000000 0.1423928 -0.3472370 0.8576072 0.3472370 0.8576072 0.3472370 0.1423928 -0.3472370
436000000 0.1305003 -0.3345151 0.8694997 0.3345151 0.8694997 0.3345151 0.1305003 -0.3345151
457000000 0.1199413 -0.3224309 0.8800587 0.3224309 0.8800587 0.3224309 0.1199413 -0.3224309
478000000 0.1105334 -0.3109658 0.8894666 0.3109658 0.8894666 0.3109658 0.1105334 -0.3109658
499000000 0.1021226 -0.3000945 0.8978774 0.3000945 0.8978774 0.3000945 0.1021226 -0.3000945
520000000 0.0945787 -0.2897881 0.9054213 0.2897881 0.9054213 0.2897881 0.0945787 -0.2897881
541000000 0.0877910 -0.2800157 0.9122090 0.2800157 0.9122090 0.2800157 0.0877910 -0.2800157
562000000 0.0816654 -0.2707462 0.9183346 0.2707462 0.9183346 0.2707462 0.0816654 -0.2707462
583000000 0.0761212 -0.2619489 0.9238788 0.2619489 0.9238788 0.2619489 0.0761212 -0.2619489
604000000 0.0710895 -0.2535943 0.9289105 0.2535943 0.9289105 0.2535943 0.0710895 -0.2535943
625000000 0.0665110 -0.2456538 0.9334890 0.2456538 0.9334890 0.2456538 0.0665110 -0.2456538
646000000 0.0623342 -0.2381008 0.9376658 0.2381008 0.9376658 0.2381008 0.0623342 -0.2381008
667000000 0.0585150 -0.2309100 0.9414850 0.2309100 0.9414850 0.2309100 0.0585150 -0.2309100
688000000 0.0550147 -0.2240579 0.9449853 0.2240579 0.9449853 0.2240579 0.0550147 -0.2240579
709000000 0.0517996 -0.2175225 0.9482004 0.2175225 0.9482004 0.2175225 0.0517996 -0.2175225
730000000 0.0488405 -0.2112833 0.9511595 0.2112833 0.9511595 0.2112833 0.0488405 -0.2112833
751000000 0.0461116 -0.2053215 0.9538884 0.2053215 0.9538884 0.2053215 0.0461116 -0.2053215
772000000 0.0435902 -0.1996194 0.9564098 0.1996194 0.9564098 0.1996194 0.0435902 -0.1996194
793000000 0.0412563 -0.1941606 0.9587437 0.1941606 0.9587437 0.1941606 0.0412563 -0.1941606
814000000 0.0390923 -0.1889301 0.9609077 0.1889301 0.9609077 0.1889301 0.0390923 -0.1889301
835000000 0.0370826 -0.1839139 0.9629174 0.1839139 0.9629174 0.1839139 0.0370826 -0.1839139
856000000 0.0352131 -0.1790989 0.9647869 0.1790989 0.9647869 0.1790989 0.0352131 -0.1790989
877000000 0.0334715 -0.1744733 0.9665285 0.1744733 0.9665285 0.1744733 0.0334715 -0.1744733
898000000 0.0318468 -0.1700256 0.9681532 0.1700256 0.9681532 0.1700256 0.0318468 -0.1700256
919000000 0.0303290 -0.1657458 0.9696710 0.1657458 0.9696710 0.1657458 0.0303290 -0.1657458
940000000 0.0289092 -0.1616240 0.9710908 0.1616240 0.9710908 0.1616240 0.0289092 -0.1616240
961000000 0.0275794 -0.1576514 0.9724206 0.1576514 0.9724206 0.1576514 0.0275794 -0.1576514
982000000 0.0263325 -0.1538196 0.9736675 0.1538196 0.9736675 0.1538196 0.0263325 -0.1538196
1003000000 0.0251619 -0.1501210 0.9748381 0.1501210 0.9748381 0.1501210 0.0251619 -0.1501210
1024000000 0.0240618 -0.1465483 0.9759382 0.1465483 0.9759382 0.1465483 0.0240618 -0.1465483
1045000000 0.0230268 -0.1430948 0.9769732 0.1430948 0.9769732 0.1430948 0.0230268 -0.1430948
1066000000 0.0220521 -0.1397543 0.9779479 0.1397543 0.9779479 0.1397543 0.0220521 -0.1397543
1087000000 0.0211333 -0.1365208 0.9788667 0.1365208 0.9788667 0.1365208 0.0211333 -0.1365208
1108000000 0.0202664 -0.1333889 0.9797336 0.1333889 0.9797336 0.1333889 0.0202664 -0.1333889
1129000000 0.0194478 -0.1303536 0.9805522 0.1303536 0.9805522 0.1303536 0.0194478 -0.1303536
1150000000 0.0186741 -0.1274100 0.9813259 0.1274100 0.9813259 0.1274100 0.0186741 -0.1274100
1171000000 0.0179423 -0.1245535 0.9820577 0.1245535 0.9820577 0.1245535 0.0179423 -0.1245535
1192000000 0.0172495 -0.1217801 0.9827505 0.1217801 0.9827505 0.1217801 0.0172495 -0.1217801
1213000000 0.0165932 -0.1190858 0.9834068 0.1190858 0.9834068 0.1190858 0.0165932 -0.1190858
1234000000 0.0159710 -0.1164669 0.9840290 0.1164669 0.9840290 0.1164669 0.0159710 -0.1164669
1255000000 0.0153808 -0.1139198 0.9846192 0.1139198 0.9846192 0.1139198 0.0153808 -0.1139198
1276000000 0.0148206 -0.1114413 0.9851794 0.1114413 0.9851794 0.1114413 0.0148206 -0.1114413
1297000000 0.0142885 -0.1090283 0.9857115 0.1090283 0.9857115 0.1090283 0.0142885 -0.1090283
1318000000 0.0137828 -0.1066779 0.9862172 0.1066779 0.9862172 0.1066779 0.0137828 -0.1066779
1339000000 0.0133020 -0.1043874 0.9866980 0.1043874 0.9866980 0.1043874 0.0133020 -0.1043874
1360000000 0.0128445 -0.1021541 0.9871555 0.1021541 0.9871555 0.1021541 0.0128445 -0.1021541
1381000000 0.0124090 -0.0999756 0.9875910 0.0999756 0.9875910 0.0999756 0.0124090 -0.0999756
1402000000 0.0119943 -0.0978497 0.9880057 0.0978497 0.9880057 0.0978497 0.0119943 -0.0978497
1423000000 0.0115992 -0.0957741 0.9884008 0.0957741 0.9884008 0.0957741 0.0115992 -0.0957741
1444000000 0.0112227 -0.0937467 0.9887773 0.0937467 0.9887773 0.0937467 0.0112227 -0.0937467
1465000000 0.0108636 -0.0917657 0.9891364 0.0917657 0.9891364 0.0917657 0.0108636 -0.0917657
1486000000 0.0105210 -0.0898290 0.9894790 0.0898290 0.9894790 0.0898290 0.0105210 -0.0898290
1507000000 0.0101942 -0.0879351 0.9898058 0.0879351 0.9898058 0.0879351 0.0101942 -0.0879351
1528000000 0.0098822 -0.0860822 0.9901178 0.0860822 0.9901178 0.0860822 0.0098822 -0.0860822
1549000000 0.0095842 -0.0842686 0.9904158 0.0842686 0.9904158 0.0842686 0.0095842 -0.0842686
1570000000 0.0092997 -0.0824931 0.9907003 0.0824931 0.9907003 0.0824931 0.0092997 -0.0824931
1591000000 0.0090279 -0.0807540 0.9909721 0.0807540 0.9909721 0.0807540 0.0090279 -0.0807540
1612000000 0.0087681 -0.0790500 0.9912319 0.0790500 0.9912319 0.0790500 0.0087681 -0.0790500
1633000000 0.0085198 -0.0773799 0.9914802 0.0773799 0.9914802 0.0773799 0.0085198 -0.0773799
1654000000 0.0082824 -0.0757423 0.9917176 0.0757423 0.9917176 0.0757423 0.0082824 -0.0757423
1675000000 0.0080555 -0.0741362 0.9919445 0.0741362 0.9919445 0.0741362 0.0080555 -0.0741362
1696000000 0.0078384 -0.0725604 0.9921616 0.0725604 0.9921616 0.0725604 0.0078384 -0.0725604
1717000000 0.0076309 -0.0710138 0.9923691 0.0710138 0.9923691 0.0710138 0.0076309 -0.0710138
1738000000 0.0074323 -0.0694954 0.9925677 0.0694954 0.9925677 0.0694954 0.0074323 -0.0694954
1759000000 0.0072424 -0.0680043 0.9927576 0.0680043 0.9927576 0.0680043 0.0072424 -0.0680043
1780000000 0.0070607 -0.0665394 0.9929393 0.0665394 0.9929393 0.0665394 0.0070607 -0.0665394
1801000000 0.0068869 -0.0651000 0.9931131 0.0651000 0.9931131 0.0651000 0.0068869 -0.0651000
1822000000 0.0067206 -0.0636851 0.9932794 0.0636851 0.9932794 0.0636851 0.0067206 -0.0636851
1843000000 0.0065615 -0.0622940 0.9934385 0.0622940 0.9934385 0.0622940 0.0065615 -0.0622940
1864000000 0.0064093 -0.0609259 0.9935907 0.0609259 0.9935907 0.0609259 0.0064093 -0.0609259
1885000000 0.0062637 -0.0595799 0.9937363 0.0595799 0.9937363 0.0595799 0.0062637 -0.0595799
1906000000 0.0061244 -0.0582555 0.9938756 0.0582555 0.9938756 0.0582555 0.0061244 -0.0582555
1927000000 0.0059912 -0.0569520 0.9940088 0.0569520 0.9940088 0.0569520 0.0059912 -0.0569520
1948000000 0.0058639 -0.0556685 0.9941361 0.0556685 0.9941361 0.0556685 0.0058639 -0.0556685
1969000000 0.0057422 -0.0544047 0.9942578 0.0544047 0.9942578 0.0544047 0.0057422 -0.0544047
1990000000 0.0056258 -0.0531597 0.9943742 0.0531597 0.9943742 0.0531597 0.0056258 -0.0531597
2011000000 0.0055146 -0.0519331 0.9944854 0.0519331 0.9944854 0.0519331 0.0055146 -0.0519331
2032000000 0.0054084 -0.0507243 0.9945916 0.0507243 0.9945916 0.0507243 0.0054084 -0.0507243
2053000000 0.0053069 -0.0495328 0.9946931 0.0495328 0.9946931 0.0495328 0.0053069 -0.0495328
2074000000 0.0052101 -0.0483580 0.9947899 0.0483580 0.9947899 0.0483580 0.0052101 -0.0483580
2095000000 0.0051177 -0.0471994 0.9948823 0.0471994 0.9948823 0.0471994 0.0051177 -0.0471994
2116000000 0.0050295 -0.0460566 0.9949705 0.0460566 0.9949705 0.0460566 0.0050295 -0.0460566
2137000000 0.0049455 -0.0449292 0.9950545 0.0449292 0.9950545 0.0449292 0.0049455 -0.0449292
2158000000 0.0048654 -0.0438165 0.9951346 0.0438165 0.9951346 0.0438165 0.0048654 -0.0438165
2179000000 0.0047892 -0.0427184 0.9952108 0.0427184 0.9952108 0.0427184 0.0047892 -0.0427184
2200000000 0.0047167 -0.0416342 0.9952833 0.0416342 0.9952833 0.0416342 0.0047167 -0.0416342
2221000000 0.0046477 -0.0405637 0.9953523 0.0405637 0.9953523 0.0405637 0.0046477 -0.0405637
2242000000 0.0045821 -0.0395065 0.9954179 0.0395065 0.9954179 0.0395065 0.0045821 -0.0395065
2263000000 0.0045199 -0.0384622 0.9954801 0.0384622 0.9954801 0.0384622 0.0045199 -0.0384622
2284000000 0.0044609 -0.0374303 0.9955391 0.0374303 0.9955391 0.0374303 0.0044609 -0.0374303
2305000000 0.0044050 -0.0364107 0.9955950 0.0364107 0.9955950 0.0364107 0.0044050 -0.0364107
2326000000 0.0043521 -0.0354029 0.9956479 0.0354029 0.9956479 0.0354029 0.0043521 -0.0354029
2347000000 0.0043022 -0.0344067 0.9956978 0.0344067 0.9956978 0.0344067 0.0043022 -0.0344067
2368000000 0.0042550 -0.0334217 0.9957450 0.0334217 0.9957450 0.0334217 0.0042550 -0.0334217
2389000000 0.0042106 -0.0324477 0.9957894 0.0324477 0.9957894 0.0324477 0.0042106 -0.0324477
2410000000 0.0041688 -0.0314843 0.9958312 0.0314843 0.9958312 0.0314843 0.0041688 -0.0314843
2431000000 0.0041296 -0.0305313 0.9958704 0.0305313 0.9958704 0.0305313 0.0041296 -0.0305313
2452000000 0.0040929 -0.0295883 0.9959071 0.0295883 0.9959071 0.0295883 0.0040929 -0.0295883
2473000000 0.0040586 -0.0286552 0.9959414 0.0286552 0.9959414 0.0286552 0.0040586 -0.0286552
2494000000 0.0040266 -0.0277317 0.9959734 0.0277317 0.9959734 0.0277317 0.0040266 -0.0277317
2515000000 0.0039970 -0.0268175 0.9960030 0.0268175 0.9960030 0.0268175 0.0039970 -0.0268175
2536000000 0.0039695 -0.0259125 0.9960305 0.0259125 0.9960305 0.0259125 0.0039695 -0.0259125
2557000000 0.0039441 -0.0250163 0.9960559 0.0250163 0.9960559 0.0250163 0.0039441 -0.0250163
2578000000 0.0039209 -0.0241288 0.9960791 0.0241288 0.9960791 0.0241288 0.0039209 -0.0241288
2599000000 0.0038997 -0.0232497 0.9961003 0.0232497 0.9961003 0.0232497 0.0038997 -0.0232497
2620000000 0.0038804 -0.0223788 0.9961196 0.0223788 0.9961196 0.0223788 0.0038804 -0.0223788
2641000000 0.0038631 -0.0215160 0.9961369 0.0215160 0.9961369 0.0215160 0.0038631 -0.0215160
2662000000 0.0038476 -0.0206610 0.9961524 0.0206610 0.9961524 0.0206610 0.0038476 -0.0206610
2683000000 0.0038340 -0.0198137 0.9961660 0.0198137 0.9961660 0.0198137 0.0038340 -0.0198137
2704000000 0.0038221 -0.0189738 0.9961779 0.0189738 0.9961779 0.0189738 0.0038221 -0.0189738
2725000000 0.0038120 -0.0181412 0.9961880 0.0181412 0.9961880 0.0181412 0.0038120 -0.0181412
2746000000 0.0038035 -0.0173156 0.9961965 0.0173156 0.9961965 0.0173156 0.0038035 -0.0173156
2767000000 0.0037967 -0.0164971 0.9962033 0.0164971 0.9962033 0.0164971 0.0037967 -0.0164971
2788000000 0.0037915 -0.0156853 0.9962085 0.0156853 0.9962085 0.0156853 0.0037915 -0.0156853
2809000000 0.0037878 -0.0148801 0.9962122 0.0148801 0.9962122 0.0148801 0.0037878 -0.0148801
2830000000 0.0037857 -0.0140813 0.9962143 0.0140813 0.9962143 0.0140813 0.0037857 -0.0140813
2851000000 0.0037851 -0.0132889 0.9962149 0.0132889 0.9962149 0.0132889 0.0037851 -0.0132889
2872000000 0.0037859 -0.0125026 0.9962141 0.0125026 0.9962141 0.0125026 0.0037859 -0.0125026
2893000000 0.0037882 -0.0117224 0.9962118 0.0117224 0.9962118 0.0117224 0.0037882 -0.0117224
2914000000 0.0037918 -0.0109480 0.9962082 0.0109480 0.9962082 0.0109480 0.0037918 -0.0109480
2935000000 0.0037968 -0.0101793 0.9962032 0.0101793 0.9962032 0.0101793 0.0037968 -0.0101793
2956000000 0.0038032 -0.0094163 0.9961968 0.0094163 0.9961968 0.0094163 0.0038032 -0.0094163
2977000000 0.0038108 -0.0086587 0.9961892 0.0086587 0.9961892 0.0086587 0.0038108 -0.0086587
2998000000 0.0038197 -0.0079065 0.9961803 0.0079065 0.9961803 0.0079065 0.0038197 -0.0079065
3019000000 0.0038299 -0.0071596 0.9961701 0.0071596 0.9961701 0.0071596 0.0038299 -0.0071596
3040000000 0.0038413 -0.0064177 0.9961587 0.0064177 0.9961587 0.0064177 0.0038413 -0.0064177
3061000000 0.0038539 -0.0056809 0.9961461 0.0056809 0.9961461 0.0056809 0.0038539 -0.0056809
3082000000 0.0038677 -0.0049489 0.9961323 0.0049489 0.9961323 0.0049489 0.0038677 -0.0049489
3103000000 0.0038827 -0.0042218 0.9961173 0.0042218 0.9961173 0.0042218 0.0038827 -0.0042218
3124000000 0.0038987 -0.0034993 0.9961013 0.0034993 0.9961013 0.0034993 0.0038987 -0.0034993
3145000000 0.0039159 -0.0027813 0.9960841 0.0027813 0.9960841 0.0027813 0.0039159 -0.0027813
3166000000 0.0039342 -0.0020679 0.9960658 0.0020679 0.9960658 0.0020679 0.0039342 -0.0020679
3187000000 0.0039536 -0.0013588 0.9960464 0.0013588 0.9960464 0.0013588 0.0039536 -0.0013588
3208000000 0.0039740 -0.0006540 0.9960260 0.0006540 0.9960260 0.0006540 0.0039740 -0.0006540
3229000000 0.0039955 0.0000467 0.9960045 -0.0000467 0.9960045 -0.0000467 0.0039955 0.0000467
3250000000 0.0040179 0.0007432 0.9959821 -0.0007432 0.9959821 -0.0007432 0.0040179 0.0007432
3271000000 0.0040414 0.0014358 0.9959586 -0.0014358 0.9959586 -0.0014358 0.0040414 0.0014358
3292000000 0.0040659 0.0021244 0.9959341 -0.0021244 0.9959341 -0.0021244 0.0040659 0.0021244
3313000000 0.0040914 0.0028092 0.9959086 -0.0028092 0.9959086 -0.0028092 0.0040914 0.0028092
3334000000 0.0041178 0.0034903 0.9958822 -0.0034903 0.9958822 -0.0034903 0.0041178 0.0034903
3355000000 0.0041452 0.0041677 0.9958548 -0.0041677 0.9958548 -0.0041677 0.0041452 0.0041677
3376000000 0.0041735 0.0048416 0.9958265 -0.0048416 0.9958265 -0.0048416 0.0041735 0.0048416
3397000000 0.0042027 0.0055119 0.9957973 -0.0055119 0.9957973 -0.0055119 0.0042027 0.0055119
3418000000 0.0042328 0.0061788 0.9957672 -0.0061788 0.9957672 -0.0061788 0.0042328 0.0061788
3439000000 0.0042639 0.0068424 0.9957361 -0.0068424 0.9957361 -0.0068424 0.0042639 0.0068424
3460000000 0.0042958 0.0075027 0.9957042 -0.0075027 0.9957042 -0.0075027 0.0042958 0.0075027
3481000000 0.0043286 0.0081598 0.9956714 -0.0081598 0.9956714 -0.0081598 0.0043286 0.0081598
3502000000 0.0043622 0.0088137 0.9956378 -0.0088137 0.9956378 -0.0088137 0.0043622 0.0088137
3523000000 0.0043967 0.0094646 0.9956033 -0.0094646 0.9956033 -0.0094646 0.0043967 0.0094646
3544000000 0.0044321 0.0101125 0.9955679 -0.0101125 0.9955679 -0.0101125 0.0044321 0.0101125
3565000000 0.0044683 0.0107575 0.9955317 -0.0107575 0.9955317 -0.0107575 0.0044683 0.0107575
3586000000 0.0045053 0.0113995 0.9954947 -0.0113995 0.9954947 -0.0113995 0.0045053 0.0113995
3607000000 0.0045432 0.0120388 0.9954568 -0.0120388 0.9954568 -0.0120388 0.0045432 0.0120388
3628000000 0.0045818 0.0126753 0.9954182 -0.0126753 0.9954182 -0.0126753 0.0045818 0.0126753
3649000000 0.0046213 0.0133092 0.9953787 -0.0133092 0.9953787 -0.0133092 0.0046213 0.0133092
3670000000 0.0046616 0.0139404 0.9953384 -0.0139404 0.9953384 -0.0139404 0.0046616 0.0139404
3691000000 0.0047026 0.0145690 0.9952974 -0.0145690 0.9952974 -0.0145690 0.0047026 0.0145690
3712000000 0.0047445 0.0151951 0.9952555 -0.0151951 0.9952555 -0.0151951 0.0047445 0.0151951
3733000000 0.0047871 0.0158188 0.9952129 -0.0158188 0.9952129 -0.0158188 0.0047871 0.0158188
3754000000 0.0048305 0.0164401 0.9951695 -0.0164401 0.9951695 -0.0164401 0.0048305 0.0164401
3775000000 0.0048746 0.0170590 0.9951254 -0.0170590 0.9951254 -0.0170590 0.0048746 0.0170590
3796000000 0.0049195 0.0176756 0.9950805 -0.0176756 0.9950805 -0.0176756 0.0049195 0.0176756
3817000000 0.0049652 0.0182899 0.9950348 -0.0182899 0.9950348 -0.0182899 0.0049652 0.0182899
3838000000 0.0050117 0.0189021 0.9949883 -0.0189021 0.9949883 -0.0189021 0.0050117 0.0189021
3859000000 0.0050588 0.0195121 0.9949412 -0.0195121 0.9949412 -0.0195121 0.0050588 0.0195121
3880000000 0.0051068 0.0201200 0.9948932 -0.0201200 0.9948932 -0.0201200 0.0051068 0.0201200
3901000000 0.0051554 0.0207259 0.9948446 -0.0207259 0.9948446 -0.0207259 0.0051554 0.0207259
3922000000 0.0052048 0.0213297 0.9947952 -0.0213297 0.9947952 -0.0213297 0.0052048 0.0213297
3943000000 0.0052550 0.0219316 0.9947450 -0.0219316 0.9947450 -0.0219316 0.0052550 0.0219316
3964000000 0.0053059 0.0225316 0.9946941 -0.0225316 0.9946941 -0.0225316 0.0053059 0.0225316
3985000000 0.0053575 0.0231297 0.9946425 -0.0231297 0.9946425 -0.0231297 0.0053575 0.0231297
4006000000 0.0054098 0.0237260 0.9945902 -0.0237260 0.9945902 -0.0237260 0.0054098 0.0237260
4027000000 0.0054629 0.0243204 0.9945371 -0.0243204 0.9945371 -0.0243204 0.0054629 0.0243204
4048000000 0.0055167 0.0249132 0.9944833 -0.0249132 0.9944833 -0.0249132 0.0055167 0.0249132
4069000000 0.0055712 0.0255042 0.9944288 -0.0255042 0.9944288 -0.0255042 0.0055712 0.0255042
4090000000 0.0056264 0.0260935 0.9943736 -0.0260935 0.9943736 -0.0260935 0.0056264 0.0260935
4111000000 0.0056823 0.0266813 0.9943177 -0.0266813 0.9943177 -0.0266813 0.0056823 0.0266813
4132000000 0.0057390 0.0272674 0.9942610 -0.0272674 0.9942610 -0.0272674 0.0057390 0.0272674
4153000000 0.0057964 0.0278520 0.9942036 -0.0278520 0.9942036 -0.0278520 0.0057964 0.0278520
4174000000 0.0058545 0.0284351 0.9941455 -0.0284351 0.9941455 -0.0284351 0.0058545 0.0284351
4195000000 0.0059133 0.0290167 0.9940867 -0.0290167 0.9940867 -0.0290167 0.0059133 0.0290167
4216000000 0.0059728 0.0295968 0.9940272 -0.0295968 0.9940272 -0.0295968 0.0059728 0.0295968
4237000000 0.0060331 0.0301756 0.9939669 -0.0301756 0.9939669 -0.0301756 0.0060331 0.0301756
4258000000 0.0060941 0.0307530 0.9939059 -0.0307530 0.9939059 -0.0307530 0.0060941 0.0307530
4279000000 0.0061558 0.0313290 0.9938442 -0.0313290 0.9938442 -0.0313290 0.0061558 0.0313290
4300000000 0.0062182 0.0319037 0.9937818 -0.0319037 0.9937818 -0.0319037 0.0062182 0.0319037
4321000000 0.0062813 0.0324772 0.9937187 -0.0324772 0.9937187 -0.0324772 0.0062813 0.0324772
4342000000 0.0063452 0.0330494 0.9936548 -0.0330494 0.9936548 -0.0330494 0.0063452 0.0330494
4363000000 0.0064097 0.0336205 0.9935903 -0.0336205 0.9935903 -0.0336205 0.0064097 0.0336205
4384000000 0.0064750 0.0341903 0.9935250 -0.0341903 0.9935250 -0.0341903 0.0064750 0.0341903
4405000000 0.0065411 0.0347590 0.9934589 -0.0347590 0.9934589 -0.0347590 0.0065411 0.0347590
4426000000 0.0066078 0.0353266 0.9933922 -0.0353266 0.9933922 -0.0353266 0.0066078 0.0353266
4447000000 0.0066753 0.0358931 0.9933247 -0.0358931 0.9933247 -0.0358931 0.0066753 0.0358931
4468000000 0.0067435 0.0364585 0.9932565 -0.0364585 0.9932565 -0.0364585 0.0067435 0.0364585
4489000000 0.0068125 0.0370230 0.9931875 -0.0370230 0.9931875 -0.0370230 0.0068125 0.0370230
4510000000 0.0068822 0.0375864 0.9931178 -0.0375864 0.9931178 -0.0375864 0.0068822 0.0375864
