!Murata Part Number: GRM55Q7U2J273JW31
!These Parameters are Measured in Series Mode Connection
!Data Generated on Mar 30, 2021
!       o--ll--o
!Port1            Port2
!       o------o
!Operation Temp=25[degC], DC Bias Voltage=0[V]
!Freq. Start=1000[kHz] Stop=3[GHz] 401[Steps]
# Hz S RI R 50
!Freq.(Hz) S11(Real) S11(Imag) S21(Real) S21(Imag) S12(Real) S12(Imag) S22(Real) S22(Imag)
1000000 0.0034870 -0.0586949 0.9965130 0.0586949 0.9965130 0.0586949 0.0034870 -0.0586949
1020218 0.0033516 -0.0575378 0.9966484 0.0575378 0.9966484 0.0575378 0.0033516 -0.0575378
1040844 0.0032215 -0.0564031 0.9967785 0.0564031 0.9967785 0.0564031 0.0032215 -0.0564031
1061887 0.0030965 -0.0552905 0.9969035 0.0552905 0.9969035 0.0552905 0.0030965 -0.0552905
1083356 0.0029763 -0.0541995 0.9970237 0.0541995 0.9970237 0.0541995 0.0029763 -0.0541995
1105259 0.0028608 -0.0531296 0.9971392 0.0531296 0.9971392 0.0531296 0.0028608 -0.0531296
1127605 0.0027498 -0.0520806 0.9972502 0.0520806 0.9972502 0.0520806 0.0027498 -0.0520806
1150402 0.0026432 -0.0510520 0.9973568 0.0510520 0.9973568 0.0510520 0.0026432 -0.0510520
1173660 0.0025407 -0.0500434 0.9974593 0.0500434 0.9974593 0.0500434 0.0025407 -0.0500434
1197389 0.0024422 -0.0490545 0.9975578 0.0490545 0.9975578 0.0490545 0.0024422 -0.0490545
1221597 0.0023476 -0.0480848 0.9976524 0.0480848 0.9976524 0.0480848 0.0023476 -0.0480848
1246295 0.0022567 -0.0471341 0.9977433 0.0471341 0.9977433 0.0471341 0.0022567 -0.0471341
1271492 0.0021693 -0.0462019 0.9978307 0.0462019 0.9978307 0.0462019 0.0021693 -0.0462019
1297199 0.0020853 -0.0452878 0.9979147 0.0452878 0.9979147 0.0452878 0.0020853 -0.0452878
1323425 0.0020047 -0.0443917 0.9979953 0.0443917 0.9979953 0.0443917 0.0020047 -0.0443917
1350181 0.0019271 -0.0435130 0.9980729 0.0435130 0.9980729 0.0435130 0.0019271 -0.0435130
1377479 0.0018527 -0.0426515 0.9981473 0.0426515 0.9981473 0.0426515 0.0018527 -0.0426515
1405328 0.0017811 -0.0418069 0.9982189 0.0418069 0.9982189 0.0418069 0.0017811 -0.0418069
1433740 0.0017123 -0.0409787 0.9982877 0.0409787 0.9982877 0.0409787 0.0017123 -0.0409787
1462727 0.0016462 -0.0401668 0.9983538 0.0401668 0.9983538 0.0401668 0.0016462 -0.0401668
1492300 0.0015827 -0.0393707 0.9984173 0.0393707 0.9984173 0.0393707 0.0015827 -0.0393707
1522470 0.0015217 -0.0385902 0.9984783 0.0385902 0.9984783 0.0385902 0.0015217 -0.0385902
1553251 0.0014631 -0.0378250 0.9985369 0.0378250 0.9985369 0.0378250 0.0014631 -0.0378250
1584654 0.0014068 -0.0370748 0.9985932 0.0370748 0.9985932 0.0370748 0.0014068 -0.0370748
1616692 0.0013526 -0.0363393 0.9986474 0.0363393 0.9986474 0.0363393 0.0013526 -0.0363393
1649378 0.0013006 -0.0356182 0.9986994 0.0356182 0.9986994 0.0356182 0.0013006 -0.0356182
1682724 0.0012507 -0.0349111 0.9987493 0.0349111 0.9987493 0.0349111 0.0012507 -0.0349111
1716745 0.0012027 -0.0342180 0.9987973 0.0342180 0.9987973 0.0342180 0.0012027 -0.0342180
1751453 0.0011565 -0.0335384 0.9988435 0.0335384 0.9988435 0.0335384 0.0011565 -0.0335384
1786863 0.0011122 -0.0328722 0.9988878 0.0328722 0.9988878 0.0328722 0.0011122 -0.0328722
1822989 0.0010696 -0.0322190 0.9989304 0.0322190 0.9989304 0.0322190 0.0010696 -0.0322190
1859846 0.0010287 -0.0315786 0.9989713 0.0315786 0.9989713 0.0315786 0.0010287 -0.0315786
1897447 0.0009894 -0.0309507 0.9990106 0.0309507 0.9990106 0.0309507 0.0009894 -0.0309507
1935809 0.0009517 -0.0303352 0.9990483 0.0303352 0.9990483 0.0303352 0.0009517 -0.0303352
1974946 0.0009154 -0.0297317 0.9990846 0.0297317 0.9990846 0.0297317 0.0009154 -0.0297317
2014875 0.0008805 -0.0291400 0.9991195 0.0291400 0.9991195 0.0291400 0.0008805 -0.0291400
2055611 0.0008470 -0.0285600 0.9991530 0.0285600 0.9991530 0.0285600 0.0008470 -0.0285600
2097170 0.0008149 -0.0279913 0.9991851 0.0279913 0.9991851 0.0279913 0.0008149 -0.0279913
2139570 0.0007839 -0.0274337 0.9992161 0.0274337 0.9992161 0.0274337 0.0007839 -0.0274337
2182827 0.0007542 -0.0268871 0.9992458 0.0268871 0.9992458 0.0268871 0.0007542 -0.0268871
2226959 0.0007257 -0.0263512 0.9992743 0.0263512 0.9992743 0.0263512 0.0007257 -0.0263512
2271982 0.0006983 -0.0258258 0.9993017 0.0258258 0.9993017 0.0258258 0.0006983 -0.0258258
2317916 0.0006720 -0.0253107 0.9993280 0.0253107 0.9993280 0.0253107 0.0006720 -0.0253107
2364779 0.0006467 -0.0248057 0.9993533 0.0248057 0.9993533 0.0248057 0.0006467 -0.0248057
2412589 0.0006224 -0.0243105 0.9993776 0.0243105 0.9993776 0.0243105 0.0006224 -0.0243105
2461366 0.0005990 -0.0238251 0.9994010 0.0238251 0.9994010 0.0238251 0.0005990 -0.0238251
2511129 0.0005766 -0.0233491 0.9994234 0.0233491 0.9994234 0.0233491 0.0005766 -0.0233491
2561897 0.0005551 -0.0228825 0.9994449 0.0228825 0.9994449 0.0228825 0.0005551 -0.0228825
2613693 0.0005344 -0.0224250 0.9994656 0.0224250 0.9994656 0.0224250 0.0005344 -0.0224250
2666535 0.0005145 -0.0219765 0.9994855 0.0219765 0.9994855 0.0219765 0.0005145 -0.0219765
2720446 0.0004954 -0.0215367 0.9995046 0.0215367 0.9995046 0.0215367 0.0004954 -0.0215367
2775447 0.0004770 -0.0211055 0.9995230 0.0211055 0.9995230 0.0211055 0.0004770 -0.0211055
2831560 0.0004594 -0.0206828 0.9995406 0.0206828 0.9995406 0.0206828 0.0004594 -0.0206828
2888807 0.0004425 -0.0202683 0.9995575 0.0202683 0.9995575 0.0202683 0.0004425 -0.0202683
2947212 0.0004262 -0.0198619 0.9995738 0.0198619 0.9995738 0.0198619 0.0004262 -0.0198619
3006797 0.0004106 -0.0194634 0.9995894 0.0194634 0.9995894 0.0194634 0.0004106 -0.0194634
3067588 0.0003956 -0.0190727 0.9996044 0.0190727 0.9996044 0.0190727 0.0003956 -0.0190727
3129607 0.0003812 -0.0186897 0.9996188 0.0186897 0.9996188 0.0186897 0.0003812 -0.0186897
3192880 0.0003674 -0.0183141 0.9996326 0.0183141 0.9996326 0.0183141 0.0003674 -0.0183141
3257432 0.0003541 -0.0179458 0.9996459 0.0179458 0.9996459 0.0179458 0.0003541 -0.0179458
3323290 0.0003413 -0.0175847 0.9996587 0.0175847 0.9996587 0.0175847 0.0003413 -0.0175847
3390478 0.0003290 -0.0172306 0.9996710 0.0172306 0.9996710 0.0172306 0.0003290 -0.0172306
3459026 0.0003173 -0.0168834 0.9996827 0.0168834 0.9996827 0.0168834 0.0003173 -0.0168834
3528959 0.0003060 -0.0165430 0.9996940 0.0165430 0.9996940 0.0165430 0.0003060 -0.0165430
3600306 0.0002951 -0.0162091 0.9997049 0.0162091 0.9997049 0.0162091 0.0002951 -0.0162091
3673095 0.0002847 -0.0158818 0.9997153 0.0158818 0.9997153 0.0158818 0.0002847 -0.0158818
3747356 0.0002747 -0.0155608 0.9997253 0.0155608 0.9997253 0.0155608 0.0002747 -0.0155608
3823119 0.0002650 -0.0152460 0.9997350 0.0152460 0.9997350 0.0152460 0.0002650 -0.0152460
3900413 0.0002558 -0.0149374 0.9997442 0.0149374 0.9997442 0.0149374 0.0002558 -0.0149374
3979270 0.0002469 -0.0146347 0.9997531 0.0146347 0.9997531 0.0146347 0.0002469 -0.0146347
4059721 0.0002384 -0.0143378 0.9997616 0.0143378 0.9997616 0.0143378 0.0002384 -0.0143378
4141799 0.0002302 -0.0140467 0.9997698 0.0140467 0.9997698 0.0140467 0.0002302 -0.0140467
4225536 0.0002224 -0.0137613 0.9997776 0.0137613 0.9997776 0.0137613 0.0002224 -0.0137613
4310966 0.0002149 -0.0134813 0.9997851 0.0134813 0.9997851 0.0134813 0.0002149 -0.0134813
4398124 0.0002076 -0.0132067 0.9997924 0.0132067 0.9997924 0.0132067 0.0002076 -0.0132067
4487043 0.0002007 -0.0129374 0.9997993 0.0129374 0.9997993 0.0129374 0.0002007 -0.0129374
4577760 0.0001940 -0.0126733 0.9998060 0.0126733 0.9998060 0.0126733 0.0001940 -0.0126733
4670311 0.0001876 -0.0124143 0.9998124 0.0124143 0.9998124 0.0124143 0.0001876 -0.0124143
4764734 0.0001815 -0.0121602 0.9998185 0.0121602 0.9998185 0.0121602 0.0001815 -0.0121602
4861065 0.0001756 -0.0119110 0.9998244 0.0119110 0.9998244 0.0119110 0.0001756 -0.0119110
4959344 0.0001699 -0.0116666 0.9998301 0.0116666 0.9998301 0.0116666 0.0001699 -0.0116666
5059610 0.0001645 -0.0114268 0.9998355 0.0114268 0.9998355 0.0114268 0.0001645 -0.0114268
5161903 0.0001593 -0.0111916 0.9998407 0.0111916 0.9998407 0.0111916 0.0001593 -0.0111916
5266264 0.0001543 -0.0109609 0.9998457 0.0109609 0.9998457 0.0109609 0.0001543 -0.0109609
5372736 0.0001495 -0.0107346 0.9998505 0.0107346 0.9998505 0.0107346 0.0001495 -0.0107346
5481359 0.0001449 -0.0105126 0.9998551 0.0105126 0.9998551 0.0105126 0.0001449 -0.0105126
5592179 0.0001405 -0.0102948 0.9998595 0.0102948 0.9998595 0.0102948 0.0001405 -0.0102948
5705239 0.0001363 -0.0100811 0.9998637 0.0100811 0.9998637 0.0100811 0.0001363 -0.0100811
5820586 0.0001322 -0.0098715 0.9998678 0.0098715 0.9998678 0.0098715 0.0001322 -0.0098715
5938264 0.0001283 -0.0096658 0.9998717 0.0096658 0.9998717 0.0096658 0.0001283 -0.0096658
6058321 0.0001246 -0.0094640 0.9998754 0.0094640 0.9998754 0.0094640 0.0001246 -0.0094640
6180806 0.0001210 -0.0092659 0.9998790 0.0092659 0.9998790 0.0092659 0.0001210 -0.0092659
6305767 0.0001176 -0.0090716 0.9998824 0.0090716 0.9998824 0.0090716 0.0001176 -0.0090716
6433254 0.0001143 -0.0088809 0.9998857 0.0088809 0.9998857 0.0088809 0.0001143 -0.0088809
6563319 0.0001111 -0.0086938 0.9998889 0.0086938 0.9998889 0.0086938 0.0001111 -0.0086938
6696013 0.0001081 -0.0085102 0.9998919 0.0085102 0.9998919 0.0085102 0.0001081 -0.0085102
6831390 0.0001052 -0.0083299 0.9998948 0.0083299 0.9998948 0.0083299 0.0001052 -0.0083299
6969505 0.0001024 -0.0081530 0.9998976 0.0081530 0.9998976 0.0081530 0.0001024 -0.0081530
7110411 0.0000998 -0.0079794 0.9999002 0.0079794 0.9999002 0.0079794 0.0000998 -0.0079794
7254166 0.0000972 -0.0078090 0.9999028 0.0078090 0.9999028 0.0078090 0.0000972 -0.0078090
7400828 0.0000948 -0.0076417 0.9999052 0.0076417 0.9999052 0.0076417 0.0000948 -0.0076417
7550455 0.0000925 -0.0074774 0.9999075 0.0074774 0.9999075 0.0074774 0.0000925 -0.0074774
7703107 0.0000902 -0.0073162 0.9999098 0.0073162 0.9999098 0.0073162 0.0000902 -0.0073162
7858845 0.0000881 -0.0071578 0.9999119 0.0071578 0.9999119 0.0071578 0.0000881 -0.0071578
8017732 0.0000861 -0.0070024 0.9999139 0.0070024 0.9999139 0.0070024 0.0000861 -0.0070024
8179831 0.0000841 -0.0068497 0.9999159 0.0068497 0.9999159 0.0068497 0.0000841 -0.0068497
8345207 0.0000823 -0.0066998 0.9999177 0.0066998 0.9999177 0.0066998 0.0000823 -0.0066998
8513927 0.0000805 -0.0065526 0.9999195 0.0065526 0.9999195 0.0065526 0.0000805 -0.0065526
8686058 0.0000788 -0.0064080 0.9999212 0.0064080 0.9999212 0.0064080 0.0000788 -0.0064080
8861669 0.0000772 -0.0062660 0.9999228 0.0062660 0.9999228 0.0062660 0.0000772 -0.0062660
9040831 0.0000756 -0.0061264 0.9999244 0.0061264 0.9999244 0.0061264 0.0000756 -0.0061264
9223615 0.0000742 -0.0059894 0.9999258 0.0059894 0.9999258 0.0059894 0.0000742 -0.0059894
9410094 0.0000728 -0.0058547 0.9999272 0.0058547 0.9999272 0.0058547 0.0000728 -0.0058547
9600343 0.0000714 -0.0057223 0.9999286 0.0057223 0.9999286 0.0057223 0.0000714 -0.0057223
9794439 0.0000702 -0.0055923 0.9999298 0.0055923 0.9999298 0.0055923 0.0000702 -0.0055923
9992459 0.0000689 -0.0054645 0.9999311 0.0054645 0.9999311 0.0054645 0.0000689 -0.0054645
10194482 0.0000678 -0.0053389 0.9999322 0.0053389 0.9999322 0.0053389 0.0000678 -0.0053389
10400590 0.0000667 -0.0052154 0.9999333 0.0052154 0.9999333 0.0052154 0.0000667 -0.0052154
10610865 0.0000657 -0.0050940 0.9999343 0.0050940 0.9999343 0.0050940 0.0000657 -0.0050940
10825391 0.0000647 -0.0049746 0.9999353 0.0049746 0.9999353 0.0049746 0.0000647 -0.0049746
11044254 0.0000638 -0.0048573 0.9999362 0.0048573 0.9999362 0.0048573 0.0000638 -0.0048573
11267542 0.0000630 -0.0047418 0.9999370 0.0047418 0.9999370 0.0047418 0.0000630 -0.0047418
11495344 0.0000621 -0.0046283 0.9999379 0.0046283 0.9999379 0.0046283 0.0000621 -0.0046283
11727752 0.0000614 -0.0045166 0.9999386 0.0045166 0.9999386 0.0045166 0.0000614 -0.0045166
11964859 0.0000607 -0.0044067 0.9999393 0.0044067 0.9999393 0.0044067 0.0000607 -0.0044067
12206760 0.0000600 -0.0042986 0.9999400 0.0042986 0.9999400 0.0042986 0.0000600 -0.0042986
12453551 0.0000594 -0.0041922 0.9999406 0.0041922 0.9999406 0.0041922 0.0000594 -0.0041922
12705331 0.0000588 -0.0040874 0.9999412 0.0040874 0.9999412 0.0040874 0.0000588 -0.0040874
12962202 0.0000583 -0.0039843 0.9999417 0.0039843 0.9999417 0.0039843 0.0000583 -0.0039843
13224267 0.0000578 -0.0038828 0.9999422 0.0038828 0.9999422 0.0038828 0.0000578 -0.0038828
13491630 0.0000574 -0.0037828 0.9999426 0.0037828 0.9999426 0.0037828 0.0000574 -0.0037828
13764398 0.0000570 -0.0036843 0.9999430 0.0036843 0.9999430 0.0036843 0.0000570 -0.0036843
14042680 0.0000566 -0.0035873 0.9999434 0.0035873 0.9999434 0.0035873 0.0000566 -0.0035873
14326589 0.0000563 -0.0034917 0.9999437 0.0034917 0.9999437 0.0034917 0.0000563 -0.0034917
14616238 0.0000560 -0.0033975 0.9999440 0.0033975 0.9999440 0.0033975 0.0000560 -0.0033975
14911743 0.0000558 -0.0033047 0.9999442 0.0033047 0.9999442 0.0033047 0.0000558 -0.0033047
15213223 0.0000556 -0.0032132 0.9999444 0.0032132 0.9999444 0.0032132 0.0000556 -0.0032132
15520797 0.0000555 -0.0031229 0.9999445 0.0031229 0.9999445 0.0031229 0.0000555 -0.0031229
15834590 0.0000553 -0.0030338 0.9999447 0.0030338 0.9999447 0.0030338 0.0000553 -0.0030338
16154727 0.0000553 -0.0029460 0.9999447 0.0029460 0.9999447 0.0029460 0.0000553 -0.0029460
16481337 0.0000552 -0.0028593 0.9999448 0.0028593 0.9999448 0.0028593 0.0000552 -0.0028593
16814550 0.0000552 -0.0027738 0.9999448 0.0027738 0.9999448 0.0027738 0.0000552 -0.0027738
17154499 0.0000553 -0.0026893 0.9999447 0.0026893 0.9999447 0.0026893 0.0000553 -0.0026893
17501322 0.0000554 -0.0026059 0.9999446 0.0026059 0.9999446 0.0026059 0.0000554 -0.0026059
17855156 0.0000555 -0.0025235 0.9999445 0.0025235 0.9999445 0.0025235 0.0000555 -0.0025235
18216144 0.0000557 -0.0024421 0.9999443 0.0024421 0.9999443 0.0024421 0.0000557 -0.0024421
18584431 0.0000559 -0.0023617 0.9999441 0.0023617 0.9999441 0.0023617 0.0000559 -0.0023617
18960163 0.0000561 -0.0022821 0.9999439 0.0022821 0.9999439 0.0022821 0.0000561 -0.0022821
19343491 0.0000564 -0.0022034 0.9999436 0.0022034 0.9999436 0.0022034 0.0000564 -0.0022034
19734570 0.0000567 -0.0021256 0.9999433 0.0021256 0.9999433 0.0021256 0.0000567 -0.0021256
20133555 0.0000571 -0.0020486 0.9999429 0.0020486 0.9999429 0.0020486 0.0000571 -0.0020486
20540607 0.0000575 -0.0019724 0.9999425 0.0019724 0.9999425 0.0019724 0.0000575 -0.0019724
20955888 0.0000580 -0.0018969 0.9999420 0.0018969 0.9999420 0.0018969 0.0000580 -0.0018969
21379566 0.0000585 -0.0018222 0.9999415 0.0018222 0.9999415 0.0018222 0.0000585 -0.0018222
21811809 0.0000590 -0.0017481 0.9999410 0.0017481 0.9999410 0.0017481 0.0000590 -0.0017481
22252791 0.0000596 -0.0016746 0.9999404 0.0016746 0.9999404 0.0016746 0.0000596 -0.0016746
22702688 0.0000603 -0.0016018 0.9999397 0.0016018 0.9999397 0.0016018 0.0000603 -0.0016018
23161682 0.0000610 -0.0015296 0.9999390 0.0015296 0.9999390 0.0015296 0.0000610 -0.0015296
23629955 0.0000618 -0.0014579 0.9999382 0.0014579 0.9999382 0.0014579 0.0000618 -0.0014579
24107696 0.0000626 -0.0013867 0.9999374 0.0013867 0.9999374 0.0013867 0.0000626 -0.0013867
24595095 0.0000634 -0.0013160 0.9999366 0.0013160 0.9999366 0.0013160 0.0000634 -0.0013160
25092348 0.0000644 -0.0012457 0.9999356 0.0012457 0.9999356 0.0012457 0.0000644 -0.0012457
25599655 0.0000654 -0.0011758 0.9999346 0.0011758 0.9999346 0.0011758 0.0000654 -0.0011758
26117218 0.0000664 -0.0011064 0.9999336 0.0011064 0.9999336 0.0011064 0.0000664 -0.0011064
26645245 0.0000675 -0.0010372 0.9999325 0.0010372 0.9999325 0.0010372 0.0000675 -0.0010372
27183947 0.0000687 -0.0009684 0.9999313 0.0009684 0.9999313 0.0009684 0.0000687 -0.0009684
27733541 0.0000700 -0.0008998 0.9999300 0.0008998 0.9999300 0.0008998 0.0000700 -0.0008998
28294246 0.0000713 -0.0008315 0.9999287 0.0008315 0.9999287 0.0008315 0.0000713 -0.0008315
28866287 0.0000727 -0.0007633 0.9999273 0.0007633 0.9999273 0.0007633 0.0000727 -0.0007633
29449894 0.0000742 -0.0006953 0.9999258 0.0006953 0.9999258 0.0006953 0.0000742 -0.0006953
30045299 0.0000758 -0.0006274 0.9999242 0.0006274 0.9999242 0.0006274 0.0000758 -0.0006274
30652742 0.0000775 -0.0005596 0.9999225 0.0005596 0.9999225 0.0005596 0.0000775 -0.0005596
31272467 0.0000793 -0.0004918 0.9999207 0.0004918 0.9999207 0.0004918 0.0000793 -0.0004918
31904720 0.0000812 -0.0004240 0.9999188 0.0004240 0.9999188 0.0004240 0.0000812 -0.0004240
32549757 0.0000831 -0.0003562 0.9999169 0.0003562 0.9999169 0.0003562 0.0000831 -0.0003562
33207834 0.0000853 -0.0002882 0.9999147 0.0002882 0.9999147 0.0002882 0.0000853 -0.0002882
33879216 0.0000875 -0.0002201 0.9999125 0.0002201 0.9999125 0.0002201 0.0000875 -0.0002201
34564172 0.0000898 -0.0001518 0.9999102 0.0001518 0.9999102 0.0001518 0.0000898 -0.0001518
35262976 0.0000924 -0.0000832 0.9999076 0.0000832 0.9999076 0.0000832 0.0000924 -0.0000832
35975908 0.0000950 -0.0000143 0.9999050 0.0000143 0.9999050 0.0000143 0.0000950 -0.0000143
36703254 0.0000978 0.0000550 0.9999022 -0.0000550 0.9999022 -0.0000550 0.0000978 0.0000550
37445305 0.0001008 0.0001248 0.9998992 -0.0001248 0.9998992 -0.0001248 0.0001008 0.0001248
38202358 0.0001040 0.0001950 0.9998960 -0.0001950 0.9998960 -0.0001950 0.0001040 0.0001950
38974717 0.0001074 0.0002658 0.9998926 -0.0002658 0.9998926 -0.0002658 0.0001074 0.0002658
39762692 0.0001110 0.0003373 0.9998890 -0.0003373 0.9998890 -0.0003373 0.0001110 0.0003373
40566597 0.0001149 0.0004096 0.9998851 -0.0004096 0.9998851 -0.0004096 0.0001149 0.0004096
41386756 0.0001190 0.0004827 0.9998810 -0.0004827 0.9998810 -0.0004827 0.0001190 0.0004827
42223496 0.0001234 0.0005568 0.9998766 -0.0005568 0.9998766 -0.0005568 0.0001234 0.0005568
43077153 0.0001282 0.0006319 0.9998718 -0.0006319 0.9998718 -0.0006319 0.0001282 0.0006319
43948069 0.0001333 0.0007082 0.9998667 -0.0007082 0.9998667 -0.0007082 0.0001333 0.0007082
44836592 0.0001388 0.0007859 0.9998612 -0.0007859 0.9998612 -0.0007859 0.0001388 0.0007859
45743080 0.0001448 0.0008651 0.9998552 -0.0008651 0.9998552 -0.0008651 0.0001448 0.0008651
46667894 0.0001513 0.0009460 0.9998487 -0.0009460 0.9998487 -0.0009460 0.0001513 0.0009460
47611406 0.0001584 0.0010287 0.9998416 -0.0010287 0.9998416 -0.0010287 0.0001584 0.0010287
48573993 0.0001661 0.0011136 0.9998339 -0.0011136 0.9998339 -0.0011136 0.0001661 0.0011136
49556042 0.0001747 0.0012009 0.9998253 -0.0012009 0.9998253 -0.0012009 0.0001747 0.0012009
50557945 0.0001841 0.0012909 0.9998159 -0.0012909 0.9998159 -0.0012909 0.0001841 0.0012909
51580105 0.0001946 0.0013840 0.9998054 -0.0013840 0.9998054 -0.0013840 0.0001946 0.0013840
52622929 0.0002064 0.0014807 0.9997936 -0.0014807 0.9997936 -0.0014807 0.0002064 0.0014807
53686838 0.0002197 0.0015814 0.9997803 -0.0015814 0.9997803 -0.0015814 0.0002197 0.0015814
54772256 0.0002348 0.0016868 0.9997652 -0.0016868 0.9997652 -0.0016868 0.0002348 0.0016868
55879618 0.0002523 0.0017977 0.9997477 -0.0017977 0.9997477 -0.0017977 0.0002523 0.0017977
57009369 0.0002726 0.0019150 0.9997274 -0.0019150 0.9997274 -0.0019150 0.0002726 0.0019150
58161960 0.0002965 0.0020400 0.9997035 -0.0020400 0.9997035 -0.0020400 0.0002965 0.0020400
59337855 0.0003252 0.0021741 0.9996748 -0.0021741 0.9996748 -0.0021741 0.0003252 0.0021741
60537522 0.0003600 0.0023193 0.9996400 -0.0023193 0.9996400 -0.0023193 0.0003600 0.0023193
61761445 0.0004033 0.0024781 0.9995967 -0.0024781 0.9995967 -0.0024781 0.0004033 0.0024781
63010112 0.0004582 0.0026536 0.9995418 -0.0026536 0.9995418 -0.0026536 0.0004582 0.0026536
64284024 0.0005299 0.0028503 0.9994701 -0.0028503 0.9994701 -0.0028503 0.0005299 0.0028503
65583691 0.0006261 0.0030737 0.9993739 -0.0030737 0.9993739 -0.0030737 0.0006261 0.0030737
66909635 0.0007603 0.0033310 0.9992397 -0.0033310 0.9992397 -0.0033310 0.0007603 0.0033310
68262386 0.0009553 0.0036307 0.9990447 -0.0036307 0.9990447 -0.0036307 0.0009553 0.0036307
69642486 0.0012526 0.0039794 0.9987474 -0.0039794 0.9987474 -0.0039794 0.0012526 0.0039794
71050488 0.0017301 0.0043697 0.9982699 -0.0043697 0.9982699 -0.0043697 0.0017301 0.0043697
72486957 0.0025285 0.0047314 0.9974715 -0.0047314 0.9974715 -0.0047314 0.0025285 0.0047314
73952468 0.0038324 0.0047742 0.9961676 -0.0047742 0.9961676 -0.0047742 0.0038324 0.0047742
