!Murata Part Number: GRM55D7U3A103JW31
!These Parameters are Measured in Series Mode Connection
!Data Generated on Mar 30, 2021
!       o--ll--o
!Port1            Port2
!       o------o
!Operation Temp=25[degC], DC Bias Voltage=0[V]
!Freq. Start=1000[kHz] Stop=3[GHz] 401[Steps]
# Hz S RI R 50
!Freq.(Hz) S11(Real) S11(Imag) S21(Real) S21(Imag) S12(Real) S12(Imag) S22(Real) S22(Imag)
1000000 0.0259519 -0.1588949 0.9740481 0.1588949 0.9740481 0.1588949 0.0259519 -0.1588949
1020218 0.0249595 -0.1559029 0.9750405 0.1559029 0.9750405 0.1559029 0.0249595 -0.1559029
1040844 0.0240041 -0.1529612 0.9759959 0.1529612 0.9759959 0.1529612 0.0240041 -0.1529612
1061887 0.0230845 -0.1500692 0.9769155 0.1500692 0.9769155 0.1500692 0.0230845 -0.1500692
1083356 0.0221994 -0.1472265 0.9778006 0.1472265 0.9778006 0.1472265 0.0221994 -0.1472265
1105259 0.0213474 -0.1444326 0.9786526 0.1444326 0.9786526 0.1444326 0.0213474 -0.1444326
1127605 0.0205275 -0.1416869 0.9794725 0.1416869 0.9794725 0.1416869 0.0205275 -0.1416869
1150402 0.0197385 -0.1389888 0.9802615 0.1389888 0.9802615 0.1389888 0.0197385 -0.1389888
1173660 0.0189792 -0.1363378 0.9810208 0.1363378 0.9810208 0.1363378 0.0189792 -0.1363378
1197389 0.0182486 -0.1337333 0.9817514 0.1337333 0.9817514 0.1337333 0.0182486 -0.1337333
1221597 0.0175457 -0.1311746 0.9824543 0.1311746 0.9824543 0.1311746 0.0175457 -0.1311746
1246295 0.0168694 -0.1286613 0.9831306 0.1286613 0.9831306 0.1286613 0.0168694 -0.1286613
1271492 0.0162188 -0.1261927 0.9837812 0.1261927 0.9837812 0.1261927 0.0162188 -0.1261927
1297199 0.0155928 -0.1237682 0.9844072 0.1237682 0.9844072 0.1237682 0.0155928 -0.1237682
1323425 0.0149907 -0.1213872 0.9850093 0.1213872 0.9850093 0.1213872 0.0149907 -0.1213872
1350181 0.0144116 -0.1190491 0.9855884 0.1190491 0.9855884 0.1190491 0.0144116 -0.1190491
1377479 0.0138545 -0.1167532 0.9861455 0.1167532 0.9861455 0.1167532 0.0138545 -0.1167532
1405328 0.0133187 -0.1144990 0.9866813 0.1144990 0.9866813 0.1144990 0.0133187 -0.1144990
1433740 0.0128033 -0.1122859 0.9871967 0.1122859 0.9871967 0.1122859 0.0128033 -0.1122859
1462727 0.0123077 -0.1101132 0.9876923 0.1101132 0.9876923 0.1101132 0.0123077 -0.1101132
1492300 0.0118311 -0.1079804 0.9881689 0.1079804 0.9881689 0.1079804 0.0118311 -0.1079804
1522470 0.0113727 -0.1058868 0.9886273 0.1058868 0.9886273 0.1058868 0.0113727 -0.1058868
1553251 0.0109319 -0.1038317 0.9890681 0.1038317 0.9890681 0.1038317 0.0109319 -0.1038317
1584654 0.0105080 -0.1018147 0.9894920 0.1018147 0.9894920 0.1018147 0.0105080 -0.1018147
1616692 0.0101005 -0.0998351 0.9898995 0.0998351 0.9898995 0.0998351 0.0101005 -0.0998351
1649378 0.0097086 -0.0978923 0.9902914 0.0978923 0.9902914 0.0978923 0.0097086 -0.0978923
1682724 0.0093318 -0.0959856 0.9906682 0.0959856 0.9906682 0.0959856 0.0093318 -0.0959856
1716745 0.0089695 -0.0941146 0.9910305 0.0941146 0.9910305 0.0941146 0.0089695 -0.0941146
1751453 0.0086212 -0.0922787 0.9913788 0.0922787 0.9913788 0.0922787 0.0086212 -0.0922787
1786863 0.0082863 -0.0904771 0.9917137 0.0904771 0.9917137 0.0904771 0.0082863 -0.0904771
1822989 0.0079644 -0.0887095 0.9920356 0.0887095 0.9920356 0.0887095 0.0079644 -0.0887095
1859846 0.0076548 -0.0869751 0.9923452 0.0869751 0.9923452 0.0869751 0.0076548 -0.0869751
1897447 0.0073573 -0.0852735 0.9926427 0.0852735 0.9926427 0.0852735 0.0073573 -0.0852735
1935809 0.0070713 -0.0836040 0.9929287 0.0836040 0.9929287 0.0836040 0.0070713 -0.0836040
1974946 0.0067963 -0.0819662 0.9932037 0.0819662 0.9932037 0.0819662 0.0067963 -0.0819662
2014875 0.0065320 -0.0803594 0.9934680 0.0803594 0.9934680 0.0803594 0.0065320 -0.0803594
2055611 0.0062779 -0.0787831 0.9937221 0.0787831 0.9937221 0.0787831 0.0062779 -0.0787831
2097170 0.0060337 -0.0772369 0.9939663 0.0772369 0.9939663 0.0772369 0.0060337 -0.0772369
2139570 0.0057989 -0.0757201 0.9942011 0.0757201 0.9942011 0.0757201 0.0057989 -0.0757201
2182827 0.0055733 -0.0742322 0.9944267 0.0742322 0.9944267 0.0742322 0.0055733 -0.0742322
2226959 0.0053564 -0.0727728 0.9946436 0.0727728 0.9946436 0.0727728 0.0053564 -0.0727728
2271982 0.0051479 -0.0713413 0.9948521 0.0713413 0.9948521 0.0713413 0.0051479 -0.0713413
2317916 0.0049475 -0.0699371 0.9950525 0.0699371 0.9950525 0.0699371 0.0049475 -0.0699371
2364779 0.0047550 -0.0685600 0.9952450 0.0685600 0.9952450 0.0685600 0.0047550 -0.0685600
2412589 0.0045699 -0.0672092 0.9954301 0.0672092 0.9954301 0.0672092 0.0045699 -0.0672092
2461366 0.0043920 -0.0658844 0.9956080 0.0658844 0.9956080 0.0658844 0.0043920 -0.0658844
2511129 0.0042210 -0.0645851 0.9957790 0.0645851 0.9957790 0.0645851 0.0042210 -0.0645851
2561897 0.0040567 -0.0633107 0.9959433 0.0633107 0.9959433 0.0633107 0.0040567 -0.0633107
2613693 0.0038988 -0.0620609 0.9961012 0.0620609 0.9961012 0.0620609 0.0038988 -0.0620609
2666535 0.0037470 -0.0608353 0.9962530 0.0608353 0.9962530 0.0608353 0.0037470 -0.0608353
2720446 0.0036012 -0.0596332 0.9963988 0.0596332 0.9963988 0.0596332 0.0036012 -0.0596332
2775447 0.0034610 -0.0584544 0.9965390 0.0584544 0.9965390 0.0584544 0.0034610 -0.0584544
2831560 0.0033263 -0.0572983 0.9966737 0.0572983 0.9966737 0.0572983 0.0033263 -0.0572983
2888807 0.0031969 -0.0561646 0.9968031 0.0561646 0.9968031 0.0561646 0.0031969 -0.0561646
2947212 0.0030725 -0.0550528 0.9969275 0.0550528 0.9969275 0.0550528 0.0030725 -0.0550528
3006797 0.0029530 -0.0539626 0.9970470 0.0539626 0.9970470 0.0539626 0.0029530 -0.0539626
3067588 0.0028381 -0.0528934 0.9971619 0.0528934 0.9971619 0.0528934 0.0028381 -0.0528934
3129607 0.0027277 -0.0518450 0.9972723 0.0518450 0.9972723 0.0518450 0.0027277 -0.0518450
3192880 0.0026216 -0.0508169 0.9973784 0.0508169 0.9973784 0.0508169 0.0026216 -0.0508169
3257432 0.0025197 -0.0498087 0.9974803 0.0498087 0.9974803 0.0498087 0.0025197 -0.0498087
3323290 0.0024217 -0.0488201 0.9975783 0.0488201 0.9975783 0.0488201 0.0024217 -0.0488201
3390478 0.0023276 -0.0478506 0.9976724 0.0478506 0.9976724 0.0478506 0.0023276 -0.0478506
3459026 0.0022372 -0.0469000 0.9977628 0.0469000 0.9977628 0.0469000 0.0022372 -0.0469000
3528959 0.0021503 -0.0459679 0.9978497 0.0459679 0.9978497 0.0459679 0.0021503 -0.0459679
3600306 0.0020668 -0.0450538 0.9979332 0.0450538 0.9979332 0.0450538 0.0020668 -0.0450538
3673095 0.0019866 -0.0441575 0.9980134 0.0441575 0.9980134 0.0441575 0.0019866 -0.0441575
3747356 0.0019095 -0.0432786 0.9980905 0.0432786 0.9980905 0.0432786 0.0019095 -0.0432786
3823119 0.0018354 -0.0424168 0.9981646 0.0424168 0.9981646 0.0424168 0.0018354 -0.0424168
3900413 0.0017642 -0.0415717 0.9982358 0.0415717 0.9982358 0.0415717 0.0017642 -0.0415717
3979270 0.0016958 -0.0407430 0.9983042 0.0407430 0.9983042 0.0407430 0.0016958 -0.0407430
4059721 0.0016301 -0.0399305 0.9983699 0.0399305 0.9983699 0.0399305 0.0016301 -0.0399305
4141799 0.0015670 -0.0391337 0.9984330 0.0391337 0.9984330 0.0391337 0.0015670 -0.0391337
4225536 0.0015063 -0.0383525 0.9984937 0.0383525 0.9984937 0.0383525 0.0015063 -0.0383525
4310966 0.0014481 -0.0375864 0.9985519 0.0375864 0.9985519 0.0375864 0.0014481 -0.0375864
4398124 0.0013921 -0.0368352 0.9986079 0.0368352 0.9986079 0.0368352 0.0013921 -0.0368352
4487043 0.0013383 -0.0360986 0.9986617 0.0360986 0.9986617 0.0360986 0.0013383 -0.0360986
4577760 0.0012866 -0.0353763 0.9987134 0.0353763 0.9987134 0.0353763 0.0012866 -0.0353763
4670311 0.0012369 -0.0346680 0.9987631 0.0346680 0.9987631 0.0346680 0.0012369 -0.0346680
4764734 0.0011892 -0.0339735 0.9988108 0.0339735 0.9988108 0.0339735 0.0011892 -0.0339735
4861065 0.0011434 -0.0332925 0.9988566 0.0332925 0.9988566 0.0332925 0.0011434 -0.0332925
4959344 0.0010994 -0.0326247 0.9989006 0.0326247 0.9989006 0.0326247 0.0010994 -0.0326247
5059610 0.0010571 -0.0319698 0.9989429 0.0319698 0.9989429 0.0319698 0.0010571 -0.0319698
5161903 0.0010165 -0.0313277 0.9989835 0.0313277 0.9989835 0.0313277 0.0010165 -0.0313277
5266264 0.0009774 -0.0306980 0.9990226 0.0306980 0.9990226 0.0306980 0.0009774 -0.0306980
5372736 0.0009399 -0.0300805 0.9990601 0.0300805 0.9990601 0.0300805 0.0009399 -0.0300805
5481359 0.0009039 -0.0294750 0.9990961 0.0294750 0.9990961 0.0294750 0.0009039 -0.0294750
5592179 0.0008693 -0.0288812 0.9991307 0.0288812 0.9991307 0.0288812 0.0008693 -0.0288812
5705239 0.0008361 -0.0282988 0.9991639 0.0282988 0.9991639 0.0282988 0.0008361 -0.0282988
5820586 0.0008041 -0.0277278 0.9991959 0.0277278 0.9991959 0.0277278 0.0008041 -0.0277278
5938264 0.0007735 -0.0271678 0.9992265 0.0271678 0.9992265 0.0271678 0.0007735 -0.0271678
6058321 0.0007440 -0.0266186 0.9992560 0.0266186 0.9992560 0.0266186 0.0007440 -0.0266186
6180806 0.0007157 -0.0260800 0.9992843 0.0260800 0.9992843 0.0260800 0.0007157 -0.0260800
6305767 0.0006886 -0.0255518 0.9993114 0.0255518 0.9993114 0.0255518 0.0006886 -0.0255518
6433254 0.0006625 -0.0250338 0.9993375 0.0250338 0.9993375 0.0250338 0.0006625 -0.0250338
6563319 0.0006374 -0.0245258 0.9993626 0.0245258 0.9993626 0.0245258 0.0006374 -0.0245258
6696013 0.0006133 -0.0240275 0.9993867 0.0240275 0.9993867 0.0240275 0.0006133 -0.0240275
6831390 0.0005902 -0.0235389 0.9994098 0.0235389 0.9994098 0.0235389 0.0005902 -0.0235389
6969505 0.0005680 -0.0230596 0.9994320 0.0230596 0.9994320 0.0230596 0.0005680 -0.0230596
7110411 0.0005467 -0.0225895 0.9994533 0.0225895 0.9994533 0.0225895 0.0005467 -0.0225895
7254166 0.0005263 -0.0221284 0.9994737 0.0221284 0.9994737 0.0221284 0.0005263 -0.0221284
7400828 0.0005066 -0.0216762 0.9994934 0.0216762 0.9994934 0.0216762 0.0005066 -0.0216762
7550455 0.0004877 -0.0212326 0.9995123 0.0212326 0.9995123 0.0212326 0.0004877 -0.0212326
7703107 0.0004696 -0.0207975 0.9995304 0.0207975 0.9995304 0.0207975 0.0004696 -0.0207975
7858845 0.0004523 -0.0203707 0.9995477 0.0203707 0.9995477 0.0203707 0.0004523 -0.0203707
8017732 0.0004356 -0.0199520 0.9995644 0.0199520 0.9995644 0.0199520 0.0004356 -0.0199520
8179831 0.0004195 -0.0195413 0.9995805 0.0195413 0.9995805 0.0195413 0.0004195 -0.0195413
8345207 0.0004042 -0.0191384 0.9995958 0.0191384 0.9995958 0.0191384 0.0004042 -0.0191384
8513927 0.0003894 -0.0187432 0.9996106 0.0187432 0.9996106 0.0187432 0.0003894 -0.0187432
8686058 0.0003753 -0.0183554 0.9996247 0.0183554 0.9996247 0.0183554 0.0003753 -0.0183554
8861669 0.0003617 -0.0179750 0.9996383 0.0179750 0.9996383 0.0179750 0.0003617 -0.0179750
9040831 0.0003486 -0.0176018 0.9996514 0.0176018 0.9996514 0.0176018 0.0003486 -0.0176018
9223615 0.0003361 -0.0172356 0.9996639 0.0172356 0.9996639 0.0172356 0.0003361 -0.0172356
9410094 0.0003241 -0.0168763 0.9996759 0.0168763 0.9996759 0.0168763 0.0003241 -0.0168763
9600343 0.0003126 -0.0165237 0.9996874 0.0165237 0.9996874 0.0165237 0.0003126 -0.0165237
9794439 0.0003016 -0.0161777 0.9996984 0.0161777 0.9996984 0.0161777 0.0003016 -0.0161777
9992459 0.0002910 -0.0158382 0.9997090 0.0158382 0.9997090 0.0158382 0.0002910 -0.0158382
10194482 0.0002809 -0.0155051 0.9997191 0.0155051 0.9997191 0.0155051 0.0002809 -0.0155051
10400590 0.0002712 -0.0151781 0.9997288 0.0151781 0.9997288 0.0151781 0.0002712 -0.0151781
10610865 0.0002618 -0.0148573 0.9997382 0.0148573 0.9997382 0.0148573 0.0002618 -0.0148573
10825391 0.0002529 -0.0145423 0.9997471 0.0145423 0.9997471 0.0145423 0.0002529 -0.0145423
11044254 0.0002444 -0.0142332 0.9997556 0.0142332 0.9997556 0.0142332 0.0002444 -0.0142332
11267542 0.0002362 -0.0139298 0.9997638 0.0139298 0.9997638 0.0139298 0.0002362 -0.0139298
11495344 0.0002283 -0.0136319 0.9997717 0.0136319 0.9997717 0.0136319 0.0002283 -0.0136319
11727752 0.0002208 -0.0133395 0.9997792 0.0133395 0.9997792 0.0133395 0.0002208 -0.0133395
11964859 0.0002136 -0.0130525 0.9997864 0.0130525 0.9997864 0.0130525 0.0002136 -0.0130525
12206760 0.0002067 -0.0127706 0.9997933 0.0127706 0.9997933 0.0127706 0.0002067 -0.0127706
12453551 0.0002001 -0.0124939 0.9997999 0.0124939 0.9997999 0.0124939 0.0002001 -0.0124939
12705331 0.0001939 -0.0122222 0.9998061 0.0122222 0.9998061 0.0122222 0.0001939 -0.0122222
12962202 0.0001878 -0.0119553 0.9998122 0.0119553 0.9998122 0.0119553 0.0001878 -0.0119553
13224267 0.0001821 -0.0116933 0.9998179 0.0116933 0.9998179 0.0116933 0.0001821 -0.0116933
13491630 0.0001766 -0.0114359 0.9998234 0.0114359 0.9998234 0.0114359 0.0001766 -0.0114359
13764398 0.0001713 -0.0111831 0.9998287 0.0111831 0.9998287 0.0111831 0.0001713 -0.0111831
14042680 0.0001663 -0.0109348 0.9998337 0.0109348 0.9998337 0.0109348 0.0001663 -0.0109348
14326589 0.0001616 -0.0106909 0.9998384 0.0106909 0.9998384 0.0106909 0.0001616 -0.0106909
14616238 0.0001570 -0.0104512 0.9998430 0.0104512 0.9998430 0.0104512 0.0001570 -0.0104512
14911743 0.0001527 -0.0102157 0.9998473 0.0102157 0.9998473 0.0102157 0.0001527 -0.0102157
15213223 0.0001485 -0.0099843 0.9998515 0.0099843 0.9998515 0.0099843 0.0001485 -0.0099843
15520797 0.0001446 -0.0097569 0.9998554 0.0097569 0.9998554 0.0097569 0.0001446 -0.0097569
15834590 0.0001409 -0.0095334 0.9998591 0.0095334 0.9998591 0.0095334 0.0001409 -0.0095334
16154727 0.0001373 -0.0093138 0.9998627 0.0093138 0.9998627 0.0093138 0.0001373 -0.0093138
16481337 0.0001340 -0.0090978 0.9998660 0.0090978 0.9998660 0.0090978 0.0001340 -0.0090978
16814550 0.0001308 -0.0088855 0.9998692 0.0088855 0.9998692 0.0088855 0.0001308 -0.0088855
17154499 0.0001277 -0.0086767 0.9998723 0.0086767 0.9998723 0.0086767 0.0001277 -0.0086767
17501322 0.0001249 -0.0084714 0.9998751 0.0084714 0.9998751 0.0084714 0.0001249 -0.0084714
17855156 0.0001222 -0.0082695 0.9998778 0.0082695 0.9998778 0.0082695 0.0001222 -0.0082695
18216144 0.0001196 -0.0080709 0.9998804 0.0080709 0.9998804 0.0080709 0.0001196 -0.0080709
18584431 0.0001173 -0.0078755 0.9998827 0.0078755 0.9998827 0.0078755 0.0001173 -0.0078755
18960163 0.0001150 -0.0076833 0.9998850 0.0076833 0.9998850 0.0076833 0.0001150 -0.0076833
19343491 0.0001129 -0.0074941 0.9998871 0.0074941 0.9998871 0.0074941 0.0001129 -0.0074941
19734570 0.0001109 -0.0073079 0.9998891 0.0073079 0.9998891 0.0073079 0.0001109 -0.0073079
20133555 0.0001091 -0.0071246 0.9998909 0.0071246 0.9998909 0.0071246 0.0001091 -0.0071246
20540607 0.0001074 -0.0069442 0.9998926 0.0069442 0.9998926 0.0069442 0.0001074 -0.0069442
20955888 0.0001058 -0.0067665 0.9998942 0.0067665 0.9998942 0.0067665 0.0001058 -0.0067665
21379566 0.0001043 -0.0065915 0.9998957 0.0065915 0.9998957 0.0065915 0.0001043 -0.0065915
21811809 0.0001030 -0.0064192 0.9998970 0.0064192 0.9998970 0.0064192 0.0001030 -0.0064192
22252791 0.0001018 -0.0062493 0.9998982 0.0062493 0.9998982 0.0062493 0.0001018 -0.0062493
22702688 0.0001007 -0.0060820 0.9998993 0.0060820 0.9998993 0.0060820 0.0001007 -0.0060820
23161682 0.0000997 -0.0059171 0.9999003 0.0059171 0.9999003 0.0059171 0.0000997 -0.0059171
23629955 0.0000988 -0.0057545 0.9999012 0.0057545 0.9999012 0.0057545 0.0000988 -0.0057545
24107696 0.0000981 -0.0055942 0.9999019 0.0055942 0.9999019 0.0055942 0.0000981 -0.0055942
24595095 0.0000974 -0.0054360 0.9999026 0.0054360 0.9999026 0.0054360 0.0000974 -0.0054360
25092348 0.0000969 -0.0052801 0.9999031 0.0052801 0.9999031 0.0052801 0.0000969 -0.0052801
25599655 0.0000965 -0.0051261 0.9999035 0.0051261 0.9999035 0.0051261 0.0000965 -0.0051261
26117218 0.0000961 -0.0049742 0.9999039 0.0049742 0.9999039 0.0049742 0.0000961 -0.0049742
26645245 0.0000959 -0.0048243 0.9999041 0.0048243 0.9999041 0.0048243 0.0000959 -0.0048243
27183947 0.0000958 -0.0046762 0.9999042 0.0046762 0.9999042 0.0046762 0.0000958 -0.0046762
27733541 0.0000958 -0.0045300 0.9999042 0.0045300 0.9999042 0.0045300 0.0000958 -0.0045300
28294246 0.0000959 -0.0043854 0.9999041 0.0043854 0.9999041 0.0043854 0.0000959 -0.0043854
28866287 0.0000961 -0.0042426 0.9999039 0.0042426 0.9999039 0.0042426 0.0000961 -0.0042426
29449894 0.0000964 -0.0041014 0.9999036 0.0041014 0.9999036 0.0041014 0.0000964 -0.0041014
30045299 0.0000968 -0.0039618 0.9999032 0.0039618 0.9999032 0.0039618 0.0000968 -0.0039618
30652742 0.0000973 -0.0038237 0.9999027 0.0038237 0.9999027 0.0038237 0.0000973 -0.0038237
31272467 0.0000979 -0.0036870 0.9999021 0.0036870 0.9999021 0.0036870 0.0000979 -0.0036870
31904720 0.0000986 -0.0035517 0.9999014 0.0035517 0.9999014 0.0035517 0.0000986 -0.0035517
32549757 0.0000995 -0.0034177 0.9999005 0.0034177 0.9999005 0.0034177 0.0000995 -0.0034177
33207834 0.0001004 -0.0032849 0.9998996 0.0032849 0.9998996 0.0032849 0.0001004 -0.0032849
33879216 0.0001015 -0.0031534 0.9998985 0.0031534 0.9998985 0.0031534 0.0001015 -0.0031534
34564172 0.0001026 -0.0030229 0.9998974 0.0030229 0.9998974 0.0030229 0.0001026 -0.0030229
35262976 0.0001039 -0.0028936 0.9998961 0.0028936 0.9998961 0.0028936 0.0001039 -0.0028936
35975908 0.0001054 -0.0027652 0.9998946 0.0027652 0.9998946 0.0027652 0.0001054 -0.0027652
36703254 0.0001069 -0.0026378 0.9998931 0.0026378 0.9998931 0.0026378 0.0001069 -0.0026378
37445305 0.0001086 -0.0025113 0.9998914 0.0025113 0.9998914 0.0025113 0.0001086 -0.0025113
38202358 0.0001104 -0.0023856 0.9998896 0.0023856 0.9998896 0.0023856 0.0001104 -0.0023856
38974717 0.0001124 -0.0022606 0.9998876 0.0022606 0.9998876 0.0022606 0.0001124 -0.0022606
39762692 0.0001144 -0.0021363 0.9998856 0.0021363 0.9998856 0.0021363 0.0001144 -0.0021363
40566597 0.0001167 -0.0020126 0.9998833 0.0020126 0.9998833 0.0020126 0.0001167 -0.0020126
41386756 0.0001191 -0.0018894 0.9998809 0.0018894 0.9998809 0.0018894 0.0001191 -0.0018894
42223496 0.0001216 -0.0017667 0.9998784 0.0017667 0.9998784 0.0017667 0.0001216 -0.0017667
43077153 0.0001244 -0.0016444 0.9998756 0.0016444 0.9998756 0.0016444 0.0001244 -0.0016444
43948069 0.0001273 -0.0015224 0.9998727 0.0015224 0.9998727 0.0015224 0.0001273 -0.0015224
44836592 0.0001304 -0.0014007 0.9998696 0.0014007 0.9998696 0.0014007 0.0001304 -0.0014007
45743080 0.0001336 -0.0012791 0.9998664 0.0012791 0.9998664 0.0012791 0.0001336 -0.0012791
46667894 0.0001371 -0.0011576 0.9998629 0.0011576 0.9998629 0.0011576 0.0001371 -0.0011576
47611406 0.0001408 -0.0010360 0.9998592 0.0010360 0.9998592 0.0010360 0.0001408 -0.0010360
48573993 0.0001448 -0.0009144 0.9998552 0.0009144 0.9998552 0.0009144 0.0001448 -0.0009144
49556042 0.0001489 -0.0007926 0.9998511 0.0007926 0.9998511 0.0007926 0.0001489 -0.0007926
50557945 0.0001534 -0.0006705 0.9998466 0.0006705 0.9998466 0.0006705 0.0001534 -0.0006705
51580105 0.0001581 -0.0005480 0.9998419 0.0005480 0.9998419 0.0005480 0.0001581 -0.0005480
52622929 0.0001631 -0.0004249 0.9998369 0.0004249 0.9998369 0.0004249 0.0001631 -0.0004249
53686838 0.0001684 -0.0003012 0.9998316 0.0003012 0.9998316 0.0003012 0.0001684 -0.0003012
54772256 0.0001740 -0.0001768 0.9998260 0.0001768 0.9998260 0.0001768 0.0001740 -0.0001768
55879618 0.0001801 -0.0000515 0.9998199 0.0000515 0.9998199 0.0000515 0.0001801 -0.0000515
57009369 0.0001865 0.0000749 0.9998135 -0.0000749 0.9998135 -0.0000749 0.0001865 0.0000749
58161960 0.0001933 0.0002025 0.9998067 -0.0002025 0.9998067 -0.0002025 0.0001933 0.0002025
59337855 0.0002007 0.0003315 0.9997993 -0.0003315 0.9997993 -0.0003315 0.0002007 0.0003315
60537522 0.0002085 0.0004621 0.9997915 -0.0004621 0.9997915 -0.0004621 0.0002085 0.0004621
61761445 0.0002169 0.0005945 0.9997831 -0.0005945 0.9997831 -0.0005945 0.0002169 0.0005945
63010112 0.0002259 0.0007289 0.9997741 -0.0007289 0.9997741 -0.0007289 0.0002259 0.0007289
64284024 0.0002357 0.0008656 0.9997643 -0.0008656 0.9997643 -0.0008656 0.0002357 0.0008656
65583691 0.0002462 0.0010049 0.9997538 -0.0010049 0.9997538 -0.0010049 0.0002462 0.0010049
66909635 0.0002576 0.0011472 0.9997424 -0.0011472 0.9997424 -0.0011472 0.0002576 0.0011472
68262386 0.0002700 0.0012927 0.9997300 -0.0012927 0.9997300 -0.0012927 0.0002700 0.0012927
69642486 0.0002835 0.0014421 0.9997165 -0.0014421 0.9997165 -0.0014421 0.0002835 0.0014421
71050488 0.0002984 0.0015957 0.9997016 -0.0015957 0.9997016 -0.0015957 0.0002984 0.0015957
72486957 0.0003147 0.0017541 0.9996853 -0.0017541 0.9996853 -0.0017541 0.0003147 0.0017541
73952468 0.0003329 0.0019181 0.9996671 -0.0019181 0.9996671 -0.0019181 0.0003329 0.0019181
