!Murata Part Number: GRM55Q7U3A562JW31
!These Parameters are Measured in Series Mode Connection
!Data Generated on Mar 30, 2021
!       o--ll--o
!Port1            Port2
!       o------o
!Operation Temp=25[degC], DC Bias Voltage=0[V]
!Freq. Start=1000[kHz] Stop=3[GHz] 401[Steps]
# Hz S RI R 50
!Freq.(Hz) S11(Real) S11(Imag) S21(Real) S21(Imag) S12(Real) S12(Imag) S22(Real) S22(Imag)
1000000 0.0767081 -0.2660645 0.9232919 0.2660645 0.9232919 0.2660645 0.0767081 -0.2660645
1020218 0.0739208 -0.2615775 0.9260792 0.2615775 0.9260792 0.2615775 0.0739208 -0.2615775
1040844 0.0712270 -0.2571379 0.9287730 0.2571379 0.9287730 0.2571379 0.0712270 -0.2571379
1061887 0.0686242 -0.2527468 0.9313758 0.2527468 0.9313758 0.2527468 0.0686242 -0.2527468
1083356 0.0661097 -0.2484052 0.9338903 0.2484052 0.9338903 0.2484052 0.0661097 -0.2484052
1105259 0.0636810 -0.2441139 0.9363190 0.2441139 0.9363190 0.2441139 0.0636810 -0.2441139
1127605 0.0613357 -0.2398738 0.9386643 0.2398738 0.9386643 0.2398738 0.0613357 -0.2398738
1150402 0.0590714 -0.2356855 0.9409286 0.2356855 0.9409286 0.2356855 0.0590714 -0.2356855
1173660 0.0568856 -0.2315496 0.9431144 0.2315496 0.9431144 0.2315496 0.0568856 -0.2315496
1197389 0.0547760 -0.2274667 0.9452240 0.2274667 0.9452240 0.2274667 0.0547760 -0.2274667
1221597 0.0527402 -0.2234371 0.9472598 0.2234371 0.9472598 0.2234371 0.0527402 -0.2234371
1246295 0.0507761 -0.2194613 0.9492239 0.2194613 0.9492239 0.2194613 0.0507761 -0.2194613
1271492 0.0488813 -0.2155395 0.9511187 0.2155395 0.9511187 0.2155395 0.0488813 -0.2155395
1297199 0.0470538 -0.2116719 0.9529462 0.2116719 0.9529462 0.2116719 0.0470538 -0.2116719
1323425 0.0452914 -0.2078587 0.9547086 0.2078587 0.9547086 0.2078587 0.0452914 -0.2078587
1350181 0.0435919 -0.2040999 0.9564081 0.2040999 0.9564081 0.2040999 0.0435919 -0.2040999
1377479 0.0419535 -0.2003957 0.9580465 0.2003957 0.9580465 0.2003957 0.0419535 -0.2003957
1405328 0.0403740 -0.1967459 0.9596260 0.1967459 0.9596260 0.1967459 0.0403740 -0.1967459
1433740 0.0388516 -0.1931505 0.9611484 0.1931505 0.9611484 0.1931505 0.0388516 -0.1931505
1462727 0.0373844 -0.1896093 0.9626156 0.1896093 0.9626156 0.1896093 0.0373844 -0.1896093
1492300 0.0359706 -0.1861222 0.9640294 0.1861222 0.9640294 0.1861222 0.0359706 -0.1861222
1522470 0.0346083 -0.1826891 0.9653917 0.1826891 0.9653917 0.1826891 0.0346083 -0.1826891
1553251 0.0332958 -0.1793095 0.9667042 0.1793095 0.9667042 0.1793095 0.0332958 -0.1793095
1584654 0.0320315 -0.1759833 0.9679685 0.1759833 0.9679685 0.1759833 0.0320315 -0.1759833
1616692 0.0308137 -0.1727101 0.9691863 0.1727101 0.9691863 0.1727101 0.0308137 -0.1727101
1649378 0.0296407 -0.1694895 0.9703593 0.1694895 0.9703593 0.1694895 0.0296407 -0.1694895
1682724 0.0285112 -0.1663212 0.9714888 0.1663212 0.9714888 0.1663212 0.0285112 -0.1663212
1716745 0.0274234 -0.1632048 0.9725766 0.1632048 0.9725766 0.1632048 0.0274234 -0.1632048
1751453 0.0263761 -0.1601398 0.9736239 0.1601398 0.9736239 0.1601398 0.0263761 -0.1601398
1786863 0.0253677 -0.1571258 0.9746323 0.1571258 0.9746323 0.1571258 0.0253677 -0.1571258
1822989 0.0243970 -0.1541623 0.9756030 0.1541623 0.9756030 0.1541623 0.0243970 -0.1541623
1859846 0.0234625 -0.1512488 0.9765375 0.1512488 0.9765375 0.1512488 0.0234625 -0.1512488
1897447 0.0225629 -0.1483848 0.9774371 0.1483848 0.9774371 0.1483848 0.0225629 -0.1483848
1935809 0.0216972 -0.1455697 0.9783028 0.1455697 0.9783028 0.1455697 0.0216972 -0.1455697
1974946 0.0208639 -0.1428030 0.9791361 0.1428030 0.9791361 0.1428030 0.0208639 -0.1428030
2014875 0.0200620 -0.1400842 0.9799380 0.1400842 0.9799380 0.1400842 0.0200620 -0.1400842
2055611 0.0192904 -0.1374127 0.9807096 0.1374127 0.9807096 0.1374127 0.0192904 -0.1374127
2097170 0.0185479 -0.1347880 0.9814521 0.1347880 0.9814521 0.1347880 0.0185479 -0.1347880
2139570 0.0178334 -0.1322093 0.9821666 0.1322093 0.9821666 0.1322093 0.0178334 -0.1322093
2182827 0.0171460 -0.1296762 0.9828540 0.1296762 0.9828540 0.1296762 0.0171460 -0.1296762
2226959 0.0164847 -0.1271881 0.9835153 0.1271881 0.9835153 0.1271881 0.0164847 -0.1271881
2271982 0.0158485 -0.1247442 0.9841515 0.1247442 0.9841515 0.1247442 0.0158485 -0.1247442
2317916 0.0152365 -0.1223442 0.9847635 0.1223442 0.9847635 0.1223442 0.0152365 -0.1223442
2364779 0.0146478 -0.1199872 0.9853522 0.1199872 0.9853522 0.1199872 0.0146478 -0.1199872
2412589 0.0140815 -0.1176728 0.9859185 0.1176728 0.9859185 0.1176728 0.0140815 -0.1176728
2461366 0.0135368 -0.1154003 0.9864632 0.1154003 0.9864632 0.1154003 0.0135368 -0.1154003
2511129 0.0130130 -0.1131691 0.9869870 0.1131691 0.9869870 0.1131691 0.0130130 -0.1131691
2561897 0.0125092 -0.1109785 0.9874908 0.1109785 0.9874908 0.1109785 0.0125092 -0.1109785
2613693 0.0120246 -0.1088281 0.9879754 0.1088281 0.9879754 0.1088281 0.0120246 -0.1088281
2666535 0.0115587 -0.1067171 0.9884413 0.1067171 0.9884413 0.1067171 0.0115587 -0.1067171
2720446 0.0111106 -0.1046449 0.9888894 0.1046449 0.9888894 0.1046449 0.0111106 -0.1046449
2775447 0.0106797 -0.1026110 0.9893203 0.1026110 0.9893203 0.1026110 0.0106797 -0.1026110
2831560 0.0102653 -0.1006147 0.9897347 0.1006147 0.9897347 0.1006147 0.0102653 -0.1006147
2888807 0.0098669 -0.0986554 0.9901331 0.0986554 0.9901331 0.0986554 0.0098669 -0.0986554
2947212 0.0094839 -0.0967326 0.9905161 0.0967326 0.9905161 0.0967326 0.0094839 -0.0967326
3006797 0.0091156 -0.0948456 0.9908844 0.0948456 0.9908844 0.0948456 0.0091156 -0.0948456
3067588 0.0087615 -0.0929939 0.9912385 0.0929939 0.9912385 0.0929939 0.0087615 -0.0929939
3129607 0.0084210 -0.0911768 0.9915790 0.0911768 0.9915790 0.0911768 0.0084210 -0.0911768
3192880 0.0080937 -0.0893938 0.9919063 0.0893938 0.9919063 0.0893938 0.0080937 -0.0893938
3257432 0.0077790 -0.0876444 0.9922210 0.0876444 0.9922210 0.0876444 0.0077790 -0.0876444
3323290 0.0074765 -0.0859279 0.9925235 0.0859279 0.9925235 0.0859279 0.0074765 -0.0859279
3390478 0.0071857 -0.0842437 0.9928143 0.0842437 0.9928143 0.0842437 0.0071857 -0.0842437
3459026 0.0069062 -0.0825914 0.9930938 0.0825914 0.9930938 0.0825914 0.0069062 -0.0825914
3528959 0.0066374 -0.0809704 0.9933626 0.0809704 0.9933626 0.0809704 0.0066374 -0.0809704
3600306 0.0063791 -0.0793801 0.9936209 0.0793801 0.9936209 0.0793801 0.0063791 -0.0793801
3673095 0.0061308 -0.0778200 0.9938692 0.0778200 0.9938692 0.0778200 0.0061308 -0.0778200
3747356 0.0058921 -0.0762895 0.9941079 0.0762895 0.9941079 0.0762895 0.0058921 -0.0762895
3823119 0.0056627 -0.0747882 0.9943373 0.0747882 0.9943373 0.0747882 0.0056627 -0.0747882
3900413 0.0054422 -0.0733155 0.9945578 0.0733155 0.9945578 0.0733155 0.0054422 -0.0733155
3979270 0.0052303 -0.0718709 0.9947697 0.0718709 0.9947697 0.0718709 0.0052303 -0.0718709
4059721 0.0050266 -0.0704539 0.9949734 0.0704539 0.9949734 0.0704539 0.0050266 -0.0704539
4141799 0.0048308 -0.0690640 0.9951692 0.0690640 0.9951692 0.0690640 0.0048308 -0.0690640
4225536 0.0046426 -0.0677006 0.9953574 0.0677006 0.9953574 0.0677006 0.0046426 -0.0677006
4310966 0.0044618 -0.0663635 0.9955382 0.0663635 0.9955382 0.0663635 0.0044618 -0.0663635
4398124 0.0042880 -0.0650519 0.9957120 0.0650519 0.9957120 0.0650519 0.0042880 -0.0650519
4487043 0.0041210 -0.0637655 0.9958790 0.0637655 0.9958790 0.0637655 0.0041210 -0.0637655
4577760 0.0039604 -0.0625039 0.9960396 0.0625039 0.9960396 0.0625039 0.0039604 -0.0625039
4670311 0.0038061 -0.0612665 0.9961939 0.0612665 0.9961939 0.0612665 0.0038061 -0.0612665
4764734 0.0036579 -0.0600529 0.9963421 0.0600529 0.9963421 0.0600529 0.0036579 -0.0600529
4861065 0.0035154 -0.0588626 0.9964846 0.0588626 0.9964846 0.0588626 0.0035154 -0.0588626
4959344 0.0033785 -0.0576953 0.9966215 0.0576953 0.9966215 0.0576953 0.0033785 -0.0576953
5059610 0.0032469 -0.0565505 0.9967531 0.0565505 0.9967531 0.0565505 0.0032469 -0.0565505
5161903 0.0031205 -0.0554277 0.9968795 0.0554277 0.9968795 0.0554277 0.0031205 -0.0554277
5266264 0.0029990 -0.0543266 0.9970010 0.0543266 0.9970010 0.0543266 0.0029990 -0.0543266
5372736 0.0028822 -0.0532468 0.9971178 0.0532468 0.9971178 0.0532468 0.0028822 -0.0532468
5481359 0.0027700 -0.0521877 0.9972300 0.0521877 0.9972300 0.0521877 0.0027700 -0.0521877
5592179 0.0026622 -0.0511492 0.9973378 0.0511492 0.9973378 0.0511492 0.0026622 -0.0511492
5705239 0.0025587 -0.0501307 0.9974413 0.0501307 0.9974413 0.0501307 0.0025587 -0.0501307
5820586 0.0024591 -0.0491318 0.9975409 0.0491318 0.9975409 0.0491318 0.0024591 -0.0491318
5938264 0.0023635 -0.0481523 0.9976365 0.0481523 0.9976365 0.0481523 0.0023635 -0.0481523
6058321 0.0022716 -0.0471917 0.9977284 0.0471917 0.9977284 0.0471917 0.0022716 -0.0471917
6180806 0.0021833 -0.0462497 0.9978167 0.0462497 0.9978167 0.0462497 0.0021833 -0.0462497
6305767 0.0020985 -0.0453258 0.9979015 0.0453258 0.9979015 0.0453258 0.0020985 -0.0453258
6433254 0.0020170 -0.0444199 0.9979830 0.0444199 0.9979830 0.0444199 0.0020170 -0.0444199
6563319 0.0019387 -0.0435314 0.9980613 0.0435314 0.9980613 0.0435314 0.0019387 -0.0435314
6696013 0.0018634 -0.0426601 0.9981366 0.0426601 0.9981366 0.0426601 0.0018634 -0.0426601
6831390 0.0017912 -0.0418057 0.9982088 0.0418057 0.9982088 0.0418057 0.0017912 -0.0418057
6969505 0.0017217 -0.0409677 0.9982783 0.0409677 0.9982783 0.0409677 0.0017217 -0.0409677
7110411 0.0016550 -0.0401460 0.9983450 0.0401460 0.9983450 0.0401460 0.0016550 -0.0401460
7254166 0.0015909 -0.0393401 0.9984091 0.0393401 0.9984091 0.0393401 0.0015909 -0.0393401
7400828 0.0015293 -0.0385498 0.9984707 0.0385498 0.9984707 0.0385498 0.0015293 -0.0385498
7550455 0.0014702 -0.0377748 0.9985298 0.0377748 0.9985298 0.0377748 0.0014702 -0.0377748
7703107 0.0014134 -0.0370147 0.9985866 0.0370147 0.9985866 0.0370147 0.0014134 -0.0370147
7858845 0.0013588 -0.0362692 0.9986412 0.0362692 0.9986412 0.0362692 0.0013588 -0.0362692
8017732 0.0013063 -0.0355382 0.9986937 0.0355382 0.9986937 0.0355382 0.0013063 -0.0355382
8179831 0.0012560 -0.0348212 0.9987440 0.0348212 0.9987440 0.0348212 0.0012560 -0.0348212
8345207 0.0012076 -0.0341181 0.9987924 0.0341181 0.9987924 0.0341181 0.0012076 -0.0341181
8513927 0.0011611 -0.0334285 0.9988389 0.0334285 0.9988389 0.0334285 0.0011611 -0.0334285
8686058 0.0011165 -0.0327522 0.9988835 0.0327522 0.9988835 0.0327522 0.0011165 -0.0327522
8861669 0.0010736 -0.0320889 0.9989264 0.0320889 0.9989264 0.0320889 0.0010736 -0.0320889
9040831 0.0010325 -0.0314383 0.9989675 0.0314383 0.9989675 0.0314383 0.0010325 -0.0314383
9223615 0.0009929 -0.0308002 0.9990071 0.0308002 0.9990071 0.0308002 0.0009929 -0.0308002
9410094 0.0009550 -0.0301744 0.9990450 0.0301744 0.9990450 0.0301744 0.0009550 -0.0301744
9600343 0.0009185 -0.0295606 0.9990815 0.0295606 0.9990815 0.0295606 0.0009185 -0.0295606
9794439 0.0008835 -0.0289585 0.9991165 0.0289585 0.9991165 0.0289585 0.0008835 -0.0289585
9992459 0.0008499 -0.0283680 0.9991501 0.0283680 0.9991501 0.0283680 0.0008499 -0.0283680
10194482 0.0008176 -0.0277887 0.9991824 0.0277887 0.9991824 0.0277887 0.0008176 -0.0277887
10400590 0.0007866 -0.0272206 0.9992134 0.0272206 0.9992134 0.0272206 0.0007866 -0.0272206
10610865 0.0007569 -0.0266632 0.9992431 0.0266632 0.9992431 0.0266632 0.0007569 -0.0266632
10825391 0.0007283 -0.0261165 0.9992717 0.0261165 0.9992717 0.0261165 0.0007283 -0.0261165
11044254 0.0007009 -0.0255802 0.9992991 0.0255802 0.9992991 0.0255802 0.0007009 -0.0255802
11267542 0.0006746 -0.0250541 0.9993254 0.0250541 0.9993254 0.0250541 0.0006746 -0.0250541
11495344 0.0006493 -0.0245380 0.9993507 0.0245380 0.9993507 0.0245380 0.0006493 -0.0245380
11727752 0.0006251 -0.0240317 0.9993749 0.0240317 0.9993749 0.0240317 0.0006251 -0.0240317
11964859 0.0006018 -0.0235350 0.9993982 0.0235350 0.9993982 0.0235350 0.0006018 -0.0235350
12206760 0.0005795 -0.0230476 0.9994205 0.0230476 0.9994205 0.0230476 0.0005795 -0.0230476
12453551 0.0005581 -0.0225695 0.9994419 0.0225695 0.9994419 0.0225695 0.0005581 -0.0225695
12705331 0.0005376 -0.0221003 0.9994624 0.0221003 0.9994624 0.0221003 0.0005376 -0.0221003
12962202 0.0005179 -0.0216400 0.9994821 0.0216400 0.9994821 0.0216400 0.0005179 -0.0216400
13224267 0.0004990 -0.0211884 0.9995010 0.0211884 0.9995010 0.0211884 0.0004990 -0.0211884
13491630 0.0004808 -0.0207452 0.9995192 0.0207452 0.9995192 0.0207452 0.0004808 -0.0207452
13764398 0.0004635 -0.0203103 0.9995365 0.0203103 0.9995365 0.0203103 0.0004635 -0.0203103
14042680 0.0004468 -0.0198835 0.9995532 0.0198835 0.9995532 0.0198835 0.0004468 -0.0198835
14326589 0.0004308 -0.0194646 0.9995692 0.0194646 0.9995692 0.0194646 0.0004308 -0.0194646
14616238 0.0004155 -0.0190536 0.9995845 0.0190536 0.9995845 0.0190536 0.0004155 -0.0190536
14911743 0.0004009 -0.0186501 0.9995991 0.0186501 0.9995991 0.0186501 0.0004009 -0.0186501
15213223 0.0003868 -0.0182541 0.9996132 0.0182541 0.9996132 0.0182541 0.0003868 -0.0182541
15520797 0.0003733 -0.0178655 0.9996267 0.0178655 0.9996267 0.0178655 0.0003733 -0.0178655
15834590 0.0003604 -0.0174839 0.9996396 0.0174839 0.9996396 0.0174839 0.0003604 -0.0174839
16154727 0.0003481 -0.0171094 0.9996519 0.0171094 0.9996519 0.0171094 0.0003481 -0.0171094
16481337 0.0003363 -0.0167417 0.9996637 0.0167417 0.9996637 0.0167417 0.0003363 -0.0167417
16814550 0.0003250 -0.0163808 0.9996750 0.0163808 0.9996750 0.0163808 0.0003250 -0.0163808
17154499 0.0003141 -0.0160263 0.9996859 0.0160263 0.9996859 0.0160263 0.0003141 -0.0160263
17501322 0.0003038 -0.0156783 0.9996962 0.0156783 0.9996962 0.0156783 0.0003038 -0.0156783
17855156 0.0002939 -0.0153366 0.9997061 0.0153366 0.9997061 0.0153366 0.0002939 -0.0153366
18216144 0.0002844 -0.0150010 0.9997156 0.0150010 0.9997156 0.0150010 0.0002844 -0.0150010
18584431 0.0002754 -0.0146715 0.9997246 0.0146715 0.9997246 0.0146715 0.0002754 -0.0146715
18960163 0.0002668 -0.0143478 0.9997332 0.0143478 0.9997332 0.0143478 0.0002668 -0.0143478
19343491 0.0002585 -0.0140299 0.9997415 0.0140299 0.9997415 0.0140299 0.0002585 -0.0140299
19734570 0.0002507 -0.0137176 0.9997493 0.0137176 0.9997493 0.0137176 0.0002507 -0.0137176
20133555 0.0002431 -0.0134108 0.9997569 0.0134108 0.9997569 0.0134108 0.0002431 -0.0134108
20540607 0.0002360 -0.0131093 0.9997640 0.0131093 0.9997640 0.0131093 0.0002360 -0.0131093
20955888 0.0002292 -0.0128132 0.9997708 0.0128132 0.9997708 0.0128132 0.0002292 -0.0128132
21379566 0.0002227 -0.0125221 0.9997773 0.0125221 0.9997773 0.0125221 0.0002227 -0.0125221
21811809 0.0002165 -0.0122361 0.9997835 0.0122361 0.9997835 0.0122361 0.0002165 -0.0122361
22252791 0.0002106 -0.0119550 0.9997894 0.0119550 0.9997894 0.0119550 0.0002106 -0.0119550
22702688 0.0002050 -0.0116787 0.9997950 0.0116787 0.9997950 0.0116787 0.0002050 -0.0116787
23161682 0.0001997 -0.0114071 0.9998003 0.0114071 0.9998003 0.0114071 0.0001997 -0.0114071
23629955 0.0001947 -0.0111401 0.9998053 0.0111401 0.9998053 0.0111401 0.0001947 -0.0111401
24107696 0.0001899 -0.0108775 0.9998101 0.0108775 0.9998101 0.0108775 0.0001899 -0.0108775
24595095 0.0001854 -0.0106194 0.9998146 0.0106194 0.9998146 0.0106194 0.0001854 -0.0106194
25092348 0.0001811 -0.0103654 0.9998189 0.0103654 0.9998189 0.0103654 0.0001811 -0.0103654
25599655 0.0001771 -0.0101157 0.9998229 0.0101157 0.9998229 0.0101157 0.0001771 -0.0101157
26117218 0.0001732 -0.0098700 0.9998268 0.0098700 0.9998268 0.0098700 0.0001732 -0.0098700
26645245 0.0001697 -0.0096282 0.9998303 0.0096282 0.9998303 0.0096282 0.0001697 -0.0096282
27183947 0.0001663 -0.0093903 0.9998337 0.0093903 0.9998337 0.0093903 0.0001663 -0.0093903
27733541 0.0001631 -0.0091562 0.9998369 0.0091562 0.9998369 0.0091562 0.0001631 -0.0091562
28294246 0.0001601 -0.0089258 0.9998399 0.0089258 0.9998399 0.0089258 0.0001601 -0.0089258
28866287 0.0001573 -0.0086989 0.9998427 0.0086989 0.9998427 0.0086989 0.0001573 -0.0086989
29449894 0.0001548 -0.0084756 0.9998452 0.0084756 0.9998452 0.0084756 0.0001548 -0.0084756
30045299 0.0001523 -0.0082556 0.9998477 0.0082556 0.9998477 0.0082556 0.0001523 -0.0082556
30652742 0.0001501 -0.0080390 0.9998499 0.0080390 0.9998499 0.0080390 0.0001501 -0.0080390
31272467 0.0001481 -0.0078255 0.9998519 0.0078255 0.9998519 0.0078255 0.0001481 -0.0078255
31904720 0.0001462 -0.0076152 0.9998538 0.0076152 0.9998538 0.0076152 0.0001462 -0.0076152
32549757 0.0001444 -0.0074080 0.9998556 0.0074080 0.9998556 0.0074080 0.0001444 -0.0074080
33207834 0.0001429 -0.0072037 0.9998571 0.0072037 0.9998571 0.0072037 0.0001429 -0.0072037
33879216 0.0001414 -0.0070023 0.9998586 0.0070023 0.9998586 0.0070023 0.0001414 -0.0070023
34564172 0.0001402 -0.0068037 0.9998598 0.0068037 0.9998598 0.0068037 0.0001402 -0.0068037
35262976 0.0001391 -0.0066079 0.9998609 0.0066079 0.9998609 0.0066079 0.0001391 -0.0066079
35975908 0.0001381 -0.0064146 0.9998619 0.0064146 0.9998619 0.0064146 0.0001381 -0.0064146
36703254 0.0001372 -0.0062240 0.9998628 0.0062240 0.9998628 0.0062240 0.0001372 -0.0062240
37445305 0.0001366 -0.0060358 0.9998634 0.0060358 0.9998634 0.0060358 0.0001366 -0.0060358
38202358 0.0001360 -0.0058500 0.9998640 0.0058500 0.9998640 0.0058500 0.0001360 -0.0058500
38974717 0.0001356 -0.0056665 0.9998644 0.0056665 0.9998644 0.0056665 0.0001356 -0.0056665
39762692 0.0001353 -0.0054853 0.9998647 0.0054853 0.9998647 0.0054853 0.0001353 -0.0054853
40566597 0.0001351 -0.0053062 0.9998649 0.0053062 0.9998649 0.0053062 0.0001351 -0.0053062
41386756 0.0001351 -0.0051293 0.9998649 0.0051293 0.9998649 0.0051293 0.0001351 -0.0051293
42223496 0.0001352 -0.0049543 0.9998648 0.0049543 0.9998648 0.0049543 0.0001352 -0.0049543
43077153 0.0001354 -0.0047813 0.9998646 0.0047813 0.9998646 0.0047813 0.0001354 -0.0047813
43948069 0.0001358 -0.0046102 0.9998642 0.0046102 0.9998642 0.0046102 0.0001358 -0.0046102
44836592 0.0001363 -0.0044409 0.9998637 0.0044409 0.9998637 0.0044409 0.0001363 -0.0044409
45743080 0.0001369 -0.0042733 0.9998631 0.0042733 0.9998631 0.0042733 0.0001369 -0.0042733
46667894 0.0001376 -0.0041074 0.9998624 0.0041074 0.9998624 0.0041074 0.0001376 -0.0041074
47611406 0.0001385 -0.0039430 0.9998615 0.0039430 0.9998615 0.0039430 0.0001385 -0.0039430
48573993 0.0001395 -0.0037802 0.9998605 0.0037802 0.9998605 0.0037802 0.0001395 -0.0037802
49556042 0.0001407 -0.0036188 0.9998593 0.0036188 0.9998593 0.0036188 0.0001407 -0.0036188
50557945 0.0001419 -0.0034588 0.9998581 0.0034588 0.9998581 0.0034588 0.0001419 -0.0034588
51580105 0.0001433 -0.0033000 0.9998567 0.0033000 0.9998567 0.0033000 0.0001433 -0.0033000
52622929 0.0001449 -0.0031425 0.9998551 0.0031425 0.9998551 0.0031425 0.0001449 -0.0031425
53686838 0.0001465 -0.0029862 0.9998535 0.0029862 0.9998535 0.0029862 0.0001465 -0.0029862
54772256 0.0001483 -0.0028309 0.9998517 0.0028309 0.9998517 0.0028309 0.0001483 -0.0028309
55879618 0.0001503 -0.0026766 0.9998497 0.0026766 0.9998497 0.0026766 0.0001503 -0.0026766
57009369 0.0001524 -0.0025233 0.9998476 0.0025233 0.9998476 0.0025233 0.0001524 -0.0025233
58161960 0.0001547 -0.0023708 0.9998453 0.0023708 0.9998453 0.0023708 0.0001547 -0.0023708
59337855 0.0001571 -0.0022191 0.9998429 0.0022191 0.9998429 0.0022191 0.0001571 -0.0022191
60537522 0.0001597 -0.0020681 0.9998403 0.0020681 0.9998403 0.0020681 0.0001597 -0.0020681
61761445 0.0001624 -0.0019178 0.9998376 0.0019178 0.9998376 0.0019178 0.0001624 -0.0019178
63010112 0.0001654 -0.0017680 0.9998346 0.0017680 0.9998346 0.0017680 0.0001654 -0.0017680
64284024 0.0001685 -0.0016187 0.9998315 0.0016187 0.9998315 0.0016187 0.0001685 -0.0016187
65583691 0.0001718 -0.0014698 0.9998282 0.0014698 0.9998282 0.0014698 0.0001718 -0.0014698
66909635 0.0001752 -0.0013213 0.9998248 0.0013213 0.9998248 0.0013213 0.0001752 -0.0013213
68262386 0.0001789 -0.0011729 0.9998211 0.0011729 0.9998211 0.0011729 0.0001789 -0.0011729
69642486 0.0001828 -0.0010248 0.9998172 0.0010248 0.9998172 0.0010248 0.0001828 -0.0010248
71050488 0.0001869 -0.0008767 0.9998131 0.0008767 0.9998131 0.0008767 0.0001869 -0.0008767
72486957 0.0001913 -0.0007286 0.9998087 0.0007286 0.9998087 0.0007286 0.0001913 -0.0007286
73952468 0.0001959 -0.0005803 0.9998041 0.0005803 0.9998041 0.0005803 0.0001959 -0.0005803
