!Murata Part Number: GRM1882C2A6R1DA01
!These Parameters are Measured in Series Mode Connection
!Data Generated on Mar 30, 2021
!       o--ll--o
!Port1            Port2
!       o------o
!Operation Temp=25[degC], DC Bias Voltage=0[V]
!Freq. Start=100[MHz] Stop=9[GHz] 401[Steps]
# Hz S RI R 50
!Freq.(Hz) S11(Real) S11(Imag) S21(Real) S21(Imag) S12(Real) S12(Imag) S22(Real) S22(Imag)
100000000 0.8715029 -0.3344104 0.1284971 0.3344104 0.1284971 0.3344104 0.8715029 -0.3344104
121000000 0.8222830 -0.3819825 0.1777170 0.3819825 0.1777170 0.3819825 0.8222830 -0.3819825
142000000 0.7703754 -0.4202340 0.2296246 0.4202340 0.2296246 0.4202340 0.7703754 -0.4202340
163000000 0.7176838 -0.4496972 0.2823162 0.4496972 0.2823162 0.4496972 0.7176838 -0.4496972
184000000 0.6657121 -0.4712336 0.3342879 0.4712336 0.3342879 0.4712336 0.6657121 -0.4712336
205000000 0.6155607 -0.4858703 0.3844393 0.4858703 0.3844393 0.4858703 0.6155607 -0.4858703
226000000 0.5679675 -0.4946752 0.4320325 0.4946752 0.4320325 0.4946752 0.5679675 -0.4946752
247000000 0.5233713 -0.4986719 0.4766287 0.4986719 0.4766287 0.4986719 0.5233713 -0.4986719
268000000 0.4819800 -0.4987894 0.5180200 0.4987894 0.5180200 0.4987894 0.4819800 -0.4987894
289000000 0.4438340 -0.4958393 0.5561660 0.4958393 0.5561660 0.4958393 0.4438340 -0.4958393
310000000 0.4088582 -0.4905109 0.5911418 0.4905109 0.5911418 0.4905109 0.4088582 -0.4905109
331000000 0.3769039 -0.4833770 0.6230961 0.4833770 0.6230961 0.4833770 0.3769039 -0.4833770
352000000 0.3477791 -0.4749056 0.6522209 0.4749056 0.6522209 0.4749056 0.3477791 -0.4749056
373000000 0.3212712 -0.4654738 0.6787288 0.4654738 0.6787288 0.4654738 0.3212712 -0.4654738
394000000 0.2971614 -0.4553820 0.7028386 0.4553820 0.7028386 0.4553820 0.2971614 -0.4553820
415000000 0.2752352 -0.4448671 0.7247648 0.4448671 0.7247648 0.4448671 0.2752352 -0.4448671
436000000 0.2552877 -0.4341142 0.7447123 0.4341142 0.7447123 0.4341142 0.2552877 -0.4341142
457000000 0.2371280 -0.4232663 0.7628720 0.4232663 0.7628720 0.4232663 0.2371280 -0.4232663
478000000 0.2205801 -0.4124330 0.7794199 0.4124330 0.7794199 0.4124330 0.2205801 -0.4124330
499000000 0.2054835 -0.4016971 0.7945165 0.4016971 0.7945165 0.4016971 0.2054835 -0.4016971
520000000 0.1916932 -0.3911203 0.8083068 0.3911203 0.8083068 0.3911203 0.1916932 -0.3911203
541000000 0.1790785 -0.3807473 0.8209215 0.3807473 0.8209215 0.3807473 0.1790785 -0.3807473
562000000 0.1675222 -0.3706103 0.8324778 0.3706103 0.8324778 0.3706103 0.1675222 -0.3706103
583000000 0.1569194 -0.3607309 0.8430806 0.3607309 0.8430806 0.3607309 0.1569194 -0.3607309
604000000 0.1471766 -0.3511229 0.8528234 0.3511229 0.8528234 0.3511229 0.1471766 -0.3511229
625000000 0.1382100 -0.3417940 0.8617900 0.3417940 0.8617900 0.3417940 0.1382100 -0.3417940
646000000 0.1299450 -0.3327473 0.8700550 0.3327473 0.8700550 0.3327473 0.1299450 -0.3327473
667000000 0.1223150 -0.3239821 0.8776850 0.3239821 0.8776850 0.3239821 0.1223150 -0.3239821
688000000 0.1152606 -0.3154955 0.8847394 0.3154955 0.8847394 0.3154955 0.1152606 -0.3154955
709000000 0.1087286 -0.3072820 0.8912714 0.3072820 0.8912714 0.3072820 0.1087286 -0.3072820
730000000 0.1026716 -0.2993353 0.8973284 0.2993353 0.8973284 0.2993353 0.1026716 -0.2993353
751000000 0.0970470 -0.2916477 0.9029530 0.2916477 0.9029530 0.2916477 0.0970470 -0.2916477
772000000 0.0918166 -0.2842108 0.9081834 0.2842108 0.9081834 0.2842108 0.0918166 -0.2842108
793000000 0.0869463 -0.2770161 0.9130537 0.2770161 0.9130537 0.2770161 0.0869463 -0.2770161
814000000 0.0824053 -0.2700546 0.9175947 0.2700546 0.9175947 0.2700546 0.0824053 -0.2700546
835000000 0.0781660 -0.2633173 0.9218340 0.2633173 0.9218340 0.2633173 0.0781660 -0.2633173
856000000 0.0742034 -0.2567953 0.9257966 0.2567953 0.9257966 0.2567953 0.0742034 -0.2567953
877000000 0.0704951 -0.2504798 0.9295049 0.2504798 0.9295049 0.2504798 0.0704951 -0.2504798
898000000 0.0670207 -0.2443621 0.9329793 0.2443621 0.9329793 0.2443621 0.0670207 -0.2443621
919000000 0.0637618 -0.2384340 0.9362382 0.2384340 0.9362382 0.2384340 0.0637618 -0.2384340
940000000 0.0607017 -0.2326872 0.9392983 0.2326872 0.9392983 0.2326872 0.0607017 -0.2326872
961000000 0.0578254 -0.2271139 0.9421746 0.2271139 0.9421746 0.2271139 0.0578254 -0.2271139
982000000 0.0551190 -0.2217067 0.9448810 0.2217067 0.9448810 0.2217067 0.0551190 -0.2217067
1003000000 0.0525701 -0.2164584 0.9474299 0.2164584 0.9474299 0.2164584 0.0525701 -0.2164584
1024000000 0.0501672 -0.2113619 0.9498328 0.2113619 0.9498328 0.2113619 0.0501672 -0.2113619
1045000000 0.0478999 -0.2064108 0.9521001 0.2064108 0.9521001 0.2064108 0.0478999 -0.2064108
1066000000 0.0457587 -0.2015987 0.9542413 0.2015987 0.9542413 0.2015987 0.0457587 -0.2015987
1087000000 0.0437349 -0.1969197 0.9562651 0.1969197 0.9562651 0.1969197 0.0437349 -0.1969197
1108000000 0.0418206 -0.1923680 0.9581794 0.1923680 0.9581794 0.1923680 0.0418206 -0.1923680
1129000000 0.0400083 -0.1879381 0.9599917 0.1879381 0.9599917 0.1879381 0.0400083 -0.1879381
1150000000 0.0382914 -0.1836249 0.9617086 0.1836249 0.9617086 0.1836249 0.0382914 -0.1836249
1171000000 0.0366636 -0.1794235 0.9633364 0.1794235 0.9633364 0.1794235 0.0366636 -0.1794235
1192000000 0.0351194 -0.1753291 0.9648806 0.1753291 0.9648806 0.1753291 0.0351194 -0.1753291
1213000000 0.0336533 -0.1713374 0.9663467 0.1713374 0.9663467 0.1713374 0.0336533 -0.1713374
1234000000 0.0322607 -0.1674439 0.9677393 0.1674439 0.9677393 0.1674439 0.0322607 -0.1674439
1255000000 0.0309369 -0.1636449 0.9690631 0.1636449 0.9690631 0.1636449 0.0309369 -0.1636449
1276000000 0.0296780 -0.1599362 0.9703220 0.1599362 0.9703220 0.1599362 0.0296780 -0.1599362
1297000000 0.0284799 -0.1563144 0.9715201 0.1563144 0.9715201 0.1563144 0.0284799 -0.1563144
1318000000 0.0273392 -0.1527760 0.9726608 0.1527760 0.9726608 0.1527760 0.0273392 -0.1527760
1339000000 0.0262526 -0.1493176 0.9737474 0.1493176 0.9737474 0.1493176 0.0262526 -0.1493176
1360000000 0.0252170 -0.1459361 0.9747830 0.1459361 0.9747830 0.1459361 0.0252170 -0.1459361
1381000000 0.0242295 -0.1426284 0.9757705 0.1426284 0.9757705 0.1426284 0.0242295 -0.1426284
1402000000 0.0232876 -0.1393919 0.9767124 0.1393919 0.9767124 0.1393919 0.0232876 -0.1393919
1423000000 0.0223887 -0.1362236 0.9776113 0.1362236 0.9776113 0.1362236 0.0223887 -0.1362236
1444000000 0.0215305 -0.1331210 0.9784695 0.1331210 0.9784695 0.1331210 0.0215305 -0.1331210
1465000000 0.0207109 -0.1300818 0.9792891 0.1300818 0.9792891 0.1300818 0.0207109 -0.1300818
1486000000 0.0199279 -0.1271034 0.9800721 0.1271034 0.9800721 0.1271034 0.0199279 -0.1271034
1507000000 0.0191796 -0.1241836 0.9808204 0.1241836 0.9808204 0.1241836 0.0191796 -0.1241836
1528000000 0.0184643 -0.1213204 0.9815357 0.1213204 0.9815357 0.1213204 0.0184643 -0.1213204
1549000000 0.0177802 -0.1185116 0.9822198 0.1185116 0.9822198 0.1185116 0.0177802 -0.1185116
1570000000 0.0171260 -0.1157552 0.9828740 0.1157552 0.9828740 0.1157552 0.0171260 -0.1157552
1591000000 0.0165000 -0.1130496 0.9835000 0.1130496 0.9835000 0.1130496 0.0165000 -0.1130496
1612000000 0.0159011 -0.1103927 0.9840989 0.1103927 0.9840989 0.1103927 0.0159011 -0.1103927
1633000000 0.0153278 -0.1077830 0.9846722 0.1077830 0.9846722 0.1077830 0.0153278 -0.1077830
1654000000 0.0147791 -0.1052188 0.9852209 0.1052188 0.9852209 0.1052188 0.0147791 -0.1052188
1675000000 0.0142537 -0.1026985 0.9857463 0.1026985 0.9857463 0.1026985 0.0142537 -0.1026985
1696000000 0.0137507 -0.1002207 0.9862493 0.1002207 0.9862493 0.1002207 0.0137507 -0.1002207
1717000000 0.0132690 -0.0977838 0.9867310 0.0977838 0.9867310 0.0977838 0.0132690 -0.0977838
1738000000 0.0128077 -0.0953866 0.9871923 0.0953866 0.9871923 0.0953866 0.0128077 -0.0953866
1759000000 0.0123659 -0.0930277 0.9876341 0.0930277 0.9876341 0.0930277 0.0123659 -0.0930277
1780000000 0.0119428 -0.0907059 0.9880572 0.0907059 0.9880572 0.0907059 0.0119428 -0.0907059
1801000000 0.0115376 -0.0884199 0.9884624 0.0884199 0.9884624 0.0884199 0.0115376 -0.0884199
1822000000 0.0111495 -0.0861686 0.9888505 0.0861686 0.9888505 0.0861686 0.0111495 -0.0861686
1843000000 0.0107779 -0.0839508 0.9892221 0.0839508 0.9892221 0.0839508 0.0107779 -0.0839508
1864000000 0.0104221 -0.0817656 0.9895779 0.0817656 0.9895779 0.0817656 0.0104221 -0.0817656
1885000000 0.0100814 -0.0796118 0.9899186 0.0796118 0.9899186 0.0796118 0.0100814 -0.0796118
1906000000 0.0097553 -0.0774885 0.9902447 0.0774885 0.9902447 0.0774885 0.0097553 -0.0774885
1927000000 0.0094431 -0.0753948 0.9905569 0.0753948 0.9905569 0.0753948 0.0094431 -0.0753948
1948000000 0.0091445 -0.0733297 0.9908555 0.0733297 0.9908555 0.0733297 0.0091445 -0.0733297
1969000000 0.0088588 -0.0712923 0.9911412 0.0712923 0.9911412 0.0712923 0.0088588 -0.0712923
1990000000 0.0085855 -0.0692818 0.9914145 0.0692818 0.9914145 0.0692818 0.0085855 -0.0692818
2011000000 0.0083243 -0.0672975 0.9916757 0.0672975 0.9916757 0.0672975 0.0083243 -0.0672975
2032000000 0.0080746 -0.0653384 0.9919254 0.0653384 0.9919254 0.0653384 0.0080746 -0.0653384
2053000000 0.0078362 -0.0634039 0.9921638 0.0634039 0.9921638 0.0634039 0.0078362 -0.0634039
2074000000 0.0076085 -0.0614933 0.9923915 0.0614933 0.9923915 0.0614933 0.0076085 -0.0614933
2095000000 0.0073912 -0.0596057 0.9926088 0.0596057 0.9926088 0.0596057 0.0073912 -0.0596057
2116000000 0.0071840 -0.0577407 0.9928160 0.0577407 0.9928160 0.0577407 0.0071840 -0.0577407
2137000000 0.0069865 -0.0558974 0.9930135 0.0558974 0.9930135 0.0558974 0.0069865 -0.0558974
2158000000 0.0067984 -0.0540753 0.9932016 0.0540753 0.9932016 0.0540753 0.0067984 -0.0540753
2179000000 0.0066194 -0.0522738 0.9933806 0.0522738 0.9933806 0.0522738 0.0066194 -0.0522738
2200000000 0.0064492 -0.0504923 0.9935508 0.0504923 0.9935508 0.0504923 0.0064492 -0.0504923
2221000000 0.0062876 -0.0487302 0.9937124 0.0487302 0.9937124 0.0487302 0.0062876 -0.0487302
2242000000 0.0061342 -0.0469870 0.9938658 0.0469870 0.9938658 0.0469870 0.0061342 -0.0469870
2263000000 0.0059889 -0.0452622 0.9940111 0.0452622 0.9940111 0.0452622 0.0059889 -0.0452622
2284000000 0.0058513 -0.0435552 0.9941487 0.0435552 0.9941487 0.0435552 0.0058513 -0.0435552
2305000000 0.0057213 -0.0418655 0.9942787 0.0418655 0.9942787 0.0418655 0.0057213 -0.0418655
2326000000 0.0055986 -0.0401928 0.9944014 0.0401928 0.9944014 0.0401928 0.0055986 -0.0401928
2347000000 0.0054830 -0.0385364 0.9945170 0.0385364 0.9945170 0.0385364 0.0054830 -0.0385364
2368000000 0.0053744 -0.0368960 0.9946256 0.0368960 0.9946256 0.0368960 0.0053744 -0.0368960
2389000000 0.0052726 -0.0352712 0.9947274 0.0352712 0.9947274 0.0352712 0.0052726 -0.0352712
2410000000 0.0051772 -0.0336614 0.9948228 0.0336614 0.9948228 0.0336614 0.0051772 -0.0336614
2431000000 0.0050883 -0.0320664 0.9949117 0.0320664 0.9949117 0.0320664 0.0050883 -0.0320664
2452000000 0.0050056 -0.0304857 0.9949944 0.0304857 0.9949944 0.0304857 0.0050056 -0.0304857
2473000000 0.0049290 -0.0289189 0.9950710 0.0289189 0.9950710 0.0289189 0.0049290 -0.0289189
2494000000 0.0048583 -0.0273657 0.9951417 0.0273657 0.9951417 0.0273657 0.0048583 -0.0273657
2515000000 0.0047933 -0.0258257 0.9952067 0.0258257 0.9952067 0.0258257 0.0047933 -0.0258257
2536000000 0.0047340 -0.0242986 0.9952660 0.0242986 0.9952660 0.0242986 0.0047340 -0.0242986
2557000000 0.0046802 -0.0227839 0.9953198 0.0227839 0.9953198 0.0227839 0.0046802 -0.0227839
2578000000 0.0046318 -0.0212815 0.9953682 0.0212815 0.9953682 0.0212815 0.0046318 -0.0212815
2599000000 0.0045887 -0.0197910 0.9954113 0.0197910 0.9954113 0.0197910 0.0045887 -0.0197910
2620000000 0.0045506 -0.0183120 0.9954494 0.0183120 0.9954494 0.0183120 0.0045506 -0.0183120
2641000000 0.0045177 -0.0168443 0.9954823 0.0168443 0.9954823 0.0168443 0.0045177 -0.0168443
2662000000 0.0044896 -0.0153876 0.9955104 0.0153876 0.9955104 0.0153876 0.0044896 -0.0153876
2683000000 0.0044664 -0.0139416 0.9955336 0.0139416 0.9955336 0.0139416 0.0044664 -0.0139416
2704000000 0.0044479 -0.0125060 0.9955521 0.0125060 0.9955521 0.0125060 0.0044479 -0.0125060
2725000000 0.0044341 -0.0110806 0.9955659 0.0110806 0.9955659 0.0110806 0.0044341 -0.0110806
2746000000 0.0044248 -0.0096650 0.9955752 0.0096650 0.9955752 0.0096650 0.0044248 -0.0096650
2767000000 0.0044200 -0.0082591 0.9955800 0.0082591 0.9955800 0.0082591 0.0044200 -0.0082591
2788000000 0.0044196 -0.0068626 0.9955804 0.0068626 0.9955804 0.0068626 0.0044196 -0.0068626
2809000000 0.0044235 -0.0054752 0.9955765 0.0054752 0.9955765 0.0054752 0.0044235 -0.0054752
2830000000 0.0044317 -0.0040967 0.9955683 0.0040967 0.9955683 0.0040967 0.0044317 -0.0040967
2851000000 0.0044440 -0.0027269 0.9955560 0.0027269 0.9955560 0.0027269 0.0044440 -0.0027269
2872000000 0.0044605 -0.0013656 0.9955395 0.0013656 0.9955395 0.0013656 0.0044605 -0.0013656
2893000000 0.0044810 -0.0000125 0.9955190 0.0000125 0.9955190 0.0000125 0.0044810 -0.0000125
2914000000 0.0045055 0.0013325 0.9954945 -0.0013325 0.9954945 -0.0013325 0.0045055 0.0013325
2935000000 0.0045339 0.0026697 0.9954661 -0.0026697 0.9954661 -0.0026697 0.0045339 0.0026697
2956000000 0.0045662 0.0039993 0.9954338 -0.0039993 0.9954338 -0.0039993 0.0045662 0.0039993
2977000000 0.0046023 0.0053215 0.9953977 -0.0053215 0.9953977 -0.0053215 0.0046023 0.0053215
2998000000 0.0046422 0.0066365 0.9953578 -0.0066365 0.9953578 -0.0066365 0.0046422 0.0066365
3019000000 0.0046858 0.0079444 0.9953142 -0.0079444 0.9953142 -0.0079444 0.0046858 0.0079444
3040000000 0.0047332 0.0092454 0.9952668 -0.0092454 0.9952668 -0.0092454 0.0047332 0.0092454
3061000000 0.0047841 0.0105398 0.9952159 -0.0105398 0.9952159 -0.0105398 0.0047841 0.0105398
3082000000 0.0048387 0.0118276 0.9951613 -0.0118276 0.9951613 -0.0118276 0.0048387 0.0118276
3103000000 0.0048968 0.0131092 0.9951032 -0.0131092 0.9951032 -0.0131092 0.0048968 0.0131092
3124000000 0.0049585 0.0143845 0.9950415 -0.0143845 0.9950415 -0.0143845 0.0049585 0.0143845
3145000000 0.0050237 0.0156539 0.9949763 -0.0156539 0.9949763 -0.0156539 0.0050237 0.0156539
3166000000 0.0050924 0.0169174 0.9949076 -0.0169174 0.9949076 -0.0169174 0.0050924 0.0169174
3187000000 0.0051645 0.0181753 0.9948355 -0.0181753 0.9948355 -0.0181753 0.0051645 0.0181753
3208000000 0.0052400 0.0194276 0.9947600 -0.0194276 0.9947600 -0.0194276 0.0052400 0.0194276
3229000000 0.0053189 0.0206746 0.9946811 -0.0206746 0.9946811 -0.0206746 0.0053189 0.0206746
3250000000 0.0054012 0.0219163 0.9945988 -0.0219163 0.9945988 -0.0219163 0.0054012 0.0219163
3271000000 0.0054868 0.0231530 0.9945132 -0.0231530 0.9945132 -0.0231530 0.0054868 0.0231530
3292000000 0.0055758 0.0243847 0.9944242 -0.0243847 0.9944242 -0.0243847 0.0055758 0.0243847
3313000000 0.0056681 0.0256116 0.9943319 -0.0256116 0.9943319 -0.0256116 0.0056681 0.0256116
3334000000 0.0057636 0.0268339 0.9942364 -0.0268339 0.9942364 -0.0268339 0.0057636 0.0268339
3355000000 0.0058625 0.0280517 0.9941375 -0.0280517 0.9941375 -0.0280517 0.0058625 0.0280517
3376000000 0.0059646 0.0292650 0.9940354 -0.0292650 0.9940354 -0.0292650 0.0059646 0.0292650
3397000000 0.0060700 0.0304742 0.9939300 -0.0304742 0.9939300 -0.0304742 0.0060700 0.0304742
3418000000 0.0061786 0.0316792 0.9938214 -0.0316792 0.9938214 -0.0316792 0.0061786 0.0316792
3439000000 0.0062905 0.0328802 0.9937095 -0.0328802 0.9937095 -0.0328802 0.0062905 0.0328802
3460000000 0.0064056 0.0340773 0.9935944 -0.0340773 0.9935944 -0.0340773 0.0064056 0.0340773
3481000000 0.0065239 0.0352707 0.9934761 -0.0352707 0.9934761 -0.0352707 0.0065239 0.0352707
3502000000 0.0066455 0.0364604 0.9933545 -0.0364604 0.9933545 -0.0364604 0.0066455 0.0364604
3523000000 0.0067703 0.0376467 0.9932297 -0.0376467 0.9932297 -0.0376467 0.0067703 0.0376467
3544000000 0.0068984 0.0388295 0.9931016 -0.0388295 0.9931016 -0.0388295 0.0068984 0.0388295
3565000000 0.0070296 0.0400091 0.9929704 -0.0400091 0.9929704 -0.0400091 0.0070296 0.0400091
3586000000 0.0071641 0.0411855 0.9928359 -0.0411855 0.9928359 -0.0411855 0.0071641 0.0411855
3607000000 0.0073019 0.0423589 0.9926981 -0.0423589 0.9926981 -0.0423589 0.0073019 0.0423589
3628000000 0.0074429 0.0435293 0.9925571 -0.0435293 0.9925571 -0.0435293 0.0074429 0.0435293
3649000000 0.0075871 0.0446969 0.9924129 -0.0446969 0.9924129 -0.0446969 0.0075871 0.0446969
3670000000 0.0077346 0.0458618 0.9922654 -0.0458618 0.9922654 -0.0458618 0.0077346 0.0458618
3691000000 0.0078854 0.0470241 0.9921146 -0.0470241 0.9921146 -0.0470241 0.0078854 0.0470241
3712000000 0.0080395 0.0481839 0.9919605 -0.0481839 0.9919605 -0.0481839 0.0080395 0.0481839
3733000000 0.0081969 0.0493413 0.9918031 -0.0493413 0.9918031 -0.0493413 0.0081969 0.0493413
3754000000 0.0083576 0.0504964 0.9916424 -0.0504964 0.9916424 -0.0504964 0.0083576 0.0504964
3775000000 0.0085216 0.0516493 0.9914784 -0.0516493 0.9914784 -0.0516493 0.0085216 0.0516493
3796000000 0.0086890 0.0528002 0.9913110 -0.0528002 0.9913110 -0.0528002 0.0086890 0.0528002
3817000000 0.0088598 0.0539491 0.9911402 -0.0539491 0.9911402 -0.0539491 0.0088598 0.0539491
3838000000 0.0090340 0.0550961 0.9909660 -0.0550961 0.9909660 -0.0550961 0.0090340 0.0550961
3859000000 0.0092116 0.0562413 0.9907884 -0.0562413 0.9907884 -0.0562413 0.0092116 0.0562413
3880000000 0.0093927 0.0573848 0.9906073 -0.0573848 0.9906073 -0.0573848 0.0093927 0.0573848
3901000000 0.0095773 0.0585268 0.9904227 -0.0585268 0.9904227 -0.0585268 0.0095773 0.0585268
3922000000 0.0097654 0.0596673 0.9902346 -0.0596673 0.9902346 -0.0596673 0.0097654 0.0596673
3943000000 0.0099570 0.0608064 0.9900430 -0.0608064 0.9900430 -0.0608064 0.0099570 0.0608064
3964000000 0.0101522 0.0619443 0.9898478 -0.0619443 0.9898478 -0.0619443 0.0101522 0.0619443
3985000000 0.0103511 0.0630809 0.9896489 -0.0630809 0.9896489 -0.0630809 0.0103511 0.0630809
4006000000 0.0105536 0.0642165 0.9894464 -0.0642165 0.9894464 -0.0642165 0.0105536 0.0642165
4027000000 0.0107598 0.0653511 0.9892402 -0.0653511 0.9892402 -0.0653511 0.0107598 0.0653511
4048000000 0.0109698 0.0664849 0.9890302 -0.0664849 0.9890302 -0.0664849 0.0109698 0.0664849
4069000000 0.0111836 0.0676178 0.9888164 -0.0676178 0.9888164 -0.0676178 0.0111836 0.0676178
4090000000 0.0114012 0.0687501 0.9885988 -0.0687501 0.9885988 -0.0687501 0.0114012 0.0687501
4111000000 0.0116227 0.0698817 0.9883773 -0.0698817 0.9883773 -0.0698817 0.0116227 0.0698817
4132000000 0.0118482 0.0710129 0.9881518 -0.0710129 0.9881518 -0.0710129 0.0118482 0.0710129
4153000000 0.0120777 0.0721437 0.9879223 -0.0721437 0.9879223 -0.0721437 0.0120777 0.0721437
4174000000 0.0123113 0.0732742 0.9876887 -0.0732742 0.9876887 -0.0732742 0.0123113 0.0732742
4195000000 0.0125491 0.0744045 0.9874509 -0.0744045 0.9874509 -0.0744045 0.0125491 0.0744045
4216000000 0.0127910 0.0755347 0.9872090 -0.0755347 0.9872090 -0.0755347 0.0127910 0.0755347
4237000000 0.0130373 0.0766650 0.9869627 -0.0766650 0.9869627 -0.0766650 0.0130373 0.0766650
4258000000 0.0132879 0.0777953 0.9867121 -0.0777953 0.9867121 -0.0777953 0.0132879 0.0777953
4279000000 0.0135431 0.0789259 0.9864569 -0.0789259 0.9864569 -0.0789259 0.0135431 0.0789259
4300000000 0.0138027 0.0800567 0.9861973 -0.0800567 0.9861973 -0.0800567 0.0138027 0.0800567
4321000000 0.0140670 0.0811880 0.9859330 -0.0811880 0.9859330 -0.0811880 0.0140670 0.0811880
4342000000 0.0143361 0.0823198 0.9856639 -0.0823198 0.9856639 -0.0823198 0.0143361 0.0823198
4363000000 0.0146100 0.0834523 0.9853900 -0.0834523 0.9853900 -0.0834523 0.0146100 0.0834523
4384000000 0.0148889 0.0845854 0.9851111 -0.0845854 0.9851111 -0.0845854 0.0148889 0.0845854
4405000000 0.0151729 0.0857194 0.9848271 -0.0857194 0.9848271 -0.0857194 0.0151729 0.0857194
4426000000 0.0154621 0.0868544 0.9845379 -0.0868544 0.9845379 -0.0868544 0.0154621 0.0868544
4447000000 0.0157567 0.0879904 0.9842433 -0.0879904 0.9842433 -0.0879904 0.0157567 0.0879904
4468000000 0.0160568 0.0891276 0.9839432 -0.0891276 0.9839432 -0.0891276 0.0160568 0.0891276
4489000000 0.0163627 0.0902661 0.9836373 -0.0902661 0.9836373 -0.0902661 0.0163627 0.0902661
4510000000 0.0166745 0.0914060 0.9833255 -0.0914060 0.9833255 -0.0914060 0.0166745 0.0914060
