!Murata Part Number: GRM1885C2E330JW07
!These Parameters are Measured in Series Mode Connection
!Data Generated on Mar 30, 2021
!       o--ll--o
!Port1            Port2
!       o------o
!Operation Temp=25[degC], DC Bias Voltage=0[V]
!Freq. Start=1000[kHz] Stop=3[GHz] 401[Steps]
# Hz S RI R 50
!Freq.(Hz) S11(Real) S11(Imag) S21(Real) S21(Imag) S12(Real) S12(Imag) S22(Real) S22(Imag)
1000000 0.9995553 -0.0207247 0.0004447 0.0207247 0.0004447 0.0207247 0.9995553 -0.0207247
8497500 0.9689979 -0.1703713 0.0310021 0.1703713 0.0310021 0.1703713 0.9689979 -0.1703713
15995000 0.8990463 -0.2961416 0.1009537 0.2961416 0.1009537 0.2961416 0.8990463 -0.2961416
23492500 0.8069393 -0.3880012 0.1930607 0.3880012 0.1930607 0.3880012 0.8069393 -0.3880012
30990000 0.7087353 -0.4466610 0.2912647 0.4466610 0.2912647 0.4466610 0.7087353 -0.4466610
38487500 0.6149007 -0.4784164 0.3850993 0.4784164 0.3850993 0.4784164 0.6149007 -0.4784164
45985000 0.5305670 -0.4906687 0.4694330 0.4906687 0.4694330 0.4906687 0.5305670 -0.4906687
53482500 0.4573508 -0.4897923 0.5426492 0.4897923 0.5426492 0.4897923 0.4573508 -0.4897923
60980000 0.3949836 -0.4805903 0.6050164 0.4805903 0.6050164 0.4805903 0.3949836 -0.4805903
68477500 0.3423615 -0.4664324 0.6576385 0.4664324 0.6576385 0.4664324 0.3423615 -0.4664324
75975000 0.2981228 -0.4495811 0.7018772 0.4495811 0.7018772 0.4495811 0.2981228 -0.4495811
83472500 0.2609297 -0.4315080 0.7390703 0.4315080 0.7390703 0.4315080 0.2609297 -0.4315080
90970000 0.2295860 -0.4131440 0.7704140 0.4131440 0.7704140 0.4131440 0.2295860 -0.4131440
98467500 0.2030722 -0.3950596 0.7969278 0.3950596 0.7969278 0.3950596 0.2030722 -0.3950596
105965000 0.1805411 -0.3775899 0.8194589 0.3775899 0.8194589 0.3775899 0.1805411 -0.3775899
113462500 0.1612981 -0.3609179 0.8387019 0.3609179 0.8387019 0.3609179 0.1612981 -0.3609179
120960000 0.1447777 -0.3451297 0.8552223 0.3451297 0.8552223 0.3451297 0.1447777 -0.3451297
128457500 0.1305205 -0.3302512 0.8694795 0.3302512 0.8694795 0.3302512 0.1305205 -0.3302512
135955000 0.1181531 -0.3162711 0.8818469 0.3162711 0.8818469 0.3162711 0.1181531 -0.3162711
143452500 0.1073714 -0.3031565 0.8926286 0.3031565 0.8926286 0.3031565 0.1073714 -0.3031565
150950000 0.0979270 -0.2908624 0.9020730 0.2908624 0.9020730 0.2908624 0.0979270 -0.2908624
158447500 0.0896158 -0.2793383 0.9103842 0.2793383 0.9103842 0.2793383 0.0896158 -0.2793383
165945000 0.0822698 -0.2685318 0.9177302 0.2685318 0.9177302 0.2685318 0.0822698 -0.2685318
173442500 0.0757499 -0.2583911 0.9242501 0.2583911 0.9242501 0.2583911 0.0757499 -0.2583911
180940000 0.0699404 -0.2488665 0.9300596 0.2488665 0.9300596 0.2488665 0.0699404 -0.2488665
188437500 0.0647444 -0.2399107 0.9352556 0.2399107 0.9352556 0.2399107 0.0647444 -0.2399107
195935000 0.0600806 -0.2314801 0.9399194 0.2314801 0.9399194 0.2314801 0.0600806 -0.2314801
203432500 0.0558806 -0.2235339 0.9441194 0.2235339 0.9441194 0.2235339 0.0558806 -0.2235339
210930000 0.0520862 -0.2160348 0.9479138 0.2160348 0.9479138 0.2160348 0.0520862 -0.2160348
218427500 0.0486478 -0.2089484 0.9513522 0.2089484 0.9513522 0.2089484 0.0486478 -0.2089484
225925000 0.0455232 -0.2022435 0.9544768 0.2022435 0.9544768 0.2022435 0.0455232 -0.2022435
233422500 0.0426761 -0.1958912 0.9573239 0.1958912 0.9573239 0.1958912 0.0426761 -0.1958912
240920000 0.0400752 -0.1898655 0.9599248 0.1898655 0.9599248 0.1898655 0.0400752 -0.1898655
248417500 0.0376934 -0.1841424 0.9623066 0.1841424 0.9623066 0.1841424 0.0376934 -0.1841424
255915000 0.0355071 -0.1787001 0.9644929 0.1787001 0.9644929 0.1787001 0.0355071 -0.1787001
263412500 0.0334961 -0.1735187 0.9665039 0.1735187 0.9665039 0.1735187 0.0334961 -0.1735187
270910000 0.0316422 -0.1685799 0.9683578 0.1685799 0.9683578 0.1685799 0.0316422 -0.1685799
278407500 0.0299299 -0.1638671 0.9700701 0.1638671 0.9700701 0.1638671 0.0299299 -0.1638671
285905000 0.0283453 -0.1593651 0.9716547 0.1593651 0.9716547 0.1593651 0.0283453 -0.1593651
293402500 0.0268763 -0.1550597 0.9731237 0.1550597 0.9731237 0.1550597 0.0268763 -0.1550597
300900000 0.0255121 -0.1509383 0.9744879 0.1509383 0.9744879 0.1509383 0.0255121 -0.1509383
308397500 0.0242431 -0.1469889 0.9757569 0.1469889 0.9757569 0.1469889 0.0242431 -0.1469889
315895000 0.0230609 -0.1432008 0.9769391 0.1432008 0.9769391 0.1432008 0.0230609 -0.1432008
323392500 0.0219577 -0.1395639 0.9780423 0.1395639 0.9780423 0.1395639 0.0219577 -0.1395639
330890000 0.0209270 -0.1360691 0.9790730 0.1360691 0.9790730 0.1360691 0.0209270 -0.1360691
338387500 0.0199626 -0.1327078 0.9800374 0.1327078 0.9800374 0.1327078 0.0199626 -0.1327078
345885000 0.0190590 -0.1294722 0.9809410 0.1294722 0.9809410 0.1294722 0.0190590 -0.1294722
353382500 0.0182114 -0.1263550 0.9817886 0.1263550 0.9817886 0.1263550 0.0182114 -0.1263550
360880000 0.0174153 -0.1233494 0.9825847 0.1233494 0.9825847 0.1233494 0.0174153 -0.1233494
368377500 0.0166667 -0.1204493 0.9833333 0.1204493 0.9833333 0.1204493 0.0166667 -0.1204493
375875000 0.0159621 -0.1176488 0.9840379 0.1176488 0.9840379 0.1176488 0.0159621 -0.1176488
383372500 0.0152981 -0.1149425 0.9847019 0.1149425 0.9847019 0.1149425 0.0152981 -0.1149425
390870000 0.0146718 -0.1123253 0.9853282 0.1123253 0.9853282 0.1123253 0.0146718 -0.1123253
398367500 0.0140804 -0.1097927 0.9859196 0.1097927 0.9859196 0.1097927 0.0140804 -0.1097927
405865000 0.0135215 -0.1073402 0.9864785 0.1073402 0.9864785 0.1073402 0.0135215 -0.1073402
413362500 0.0129928 -0.1049638 0.9870072 0.1049638 0.9870072 0.1049638 0.0129928 -0.1049638
420860000 0.0124922 -0.1026597 0.9875078 0.1026597 0.9875078 0.1026597 0.0124922 -0.1026597
428357500 0.0120180 -0.1004242 0.9879820 0.1004242 0.9879820 0.1004242 0.0120180 -0.1004242
435855000 0.0115682 -0.0982541 0.9884318 0.0982541 0.9884318 0.0982541 0.0115682 -0.0982541
443352500 0.0111414 -0.0961463 0.9888586 0.0961463 0.9888586 0.0961463 0.0111414 -0.0961463
450850000 0.0107361 -0.0940977 0.9892639 0.0940977 0.9892639 0.0940977 0.0107361 -0.0940977
458347500 0.0103508 -0.0921057 0.9896492 0.0921057 0.9896492 0.0921057 0.0103508 -0.0921057
465845000 0.0099845 -0.0901677 0.9900155 0.0901677 0.9900155 0.0901677 0.0099845 -0.0901677
473342500 0.0096359 -0.0882812 0.9903641 0.0882812 0.9903641 0.0882812 0.0096359 -0.0882812
480840000 0.0093039 -0.0864439 0.9906961 0.0864439 0.9906961 0.0864439 0.0093039 -0.0864439
488337500 0.0089876 -0.0846536 0.9910124 0.0846536 0.9910124 0.0846536 0.0089876 -0.0846536
495835000 0.0086861 -0.0829084 0.9913139 0.0829084 0.9913139 0.0829084 0.0086861 -0.0829084
503332500 0.0083985 -0.0812063 0.9916015 0.0812063 0.9916015 0.0812063 0.0083985 -0.0812063
510830000 0.0081240 -0.0795455 0.9918760 0.0795455 0.9918760 0.0795455 0.0081240 -0.0795455
518327500 0.0078620 -0.0779243 0.9921380 0.0779243 0.9921380 0.0779243 0.0078620 -0.0779243
525825000 0.0076116 -0.0763410 0.9923884 0.0763410 0.9923884 0.0763410 0.0076116 -0.0763410
533322500 0.0073724 -0.0747941 0.9926276 0.0747941 0.9926276 0.0747941 0.0073724 -0.0747941
540820000 0.0071436 -0.0732821 0.9928564 0.0732821 0.9928564 0.0732821 0.0071436 -0.0732821
548317500 0.0069248 -0.0718038 0.9930752 0.0718038 0.9930752 0.0718038 0.0069248 -0.0718038
555815000 0.0067154 -0.0703577 0.9932846 0.0703577 0.9932846 0.0703577 0.0067154 -0.0703577
563312500 0.0065150 -0.0689426 0.9934850 0.0689426 0.9934850 0.0689426 0.0065150 -0.0689426
570810000 0.0063231 -0.0675573 0.9936769 0.0675573 0.9936769 0.0675573 0.0063231 -0.0675573
578307500 0.0061392 -0.0662008 0.9938608 0.0662008 0.9938608 0.0662008 0.0061392 -0.0662008
585805000 0.0059630 -0.0648719 0.9940370 0.0648719 0.9940370 0.0648719 0.0059630 -0.0648719
593302500 0.0057942 -0.0635697 0.9942058 0.0635697 0.9942058 0.0635697 0.0057942 -0.0635697
600800000 0.0056323 -0.0622931 0.9943677 0.0622931 0.9943677 0.0622931 0.0056323 -0.0622931
608297500 0.0054770 -0.0610413 0.9945230 0.0610413 0.9945230 0.0610413 0.0054770 -0.0610413
615795000 0.0053281 -0.0598134 0.9946719 0.0598134 0.9946719 0.0598134 0.0053281 -0.0598134
623292500 0.0051852 -0.0586085 0.9948148 0.0586085 0.9948148 0.0586085 0.0051852 -0.0586085
630790000 0.0050481 -0.0574258 0.9949519 0.0574258 0.9949519 0.0574258 0.0050481 -0.0574258
638287500 0.0049164 -0.0562646 0.9950836 0.0562646 0.9950836 0.0562646 0.0049164 -0.0562646
645785000 0.0047901 -0.0551242 0.9952099 0.0551242 0.9952099 0.0551242 0.0047901 -0.0551242
653282500 0.0046687 -0.0540038 0.9953313 0.0540038 0.9953313 0.0540038 0.0046687 -0.0540038
660780000 0.0045522 -0.0529028 0.9954478 0.0529028 0.9954478 0.0529028 0.0045522 -0.0529028
668277500 0.0044403 -0.0518205 0.9955597 0.0518205 0.9955597 0.0518205 0.0044403 -0.0518205
675775000 0.0043328 -0.0507564 0.9956672 0.0507564 0.9956672 0.0507564 0.0043328 -0.0507564
683272500 0.0042296 -0.0497099 0.9957704 0.0497099 0.9957704 0.0497099 0.0042296 -0.0497099
690770000 0.0041304 -0.0486803 0.9958696 0.0486803 0.9958696 0.0486803 0.0041304 -0.0486803
698267500 0.0040351 -0.0476673 0.9959649 0.0476673 0.9959649 0.0476673 0.0040351 -0.0476673
705765000 0.0039436 -0.0466701 0.9960564 0.0466701 0.9960564 0.0466701 0.0039436 -0.0466701
713262500 0.0038556 -0.0456885 0.9961444 0.0456885 0.9961444 0.0456885 0.0038556 -0.0456885
720760000 0.0037711 -0.0447218 0.9962289 0.0447218 0.9962289 0.0447218 0.0037711 -0.0447218
728257500 0.0036900 -0.0437697 0.9963100 0.0437697 0.9963100 0.0437697 0.0036900 -0.0437697
735755000 0.0036120 -0.0428317 0.9963880 0.0428317 0.9963880 0.0428317 0.0036120 -0.0428317
743252500 0.0035371 -0.0419074 0.9964629 0.0419074 0.9964629 0.0419074 0.0035371 -0.0419074
750750000 0.0034652 -0.0409963 0.9965348 0.0409963 0.9965348 0.0409963 0.0034652 -0.0409963
758247500 0.0033961 -0.0400982 0.9966039 0.0400982 0.9966039 0.0400982 0.0033961 -0.0400982
765745000 0.0033298 -0.0392125 0.9966702 0.0392125 0.9966702 0.0392125 0.0033298 -0.0392125
773242500 0.0032662 -0.0383391 0.9967338 0.0383391 0.9967338 0.0383391 0.0032662 -0.0383391
780740000 0.0032051 -0.0374775 0.9967949 0.0374775 0.9967949 0.0374775 0.0032051 -0.0374775
788237500 0.0031465 -0.0366273 0.9968535 0.0366273 0.9968535 0.0366273 0.0031465 -0.0366273
795735000 0.0030902 -0.0357884 0.9969098 0.0357884 0.9969098 0.0357884 0.0030902 -0.0357884
803232500 0.0030363 -0.0349603 0.9969637 0.0349603 0.9969637 0.0349603 0.0030363 -0.0349603
810730000 0.0029846 -0.0341428 0.9970154 0.0341428 0.9970154 0.0341428 0.0029846 -0.0341428
818227500 0.0029350 -0.0333356 0.9970650 0.0333356 0.9970650 0.0333356 0.0029350 -0.0333356
825725000 0.0028876 -0.0325384 0.9971124 0.0325384 0.9971124 0.0325384 0.0028876 -0.0325384
833222500 0.0028421 -0.0317509 0.9971579 0.0317509 0.9971579 0.0317509 0.0028421 -0.0317509
840720000 0.0027986 -0.0309729 0.9972014 0.0309729 0.9972014 0.0309729 0.0027986 -0.0309729
848217500 0.0027570 -0.0302042 0.9972430 0.0302042 0.9972430 0.0302042 0.0027570 -0.0302042
855715000 0.0027172 -0.0294445 0.9972828 0.0294445 0.9972828 0.0294445 0.0027172 -0.0294445
863212500 0.0026792 -0.0286935 0.9973208 0.0286935 0.9973208 0.0286935 0.0026792 -0.0286935
870710000 0.0026429 -0.0279511 0.9973571 0.0279511 0.9973571 0.0279511 0.0026429 -0.0279511
878207500 0.0026083 -0.0272170 0.9973917 0.0272170 0.9973917 0.0272170 0.0026083 -0.0272170
885705000 0.0025753 -0.0264911 0.9974247 0.0264911 0.9974247 0.0264911 0.0025753 -0.0264911
893202500 0.0025439 -0.0257731 0.9974561 0.0257731 0.9974561 0.0257731 0.0025439 -0.0257731
900700000 0.0025140 -0.0250628 0.9974860 0.0250628 0.9974860 0.0250628 0.0025140 -0.0250628
908197500 0.0024856 -0.0243600 0.9975144 0.0243600 0.9975144 0.0243600 0.0024856 -0.0243600
915695000 0.0024586 -0.0236646 0.9975414 0.0236646 0.9975414 0.0236646 0.0024586 -0.0236646
923192500 0.0024330 -0.0229764 0.9975670 0.0229764 0.9975670 0.0229764 0.0024330 -0.0229764
930690000 0.0024088 -0.0222952 0.9975912 0.0222952 0.9975912 0.0222952 0.0024088 -0.0222952
938187500 0.0023859 -0.0216209 0.9976141 0.0216209 0.9976141 0.0216209 0.0023859 -0.0216209
945685000 0.0023643 -0.0209532 0.9976357 0.0209532 0.9976357 0.0209532 0.0023643 -0.0209532
953182500 0.0023440 -0.0202921 0.9976560 0.0202921 0.9976560 0.0202921 0.0023440 -0.0202921
960680000 0.0023248 -0.0196373 0.9976752 0.0196373 0.9976752 0.0196373 0.0023248 -0.0196373
968177500 0.0023069 -0.0189888 0.9976931 0.0189888 0.9976931 0.0189888 0.0023069 -0.0189888
975675000 0.0022901 -0.0183463 0.9977099 0.0183463 0.9977099 0.0183463 0.0022901 -0.0183463
983172500 0.0022745 -0.0177098 0.9977255 0.0177098 0.9977255 0.0177098 0.0022745 -0.0177098
990670000 0.0022599 -0.0170791 0.9977401 0.0170791 0.9977401 0.0170791 0.0022599 -0.0170791
998167500 0.0022464 -0.0164541 0.9977536 0.0164541 0.9977536 0.0164541 0.0022464 -0.0164541
1005665000 0.0022340 -0.0158347 0.9977660 0.0158347 0.9977660 0.0158347 0.0022340 -0.0158347
1013162500 0.0022226 -0.0152207 0.9977774 0.0152207 0.9977774 0.0152207 0.0022226 -0.0152207
1020660000 0.0022122 -0.0146121 0.9977878 0.0146121 0.9977878 0.0146121 0.0022122 -0.0146121
1028157500 0.0022028 -0.0140086 0.9977972 0.0140086 0.9977972 0.0140086 0.0022028 -0.0140086
1035655000 0.0021943 -0.0134102 0.9978057 0.0134102 0.9978057 0.0134102 0.0021943 -0.0134102
1043152500 0.0021867 -0.0128169 0.9978133 0.0128169 0.9978133 0.0128169 0.0021867 -0.0128169
1050650000 0.0021801 -0.0122283 0.9978199 0.0122283 0.9978199 0.0122283 0.0021801 -0.0122283
1058147500 0.0021743 -0.0116446 0.9978257 0.0116446 0.9978257 0.0116446 0.0021743 -0.0116446
1065645000 0.0021694 -0.0110656 0.9978306 0.0110656 0.9978306 0.0110656 0.0021694 -0.0110656
1073142500 0.0021654 -0.0104911 0.9978346 0.0104911 0.9978346 0.0104911 0.0021654 -0.0104911
1080640000 0.0021622 -0.0099211 0.9978378 0.0099211 0.9978378 0.0099211 0.0021622 -0.0099211
1088137500 0.0021598 -0.0093555 0.9978402 0.0093555 0.9978402 0.0093555 0.0021598 -0.0093555
1095635000 0.0021583 -0.0087942 0.9978417 0.0087942 0.9978417 0.0087942 0.0021583 -0.0087942
1103132500 0.0021575 -0.0082372 0.9978425 0.0082372 0.9978425 0.0082372 0.0021575 -0.0082372
1110630000 0.0021574 -0.0076842 0.9978426 0.0076842 0.9978426 0.0076842 0.0021574 -0.0076842
1118127500 0.0021581 -0.0071353 0.9978419 0.0071353 0.9978419 0.0071353 0.0021581 -0.0071353
1125625000 0.0021596 -0.0065904 0.9978404 0.0065904 0.9978404 0.0065904 0.0021596 -0.0065904
1133122500 0.0021618 -0.0060494 0.9978382 0.0060494 0.9978382 0.0060494 0.0021618 -0.0060494
1140620000 0.0021647 -0.0055122 0.9978353 0.0055122 0.9978353 0.0055122 0.0021647 -0.0055122
1148117500 0.0021682 -0.0049787 0.9978318 0.0049787 0.9978318 0.0049787 0.0021682 -0.0049787
1155615000 0.0021725 -0.0044489 0.9978275 0.0044489 0.9978275 0.0044489 0.0021725 -0.0044489
1163112500 0.0021774 -0.0039226 0.9978226 0.0039226 0.9978226 0.0039226 0.0021774 -0.0039226
1170610000 0.0021830 -0.0033999 0.9978170 0.0033999 0.9978170 0.0033999 0.0021830 -0.0033999
1178107500 0.0021893 -0.0028807 0.9978107 0.0028807 0.9978107 0.0028807 0.0021893 -0.0028807
1185605000 0.0021961 -0.0023649 0.9978039 0.0023649 0.9978039 0.0023649 0.0021961 -0.0023649
1193102500 0.0022036 -0.0018524 0.9977964 0.0018524 0.9977964 0.0018524 0.0022036 -0.0018524
1200600000 0.0022118 -0.0013431 0.9977882 0.0013431 0.9977882 0.0013431 0.0022118 -0.0013431
1208097500 0.0022205 -0.0008371 0.9977795 0.0008371 0.9977795 0.0008371 0.0022205 -0.0008371
1215595000 0.0022298 -0.0003342 0.9977702 0.0003342 0.9977702 0.0003342 0.0022298 -0.0003342
1223092500 0.0022397 0.0001656 0.9977603 -0.0001656 0.9977603 -0.0001656 0.0022397 0.0001656
1230590000 0.0022501 0.0006624 0.9977499 -0.0006624 0.9977499 -0.0006624 0.0022501 0.0006624
1238087500 0.0022612 0.0011562 0.9977388 -0.0011562 0.9977388 -0.0011562 0.0022612 0.0011562
1245585000 0.0022728 0.0016471 0.9977272 -0.0016471 0.9977272 -0.0016471 0.0022728 0.0016471
1253082500 0.0022849 0.0021351 0.9977151 -0.0021351 0.9977151 -0.0021351 0.0022849 0.0021351
1260580000 0.0022976 0.0026203 0.9977024 -0.0026203 0.9977024 -0.0026203 0.0022976 0.0026203
1268077500 0.0023108 0.0031027 0.9976892 -0.0031027 0.9976892 -0.0031027 0.0023108 0.0031027
1275575000 0.0023246 0.0035825 0.9976754 -0.0035825 0.9976754 -0.0035825 0.0023246 0.0035825
1283072500 0.0023388 0.0040595 0.9976612 -0.0040595 0.9976612 -0.0040595 0.0023388 0.0040595
1290570000 0.0023536 0.0045339 0.9976464 -0.0045339 0.9976464 -0.0045339 0.0023536 0.0045339
1298067500 0.0023689 0.0050058 0.9976311 -0.0050058 0.9976311 -0.0050058 0.0023689 0.0050058
1305565000 0.0023847 0.0054751 0.9976153 -0.0054751 0.9976153 -0.0054751 0.0023847 0.0054751
1313062500 0.0024009 0.0059419 0.9975991 -0.0059419 0.9975991 -0.0059419 0.0024009 0.0059419
1320560000 0.0024177 0.0064063 0.9975823 -0.0064063 0.9975823 -0.0064063 0.0024177 0.0064063
1328057500 0.0024349 0.0068683 0.9975651 -0.0068683 0.9975651 -0.0068683 0.0024349 0.0068683
1335555000 0.0024527 0.0073280 0.9975473 -0.0073280 0.9975473 -0.0073280 0.0024527 0.0073280
1343052500 0.0024708 0.0077853 0.9975292 -0.0077853 0.9975292 -0.0077853 0.0024708 0.0077853
1350550000 0.0024895 0.0082403 0.9975105 -0.0082403 0.9975105 -0.0082403 0.0024895 0.0082403
1358047500 0.0025086 0.0086931 0.9974914 -0.0086931 0.9974914 -0.0086931 0.0025086 0.0086931
1365545000 0.0025281 0.0091437 0.9974719 -0.0091437 0.9974719 -0.0091437 0.0025281 0.0091437
1373042500 0.0025481 0.0095921 0.9974519 -0.0095921 0.9974519 -0.0095921 0.0025481 0.0095921
1380540000 0.0025686 0.0100385 0.9974314 -0.0100385 0.9974314 -0.0100385 0.0025686 0.0100385
1388037500 0.0025895 0.0104827 0.9974105 -0.0104827 0.9974105 -0.0104827 0.0025895 0.0104827
1395535000 0.0026108 0.0109248 0.9973892 -0.0109248 0.9973892 -0.0109248 0.0026108 0.0109248
1403032500 0.0026325 0.0113650 0.9973675 -0.0113650 0.9973675 -0.0113650 0.0026325 0.0113650
1410530000 0.0026547 0.0118031 0.9973453 -0.0118031 0.9973453 -0.0118031 0.0026547 0.0118031
1418027500 0.0026773 0.0122393 0.9973227 -0.0122393 0.9973227 -0.0122393 0.0026773 0.0122393
1425525000 0.0027003 0.0126736 0.9972997 -0.0126736 0.9972997 -0.0126736 0.0027003 0.0126736
1433022500 0.0027238 0.0131060 0.9972762 -0.0131060 0.9972762 -0.0131060 0.0027238 0.0131060
1440520000 0.0027476 0.0135365 0.9972524 -0.0135365 0.9972524 -0.0135365 0.0027476 0.0135365
1448017500 0.0027719 0.0139653 0.9972281 -0.0139653 0.9972281 -0.0139653 0.0027719 0.0139653
1455515000 0.0027965 0.0143922 0.9972035 -0.0143922 0.9972035 -0.0143922 0.0027965 0.0143922
1463012500 0.0028216 0.0148173 0.9971784 -0.0148173 0.9971784 -0.0148173 0.0028216 0.0148173
1470510000 0.0028470 0.0152407 0.9971530 -0.0152407 0.9971530 -0.0152407 0.0028470 0.0152407
1478007500 0.0028729 0.0156624 0.9971271 -0.0156624 0.9971271 -0.0156624 0.0028729 0.0156624
1485505000 0.0028992 0.0160824 0.9971008 -0.0160824 0.9971008 -0.0160824 0.0028992 0.0160824
1493002500 0.0029258 0.0165008 0.9970742 -0.0165008 0.9970742 -0.0165008 0.0029258 0.0165008
1500500000 0.0029529 0.0169175 0.9970471 -0.0169175 0.9970471 -0.0169175 0.0029529 0.0169175
1507997500 0.0029803 0.0173327 0.9970197 -0.0173327 0.9970197 -0.0173327 0.0029803 0.0173327
1515495000 0.0030081 0.0177462 0.9969919 -0.0177462 0.9969919 -0.0177462 0.0030081 0.0177462
1522992500 0.0030363 0.0181583 0.9969637 -0.0181583 0.9969637 -0.0181583 0.0030363 0.0181583
1530490000 0.0030649 0.0185688 0.9969351 -0.0185688 0.9969351 -0.0185688 0.0030649 0.0185688
1537987500 0.0030938 0.0189778 0.9969062 -0.0189778 0.9969062 -0.0189778 0.0030938 0.0189778
1545485000 0.0031232 0.0193853 0.9968768 -0.0193853 0.9968768 -0.0193853 0.0031232 0.0193853
1552982500 0.0031529 0.0197914 0.9968471 -0.0197914 0.9968471 -0.0197914 0.0031529 0.0197914
1560480000 0.0031830 0.0201961 0.9968170 -0.0201961 0.9968170 -0.0201961 0.0031830 0.0201961
1567977500 0.0032135 0.0205993 0.9967865 -0.0205993 0.9967865 -0.0205993 0.0032135 0.0205993
1575475000 0.0032443 0.0210012 0.9967557 -0.0210012 0.9967557 -0.0210012 0.0032443 0.0210012
1582972500 0.0032755 0.0214018 0.9967245 -0.0214018 0.9967245 -0.0214018 0.0032755 0.0214018
