!Murata Part Number: GRM1882C1H392JA01
!These Parameters are Measured in Series Mode Connection
!Data Generated on Mar 30, 2021
!       o--ll--o
!Port1            Port2
!       o------o
!Operation Temp=25[degC], DC Bias Voltage=0[V]
!Freq. Start=1000[kHz] Stop=6[GHz] 401[Steps]
# Hz S RI R 50
!Freq.(Hz) S11(Real) S11(Imag) S21(Real) S21(Imag) S12(Real) S12(Imag) S22(Real) S22(Imag)
1000000 0.1469086 -0.3539215 0.8530914 0.3539215 0.8530914 0.3539215 0.1469086 -0.3539215
1021987 0.1415419 -0.3484842 0.8584581 0.3484842 0.8584581 0.3484842 0.1415419 -0.3484842
1044457 0.1363399 -0.3430515 0.8636601 0.3430515 0.8636601 0.3430515 0.1363399 -0.3430515
1067422 0.1313000 -0.3376283 0.8687000 0.3376283 0.8687000 0.3376283 0.1313000 -0.3376283
1090891 0.1264191 -0.3322190 0.8735809 0.3322190 0.8735809 0.3322190 0.1264191 -0.3322190
1114877 0.1216944 -0.3268280 0.8783056 0.3268280 0.8783056 0.3268280 0.1216944 -0.3268280
1139390 0.1171226 -0.3214594 0.8828774 0.3214594 0.8828774 0.3214594 0.1171226 -0.3214594
1164441 0.1127006 -0.3161170 0.8872994 0.3161170 0.8872994 0.3161170 0.1127006 -0.3161170
1190044 0.1084251 -0.3108046 0.8915749 0.3108046 0.8915749 0.3108046 0.1084251 -0.3108046
1216210 0.1042928 -0.3055255 0.8957072 0.3055255 0.8957072 0.3055255 0.1042928 -0.3055255
1242950 0.1003004 -0.3002829 0.8996996 0.3002829 0.8996996 0.3002829 0.1003004 -0.3002829
1270279 0.0964444 -0.2950798 0.9035556 0.2950798 0.9035556 0.2950798 0.0964444 -0.2950798
1298209 0.0927214 -0.2899190 0.9072786 0.2899190 0.9072786 0.2899190 0.0927214 -0.2899190
1326753 0.0891281 -0.2848030 0.9108719 0.2848030 0.9108719 0.2848030 0.0891281 -0.2848030
1355924 0.0856610 -0.2797342 0.9143390 0.2797342 0.9143390 0.2797342 0.0856610 -0.2797342
1385737 0.0823166 -0.2747149 0.9176834 0.2747149 0.9176834 0.2747149 0.0823166 -0.2747149
1416205 0.0790915 -0.2697470 0.9209085 0.2697470 0.9209085 0.2697470 0.0790915 -0.2697470
1447343 0.0759825 -0.2648323 0.9240175 0.2648323 0.9240175 0.2648323 0.0759825 -0.2648323
1479166 0.0729860 -0.2599726 0.9270140 0.2599726 0.9270140 0.2599726 0.0729860 -0.2599726
1511688 0.0700989 -0.2551692 0.9299011 0.2551692 0.9299011 0.2551692 0.0700989 -0.2551692
1544926 0.0673177 -0.2504236 0.9326823 0.2504236 0.9326823 0.2504236 0.0673177 -0.2504236
1578894 0.0646393 -0.2457370 0.9353607 0.2457370 0.9353607 0.2457370 0.0646393 -0.2457370
1613609 0.0620605 -0.2411104 0.9379395 0.2411104 0.9379395 0.2411104 0.0620605 -0.2411104
1649087 0.0595781 -0.2365448 0.9404219 0.2365448 0.9404219 0.2365448 0.0595781 -0.2365448
1685346 0.0571890 -0.2320409 0.9428110 0.2320409 0.9428110 0.2320409 0.0571890 -0.2320409
1722402 0.0548902 -0.2275995 0.9451098 0.2275995 0.9451098 0.2275995 0.0548902 -0.2275995
1760272 0.0526788 -0.2232210 0.9473212 0.2232210 0.9473212 0.2232210 0.0526788 -0.2232210
1798975 0.0505517 -0.2189060 0.9494483 0.2189060 0.9494483 0.2189060 0.0505517 -0.2189060
1838529 0.0485063 -0.2146547 0.9514937 0.2146547 0.9514937 0.2146547 0.0485063 -0.2146547
1878953 0.0465397 -0.2104676 0.9534603 0.2104676 0.9534603 0.2104676 0.0465397 -0.2104676
1920266 0.0446491 -0.2063446 0.9553509 0.2063446 0.9553509 0.2063446 0.0446491 -0.2063446
1962487 0.0428320 -0.2022860 0.9571680 0.2022860 0.9571680 0.2022860 0.0428320 -0.2022860
2005636 0.0410858 -0.1982917 0.9589142 0.1982917 0.9589142 0.1982917 0.0410858 -0.1982917
2049734 0.0394080 -0.1943616 0.9605920 0.1943616 0.9605920 0.1943616 0.0394080 -0.1943616
2094801 0.0377960 -0.1904957 0.9622040 0.1904957 0.9622040 0.1904957 0.0377960 -0.1904957
2140860 0.0362476 -0.1866936 0.9637524 0.1866936 0.9637524 0.1866936 0.0362476 -0.1866936
2187931 0.0347605 -0.1829552 0.9652395 0.1829552 0.9652395 0.1829552 0.0347605 -0.1829552
2236037 0.0333324 -0.1792802 0.9666676 0.1792802 0.9666676 0.1792802 0.0333324 -0.1792802
2285201 0.0319611 -0.1756681 0.9680389 0.1756681 0.9680389 0.1756681 0.0319611 -0.1756681
2335446 0.0306446 -0.1721185 0.9693554 0.1721185 0.9693554 0.1721185 0.0306446 -0.1721185
2386795 0.0293808 -0.1686311 0.9706192 0.1686311 0.9706192 0.1686311 0.0293808 -0.1686311
2439274 0.0281677 -0.1652052 0.9718323 0.1652052 0.9718323 0.1652052 0.0281677 -0.1652052
2492906 0.0270034 -0.1618404 0.9729966 0.1618404 0.9729966 0.1618404 0.0270034 -0.1618404
2547717 0.0258861 -0.1585361 0.9741139 0.1585361 0.9741139 0.1585361 0.0258861 -0.1585361
2603734 0.0248139 -0.1552916 0.9751861 0.1552916 0.9751861 0.1552916 0.0248139 -0.1552916
2660982 0.0237852 -0.1521065 0.9762148 0.1521065 0.9762148 0.1521065 0.0237852 -0.1521065
2719490 0.0227983 -0.1489799 0.9772017 0.1489799 0.9772017 0.1489799 0.0227983 -0.1489799
2779283 0.0218515 -0.1459113 0.9781485 0.1459113 0.9781485 0.1459113 0.0218515 -0.1459113
2840391 0.0209434 -0.1428999 0.9790566 0.1428999 0.9790566 0.1428999 0.0209434 -0.1428999
2902843 0.0200723 -0.1399450 0.9799277 0.1399450 0.9799277 0.1399450 0.0200723 -0.1399450
2966668 0.0192369 -0.1370460 0.9807631 0.1370460 0.9807631 0.1370460 0.0192369 -0.1370460
3031896 0.0184358 -0.1342020 0.9815642 0.1342020 0.9815642 0.1342020 0.0184358 -0.1342020
3098558 0.0176675 -0.1314123 0.9823325 0.1314123 0.9823325 0.1314123 0.0176675 -0.1314123
3166686 0.0169309 -0.1286762 0.9830691 0.1286762 0.9830691 0.1286762 0.0169309 -0.1286762
3236312 0.0162246 -0.1259929 0.9837754 0.1259929 0.9837754 0.1259929 0.0162246 -0.1259929
3307469 0.0155475 -0.1233616 0.9844525 0.1233616 0.9844525 0.1233616 0.0155475 -0.1233616
3380190 0.0148983 -0.1207816 0.9851017 0.1207816 0.9851017 0.1207816 0.0148983 -0.1207816
3454511 0.0142760 -0.1182520 0.9857240 0.1182520 0.9857240 0.1182520 0.0142760 -0.1182520
3530465 0.0136795 -0.1157721 0.9863205 0.1157721 0.9863205 0.1157721 0.0136795 -0.1157721
3608090 0.0131078 -0.1133410 0.9868922 0.1133410 0.9868922 0.1133410 0.0131078 -0.1133410
3687421 0.0125597 -0.1109581 0.9874403 0.1109581 0.9874403 0.1109581 0.0125597 -0.1109581
3768496 0.0120345 -0.1086225 0.9879655 0.1086225 0.9879655 0.1086225 0.0120345 -0.1086225
3851354 0.0115312 -0.1063334 0.9884688 0.1063334 0.9884688 0.1063334 0.0115312 -0.1063334
3936034 0.0110488 -0.1040901 0.9889512 0.1040901 0.9889512 0.1040901 0.0110488 -0.1040901
4022575 0.0105866 -0.1018917 0.9894134 0.1018917 0.9894134 0.1018917 0.0105866 -0.1018917
4111020 0.0101436 -0.0997375 0.9898564 0.0997375 0.9898564 0.0997375 0.0101436 -0.0997375
4201409 0.0097192 -0.0976268 0.9902808 0.0976268 0.9902808 0.0976268 0.0097192 -0.0976268
4293785 0.0093126 -0.0955587 0.9906874 0.0955587 0.9906874 0.0955587 0.0093126 -0.0955587
4388193 0.0089230 -0.0935325 0.9910770 0.0935325 0.9910770 0.0935325 0.0089230 -0.0935325
4484676 0.0085497 -0.0915475 0.9914503 0.0915475 0.9914503 0.0915475 0.0085497 -0.0915475
4583281 0.0081921 -0.0896028 0.9918079 0.0896028 0.9918079 0.0896028 0.0081921 -0.0896028
4684054 0.0078495 -0.0876979 0.9921505 0.0876979 0.9921505 0.0876979 0.0078495 -0.0876979
4787042 0.0075213 -0.0858319 0.9924787 0.0858319 0.9924787 0.0858319 0.0075213 -0.0858319
4892295 0.0072069 -0.0840041 0.9927931 0.0840041 0.9927931 0.0840041 0.0072069 -0.0840041
4999862 0.0069057 -0.0822138 0.9930943 0.0822138 0.9930943 0.0822138 0.0069057 -0.0822138
5109794 0.0066173 -0.0804603 0.9933827 0.0804603 0.9933827 0.0804603 0.0066173 -0.0804603
5222143 0.0063410 -0.0787429 0.9936590 0.0787429 0.9936590 0.0787429 0.0063410 -0.0787429
5336962 0.0060763 -0.0770609 0.9939237 0.0770609 0.9939237 0.0770609 0.0060763 -0.0770609
5454306 0.0058229 -0.0754137 0.9941771 0.0754137 0.9941771 0.0754137 0.0058229 -0.0754137
5574230 0.0055801 -0.0738005 0.9944199 0.0738005 0.9944199 0.0738005 0.0055801 -0.0738005
5696791 0.0053476 -0.0722208 0.9946524 0.0722208 0.9946524 0.0722208 0.0053476 -0.0722208
5822046 0.0051249 -0.0706737 0.9948751 0.0706737 0.9948751 0.0706737 0.0051249 -0.0706737
5950055 0.0049117 -0.0691588 0.9950883 0.0691588 0.9950883 0.0691588 0.0049117 -0.0691588
6080879 0.0047075 -0.0676754 0.9952925 0.0676754 0.9952925 0.0676754 0.0047075 -0.0676754
6214580 0.0045119 -0.0662228 0.9954881 0.0662228 0.9954881 0.0662228 0.0045119 -0.0662228
6351220 0.0043247 -0.0648005 0.9956753 0.0648005 0.9956753 0.0648005 0.0043247 -0.0648005
6490864 0.0041454 -0.0634078 0.9958546 0.0634078 0.9958546 0.0634078 0.0041454 -0.0634078
6633579 0.0039737 -0.0620442 0.9960263 0.0620442 0.9960263 0.0620442 0.0039737 -0.0620442
6779431 0.0038092 -0.0607090 0.9961908 0.0607090 0.9961908 0.0607090 0.0038092 -0.0607090
6928491 0.0036518 -0.0594017 0.9963482 0.0594017 0.9963482 0.0594017 0.0036518 -0.0594017
7080828 0.0035011 -0.0581218 0.9964989 0.0581218 0.9964989 0.0581218 0.0035011 -0.0581218
7236514 0.0033568 -0.0568686 0.9966432 0.0568686 0.9966432 0.0568686 0.0033568 -0.0568686
7395623 0.0032186 -0.0556416 0.9967814 0.0556416 0.9967814 0.0556416 0.0032186 -0.0556416
7558231 0.0030863 -0.0544403 0.9969137 0.0544403 0.9969137 0.0544403 0.0030863 -0.0544403
7724414 0.0029597 -0.0532642 0.9970403 0.0532642 0.9970403 0.0532642 0.0029597 -0.0532642
7894251 0.0028384 -0.0521127 0.9971616 0.0521127 0.9971616 0.0521127 0.0028384 -0.0521127
8067822 0.0027223 -0.0509854 0.9972777 0.0509854 0.9972777 0.0509854 0.0027223 -0.0509854
8245209 0.0026112 -0.0498817 0.9973888 0.0498817 0.9973888 0.0498817 0.0026112 -0.0498817
8426497 0.0025049 -0.0488012 0.9974951 0.0488012 0.9974951 0.0488012 0.0025049 -0.0488012
8611770 0.0024030 -0.0477433 0.9975970 0.0477433 0.9975970 0.0477433 0.0024030 -0.0477433
8801117 0.0023056 -0.0467076 0.9976944 0.0467076 0.9976944 0.0467076 0.0023056 -0.0467076
8994628 0.0022123 -0.0456936 0.9977877 0.0456936 0.9977877 0.0456936 0.0022123 -0.0456936
9192393 0.0021230 -0.0447009 0.9978770 0.0447009 0.9978770 0.0447009 0.0021230 -0.0447009
9394506 0.0020375 -0.0437290 0.9979625 0.0437290 0.9979625 0.0437290 0.0020375 -0.0437290
9601063 0.0019557 -0.0427775 0.9980443 0.0427775 0.9980443 0.0427775 0.0019557 -0.0427775
9812162 0.0018774 -0.0418460 0.9981226 0.0418460 0.9981226 0.0418460 0.0018774 -0.0418460
10027902 0.0018025 -0.0409340 0.9981975 0.0409340 0.9981975 0.0409340 0.0018025 -0.0409340
10248386 0.0017308 -0.0400412 0.9982692 0.0400412 0.9982692 0.0400412 0.0017308 -0.0400412
10473717 0.0016621 -0.0391670 0.9983379 0.0391670 0.9983379 0.0391670 0.0016621 -0.0391670
10704003 0.0015965 -0.0383112 0.9984035 0.0383112 0.9984035 0.0383112 0.0015965 -0.0383112
10939352 0.0015336 -0.0374733 0.9984664 0.0374733 0.9984664 0.0374733 0.0015336 -0.0374733
11179876 0.0014735 -0.0366530 0.9985265 0.0366530 0.9985265 0.0366530 0.0014735 -0.0366530
11425688 0.0014160 -0.0358498 0.9985840 0.0358498 0.9985840 0.0358498 0.0014160 -0.0358498
11676904 0.0013610 -0.0350634 0.9986390 0.0350634 0.9986390 0.0350634 0.0013610 -0.0350634
11933645 0.0013083 -0.0342935 0.9986917 0.0342935 0.9986917 0.0342935 0.0013083 -0.0342935
12196030 0.0012580 -0.0335396 0.9987420 0.0335396 0.9987420 0.0335396 0.0012580 -0.0335396
12464184 0.0012098 -0.0328015 0.9987902 0.0328015 0.9987902 0.0328015 0.0012098 -0.0328015
12738235 0.0011637 -0.0320788 0.9988363 0.0320788 0.9988363 0.0320788 0.0011637 -0.0320788
13018310 0.0011197 -0.0313712 0.9988803 0.0313712 0.9988803 0.0313712 0.0011197 -0.0313712
13304544 0.0010775 -0.0306783 0.9989225 0.0306783 0.9989225 0.0306783 0.0010775 -0.0306783
13597071 0.0010373 -0.0299999 0.9989627 0.0299999 0.9989627 0.0299999 0.0010373 -0.0299999
13896030 0.0009987 -0.0293355 0.9990013 0.0293355 0.9990013 0.0293355 0.0009987 -0.0293355
14201563 0.0009619 -0.0286850 0.9990381 0.0286850 0.9990381 0.0286850 0.0009619 -0.0286850
14513813 0.0009267 -0.0280479 0.9990733 0.0280479 0.9990733 0.0280479 0.0009267 -0.0280479
14832928 0.0008931 -0.0274241 0.9991069 0.0274241 0.9991069 0.0274241 0.0008931 -0.0274241
15159060 0.0008609 -0.0268132 0.9991391 0.0268132 0.9991391 0.0268132 0.0008609 -0.0268132
15492362 0.0008302 -0.0262149 0.9991698 0.0262149 0.9991698 0.0262149 0.0008302 -0.0262149
15832993 0.0008008 -0.0256289 0.9991992 0.0256289 0.9991992 0.0256289 0.0008008 -0.0256289
16181113 0.0007728 -0.0250551 0.9992272 0.0250551 0.9992272 0.0250551 0.0007728 -0.0250551
16536888 0.0007460 -0.0244931 0.9992540 0.0244931 0.9992540 0.0244931 0.0007460 -0.0244931
16900485 0.0007205 -0.0239426 0.9992795 0.0239426 0.9992795 0.0239426 0.0007205 -0.0239426
17272076 0.0006961 -0.0234034 0.9993039 0.0234034 0.9993039 0.0234034 0.0006961 -0.0234034
17651837 0.0006728 -0.0228753 0.9993272 0.0228753 0.9993272 0.0228753 0.0006728 -0.0228753
18039948 0.0006506 -0.0223580 0.9993494 0.0223580 0.9993494 0.0223580 0.0006506 -0.0223580
18436593 0.0006294 -0.0218512 0.9993706 0.0218512 0.9993706 0.0218512 0.0006294 -0.0218512
18841959 0.0006091 -0.0213548 0.9993909 0.0213548 0.9993909 0.0213548 0.0006091 -0.0213548
19256237 0.0005899 -0.0208685 0.9994101 0.0208685 0.9994101 0.0208685 0.0005899 -0.0208685
19679624 0.0005715 -0.0203920 0.9994285 0.0203920 0.9994285 0.0203920 0.0005715 -0.0203920
20112321 0.0005540 -0.0199252 0.9994460 0.0199252 0.9994460 0.0199252 0.0005540 -0.0199252
20554530 0.0005373 -0.0194678 0.9994627 0.0194678 0.9994627 0.0194678 0.0005373 -0.0194678
21006463 0.0005214 -0.0190196 0.9994786 0.0190196 0.9994786 0.0190196 0.0005214 -0.0190196
21468333 0.0005063 -0.0185805 0.9994937 0.0185805 0.9994937 0.0185805 0.0005063 -0.0185805
21940357 0.0004919 -0.0181501 0.9995081 0.0181501 0.9995081 0.0181501 0.0004919 -0.0181501
22422760 0.0004783 -0.0177284 0.9995217 0.0177284 0.9995217 0.0177284 0.0004783 -0.0177284
22915770 0.0004653 -0.0173150 0.9995347 0.0173150 0.9995347 0.0173150 0.0004653 -0.0173150
23419619 0.0004529 -0.0169099 0.9995471 0.0169099 0.9995471 0.0169099 0.0004529 -0.0169099
23934547 0.0004412 -0.0165128 0.9995588 0.0165128 0.9995588 0.0165128 0.0004412 -0.0165128
24460796 0.0004301 -0.0161235 0.9995699 0.0161235 0.9995699 0.0161235 0.0004301 -0.0161235
24998616 0.0004196 -0.0157419 0.9995804 0.0157419 0.9995804 0.0157419 0.0004196 -0.0157419
25548261 0.0004096 -0.0153677 0.9995904 0.0153677 0.9995904 0.0153677 0.0004096 -0.0153677
26109991 0.0004001 -0.0150009 0.9995999 0.0150009 0.9995999 0.0150009 0.0004001 -0.0150009
26684072 0.0003912 -0.0146412 0.9996088 0.0146412 0.9996088 0.0146412 0.0003912 -0.0146412
27270775 0.0003827 -0.0142884 0.9996173 0.0142884 0.9996173 0.0142884 0.0003827 -0.0142884
27870378 0.0003748 -0.0139425 0.9996252 0.0139425 0.9996252 0.0139425 0.0003748 -0.0139425
28483164 0.0003672 -0.0136032 0.9996328 0.0136032 0.9996328 0.0136032 0.0003672 -0.0136032
29109424 0.0003602 -0.0132703 0.9996398 0.0132703 0.9996398 0.0132703 0.0003602 -0.0132703
29749453 0.0003535 -0.0129438 0.9996465 0.0129438 0.9996465 0.0129438 0.0003535 -0.0129438
30403555 0.0003472 -0.0126235 0.9996528 0.0126235 0.9996528 0.0126235 0.0003472 -0.0126235
31072038 0.0003414 -0.0123091 0.9996586 0.0123091 0.9996586 0.0123091 0.0003414 -0.0123091
31755220 0.0003359 -0.0120007 0.9996641 0.0120007 0.9996641 0.0120007 0.0003359 -0.0120007
32453422 0.0003307 -0.0116980 0.9996693 0.0116980 0.9996693 0.0116980 0.0003307 -0.0116980
33166976 0.0003259 -0.0114008 0.9996741 0.0114008 0.9996741 0.0114008 0.0003259 -0.0114008
33896219 0.0003215 -0.0111091 0.9996785 0.0111091 0.9996785 0.0111091 0.0003215 -0.0111091
34641496 0.0003173 -0.0108227 0.9996827 0.0108227 0.9996827 0.0108227 0.0003173 -0.0108227
35403159 0.0003135 -0.0105415 0.9996865 0.0105415 0.9996865 0.0105415 0.0003135 -0.0105415
36181569 0.0003099 -0.0102653 0.9996901 0.0102653 0.9996901 0.0102653 0.0003099 -0.0102653
36977093 0.0003067 -0.0099940 0.9996933 0.0099940 0.9996933 0.0099940 0.0003067 -0.0099940
37790109 0.0003037 -0.0097275 0.9996963 0.0097275 0.9996963 0.0097275 0.0003037 -0.0097275
38621001 0.0003010 -0.0094657 0.9996990 0.0094657 0.9996990 0.0094657 0.0003010 -0.0094657
39470161 0.0002986 -0.0092084 0.9997014 0.0092084 0.9997014 0.0092084 0.0002986 -0.0092084
40337993 0.0002963 -0.0089555 0.9997037 0.0089555 0.9997037 0.0089555 0.0002963 -0.0089555
41224905 0.0002944 -0.0087069 0.9997056 0.0087069 0.9997056 0.0087069 0.0002944 -0.0087069
42131317 0.0002926 -0.0084625 0.9997074 0.0084625 0.9997074 0.0084625 0.0002926 -0.0084625
43057659 0.0002911 -0.0082221 0.9997089 0.0082221 0.9997089 0.0082221 0.0002911 -0.0082221
44004369 0.0002898 -0.0079857 0.9997102 0.0079857 0.9997102 0.0079857 0.0002898 -0.0079857
44971893 0.0002888 -0.0077531 0.9997112 0.0077531 0.9997112 0.0077531 0.0002888 -0.0077531
45960691 0.0002879 -0.0075242 0.9997121 0.0075242 0.9997121 0.0075242 0.0002879 -0.0075242
46971230 0.0002872 -0.0072989 0.9997128 0.0072989 0.9997128 0.0072989 0.0002872 -0.0072989
48003987 0.0002867 -0.0070771 0.9997133 0.0070771 0.9997133 0.0070771 0.0002867 -0.0070771
49059451 0.0002864 -0.0068587 0.9997136 0.0068587 0.9997136 0.0068587 0.0002864 -0.0068587
50138122 0.0002863 -0.0066436 0.9997137 0.0066436 0.9997137 0.0066436 0.0002863 -0.0066436
51240510 0.0002864 -0.0064317 0.9997136 0.0064317 0.9997136 0.0064317 0.0002864 -0.0064317
52367136 0.0002866 -0.0062229 0.9997134 0.0062229 0.9997134 0.0062229 0.0002866 -0.0062229
53518533 0.0002870 -0.0060170 0.9997130 0.0060170 0.9997130 0.0060170 0.0002870 -0.0060170
54695245 0.0002876 -0.0058141 0.9997124 0.0058141 0.9997124 0.0058141 0.0002876 -0.0058141
55897831 0.0002884 -0.0056139 0.9997116 0.0056139 0.9997116 0.0056139 0.0002884 -0.0056139
57126857 0.0002893 -0.0054164 0.9997107 0.0054164 0.9997107 0.0054164 0.0002893 -0.0054164
58382906 0.0002904 -0.0052215 0.9997096 0.0052215 0.9997096 0.0052215 0.0002904 -0.0052215
59666572 0.0002916 -0.0050291 0.9997084 0.0050291 0.9997084 0.0050291 0.0002916 -0.0050291
60978462 0.0002930 -0.0048391 0.9997070 0.0048391 0.9997070 0.0048391 0.0002930 -0.0048391
62319196 0.0002946 -0.0046514 0.9997054 0.0046514 0.9997054 0.0046514 0.0002946 -0.0046514
63689409 0.0002964 -0.0044659 0.9997036 0.0044659 0.9997036 0.0044659 0.0002964 -0.0044659
65089750 0.0002983 -0.0042825 0.9997017 0.0042825 0.9997017 0.0042825 0.0002983 -0.0042825
66520879 0.0003003 -0.0041012 0.9996997 0.0041012 0.9996997 0.0041012 0.0003003 -0.0041012
67983474 0.0003026 -0.0039218 0.9996974 0.0039218 0.9996974 0.0039218 0.0003026 -0.0039218
69478228 0.0003050 -0.0037443 0.9996950 0.0037443 0.9996950 0.0037443 0.0003050 -0.0037443
71005847 0.0003076 -0.0035685 0.9996924 0.0035685 0.9996924 0.0035685 0.0003076 -0.0035685
72567054 0.0003103 -0.0033944 0.9996897 0.0033944 0.9996897 0.0033944 0.0003103 -0.0033944
74162587 0.0003133 -0.0032219 0.9996867 0.0032219 0.9996867 0.0032219 0.0003133 -0.0032219
75793201 0.0003164 -0.0030508 0.9996836 0.0030508 0.9996836 0.0030508 0.0003164 -0.0030508
77459667 0.0003197 -0.0028812 0.9996803 0.0028812 0.9996803 0.0028812 0.0003197 -0.0028812
79162774 0.0003232 -0.0027129 0.9996768 0.0027129 0.9996768 0.0027129 0.0003232 -0.0027129
80903327 0.0003269 -0.0025459 0.9996731 0.0025459 0.9996731 0.0025459 0.0003269 -0.0025459
82682150 0.0003308 -0.0023800 0.9996692 0.0023800 0.9996692 0.0023800 0.0003308 -0.0023800
84500083 0.0003349 -0.0022151 0.9996651 0.0022151 0.9996651 0.0022151 0.0003349 -0.0022151
86357988 0.0003393 -0.0020512 0.9996607 0.0020512 0.9996607 0.0020512 0.0003393 -0.0020512
88256743 0.0003438 -0.0018882 0.9996562 0.0018882 0.9996562 0.0018882 0.0003438 -0.0018882
90197245 0.0003486 -0.0017260 0.9996514 0.0017260 0.9996514 0.0017260 0.0003486 -0.0017260
92180413 0.0003537 -0.0015645 0.9996463 0.0015645 0.9996463 0.0015645 0.0003537 -0.0015645
94207185 0.0003590 -0.0014036 0.9996410 0.0014036 0.9996410 0.0014036 0.0003590 -0.0014036
96278520 0.0003646 -0.0012432 0.9996354 0.0012432 0.9996354 0.0012432 0.0003646 -0.0012432
98395398 0.0003705 -0.0010832 0.9996295 0.0010832 0.9996295 0.0010832 0.0003705 -0.0010832
100558819 0.0003766 -0.0009236 0.9996234 0.0009236 0.9996234 0.0009236 0.0003766 -0.0009236
102769807 0.0003831 -0.0007642 0.9996169 0.0007642 0.9996169 0.0007642 0.0003831 -0.0007642
105029408 0.0003899 -0.0006049 0.9996101 0.0006049 0.9996101 0.0006049 0.0003899 -0.0006049
107338692 0.0003971 -0.0004456 0.9996029 0.0004456 0.9996029 0.0004456 0.0003971 -0.0004456
