!Murata Part Number: GRM1885C1H6R2BA01
!These Parameters are Measured in Series Mode Connection
!Data Generated on Mar 30, 2021
!       o--ll--o
!Port1            Port2
!       o------o
!Operation Temp=25[degC], DC Bias Voltage=0[V]
!Freq. Start=100[MHz] Stop=9[GHz] 401[Steps]
# Hz S RI R 50
!Freq.(Hz) S11(Real) S11(Imag) S21(Real) S21(Imag) S12(Real) S12(Imag) S22(Real) S22(Imag)
100000000 0.8678193 -0.3384567 0.1321807 0.3384567 0.1321807 0.3384567 0.8678193 -0.3384567
121000000 0.8174842 -0.3859817 0.1825158 0.3859817 0.1825158 0.3859817 0.8174842 -0.3859817
142000000 0.7645759 -0.4239147 0.2354241 0.4239147 0.2354241 0.4239147 0.7645759 -0.4239147
163000000 0.7110505 -0.4528589 0.2889495 0.4528589 0.2889495 0.4528589 0.7110505 -0.4528589
184000000 0.6584347 -0.4737471 0.3415653 0.4737471 0.3415653 0.4737471 0.6584347 -0.4737471
205000000 0.6078278 -0.4876697 0.3921722 0.4876697 0.3921722 0.4876697 0.6078278 -0.4876697
226000000 0.5599516 -0.4957443 0.4400484 0.4957443 0.4400484 0.4957443 0.5599516 -0.4957443
247000000 0.5152209 -0.4990305 0.4847791 0.4990305 0.4847791 0.4990305 0.5152209 -0.4990305
268000000 0.4738170 -0.4984810 0.5261830 0.4984810 0.5261830 0.4984810 0.4738170 -0.4984810
289000000 0.4357542 -0.4949214 0.5642458 0.4949214 0.5642458 0.4949214 0.4357542 -0.4949214
310000000 0.4009340 -0.4890473 0.5990660 0.4890473 0.5990660 0.4890473 0.4009340 -0.4890473
331000000 0.3691879 -0.4814326 0.6308121 0.4814326 0.6308121 0.4814326 0.3691879 -0.4814326
352000000 0.3403077 -0.4725430 0.6596923 0.4725430 0.6596923 0.4725430 0.3403077 -0.4725430
373000000 0.3140677 -0.4627518 0.6859323 0.4627518 0.6859323 0.4627518 0.3140677 -0.4627518
394000000 0.2902391 -0.4523540 0.7097609 0.4523540 0.7097609 0.4523540 0.2902391 -0.4523540
415000000 0.2685996 -0.4415810 0.7314004 0.4415810 0.7314004 0.4415810 0.2685996 -0.4415810
436000000 0.2489389 -0.4306125 0.7510611 0.4306125 0.7510611 0.4306125 0.2489389 -0.4306125
457000000 0.2310618 -0.4195863 0.7689382 0.4195863 0.7689382 0.4195863 0.2310618 -0.4195863
478000000 0.2147894 -0.4086071 0.7852106 0.4086071 0.7852106 0.4086071 0.2147894 -0.4086071
499000000 0.1999594 -0.3977534 0.8000406 0.3977534 0.8000406 0.3977534 0.1999594 -0.3977534
520000000 0.1864254 -0.3870829 0.8135746 0.3870829 0.8135746 0.3870829 0.1864254 -0.3870829
541000000 0.1740560 -0.3766371 0.8259440 0.3766371 0.8259440 0.3766371 0.1740560 -0.3766371
562000000 0.1627336 -0.3664451 0.8372664 0.3664451 0.8372664 0.3664451 0.1627336 -0.3664451
583000000 0.1523535 -0.3565260 0.8476465 0.3565260 0.8476465 0.3565260 0.1523535 -0.3565260
604000000 0.1428220 -0.3468913 0.8571780 0.3468913 0.8571780 0.3468913 0.1428220 -0.3468913
625000000 0.1340557 -0.3375469 0.8659443 0.3375469 0.8659443 0.3375469 0.1340557 -0.3375469
646000000 0.1259805 -0.3284940 0.8740195 0.3284940 0.8740195 0.3284940 0.1259805 -0.3284940
667000000 0.1185302 -0.3197307 0.8814698 0.3197307 0.8814698 0.3197307 0.1185302 -0.3197307
688000000 0.1116458 -0.3112527 0.8883542 0.3112527 0.8883542 0.3112527 0.1116458 -0.3112527
709000000 0.1052746 -0.3030536 0.8947254 0.3030536 0.8947254 0.3030536 0.1052746 -0.3030536
730000000 0.0993697 -0.2951260 0.9006303 0.2951260 0.9006303 0.2951260 0.0993697 -0.2951260
751000000 0.0938889 -0.2874615 0.9061111 0.2874615 0.9061111 0.2874615 0.0938889 -0.2874615
772000000 0.0887946 -0.2800512 0.9112054 0.2800512 0.9112054 0.2800512 0.0887946 -0.2800512
793000000 0.0840532 -0.2728857 0.9159468 0.2728857 0.9159468 0.2728857 0.0840532 -0.2728857
814000000 0.0796342 -0.2659557 0.9203658 0.2659557 0.9203658 0.2659557 0.0796342 -0.2659557
835000000 0.0755104 -0.2592518 0.9244896 0.2592518 0.9244896 0.2592518 0.0755104 -0.2592518
856000000 0.0716574 -0.2527646 0.9283426 0.2527646 0.9283426 0.2527646 0.0716574 -0.2527646
877000000 0.0680529 -0.2464851 0.9319471 0.2464851 0.9319471 0.2464851 0.0680529 -0.2464851
898000000 0.0646770 -0.2404044 0.9353230 0.2404044 0.9353230 0.2404044 0.0646770 -0.2404044
919000000 0.0615116 -0.2345137 0.9384884 0.2345137 0.9384884 0.2345137 0.0615116 -0.2345137
940000000 0.0585404 -0.2288050 0.9414596 0.2288050 0.9414596 0.2288050 0.0585404 -0.2288050
961000000 0.0557485 -0.2232700 0.9442515 0.2232700 0.9442515 0.2232700 0.0557485 -0.2232700
982000000 0.0531224 -0.2179013 0.9468776 0.2179013 0.9468776 0.2179013 0.0531224 -0.2179013
1003000000 0.0506499 -0.2126914 0.9493501 0.2126914 0.9493501 0.2126914 0.0506499 -0.2126914
1024000000 0.0483198 -0.2076334 0.9516802 0.2076334 0.9516802 0.2076334 0.0483198 -0.2076334
1045000000 0.0461218 -0.2027205 0.9538782 0.2027205 0.9538782 0.2027205 0.0461218 -0.2027205
1066000000 0.0440467 -0.1979464 0.9559533 0.1979464 0.9559533 0.1979464 0.0440467 -0.1979464
1087000000 0.0420860 -0.1933050 0.9579140 0.1933050 0.9579140 0.1933050 0.0420860 -0.1933050
1108000000 0.0402318 -0.1887906 0.9597682 0.1887906 0.9597682 0.1887906 0.0402318 -0.1887906
1129000000 0.0384770 -0.1843977 0.9615230 0.1843977 0.9615230 0.1843977 0.0384770 -0.1843977
1150000000 0.0368150 -0.1801210 0.9631850 0.1801210 0.9631850 0.1801210 0.0368150 -0.1801210
1171000000 0.0352398 -0.1759556 0.9647602 0.1759556 0.9647602 0.1759556 0.0352398 -0.1759556
1192000000 0.0337458 -0.1718967 0.9662542 0.1718967 0.9662542 0.1718967 0.0337458 -0.1718967
1213000000 0.0323279 -0.1679399 0.9676721 0.1679399 0.9676721 0.1679399 0.0323279 -0.1679399
1234000000 0.0309814 -0.1640810 0.9690186 0.1640810 0.9690186 0.1640810 0.0309814 -0.1640810
1255000000 0.0297019 -0.1603159 0.9702981 0.1603159 0.9702981 0.1603159 0.0297019 -0.1603159
1276000000 0.0284853 -0.1566406 0.9715147 0.1566406 0.9715147 0.1566406 0.0284853 -0.1566406
1297000000 0.0273279 -0.1530517 0.9726721 0.1530517 0.9726721 0.1530517 0.0273279 -0.1530517
1318000000 0.0262263 -0.1495455 0.9737737 0.1495455 0.9737737 0.1495455 0.0262263 -0.1495455
1339000000 0.0251772 -0.1461189 0.9748228 0.1461189 0.9748228 0.1461189 0.0251772 -0.1461189
1360000000 0.0241777 -0.1427686 0.9758223 0.1427686 0.9758223 0.1427686 0.0241777 -0.1427686
1381000000 0.0232249 -0.1394916 0.9767751 0.1394916 0.9767751 0.1394916 0.0232249 -0.1394916
1402000000 0.0223164 -0.1362852 0.9776836 0.1362852 0.9776836 0.1362852 0.0223164 -0.1362852
1423000000 0.0214496 -0.1331465 0.9785504 0.1331465 0.9785504 0.1331465 0.0214496 -0.1331465
1444000000 0.0206224 -0.1300731 0.9793776 0.1300731 0.9793776 0.1300731 0.0206224 -0.1300731
1465000000 0.0198326 -0.1270623 0.9801674 0.1270623 0.9801674 0.1270623 0.0198326 -0.1270623
1486000000 0.0190784 -0.1241120 0.9809216 0.1241120 0.9809216 0.1241120 0.0190784 -0.1241120
1507000000 0.0183578 -0.1212198 0.9816422 0.1212198 0.9816422 0.1212198 0.0183578 -0.1212198
1528000000 0.0176693 -0.1183836 0.9823307 0.1183836 0.9823307 0.1183836 0.0176693 -0.1183836
1549000000 0.0170111 -0.1156014 0.9829889 0.1156014 0.9829889 0.1156014 0.0170111 -0.1156014
1570000000 0.0163818 -0.1128713 0.9836182 0.1128713 0.9836182 0.1128713 0.0163818 -0.1128713
1591000000 0.0157800 -0.1101913 0.9842200 0.1101913 0.9842200 0.1101913 0.0157800 -0.1101913
1612000000 0.0152044 -0.1075597 0.9847956 0.1075597 0.9847956 0.1075597 0.0152044 -0.1075597
1633000000 0.0146537 -0.1049748 0.9853463 0.1049748 0.9853463 0.1049748 0.0146537 -0.1049748
1654000000 0.0141268 -0.1024349 0.9858732 0.1024349 0.9858732 0.1024349 0.0141268 -0.1024349
1675000000 0.0136225 -0.0999386 0.9863775 0.0999386 0.9863775 0.0999386 0.0136225 -0.0999386
1696000000 0.0131400 -0.0974843 0.9868600 0.0974843 0.9868600 0.0974843 0.0131400 -0.0974843
1717000000 0.0126781 -0.0950707 0.9873219 0.0950707 0.9873219 0.0950707 0.0126781 -0.0950707
1738000000 0.0122360 -0.0926962 0.9877640 0.0926962 0.9877640 0.0926962 0.0122360 -0.0926962
1759000000 0.0118129 -0.0903598 0.9881871 0.0903598 0.9881871 0.0903598 0.0118129 -0.0903598
1780000000 0.0114078 -0.0880600 0.9885922 0.0880600 0.9885922 0.0880600 0.0114078 -0.0880600
1801000000 0.0110202 -0.0857957 0.9889798 0.0857957 0.9889798 0.0857957 0.0110202 -0.0857957
1822000000 0.0106491 -0.0835658 0.9893509 0.0835658 0.9893509 0.0835658 0.0106491 -0.0835658
1843000000 0.0102940 -0.0813691 0.9897060 0.0813691 0.9897060 0.0813691 0.0102940 -0.0813691
1864000000 0.0099542 -0.0792046 0.9900458 0.0792046 0.9900458 0.0792046 0.0099542 -0.0792046
1885000000 0.0096291 -0.0770712 0.9903709 0.0770712 0.9903709 0.0770712 0.0096291 -0.0770712
1906000000 0.0093181 -0.0749681 0.9906819 0.0749681 0.9906819 0.0749681 0.0093181 -0.0749681
1927000000 0.0090206 -0.0728942 0.9909794 0.0728942 0.9909794 0.0728942 0.0090206 -0.0728942
1948000000 0.0087362 -0.0708486 0.9912638 0.0708486 0.9912638 0.0708486 0.0087362 -0.0708486
1969000000 0.0084644 -0.0688306 0.9915356 0.0688306 0.9915356 0.0688306 0.0084644 -0.0688306
1990000000 0.0082047 -0.0668391 0.9917953 0.0668391 0.9917953 0.0668391 0.0082047 -0.0668391
2011000000 0.0079566 -0.0648736 0.9920434 0.0648736 0.9920434 0.0648736 0.0079566 -0.0648736
2032000000 0.0077198 -0.0629331 0.9922802 0.0629331 0.9922802 0.0629331 0.0077198 -0.0629331
2053000000 0.0074937 -0.0610169 0.9925063 0.0610169 0.9925063 0.0610169 0.0074937 -0.0610169
2074000000 0.0072782 -0.0591243 0.9927218 0.0591243 0.9927218 0.0591243 0.0072782 -0.0591243
2095000000 0.0070727 -0.0572547 0.9929273 0.0572547 0.9929273 0.0572547 0.0070727 -0.0572547
2116000000 0.0068770 -0.0554073 0.9931230 0.0554073 0.9931230 0.0554073 0.0068770 -0.0554073
2137000000 0.0066907 -0.0535815 0.9933093 0.0535815 0.9933093 0.0535815 0.0066907 -0.0535815
2158000000 0.0065135 -0.0517767 0.9934865 0.0517767 0.9934865 0.0517767 0.0065135 -0.0517767
2179000000 0.0063451 -0.0499923 0.9936549 0.0499923 0.9936549 0.0499923 0.0063451 -0.0499923
2200000000 0.0061853 -0.0482277 0.9938147 0.0482277 0.9938147 0.0482277 0.0061853 -0.0482277
2221000000 0.0060337 -0.0464824 0.9939663 0.0464824 0.9939663 0.0464824 0.0060337 -0.0464824
2242000000 0.0058902 -0.0447558 0.9941098 0.0447558 0.9941098 0.0447558 0.0058902 -0.0447558
2263000000 0.0057544 -0.0430475 0.9942456 0.0430475 0.9942456 0.0430475 0.0057544 -0.0430475
2284000000 0.0056262 -0.0413568 0.9943738 0.0413568 0.9943738 0.0413568 0.0056262 -0.0413568
2305000000 0.0055053 -0.0396833 0.9944947 0.0396833 0.9944947 0.0396833 0.0055053 -0.0396833
2326000000 0.0053915 -0.0380266 0.9946085 0.0380266 0.9946085 0.0380266 0.0053915 -0.0380266
2347000000 0.0052845 -0.0363861 0.9947155 0.0363861 0.9947155 0.0363861 0.0052845 -0.0363861
2368000000 0.0051843 -0.0347616 0.9948157 0.0347616 0.9948157 0.0347616 0.0051843 -0.0347616
2389000000 0.0050907 -0.0331524 0.9949093 0.0331524 0.9949093 0.0331524 0.0050907 -0.0331524
2410000000 0.0050033 -0.0315583 0.9949967 0.0315583 0.9949967 0.0315583 0.0050033 -0.0315583
2431000000 0.0049222 -0.0299788 0.9950778 0.0299788 0.9950778 0.0299788 0.0049222 -0.0299788
2452000000 0.0048471 -0.0284135 0.9951529 0.0284135 0.9951529 0.0284135 0.0048471 -0.0284135
2473000000 0.0047778 -0.0268621 0.9952222 0.0268621 0.9952222 0.0268621 0.0047778 -0.0268621
2494000000 0.0047143 -0.0253241 0.9952857 0.0253241 0.9952857 0.0253241 0.0047143 -0.0253241
2515000000 0.0046563 -0.0237993 0.9953437 0.0237993 0.9953437 0.0237993 0.0046563 -0.0237993
2536000000 0.0046038 -0.0222873 0.9953962 0.0222873 0.9953962 0.0222873 0.0046038 -0.0222873
2557000000 0.0045567 -0.0207878 0.9954433 0.0207878 0.9954433 0.0207878 0.0045567 -0.0207878
2578000000 0.0045147 -0.0193005 0.9954853 0.0193005 0.9954853 0.0193005 0.0045147 -0.0193005
2599000000 0.0044778 -0.0178249 0.9955222 0.0178249 0.9955222 0.0178249 0.0044778 -0.0178249
2620000000 0.0044458 -0.0163609 0.9955542 0.0163609 0.9955542 0.0163609 0.0044458 -0.0163609
2641000000 0.0044187 -0.0149082 0.9955813 0.0149082 0.9955813 0.0149082 0.0044187 -0.0149082
2662000000 0.0043964 -0.0134664 0.9956036 0.0134664 0.9956036 0.0134664 0.0043964 -0.0134664
2683000000 0.0043787 -0.0120353 0.9956213 0.0120353 0.9956213 0.0120353 0.0043787 -0.0120353
2704000000 0.0043656 -0.0106146 0.9956344 0.0106146 0.9956344 0.0106146 0.0043656 -0.0106146
2725000000 0.0043570 -0.0092040 0.9956430 0.0092040 0.9956430 0.0092040 0.0043570 -0.0092040
2746000000 0.0043527 -0.0078033 0.9956473 0.0078033 0.9956473 0.0078033 0.0043527 -0.0078033
2767000000 0.0043528 -0.0064123 0.9956472 0.0064123 0.9956472 0.0064123 0.0043528 -0.0064123
2788000000 0.0043571 -0.0050306 0.9956429 0.0050306 0.9956429 0.0050306 0.0043571 -0.0050306
2809000000 0.0043655 -0.0036582 0.9956345 0.0036582 0.9956345 0.0036582 0.0043655 -0.0036582
2830000000 0.0043780 -0.0022946 0.9956220 0.0022946 0.9956220 0.0022946 0.0043780 -0.0022946
2851000000 0.0043945 -0.0009398 0.9956055 0.0009398 0.9956055 0.0009398 0.0043945 -0.0009398
2872000000 0.0044150 0.0004065 0.9955850 -0.0004065 0.9955850 -0.0004065 0.0044150 0.0004065
2893000000 0.0044393 0.0017445 0.9955607 -0.0017445 0.9955607 -0.0017445 0.0044393 0.0017445
2914000000 0.0044675 0.0030745 0.9955325 -0.0030745 0.9955325 -0.0030745 0.0044675 0.0030745
2935000000 0.0044994 0.0043966 0.9955006 -0.0043966 0.9955006 -0.0043966 0.0044994 0.0043966
2956000000 0.0045350 0.0057110 0.9954650 -0.0057110 0.9954650 -0.0057110 0.0045350 0.0057110
2977000000 0.0045743 0.0070179 0.9954257 -0.0070179 0.9954257 -0.0070179 0.0045743 0.0070179
2998000000 0.0046171 0.0083175 0.9953829 -0.0083175 0.9953829 -0.0083175 0.0046171 0.0083175
3019000000 0.0046636 0.0096100 0.9953364 -0.0096100 0.9953364 -0.0096100 0.0046636 0.0096100
3040000000 0.0047135 0.0108956 0.9952865 -0.0108956 0.9952865 -0.0108956 0.0047135 0.0108956
3061000000 0.0047669 0.0121744 0.9952331 -0.0121744 0.9952331 -0.0121744 0.0047669 0.0121744
3082000000 0.0048237 0.0134466 0.9951763 -0.0134466 0.9951763 -0.0134466 0.0048237 0.0134466
3103000000 0.0048840 0.0147123 0.9951160 -0.0147123 0.9951160 -0.0147123 0.0048840 0.0147123
3124000000 0.0049475 0.0159718 0.9950525 -0.0159718 0.9950525 -0.0159718 0.0049475 0.0159718
3145000000 0.0050144 0.0172252 0.9949856 -0.0172252 0.9949856 -0.0172252 0.0050144 0.0172252
3166000000 0.0050846 0.0184726 0.9949154 -0.0184726 0.9949154 -0.0184726 0.0050846 0.0184726
3187000000 0.0051580 0.0197143 0.9948420 -0.0197143 0.9948420 -0.0197143 0.0051580 0.0197143
3208000000 0.0052347 0.0209503 0.9947653 -0.0209503 0.9947653 -0.0209503 0.0052347 0.0209503
3229000000 0.0053145 0.0221807 0.9946855 -0.0221807 0.9946855 -0.0221807 0.0053145 0.0221807
3250000000 0.0053975 0.0234058 0.9946025 -0.0234058 0.9946025 -0.0234058 0.0053975 0.0234058
3271000000 0.0054836 0.0246257 0.9945164 -0.0246257 0.9945164 -0.0246257 0.0054836 0.0246257
3292000000 0.0055729 0.0258405 0.9944271 -0.0258405 0.9944271 -0.0258405 0.0055729 0.0258405
3313000000 0.0056652 0.0270504 0.9943348 -0.0270504 0.9943348 -0.0270504 0.0056652 0.0270504
3334000000 0.0057606 0.0282554 0.9942394 -0.0282554 0.9942394 -0.0282554 0.0057606 0.0282554
3355000000 0.0058591 0.0294558 0.9941409 -0.0294558 0.9941409 -0.0294558 0.0058591 0.0294558
3376000000 0.0059606 0.0306515 0.9940394 -0.0306515 0.9940394 -0.0306515 0.0059606 0.0306515
3397000000 0.0060652 0.0318429 0.9939348 -0.0318429 0.9939348 -0.0318429 0.0060652 0.0318429
3418000000 0.0061727 0.0330299 0.9938273 -0.0330299 0.9938273 -0.0330299 0.0061727 0.0330299
3439000000 0.0062833 0.0342128 0.9937167 -0.0342128 0.9937167 -0.0342128 0.0062833 0.0342128
3460000000 0.0063968 0.0353915 0.9936032 -0.0353915 0.9936032 -0.0353915 0.0063968 0.0353915
3481000000 0.0065133 0.0365663 0.9934867 -0.0365663 0.9934867 -0.0365663 0.0065133 0.0365663
3502000000 0.0066328 0.0377373 0.9933672 -0.0377373 0.9933672 -0.0377373 0.0066328 0.0377373
3523000000 0.0067552 0.0389045 0.9932448 -0.0389045 0.9932448 -0.0389045 0.0067552 0.0389045
3544000000 0.0068806 0.0400681 0.9931194 -0.0400681 0.9931194 -0.0400681 0.0068806 0.0400681
3565000000 0.0070089 0.0412282 0.9929911 -0.0412282 0.9929911 -0.0412282 0.0070089 0.0412282
3586000000 0.0071402 0.0423848 0.9928598 -0.0423848 0.9928598 -0.0423848 0.0071402 0.0423848
3607000000 0.0072744 0.0435382 0.9927256 -0.0435382 0.9927256 -0.0435382 0.0072744 0.0435382
3628000000 0.0074115 0.0446884 0.9925885 -0.0446884 0.9925885 -0.0446884 0.0074115 0.0446884
3649000000 0.0075516 0.0458355 0.9924484 -0.0458355 0.9924484 -0.0458355 0.0075516 0.0458355
3670000000 0.0076946 0.0469796 0.9923054 -0.0469796 0.9923054 -0.0469796 0.0076946 0.0469796
3691000000 0.0078405 0.0481208 0.9921595 -0.0481208 0.9921595 -0.0481208 0.0078405 0.0481208
3712000000 0.0079894 0.0492592 0.9920106 -0.0492592 0.9920106 -0.0492592 0.0079894 0.0492592
3733000000 0.0081412 0.0503949 0.9918588 -0.0503949 0.9918588 -0.0503949 0.0081412 0.0503949
3754000000 0.0082960 0.0515280 0.9917040 -0.0515280 0.9917040 -0.0515280 0.0082960 0.0515280
3775000000 0.0084537 0.0526587 0.9915463 -0.0526587 0.9915463 -0.0526587 0.0084537 0.0526587
3796000000 0.0086144 0.0537869 0.9913856 -0.0537869 0.9913856 -0.0537869 0.0086144 0.0537869
3817000000 0.0087780 0.0549128 0.9912220 -0.0549128 0.9912220 -0.0549128 0.0087780 0.0549128
3838000000 0.0089446 0.0560365 0.9910554 -0.0560365 0.9910554 -0.0560365 0.0089446 0.0560365
3859000000 0.0091142 0.0571580 0.9908858 -0.0571580 0.9908858 -0.0571580 0.0091142 0.0571580
3880000000 0.0092869 0.0582775 0.9907131 -0.0582775 0.9907131 -0.0582775 0.0092869 0.0582775
3901000000 0.0094625 0.0593951 0.9905375 -0.0593951 0.9905375 -0.0593951 0.0094625 0.0593951
3922000000 0.0096412 0.0605108 0.9903588 -0.0605108 0.9903588 -0.0605108 0.0096412 0.0605108
3943000000 0.0098229 0.0616248 0.9901771 -0.0616248 0.9901771 -0.0616248 0.0098229 0.0616248
3964000000 0.0100076 0.0627370 0.9899924 -0.0627370 0.9899924 -0.0627370 0.0100076 0.0627370
3985000000 0.0101955 0.0638477 0.9898045 -0.0638477 0.9898045 -0.0638477 0.0101955 0.0638477
4006000000 0.0103865 0.0649569 0.9896135 -0.0649569 0.9896135 -0.0649569 0.0103865 0.0649569
4027000000 0.0105805 0.0660646 0.9894195 -0.0660646 0.9894195 -0.0660646 0.0105805 0.0660646
4048000000 0.0107777 0.0671711 0.9892223 -0.0671711 0.9892223 -0.0671711 0.0107777 0.0671711
4069000000 0.0109781 0.0682762 0.9890219 -0.0682762 0.9890219 -0.0682762 0.0109781 0.0682762
4090000000 0.0111817 0.0693803 0.9888183 -0.0693803 0.9888183 -0.0693803 0.0111817 0.0693803
4111000000 0.0113885 0.0704832 0.9886115 -0.0704832 0.9886115 -0.0704832 0.0113885 0.0704832
4132000000 0.0115985 0.0715852 0.9884015 -0.0715852 0.9884015 -0.0715852 0.0115985 0.0715852
4153000000 0.0118118 0.0726862 0.9881882 -0.0726862 0.9881882 -0.0726862 0.0118118 0.0726862
4174000000 0.0120285 0.0737864 0.9879715 -0.0737864 0.9879715 -0.0737864 0.0120285 0.0737864
4195000000 0.0122484 0.0748859 0.9877516 -0.0748859 0.9877516 -0.0748859 0.0122484 0.0748859
4216000000 0.0124717 0.0759848 0.9875283 -0.0759848 0.9875283 -0.0759848 0.0124717 0.0759848
4237000000 0.0126985 0.0770831 0.9873015 -0.0770831 0.9873015 -0.0770831 0.0126985 0.0770831
4258000000 0.0129286 0.0781809 0.9870714 -0.0781809 0.9870714 -0.0781809 0.0129286 0.0781809
4279000000 0.0131623 0.0792783 0.9868377 -0.0792783 0.9868377 -0.0792783 0.0131623 0.0792783
4300000000 0.0133994 0.0803754 0.9866006 -0.0803754 0.9866006 -0.0803754 0.0133994 0.0803754
4321000000 0.0136402 0.0814723 0.9863598 -0.0814723 0.9863598 -0.0814723 0.0136402 0.0814723
4342000000 0.0138845 0.0825691 0.9861155 -0.0825691 0.9861155 -0.0825691 0.0138845 0.0825691
4363000000 0.0141325 0.0836658 0.9858675 -0.0836658 0.9858675 -0.0836658 0.0141325 0.0836658
4384000000 0.0143842 0.0847625 0.9856158 -0.0847625 0.9856158 -0.0847625 0.0143842 0.0847625
4405000000 0.0146396 0.0858594 0.9853604 -0.0858594 0.9853604 -0.0858594 0.0146396 0.0858594
4426000000 0.0148989 0.0869565 0.9851011 -0.0869565 0.9851011 -0.0869565 0.0148989 0.0869565
4447000000 0.0151619 0.0880539 0.9848381 -0.0880539 0.9848381 -0.0880539 0.0151619 0.0880539
4468000000 0.0154290 0.0891516 0.9845710 -0.0891516 0.9845710 -0.0891516 0.0154290 0.0891516
4489000000 0.0156999 0.0902499 0.9843001 -0.0902499 0.9843001 -0.0902499 0.0156999 0.0902499
4510000000 0.0159749 0.0913487 0.9840251 -0.0913487 0.9840251 -0.0913487 0.0159749 0.0913487
