!Murata Part Number: GRM1885C2A4R5CA01
!These Parameters are Measured in Series Mode Connection
!Data Generated on Mar 30, 2021
!       o--ll--o
!Port1            Port2
!       o------o
!Operation Temp=25[degC], DC Bias Voltage=0[V]
!Freq. Start=100[MHz] Stop=9[GHz] 401[Steps]
# Hz S RI R 50
!Freq.(Hz) S11(Real) S11(Imag) S21(Real) S21(Imag) S12(Real) S12(Imag) S22(Real) S22(Imag)
100000000 0.9257217 -0.2619938 0.0742783 0.2619938 0.0742783 0.2619938 0.9257217 -0.2619938
121000000 0.8947770 -0.3065442 0.1052230 0.3065442 0.1052230 0.3065442 0.8947770 -0.3065442
142000000 0.8604753 -0.3461214 0.1395247 0.3461214 0.1395247 0.3461214 0.8604753 -0.3461214
163000000 0.8237670 -0.3805627 0.1762330 0.3805627 0.1762330 0.3805627 0.8237670 -0.3805627
184000000 0.7855425 -0.4098981 0.2144575 0.4098981 0.2144575 0.4098981 0.7855425 -0.4098981
205000000 0.7465978 -0.4343128 0.2534022 0.4343128 0.2534022 0.4343128 0.7465978 -0.4343128
226000000 0.7076131 -0.4541068 0.2923869 0.4541068 0.2923869 0.4541068 0.7076131 -0.4541068
247000000 0.6691463 -0.4696565 0.3308537 0.4696565 0.3308537 0.4696565 0.6691463 -0.4696565
268000000 0.6316353 -0.4813801 0.3683647 0.4813801 0.3683647 0.4813801 0.6316353 -0.4813801
289000000 0.5954078 -0.4897107 0.4045922 0.4897107 0.4045922 0.4897107 0.5954078 -0.4897107
310000000 0.5606949 -0.4950751 0.4393051 0.4950751 0.4393051 0.4950751 0.5606949 -0.4950751
331000000 0.5276459 -0.4978796 0.4723541 0.4978796 0.4723541 0.4978796 0.5276459 -0.4978796
352000000 0.4963440 -0.4985001 0.5036560 0.4985001 0.5036560 0.4985001 0.4963440 -0.4985001
373000000 0.4668198 -0.4972782 0.5331802 0.4972782 0.5331802 0.4972782 0.4668198 -0.4972782
394000000 0.4390639 -0.4945181 0.5609361 0.4945181 0.5609361 0.4945181 0.4390639 -0.4945181
415000000 0.4130373 -0.4904879 0.5869627 0.4904879 0.5869627 0.4904879 0.4130373 -0.4904879
436000000 0.3886802 -0.4854208 0.6113198 0.4854208 0.6113198 0.4854208 0.3886802 -0.4854208
457000000 0.3659187 -0.4795179 0.6340813 0.4795179 0.6340813 0.4795179 0.3659187 -0.4795179
478000000 0.3446703 -0.4729513 0.6553297 0.4729513 0.6553297 0.4729513 0.3446703 -0.4729513
499000000 0.3248477 -0.4658673 0.6751523 0.4658673 0.6751523 0.4658673 0.3248477 -0.4658673
520000000 0.3063625 -0.4583893 0.6936375 0.4583893 0.6936375 0.4583893 0.3063625 -0.4583893
541000000 0.2891270 -0.4506211 0.7108730 0.4506211 0.7108730 0.4506211 0.2891270 -0.4506211
562000000 0.2730556 -0.4426495 0.7269444 0.4426495 0.7269444 0.4426495 0.2730556 -0.4426495
583000000 0.2580664 -0.4345466 0.7419336 0.4345466 0.7419336 0.4345466 0.2580664 -0.4345466
604000000 0.2440814 -0.4263718 0.7559186 0.4263718 0.7559186 0.4263718 0.2440814 -0.4263718
625000000 0.2310273 -0.4181744 0.7689727 0.4181744 0.7689727 0.4181744 0.2310273 -0.4181744
646000000 0.2188351 -0.4099943 0.7811649 0.4099943 0.7811649 0.4099943 0.2188351 -0.4099943
667000000 0.2074408 -0.4018641 0.7925592 0.4018641 0.7925592 0.4018641 0.2074408 -0.4018641
688000000 0.1967847 -0.3938101 0.8032153 0.3938101 0.8032153 0.3938101 0.1967847 -0.3938101
709000000 0.1868117 -0.3858530 0.8131883 0.3858530 0.8131883 0.3858530 0.1868117 -0.3858530
730000000 0.1774709 -0.3780094 0.8225291 0.3780094 0.8225291 0.3780094 0.1774709 -0.3780094
751000000 0.1687152 -0.3702918 0.8312848 0.3702918 0.8312848 0.3702918 0.1687152 -0.3702918
772000000 0.1605012 -0.3627100 0.8394988 0.3627100 0.8394988 0.3627100 0.1605012 -0.3627100
793000000 0.1527892 -0.3552709 0.8472108 0.3552709 0.8472108 0.3552709 0.1527892 -0.3552709
814000000 0.1455423 -0.3479796 0.8544577 0.3479796 0.8544577 0.3479796 0.1455423 -0.3479796
835000000 0.1387270 -0.3408391 0.8612730 0.3408391 0.8612730 0.3408391 0.1387270 -0.3408391
856000000 0.1323121 -0.3338513 0.8676879 0.3338513 0.8676879 0.3338513 0.1323121 -0.3338513
877000000 0.1262693 -0.3270166 0.8737307 0.3270166 0.8737307 0.3270166 0.1262693 -0.3270166
898000000 0.1205721 -0.3203347 0.8794279 0.3203347 0.8794279 0.3203347 0.1205721 -0.3203347
919000000 0.1151967 -0.3138044 0.8848033 0.3138044 0.8848033 0.3138044 0.1151967 -0.3138044
940000000 0.1101206 -0.3074239 0.8898794 0.3074239 0.8898794 0.3074239 0.1101206 -0.3074239
961000000 0.1053235 -0.3011909 0.8946765 0.3011909 0.8946765 0.3011909 0.1053235 -0.3011909
982000000 0.1007866 -0.2951028 0.8992134 0.2951028 0.8992134 0.2951028 0.1007866 -0.2951028
1003000000 0.0964925 -0.2891564 0.9035075 0.2891564 0.9035075 0.2891564 0.0964925 -0.2891564
1024000000 0.0924253 -0.2833488 0.9075747 0.2833488 0.9075747 0.2833488 0.0924253 -0.2833488
1045000000 0.0885700 -0.2776764 0.9114300 0.2776764 0.9114300 0.2776764 0.0885700 -0.2776764
1066000000 0.0849132 -0.2721358 0.9150868 0.2721358 0.9150868 0.2721358 0.0849132 -0.2721358
1087000000 0.0814421 -0.2667235 0.9185579 0.2667235 0.9185579 0.2667235 0.0814421 -0.2667235
1108000000 0.0781452 -0.2614359 0.9218548 0.2614359 0.9218548 0.2614359 0.0781452 -0.2614359
1129000000 0.0750115 -0.2562694 0.9249885 0.2562694 0.9249885 0.2562694 0.0750115 -0.2562694
1150000000 0.0720312 -0.2512205 0.9279688 0.2512205 0.9279688 0.2512205 0.0720312 -0.2512205
1171000000 0.0691949 -0.2462856 0.9308051 0.2462856 0.9308051 0.2462856 0.0691949 -0.2462856
1192000000 0.0664941 -0.2414612 0.9335059 0.2414612 0.9335059 0.2414612 0.0664941 -0.2414612
1213000000 0.0639207 -0.2367439 0.9360793 0.2367439 0.9360793 0.2367439 0.0639207 -0.2367439
1234000000 0.0614673 -0.2321304 0.9385327 0.2321304 0.9385327 0.2321304 0.0614673 -0.2321304
1255000000 0.0591270 -0.2276174 0.9408730 0.2276174 0.9408730 0.2276174 0.0591270 -0.2276174
1276000000 0.0568934 -0.2232016 0.9431066 0.2232016 0.9431066 0.2232016 0.0568934 -0.2232016
1297000000 0.0547605 -0.2188801 0.9452395 0.2188801 0.9452395 0.2188801 0.0547605 -0.2188801
1318000000 0.0527227 -0.2146498 0.9472773 0.2146498 0.9472773 0.2146498 0.0527227 -0.2146498
1339000000 0.0507748 -0.2105077 0.9492252 0.2105077 0.9492252 0.2105077 0.0507748 -0.2105077
1360000000 0.0489120 -0.2064510 0.9510880 0.2064510 0.9510880 0.2064510 0.0489120 -0.2064510
1381000000 0.0471296 -0.2024770 0.9528704 0.2024770 0.9528704 0.2024770 0.0471296 -0.2024770
1402000000 0.0454235 -0.1985831 0.9545765 0.1985831 0.9545765 0.1985831 0.0454235 -0.1985831
1423000000 0.0437897 -0.1947665 0.9562103 0.1947665 0.9562103 0.1947665 0.0437897 -0.1947665
1444000000 0.0422244 -0.1910250 0.9577756 0.1910250 0.9577756 0.1910250 0.0422244 -0.1910250
1465000000 0.0407241 -0.1873560 0.9592759 0.1873560 0.9592759 0.1873560 0.0407241 -0.1873560
1486000000 0.0392857 -0.1837572 0.9607143 0.1837572 0.9607143 0.1837572 0.0392857 -0.1837572
1507000000 0.0379060 -0.1802265 0.9620940 0.1802265 0.9620940 0.1802265 0.0379060 -0.1802265
1528000000 0.0365821 -0.1767617 0.9634179 0.1767617 0.9634179 0.1767617 0.0365821 -0.1767617
1549000000 0.0353113 -0.1733607 0.9646887 0.1733607 0.9646887 0.1733607 0.0353113 -0.1733607
1570000000 0.0340912 -0.1700215 0.9659088 0.1700215 0.9659088 0.1700215 0.0340912 -0.1700215
1591000000 0.0329192 -0.1667421 0.9670808 0.1667421 0.9670808 0.1667421 0.0329192 -0.1667421
1612000000 0.0317932 -0.1635208 0.9682068 0.1635208 0.9682068 0.1635208 0.0317932 -0.1635208
1633000000 0.0307110 -0.1603557 0.9692890 0.1603557 0.9692890 0.1603557 0.0307110 -0.1603557
1654000000 0.0296706 -0.1572451 0.9703294 0.1572451 0.9703294 0.1572451 0.0296706 -0.1572451
1675000000 0.0286701 -0.1541873 0.9713299 0.1541873 0.9713299 0.1541873 0.0286701 -0.1541873
1696000000 0.0277078 -0.1511807 0.9722922 0.1511807 0.9722922 0.1511807 0.0277078 -0.1511807
1717000000 0.0267819 -0.1482239 0.9732181 0.1482239 0.9732181 0.1482239 0.0267819 -0.1482239
1738000000 0.0258909 -0.1453151 0.9741091 0.1453151 0.9741091 0.1453151 0.0258909 -0.1453151
1759000000 0.0250332 -0.1424532 0.9749668 0.1424532 0.9749668 0.1424532 0.0250332 -0.1424532
1780000000 0.0242075 -0.1396366 0.9757925 0.1396366 0.9757925 0.1396366 0.0242075 -0.1396366
1801000000 0.0234124 -0.1368640 0.9765876 0.1368640 0.9765876 0.1368640 0.0234124 -0.1368640
1822000000 0.0226466 -0.1341341 0.9773534 0.1341341 0.9773534 0.1341341 0.0226466 -0.1341341
1843000000 0.0219090 -0.1314457 0.9780910 0.1314457 0.9780910 0.1314457 0.0219090 -0.1314457
1864000000 0.0211983 -0.1287976 0.9788017 0.1287976 0.9788017 0.1287976 0.0211983 -0.1287976
1885000000 0.0205135 -0.1261886 0.9794865 0.1261886 0.9794865 0.1261886 0.0205135 -0.1261886
1906000000 0.0198536 -0.1236176 0.9801464 0.1236176 0.9801464 0.1236176 0.0198536 -0.1236176
1927000000 0.0192175 -0.1210835 0.9807825 0.1210835 0.9807825 0.1210835 0.0192175 -0.1210835
1948000000 0.0186044 -0.1185854 0.9813956 0.1185854 0.9813956 0.1185854 0.0186044 -0.1185854
1969000000 0.0180134 -0.1161221 0.9819866 0.1161221 0.9819866 0.1161221 0.0180134 -0.1161221
1990000000 0.0174437 -0.1136927 0.9825563 0.1136927 0.9825563 0.1136927 0.0174437 -0.1136927
2011000000 0.0168943 -0.1112962 0.9831057 0.1112962 0.9831057 0.1112962 0.0168943 -0.1112962
2032000000 0.0163647 -0.1089318 0.9836353 0.1089318 0.9836353 0.1089318 0.0163647 -0.1089318
2053000000 0.0158540 -0.1065986 0.9841460 0.1065986 0.9841460 0.1065986 0.0158540 -0.1065986
2074000000 0.0153616 -0.1042957 0.9846384 0.1042957 0.9846384 0.1042957 0.0153616 -0.1042957
2095000000 0.0148868 -0.1020224 0.9851132 0.1020224 0.9851132 0.1020224 0.0148868 -0.1020224
2116000000 0.0144290 -0.0997777 0.9855710 0.0997777 0.9855710 0.0997777 0.0144290 -0.0997777
2137000000 0.0139876 -0.0975610 0.9860124 0.0975610 0.9860124 0.0975610 0.0139876 -0.0975610
2158000000 0.0135620 -0.0953716 0.9864380 0.0953716 0.9864380 0.0953716 0.0135620 -0.0953716
2179000000 0.0131517 -0.0932086 0.9868483 0.0932086 0.9868483 0.0932086 0.0131517 -0.0932086
2200000000 0.0127562 -0.0910714 0.9872438 0.0910714 0.9872438 0.0910714 0.0127562 -0.0910714
2221000000 0.0123750 -0.0889593 0.9876250 0.0889593 0.9876250 0.0889593 0.0123750 -0.0889593
2242000000 0.0120076 -0.0868718 0.9879924 0.0868718 0.9879924 0.0868718 0.0120076 -0.0868718
2263000000 0.0116535 -0.0848080 0.9883465 0.0848080 0.9883465 0.0848080 0.0116535 -0.0848080
2284000000 0.0113124 -0.0827676 0.9886876 0.0827676 0.9886876 0.0827676 0.0113124 -0.0827676
2305000000 0.0109838 -0.0807497 0.9890162 0.0807497 0.9890162 0.0807497 0.0109838 -0.0807497
2326000000 0.0106673 -0.0787539 0.9893327 0.0787539 0.9893327 0.0787539 0.0106673 -0.0787539
2347000000 0.0103626 -0.0767797 0.9896374 0.0767797 0.9896374 0.0767797 0.0103626 -0.0767797
2368000000 0.0100692 -0.0748264 0.9899308 0.0748264 0.9899308 0.0748264 0.0100692 -0.0748264
2389000000 0.0097869 -0.0728936 0.9902131 0.0728936 0.9902131 0.0728936 0.0097869 -0.0728936
2410000000 0.0095153 -0.0709808 0.9904847 0.0709808 0.9904847 0.0709808 0.0095153 -0.0709808
2431000000 0.0092541 -0.0690874 0.9907459 0.0690874 0.9907459 0.0690874 0.0092541 -0.0690874
2452000000 0.0090030 -0.0672129 0.9909970 0.0672129 0.9909970 0.0672129 0.0090030 -0.0672129
2473000000 0.0087617 -0.0653570 0.9912383 0.0653570 0.9912383 0.0653570 0.0087617 -0.0653570
2494000000 0.0085299 -0.0635192 0.9914701 0.0635192 0.9914701 0.0635192 0.0085299 -0.0635192
2515000000 0.0083073 -0.0616990 0.9916927 0.0616990 0.9916927 0.0616990 0.0083073 -0.0616990
2536000000 0.0080938 -0.0598960 0.9919062 0.0598960 0.9919062 0.0598960 0.0080938 -0.0598960
2557000000 0.0078890 -0.0581098 0.9921110 0.0581098 0.9921110 0.0581098 0.0078890 -0.0581098
2578000000 0.0076927 -0.0563400 0.9923073 0.0563400 0.9923073 0.0563400 0.0076927 -0.0563400
2599000000 0.0075047 -0.0545863 0.9924953 0.0545863 0.9924953 0.0545863 0.0075047 -0.0545863
2620000000 0.0073248 -0.0528481 0.9926752 0.0528481 0.9926752 0.0528481 0.0073248 -0.0528481
2641000000 0.0071528 -0.0511252 0.9928472 0.0511252 0.9928472 0.0511252 0.0071528 -0.0511252
2662000000 0.0069884 -0.0494172 0.9930116 0.0494172 0.9930116 0.0494172 0.0069884 -0.0494172
2683000000 0.0068314 -0.0477238 0.9931686 0.0477238 0.9931686 0.0477238 0.0068314 -0.0477238
2704000000 0.0066818 -0.0460446 0.9933182 0.0460446 0.9933182 0.0460446 0.0066818 -0.0460446
2725000000 0.0065393 -0.0443793 0.9934607 0.0443793 0.9934607 0.0443793 0.0065393 -0.0443793
2746000000 0.0064037 -0.0427276 0.9935963 0.0427276 0.9935963 0.0427276 0.0064037 -0.0427276
2767000000 0.0062748 -0.0410891 0.9937252 0.0410891 0.9937252 0.0410891 0.0062748 -0.0410891
2788000000 0.0061526 -0.0394635 0.9938474 0.0394635 0.9938474 0.0394635 0.0061526 -0.0394635
2809000000 0.0060368 -0.0378507 0.9939632 0.0378507 0.9939632 0.0378507 0.0060368 -0.0378507
2830000000 0.0059274 -0.0362502 0.9940726 0.0362502 0.9940726 0.0362502 0.0059274 -0.0362502
2851000000 0.0058241 -0.0346617 0.9941759 0.0346617 0.9941759 0.0346617 0.0058241 -0.0346617
2872000000 0.0057269 -0.0330851 0.9942731 0.0330851 0.9942731 0.0330851 0.0057269 -0.0330851
2893000000 0.0056356 -0.0315201 0.9943644 0.0315201 0.9943644 0.0315201 0.0056356 -0.0315201
2914000000 0.0055500 -0.0299663 0.9944500 0.0299663 0.9944500 0.0299663 0.0055500 -0.0299663
2935000000 0.0054701 -0.0284236 0.9945299 0.0284236 0.9945299 0.0284236 0.0054701 -0.0284236
2956000000 0.0053958 -0.0268916 0.9946042 0.0268916 0.9946042 0.0268916 0.0053958 -0.0268916
2977000000 0.0053269 -0.0253702 0.9946731 0.0253702 0.9946731 0.0253702 0.0053269 -0.0253702
2998000000 0.0052633 -0.0238591 0.9947367 0.0238591 0.9947367 0.0238591 0.0052633 -0.0238591
3019000000 0.0052049 -0.0223580 0.9947951 0.0223580 0.9947951 0.0223580 0.0052049 -0.0223580
3040000000 0.0051517 -0.0208668 0.9948483 0.0208668 0.9948483 0.0208668 0.0051517 -0.0208668
3061000000 0.0051035 -0.0193853 0.9948965 0.0193853 0.9948965 0.0193853 0.0051035 -0.0193853
3082000000 0.0050602 -0.0179131 0.9949398 0.0179131 0.9949398 0.0179131 0.0050602 -0.0179131
3103000000 0.0050218 -0.0164502 0.9949782 0.0164502 0.9949782 0.0164502 0.0050218 -0.0164502
3124000000 0.0049882 -0.0149962 0.9950118 0.0149962 0.9950118 0.0149962 0.0049882 -0.0149962
3145000000 0.0049592 -0.0135511 0.9950408 0.0135511 0.9950408 0.0135511 0.0049592 -0.0135511
3166000000 0.0049348 -0.0121145 0.9950652 0.0121145 0.9950652 0.0121145 0.0049348 -0.0121145
3187000000 0.0049150 -0.0106864 0.9950850 0.0106864 0.9950850 0.0106864 0.0049150 -0.0106864
3208000000 0.0048996 -0.0092664 0.9951004 0.0092664 0.9951004 0.0092664 0.0048996 -0.0092664
3229000000 0.0048886 -0.0078545 0.9951114 0.0078545 0.9951114 0.0078545 0.0048886 -0.0078545
3250000000 0.0048820 -0.0064505 0.9951180 0.0064505 0.9951180 0.0064505 0.0048820 -0.0064505
3271000000 0.0048796 -0.0050541 0.9951204 0.0050541 0.9951204 0.0050541 0.0048796 -0.0050541
3292000000 0.0048814 -0.0036652 0.9951186 0.0036652 0.9951186 0.0036652 0.0048814 -0.0036652
3313000000 0.0048873 -0.0022837 0.9951127 0.0022837 0.9951127 0.0022837 0.0048873 -0.0022837
3334000000 0.0048973 -0.0009093 0.9951027 0.0009093 0.9951027 0.0009093 0.0048973 -0.0009093
3355000000 0.0049113 0.0004580 0.9950887 -0.0004580 0.9950887 -0.0004580 0.0049113 0.0004580
3376000000 0.0049293 0.0018185 0.9950707 -0.0018185 0.9950707 -0.0018185 0.0049293 0.0018185
3397000000 0.0049512 0.0031724 0.9950488 -0.0031724 0.9950488 -0.0031724 0.0049512 0.0031724
3418000000 0.0049770 0.0045197 0.9950230 -0.0045197 0.9950230 -0.0045197 0.0049770 0.0045197
3439000000 0.0050067 0.0058606 0.9949933 -0.0058606 0.9949933 -0.0058606 0.0050067 0.0058606
3460000000 0.0050401 0.0071953 0.9949599 -0.0071953 0.9949599 -0.0071953 0.0050401 0.0071953
3481000000 0.0050773 0.0085239 0.9949227 -0.0085239 0.9949227 -0.0085239 0.0050773 0.0085239
3502000000 0.0051181 0.0098465 0.9948819 -0.0098465 0.9948819 -0.0098465 0.0051181 0.0098465
3523000000 0.0051627 0.0111634 0.9948373 -0.0111634 0.9948373 -0.0111634 0.0051627 0.0111634
3544000000 0.0052108 0.0124746 0.9947892 -0.0124746 0.9947892 -0.0124746 0.0052108 0.0124746
3565000000 0.0052626 0.0137802 0.9947374 -0.0137802 0.9947374 -0.0137802 0.0052626 0.0137802
3586000000 0.0053180 0.0150805 0.9946820 -0.0150805 0.9946820 -0.0150805 0.0053180 0.0150805
3607000000 0.0053769 0.0163755 0.9946231 -0.0163755 0.9946231 -0.0163755 0.0053769 0.0163755
3628000000 0.0054392 0.0176653 0.9945608 -0.0176653 0.9945608 -0.0176653 0.0054392 0.0176653
3649000000 0.0055051 0.0189502 0.9944949 -0.0189502 0.9944949 -0.0189502 0.0055051 0.0189502
3670000000 0.0055745 0.0202302 0.9944255 -0.0202302 0.9944255 -0.0202302 0.0055745 0.0202302
3691000000 0.0056472 0.0215054 0.9943528 -0.0215054 0.9943528 -0.0215054 0.0056472 0.0215054
3712000000 0.0057234 0.0227760 0.9942766 -0.0227760 0.9942766 -0.0227760 0.0057234 0.0227760
3733000000 0.0058030 0.0240421 0.9941970 -0.0240421 0.9941970 -0.0240421 0.0058030 0.0240421
3754000000 0.0058859 0.0253038 0.9941141 -0.0253038 0.9941141 -0.0253038 0.0058859 0.0253038
3775000000 0.0059722 0.0265612 0.9940278 -0.0265612 0.9940278 -0.0265612 0.0059722 0.0265612
3796000000 0.0060619 0.0278145 0.9939381 -0.0278145 0.9939381 -0.0278145 0.0060619 0.0278145
3817000000 0.0061548 0.0290637 0.9938452 -0.0290637 0.9938452 -0.0290637 0.0061548 0.0290637
3838000000 0.0062511 0.0303090 0.9937489 -0.0303090 0.9937489 -0.0303090 0.0062511 0.0303090
3859000000 0.0063507 0.0315505 0.9936493 -0.0315505 0.9936493 -0.0315505 0.0063507 0.0315505
3880000000 0.0064536 0.0327883 0.9935464 -0.0327883 0.9935464 -0.0327883 0.0064536 0.0327883
3901000000 0.0065597 0.0340224 0.9934403 -0.0340224 0.9934403 -0.0340224 0.0065597 0.0340224
3922000000 0.0066692 0.0352531 0.9933308 -0.0352531 0.9933308 -0.0352531 0.0066692 0.0352531
3943000000 0.0067819 0.0364804 0.9932181 -0.0364804 0.9932181 -0.0364804 0.0067819 0.0364804
3964000000 0.0068978 0.0377045 0.9931022 -0.0377045 0.9931022 -0.0377045 0.0068978 0.0377045
3985000000 0.0070171 0.0389253 0.9929829 -0.0389253 0.9929829 -0.0389253 0.0070171 0.0389253
4006000000 0.0071396 0.0401431 0.9928604 -0.0401431 0.9928604 -0.0401431 0.0071396 0.0401431
4027000000 0.0072654 0.0413580 0.9927346 -0.0413580 0.9927346 -0.0413580 0.0072654 0.0413580
4048000000 0.0073944 0.0425700 0.9926056 -0.0425700 0.9926056 -0.0425700 0.0073944 0.0425700
4069000000 0.0075267 0.0437792 0.9924733 -0.0437792 0.9924733 -0.0437792 0.0075267 0.0437792
4090000000 0.0076623 0.0449858 0.9923377 -0.0449858 0.9923377 -0.0449858 0.0076623 0.0449858
4111000000 0.0078012 0.0461899 0.9921988 -0.0461899 0.9921988 -0.0461899 0.0078012 0.0461899
4132000000 0.0079433 0.0473915 0.9920567 -0.0473915 0.9920567 -0.0473915 0.0079433 0.0473915
4153000000 0.0080888 0.0485907 0.9919112 -0.0485907 0.9919112 -0.0485907 0.0080888 0.0485907
4174000000 0.0082375 0.0497877 0.9917625 -0.0497877 0.9917625 -0.0497877 0.0082375 0.0497877
4195000000 0.0083896 0.0509826 0.9916104 -0.0509826 0.9916104 -0.0509826 0.0083896 0.0509826
4216000000 0.0085450 0.0521754 0.9914550 -0.0521754 0.9914550 -0.0521754 0.0085450 0.0521754
4237000000 0.0087038 0.0533662 0.9912962 -0.0533662 0.9912962 -0.0533662 0.0087038 0.0533662
4258000000 0.0088659 0.0545553 0.9911341 -0.0545553 0.9911341 -0.0545553 0.0088659 0.0545553
4279000000 0.0090315 0.0557425 0.9909685 -0.0557425 0.9909685 -0.0557425 0.0090315 0.0557425
4300000000 0.0092004 0.0569281 0.9907996 -0.0569281 0.9907996 -0.0569281 0.0092004 0.0569281
4321000000 0.0093728 0.0581122 0.9906272 -0.0581122 0.9906272 -0.0581122 0.0093728 0.0581122
4342000000 0.0095486 0.0592948 0.9904514 -0.0592948 0.9904514 -0.0592948 0.0095486 0.0592948
4363000000 0.0097279 0.0604760 0.9902721 -0.0604760 0.9902721 -0.0604760 0.0097279 0.0604760
4384000000 0.0099107 0.0616560 0.9900893 -0.0616560 0.9900893 -0.0616560 0.0099107 0.0616560
4405000000 0.0100971 0.0628348 0.9899029 -0.0628348 0.9899029 -0.0628348 0.0100971 0.0628348
4426000000 0.0102870 0.0640126 0.9897130 -0.0640126 0.9897130 -0.0640126 0.0102870 0.0640126
4447000000 0.0104805 0.0651893 0.9895195 -0.0651893 0.9895195 -0.0651893 0.0104805 0.0651893
4468000000 0.0106777 0.0663653 0.9893223 -0.0663653 0.9893223 -0.0663653 0.0106777 0.0663653
4489000000 0.0108785 0.0675405 0.9891215 -0.0675405 0.9891215 -0.0675405 0.0108785 0.0675405
4510000000 0.0110831 0.0687150 0.9889169 -0.0687150 0.9889169 -0.0687150 0.0110831 0.0687150
