!Murata Part Number: GRM1882C1H122JA01
!These Parameters are Measured in Series Mode Connection
!Data Generated on Mar 30, 2021
!       o--ll--o
!Port1            Port2
!       o------o
!Operation Temp=25[degC], DC Bias Voltage=0[V]
!Freq. Start=1000[kHz] Stop=6[GHz] 401[Steps]
# Hz S RI R 50
!Freq.(Hz) S11(Real) S11(Imag) S21(Real) S21(Imag) S12(Real) S12(Imag) S22(Real) S22(Imag)
1000000 0.6361086 -0.4810677 0.3638914 0.4810677 0.3638914 0.4810677 0.6361086 -0.4810677
1021987 0.6259816 -0.4838170 0.3740184 0.4838170 0.3740184 0.4838170 0.6259816 -0.4838170
1044457 0.6157430 -0.4863665 0.3842570 0.4863665 0.3842570 0.4863665 0.6157430 -0.4863665
1067422 0.6054008 -0.4887106 0.3945992 0.4887106 0.3945992 0.4887106 0.6054008 -0.4887106
1090891 0.5949633 -0.4908441 0.4050367 0.4908441 0.4050367 0.4908441 0.5949633 -0.4908441
1114877 0.5844393 -0.4927621 0.4155607 0.4927621 0.4155607 0.4927621 0.5844393 -0.4927621
1139390 0.5738377 -0.4944603 0.4261623 0.4944603 0.4261623 0.4944603 0.5738377 -0.4944603
1164441 0.5631678 -0.4959347 0.4368322 0.4959347 0.4368322 0.4959347 0.5631678 -0.4959347
1190044 0.5524390 -0.4971821 0.4475610 0.4971821 0.4475610 0.4971821 0.5524390 -0.4971821
1216210 0.5416613 -0.4981994 0.4583387 0.4981994 0.4583387 0.4981994 0.5416613 -0.4981994
1242950 0.5308444 -0.4989844 0.4691556 0.4989844 0.4691556 0.4989844 0.5308444 -0.4989844
1270279 0.5199985 -0.4995351 0.4800015 0.4995351 0.4800015 0.4995351 0.5199985 -0.4995351
1298209 0.5091337 -0.4998502 0.4908663 0.4998502 0.4908663 0.4998502 0.5091337 -0.4998502
1326753 0.4982602 -0.4999290 0.5017398 0.4999290 0.5017398 0.4999290 0.4982602 -0.4999290
1355924 0.4873884 -0.4997713 0.5126116 0.4997713 0.5126116 0.4997713 0.4873884 -0.4997713
1385737 0.4765286 -0.4993775 0.5234714 0.4993775 0.5234714 0.4993775 0.4765286 -0.4993775
1416205 0.4656909 -0.4987485 0.5343091 0.4987485 0.5343091 0.4987485 0.4656909 -0.4987485
1447343 0.4548855 -0.4978858 0.5451145 0.4978858 0.5451145 0.4978858 0.4548855 -0.4978858
1479166 0.4441224 -0.4967913 0.5558776 0.4967913 0.5558776 0.4967913 0.4441224 -0.4967913
1511688 0.4334115 -0.4954677 0.5665885 0.4954677 0.5665885 0.4954677 0.4334115 -0.4954677
1544926 0.4227625 -0.4939180 0.5772375 0.4939180 0.5772375 0.4939180 0.4227625 -0.4939180
1578894 0.4121848 -0.4921458 0.5878152 0.4921458 0.5878152 0.4921458 0.4121848 -0.4921458
1613609 0.4016876 -0.4901551 0.5983124 0.4901551 0.5983124 0.4901551 0.4016876 -0.4901551
1649087 0.3912798 -0.4879504 0.6087202 0.4879504 0.6087202 0.4879504 0.3912798 -0.4879504
1685346 0.3809700 -0.4855367 0.6190300 0.4855367 0.6190300 0.4855367 0.3809700 -0.4855367
1722402 0.3707664 -0.4829193 0.6292336 0.4829193 0.6292336 0.4829193 0.3707664 -0.4829193
1760272 0.3606769 -0.4801039 0.6393231 0.4801039 0.6393231 0.4801039 0.3606769 -0.4801039
1798975 0.3507089 -0.4770966 0.6492911 0.4770966 0.6492911 0.4770966 0.3507089 -0.4770966
1838529 0.3408696 -0.4739039 0.6591304 0.4739039 0.6591304 0.4739039 0.3408696 -0.4739039
1878953 0.3311656 -0.4705323 0.6688344 0.4705323 0.6688344 0.4705323 0.3311656 -0.4705323
1920266 0.3216030 -0.4669888 0.6783970 0.4669888 0.6783970 0.4669888 0.3216030 -0.4669888
1962487 0.3121877 -0.4632807 0.6878123 0.4632807 0.6878123 0.4632807 0.3121877 -0.4632807
2005636 0.3029251 -0.4594151 0.6970749 0.4594151 0.6970749 0.4594151 0.3029251 -0.4594151
2049734 0.2938198 -0.4553997 0.7061802 0.4553997 0.7061802 0.4553997 0.2938198 -0.4553997
2094801 0.2848765 -0.4512420 0.7151235 0.4512420 0.7151235 0.4512420 0.2848765 -0.4512420
2140860 0.2760990 -0.4469499 0.7239010 0.4469499 0.7239010 0.4469499 0.2760990 -0.4469499
2187931 0.2674908 -0.4425310 0.7325092 0.4425310 0.7325092 0.4425310 0.2674908 -0.4425310
2236037 0.2590551 -0.4379933 0.7409449 0.4379933 0.7409449 0.4379933 0.2590551 -0.4379933
2285201 0.2507943 -0.4333445 0.7492057 0.4333445 0.7492057 0.4333445 0.2507943 -0.4333445
2335446 0.2427107 -0.4285925 0.7572893 0.4285925 0.7572893 0.4285925 0.2427107 -0.4285925
2386795 0.2348061 -0.4237451 0.7651939 0.4237451 0.7651939 0.4237451 0.2348061 -0.4237451
2439274 0.2270818 -0.4188099 0.7729182 0.4188099 0.7729182 0.4188099 0.2270818 -0.4188099
2492906 0.2195388 -0.4137946 0.7804612 0.4137946 0.7804612 0.4137946 0.2195388 -0.4137946
2547717 0.2121776 -0.4087067 0.7878224 0.4087067 0.7878224 0.4087067 0.2121776 -0.4087067
2603734 0.2049985 -0.4035535 0.7950015 0.4035535 0.7950015 0.4035535 0.2049985 -0.4035535
2660982 0.1980013 -0.3983422 0.8019987 0.3983422 0.8019987 0.3983422 0.1980013 -0.3983422
2719490 0.1911856 -0.3930799 0.8088144 0.3930799 0.8088144 0.3930799 0.1911856 -0.3930799
2779283 0.1845507 -0.3877735 0.8154493 0.3877735 0.8154493 0.3877735 0.1845507 -0.3877735
2840391 0.1780953 -0.3824295 0.8219047 0.3824295 0.8219047 0.3824295 0.1780953 -0.3824295
2902843 0.1718183 -0.3770546 0.8281817 0.3770546 0.8281817 0.3770546 0.1718183 -0.3770546
2966668 0.1657181 -0.3716550 0.8342819 0.3716550 0.8342819 0.3716550 0.1657181 -0.3716550
3031896 0.1597927 -0.3662366 0.8402073 0.3662366 0.8402073 0.3662366 0.1597927 -0.3662366
3098558 0.1540402 -0.3608054 0.8459598 0.3608054 0.8459598 0.3608054 0.1540402 -0.3608054
3166686 0.1484583 -0.3553669 0.8515417 0.3553669 0.8515417 0.3553669 0.1484583 -0.3553669
3236312 0.1430446 -0.3499264 0.8569554 0.3499264 0.8569554 0.3499264 0.1430446 -0.3499264
3307469 0.1377965 -0.3444891 0.8622035 0.3444891 0.8622035 0.3444891 0.1377965 -0.3444891
3380190 0.1327112 -0.3390598 0.8672888 0.3390598 0.8672888 0.3390598 0.1327112 -0.3390598
3454511 0.1277859 -0.3336432 0.8722141 0.3336432 0.8722141 0.3336432 0.1277859 -0.3336432
3530465 0.1230177 -0.3282436 0.8769823 0.3282436 0.8769823 0.3282436 0.1230177 -0.3282436
3608090 0.1184033 -0.3228653 0.8815967 0.3228653 0.8815967 0.3228653 0.1184033 -0.3228653
3687421 0.1139397 -0.3175121 0.8860603 0.3175121 0.8860603 0.3175121 0.1139397 -0.3175121
3768496 0.1096236 -0.3121879 0.8903764 0.3121879 0.8903764 0.3121879 0.1096236 -0.3121879
3851354 0.1054516 -0.3068959 0.8945484 0.3068959 0.8945484 0.3068959 0.1054516 -0.3068959
3936034 0.1014205 -0.3016396 0.8985795 0.3016396 0.8985795 0.3016396 0.1014205 -0.3016396
4022575 0.0975269 -0.2964220 0.9024731 0.2964220 0.9024731 0.2964220 0.0975269 -0.2964220
4111020 0.0937673 -0.2912458 0.9062327 0.2912458 0.9062327 0.2912458 0.0937673 -0.2912458
4201409 0.0901383 -0.2861137 0.9098617 0.2861137 0.9098617 0.2861137 0.0901383 -0.2861137
4293785 0.0866365 -0.2810282 0.9133635 0.2810282 0.9133635 0.2810282 0.0866365 -0.2810282
4388193 0.0832584 -0.2759915 0.9167416 0.2759915 0.9167416 0.2759915 0.0832584 -0.2759915
4484676 0.0800008 -0.2710056 0.9199992 0.2710056 0.9199992 0.2710056 0.0800008 -0.2710056
4583281 0.0768600 -0.2660725 0.9231400 0.2660725 0.9231400 0.2660725 0.0768600 -0.2660725
4684054 0.0738329 -0.2611938 0.9261671 0.2611938 0.9261671 0.2611938 0.0738329 -0.2611938
4787042 0.0709160 -0.2563710 0.9290840 0.2563710 0.9290840 0.2563710 0.0709160 -0.2563710
4892295 0.0681060 -0.2516057 0.9318940 0.2516057 0.9318940 0.2516057 0.0681060 -0.2516057
4999862 0.0653998 -0.2468990 0.9346002 0.2468990 0.9346002 0.2468990 0.0653998 -0.2468990
5109794 0.0627940 -0.2422519 0.9372060 0.2422519 0.9372060 0.2422519 0.0627940 -0.2422519
5222143 0.0602855 -0.2376656 0.9397145 0.2376656 0.9397145 0.2376656 0.0602855 -0.2376656
5336962 0.0578713 -0.2331408 0.9421287 0.2331408 0.9421287 0.2331408 0.0578713 -0.2331408
5454306 0.0555482 -0.2286782 0.9444518 0.2286782 0.9444518 0.2286782 0.0555482 -0.2286782
5574230 0.0533133 -0.2242784 0.9466867 0.2242784 0.9466867 0.2242784 0.0533133 -0.2242784
5696791 0.0511636 -0.2199419 0.9488364 0.2199419 0.9488364 0.2199419 0.0511636 -0.2199419
5822046 0.0490963 -0.2156690 0.9509037 0.2156690 0.9509037 0.2156690 0.0490963 -0.2156690
5950055 0.0471086 -0.2114602 0.9528914 0.2114602 0.9528914 0.2114602 0.0471086 -0.2114602
6080879 0.0451978 -0.2073155 0.9548022 0.2073155 0.9548022 0.2073155 0.0451978 -0.2073155
6214580 0.0433611 -0.2032350 0.9566389 0.2032350 0.9566389 0.2032350 0.0433611 -0.2032350
6351220 0.0415960 -0.1992188 0.9584040 0.1992188 0.9584040 0.1992188 0.0415960 -0.1992188
6490864 0.0399000 -0.1952669 0.9601000 0.1952669 0.9601000 0.1952669 0.0399000 -0.1952669
6633579 0.0382706 -0.1913791 0.9617294 0.1913791 0.9617294 0.1913791 0.0382706 -0.1913791
6779431 0.0367054 -0.1875552 0.9632946 0.1875552 0.9632946 0.1875552 0.0367054 -0.1875552
6928491 0.0352021 -0.1837949 0.9647979 0.1837949 0.9647979 0.1837949 0.0352021 -0.1837949
7080828 0.0337584 -0.1800981 0.9662416 0.1800981 0.9662416 0.1800981 0.0337584 -0.1800981
7236514 0.0323722 -0.1764642 0.9676278 0.1764642 0.9676278 0.1764642 0.0323722 -0.1764642
7395623 0.0310413 -0.1728930 0.9689587 0.1728930 0.9689587 0.1728930 0.0310413 -0.1728930
7558231 0.0297636 -0.1693839 0.9702364 0.1693839 0.9702364 0.1693839 0.0297636 -0.1693839
7724414 0.0285372 -0.1659365 0.9714628 0.1659365 0.9714628 0.1659365 0.0285372 -0.1659365
7894251 0.0273601 -0.1625502 0.9726399 0.1625502 0.9726399 0.1625502 0.0273601 -0.1625502
8067822 0.0262305 -0.1592245 0.9737695 0.1592245 0.9737695 0.1592245 0.0262305 -0.1592245
8245209 0.0251465 -0.1559588 0.9748535 0.1559588 0.9748535 0.1559588 0.0251465 -0.1559588
8426497 0.0241064 -0.1527524 0.9758936 0.1527524 0.9758936 0.1527524 0.0241064 -0.1527524
8611770 0.0231086 -0.1496047 0.9768914 0.1496047 0.9768914 0.1496047 0.0231086 -0.1496047
8801117 0.0221514 -0.1465151 0.9778486 0.1465151 0.9778486 0.1465151 0.0221514 -0.1465151
8994628 0.0212332 -0.1434828 0.9787668 0.1434828 0.9787668 0.1434828 0.0212332 -0.1434828
9192393 0.0203525 -0.1405072 0.9796475 0.1405072 0.9796475 0.1405072 0.0203525 -0.1405072
9394506 0.0195078 -0.1375875 0.9804922 0.1375875 0.9804922 0.1375875 0.0195078 -0.1375875
9601063 0.0186978 -0.1347229 0.9813022 0.1347229 0.9813022 0.1347229 0.0186978 -0.1347229
9812162 0.0179210 -0.1319128 0.9820790 0.1319128 0.9820790 0.1319128 0.0179210 -0.1319128
10027902 0.0171761 -0.1291563 0.9828239 0.1291563 0.9828239 0.1291563 0.0171761 -0.1291563
10248386 0.0164620 -0.1264528 0.9835380 0.1264528 0.9835380 0.1264528 0.0164620 -0.1264528
10473717 0.0157773 -0.1238013 0.9842227 0.1238013 0.9842227 0.1238013 0.0157773 -0.1238013
10704003 0.0151209 -0.1212012 0.9848791 0.1212012 0.9848791 0.1212012 0.0151209 -0.1212012
10939352 0.0144916 -0.1186516 0.9855084 0.1186516 0.9855084 0.1186516 0.0144916 -0.1186516
11179876 0.0138884 -0.1161518 0.9861116 0.1161518 0.9861116 0.1161518 0.0138884 -0.1161518
11425688 0.0133103 -0.1137009 0.9866897 0.1137009 0.9866897 0.1137009 0.0133103 -0.1137009
11676904 0.0127561 -0.1112983 0.9872439 0.1112983 0.9872439 0.1112983 0.0127561 -0.1112983
11933645 0.0122250 -0.1089430 0.9877750 0.1089430 0.9877750 0.1089430 0.0122250 -0.1089430
12196030 0.0117160 -0.1066343 0.9882840 0.1066343 0.9882840 0.1066343 0.0117160 -0.1066343
12464184 0.0112282 -0.1043714 0.9887718 0.1043714 0.9887718 0.1043714 0.0112282 -0.1043714
12738235 0.0107608 -0.1021536 0.9892392 0.1021536 0.9892392 0.1021536 0.0107608 -0.1021536
13018310 0.0103129 -0.0999800 0.9896871 0.0999800 0.9896871 0.0999800 0.0103129 -0.0999800
13304544 0.0098837 -0.0978498 0.9901163 0.0978498 0.9901163 0.0978498 0.0098837 -0.0978498
13597071 0.0094725 -0.0957624 0.9905275 0.0957624 0.9905275 0.0957624 0.0094725 -0.0957624
13896030 0.0090785 -0.0937169 0.9909215 0.0937169 0.9909215 0.0937169 0.0090785 -0.0937169
14201563 0.0087010 -0.0917126 0.9912990 0.0917126 0.9912990 0.0917126 0.0087010 -0.0917126
14513813 0.0083394 -0.0897488 0.9916606 0.0897488 0.9916606 0.0897488 0.0083394 -0.0897488
14832928 0.0079930 -0.0878246 0.9920070 0.0878246 0.9920070 0.0878246 0.0079930 -0.0878246
15159060 0.0076611 -0.0859394 0.9923389 0.0859394 0.9923389 0.0859394 0.0076611 -0.0859394
15492362 0.0073433 -0.0840924 0.9926567 0.0840924 0.9926567 0.0840924 0.0073433 -0.0840924
15832993 0.0070388 -0.0822829 0.9929612 0.0822829 0.9929612 0.0822829 0.0070388 -0.0822829
16181113 0.0067471 -0.0805101 0.9932529 0.0805101 0.9932529 0.0805101 0.0067471 -0.0805101
16536888 0.0064678 -0.0787735 0.9935322 0.0787735 0.9935322 0.0787735 0.0064678 -0.0787735
16900485 0.0062003 -0.0770723 0.9937997 0.0770723 0.9937997 0.0770723 0.0062003 -0.0770723
17272076 0.0059441 -0.0754057 0.9940559 0.0754057 0.9940559 0.0754057 0.0059441 -0.0754057
17651837 0.0056987 -0.0737732 0.9943013 0.0737732 0.9943013 0.0737732 0.0056987 -0.0737732
18039948 0.0054637 -0.0721740 0.9945363 0.0721740 0.9945363 0.0721740 0.0054637 -0.0721740
18436593 0.0052387 -0.0706076 0.9947613 0.0706076 0.9947613 0.0706076 0.0052387 -0.0706076
18841959 0.0050233 -0.0690732 0.9949767 0.0690732 0.9949767 0.0690732 0.0050233 -0.0690732
19256237 0.0048170 -0.0675702 0.9951830 0.0675702 0.9951830 0.0675702 0.0048170 -0.0675702
19679624 0.0046195 -0.0660980 0.9953805 0.0660980 0.9953805 0.0660980 0.0046195 -0.0660980
20112321 0.0044304 -0.0646559 0.9955696 0.0646559 0.9955696 0.0646559 0.0044304 -0.0646559
20554530 0.0042494 -0.0632434 0.9957506 0.0632434 0.9957506 0.0632434 0.0042494 -0.0632434
21006463 0.0040760 -0.0618599 0.9959240 0.0618599 0.9959240 0.0618599 0.0040760 -0.0618599
21468333 0.0039101 -0.0605047 0.9960899 0.0605047 0.9960899 0.0605047 0.0039101 -0.0605047
21940357 0.0037513 -0.0591773 0.9962487 0.0591773 0.9962487 0.0591773 0.0037513 -0.0591773
22422760 0.0035993 -0.0578771 0.9964007 0.0578771 0.9964007 0.0578771 0.0035993 -0.0578771
22915770 0.0034539 -0.0566035 0.9965461 0.0566035 0.9965461 0.0566035 0.0034539 -0.0566035
23419619 0.0033146 -0.0553561 0.9966854 0.0553561 0.9966854 0.0553561 0.0033146 -0.0553561
23934547 0.0031814 -0.0541342 0.9968186 0.0541342 0.9968186 0.0541342 0.0031814 -0.0541342
24460796 0.0030539 -0.0529373 0.9969461 0.0529373 0.9969461 0.0529373 0.0030539 -0.0529373
24998616 0.0029319 -0.0517649 0.9970681 0.0517649 0.9970681 0.0517649 0.0029319 -0.0517649
25548261 0.0028152 -0.0506164 0.9971848 0.0506164 0.9971848 0.0506164 0.0028152 -0.0506164
26109991 0.0027035 -0.0494915 0.9972965 0.0494915 0.9972965 0.0494915 0.0027035 -0.0494915
26684072 0.0025967 -0.0483895 0.9974033 0.0483895 0.9974033 0.0483895 0.0025967 -0.0483895
27270775 0.0024945 -0.0473099 0.9975055 0.0473099 0.9975055 0.0473099 0.0024945 -0.0473099
27870378 0.0023968 -0.0462524 0.9976032 0.0462524 0.9976032 0.0462524 0.0023968 -0.0462524
28483164 0.0023033 -0.0452164 0.9976967 0.0452164 0.9976967 0.0452164 0.0023033 -0.0452164
29109424 0.0022139 -0.0442015 0.9977861 0.0442015 0.9977861 0.0442015 0.0022139 -0.0442015
29749453 0.0021285 -0.0432072 0.9978715 0.0432072 0.9978715 0.0432072 0.0021285 -0.0432072
30403555 0.0020468 -0.0422331 0.9979532 0.0422331 0.9979532 0.0422331 0.0020468 -0.0422331
31072038 0.0019687 -0.0412786 0.9980313 0.0412786 0.9980313 0.0412786 0.0019687 -0.0412786
31755220 0.0018940 -0.0403435 0.9981060 0.0403435 0.9981060 0.0403435 0.0018940 -0.0403435
32453422 0.0018227 -0.0394273 0.9981773 0.0394273 0.9981773 0.0394273 0.0018227 -0.0394273
33166976 0.0017545 -0.0385295 0.9982455 0.0385295 0.9982455 0.0385295 0.0017545 -0.0385295
33896219 0.0016894 -0.0376498 0.9983106 0.0376498 0.9983106 0.0376498 0.0016894 -0.0376498
34641496 0.0016272 -0.0367877 0.9983728 0.0367877 0.9983728 0.0367877 0.0016272 -0.0367877
35403159 0.0015678 -0.0359429 0.9984322 0.0359429 0.9984322 0.0359429 0.0015678 -0.0359429
36181569 0.0015110 -0.0351150 0.9984890 0.0351150 0.9984890 0.0351150 0.0015110 -0.0351150
36977093 0.0014568 -0.0343036 0.9985432 0.0343036 0.9985432 0.0343036 0.0014568 -0.0343036
37790109 0.0014051 -0.0335084 0.9985949 0.0335084 0.9985949 0.0335084 0.0014051 -0.0335084
38621001 0.0013558 -0.0327289 0.9986442 0.0327289 0.9986442 0.0327289 0.0013558 -0.0327289
39470161 0.0013087 -0.0319648 0.9986913 0.0319648 0.9986913 0.0319648 0.0013087 -0.0319648
40337993 0.0012638 -0.0312158 0.9987362 0.0312158 0.9987362 0.0312158 0.0012638 -0.0312158
41224905 0.0012209 -0.0304815 0.9987791 0.0304815 0.9987791 0.0304815 0.0012209 -0.0304815
42131317 0.0011801 -0.0297616 0.9988199 0.0297616 0.9988199 0.0297616 0.0011801 -0.0297616
43057659 0.0011411 -0.0290558 0.9988589 0.0290558 0.9988589 0.0290558 0.0011411 -0.0290558
44004369 0.0011040 -0.0283637 0.9988960 0.0283637 0.9988960 0.0283637 0.0011040 -0.0283637
44971893 0.0010686 -0.0276850 0.9989314 0.0276850 0.9989314 0.0276850 0.0010686 -0.0276850
45960691 0.0010350 -0.0270194 0.9989650 0.0270194 0.9989650 0.0270194 0.0010350 -0.0270194
46971230 0.0010029 -0.0263666 0.9989971 0.0263666 0.9989971 0.0263666 0.0010029 -0.0263666
48003987 0.0009724 -0.0257263 0.9990276 0.0257263 0.9990276 0.0257263 0.0009724 -0.0257263
49059451 0.0009433 -0.0250982 0.9990567 0.0250982 0.9990567 0.0250982 0.0009433 -0.0250982
50138122 0.0009157 -0.0244821 0.9990843 0.0244821 0.9990843 0.0244821 0.0009157 -0.0244821
51240510 0.0008894 -0.0238775 0.9991106 0.0238775 0.9991106 0.0238775 0.0008894 -0.0238775
52367136 0.0008645 -0.0232843 0.9991355 0.0232843 0.9991355 0.0232843 0.0008645 -0.0232843
53518533 0.0008408 -0.0227021 0.9991592 0.0227021 0.9991592 0.0227021 0.0008408 -0.0227021
54695245 0.0008183 -0.0221308 0.9991817 0.0221308 0.9991817 0.0221308 0.0008183 -0.0221308
55897831 0.0007969 -0.0215700 0.9992031 0.0215700 0.9992031 0.0215700 0.0007969 -0.0215700
57126857 0.0007766 -0.0210194 0.9992234 0.0210194 0.9992234 0.0210194 0.0007766 -0.0210194
58382906 0.0007574 -0.0204789 0.9992426 0.0204789 0.9992426 0.0204789 0.0007574 -0.0204789
59666572 0.0007392 -0.0199481 0.9992608 0.0199481 0.9992608 0.0199481 0.0007392 -0.0199481
60978462 0.0007219 -0.0194269 0.9992781 0.0194269 0.9992781 0.0194269 0.0007219 -0.0194269
62319196 0.0007056 -0.0189149 0.9992944 0.0189149 0.9992944 0.0189149 0.0007056 -0.0189149
63689409 0.0006902 -0.0184120 0.9993098 0.0184120 0.9993098 0.0184120 0.0006902 -0.0184120
65089750 0.0006756 -0.0179178 0.9993244 0.0179178 0.9993244 0.0179178 0.0006756 -0.0179178
66520879 0.0006618 -0.0174322 0.9993382 0.0174322 0.9993382 0.0174322 0.0006618 -0.0174322
67983474 0.0006488 -0.0169550 0.9993512 0.0169550 0.9993512 0.0169550 0.0006488 -0.0169550
69478228 0.0006366 -0.0164858 0.9993634 0.0164858 0.9993634 0.0164858 0.0006366 -0.0164858
71005847 0.0006250 -0.0160246 0.9993750 0.0160246 0.9993750 0.0160246 0.0006250 -0.0160246
72567054 0.0006142 -0.0155710 0.9993858 0.0155710 0.9993858 0.0155710 0.0006142 -0.0155710
74162587 0.0006040 -0.0151249 0.9993960 0.0151249 0.9993960 0.0151249 0.0006040 -0.0151249
75793201 0.0005944 -0.0146860 0.9994056 0.0146860 0.9994056 0.0146860 0.0005944 -0.0146860
77459667 0.0005855 -0.0142542 0.9994145 0.0142542 0.9994145 0.0142542 0.0005855 -0.0142542
79162774 0.0005771 -0.0138292 0.9994229 0.0138292 0.9994229 0.0138292 0.0005771 -0.0138292
80903327 0.0005693 -0.0134108 0.9994307 0.0134108 0.9994307 0.0134108 0.0005693 -0.0134108
82682150 0.0005620 -0.0129988 0.9994380 0.0129988 0.9994380 0.0129988 0.0005620 -0.0129988
84500083 0.0005553 -0.0125931 0.9994447 0.0125931 0.9994447 0.0125931 0.0005553 -0.0125931
86357988 0.0005490 -0.0121935 0.9994510 0.0121935 0.9994510 0.0121935 0.0005490 -0.0121935
88256743 0.0005432 -0.0117997 0.9994568 0.0117997 0.9994568 0.0117997 0.0005432 -0.0117997
90197245 0.0005379 -0.0114115 0.9994621 0.0114115 0.9994621 0.0114115 0.0005379 -0.0114115
92180413 0.0005330 -0.0110288 0.9994670 0.0110288 0.9994670 0.0110288 0.0005330 -0.0110288
94207185 0.0005286 -0.0106515 0.9994714 0.0106515 0.9994714 0.0106515 0.0005286 -0.0106515
96278520 0.0005245 -0.0102792 0.9994755 0.0102792 0.9994755 0.0102792 0.0005245 -0.0102792
98395398 0.0005209 -0.0099119 0.9994791 0.0099119 0.9994791 0.0099119 0.0005209 -0.0099119
100558819 0.0005177 -0.0095493 0.9994823 0.0095493 0.9994823 0.0095493 0.0005177 -0.0095493
102769807 0.0005148 -0.0091913 0.9994852 0.0091913 0.9994852 0.0091913 0.0005148 -0.0091913
105029408 0.0005123 -0.0088378 0.9994877 0.0088378 0.9994877 0.0088378 0.0005123 -0.0088378
107338692 0.0005101 -0.0084884 0.9994899 0.0084884 0.9994899 0.0084884 0.0005101 -0.0084884
