!Murata Part Number: GRM1885C1H562JA01
!These Parameters are Measured in Series Mode Connection
!Data Generated on Mar 30, 2021
!       o--ll--o
!Port1            Port2
!       o------o
!Operation Temp=25[degC], DC Bias Voltage=0[V]
!Freq. Start=1000[kHz] Stop=6[GHz] 401[Steps]
# Hz S RI R 50
!Freq.(Hz) S11(Real) S11(Imag) S21(Real) S21(Imag) S12(Real) S12(Imag) S22(Real) S22(Imag)
1000000 0.0750255 -0.2632844 0.9249745 0.2632844 0.9249745 0.2632844 0.0750255 -0.2632844
1021987 0.0720645 -0.2584433 0.9279355 0.2584433 0.9279355 0.2584433 0.0720645 -0.2584433
1044457 0.0692117 -0.2536590 0.9307883 0.2536590 0.9307883 0.2536590 0.0692117 -0.2536590
1067422 0.0664638 -0.2489328 0.9335362 0.2489328 0.9335362 0.2489328 0.0664638 -0.2489328
1090891 0.0638176 -0.2442660 0.9361824 0.2442660 0.9361824 0.2442660 0.0638176 -0.2442660
1114877 0.0612700 -0.2396596 0.9387300 0.2396596 0.9387300 0.2396596 0.0612700 -0.2396596
1139390 0.0588178 -0.2351143 0.9411822 0.2351143 0.9411822 0.2351143 0.0588178 -0.2351143
1164441 0.0564579 -0.2306311 0.9435421 0.2306311 0.9435421 0.2306311 0.0564579 -0.2306311
1190044 0.0541874 -0.2262105 0.9458126 0.2262105 0.9458126 0.2262105 0.0541874 -0.2262105
1216210 0.0520033 -0.2218530 0.9479967 0.2218530 0.9479967 0.2218530 0.0520033 -0.2218530
1242950 0.0499026 -0.2175591 0.9500974 0.2175591 0.9500974 0.2175591 0.0499026 -0.2175591
1270279 0.0478826 -0.2133292 0.9521174 0.2133292 0.9521174 0.2133292 0.0478826 -0.2133292
1298209 0.0459406 -0.2091633 0.9540594 0.2091633 0.9540594 0.2091633 0.0459406 -0.2091633
1326753 0.0440738 -0.2050618 0.9559262 0.2050618 0.9559262 0.2050618 0.0440738 -0.2050618
1355924 0.0422795 -0.2010245 0.9577205 0.2010245 0.9577205 0.2010245 0.0422795 -0.2010245
1385737 0.0405554 -0.1970516 0.9594446 0.1970516 0.9594446 0.1970516 0.0405554 -0.1970516
1416205 0.0388988 -0.1931429 0.9611012 0.1931429 0.9611012 0.1931429 0.0388988 -0.1931429
1447343 0.0373073 -0.1892982 0.9626927 0.1892982 0.9626927 0.1892982 0.0373073 -0.1892982
1479166 0.0357786 -0.1855174 0.9642214 0.1855174 0.9642214 0.1855174 0.0357786 -0.1855174
1511688 0.0343105 -0.1818002 0.9656895 0.1818002 0.9656895 0.1818002 0.0343105 -0.1818002
1544926 0.0329006 -0.1781462 0.9670994 0.1781462 0.9670994 0.1781462 0.0329006 -0.1781462
1578894 0.0315470 -0.1745550 0.9684530 0.1745550 0.9684530 0.1745550 0.0315470 -0.1745550
1613609 0.0302473 -0.1710262 0.9697527 0.1710262 0.9697527 0.1710262 0.0302473 -0.1710262
1649087 0.0289997 -0.1675594 0.9710003 0.1675594 0.9710003 0.1675594 0.0289997 -0.1675594
1685346 0.0278023 -0.1641540 0.9721977 0.1641540 0.9721977 0.1641540 0.0278023 -0.1641540
1722402 0.0266530 -0.1608095 0.9733470 0.1608095 0.9733470 0.1608095 0.0266530 -0.1608095
1760272 0.0255501 -0.1575253 0.9744499 0.1575253 0.9744499 0.1575253 0.0255501 -0.1575253
1798975 0.0244918 -0.1543008 0.9755082 0.1543008 0.9755082 0.1543008 0.0244918 -0.1543008
1838529 0.0234764 -0.1511354 0.9765236 0.1511354 0.9765236 0.1511354 0.0234764 -0.1511354
1878953 0.0225022 -0.1480284 0.9774978 0.1480284 0.9774978 0.1480284 0.0225022 -0.1480284
1920266 0.0215677 -0.1449791 0.9784323 0.1449791 0.9784323 0.1449791 0.0215677 -0.1449791
1962487 0.0206713 -0.1419868 0.9793287 0.1419868 0.9793287 0.1419868 0.0206713 -0.1419868
2005636 0.0198115 -0.1390508 0.9801885 0.1390508 0.9801885 0.1390508 0.0198115 -0.1390508
2049734 0.0189869 -0.1361704 0.9810131 0.1361704 0.9810131 0.1361704 0.0189869 -0.1361704
2094801 0.0181961 -0.1333449 0.9818039 0.1333449 0.9818039 0.1333449 0.0181961 -0.1333449
2140860 0.0174378 -0.1305734 0.9825622 0.1305734 0.9825622 0.1305734 0.0174378 -0.1305734
2187931 0.0167106 -0.1278553 0.9832894 0.1278553 0.9832894 0.1278553 0.0167106 -0.1278553
2236037 0.0160135 -0.1251897 0.9839865 0.1251897 0.9839865 0.1251897 0.0160135 -0.1251897
2285201 0.0153450 -0.1225758 0.9846550 0.1225758 0.9846550 0.1225758 0.0153450 -0.1225758
2335446 0.0147042 -0.1200130 0.9852958 0.1200130 0.9852958 0.1200130 0.0147042 -0.1200130
2386795 0.0140899 -0.1175004 0.9859101 0.1175004 0.9859101 0.1175004 0.0140899 -0.1175004
2439274 0.0135010 -0.1150372 0.9864990 0.1150372 0.9864990 0.1150372 0.0135010 -0.1150372
2492906 0.0129365 -0.1126227 0.9870635 0.1126227 0.9870635 0.1126227 0.0129365 -0.1126227
2547717 0.0123955 -0.1102560 0.9876045 0.1102560 0.9876045 0.1102560 0.0123955 -0.1102560
2603734 0.0118769 -0.1079364 0.9881231 0.1079364 0.9881231 0.1079364 0.0118769 -0.1079364
2660982 0.0113799 -0.1056630 0.9886201 0.1056630 0.9886201 0.1056630 0.0113799 -0.1056630
2719490 0.0109036 -0.1034352 0.9890964 0.1034352 0.9890964 0.1034352 0.0109036 -0.1034352
2779283 0.0104472 -0.1012521 0.9895528 0.1012521 0.9895528 0.1012521 0.0104472 -0.1012521
2840391 0.0100098 -0.0991130 0.9899902 0.0991130 0.9899902 0.0991130 0.0100098 -0.0991130
2902843 0.0095906 -0.0970170 0.9904094 0.0970170 0.9904094 0.0970170 0.0095906 -0.0970170
2966668 0.0091890 -0.0949635 0.9908110 0.0949635 0.9908110 0.0949635 0.0091890 -0.0949635
3031896 0.0088042 -0.0929516 0.9911958 0.0929516 0.9911958 0.0929516 0.0088042 -0.0929516
3098558 0.0084355 -0.0909807 0.9915645 0.0909807 0.9915645 0.0909807 0.0084355 -0.0909807
3166686 0.0080822 -0.0890499 0.9919178 0.0890499 0.9919178 0.0890499 0.0080822 -0.0890499
3236312 0.0077438 -0.0871586 0.9922562 0.0871586 0.9922562 0.0871586 0.0077438 -0.0871586
3307469 0.0074195 -0.0853060 0.9925805 0.0853060 0.9925805 0.0853060 0.0074195 -0.0853060
3380190 0.0071089 -0.0834914 0.9928911 0.0834914 0.9928911 0.0834914 0.0071089 -0.0834914
3454511 0.0068113 -0.0817140 0.9931887 0.0817140 0.9931887 0.0817140 0.0068113 -0.0817140
3530465 0.0065262 -0.0799733 0.9934738 0.0799733 0.9934738 0.0799733 0.0065262 -0.0799733
3608090 0.0062532 -0.0782684 0.9937468 0.0782684 0.9937468 0.0782684 0.0062532 -0.0782684
3687421 0.0059916 -0.0765988 0.9940084 0.0765988 0.9940084 0.0765988 0.0059916 -0.0765988
3768496 0.0057410 -0.0749636 0.9942590 0.0749636 0.9942590 0.0749636 0.0057410 -0.0749636
3851354 0.0055010 -0.0733624 0.9944990 0.0733624 0.9944990 0.0733624 0.0055010 -0.0733624
3936034 0.0052711 -0.0717943 0.9947289 0.0717943 0.9947289 0.0717943 0.0052711 -0.0717943
4022575 0.0050510 -0.0702588 0.9949490 0.0702588 0.9949490 0.0702588 0.0050510 -0.0702588
4111020 0.0048401 -0.0687552 0.9951599 0.0687552 0.9951599 0.0687552 0.0048401 -0.0687552
4201409 0.0046381 -0.0672829 0.9953619 0.0672829 0.9953619 0.0672829 0.0046381 -0.0672829
4293785 0.0044447 -0.0658413 0.9955553 0.0658413 0.9955553 0.0658413 0.0044447 -0.0658413
4388193 0.0042594 -0.0644298 0.9957406 0.0644298 0.9957406 0.0644298 0.0042594 -0.0644298
4484676 0.0040820 -0.0630477 0.9959180 0.0630477 0.9959180 0.0630477 0.0040820 -0.0630477
4583281 0.0039121 -0.0616944 0.9960879 0.0616944 0.9960879 0.0616944 0.0039121 -0.0616944
4684054 0.0037493 -0.0603695 0.9962507 0.0603695 0.9962507 0.0603695 0.0037493 -0.0603695
4787042 0.0035935 -0.0590723 0.9964065 0.0590723 0.9964065 0.0590723 0.0035935 -0.0590723
4892295 0.0034443 -0.0578023 0.9965557 0.0578023 0.9965557 0.0578023 0.0034443 -0.0578023
4999862 0.0033014 -0.0565588 0.9966986 0.0565588 0.9966986 0.0565588 0.0033014 -0.0565588
5109794 0.0031646 -0.0553415 0.9968354 0.0553415 0.9968354 0.0553415 0.0031646 -0.0553415
5222143 0.0030335 -0.0541497 0.9969665 0.0541497 0.9969665 0.0541497 0.0030335 -0.0541497
5336962 0.0029081 -0.0529828 0.9970919 0.0529828 0.9970919 0.0529828 0.0029081 -0.0529828
5454306 0.0027879 -0.0518405 0.9972121 0.0518405 0.9972121 0.0518405 0.0027879 -0.0518405
5574230 0.0026729 -0.0507222 0.9973271 0.0507222 0.9973271 0.0507222 0.0026729 -0.0507222
5696791 0.0025628 -0.0496274 0.9974372 0.0496274 0.9974372 0.0496274 0.0025628 -0.0496274
5822046 0.0024573 -0.0485556 0.9975427 0.0485556 0.9975427 0.0485556 0.0024573 -0.0485556
5950055 0.0023564 -0.0475064 0.9976436 0.0475064 0.9976436 0.0475064 0.0023564 -0.0475064
6080879 0.0022597 -0.0464792 0.9977403 0.0464792 0.9977403 0.0464792 0.0022597 -0.0464792
6214580 0.0021672 -0.0454736 0.9978328 0.0454736 0.9978328 0.0454736 0.0021672 -0.0454736
6351220 0.0020786 -0.0444892 0.9979214 0.0444892 0.9979214 0.0444892 0.0020786 -0.0444892
6490864 0.0019937 -0.0435255 0.9980063 0.0435255 0.9980063 0.0435255 0.0019937 -0.0435255
6633579 0.0019125 -0.0425821 0.9980875 0.0425821 0.9980875 0.0425821 0.0019125 -0.0425821
6779431 0.0018348 -0.0416586 0.9981652 0.0416586 0.9981652 0.0416586 0.0018348 -0.0416586
6928491 0.0017604 -0.0407544 0.9982396 0.0407544 0.9982396 0.0407544 0.0017604 -0.0407544
7080828 0.0016891 -0.0398694 0.9983109 0.0398694 0.9983109 0.0398694 0.0016891 -0.0398694
7236514 0.0016209 -0.0390029 0.9983791 0.0390029 0.9983791 0.0390029 0.0016209 -0.0390029
7395623 0.0015557 -0.0381547 0.9984443 0.0381547 0.9984443 0.0381547 0.0015557 -0.0381547
7558231 0.0014932 -0.0373243 0.9985068 0.0373243 0.9985068 0.0373243 0.0014932 -0.0373243
7724414 0.0014334 -0.0365113 0.9985666 0.0365113 0.9985666 0.0365113 0.0014334 -0.0365113
7894251 0.0013762 -0.0357155 0.9986238 0.0357155 0.9986238 0.0357155 0.0013762 -0.0357155
8067822 0.0013214 -0.0349364 0.9986786 0.0349364 0.9986786 0.0349364 0.0013214 -0.0349364
8245209 0.0012689 -0.0341737 0.9987311 0.0341737 0.9987311 0.0341737 0.0012689 -0.0341737
8426497 0.0012188 -0.0334270 0.9987812 0.0334270 0.9987812 0.0334270 0.0012188 -0.0334270
8611770 0.0011708 -0.0326959 0.9988292 0.0326959 0.9988292 0.0326959 0.0011708 -0.0326959
8801117 0.0011248 -0.0319802 0.9988752 0.0319802 0.9988752 0.0319802 0.0011248 -0.0319802
8994628 0.0010808 -0.0312796 0.9989192 0.0312796 0.9989192 0.0312796 0.0010808 -0.0312796
9192393 0.0010388 -0.0305936 0.9989612 0.0305936 0.9989612 0.0305936 0.0010388 -0.0305936
9394506 0.0009985 -0.0299220 0.9990015 0.0299220 0.9990015 0.0299220 0.0009985 -0.0299220
9601063 0.0009600 -0.0292644 0.9990400 0.0292644 0.9990400 0.0292644 0.0009600 -0.0292644
9812162 0.0009232 -0.0286206 0.9990768 0.0286206 0.9990768 0.0286206 0.0009232 -0.0286206
10027902 0.0008879 -0.0279903 0.9991121 0.0279903 0.9991121 0.0279903 0.0008879 -0.0279903
10248386 0.0008542 -0.0273731 0.9991458 0.0273731 0.9991458 0.0273731 0.0008542 -0.0273731
10473717 0.0008220 -0.0267688 0.9991780 0.0267688 0.9991780 0.0267688 0.0008220 -0.0267688
10704003 0.0007911 -0.0261771 0.9992089 0.0261771 0.9992089 0.0261771 0.0007911 -0.0261771
10939352 0.0007616 -0.0255978 0.9992384 0.0255978 0.9992384 0.0255978 0.0007616 -0.0255978
11179876 0.0007334 -0.0250304 0.9992666 0.0250304 0.9992666 0.0250304 0.0007334 -0.0250304
11425688 0.0007065 -0.0244749 0.9992935 0.0244749 0.9992935 0.0244749 0.0007065 -0.0244749
11676904 0.0006807 -0.0239309 0.9993193 0.0239309 0.9993193 0.0239309 0.0006807 -0.0239309
11933645 0.0006560 -0.0233982 0.9993440 0.0233982 0.9993440 0.0233982 0.0006560 -0.0233982
12196030 0.0006325 -0.0228765 0.9993675 0.0228765 0.9993675 0.0228765 0.0006325 -0.0228765
12464184 0.0006100 -0.0223657 0.9993900 0.0223657 0.9993900 0.0223657 0.0006100 -0.0223657
12738235 0.0005885 -0.0218653 0.9994115 0.0218653 0.9994115 0.0218653 0.0005885 -0.0218653
13018310 0.0005679 -0.0213753 0.9994321 0.0213753 0.9994321 0.0213753 0.0005679 -0.0213753
13304544 0.0005483 -0.0208954 0.9994517 0.0208954 0.9994517 0.0208954 0.0005483 -0.0208954
13597071 0.0005295 -0.0204253 0.9994705 0.0204253 0.9994705 0.0204253 0.0005295 -0.0204253
13896030 0.0005116 -0.0199648 0.9994884 0.0199648 0.9994884 0.0199648 0.0005116 -0.0199648
14201563 0.0004945 -0.0195138 0.9995055 0.0195138 0.9995055 0.0195138 0.0004945 -0.0195138
14513813 0.0004782 -0.0190721 0.9995218 0.0190721 0.9995218 0.0190721 0.0004782 -0.0190721
14832928 0.0004627 -0.0186393 0.9995373 0.0186393 0.9995373 0.0186393 0.0004627 -0.0186393
15159060 0.0004478 -0.0182153 0.9995522 0.0182153 0.9995522 0.0182153 0.0004478 -0.0182153
15492362 0.0004337 -0.0178000 0.9995663 0.0178000 0.9995663 0.0178000 0.0004337 -0.0178000
15832993 0.0004202 -0.0173930 0.9995798 0.0173930 0.9995798 0.0173930 0.0004202 -0.0173930
16181113 0.0004073 -0.0169943 0.9995927 0.0169943 0.9995927 0.0169943 0.0004073 -0.0169943
16536888 0.0003951 -0.0166036 0.9996049 0.0166036 0.9996049 0.0166036 0.0003951 -0.0166036
16900485 0.0003834 -0.0162208 0.9996166 0.0162208 0.9996166 0.0162208 0.0003834 -0.0162208
17272076 0.0003724 -0.0158457 0.9996276 0.0158457 0.9996276 0.0158457 0.0003724 -0.0158457
17651837 0.0003618 -0.0154780 0.9996382 0.0154780 0.9996382 0.0154780 0.0003618 -0.0154780
18039948 0.0003518 -0.0151177 0.9996482 0.0151177 0.9996482 0.0151177 0.0003518 -0.0151177
18436593 0.0003422 -0.0147646 0.9996578 0.0147646 0.9996578 0.0147646 0.0003422 -0.0147646
18841959 0.0003332 -0.0144184 0.9996668 0.0144184 0.9996668 0.0144184 0.0003332 -0.0144184
19256237 0.0003246 -0.0140791 0.9996754 0.0140791 0.9996754 0.0140791 0.0003246 -0.0140791
19679624 0.0003164 -0.0137465 0.9996836 0.0137465 0.9996836 0.0137465 0.0003164 -0.0137465
20112321 0.0003087 -0.0134204 0.9996913 0.0134204 0.9996913 0.0134204 0.0003087 -0.0134204
20554530 0.0003014 -0.0131006 0.9996986 0.0131006 0.9996986 0.0131006 0.0003014 -0.0131006
21006463 0.0002945 -0.0127871 0.9997055 0.0127871 0.9997055 0.0127871 0.0002945 -0.0127871
21468333 0.0002880 -0.0124796 0.9997120 0.0124796 0.9997120 0.0124796 0.0002880 -0.0124796
21940357 0.0002818 -0.0121781 0.9997182 0.0121781 0.9997182 0.0121781 0.0002818 -0.0121781
22422760 0.0002760 -0.0118824 0.9997240 0.0118824 0.9997240 0.0118824 0.0002760 -0.0118824
22915770 0.0002706 -0.0115923 0.9997294 0.0115923 0.9997294 0.0115923 0.0002706 -0.0115923
23419619 0.0002655 -0.0113077 0.9997345 0.0113077 0.9997345 0.0113077 0.0002655 -0.0113077
23934547 0.0002607 -0.0110285 0.9997393 0.0110285 0.9997393 0.0110285 0.0002607 -0.0110285
24460796 0.0002562 -0.0107546 0.9997438 0.0107546 0.9997438 0.0107546 0.0002562 -0.0107546
24998616 0.0002519 -0.0104857 0.9997481 0.0104857 0.9997481 0.0104857 0.0002519 -0.0104857
25548261 0.0002480 -0.0102219 0.9997520 0.0102219 0.9997520 0.0102219 0.0002480 -0.0102219
26109991 0.0002444 -0.0099630 0.9997556 0.0099630 0.9997556 0.0099630 0.0002444 -0.0099630
26684072 0.0002410 -0.0097088 0.9997590 0.0097088 0.9997590 0.0097088 0.0002410 -0.0097088
27270775 0.0002379 -0.0094592 0.9997621 0.0094592 0.9997621 0.0094592 0.0002379 -0.0094592
27870378 0.0002350 -0.0092142 0.9997650 0.0092142 0.9997650 0.0092142 0.0002350 -0.0092142
28483164 0.0002324 -0.0089736 0.9997676 0.0089736 0.9997676 0.0089736 0.0002324 -0.0089736
29109424 0.0002300 -0.0087372 0.9997700 0.0087372 0.9997700 0.0087372 0.0002300 -0.0087372
29749453 0.0002278 -0.0085051 0.9997722 0.0085051 0.9997722 0.0085051 0.0002278 -0.0085051
30403555 0.0002259 -0.0082770 0.9997741 0.0082770 0.9997741 0.0082770 0.0002259 -0.0082770
31072038 0.0002241 -0.0080529 0.9997759 0.0080529 0.9997759 0.0080529 0.0002241 -0.0080529
31755220 0.0002226 -0.0078327 0.9997774 0.0078327 0.9997774 0.0078327 0.0002226 -0.0078327
32453422 0.0002212 -0.0076162 0.9997788 0.0076162 0.9997788 0.0076162 0.0002212 -0.0076162
33166976 0.0002201 -0.0074034 0.9997799 0.0074034 0.9997799 0.0074034 0.0002201 -0.0074034
33896219 0.0002191 -0.0071941 0.9997809 0.0071941 0.9997809 0.0071941 0.0002191 -0.0071941
34641496 0.0002183 -0.0069884 0.9997817 0.0069884 0.9997817 0.0069884 0.0002183 -0.0069884
35403159 0.0002176 -0.0067859 0.9997824 0.0067859 0.9997824 0.0067859 0.0002176 -0.0067859
36181569 0.0002172 -0.0065868 0.9997828 0.0065868 0.9997828 0.0065868 0.0002172 -0.0065868
36977093 0.0002169 -0.0063908 0.9997831 0.0063908 0.9997831 0.0063908 0.0002169 -0.0063908
37790109 0.0002167 -0.0061980 0.9997833 0.0061980 0.9997833 0.0061980 0.0002167 -0.0061980
38621001 0.0002167 -0.0060081 0.9997833 0.0060081 0.9997833 0.0060081 0.0002167 -0.0060081
39470161 0.0002169 -0.0058211 0.9997831 0.0058211 0.9997831 0.0058211 0.0002169 -0.0058211
40337993 0.0002172 -0.0056370 0.9997828 0.0056370 0.9997828 0.0056370 0.0002172 -0.0056370
41224905 0.0002176 -0.0054556 0.9997824 0.0054556 0.9997824 0.0054556 0.0002176 -0.0054556
42131317 0.0002181 -0.0052768 0.9997819 0.0052768 0.9997819 0.0052768 0.0002181 -0.0052768
43057659 0.0002188 -0.0051006 0.9997812 0.0051006 0.9997812 0.0051006 0.0002188 -0.0051006
44004369 0.0002196 -0.0049269 0.9997804 0.0049269 0.9997804 0.0049269 0.0002196 -0.0049269
44971893 0.0002205 -0.0047556 0.9997795 0.0047556 0.9997795 0.0047556 0.0002205 -0.0047556
45960691 0.0002216 -0.0045866 0.9997784 0.0045866 0.9997784 0.0045866 0.0002216 -0.0045866
46971230 0.0002227 -0.0044198 0.9997773 0.0044198 0.9997773 0.0044198 0.0002227 -0.0044198
48003987 0.0002240 -0.0042552 0.9997760 0.0042552 0.9997760 0.0042552 0.0002240 -0.0042552
49059451 0.0002253 -0.0040927 0.9997747 0.0040927 0.9997747 0.0040927 0.0002253 -0.0040927
50138122 0.0002268 -0.0039321 0.9997732 0.0039321 0.9997732 0.0039321 0.0002268 -0.0039321
51240510 0.0002284 -0.0037735 0.9997716 0.0037735 0.9997716 0.0037735 0.0002284 -0.0037735
52367136 0.0002300 -0.0036167 0.9997700 0.0036167 0.9997700 0.0036167 0.0002300 -0.0036167
53518533 0.0002318 -0.0034617 0.9997682 0.0034617 0.9997682 0.0034617 0.0002318 -0.0034617
54695245 0.0002336 -0.0033084 0.9997664 0.0033084 0.9997664 0.0033084 0.0002336 -0.0033084
55897831 0.0002356 -0.0031567 0.9997644 0.0031567 0.9997644 0.0031567 0.0002356 -0.0031567
57126857 0.0002376 -0.0030065 0.9997624 0.0030065 0.9997624 0.0030065 0.0002376 -0.0030065
58382906 0.0002398 -0.0028578 0.9997602 0.0028578 0.9997602 0.0028578 0.0002398 -0.0028578
59666572 0.0002420 -0.0027105 0.9997580 0.0027105 0.9997580 0.0027105 0.0002420 -0.0027105
60978462 0.0002443 -0.0025645 0.9997557 0.0025645 0.9997557 0.0025645 0.0002443 -0.0025645
62319196 0.0002467 -0.0024197 0.9997533 0.0024197 0.9997533 0.0024197 0.0002467 -0.0024197
63689409 0.0002492 -0.0022761 0.9997508 0.0022761 0.9997508 0.0022761 0.0002492 -0.0022761
65089750 0.0002518 -0.0021336 0.9997482 0.0021336 0.9997482 0.0021336 0.0002518 -0.0021336
66520879 0.0002544 -0.0019922 0.9997456 0.0019922 0.9997456 0.0019922 0.0002544 -0.0019922
67983474 0.0002572 -0.0018516 0.9997428 0.0018516 0.9997428 0.0018516 0.0002572 -0.0018516
69478228 0.0002601 -0.0017120 0.9997399 0.0017120 0.9997399 0.0017120 0.0002601 -0.0017120
71005847 0.0002631 -0.0015731 0.9997369 0.0015731 0.9997369 0.0015731 0.0002631 -0.0015731
72567054 0.0002661 -0.0014350 0.9997339 0.0014350 0.9997339 0.0014350 0.0002661 -0.0014350
74162587 0.0002693 -0.0012975 0.9997307 0.0012975 0.9997307 0.0012975 0.0002693 -0.0012975
75793201 0.0002726 -0.0011606 0.9997274 0.0011606 0.9997274 0.0011606 0.0002726 -0.0011606
77459667 0.0002760 -0.0010243 0.9997240 0.0010243 0.9997240 0.0010243 0.0002760 -0.0010243
79162774 0.0002795 -0.0008883 0.9997205 0.0008883 0.9997205 0.0008883 0.0002795 -0.0008883
80903327 0.0002832 -0.0007527 0.9997168 0.0007527 0.9997168 0.0007527 0.0002832 -0.0007527
82682150 0.0002869 -0.0006174 0.9997131 0.0006174 0.9997131 0.0006174 0.0002869 -0.0006174
84500083 0.0002909 -0.0004822 0.9997091 0.0004822 0.9997091 0.0004822 0.0002909 -0.0004822
86357988 0.0002950 -0.0003472 0.9997050 0.0003472 0.9997050 0.0003472 0.0002950 -0.0003472
88256743 0.0002992 -0.0002122 0.9997008 0.0002122 0.9997008 0.0002122 0.0002992 -0.0002122
90197245 0.0003036 -0.0000772 0.9996964 0.0000772 0.9996964 0.0000772 0.0003036 -0.0000772
92180413 0.0003082 0.0000580 0.9996918 -0.0000580 0.9996918 -0.0000580 0.0003082 0.0000580
94207185 0.0003130 0.0001934 0.9996870 -0.0001934 0.9996870 -0.0001934 0.0003130 0.0001934
96278520 0.0003180 0.0003291 0.9996820 -0.0003291 0.9996820 -0.0003291 0.0003180 0.0003291
98395398 0.0003233 0.0004651 0.9996767 -0.0004651 0.9996767 -0.0004651 0.0003233 0.0004651
100558819 0.0003288 0.0006017 0.9996712 -0.0006017 0.9996712 -0.0006017 0.0003288 0.0006017
102769807 0.0003346 0.0007389 0.9996654 -0.0007389 0.9996654 -0.0007389 0.0003346 0.0007389
105029408 0.0003407 0.0008767 0.9996593 -0.0008767 0.9996593 -0.0008767 0.0003407 0.0008767
107338692 0.0003472 0.0010154 0.9996528 -0.0010154 0.9996528 -0.0010154 0.0003472 0.0010154
