!Murata Part Number: GRM1881X1H682JA01
!These Parameters are Measured in Series Mode Connection
!Data Generated on Mar 30, 2021
!       o--ll--o
!Port1            Port2
!       o------o
!Operation Temp=25[degC], DC Bias Voltage=0[V]
!Freq. Start=1000[kHz] Stop=6[GHz] 401[Steps]
# Hz S RI R 50
!Freq.(Hz) S11(Real) S11(Imag) S21(Real) S21(Imag) S12(Real) S12(Imag) S22(Real) S22(Imag)
1000000 0.0518878 -0.2215089 0.9481122 0.2215089 0.9481122 0.2215089 0.0518878 -0.2215089
1021987 0.0497938 -0.2172206 0.9502062 0.2172206 0.9502062 0.2172206 0.0497938 -0.2172206
1044457 0.0477802 -0.2129962 0.9522198 0.2129962 0.9522198 0.2129962 0.0477802 -0.2129962
1067422 0.0458443 -0.2088359 0.9541557 0.2088359 0.9541557 0.2088359 0.0458443 -0.2088359
1090891 0.0439834 -0.2047400 0.9560166 0.2047400 0.9560166 0.2047400 0.0439834 -0.2047400
1114877 0.0421949 -0.2007083 0.9578051 0.2007083 0.9578051 0.2007083 0.0421949 -0.2007083
1139390 0.0404762 -0.1967410 0.9595238 0.1967410 0.9595238 0.1967410 0.0404762 -0.1967410
1164441 0.0388249 -0.1928379 0.9611751 0.1928379 0.9611751 0.1928379 0.0388249 -0.1928379
1190044 0.0372386 -0.1889988 0.9627614 0.1889988 0.9627614 0.1889988 0.0372386 -0.1889988
1216210 0.0357149 -0.1852236 0.9642851 0.1852236 0.9642851 0.1852236 0.0357149 -0.1852236
1242950 0.0342515 -0.1815119 0.9657485 0.1815119 0.9657485 0.1815119 0.0342515 -0.1815119
1270279 0.0328462 -0.1778634 0.9671538 0.1778634 0.9671538 0.1778634 0.0328462 -0.1778634
1298209 0.0314969 -0.1742777 0.9685031 0.1742777 0.9685031 0.1742777 0.0314969 -0.1742777
1326753 0.0302015 -0.1707544 0.9697985 0.1707544 0.9697985 0.1707544 0.0302015 -0.1707544
1355924 0.0289580 -0.1672930 0.9710420 0.1672930 0.9710420 0.1672930 0.0289580 -0.1672930
1385737 0.0277645 -0.1638930 0.9722355 0.1638930 0.9722355 0.1638930 0.0277645 -0.1638930
1416205 0.0266190 -0.1605538 0.9733810 0.1605538 0.9733810 0.1605538 0.0266190 -0.1605538
1447343 0.0255197 -0.1572749 0.9744803 0.1572749 0.9744803 0.1572749 0.0255197 -0.1572749
1479166 0.0244649 -0.1540557 0.9755351 0.1540557 0.9755351 0.1540557 0.0244649 -0.1540557
1511688 0.0234528 -0.1508954 0.9765472 0.1508954 0.9765472 0.1508954 0.0234528 -0.1508954
1544926 0.0224819 -0.1477935 0.9775181 0.1477935 0.9775181 0.1477935 0.0224819 -0.1477935
1578894 0.0215504 -0.1447493 0.9784496 0.1447493 0.9784496 0.1447493 0.0215504 -0.1447493
1613609 0.0206570 -0.1417621 0.9793430 0.1417621 0.9793430 0.1417621 0.0206570 -0.1417621
1649087 0.0198000 -0.1388311 0.9802000 0.1388311 0.9802000 0.1388311 0.0198000 -0.1388311
1685346 0.0189781 -0.1359557 0.9810219 0.1359557 0.9810219 0.1359557 0.0189781 -0.1359557
1722402 0.0181900 -0.1331350 0.9818100 0.1331350 0.9818100 0.1331350 0.0181900 -0.1331350
1760272 0.0174341 -0.1303683 0.9825659 0.1303683 0.9825659 0.1303683 0.0174341 -0.1303683
1798975 0.0167094 -0.1276550 0.9832906 0.1276550 0.9832906 0.1276550 0.0167094 -0.1276550
1838529 0.0160145 -0.1249941 0.9839855 0.1249941 0.9839855 0.1249941 0.0160145 -0.1249941
1878953 0.0153483 -0.1223849 0.9846517 0.1223849 0.9846517 0.1223849 0.0153483 -0.1223849
1920266 0.0147096 -0.1198267 0.9852904 0.1198267 0.9852904 0.1198267 0.0147096 -0.1198267
1962487 0.0140973 -0.1173186 0.9859027 0.1173186 0.9859027 0.1173186 0.0140973 -0.1173186
2005636 0.0135103 -0.1148599 0.9864897 0.1148599 0.9864897 0.1148599 0.0135103 -0.1148599
2049734 0.0129477 -0.1124498 0.9870523 0.1124498 0.9870523 0.1124498 0.0129477 -0.1124498
2094801 0.0124084 -0.1100875 0.9875916 0.1100875 0.9875916 0.1100875 0.0124084 -0.1100875
2140860 0.0118915 -0.1077722 0.9881085 0.1077722 0.9881085 0.1077722 0.0118915 -0.1077722
2187931 0.0113962 -0.1055032 0.9886038 0.1055032 0.9886038 0.1055032 0.0113962 -0.1055032
2236037 0.0109214 -0.1032795 0.9890786 0.1032795 0.9890786 0.1032795 0.0109214 -0.1032795
2285201 0.0104664 -0.1011006 0.9895336 0.1011006 0.9895336 0.1011006 0.0104664 -0.1011006
2335446 0.0100304 -0.0989655 0.9899696 0.0989655 0.9899696 0.0989655 0.0100304 -0.0989655
2386795 0.0096126 -0.0968736 0.9903874 0.0968736 0.9903874 0.0968736 0.0096126 -0.0968736
2439274 0.0092123 -0.0948241 0.9907877 0.0948241 0.9907877 0.0948241 0.0092123 -0.0948241
2492906 0.0088287 -0.0928162 0.9911713 0.0928162 0.9911713 0.0928162 0.0088287 -0.0928162
2547717 0.0084612 -0.0908491 0.9915388 0.0908491 0.9915388 0.0908491 0.0084612 -0.0908491
2603734 0.0081090 -0.0889222 0.9918910 0.0889222 0.9918910 0.0889222 0.0081090 -0.0889222
2660982 0.0077716 -0.0870346 0.9922284 0.0870346 0.9922284 0.0870346 0.0077716 -0.0870346
2719490 0.0074484 -0.0851858 0.9925516 0.0851858 0.9925516 0.0851858 0.0074484 -0.0851858
2779283 0.0071387 -0.0833749 0.9928613 0.0833749 0.9928613 0.0833749 0.0071387 -0.0833749
2840391 0.0068420 -0.0816012 0.9931580 0.0816012 0.9931580 0.0816012 0.0068420 -0.0816012
2902843 0.0065578 -0.0798640 0.9934422 0.0798640 0.9934422 0.0798640 0.0065578 -0.0798640
2966668 0.0062856 -0.0781627 0.9937144 0.0781627 0.9937144 0.0781627 0.0062856 -0.0781627
3031896 0.0060248 -0.0764966 0.9939752 0.0764966 0.9939752 0.0764966 0.0060248 -0.0764966
3098558 0.0057750 -0.0748649 0.9942250 0.0748649 0.9942250 0.0748649 0.0057750 -0.0748649
3166686 0.0055356 -0.0732670 0.9944644 0.0732670 0.9944644 0.0732670 0.0055356 -0.0732670
3236312 0.0053064 -0.0717024 0.9946936 0.0717024 0.9946936 0.0717024 0.0053064 -0.0717024
3307469 0.0050869 -0.0701702 0.9949131 0.0701702 0.9949131 0.0701702 0.0050869 -0.0701702
3380190 0.0048766 -0.0686699 0.9951234 0.0686699 0.9951234 0.0686699 0.0048766 -0.0686699
3454511 0.0046752 -0.0672008 0.9953248 0.0672008 0.9953248 0.0672008 0.0046752 -0.0672008
3530465 0.0044822 -0.0657624 0.9955178 0.0657624 0.9955178 0.0657624 0.0044822 -0.0657624
3608090 0.0042975 -0.0643540 0.9957025 0.0643540 0.9957025 0.0643540 0.0042975 -0.0643540
3687421 0.0041205 -0.0629751 0.9958795 0.0629751 0.9958795 0.0629751 0.0041205 -0.0629751
3768496 0.0039510 -0.0616250 0.9960490 0.0616250 0.9960490 0.0616250 0.0039510 -0.0616250
3851354 0.0037887 -0.0603031 0.9962113 0.0603031 0.9962113 0.0603031 0.0037887 -0.0603031
3936034 0.0036333 -0.0590089 0.9963667 0.0590089 0.9963667 0.0590089 0.0036333 -0.0590089
4022575 0.0034844 -0.0577419 0.9965156 0.0577419 0.9965156 0.0577419 0.0034844 -0.0577419
4111020 0.0033418 -0.0565014 0.9966582 0.0565014 0.9966582 0.0565014 0.0033418 -0.0565014
4201409 0.0032053 -0.0552870 0.9967947 0.0552870 0.9967947 0.0552870 0.0032053 -0.0552870
4293785 0.0030746 -0.0540981 0.9969254 0.0540981 0.9969254 0.0540981 0.0030746 -0.0540981
4388193 0.0029494 -0.0529342 0.9970506 0.0529342 0.9970506 0.0529342 0.0029494 -0.0529342
4484676 0.0028295 -0.0517947 0.9971705 0.0517947 0.9971705 0.0517947 0.0028295 -0.0517947
4583281 0.0027147 -0.0506793 0.9972853 0.0506793 0.9972853 0.0506793 0.0027147 -0.0506793
4684054 0.0026048 -0.0495873 0.9973952 0.0495873 0.9973952 0.0495873 0.0026048 -0.0495873
4787042 0.0024995 -0.0485182 0.9975005 0.0485182 0.9975005 0.0485182 0.0024995 -0.0485182
4892295 0.0023987 -0.0474717 0.9976013 0.0474717 0.9976013 0.0474717 0.0023987 -0.0474717
4999862 0.0023022 -0.0464473 0.9976978 0.0464473 0.9976978 0.0464473 0.0023022 -0.0464473
5109794 0.0022098 -0.0454444 0.9977902 0.0454444 0.9977902 0.0454444 0.0022098 -0.0454444
5222143 0.0021213 -0.0444627 0.9978787 0.0444627 0.9978787 0.0444627 0.0021213 -0.0444627
5336962 0.0020366 -0.0435017 0.9979634 0.0435017 0.9979634 0.0435017 0.0020366 -0.0435017
5454306 0.0019555 -0.0425609 0.9980445 0.0425609 0.9980445 0.0425609 0.0019555 -0.0425609
5574230 0.0018779 -0.0416400 0.9981221 0.0416400 0.9981221 0.0416400 0.0018779 -0.0416400
5696791 0.0018036 -0.0407385 0.9981964 0.0407385 0.9981964 0.0407385 0.0018036 -0.0407385
5822046 0.0017324 -0.0398561 0.9982676 0.0398561 0.9982676 0.0398561 0.0017324 -0.0398561
5950055 0.0016643 -0.0389922 0.9983357 0.0389922 0.9983357 0.0389922 0.0016643 -0.0389922
6080879 0.0015991 -0.0381465 0.9984009 0.0381465 0.9984009 0.0381465 0.0015991 -0.0381465
6214580 0.0015366 -0.0373187 0.9984634 0.0373187 0.9984634 0.0373187 0.0015366 -0.0373187
6351220 0.0014769 -0.0365084 0.9985231 0.0365084 0.9985231 0.0365084 0.0014769 -0.0365084
6490864 0.0014197 -0.0357151 0.9985803 0.0357151 0.9985803 0.0357151 0.0014197 -0.0357151
6633579 0.0013649 -0.0349385 0.9986351 0.0349385 0.9986351 0.0349385 0.0013649 -0.0349385
6779431 0.0013125 -0.0341784 0.9986875 0.0341784 0.9986875 0.0341784 0.0013125 -0.0341784
6928491 0.0012623 -0.0334342 0.9987377 0.0334342 0.9987377 0.0334342 0.0012623 -0.0334342
7080828 0.0012143 -0.0327057 0.9987857 0.0327057 0.9987857 0.0327057 0.0012143 -0.0327057
7236514 0.0011684 -0.0319926 0.9988316 0.0319926 0.9988316 0.0319926 0.0011684 -0.0319926
7395623 0.0011244 -0.0312944 0.9988756 0.0312944 0.9988756 0.0312944 0.0011244 -0.0312944
7558231 0.0010823 -0.0306110 0.9989177 0.0306110 0.9989177 0.0306110 0.0010823 -0.0306110
7724414 0.0010421 -0.0299419 0.9989579 0.0299419 0.9989579 0.0299419 0.0010421 -0.0299419
7894251 0.0010036 -0.0292869 0.9989964 0.0292869 0.9989964 0.0292869 0.0010036 -0.0292869
8067822 0.0009667 -0.0286457 0.9990333 0.0286457 0.9990333 0.0286457 0.0009667 -0.0286457
8245209 0.0009314 -0.0280179 0.9990686 0.0280179 0.9990686 0.0280179 0.0009314 -0.0280179
8426497 0.0008977 -0.0274033 0.9991023 0.0274033 0.9991023 0.0274033 0.0008977 -0.0274033
8611770 0.0008654 -0.0268016 0.9991346 0.0268016 0.9991346 0.0268016 0.0008654 -0.0268016
8801117 0.0008346 -0.0262125 0.9991654 0.0262125 0.9991654 0.0262125 0.0008346 -0.0262125
8994628 0.0008051 -0.0256358 0.9991949 0.0256358 0.9991949 0.0256358 0.0008051 -0.0256358
9192393 0.0007768 -0.0250711 0.9992232 0.0250711 0.9992232 0.0250711 0.0007768 -0.0250711
9394506 0.0007498 -0.0245182 0.9992502 0.0245182 0.9992502 0.0245182 0.0007498 -0.0245182
9601063 0.0007240 -0.0239769 0.9992760 0.0239769 0.9992760 0.0239769 0.0007240 -0.0239769
9812162 0.0006993 -0.0234469 0.9993007 0.0234469 0.9993007 0.0234469 0.0006993 -0.0234469
10027902 0.0006758 -0.0229279 0.9993242 0.0229279 0.9993242 0.0229279 0.0006758 -0.0229279
10248386 0.0006532 -0.0224198 0.9993468 0.0224198 0.9993468 0.0224198 0.0006532 -0.0224198
10473717 0.0006317 -0.0219222 0.9993683 0.0219222 0.9993683 0.0219222 0.0006317 -0.0219222
10704003 0.0006111 -0.0214349 0.9993889 0.0214349 0.9993889 0.0214349 0.0006111 -0.0214349
10939352 0.0005914 -0.0209578 0.9994086 0.0209578 0.9994086 0.0209578 0.0005914 -0.0209578
11179876 0.0005726 -0.0204906 0.9994274 0.0204906 0.9994274 0.0204906 0.0005726 -0.0204906
11425688 0.0005547 -0.0200330 0.9994453 0.0200330 0.9994453 0.0200330 0.0005547 -0.0200330
11676904 0.0005376 -0.0195849 0.9994624 0.0195849 0.9994624 0.0195849 0.0005376 -0.0195849
11933645 0.0005212 -0.0191461 0.9994788 0.0191461 0.9994788 0.0191461 0.0005212 -0.0191461
12196030 0.0005056 -0.0187163 0.9994944 0.0187163 0.9994944 0.0187163 0.0005056 -0.0187163
12464184 0.0004907 -0.0182954 0.9995093 0.0182954 0.9995093 0.0182954 0.0004907 -0.0182954
12738235 0.0004765 -0.0178831 0.9995235 0.0178831 0.9995235 0.0178831 0.0004765 -0.0178831
13018310 0.0004630 -0.0174792 0.9995370 0.0174792 0.9995370 0.0174792 0.0004630 -0.0174792
13304544 0.0004501 -0.0170837 0.9995499 0.0170837 0.9995499 0.0170837 0.0004501 -0.0170837
13597071 0.0004378 -0.0166962 0.9995622 0.0166962 0.9995622 0.0166962 0.0004378 -0.0166962
13896030 0.0004260 -0.0163166 0.9995740 0.0163166 0.9995740 0.0163166 0.0004260 -0.0163166
14201563 0.0004148 -0.0159448 0.9995852 0.0159448 0.9995852 0.0159448 0.0004148 -0.0159448
14513813 0.0004042 -0.0155805 0.9995958 0.0155805 0.9995958 0.0155805 0.0004042 -0.0155805
14832928 0.0003941 -0.0152235 0.9996059 0.0152235 0.9996059 0.0152235 0.0003941 -0.0152235
15159060 0.0003844 -0.0148738 0.9996156 0.0148738 0.9996156 0.0148738 0.0003844 -0.0148738
15492362 0.0003753 -0.0145312 0.9996247 0.0145312 0.9996247 0.0145312 0.0003753 -0.0145312
15832993 0.0003666 -0.0141954 0.9996334 0.0141954 0.9996334 0.0141954 0.0003666 -0.0141954
16181113 0.0003583 -0.0138664 0.9996417 0.0138664 0.9996417 0.0138664 0.0003583 -0.0138664
16536888 0.0003504 -0.0135440 0.9996496 0.0135440 0.9996496 0.0135440 0.0003504 -0.0135440
16900485 0.0003430 -0.0132280 0.9996570 0.0132280 0.9996570 0.0132280 0.0003430 -0.0132280
17272076 0.0003359 -0.0129182 0.9996641 0.0129182 0.9996641 0.0129182 0.0003359 -0.0129182
17651837 0.0003292 -0.0126146 0.9996708 0.0126146 0.9996708 0.0126146 0.0003292 -0.0126146
18039948 0.0003229 -0.0123170 0.9996771 0.0123170 0.9996771 0.0123170 0.0003229 -0.0123170
18436593 0.0003169 -0.0120253 0.9996831 0.0120253 0.9996831 0.0120253 0.0003169 -0.0120253
18841959 0.0003112 -0.0117393 0.9996888 0.0117393 0.9996888 0.0117393 0.0003112 -0.0117393
19256237 0.0003058 -0.0114588 0.9996942 0.0114588 0.9996942 0.0114588 0.0003058 -0.0114588
19679624 0.0003007 -0.0111838 0.9996993 0.0111838 0.9996993 0.0111838 0.0003007 -0.0111838
20112321 0.0002959 -0.0109142 0.9997041 0.0109142 0.9997041 0.0109142 0.0002959 -0.0109142
20554530 0.0002914 -0.0106497 0.9997086 0.0106497 0.9997086 0.0106497 0.0002914 -0.0106497
21006463 0.0002872 -0.0103903 0.9997128 0.0103903 0.9997128 0.0103903 0.0002872 -0.0103903
21468333 0.0002832 -0.0101359 0.9997168 0.0101359 0.9997168 0.0101359 0.0002832 -0.0101359
21940357 0.0002795 -0.0098862 0.9997205 0.0098862 0.9997205 0.0098862 0.0002795 -0.0098862
22422760 0.0002760 -0.0096413 0.9997240 0.0096413 0.9997240 0.0096413 0.0002760 -0.0096413
22915770 0.0002727 -0.0094011 0.9997273 0.0094011 0.9997273 0.0094011 0.0002727 -0.0094011
23419619 0.0002696 -0.0091652 0.9997304 0.0091652 0.9997304 0.0091652 0.0002696 -0.0091652
23934547 0.0002667 -0.0089338 0.9997333 0.0089338 0.9997333 0.0089338 0.0002667 -0.0089338
24460796 0.0002641 -0.0087066 0.9997359 0.0087066 0.9997359 0.0087066 0.0002641 -0.0087066
24998616 0.0002616 -0.0084836 0.9997384 0.0084836 0.9997384 0.0084836 0.0002616 -0.0084836
25548261 0.0002593 -0.0082647 0.9997407 0.0082647 0.9997407 0.0082647 0.0002593 -0.0082647
26109991 0.0002572 -0.0080497 0.9997428 0.0080497 0.9997428 0.0080497 0.0002572 -0.0080497
26684072 0.0002553 -0.0078385 0.9997447 0.0078385 0.9997447 0.0078385 0.0002553 -0.0078385
27270775 0.0002535 -0.0076311 0.9997465 0.0076311 0.9997465 0.0076311 0.0002535 -0.0076311
27870378 0.0002518 -0.0074273 0.9997482 0.0074273 0.9997482 0.0074273 0.0002518 -0.0074273
28483164 0.0002504 -0.0072271 0.9997496 0.0072271 0.9997496 0.0072271 0.0002504 -0.0072271
29109424 0.0002490 -0.0070304 0.9997510 0.0070304 0.9997510 0.0070304 0.0002490 -0.0070304
29749453 0.0002478 -0.0068370 0.9997522 0.0068370 0.9997522 0.0068370 0.0002478 -0.0068370
30403555 0.0002468 -0.0066469 0.9997532 0.0066469 0.9997532 0.0066469 0.0002468 -0.0066469
31072038 0.0002458 -0.0064600 0.9997542 0.0064600 0.9997542 0.0064600 0.0002458 -0.0064600
31755220 0.0002450 -0.0062762 0.9997550 0.0062762 0.9997550 0.0062762 0.0002450 -0.0062762
32453422 0.0002443 -0.0060953 0.9997557 0.0060953 0.9997557 0.0060953 0.0002443 -0.0060953
33166976 0.0002437 -0.0059174 0.9997563 0.0059174 0.9997563 0.0059174 0.0002437 -0.0059174
33896219 0.0002432 -0.0057424 0.9997568 0.0057424 0.9997568 0.0057424 0.0002432 -0.0057424
34641496 0.0002429 -0.0055700 0.9997571 0.0055700 0.9997571 0.0055700 0.0002429 -0.0055700
35403159 0.0002426 -0.0054004 0.9997574 0.0054004 0.9997574 0.0054004 0.0002426 -0.0054004
36181569 0.0002424 -0.0052333 0.9997576 0.0052333 0.9997576 0.0052333 0.0002424 -0.0052333
36977093 0.0002424 -0.0050687 0.9997576 0.0050687 0.9997576 0.0050687 0.0002424 -0.0050687
37790109 0.0002424 -0.0049066 0.9997576 0.0049066 0.9997576 0.0049066 0.0002424 -0.0049066
38621001 0.0002425 -0.0047468 0.9997575 0.0047468 0.9997575 0.0047468 0.0002425 -0.0047468
39470161 0.0002427 -0.0045893 0.9997573 0.0045893 0.9997573 0.0045893 0.0002427 -0.0045893
40337993 0.0002431 -0.0044340 0.9997569 0.0044340 0.9997569 0.0044340 0.0002431 -0.0044340
41224905 0.0002434 -0.0042808 0.9997566 0.0042808 0.9997566 0.0042808 0.0002434 -0.0042808
42131317 0.0002439 -0.0041296 0.9997561 0.0041296 0.9997561 0.0041296 0.0002439 -0.0041296
43057659 0.0002445 -0.0039804 0.9997555 0.0039804 0.9997555 0.0039804 0.0002445 -0.0039804
44004369 0.0002452 -0.0038331 0.9997548 0.0038331 0.9997548 0.0038331 0.0002452 -0.0038331
44971893 0.0002459 -0.0036876 0.9997541 0.0036876 0.9997541 0.0036876 0.0002459 -0.0036876
45960691 0.0002467 -0.0035439 0.9997533 0.0035439 0.9997533 0.0035439 0.0002467 -0.0035439
46971230 0.0002476 -0.0034019 0.9997524 0.0034019 0.9997524 0.0034019 0.0002476 -0.0034019
48003987 0.0002486 -0.0032615 0.9997514 0.0032615 0.9997514 0.0032615 0.0002486 -0.0032615
49059451 0.0002497 -0.0031226 0.9997503 0.0031226 0.9997503 0.0031226 0.0002497 -0.0031226
50138122 0.0002509 -0.0029852 0.9997491 0.0029852 0.9997491 0.0029852 0.0002509 -0.0029852
51240510 0.0002521 -0.0028492 0.9997479 0.0028492 0.9997479 0.0028492 0.0002521 -0.0028492
52367136 0.0002535 -0.0027146 0.9997465 0.0027146 0.9997465 0.0027146 0.0002535 -0.0027146
53518533 0.0002550 -0.0025812 0.9997450 0.0025812 0.9997450 0.0025812 0.0002550 -0.0025812
54695245 0.0002565 -0.0024491 0.9997435 0.0024491 0.9997435 0.0024491 0.0002565 -0.0024491
55897831 0.0002581 -0.0023180 0.9997419 0.0023180 0.9997419 0.0023180 0.0002581 -0.0023180
57126857 0.0002599 -0.0021881 0.9997401 0.0021881 0.9997401 0.0021881 0.0002599 -0.0021881
58382906 0.0002617 -0.0020592 0.9997383 0.0020592 0.9997383 0.0020592 0.0002617 -0.0020592
59666572 0.0002637 -0.0019312 0.9997363 0.0019312 0.9997363 0.0019312 0.0002637 -0.0019312
60978462 0.0002658 -0.0018041 0.9997342 0.0018041 0.9997342 0.0018041 0.0002658 -0.0018041
62319196 0.0002680 -0.0016778 0.9997320 0.0016778 0.9997320 0.0016778 0.0002680 -0.0016778
63689409 0.0002703 -0.0015522 0.9997297 0.0015522 0.9997297 0.0015522 0.0002703 -0.0015522
65089750 0.0002727 -0.0014274 0.9997273 0.0014274 0.9997273 0.0014274 0.0002727 -0.0014274
66520879 0.0002753 -0.0013031 0.9997247 0.0013031 0.9997247 0.0013031 0.0002753 -0.0013031
67983474 0.0002780 -0.0011795 0.9997220 0.0011795 0.9997220 0.0011795 0.0002780 -0.0011795
69478228 0.0002809 -0.0010563 0.9997191 0.0010563 0.9997191 0.0010563 0.0002809 -0.0010563
71005847 0.0002839 -0.0009335 0.9997161 0.0009335 0.9997161 0.0009335 0.0002839 -0.0009335
72567054 0.0002871 -0.0008111 0.9997129 0.0008111 0.9997129 0.0008111 0.0002871 -0.0008111
74162587 0.0002905 -0.0006889 0.9997095 0.0006889 0.9997095 0.0006889 0.0002905 -0.0006889
75793201 0.0002941 -0.0005670 0.9997059 0.0005670 0.9997059 0.0005670 0.0002941 -0.0005670
77459667 0.0002978 -0.0004453 0.9997022 0.0004453 0.9997022 0.0004453 0.0002978 -0.0004453
79162774 0.0003018 -0.0003236 0.9996982 0.0003236 0.9996982 0.0003236 0.0003018 -0.0003236
80903327 0.0003060 -0.0002019 0.9996940 0.0002019 0.9996940 0.0002019 0.0003060 -0.0002019
82682150 0.0003104 -0.0000802 0.9996896 0.0000802 0.9996896 0.0000802 0.0003104 -0.0000802
84500083 0.0003151 0.0000417 0.9996849 -0.0000417 0.9996849 -0.0000417 0.0003151 0.0000417
86357988 0.0003201 0.0001638 0.9996799 -0.0001638 0.9996799 -0.0001638 0.0003201 0.0001638
88256743 0.0003254 0.0002861 0.9996746 -0.0002861 0.9996746 -0.0002861 0.0003254 0.0002861
90197245 0.0003310 0.0004088 0.9996690 -0.0004088 0.9996690 -0.0004088 0.0003310 0.0004088
92180413 0.0003370 0.0005320 0.9996630 -0.0005320 0.9996630 -0.0005320 0.0003370 0.0005320
94207185 0.0003434 0.0006557 0.9996566 -0.0006557 0.9996566 -0.0006557 0.0003434 0.0006557
96278520 0.0003502 0.0007800 0.9996498 -0.0007800 0.9996498 -0.0007800 0.0003502 0.0007800
98395398 0.0003574 0.0009050 0.9996426 -0.0009050 0.9996426 -0.0009050 0.0003574 0.0009050
100558819 0.0003652 0.0010308 0.9996348 -0.0010308 0.9996348 -0.0010308 0.0003652 0.0010308
102769807 0.0003735 0.0011575 0.9996265 -0.0011575 0.9996265 -0.0011575 0.0003735 0.0011575
105029408 0.0003824 0.0012853 0.9996176 -0.0012853 0.9996176 -0.0012853 0.0003824 0.0012853
107338692 0.0003920 0.0014141 0.9996080 -0.0014141 0.9996080 -0.0014141 0.0003920 0.0014141
