!Murata Part Number: GRM1882C2A5R2CA01
!These Parameters are Measured in Series Mode Connection
!Data Generated on Mar 30, 2021
!       o--ll--o
!Port1            Port2
!       o------o
!Operation Temp=25[degC], DC Bias Voltage=0[V]
!Freq. Start=100[MHz] Stop=9[GHz] 401[Steps]
# Hz S RI R 50
!Freq.(Hz) S11(Real) S11(Imag) S21(Real) S21(Imag) S12(Real) S12(Imag) S22(Real) S22(Imag)
100000000 0.9032628 -0.2953839 0.0967372 0.2953839 0.0967372 0.2953839 0.9032628 -0.2953839
121000000 0.8643449 -0.3421548 0.1356551 0.3421548 0.1356551 0.3421548 0.8643449 -0.3421548
142000000 0.8221085 -0.3820995 0.1778915 0.3820995 0.1778915 0.3820995 0.8221085 -0.3820995
163000000 0.7779234 -0.4152622 0.2220766 0.4152622 0.2220766 0.4152622 0.7779234 -0.4152622
184000000 0.7329869 -0.4419570 0.2670131 0.4419570 0.2670131 0.4419570 0.7329869 -0.4419570
205000000 0.6882871 -0.4626850 0.3117129 0.4626850 0.3117129 0.4626850 0.6882871 -0.4626850
226000000 0.6445952 -0.4780574 0.3554048 0.4780574 0.3554048 0.4780574 0.6445952 -0.4780574
247000000 0.6024788 -0.4887329 0.3975212 0.4887329 0.3975212 0.4887329 0.6024788 -0.4887329
268000000 0.5623266 -0.4953694 0.4376734 0.4953694 0.4376734 0.4953694 0.5623266 -0.4953694
289000000 0.5243790 -0.4985924 0.4756210 0.4985924 0.4756210 0.4985924 0.5243790 -0.4985924
310000000 0.4887590 -0.4989746 0.5112410 0.4989746 0.5112410 0.4989746 0.4887590 -0.4989746
331000000 0.4555000 -0.4970271 0.5445000 0.4970271 0.5445000 0.4970271 0.4555000 -0.4970271
352000000 0.4245704 -0.4931956 0.5754296 0.4931956 0.5754296 0.4931956 0.4245704 -0.4931956
373000000 0.3958933 -0.4878630 0.6041067 0.4878630 0.6041067 0.4878630 0.3958933 -0.4878630
394000000 0.3693623 -0.4813536 0.6306377 0.4813536 0.6306377 0.4813536 0.3693623 -0.4813536
415000000 0.3448533 -0.4739389 0.6551467 0.4739389 0.6551467 0.4739389 0.3448533 -0.4739389
436000000 0.3222333 -0.4658446 0.6777667 0.4658446 0.6777667 0.4658446 0.3222333 -0.4658446
457000000 0.3013669 -0.4572561 0.6986331 0.4572561 0.6986331 0.4572561 0.3013669 -0.4572561
478000000 0.2821205 -0.4483251 0.7178795 0.4483251 0.7178795 0.4483251 0.2821205 -0.4483251
499000000 0.2643655 -0.4391747 0.7356345 0.4391747 0.7356345 0.4391747 0.2643655 -0.4391747
520000000 0.2479795 -0.4299042 0.7520205 0.4299042 0.7520205 0.4299042 0.2479795 -0.4299042
541000000 0.2328483 -0.4205929 0.7671517 0.4205929 0.7671517 0.4205929 0.2328483 -0.4205929
562000000 0.2188655 -0.4113038 0.7811345 0.4113038 0.7811345 0.4113038 0.2188655 -0.4113038
583000000 0.2059329 -0.4020865 0.7940671 0.4020865 0.7940671 0.4020865 0.2059329 -0.4020865
604000000 0.1939606 -0.3929794 0.8060394 0.3929794 0.8060394 0.3929794 0.1939606 -0.3929794
625000000 0.1828661 -0.3840121 0.8171339 0.3840121 0.8171339 0.3840121 0.1828661 -0.3840121
646000000 0.1725744 -0.3752068 0.8274256 0.3752068 0.8274256 0.3752068 0.1725744 -0.3752068
667000000 0.1630169 -0.3665798 0.8369831 0.3665798 0.8369831 0.3665798 0.1630169 -0.3665798
688000000 0.1541315 -0.3581425 0.8458685 0.3581425 0.8458685 0.3581425 0.1541315 -0.3581425
709000000 0.1458617 -0.3499026 0.8541383 0.3499026 0.8541383 0.3499026 0.1458617 -0.3499026
730000000 0.1381563 -0.3418646 0.8618437 0.3418646 0.8618437 0.3418646 0.1381563 -0.3418646
751000000 0.1309687 -0.3340307 0.8690313 0.3340307 0.8690313 0.3340307 0.1309687 -0.3340307
772000000 0.1242567 -0.3264008 0.8757433 0.3264008 0.8757433 0.3264008 0.1242567 -0.3264008
793000000 0.1179819 -0.3189738 0.8820181 0.3189738 0.8820181 0.3189738 0.1179819 -0.3189738
814000000 0.1121096 -0.3117469 0.8878904 0.3117469 0.8878904 0.3117469 0.1121096 -0.3117469
835000000 0.1066080 -0.3047167 0.8933920 0.3047167 0.8933920 0.3047167 0.1066080 -0.3047167
856000000 0.1014484 -0.2978790 0.8985516 0.2978790 0.8985516 0.2978790 0.1014484 -0.2978790
877000000 0.0966046 -0.2912291 0.9033954 0.2912291 0.9033954 0.2912291 0.0966046 -0.2912291
898000000 0.0920527 -0.2847620 0.9079473 0.2847620 0.9079473 0.2847620 0.0920527 -0.2847620
919000000 0.0877709 -0.2784722 0.9122291 0.2784722 0.9122291 0.2784722 0.0877709 -0.2784722
940000000 0.0837393 -0.2723545 0.9162607 0.2723545 0.9162607 0.2723545 0.0837393 -0.2723545
961000000 0.0799399 -0.2664032 0.9200601 0.2664032 0.9200601 0.2664032 0.0799399 -0.2664032
982000000 0.0763560 -0.2606128 0.9236440 0.2606128 0.9236440 0.2606128 0.0763560 -0.2606128
1003000000 0.0729724 -0.2549779 0.9270276 0.2549779 0.9270276 0.2549779 0.0729724 -0.2549779
1024000000 0.0697752 -0.2494929 0.9302248 0.2494929 0.9302248 0.2494929 0.0697752 -0.2494929
1045000000 0.0667517 -0.2441525 0.9332483 0.2441525 0.9332483 0.2441525 0.0667517 -0.2441525
1066000000 0.0638900 -0.2389516 0.9361100 0.2389516 0.9361100 0.2389516 0.0638900 -0.2389516
1087000000 0.0611794 -0.2338850 0.9388206 0.2338850 0.9388206 0.2338850 0.0611794 -0.2338850
1108000000 0.0586101 -0.2289478 0.9413899 0.2289478 0.9413899 0.2289478 0.0586101 -0.2289478
1129000000 0.0561728 -0.2241352 0.9438272 0.2241352 0.9438272 0.2241352 0.0561728 -0.2241352
1150000000 0.0538591 -0.2194425 0.9461409 0.2194425 0.9461409 0.2194425 0.0538591 -0.2194425
1171000000 0.0516612 -0.2148654 0.9483388 0.2148654 0.9483388 0.2148654 0.0516612 -0.2148654
1192000000 0.0495720 -0.2103994 0.9504280 0.2103994 0.9504280 0.2103994 0.0495720 -0.2103994
1213000000 0.0475849 -0.2060406 0.9524151 0.2060406 0.9524151 0.2060406 0.0475849 -0.2060406
1234000000 0.0456935 -0.2017848 0.9543065 0.2017848 0.9543065 0.2017848 0.0456935 -0.2017848
1255000000 0.0438923 -0.1976283 0.9561077 0.1976283 0.9561077 0.1976283 0.0438923 -0.1976283
1276000000 0.0421759 -0.1935673 0.9578241 0.1935673 0.9578241 0.1935673 0.0421759 -0.1935673
1297000000 0.0405395 -0.1895984 0.9594605 0.1895984 0.9594605 0.1895984 0.0405395 -0.1895984
1318000000 0.0389785 -0.1857181 0.9610215 0.1857181 0.9610215 0.1857181 0.0389785 -0.1857181
1339000000 0.0374885 -0.1819233 0.9625115 0.1819233 0.9625115 0.1819233 0.0374885 -0.1819233
1360000000 0.0360658 -0.1782108 0.9639342 0.1782108 0.9639342 0.1782108 0.0360658 -0.1782108
1381000000 0.0347065 -0.1745776 0.9652935 0.1745776 0.9652935 0.1745776 0.0347065 -0.1745776
1402000000 0.0334073 -0.1710208 0.9665927 0.1710208 0.9665927 0.1710208 0.0334073 -0.1710208
1423000000 0.0321650 -0.1675378 0.9678350 0.1675378 0.9678350 0.1675378 0.0321650 -0.1675378
1444000000 0.0309765 -0.1641258 0.9690235 0.1641258 0.9690235 0.1641258 0.0309765 -0.1641258
1465000000 0.0298390 -0.1607824 0.9701610 0.1607824 0.9701610 0.1607824 0.0298390 -0.1607824
1486000000 0.0287500 -0.1575052 0.9712500 0.1575052 0.9712500 0.1575052 0.0287500 -0.1575052
1507000000 0.0277070 -0.1542918 0.9722930 0.1542918 0.9722930 0.1542918 0.0277070 -0.1542918
1528000000 0.0267076 -0.1511401 0.9732924 0.1511401 0.9732924 0.1511401 0.0267076 -0.1511401
1549000000 0.0257498 -0.1480478 0.9742502 0.1480478 0.9742502 0.1480478 0.0257498 -0.1480478
1570000000 0.0248315 -0.1450130 0.9751685 0.1450130 0.9751685 0.1450130 0.0248315 -0.1450130
1591000000 0.0239508 -0.1420337 0.9760492 0.1420337 0.9760492 0.1420337 0.0239508 -0.1420337
1612000000 0.0231060 -0.1391080 0.9768940 0.1391080 0.9768940 0.1391080 0.0231060 -0.1391080
1633000000 0.0222953 -0.1362341 0.9777047 0.1362341 0.9777047 0.1362341 0.0222953 -0.1362341
1654000000 0.0215172 -0.1334103 0.9784828 0.1334103 0.9784828 0.1334103 0.0215172 -0.1334103
1675000000 0.0207702 -0.1306350 0.9792298 0.1306350 0.9792298 0.1306350 0.0207702 -0.1306350
1696000000 0.0200528 -0.1279064 0.9799472 0.1279064 0.9799472 0.1279064 0.0200528 -0.1279064
1717000000 0.0193639 -0.1252232 0.9806361 0.1252232 0.9806361 0.1252232 0.0193639 -0.1252232
1738000000 0.0187021 -0.1225838 0.9812979 0.1225838 0.9812979 0.1225838 0.0187021 -0.1225838
1759000000 0.0180662 -0.1199869 0.9819338 0.1199869 0.9819338 0.1199869 0.0180662 -0.1199869
1780000000 0.0174552 -0.1174310 0.9825448 0.1174310 0.9825448 0.1174310 0.0174552 -0.1174310
1801000000 0.0168680 -0.1149148 0.9831320 0.1149148 0.9831320 0.1149148 0.0168680 -0.1149148
1822000000 0.0163036 -0.1124371 0.9836964 0.1124371 0.9836964 0.1124371 0.0163036 -0.1124371
1843000000 0.0157610 -0.1099967 0.9842390 0.1099967 0.9842390 0.1099967 0.0157610 -0.1099967
1864000000 0.0152395 -0.1075925 0.9847605 0.1075925 0.9847605 0.1075925 0.0152395 -0.1075925
1885000000 0.0147381 -0.1052232 0.9852619 0.1052232 0.9852619 0.1052232 0.0147381 -0.1052232
1906000000 0.0142561 -0.1028879 0.9857439 0.1028879 0.9857439 0.1028879 0.0142561 -0.1028879
1927000000 0.0137926 -0.1005854 0.9862074 0.1005854 0.9862074 0.1005854 0.0137926 -0.1005854
1948000000 0.0133471 -0.0983148 0.9866529 0.0983148 0.9866529 0.0983148 0.0133471 -0.0983148
1969000000 0.0129187 -0.0960752 0.9870813 0.0960752 0.9870813 0.0960752 0.0129187 -0.0960752
1990000000 0.0125069 -0.0938655 0.9874931 0.0938655 0.9874931 0.0938655 0.0125069 -0.0938655
2011000000 0.0121111 -0.0916849 0.9878889 0.0916849 0.9878889 0.0916849 0.0121111 -0.0916849
2032000000 0.0117306 -0.0895325 0.9882694 0.0895325 0.9882694 0.0895325 0.0117306 -0.0895325
2053000000 0.0113650 -0.0874075 0.9886350 0.0874075 0.9886350 0.0874075 0.0113650 -0.0874075
2074000000 0.0110136 -0.0853090 0.9889864 0.0853090 0.9889864 0.0853090 0.0110136 -0.0853090
2095000000 0.0106761 -0.0832364 0.9893239 0.0832364 0.9893239 0.0832364 0.0106761 -0.0832364
2116000000 0.0103519 -0.0811888 0.9896481 0.0811888 0.9896481 0.0811888 0.0103519 -0.0811888
2137000000 0.0100405 -0.0791655 0.9899595 0.0791655 0.9899595 0.0791655 0.0100405 -0.0791655
2158000000 0.0097416 -0.0771658 0.9902584 0.0771658 0.9902584 0.0771658 0.0097416 -0.0771658
2179000000 0.0094548 -0.0751891 0.9905452 0.0751891 0.9905452 0.0751891 0.0094548 -0.0751891
2200000000 0.0091795 -0.0732346 0.9908205 0.0732346 0.9908205 0.0732346 0.0091795 -0.0732346
2221000000 0.0089156 -0.0713018 0.9910844 0.0713018 0.9910844 0.0713018 0.0089156 -0.0713018
2242000000 0.0086626 -0.0693899 0.9913374 0.0693899 0.9913374 0.0693899 0.0086626 -0.0693899
2263000000 0.0084201 -0.0674986 0.9915799 0.0674986 0.9915799 0.0674986 0.0084201 -0.0674986
2284000000 0.0081879 -0.0656270 0.9918121 0.0656270 0.9918121 0.0656270 0.0081879 -0.0656270
2305000000 0.0079657 -0.0637748 0.9920343 0.0637748 0.9920343 0.0637748 0.0079657 -0.0637748
2326000000 0.0077531 -0.0619413 0.9922469 0.0619413 0.9922469 0.0619413 0.0077531 -0.0619413
2347000000 0.0075499 -0.0601260 0.9924501 0.0601260 0.9924501 0.0601260 0.0075499 -0.0601260
2368000000 0.0073558 -0.0583285 0.9926442 0.0583285 0.9926442 0.0583285 0.0073558 -0.0583285
2389000000 0.0071706 -0.0565482 0.9928294 0.0565482 0.9928294 0.0565482 0.0071706 -0.0565482
2410000000 0.0069939 -0.0547846 0.9930061 0.0547846 0.9930061 0.0547846 0.0069939 -0.0547846
2431000000 0.0068257 -0.0530373 0.9931743 0.0530373 0.9931743 0.0530373 0.0068257 -0.0530373
2452000000 0.0066656 -0.0513058 0.9933344 0.0513058 0.9933344 0.0513058 0.0066656 -0.0513058
2473000000 0.0065135 -0.0495897 0.9934865 0.0495897 0.9934865 0.0495897 0.0065135 -0.0495897
2494000000 0.0063691 -0.0478886 0.9936309 0.0478886 0.9936309 0.0478886 0.0063691 -0.0478886
2515000000 0.0062323 -0.0462021 0.9937677 0.0462021 0.9937677 0.0462021 0.0062323 -0.0462021
2536000000 0.0061028 -0.0445297 0.9938972 0.0445297 0.9938972 0.0445297 0.0061028 -0.0445297
2557000000 0.0059805 -0.0428710 0.9940195 0.0428710 0.9940195 0.0428710 0.0059805 -0.0428710
2578000000 0.0058653 -0.0412257 0.9941347 0.0412257 0.9941347 0.0412257 0.0058653 -0.0412257
2599000000 0.0057569 -0.0395935 0.9942431 0.0395935 0.9942431 0.0395935 0.0057569 -0.0395935
2620000000 0.0056552 -0.0379739 0.9943448 0.0379739 0.9943448 0.0379739 0.0056552 -0.0379739
2641000000 0.0055600 -0.0363666 0.9944400 0.0363666 0.9944400 0.0363666 0.0055600 -0.0363666
2662000000 0.0054713 -0.0347712 0.9945287 0.0347712 0.9945287 0.0347712 0.0054713 -0.0347712
2683000000 0.0053889 -0.0331875 0.9946111 0.0331875 0.9946111 0.0331875 0.0053889 -0.0331875
2704000000 0.0053126 -0.0316151 0.9946874 0.0316151 0.9946874 0.0316151 0.0053126 -0.0316151
2725000000 0.0052423 -0.0300537 0.9947577 0.0300537 0.9947577 0.0300537 0.0052423 -0.0300537
2746000000 0.0051780 -0.0285030 0.9948220 0.0285030 0.9948220 0.0285030 0.0051780 -0.0285030
2767000000 0.0051195 -0.0269626 0.9948805 0.0269626 0.9948805 0.0269626 0.0051195 -0.0269626
2788000000 0.0050666 -0.0254324 0.9949334 0.0254324 0.9949334 0.0254324 0.0050666 -0.0254324
2809000000 0.0050194 -0.0239119 0.9949806 0.0239119 0.9949806 0.0239119 0.0050194 -0.0239119
2830000000 0.0049777 -0.0224010 0.9950223 0.0224010 0.9950223 0.0224010 0.0049777 -0.0224010
2851000000 0.0049413 -0.0208993 0.9950587 0.0208993 0.9950587 0.0208993 0.0049413 -0.0208993
2872000000 0.0049103 -0.0194066 0.9950897 0.0194066 0.9950897 0.0194066 0.0049103 -0.0194066
2893000000 0.0048846 -0.0179226 0.9951154 0.0179226 0.9951154 0.0179226 0.0048846 -0.0179226
2914000000 0.0048639 -0.0164471 0.9951361 0.0164471 0.9951361 0.0164471 0.0048639 -0.0164471
2935000000 0.0048484 -0.0149798 0.9951516 0.0149798 0.9951516 0.0149798 0.0048484 -0.0149798
2956000000 0.0048379 -0.0135205 0.9951621 0.0135205 0.9951621 0.0135205 0.0048379 -0.0135205
2977000000 0.0048323 -0.0120689 0.9951677 0.0120689 0.9951677 0.0120689 0.0048323 -0.0120689
2998000000 0.0048316 -0.0106249 0.9951684 0.0106249 0.9951684 0.0106249 0.0048316 -0.0106249
3019000000 0.0048357 -0.0091881 0.9951643 0.0091881 0.9951643 0.0091881 0.0048357 -0.0091881
3040000000 0.0048446 -0.0077583 0.9951554 0.0077583 0.9951554 0.0077583 0.0048446 -0.0077583
3061000000 0.0048582 -0.0063354 0.9951418 0.0063354 0.9951418 0.0063354 0.0048582 -0.0063354
3082000000 0.0048765 -0.0049191 0.9951235 0.0049191 0.9951235 0.0049191 0.0048765 -0.0049191
3103000000 0.0048993 -0.0035092 0.9951007 0.0035092 0.9951007 0.0035092 0.0048993 -0.0035092
3124000000 0.0049268 -0.0021055 0.9950732 0.0021055 0.9950732 0.0021055 0.0049268 -0.0021055
3145000000 0.0049587 -0.0007077 0.9950413 0.0007077 0.9950413 0.0007077 0.0049587 -0.0007077
3166000000 0.0049952 0.0006842 0.9950048 -0.0006842 0.9950048 -0.0006842 0.0049952 0.0006842
3187000000 0.0050361 0.0020705 0.9949639 -0.0020705 0.9949639 -0.0020705 0.0050361 0.0020705
3208000000 0.0050814 0.0034515 0.9949186 -0.0034515 0.9949186 -0.0034515 0.0050814 0.0034515
3229000000 0.0051311 0.0048272 0.9948689 -0.0048272 0.9948689 -0.0048272 0.0051311 0.0048272
3250000000 0.0051852 0.0061980 0.9948148 -0.0061980 0.9948148 -0.0061980 0.0051852 0.0061980
3271000000 0.0052436 0.0075639 0.9947564 -0.0075639 0.9947564 -0.0075639 0.0052436 0.0075639
3292000000 0.0053063 0.0089251 0.9946937 -0.0089251 0.9946937 -0.0089251 0.0053063 0.0089251
3313000000 0.0053733 0.0102819 0.9946267 -0.0102819 0.9946267 -0.0102819 0.0053733 0.0102819
3334000000 0.0054446 0.0116344 0.9945554 -0.0116344 0.9945554 -0.0116344 0.0054446 0.0116344
3355000000 0.0055202 0.0129828 0.9944798 -0.0129828 0.9944798 -0.0129828 0.0055202 0.0129828
3376000000 0.0056000 0.0143272 0.9944000 -0.0143272 0.9944000 -0.0143272 0.0056000 0.0143272
3397000000 0.0056841 0.0156679 0.9943159 -0.0156679 0.9943159 -0.0156679 0.0056841 0.0156679
3418000000 0.0057724 0.0170050 0.9942276 -0.0170050 0.9942276 -0.0170050 0.0057724 0.0170050
3439000000 0.0058649 0.0183386 0.9941351 -0.0183386 0.9941351 -0.0183386 0.0058649 0.0183386
3460000000 0.0059616 0.0196690 0.9940384 -0.0196690 0.9940384 -0.0196690 0.0059616 0.0196690
3481000000 0.0060626 0.0209962 0.9939374 -0.0209962 0.9939374 -0.0209962 0.0060626 0.0209962
3502000000 0.0061678 0.0223205 0.9938322 -0.0223205 0.9938322 -0.0223205 0.0061678 0.0223205
3523000000 0.0062772 0.0236421 0.9937228 -0.0236421 0.9937228 -0.0236421 0.0062772 0.0236421
3544000000 0.0063909 0.0249610 0.9936091 -0.0249610 0.9936091 -0.0249610 0.0063909 0.0249610
3565000000 0.0065088 0.0262774 0.9934912 -0.0262774 0.9934912 -0.0262774 0.0065088 0.0262774
3586000000 0.0066310 0.0275915 0.9933690 -0.0275915 0.9933690 -0.0275915 0.0066310 0.0275915
3607000000 0.0067574 0.0289035 0.9932426 -0.0289035 0.9932426 -0.0289035 0.0067574 0.0289035
3628000000 0.0068882 0.0302134 0.9931118 -0.0302134 0.9931118 -0.0302134 0.0068882 0.0302134
3649000000 0.0070232 0.0315216 0.9929768 -0.0315216 0.9929768 -0.0315216 0.0070232 0.0315216
3670000000 0.0071626 0.0328280 0.9928374 -0.0328280 0.9928374 -0.0328280 0.0071626 0.0328280
3691000000 0.0073063 0.0341329 0.9926937 -0.0341329 0.9926937 -0.0341329 0.0073063 0.0341329
3712000000 0.0074544 0.0354364 0.9925456 -0.0354364 0.9925456 -0.0354364 0.0074544 0.0354364
3733000000 0.0076069 0.0367386 0.9923931 -0.0367386 0.9923931 -0.0367386 0.0076069 0.0367386
3754000000 0.0077639 0.0380398 0.9922361 -0.0380398 0.9922361 -0.0380398 0.0077639 0.0380398
3775000000 0.0079253 0.0393400 0.9920747 -0.0393400 0.9920747 -0.0393400 0.0079253 0.0393400
3796000000 0.0080912 0.0406394 0.9919088 -0.0406394 0.9919088 -0.0406394 0.0080912 0.0406394
3817000000 0.0082617 0.0419382 0.9917383 -0.0419382 0.9917383 -0.0419382 0.0082617 0.0419382
3838000000 0.0084367 0.0432365 0.9915633 -0.0432365 0.9915633 -0.0432365 0.0084367 0.0432365
3859000000 0.0086164 0.0445345 0.9913836 -0.0445345 0.9913836 -0.0445345 0.0086164 0.0445345
3880000000 0.0088007 0.0458322 0.9911993 -0.0458322 0.9911993 -0.0458322 0.0088007 0.0458322
3901000000 0.0089898 0.0471299 0.9910102 -0.0471299 0.9910102 -0.0471299 0.0089898 0.0471299
3922000000 0.0091836 0.0484278 0.9908164 -0.0484278 0.9908164 -0.0484278 0.0091836 0.0484278
3943000000 0.0093823 0.0497259 0.9906177 -0.0497259 0.9906177 -0.0497259 0.0093823 0.0497259
3964000000 0.0095858 0.0510244 0.9904142 -0.0510244 0.9904142 -0.0510244 0.0095858 0.0510244
3985000000 0.0097943 0.0523235 0.9902057 -0.0523235 0.9902057 -0.0523235 0.0097943 0.0523235
4006000000 0.0100078 0.0536233 0.9899922 -0.0536233 0.9899922 -0.0536233 0.0100078 0.0536233
4027000000 0.0102264 0.0549239 0.9897736 -0.0549239 0.9897736 -0.0549239 0.0102264 0.0549239
4048000000 0.0104502 0.0562256 0.9895498 -0.0562256 0.9895498 -0.0562256 0.0104502 0.0562256
4069000000 0.0106791 0.0575285 0.9893209 -0.0575285 0.9893209 -0.0575285 0.0106791 0.0575285
4090000000 0.0109134 0.0588327 0.9890866 -0.0588327 0.9890866 -0.0588327 0.0109134 0.0588327
4111000000 0.0111531 0.0601384 0.9888469 -0.0601384 0.9888469 -0.0601384 0.0111531 0.0601384
4132000000 0.0113983 0.0614457 0.9886017 -0.0614457 0.9886017 -0.0614457 0.0113983 0.0614457
4153000000 0.0116490 0.0627549 0.9883510 -0.0627549 0.9883510 -0.0627549 0.0116490 0.0627549
4174000000 0.0119054 0.0640661 0.9880946 -0.0640661 0.9880946 -0.0640661 0.0119054 0.0640661
4195000000 0.0121675 0.0653794 0.9878325 -0.0653794 0.9878325 -0.0653794 0.0121675 0.0653794
4216000000 0.0124355 0.0666950 0.9875645 -0.0666950 0.9875645 -0.0666950 0.0124355 0.0666950
4237000000 0.0127095 0.0680130 0.9872905 -0.0680130 0.9872905 -0.0680130 0.0127095 0.0680130
4258000000 0.0129896 0.0693337 0.9870104 -0.0693337 0.9870104 -0.0693337 0.0129896 0.0693337
4279000000 0.0132759 0.0706573 0.9867241 -0.0706573 0.9867241 -0.0706573 0.0132759 0.0706573
4300000000 0.0135685 0.0719838 0.9864315 -0.0719838 0.9864315 -0.0719838 0.0135685 0.0719838
4321000000 0.0138676 0.0733135 0.9861324 -0.0733135 0.9861324 -0.0733135 0.0138676 0.0733135
4342000000 0.0141732 0.0746466 0.9858268 -0.0746466 0.9858268 -0.0746466 0.0141732 0.0746466
4363000000 0.0144856 0.0759831 0.9855144 -0.0759831 0.9855144 -0.0759831 0.0144856 0.0759831
4384000000 0.0148049 0.0773234 0.9851951 -0.0773234 0.9851951 -0.0773234 0.0148049 0.0773234
4405000000 0.0151313 0.0786676 0.9848687 -0.0786676 0.9848687 -0.0786676 0.0151313 0.0786676
4426000000 0.0154648 0.0800159 0.9845352 -0.0800159 0.9845352 -0.0800159 0.0154648 0.0800159
4447000000 0.0158057 0.0813685 0.9841943 -0.0813685 0.9841943 -0.0813685 0.0158057 0.0813685
4468000000 0.0161542 0.0827256 0.9838458 -0.0827256 0.9838458 -0.0827256 0.0161542 0.0827256
4489000000 0.0165104 0.0840874 0.9834896 -0.0840874 0.9834896 -0.0840874 0.0165104 0.0840874
4510000000 0.0168746 0.0854540 0.9831254 -0.0854540 0.9831254 -0.0854540 0.0168746 0.0854540
