!Murata Part Number: GRM1885C1H4R0WA01
!These Parameters are Measured in Series Mode Connection
!Data Generated on Mar 30, 2021
!       o--ll--o
!Port1            Port2
!       o------o
!Operation Temp=25[degC], DC Bias Voltage=0[V]
!Freq. Start=100[MHz] Stop=9[GHz] 401[Steps]
# Hz S RI R 50
!Freq.(Hz) S11(Real) S11(Imag) S21(Real) S21(Imag) S12(Real) S12(Imag) S22(Real) S22(Imag)
100000000 0.9403980 -0.2365447 0.0596020 0.2365447 0.0596020 0.2365447 0.9403980 -0.2365447
121000000 0.9150175 -0.2785979 0.0849825 0.2785979 0.0849825 0.2785979 0.9150175 -0.2785979
142000000 0.8864927 -0.3168940 0.1135073 0.3168940 0.1135073 0.3168940 0.8864927 -0.3168940
163000000 0.8554997 -0.3512124 0.1445003 0.3512124 0.1445003 0.3512124 0.8554997 -0.3512124
184000000 0.8227002 -0.3814664 0.1772998 0.3814664 0.1772998 0.3814664 0.8227002 -0.3814664
205000000 0.7887150 -0.4076867 0.2112850 0.4076867 0.2112850 0.4076867 0.7887150 -0.4076867
226000000 0.7541052 -0.4300002 0.2458948 0.4300002 0.2458948 0.4300002 0.7541052 -0.4300002
247000000 0.7193606 -0.4486074 0.2806394 0.4486074 0.2806394 0.4486074 0.7193606 -0.4486074
268000000 0.6848949 -0.4637611 0.3151051 0.4637611 0.3151051 0.4637611 0.6848949 -0.4637611
289000000 0.6510461 -0.4757461 0.3489539 0.4757461 0.3489539 0.4757461 0.6510461 -0.4757461
310000000 0.6180805 -0.4848635 0.3819195 0.4848635 0.3819195 0.4848635 0.6180805 -0.4848635
331000000 0.5861994 -0.4914167 0.4138006 0.4914167 0.4138006 0.4914167 0.5861994 -0.4914167
352000000 0.5555471 -0.4957016 0.4444529 0.4957016 0.4444529 0.4957016 0.5555471 -0.4957016
373000000 0.5262196 -0.4979999 0.4737804 0.4979999 0.4737804 0.4979999 0.5262196 -0.4979999
394000000 0.4982724 -0.4985739 0.5017276 0.4985739 0.5017276 0.4985739 0.4982724 -0.4985739
415000000 0.4717287 -0.4976641 0.5282713 0.4976641 0.5282713 0.4976641 0.4717287 -0.4976641
436000000 0.4465858 -0.4954881 0.5534142 0.4954881 0.5534142 0.4954881 0.4465858 -0.4954881
457000000 0.4228217 -0.4922409 0.5771783 0.4922409 0.5771783 0.4922409 0.4228217 -0.4922409
478000000 0.4003994 -0.4880953 0.5996006 0.4880953 0.5996006 0.4880953 0.4003994 -0.4880953
499000000 0.3792714 -0.4832032 0.6207286 0.4832032 0.6207286 0.4832032 0.3792714 -0.4832032
520000000 0.3593832 -0.4776975 0.6406168 0.4776975 0.6406168 0.4776975 0.3593832 -0.4776975
541000000 0.3406758 -0.4716938 0.6593242 0.4716938 0.6593242 0.4716938 0.3406758 -0.4716938
562000000 0.3230880 -0.4652919 0.6769120 0.4652919 0.6769120 0.4652919 0.3230880 -0.4652919
583000000 0.3065575 -0.4585776 0.6934425 0.4585776 0.6934425 0.4585776 0.3065575 -0.4585776
604000000 0.2910228 -0.4516246 0.7089772 0.4516246 0.7089772 0.4516246 0.2910228 -0.4516246
625000000 0.2764237 -0.4444956 0.7235763 0.4444956 0.7235763 0.4444956 0.2764237 -0.4444956
646000000 0.2627020 -0.4372441 0.7372980 0.4372441 0.7372980 0.4372441 0.2627020 -0.4372441
667000000 0.2498017 -0.4299151 0.7501983 0.4299151 0.7501983 0.4299151 0.2498017 -0.4299151
688000000 0.2376698 -0.4225467 0.7623302 0.4225467 0.7623302 0.4225467 0.2376698 -0.4225467
709000000 0.2262561 -0.4151708 0.7737439 0.4151708 0.7737439 0.4151708 0.2262561 -0.4151708
730000000 0.2155130 -0.4078142 0.7844870 0.4078142 0.7844870 0.4078142 0.2155130 -0.4078142
751000000 0.2053961 -0.4004989 0.7946039 0.4004989 0.7946039 0.4004989 0.2053961 -0.4004989
772000000 0.1958638 -0.3932431 0.8041362 0.3932431 0.8041362 0.3932431 0.1958638 -0.3932431
793000000 0.1868771 -0.3860618 0.8131229 0.3860618 0.8131229 0.3860618 0.1868771 -0.3860618
814000000 0.1783997 -0.3789670 0.8216003 0.3789670 0.8216003 0.3789670 0.1783997 -0.3789670
835000000 0.1703979 -0.3719684 0.8296021 0.3719684 0.8296021 0.3719684 0.1703979 -0.3719684
856000000 0.1628402 -0.3650736 0.8371598 0.3650736 0.8371598 0.3650736 0.1628402 -0.3650736
877000000 0.1556974 -0.3582884 0.8443026 0.3582884 0.8443026 0.3582884 0.1556974 -0.3582884
898000000 0.1489424 -0.3516173 0.8510576 0.3516173 0.8510576 0.3516173 0.1489424 -0.3516173
919000000 0.1425500 -0.3450633 0.8574500 0.3450633 0.8574500 0.3450633 0.1425500 -0.3450633
940000000 0.1364968 -0.3386286 0.8635032 0.3386286 0.8635032 0.3386286 0.1364968 -0.3386286
961000000 0.1307610 -0.3323143 0.8692390 0.3323143 0.8692390 0.3323143 0.1307610 -0.3323143
982000000 0.1253227 -0.3261209 0.8746773 0.3261209 0.8746773 0.3261209 0.1253227 -0.3261209
1003000000 0.1201629 -0.3200483 0.8798371 0.3200483 0.8798371 0.3200483 0.1201629 -0.3200483
1024000000 0.1152645 -0.3140958 0.8847355 0.3140958 0.8847355 0.3140958 0.1152645 -0.3140958
1045000000 0.1106112 -0.3082622 0.8893888 0.3082622 0.8893888 0.3082622 0.1106112 -0.3082622
1066000000 0.1061880 -0.3025463 0.8938120 0.3025463 0.8938120 0.3025463 0.1061880 -0.3025463
1087000000 0.1019811 -0.2969461 0.8980189 0.2969461 0.8980189 0.2969461 0.1019811 -0.2969461
1108000000 0.0979775 -0.2914600 0.9020225 0.2914600 0.9020225 0.2914600 0.0979775 -0.2914600
1129000000 0.0941651 -0.2860856 0.9058349 0.2860856 0.9058349 0.2860856 0.0941651 -0.2860856
1150000000 0.0905327 -0.2808208 0.9094673 0.2808208 0.9094673 0.2808208 0.0905327 -0.2808208
1171000000 0.0870699 -0.2756633 0.9129301 0.2756633 0.9129301 0.2756633 0.0870699 -0.2756633
1192000000 0.0837670 -0.2706105 0.9162330 0.2706105 0.9162330 0.2706105 0.0837670 -0.2706105
1213000000 0.0806148 -0.2656601 0.9193852 0.2656601 0.9193852 0.2656601 0.0806148 -0.2656601
1234000000 0.0776049 -0.2608096 0.9223951 0.2608096 0.9223951 0.2608096 0.0776049 -0.2608096
1255000000 0.0747294 -0.2560563 0.9252706 0.2560563 0.9252706 0.2560563 0.0747294 -0.2560563
1276000000 0.0719810 -0.2513979 0.9280190 0.2513979 0.9280190 0.2513979 0.0719810 -0.2513979
1297000000 0.0693526 -0.2468318 0.9306474 0.2468318 0.9306474 0.2468318 0.0693526 -0.2468318
1318000000 0.0668379 -0.2423556 0.9331621 0.2423556 0.9331621 0.2423556 0.0668379 -0.2423556
1339000000 0.0644309 -0.2379667 0.9355691 0.2379667 0.9355691 0.2379667 0.0644309 -0.2379667
1360000000 0.0621258 -0.2336628 0.9378742 0.2336628 0.9378742 0.2336628 0.0621258 -0.2336628
1381000000 0.0599175 -0.2294416 0.9400825 0.2294416 0.9400825 0.2294416 0.0599175 -0.2294416
1402000000 0.0578008 -0.2253007 0.9421992 0.2253007 0.9421992 0.2253007 0.0578008 -0.2253007
1423000000 0.0557712 -0.2212379 0.9442288 0.2212379 0.9442288 0.2212379 0.0557712 -0.2212379
1444000000 0.0538244 -0.2172509 0.9461756 0.2172509 0.9461756 0.2172509 0.0538244 -0.2172509
1465000000 0.0519561 -0.2133376 0.9480439 0.2133376 0.9480439 0.2133376 0.0519561 -0.2133376
1486000000 0.0501625 -0.2094958 0.9498375 0.2094958 0.9498375 0.2094958 0.0501625 -0.2094958
1507000000 0.0484400 -0.2057236 0.9515600 0.2057236 0.9515600 0.2057236 0.0484400 -0.2057236
1528000000 0.0467853 -0.2020190 0.9532147 0.2020190 0.9532147 0.2020190 0.0467853 -0.2020190
1549000000 0.0451950 -0.1983799 0.9548050 0.1983799 0.9548050 0.1983799 0.0451950 -0.1983799
1570000000 0.0436661 -0.1948046 0.9563339 0.1948046 0.9563339 0.1948046 0.0436661 -0.1948046
1591000000 0.0421959 -0.1912912 0.9578041 0.1912912 0.9578041 0.1912912 0.0421959 -0.1912912
1612000000 0.0407816 -0.1878379 0.9592184 0.1878379 0.9592184 0.1878379 0.0407816 -0.1878379
1633000000 0.0394206 -0.1844430 0.9605794 0.1844430 0.9605794 0.1844430 0.0394206 -0.1844430
1654000000 0.0381106 -0.1811049 0.9618894 0.1811049 0.9618894 0.1811049 0.0381106 -0.1811049
1675000000 0.0368493 -0.1778219 0.9631507 0.1778219 0.9631507 0.1778219 0.0368493 -0.1778219
1696000000 0.0356346 -0.1745925 0.9643654 0.1745925 0.9643654 0.1745925 0.0356346 -0.1745925
1717000000 0.0344644 -0.1714152 0.9655356 0.1714152 0.9655356 0.1714152 0.0344644 -0.1714152
1738000000 0.0333368 -0.1682884 0.9666632 0.1682884 0.9666632 0.1682884 0.0333368 -0.1682884
1759000000 0.0322501 -0.1652109 0.9677499 0.1652109 0.9677499 0.1652109 0.0322501 -0.1652109
1780000000 0.0312024 -0.1621812 0.9687976 0.1621812 0.9687976 0.1621812 0.0312024 -0.1621812
1801000000 0.0301923 -0.1591979 0.9698077 0.1591979 0.9698077 0.1591979 0.0301923 -0.1591979
1822000000 0.0292180 -0.1562599 0.9707820 0.1562599 0.9707820 0.1562599 0.0292180 -0.1562599
1843000000 0.0282783 -0.1533658 0.9717217 0.1533658 0.9717217 0.1533658 0.0282783 -0.1533658
1864000000 0.0273716 -0.1505144 0.9726284 0.1505144 0.9726284 0.1505144 0.0273716 -0.1505144
1885000000 0.0264967 -0.1477046 0.9735033 0.1477046 0.9735033 0.1477046 0.0264967 -0.1477046
1906000000 0.0256523 -0.1449353 0.9743477 0.1449353 0.9743477 0.1449353 0.0256523 -0.1449353
1927000000 0.0248372 -0.1422053 0.9751628 0.1422053 0.9751628 0.1422053 0.0248372 -0.1422053
1948000000 0.0240503 -0.1395136 0.9759497 0.1395136 0.9759497 0.1395136 0.0240503 -0.1395136
1969000000 0.0232905 -0.1368592 0.9767095 0.1368592 0.9767095 0.1368592 0.0232905 -0.1368592
1990000000 0.0225569 -0.1342410 0.9774431 0.1342410 0.9774431 0.1342410 0.0225569 -0.1342410
2011000000 0.0218483 -0.1316582 0.9781517 0.1316582 0.9781517 0.1316582 0.0218483 -0.1316582
2032000000 0.0211639 -0.1291097 0.9788361 0.1291097 0.9788361 0.1291097 0.0211639 -0.1291097
2053000000 0.0205029 -0.1265947 0.9794971 0.1265947 0.9794971 0.1265947 0.0205029 -0.1265947
2074000000 0.0198643 -0.1241123 0.9801357 0.1241123 0.9801357 0.1241123 0.0198643 -0.1241123
2095000000 0.0192474 -0.1216617 0.9807526 0.1216617 0.9807526 0.1216617 0.0192474 -0.1216617
2116000000 0.0186514 -0.1192420 0.9813486 0.1192420 0.9813486 0.1192420 0.0186514 -0.1192420
2137000000 0.0180755 -0.1168525 0.9819245 0.1168525 0.9819245 0.1168525 0.0180755 -0.1168525
2158000000 0.0175191 -0.1144923 0.9824809 0.1144923 0.9824809 0.1144923 0.0175191 -0.1144923
2179000000 0.0169815 -0.1121607 0.9830185 0.1121607 0.9830185 0.1121607 0.0169815 -0.1121607
2200000000 0.0164621 -0.1098571 0.9835379 0.1098571 0.9835379 0.1098571 0.0164621 -0.1098571
2221000000 0.0159603 -0.1075806 0.9840397 0.1075806 0.9840397 0.1075806 0.0159603 -0.1075806
2242000000 0.0154754 -0.1053307 0.9845246 0.1053307 0.9845246 0.1053307 0.0154754 -0.1053307
2263000000 0.0150070 -0.1031066 0.9849930 0.1031066 0.9849930 0.1031066 0.0150070 -0.1031066
2284000000 0.0145544 -0.1009078 0.9854456 0.1009078 0.9854456 0.1009078 0.0145544 -0.1009078
2305000000 0.0141173 -0.0987335 0.9858827 0.0987335 0.9858827 0.0987335 0.0141173 -0.0987335
2326000000 0.0136950 -0.0965832 0.9863050 0.0965832 0.9863050 0.0965832 0.0136950 -0.0965832
2347000000 0.0132872 -0.0944563 0.9867128 0.0944563 0.9867128 0.0944563 0.0132872 -0.0944563
2368000000 0.0128933 -0.0923523 0.9871067 0.0923523 0.9871067 0.0923523 0.0128933 -0.0923523
2389000000 0.0125130 -0.0902705 0.9874870 0.0902705 0.9874870 0.0902705 0.0125130 -0.0902705
2410000000 0.0121459 -0.0882105 0.9878541 0.0882105 0.9878541 0.0882105 0.0121459 -0.0882105
2431000000 0.0117915 -0.0861717 0.9882085 0.0861717 0.9882085 0.0861717 0.0117915 -0.0861717
2452000000 0.0114494 -0.0841537 0.9885506 0.0841537 0.9885506 0.0841537 0.0114494 -0.0841537
2473000000 0.0111194 -0.0821558 0.9888806 0.0821558 0.9888806 0.0821558 0.0111194 -0.0821558
2494000000 0.0108011 -0.0801777 0.9891989 0.0801777 0.9891989 0.0801777 0.0108011 -0.0801777
2515000000 0.0104941 -0.0782189 0.9895059 0.0782189 0.9895059 0.0782189 0.0104941 -0.0782189
2536000000 0.0101981 -0.0762790 0.9898019 0.0762790 0.9898019 0.0762790 0.0101981 -0.0762790
2557000000 0.0099129 -0.0743574 0.9900871 0.0743574 0.9900871 0.0743574 0.0099129 -0.0743574
2578000000 0.0096380 -0.0724538 0.9903620 0.0724538 0.9903620 0.0724538 0.0096380 -0.0724538
2599000000 0.0093733 -0.0705677 0.9906267 0.0705677 0.9906267 0.0705677 0.0093733 -0.0705677
2620000000 0.0091185 -0.0686988 0.9908815 0.0686988 0.9908815 0.0686988 0.0091185 -0.0686988
2641000000 0.0088732 -0.0668467 0.9911268 0.0668467 0.9911268 0.0668467 0.0088732 -0.0668467
2662000000 0.0086373 -0.0650109 0.9913627 0.0650109 0.9913627 0.0650109 0.0086373 -0.0650109
2683000000 0.0084105 -0.0631911 0.9915895 0.0631911 0.9915895 0.0631911 0.0084105 -0.0631911
2704000000 0.0081926 -0.0613870 0.9918074 0.0613870 0.9918074 0.0613870 0.0081926 -0.0613870
2725000000 0.0079834 -0.0595982 0.9920166 0.0595982 0.9920166 0.0595982 0.0079834 -0.0595982
2746000000 0.0077826 -0.0578242 0.9922174 0.0578242 0.9922174 0.0578242 0.0077826 -0.0578242
2767000000 0.0075900 -0.0560649 0.9924100 0.0560649 0.9924100 0.0560649 0.0075900 -0.0560649
2788000000 0.0074054 -0.0543199 0.9925946 0.0543199 0.9925946 0.0543199 0.0074054 -0.0543199
2809000000 0.0072287 -0.0525888 0.9927713 0.0525888 0.9927713 0.0525888 0.0072287 -0.0525888
2830000000 0.0070597 -0.0508714 0.9929403 0.0508714 0.9929403 0.0508714 0.0070597 -0.0508714
2851000000 0.0068981 -0.0491673 0.9931019 0.0491673 0.9931019 0.0491673 0.0068981 -0.0491673
2872000000 0.0067439 -0.0474762 0.9932561 0.0474762 0.9932561 0.0474762 0.0067439 -0.0474762
2893000000 0.0065968 -0.0457979 0.9934032 0.0457979 0.9934032 0.0457979 0.0065968 -0.0457979
2914000000 0.0064567 -0.0441321 0.9935433 0.0441321 0.9935433 0.0441321 0.0064567 -0.0441321
2935000000 0.0063234 -0.0424785 0.9936766 0.0424785 0.9936766 0.0424785 0.0063234 -0.0424785
2956000000 0.0061968 -0.0408368 0.9938032 0.0408368 0.9938032 0.0408368 0.0061968 -0.0408368
2977000000 0.0060768 -0.0392068 0.9939232 0.0392068 0.9939232 0.0392068 0.0060768 -0.0392068
2998000000 0.0059632 -0.0375883 0.9940368 0.0375883 0.9940368 0.0375883 0.0059632 -0.0375883
3019000000 0.0058559 -0.0359808 0.9941441 0.0359808 0.9941441 0.0359808 0.0058559 -0.0359808
3040000000 0.0057547 -0.0343844 0.9942453 0.0343844 0.9942453 0.0343844 0.0057547 -0.0343844
3061000000 0.0056596 -0.0327986 0.9943404 0.0327986 0.9943404 0.0327986 0.0056596 -0.0327986
3082000000 0.0055704 -0.0312232 0.9944296 0.0312232 0.9944296 0.0312232 0.0055704 -0.0312232
3103000000 0.0054869 -0.0296581 0.9945131 0.0296581 0.9945131 0.0296581 0.0054869 -0.0296581
3124000000 0.0054092 -0.0281030 0.9945908 0.0281030 0.9945908 0.0281030 0.0054092 -0.0281030
3145000000 0.0053371 -0.0265577 0.9946629 0.0265577 0.9946629 0.0265577 0.0053371 -0.0265577
3166000000 0.0052705 -0.0250219 0.9947295 0.0250219 0.9947295 0.0250219 0.0052705 -0.0250219
3187000000 0.0052093 -0.0234956 0.9947907 0.0234956 0.9947907 0.0234956 0.0052093 -0.0234956
3208000000 0.0051533 -0.0219783 0.9948467 0.0219783 0.9948467 0.0219783 0.0051533 -0.0219783
3229000000 0.0051026 -0.0204701 0.9948974 0.0204701 0.9948974 0.0204701 0.0051026 -0.0204701
3250000000 0.0050570 -0.0189706 0.9949430 0.0189706 0.9949430 0.0189706 0.0050570 -0.0189706
3271000000 0.0050165 -0.0174797 0.9949835 0.0174797 0.9949835 0.0174797 0.0050165 -0.0174797
3292000000 0.0049809 -0.0159972 0.9950191 0.0159972 0.9950191 0.0159972 0.0049809 -0.0159972
3313000000 0.0049502 -0.0145229 0.9950498 0.0145229 0.9950498 0.0145229 0.0049502 -0.0145229
3334000000 0.0049243 -0.0130566 0.9950757 0.0130566 0.9950757 0.0130566 0.0049243 -0.0130566
3355000000 0.0049032 -0.0115981 0.9950968 0.0115981 0.9950968 0.0115981 0.0049032 -0.0115981
3376000000 0.0048867 -0.0101474 0.9951133 0.0101474 0.9951133 0.0101474 0.0048867 -0.0101474
3397000000 0.0048748 -0.0087041 0.9951252 0.0087041 0.9951252 0.0087041 0.0048748 -0.0087041
3418000000 0.0048675 -0.0072682 0.9951325 0.0072682 0.9951325 0.0072682 0.0048675 -0.0072682
3439000000 0.0048646 -0.0058395 0.9951354 0.0058395 0.9951354 0.0058395 0.0048646 -0.0058395
3460000000 0.0048662 -0.0044178 0.9951338 0.0044178 0.9951338 0.0044178 0.0048662 -0.0044178
3481000000 0.0048722 -0.0030029 0.9951278 0.0030029 0.9951278 0.0030029 0.0048722 -0.0030029
3502000000 0.0048824 -0.0015948 0.9951176 0.0015948 0.9951176 0.0015948 0.0048824 -0.0015948
3523000000 0.0048969 -0.0001932 0.9951031 0.0001932 0.9951031 0.0001932 0.0048969 -0.0001932
3544000000 0.0049157 0.0012020 0.9950843 -0.0012020 0.9950843 -0.0012020 0.0049157 0.0012020
3565000000 0.0049386 0.0025909 0.9950614 -0.0025909 0.9950614 -0.0025909 0.0049386 0.0025909
3586000000 0.0049656 0.0039738 0.9950344 -0.0039738 0.9950344 -0.0039738 0.0049656 0.0039738
3607000000 0.0049967 0.0053506 0.9950033 -0.0053506 0.9950033 -0.0053506 0.0049967 0.0053506
3628000000 0.0050318 0.0067216 0.9949682 -0.0067216 0.9949682 -0.0067216 0.0050318 0.0067216
3649000000 0.0050709 0.0080869 0.9949291 -0.0080869 0.9949291 -0.0080869 0.0050709 0.0080869
3670000000 0.0051140 0.0094466 0.9948860 -0.0094466 0.9948860 -0.0094466 0.0051140 0.0094466
3691000000 0.0051610 0.0108009 0.9948390 -0.0108009 0.9948390 -0.0108009 0.0051610 0.0108009
3712000000 0.0052120 0.0121499 0.9947880 -0.0121499 0.9947880 -0.0121499 0.0052120 0.0121499
3733000000 0.0052667 0.0134938 0.9947333 -0.0134938 0.9947333 -0.0134938 0.0052667 0.0134938
3754000000 0.0053253 0.0148325 0.9946747 -0.0148325 0.9946747 -0.0148325 0.0053253 0.0148325
3775000000 0.0053878 0.0161664 0.9946122 -0.0161664 0.9946122 -0.0161664 0.0053878 0.0161664
3796000000 0.0054539 0.0174955 0.9945461 -0.0174955 0.9945461 -0.0174955 0.0054539 0.0174955
3817000000 0.0055239 0.0188199 0.9944761 -0.0188199 0.9944761 -0.0188199 0.0055239 0.0188199
3838000000 0.0055975 0.0201397 0.9944025 -0.0201397 0.9944025 -0.0201397 0.0055975 0.0201397
3859000000 0.0056749 0.0214551 0.9943251 -0.0214551 0.9943251 -0.0214551 0.0056749 0.0214551
3880000000 0.0057560 0.0227662 0.9942440 -0.0227662 0.9942440 -0.0227662 0.0057560 0.0227662
3901000000 0.0058407 0.0240730 0.9941593 -0.0240730 0.9941593 -0.0240730 0.0058407 0.0240730
3922000000 0.0059291 0.0253758 0.9940709 -0.0253758 0.9940709 -0.0253758 0.0059291 0.0253758
3943000000 0.0060211 0.0266746 0.9939789 -0.0266746 0.9939789 -0.0266746 0.0060211 0.0266746
3964000000 0.0061168 0.0279695 0.9938832 -0.0279695 0.9938832 -0.0279695 0.0061168 0.0279695
3985000000 0.0062161 0.0292607 0.9937839 -0.0292607 0.9937839 -0.0292607 0.0062161 0.0292607
4006000000 0.0063189 0.0305482 0.9936811 -0.0305482 0.9936811 -0.0305482 0.0063189 0.0305482
4027000000 0.0064254 0.0318322 0.9935746 -0.0318322 0.9935746 -0.0318322 0.0064254 0.0318322
4048000000 0.0065354 0.0331127 0.9934646 -0.0331127 0.9934646 -0.0331127 0.0065354 0.0331127
4069000000 0.0066491 0.0343899 0.9933509 -0.0343899 0.9933509 -0.0343899 0.0066491 0.0343899
4090000000 0.0067663 0.0356639 0.9932337 -0.0356639 0.9932337 -0.0356639 0.0067663 0.0356639
4111000000 0.0068870 0.0369347 0.9931130 -0.0369347 0.9931130 -0.0369347 0.0068870 0.0369347
4132000000 0.0070114 0.0382025 0.9929886 -0.0382025 0.9929886 -0.0382025 0.0070114 0.0382025
4153000000 0.0071393 0.0394674 0.9928607 -0.0394674 0.9928607 -0.0394674 0.0071393 0.0394674
4174000000 0.0072707 0.0407295 0.9927293 -0.0407295 0.9927293 -0.0407295 0.0072707 0.0407295
4195000000 0.0074058 0.0419889 0.9925942 -0.0419889 0.9925942 -0.0419889 0.0074058 0.0419889
4216000000 0.0075444 0.0432457 0.9924556 -0.0432457 0.9924556 -0.0432457 0.0075444 0.0432457
4237000000 0.0076866 0.0444999 0.9923134 -0.0444999 0.9923134 -0.0444999 0.0076866 0.0444999
4258000000 0.0078324 0.0457517 0.9921676 -0.0457517 0.9921676 -0.0457517 0.0078324 0.0457517
4279000000 0.0079817 0.0470012 0.9920183 -0.0470012 0.9920183 -0.0470012 0.0079817 0.0470012
4300000000 0.0081347 0.0482484 0.9918653 -0.0482484 0.9918653 -0.0482484 0.0081347 0.0482484
4321000000 0.0082913 0.0494936 0.9917087 -0.0494936 0.9917087 -0.0494936 0.0082913 0.0494936
4342000000 0.0084516 0.0507366 0.9915484 -0.0507366 0.9915484 -0.0507366 0.0084516 0.0507366
4363000000 0.0086154 0.0519778 0.9913846 -0.0519778 0.9913846 -0.0519778 0.0086154 0.0519778
4384000000 0.0087830 0.0532171 0.9912170 -0.0532171 0.9912170 -0.0532171 0.0087830 0.0532171
4405000000 0.0089542 0.0544547 0.9910458 -0.0544547 0.9910458 -0.0544547 0.0089542 0.0544547
4426000000 0.0091291 0.0556905 0.9908709 -0.0556905 0.9908709 -0.0556905 0.0091291 0.0556905
4447000000 0.0093077 0.0569249 0.9906923 -0.0569249 0.9906923 -0.0569249 0.0093077 0.0569249
4468000000 0.0094900 0.0581578 0.9905100 -0.0581578 0.9905100 -0.0581578 0.0094900 0.0581578
4489000000 0.0096761 0.0593892 0.9903239 -0.0593892 0.9903239 -0.0593892 0.0096761 0.0593892
4510000000 0.0098660 0.0606195 0.9901340 -0.0606195 0.9901340 -0.0606195 0.0098660 0.0606195
