!Murata Part Number: GRM1885C2E120JW07
!These Parameters are Measured in Series Mode Connection
!Data Generated on Mar 30, 2021
!       o--ll--o
!Port1            Port2
!       o------o
!Operation Temp=25[degC], DC Bias Voltage=0[V]
!Freq. Start=1000[kHz] Stop=3[GHz] 401[Steps]
# Hz S RI R 50
!Freq.(Hz) S11(Real) S11(Imag) S21(Real) S21(Imag) S12(Real) S12(Imag) S22(Real) S22(Imag)
1000000 0.9999243 -0.0075363 0.0000757 0.0075363 0.0000757 0.0075363 0.9999243 -0.0075363
8497500 0.9954527 -0.0630715 0.0045473 0.0630715 0.0045473 0.0630715 0.9954527 -0.0630715
15995000 0.9853197 -0.1170020 0.0146803 0.1170020 0.0146803 0.1170020 0.9853197 -0.1170020
23492500 0.9696902 -0.1688899 0.0303098 0.1688899 0.0303098 0.1688899 0.9696902 -0.1688899
30990000 0.9489807 -0.2179181 0.0510193 0.2179181 0.0510193 0.2179181 0.9489807 -0.2179181
38487500 0.9238315 -0.2634105 0.0761685 0.2634105 0.0761685 0.2634105 0.9238315 -0.2634105
45985000 0.8949883 -0.3048751 0.1050117 0.3048751 0.1050117 0.3048751 0.8949883 -0.3048751
53482500 0.8632380 -0.3420052 0.1367620 0.3420052 0.1367620 0.3420052 0.8632380 -0.3420052
60980000 0.8293593 -0.3746663 0.1706407 0.3746663 0.1706407 0.3746663 0.8293593 -0.3746663
68477500 0.7940857 -0.4028743 0.2059143 0.4028743 0.2059143 0.4028743 0.7940857 -0.4028743
75975000 0.7580786 -0.4267677 0.2419214 0.4267677 0.2419214 0.4267677 0.7580786 -0.4267677
83472500 0.7219117 -0.4465777 0.2780883 0.4465777 0.2780883 0.4465777 0.7219117 -0.4465777
90970000 0.6860647 -0.4625996 0.3139353 0.4625996 0.3139353 0.4625996 0.6860647 -0.4625996
98467500 0.6509240 -0.4751669 0.3490760 0.4751669 0.3490760 0.4751669 0.6509240 -0.4751669
105965000 0.6167886 -0.4846308 0.3832114 0.4846308 0.3832114 0.4846308 0.6167886 -0.4846308
113462500 0.5838793 -0.4913428 0.4161207 0.4913428 0.4161207 0.4913428 0.5838793 -0.4913428
120960000 0.5523491 -0.4956431 0.4476509 0.4956431 0.4476509 0.4956431 0.5523491 -0.4956431
128457500 0.5222946 -0.4978523 0.4777054 0.4978523 0.4777054 0.4978523 0.5222946 -0.4978523
135955000 0.4937663 -0.4982659 0.5062337 0.4982659 0.5062337 0.4982659 0.4937663 -0.4982659
143452500 0.4667783 -0.4971522 0.5332217 0.4971522 0.5332217 0.4971522 0.4667783 -0.4971522
150950000 0.4413166 -0.4947513 0.5586834 0.4947513 0.5586834 0.4947513 0.4413166 -0.4947513
158447500 0.4173463 -0.4912757 0.5826537 0.4912757 0.5826537 0.4912757 0.4173463 -0.4912757
165945000 0.3948175 -0.4869119 0.6051825 0.4869119 0.6051825 0.4869119 0.3948175 -0.4869119
173442500 0.3736699 -0.4818221 0.6263301 0.4818221 0.6263301 0.4818221 0.3736699 -0.4818221
180940000 0.3538369 -0.4761465 0.6461631 0.4761465 0.6461631 0.4761465 0.3538369 -0.4761465
188437500 0.3352481 -0.4700055 0.6647519 0.4700055 0.6647519 0.4700055 0.3352481 -0.4700055
195935000 0.3178319 -0.4635021 0.6821681 0.4635021 0.6821681 0.4635021 0.3178319 -0.4635021
203432500 0.3015171 -0.4567238 0.6984829 0.4567238 0.6984829 0.4567238 0.3015171 -0.4567238
210930000 0.2862337 -0.4497448 0.7137663 0.4497448 0.7137663 0.4497448 0.2862337 -0.4497448
218427500 0.2719144 -0.4426275 0.7280856 0.4426275 0.7280856 0.4426275 0.2719144 -0.4426275
225925000 0.2584946 -0.4354244 0.7415054 0.4354244 0.7415054 0.4354244 0.2584946 -0.4354244
233422500 0.2459132 -0.4281793 0.7540868 0.4281793 0.7540868 0.4281793 0.2459132 -0.4281793
240920000 0.2341122 -0.4209286 0.7658878 0.4209286 0.7658878 0.4209286 0.2341122 -0.4209286
248417500 0.2230376 -0.4137023 0.7769624 0.4137023 0.7769624 0.4137023 0.2230376 -0.4137023
255915000 0.2126385 -0.4065253 0.7873615 0.4065253 0.7873615 0.4065253 0.2126385 -0.4065253
263412500 0.2028677 -0.3994176 0.7971323 0.3994176 0.7971323 0.3994176 0.2028677 -0.3994176
270910000 0.1936811 -0.3923955 0.8063189 0.3923955 0.8063189 0.3923955 0.1936811 -0.3923955
278407500 0.1850378 -0.3854719 0.8149622 0.3854719 0.8149622 0.3854719 0.1850378 -0.3854719
285905000 0.1769000 -0.3786570 0.8231000 0.3786570 0.8231000 0.3786570 0.1769000 -0.3786570
293402500 0.1692326 -0.3719588 0.8307674 0.3719588 0.8307674 0.3719588 0.1692326 -0.3719588
300900000 0.1620031 -0.3653831 0.8379969 0.3653831 0.8379969 0.3653831 0.1620031 -0.3653831
308397500 0.1551813 -0.3589341 0.8448187 0.3589341 0.8448187 0.3589341 0.1551813 -0.3589341
315895000 0.1487397 -0.3526149 0.8512603 0.3526149 0.8512603 0.3526149 0.1487397 -0.3526149
323392500 0.1426524 -0.3464270 0.8573476 0.3464270 0.8573476 0.3464270 0.1426524 -0.3464270
330890000 0.1368957 -0.3403714 0.8631043 0.3403714 0.8631043 0.3403714 0.1368957 -0.3403714
338387500 0.1314476 -0.3344479 0.8685524 0.3344479 0.8685524 0.3344479 0.1314476 -0.3344479
345885000 0.1262879 -0.3286560 0.8737121 0.3286560 0.8737121 0.3286560 0.1262879 -0.3286560
353382500 0.1213978 -0.3229945 0.8786022 0.3229945 0.8786022 0.3229945 0.1213978 -0.3229945
360880000 0.1167598 -0.3174618 0.8832402 0.3174618 0.8832402 0.3174618 0.1167598 -0.3174618
368377500 0.1123579 -0.3120559 0.8876421 0.3120559 0.8876421 0.3120559 0.1123579 -0.3120559
375875000 0.1081772 -0.3067747 0.8918228 0.3067747 0.8918228 0.3067747 0.1081772 -0.3067747
383372500 0.1042038 -0.3016156 0.8957962 0.3016156 0.8957962 0.3016156 0.1042038 -0.3016156
390870000 0.1004249 -0.2965762 0.8995751 0.2965762 0.8995751 0.2965762 0.1004249 -0.2965762
398367500 0.0968286 -0.2916537 0.9031714 0.2916537 0.9031714 0.2916537 0.0968286 -0.2916537
405865000 0.0934040 -0.2868453 0.9065960 0.2868453 0.9065960 0.2868453 0.0934040 -0.2868453
413362500 0.0901406 -0.2821481 0.9098594 0.2821481 0.9098594 0.2821481 0.0901406 -0.2821481
420860000 0.0870291 -0.2775593 0.9129709 0.2775593 0.9129709 0.2775593 0.0870291 -0.2775593
428357500 0.0840605 -0.2730761 0.9159395 0.2730761 0.9159395 0.2730761 0.0840605 -0.2730761
435855000 0.0812266 -0.2686954 0.9187734 0.2686954 0.9187734 0.2686954 0.0812266 -0.2686954
443352500 0.0785196 -0.2644146 0.9214804 0.2644146 0.9214804 0.2644146 0.0785196 -0.2644146
450850000 0.0759325 -0.2602307 0.9240675 0.2602307 0.9240675 0.2602307 0.0759325 -0.2602307
458347500 0.0734584 -0.2561409 0.9265416 0.2561409 0.9265416 0.2561409 0.0734584 -0.2561409
465845000 0.0710913 -0.2521426 0.9289087 0.2521426 0.9289087 0.2521426 0.0710913 -0.2521426
473342500 0.0688251 -0.2482330 0.9311749 0.2482330 0.9311749 0.2482330 0.0688251 -0.2482330
480840000 0.0666546 -0.2444096 0.9333454 0.2444096 0.9333454 0.2444096 0.0666546 -0.2444096
488337500 0.0645745 -0.2406698 0.9354255 0.2406698 0.9354255 0.2406698 0.0645745 -0.2406698
495835000 0.0625801 -0.2370111 0.9374199 0.2370111 0.9374199 0.2370111 0.0625801 -0.2370111
503332500 0.0606670 -0.2334311 0.9393330 0.2334311 0.9393330 0.2334311 0.0606670 -0.2334311
510830000 0.0588309 -0.2299274 0.9411691 0.2299274 0.9411691 0.2299274 0.0588309 -0.2299274
518327500 0.0570680 -0.2264978 0.9429320 0.2264978 0.9429320 0.2264978 0.0570680 -0.2264978
525825000 0.0553744 -0.2231400 0.9446256 0.2231400 0.9446256 0.2231400 0.0553744 -0.2231400
533322500 0.0537468 -0.2198519 0.9462532 0.2198519 0.9462532 0.2198519 0.0537468 -0.2198519
540820000 0.0521820 -0.2166314 0.9478180 0.2166314 0.9478180 0.2166314 0.0521820 -0.2166314
548317500 0.0506767 -0.2134765 0.9493233 0.2134765 0.9493233 0.2134765 0.0506767 -0.2134765
555815000 0.0492283 -0.2103853 0.9507717 0.2103853 0.9507717 0.2103853 0.0492283 -0.2103853
563312500 0.0478339 -0.2073558 0.9521661 0.2073558 0.9521661 0.2073558 0.0478339 -0.2073558
570810000 0.0464910 -0.2043862 0.9535090 0.2043862 0.9535090 0.2043862 0.0464910 -0.2043862
578307500 0.0451972 -0.2014747 0.9548028 0.2014747 0.9548028 0.2014747 0.0451972 -0.2014747
585805000 0.0439502 -0.1986198 0.9560498 0.1986198 0.9560498 0.1986198 0.0439502 -0.1986198
593302500 0.0427478 -0.1958196 0.9572522 0.1958196 0.9572522 0.1958196 0.0427478 -0.1958196
600800000 0.0415882 -0.1930726 0.9584118 0.1930726 0.9584118 0.1930726 0.0415882 -0.1930726
608297500 0.0404692 -0.1903773 0.9595308 0.1903773 0.9595308 0.1903773 0.0404692 -0.1903773
615795000 0.0393892 -0.1877322 0.9606108 0.1877322 0.9606108 0.1877322 0.0393892 -0.1877322
623292500 0.0383464 -0.1851358 0.9616536 0.1851358 0.9616536 0.1851358 0.0383464 -0.1851358
630790000 0.0373393 -0.1825868 0.9626607 0.1825868 0.9626607 0.1825868 0.0373393 -0.1825868
638287500 0.0363662 -0.1800837 0.9636338 0.1800837 0.9636338 0.1800837 0.0363662 -0.1800837
645785000 0.0354257 -0.1776254 0.9645743 0.1776254 0.9645743 0.1776254 0.0354257 -0.1776254
653282500 0.0345165 -0.1752106 0.9654835 0.1752106 0.9654835 0.1752106 0.0345165 -0.1752106
660780000 0.0336372 -0.1728379 0.9663628 0.1728379 0.9663628 0.1728379 0.0336372 -0.1728379
668277500 0.0327866 -0.1705064 0.9672134 0.1705064 0.9672134 0.1705064 0.0327866 -0.1705064
675775000 0.0319635 -0.1682148 0.9680365 0.1682148 0.9680365 0.1682148 0.0319635 -0.1682148
683272500 0.0311669 -0.1659621 0.9688331 0.1659621 0.9688331 0.1659621 0.0311669 -0.1659621
690770000 0.0303956 -0.1637472 0.9696044 0.1637472 0.9696044 0.1637472 0.0303956 -0.1637472
698267500 0.0296487 -0.1615690 0.9703513 0.1615690 0.9703513 0.1615690 0.0296487 -0.1615690
705765000 0.0289251 -0.1594266 0.9710749 0.1594266 0.9710749 0.1594266 0.0289251 -0.1594266
713262500 0.0282240 -0.1573191 0.9717760 0.1573191 0.9717760 0.1573191 0.0282240 -0.1573191
720760000 0.0275446 -0.1552455 0.9724554 0.1552455 0.9724554 0.1552455 0.0275446 -0.1552455
728257500 0.0268859 -0.1532049 0.9731141 0.1532049 0.9731141 0.1532049 0.0268859 -0.1532049
735755000 0.0262472 -0.1511964 0.9737528 0.1511964 0.9737528 0.1511964 0.0262472 -0.1511964
743252500 0.0256277 -0.1492193 0.9743723 0.1492193 0.9743723 0.1492193 0.0256277 -0.1492193
750750000 0.0250268 -0.1472727 0.9749732 0.1472727 0.9749732 0.1472727 0.0250268 -0.1472727
758247500 0.0244437 -0.1453558 0.9755563 0.1453558 0.9755563 0.1453558 0.0244437 -0.1453558
765745000 0.0238778 -0.1434679 0.9761222 0.1434679 0.9761222 0.1434679 0.0238778 -0.1434679
773242500 0.0233285 -0.1416082 0.9766715 0.1416082 0.9766715 0.1416082 0.0233285 -0.1416082
780740000 0.0227951 -0.1397761 0.9772049 0.1397761 0.9772049 0.1397761 0.0227951 -0.1397761
788237500 0.0222772 -0.1379708 0.9777228 0.1379708 0.9777228 0.1379708 0.0222772 -0.1379708
795735000 0.0217741 -0.1361917 0.9782259 0.1361917 0.9782259 0.1361917 0.0217741 -0.1361917
803232500 0.0212854 -0.1344381 0.9787146 0.1344381 0.9787146 0.1344381 0.0212854 -0.1344381
810730000 0.0208105 -0.1327094 0.9791895 0.1327094 0.9791895 0.1327094 0.0208105 -0.1327094
818227500 0.0203490 -0.1310050 0.9796510 0.1310050 0.9796510 0.1310050 0.0203490 -0.1310050
825725000 0.0199004 -0.1293244 0.9800996 0.1293244 0.9800996 0.1293244 0.0199004 -0.1293244
833222500 0.0194643 -0.1276669 0.9805357 0.1276669 0.9805357 0.1276669 0.0194643 -0.1276669
840720000 0.0190403 -0.1260320 0.9809597 0.1260320 0.9809597 0.1260320 0.0190403 -0.1260320
848217500 0.0186280 -0.1244192 0.9813720 0.1244192 0.9813720 0.1244192 0.0186280 -0.1244192
855715000 0.0182269 -0.1228279 0.9817731 0.1228279 0.9817731 0.1228279 0.0182269 -0.1228279
863212500 0.0178367 -0.1212576 0.9821633 0.1212576 0.9821633 0.1212576 0.0178367 -0.1212576
870710000 0.0174571 -0.1197079 0.9825429 0.1197079 0.9825429 0.1197079 0.0174571 -0.1197079
878207500 0.0170878 -0.1181783 0.9829122 0.1181783 0.9829122 0.1181783 0.0170878 -0.1181783
885705000 0.0167283 -0.1166684 0.9832717 0.1166684 0.9832717 0.1166684 0.0167283 -0.1166684
893202500 0.0163785 -0.1151775 0.9836215 0.1151775 0.9836215 0.1151775 0.0163785 -0.1151775
900700000 0.0160379 -0.1137055 0.9839621 0.1137055 0.9839621 0.1137055 0.0160379 -0.1137055
908197500 0.0157063 -0.1122517 0.9842937 0.1122517 0.9842937 0.1122517 0.0157063 -0.1122517
915695000 0.0153835 -0.1108159 0.9846165 0.1108159 0.9846165 0.1108159 0.0153835 -0.1108159
923192500 0.0150691 -0.1093976 0.9849309 0.1093976 0.9849309 0.1093976 0.0150691 -0.1093976
930690000 0.0147629 -0.1079964 0.9852371 0.1079964 0.9852371 0.1079964 0.0147629 -0.1079964
938187500 0.0144647 -0.1066120 0.9855353 0.1066120 0.9855353 0.1066120 0.0144647 -0.1066120
945685000 0.0141742 -0.1052440 0.9858258 0.1052440 0.9858258 0.1052440 0.0141742 -0.1052440
953182500 0.0138912 -0.1038921 0.9861088 0.1038921 0.9861088 0.1038921 0.0138912 -0.1038921
960680000 0.0136155 -0.1025558 0.9863845 0.1025558 0.9863845 0.1025558 0.0136155 -0.1025558
968177500 0.0133469 -0.1012349 0.9866531 0.1012349 0.9866531 0.1012349 0.0133469 -0.1012349
975675000 0.0130851 -0.0999290 0.9869149 0.0999290 0.9869149 0.0999290 0.0130851 -0.0999290
983172500 0.0128300 -0.0986379 0.9871700 0.0986379 0.9871700 0.0986379 0.0128300 -0.0986379
990670000 0.0125814 -0.0973611 0.9874186 0.0973611 0.9874186 0.0973611 0.0125814 -0.0973611
998167500 0.0123390 -0.0960985 0.9876610 0.0960985 0.9876610 0.0960985 0.0123390 -0.0960985
1005665000 0.0121028 -0.0948497 0.9878972 0.0948497 0.9878972 0.0948497 0.0121028 -0.0948497
1013162500 0.0118726 -0.0936145 0.9881274 0.0936145 0.9881274 0.0936145 0.0118726 -0.0936145
1020660000 0.0116481 -0.0923925 0.9883519 0.0923925 0.9883519 0.0923925 0.0116481 -0.0923925
1028157500 0.0114293 -0.0911835 0.9885707 0.0911835 0.9885707 0.0911835 0.0114293 -0.0911835
1035655000 0.0112160 -0.0899873 0.9887840 0.0899873 0.9887840 0.0899873 0.0112160 -0.0899873
1043152500 0.0110080 -0.0888035 0.9889920 0.0888035 0.9889920 0.0888035 0.0110080 -0.0888035
1050650000 0.0108052 -0.0876320 0.9891948 0.0876320 0.9891948 0.0876320 0.0108052 -0.0876320
1058147500 0.0106074 -0.0864725 0.9893926 0.0864725 0.9893926 0.0864725 0.0106074 -0.0864725
1065645000 0.0104146 -0.0853247 0.9895854 0.0853247 0.9895854 0.0853247 0.0104146 -0.0853247
1073142500 0.0102265 -0.0841885 0.9897735 0.0841885 0.9897735 0.0841885 0.0102265 -0.0841885
1080640000 0.0100432 -0.0830635 0.9899568 0.0830635 0.9899568 0.0830635 0.0100432 -0.0830635
1088137500 0.0098644 -0.0819497 0.9901356 0.0819497 0.9901356 0.0819497 0.0098644 -0.0819497
1095635000 0.0096900 -0.0808467 0.9903100 0.0808467 0.9903100 0.0808467 0.0096900 -0.0808467
1103132500 0.0095200 -0.0797544 0.9904800 0.0797544 0.9904800 0.0797544 0.0095200 -0.0797544
1110630000 0.0093541 -0.0786726 0.9906459 0.0786726 0.9906459 0.0786726 0.0093541 -0.0786726
1118127500 0.0091924 -0.0776010 0.9908076 0.0776010 0.9908076 0.0776010 0.0091924 -0.0776010
1125625000 0.0090348 -0.0765395 0.9909652 0.0765395 0.9909652 0.0765395 0.0090348 -0.0765395
1133122500 0.0088810 -0.0754879 0.9911190 0.0754879 0.9911190 0.0754879 0.0088810 -0.0754879
1140620000 0.0087310 -0.0744460 0.9912690 0.0744460 0.9912690 0.0744460 0.0087310 -0.0744460
1148117500 0.0085848 -0.0734136 0.9914152 0.0734136 0.9914152 0.0734136 0.0085848 -0.0734136
1155615000 0.0084422 -0.0723906 0.9915578 0.0723906 0.9915578 0.0723906 0.0084422 -0.0723906
1163112500 0.0083032 -0.0713768 0.9916968 0.0713768 0.9916968 0.0713768 0.0083032 -0.0713768
1170610000 0.0081676 -0.0703720 0.9918324 0.0703720 0.9918324 0.0703720 0.0081676 -0.0703720
1178107500 0.0080355 -0.0693760 0.9919645 0.0693760 0.9919645 0.0693760 0.0080355 -0.0693760
1185605000 0.0079066 -0.0683887 0.9920934 0.0683887 0.9920934 0.0683887 0.0079066 -0.0683887
1193102500 0.0077810 -0.0674100 0.9922190 0.0674100 0.9922190 0.0674100 0.0077810 -0.0674100
1200600000 0.0076585 -0.0664397 0.9923415 0.0664397 0.9923415 0.0664397 0.0076585 -0.0664397
1208097500 0.0075392 -0.0654776 0.9924608 0.0654776 0.9924608 0.0654776 0.0075392 -0.0654776
1215595000 0.0074228 -0.0645237 0.9925772 0.0645237 0.9925772 0.0645237 0.0074228 -0.0645237
1223092500 0.0073094 -0.0635777 0.9926906 0.0635777 0.9926906 0.0635777 0.0073094 -0.0635777
1230590000 0.0071989 -0.0626395 0.9928011 0.0626395 0.9928011 0.0626395 0.0071989 -0.0626395
1238087500 0.0070912 -0.0617090 0.9929088 0.0617090 0.9929088 0.0617090 0.0070912 -0.0617090
1245585000 0.0069863 -0.0607861 0.9930137 0.0607861 0.9930137 0.0607861 0.0069863 -0.0607861
1253082500 0.0068841 -0.0598706 0.9931159 0.0598706 0.9931159 0.0598706 0.0068841 -0.0598706
1260580000 0.0067846 -0.0589624 0.9932154 0.0589624 0.9932154 0.0589624 0.0067846 -0.0589624
1268077500 0.0066876 -0.0580614 0.9933124 0.0580614 0.9933124 0.0580614 0.0066876 -0.0580614
1275575000 0.0065932 -0.0571675 0.9934068 0.0571675 0.9934068 0.0571675 0.0065932 -0.0571675
1283072500 0.0065012 -0.0562805 0.9934988 0.0562805 0.9934988 0.0562805 0.0065012 -0.0562805
1290570000 0.0064117 -0.0554003 0.9935883 0.0554003 0.9935883 0.0554003 0.0064117 -0.0554003
1298067500 0.0063245 -0.0545268 0.9936755 0.0545268 0.9936755 0.0545268 0.0063245 -0.0545268
1305565000 0.0062397 -0.0536600 0.9937603 0.0536600 0.9937603 0.0536600 0.0062397 -0.0536600
1313062500 0.0061572 -0.0527997 0.9938428 0.0527997 0.9938428 0.0527997 0.0061572 -0.0527997
1320560000 0.0060769 -0.0519458 0.9939231 0.0519458 0.9939231 0.0519458 0.0060769 -0.0519458
1328057500 0.0059988 -0.0510981 0.9940012 0.0510981 0.9940012 0.0510981 0.0059988 -0.0510981
1335555000 0.0059229 -0.0502567 0.9940771 0.0502567 0.9940771 0.0502567 0.0059229 -0.0502567
1343052500 0.0058490 -0.0494213 0.9941510 0.0494213 0.9941510 0.0494213 0.0058490 -0.0494213
1350550000 0.0057773 -0.0485920 0.9942227 0.0485920 0.9942227 0.0485920 0.0057773 -0.0485920
1358047500 0.0057075 -0.0477685 0.9942925 0.0477685 0.9942925 0.0477685 0.0057075 -0.0477685
1365545000 0.0056398 -0.0469509 0.9943602 0.0469509 0.9943602 0.0469509 0.0056398 -0.0469509
1373042500 0.0055739 -0.0461390 0.9944261 0.0461390 0.9944261 0.0461390 0.0055739 -0.0461390
1380540000 0.0055100 -0.0453327 0.9944900 0.0453327 0.9944900 0.0453327 0.0055100 -0.0453327
1388037500 0.0054480 -0.0445320 0.9945520 0.0445320 0.9945520 0.0445320 0.0054480 -0.0445320
1395535000 0.0053878 -0.0437368 0.9946122 0.0437368 0.9946122 0.0437368 0.0053878 -0.0437368
1403032500 0.0053295 -0.0429469 0.9946705 0.0429469 0.9946705 0.0429469 0.0053295 -0.0429469
1410530000 0.0052729 -0.0421623 0.9947271 0.0421623 0.9947271 0.0421623 0.0052729 -0.0421623
1418027500 0.0052180 -0.0413829 0.9947820 0.0413829 0.9947820 0.0413829 0.0052180 -0.0413829
1425525000 0.0051648 -0.0406087 0.9948352 0.0406087 0.9948352 0.0406087 0.0051648 -0.0406087
1433022500 0.0051134 -0.0398395 0.9948866 0.0398395 0.9948866 0.0398395 0.0051134 -0.0398395
1440520000 0.0050635 -0.0390753 0.9949365 0.0390753 0.9949365 0.0390753 0.0050635 -0.0390753
1448017500 0.0050153 -0.0383161 0.9949847 0.0383161 0.9949847 0.0383161 0.0050153 -0.0383161
1455515000 0.0049687 -0.0375617 0.9950313 0.0375617 0.9950313 0.0375617 0.0049687 -0.0375617
1463012500 0.0049236 -0.0368120 0.9950764 0.0368120 0.9950764 0.0368120 0.0049236 -0.0368120
1470510000 0.0048801 -0.0360671 0.9951199 0.0360671 0.9951199 0.0360671 0.0048801 -0.0360671
1478007500 0.0048381 -0.0353267 0.9951619 0.0353267 0.9951619 0.0353267 0.0048381 -0.0353267
1485505000 0.0047976 -0.0345910 0.9952024 0.0345910 0.9952024 0.0345910 0.0047976 -0.0345910
1493002500 0.0047585 -0.0338597 0.9952415 0.0338597 0.9952415 0.0338597 0.0047585 -0.0338597
1500500000 0.0047208 -0.0331329 0.9952792 0.0331329 0.9952792 0.0331329 0.0047208 -0.0331329
1507997500 0.0046846 -0.0324105 0.9953154 0.0324105 0.9953154 0.0324105 0.0046846 -0.0324105
1515495000 0.0046498 -0.0316924 0.9953502 0.0316924 0.9953502 0.0316924 0.0046498 -0.0316924
1522992500 0.0046163 -0.0309785 0.9953837 0.0309785 0.9953837 0.0309785 0.0046163 -0.0309785
1530490000 0.0045841 -0.0302688 0.9954159 0.0302688 0.9954159 0.0302688 0.0045841 -0.0302688
1537987500 0.0045533 -0.0295632 0.9954467 0.0295632 0.9954467 0.0295632 0.0045533 -0.0295632
1545485000 0.0045238 -0.0288618 0.9954762 0.0288618 0.9954762 0.0288618 0.0045238 -0.0288618
1552982500 0.0044955 -0.0281643 0.9955045 0.0281643 0.9955045 0.0281643 0.0044955 -0.0281643
1560480000 0.0044686 -0.0274708 0.9955314 0.0274708 0.9955314 0.0274708 0.0044686 -0.0274708
1567977500 0.0044428 -0.0267812 0.9955572 0.0267812 0.9955572 0.0267812 0.0044428 -0.0267812
1575475000 0.0044183 -0.0260955 0.9955817 0.0260955 0.9955817 0.0260955 0.0044183 -0.0260955
1582972500 0.0043949 -0.0254136 0.9956051 0.0254136 0.9956051 0.0254136 0.0043949 -0.0254136
