!Murata Part Number: GRM1885C1H202JA01
!These Parameters are Measured in Series Mode Connection
!Data Generated on Mar 30, 2021
!       o--ll--o
!Port1            Port2
!       o------o
!Operation Temp=25[degC], DC Bias Voltage=0[V]
!Freq. Start=1000[kHz] Stop=6[GHz] 401[Steps]
# Hz S RI R 50
!Freq.(Hz) S11(Real) S11(Imag) S21(Real) S21(Imag) S12(Real) S12(Imag) S22(Real) S22(Imag)
1000000 0.3987056 -0.4895415 0.6012944 0.4895415 0.6012944 0.4895415 0.3987056 -0.4895415
1021987 0.3883261 -0.4872769 0.6116739 0.4872769 0.6116739 0.4872769 0.3883261 -0.4872769
1044457 0.3780470 -0.4848049 0.6219530 0.4848049 0.6219530 0.4848049 0.3780470 -0.4848049
1067422 0.3678764 -0.4821308 0.6321236 0.4821308 0.6321236 0.4821308 0.3678764 -0.4821308
1090891 0.3578220 -0.4792606 0.6421780 0.4792606 0.6421780 0.4792606 0.3578220 -0.4792606
1114877 0.3478912 -0.4762003 0.6521088 0.4762003 0.6521088 0.4762003 0.3478912 -0.4762003
1139390 0.3380910 -0.4729564 0.6619090 0.4729564 0.6619090 0.4729564 0.3380910 -0.4729564
1164441 0.3284280 -0.4695358 0.6715720 0.4695358 0.6715720 0.4695358 0.3284280 -0.4695358
1190044 0.3189081 -0.4659454 0.6810919 0.4659454 0.6810919 0.4659454 0.3189081 -0.4659454
1216210 0.3095370 -0.4621924 0.6904630 0.4621924 0.6904630 0.4621924 0.3095370 -0.4621924
1242950 0.3003199 -0.4582842 0.6996801 0.4582842 0.6996801 0.4582842 0.3003199 -0.4582842
1270279 0.2912616 -0.4542284 0.7087384 0.4542284 0.7087384 0.4542284 0.2912616 -0.4542284
1298209 0.2823663 -0.4500327 0.7176337 0.4500327 0.7176337 0.4500327 0.2823663 -0.4500327
1326753 0.2736379 -0.4457047 0.7263621 0.4457047 0.7263621 0.4457047 0.2736379 -0.4457047
1355924 0.2650797 -0.4412524 0.7349203 0.4412524 0.7349203 0.4412524 0.2650797 -0.4412524
1385737 0.2566947 -0.4366834 0.7433053 0.4366834 0.7433053 0.4366834 0.2566947 -0.4366834
1416205 0.2484853 -0.4320057 0.7515147 0.4320057 0.7515147 0.4320057 0.2484853 -0.4320057
1447343 0.2404536 -0.4272271 0.7595464 0.4272271 0.7595464 0.4272271 0.2404536 -0.4272271
1479166 0.2326012 -0.4223553 0.7673988 0.4223553 0.7673988 0.4223553 0.2326012 -0.4223553
1511688 0.2249294 -0.4173980 0.7750706 0.4173980 0.7750706 0.4173980 0.2249294 -0.4173980
1544926 0.2174391 -0.4123628 0.7825609 0.4123628 0.7825609 0.4123628 0.2174391 -0.4123628
1578894 0.2101306 -0.4072571 0.7898694 0.4072571 0.7898694 0.4072571 0.2101306 -0.4072571
1613609 0.2030042 -0.4020882 0.7969958 0.4020882 0.7969958 0.4020882 0.2030042 -0.4020882
1649087 0.1960596 -0.3968634 0.8039404 0.3968634 0.8039404 0.3968634 0.1960596 -0.3968634
1685346 0.1892962 -0.3915896 0.8107038 0.3915896 0.8107038 0.3915896 0.1892962 -0.3915896
1722402 0.1827132 -0.3862736 0.8172868 0.3862736 0.8172868 0.3862736 0.1827132 -0.3862736
1760272 0.1763094 -0.3809220 0.8236906 0.3809220 0.8236906 0.3809220 0.1763094 -0.3809220
1798975 0.1700835 -0.3755412 0.8299165 0.3755412 0.8299165 0.3755412 0.1700835 -0.3755412
1838529 0.1640338 -0.3701375 0.8359662 0.3701375 0.8359662 0.3701375 0.1640338 -0.3701375
1878953 0.1581583 -0.3647169 0.8418417 0.3647169 0.8418417 0.3647169 0.1581583 -0.3647169
1920266 0.1524551 -0.3592849 0.8475449 0.3592849 0.8475449 0.3592849 0.1524551 -0.3592849
1962487 0.1469217 -0.3538473 0.8530783 0.3538473 0.8530783 0.3538473 0.1469217 -0.3538473
2005636 0.1415557 -0.3484092 0.8584443 0.3484092 0.8584443 0.3484092 0.1415557 -0.3484092
2049734 0.1363545 -0.3429757 0.8636455 0.3429757 0.8636455 0.3429757 0.1363545 -0.3429757
2094801 0.1313153 -0.3375516 0.8686847 0.3375516 0.8686847 0.3375516 0.1313153 -0.3375516
2140860 0.1264352 -0.3321415 0.8735648 0.3321415 0.8735648 0.3321415 0.1264352 -0.3321415
2187931 0.1217112 -0.3267496 0.8782888 0.3267496 0.8782888 0.3267496 0.1217112 -0.3267496
2236037 0.1171401 -0.3213801 0.8828599 0.3213801 0.8828599 0.3213801 0.1171401 -0.3213801
2285201 0.1127188 -0.3160369 0.8872812 0.3160369 0.8872812 0.3160369 0.1127188 -0.3160369
2335446 0.1084441 -0.3107236 0.8915559 0.3107236 0.8915559 0.3107236 0.1084441 -0.3107236
2386795 0.1043125 -0.3054436 0.8956875 0.3054436 0.8956875 0.3054436 0.1043125 -0.3054436
2439274 0.1003207 -0.3002001 0.8996793 0.3002001 0.8996793 0.3002001 0.1003207 -0.3002001
2492906 0.0964654 -0.2949961 0.9035346 0.2949961 0.9035346 0.2949961 0.0964654 -0.2949961
2547717 0.0927431 -0.2898343 0.9072569 0.2898343 0.9072569 0.2898343 0.0927431 -0.2898343
2603734 0.0891505 -0.2847174 0.9108495 0.2847174 0.9108495 0.2847174 0.0891505 -0.2847174
2660982 0.0856840 -0.2796476 0.9143160 0.2796476 0.9143160 0.2796476 0.0856840 -0.2796476
2719490 0.0823402 -0.2746273 0.9176598 0.2746273 0.9176598 0.2746273 0.0823402 -0.2746273
2779283 0.0791158 -0.2696583 0.9208842 0.2696583 0.9208842 0.2696583 0.0791158 -0.2696583
2840391 0.0760074 -0.2647426 0.9239926 0.2647426 0.9239926 0.2647426 0.0760074 -0.2647426
2902843 0.0730116 -0.2598818 0.9269884 0.2598818 0.9269884 0.2598818 0.0730116 -0.2598818
2966668 0.0701250 -0.2550773 0.9298750 0.2550773 0.9298750 0.2550773 0.0701250 -0.2550773
3031896 0.0673445 -0.2503306 0.9326555 0.2503306 0.9326555 0.2503306 0.0673445 -0.2503306
3098558 0.0646667 -0.2456428 0.9353333 0.2456428 0.9353333 0.2456428 0.0646667 -0.2456428
3166686 0.0620884 -0.2410151 0.9379116 0.2410151 0.9379116 0.2410151 0.0620884 -0.2410151
3236312 0.0596066 -0.2364482 0.9403934 0.2364482 0.9403934 0.2364482 0.0596066 -0.2364482
3307469 0.0572181 -0.2319431 0.9427819 0.2319431 0.9427819 0.2319431 0.0572181 -0.2319431
3380190 0.0549199 -0.2275003 0.9450801 0.2275003 0.9450801 0.2275003 0.0549199 -0.2275003
3454511 0.0527090 -0.2231206 0.9472910 0.2231206 0.9472910 0.2231206 0.0527090 -0.2231206
3530465 0.0505826 -0.2188042 0.9494174 0.2188042 0.9494174 0.2188042 0.0505826 -0.2188042
3608090 0.0485377 -0.2145516 0.9514623 0.2145516 0.9514623 0.2145516 0.0485377 -0.2145516
3687421 0.0465717 -0.2103630 0.9534283 0.2103630 0.9534283 0.2103630 0.0465717 -0.2103630
3768496 0.0446817 -0.2062387 0.9553183 0.2062387 0.9553183 0.2062387 0.0446817 -0.2062387
3851354 0.0428652 -0.2021786 0.9571348 0.2021786 0.9571348 0.2021786 0.0428652 -0.2021786
3936034 0.0411195 -0.1981828 0.9588805 0.1981828 0.9588805 0.1981828 0.0411195 -0.1981828
4022575 0.0394422 -0.1942512 0.9605578 0.1942512 0.9605578 0.1942512 0.0394422 -0.1942512
4111020 0.0378309 -0.1903836 0.9621691 0.1903836 0.9621691 0.1903836 0.0378309 -0.1903836
4201409 0.0362831 -0.1865800 0.9637169 0.1865800 0.9637169 0.1865800 0.0362831 -0.1865800
4293785 0.0347965 -0.1828399 0.9652035 0.1828399 0.9652035 0.1828399 0.0347965 -0.1828399
4388193 0.0333689 -0.1791632 0.9666311 0.1791632 0.9666311 0.1791632 0.0333689 -0.1791632
4484676 0.0319982 -0.1755494 0.9680018 0.1755494 0.9680018 0.1755494 0.0319982 -0.1755494
4583281 0.0306823 -0.1719981 0.9693177 0.1719981 0.9693177 0.1719981 0.0306823 -0.1719981
4684054 0.0294190 -0.1685088 0.9705810 0.1685088 0.9705810 0.1685088 0.0294190 -0.1685088
4787042 0.0282065 -0.1650811 0.9717935 0.1650811 0.9717935 0.1650811 0.0282065 -0.1650811
4892295 0.0270428 -0.1617144 0.9729572 0.1617144 0.9729572 0.1617144 0.0270428 -0.1617144
4999862 0.0259261 -0.1584081 0.9740739 0.1584081 0.9740739 0.1584081 0.0259261 -0.1584081
5109794 0.0248545 -0.1551617 0.9751455 0.1551617 0.9751455 0.1551617 0.0248545 -0.1551617
5222143 0.0238264 -0.1519745 0.9761736 0.1519745 0.9761736 0.1519745 0.0238264 -0.1519745
5336962 0.0228401 -0.1488459 0.9771599 0.1488459 0.9771599 0.1488459 0.0228401 -0.1488459
5454306 0.0218939 -0.1457751 0.9781061 0.1457751 0.9781061 0.1457751 0.0218939 -0.1457751
5574230 0.0209864 -0.1427616 0.9790136 0.1427616 0.9790136 0.1427616 0.0209864 -0.1427616
5696791 0.0201159 -0.1398045 0.9798841 0.1398045 0.9798841 0.1398045 0.0201159 -0.1398045
5822046 0.0192811 -0.1369033 0.9807189 0.1369033 0.9807189 0.1369033 0.0192811 -0.1369033
5950055 0.0184806 -0.1340570 0.9815194 0.1340570 0.9815194 0.1340570 0.0184806 -0.1340570
6080879 0.0177130 -0.1312650 0.9822870 0.1312650 0.9822870 0.1312650 0.0177130 -0.1312650
6214580 0.0169770 -0.1285265 0.9830230 0.1285265 0.9830230 0.1285265 0.0169770 -0.1285265
6351220 0.0162713 -0.1258408 0.9837287 0.1258408 0.9837287 0.1258408 0.0162713 -0.1258408
6490864 0.0155948 -0.1232070 0.9844052 0.1232070 0.9844052 0.1232070 0.0155948 -0.1232070
6633579 0.0149463 -0.1206244 0.9850537 0.1206244 0.9850537 0.1206244 0.0149463 -0.1206244
6779431 0.0143246 -0.1180923 0.9856754 0.1180923 0.9856754 0.1180923 0.0143246 -0.1180923
6928491 0.0137288 -0.1156097 0.9862712 0.1156097 0.9862712 0.1156097 0.0137288 -0.1156097
7080828 0.0131576 -0.1131760 0.9868424 0.1131760 0.9868424 0.1131760 0.0131576 -0.1131760
7236514 0.0126103 -0.1107903 0.9873897 0.1107903 0.9873897 0.1107903 0.0126103 -0.1107903
7395623 0.0120857 -0.1084519 0.9879143 0.1084519 0.9879143 0.1084519 0.0120857 -0.1084519
7558231 0.0115830 -0.1061599 0.9884170 0.1061599 0.9884170 0.1061599 0.0115830 -0.1061599
7724414 0.0111013 -0.1039137 0.9888987 0.1039137 0.9888987 0.1039137 0.0111013 -0.1039137
7894251 0.0106397 -0.1017123 0.9893603 0.1017123 0.9893603 0.1017123 0.0106397 -0.1017123
8067822 0.0101974 -0.0995551 0.9898026 0.0995551 0.9898026 0.0995551 0.0101974 -0.0995551
8245209 0.0097737 -0.0974413 0.9902263 0.0974413 0.9902263 0.0974413 0.0097737 -0.0974413
8426497 0.0093677 -0.0953701 0.9906323 0.0953701 0.9906323 0.0953701 0.0093677 -0.0953701
8611770 0.0089787 -0.0933407 0.9910213 0.0933407 0.9910213 0.0933407 0.0089787 -0.0933407
8801117 0.0086061 -0.0913524 0.9913939 0.0913524 0.9913939 0.0913524 0.0086061 -0.0913524
8994628 0.0082492 -0.0894044 0.9917508 0.0894044 0.9917508 0.0894044 0.0082492 -0.0894044
9192393 0.0079072 -0.0874960 0.9920928 0.0874960 0.9920928 0.0874960 0.0079072 -0.0874960
9394506 0.0075797 -0.0856265 0.9924203 0.0856265 0.9924203 0.0856265 0.0075797 -0.0856265
9601063 0.0072660 -0.0837952 0.9927340 0.0837952 0.9927340 0.0837952 0.0072660 -0.0837952
9812162 0.0069655 -0.0820013 0.9930345 0.0820013 0.9930345 0.0820013 0.0069655 -0.0820013
10027902 0.0066777 -0.0802441 0.9933223 0.0802441 0.9933223 0.0802441 0.0066777 -0.0802441
10248386 0.0064020 -0.0785229 0.9935980 0.0785229 0.9935980 0.0785229 0.0064020 -0.0785229
10473717 0.0061380 -0.0768370 0.9938620 0.0768370 0.9938620 0.0768370 0.0061380 -0.0768370
10704003 0.0058852 -0.0751859 0.9941148 0.0751859 0.9941148 0.0751859 0.0058852 -0.0751859
10939352 0.0056431 -0.0735687 0.9943569 0.0735687 0.9943569 0.0735687 0.0056431 -0.0735687
11179876 0.0054112 -0.0719848 0.9945888 0.0719848 0.9945888 0.0719848 0.0054112 -0.0719848
11425688 0.0051892 -0.0704336 0.9948108 0.0704336 0.9948108 0.0704336 0.0051892 -0.0704336
11676904 0.0049766 -0.0689144 0.9950234 0.0689144 0.9950234 0.0689144 0.0049766 -0.0689144
11933645 0.0047730 -0.0674265 0.9952270 0.0674265 0.9952270 0.0674265 0.0047730 -0.0674265
12196030 0.0045781 -0.0659695 0.9954219 0.0659695 0.9954219 0.0659695 0.0045781 -0.0659695
12464184 0.0043914 -0.0645426 0.9956086 0.0645426 0.9956086 0.0645426 0.0043914 -0.0645426
12738235 0.0042127 -0.0631452 0.9957873 0.0631452 0.9957873 0.0631452 0.0042127 -0.0631452
13018310 0.0040416 -0.0617768 0.9959584 0.0617768 0.9959584 0.0617768 0.0040416 -0.0617768
13304544 0.0038778 -0.0604367 0.9961222 0.0604367 0.9961222 0.0604367 0.0038778 -0.0604367
13597071 0.0037210 -0.0591245 0.9962790 0.0591245 0.9962790 0.0591245 0.0037210 -0.0591245
13896030 0.0035708 -0.0578394 0.9964292 0.0578394 0.9964292 0.0578394 0.0035708 -0.0578394
14201563 0.0034271 -0.0565810 0.9965729 0.0565810 0.9965729 0.0565810 0.0034271 -0.0565810
14513813 0.0032895 -0.0553487 0.9967105 0.0553487 0.9967105 0.0553487 0.0032895 -0.0553487
14832928 0.0031578 -0.0541419 0.9968422 0.0541419 0.9968422 0.0541419 0.0031578 -0.0541419
15159060 0.0030317 -0.0529603 0.9969683 0.0529603 0.9969683 0.0529603 0.0030317 -0.0529603
15492362 0.0029110 -0.0518031 0.9970890 0.0518031 0.9970890 0.0518031 0.0029110 -0.0518031
15832993 0.0027955 -0.0506699 0.9972045 0.0506699 0.9972045 0.0506699 0.0027955 -0.0506699
16181113 0.0026849 -0.0495602 0.9973151 0.0495602 0.9973151 0.0495602 0.0026849 -0.0495602
16536888 0.0025791 -0.0484736 0.9974209 0.0484736 0.9974209 0.0484736 0.0025791 -0.0484736
16900485 0.0024778 -0.0474094 0.9975222 0.0474094 0.9975222 0.0474094 0.0024778 -0.0474094
17272076 0.0023809 -0.0463674 0.9976191 0.0463674 0.9976191 0.0463674 0.0023809 -0.0463674
17651837 0.0022881 -0.0453469 0.9977119 0.0453469 0.9977119 0.0453469 0.0022881 -0.0453469
18039948 0.0021994 -0.0443475 0.9978006 0.0443475 0.9978006 0.0443475 0.0021994 -0.0443475
18436593 0.0021144 -0.0433688 0.9978856 0.0433688 0.9978856 0.0433688 0.0021144 -0.0433688
18841959 0.0020331 -0.0424103 0.9979669 0.0424103 0.9979669 0.0424103 0.0020331 -0.0424103
19256237 0.0019554 -0.0414716 0.9980446 0.0414716 0.9980446 0.0414716 0.0019554 -0.0414716
19679624 0.0018810 -0.0405523 0.9981190 0.0405523 0.9981190 0.0405523 0.0018810 -0.0405523
20112321 0.0018098 -0.0396520 0.9981902 0.0396520 0.9981902 0.0396520 0.0018098 -0.0396520
20554530 0.0017417 -0.0387702 0.9982583 0.0387702 0.9982583 0.0387702 0.0017417 -0.0387702
21006463 0.0016765 -0.0379066 0.9983235 0.0379066 0.9983235 0.0379066 0.0016765 -0.0379066
21468333 0.0016142 -0.0370607 0.9983858 0.0370607 0.9983858 0.0370607 0.0016142 -0.0370607
21940357 0.0015546 -0.0362322 0.9984454 0.0362322 0.9984454 0.0362322 0.0015546 -0.0362322
22422760 0.0014976 -0.0354206 0.9985024 0.0354206 0.9985024 0.0354206 0.0014976 -0.0354206
22915770 0.0014431 -0.0346257 0.9985569 0.0346257 0.9985569 0.0346257 0.0014431 -0.0346257
23419619 0.0013910 -0.0338470 0.9986090 0.0338470 0.9986090 0.0338470 0.0013910 -0.0338470
23934547 0.0013412 -0.0330842 0.9986588 0.0330842 0.9986588 0.0330842 0.0013412 -0.0330842
24460796 0.0012935 -0.0323370 0.9987065 0.0323370 0.9987065 0.0323370 0.0012935 -0.0323370
24998616 0.0012480 -0.0316049 0.9987520 0.0316049 0.9987520 0.0316049 0.0012480 -0.0316049
25548261 0.0012044 -0.0308878 0.9987956 0.0308878 0.9987956 0.0308878 0.0012044 -0.0308878
26109991 0.0011628 -0.0301851 0.9988372 0.0301851 0.9988372 0.0301851 0.0011628 -0.0301851
26684072 0.0011231 -0.0294966 0.9988769 0.0294966 0.9988769 0.0294966 0.0011231 -0.0294966
27270775 0.0010851 -0.0288221 0.9989149 0.0288221 0.9989149 0.0288221 0.0010851 -0.0288221
27870378 0.0010488 -0.0281611 0.9989512 0.0281611 0.9989512 0.0281611 0.0010488 -0.0281611
28483164 0.0010142 -0.0275134 0.9989858 0.0275134 0.9989858 0.0275134 0.0010142 -0.0275134
29109424 0.0009811 -0.0268786 0.9990189 0.0268786 0.9990189 0.0268786 0.0009811 -0.0268786
29749453 0.0009495 -0.0262565 0.9990505 0.0262565 0.9990505 0.0262565 0.0009495 -0.0262565
30403555 0.0009193 -0.0256468 0.9990807 0.0256468 0.9990807 0.0256468 0.0009193 -0.0256468
31072038 0.0008905 -0.0250492 0.9991095 0.0250492 0.9991095 0.0250492 0.0008905 -0.0250492
31755220 0.0008630 -0.0244635 0.9991370 0.0244635 0.9991370 0.0244635 0.0008630 -0.0244635
32453422 0.0008368 -0.0238893 0.9991632 0.0238893 0.9991632 0.0238893 0.0008368 -0.0238893
33166976 0.0008119 -0.0233264 0.9991881 0.0233264 0.9991881 0.0233264 0.0008119 -0.0233264
33896219 0.0007880 -0.0227745 0.9992120 0.0227745 0.9992120 0.0227745 0.0007880 -0.0227745
34641496 0.0007653 -0.0222333 0.9992347 0.0222333 0.9992347 0.0222333 0.0007653 -0.0222333
35403159 0.0007437 -0.0217027 0.9992563 0.0217027 0.9992563 0.0217027 0.0007437 -0.0217027
36181569 0.0007231 -0.0211824 0.9992769 0.0211824 0.9992769 0.0211824 0.0007231 -0.0211824
36977093 0.0007035 -0.0206721 0.9992965 0.0206721 0.9992965 0.0206721 0.0007035 -0.0206721
37790109 0.0006848 -0.0201716 0.9993152 0.0201716 0.9993152 0.0201716 0.0006848 -0.0201716
38621001 0.0006670 -0.0196806 0.9993330 0.0196806 0.9993330 0.0196806 0.0006670 -0.0196806
39470161 0.0006501 -0.0191989 0.9993499 0.0191989 0.9993499 0.0191989 0.0006501 -0.0191989
40337993 0.0006341 -0.0187264 0.9993659 0.0187264 0.9993659 0.0187264 0.0006341 -0.0187264
41224905 0.0006188 -0.0182628 0.9993812 0.0182628 0.9993812 0.0182628 0.0006188 -0.0182628
42131317 0.0006043 -0.0178078 0.9993957 0.0178078 0.9993957 0.0178078 0.0006043 -0.0178078
43057659 0.0005906 -0.0173612 0.9994094 0.0173612 0.9994094 0.0173612 0.0005906 -0.0173612
44004369 0.0005775 -0.0169230 0.9994225 0.0169230 0.9994225 0.0169230 0.0005775 -0.0169230
44971893 0.0005652 -0.0164927 0.9994348 0.0164927 0.9994348 0.0164927 0.0005652 -0.0164927
45960691 0.0005535 -0.0160703 0.9994465 0.0160703 0.9994465 0.0160703 0.0005535 -0.0160703
46971230 0.0005424 -0.0156555 0.9994576 0.0156555 0.9994576 0.0156555 0.0005424 -0.0156555
48003987 0.0005319 -0.0152482 0.9994681 0.0152482 0.9994681 0.0152482 0.0005319 -0.0152482
49059451 0.0005221 -0.0148481 0.9994779 0.0148481 0.9994779 0.0148481 0.0005221 -0.0148481
50138122 0.0005127 -0.0144551 0.9994873 0.0144551 0.9994873 0.0144551 0.0005127 -0.0144551
51240510 0.0005039 -0.0140690 0.9994961 0.0140690 0.9994961 0.0140690 0.0005039 -0.0140690
52367136 0.0004957 -0.0136896 0.9995043 0.0136896 0.9995043 0.0136896 0.0004957 -0.0136896
53518533 0.0004879 -0.0133167 0.9995121 0.0133167 0.9995121 0.0133167 0.0004879 -0.0133167
54695245 0.0004806 -0.0129502 0.9995194 0.0129502 0.9995194 0.0129502 0.0004806 -0.0129502
55897831 0.0004738 -0.0125898 0.9995262 0.0125898 0.9995262 0.0125898 0.0004738 -0.0125898
57126857 0.0004674 -0.0122354 0.9995326 0.0122354 0.9995326 0.0122354 0.0004674 -0.0122354
58382906 0.0004614 -0.0118869 0.9995386 0.0118869 0.9995386 0.0118869 0.0004614 -0.0118869
59666572 0.0004558 -0.0115440 0.9995442 0.0115440 0.9995442 0.0115440 0.0004558 -0.0115440
60978462 0.0004507 -0.0112067 0.9995493 0.0112067 0.9995493 0.0112067 0.0004507 -0.0112067
62319196 0.0004459 -0.0108747 0.9995541 0.0108747 0.9995541 0.0108747 0.0004459 -0.0108747
63689409 0.0004415 -0.0105479 0.9995585 0.0105479 0.9995585 0.0105479 0.0004415 -0.0105479
65089750 0.0004374 -0.0102262 0.9995626 0.0102262 0.9995626 0.0102262 0.0004374 -0.0102262
66520879 0.0004337 -0.0099093 0.9995663 0.0099093 0.9995663 0.0099093 0.0004337 -0.0099093
67983474 0.0004304 -0.0095972 0.9995696 0.0095972 0.9995696 0.0095972 0.0004304 -0.0095972
69478228 0.0004273 -0.0092897 0.9995727 0.0092897 0.9995727 0.0092897 0.0004273 -0.0092897
71005847 0.0004246 -0.0089866 0.9995754 0.0089866 0.9995754 0.0089866 0.0004246 -0.0089866
72567054 0.0004221 -0.0086878 0.9995779 0.0086878 0.9995779 0.0086878 0.0004221 -0.0086878
74162587 0.0004200 -0.0083931 0.9995800 0.0083931 0.9995800 0.0083931 0.0004200 -0.0083931
75793201 0.0004182 -0.0081025 0.9995818 0.0081025 0.9995818 0.0081025 0.0004182 -0.0081025
77459667 0.0004166 -0.0078158 0.9995834 0.0078158 0.9995834 0.0078158 0.0004166 -0.0078158
79162774 0.0004153 -0.0075328 0.9995847 0.0075328 0.9995847 0.0075328 0.0004153 -0.0075328
80903327 0.0004143 -0.0072534 0.9995857 0.0072534 0.9995857 0.0072534 0.0004143 -0.0072534
82682150 0.0004135 -0.0069774 0.9995865 0.0069774 0.9995865 0.0069774 0.0004135 -0.0069774
84500083 0.0004130 -0.0067048 0.9995870 0.0067048 0.9995870 0.0067048 0.0004130 -0.0067048
86357988 0.0004127 -0.0064354 0.9995873 0.0064354 0.9995873 0.0064354 0.0004127 -0.0064354
88256743 0.0004127 -0.0061691 0.9995873 0.0061691 0.9995873 0.0061691 0.0004127 -0.0061691
90197245 0.0004130 -0.0059058 0.9995870 0.0059058 0.9995870 0.0059058 0.0004130 -0.0059058
92180413 0.0004134 -0.0056452 0.9995866 0.0056452 0.9995866 0.0056452 0.0004134 -0.0056452
94207185 0.0004142 -0.0053873 0.9995858 0.0053873 0.9995858 0.0053873 0.0004142 -0.0053873
96278520 0.0004151 -0.0051321 0.9995849 0.0051321 0.9995849 0.0051321 0.0004151 -0.0051321
98395398 0.0004163 -0.0048792 0.9995837 0.0048792 0.9995837 0.0048792 0.0004163 -0.0048792
100558819 0.0004178 -0.0046287 0.9995822 0.0046287 0.9995822 0.0046287 0.0004178 -0.0046287
102769807 0.0004195 -0.0043803 0.9995805 0.0043803 0.9995805 0.0043803 0.0004195 -0.0043803
105029408 0.0004214 -0.0041341 0.9995786 0.0041341 0.9995786 0.0041341 0.0004214 -0.0041341
107338692 0.0004236 -0.0038898 0.9995764 0.0038898 0.9995764 0.0038898 0.0004236 -0.0038898
