!Murata Part Number: GRM1882C1H7R2CA01
!These Parameters are Measured in Series Mode Connection
!Data Generated on Mar 30, 2021
!       o--ll--o
!Port1            Port2
!       o------o
!Operation Temp=25[degC], DC Bias Voltage=0[V]
!Freq. Start=100[MHz] Stop=9[GHz] 401[Steps]
# Hz S RI R 50
!Freq.(Hz) S11(Real) S11(Imag) S21(Real) S21(Imag) S12(Real) S12(Imag) S22(Real) S22(Imag)
100000000 0.8294922 -0.3757471 0.1705078 0.3757471 0.1705078 0.3757471 0.8294922 -0.3757471
121000000 0.7684230 -0.4214140 0.2315770 0.4214140 0.2315770 0.4214140 0.7684230 -0.4214140
142000000 0.7063658 -0.4548969 0.2936342 0.4548969 0.2936342 0.4548969 0.7063658 -0.4548969
163000000 0.6457052 -0.4776590 0.3542948 0.4776590 0.3542948 0.4776590 0.6457052 -0.4776590
184000000 0.5880548 -0.4914288 0.4119452 0.4914288 0.4119452 0.4914288 0.5880548 -0.4914288
205000000 0.5343697 -0.4979400 0.4656303 0.4979400 0.4656303 0.4979400 0.5343697 -0.4979400
226000000 0.4851015 -0.4987762 0.5148985 0.4987762 0.5148985 0.4987762 0.4851015 -0.4987762
247000000 0.4403482 -0.4953000 0.5596518 0.4953000 0.5596518 0.4953000 0.4403482 -0.4953000
268000000 0.3999789 -0.4886355 0.6000211 0.4886355 0.6000211 0.4886355 0.3999789 -0.4886355
289000000 0.3637286 -0.4796828 0.6362714 0.4796828 0.6362714 0.4796828 0.3637286 -0.4796828
310000000 0.3312639 -0.4691465 0.6687361 0.4691465 0.6687361 0.4691465 0.3312639 -0.4691465
331000000 0.3022270 -0.4575684 0.6977730 0.4575684 0.6977730 0.4575684 0.3022270 -0.4575684
352000000 0.2762628 -0.4453593 0.7237372 0.4453593 0.7237372 0.4453593 0.2762628 -0.4453593
373000000 0.2530346 -0.4328261 0.7469654 0.4328261 0.7469654 0.4328261 0.2530346 -0.4328261
394000000 0.2322321 -0.4201954 0.7677679 0.4201954 0.7677679 0.4201954 0.2322321 -0.4201954
415000000 0.2135751 -0.4076320 0.7864249 0.4076320 0.7864249 0.4076320 0.2135751 -0.4076320
436000000 0.1968131 -0.3952534 0.8031869 0.3952534 0.8031869 0.3952534 0.1968131 -0.3952534
457000000 0.1817247 -0.3831417 0.8182753 0.3831417 0.8182753 0.3831417 0.1817247 -0.3831417
478000000 0.1681148 -0.3713520 0.8318852 0.3713520 0.8318852 0.3713520 0.1681148 -0.3713520
499000000 0.1558125 -0.3599197 0.8441875 0.3599197 0.8441875 0.3599197 0.1558125 -0.3599197
520000000 0.1446681 -0.3488653 0.8553319 0.3488653 0.8553319 0.3488653 0.1446681 -0.3488653
541000000 0.1345508 -0.3381983 0.8654492 0.3381983 0.8654492 0.3381983 0.1345508 -0.3381983
562000000 0.1253460 -0.3279204 0.8746540 0.3279204 0.8746540 0.3279204 0.1253460 -0.3279204
583000000 0.1169537 -0.3180276 0.8830463 0.3180276 0.8830463 0.3180276 0.1169537 -0.3180276
604000000 0.1092863 -0.3085118 0.8907137 0.3085118 0.8907137 0.3085118 0.1092863 -0.3085118
625000000 0.1022669 -0.2993622 0.8977331 0.2993622 0.8977331 0.2993622 0.1022669 -0.2993622
646000000 0.0958280 -0.2905662 0.9041720 0.2905662 0.9041720 0.2905662 0.0958280 -0.2905662
667000000 0.0899104 -0.2821101 0.9100896 0.2821101 0.9100896 0.2821101 0.0899104 -0.2821101
688000000 0.0844618 -0.2739796 0.9155382 0.2739796 0.9155382 0.2739796 0.0844618 -0.2739796
709000000 0.0794360 -0.2661601 0.9205640 0.2661601 0.9205640 0.2661601 0.0794360 -0.2661601
730000000 0.0747922 -0.2586372 0.9252078 0.2586372 0.9252078 0.2586372 0.0747922 -0.2586372
751000000 0.0704942 -0.2513966 0.9295058 0.2513966 0.9295058 0.2513966 0.0704942 -0.2513966
772000000 0.0665099 -0.2444244 0.9334901 0.2444244 0.9334901 0.2444244 0.0665099 -0.2444244
793000000 0.0628108 -0.2377073 0.9371892 0.2377073 0.9371892 0.2377073 0.0628108 -0.2377073
814000000 0.0593712 -0.2312324 0.9406288 0.2312324 0.9406288 0.2312324 0.0593712 -0.2312324
835000000 0.0561686 -0.2249876 0.9438314 0.2249876 0.9438314 0.2249876 0.0561686 -0.2249876
856000000 0.0531824 -0.2189610 0.9468176 0.2189610 0.9468176 0.2189610 0.0531824 -0.2189610
877000000 0.0503944 -0.2131417 0.9496056 0.2131417 0.9496056 0.2131417 0.0503944 -0.2131417
898000000 0.0477881 -0.2075190 0.9522119 0.2075190 0.9522119 0.2075190 0.0477881 -0.2075190
919000000 0.0453488 -0.2020831 0.9546512 0.2020831 0.9546512 0.2020831 0.0453488 -0.2020831
940000000 0.0430631 -0.1968245 0.9569369 0.1968245 0.9569369 0.1968245 0.0430631 -0.1968245
961000000 0.0409190 -0.1917344 0.9590810 0.1917344 0.9590810 0.1917344 0.0409190 -0.1917344
982000000 0.0389056 -0.1868044 0.9610944 0.1868044 0.9610944 0.1868044 0.0389056 -0.1868044
1003000000 0.0370129 -0.1820266 0.9629871 0.1820266 0.9629871 0.1820266 0.0370129 -0.1820266
1024000000 0.0352321 -0.1773935 0.9647679 0.1773935 0.9647679 0.1773935 0.0352321 -0.1773935
1045000000 0.0335548 -0.1728982 0.9664452 0.1728982 0.9664452 0.1728982 0.0335548 -0.1728982
1066000000 0.0319738 -0.1685339 0.9680262 0.1685339 0.9680262 0.1685339 0.0319738 -0.1685339
1087000000 0.0304821 -0.1642945 0.9695179 0.1642945 0.9695179 0.1642945 0.0304821 -0.1642945
1108000000 0.0290737 -0.1601740 0.9709263 0.1601740 0.9709263 0.1601740 0.0290737 -0.1601740
1129000000 0.0277428 -0.1561670 0.9722572 0.1561670 0.9722572 0.1561670 0.0277428 -0.1561670
1150000000 0.0264842 -0.1522681 0.9735158 0.1522681 0.9735158 0.1522681 0.0264842 -0.1522681
1171000000 0.0252932 -0.1484724 0.9747068 0.1484724 0.9747068 0.1484724 0.0252932 -0.1484724
1192000000 0.0241653 -0.1447753 0.9758347 0.1447753 0.9758347 0.1447753 0.0241653 -0.1447753
1213000000 0.0230966 -0.1411723 0.9769034 0.1411723 0.9769034 0.1411723 0.0230966 -0.1411723
1234000000 0.0220833 -0.1376593 0.9779167 0.1376593 0.9779167 0.1376593 0.0220833 -0.1376593
1255000000 0.0211221 -0.1342323 0.9788779 0.1342323 0.9788779 0.1342323 0.0211221 -0.1342323
1276000000 0.0202097 -0.1308876 0.9797903 0.1308876 0.9797903 0.1308876 0.0202097 -0.1308876
1297000000 0.0193432 -0.1276216 0.9806568 0.1276216 0.9806568 0.1276216 0.0193432 -0.1276216
1318000000 0.0185200 -0.1244311 0.9814800 0.1244311 0.9814800 0.1244311 0.0185200 -0.1244311
1339000000 0.0177374 -0.1213129 0.9822626 0.1213129 0.9822626 0.1213129 0.0177374 -0.1213129
1360000000 0.0169933 -0.1182639 0.9830067 0.1182639 0.9830067 0.1182639 0.0169933 -0.1182639
1381000000 0.0162854 -0.1152813 0.9837146 0.1152813 0.9837146 0.1152813 0.0162854 -0.1152813
1402000000 0.0156118 -0.1123625 0.9843882 0.1123625 0.9843882 0.1123625 0.0156118 -0.1123625
1423000000 0.0149706 -0.1095048 0.9850294 0.1095048 0.9850294 0.1095048 0.0149706 -0.1095048
1444000000 0.0143599 -0.1067058 0.9856401 0.1067058 0.9856401 0.1067058 0.0143599 -0.1067058
1465000000 0.0137784 -0.1039632 0.9862216 0.1039632 0.9862216 0.1039632 0.0137784 -0.1039632
1486000000 0.0132243 -0.1012749 0.9867757 0.1012749 0.9867757 0.1012749 0.0132243 -0.1012749
1507000000 0.0126964 -0.0986386 0.9873036 0.0986386 0.9873036 0.0986386 0.0126964 -0.0986386
1528000000 0.0121932 -0.0960525 0.9878068 0.0960525 0.9878068 0.0960525 0.0121932 -0.0960525
1549000000 0.0117136 -0.0935146 0.9882864 0.0935146 0.9882864 0.0935146 0.0117136 -0.0935146
1570000000 0.0112565 -0.0910232 0.9887435 0.0910232 0.9887435 0.0910232 0.0112565 -0.0910232
1591000000 0.0108207 -0.0885765 0.9891793 0.0885765 0.9891793 0.0885765 0.0108207 -0.0885765
1612000000 0.0104052 -0.0861728 0.9895948 0.0861728 0.9895948 0.0861728 0.0104052 -0.0861728
1633000000 0.0100091 -0.0838107 0.9899909 0.0838107 0.9899909 0.0838107 0.0100091 -0.0838107
1654000000 0.0096315 -0.0814885 0.9903685 0.0814885 0.9903685 0.0814885 0.0096315 -0.0814885
1675000000 0.0092715 -0.0792049 0.9907285 0.0792049 0.9907285 0.0792049 0.0092715 -0.0792049
1696000000 0.0089284 -0.0769586 0.9910716 0.0769586 0.9910716 0.0769586 0.0089284 -0.0769586
1717000000 0.0086014 -0.0747482 0.9913986 0.0747482 0.9913986 0.0747482 0.0086014 -0.0747482
1738000000 0.0082899 -0.0725724 0.9917101 0.0725724 0.9917101 0.0725724 0.0082899 -0.0725724
1759000000 0.0079932 -0.0704301 0.9920068 0.0704301 0.9920068 0.0704301 0.0079932 -0.0704301
1780000000 0.0077106 -0.0683201 0.9922894 0.0683201 0.9922894 0.0683201 0.0077106 -0.0683201
1801000000 0.0074416 -0.0662414 0.9925584 0.0662414 0.9925584 0.0662414 0.0074416 -0.0662414
1822000000 0.0071856 -0.0641929 0.9928144 0.0641929 0.9928144 0.0641929 0.0071856 -0.0641929
1843000000 0.0069422 -0.0621735 0.9930578 0.0621735 0.9930578 0.0621735 0.0069422 -0.0621735
1864000000 0.0067108 -0.0601824 0.9932892 0.0601824 0.9932892 0.0601824 0.0067108 -0.0601824
1885000000 0.0064909 -0.0582186 0.9935091 0.0582186 0.9935091 0.0582186 0.0064909 -0.0582186
1906000000 0.0062821 -0.0562812 0.9937179 0.0562812 0.9937179 0.0562812 0.0062821 -0.0562812
1927000000 0.0060841 -0.0543693 0.9939159 0.0543693 0.9939159 0.0543693 0.0060841 -0.0543693
1948000000 0.0058964 -0.0524822 0.9941036 0.0524822 0.9941036 0.0524822 0.0058964 -0.0524822
1969000000 0.0057186 -0.0506190 0.9942814 0.0506190 0.9942814 0.0506190 0.0057186 -0.0506190
1990000000 0.0055504 -0.0487791 0.9944496 0.0487791 0.9944496 0.0487791 0.0055504 -0.0487791
2011000000 0.0053915 -0.0469616 0.9946085 0.0469616 0.9946085 0.0469616 0.0053915 -0.0469616
2032000000 0.0052415 -0.0451659 0.9947585 0.0451659 0.9947585 0.0451659 0.0052415 -0.0451659
2053000000 0.0051002 -0.0433912 0.9948998 0.0433912 0.9948998 0.0433912 0.0051002 -0.0433912
2074000000 0.0049672 -0.0416371 0.9950328 0.0416371 0.9950328 0.0416371 0.0049672 -0.0416371
2095000000 0.0048423 -0.0399027 0.9951577 0.0399027 0.9951577 0.0399027 0.0048423 -0.0399027
2116000000 0.0047253 -0.0381876 0.9952747 0.0381876 0.9952747 0.0381876 0.0047253 -0.0381876
2137000000 0.0046158 -0.0364912 0.9953842 0.0364912 0.9953842 0.0364912 0.0046158 -0.0364912
2158000000 0.0045137 -0.0348128 0.9954863 0.0348128 0.9954863 0.0348128 0.0045137 -0.0348128
2179000000 0.0044187 -0.0331520 0.9955813 0.0331520 0.9955813 0.0331520 0.0044187 -0.0331520
2200000000 0.0043307 -0.0315082 0.9956693 0.0315082 0.9956693 0.0315082 0.0043307 -0.0315082
2221000000 0.0042494 -0.0298809 0.9957506 0.0298809 0.9957506 0.0298809 0.0042494 -0.0298809
2242000000 0.0041746 -0.0282696 0.9958254 0.0282696 0.9958254 0.0282696 0.0041746 -0.0282696
2263000000 0.0041062 -0.0266739 0.9958938 0.0266739 0.9958938 0.0266739 0.0041062 -0.0266739
2284000000 0.0040440 -0.0250934 0.9959560 0.0250934 0.9959560 0.0250934 0.0040440 -0.0250934
2305000000 0.0039878 -0.0235275 0.9960122 0.0235275 0.9960122 0.0235275 0.0039878 -0.0235275
2326000000 0.0039375 -0.0219758 0.9960625 0.0219758 0.9960625 0.0219758 0.0039375 -0.0219758
2347000000 0.0038930 -0.0204380 0.9961070 0.0204380 0.9961070 0.0204380 0.0038930 -0.0204380
2368000000 0.0038540 -0.0189136 0.9961460 0.0189136 0.9961460 0.0189136 0.0038540 -0.0189136
2389000000 0.0038205 -0.0174023 0.9961795 0.0174023 0.9961795 0.0174023 0.0038205 -0.0174023
2410000000 0.0037923 -0.0159037 0.9962077 0.0159037 0.9962077 0.0159037 0.0037923 -0.0159037
2431000000 0.0037693 -0.0144174 0.9962307 0.0144174 0.9962307 0.0144174 0.0037693 -0.0144174
2452000000 0.0037514 -0.0129430 0.9962486 0.0129430 0.9962486 0.0129430 0.0037514 -0.0129430
2473000000 0.0037384 -0.0114803 0.9962616 0.0114803 0.9962616 0.0114803 0.0037384 -0.0114803
2494000000 0.0037304 -0.0100289 0.9962696 0.0100289 0.9962696 0.0100289 0.0037304 -0.0100289
2515000000 0.0037271 -0.0085885 0.9962729 0.0085885 0.9962729 0.0085885 0.0037271 -0.0085885
2536000000 0.0037286 -0.0071587 0.9962714 0.0071587 0.9962714 0.0071587 0.0037286 -0.0071587
2557000000 0.0037346 -0.0057393 0.9962654 0.0057393 0.9962654 0.0057393 0.0037346 -0.0057393
2578000000 0.0037451 -0.0043300 0.9962549 0.0043300 0.9962549 0.0043300 0.0037451 -0.0043300
2599000000 0.0037601 -0.0029305 0.9962399 0.0029305 0.9962399 0.0029305 0.0037601 -0.0029305
2620000000 0.0037794 -0.0015405 0.9962206 0.0015405 0.9962206 0.0015405 0.0037794 -0.0015405
2641000000 0.0038030 -0.0001597 0.9961970 0.0001597 0.9961970 0.0001597 0.0038030 -0.0001597
2662000000 0.0038308 0.0012121 0.9961692 -0.0012121 0.9961692 -0.0012121 0.0038308 0.0012121
2683000000 0.0038628 0.0025751 0.9961372 -0.0025751 0.9961372 -0.0025751 0.0038628 0.0025751
2704000000 0.0038988 0.0039297 0.9961012 -0.0039297 0.9961012 -0.0039297 0.0038988 0.0039297
2725000000 0.0039389 0.0052761 0.9960611 -0.0052761 0.9960611 -0.0052761 0.0039389 0.0052761
2746000000 0.0039830 0.0066144 0.9960170 -0.0066144 0.9960170 -0.0066144 0.0039830 0.0066144
2767000000 0.0040309 0.0079450 0.9959691 -0.0079450 0.9959691 -0.0079450 0.0040309 0.0079450
2788000000 0.0040828 0.0092680 0.9959172 -0.0092680 0.9959172 -0.0092680 0.0040828 0.0092680
2809000000 0.0041384 0.0105837 0.9958616 -0.0105837 0.9958616 -0.0105837 0.0041384 0.0105837
2830000000 0.0041979 0.0118923 0.9958021 -0.0118923 0.9958021 -0.0118923 0.0041979 0.0118923
2851000000 0.0042611 0.0131940 0.9957389 -0.0131940 0.9957389 -0.0131940 0.0042611 0.0131940
2872000000 0.0043280 0.0144890 0.9956720 -0.0144890 0.9956720 -0.0144890 0.0043280 0.0144890
2893000000 0.0043985 0.0157774 0.9956015 -0.0157774 0.9956015 -0.0157774 0.0043985 0.0157774
2914000000 0.0044727 0.0170596 0.9955273 -0.0170596 0.9955273 -0.0170596 0.0044727 0.0170596
2935000000 0.0045505 0.0183357 0.9954495 -0.0183357 0.9954495 -0.0183357 0.0045505 0.0183357
2956000000 0.0046319 0.0196058 0.9953681 -0.0196058 0.9953681 -0.0196058 0.0046319 0.0196058
2977000000 0.0047168 0.0208702 0.9952832 -0.0208702 0.9952832 -0.0208702 0.0047168 0.0208702
2998000000 0.0048052 0.0221290 0.9951948 -0.0221290 0.9951948 -0.0221290 0.0048052 0.0221290
3019000000 0.0048972 0.0233824 0.9951028 -0.0233824 0.9951028 -0.0233824 0.0048972 0.0233824
3040000000 0.0049926 0.0246306 0.9950074 -0.0246306 0.9950074 -0.0246306 0.0049926 0.0246306
3061000000 0.0050915 0.0258737 0.9949085 -0.0258737 0.9949085 -0.0258737 0.0050915 0.0258737
3082000000 0.0051939 0.0271120 0.9948061 -0.0271120 0.9948061 -0.0271120 0.0051939 0.0271120
3103000000 0.0052997 0.0283455 0.9947003 -0.0283455 0.9947003 -0.0283455 0.0052997 0.0283455
3124000000 0.0054089 0.0295745 0.9945911 -0.0295745 0.9945911 -0.0295745 0.0054089 0.0295745
3145000000 0.0055216 0.0307991 0.9944784 -0.0307991 0.9944784 -0.0307991 0.0055216 0.0307991
3166000000 0.0056376 0.0320194 0.9943624 -0.0320194 0.9943624 -0.0320194 0.0056376 0.0320194
3187000000 0.0057571 0.0332356 0.9942429 -0.0332356 0.9942429 -0.0332356 0.0057571 0.0332356
3208000000 0.0058799 0.0344478 0.9941201 -0.0344478 0.9941201 -0.0344478 0.0058799 0.0344478
3229000000 0.0060062 0.0356563 0.9939938 -0.0356563 0.9939938 -0.0356563 0.0060062 0.0356563
3250000000 0.0061359 0.0368610 0.9938641 -0.0368610 0.9938641 -0.0368610 0.0061359 0.0368610
3271000000 0.0062690 0.0380623 0.9937310 -0.0380623 0.9937310 -0.0380623 0.0062690 0.0380623
3292000000 0.0064055 0.0392602 0.9935945 -0.0392602 0.9935945 -0.0392602 0.0064055 0.0392602
3313000000 0.0065454 0.0404548 0.9934546 -0.0404548 0.9934546 -0.0404548 0.0065454 0.0404548
3334000000 0.0066887 0.0416464 0.9933113 -0.0416464 0.9933113 -0.0416464 0.0066887 0.0416464
3355000000 0.0068355 0.0428350 0.9931645 -0.0428350 0.9931645 -0.0428350 0.0068355 0.0428350
3376000000 0.0069857 0.0440207 0.9930143 -0.0440207 0.9930143 -0.0440207 0.0069857 0.0440207
3397000000 0.0071394 0.0452038 0.9928606 -0.0452038 0.9928606 -0.0452038 0.0071394 0.0452038
3418000000 0.0072965 0.0463843 0.9927035 -0.0463843 0.9927035 -0.0463843 0.0072965 0.0463843
3439000000 0.0074572 0.0475624 0.9925428 -0.0475624 0.9925428 -0.0475624 0.0074572 0.0475624
3460000000 0.0076214 0.0487381 0.9923786 -0.0487381 0.9923786 -0.0487381 0.0076214 0.0487381
3481000000 0.0077891 0.0499117 0.9922109 -0.0499117 0.9922109 -0.0499117 0.0077891 0.0499117
3502000000 0.0079603 0.0510833 0.9920397 -0.0510833 0.9920397 -0.0510833 0.0079603 0.0510833
3523000000 0.0081352 0.0522529 0.9918648 -0.0522529 0.9918648 -0.0522529 0.0081352 0.0522529
3544000000 0.0083136 0.0534207 0.9916864 -0.0534207 0.9916864 -0.0534207 0.0083136 0.0534207
3565000000 0.0084958 0.0545869 0.9915042 -0.0545869 0.9915042 -0.0545869 0.0084958 0.0545869
3586000000 0.0086815 0.0557515 0.9913185 -0.0557515 0.9913185 -0.0557515 0.0086815 0.0557515
3607000000 0.0088711 0.0569147 0.9911289 -0.0569147 0.9911289 -0.0569147 0.0088711 0.0569147
3628000000 0.0090643 0.0580766 0.9909357 -0.0580766 0.9909357 -0.0580766 0.0090643 0.0580766
3649000000 0.0092614 0.0592374 0.9907386 -0.0592374 0.9907386 -0.0592374 0.0092614 0.0592374
3670000000 0.0094623 0.0603971 0.9905377 -0.0603971 0.9905377 -0.0603971 0.0094623 0.0603971
3691000000 0.0096670 0.0615559 0.9903330 -0.0615559 0.9903330 -0.0615559 0.0096670 0.0615559
3712000000 0.0098757 0.0627139 0.9901243 -0.0627139 0.9901243 -0.0627139 0.0098757 0.0627139
3733000000 0.0100884 0.0638712 0.9899116 -0.0638712 0.9899116 -0.0638712 0.0100884 0.0638712
3754000000 0.0103051 0.0650280 0.9896949 -0.0650280 0.9896949 -0.0650280 0.0103051 0.0650280
3775000000 0.0105259 0.0661843 0.9894741 -0.0661843 0.9894741 -0.0661843 0.0105259 0.0661843
3796000000 0.0107508 0.0673404 0.9892492 -0.0673404 0.9892492 -0.0673404 0.0107508 0.0673404
3817000000 0.0109800 0.0684963 0.9890200 -0.0684963 0.9890200 -0.0684963 0.0109800 0.0684963
3838000000 0.0112134 0.0696522 0.9887866 -0.0696522 0.9887866 -0.0696522 0.0112134 0.0696522
3859000000 0.0114512 0.0708081 0.9885488 -0.0708081 0.9885488 -0.0708081 0.0114512 0.0708081
3880000000 0.0116934 0.0719643 0.9883066 -0.0719643 0.9883066 -0.0719643 0.0116934 0.0719643
3901000000 0.0119401 0.0731208 0.9880599 -0.0731208 0.9880599 -0.0731208 0.0119401 0.0731208
3922000000 0.0121914 0.0742778 0.9878086 -0.0742778 0.9878086 -0.0742778 0.0121914 0.0742778
3943000000 0.0124473 0.0754354 0.9875527 -0.0754354 0.9875527 -0.0754354 0.0124473 0.0754354
3964000000 0.0127080 0.0765938 0.9872920 -0.0765938 0.9872920 -0.0765938 0.0127080 0.0765938
3985000000 0.0129736 0.0777531 0.9870264 -0.0777531 0.9870264 -0.0777531 0.0129736 0.0777531
4006000000 0.0132441 0.0789133 0.9867559 -0.0789133 0.9867559 -0.0789133 0.0132441 0.0789133
4027000000 0.0135196 0.0800747 0.9864804 -0.0800747 0.9864804 -0.0800747 0.0135196 0.0800747
4048000000 0.0138003 0.0812375 0.9861997 -0.0812375 0.9861997 -0.0812375 0.0138003 0.0812375
4069000000 0.0140863 0.0824016 0.9859137 -0.0824016 0.9859137 -0.0824016 0.0140863 0.0824016
4090000000 0.0143778 0.0835674 0.9856222 -0.0835674 0.9856222 -0.0835674 0.0143778 0.0835674
4111000000 0.0146747 0.0847349 0.9853253 -0.0847349 0.9853253 -0.0847349 0.0146747 0.0847349
4132000000 0.0149773 0.0859043 0.9850227 -0.0859043 0.9850227 -0.0859043 0.0149773 0.0859043
4153000000 0.0152858 0.0870757 0.9847142 -0.0870757 0.9847142 -0.0870757 0.0152858 0.0870757
4174000000 0.0156002 0.0882494 0.9843998 -0.0882494 0.9843998 -0.0882494 0.0156002 0.0882494
4195000000 0.0159207 0.0894253 0.9840793 -0.0894253 0.9840793 -0.0894253 0.0159207 0.0894253
4216000000 0.0162475 0.0906039 0.9837525 -0.0906039 0.9837525 -0.0906039 0.0162475 0.0906039
4237000000 0.0165808 0.0917851 0.9834192 -0.0917851 0.9834192 -0.0917851 0.0165808 0.0917851
4258000000 0.0169207 0.0929691 0.9830793 -0.0929691 0.9830793 -0.0929691 0.0169207 0.0929691
4279000000 0.0172675 0.0941562 0.9827325 -0.0941562 0.9827325 -0.0941562 0.0172675 0.0941562
4300000000 0.0176214 0.0953465 0.9823786 -0.0953465 0.9823786 -0.0953465 0.0176214 0.0953465
4321000000 0.0179826 0.0965402 0.9820174 -0.0965402 0.9820174 -0.0965402 0.0179826 0.0965402
4342000000 0.0183513 0.0977374 0.9816487 -0.0977374 0.9816487 -0.0977374 0.0183513 0.0977374
4363000000 0.0187277 0.0989385 0.9812723 -0.0989385 0.9812723 -0.0989385 0.0187277 0.0989385
4384000000 0.0191122 0.1001434 0.9808878 -0.1001434 0.9808878 -0.1001434 0.0191122 0.1001434
4405000000 0.0195050 0.1013526 0.9804950 -0.1013526 0.9804950 -0.1013526 0.0195050 0.1013526
4426000000 0.0199064 0.1025661 0.9800936 -0.1025661 0.9800936 -0.1025661 0.0199064 0.1025661
4447000000 0.0203168 0.1037842 0.9796832 -0.1037842 0.9796832 -0.1037842 0.0203168 0.1037842
4468000000 0.0207364 0.1050071 0.9792636 -0.1050071 0.9792636 -0.1050071 0.0207364 0.1050071
4489000000 0.0211657 0.1062351 0.9788343 -0.1062351 0.9788343 -0.1062351 0.0211657 0.1062351
4510000000 0.0216049 0.1074683 0.9783951 -0.1074683 0.9783951 -0.1074683 0.0216049 0.1074683
