!Murata Part Number: GRM1882C2A9R8CA01
!These Parameters are Measured in Series Mode Connection
!Data Generated on Mar 30, 2021
!       o--ll--o
!Port1            Port2
!       o------o
!Operation Temp=25[degC], DC Bias Voltage=0[V]
!Freq. Start=100[MHz] Stop=9[GHz] 401[Steps]
# Hz S RI R 50
!Freq.(Hz) S11(Real) S11(Imag) S21(Real) S21(Imag) S12(Real) S12(Imag) S22(Real) S22(Imag)
100000000 0.7241258 -0.4466442 0.2758742 0.4466442 0.2758742 0.4466442 0.7241258 -0.4466442
121000000 0.6415305 -0.4791595 0.3584695 0.4791595 0.3584695 0.4791595 0.6415305 -0.4791595
142000000 0.5646047 -0.4953266 0.4353953 0.4953266 0.4353953 0.4953266 0.5646047 -0.4953266
163000000 0.4954172 -0.4993970 0.5045828 0.4993970 0.5045828 0.4993970 0.4954172 -0.4993970
184000000 0.4345444 -0.4950053 0.5654556 0.4950053 0.5654556 0.4950053 0.4345444 -0.4950053
205000000 0.3816918 -0.4849902 0.6183082 0.4849902 0.6183082 0.4849902 0.3816918 -0.4849902
226000000 0.3361358 -0.4714450 0.6638642 0.4714450 0.6638642 0.4714450 0.3361358 -0.4714450
247000000 0.2969959 -0.4558544 0.7030041 0.4558544 0.7030041 0.4558544 0.2969959 -0.4558544
268000000 0.2633861 -0.4392410 0.7366139 0.4392410 0.7366139 0.4392410 0.2633861 -0.4392410
289000000 0.2344881 -0.4222916 0.7655119 0.4222916 0.7655119 0.4222916 0.2344881 -0.4222916
310000000 0.2095801 -0.4054558 0.7904199 0.4054558 0.7904199 0.4054558 0.2095801 -0.4054558
331000000 0.1880423 -0.3890186 0.8119577 0.3890186 0.8119577 0.3890186 0.1880423 -0.3890186
352000000 0.1693507 -0.3731523 0.8306493 0.3731523 0.8306493 0.3731523 0.1693507 -0.3731523
373000000 0.1530660 -0.3579532 0.8469340 0.3579532 0.8469340 0.3579532 0.1530660 -0.3579532
394000000 0.1388214 -0.3434670 0.8611786 0.3434670 0.8611786 0.3434670 0.1388214 -0.3434670
415000000 0.1263115 -0.3297058 0.8736885 0.3297058 0.8736885 0.3297058 0.1263115 -0.3297058
436000000 0.1152815 -0.3166602 0.8847185 0.3166602 0.8847185 0.3166602 0.1152815 -0.3166602
457000000 0.1055189 -0.3043076 0.8944811 0.3043076 0.8944811 0.3043076 0.1055189 -0.3043076
478000000 0.0968458 -0.2926174 0.9031542 0.2926174 0.9031542 0.2926174 0.0968458 -0.2926174
499000000 0.0891129 -0.2815547 0.9108871 0.2815547 0.9108871 0.2815547 0.0891129 -0.2815547
520000000 0.0821946 -0.2710829 0.9178054 0.2710829 0.9178054 0.2710829 0.0821946 -0.2710829
541000000 0.0759845 -0.2611650 0.9240155 0.2611650 0.9240155 0.2611650 0.0759845 -0.2611650
562000000 0.0703927 -0.2517651 0.9296073 0.2517651 0.9296073 0.2517651 0.0703927 -0.2517651
583000000 0.0653426 -0.2428485 0.9346574 0.2428485 0.9346574 0.2428485 0.0653426 -0.2428485
604000000 0.0607686 -0.2343823 0.9392314 0.2343823 0.9392314 0.2343823 0.0607686 -0.2343823
625000000 0.0566146 -0.2263358 0.9433854 0.2263358 0.9433854 0.2263358 0.0566146 -0.2263358
646000000 0.0528324 -0.2186800 0.9471676 0.2186800 0.9471676 0.2186800 0.0528324 -0.2186800
667000000 0.0493801 -0.2113882 0.9506199 0.2113882 0.9506199 0.2113882 0.0493801 -0.2113882
688000000 0.0462217 -0.2044355 0.9537783 0.2044355 0.9537783 0.2044355 0.0462217 -0.2044355
709000000 0.0433258 -0.1977989 0.9566742 0.1977989 0.9566742 0.1977989 0.0433258 -0.1977989
730000000 0.0406649 -0.1914572 0.9593351 0.1914572 0.9593351 0.1914572 0.0406649 -0.1914572
751000000 0.0382151 -0.1853907 0.9617849 0.1853907 0.9617849 0.1853907 0.0382151 -0.1853907
772000000 0.0359554 -0.1795814 0.9640446 0.1795814 0.9640446 0.1795814 0.0359554 -0.1795814
793000000 0.0338672 -0.1740126 0.9661328 0.1740126 0.9661328 0.1740126 0.0338672 -0.1740126
814000000 0.0319343 -0.1686688 0.9680657 0.1686688 0.9680657 0.1686688 0.0319343 -0.1686688
835000000 0.0301421 -0.1635359 0.9698579 0.1635359 0.9698579 0.1635359 0.0301421 -0.1635359
856000000 0.0284779 -0.1586007 0.9715221 0.1586007 0.9715221 0.1586007 0.0284779 -0.1586007
877000000 0.0269302 -0.1538510 0.9730698 0.1538510 0.9730698 0.1538510 0.0269302 -0.1538510
898000000 0.0254888 -0.1492757 0.9745112 0.1492757 0.9745112 0.1492757 0.0254888 -0.1492757
919000000 0.0241448 -0.1448644 0.9758552 0.1448644 0.9758552 0.1448644 0.0241448 -0.1448644
940000000 0.0228899 -0.1406075 0.9771101 0.1406075 0.9771101 0.1406075 0.0228899 -0.1406075
961000000 0.0217168 -0.1364960 0.9782832 0.1364960 0.9782832 0.1364960 0.0217168 -0.1364960
982000000 0.0206190 -0.1325216 0.9793810 0.1325216 0.9793810 0.1325216 0.0206190 -0.1325216
1003000000 0.0195905 -0.1286767 0.9804095 0.1286767 0.9804095 0.1286767 0.0195905 -0.1286767
1024000000 0.0186260 -0.1249542 0.9813740 0.1249542 0.9813740 0.1249542 0.0186260 -0.1249542
1045000000 0.0177206 -0.1213473 0.9822794 0.1213473 0.9822794 0.1213473 0.0177206 -0.1213473
1066000000 0.0168699 -0.1178499 0.9831301 0.1178499 0.9831301 0.1178499 0.0168699 -0.1178499
1087000000 0.0160700 -0.1144563 0.9839300 0.1144563 0.9839300 0.1144563 0.0160700 -0.1144563
1108000000 0.0153172 -0.1111609 0.9846828 0.1111609 0.9846828 0.1111609 0.0153172 -0.1111609
1129000000 0.0146083 -0.1079589 0.9853917 0.1079589 0.9853917 0.1079589 0.0146083 -0.1079589
1150000000 0.0139401 -0.1048454 0.9860599 0.1048454 0.9860599 0.1048454 0.0139401 -0.1048454
1171000000 0.0133099 -0.1018162 0.9866901 0.1018162 0.9866901 0.1018162 0.0133099 -0.1018162
1192000000 0.0127153 -0.0988670 0.9872847 0.0988670 0.9872847 0.0988670 0.0127153 -0.0988670
1213000000 0.0121538 -0.0959940 0.9878462 0.0959940 0.9878462 0.0959940 0.0121538 -0.0959940
1234000000 0.0116234 -0.0931936 0.9883766 0.0931936 0.9883766 0.0931936 0.0116234 -0.0931936
1255000000 0.0111222 -0.0904623 0.9888778 0.0904623 0.9888778 0.0904623 0.0111222 -0.0904623
1276000000 0.0106482 -0.0877970 0.9893518 0.0877970 0.9893518 0.0877970 0.0106482 -0.0877970
1297000000 0.0101998 -0.0851946 0.9898002 0.0851946 0.9898002 0.0851946 0.0101998 -0.0851946
1318000000 0.0097756 -0.0826524 0.9902244 0.0826524 0.9902244 0.0826524 0.0097756 -0.0826524
1339000000 0.0093741 -0.0801676 0.9906259 0.0801676 0.9906259 0.0801676 0.0093741 -0.0801676
1360000000 0.0089939 -0.0777378 0.9910061 0.0777378 0.9910061 0.0777378 0.0089939 -0.0777378
1381000000 0.0086340 -0.0753604 0.9913660 0.0753604 0.9913660 0.0753604 0.0086340 -0.0753604
1402000000 0.0082931 -0.0730334 0.9917069 0.0730334 0.9917069 0.0730334 0.0082931 -0.0730334
1423000000 0.0079702 -0.0707546 0.9920298 0.0707546 0.9920298 0.0707546 0.0079702 -0.0707546
1444000000 0.0076643 -0.0685219 0.9923357 0.0685219 0.9923357 0.0685219 0.0076643 -0.0685219
1465000000 0.0073746 -0.0663336 0.9926254 0.0663336 0.9926254 0.0663336 0.0073746 -0.0663336
1486000000 0.0071001 -0.0641877 0.9928999 0.0641877 0.9928999 0.0641877 0.0071001 -0.0641877
1507000000 0.0068402 -0.0620826 0.9931598 0.0620826 0.9931598 0.0620826 0.0068402 -0.0620826
1528000000 0.0065940 -0.0600166 0.9934060 0.0600166 0.9934060 0.0600166 0.0065940 -0.0600166
1549000000 0.0063610 -0.0579883 0.9936390 0.0579883 0.9936390 0.0579883 0.0063610 -0.0579883
1570000000 0.0061404 -0.0559961 0.9938596 0.0559961 0.9938596 0.0559961 0.0061404 -0.0559961
1591000000 0.0059316 -0.0540388 0.9940684 0.0540388 0.9940684 0.0540388 0.0059316 -0.0540388
1612000000 0.0057342 -0.0521149 0.9942658 0.0521149 0.9942658 0.0521149 0.0057342 -0.0521149
1633000000 0.0055476 -0.0502232 0.9944524 0.0502232 0.9944524 0.0502232 0.0055476 -0.0502232
1654000000 0.0053712 -0.0483625 0.9946288 0.0483625 0.9946288 0.0483625 0.0053712 -0.0483625
1675000000 0.0052047 -0.0465318 0.9947953 0.0465318 0.9947953 0.0465318 0.0052047 -0.0465318
1696000000 0.0050476 -0.0447298 0.9949524 0.0447298 0.9949524 0.0447298 0.0050476 -0.0447298
1717000000 0.0048995 -0.0429557 0.9951005 0.0429557 0.9951005 0.0429557 0.0048995 -0.0429557
1738000000 0.0047600 -0.0412083 0.9952400 0.0412083 0.9952400 0.0412083 0.0047600 -0.0412083
1759000000 0.0046287 -0.0394868 0.9953713 0.0394868 0.9953713 0.0394868 0.0046287 -0.0394868
1780000000 0.0045054 -0.0377903 0.9954946 0.0377903 0.9954946 0.0377903 0.0045054 -0.0377903
1801000000 0.0043897 -0.0361179 0.9956103 0.0361179 0.9956103 0.0361179 0.0043897 -0.0361179
1822000000 0.0042813 -0.0344687 0.9957187 0.0344687 0.9957187 0.0344687 0.0042813 -0.0344687
1843000000 0.0041799 -0.0328421 0.9958201 0.0328421 0.9958201 0.0328421 0.0041799 -0.0328421
1864000000 0.0040852 -0.0312372 0.9959148 0.0312372 0.9959148 0.0312372 0.0040852 -0.0312372
1885000000 0.0039971 -0.0296534 0.9960029 0.0296534 0.9960029 0.0296534 0.0039971 -0.0296534
1906000000 0.0039152 -0.0280899 0.9960848 0.0280899 0.9960848 0.0280899 0.0039152 -0.0280899
1927000000 0.0038393 -0.0265461 0.9961607 0.0265461 0.9961607 0.0265461 0.0038393 -0.0265461
1948000000 0.0037693 -0.0250213 0.9962307 0.0250213 0.9962307 0.0250213 0.0037693 -0.0250213
1969000000 0.0037049 -0.0235150 0.9962951 0.0235150 0.9962951 0.0235150 0.0037049 -0.0235150
1990000000 0.0036459 -0.0220266 0.9963541 0.0220266 0.9963541 0.0220266 0.0036459 -0.0220266
2011000000 0.0035922 -0.0205555 0.9964078 0.0205555 0.9964078 0.0205555 0.0035922 -0.0205555
2032000000 0.0035435 -0.0191011 0.9964565 0.0191011 0.9964565 0.0191011 0.0035435 -0.0191011
2053000000 0.0034998 -0.0176630 0.9965002 0.0176630 0.9965002 0.0176630 0.0034998 -0.0176630
2074000000 0.0034608 -0.0162407 0.9965392 0.0162407 0.9965392 0.0162407 0.0034608 -0.0162407
2095000000 0.0034265 -0.0148337 0.9965735 0.0148337 0.9965735 0.0148337 0.0034265 -0.0148337
2116000000 0.0033966 -0.0134415 0.9966034 0.0134415 0.9966034 0.0134415 0.0033966 -0.0134415
2137000000 0.0033711 -0.0120636 0.9966289 0.0120636 0.9966289 0.0120636 0.0033711 -0.0120636
2158000000 0.0033498 -0.0106998 0.9966502 0.0106998 0.9966502 0.0106998 0.0033498 -0.0106998
2179000000 0.0033326 -0.0093494 0.9966674 0.0093494 0.9966674 0.0093494 0.0033326 -0.0093494
2200000000 0.0033194 -0.0080123 0.9966806 0.0080123 0.9966806 0.0080123 0.0033194 -0.0080123
2221000000 0.0033101 -0.0066879 0.9966899 0.0066879 0.9966899 0.0066879 0.0033101 -0.0066879
2242000000 0.0033046 -0.0053759 0.9966954 0.0053759 0.9966954 0.0053759 0.0033046 -0.0053759
2263000000 0.0033028 -0.0040760 0.9966972 0.0040760 0.9966972 0.0040760 0.0033028 -0.0040760
2284000000 0.0033046 -0.0027877 0.9966954 0.0027877 0.9966954 0.0027877 0.0033046 -0.0027877
2305000000 0.0033098 -0.0015109 0.9966902 0.0015109 0.9966902 0.0015109 0.0033098 -0.0015109
2326000000 0.0033186 -0.0002451 0.9966814 0.0002451 0.9966814 0.0002451 0.0033186 -0.0002451
2347000000 0.0033306 0.0010100 0.9966694 -0.0010100 0.9966694 -0.0010100 0.0033306 0.0010100
2368000000 0.0033460 0.0022545 0.9966540 -0.0022545 0.9966540 -0.0022545 0.0033460 0.0022545
2389000000 0.0033646 0.0034890 0.9966354 -0.0034890 0.9966354 -0.0034890 0.0033646 0.0034890
2410000000 0.0033863 0.0047135 0.9966137 -0.0047135 0.9966137 -0.0047135 0.0033863 0.0047135
2431000000 0.0034110 0.0059284 0.9965890 -0.0059284 0.9965890 -0.0059284 0.0034110 0.0059284
2452000000 0.0034388 0.0071340 0.9965612 -0.0071340 0.9965612 -0.0071340 0.0034388 0.0071340
2473000000 0.0034696 0.0083305 0.9965304 -0.0083305 0.9965304 -0.0083305 0.0034696 0.0083305
2494000000 0.0035033 0.0095181 0.9964967 -0.0095181 0.9964967 -0.0095181 0.0035033 0.0095181
2515000000 0.0035398 0.0106972 0.9964602 -0.0106972 0.9964602 -0.0106972 0.0035398 0.0106972
2536000000 0.0035791 0.0118678 0.9964209 -0.0118678 0.9964209 -0.0118678 0.0035791 0.0118678
2557000000 0.0036212 0.0130303 0.9963788 -0.0130303 0.9963788 -0.0130303 0.0036212 0.0130303
2578000000 0.0036660 0.0141848 0.9963340 -0.0141848 0.9963340 -0.0141848 0.0036660 0.0141848
2599000000 0.0037135 0.0153317 0.9962865 -0.0153317 0.9962865 -0.0153317 0.0037135 0.0153317
2620000000 0.0037636 0.0164710 0.9962364 -0.0164710 0.9962364 -0.0164710 0.0037636 0.0164710
2641000000 0.0038163 0.0176029 0.9961837 -0.0176029 0.9961837 -0.0176029 0.0038163 0.0176029
2662000000 0.0038716 0.0187278 0.9961284 -0.0187278 0.9961284 -0.0187278 0.0038716 0.0187278
2683000000 0.0039294 0.0198457 0.9960706 -0.0198457 0.9960706 -0.0198457 0.0039294 0.0198457
2704000000 0.0039897 0.0209569 0.9960103 -0.0209569 0.9960103 -0.0209569 0.0039897 0.0209569
2725000000 0.0040525 0.0220615 0.9959475 -0.0220615 0.9959475 -0.0220615 0.0040525 0.0220615
2746000000 0.0041178 0.0231597 0.9958822 -0.0231597 0.9958822 -0.0231597 0.0041178 0.0231597
2767000000 0.0041855 0.0242516 0.9958145 -0.0242516 0.9958145 -0.0242516 0.0041855 0.0242516
2788000000 0.0042556 0.0253375 0.9957444 -0.0253375 0.9957444 -0.0253375 0.0042556 0.0253375
2809000000 0.0043280 0.0264176 0.9956720 -0.0264176 0.9956720 -0.0264176 0.0043280 0.0264176
2830000000 0.0044029 0.0274918 0.9955971 -0.0274918 0.9955971 -0.0274918 0.0044029 0.0274918
2851000000 0.0044801 0.0285605 0.9955199 -0.0285605 0.9955199 -0.0285605 0.0044801 0.0285605
2872000000 0.0045596 0.0296238 0.9954404 -0.0296238 0.9954404 -0.0296238 0.0045596 0.0296238
2893000000 0.0046415 0.0306817 0.9953585 -0.0306817 0.9953585 -0.0306817 0.0046415 0.0306817
2914000000 0.0047256 0.0317346 0.9952744 -0.0317346 0.9952744 -0.0317346 0.0047256 0.0317346
2935000000 0.0048121 0.0327824 0.9951879 -0.0327824 0.9951879 -0.0327824 0.0048121 0.0327824
2956000000 0.0049009 0.0338254 0.9950991 -0.0338254 0.9950991 -0.0338254 0.0049009 0.0338254
2977000000 0.0049919 0.0348636 0.9950081 -0.0348636 0.9950081 -0.0348636 0.0049919 0.0348636
2998000000 0.0050852 0.0358973 0.9949148 -0.0358973 0.9949148 -0.0358973 0.0050852 0.0358973
3019000000 0.0051808 0.0369265 0.9948192 -0.0369265 0.9948192 -0.0369265 0.0051808 0.0369265
3040000000 0.0052787 0.0379514 0.9947213 -0.0379514 0.9947213 -0.0379514 0.0052787 0.0379514
3061000000 0.0053789 0.0389721 0.9946211 -0.0389721 0.9946211 -0.0389721 0.0053789 0.0389721
3082000000 0.0054814 0.0399887 0.9945186 -0.0399887 0.9945186 -0.0399887 0.0054814 0.0399887
3103000000 0.0055861 0.0410014 0.9944139 -0.0410014 0.9944139 -0.0410014 0.0055861 0.0410014
3124000000 0.0056932 0.0420102 0.9943068 -0.0420102 0.9943068 -0.0420102 0.0056932 0.0420102
3145000000 0.0058025 0.0430153 0.9941975 -0.0430153 0.9941975 -0.0430153 0.0058025 0.0430153
3166000000 0.0059142 0.0440169 0.9940858 -0.0440169 0.9940858 -0.0440169 0.0059142 0.0440169
3187000000 0.0060282 0.0450149 0.9939718 -0.0450149 0.9939718 -0.0450149 0.0060282 0.0450149
3208000000 0.0061445 0.0460096 0.9938555 -0.0460096 0.9938555 -0.0460096 0.0061445 0.0460096
3229000000 0.0062632 0.0470011 0.9937368 -0.0470011 0.9937368 -0.0470011 0.0062632 0.0470011
3250000000 0.0063842 0.0479894 0.9936158 -0.0479894 0.9936158 -0.0479894 0.0063842 0.0479894
3271000000 0.0065077 0.0489747 0.9934923 -0.0489747 0.9934923 -0.0489747 0.0065077 0.0489747
3292000000 0.0066336 0.0499571 0.9933664 -0.0499571 0.9933664 -0.0499571 0.0066336 0.0499571
3313000000 0.0067619 0.0509367 0.9932381 -0.0509367 0.9932381 -0.0509367 0.0067619 0.0509367
3334000000 0.0068928 0.0519137 0.9931072 -0.0519137 0.9931072 -0.0519137 0.0068928 0.0519137
3355000000 0.0070261 0.0528880 0.9929739 -0.0528880 0.9929739 -0.0528880 0.0070261 0.0528880
3376000000 0.0071620 0.0538599 0.9928380 -0.0538599 0.9928380 -0.0538599 0.0071620 0.0538599
3397000000 0.0073004 0.0548295 0.9926996 -0.0548295 0.9926996 -0.0548295 0.0073004 0.0548295
3418000000 0.0074415 0.0557968 0.9925585 -0.0557968 0.9925585 -0.0557968 0.0074415 0.0557968
3439000000 0.0075853 0.0567619 0.9924147 -0.0567619 0.9924147 -0.0567619 0.0075853 0.0567619
3460000000 0.0077318 0.0577251 0.9922682 -0.0577251 0.9922682 -0.0577251 0.0077318 0.0577251
3481000000 0.0078810 0.0586863 0.9921190 -0.0586863 0.9921190 -0.0586863 0.0078810 0.0586863
3502000000 0.0080331 0.0596458 0.9919669 -0.0596458 0.9919669 -0.0596458 0.0080331 0.0596458
3523000000 0.0081881 0.0606036 0.9918119 -0.0606036 0.9918119 -0.0606036 0.0081881 0.0606036
3544000000 0.0083461 0.0615598 0.9916539 -0.0615598 0.9916539 -0.0615598 0.0083461 0.0615598
3565000000 0.0085071 0.0625145 0.9914929 -0.0625145 0.9914929 -0.0625145 0.0085071 0.0625145
3586000000 0.0086712 0.0634679 0.9913288 -0.0634679 0.9913288 -0.0634679 0.0086712 0.0634679
3607000000 0.0088386 0.0644201 0.9911614 -0.0644201 0.9911614 -0.0644201 0.0088386 0.0644201
3628000000 0.0090093 0.0653712 0.9909907 -0.0653712 0.9909907 -0.0653712 0.0090093 0.0653712
3649000000 0.0091833 0.0663212 0.9908167 -0.0663212 0.9908167 -0.0663212 0.0091833 0.0663212
3670000000 0.0093609 0.0672705 0.9906391 -0.0672705 0.9906391 -0.0672705 0.0093609 0.0672705
3691000000 0.0095421 0.0682189 0.9904579 -0.0682189 0.9904579 -0.0682189 0.0095421 0.0682189
3712000000 0.0097271 0.0691668 0.9902729 -0.0691668 0.9902729 -0.0691668 0.0097271 0.0691668
3733000000 0.0099160 0.0701142 0.9900840 -0.0701142 0.9900840 -0.0701142 0.0099160 0.0701142
3754000000 0.0101089 0.0710612 0.9898911 -0.0710612 0.9898911 -0.0710612 0.0101089 0.0710612
3775000000 0.0103061 0.0720079 0.9896939 -0.0720079 0.9896939 -0.0720079 0.0103061 0.0720079
3796000000 0.0105077 0.0729546 0.9894923 -0.0729546 0.9894923 -0.0729546 0.0105077 0.0729546
3817000000 0.0107139 0.0739013 0.9892861 -0.0739013 0.9892861 -0.0739013 0.0107139 0.0739013
3838000000 0.0109249 0.0748482 0.9890751 -0.0748482 0.9890751 -0.0748482 0.0109249 0.0748482
3859000000 0.0111410 0.0757954 0.9888590 -0.0757954 0.9888590 -0.0757954 0.0111410 0.0757954
3880000000 0.0113623 0.0767430 0.9886377 -0.0767430 0.9886377 -0.0767430 0.0113623 0.0767430
3901000000 0.0115893 0.0776913 0.9884107 -0.0776913 0.9884107 -0.0776913 0.0115893 0.0776913
3922000000 0.0118221 0.0786402 0.9881779 -0.0786402 0.9881779 -0.0786402 0.0118221 0.0786402
3943000000 0.0120612 0.0795901 0.9879388 -0.0795901 0.9879388 -0.0795901 0.0120612 0.0795901
3964000000 0.0123069 0.0805409 0.9876931 -0.0805409 0.9876931 -0.0805409 0.0123069 0.0805409
3985000000 0.0125596 0.0814929 0.9874404 -0.0814929 0.9874404 -0.0814929 0.0125596 0.0814929
4006000000 0.0128197 0.0824462 0.9871803 -0.0824462 0.9871803 -0.0824462 0.0128197 0.0824462
4027000000 0.0130878 0.0834010 0.9869122 -0.0834010 0.9869122 -0.0834010 0.0130878 0.0834010
4048000000 0.0133643 0.0843572 0.9866357 -0.0843572 0.9866357 -0.0843572 0.0133643 0.0843572
4069000000 0.0136500 0.0853151 0.9863500 -0.0853151 0.9863500 -0.0853151 0.0136500 0.0853151
4090000000 0.0139454 0.0862748 0.9860546 -0.0862748 0.9860546 -0.0862748 0.0139454 0.0862748
4111000000 0.0142513 0.0872362 0.9857487 -0.0872362 0.9857487 -0.0872362 0.0142513 0.0872362
4132000000 0.0145685 0.0881995 0.9854315 -0.0881995 0.9854315 -0.0881995 0.0145685 0.0881995
4153000000 0.0148980 0.0891647 0.9851020 -0.0891647 0.9851020 -0.0891647 0.0148980 0.0891647
4174000000 0.0152406 0.0901316 0.9847594 -0.0901316 0.9847594 -0.0901316 0.0152406 0.0901316
4195000000 0.0155977 0.0911003 0.9844023 -0.0911003 0.9844023 -0.0911003 0.0155977 0.0911003
4216000000 0.0159704 0.0920706 0.9840296 -0.0920706 0.9840296 -0.0920706 0.0159704 0.0920706
4237000000 0.0163601 0.0930421 0.9836399 -0.0930421 0.9836399 -0.0930421 0.0163601 0.0930421
4258000000 0.0167684 0.0940145 0.9832316 -0.0940145 0.9832316 -0.0940145 0.0167684 0.0940145
4279000000 0.0171971 0.0949873 0.9828029 -0.0949873 0.9828029 -0.0949873 0.0171971 0.0949873
4300000000 0.0176479 0.0959596 0.9823521 -0.0959596 0.9823521 -0.0959596 0.0176479 0.0959596
4321000000 0.0181232 0.0969305 0.9818768 -0.0969305 0.9818768 -0.0969305 0.0181232 0.0969305
4342000000 0.0186251 0.0978987 0.9813749 -0.0978987 0.9813749 -0.0978987 0.0186251 0.0978987
4363000000 0.0191564 0.0988624 0.9808436 -0.0988624 0.9808436 -0.0988624 0.0191564 0.0988624
4384000000 0.0197196 0.0998195 0.9802804 -0.0998195 0.9802804 -0.0998195 0.0197196 0.0998195
4405000000 0.0203179 0.1007673 0.9796821 -0.1007673 0.9796821 -0.1007673 0.0203179 0.1007673
4426000000 0.0209544 0.1017020 0.9790456 -0.1017020 0.9790456 -0.1017020 0.0209544 0.1017020
4447000000 0.0216322 0.1026193 0.9783678 -0.1026193 0.9783678 -0.1026193 0.0216322 0.1026193
4468000000 0.0223546 0.1035135 0.9776454 -0.1035135 0.9776454 -0.1035135 0.0223546 0.1035135
4489000000 0.0231244 0.1043778 0.9768756 -0.1043778 0.9768756 -0.1043778 0.0231244 0.1043778
4510000000 0.0239440 0.1052035 0.9760560 -0.1052035 0.9760560 -0.1052035 0.0239440 0.1052035
