!Murata Part Number: GRM1885C1H150JA01
!These Parameters are Measured in Series Mode Connection
!Data Generated on Mar 30, 2021
!       o--ll--o
!Port1            Port2
!       o------o
!Operation Temp=25[degC], DC Bias Voltage=0[V]
!Freq. Start=100[MHz] Stop=9[GHz] 401[Steps]
# Hz S RI R 50
!Freq.(Hz) S11(Real) S11(Imag) S21(Real) S21(Imag) S12(Real) S12(Imag) S22(Real) S22(Imag)
100000000 0.5278715 -0.4984100 0.4721285 0.4984100 0.4721285 0.4984100 0.5278715 -0.4984100
121000000 0.4324079 -0.4944204 0.5675921 0.4944204 0.5675921 0.4944204 0.4324079 -0.4944204
142000000 0.3555008 -0.4774939 0.6444992 0.4774939 0.6444992 0.4774939 0.3555008 -0.4774939
163000000 0.2944077 -0.4544197 0.7055923 0.4544197 0.7055923 0.4544197 0.2944077 -0.4544197
184000000 0.2459823 -0.4291213 0.7540177 0.4291213 0.7540177 0.4291213 0.2459823 -0.4291213
205000000 0.2074370 -0.4037283 0.7925630 0.4037283 0.7925630 0.4037283 0.2074370 -0.4037283
226000000 0.1765274 -0.3793231 0.8234726 0.3793231 0.8234726 0.3793231 0.1765274 -0.3793231
247000000 0.1515198 -0.3564004 0.8484802 0.3564004 0.8484802 0.3564004 0.1515198 -0.3564004
268000000 0.1310964 -0.3351347 0.8689036 0.3351347 0.8689036 0.3351347 0.1310964 -0.3351347
289000000 0.1142606 -0.3155318 0.8857394 0.3155318 0.8857394 0.3155318 0.1142606 -0.3155318
310000000 0.1002567 -0.2975130 0.8997433 0.2975130 0.8997433 0.2975130 0.1002567 -0.2975130
331000000 0.0885089 -0.2809622 0.9114911 0.2809622 0.9114911 0.2809622 0.0885089 -0.2809622
352000000 0.0785747 -0.2657503 0.9214253 0.2657503 0.9214253 0.2657503 0.0785747 -0.2657503
373000000 0.0701115 -0.2517491 0.9298885 0.2517491 0.9298885 0.2517491 0.0701115 -0.2517491
394000000 0.0628519 -0.2388373 0.9371481 0.2388373 0.9371481 0.2388373 0.0628519 -0.2388373
415000000 0.0565847 -0.2269039 0.9434153 0.2269039 0.9434153 0.2269039 0.0565847 -0.2269039
436000000 0.0511425 -0.2158484 0.9488575 0.2158484 0.9488575 0.2158484 0.0511425 -0.2158484
457000000 0.0463907 -0.2055813 0.9536093 0.2055813 0.9536093 0.2055813 0.0463907 -0.2055813
478000000 0.0422210 -0.1960229 0.9577790 0.1960229 0.9577790 0.1960229 0.0422210 -0.1960229
499000000 0.0385449 -0.1871027 0.9614551 0.1871027 0.9614551 0.1871027 0.0385449 -0.1871027
520000000 0.0352900 -0.1787583 0.9647100 0.1787583 0.9647100 0.1787583 0.0352900 -0.1787583
541000000 0.0323967 -0.1709344 0.9676033 0.1709344 0.9676033 0.1709344 0.0323967 -0.1709344
562000000 0.0298151 -0.1635823 0.9701849 0.1635823 0.9701849 0.1635823 0.0298151 -0.1635823
583000000 0.0275039 -0.1566585 0.9724961 0.1566585 0.9724961 0.1566585 0.0275039 -0.1566585
604000000 0.0254282 -0.1501246 0.9745718 0.1501246 0.9745718 0.1501246 0.0254282 -0.1501246
625000000 0.0235586 -0.1439464 0.9764414 0.1439464 0.9764414 0.1439464 0.0235586 -0.1439464
646000000 0.0218699 -0.1380933 0.9781301 0.1380933 0.9781301 0.1380933 0.0218699 -0.1380933
667000000 0.0203409 -0.1325381 0.9796591 0.1325381 0.9796591 0.1325381 0.0203409 -0.1325381
688000000 0.0189531 -0.1272564 0.9810469 0.1272564 0.9810469 0.1272564 0.0189531 -0.1272564
709000000 0.0176910 -0.1222263 0.9823090 0.1222263 0.9823090 0.1222263 0.0176910 -0.1222263
730000000 0.0165407 -0.1174280 0.9834593 0.1174280 0.9834593 0.1174280 0.0165407 -0.1174280
751000000 0.0154905 -0.1128439 0.9845095 0.1128439 0.9845095 0.1128439 0.0154905 -0.1128439
772000000 0.0145301 -0.1084577 0.9854699 0.1084577 0.9854699 0.1084577 0.0145301 -0.1084577
793000000 0.0136503 -0.1042551 0.9863497 0.1042551 0.9863497 0.1042551 0.0136503 -0.1042551
814000000 0.0128434 -0.1002229 0.9871566 0.1002229 0.9871566 0.1002229 0.0128434 -0.1002229
835000000 0.0121024 -0.0963490 0.9878976 0.0963490 0.9878976 0.0963490 0.0121024 -0.0963490
856000000 0.0114211 -0.0926225 0.9885789 0.0926225 0.9885789 0.0926225 0.0114211 -0.0926225
877000000 0.0107940 -0.0890336 0.9892060 0.0890336 0.9892060 0.0890336 0.0107940 -0.0890336
898000000 0.0102163 -0.0855731 0.9897837 0.0855731 0.9897837 0.0855731 0.0102163 -0.0855731
919000000 0.0096838 -0.0822326 0.9903162 0.0822326 0.9903162 0.0822326 0.0096838 -0.0822326
940000000 0.0091926 -0.0790045 0.9908074 0.0790045 0.9908074 0.0790045 0.0091926 -0.0790045
961000000 0.0087392 -0.0758818 0.9912608 0.0758818 0.9912608 0.0758818 0.0087392 -0.0758818
982000000 0.0083206 -0.0728580 0.9916794 0.0728580 0.9916794 0.0728580 0.0083206 -0.0728580
1003000000 0.0079340 -0.0699272 0.9920660 0.0699272 0.9920660 0.0699272 0.0079340 -0.0699272
1024000000 0.0075769 -0.0670838 0.9924231 0.0670838 0.9924231 0.0670838 0.0075769 -0.0670838
1045000000 0.0072471 -0.0643227 0.9927529 0.0643227 0.9927529 0.0643227 0.0072471 -0.0643227
1066000000 0.0069425 -0.0616392 0.9930575 0.0616392 0.9930575 0.0616392 0.0069425 -0.0616392
1087000000 0.0066614 -0.0590290 0.9933386 0.0590290 0.9933386 0.0590290 0.0066614 -0.0590290
1108000000 0.0064020 -0.0564880 0.9935980 0.0564880 0.9935980 0.0564880 0.0064020 -0.0564880
1129000000 0.0061628 -0.0540123 0.9938372 0.0540123 0.9938372 0.0540123 0.0061628 -0.0540123
1150000000 0.0059425 -0.0515985 0.9940575 0.0515985 0.9940575 0.0515985 0.0059425 -0.0515985
1171000000 0.0057398 -0.0492434 0.9942602 0.0492434 0.9942602 0.0492434 0.0057398 -0.0492434
1192000000 0.0055535 -0.0469437 0.9944465 0.0469437 0.9944465 0.0469437 0.0055535 -0.0469437
1213000000 0.0053826 -0.0446968 0.9946174 0.0446968 0.9946174 0.0446968 0.0053826 -0.0446968
1234000000 0.0052263 -0.0424998 0.9947737 0.0424998 0.9947737 0.0424998 0.0052263 -0.0424998
1255000000 0.0050834 -0.0403504 0.9949166 0.0403504 0.9949166 0.0403504 0.0050834 -0.0403504
1276000000 0.0049534 -0.0382460 0.9950466 0.0382460 0.9950466 0.0382460 0.0049534 -0.0382460
1297000000 0.0048354 -0.0361846 0.9951646 0.0361846 0.9951646 0.0361846 0.0048354 -0.0361846
1318000000 0.0047288 -0.0341641 0.9952712 0.0341641 0.9952712 0.0341641 0.0047288 -0.0341641
1339000000 0.0046329 -0.0321825 0.9953671 0.0321825 0.9953671 0.0321825 0.0046329 -0.0321825
1360000000 0.0045472 -0.0302380 0.9954528 0.0302380 0.9954528 0.0302380 0.0045472 -0.0302380
1381000000 0.0044711 -0.0283288 0.9955289 0.0283288 0.9955289 0.0283288 0.0044711 -0.0283288
1402000000 0.0044041 -0.0264533 0.9955959 0.0264533 0.9955959 0.0264533 0.0044041 -0.0264533
1423000000 0.0043459 -0.0246101 0.9956541 0.0246101 0.9956541 0.0246101 0.0043459 -0.0246101
1444000000 0.0042960 -0.0227975 0.9957040 0.0227975 0.9957040 0.0227975 0.0042960 -0.0227975
1465000000 0.0042539 -0.0210143 0.9957461 0.0210143 0.9957461 0.0210143 0.0042539 -0.0210143
1486000000 0.0042194 -0.0192592 0.9957806 0.0192592 0.9957806 0.0192592 0.0042194 -0.0192592
1507000000 0.0041922 -0.0175309 0.9958078 0.0175309 0.9958078 0.0175309 0.0041922 -0.0175309
1528000000 0.0041719 -0.0158283 0.9958281 0.0158283 0.9958281 0.0158283 0.0041719 -0.0158283
1549000000 0.0041582 -0.0141502 0.9958418 0.0141502 0.9958418 0.0141502 0.0041582 -0.0141502
1570000000 0.0041509 -0.0124956 0.9958491 0.0124956 0.9958491 0.0124956 0.0041509 -0.0124956
1591000000 0.0041497 -0.0108635 0.9958503 0.0108635 0.9958503 0.0108635 0.0041497 -0.0108635
1612000000 0.0041545 -0.0092529 0.9958455 0.0092529 0.9958455 0.0092529 0.0041545 -0.0092529
1633000000 0.0041650 -0.0076631 0.9958350 0.0076631 0.9958350 0.0076631 0.0041650 -0.0076631
1654000000 0.0041810 -0.0060930 0.9958190 0.0060930 0.9958190 0.0060930 0.0041810 -0.0060930
1675000000 0.0042024 -0.0045418 0.9957976 0.0045418 0.9957976 0.0045418 0.0042024 -0.0045418
1696000000 0.0042289 -0.0030089 0.9957711 0.0030089 0.9957711 0.0030089 0.0042289 -0.0030089
1717000000 0.0042606 -0.0014934 0.9957394 0.0014934 0.9957394 0.0014934 0.0042606 -0.0014934
1738000000 0.0042971 0.0000054 0.9957029 -0.0000054 0.9957029 -0.0000054 0.0042971 0.0000054
1759000000 0.0043385 0.0014881 0.9956615 -0.0014881 0.9956615 -0.0014881 0.0043385 0.0014881
1780000000 0.0043845 0.0029555 0.9956155 -0.0029555 0.9956155 -0.0029555 0.0043845 0.0029555
1801000000 0.0044350 0.0044080 0.9955650 -0.0044080 0.9955650 -0.0044080 0.0044350 0.0044080
1822000000 0.0044901 0.0058464 0.9955099 -0.0058464 0.9955099 -0.0058464 0.0044901 0.0058464
1843000000 0.0045496 0.0072712 0.9954504 -0.0072712 0.9954504 -0.0072712 0.0045496 0.0072712
1864000000 0.0046133 0.0086829 0.9953867 -0.0086829 0.9953867 -0.0086829 0.0046133 0.0086829
1885000000 0.0046813 0.0100821 0.9953187 -0.0100821 0.9953187 -0.0100821 0.0046813 0.0100821
1906000000 0.0047535 0.0114693 0.9952465 -0.0114693 0.9952465 -0.0114693 0.0047535 0.0114693
1927000000 0.0048298 0.0128449 0.9951702 -0.0128449 0.9951702 -0.0128449 0.0048298 0.0128449
1948000000 0.0049102 0.0142095 0.9950898 -0.0142095 0.9950898 -0.0142095 0.0049102 0.0142095
1969000000 0.0049947 0.0155634 0.9950053 -0.0155634 0.9950053 -0.0155634 0.0049947 0.0155634
1990000000 0.0050831 0.0169072 0.9949169 -0.0169072 0.9949169 -0.0169072 0.0050831 0.0169072
2011000000 0.0051755 0.0182411 0.9948245 -0.0182411 0.9948245 -0.0182411 0.0051755 0.0182411
2032000000 0.0052718 0.0195657 0.9947282 -0.0195657 0.9947282 -0.0195657 0.0052718 0.0195657
2053000000 0.0053721 0.0208813 0.9946279 -0.0208813 0.9946279 -0.0208813 0.0053721 0.0208813
2074000000 0.0054763 0.0221883 0.9945237 -0.0221883 0.9945237 -0.0221883 0.0054763 0.0221883
2095000000 0.0055845 0.0234870 0.9944155 -0.0234870 0.9944155 -0.0234870 0.0055845 0.0234870
2116000000 0.0056965 0.0247778 0.9943035 -0.0247778 0.9943035 -0.0247778 0.0056965 0.0247778
2137000000 0.0058125 0.0260610 0.9941875 -0.0260610 0.9941875 -0.0260610 0.0058125 0.0260610
2158000000 0.0059324 0.0273370 0.9940676 -0.0273370 0.9940676 -0.0273370 0.0059324 0.0273370
2179000000 0.0060563 0.0286061 0.9939437 -0.0286061 0.9939437 -0.0286061 0.0060563 0.0286061
2200000000 0.0061841 0.0298685 0.9938159 -0.0298685 0.9938159 -0.0298685 0.0061841 0.0298685
2221000000 0.0063160 0.0311246 0.9936840 -0.0311246 0.9936840 -0.0311246 0.0063160 0.0311246
2242000000 0.0064519 0.0323747 0.9935481 -0.0323747 0.9935481 -0.0323747 0.0064519 0.0323747
2263000000 0.0065919 0.0336189 0.9934081 -0.0336189 0.9934081 -0.0336189 0.0065919 0.0336189
2284000000 0.0067360 0.0348577 0.9932640 -0.0348577 0.9932640 -0.0348577 0.0067360 0.0348577
2305000000 0.0068843 0.0360913 0.9931157 -0.0360913 0.9931157 -0.0360913 0.0068843 0.0360913
2326000000 0.0070369 0.0373198 0.9929631 -0.0373198 0.9929631 -0.0373198 0.0070369 0.0373198
2347000000 0.0071938 0.0385436 0.9928062 -0.0385436 0.9928062 -0.0385436 0.0071938 0.0385436
2368000000 0.0073551 0.0397629 0.9926449 -0.0397629 0.9926449 -0.0397629 0.0073551 0.0397629
2389000000 0.0075209 0.0409780 0.9924791 -0.0409780 0.9924791 -0.0409780 0.0075209 0.0409780
2410000000 0.0076912 0.0421890 0.9923088 -0.0421890 0.9923088 -0.0421890 0.0076912 0.0421890
2431000000 0.0078662 0.0433961 0.9921338 -0.0433961 0.9921338 -0.0433961 0.0078662 0.0433961
2452000000 0.0080460 0.0445997 0.9919540 -0.0445997 0.9919540 -0.0445997 0.0080460 0.0445997
2473000000 0.0082307 0.0457998 0.9917693 -0.0457998 0.9917693 -0.0457998 0.0082307 0.0457998
2494000000 0.0084203 0.0469967 0.9915797 -0.0469967 0.9915797 -0.0469967 0.0084203 0.0469967
2515000000 0.0086151 0.0481906 0.9913849 -0.0481906 0.9913849 -0.0481906 0.0086151 0.0481906
2536000000 0.0088152 0.0493816 0.9911848 -0.0493816 0.9911848 -0.0493816 0.0088152 0.0493816
2557000000 0.0090208 0.0505700 0.9909792 -0.0505700 0.9909792 -0.0505700 0.0090208 0.0505700
2578000000 0.0092319 0.0517559 0.9907681 -0.0517559 0.9907681 -0.0517559 0.0092319 0.0517559
2599000000 0.0094488 0.0529394 0.9905512 -0.0529394 0.9905512 -0.0529394 0.0094488 0.0529394
2620000000 0.0096717 0.0541208 0.9903283 -0.0541208 0.9903283 -0.0541208 0.0096717 0.0541208
2641000000 0.0099008 0.0553001 0.9900992 -0.0553001 0.9900992 -0.0553001 0.0099008 0.0553001
2662000000 0.0101363 0.0564775 0.9898637 -0.0564775 0.9898637 -0.0564775 0.0101363 0.0564775
2683000000 0.0103784 0.0576532 0.9896216 -0.0576532 0.9896216 -0.0576532 0.0103784 0.0576532
2704000000 0.0106274 0.0588272 0.9893726 -0.0588272 0.9893726 -0.0588272 0.0106274 0.0588272
2725000000 0.0108835 0.0599996 0.9891165 -0.0599996 0.9891165 -0.0599996 0.0108835 0.0599996
2746000000 0.0111471 0.0611705 0.9888529 -0.0611705 0.9888529 -0.0611705 0.0111471 0.0611705
2767000000 0.0114184 0.0623400 0.9885816 -0.0623400 0.9885816 -0.0623400 0.0114184 0.0623400
2788000000 0.0116979 0.0635082 0.9883021 -0.0635082 0.9883021 -0.0635082 0.0116979 0.0635082
2809000000 0.0119857 0.0646751 0.9880143 -0.0646751 0.9880143 -0.0646751 0.0119857 0.0646751
2830000000 0.0122824 0.0658407 0.9877176 -0.0658407 0.9877176 -0.0658407 0.0122824 0.0658407
2851000000 0.0125882 0.0670050 0.9874118 -0.0670050 0.9874118 -0.0670050 0.0125882 0.0670050
2872000000 0.0129038 0.0681680 0.9870962 -0.0681680 0.9870962 -0.0681680 0.0129038 0.0681680
2893000000 0.0132293 0.0693296 0.9867707 -0.0693296 0.9867707 -0.0693296 0.0132293 0.0693296
2914000000 0.0135655 0.0704897 0.9864345 -0.0704897 0.9864345 -0.0704897 0.0135655 0.0704897
2935000000 0.0139128 0.0716481 0.9860872 -0.0716481 0.9860872 -0.0716481 0.0139128 0.0716481
2956000000 0.0142716 0.0728048 0.9857284 -0.0728048 0.9857284 -0.0728048 0.0142716 0.0728048
2977000000 0.0146427 0.0739595 0.9853573 -0.0739595 0.9853573 -0.0739595 0.0146427 0.0739595
2998000000 0.0150266 0.0751118 0.9849734 -0.0751118 0.9849734 -0.0751118 0.0150266 0.0751118
3019000000 0.0154239 0.0762615 0.9845761 -0.0762615 0.9845761 -0.0762615 0.0154239 0.0762615
3040000000 0.0158354 0.0774081 0.9841646 -0.0774081 0.9841646 -0.0774081 0.0158354 0.0774081
3061000000 0.0162617 0.0785511 0.9837383 -0.0785511 0.9837383 -0.0785511 0.0162617 0.0785511
3082000000 0.0167035 0.0796900 0.9832965 -0.0796900 0.9832965 -0.0796900 0.0167035 0.0796900
3103000000 0.0171616 0.0808239 0.9828384 -0.0808239 0.9828384 -0.0808239 0.0171616 0.0808239
3124000000 0.0176368 0.0819522 0.9823632 -0.0819522 0.9823632 -0.0819522 0.0176368 0.0819522
3145000000 0.0181298 0.0830737 0.9818702 -0.0830737 0.9818702 -0.0830737 0.0181298 0.0830737
3166000000 0.0186415 0.0841876 0.9813585 -0.0841876 0.9813585 -0.0841876 0.0186415 0.0841876
3187000000 0.0191725 0.0852924 0.9808275 -0.0852924 0.9808275 -0.0852924 0.0191725 0.0852924
3208000000 0.0197237 0.0863867 0.9802763 -0.0863867 0.9802763 -0.0863867 0.0197237 0.0863867
3229000000 0.0202956 0.0874688 0.9797044 -0.0874688 0.9797044 -0.0874688 0.0202956 0.0874688
3250000000 0.0208889 0.0885370 0.9791111 -0.0885370 0.9791111 -0.0885370 0.0208889 0.0885370
3271000000 0.0215041 0.0895890 0.9784959 -0.0895890 0.9784959 -0.0895890 0.0215041 0.0895890
3292000000 0.0221414 0.0906225 0.9778586 -0.0906225 0.9778586 -0.0906225 0.0221414 0.0906225
3313000000 0.0228011 0.0916348 0.9771989 -0.0916348 0.9771989 -0.0916348 0.0228011 0.0916348
3334000000 0.0234830 0.0926231 0.9765170 -0.0926231 0.9765170 -0.0926231 0.0234830 0.0926231
3355000000 0.0241865 0.0935842 0.9758135 -0.0935842 0.9758135 -0.0935842 0.0241865 0.0935842
3376000000 0.0249109 0.0945146 0.9750891 -0.0945146 0.9750891 -0.0945146 0.0249109 0.0945146
3397000000 0.0256548 0.0954107 0.9743452 -0.0954107 0.9743452 -0.0954107 0.0256548 0.0954107
3418000000 0.0264162 0.0962687 0.9735838 -0.0962687 0.9735838 -0.0962687 0.0264162 0.0962687
3439000000 0.0271925 0.0970846 0.9728075 -0.0970846 0.9728075 -0.0970846 0.0271925 0.0970846
3460000000 0.0279803 0.0978544 0.9720197 -0.0978544 0.9720197 -0.0978544 0.0279803 0.0978544
3481000000 0.0287754 0.0985744 0.9712246 -0.0985744 0.9712246 -0.0985744 0.0287754 0.0985744
3502000000 0.0295727 0.0992411 0.9704273 -0.0992411 0.9704273 -0.0992411 0.0295727 0.0992411
3523000000 0.0303659 0.0998514 0.9696341 -0.0998514 0.9696341 -0.0998514 0.0303659 0.0998514
3544000000 0.0311482 0.1004031 0.9688518 -0.1004031 0.9688518 -0.1004031 0.0311482 0.1004031
3565000000 0.0319115 0.1008949 0.9680885 -0.1008949 0.9680885 -0.1008949 0.0319115 0.1008949
3586000000 0.0326473 0.1013266 0.9673527 -0.1013266 0.9673527 -0.1013266 0.0326473 0.1013266
3607000000 0.0333463 0.1016999 0.9666537 -0.1016999 0.9666537 -0.1016999 0.0333463 0.1016999
3628000000 0.0339993 0.1020179 0.9660007 -0.1020179 0.9660007 -0.1020179 0.0339993 0.1020179
3649000000 0.0345970 0.1022855 0.9654030 -0.1022855 0.9654030 -0.1022855 0.0345970 0.1022855
3670000000 0.0351308 0.1025097 0.9648692 -0.1025097 0.9648692 -0.1025097 0.0351308 0.1025097
3691000000 0.0355932 0.1026991 0.9644068 -0.1026991 0.9644068 -0.1026991 0.0355932 0.1026991
3712000000 0.0359782 0.1028642 0.9640218 -0.1028642 0.9640218 -0.1028642 0.0359782 0.1028642
3733000000 0.0362818 0.1030164 0.9637182 -0.1030164 0.9637182 -0.1030164 0.0362818 0.1030164
3754000000 0.0365021 0.1031680 0.9634979 -0.1031680 0.9634979 -0.1031680 0.0365021 0.1031680
3775000000 0.0366397 0.1033316 0.9633603 -0.1033316 0.9633603 -0.1033316 0.0366397 0.1033316
3796000000 0.0366973 0.1035194 0.9633027 -0.1035194 0.9633027 -0.1035194 0.0366973 0.1035194
3817000000 0.0366801 0.1037426 0.9633199 -0.1037426 0.9633199 -0.1037426 0.0366801 0.1037426
3838000000 0.0365951 0.1040113 0.9634049 -0.1040113 0.9634049 -0.1040113 0.0365951 0.1040113
3859000000 0.0364509 0.1043338 0.9635491 -0.1043338 0.9635491 -0.1043338 0.0364509 0.1043338
3880000000 0.0362568 0.1047162 0.9637432 -0.1047162 0.9637432 -0.1047162 0.0362568 0.1047162
3901000000 0.0360228 0.1051631 0.9639772 -0.1051631 0.9639772 -0.1051631 0.0360228 0.1051631
3922000000 0.0357592 0.1056768 0.9642408 -0.1056768 0.9642408 -0.1056768 0.0357592 0.1056768
3943000000 0.0354756 0.1062578 0.9645244 -0.1062578 0.9645244 -0.1062578 0.0354756 0.1062578
3964000000 0.0351811 0.1069053 0.9648189 -0.1069053 0.9648189 -0.1069053 0.0351811 0.1069053
3985000000 0.0348840 0.1076169 0.9651160 -0.1076169 0.9651160 -0.1076169 0.0348840 0.1076169
4006000000 0.0345915 0.1083896 0.9654085 -0.1083896 0.9654085 -0.1083896 0.0345915 0.1083896
4027000000 0.0343097 0.1092194 0.9656903 -0.1092194 0.9656903 -0.1092194 0.0343097 0.1092194
4048000000 0.0340437 0.1101019 0.9659563 -0.1101019 0.9659563 -0.1101019 0.0340437 0.1101019
4069000000 0.0337976 0.1110325 0.9662024 -0.1110325 0.9662024 -0.1110325 0.0337976 0.1110325
4090000000 0.0335745 0.1120066 0.9664255 -0.1120066 0.9664255 -0.1120066 0.0335745 0.1120066
4111000000 0.0333767 0.1130197 0.9666233 -0.1130197 0.9666233 -0.1130197 0.0333767 0.1130197
4132000000 0.0332058 0.1140674 0.9667942 -0.1140674 0.9667942 -0.1140674 0.0332058 0.1140674
4153000000 0.0330629 0.1151455 0.9669371 -0.1151455 0.9669371 -0.1151455 0.0330629 0.1151455
4174000000 0.0329484 0.1162503 0.9670516 -0.1162503 0.9670516 -0.1162503 0.0329484 0.1162503
4195000000 0.0328624 0.1173783 0.9671376 -0.1173783 0.9671376 -0.1173783 0.0328624 0.1173783
4216000000 0.0328047 0.1185264 0.9671953 -0.1185264 0.9671953 -0.1185264 0.0328047 0.1185264
4237000000 0.0327748 0.1196917 0.9672252 -0.1196917 0.9672252 -0.1196917 0.0327748 0.1196917
4258000000 0.0327720 0.1208718 0.9672280 -0.1208718 0.9672280 -0.1208718 0.0327720 0.1208718
4279000000 0.0327955 0.1220644 0.9672045 -0.1220644 0.9672045 -0.1220644 0.0327955 0.1220644
4300000000 0.0328446 0.1232677 0.9671554 -0.1232677 0.9671554 -0.1232677 0.0328446 0.1232677
4321000000 0.0329182 0.1244799 0.9670818 -0.1244799 0.9670818 -0.1244799 0.0329182 0.1244799
4342000000 0.0330154 0.1256995 0.9669846 -0.1256995 0.9669846 -0.1256995 0.0330154 0.1256995
4363000000 0.0331353 0.1269254 0.9668647 -0.1269254 0.9668647 -0.1269254 0.0331353 0.1269254
4384000000 0.0332769 0.1281565 0.9667231 -0.1281565 0.9667231 -0.1281565 0.0332769 0.1281565
4405000000 0.0334393 0.1293917 0.9665607 -0.1293917 0.9665607 -0.1293917 0.0334393 0.1293917
4426000000 0.0336217 0.1306304 0.9663783 -0.1306304 0.9663783 -0.1306304 0.0336217 0.1306304
4447000000 0.0338231 0.1318718 0.9661769 -0.1318718 0.9661769 -0.1318718 0.0338231 0.1318718
4468000000 0.0340428 0.1331154 0.9659572 -0.1331154 0.9659572 -0.1331154 0.0340428 0.1331154
4489000000 0.0342800 0.1343608 0.9657200 -0.1343608 0.9657200 -0.1343608 0.0342800 0.1343608
4510000000 0.0345341 0.1356075 0.9654659 -0.1356075 0.9654659 -0.1356075 0.0345341 0.1356075
