!Murata Part Number: GRM1887U1H392JA01
!These Parameters are Measured in Series Mode Connection
!Data Generated on Mar 30, 2021
!       o--ll--o
!Port1            Port2
!       o------o
!Operation Temp=25[degC], DC Bias Voltage=0[V]
!Freq. Start=1000[kHz] Stop=6[GHz] 401[Steps]
# Hz S RI R 50
!Freq.(Hz) S11(Real) S11(Imag) S21(Real) S21(Imag) S12(Real) S12(Imag) S22(Real) S22(Imag)
1000000 0.1444233 -0.3513137 0.8555767 0.3513137 0.8555767 0.3513137 0.1444233 -0.3513137
1021987 0.1391354 -0.3458785 0.8608646 0.3458785 0.8608646 0.3458785 0.1391354 -0.3458785
1044457 0.1340109 -0.3404502 0.8659891 0.3404502 0.8659891 0.3404502 0.1340109 -0.3404502
1067422 0.1290471 -0.3350335 0.8709529 0.3350335 0.8709529 0.3350335 0.1290471 -0.3350335
1090891 0.1242410 -0.3296329 0.8757590 0.3296329 0.8757590 0.3296329 0.1242410 -0.3296329
1114877 0.1195894 -0.3242525 0.8804106 0.3242525 0.8804106 0.3242525 0.1195894 -0.3242525
1139390 0.1150893 -0.3188964 0.8849107 0.3188964 0.8849107 0.3188964 0.1150893 -0.3188964
1164441 0.1107374 -0.3135683 0.8892626 0.3135683 0.8892626 0.3135683 0.1107374 -0.3135683
1190044 0.1065305 -0.3082717 0.8934695 0.3082717 0.8934695 0.3082717 0.1065305 -0.3082717
1216210 0.1024652 -0.3030100 0.8975348 0.3030100 0.8975348 0.3030100 0.1024652 -0.3030100
1242950 0.0985381 -0.2977863 0.9014619 0.2977863 0.9014619 0.2977863 0.0985381 -0.2977863
1270279 0.0947458 -0.2926033 0.9052542 0.2926033 0.9052542 0.2926033 0.0947458 -0.2926033
1298209 0.0910849 -0.2874639 0.9089151 0.2874639 0.9089151 0.2874639 0.0910849 -0.2874639
1326753 0.0875520 -0.2823705 0.9124480 0.2823705 0.9124480 0.2823705 0.0875520 -0.2823705
1355924 0.0841436 -0.2773254 0.9158564 0.2773254 0.9158564 0.2773254 0.0841436 -0.2773254
1385737 0.0808564 -0.2723306 0.9191436 0.2723306 0.9191436 0.2723306 0.0808564 -0.2723306
1416205 0.0776869 -0.2673881 0.9223131 0.2673881 0.9223131 0.2673881 0.0776869 -0.2673881
1447343 0.0746318 -0.2624997 0.9253682 0.2624997 0.9253682 0.2624997 0.0746318 -0.2624997
1479166 0.0716876 -0.2576669 0.9283124 0.2576669 0.9283124 0.2576669 0.0716876 -0.2576669
1511688 0.0688512 -0.2528912 0.9311488 0.2528912 0.9311488 0.2528912 0.0688512 -0.2528912
1544926 0.0661193 -0.2481739 0.9338807 0.2481739 0.9338807 0.2481739 0.0661193 -0.2481739
1578894 0.0634885 -0.2435160 0.9365115 0.2435160 0.9365115 0.2435160 0.0634885 -0.2435160
1613609 0.0609558 -0.2389186 0.9390442 0.2389186 0.9390442 0.2389186 0.0609558 -0.2389186
1649087 0.0585181 -0.2343825 0.9414819 0.2343825 0.9414819 0.2343825 0.0585181 -0.2343825
1685346 0.0561722 -0.2299085 0.9438278 0.2299085 0.9438278 0.2299085 0.0561722 -0.2299085
1722402 0.0539152 -0.2254972 0.9460848 0.2254972 0.9460848 0.2254972 0.0539152 -0.2254972
1760272 0.0517441 -0.2211491 0.9482559 0.2211491 0.9482559 0.2211491 0.0517441 -0.2211491
1798975 0.0496561 -0.2168646 0.9503439 0.2168646 0.9503439 0.2168646 0.0496561 -0.2168646
1838529 0.0476483 -0.2126440 0.9523517 0.2126440 0.9523517 0.2126440 0.0476483 -0.2126440
1878953 0.0457180 -0.2084876 0.9542820 0.2084876 0.9542820 0.2084876 0.0457180 -0.2084876
1920266 0.0438626 -0.2043954 0.9561374 0.2043954 0.9561374 0.2043954 0.0438626 -0.2043954
1962487 0.0420793 -0.2003676 0.9579207 0.2003676 0.9579207 0.2003676 0.0420793 -0.2003676
2005636 0.0403657 -0.1964040 0.9596343 0.1964040 0.9596343 0.1964040 0.0403657 -0.1964040
2049734 0.0387193 -0.1925047 0.9612807 0.1925047 0.9612807 0.1925047 0.0387193 -0.1925047
2094801 0.0371377 -0.1886693 0.9628623 0.1886693 0.9628623 0.1886693 0.0371377 -0.1886693
2140860 0.0356185 -0.1848977 0.9643815 0.1848977 0.9643815 0.1848977 0.0356185 -0.1848977
2187931 0.0341595 -0.1811896 0.9658405 0.1811896 0.9658405 0.1811896 0.0341595 -0.1811896
2236037 0.0327584 -0.1775447 0.9672416 0.1775447 0.9672416 0.1775447 0.0327584 -0.1775447
2285201 0.0314132 -0.1739625 0.9685868 0.1739625 0.9685868 0.1739625 0.0314132 -0.1739625
2335446 0.0301217 -0.1704426 0.9698783 0.1704426 0.9698783 0.1704426 0.0301217 -0.1704426
2386795 0.0288819 -0.1669846 0.9711181 0.1669846 0.9711181 0.1669846 0.0288819 -0.1669846
2439274 0.0276920 -0.1635879 0.9723080 0.1635879 0.9723080 0.1635879 0.0276920 -0.1635879
2492906 0.0265500 -0.1602520 0.9734500 0.1602520 0.9734500 0.1602520 0.0265500 -0.1602520
2547717 0.0254540 -0.1569763 0.9745460 0.1569763 0.9745460 0.1569763 0.0254540 -0.1569763
2603734 0.0244025 -0.1537601 0.9755975 0.1537601 0.9755975 0.1537601 0.0244025 -0.1537601
2660982 0.0233935 -0.1506029 0.9766065 0.1506029 0.9766065 0.1506029 0.0233935 -0.1506029
2719490 0.0224255 -0.1475040 0.9775745 0.1475040 0.9775745 0.1475040 0.0224255 -0.1475040
2779283 0.0214970 -0.1444626 0.9785030 0.1444626 0.9785030 0.1444626 0.0214970 -0.1444626
2840391 0.0206063 -0.1414781 0.9793937 0.1414781 0.9793937 0.1414781 0.0206063 -0.1414781
2902843 0.0197520 -0.1385499 0.9802480 0.1385499 0.9802480 0.1385499 0.0197520 -0.1385499
2966668 0.0189327 -0.1356770 0.9810673 0.1356770 0.9810673 0.1356770 0.0189327 -0.1356770
3031896 0.0181469 -0.1328589 0.9818531 0.1328589 0.9818531 0.1328589 0.0181469 -0.1328589
3098558 0.0173935 -0.1300947 0.9826065 0.1300947 0.9826065 0.1300947 0.0173935 -0.1300947
3166686 0.0166710 -0.1273836 0.9833290 0.1273836 0.9833290 0.1273836 0.0166710 -0.1273836
3236312 0.0159783 -0.1247250 0.9840217 0.1247250 0.9840217 0.1247250 0.0159783 -0.1247250
3307469 0.0153142 -0.1221180 0.9846858 0.1221180 0.9846858 0.1221180 0.0153142 -0.1221180
3380190 0.0146775 -0.1195618 0.9853225 0.1195618 0.9853225 0.1195618 0.0146775 -0.1195618
3454511 0.0140671 -0.1170557 0.9859329 0.1170557 0.9859329 0.1170557 0.0140671 -0.1170557
3530465 0.0134820 -0.1145989 0.9865180 0.1145989 0.9865180 0.1145989 0.0134820 -0.1145989
3608090 0.0129212 -0.1121906 0.9870788 0.1121906 0.9870788 0.1121906 0.0129212 -0.1121906
3687421 0.0123837 -0.1098300 0.9876163 0.1098300 0.9876163 0.1098300 0.0123837 -0.1098300
3768496 0.0118684 -0.1075162 0.9881316 0.1075162 0.9881316 0.1075162 0.0118684 -0.1075162
3851354 0.0113747 -0.1052486 0.9886253 0.1052486 0.9886253 0.1052486 0.0113747 -0.1052486
3936034 0.0109015 -0.1030264 0.9890985 0.1030264 0.9890985 0.1030264 0.0109015 -0.1030264
4022575 0.0104480 -0.1008487 0.9895520 0.1008487 0.9895520 0.1008487 0.0104480 -0.1008487
4111020 0.0100134 -0.0987149 0.9899866 0.0987149 0.9899866 0.0987149 0.0100134 -0.0987149
4201409 0.0095970 -0.0966241 0.9904030 0.0966241 0.9904030 0.0966241 0.0095970 -0.0966241
4293785 0.0091980 -0.0945755 0.9908020 0.0945755 0.9908020 0.0945755 0.0091980 -0.0945755
4388193 0.0088156 -0.0925685 0.9911844 0.0925685 0.9911844 0.0925685 0.0088156 -0.0925685
4484676 0.0084493 -0.0906022 0.9915507 0.0906022 0.9915507 0.0906022 0.0084493 -0.0906022
4583281 0.0080983 -0.0886759 0.9919017 0.0886759 0.9919017 0.0886759 0.0080983 -0.0886759
4684054 0.0077621 -0.0867890 0.9922379 0.0867890 0.9922379 0.0867890 0.0077621 -0.0867890
4787042 0.0074399 -0.0849406 0.9925601 0.0849406 0.9925601 0.0849406 0.0074399 -0.0849406
4892295 0.0071313 -0.0831300 0.9928687 0.0831300 0.9928687 0.0831300 0.0071313 -0.0831300
4999862 0.0068357 -0.0813566 0.9931643 0.0813566 0.9931643 0.0813566 0.0068357 -0.0813566
5109794 0.0065524 -0.0796196 0.9934476 0.0796196 0.9934476 0.0796196 0.0065524 -0.0796196
5222143 0.0062811 -0.0779183 0.9937189 0.0779183 0.9937189 0.0779183 0.0062811 -0.0779183
5336962 0.0060213 -0.0762521 0.9939787 0.0762521 0.9939787 0.0762521 0.0060213 -0.0762521
5454306 0.0057723 -0.0746203 0.9942277 0.0746203 0.9942277 0.0746203 0.0057723 -0.0746203
5574230 0.0055339 -0.0730221 0.9944661 0.0730221 0.9944661 0.0730221 0.0055339 -0.0730221
5696791 0.0053055 -0.0714571 0.9946945 0.0714571 0.9946945 0.0714571 0.0053055 -0.0714571
5822046 0.0050867 -0.0699244 0.9949133 0.0699244 0.9949133 0.0699244 0.0050867 -0.0699244
5950055 0.0048772 -0.0684235 0.9951228 0.0684235 0.9951228 0.0684235 0.0048772 -0.0684235
6080879 0.0046766 -0.0669538 0.9953234 0.0669538 0.9953234 0.0669538 0.0046766 -0.0669538
6214580 0.0044844 -0.0655146 0.9955156 0.0655146 0.9955156 0.0655146 0.0044844 -0.0655146
6351220 0.0043004 -0.0641052 0.9956996 0.0641052 0.9956996 0.0641052 0.0043004 -0.0641052
6490864 0.0041241 -0.0627252 0.9958759 0.0627252 0.9958759 0.0627252 0.0041241 -0.0627252
6633579 0.0039553 -0.0613740 0.9960447 0.0613740 0.9960447 0.0613740 0.0039553 -0.0613740
6779431 0.0037936 -0.0600509 0.9962064 0.0600509 0.9962064 0.0600509 0.0037936 -0.0600509
6928491 0.0036389 -0.0587553 0.9963611 0.0587553 0.9963611 0.0587553 0.0036389 -0.0587553
7080828 0.0034906 -0.0574868 0.9965094 0.0574868 0.9965094 0.0574868 0.0034906 -0.0574868
7236514 0.0033487 -0.0562447 0.9966513 0.0562447 0.9966513 0.0562447 0.0033487 -0.0562447
7395623 0.0032128 -0.0550286 0.9967872 0.0550286 0.9967872 0.0550286 0.0032128 -0.0550286
7558231 0.0030826 -0.0538378 0.9969174 0.0538378 0.9969174 0.0538378 0.0030826 -0.0538378
7724414 0.0029580 -0.0526719 0.9970420 0.0526719 0.9970420 0.0526719 0.0029580 -0.0526719
7894251 0.0028387 -0.0515304 0.9971613 0.0515304 0.9971613 0.0515304 0.0028387 -0.0515304
8067822 0.0027245 -0.0504127 0.9972755 0.0504127 0.9972755 0.0504127 0.0027245 -0.0504127
8245209 0.0026152 -0.0493184 0.9973848 0.0493184 0.9973848 0.0493184 0.0026152 -0.0493184
8426497 0.0025105 -0.0482470 0.9974895 0.0482470 0.9974895 0.0482470 0.0025105 -0.0482470
8611770 0.0024102 -0.0471979 0.9975898 0.0471979 0.9975898 0.0471979 0.0024102 -0.0471979
8801117 0.0023143 -0.0461708 0.9976857 0.0461708 0.9976857 0.0461708 0.0023143 -0.0461708
8994628 0.0022225 -0.0451651 0.9977775 0.0451651 0.9977775 0.0451651 0.0022225 -0.0451651
9192393 0.0021345 -0.0441805 0.9978655 0.0441805 0.9978655 0.0441805 0.0021345 -0.0441805
9394506 0.0020504 -0.0432164 0.9979496 0.0432164 0.9979496 0.0432164 0.0020504 -0.0432164
9601063 0.0019698 -0.0422724 0.9980302 0.0422724 0.9980302 0.0422724 0.0019698 -0.0422724
9812162 0.0018927 -0.0413482 0.9981073 0.0413482 0.9981073 0.0413482 0.0018927 -0.0413482
10027902 0.0018190 -0.0404433 0.9981810 0.0404433 0.9981810 0.0404433 0.0018190 -0.0404433
10248386 0.0017484 -0.0395572 0.9982516 0.0395572 0.9982516 0.0395572 0.0017484 -0.0395572
10473717 0.0016808 -0.0386896 0.9983192 0.0386896 0.9983192 0.0386896 0.0016808 -0.0386896
10704003 0.0016161 -0.0378401 0.9983839 0.0378401 0.9983839 0.0378401 0.0016161 -0.0378401
10939352 0.0015543 -0.0370083 0.9984457 0.0370083 0.9984457 0.0370083 0.0015543 -0.0370083
11179876 0.0014951 -0.0361938 0.9985049 0.0361938 0.9985049 0.0361938 0.0014951 -0.0361938
11425688 0.0014385 -0.0353963 0.9985615 0.0353963 0.9985615 0.0353963 0.0014385 -0.0353963
11676904 0.0013843 -0.0346153 0.9986157 0.0346153 0.9986157 0.0346153 0.0013843 -0.0346153
11933645 0.0013325 -0.0338506 0.9986675 0.0338506 0.9986675 0.0338506 0.0013325 -0.0338506
12196030 0.0012829 -0.0331017 0.9987171 0.0331017 0.9987171 0.0331017 0.0012829 -0.0331017
12464184 0.0012355 -0.0323684 0.9987645 0.0323684 0.9987645 0.0323684 0.0012355 -0.0323684
12738235 0.0011902 -0.0316502 0.9988098 0.0316502 0.9988098 0.0316502 0.0011902 -0.0316502
13018310 0.0011469 -0.0309470 0.9988531 0.0309470 0.9988531 0.0309470 0.0011469 -0.0309470
13304544 0.0011055 -0.0302582 0.9988945 0.0302582 0.9988945 0.0302582 0.0011055 -0.0302582
13597071 0.0010659 -0.0295837 0.9989341 0.0295837 0.9989341 0.0295837 0.0010659 -0.0295837
13896030 0.0010280 -0.0289231 0.9989720 0.0289231 0.9989720 0.0289231 0.0010280 -0.0289231
14201563 0.0009919 -0.0282761 0.9990081 0.0282761 0.9990081 0.0282761 0.0009919 -0.0282761
14513813 0.0009573 -0.0276424 0.9990427 0.0276424 0.9990427 0.0276424 0.0009573 -0.0276424
14832928 0.0009243 -0.0270217 0.9990757 0.0270217 0.9990757 0.0270217 0.0009243 -0.0270217
15159060 0.0008928 -0.0264137 0.9991072 0.0264137 0.9991072 0.0264137 0.0008928 -0.0264137
15492362 0.0008627 -0.0258182 0.9991373 0.0258182 0.9991373 0.0258182 0.0008627 -0.0258182
15832993 0.0008340 -0.0252348 0.9991660 0.0252348 0.9991660 0.0252348 0.0008340 -0.0252348
16181113 0.0008065 -0.0246634 0.9991935 0.0246634 0.9991935 0.0246634 0.0008065 -0.0246634
16536888 0.0007804 -0.0241036 0.9992196 0.0241036 0.9992196 0.0241036 0.0007804 -0.0241036
16900485 0.0007554 -0.0235551 0.9992446 0.0235551 0.9992446 0.0235551 0.0007554 -0.0235551
17272076 0.0007316 -0.0230178 0.9992684 0.0230178 0.9992684 0.0230178 0.0007316 -0.0230178
17651837 0.0007089 -0.0224913 0.9992911 0.0224913 0.9992911 0.0224913 0.0007089 -0.0224913
18039948 0.0006873 -0.0219755 0.9993127 0.0219755 0.9993127 0.0219755 0.0006873 -0.0219755
18436593 0.0006667 -0.0214701 0.9993333 0.0214701 0.9993333 0.0214701 0.0006667 -0.0214701
18841959 0.0006470 -0.0209748 0.9993530 0.0209748 0.9993530 0.0209748 0.0006470 -0.0209748
19256237 0.0006283 -0.0204894 0.9993717 0.0204894 0.9993717 0.0204894 0.0006283 -0.0204894
19679624 0.0006106 -0.0200138 0.9993894 0.0200138 0.9993894 0.0200138 0.0006106 -0.0200138
20112321 0.0005937 -0.0195476 0.9994063 0.0195476 0.9994063 0.0195476 0.0005937 -0.0195476
20554530 0.0005776 -0.0190906 0.9994224 0.0190906 0.9994224 0.0190906 0.0005776 -0.0190906
21006463 0.0005623 -0.0186428 0.9994377 0.0186428 0.9994377 0.0186428 0.0005623 -0.0186428
21468333 0.0005478 -0.0182037 0.9994522 0.0182037 0.9994522 0.0182037 0.0005478 -0.0182037
21940357 0.0005341 -0.0177733 0.9994659 0.0177733 0.9994659 0.0177733 0.0005341 -0.0177733
22422760 0.0005211 -0.0173513 0.9994789 0.0173513 0.9994789 0.0173513 0.0005211 -0.0173513
22915770 0.0005087 -0.0169376 0.9994913 0.0169376 0.9994913 0.0169376 0.0005087 -0.0169376
23419619 0.0004970 -0.0165319 0.9995030 0.0165319 0.9995030 0.0165319 0.0004970 -0.0165319
23934547 0.0004860 -0.0161341 0.9995140 0.0161341 0.9995140 0.0161341 0.0004860 -0.0161341
24460796 0.0004755 -0.0157440 0.9995245 0.0157440 0.9995245 0.0157440 0.0004755 -0.0157440
24998616 0.0004657 -0.0153613 0.9995343 0.0153613 0.9995343 0.0153613 0.0004657 -0.0153613
25548261 0.0004564 -0.0149860 0.9995436 0.0149860 0.9995436 0.0149860 0.0004564 -0.0149860
26109991 0.0004476 -0.0146178 0.9995524 0.0146178 0.9995524 0.0146178 0.0004476 -0.0146178
26684072 0.0004394 -0.0142566 0.9995606 0.0142566 0.9995606 0.0142566 0.0004394 -0.0142566
27270775 0.0004317 -0.0139021 0.9995683 0.0139021 0.9995683 0.0139021 0.0004317 -0.0139021
27870378 0.0004245 -0.0135543 0.9995755 0.0135543 0.9995755 0.0135543 0.0004245 -0.0135543
28483164 0.0004177 -0.0132130 0.9995823 0.0132130 0.9995823 0.0132130 0.0004177 -0.0132130
29109424 0.0004114 -0.0128780 0.9995886 0.0128780 0.9995886 0.0128780 0.0004114 -0.0128780
29749453 0.0004055 -0.0125492 0.9995945 0.0125492 0.9995945 0.0125492 0.0004055 -0.0125492
30403555 0.0004000 -0.0122264 0.9996000 0.0122264 0.9996000 0.0122264 0.0004000 -0.0122264
31072038 0.0003949 -0.0119094 0.9996051 0.0119094 0.9996051 0.0119094 0.0003949 -0.0119094
31755220 0.0003902 -0.0115981 0.9996098 0.0115981 0.9996098 0.0115981 0.0003902 -0.0115981
32453422 0.0003859 -0.0112924 0.9996141 0.0112924 0.9996141 0.0112924 0.0003859 -0.0112924
33166976 0.0003820 -0.0109922 0.9996180 0.0109922 0.9996180 0.0109922 0.0003820 -0.0109922
33896219 0.0003783 -0.0106972 0.9996217 0.0106972 0.9996217 0.0106972 0.0003783 -0.0106972
34641496 0.0003751 -0.0104073 0.9996249 0.0104073 0.9996249 0.0104073 0.0003751 -0.0104073
35403159 0.0003721 -0.0101225 0.9996279 0.0101225 0.9996279 0.0101225 0.0003721 -0.0101225
36181569 0.0003694 -0.0098425 0.9996306 0.0098425 0.9996306 0.0098425 0.0003694 -0.0098425
36977093 0.0003671 -0.0095673 0.9996329 0.0095673 0.9996329 0.0095673 0.0003671 -0.0095673
37790109 0.0003650 -0.0092967 0.9996350 0.0092967 0.9996350 0.0092967 0.0003650 -0.0092967
38621001 0.0003632 -0.0090305 0.9996368 0.0090305 0.9996368 0.0090305 0.0003632 -0.0090305
39470161 0.0003617 -0.0087688 0.9996383 0.0087688 0.9996383 0.0087688 0.0003617 -0.0087688
40337993 0.0003604 -0.0085112 0.9996396 0.0085112 0.9996396 0.0085112 0.0003604 -0.0085112
41224905 0.0003594 -0.0082578 0.9996406 0.0082578 0.9996406 0.0082578 0.0003594 -0.0082578
42131317 0.0003586 -0.0080084 0.9996414 0.0080084 0.9996414 0.0080084 0.0003586 -0.0080084
43057659 0.0003580 -0.0077629 0.9996420 0.0077629 0.9996420 0.0077629 0.0003580 -0.0077629
44004369 0.0003577 -0.0075211 0.9996423 0.0075211 0.9996423 0.0075211 0.0003577 -0.0075211
44971893 0.0003576 -0.0072830 0.9996424 0.0072830 0.9996424 0.0072830 0.0003576 -0.0072830
45960691 0.0003577 -0.0070484 0.9996423 0.0070484 0.9996423 0.0070484 0.0003577 -0.0070484
46971230 0.0003580 -0.0068173 0.9996420 0.0068173 0.9996420 0.0068173 0.0003580 -0.0068173
48003987 0.0003585 -0.0065894 0.9996415 0.0065894 0.9996415 0.0065894 0.0003585 -0.0065894
49059451 0.0003592 -0.0063648 0.9996408 0.0063648 0.9996408 0.0063648 0.0003592 -0.0063648
50138122 0.0003601 -0.0061433 0.9996399 0.0061433 0.9996399 0.0061433 0.0003601 -0.0061433
51240510 0.0003612 -0.0059247 0.9996388 0.0059247 0.9996388 0.0059247 0.0003612 -0.0059247
52367136 0.0003624 -0.0057090 0.9996376 0.0057090 0.9996376 0.0057090 0.0003624 -0.0057090
53518533 0.0003638 -0.0054962 0.9996362 0.0054962 0.9996362 0.0054962 0.0003638 -0.0054962
54695245 0.0003654 -0.0052860 0.9996346 0.0052860 0.9996346 0.0052860 0.0003654 -0.0052860
55897831 0.0003672 -0.0050784 0.9996328 0.0050784 0.9996328 0.0050784 0.0003672 -0.0050784
57126857 0.0003692 -0.0048732 0.9996308 0.0048732 0.9996308 0.0048732 0.0003692 -0.0048732
58382906 0.0003713 -0.0046705 0.9996287 0.0046705 0.9996287 0.0046705 0.0003713 -0.0046705
59666572 0.0003736 -0.0044700 0.9996264 0.0044700 0.9996264 0.0044700 0.0003736 -0.0044700
60978462 0.0003760 -0.0042717 0.9996240 0.0042717 0.9996240 0.0042717 0.0003760 -0.0042717
62319196 0.0003787 -0.0040755 0.9996213 0.0040755 0.9996213 0.0040755 0.0003787 -0.0040755
63689409 0.0003815 -0.0038812 0.9996185 0.0038812 0.9996185 0.0038812 0.0003815 -0.0038812
65089750 0.0003844 -0.0036889 0.9996156 0.0036889 0.9996156 0.0036889 0.0003844 -0.0036889
66520879 0.0003876 -0.0034984 0.9996124 0.0034984 0.9996124 0.0034984 0.0003876 -0.0034984
67983474 0.0003909 -0.0033096 0.9996091 0.0033096 0.9996091 0.0033096 0.0003909 -0.0033096
69478228 0.0003943 -0.0031224 0.9996057 0.0031224 0.9996057 0.0031224 0.0003943 -0.0031224
71005847 0.0003980 -0.0029367 0.9996020 0.0029367 0.9996020 0.0029367 0.0003980 -0.0029367
72567054 0.0004019 -0.0027525 0.9995981 0.0027525 0.9995981 0.0027525 0.0004019 -0.0027525
74162587 0.0004059 -0.0025695 0.9995941 0.0025695 0.9995941 0.0025695 0.0004059 -0.0025695
75793201 0.0004101 -0.0023879 0.9995899 0.0023879 0.9995899 0.0023879 0.0004101 -0.0023879
77459667 0.0004145 -0.0022074 0.9995855 0.0022074 0.9995855 0.0022074 0.0004145 -0.0022074
79162774 0.0004192 -0.0020279 0.9995808 0.0020279 0.9995808 0.0020279 0.0004192 -0.0020279
80903327 0.0004240 -0.0018495 0.9995760 0.0018495 0.9995760 0.0018495 0.0004240 -0.0018495
82682150 0.0004291 -0.0016719 0.9995709 0.0016719 0.9995709 0.0016719 0.0004291 -0.0016719
84500083 0.0004343 -0.0014951 0.9995657 0.0014951 0.9995657 0.0014951 0.0004343 -0.0014951
86357988 0.0004399 -0.0013191 0.9995601 0.0013191 0.9995601 0.0013191 0.0004399 -0.0013191
88256743 0.0004456 -0.0011436 0.9995544 0.0011436 0.9995544 0.0011436 0.0004456 -0.0011436
90197245 0.0004517 -0.0009687 0.9995483 0.0009687 0.9995483 0.0009687 0.0004517 -0.0009687
92180413 0.0004580 -0.0007942 0.9995420 0.0007942 0.9995420 0.0007942 0.0004580 -0.0007942
94207185 0.0004646 -0.0006200 0.9995354 0.0006200 0.9995354 0.0006200 0.0004646 -0.0006200
96278520 0.0004715 -0.0004461 0.9995285 0.0004461 0.9995285 0.0004461 0.0004715 -0.0004461
98395398 0.0004787 -0.0002724 0.9995213 0.0002724 0.9995213 0.0002724 0.0004787 -0.0002724
100558819 0.0004862 -0.0000987 0.9995138 0.0000987 0.9995138 0.0000987 0.0004862 -0.0000987
102769807 0.0004941 0.0000750 0.9995059 -0.0000750 0.9995059 -0.0000750 0.0004941 0.0000750
105029408 0.0005024 0.0002488 0.9994976 -0.0002488 0.9994976 -0.0002488 0.0005024 0.0002488
107338692 0.0005111 0.0004228 0.9994889 -0.0004228 0.9994889 -0.0004228 0.0005111 0.0004228
