!Murata Part Number: GRM1885C2A1R8CA01
!These Parameters are Measured in Series Mode Connection
!Data Generated on Mar 30, 2021
!       o--ll--o
!Port1            Port2
!       o------o
!Operation Temp=25[degC], DC Bias Voltage=0[V]
!Freq. Start=100[MHz] Stop=9[GHz] 401[Steps]
# Hz S RI R 50
!Freq.(Hz) S11(Real) S11(Imag) S21(Real) S21(Imag) S12(Real) S12(Imag) S22(Real) S22(Imag)
100000000 0.9873323 -0.1117161 0.0126677 0.1117161 0.0126677 0.1117161 0.9873323 -0.1117161
121000000 0.9815513 -0.1344123 0.0184487 0.1344123 0.0184487 0.1344123 0.9815513 -0.1344123
142000000 0.9747517 -0.1566842 0.0252483 0.1566842 0.0252483 0.1566842 0.9747517 -0.1566842
163000000 0.9669735 -0.1784678 0.0330265 0.1784678 0.0330265 0.1784678 0.9669735 -0.1784678
184000000 0.9582620 -0.1997038 0.0417380 0.1997038 0.0417380 0.1997038 0.9582620 -0.1997038
205000000 0.9486669 -0.2203381 0.0513331 0.2203381 0.0513331 0.2203381 0.9486669 -0.2203381
226000000 0.9382419 -0.2403220 0.0617581 0.2403220 0.0617581 0.2403220 0.9382419 -0.2403220
247000000 0.9270436 -0.2596125 0.0729564 0.2596125 0.0729564 0.2596125 0.9270436 -0.2596125
268000000 0.9151311 -0.2781727 0.0848689 0.2781727 0.0848689 0.2781727 0.9151311 -0.2781727
289000000 0.9025649 -0.2959717 0.0974351 0.2959717 0.0974351 0.2959717 0.9025649 -0.2959717
310000000 0.8894066 -0.3129846 0.1105934 0.3129846 0.1105934 0.3129846 0.8894066 -0.3129846
331000000 0.8757180 -0.3291922 0.1242820 0.3291922 0.1242820 0.3291922 0.8757180 -0.3291922
352000000 0.8615604 -0.3445811 0.1384396 0.3445811 0.1384396 0.3445811 0.8615604 -0.3445811
373000000 0.8469945 -0.3591432 0.1530055 0.3591432 0.1530055 0.3591432 0.8469945 -0.3591432
394000000 0.8320791 -0.3728755 0.1679209 0.3728755 0.1679209 0.3728755 0.8320791 -0.3728755
415000000 0.8168715 -0.3857797 0.1831285 0.3857797 0.1831285 0.3857797 0.8168715 -0.3857797
436000000 0.8014268 -0.3978616 0.1985732 0.3978616 0.1985732 0.3978616 0.8014268 -0.3978616
457000000 0.7857972 -0.4091310 0.2142028 0.4091310 0.2142028 0.4091310 0.7857972 -0.4091310
478000000 0.7700327 -0.4196013 0.2299673 0.4196013 0.2299673 0.4196013 0.7700327 -0.4196013
499000000 0.7541800 -0.4292887 0.2458200 0.4292887 0.2458200 0.4292887 0.7541800 -0.4292887
520000000 0.7382829 -0.4382120 0.2617171 0.4382120 0.2617171 0.4382120 0.7382829 -0.4382120
541000000 0.7223822 -0.4463925 0.2776178 0.4463925 0.2776178 0.4463925 0.7223822 -0.4463925
562000000 0.7065153 -0.4538532 0.2934847 0.4538532 0.2934847 0.4538532 0.7065153 -0.4538532
583000000 0.6907167 -0.4606185 0.3092833 0.4606185 0.3092833 0.4606185 0.6907167 -0.4606185
604000000 0.6750180 -0.4667141 0.3249820 0.4667141 0.3249820 0.4667141 0.6750180 -0.4667141
625000000 0.6594473 -0.4721665 0.3405527 0.4721665 0.3405527 0.4721665 0.6594473 -0.4721665
646000000 0.6440304 -0.4770028 0.3559696 0.4770028 0.3559696 0.4770028 0.6440304 -0.4770028
667000000 0.6287899 -0.4812505 0.3712101 0.4812505 0.3712101 0.4812505 0.6287899 -0.4812505
688000000 0.6137460 -0.4849371 0.3862540 0.4849371 0.3862540 0.4849371 0.6137460 -0.4849371
709000000 0.5989163 -0.4880901 0.4010837 0.4880901 0.4010837 0.4880901 0.5989163 -0.4880901
730000000 0.5843161 -0.4907367 0.4156839 0.4907367 0.4156839 0.4907367 0.5843161 -0.4907367
751000000 0.5699583 -0.4929036 0.4300417 0.4929036 0.4300417 0.4929036 0.5699583 -0.4929036
772000000 0.5558542 -0.4946172 0.4441458 0.4946172 0.4441458 0.4946172 0.5558542 -0.4946172
793000000 0.5420127 -0.4959030 0.4579873 0.4959030 0.4579873 0.4959030 0.5420127 -0.4959030
814000000 0.5284414 -0.4967860 0.4715586 0.4967860 0.4715586 0.4967860 0.5284414 -0.4967860
835000000 0.5151460 -0.4972904 0.4848540 0.4972904 0.4848540 0.4972904 0.5151460 -0.4972904
856000000 0.5021309 -0.4974394 0.4978691 0.4974394 0.4978691 0.4974394 0.5021309 -0.4974394
877000000 0.4893991 -0.4972555 0.5106009 0.4972555 0.5106009 0.4972555 0.4893991 -0.4972555
898000000 0.4769524 -0.4967601 0.5230476 0.4967601 0.5230476 0.4967601 0.4769524 -0.4967601
919000000 0.4647917 -0.4959739 0.5352083 0.4959739 0.5352083 0.4959739 0.4647917 -0.4959739
940000000 0.4529167 -0.4949166 0.5470833 0.4949166 0.5470833 0.4949166 0.4529167 -0.4949166
961000000 0.4413264 -0.4936070 0.5586736 0.4936070 0.5586736 0.4936070 0.4413264 -0.4936070
982000000 0.4300191 -0.4920628 0.5699809 0.4920628 0.5699809 0.4920628 0.4300191 -0.4920628
1003000000 0.4189922 -0.4903011 0.5810078 0.4903011 0.5810078 0.4903011 0.4189922 -0.4903011
1024000000 0.4082429 -0.4883378 0.5917571 0.4883378 0.5917571 0.4883378 0.4082429 -0.4883378
1045000000 0.3977674 -0.4861883 0.6022326 0.4861883 0.6022326 0.4861883 0.3977674 -0.4861883
1066000000 0.3875619 -0.4838668 0.6124381 0.4838668 0.6124381 0.4838668 0.3875619 -0.4838668
1087000000 0.3776221 -0.4813870 0.6223779 0.4813870 0.6223779 0.4813870 0.3776221 -0.4813870
1108000000 0.3679434 -0.4787616 0.6320566 0.4787616 0.6320566 0.4787616 0.3679434 -0.4787616
1129000000 0.3585207 -0.4760027 0.6414793 0.4760027 0.6414793 0.4760027 0.3585207 -0.4760027
1150000000 0.3493492 -0.4731215 0.6506508 0.4731215 0.6506508 0.4731215 0.3493492 -0.4731215
1171000000 0.3404235 -0.4701288 0.6595765 0.4701288 0.6595765 0.4701288 0.3404235 -0.4701288
1192000000 0.3317382 -0.4670345 0.6682618 0.4670345 0.6682618 0.4670345 0.3317382 -0.4670345
1213000000 0.3232879 -0.4638480 0.6767121 0.4638480 0.6767121 0.4638480 0.3232879 -0.4638480
1234000000 0.3150670 -0.4605779 0.6849330 0.4605779 0.6849330 0.4605779 0.3150670 -0.4605779
1255000000 0.3070700 -0.4572327 0.6929300 0.4572327 0.6929300 0.4572327 0.3070700 -0.4572327
1276000000 0.2992913 -0.4538198 0.7007087 0.4538198 0.7007087 0.4538198 0.2992913 -0.4538198
1297000000 0.2917254 -0.4503465 0.7082746 0.4503465 0.7082746 0.4503465 0.2917254 -0.4503465
1318000000 0.2843666 -0.4468194 0.7156334 0.4468194 0.7156334 0.4468194 0.2843666 -0.4468194
1339000000 0.2772096 -0.4432448 0.7227904 0.4432448 0.7227904 0.4432448 0.2772096 -0.4432448
1360000000 0.2702488 -0.4396286 0.7297512 0.4396286 0.7297512 0.4396286 0.2702488 -0.4396286
1381000000 0.2634789 -0.4359761 0.7365211 0.4359761 0.7365211 0.4359761 0.2634789 -0.4359761
1402000000 0.2568947 -0.4322924 0.7431053 0.4322924 0.7431053 0.4322924 0.2568947 -0.4322924
1423000000 0.2504908 -0.4285821 0.7495092 0.4285821 0.7495092 0.4285821 0.2504908 -0.4285821
1444000000 0.2442623 -0.4248497 0.7557377 0.4248497 0.7557377 0.4248497 0.2442623 -0.4248497
1465000000 0.2382041 -0.4210991 0.7617959 0.4210991 0.7617959 0.4210991 0.2382041 -0.4210991
1486000000 0.2323113 -0.4173342 0.7676887 0.4173342 0.7676887 0.4173342 0.2323113 -0.4173342
1507000000 0.2265792 -0.4135583 0.7734208 0.4135583 0.7734208 0.4135583 0.2265792 -0.4135583
1528000000 0.2210029 -0.4097748 0.7789971 0.4097748 0.7789971 0.4097748 0.2210029 -0.4097748
1549000000 0.2155781 -0.4059865 0.7844219 0.4059865 0.7844219 0.4059865 0.2155781 -0.4059865
1570000000 0.2103002 -0.4021964 0.7896998 0.4021964 0.7896998 0.4021964 0.2103002 -0.4021964
1591000000 0.2051649 -0.3984068 0.7948351 0.3984068 0.7948351 0.3984068 0.2051649 -0.3984068
1612000000 0.2001679 -0.3946201 0.7998321 0.3946201 0.7998321 0.3946201 0.2001679 -0.3946201
1633000000 0.1953052 -0.3908386 0.8046948 0.3908386 0.8046948 0.3908386 0.1953052 -0.3908386
1654000000 0.1905728 -0.3870641 0.8094272 0.3870641 0.8094272 0.3870641 0.1905728 -0.3870641
1675000000 0.1859668 -0.3832986 0.8140332 0.3832986 0.8140332 0.3832986 0.1859668 -0.3832986
1696000000 0.1814835 -0.3795437 0.8185165 0.3795437 0.8185165 0.3795437 0.1814835 -0.3795437
1717000000 0.1771191 -0.3758009 0.8228809 0.3758009 0.8228809 0.3758009 0.1771191 -0.3758009
1738000000 0.1728702 -0.3720716 0.8271298 0.3720716 0.8271298 0.3720716 0.1728702 -0.3720716
1759000000 0.1687332 -0.3683572 0.8312668 0.3683572 0.8312668 0.3683572 0.1687332 -0.3683572
1780000000 0.1647050 -0.3646588 0.8352950 0.3646588 0.8352950 0.3646588 0.1647050 -0.3646588
1801000000 0.1607821 -0.3609775 0.8392179 0.3609775 0.8392179 0.3609775 0.1607821 -0.3609775
1822000000 0.1569616 -0.3573142 0.8430384 0.3573142 0.8430384 0.3573142 0.1569616 -0.3573142
1843000000 0.1532403 -0.3536698 0.8467597 0.3536698 0.8467597 0.3536698 0.1532403 -0.3536698
1864000000 0.1496153 -0.3500452 0.8503847 0.3500452 0.8503847 0.3500452 0.1496153 -0.3500452
1885000000 0.1460838 -0.3464409 0.8539162 0.3464409 0.8539162 0.3464409 0.1460838 -0.3464409
1906000000 0.1426431 -0.3428577 0.8573569 0.3428577 0.8573569 0.3428577 0.1426431 -0.3428577
1927000000 0.1392904 -0.3392961 0.8607096 0.3392961 0.8607096 0.3392961 0.1392904 -0.3392961
1948000000 0.1360231 -0.3357566 0.8639769 0.3357566 0.8639769 0.3357566 0.1360231 -0.3357566
1969000000 0.1328389 -0.3322397 0.8671611 0.3322397 0.8671611 0.3322397 0.1328389 -0.3322397
1990000000 0.1297352 -0.3287457 0.8702648 0.3287457 0.8702648 0.3287457 0.1297352 -0.3287457
2011000000 0.1267097 -0.3252750 0.8732903 0.3252750 0.8732903 0.3252750 0.1267097 -0.3252750
2032000000 0.1237601 -0.3218279 0.8762399 0.3218279 0.8762399 0.3218279 0.1237601 -0.3218279
2053000000 0.1208843 -0.3184046 0.8791157 0.3184046 0.8791157 0.3184046 0.1208843 -0.3184046
2074000000 0.1180801 -0.3150053 0.8819199 0.3150053 0.8819199 0.3150053 0.1180801 -0.3150053
2095000000 0.1153455 -0.3116302 0.8846545 0.3116302 0.8846545 0.3116302 0.1153455 -0.3116302
2116000000 0.1126785 -0.3082794 0.8873215 0.3082794 0.8873215 0.3082794 0.1126785 -0.3082794
2137000000 0.1100772 -0.3049531 0.8899228 0.3049531 0.8899228 0.3049531 0.1100772 -0.3049531
2158000000 0.1075397 -0.3016512 0.8924603 0.3016512 0.8924603 0.3016512 0.1075397 -0.3016512
2179000000 0.1050642 -0.2983739 0.8949358 0.2983739 0.8949358 0.2983739 0.1050642 -0.2983739
2200000000 0.1026490 -0.2951211 0.8973510 0.2951211 0.8973510 0.2951211 0.1026490 -0.2951211
2221000000 0.1002923 -0.2918929 0.8997077 0.2918929 0.8997077 0.2918929 0.1002923 -0.2918929
2242000000 0.0979927 -0.2886891 0.9020073 0.2886891 0.9020073 0.2886891 0.0979927 -0.2886891
2263000000 0.0957484 -0.2855099 0.9042516 0.2855099 0.9042516 0.2855099 0.0957484 -0.2855099
2284000000 0.0935579 -0.2823550 0.9064421 0.2823550 0.9064421 0.2823550 0.0935579 -0.2823550
2305000000 0.0914199 -0.2792244 0.9085801 0.2792244 0.9085801 0.2792244 0.0914199 -0.2792244
2326000000 0.0893327 -0.2761181 0.9106673 0.2761181 0.9106673 0.2761181 0.0893327 -0.2761181
2347000000 0.0872952 -0.2730358 0.9127048 0.2730358 0.9127048 0.2730358 0.0872952 -0.2730358
2368000000 0.0853058 -0.2699775 0.9146942 0.2699775 0.9146942 0.2699775 0.0853058 -0.2699775
2389000000 0.0833634 -0.2669430 0.9166366 0.2669430 0.9166366 0.2669430 0.0833634 -0.2669430
2410000000 0.0814667 -0.2639322 0.9185333 0.2639322 0.9185333 0.2639322 0.0814667 -0.2639322
2431000000 0.0796144 -0.2609450 0.9203856 0.2609450 0.9203856 0.2609450 0.0796144 -0.2609450
2452000000 0.0778054 -0.2579811 0.9221946 0.2579811 0.9221946 0.2579811 0.0778054 -0.2579811
2473000000 0.0760385 -0.2550404 0.9239615 0.2550404 0.9239615 0.2550404 0.0760385 -0.2550404
2494000000 0.0743126 -0.2521226 0.9256874 0.2521226 0.9256874 0.2521226 0.0743126 -0.2521226
2515000000 0.0726267 -0.2492277 0.9273733 0.2492277 0.9273733 0.2492277 0.0726267 -0.2492277
2536000000 0.0709798 -0.2463554 0.9290202 0.2463554 0.9290202 0.2463554 0.0709798 -0.2463554
2557000000 0.0693707 -0.2435056 0.9306293 0.2435056 0.9306293 0.2435056 0.0693707 -0.2435056
2578000000 0.0677986 -0.2406779 0.9322014 0.2406779 0.9322014 0.2406779 0.0677986 -0.2406779
2599000000 0.0662625 -0.2378723 0.9337375 0.2378723 0.9337375 0.2378723 0.0662625 -0.2378723
2620000000 0.0647615 -0.2350884 0.9352385 0.2350884 0.9352385 0.2350884 0.0647615 -0.2350884
2641000000 0.0632947 -0.2323261 0.9367053 0.2323261 0.9367053 0.2323261 0.0632947 -0.2323261
2662000000 0.0618612 -0.2295852 0.9381388 0.2295852 0.9381388 0.2295852 0.0618612 -0.2295852
2683000000 0.0604602 -0.2268654 0.9395398 0.2268654 0.9395398 0.2268654 0.0604602 -0.2268654
2704000000 0.0590910 -0.2241666 0.9409090 0.2241666 0.9409090 0.2241666 0.0590910 -0.2241666
2725000000 0.0577526 -0.2214884 0.9422474 0.2214884 0.9422474 0.2214884 0.0577526 -0.2214884
2746000000 0.0564445 -0.2188308 0.9435555 0.2188308 0.9435555 0.2188308 0.0564445 -0.2188308
2767000000 0.0551657 -0.2161934 0.9448343 0.2161934 0.9448343 0.2161934 0.0551657 -0.2161934
2788000000 0.0539157 -0.2135760 0.9460843 0.2135760 0.9460843 0.2135760 0.0539157 -0.2135760
2809000000 0.0526937 -0.2109785 0.9473063 0.2109785 0.9473063 0.2109785 0.0526937 -0.2109785
2830000000 0.0514990 -0.2084005 0.9485010 0.2084005 0.9485010 0.2084005 0.0514990 -0.2084005
2851000000 0.0503310 -0.2058419 0.9496690 0.2058419 0.9496690 0.2058419 0.0503310 -0.2058419
2872000000 0.0491891 -0.2033025 0.9508109 0.2033025 0.9508109 0.2033025 0.0491891 -0.2033025
2893000000 0.0480727 -0.2007819 0.9519273 0.2007819 0.9519273 0.2007819 0.0480727 -0.2007819
2914000000 0.0469811 -0.1982801 0.9530189 0.1982801 0.9530189 0.1982801 0.0469811 -0.1982801
2935000000 0.0459137 -0.1957967 0.9540863 0.1957967 0.9540863 0.1957967 0.0459137 -0.1957967
2956000000 0.0448701 -0.1933316 0.9551299 0.1933316 0.9551299 0.1933316 0.0448701 -0.1933316
2977000000 0.0438496 -0.1908845 0.9561504 0.1908845 0.9561504 0.1908845 0.0438496 -0.1908845
2998000000 0.0428518 -0.1884553 0.9571482 0.1884553 0.9571482 0.1884553 0.0428518 -0.1884553
3019000000 0.0418761 -0.1860437 0.9581239 0.1860437 0.9581239 0.1860437 0.0418761 -0.1860437
3040000000 0.0409220 -0.1836494 0.9590780 0.1836494 0.9590780 0.1836494 0.0409220 -0.1836494
3061000000 0.0399891 -0.1812724 0.9600109 0.1812724 0.9600109 0.1812724 0.0399891 -0.1812724
3082000000 0.0390768 -0.1789123 0.9609232 0.1789123 0.9609232 0.1789123 0.0390768 -0.1789123
3103000000 0.0381847 -0.1765689 0.9618153 0.1765689 0.9618153 0.1765689 0.0381847 -0.1765689
3124000000 0.0373124 -0.1742421 0.9626876 0.1742421 0.9626876 0.1742421 0.0373124 -0.1742421
3145000000 0.0364594 -0.1719317 0.9635406 0.1719317 0.9635406 0.1719317 0.0364594 -0.1719317
3166000000 0.0356253 -0.1696374 0.9643747 0.1696374 0.9643747 0.1696374 0.0356253 -0.1696374
3187000000 0.0348097 -0.1673591 0.9651903 0.1673591 0.9651903 0.1673591 0.0348097 -0.1673591
3208000000 0.0340122 -0.1650965 0.9659878 0.1650965 0.9659878 0.1650965 0.0340122 -0.1650965
3229000000 0.0332324 -0.1628495 0.9667676 0.1628495 0.9667676 0.1628495 0.0332324 -0.1628495
3250000000 0.0324700 -0.1606178 0.9675300 0.1606178 0.9675300 0.1606178 0.0324700 -0.1606178
3271000000 0.0317245 -0.1584012 0.9682755 0.1584012 0.9682755 0.1584012 0.0317245 -0.1584012
3292000000 0.0309956 -0.1561997 0.9690044 0.1561997 0.9690044 0.1561997 0.0309956 -0.1561997
3313000000 0.0302830 -0.1540129 0.9697170 0.1540129 0.9697170 0.1540129 0.0302830 -0.1540129
3334000000 0.0295863 -0.1518408 0.9704137 0.1518408 0.9704137 0.1518408 0.0295863 -0.1518408
3355000000 0.0289052 -0.1496830 0.9710948 0.1496830 0.9710948 0.1496830 0.0289052 -0.1496830
3376000000 0.0282394 -0.1475395 0.9717606 0.1475395 0.9717606 0.1475395 0.0282394 -0.1475395
3397000000 0.0275886 -0.1454100 0.9724114 0.1454100 0.9724114 0.1454100 0.0275886 -0.1454100
3418000000 0.0269524 -0.1432944 0.9730476 0.1432944 0.9730476 0.1432944 0.0269524 -0.1432944
3439000000 0.0263307 -0.1411925 0.9736693 0.1411925 0.9736693 0.1411925 0.0263307 -0.1411925
3460000000 0.0257230 -0.1391041 0.9742770 0.1391041 0.9742770 0.1391041 0.0257230 -0.1391041
3481000000 0.0251291 -0.1370291 0.9748709 0.1370291 0.9748709 0.1370291 0.0251291 -0.1370291
3502000000 0.0245487 -0.1349673 0.9754513 0.1349673 0.9754513 0.1349673 0.0245487 -0.1349673
3523000000 0.0239816 -0.1329185 0.9760184 0.1329185 0.9760184 0.1329185 0.0239816 -0.1329185
3544000000 0.0234275 -0.1308825 0.9765725 0.1308825 0.9765725 0.1308825 0.0234275 -0.1308825
3565000000 0.0228862 -0.1288592 0.9771138 0.1288592 0.9771138 0.1288592 0.0228862 -0.1288592
3586000000 0.0223574 -0.1268485 0.9776426 0.1268485 0.9776426 0.1268485 0.0223574 -0.1268485
3607000000 0.0218409 -0.1248502 0.9781591 0.1248502 0.9781591 0.1248502 0.0218409 -0.1248502
3628000000 0.0213365 -0.1228640 0.9786635 0.1228640 0.9786635 0.1228640 0.0213365 -0.1228640
3649000000 0.0208438 -0.1208900 0.9791562 0.1208900 0.9791562 0.1208900 0.0208438 -0.1208900
3670000000 0.0203628 -0.1189278 0.9796372 0.1189278 0.9796372 0.1189278 0.0203628 -0.1189278
3691000000 0.0198932 -0.1169774 0.9801068 0.1169774 0.9801068 0.1169774 0.0198932 -0.1169774
3712000000 0.0194347 -0.1150387 0.9805653 0.1150387 0.9805653 0.1150387 0.0194347 -0.1150387
3733000000 0.0189872 -0.1131114 0.9810128 0.1131114 0.9810128 0.1131114 0.0189872 -0.1131114
3754000000 0.0185505 -0.1111954 0.9814495 0.1111954 0.9814495 0.1111954 0.0185505 -0.1111954
3775000000 0.0181244 -0.1092906 0.9818756 0.1092906 0.9818756 0.1092906 0.0181244 -0.1092906
3796000000 0.0177086 -0.1073969 0.9822914 0.1073969 0.9822914 0.1073969 0.0177086 -0.1073969
3817000000 0.0173031 -0.1055140 0.9826969 0.1055140 0.9826969 0.1055140 0.0173031 -0.1055140
3838000000 0.0169076 -0.1036420 0.9830924 0.1036420 0.9830924 0.1036420 0.0169076 -0.1036420
3859000000 0.0165219 -0.1017806 0.9834781 0.1017806 0.9834781 0.1017806 0.0165219 -0.1017806
3880000000 0.0161460 -0.0999296 0.9838540 0.0999296 0.9838540 0.0999296 0.0161460 -0.0999296
3901000000 0.0157795 -0.0980891 0.9842205 0.0980891 0.9842205 0.0980891 0.0157795 -0.0980891
3922000000 0.0154224 -0.0962588 0.9845776 0.0962588 0.9845776 0.0962588 0.0154224 -0.0962588
3943000000 0.0150745 -0.0944386 0.9849255 0.0944386 0.9849255 0.0944386 0.0150745 -0.0944386
3964000000 0.0147357 -0.0926285 0.9852643 0.0926285 0.9852643 0.0926285 0.0147357 -0.0926285
3985000000 0.0144057 -0.0908282 0.9855943 0.0908282 0.9855943 0.0908282 0.0144057 -0.0908282
4006000000 0.0140844 -0.0890376 0.9859156 0.0890376 0.9859156 0.0890376 0.0140844 -0.0890376
4027000000 0.0137718 -0.0872567 0.9862282 0.0872567 0.9862282 0.0872567 0.0137718 -0.0872567
4048000000 0.0134676 -0.0854853 0.9865324 0.0854853 0.9865324 0.0854853 0.0134676 -0.0854853
4069000000 0.0131718 -0.0837232 0.9868282 0.0837232 0.9868282 0.0837232 0.0131718 -0.0837232
4090000000 0.0128841 -0.0819705 0.9871159 0.0819705 0.9871159 0.0819705 0.0128841 -0.0819705
4111000000 0.0126045 -0.0802269 0.9873955 0.0802269 0.9873955 0.0802269 0.0126045 -0.0802269
4132000000 0.0123328 -0.0784924 0.9876672 0.0784924 0.9876672 0.0784924 0.0123328 -0.0784924
4153000000 0.0120689 -0.0767668 0.9879311 0.0767668 0.9879311 0.0767668 0.0120689 -0.0767668
4174000000 0.0118127 -0.0750501 0.9881873 0.0750501 0.9881873 0.0750501 0.0118127 -0.0750501
4195000000 0.0115641 -0.0733420 0.9884359 0.0733420 0.9884359 0.0733420 0.0115641 -0.0733420
4216000000 0.0113229 -0.0716426 0.9886771 0.0716426 0.9886771 0.0716426 0.0113229 -0.0716426
4237000000 0.0110890 -0.0699518 0.9889110 0.0699518 0.9889110 0.0699518 0.0110890 -0.0699518
4258000000 0.0108624 -0.0682693 0.9891376 0.0682693 0.9891376 0.0682693 0.0108624 -0.0682693
4279000000 0.0106429 -0.0665951 0.9893571 0.0665951 0.9893571 0.0665951 0.0106429 -0.0665951
4300000000 0.0104304 -0.0649292 0.9895696 0.0649292 0.9895696 0.0649292 0.0104304 -0.0649292
4321000000 0.0102248 -0.0632713 0.9897752 0.0632713 0.9897752 0.0632713 0.0102248 -0.0632713
4342000000 0.0100261 -0.0616215 0.9899739 0.0616215 0.9899739 0.0616215 0.0100261 -0.0616215
4363000000 0.0098340 -0.0599796 0.9901660 0.0599796 0.9901660 0.0599796 0.0098340 -0.0599796
4384000000 0.0096486 -0.0583455 0.9903514 0.0583455 0.9903514 0.0583455 0.0096486 -0.0583455
4405000000 0.0094696 -0.0567192 0.9905304 0.0567192 0.9905304 0.0567192 0.0094696 -0.0567192
4426000000 0.0092972 -0.0551005 0.9907028 0.0551005 0.9907028 0.0551005 0.0092972 -0.0551005
4447000000 0.0091310 -0.0534893 0.9908690 0.0534893 0.9908690 0.0534893 0.0091310 -0.0534893
4468000000 0.0089711 -0.0518856 0.9910289 0.0518856 0.9910289 0.0518856 0.0089711 -0.0518856
4489000000 0.0088174 -0.0502892 0.9911826 0.0502892 0.9911826 0.0502892 0.0088174 -0.0502892
4510000000 0.0086698 -0.0487001 0.9913302 0.0487001 0.9913302 0.0487001 0.0086698 -0.0487001
