!Murata Part Number: GRM1882C2A270JA01
!These Parameters are Measured in Series Mode Connection
!Data Generated on Mar 30, 2021
!       o--ll--o
!Port1            Port2
!       o------o
!Operation Temp=25[degC], DC Bias Voltage=0[V]
!Freq. Start=100[MHz] Stop=9[GHz] 401[Steps]
# Hz S RI R 50
!Freq.(Hz) S11(Real) S11(Imag) S21(Real) S21(Imag) S12(Real) S12(Imag) S22(Real) S22(Imag)
100000000 0.2564270 -0.4349512 0.7435730 0.4349512 0.7435730 0.4349512 0.2564270 -0.4349512
121000000 0.1902467 -0.3904201 0.8097533 0.3904201 0.8097533 0.3904201 0.1902467 -0.3904201
142000000 0.1453574 -0.3500145 0.8546426 0.3500145 0.8546426 0.3500145 0.1453574 -0.3500145
163000000 0.1139725 -0.3149555 0.8860275 0.3149555 0.8860275 0.3149555 0.1139725 -0.3149555
184000000 0.0913671 -0.2849263 0.9086329 0.2849263 0.9086329 0.2849263 0.0913671 -0.2849263
205000000 0.0746391 -0.2592154 0.9253609 0.2592154 0.9253609 0.2592154 0.0746391 -0.2592154
226000000 0.0619609 -0.2370958 0.9380391 0.2370958 0.9380391 0.2370958 0.0619609 -0.2370958
247000000 0.0521488 -0.2179340 0.9478512 0.2179340 0.9478512 0.2179340 0.0521488 -0.2179340
268000000 0.0444147 -0.2012079 0.9555853 0.2012079 0.9555853 0.2012079 0.0444147 -0.2012079
289000000 0.0382199 -0.1864965 0.9617801 0.1864965 0.9617801 0.1864965 0.0382199 -0.1864965
310000000 0.0331877 -0.1734619 0.9668123 0.1734619 0.9668123 0.1734619 0.0331877 -0.1734619
331000000 0.0290489 -0.1618329 0.9709511 0.1618329 0.9709511 0.1618329 0.0290489 -0.1618329
352000000 0.0256072 -0.1513907 0.9743928 0.1513907 0.9743928 0.1513907 0.0256072 -0.1513907
373000000 0.0227171 -0.1419580 0.9772829 0.1419580 0.9772829 0.1419580 0.0227171 -0.1419580
394000000 0.0202689 -0.1333896 0.9797311 0.1333896 0.9797311 0.1333896 0.0202689 -0.1333896
415000000 0.0181788 -0.1255663 0.9818212 0.1255663 0.9818212 0.1255663 0.0181788 -0.1255663
436000000 0.0163820 -0.1183891 0.9836180 0.1183891 0.9836180 0.1183891 0.0163820 -0.1183891
457000000 0.0148275 -0.1117755 0.9851725 0.1117755 0.9851725 0.1117755 0.0148275 -0.1117755
478000000 0.0134752 -0.1056561 0.9865248 0.1056561 0.9865248 0.1056561 0.0134752 -0.1056561
499000000 0.0122926 -0.0999723 0.9877074 0.0999723 0.9877074 0.0999723 0.0122926 -0.0999723
520000000 0.0112538 -0.0946744 0.9887462 0.0946744 0.9887462 0.0946744 0.0112538 -0.0946744
541000000 0.0103376 -0.0897195 0.9896624 0.0897195 0.9896624 0.0897195 0.0103376 -0.0897195
562000000 0.0095266 -0.0850711 0.9904734 0.0850711 0.9904734 0.0850711 0.0095266 -0.0850711
583000000 0.0088063 -0.0806975 0.9911937 0.0806975 0.9911937 0.0806975 0.0088063 -0.0806975
604000000 0.0081647 -0.0765711 0.9918353 0.0765711 0.9918353 0.0765711 0.0081647 -0.0765711
625000000 0.0075918 -0.0726679 0.9924082 0.0726679 0.9924082 0.0726679 0.0075918 -0.0726679
646000000 0.0070792 -0.0689669 0.9929208 0.0689669 0.9929208 0.0689669 0.0070792 -0.0689669
667000000 0.0066196 -0.0654496 0.9933804 0.0654496 0.9933804 0.0654496 0.0066196 -0.0654496
688000000 0.0062069 -0.0620996 0.9937931 0.0620996 0.9937931 0.0620996 0.0062069 -0.0620996
709000000 0.0058359 -0.0589025 0.9941641 0.0589025 0.9941641 0.0589025 0.0058359 -0.0589025
730000000 0.0055021 -0.0558454 0.9944979 0.0558454 0.9944979 0.0558454 0.0055021 -0.0558454
751000000 0.0052016 -0.0529167 0.9947984 0.0529167 0.9947984 0.0529167 0.0052016 -0.0529167
772000000 0.0049309 -0.0501063 0.9950691 0.0501063 0.9950691 0.0501063 0.0049309 -0.0501063
793000000 0.0046873 -0.0474048 0.9953127 0.0474048 0.9953127 0.0474048 0.0046873 -0.0474048
814000000 0.0044680 -0.0448040 0.9955320 0.0448040 0.9955320 0.0448040 0.0044680 -0.0448040
835000000 0.0042708 -0.0422964 0.9957292 0.0422964 0.9957292 0.0422964 0.0042708 -0.0422964
856000000 0.0040939 -0.0398752 0.9959061 0.0398752 0.9959061 0.0398752 0.0040939 -0.0398752
877000000 0.0039353 -0.0375342 0.9960647 0.0375342 0.9960647 0.0375342 0.0039353 -0.0375342
898000000 0.0037936 -0.0352680 0.9962064 0.0352680 0.9962064 0.0352680 0.0037936 -0.0352680
919000000 0.0036674 -0.0330712 0.9963326 0.0330712 0.9963326 0.0330712 0.0036674 -0.0330712
940000000 0.0035555 -0.0309394 0.9964445 0.0309394 0.9964445 0.0309394 0.0035555 -0.0309394
961000000 0.0034568 -0.0288682 0.9965432 0.0288682 0.9965432 0.0288682 0.0034568 -0.0288682
982000000 0.0033703 -0.0268538 0.9966297 0.0268538 0.9966297 0.0268538 0.0033703 -0.0268538
1003000000 0.0032951 -0.0248926 0.9967049 0.0248926 0.9967049 0.0248926 0.0032951 -0.0248926
1024000000 0.0032305 -0.0229812 0.9967695 0.0229812 0.9967695 0.0229812 0.0032305 -0.0229812
1045000000 0.0031758 -0.0211166 0.9968242 0.0211166 0.9968242 0.0211166 0.0031758 -0.0211166
1066000000 0.0031303 -0.0192960 0.9968697 0.0192960 0.9968697 0.0192960 0.0031303 -0.0192960
1087000000 0.0030935 -0.0175168 0.9969065 0.0175168 0.9969065 0.0175168 0.0030935 -0.0175168
1108000000 0.0030649 -0.0157767 0.9969351 0.0157767 0.9969351 0.0157767 0.0030649 -0.0157767
1129000000 0.0030439 -0.0140733 0.9969561 0.0140733 0.9969561 0.0140733 0.0030439 -0.0140733
1150000000 0.0030303 -0.0124045 0.9969697 0.0124045 0.9969697 0.0124045 0.0030303 -0.0124045
1171000000 0.0030235 -0.0107685 0.9969765 0.0107685 0.9969765 0.0107685 0.0030235 -0.0107685
1192000000 0.0030233 -0.0091635 0.9969767 0.0091635 0.9969767 0.0091635 0.0030233 -0.0091635
1213000000 0.0030294 -0.0075877 0.9969706 0.0075877 0.9969706 0.0075877 0.0030294 -0.0075877
1234000000 0.0030414 -0.0060396 0.9969586 0.0060396 0.9969586 0.0060396 0.0030414 -0.0060396
1255000000 0.0030591 -0.0045176 0.9969409 0.0045176 0.9969409 0.0045176 0.0030591 -0.0045176
1276000000 0.0030824 -0.0030205 0.9969176 0.0030205 0.9969176 0.0030205 0.0030824 -0.0030205
1297000000 0.0031109 -0.0015469 0.9968891 0.0015469 0.9968891 0.0015469 0.0031109 -0.0015469
1318000000 0.0031446 -0.0000957 0.9968554 0.0000957 0.9968554 0.0000957 0.0031446 -0.0000957
1339000000 0.0031832 0.0013345 0.9968168 -0.0013345 0.9968168 -0.0013345 0.0031832 0.0013345
1360000000 0.0032266 0.0027446 0.9967734 -0.0027446 0.9967734 -0.0027446 0.0032266 0.0027446
1381000000 0.0032746 0.0041356 0.9967254 -0.0041356 0.9967254 -0.0041356 0.0032746 0.0041356
1402000000 0.0033272 0.0055086 0.9966728 -0.0055086 0.9966728 -0.0055086 0.0033272 0.0055086
1423000000 0.0033842 0.0068644 0.9966158 -0.0068644 0.9966158 -0.0068644 0.0033842 0.0068644
1444000000 0.0034457 0.0082040 0.9965543 -0.0082040 0.9965543 -0.0082040 0.0034457 0.0082040
1465000000 0.0035113 0.0095280 0.9964887 -0.0095280 0.9964887 -0.0095280 0.0035113 0.0095280
1486000000 0.0035813 0.0108374 0.9964187 -0.0108374 0.9964187 -0.0108374 0.0035813 0.0108374
1507000000 0.0036554 0.0121329 0.9963446 -0.0121329 0.9963446 -0.0121329 0.0036554 0.0121329
1528000000 0.0037336 0.0134151 0.9962664 -0.0134151 0.9962664 -0.0134151 0.0037336 0.0134151
1549000000 0.0038159 0.0146848 0.9961841 -0.0146848 0.9961841 -0.0146848 0.0038159 0.0146848
1570000000 0.0039024 0.0159426 0.9960976 -0.0159426 0.9960976 -0.0159426 0.0039024 0.0159426
1591000000 0.0039929 0.0171891 0.9960071 -0.0171891 0.9960071 -0.0171891 0.0039929 0.0171891
1612000000 0.0040875 0.0184249 0.9959125 -0.0184249 0.9959125 -0.0184249 0.0040875 0.0184249
1633000000 0.0041863 0.0196506 0.9958137 -0.0196506 0.9958137 -0.0196506 0.0041863 0.0196506
1654000000 0.0042891 0.0208667 0.9957109 -0.0208667 0.9957109 -0.0208667 0.0042891 0.0208667
1675000000 0.0043962 0.0220738 0.9956038 -0.0220738 0.9956038 -0.0220738 0.0043962 0.0220738
1696000000 0.0045075 0.0232724 0.9954925 -0.0232724 0.9954925 -0.0232724 0.0045075 0.0232724
1717000000 0.0046231 0.0244629 0.9953769 -0.0244629 0.9953769 -0.0244629 0.0046231 0.0244629
1738000000 0.0047430 0.0256459 0.9952570 -0.0256459 0.9952570 -0.0256459 0.0047430 0.0256459
1759000000 0.0048675 0.0268217 0.9951325 -0.0268217 0.9951325 -0.0268217 0.0048675 0.0268217
1780000000 0.0049965 0.0279909 0.9950035 -0.0279909 0.9950035 -0.0279909 0.0049965 0.0279909
1801000000 0.0051302 0.0291539 0.9948698 -0.0291539 0.9948698 -0.0291539 0.0051302 0.0291539
1822000000 0.0052687 0.0303111 0.9947313 -0.0303111 0.9947313 -0.0303111 0.0052687 0.0303111
1843000000 0.0054122 0.0314628 0.9945878 -0.0314628 0.9945878 -0.0314628 0.0054122 0.0314628
1864000000 0.0055609 0.0326097 0.9944391 -0.0326097 0.9944391 -0.0326097 0.0055609 0.0326097
1885000000 0.0057149 0.0337519 0.9942851 -0.0337519 0.9942851 -0.0337519 0.0057149 0.0337519
1906000000 0.0058744 0.0348899 0.9941256 -0.0348899 0.9941256 -0.0348899 0.0058744 0.0348899
1927000000 0.0060398 0.0360241 0.9939602 -0.0360241 0.9939602 -0.0360241 0.0060398 0.0360241
1948000000 0.0062112 0.0371549 0.9937888 -0.0371549 0.9937888 -0.0371549 0.0062112 0.0371549
1969000000 0.0063890 0.0382825 0.9936110 -0.0382825 0.9936110 -0.0382825 0.0063890 0.0382825
1990000000 0.0065735 0.0394074 0.9934265 -0.0394074 0.9934265 -0.0394074 0.0065735 0.0394074
2011000000 0.0067651 0.0405300 0.9932349 -0.0405300 0.9932349 -0.0405300 0.0067651 0.0405300
2032000000 0.0069641 0.0416504 0.9930359 -0.0416504 0.9930359 -0.0416504 0.0069641 0.0416504
2053000000 0.0071710 0.0427692 0.9928290 -0.0427692 0.9928290 -0.0427692 0.0071710 0.0427692
2074000000 0.0073864 0.0438865 0.9926136 -0.0438865 0.9926136 -0.0438865 0.0073864 0.0438865
2095000000 0.0076107 0.0450027 0.9923893 -0.0450027 0.9923893 -0.0450027 0.0076107 0.0450027
2116000000 0.0078446 0.0461180 0.9921554 -0.0461180 0.9921554 -0.0461180 0.0078446 0.0461180
2137000000 0.0080888 0.0472328 0.9919112 -0.0472328 0.9919112 -0.0472328 0.0080888 0.0472328
2158000000 0.0083440 0.0483472 0.9916560 -0.0483472 0.9916560 -0.0483472 0.0083440 0.0483472
2179000000 0.0086111 0.0494615 0.9913889 -0.0494615 0.9913889 -0.0494615 0.0086111 0.0494615
2200000000 0.0088911 0.0505757 0.9911089 -0.0505757 0.9911089 -0.0505757 0.0088911 0.0505757
2221000000 0.0091849 0.0516901 0.9908151 -0.0516901 0.9908151 -0.0516901 0.0091849 0.0516901
2242000000 0.0094939 0.0528047 0.9905061 -0.0528047 0.9905061 -0.0528047 0.0094939 0.0528047
2263000000 0.0098192 0.0539193 0.9901808 -0.0539193 0.9901808 -0.0539193 0.0098192 0.0539193
2284000000 0.0101624 0.0550339 0.9898376 -0.0550339 0.9898376 -0.0550339 0.0101624 0.0550339
2305000000 0.0105251 0.0561481 0.9894749 -0.0561481 0.9894749 -0.0561481 0.0105251 0.0561481
2326000000 0.0109091 0.0572616 0.9890909 -0.0572616 0.9890909 -0.0572616 0.0109091 0.0572616
2347000000 0.0113164 0.0583736 0.9886836 -0.0583736 0.9886836 -0.0583736 0.0113164 0.0583736
2368000000 0.0117493 0.0594832 0.9882507 -0.0594832 0.9882507 -0.0594832 0.0117493 0.0594832
2389000000 0.0122101 0.0605892 0.9877899 -0.0605892 0.9877899 -0.0605892 0.0122101 0.0605892
2410000000 0.0127016 0.0616899 0.9872984 -0.0616899 0.9872984 -0.0616899 0.0127016 0.0616899
2431000000 0.0132265 0.0627831 0.9867735 -0.0627831 0.9867735 -0.0627831 0.0132265 0.0627831
2452000000 0.0137880 0.0638660 0.9862120 -0.0638660 0.9862120 -0.0638660 0.0137880 0.0638660
2473000000 0.0143893 0.0649351 0.9856107 -0.0649351 0.9856107 -0.0649351 0.0143893 0.0649351
2494000000 0.0150336 0.0659857 0.9849664 -0.0659857 0.9849664 -0.0659857 0.0150336 0.0659857
2515000000 0.0157240 0.0670123 0.9842760 -0.0670123 0.9842760 -0.0670123 0.0157240 0.0670123
2536000000 0.0164634 0.0680078 0.9835366 -0.0680078 0.9835366 -0.0680078 0.0164634 0.0680078
2557000000 0.0172540 0.0689638 0.9827460 -0.0689638 0.9827460 -0.0689638 0.0172540 0.0689638
2578000000 0.0180970 0.0698700 0.9819030 -0.0698700 0.9819030 -0.0698700 0.0180970 0.0698700
2599000000 0.0189920 0.0707142 0.9810080 -0.0707142 0.9810080 -0.0707142 0.0189920 0.0707142
2620000000 0.0199362 0.0714828 0.9800638 -0.0714828 0.9800638 -0.0714828 0.0199362 0.0714828
2641000000 0.0209234 0.0721603 0.9790766 -0.0721603 0.9790766 -0.0721603 0.0209234 0.0721603
2662000000 0.0219434 0.0727304 0.9780566 -0.0727304 0.9780566 -0.0727304 0.0219434 0.0727304
2683000000 0.0229805 0.0731771 0.9770195 -0.0731771 0.9770195 -0.0731771 0.0229805 0.0731771
2704000000 0.0240131 0.0734862 0.9759869 -0.0734862 0.9759869 -0.0734862 0.0240131 0.0734862
2725000000 0.0250132 0.0736477 0.9749868 -0.0736477 0.9749868 -0.0736477 0.0250132 0.0736477
2746000000 0.0259473 0.0736586 0.9740527 -0.0736586 0.9740527 -0.0736586 0.0259473 0.0736586
2767000000 0.0267784 0.0735254 0.9732216 -0.0735254 0.9732216 -0.0735254 0.0267784 0.0735254
2788000000 0.0274695 0.0732664 0.9725305 -0.0732664 0.9725305 -0.0732664 0.0274695 0.0732664
2809000000 0.0279876 0.0729118 0.9720124 -0.0729118 0.9720124 -0.0729118 0.0279876 0.0729118
2830000000 0.0283094 0.0725028 0.9716906 -0.0725028 0.9716906 -0.0725028 0.0283094 0.0725028
2851000000 0.0284245 0.0720871 0.9715755 -0.0720871 0.9715755 -0.0720871 0.0284245 0.0720871
2872000000 0.0283380 0.0717137 0.9716620 -0.0717137 0.9716620 -0.0717137 0.0283380 0.0717137
2893000000 0.0280692 0.0714274 0.9719308 -0.0714274 0.9719308 -0.0714274 0.0280692 0.0714274
2914000000 0.0276490 0.0712631 0.9723510 -0.0712631 0.9723510 -0.0712631 0.0276490 0.0712631
2935000000 0.0271148 0.0712440 0.9728852 -0.0712440 0.9728852 -0.0712440 0.0271148 0.0712440
2956000000 0.0265058 0.0713806 0.9734942 -0.0713806 0.9734942 -0.0713806 0.0265058 0.0713806
2977000000 0.0258587 0.0716725 0.9741413 -0.0716725 0.9741413 -0.0716725 0.0258587 0.0716725
2998000000 0.0252050 0.0721106 0.9747950 -0.0721106 0.9747950 -0.0721106 0.0252050 0.0721106
3019000000 0.0245696 0.0726806 0.9754304 -0.0726806 0.9754304 -0.0726806 0.0245696 0.0726806
3040000000 0.0239709 0.0733654 0.9760291 -0.0733654 0.9760291 -0.0733654 0.0239709 0.0733654
3061000000 0.0234211 0.0741470 0.9765789 -0.0741470 0.9765789 -0.0741470 0.0234211 0.0741470
3082000000 0.0229276 0.0750083 0.9770724 -0.0750083 0.9770724 -0.0750083 0.0229276 0.0750083
3103000000 0.0224938 0.0759337 0.9775062 -0.0759337 0.9775062 -0.0759337 0.0224938 0.0759337
3124000000 0.0221203 0.0769096 0.9778797 -0.0769096 0.9778797 -0.0769096 0.0221203 0.0769096
3145000000 0.0218058 0.0779243 0.9781942 -0.0779243 0.9781942 -0.0779243 0.0218058 0.0779243
3166000000 0.0215478 0.0789683 0.9784522 -0.0789683 0.9784522 -0.0789683 0.0215478 0.0789683
3187000000 0.0213431 0.0800336 0.9786569 -0.0800336 0.9786569 -0.0800336 0.0213431 0.0800336
3208000000 0.0211880 0.0811141 0.9788120 -0.0811141 0.9788120 -0.0811141 0.0211880 0.0811141
3229000000 0.0210789 0.0822046 0.9789211 -0.0822046 0.9789211 -0.0822046 0.0210789 0.0822046
3250000000 0.0210123 0.0833011 0.9789877 -0.0833011 0.9789877 -0.0833011 0.0210123 0.0833011
3271000000 0.0209845 0.0844007 0.9790155 -0.0844007 0.9790155 -0.0844007 0.0209845 0.0844007
3292000000 0.0209926 0.0855010 0.9790074 -0.0855010 0.9790074 -0.0855010 0.0209926 0.0855010
3313000000 0.0210336 0.0866000 0.9789664 -0.0866000 0.9789664 -0.0866000 0.0210336 0.0866000
3334000000 0.0211048 0.0876966 0.9788952 -0.0876966 0.9788952 -0.0876966 0.0211048 0.0876966
3355000000 0.0212040 0.0887895 0.9787960 -0.0887895 0.9787960 -0.0887895 0.0212040 0.0887895
3376000000 0.0213289 0.0898782 0.9786711 -0.0898782 0.9786711 -0.0898782 0.0213289 0.0898782
3397000000 0.0214778 0.0909620 0.9785222 -0.0909620 0.9785222 -0.0909620 0.0214778 0.0909620
3418000000 0.0216490 0.0920406 0.9783510 -0.0920406 0.9783510 -0.0920406 0.0216490 0.0920406
3439000000 0.0218410 0.0931138 0.9781590 -0.0931138 0.9781590 -0.0931138 0.0218410 0.0931138
3460000000 0.0220526 0.0941814 0.9779474 -0.0941814 0.9779474 -0.0941814 0.0220526 0.0941814
3481000000 0.0222826 0.0952434 0.9777174 -0.0952434 0.9777174 -0.0952434 0.0222826 0.0952434
3502000000 0.0225301 0.0962996 0.9774699 -0.0962996 0.9774699 -0.0962996 0.0225301 0.0962996
3523000000 0.0227942 0.0973502 0.9772058 -0.0973502 0.9772058 -0.0973502 0.0227942 0.0973502
3544000000 0.0230742 0.0983951 0.9769258 -0.0983951 0.9769258 -0.0983951 0.0230742 0.0983951
3565000000 0.0233695 0.0994344 0.9766305 -0.0994344 0.9766305 -0.0994344 0.0233695 0.0994344
3586000000 0.0236795 0.1004682 0.9763205 -0.1004682 0.9763205 -0.1004682 0.0236795 0.1004682
3607000000 0.0240038 0.1014964 0.9759962 -0.1014964 0.9759962 -0.1014964 0.0240038 0.1014964
3628000000 0.0243420 0.1025191 0.9756580 -0.1025191 0.9756580 -0.1025191 0.0243420 0.1025191
3649000000 0.0246937 0.1035364 0.9753063 -0.1035364 0.9753063 -0.1035364 0.0246937 0.1035364
3670000000 0.0250588 0.1045483 0.9749412 -0.1045483 0.9749412 -0.1045483 0.0250588 0.1045483
3691000000 0.0254370 0.1055546 0.9745630 -0.1055546 0.9745630 -0.1055546 0.0254370 0.1055546
3712000000 0.0258280 0.1065555 0.9741720 -0.1065555 0.9741720 -0.1065555 0.0258280 0.1065555
3733000000 0.0262319 0.1075509 0.9737681 -0.1075509 0.9737681 -0.1075509 0.0262319 0.1075509
3754000000 0.0266485 0.1085407 0.9733515 -0.1085407 0.9733515 -0.1085407 0.0266485 0.1085407
3775000000 0.0270777 0.1095248 0.9729223 -0.1095248 0.9729223 -0.1095248 0.0270777 0.1095248
3796000000 0.0275196 0.1105031 0.9724804 -0.1105031 0.9724804 -0.1105031 0.0275196 0.1105031
3817000000 0.0279740 0.1114755 0.9720260 -0.1114755 0.9720260 -0.1114755 0.0279740 0.1114755
3838000000 0.0284411 0.1124417 0.9715589 -0.1124417 0.9715589 -0.1124417 0.0284411 0.1124417
3859000000 0.0289208 0.1134016 0.9710792 -0.1134016 0.9710792 -0.1134016 0.0289208 0.1134016
3880000000 0.0294132 0.1143550 0.9705868 -0.1143550 0.9705868 -0.1143550 0.0294132 0.1143550
3901000000 0.0299183 0.1153014 0.9700817 -0.1153014 0.9700817 -0.1153014 0.0299183 0.1153014
3922000000 0.0304363 0.1162408 0.9695637 -0.1162408 0.9695637 -0.1162408 0.0304363 0.1162408
3943000000 0.0309671 0.1171726 0.9690329 -0.1171726 0.9690329 -0.1171726 0.0309671 0.1171726
3964000000 0.0315109 0.1180965 0.9684891 -0.1180965 0.9684891 -0.1180965 0.0315109 0.1180965
3985000000 0.0320677 0.1190122 0.9679323 -0.1190122 0.9679323 -0.1190122 0.0320677 0.1190122
4006000000 0.0326376 0.1199191 0.9673624 -0.1199191 0.9673624 -0.1199191 0.0326376 0.1199191
4027000000 0.0332206 0.1208167 0.9667794 -0.1208167 0.9667794 -0.1208167 0.0332206 0.1208167
4048000000 0.0338169 0.1217045 0.9661831 -0.1217045 0.9661831 -0.1217045 0.0338169 0.1217045
4069000000 0.0344263 0.1225820 0.9655737 -0.1225820 0.9655737 -0.1225820 0.0344263 0.1225820
4090000000 0.0350489 0.1234484 0.9649511 -0.1234484 0.9649511 -0.1234484 0.0350489 0.1234484
4111000000 0.0356847 0.1243031 0.9643153 -0.1243031 0.9643153 -0.1243031 0.0356847 0.1243031
4132000000 0.0363337 0.1251453 0.9636663 -0.1251453 0.9636663 -0.1251453 0.0363337 0.1251453
4153000000 0.0369956 0.1259744 0.9630044 -0.1259744 0.9630044 -0.1259744 0.0369956 0.1259744
4174000000 0.0376705 0.1267894 0.9623295 -0.1267894 0.9623295 -0.1267894 0.0376705 0.1267894
4195000000 0.0383580 0.1275895 0.9616420 -0.1275895 0.9616420 -0.1275895 0.0383580 0.1275895
4216000000 0.0390580 0.1283739 0.9609420 -0.1283739 0.9609420 -0.1283739 0.0390580 0.1283739
4237000000 0.0397701 0.1291415 0.9602299 -0.1291415 0.9602299 -0.1291415 0.0397701 0.1291415
4258000000 0.0404940 0.1298913 0.9595060 -0.1298913 0.9595060 -0.1298913 0.0404940 0.1298913
4279000000 0.0412291 0.1306225 0.9587709 -0.1306225 0.9587709 -0.1306225 0.0412291 0.1306225
4300000000 0.0419749 0.1313338 0.9580251 -0.1313338 0.9580251 -0.1313338 0.0419749 0.1313338
4321000000 0.0427308 0.1320242 0.9572692 -0.1320242 0.9572692 -0.1320242 0.0427308 0.1320242
4342000000 0.0434959 0.1326927 0.9565041 -0.1326927 0.9565041 -0.1326927 0.0434959 0.1326927
4363000000 0.0442695 0.1333380 0.9557305 -0.1333380 0.9557305 -0.1333380 0.0442695 0.1333380
4384000000 0.0450504 0.1339592 0.9549496 -0.1339592 0.9549496 -0.1339592 0.0450504 0.1339592
4405000000 0.0458375 0.1345551 0.9541625 -0.1345551 0.9541625 -0.1345551 0.0458375 0.1345551
4426000000 0.0466296 0.1351247 0.9533704 -0.1351247 0.9533704 -0.1351247 0.0466296 0.1351247
4447000000 0.0474253 0.1356670 0.9525747 -0.1356670 0.9525747 -0.1356670 0.0474253 0.1356670
4468000000 0.0482229 0.1361809 0.9517771 -0.1361809 0.9517771 -0.1361809 0.0482229 0.1361809
4489000000 0.0490207 0.1366656 0.9509793 -0.1366656 0.9509793 -0.1366656 0.0490207 0.1366656
4510000000 0.0498169 0.1371204 0.9501831 -0.1371204 0.9501831 -0.1371204 0.0498169 0.1371204
