!Murata Part Number: GRM1882C2A271JA01
!These Parameters are Measured in Series Mode Connection
!Data Generated on Mar 30, 2021
!       o--ll--o
!Port1            Port2
!       o------o
!Operation Temp=25[degC], DC Bias Voltage=0[V]
!Freq. Start=100[MHz] Stop=9[GHz] 401[Steps]
# Hz S RI R 50
!Freq.(Hz) S11(Real) S11(Imag) S21(Real) S21(Imag) S12(Real) S12(Imag) S22(Real) S22(Imag)
100000000 0.0039359 -0.0548520 0.9960641 0.0548520 0.9960641 0.0548520 0.0039359 -0.0548520
121000000 0.0028571 -0.0439177 0.9971429 0.0439177 0.9971429 0.0439177 0.0028571 -0.0439177
142000000 0.0022279 -0.0359608 0.9977721 0.0359608 0.9977721 0.0359608 0.0022279 -0.0359608
163000000 0.0018342 -0.0298378 0.9981658 0.0298378 0.9981658 0.0298378 0.0018342 -0.0298378
184000000 0.0015765 -0.0249239 0.9984235 0.0249239 0.9984235 0.0249239 0.0015765 -0.0249239
205000000 0.0014031 -0.0208486 0.9985969 0.0208486 0.9985969 0.0208486 0.0014031 -0.0208486
226000000 0.0012853 -0.0173786 0.9987147 0.0173786 0.9987147 0.0173786 0.0012853 -0.0173786
247000000 0.0012061 -0.0143596 0.9987939 0.0143596 0.9987939 0.0143596 0.0012061 -0.0143596
268000000 0.0011547 -0.0116856 0.9988453 0.0116856 0.9988453 0.0116856 0.0011547 -0.0116856
289000000 0.0011242 -0.0092811 0.9988758 0.0092811 0.9988758 0.0092811 0.0011242 -0.0092811
310000000 0.0011101 -0.0070910 0.9988899 0.0070910 0.9988899 0.0070910 0.0011101 -0.0070910
331000000 0.0011091 -0.0050744 0.9988909 0.0050744 0.9988909 0.0050744 0.0011091 -0.0050744
352000000 0.0011191 -0.0031998 0.9988809 0.0031998 0.9988809 0.0031998 0.0011191 -0.0031998
373000000 0.0011383 -0.0014428 0.9988617 0.0014428 0.9988617 0.0014428 0.0011383 -0.0014428
394000000 0.0011657 0.0002158 0.9988343 -0.0002158 0.9988343 -0.0002158 0.0011657 0.0002158
415000000 0.0012005 0.0017912 0.9987995 -0.0017912 0.9987995 -0.0017912 0.0012005 0.0017912
436000000 0.0012421 0.0032961 0.9987579 -0.0032961 0.9987579 -0.0032961 0.0012421 0.0032961
457000000 0.0012900 0.0047406 0.9987100 -0.0047406 0.9987100 -0.0047406 0.0012900 0.0047406
478000000 0.0013441 0.0061331 0.9986559 -0.0061331 0.9986559 -0.0061331 0.0013441 0.0061331
499000000 0.0014041 0.0074809 0.9985959 -0.0074809 0.9985959 -0.0074809 0.0014041 0.0074809
520000000 0.0014700 0.0087899 0.9985300 -0.0087899 0.9985300 -0.0087899 0.0014700 0.0087899
541000000 0.0015420 0.0100653 0.9984580 -0.0100653 0.9984580 -0.0100653 0.0015420 0.0100653
562000000 0.0016202 0.0113116 0.9983798 -0.0113116 0.9983798 -0.0113116 0.0016202 0.0113116
583000000 0.0017047 0.0125327 0.9982953 -0.0125327 0.9982953 -0.0125327 0.0017047 0.0125327
604000000 0.0017961 0.0137321 0.9982039 -0.0137321 0.9982039 -0.0137321 0.0017961 0.0137321
625000000 0.0018948 0.0149130 0.9981052 -0.0149130 0.9981052 -0.0149130 0.0018948 0.0149130
646000000 0.0020015 0.0160781 0.9979985 -0.0160781 0.9979985 -0.0160781 0.0020015 0.0160781
667000000 0.0021171 0.0172302 0.9978829 -0.0172302 0.9978829 -0.0172302 0.0021171 0.0172302
688000000 0.0022428 0.0183718 0.9977572 -0.0183718 0.9977572 -0.0183718 0.0022428 0.0183718
709000000 0.0023801 0.0195052 0.9976199 -0.0195052 0.9976199 -0.0195052 0.0023801 0.0195052
730000000 0.0025311 0.0206328 0.9974689 -0.0206328 0.9974689 -0.0206328 0.0025311 0.0206328
751000000 0.0026988 0.0217567 0.9973012 -0.0217567 0.9973012 -0.0217567 0.0026988 0.0217567
772000000 0.0028869 0.0228788 0.9971131 -0.0228788 0.9971131 -0.0228788 0.0028869 0.0228788
793000000 0.0031011 0.0240007 0.9968989 -0.0240007 0.9968989 -0.0240007 0.0031011 0.0240007
814000000 0.0033491 0.0251229 0.9966509 -0.0251229 0.9966509 -0.0251229 0.0033491 0.0251229
835000000 0.0036417 0.0262437 0.9963583 -0.0262437 0.9963583 -0.0262437 0.0036417 0.0262437
856000000 0.0039941 0.0273565 0.9960059 -0.0273565 0.9960059 -0.0273565 0.0039941 0.0273565
877000000 0.0044256 0.0284453 0.9955744 -0.0284453 0.9955744 -0.0284453 0.0044256 0.0284453
898000000 0.0049560 0.0294752 0.9950440 -0.0294752 0.9950440 -0.0294752 0.0049560 0.0294752
919000000 0.0055903 0.0303818 0.9944097 -0.0303818 0.9944097 -0.0303818 0.0055903 0.0303818
940000000 0.0062801 0.0310731 0.9937199 -0.0310731 0.9937199 -0.0310731 0.0062801 0.0310731
961000000 0.0068789 0.0314881 0.9931211 -0.0314881 0.9931211 -0.0314881 0.0068789 0.0314881
982000000 0.0071889 0.0317166 0.9928111 -0.0317166 0.9928111 -0.0317166 0.0071889 0.0317166
1003000000 0.0071515 0.0320035 0.9928485 -0.0320035 0.9928485 -0.0320035 0.0071515 0.0320035
1024000000 0.0069194 0.0325332 0.9930806 -0.0325332 0.9930806 -0.0325332 0.0069194 0.0325332
1045000000 0.0066816 0.0333083 0.9933184 -0.0333083 0.9933184 -0.0333083 0.0066816 0.0333083
1066000000 0.0065346 0.0342419 0.9934654 -0.0342419 0.9934654 -0.0342419 0.0065346 0.0342419
1087000000 0.0064974 0.0352537 0.9935026 -0.0352537 0.9935026 -0.0352537 0.0064974 0.0352537
1108000000 0.0065581 0.0362941 0.9934419 -0.0362941 0.9934419 -0.0362941 0.0065581 0.0362941
1129000000 0.0066993 0.0373369 0.9933007 -0.0373369 0.9933007 -0.0373369 0.0066993 0.0373369
1150000000 0.0069061 0.0383688 0.9930939 -0.0383688 0.9930939 -0.0383688 0.0069061 0.0383688
1171000000 0.0071680 0.0393828 0.9928320 -0.0393828 0.9928320 -0.0393828 0.0071680 0.0393828
1192000000 0.0074775 0.0403746 0.9925225 -0.0403746 0.9925225 -0.0403746 0.0074775 0.0403746
1213000000 0.0078298 0.0413409 0.9921702 -0.0413409 0.9921702 -0.0413409 0.0078298 0.0413409
1234000000 0.0082214 0.0422781 0.9917786 -0.0422781 0.9917786 -0.0422781 0.0082214 0.0422781
1255000000 0.0086495 0.0431821 0.9913505 -0.0431821 0.9913505 -0.0431821 0.0086495 0.0431821
1276000000 0.0091113 0.0440484 0.9908887 -0.0440484 0.9908887 -0.0440484 0.0091113 0.0440484
1297000000 0.0096037 0.0448715 0.9903963 -0.0448715 0.9903963 -0.0448715 0.0096037 0.0448715
1318000000 0.0101225 0.0456455 0.9898775 -0.0456455 0.9898775 -0.0456455 0.0101225 0.0456455
1339000000 0.0106620 0.0463641 0.9893380 -0.0463641 0.9893380 -0.0463641 0.0106620 0.0463641
1360000000 0.0112148 0.0470210 0.9887852 -0.0470210 0.9887852 -0.0470210 0.0112148 0.0470210
1381000000 0.0117713 0.0476110 0.9882287 -0.0476110 0.9882287 -0.0476110 0.0117713 0.0476110
1402000000 0.0123197 0.0481301 0.9876803 -0.0481301 0.9876803 -0.0481301 0.0123197 0.0481301
1423000000 0.0128463 0.0485770 0.9871537 -0.0485770 0.9871537 -0.0485770 0.0128463 0.0485770
1444000000 0.0133361 0.0489537 0.9866639 -0.0489537 0.9866639 -0.0489537 0.0133361 0.0489537
1465000000 0.0137739 0.0492660 0.9862261 -0.0492660 0.9862261 -0.0492660 0.0137739 0.0492660
1486000000 0.0141455 0.0495243 0.9858545 -0.0495243 0.9858545 -0.0495243 0.0141455 0.0495243
1507000000 0.0144394 0.0497428 0.9855606 -0.0497428 0.9855606 -0.0497428 0.0144394 0.0497428
1528000000 0.0146483 0.0499387 0.9853517 -0.0499387 0.9853517 -0.0499387 0.0146483 0.0499387
1549000000 0.0147694 0.0501309 0.9852306 -0.0501309 0.9852306 -0.0501309 0.0147694 0.0501309
1570000000 0.0148053 0.0503381 0.9851947 -0.0503381 0.9851947 -0.0503381 0.0148053 0.0503381
1591000000 0.0147635 0.0505771 0.9852365 -0.0505771 0.9852365 -0.0505771 0.0147635 0.0505771
1612000000 0.0146549 0.0508614 0.9853451 -0.0508614 0.9853451 -0.0508614 0.0146549 0.0508614
1633000000 0.0144929 0.0512008 0.9855071 -0.0512008 0.9855071 -0.0512008 0.0144929 0.0512008
1654000000 0.0142916 0.0516008 0.9857084 -0.0516008 0.9857084 -0.0516008 0.0142916 0.0516008
1675000000 0.0140649 0.0520633 0.9859351 -0.0520633 0.9859351 -0.0520633 0.0140649 0.0520633
1696000000 0.0138251 0.0525868 0.9861749 -0.0525868 0.9861749 -0.0525868 0.0138251 0.0525868
1717000000 0.0135828 0.0531680 0.9864172 -0.0531680 0.9864172 -0.0531680 0.0135828 0.0531680
1738000000 0.0133466 0.0538017 0.9866534 -0.0538017 0.9866534 -0.0538017 0.0133466 0.0538017
1759000000 0.0131229 0.0544822 0.9868771 -0.0544822 0.9868771 -0.0544822 0.0131229 0.0544822
1780000000 0.0129165 0.0552034 0.9870835 -0.0552034 0.9870835 -0.0552034 0.0129165 0.0552034
1801000000 0.0127303 0.0559595 0.9872697 -0.0559595 0.9872697 -0.0559595 0.0127303 0.0559595
1822000000 0.0125664 0.0567450 0.9874336 -0.0567450 0.9874336 -0.0567450 0.0125664 0.0567450
1843000000 0.0124254 0.0575550 0.9875746 -0.0575550 0.9875746 -0.0575550 0.0124254 0.0575550
1864000000 0.0123076 0.0583850 0.9876924 -0.0583850 0.9876924 -0.0583850 0.0123076 0.0583850
1885000000 0.0122127 0.0592314 0.9877873 -0.0592314 0.9877873 -0.0592314 0.0122127 0.0592314
1906000000 0.0121398 0.0600909 0.9878602 -0.0600909 0.9878602 -0.0600909 0.0121398 0.0600909
1927000000 0.0120880 0.0609608 0.9879120 -0.0609608 0.9879120 -0.0609608 0.0120880 0.0609608
1948000000 0.0120564 0.0618388 0.9879436 -0.0618388 0.9879436 -0.0618388 0.0120564 0.0618388
1969000000 0.0120436 0.0627232 0.9879564 -0.0627232 0.9879564 -0.0627232 0.0120436 0.0627232
1990000000 0.0120488 0.0636123 0.9879512 -0.0636123 0.9879512 -0.0636123 0.0120488 0.0636123
2011000000 0.0120706 0.0645048 0.9879294 -0.0645048 0.9879294 -0.0645048 0.0120706 0.0645048
2032000000 0.0121081 0.0653999 0.9878919 -0.0653999 0.9878919 -0.0653999 0.0121081 0.0653999
2053000000 0.0121603 0.0662967 0.9878397 -0.0662967 0.9878397 -0.0662967 0.0121603 0.0662967
2074000000 0.0122264 0.0671945 0.9877736 -0.0671945 0.9877736 -0.0671945 0.0122264 0.0671945
2095000000 0.0123053 0.0680928 0.9876947 -0.0680928 0.9876947 -0.0680928 0.0123053 0.0680928
2116000000 0.0123964 0.0689912 0.9876036 -0.0689912 0.9876036 -0.0689912 0.0123964 0.0689912
2137000000 0.0124990 0.0698893 0.9875010 -0.0698893 0.9875010 -0.0698893 0.0124990 0.0698893
2158000000 0.0126125 0.0707870 0.9873875 -0.0707870 0.9873875 -0.0707870 0.0126125 0.0707870
2179000000 0.0127363 0.0716841 0.9872637 -0.0716841 0.9872637 -0.0716841 0.0127363 0.0716841
2200000000 0.0128699 0.0725803 0.9871301 -0.0725803 0.9871301 -0.0725803 0.0128699 0.0725803
2221000000 0.0130129 0.0734755 0.9869871 -0.0734755 0.9869871 -0.0734755 0.0130129 0.0734755
2242000000 0.0131649 0.0743697 0.9868351 -0.0743697 0.9868351 -0.0743697 0.0131649 0.0743697
2263000000 0.0133256 0.0752628 0.9866744 -0.0752628 0.9866744 -0.0752628 0.0133256 0.0752628
2284000000 0.0134947 0.0761547 0.9865053 -0.0761547 0.9865053 -0.0761547 0.0134947 0.0761547
2305000000 0.0136719 0.0770453 0.9863281 -0.0770453 0.9863281 -0.0770453 0.0136719 0.0770453
2326000000 0.0138571 0.0779346 0.9861429 -0.0779346 0.9861429 -0.0779346 0.0138571 0.0779346
2347000000 0.0140501 0.0788224 0.9859499 -0.0788224 0.9859499 -0.0788224 0.0140501 0.0788224
2368000000 0.0142507 0.0797088 0.9857493 -0.0797088 0.9857493 -0.0797088 0.0142507 0.0797088
2389000000 0.0144588 0.0805935 0.9855412 -0.0805935 0.9855412 -0.0805935 0.0144588 0.0805935
2410000000 0.0146744 0.0814765 0.9853256 -0.0814765 0.9853256 -0.0814765 0.0146744 0.0814765
2431000000 0.0148973 0.0823577 0.9851027 -0.0823577 0.9851027 -0.0823577 0.0148973 0.0823577
2452000000 0.0151276 0.0832367 0.9848724 -0.0832367 0.9848724 -0.0832367 0.0151276 0.0832367
2473000000 0.0153651 0.0841134 0.9846349 -0.0841134 0.9846349 -0.0841134 0.0153651 0.0841134
2494000000 0.0156099 0.0849875 0.9843901 -0.0849875 0.9843901 -0.0849875 0.0156099 0.0849875
2515000000 0.0158618 0.0858588 0.9841382 -0.0858588 0.9841382 -0.0858588 0.0158618 0.0858588
2536000000 0.0161208 0.0867268 0.9838792 -0.0867268 0.9838792 -0.0867268 0.0161208 0.0867268
2557000000 0.0163867 0.0875911 0.9836133 -0.0875911 0.9836133 -0.0875911 0.0163867 0.0875911
2578000000 0.0166595 0.0884513 0.9833405 -0.0884513 0.9833405 -0.0884513 0.0166595 0.0884513
2599000000 0.0169389 0.0893069 0.9830611 -0.0893069 0.9830611 -0.0893069 0.0169389 0.0893069
2620000000 0.0172246 0.0901574 0.9827754 -0.0901574 0.9827754 -0.0901574 0.0172246 0.0901574
2641000000 0.0175163 0.0910020 0.9824837 -0.0910020 0.9824837 -0.0910020 0.0175163 0.0910020
2662000000 0.0178134 0.0918402 0.9821866 -0.0918402 0.9821866 -0.0918402 0.0178134 0.0918402
2683000000 0.0181153 0.0926715 0.9818847 -0.0926715 0.9818847 -0.0926715 0.0181153 0.0926715
2704000000 0.0184212 0.0934951 0.9815788 -0.0934951 0.9815788 -0.0934951 0.0184212 0.0934951
2725000000 0.0187301 0.0943105 0.9812699 -0.0943105 0.9812699 -0.0943105 0.0187301 0.0943105
2746000000 0.0190410 0.0951173 0.9809590 -0.0951173 0.9809590 -0.0951173 0.0190410 0.0951173
2767000000 0.0193525 0.0959152 0.9806475 -0.0959152 0.9806475 -0.0959152 0.0193525 0.0959152
2788000000 0.0196631 0.0967041 0.9803369 -0.0967041 0.9803369 -0.0967041 0.0196631 0.0967041
2809000000 0.0199714 0.0974842 0.9800286 -0.0974842 0.9800286 -0.0974842 0.0199714 0.0974842
2830000000 0.0202756 0.0982559 0.9797244 -0.0982559 0.9797244 -0.0982559 0.0202756 0.0982559
2851000000 0.0205741 0.0990200 0.9794259 -0.0990200 0.9794259 -0.0990200 0.0205741 0.0990200
2872000000 0.0208655 0.0997776 0.9791345 -0.0997776 0.9791345 -0.0997776 0.0208655 0.0997776
2893000000 0.0211484 0.1005303 0.9788516 -0.1005303 0.9788516 -0.1005303 0.0211484 0.1005303
2914000000 0.0214217 0.1012798 0.9785783 -0.1012798 0.9785783 -0.1012798 0.0214217 0.1012798
2935000000 0.0216846 0.1020281 0.9783154 -0.1020281 0.9783154 -0.1020281 0.0216846 0.1020281
2956000000 0.0219369 0.1027774 0.9780631 -0.1027774 0.9780631 -0.1027774 0.0219369 0.1027774
2977000000 0.0221788 0.1035298 0.9778212 -0.1035298 0.9778212 -0.1035298 0.0221788 0.1035298
2998000000 0.0224108 0.1042874 0.9775892 -0.1042874 0.9775892 -0.1042874 0.0224108 0.1042874
3019000000 0.0226338 0.1050522 0.9773662 -0.1050522 0.9773662 -0.1050522 0.0226338 0.1050522
3040000000 0.0228492 0.1058257 0.9771508 -0.1058257 0.9771508 -0.1058257 0.0228492 0.1058257
3061000000 0.0230585 0.1066091 0.9769415 -0.1066091 0.9769415 -0.1066091 0.0230585 0.1066091
3082000000 0.0232634 0.1074034 0.9767366 -0.1074034 0.9767366 -0.1074034 0.0232634 0.1074034
3103000000 0.0234655 0.1082092 0.9765345 -0.1082092 0.9765345 -0.1082092 0.0234655 0.1082092
3124000000 0.0236664 0.1090266 0.9763336 -0.1090266 0.9763336 -0.1090266 0.0236664 0.1090266
3145000000 0.0238678 0.1098556 0.9761322 -0.1098556 0.9761322 -0.1098556 0.0238678 0.1098556
3166000000 0.0240710 0.1106959 0.9759290 -0.1106959 0.9759290 -0.1106959 0.0240710 0.1106959
3187000000 0.0242771 0.1115468 0.9757229 -0.1115468 0.9757229 -0.1115468 0.0242771 0.1115468
3208000000 0.0244873 0.1124080 0.9755127 -0.1124080 0.9755127 -0.1124080 0.0244873 0.1124080
3229000000 0.0247024 0.1132785 0.9752976 -0.1132785 0.9752976 -0.1132785 0.0247024 0.1132785
3250000000 0.0249228 0.1141578 0.9750772 -0.1141578 0.9750772 -0.1141578 0.0249228 0.1141578
3271000000 0.0251493 0.1150451 0.9748507 -0.1150451 0.9748507 -0.1150451 0.0251493 0.1150451
3292000000 0.0253820 0.1159396 0.9746180 -0.1159396 0.9746180 -0.1159396 0.0253820 0.1159396
3313000000 0.0256212 0.1168408 0.9743788 -0.1168408 0.9743788 -0.1168408 0.0256212 0.1168408
3334000000 0.0258670 0.1177480 0.9741330 -0.1177480 0.9741330 -0.1177480 0.0258670 0.1177480
3355000000 0.0261195 0.1186607 0.9738805 -0.1186607 0.9738805 -0.1186607 0.0261195 0.1186607
3376000000 0.0263787 0.1195783 0.9736213 -0.1195783 0.9736213 -0.1195783 0.0263787 0.1195783
3397000000 0.0266444 0.1205005 0.9733556 -0.1205005 0.9733556 -0.1205005 0.0266444 0.1205005
3418000000 0.0269166 0.1214268 0.9730834 -0.1214268 0.9730834 -0.1214268 0.0269166 0.1214268
3439000000 0.0271952 0.1223571 0.9728048 -0.1223571 0.9728048 -0.1223571 0.0271952 0.1223571
3460000000 0.0274800 0.1232908 0.9725200 -0.1232908 0.9725200 -0.1232908 0.0274800 0.1232908
3481000000 0.0277709 0.1242280 0.9722291 -0.1242280 0.9722291 -0.1242280 0.0277709 0.1242280
3502000000 0.0280678 0.1251683 0.9719322 -0.1251683 0.9719322 -0.1251683 0.0280678 0.1251683
3523000000 0.0283705 0.1261116 0.9716295 -0.1261116 0.9716295 -0.1261116 0.0283705 0.1261116
3544000000 0.0286789 0.1270577 0.9713211 -0.1270577 0.9713211 -0.1270577 0.0286789 0.1270577
3565000000 0.0289928 0.1280067 0.9710072 -0.1280067 0.9710072 -0.1280067 0.0289928 0.1280067
3586000000 0.0293121 0.1289583 0.9706879 -0.1289583 0.9706879 -0.1289583 0.0293121 0.1289583
3607000000 0.0296368 0.1299126 0.9703632 -0.1299126 0.9703632 -0.1299126 0.0296368 0.1299126
3628000000 0.0299667 0.1308695 0.9700333 -0.1308695 0.9700333 -0.1308695 0.0299667 0.1308695
3649000000 0.0303016 0.1318291 0.9696984 -0.1318291 0.9696984 -0.1318291 0.0303016 0.1318291
3670000000 0.0306416 0.1327911 0.9693584 -0.1327911 0.9693584 -0.1327911 0.0306416 0.1327911
3691000000 0.0309865 0.1337558 0.9690135 -0.1337558 0.9690135 -0.1337558 0.0309865 0.1337558
3712000000 0.0313362 0.1347231 0.9686638 -0.1347231 0.9686638 -0.1347231 0.0313362 0.1347231
3733000000 0.0316908 0.1356929 0.9683092 -0.1356929 0.9683092 -0.1356929 0.0316908 0.1356929
3754000000 0.0320501 0.1366654 0.9679499 -0.1366654 0.9679499 -0.1366654 0.0320501 0.1366654
3775000000 0.0324140 0.1376406 0.9675860 -0.1376406 0.9675860 -0.1376406 0.0324140 0.1376406
3796000000 0.0327827 0.1386185 0.9672173 -0.1386185 0.9672173 -0.1386185 0.0327827 0.1386185
3817000000 0.0331559 0.1395991 0.9668441 -0.1395991 0.9668441 -0.1395991 0.0331559 0.1395991
3838000000 0.0335337 0.1405825 0.9664663 -0.1405825 0.9664663 -0.1405825 0.0335337 0.1405825
3859000000 0.0339161 0.1415688 0.9660839 -0.1415688 0.9660839 -0.1415688 0.0339161 0.1415688
3880000000 0.0343030 0.1425579 0.9656970 -0.1425579 0.9656970 -0.1425579 0.0343030 0.1425579
3901000000 0.0346945 0.1435500 0.9653055 -0.1435500 0.9653055 -0.1435500 0.0346945 0.1435500
3922000000 0.0350905 0.1445451 0.9649095 -0.1445451 0.9649095 -0.1445451 0.0350905 0.1445451
3943000000 0.0354910 0.1455432 0.9645090 -0.1455432 0.9645090 -0.1455432 0.0354910 0.1455432
3964000000 0.0358961 0.1465444 0.9641039 -0.1465444 0.9641039 -0.1465444 0.0358961 0.1465444
3985000000 0.0363057 0.1475488 0.9636943 -0.1475488 0.9636943 -0.1475488 0.0363057 0.1475488
4006000000 0.0367198 0.1485564 0.9632802 -0.1485564 0.9632802 -0.1485564 0.0367198 0.1485564
4027000000 0.0371386 0.1495672 0.9628614 -0.1495672 0.9628614 -0.1495672 0.0371386 0.1495672
4048000000 0.0375619 0.1505814 0.9624381 -0.1505814 0.9624381 -0.1505814 0.0375619 0.1505814
4069000000 0.0379898 0.1515990 0.9620102 -0.1515990 0.9620102 -0.1515990 0.0379898 0.1515990
4090000000 0.0384224 0.1526201 0.9615776 -0.1526201 0.9615776 -0.1526201 0.0384224 0.1526201
4111000000 0.0388596 0.1536447 0.9611404 -0.1536447 0.9611404 -0.1536447 0.0388596 0.1536447
4132000000 0.0393015 0.1546728 0.9606985 -0.1546728 0.9606985 -0.1546728 0.0393015 0.1546728
4153000000 0.0397481 0.1557047 0.9602519 -0.1557047 0.9602519 -0.1557047 0.0397481 0.1557047
4174000000 0.0401996 0.1567402 0.9598004 -0.1567402 0.9598004 -0.1567402 0.0401996 0.1567402
4195000000 0.0406558 0.1577794 0.9593442 -0.1577794 0.9593442 -0.1577794 0.0406558 0.1577794
4216000000 0.0411169 0.1588226 0.9588831 -0.1588226 0.9588831 -0.1588226 0.0411169 0.1588226
4237000000 0.0415829 0.1598696 0.9584171 -0.1598696 0.9584171 -0.1598696 0.0415829 0.1598696
4258000000 0.0420538 0.1609205 0.9579462 -0.1609205 0.9579462 -0.1609205 0.0420538 0.1609205
4279000000 0.0425297 0.1619755 0.9574703 -0.1619755 0.9574703 -0.1619755 0.0425297 0.1619755
4300000000 0.0430107 0.1630345 0.9569893 -0.1630345 0.9569893 -0.1630345 0.0430107 0.1630345
4321000000 0.0434968 0.1640977 0.9565032 -0.1640977 0.9565032 -0.1640977 0.0434968 0.1640977
4342000000 0.0439881 0.1651651 0.9560119 -0.1651651 0.9560119 -0.1651651 0.0439881 0.1651651
4363000000 0.0444845 0.1662368 0.9555155 -0.1662368 0.9555155 -0.1662368 0.0444845 0.1662368
4384000000 0.0449863 0.1673128 0.9550137 -0.1673128 0.9550137 -0.1673128 0.0449863 0.1673128
4405000000 0.0454934 0.1683933 0.9545066 -0.1683933 0.9545066 -0.1683933 0.0454934 0.1683933
4426000000 0.0460059 0.1694781 0.9539941 -0.1694781 0.9539941 -0.1694781 0.0460059 0.1694781
4447000000 0.0465240 0.1705675 0.9534760 -0.1705675 0.9534760 -0.1705675 0.0465240 0.1705675
4468000000 0.0470475 0.1716615 0.9529525 -0.1716615 0.9529525 -0.1716615 0.0470475 0.1716615
4489000000 0.0475767 0.1727602 0.9524233 -0.1727602 0.9524233 -0.1727602 0.0475767 0.1727602
4510000000 0.0481116 0.1738635 0.9518884 -0.1738635 0.9518884 -0.1738635 0.0481116 0.1738635
