!Murata Part Number: GRM1885C2A8R1WA01
!These Parameters are Measured in Series Mode Connection
!Data Generated on Mar 30, 2021
!       o--ll--o
!Port1            Port2
!       o------o
!Operation Temp=25[degC], DC Bias Voltage=0[V]
!Freq. Start=100[MHz] Stop=9[GHz] 401[Steps]
# Hz S RI R 50
!Freq.(Hz) S11(Real) S11(Imag) S21(Real) S21(Imag) S12(Real) S12(Imag) S22(Real) S22(Imag)
100000000 0.7935747 -0.4044448 0.2064253 0.4044448 0.2064253 0.4044448 0.7935747 -0.4044448
121000000 0.7239060 -0.4466969 0.2760940 0.4466969 0.2760940 0.4466969 0.7239060 -0.4466969
142000000 0.6552375 -0.4748458 0.3447625 0.4748458 0.3447625 0.4748458 0.6552375 -0.4748458
163000000 0.5900910 -0.4912877 0.4099090 0.4912877 0.4099090 0.4912877 0.5900910 -0.4912877
184000000 0.5299079 -0.4984854 0.4700921 0.4984854 0.4700921 0.4984854 0.5299079 -0.4984854
205000000 0.4753193 -0.4986742 0.5246807 0.4986742 0.5246807 0.4986742 0.4753193 -0.4986742
226000000 0.4264114 -0.4937350 0.5735886 0.4937350 0.5735886 0.4937350 0.4264114 -0.4937350
247000000 0.3829400 -0.4851732 0.6170600 0.4851732 0.6170600 0.4851732 0.3829400 -0.4851732
268000000 0.3444850 -0.4741523 0.6555150 0.4741523 0.6555150 0.4741523 0.3444850 -0.4741523
289000000 0.3105516 -0.4615480 0.6894484 0.4615480 0.6894484 0.4615480 0.3105516 -0.4615480
310000000 0.2806325 -0.4480070 0.7193675 0.4480070 0.7193675 0.4480070 0.2806325 -0.4480070
331000000 0.2542431 -0.4339978 0.7457569 0.4339978 0.7457569 0.4339978 0.2542431 -0.4339978
352000000 0.2309388 -0.4198546 0.7690612 0.4198546 0.7690612 0.4198546 0.2309388 -0.4198546
373000000 0.2103218 -0.4058115 0.7896782 0.4058115 0.7896782 0.4058115 0.2103218 -0.4058115
394000000 0.1920422 -0.3920283 0.8079578 0.3920283 0.8079578 0.3920283 0.1920422 -0.3920283
415000000 0.1757952 -0.3786112 0.8242048 0.3786112 0.8242048 0.3786112 0.1757952 -0.3786112
436000000 0.1613169 -0.3656269 0.8386831 0.3656269 0.8386831 0.3656269 0.1613169 -0.3656269
457000000 0.1483800 -0.3531143 0.8516200 0.3531143 0.8516200 0.3531143 0.1483800 -0.3531143
478000000 0.1367887 -0.3410922 0.8632113 0.3410922 0.8632113 0.3410922 0.1367887 -0.3410922
499000000 0.1263746 -0.3295653 0.8736254 0.3295653 0.8736254 0.3295653 0.1263746 -0.3295653
520000000 0.1169931 -0.3185287 0.8830069 0.3185287 0.8830069 0.3185287 0.1169931 -0.3185287
541000000 0.1085194 -0.3079707 0.8914806 0.3079707 0.8914806 0.3079707 0.1085194 -0.3079707
562000000 0.1008460 -0.2978754 0.8991540 0.2978754 0.8991540 0.2978754 0.1008460 -0.2978754
583000000 0.0938800 -0.2882243 0.9061200 0.2882243 0.9061200 0.2882243 0.0938800 -0.2882243
604000000 0.0875409 -0.2789971 0.9124591 0.2789971 0.9124591 0.2789971 0.0875409 -0.2789971
625000000 0.0817588 -0.2701733 0.9182412 0.2701733 0.9182412 0.2701733 0.0817588 -0.2701733
646000000 0.0764730 -0.2617318 0.9235270 0.2617318 0.9235270 0.2617318 0.0764730 -0.2617318
667000000 0.0716304 -0.2536522 0.9283696 0.2536522 0.9283696 0.2536522 0.0716304 -0.2536522
688000000 0.0671848 -0.2459146 0.9328152 0.2459146 0.9328152 0.2459146 0.0671848 -0.2459146
709000000 0.0630955 -0.2384998 0.9369045 0.2384998 0.9369045 0.2384998 0.0630955 -0.2384998
730000000 0.0593269 -0.2313895 0.9406731 0.2313895 0.9406731 0.2313895 0.0593269 -0.2313895
751000000 0.0558473 -0.2245663 0.9441527 0.2245663 0.9441527 0.2245663 0.0558473 -0.2245663
772000000 0.0526291 -0.2180138 0.9473709 0.2180138 0.9473709 0.2180138 0.0526291 -0.2180138
793000000 0.0496477 -0.2117165 0.9503523 0.2117165 0.9503523 0.2117165 0.0496477 -0.2117165
814000000 0.0468812 -0.2056599 0.9531188 0.2056599 0.9531188 0.2056599 0.0468812 -0.2056599
835000000 0.0443103 -0.1998304 0.9556897 0.1998304 0.9556897 0.1998304 0.0443103 -0.1998304
856000000 0.0419176 -0.1942151 0.9580824 0.1942151 0.9580824 0.1942151 0.0419176 -0.1942151
877000000 0.0396876 -0.1888021 0.9603124 0.1888021 0.9603124 0.1888021 0.0396876 -0.1888021
898000000 0.0376065 -0.1835801 0.9623935 0.1835801 0.9623935 0.1835801 0.0376065 -0.1835801
919000000 0.0356620 -0.1785386 0.9643380 0.1785386 0.9643380 0.1785386 0.0356620 -0.1785386
940000000 0.0338428 -0.1736678 0.9661572 0.1736678 0.9661572 0.1736678 0.0338428 -0.1736678
961000000 0.0321388 -0.1689586 0.9678612 0.1689586 0.9678612 0.1689586 0.0321388 -0.1689586
982000000 0.0305411 -0.1644022 0.9694589 0.1644022 0.9694589 0.1644022 0.0305411 -0.1644022
1003000000 0.0290414 -0.1599907 0.9709586 0.1599907 0.9709586 0.1599907 0.0290414 -0.1599907
1024000000 0.0276322 -0.1557166 0.9723678 0.1557166 0.9723678 0.1557166 0.0276322 -0.1557166
1045000000 0.0263069 -0.1515727 0.9736931 0.1515727 0.9736931 0.1515727 0.0263069 -0.1515727
1066000000 0.0250593 -0.1475524 0.9749407 0.1475524 0.9749407 0.1475524 0.0250593 -0.1475524
1087000000 0.0238838 -0.1436496 0.9761162 0.1436496 0.9761162 0.1436496 0.0238838 -0.1436496
1108000000 0.0227753 -0.1398583 0.9772247 0.1398583 0.9772247 0.1398583 0.0227753 -0.1398583
1129000000 0.0217293 -0.1361732 0.9782707 0.1361732 0.9782707 0.1361732 0.0217293 -0.1361732
1150000000 0.0207414 -0.1325891 0.9792586 0.1325891 0.9792586 0.1325891 0.0207414 -0.1325891
1171000000 0.0198077 -0.1291011 0.9801923 0.1291011 0.9801923 0.1291011 0.0198077 -0.1291011
1192000000 0.0189248 -0.1257048 0.9810752 0.1257048 0.9810752 0.1257048 0.0189248 -0.1257048
1213000000 0.0180893 -0.1223958 0.9819107 0.1223958 0.9819107 0.1223958 0.0180893 -0.1223958
1234000000 0.0172982 -0.1191701 0.9827018 0.1191701 0.9827018 0.1191701 0.0172982 -0.1191701
1255000000 0.0165487 -0.1160240 0.9834513 0.1160240 0.9834513 0.1160240 0.0165487 -0.1160240
1276000000 0.0158383 -0.1129537 0.9841617 0.1129537 0.9841617 0.1129537 0.0158383 -0.1129537
1297000000 0.0151647 -0.1099561 0.9848353 0.1099561 0.9848353 0.1099561 0.0151647 -0.1099561
1318000000 0.0145255 -0.1070278 0.9854745 0.1070278 0.9854745 0.1070278 0.0145255 -0.1070278
1339000000 0.0139190 -0.1041659 0.9860810 0.1041659 0.9860810 0.1041659 0.0139190 -0.1041659
1360000000 0.0133430 -0.1013675 0.9866570 0.1013675 0.9866570 0.1013675 0.0133430 -0.1013675
1381000000 0.0127960 -0.0986299 0.9872040 0.0986299 0.9872040 0.0986299 0.0127960 -0.0986299
1402000000 0.0122763 -0.0959505 0.9877237 0.0959505 0.9877237 0.0959505 0.0122763 -0.0959505
1423000000 0.0117825 -0.0933271 0.9882175 0.0933271 0.9882175 0.0933271 0.0117825 -0.0933271
1444000000 0.0113130 -0.0907571 0.9886870 0.0907571 0.9886870 0.0907571 0.0113130 -0.0907571
1465000000 0.0108668 -0.0882385 0.9891332 0.0882385 0.9891332 0.0882385 0.0108668 -0.0882385
1486000000 0.0104424 -0.0857693 0.9895576 0.0857693 0.9895576 0.0857693 0.0104424 -0.0857693
1507000000 0.0100389 -0.0833474 0.9899611 0.0833474 0.9899611 0.0833474 0.0100389 -0.0833474
1528000000 0.0096551 -0.0809709 0.9903449 0.0809709 0.9903449 0.0809709 0.0096551 -0.0809709
1549000000 0.0092901 -0.0786382 0.9907099 0.0786382 0.9907099 0.0786382 0.0092901 -0.0786382
1570000000 0.0089430 -0.0763476 0.9910570 0.0763476 0.9910570 0.0763476 0.0089430 -0.0763476
1591000000 0.0086129 -0.0740973 0.9913871 0.0740973 0.9913871 0.0740973 0.0086129 -0.0740973
1612000000 0.0082991 -0.0718860 0.9917009 0.0718860 0.9917009 0.0718860 0.0082991 -0.0718860
1633000000 0.0080006 -0.0697121 0.9919994 0.0697121 0.9919994 0.0697121 0.0080006 -0.0697121
1654000000 0.0077170 -0.0675742 0.9922830 0.0675742 0.9922830 0.0675742 0.0077170 -0.0675742
1675000000 0.0074474 -0.0654711 0.9925526 0.0654711 0.9925526 0.0654711 0.0074474 -0.0654711
1696000000 0.0071913 -0.0634014 0.9928087 0.0634014 0.9928087 0.0634014 0.0071913 -0.0634014
1717000000 0.0069481 -0.0613640 0.9930519 0.0613640 0.9930519 0.0613640 0.0069481 -0.0613640
1738000000 0.0067172 -0.0593577 0.9932828 0.0593577 0.9932828 0.0593577 0.0067172 -0.0593577
1759000000 0.0064981 -0.0573814 0.9935019 0.0573814 0.9935019 0.0573814 0.0064981 -0.0573814
1780000000 0.0062904 -0.0554341 0.9937096 0.0554341 0.9937096 0.0554341 0.0062904 -0.0554341
1801000000 0.0060935 -0.0535147 0.9939065 0.0535147 0.9939065 0.0535147 0.0060935 -0.0535147
1822000000 0.0059071 -0.0516222 0.9940929 0.0516222 0.9940929 0.0516222 0.0059071 -0.0516222
1843000000 0.0057307 -0.0497558 0.9942693 0.0497558 0.9942693 0.0497558 0.0057307 -0.0497558
1864000000 0.0055640 -0.0479145 0.9944360 0.0479145 0.9944360 0.0479145 0.0055640 -0.0479145
1885000000 0.0054066 -0.0460976 0.9945934 0.0460976 0.9945934 0.0460976 0.0054066 -0.0460976
1906000000 0.0052581 -0.0443041 0.9947419 0.0443041 0.9947419 0.0443041 0.0052581 -0.0443041
1927000000 0.0051182 -0.0425333 0.9948818 0.0425333 0.9948818 0.0425333 0.0051182 -0.0425333
1948000000 0.0049866 -0.0407844 0.9950134 0.0407844 0.9950134 0.0407844 0.0049866 -0.0407844
1969000000 0.0048631 -0.0390568 0.9951369 0.0390568 0.9951369 0.0390568 0.0048631 -0.0390568
1990000000 0.0047473 -0.0373497 0.9952527 0.0373497 0.9952527 0.0373497 0.0047473 -0.0373497
2011000000 0.0046390 -0.0356624 0.9953610 0.0356624 0.9953610 0.0356624 0.0046390 -0.0356624
2032000000 0.0045380 -0.0339944 0.9954620 0.0339944 0.9954620 0.0339944 0.0045380 -0.0339944
2053000000 0.0044439 -0.0323449 0.9955561 0.0323449 0.9955561 0.0323449 0.0044439 -0.0323449
2074000000 0.0043567 -0.0307134 0.9956433 0.0307134 0.9956433 0.0307134 0.0043567 -0.0307134
2095000000 0.0042760 -0.0290994 0.9957240 0.0290994 0.9957240 0.0290994 0.0042760 -0.0290994
2116000000 0.0042018 -0.0275022 0.9957982 0.0275022 0.9957982 0.0275022 0.0042018 -0.0275022
2137000000 0.0041337 -0.0259213 0.9958663 0.0259213 0.9958663 0.0259213 0.0041337 -0.0259213
2158000000 0.0040716 -0.0243563 0.9959284 0.0243563 0.9959284 0.0243563 0.0040716 -0.0243563
2179000000 0.0040154 -0.0228066 0.9959846 0.0228066 0.9959846 0.0228066 0.0040154 -0.0228066
2200000000 0.0039649 -0.0212717 0.9960351 0.0212717 0.9960351 0.0212717 0.0039649 -0.0212717
2221000000 0.0039200 -0.0197511 0.9960800 0.0197511 0.9960800 0.0197511 0.0039200 -0.0197511
2242000000 0.0038804 -0.0182445 0.9961196 0.0182445 0.9961196 0.0182445 0.0038804 -0.0182445
2263000000 0.0038461 -0.0167514 0.9961539 0.0167514 0.9961539 0.0167514 0.0038461 -0.0167514
2284000000 0.0038170 -0.0152714 0.9961830 0.0152714 0.9961830 0.0152714 0.0038170 -0.0152714
2305000000 0.0037928 -0.0138040 0.9962072 0.0138040 0.9962072 0.0138040 0.0037928 -0.0138040
2326000000 0.0037735 -0.0123488 0.9962265 0.0123488 0.9962265 0.0123488 0.0037735 -0.0123488
2347000000 0.0037591 -0.0109056 0.9962409 0.0109056 0.9962409 0.0109056 0.0037591 -0.0109056
2368000000 0.0037493 -0.0094739 0.9962507 0.0094739 0.9962507 0.0094739 0.0037493 -0.0094739
2389000000 0.0037441 -0.0080533 0.9962559 0.0080533 0.9962559 0.0080533 0.0037441 -0.0080533
2410000000 0.0037433 -0.0066435 0.9962567 0.0066435 0.9962567 0.0066435 0.0037433 -0.0066435
2431000000 0.0037470 -0.0052442 0.9962530 0.0052442 0.9962530 0.0052442 0.0037470 -0.0052442
2452000000 0.0037550 -0.0038551 0.9962450 0.0038551 0.9962450 0.0038551 0.0037550 -0.0038551
2473000000 0.0037672 -0.0024758 0.9962328 0.0024758 0.9962328 0.0024758 0.0037672 -0.0024758
2494000000 0.0037836 -0.0011060 0.9962164 0.0011060 0.9962164 0.0011060 0.0037836 -0.0011060
2515000000 0.0038041 0.0002546 0.9961959 -0.0002546 0.9961959 -0.0002546 0.0038041 0.0002546
2536000000 0.0038286 0.0016062 0.9961714 -0.0016062 0.9961714 -0.0016062 0.0038286 0.0016062
2557000000 0.0038571 0.0029492 0.9961429 -0.0029492 0.9961429 -0.0029492 0.0038571 0.0029492
2578000000 0.0038895 0.0042839 0.9961105 -0.0042839 0.9961105 -0.0042839 0.0038895 0.0042839
2599000000 0.0039257 0.0056104 0.9960743 -0.0056104 0.9960743 -0.0056104 0.0039257 0.0056104
2620000000 0.0039657 0.0069291 0.9960343 -0.0069291 0.9960343 -0.0069291 0.0039657 0.0069291
2641000000 0.0040095 0.0082403 0.9959905 -0.0082403 0.9959905 -0.0082403 0.0040095 0.0082403
2662000000 0.0040570 0.0095441 0.9959430 -0.0095441 0.9959430 -0.0095441 0.0040570 0.0095441
2683000000 0.0041082 0.0108409 0.9958918 -0.0108409 0.9958918 -0.0108409 0.0041082 0.0108409
2704000000 0.0041629 0.0121308 0.9958371 -0.0121308 0.9958371 -0.0121308 0.0041629 0.0121308
2725000000 0.0042213 0.0134141 0.9957787 -0.0134141 0.9957787 -0.0134141 0.0042213 0.0134141
2746000000 0.0042832 0.0146910 0.9957168 -0.0146910 0.9957168 -0.0146910 0.0042832 0.0146910
2767000000 0.0043487 0.0159618 0.9956513 -0.0159618 0.9956513 -0.0159618 0.0043487 0.0159618
2788000000 0.0044176 0.0172266 0.9955824 -0.0172266 0.9955824 -0.0172266 0.0044176 0.0172266
2809000000 0.0044901 0.0184858 0.9955099 -0.0184858 0.9955099 -0.0184858 0.0044901 0.0184858
2830000000 0.0045659 0.0197394 0.9954341 -0.0197394 0.9954341 -0.0197394 0.0045659 0.0197394
2851000000 0.0046453 0.0209877 0.9953547 -0.0209877 0.9953547 -0.0209877 0.0046453 0.0209877
2872000000 0.0047280 0.0222310 0.9952720 -0.0222310 0.9952720 -0.0222310 0.0047280 0.0222310
2893000000 0.0048141 0.0234693 0.9951859 -0.0234693 0.9951859 -0.0234693 0.0048141 0.0234693
2914000000 0.0049036 0.0247029 0.9950964 -0.0247029 0.9950964 -0.0247029 0.0049036 0.0247029
2935000000 0.0049966 0.0259321 0.9950034 -0.0259321 0.9950034 -0.0259321 0.0049966 0.0259321
2956000000 0.0050928 0.0271569 0.9949072 -0.0271569 0.9949072 -0.0271569 0.0050928 0.0271569
2977000000 0.0051925 0.0283776 0.9948075 -0.0283776 0.9948075 -0.0283776 0.0051925 0.0283776
2998000000 0.0052955 0.0295944 0.9947045 -0.0295944 0.9947045 -0.0295944 0.0052955 0.0295944
3019000000 0.0054019 0.0308074 0.9945981 -0.0308074 0.9945981 -0.0308074 0.0054019 0.0308074
3040000000 0.0055117 0.0320168 0.9944883 -0.0320168 0.9944883 -0.0320168 0.0055117 0.0320168
3061000000 0.0056248 0.0332228 0.9943752 -0.0332228 0.9943752 -0.0332228 0.0056248 0.0332228
3082000000 0.0057414 0.0344256 0.9942586 -0.0344256 0.9942586 -0.0344256 0.0057414 0.0344256
3103000000 0.0058613 0.0356254 0.9941387 -0.0356254 0.9941387 -0.0356254 0.0058613 0.0356254
3124000000 0.0059846 0.0368223 0.9940154 -0.0368223 0.9940154 -0.0368223 0.0059846 0.0368223
3145000000 0.0061114 0.0380165 0.9938886 -0.0380165 0.9938886 -0.0380165 0.0061114 0.0380165
3166000000 0.0062416 0.0392082 0.9937584 -0.0392082 0.9937584 -0.0392082 0.0062416 0.0392082
3187000000 0.0063752 0.0403975 0.9936248 -0.0403975 0.9936248 -0.0403975 0.0063752 0.0403975
3208000000 0.0065124 0.0415847 0.9934876 -0.0415847 0.9934876 -0.0415847 0.0065124 0.0415847
3229000000 0.0066530 0.0427698 0.9933470 -0.0427698 0.9933470 -0.0427698 0.0066530 0.0427698
3250000000 0.0067972 0.0439531 0.9932028 -0.0439531 0.9932028 -0.0439531 0.0067972 0.0439531
3271000000 0.0069450 0.0451347 0.9930550 -0.0451347 0.9930550 -0.0451347 0.0069450 0.0451347
3292000000 0.0070964 0.0463148 0.9929036 -0.0463148 0.9929036 -0.0463148 0.0070964 0.0463148
3313000000 0.0072514 0.0474936 0.9927486 -0.0474936 0.9927486 -0.0474936 0.0072514 0.0474936
3334000000 0.0074101 0.0486712 0.9925899 -0.0486712 0.9925899 -0.0486712 0.0074101 0.0486712
3355000000 0.0075725 0.0498478 0.9924275 -0.0498478 0.9924275 -0.0498478 0.0075725 0.0498478
3376000000 0.0077387 0.0510235 0.9922613 -0.0510235 0.9922613 -0.0510235 0.0077387 0.0510235
3397000000 0.0079087 0.0521986 0.9920913 -0.0521986 0.9920913 -0.0521986 0.0079087 0.0521986
3418000000 0.0080826 0.0533733 0.9919174 -0.0533733 0.9919174 -0.0533733 0.0080826 0.0533733
3439000000 0.0082604 0.0545476 0.9917396 -0.0545476 0.9917396 -0.0545476 0.0082604 0.0545476
3460000000 0.0084423 0.0557218 0.9915577 -0.0557218 0.9915577 -0.0557218 0.0084423 0.0557218
3481000000 0.0086282 0.0568961 0.9913718 -0.0568961 0.9913718 -0.0568961 0.0086282 0.0568961
3502000000 0.0088182 0.0580705 0.9911818 -0.0580705 0.9911818 -0.0580705 0.0088182 0.0580705
3523000000 0.0090124 0.0592454 0.9909876 -0.0592454 0.9909876 -0.0592454 0.0090124 0.0592454
3544000000 0.0092109 0.0604209 0.9907891 -0.0604209 0.9907891 -0.0604209 0.0092109 0.0604209
3565000000 0.0094138 0.0615971 0.9905862 -0.0615971 0.9905862 -0.0615971 0.0094138 0.0615971
3586000000 0.0096212 0.0627744 0.9903788 -0.0627744 0.9903788 -0.0627744 0.0096212 0.0627744
3607000000 0.0098331 0.0639527 0.9901669 -0.0639527 0.9901669 -0.0639527 0.0098331 0.0639527
3628000000 0.0100497 0.0651325 0.9899503 -0.0651325 0.9899503 -0.0651325 0.0100497 0.0651325
3649000000 0.0102711 0.0663138 0.9897289 -0.0663138 0.9897289 -0.0663138 0.0102711 0.0663138
3670000000 0.0104973 0.0674969 0.9895027 -0.0674969 0.9895027 -0.0674969 0.0104973 0.0674969
3691000000 0.0107285 0.0686820 0.9892715 -0.0686820 0.9892715 -0.0686820 0.0107285 0.0686820
3712000000 0.0109649 0.0698693 0.9890351 -0.0698693 0.9890351 -0.0698693 0.0109649 0.0698693
3733000000 0.0112066 0.0710590 0.9887934 -0.0710590 0.9887934 -0.0710590 0.0112066 0.0710590
3754000000 0.0114536 0.0722513 0.9885464 -0.0722513 0.9885464 -0.0722513 0.0114536 0.0722513
3775000000 0.0117063 0.0734465 0.9882937 -0.0734465 0.9882937 -0.0734465 0.0117063 0.0734465
3796000000 0.0119647 0.0746449 0.9880353 -0.0746449 0.9880353 -0.0746449 0.0119647 0.0746449
3817000000 0.0122290 0.0758466 0.9877710 -0.0758466 0.9877710 -0.0758466 0.0122290 0.0758466
3838000000 0.0124995 0.0770520 0.9875005 -0.0770520 0.9875005 -0.0770520 0.0124995 0.0770520
3859000000 0.0127762 0.0782613 0.9872238 -0.0782613 0.9872238 -0.0782613 0.0127762 0.0782613
3880000000 0.0130595 0.0794747 0.9869405 -0.0794747 0.9869405 -0.0794747 0.0130595 0.0794747
3901000000 0.0133495 0.0806926 0.9866505 -0.0806926 0.9866505 -0.0806926 0.0133495 0.0806926
3922000000 0.0136465 0.0819153 0.9863535 -0.0819153 0.9863535 -0.0819153 0.0136465 0.0819153
3943000000 0.0139508 0.0831430 0.9860492 -0.0831430 0.9860492 -0.0831430 0.0139508 0.0831430
3964000000 0.0142627 0.0843761 0.9857373 -0.0843761 0.9857373 -0.0843761 0.0142627 0.0843761
3985000000 0.0145824 0.0856149 0.9854176 -0.0856149 0.9854176 -0.0856149 0.0145824 0.0856149
4006000000 0.0149102 0.0868598 0.9850898 -0.0868598 0.9850898 -0.0868598 0.0149102 0.0868598
4027000000 0.0152466 0.0881111 0.9847534 -0.0881111 0.9847534 -0.0881111 0.0152466 0.0881111
4048000000 0.0155919 0.0893693 0.9844081 -0.0893693 0.9844081 -0.0893693 0.0155919 0.0893693
4069000000 0.0159465 0.0906346 0.9840535 -0.0906346 0.9840535 -0.0906346 0.0159465 0.0906346
4090000000 0.0163107 0.0919075 0.9836893 -0.0919075 0.9836893 -0.0919075 0.0163107 0.0919075
4111000000 0.0166852 0.0931885 0.9833148 -0.0931885 0.9833148 -0.0931885 0.0166852 0.0931885
4132000000 0.0170704 0.0944779 0.9829296 -0.0944779 0.9829296 -0.0944779 0.0170704 0.0944779
4153000000 0.0174669 0.0957764 0.9825331 -0.0957764 0.9825331 -0.0957764 0.0174669 0.0957764
4174000000 0.0178751 0.0970843 0.9821249 -0.0970843 0.9821249 -0.0970843 0.0178751 0.0970843
4195000000 0.0182959 0.0984022 0.9817041 -0.0984022 0.9817041 -0.0984022 0.0182959 0.0984022
4216000000 0.0187298 0.0997307 0.9812702 -0.0997307 0.9812702 -0.0997307 0.0187298 0.0997307
4237000000 0.0191777 0.1010703 0.9808223 -0.1010703 0.9808223 -0.1010703 0.0191777 0.1010703
4258000000 0.0196404 0.1024217 0.9803596 -0.1024217 0.9803596 -0.1024217 0.0196404 0.1024217
4279000000 0.0201187 0.1037855 0.9798813 -0.1037855 0.9798813 -0.1037855 0.0201187 0.1037855
4300000000 0.0206137 0.1051624 0.9793863 -0.1051624 0.9793863 -0.1051624 0.0206137 0.1051624
4321000000 0.0211265 0.1065531 0.9788735 -0.1065531 0.9788735 -0.1065531 0.0211265 0.1065531
4342000000 0.0216582 0.1079584 0.9783418 -0.1079584 0.9783418 -0.1079584 0.0216582 0.1079584
4363000000 0.0222102 0.1093790 0.9777898 -0.1093790 0.9777898 -0.1093790 0.0222102 0.1093790
4384000000 0.0227839 0.1108158 0.9772161 -0.1108158 0.9772161 -0.1108158 0.0227839 0.1108158
4405000000 0.0233809 0.1122698 0.9766191 -0.1122698 0.9766191 -0.1122698 0.0233809 0.1122698
4426000000 0.0240030 0.1137417 0.9759970 -0.1137417 0.9759970 -0.1137417 0.0240030 0.1137417
4447000000 0.0246522 0.1152327 0.9753478 -0.1152327 0.9753478 -0.1152327 0.0246522 0.1152327
4468000000 0.0253306 0.1167438 0.9746694 -0.1167438 0.9746694 -0.1167438 0.0253306 0.1167438
4489000000 0.0260407 0.1182759 0.9739593 -0.1182759 0.9739593 -0.1182759 0.0260407 0.1182759
4510000000 0.0267852 0.1198303 0.9732148 -0.1198303 0.9732148 -0.1198303 0.0267852 0.1198303
