!Murata Part Number: GRM1882C1H822JA01
!These Parameters are Measured in Series Mode Connection
!Data Generated on Mar 30, 2021
!       o--ll--o
!Port1            Port2
!       o------o
!Operation Temp=25[degC], DC Bias Voltage=0[V]
!Freq. Start=1000[kHz] Stop=6[GHz] 401[Steps]
# Hz S RI R 50
!Freq.(Hz) S11(Real) S11(Imag) S21(Real) S21(Imag) S12(Real) S12(Imag) S22(Real) S22(Imag)
1000000 0.0358704 -0.1857935 0.9641296 0.1857935 0.9641296 0.1857935 0.0358704 -0.1857935
1021987 0.0343982 -0.1820722 0.9656018 0.1820722 0.9656018 0.1820722 0.0343982 -0.1820722
1044457 0.0329844 -0.1784142 0.9670156 0.1784142 0.9670156 0.1784142 0.0329844 -0.1784142
1067422 0.0316269 -0.1748190 0.9683731 0.1748190 0.9683731 0.1748190 0.0316269 -0.1748190
1090891 0.0303237 -0.1712864 0.9696763 0.1712864 0.9696763 0.1712864 0.0303237 -0.1712864
1114877 0.0290726 -0.1678156 0.9709274 0.1678156 0.9709274 0.1678156 0.0290726 -0.1678156
1139390 0.0278718 -0.1644064 0.9721282 0.1644064 0.9721282 0.1644064 0.0278718 -0.1644064
1164441 0.0267192 -0.1610581 0.9732808 0.1610581 0.9732808 0.1610581 0.0267192 -0.1610581
1190044 0.0256132 -0.1577702 0.9743868 0.1577702 0.9743868 0.1577702 0.0256132 -0.1577702
1216210 0.0245519 -0.1545420 0.9754481 0.1545420 0.9754481 0.1545420 0.0245519 -0.1545420
1242950 0.0235337 -0.1513729 0.9764663 0.1513729 0.9764663 0.1513729 0.0235337 -0.1513729
1270279 0.0225567 -0.1482623 0.9774433 0.1482623 0.9774433 0.1482623 0.0225567 -0.1482623
1298209 0.0216196 -0.1452095 0.9783804 0.1452095 0.9783804 0.1452095 0.0216196 -0.1452095
1326753 0.0207206 -0.1422137 0.9792794 0.1422137 0.9792794 0.1422137 0.0207206 -0.1422137
1355924 0.0198584 -0.1392743 0.9801416 0.1392743 0.9801416 0.1392743 0.0198584 -0.1392743
1385737 0.0190315 -0.1363906 0.9809685 0.1363906 0.9809685 0.1363906 0.0190315 -0.1363906
1416205 0.0182384 -0.1335618 0.9817616 0.1335618 0.9817616 0.1335618 0.0182384 -0.1335618
1447343 0.0174780 -0.1307871 0.9825220 0.1307871 0.9825220 0.1307871 0.0174780 -0.1307871
1479166 0.0167488 -0.1280658 0.9832512 0.1280658 0.9832512 0.1280658 0.0167488 -0.1280658
1511688 0.0160496 -0.1253972 0.9839504 0.1253972 0.9839504 0.1253972 0.0160496 -0.1253972
1544926 0.0153793 -0.1227803 0.9846207 0.1227803 0.9846207 0.1227803 0.0153793 -0.1227803
1578894 0.0147366 -0.1202146 0.9852634 0.1202146 0.9852634 0.1202146 0.0147366 -0.1202146
1613609 0.0141205 -0.1176991 0.9858795 0.1176991 0.9858795 0.1176991 0.0141205 -0.1176991
1649087 0.0135300 -0.1152331 0.9864700 0.1152331 0.9864700 0.1152331 0.0135300 -0.1152331
1685346 0.0129639 -0.1128158 0.9870361 0.1128158 0.9870361 0.1128158 0.0129639 -0.1128158
1722402 0.0124213 -0.1104465 0.9875787 0.1104465 0.9875787 0.1104465 0.0124213 -0.1104465
1760272 0.0119013 -0.1081243 0.9880987 0.1081243 0.9880987 0.1081243 0.0119013 -0.1081243
1798975 0.0114029 -0.1058484 0.9885971 0.1058484 0.9885971 0.1058484 0.0114029 -0.1058484
1838529 0.0109253 -0.1036181 0.9890747 0.1036181 0.9890747 0.1036181 0.0109253 -0.1036181
1878953 0.0104676 -0.1014326 0.9895324 0.1014326 0.9895324 0.1014326 0.0104676 -0.1014326
1920266 0.0100289 -0.0992912 0.9899711 0.0992912 0.9899711 0.0992912 0.0100289 -0.0992912
1962487 0.0096086 -0.0971930 0.9903914 0.0971930 0.9903914 0.0971930 0.0096086 -0.0971930
2005636 0.0092059 -0.0951373 0.9907941 0.0951373 0.9907941 0.0951373 0.0092059 -0.0951373
2049734 0.0088200 -0.0931233 0.9911800 0.0931233 0.9911800 0.0931233 0.0088200 -0.0931233
2094801 0.0084503 -0.0911504 0.9915497 0.0911504 0.9915497 0.0911504 0.0084503 -0.0911504
2140860 0.0080960 -0.0892176 0.9919040 0.0892176 0.9919040 0.0892176 0.0080960 -0.0892176
2187931 0.0077567 -0.0873244 0.9922433 0.0873244 0.9922433 0.0873244 0.0077567 -0.0873244
2236037 0.0074315 -0.0854700 0.9925685 0.0854700 0.9925685 0.0854700 0.0074315 -0.0854700
2285201 0.0071200 -0.0836537 0.9928800 0.0836537 0.9928800 0.0836537 0.0071200 -0.0836537
2335446 0.0068216 -0.0818747 0.9931784 0.0818747 0.9931784 0.0818747 0.0068216 -0.0818747
2386795 0.0065358 -0.0801323 0.9934642 0.0801323 0.9934642 0.0801323 0.0065358 -0.0801323
2439274 0.0062620 -0.0784259 0.9937380 0.0784259 0.9937380 0.0784259 0.0062620 -0.0784259
2492906 0.0059997 -0.0767548 0.9940003 0.0767548 0.9940003 0.0767548 0.0059997 -0.0767548
2547717 0.0057485 -0.0751183 0.9942515 0.0751183 0.9942515 0.0751183 0.0057485 -0.0751183
2603734 0.0055078 -0.0735157 0.9944922 0.0735157 0.9944922 0.0735157 0.0055078 -0.0735157
2660982 0.0052774 -0.0719464 0.9947226 0.0719464 0.9947226 0.0719464 0.0052774 -0.0719464
2719490 0.0050566 -0.0704097 0.9949434 0.0704097 0.9949434 0.0704097 0.0050566 -0.0704097
2779283 0.0048452 -0.0689050 0.9951548 0.0689050 0.9951548 0.0689050 0.0048452 -0.0689050
2840391 0.0046427 -0.0674316 0.9953573 0.0674316 0.9953573 0.0674316 0.0046427 -0.0674316
2902843 0.0044487 -0.0659890 0.9955513 0.0659890 0.9955513 0.0659890 0.0044487 -0.0659890
2966668 0.0042630 -0.0645766 0.9957370 0.0645766 0.9957370 0.0645766 0.0042630 -0.0645766
3031896 0.0040851 -0.0631936 0.9959149 0.0631936 0.9959149 0.0631936 0.0040851 -0.0631936
3098558 0.0039148 -0.0618396 0.9960852 0.0618396 0.9960852 0.0618396 0.0039148 -0.0618396
3166686 0.0037516 -0.0605140 0.9962484 0.0605140 0.9962484 0.0605140 0.0037516 -0.0605140
3236312 0.0035954 -0.0592162 0.9964046 0.0592162 0.9964046 0.0592162 0.0035954 -0.0592162
3307469 0.0034458 -0.0579455 0.9965542 0.0579455 0.9965542 0.0579455 0.0034458 -0.0579455
3380190 0.0033026 -0.0567016 0.9966974 0.0567016 0.9966974 0.0567016 0.0033026 -0.0567016
3454511 0.0031654 -0.0554838 0.9968346 0.0554838 0.9968346 0.0554838 0.0031654 -0.0554838
3530465 0.0030340 -0.0542916 0.9969660 0.0542916 0.9969660 0.0542916 0.0030340 -0.0542916
3608090 0.0029083 -0.0531245 0.9970917 0.0531245 0.9970917 0.0531245 0.0029083 -0.0531245
3687421 0.0027878 -0.0519820 0.9972122 0.0519820 0.9972122 0.0519820 0.0027878 -0.0519820
3768496 0.0026725 -0.0508635 0.9973275 0.0508635 0.9973275 0.0508635 0.0026725 -0.0508635
3851354 0.0025621 -0.0497686 0.9974379 0.0497686 0.9974379 0.0497686 0.0025621 -0.0497686
3936034 0.0024564 -0.0486968 0.9975436 0.0486968 0.9975436 0.0486968 0.0024564 -0.0486968
4022575 0.0023552 -0.0476476 0.9976448 0.0476476 0.9976448 0.0476476 0.0023552 -0.0476476
4111020 0.0022583 -0.0466205 0.9977417 0.0466205 0.9977417 0.0466205 0.0022583 -0.0466205
4201409 0.0021656 -0.0456151 0.9978344 0.0456151 0.9978344 0.0456151 0.0021656 -0.0456151
4293785 0.0020767 -0.0446310 0.9979233 0.0446310 0.9979233 0.0446310 0.0020767 -0.0446310
4388193 0.0019917 -0.0436676 0.9980083 0.0436676 0.9980083 0.0436676 0.0019917 -0.0436676
4484676 0.0019103 -0.0427246 0.9980897 0.0427246 0.9980897 0.0427246 0.0019103 -0.0427246
4583281 0.0018324 -0.0418015 0.9981676 0.0418015 0.9981676 0.0418015 0.0018324 -0.0418015
4684054 0.0017578 -0.0408979 0.9982422 0.0408979 0.9982422 0.0408979 0.0017578 -0.0408979
4787042 0.0016864 -0.0400134 0.9983136 0.0400134 0.9983136 0.0400134 0.0016864 -0.0400134
4892295 0.0016180 -0.0391475 0.9983820 0.0391475 0.9983820 0.0391475 0.0016180 -0.0391475
4999862 0.0015526 -0.0383000 0.9984474 0.0383000 0.9984474 0.0383000 0.0015526 -0.0383000
5109794 0.0014900 -0.0374704 0.9985100 0.0374704 0.9985100 0.0374704 0.0014900 -0.0374704
5222143 0.0014300 -0.0366584 0.9985700 0.0366584 0.9985700 0.0366584 0.0014300 -0.0366584
5336962 0.0013727 -0.0358635 0.9986273 0.0358635 0.9986273 0.0358635 0.0013727 -0.0358635
5454306 0.0013178 -0.0350854 0.9986822 0.0350854 0.9986822 0.0350854 0.0013178 -0.0350854
5574230 0.0012652 -0.0343237 0.9987348 0.0343237 0.9987348 0.0343237 0.0012652 -0.0343237
5696791 0.0012149 -0.0335782 0.9987851 0.0335782 0.9987851 0.0335782 0.0012149 -0.0335782
5822046 0.0011668 -0.0328484 0.9988332 0.0328484 0.9988332 0.0328484 0.0011668 -0.0328484
5950055 0.0011207 -0.0321340 0.9988793 0.0321340 0.9988793 0.0321340 0.0011207 -0.0321340
6080879 0.0010766 -0.0314347 0.9989234 0.0314347 0.9989234 0.0314347 0.0010766 -0.0314347
6214580 0.0010344 -0.0307501 0.9989656 0.0307501 0.9989656 0.0307501 0.0010344 -0.0307501
6351220 0.0009941 -0.0300800 0.9990059 0.0300800 0.9990059 0.0300800 0.0009941 -0.0300800
6490864 0.0009555 -0.0294241 0.9990445 0.0294241 0.9990445 0.0294241 0.0009555 -0.0294241
6633579 0.0009185 -0.0287819 0.9990815 0.0287819 0.9990815 0.0287819 0.0009185 -0.0287819
6779431 0.0008832 -0.0281534 0.9991168 0.0281534 0.9991168 0.0281534 0.0008832 -0.0281534
6928491 0.0008494 -0.0275380 0.9991506 0.0275380 0.9991506 0.0275380 0.0008494 -0.0275380
7080828 0.0008171 -0.0269356 0.9991829 0.0269356 0.9991829 0.0269356 0.0008171 -0.0269356
7236514 0.0007861 -0.0263459 0.9992139 0.0263459 0.9992139 0.0263459 0.0007861 -0.0263459
7395623 0.0007566 -0.0257686 0.9992434 0.0257686 0.9992434 0.0257686 0.0007566 -0.0257686
7558231 0.0007283 -0.0252034 0.9992717 0.0252034 0.9992717 0.0252034 0.0007283 -0.0252034
7724414 0.0007012 -0.0246502 0.9992988 0.0246502 0.9992988 0.0246502 0.0007012 -0.0246502
7894251 0.0006754 -0.0241085 0.9993246 0.0241085 0.9993246 0.0241085 0.0006754 -0.0241085
8067822 0.0006506 -0.0235782 0.9993494 0.0235782 0.9993494 0.0235782 0.0006506 -0.0235782
8245209 0.0006270 -0.0230590 0.9993730 0.0230590 0.9993730 0.0230590 0.0006270 -0.0230590
8426497 0.0006044 -0.0225507 0.9993956 0.0225507 0.9993956 0.0225507 0.0006044 -0.0225507
8611770 0.0005828 -0.0220530 0.9994172 0.0220530 0.9994172 0.0220530 0.0005828 -0.0220530
8801117 0.0005622 -0.0215657 0.9994378 0.0215657 0.9994378 0.0215657 0.0005622 -0.0215657
8994628 0.0005425 -0.0210886 0.9994575 0.0210886 0.9994575 0.0210886 0.0005425 -0.0210886
9192393 0.0005237 -0.0206215 0.9994763 0.0206215 0.9994763 0.0206215 0.0005237 -0.0206215
9394506 0.0005057 -0.0201641 0.9994943 0.0201641 0.9994943 0.0201641 0.0005057 -0.0201641
9601063 0.0004885 -0.0197162 0.9995115 0.0197162 0.9995115 0.0197162 0.0004885 -0.0197162
9812162 0.0004721 -0.0192777 0.9995279 0.0192777 0.9995279 0.0192777 0.0004721 -0.0192777
10027902 0.0004565 -0.0188483 0.9995435 0.0188483 0.9995435 0.0188483 0.0004565 -0.0188483
10248386 0.0004416 -0.0184277 0.9995584 0.0184277 0.9995584 0.0184277 0.0004416 -0.0184277
10473717 0.0004273 -0.0180159 0.9995727 0.0180159 0.9995727 0.0180159 0.0004273 -0.0180159
10704003 0.0004137 -0.0176126 0.9995863 0.0176126 0.9995863 0.0176126 0.0004137 -0.0176126
10939352 0.0004008 -0.0172176 0.9995992 0.0172176 0.9995992 0.0172176 0.0004008 -0.0172176
11179876 0.0003885 -0.0168308 0.9996115 0.0168308 0.9996115 0.0168308 0.0003885 -0.0168308
11425688 0.0003767 -0.0164520 0.9996233 0.0164520 0.9996233 0.0164520 0.0003767 -0.0164520
11676904 0.0003655 -0.0160809 0.9996345 0.0160809 0.9996345 0.0160809 0.0003655 -0.0160809
11933645 0.0003548 -0.0157175 0.9996452 0.0157175 0.9996452 0.0157175 0.0003548 -0.0157175
12196030 0.0003447 -0.0153615 0.9996553 0.0153615 0.9996553 0.0153615 0.0003447 -0.0153615
12464184 0.0003350 -0.0150128 0.9996650 0.0150128 0.9996650 0.0150128 0.0003350 -0.0150128
12738235 0.0003258 -0.0146712 0.9996742 0.0146712 0.9996742 0.0146712 0.0003258 -0.0146712
13018310 0.0003171 -0.0143365 0.9996829 0.0143365 0.9996829 0.0143365 0.0003171 -0.0143365
13304544 0.0003088 -0.0140087 0.9996912 0.0140087 0.9996912 0.0140087 0.0003088 -0.0140087
13597071 0.0003009 -0.0136875 0.9996991 0.0136875 0.9996991 0.0136875 0.0003009 -0.0136875
13896030 0.0002934 -0.0133728 0.9997066 0.0133728 0.9997066 0.0133728 0.0002934 -0.0133728
14201563 0.0002864 -0.0130645 0.9997136 0.0130645 0.9997136 0.0130645 0.0002864 -0.0130645
14513813 0.0002796 -0.0127623 0.9997204 0.0127623 0.9997204 0.0127623 0.0002796 -0.0127623
14832928 0.0002733 -0.0124662 0.9997267 0.0124662 0.9997267 0.0124662 0.0002733 -0.0124662
15159060 0.0002673 -0.0121761 0.9997327 0.0121761 0.9997327 0.0121761 0.0002673 -0.0121761
15492362 0.0002616 -0.0118917 0.9997384 0.0118917 0.9997384 0.0118917 0.0002616 -0.0118917
15832993 0.0002562 -0.0116130 0.9997438 0.0116130 0.9997438 0.0116130 0.0002562 -0.0116130
16181113 0.0002511 -0.0113398 0.9997489 0.0113398 0.9997489 0.0113398 0.0002511 -0.0113398
16536888 0.0002463 -0.0110720 0.9997537 0.0110720 0.9997537 0.0110720 0.0002463 -0.0110720
16900485 0.0002418 -0.0108095 0.9997582 0.0108095 0.9997582 0.0108095 0.0002418 -0.0108095
17272076 0.0002376 -0.0105522 0.9997624 0.0105522 0.9997624 0.0105522 0.0002376 -0.0105522
17651837 0.0002336 -0.0102998 0.9997664 0.0102998 0.9997664 0.0102998 0.0002336 -0.0102998
18039948 0.0002299 -0.0100524 0.9997701 0.0100524 0.9997701 0.0100524 0.0002299 -0.0100524
18436593 0.0002264 -0.0098098 0.9997736 0.0098098 0.9997736 0.0098098 0.0002264 -0.0098098
18841959 0.0002232 -0.0095718 0.9997768 0.0095718 0.9997768 0.0095718 0.0002232 -0.0095718
19256237 0.0002201 -0.0093385 0.9997799 0.0093385 0.9997799 0.0093385 0.0002201 -0.0093385
19679624 0.0002173 -0.0091095 0.9997827 0.0091095 0.9997827 0.0091095 0.0002173 -0.0091095
20112321 0.0002146 -0.0088850 0.9997854 0.0088850 0.9997854 0.0088850 0.0002146 -0.0088850
20554530 0.0002122 -0.0086647 0.9997878 0.0086647 0.9997878 0.0086647 0.0002122 -0.0086647
21006463 0.0002100 -0.0084485 0.9997900 0.0084485 0.9997900 0.0084485 0.0002100 -0.0084485
21468333 0.0002079 -0.0082363 0.9997921 0.0082363 0.9997921 0.0082363 0.0002079 -0.0082363
21940357 0.0002060 -0.0080282 0.9997940 0.0080282 0.9997940 0.0080282 0.0002060 -0.0080282
22422760 0.0002042 -0.0078238 0.9997958 0.0078238 0.9997958 0.0078238 0.0002042 -0.0078238
22915770 0.0002027 -0.0076232 0.9997973 0.0076232 0.9997973 0.0076232 0.0002027 -0.0076232
23419619 0.0002012 -0.0074262 0.9997988 0.0074262 0.9997988 0.0074262 0.0002012 -0.0074262
23934547 0.0001999 -0.0072328 0.9998001 0.0072328 0.9998001 0.0072328 0.0001999 -0.0072328
24460796 0.0001988 -0.0070429 0.9998012 0.0070429 0.9998012 0.0070429 0.0001988 -0.0070429
24998616 0.0001978 -0.0068563 0.9998022 0.0068563 0.9998022 0.0068563 0.0001978 -0.0068563
25548261 0.0001969 -0.0066731 0.9998031 0.0066731 0.9998031 0.0066731 0.0001969 -0.0066731
26109991 0.0001962 -0.0064930 0.9998038 0.0064930 0.9998038 0.0064930 0.0001962 -0.0064930
26684072 0.0001955 -0.0063161 0.9998045 0.0063161 0.9998045 0.0063161 0.0001955 -0.0063161
27270775 0.0001950 -0.0061421 0.9998050 0.0061421 0.9998050 0.0061421 0.0001950 -0.0061421
27870378 0.0001946 -0.0059711 0.9998054 0.0059711 0.9998054 0.0059711 0.0001946 -0.0059711
28483164 0.0001943 -0.0058030 0.9998057 0.0058030 0.9998057 0.0058030 0.0001943 -0.0058030
29109424 0.0001941 -0.0056377 0.9998059 0.0056377 0.9998059 0.0056377 0.0001941 -0.0056377
29749453 0.0001940 -0.0054751 0.9998060 0.0054751 0.9998060 0.0054751 0.0001940 -0.0054751
30403555 0.0001940 -0.0053151 0.9998060 0.0053151 0.9998060 0.0053151 0.0001940 -0.0053151
31072038 0.0001941 -0.0051576 0.9998059 0.0051576 0.9998059 0.0051576 0.0001941 -0.0051576
31755220 0.0001942 -0.0050027 0.9998058 0.0050027 0.9998058 0.0050027 0.0001942 -0.0050027
32453422 0.0001945 -0.0048501 0.9998055 0.0048501 0.9998055 0.0048501 0.0001945 -0.0048501
33166976 0.0001949 -0.0046999 0.9998051 0.0046999 0.9998051 0.0046999 0.0001949 -0.0046999
33896219 0.0001953 -0.0045519 0.9998047 0.0045519 0.9998047 0.0045519 0.0001953 -0.0045519
34641496 0.0001958 -0.0044061 0.9998042 0.0044061 0.9998042 0.0044061 0.0001958 -0.0044061
35403159 0.0001964 -0.0042624 0.9998036 0.0042624 0.9998036 0.0042624 0.0001964 -0.0042624
36181569 0.0001971 -0.0041207 0.9998029 0.0041207 0.9998029 0.0041207 0.0001971 -0.0041207
36977093 0.0001979 -0.0039810 0.9998021 0.0039810 0.9998021 0.0039810 0.0001979 -0.0039810
37790109 0.0001987 -0.0038432 0.9998013 0.0038432 0.9998013 0.0038432 0.0001987 -0.0038432
38621001 0.0001996 -0.0037073 0.9998004 0.0037073 0.9998004 0.0037073 0.0001996 -0.0037073
39470161 0.0002006 -0.0035731 0.9997994 0.0035731 0.9997994 0.0035731 0.0002006 -0.0035731
40337993 0.0002017 -0.0034406 0.9997983 0.0034406 0.9997983 0.0034406 0.0002017 -0.0034406
41224905 0.0002029 -0.0033098 0.9997971 0.0033098 0.9997971 0.0033098 0.0002029 -0.0033098
42131317 0.0002041 -0.0031805 0.9997959 0.0031805 0.9997959 0.0031805 0.0002041 -0.0031805
43057659 0.0002054 -0.0030527 0.9997946 0.0030527 0.9997946 0.0030527 0.0002054 -0.0030527
44004369 0.0002068 -0.0029264 0.9997932 0.0029264 0.9997932 0.0029264 0.0002068 -0.0029264
44971893 0.0002083 -0.0028015 0.9997917 0.0028015 0.9997917 0.0028015 0.0002083 -0.0028015
45960691 0.0002098 -0.0026779 0.9997902 0.0026779 0.9997902 0.0026779 0.0002098 -0.0026779
46971230 0.0002115 -0.0025555 0.9997885 0.0025555 0.9997885 0.0025555 0.0002115 -0.0025555
48003987 0.0002132 -0.0024343 0.9997868 0.0024343 0.9997868 0.0024343 0.0002132 -0.0024343
49059451 0.0002150 -0.0023143 0.9997850 0.0023143 0.9997850 0.0023143 0.0002150 -0.0023143
50138122 0.0002169 -0.0021953 0.9997831 0.0021953 0.9997831 0.0021953 0.0002169 -0.0021953
51240510 0.0002190 -0.0020773 0.9997810 0.0020773 0.9997810 0.0020773 0.0002190 -0.0020773
52367136 0.0002211 -0.0019603 0.9997789 0.0019603 0.9997789 0.0019603 0.0002211 -0.0019603
53518533 0.0002233 -0.0018442 0.9997767 0.0018442 0.9997767 0.0018442 0.0002233 -0.0018442
54695245 0.0002256 -0.0017288 0.9997744 0.0017288 0.9997744 0.0017288 0.0002256 -0.0017288
55897831 0.0002281 -0.0016143 0.9997719 0.0016143 0.9997719 0.0016143 0.0002281 -0.0016143
57126857 0.0002306 -0.0015004 0.9997694 0.0015004 0.9997694 0.0015004 0.0002306 -0.0015004
58382906 0.0002333 -0.0013872 0.9997667 0.0013872 0.9997667 0.0013872 0.0002333 -0.0013872
59666572 0.0002362 -0.0012746 0.9997638 0.0012746 0.9997638 0.0012746 0.0002362 -0.0012746
60978462 0.0002391 -0.0011625 0.9997609 0.0011625 0.9997609 0.0011625 0.0002391 -0.0011625
62319196 0.0002422 -0.0010508 0.9997578 0.0010508 0.9997578 0.0010508 0.0002422 -0.0010508
63689409 0.0002455 -0.0009395 0.9997545 0.0009395 0.9997545 0.0009395 0.0002455 -0.0009395
65089750 0.0002489 -0.0008285 0.9997511 0.0008285 0.9997511 0.0008285 0.0002489 -0.0008285
66520879 0.0002525 -0.0007178 0.9997475 0.0007178 0.9997475 0.0007178 0.0002525 -0.0007178
67983474 0.0002563 -0.0006073 0.9997437 0.0006073 0.9997437 0.0006073 0.0002563 -0.0006073
69478228 0.0002603 -0.0004969 0.9997397 0.0004969 0.9997397 0.0004969 0.0002603 -0.0004969
71005847 0.0002645 -0.0003866 0.9997355 0.0003866 0.9997355 0.0003866 0.0002645 -0.0003866
72567054 0.0002690 -0.0002762 0.9997310 0.0002762 0.9997310 0.0002762 0.0002690 -0.0002762
74162587 0.0002737 -0.0001657 0.9997263 0.0001657 0.9997263 0.0001657 0.0002737 -0.0001657
75793201 0.0002786 -0.0000551 0.9997214 0.0000551 0.9997214 0.0000551 0.0002786 -0.0000551
77459667 0.0002839 0.0000558 0.9997161 -0.0000558 0.9997161 -0.0000558 0.0002839 0.0000558
79162774 0.0002894 0.0001670 0.9997106 -0.0001670 0.9997106 -0.0001670 0.0002894 0.0001670
80903327 0.0002953 0.0002787 0.9997047 -0.0002787 0.9997047 -0.0002787 0.0002953 0.0002787
82682150 0.0003015 0.0003909 0.9996985 -0.0003909 0.9996985 -0.0003909 0.0003015 0.0003909
84500083 0.0003082 0.0005037 0.9996918 -0.0005037 0.9996918 -0.0005037 0.0003082 0.0005037
86357988 0.0003153 0.0006172 0.9996847 -0.0006172 0.9996847 -0.0006172 0.0003153 0.0006172
88256743 0.0003228 0.0007315 0.9996772 -0.0007315 0.9996772 -0.0007315 0.0003228 0.0007315
90197245 0.0003310 0.0008468 0.9996690 -0.0008468 0.9996690 -0.0008468 0.0003310 0.0008468
92180413 0.0003397 0.0009632 0.9996603 -0.0009632 0.9996603 -0.0009632 0.0003397 0.0009632
94207185 0.0003491 0.0010808 0.9996509 -0.0010808 0.9996509 -0.0010808 0.0003491 0.0010808
96278520 0.0003593 0.0011998 0.9996407 -0.0011998 0.9996407 -0.0011998 0.0003593 0.0011998
98395398 0.0003703 0.0013203 0.9996297 -0.0013203 0.9996297 -0.0013203 0.0003703 0.0013203
100558819 0.0003824 0.0014426 0.9996176 -0.0014426 0.9996176 -0.0014426 0.0003824 0.0014426
102769807 0.0003957 0.0015668 0.9996043 -0.0015668 0.9996043 -0.0015668 0.0003957 0.0015668
105029408 0.0004103 0.0016931 0.9995897 -0.0016931 0.9995897 -0.0016931 0.0004103 0.0016931
107338692 0.0004265 0.0018220 0.9995735 -0.0018220 0.9995735 -0.0018220 0.0004265 0.0018220
