!Murata Part Number: GRM1883U1A123JA01
!These Parameters are Measured in Series Mode Connection
!Data Generated on Mar 30, 2021
!       o--ll--o
!Port1            Port2
!       o------o
!Operation Temp=25[degC], DC Bias Voltage=0[V]
!Freq. Start=1000[kHz] Stop=6[GHz] 401[Steps]
# Hz S RI R 50
!Freq.(Hz) S11(Real) S11(Imag) S21(Real) S21(Imag) S12(Real) S12(Imag) S22(Real) S22(Imag)
1000000 0.0181794 -0.1331961 0.9818206 0.1331961 0.9818206 0.1331961 0.0181794 -0.1331961
1021987 0.0174232 -0.1304292 0.9825768 0.1304292 0.9825768 0.1304292 0.0174232 -0.1304292
1044457 0.0166980 -0.1277155 0.9833020 0.1277155 0.9833020 0.1277155 0.0166980 -0.1277155
1067422 0.0160027 -0.1250543 0.9839973 0.1250543 0.9839973 0.1250543 0.0160027 -0.1250543
1090891 0.0153361 -0.1224449 0.9846639 0.1224449 0.9846639 0.1224449 0.0153361 -0.1224449
1114877 0.0146970 -0.1198865 0.9853030 0.1198865 0.9853030 0.1198865 0.0146970 -0.1198865
1139390 0.0140843 -0.1173782 0.9859157 0.1173782 0.9859157 0.1173782 0.0140843 -0.1173782
1164441 0.0134970 -0.1149194 0.9865030 0.1149194 0.9865030 0.1149194 0.0134970 -0.1149194
1190044 0.0129340 -0.1125091 0.9870660 0.1125091 0.9870660 0.1125091 0.0129340 -0.1125091
1216210 0.0123944 -0.1101466 0.9876056 0.1101466 0.9876056 0.1101466 0.0123944 -0.1101466
1242950 0.0118773 -0.1078312 0.9881227 0.1078312 0.9881227 0.1078312 0.0118773 -0.1078312
1270279 0.0113816 -0.1055621 0.9886184 0.1055621 0.9886184 0.1055621 0.0113816 -0.1055621
1298209 0.0109066 -0.1033384 0.9890934 0.1033384 0.9890934 0.1033384 0.0109066 -0.1033384
1326753 0.0104513 -0.1011594 0.9895487 0.1011594 0.9895487 0.1011594 0.0104513 -0.1011594
1355924 0.0100150 -0.0990244 0.9899850 0.0990244 0.9899850 0.0990244 0.0100150 -0.0990244
1385737 0.0095970 -0.0969325 0.9904030 0.0969325 0.9904030 0.0969325 0.0095970 -0.0969325
1416205 0.0091964 -0.0948830 0.9908036 0.0948830 0.9908036 0.0948830 0.0091964 -0.0948830
1447343 0.0088126 -0.0928751 0.9911874 0.0928751 0.9911874 0.0928751 0.0088126 -0.0928751
1479166 0.0084448 -0.0909081 0.9915552 0.0909081 0.9915552 0.0909081 0.0084448 -0.0909081
1511688 0.0080924 -0.0889813 0.9919076 0.0889813 0.9919076 0.0889813 0.0080924 -0.0889813
1544926 0.0077548 -0.0870939 0.9922452 0.0870939 0.9922452 0.0870939 0.0077548 -0.0870939
1578894 0.0074314 -0.0852452 0.9925686 0.0852452 0.9925686 0.0852452 0.0074314 -0.0852452
1613609 0.0071215 -0.0834345 0.9928785 0.0834345 0.9928785 0.0834345 0.0071215 -0.0834345
1649087 0.0068247 -0.0816610 0.9931753 0.0816610 0.9931753 0.0816610 0.0068247 -0.0816610
1685346 0.0065403 -0.0799241 0.9934597 0.0799241 0.9934597 0.0799241 0.0065403 -0.0799241
1722402 0.0062678 -0.0782231 0.9937322 0.0782231 0.9937322 0.0782231 0.0062678 -0.0782231
1760272 0.0060069 -0.0765572 0.9939931 0.0765572 0.9939931 0.0765572 0.0060069 -0.0765572
1798975 0.0057569 -0.0749259 0.9942431 0.0749259 0.9942431 0.0749259 0.0057569 -0.0749259
1838529 0.0055174 -0.0733284 0.9944826 0.0733284 0.9944826 0.0733284 0.0055174 -0.0733284
1878953 0.0052880 -0.0717640 0.9947120 0.0717640 0.9947120 0.0717640 0.0052880 -0.0717640
1920266 0.0050683 -0.0702323 0.9949317 0.0702323 0.9949317 0.0702323 0.0050683 -0.0702323
1962487 0.0048579 -0.0687324 0.9951421 0.0687324 0.9951421 0.0687324 0.0048579 -0.0687324
2005636 0.0046563 -0.0672638 0.9953437 0.0672638 0.9953437 0.0672638 0.0046563 -0.0672638
2049734 0.0044633 -0.0658259 0.9955367 0.0658259 0.9955367 0.0658259 0.0044633 -0.0658259
2094801 0.0042784 -0.0644180 0.9957216 0.0644180 0.9957216 0.0644180 0.0042784 -0.0644180
2140860 0.0041013 -0.0630396 0.9958987 0.0630396 0.9958987 0.0630396 0.0041013 -0.0630396
2187931 0.0039317 -0.0616901 0.9960683 0.0616901 0.9960683 0.0616901 0.0039317 -0.0616901
2236037 0.0037693 -0.0603688 0.9962307 0.0603688 0.9962307 0.0603688 0.0037693 -0.0603688
2285201 0.0036137 -0.0590753 0.9963863 0.0590753 0.9963863 0.0590753 0.0036137 -0.0590753
2335446 0.0034647 -0.0578089 0.9965353 0.0578089 0.9965353 0.0578089 0.0034647 -0.0578089
2386795 0.0033220 -0.0565692 0.9966780 0.0565692 0.9966780 0.0565692 0.0033220 -0.0565692
2439274 0.0031854 -0.0553555 0.9968146 0.0553555 0.9968146 0.0553555 0.0031854 -0.0553555
2492906 0.0030546 -0.0541673 0.9969454 0.0541673 0.9969454 0.0541673 0.0030546 -0.0541673
2547717 0.0029293 -0.0530042 0.9970707 0.0530042 0.9970707 0.0530042 0.0029293 -0.0530042
2603734 0.0028093 -0.0518656 0.9971907 0.0518656 0.9971907 0.0518656 0.0028093 -0.0518656
2660982 0.0026944 -0.0507509 0.9973056 0.0507509 0.9973056 0.0507509 0.0026944 -0.0507509
2719490 0.0025843 -0.0496598 0.9974157 0.0496598 0.9974157 0.0496598 0.0025843 -0.0496598
2779283 0.0024790 -0.0485917 0.9975210 0.0485917 0.9975210 0.0485917 0.0024790 -0.0485917
2840391 0.0023781 -0.0475462 0.9976219 0.0475462 0.9976219 0.0475462 0.0023781 -0.0475462
2902843 0.0022815 -0.0465227 0.9977185 0.0465227 0.9977185 0.0465227 0.0022815 -0.0465227
2966668 0.0021890 -0.0455209 0.9978110 0.0455209 0.9978110 0.0455209 0.0021890 -0.0455209
3031896 0.0021004 -0.0445402 0.9978996 0.0445402 0.9978996 0.0445402 0.0021004 -0.0445402
3098558 0.0020157 -0.0435803 0.9979843 0.0435803 0.9979843 0.0435803 0.0020157 -0.0435803
3166686 0.0019345 -0.0426407 0.9980655 0.0426407 0.9980655 0.0426407 0.0019345 -0.0426407
3236312 0.0018567 -0.0417209 0.9981433 0.0417209 0.9981433 0.0417209 0.0018567 -0.0417209
3307469 0.0017823 -0.0408206 0.9982177 0.0408206 0.9982177 0.0408206 0.0017823 -0.0408206
3380190 0.0017110 -0.0399394 0.9982890 0.0399394 0.9982890 0.0399394 0.0017110 -0.0399394
3454511 0.0016428 -0.0390768 0.9983572 0.0390768 0.9983572 0.0390768 0.0016428 -0.0390768
3530465 0.0015775 -0.0382325 0.9984225 0.0382325 0.9984225 0.0382325 0.0015775 -0.0382325
3608090 0.0015150 -0.0374060 0.9984850 0.0374060 0.9984850 0.0374060 0.0015150 -0.0374060
3687421 0.0014551 -0.0365970 0.9985449 0.0365970 0.9985449 0.0365970 0.0014551 -0.0365970
3768496 0.0013978 -0.0358052 0.9986022 0.0358052 0.9986022 0.0358052 0.0013978 -0.0358052
3851354 0.0013430 -0.0350301 0.9986570 0.0350301 0.9986570 0.0350301 0.0013430 -0.0350301
3936034 0.0012905 -0.0342715 0.9987095 0.0342715 0.9987095 0.0342715 0.0012905 -0.0342715
4022575 0.0012402 -0.0335289 0.9987598 0.0335289 0.9987598 0.0335289 0.0012402 -0.0335289
4111020 0.0011921 -0.0328020 0.9988079 0.0328020 0.9988079 0.0328020 0.0011921 -0.0328020
4201409 0.0011461 -0.0320905 0.9988539 0.0320905 0.9988539 0.0320905 0.0011461 -0.0320905
4293785 0.0011020 -0.0313940 0.9988980 0.0313940 0.9988980 0.0313940 0.0011020 -0.0313940
4388193 0.0010599 -0.0307123 0.9989401 0.0307123 0.9989401 0.0307123 0.0010599 -0.0307123
4484676 0.0010195 -0.0300450 0.9989805 0.0300450 0.9989805 0.0300450 0.0010195 -0.0300450
4583281 0.0009809 -0.0293919 0.9990191 0.0293919 0.9990191 0.0293919 0.0009809 -0.0293919
4684054 0.0009439 -0.0287525 0.9990561 0.0287525 0.9990561 0.0287525 0.0009439 -0.0287525
4787042 0.0009086 -0.0281266 0.9990914 0.0281266 0.9990914 0.0281266 0.0009086 -0.0281266
4892295 0.0008747 -0.0275140 0.9991253 0.0275140 0.9991253 0.0275140 0.0008747 -0.0275140
4999862 0.0008424 -0.0269143 0.9991576 0.0269143 0.9991576 0.0269143 0.0008424 -0.0269143
5109794 0.0008114 -0.0263273 0.9991886 0.0263273 0.9991886 0.0263273 0.0008114 -0.0263273
5222143 0.0007818 -0.0257527 0.9992182 0.0257527 0.9992182 0.0257527 0.0007818 -0.0257527
5336962 0.0007534 -0.0251901 0.9992466 0.0251901 0.9992466 0.0251901 0.0007534 -0.0251901
5454306 0.0007263 -0.0246395 0.9992737 0.0246395 0.9992737 0.0246395 0.0007263 -0.0246395
5574230 0.0007004 -0.0241005 0.9992996 0.0241005 0.9992996 0.0241005 0.0007004 -0.0241005
5696791 0.0006756 -0.0235728 0.9993244 0.0235728 0.9993244 0.0235728 0.0006756 -0.0235728
5822046 0.0006519 -0.0230562 0.9993481 0.0230562 0.9993481 0.0230562 0.0006519 -0.0230562
5950055 0.0006293 -0.0225505 0.9993707 0.0225505 0.9993707 0.0225505 0.0006293 -0.0225505
6080879 0.0006076 -0.0220554 0.9993924 0.0220554 0.9993924 0.0220554 0.0006076 -0.0220554
6214580 0.0005869 -0.0215707 0.9994131 0.0215707 0.9994131 0.0215707 0.0005869 -0.0215707
6351220 0.0005671 -0.0210962 0.9994329 0.0210962 0.9994329 0.0210962 0.0005671 -0.0210962
6490864 0.0005482 -0.0206316 0.9994518 0.0206316 0.9994518 0.0206316 0.0005482 -0.0206316
6633579 0.0005302 -0.0201768 0.9994698 0.0201768 0.9994698 0.0201768 0.0005302 -0.0201768
6779431 0.0005129 -0.0197315 0.9994871 0.0197315 0.9994871 0.0197315 0.0005129 -0.0197315
6928491 0.0004965 -0.0192956 0.9995035 0.0192956 0.9995035 0.0192956 0.0004965 -0.0192956
7080828 0.0004807 -0.0188687 0.9995193 0.0188687 0.9995193 0.0188687 0.0004807 -0.0188687
7236514 0.0004657 -0.0184507 0.9995343 0.0184507 0.9995343 0.0184507 0.0004657 -0.0184507
7395623 0.0004514 -0.0180415 0.9995486 0.0180415 0.9995486 0.0180415 0.0004514 -0.0180415
7558231 0.0004377 -0.0176408 0.9995623 0.0176408 0.9995623 0.0176408 0.0004377 -0.0176408
7724414 0.0004247 -0.0172485 0.9995753 0.0172485 0.9995753 0.0172485 0.0004247 -0.0172485
7894251 0.0004123 -0.0168643 0.9995877 0.0168643 0.9995877 0.0168643 0.0004123 -0.0168643
8067822 0.0004004 -0.0164880 0.9995996 0.0164880 0.9995996 0.0164880 0.0004004 -0.0164880
8245209 0.0003891 -0.0161196 0.9996109 0.0161196 0.9996109 0.0161196 0.0003891 -0.0161196
8426497 0.0003784 -0.0157588 0.9996216 0.0157588 0.9996216 0.0157588 0.0003784 -0.0157588
8611770 0.0003681 -0.0154055 0.9996319 0.0154055 0.9996319 0.0154055 0.0003681 -0.0154055
8801117 0.0003584 -0.0150595 0.9996416 0.0150595 0.9996416 0.0150595 0.0003584 -0.0150595
8994628 0.0003491 -0.0147206 0.9996509 0.0147206 0.9996509 0.0147206 0.0003491 -0.0147206
9192393 0.0003403 -0.0143886 0.9996597 0.0143886 0.9996597 0.0143886 0.0003403 -0.0143886
9394506 0.0003319 -0.0140635 0.9996681 0.0140635 0.9996681 0.0140635 0.0003319 -0.0140635
9601063 0.0003240 -0.0137451 0.9996760 0.0137451 0.9996760 0.0137451 0.0003240 -0.0137451
9812162 0.0003164 -0.0134332 0.9996836 0.0134332 0.9996836 0.0134332 0.0003164 -0.0134332
10027902 0.0003093 -0.0131276 0.9996907 0.0131276 0.9996907 0.0131276 0.0003093 -0.0131276
10248386 0.0003025 -0.0128283 0.9996975 0.0128283 0.9996975 0.0128283 0.0003025 -0.0128283
10473717 0.0002960 -0.0125351 0.9997040 0.0125351 0.9997040 0.0125351 0.0002960 -0.0125351
10704003 0.0002899 -0.0122478 0.9997101 0.0122478 0.9997101 0.0122478 0.0002899 -0.0122478
10939352 0.0002842 -0.0119664 0.9997158 0.0119664 0.9997158 0.0119664 0.0002842 -0.0119664
11179876 0.0002788 -0.0116907 0.9997212 0.0116907 0.9997212 0.0116907 0.0002788 -0.0116907
11425688 0.0002736 -0.0114205 0.9997264 0.0114205 0.9997264 0.0114205 0.0002736 -0.0114205
11676904 0.0002688 -0.0111557 0.9997312 0.0111557 0.9997312 0.0111557 0.0002688 -0.0111557
11933645 0.0002642 -0.0108963 0.9997358 0.0108963 0.9997358 0.0108963 0.0002642 -0.0108963
12196030 0.0002600 -0.0106420 0.9997400 0.0106420 0.9997400 0.0106420 0.0002600 -0.0106420
12464184 0.0002559 -0.0103928 0.9997441 0.0103928 0.9997441 0.0103928 0.0002559 -0.0103928
12738235 0.0002522 -0.0101486 0.9997478 0.0101486 0.9997478 0.0101486 0.0002522 -0.0101486
13018310 0.0002487 -0.0099092 0.9997513 0.0099092 0.9997513 0.0099092 0.0002487 -0.0099092
13304544 0.0002454 -0.0096746 0.9997546 0.0096746 0.9997546 0.0096746 0.0002454 -0.0096746
13597071 0.0002423 -0.0094446 0.9997577 0.0094446 0.9997577 0.0094446 0.0002423 -0.0094446
13896030 0.0002394 -0.0092190 0.9997606 0.0092190 0.9997606 0.0092190 0.0002394 -0.0092190
14201563 0.0002368 -0.0089979 0.9997632 0.0089979 0.9997632 0.0089979 0.0002368 -0.0089979
14513813 0.0002343 -0.0087811 0.9997657 0.0087811 0.9997657 0.0087811 0.0002343 -0.0087811
14832928 0.0002321 -0.0085685 0.9997679 0.0085685 0.9997679 0.0085685 0.0002321 -0.0085685
15159060 0.0002300 -0.0083600 0.9997700 0.0083600 0.9997700 0.0083600 0.0002300 -0.0083600
15492362 0.0002281 -0.0081555 0.9997719 0.0081555 0.9997719 0.0081555 0.0002281 -0.0081555
15832993 0.0002263 -0.0079550 0.9997737 0.0079550 0.9997737 0.0079550 0.0002263 -0.0079550
16181113 0.0002248 -0.0077582 0.9997752 0.0077582 0.9997752 0.0077582 0.0002248 -0.0077582
16536888 0.0002233 -0.0075652 0.9997767 0.0075652 0.9997767 0.0075652 0.0002233 -0.0075652
16900485 0.0002221 -0.0073758 0.9997779 0.0073758 0.9997779 0.0073758 0.0002221 -0.0073758
17272076 0.0002209 -0.0071899 0.9997791 0.0071899 0.9997791 0.0071899 0.0002209 -0.0071899
17651837 0.0002199 -0.0070075 0.9997801 0.0070075 0.9997801 0.0070075 0.0002199 -0.0070075
18039948 0.0002191 -0.0068285 0.9997809 0.0068285 0.9997809 0.0068285 0.0002191 -0.0068285
18436593 0.0002183 -0.0066527 0.9997817 0.0066527 0.9997817 0.0066527 0.0002183 -0.0066527
18841959 0.0002177 -0.0064802 0.9997823 0.0064802 0.9997823 0.0064802 0.0002177 -0.0064802
19256237 0.0002172 -0.0063108 0.9997828 0.0063108 0.9997828 0.0063108 0.0002172 -0.0063108
19679624 0.0002168 -0.0061445 0.9997832 0.0061445 0.9997832 0.0061445 0.0002168 -0.0061445
20112321 0.0002165 -0.0059811 0.9997835 0.0059811 0.9997835 0.0059811 0.0002165 -0.0059811
20554530 0.0002162 -0.0058205 0.9997838 0.0058205 0.9997838 0.0058205 0.0002162 -0.0058205
21006463 0.0002161 -0.0056629 0.9997839 0.0056629 0.9997839 0.0056629 0.0002161 -0.0056629
21468333 0.0002161 -0.0055079 0.9997839 0.0055079 0.9997839 0.0055079 0.0002161 -0.0055079
21940357 0.0002162 -0.0053556 0.9997838 0.0053556 0.9997838 0.0053556 0.0002162 -0.0053556
22422760 0.0002163 -0.0052059 0.9997837 0.0052059 0.9997837 0.0052059 0.0002163 -0.0052059
22915770 0.0002165 -0.0050587 0.9997835 0.0050587 0.9997835 0.0050587 0.0002165 -0.0050587
23419619 0.0002168 -0.0049140 0.9997832 0.0049140 0.9997832 0.0049140 0.0002168 -0.0049140
23934547 0.0002172 -0.0047716 0.9997828 0.0047716 0.9997828 0.0047716 0.0002172 -0.0047716
24460796 0.0002177 -0.0046316 0.9997823 0.0046316 0.9997823 0.0046316 0.0002177 -0.0046316
24998616 0.0002182 -0.0044938 0.9997818 0.0044938 0.9997818 0.0044938 0.0002182 -0.0044938
25548261 0.0002187 -0.0043582 0.9997813 0.0043582 0.9997813 0.0043582 0.0002187 -0.0043582
26109991 0.0002193 -0.0042247 0.9997807 0.0042247 0.9997807 0.0042247 0.0002193 -0.0042247
26684072 0.0002200 -0.0040933 0.9997800 0.0040933 0.9997800 0.0040933 0.0002200 -0.0040933
27270775 0.0002208 -0.0039638 0.9997792 0.0039638 0.9997792 0.0039638 0.0002208 -0.0039638
27870378 0.0002216 -0.0038363 0.9997784 0.0038363 0.9997784 0.0038363 0.0002216 -0.0038363
28483164 0.0002224 -0.0037106 0.9997776 0.0037106 0.9997776 0.0037106 0.0002224 -0.0037106
29109424 0.0002233 -0.0035867 0.9997767 0.0035867 0.9997767 0.0035867 0.0002233 -0.0035867
29749453 0.0002242 -0.0034646 0.9997758 0.0034646 0.9997758 0.0034646 0.0002242 -0.0034646
30403555 0.0002252 -0.0033441 0.9997748 0.0033441 0.9997748 0.0033441 0.0002252 -0.0033441
31072038 0.0002262 -0.0032253 0.9997738 0.0032253 0.9997738 0.0032253 0.0002262 -0.0032253
31755220 0.0002273 -0.0031080 0.9997727 0.0031080 0.9997727 0.0031080 0.0002273 -0.0031080
32453422 0.0002285 -0.0029923 0.9997715 0.0029923 0.9997715 0.0029923 0.0002285 -0.0029923
33166976 0.0002296 -0.0028780 0.9997704 0.0028780 0.9997704 0.0028780 0.0002296 -0.0028780
33896219 0.0002308 -0.0027650 0.9997692 0.0027650 0.9997692 0.0027650 0.0002308 -0.0027650
34641496 0.0002321 -0.0026535 0.9997679 0.0026535 0.9997679 0.0026535 0.0002321 -0.0026535
35403159 0.0002334 -0.0025432 0.9997666 0.0025432 0.9997666 0.0025432 0.0002334 -0.0025432
36181569 0.0002347 -0.0024341 0.9997653 0.0024341 0.9997653 0.0024341 0.0002347 -0.0024341
36977093 0.0002361 -0.0023262 0.9997639 0.0023262 0.9997639 0.0023262 0.0002361 -0.0023262
37790109 0.0002376 -0.0022195 0.9997624 0.0022195 0.9997624 0.0022195 0.0002376 -0.0022195
38621001 0.0002390 -0.0021138 0.9997610 0.0021138 0.9997610 0.0021138 0.0002390 -0.0021138
39470161 0.0002406 -0.0020091 0.9997594 0.0020091 0.9997594 0.0020091 0.0002406 -0.0020091
40337993 0.0002421 -0.0019053 0.9997579 0.0019053 0.9997579 0.0019053 0.0002421 -0.0019053
41224905 0.0002438 -0.0018025 0.9997562 0.0018025 0.9997562 0.0018025 0.0002438 -0.0018025
42131317 0.0002455 -0.0017006 0.9997545 0.0017006 0.9997545 0.0017006 0.0002455 -0.0017006
43057659 0.0002472 -0.0015995 0.9997528 0.0015995 0.9997528 0.0015995 0.0002472 -0.0015995
44004369 0.0002490 -0.0014991 0.9997510 0.0014991 0.9997510 0.0014991 0.0002490 -0.0014991
44971893 0.0002509 -0.0013994 0.9997491 0.0013994 0.9997491 0.0013994 0.0002509 -0.0013994
45960691 0.0002528 -0.0013004 0.9997472 0.0013004 0.9997472 0.0013004 0.0002528 -0.0013004
46971230 0.0002548 -0.0012020 0.9997452 0.0012020 0.9997452 0.0012020 0.0002548 -0.0012020
48003987 0.0002568 -0.0011041 0.9997432 0.0011041 0.9997432 0.0011041 0.0002568 -0.0011041
49059451 0.0002590 -0.0010068 0.9997410 0.0010068 0.9997410 0.0010068 0.0002590 -0.0010068
50138122 0.0002612 -0.0009099 0.9997388 0.0009099 0.9997388 0.0009099 0.0002612 -0.0009099
51240510 0.0002635 -0.0008134 0.9997365 0.0008134 0.9997365 0.0008134 0.0002635 -0.0008134
52367136 0.0002658 -0.0007172 0.9997342 0.0007172 0.9997342 0.0007172 0.0002658 -0.0007172
53518533 0.0002683 -0.0006214 0.9997317 0.0006214 0.9997317 0.0006214 0.0002683 -0.0006214
54695245 0.0002709 -0.0005258 0.9997291 0.0005258 0.9997291 0.0005258 0.0002709 -0.0005258
55897831 0.0002736 -0.0004304 0.9997264 0.0004304 0.9997264 0.0004304 0.0002736 -0.0004304
57126857 0.0002764 -0.0003352 0.9997236 0.0003352 0.9997236 0.0003352 0.0002764 -0.0003352
58382906 0.0002793 -0.0002400 0.9997207 0.0002400 0.9997207 0.0002400 0.0002793 -0.0002400
59666572 0.0002823 -0.0001449 0.9997177 0.0001449 0.9997177 0.0001449 0.0002823 -0.0001449
60978462 0.0002855 -0.0000498 0.9997145 0.0000498 0.9997145 0.0000498 0.0002855 -0.0000498
62319196 0.0002888 0.0000453 0.9997112 -0.0000453 0.9997112 -0.0000453 0.0002888 0.0000453
63689409 0.0002923 0.0001407 0.9997077 -0.0001407 0.9997077 -0.0001407 0.0002923 0.0001407
65089750 0.0002959 0.0002361 0.9997041 -0.0002361 0.9997041 -0.0002361 0.0002959 0.0002361
66520879 0.0002997 0.0003318 0.9997003 -0.0003318 0.9997003 -0.0003318 0.0002997 0.0003318
67983474 0.0003038 0.0004279 0.9996962 -0.0004279 0.9996962 -0.0004279 0.0003038 0.0004279
69478228 0.0003080 0.0005242 0.9996920 -0.0005242 0.9996920 -0.0005242 0.0003080 0.0005242
71005847 0.0003124 0.0006210 0.9996876 -0.0006210 0.9996876 -0.0006210 0.0003124 0.0006210
72567054 0.0003172 0.0007183 0.9996828 -0.0007183 0.9996828 -0.0007183 0.0003172 0.0007183
74162587 0.0003221 0.0008161 0.9996779 -0.0008161 0.9996779 -0.0008161 0.0003221 0.0008161
75793201 0.0003274 0.0009146 0.9996726 -0.0009146 0.9996726 -0.0009146 0.0003274 0.0009146
77459667 0.0003330 0.0010137 0.9996670 -0.0010137 0.9996670 -0.0010137 0.0003330 0.0010137
79162774 0.0003390 0.0011137 0.9996610 -0.0011137 0.9996610 -0.0011137 0.0003390 0.0011137
80903327 0.0003454 0.0012145 0.9996546 -0.0012145 0.9996546 -0.0012145 0.0003454 0.0012145
82682150 0.0003522 0.0013162 0.9996478 -0.0013162 0.9996478 -0.0013162 0.0003522 0.0013162
84500083 0.0003595 0.0014190 0.9996405 -0.0014190 0.9996405 -0.0014190 0.0003595 0.0014190
86357988 0.0003674 0.0015229 0.9996326 -0.0015229 0.9996326 -0.0015229 0.0003674 0.0015229
88256743 0.0003759 0.0016281 0.9996241 -0.0016281 0.9996241 -0.0016281 0.0003759 0.0016281
90197245 0.0003852 0.0017347 0.9996148 -0.0017347 0.9996148 -0.0017347 0.0003852 0.0017347
92180413 0.0003953 0.0018427 0.9996047 -0.0018427 0.9996047 -0.0018427 0.0003953 0.0018427
94207185 0.0004064 0.0019524 0.9995936 -0.0019524 0.9995936 -0.0019524 0.0004064 0.0019524
96278520 0.0004187 0.0020639 0.9995813 -0.0020639 0.9995813 -0.0020639 0.0004187 0.0020639
98395398 0.0004323 0.0021773 0.9995677 -0.0021773 0.9995677 -0.0021773 0.0004323 0.0021773
100558819 0.0004477 0.0022929 0.9995523 -0.0022929 0.9995523 -0.0022929 0.0004477 0.0022929
102769807 0.0004651 0.0024108 0.9995349 -0.0024108 0.9995349 -0.0024108 0.0004651 0.0024108
105029408 0.0004850 0.0025311 0.9995150 -0.0025311 0.9995150 -0.0025311 0.0004850 0.0025311
107338692 0.0005082 0.0026540 0.9994918 -0.0026540 0.9994918 -0.0026540 0.0005082 0.0026540
