!Murata Part Number: GRM1884C2AR90BA01
!These Parameters are Measured in Series Mode Connection
!Data Generated on Mar 30, 2021
!       o--ll--o
!Port1            Port2
!       o------o
!Operation Temp=25[degC], DC Bias Voltage=0[V]
!Freq. Start=100[MHz] Stop=9[GHz] 401[Steps]
# Hz S RI R 50
!Freq.(Hz) S11(Real) S11(Imag) S21(Real) S21(Imag) S12(Real) S12(Imag) S22(Real) S22(Imag)
100000000 0.9968016 -0.0563817 0.0031984 0.0563817 0.0031984 0.0563817 0.9968016 -0.0563817
121000000 0.9953229 -0.0681283 0.0046771 0.0681283 0.0046771 0.0681283 0.9953229 -0.0681283
142000000 0.9935677 -0.0798220 0.0064323 0.0798220 0.0064323 0.0798220 0.9935677 -0.0798220
163000000 0.9915384 -0.0914536 0.0084616 0.0914536 0.0084616 0.0914536 0.9915384 -0.0914536
184000000 0.9892379 -0.1030144 0.0107621 0.1030144 0.0107621 0.1030144 0.9892379 -0.1030144
205000000 0.9866693 -0.1144957 0.0133307 0.1144957 0.0133307 0.1144957 0.9866693 -0.1144957
226000000 0.9838360 -0.1258889 0.0161640 0.1258889 0.0161640 0.1258889 0.9838360 -0.1258889
247000000 0.9807420 -0.1371856 0.0192580 0.1371856 0.0192580 0.1371856 0.9807420 -0.1371856
268000000 0.9773914 -0.1483777 0.0226086 0.1483777 0.0226086 0.1483777 0.9773914 -0.1483777
289000000 0.9737888 -0.1594572 0.0262112 0.1594572 0.0262112 0.1594572 0.9737888 -0.1594572
310000000 0.9699390 -0.1704164 0.0300610 0.1704164 0.0300610 0.1704164 0.9699390 -0.1704164
331000000 0.9658472 -0.1812478 0.0341528 0.1812478 0.0341528 0.1812478 0.9658472 -0.1812478
352000000 0.9615190 -0.1919442 0.0384810 0.1919442 0.0384810 0.1919442 0.9615190 -0.1919442
373000000 0.9569600 -0.2024987 0.0430400 0.2024987 0.0430400 0.2024987 0.9569600 -0.2024987
394000000 0.9521763 -0.2129046 0.0478237 0.2129046 0.0478237 0.2129046 0.9521763 -0.2129046
415000000 0.9471741 -0.2231558 0.0528259 0.2231558 0.0528259 0.2231558 0.9471741 -0.2231558
436000000 0.9419599 -0.2332462 0.0580401 0.2332462 0.0580401 0.2332462 0.9419599 -0.2332462
457000000 0.9365405 -0.2431701 0.0634595 0.2431701 0.0634595 0.2431701 0.9365405 -0.2431701
478000000 0.9309226 -0.2529222 0.0690774 0.2529222 0.0690774 0.2529222 0.9309226 -0.2529222
499000000 0.9251132 -0.2624977 0.0748868 0.2624977 0.0748868 0.2624977 0.9251132 -0.2624977
520000000 0.9191196 -0.2718918 0.0808804 0.2718918 0.0808804 0.2718918 0.9191196 -0.2718918
541000000 0.9129491 -0.2811004 0.0870509 0.2811004 0.0870509 0.2811004 0.9129491 -0.2811004
562000000 0.9066089 -0.2901195 0.0933911 0.2901195 0.0933911 0.2901195 0.9066089 -0.2901195
583000000 0.9001066 -0.2989456 0.0998934 0.2989456 0.0998934 0.2989456 0.9001066 -0.2989456
604000000 0.8934496 -0.3075756 0.1065504 0.3075756 0.1065504 0.3075756 0.8934496 -0.3075756
625000000 0.8866454 -0.3160066 0.1133546 0.3160066 0.1133546 0.3160066 0.8866454 -0.3160066
646000000 0.8797017 -0.3242361 0.1202983 0.3242361 0.1202983 0.3242361 0.8797017 -0.3242361
667000000 0.8726260 -0.3322619 0.1273740 0.3322619 0.1273740 0.3322619 0.8726260 -0.3322619
688000000 0.8654257 -0.3400824 0.1345743 0.3400824 0.1345743 0.3400824 0.8654257 -0.3400824
709000000 0.8581084 -0.3476959 0.1418916 0.3476959 0.1418916 0.3476959 0.8581084 -0.3476959
730000000 0.8506816 -0.3551014 0.1493184 0.3551014 0.1493184 0.3551014 0.8506816 -0.3551014
751000000 0.8431525 -0.3622980 0.1568475 0.3622980 0.1568475 0.3622980 0.8431525 -0.3622980
772000000 0.8355284 -0.3692851 0.1644716 0.3692851 0.1644716 0.3692851 0.8355284 -0.3692851
793000000 0.8278166 -0.3760625 0.1721834 0.3760625 0.1721834 0.3760625 0.8278166 -0.3760625
814000000 0.8200241 -0.3826302 0.1799759 0.3826302 0.1799759 0.3826302 0.8200241 -0.3826302
835000000 0.8121579 -0.3889885 0.1878421 0.3889885 0.1878421 0.3889885 0.8121579 -0.3889885
856000000 0.8042248 -0.3951380 0.1957752 0.3951380 0.1957752 0.3951380 0.8042248 -0.3951380
877000000 0.7962315 -0.4010794 0.2037685 0.4010794 0.2037685 0.4010794 0.7962315 -0.4010794
898000000 0.7881845 -0.4068138 0.2118155 0.4068138 0.2118155 0.4068138 0.7881845 -0.4068138
919000000 0.7800902 -0.4123425 0.2199098 0.4123425 0.2199098 0.4123425 0.7800902 -0.4123425
940000000 0.7719549 -0.4176669 0.2280451 0.4176669 0.2280451 0.4176669 0.7719549 -0.4176669
961000000 0.7637846 -0.4227886 0.2362154 0.4227886 0.2362154 0.4227886 0.7637846 -0.4227886
982000000 0.7555852 -0.4277095 0.2444148 0.4277095 0.2444148 0.4277095 0.7555852 -0.4277095
1003000000 0.7473625 -0.4324316 0.2526375 0.4324316 0.2526375 0.4324316 0.7473625 -0.4324316
1024000000 0.7391218 -0.4369571 0.2608782 0.4369571 0.2608782 0.4369571 0.7391218 -0.4369571
1045000000 0.7308687 -0.4412883 0.2691313 0.4412883 0.2691313 0.4412883 0.7308687 -0.4412883
1066000000 0.7226083 -0.4454277 0.2773917 0.4454277 0.2773917 0.4454277 0.7226083 -0.4454277
1087000000 0.7143455 -0.4493779 0.2856545 0.4493779 0.2856545 0.4493779 0.7143455 -0.4493779
1108000000 0.7060852 -0.4531415 0.2939148 0.4531415 0.2939148 0.4531415 0.7060852 -0.4531415
1129000000 0.6978320 -0.4567214 0.3021680 0.4567214 0.3021680 0.4567214 0.6978320 -0.4567214
1150000000 0.6895903 -0.4601206 0.3104097 0.4601206 0.3104097 0.4601206 0.6895903 -0.4601206
1171000000 0.6813643 -0.4633419 0.3186357 0.4633419 0.3186357 0.4633419 0.6813643 -0.4633419
1192000000 0.6731582 -0.4663884 0.3268418 0.4663884 0.3268418 0.4663884 0.6731582 -0.4663884
1213000000 0.6649758 -0.4692633 0.3350242 0.4692633 0.3350242 0.4692633 0.6649758 -0.4692633
1234000000 0.6568207 -0.4719698 0.3431793 0.4719698 0.3431793 0.4719698 0.6568207 -0.4719698
1255000000 0.6486966 -0.4745112 0.3513034 0.4745112 0.3513034 0.4745112 0.6486966 -0.4745112
1276000000 0.6406068 -0.4768906 0.3593932 0.4768906 0.3593932 0.4768906 0.6406068 -0.4768906
1297000000 0.6325545 -0.4791114 0.3674455 0.4791114 0.3674455 0.4791114 0.6325545 -0.4791114
1318000000 0.6245426 -0.4811770 0.3754574 0.4811770 0.3754574 0.4811770 0.6245426 -0.4811770
1339000000 0.6165741 -0.4830906 0.3834259 0.4830906 0.3834259 0.4830906 0.6165741 -0.4830906
1360000000 0.6086515 -0.4848558 0.3913485 0.4848558 0.3913485 0.4848558 0.6086515 -0.4848558
1381000000 0.6007775 -0.4864758 0.3992225 0.4864758 0.3992225 0.4864758 0.6007775 -0.4864758
1402000000 0.5929545 -0.4879540 0.4070455 0.4879540 0.4070455 0.4879540 0.5929545 -0.4879540
1423000000 0.5851846 -0.4892938 0.4148154 0.4892938 0.4148154 0.4892938 0.5851846 -0.4892938
1444000000 0.5774700 -0.4904985 0.4225300 0.4904985 0.4225300 0.4904985 0.5774700 -0.4904985
1465000000 0.5698126 -0.4915716 0.4301874 0.4915716 0.4301874 0.4915716 0.5698126 -0.4915716
1486000000 0.5622142 -0.4925162 0.4377858 0.4925162 0.4377858 0.4925162 0.5622142 -0.4925162
1507000000 0.5546765 -0.4933358 0.4453235 0.4933358 0.4453235 0.4933358 0.5546765 -0.4933358
1528000000 0.5472011 -0.4940336 0.4527989 0.4940336 0.4527989 0.4940336 0.5472011 -0.4940336
1549000000 0.5397894 -0.4946128 0.4602106 0.4946128 0.4602106 0.4946128 0.5397894 -0.4946128
1570000000 0.5324427 -0.4950767 0.4675573 0.4950767 0.4675573 0.4950767 0.5324427 -0.4950767
1591000000 0.5251623 -0.4954284 0.4748377 0.4954284 0.4748377 0.4954284 0.5251623 -0.4954284
1612000000 0.5179491 -0.4956711 0.4820509 0.4956711 0.4820509 0.4956711 0.5179491 -0.4956711
1633000000 0.5108043 -0.4958079 0.4891957 0.4958079 0.4891957 0.4958079 0.5108043 -0.4958079
1654000000 0.5037287 -0.4958417 0.4962713 0.4958417 0.4962713 0.4958417 0.5037287 -0.4958417
1675000000 0.4967231 -0.4957756 0.5032769 0.4957756 0.5032769 0.4957756 0.4967231 -0.4957756
1696000000 0.4897881 -0.4956126 0.5102119 0.4956126 0.5102119 0.4956126 0.4897881 -0.4956126
1717000000 0.4829245 -0.4953556 0.5170755 0.4953556 0.5170755 0.4953556 0.4829245 -0.4953556
1738000000 0.4761328 -0.4950073 0.5238672 0.4950073 0.5238672 0.4950073 0.4761328 -0.4950073
1759000000 0.4694134 -0.4945707 0.5305866 0.4945707 0.5305866 0.4945707 0.4694134 -0.4945707
1780000000 0.4627666 -0.4940485 0.5372334 0.4940485 0.5372334 0.4940485 0.4627666 -0.4940485
1801000000 0.4561928 -0.4934434 0.5438072 0.4934434 0.5438072 0.4934434 0.4561928 -0.4934434
1822000000 0.4496923 -0.4927579 0.5503077 0.4927579 0.5503077 0.4927579 0.4496923 -0.4927579
1843000000 0.4432651 -0.4919948 0.5567349 0.4919948 0.5567349 0.4919948 0.4432651 -0.4919948
1864000000 0.4369114 -0.4911565 0.5630886 0.4911565 0.5630886 0.4911565 0.4369114 -0.4911565
1885000000 0.4306313 -0.4902456 0.5693687 0.4902456 0.5693687 0.4902456 0.4306313 -0.4902456
1906000000 0.4244247 -0.4892644 0.5755753 0.4892644 0.5755753 0.4892644 0.4244247 -0.4892644
1927000000 0.4182916 -0.4882153 0.5817084 0.4882153 0.5817084 0.4882153 0.4182916 -0.4882153
1948000000 0.4122318 -0.4871007 0.5877682 0.4871007 0.5877682 0.4871007 0.4122318 -0.4871007
1969000000 0.4062452 -0.4859228 0.5937548 0.4859228 0.5937548 0.4859228 0.4062452 -0.4859228
1990000000 0.4003316 -0.4846838 0.5996684 0.4846838 0.5996684 0.4846838 0.4003316 -0.4846838
2011000000 0.3944907 -0.4833859 0.6055093 0.4833859 0.6055093 0.4833859 0.3944907 -0.4833859
2032000000 0.3887224 -0.4820312 0.6112776 0.4820312 0.6112776 0.4820312 0.3887224 -0.4820312
2053000000 0.3830261 -0.4806217 0.6169739 0.4806217 0.6169739 0.4806217 0.3830261 -0.4806217
2074000000 0.3774017 -0.4791594 0.6225983 0.4791594 0.6225983 0.4791594 0.3774017 -0.4791594
2095000000 0.3718487 -0.4776463 0.6281513 0.4776463 0.6281513 0.4776463 0.3718487 -0.4776463
2116000000 0.3663666 -0.4760842 0.6336334 0.4760842 0.6336334 0.4760842 0.3663666 -0.4760842
2137000000 0.3609552 -0.4744751 0.6390448 0.4744751 0.6390448 0.4744751 0.3609552 -0.4744751
2158000000 0.3556138 -0.4728207 0.6443862 0.4728207 0.6443862 0.4728207 0.3556138 -0.4728207
2179000000 0.3503420 -0.4711227 0.6496580 0.4711227 0.6496580 0.4711227 0.3503420 -0.4711227
2200000000 0.3451392 -0.4693829 0.6548608 0.4693829 0.6548608 0.4693829 0.3451392 -0.4693829
2221000000 0.3400050 -0.4676029 0.6599950 0.4676029 0.6599950 0.4676029 0.3400050 -0.4676029
2242000000 0.3349388 -0.4657842 0.6650612 0.4657842 0.6650612 0.4657842 0.3349388 -0.4657842
2263000000 0.3299400 -0.4639286 0.6700600 0.4639286 0.6700600 0.4639286 0.3299400 -0.4639286
2284000000 0.3250081 -0.4620374 0.6749919 0.4620374 0.6749919 0.4620374 0.3250081 -0.4620374
2305000000 0.3201424 -0.4601122 0.6798576 0.4601122 0.6798576 0.4601122 0.3201424 -0.4601122
2326000000 0.3153423 -0.4581544 0.6846577 0.4581544 0.6846577 0.4581544 0.3153423 -0.4581544
2347000000 0.3106071 -0.4561653 0.6893929 0.4561653 0.6893929 0.4561653 0.3106071 -0.4561653
2368000000 0.3059364 -0.4541464 0.6940636 0.4541464 0.6940636 0.4541464 0.3059364 -0.4541464
2389000000 0.3013293 -0.4520988 0.6986707 0.4520988 0.6986707 0.4520988 0.3013293 -0.4520988
2410000000 0.2967853 -0.4500240 0.7032147 0.4500240 0.7032147 0.4500240 0.2967853 -0.4500240
2431000000 0.2923038 -0.4479231 0.7076962 0.4479231 0.7076962 0.4479231 0.2923038 -0.4479231
2452000000 0.2878839 -0.4457972 0.7121161 0.4457972 0.7121161 0.4457972 0.2878839 -0.4457972
2473000000 0.2835252 -0.4436477 0.7164748 0.4436477 0.7164748 0.4436477 0.2835252 -0.4436477
2494000000 0.2792268 -0.4414755 0.7207732 0.4414755 0.7207732 0.4414755 0.2792268 -0.4414755
2515000000 0.2749881 -0.4392817 0.7250119 0.4392817 0.7250119 0.4392817 0.2749881 -0.4392817
2536000000 0.2708085 -0.4370675 0.7291915 0.4370675 0.7291915 0.4370675 0.2708085 -0.4370675
2557000000 0.2666872 -0.4348338 0.7333128 0.4348338 0.7333128 0.4348338 0.2666872 -0.4348338
2578000000 0.2626236 -0.4325816 0.7373764 0.4325816 0.7373764 0.4325816 0.2626236 -0.4325816
2599000000 0.2586170 -0.4303119 0.7413830 0.4303119 0.7413830 0.4303119 0.2586170 -0.4303119
2620000000 0.2546667 -0.4280255 0.7453333 0.4280255 0.7453333 0.4280255 0.2546667 -0.4280255
2641000000 0.2507721 -0.4257234 0.7492279 0.4257234 0.7492279 0.4257234 0.2507721 -0.4257234
2662000000 0.2469323 -0.4234065 0.7530677 0.4234065 0.7530677 0.4234065 0.2469323 -0.4234065
2683000000 0.2431469 -0.4210755 0.7568531 0.4210755 0.7568531 0.4210755 0.2431469 -0.4210755
2704000000 0.2394150 -0.4187313 0.7605850 0.4187313 0.7605850 0.4187313 0.2394150 -0.4187313
2725000000 0.2357360 -0.4163747 0.7642640 0.4163747 0.7642640 0.4163747 0.2357360 -0.4163747
2746000000 0.2321093 -0.4140064 0.7678907 0.4140064 0.7678907 0.4140064 0.2321093 -0.4140064
2767000000 0.2285341 -0.4116272 0.7714659 0.4116272 0.7714659 0.4116272 0.2285341 -0.4116272
2788000000 0.2250098 -0.4092377 0.7749902 0.4092377 0.7749902 0.4092377 0.2250098 -0.4092377
2809000000 0.2215358 -0.4068386 0.7784642 0.4068386 0.7784642 0.4068386 0.2215358 -0.4068386
2830000000 0.2181113 -0.4044307 0.7818887 0.4044307 0.7818887 0.4044307 0.2181113 -0.4044307
2851000000 0.2147358 -0.4020145 0.7852642 0.4020145 0.7852642 0.4020145 0.2147358 -0.4020145
2872000000 0.2114086 -0.3995906 0.7885914 0.3995906 0.7885914 0.3995906 0.2114086 -0.3995906
2893000000 0.2081290 -0.3971597 0.7918710 0.3971597 0.7918710 0.3971597 0.2081290 -0.3971597
2914000000 0.2048964 -0.3947223 0.7951036 0.3947223 0.7951036 0.3947223 0.2048964 -0.3947223
2935000000 0.2017102 -0.3922789 0.7982898 0.3922789 0.7982898 0.3922789 0.2017102 -0.3922789
2956000000 0.1985698 -0.3898302 0.8014302 0.3898302 0.8014302 0.3898302 0.1985698 -0.3898302
2977000000 0.1954744 -0.3873766 0.8045256 0.3873766 0.8045256 0.3873766 0.1954744 -0.3873766
2998000000 0.1924236 -0.3849186 0.8075764 0.3849186 0.8075764 0.3849186 0.1924236 -0.3849186
3019000000 0.1894167 -0.3824567 0.8105833 0.3824567 0.8105833 0.3824567 0.1894167 -0.3824567
3040000000 0.1864532 -0.3799913 0.8135468 0.3799913 0.8135468 0.3799913 0.1864532 -0.3799913
3061000000 0.1835323 -0.3775230 0.8164677 0.3775230 0.8164677 0.3775230 0.1835323 -0.3775230
3082000000 0.1806535 -0.3750521 0.8193465 0.3750521 0.8193465 0.3750521 0.1806535 -0.3750521
3103000000 0.1778163 -0.3725790 0.8221837 0.3725790 0.8221837 0.3725790 0.1778163 -0.3725790
3124000000 0.1750201 -0.3701042 0.8249799 0.3701042 0.8249799 0.3701042 0.1750201 -0.3701042
3145000000 0.1722642 -0.3676281 0.8277358 0.3676281 0.8277358 0.3676281 0.1722642 -0.3676281
3166000000 0.1695482 -0.3651509 0.8304518 0.3651509 0.8304518 0.3651509 0.1695482 -0.3651509
3187000000 0.1668715 -0.3626732 0.8331285 0.3626732 0.8331285 0.3626732 0.1668715 -0.3626732
3208000000 0.1642335 -0.3601951 0.8357665 0.3601951 0.8357665 0.3601951 0.1642335 -0.3601951
3229000000 0.1616338 -0.3577170 0.8383662 0.3577170 0.8383662 0.3577170 0.1616338 -0.3577170
3250000000 0.1590716 -0.3552394 0.8409284 0.3552394 0.8409284 0.3552394 0.1590716 -0.3552394
3271000000 0.1565466 -0.3527624 0.8434534 0.3527624 0.8434534 0.3527624 0.1565466 -0.3527624
3292000000 0.1540582 -0.3502863 0.8459418 0.3502863 0.8459418 0.3502863 0.1540582 -0.3502863
3313000000 0.1516059 -0.3478115 0.8483941 0.3478115 0.8483941 0.3478115 0.1516059 -0.3478115
3334000000 0.1491892 -0.3453382 0.8508108 0.3453382 0.8508108 0.3453382 0.1491892 -0.3453382
3355000000 0.1468076 -0.3428667 0.8531924 0.3428667 0.8531924 0.3428667 0.1468076 -0.3428667
3376000000 0.1444606 -0.3403972 0.8555394 0.3403972 0.8555394 0.3403972 0.1444606 -0.3403972
3397000000 0.1421476 -0.3379300 0.8578524 0.3379300 0.8578524 0.3379300 0.1421476 -0.3379300
3418000000 0.1398683 -0.3354653 0.8601317 0.3354653 0.8601317 0.3354653 0.1398683 -0.3354653
3439000000 0.1376222 -0.3330034 0.8623778 0.3330034 0.8623778 0.3330034 0.1376222 -0.3330034
3460000000 0.1354087 -0.3305444 0.8645913 0.3305444 0.8645913 0.3305444 0.1354087 -0.3305444
3481000000 0.1332275 -0.3280885 0.8667725 0.3280885 0.8667725 0.3280885 0.1332275 -0.3280885
3502000000 0.1310780 -0.3256360 0.8689220 0.3256360 0.8689220 0.3256360 0.1310780 -0.3256360
3523000000 0.1289598 -0.3231870 0.8710402 0.3231870 0.8710402 0.3231870 0.1289598 -0.3231870
3544000000 0.1268726 -0.3207418 0.8731274 0.3207418 0.8731274 0.3207418 0.1268726 -0.3207418
3565000000 0.1248157 -0.3183004 0.8751843 0.3183004 0.8751843 0.3183004 0.1248157 -0.3183004
3586000000 0.1227889 -0.3158631 0.8772111 0.3158631 0.8772111 0.3158631 0.1227889 -0.3158631
3607000000 0.1207917 -0.3134300 0.8792083 0.3134300 0.8792083 0.3134300 0.1207917 -0.3134300
3628000000 0.1188237 -0.3110013 0.8811763 0.3110013 0.8811763 0.3110013 0.1188237 -0.3110013
3649000000 0.1168844 -0.3085771 0.8831156 0.3085771 0.8831156 0.3085771 0.1168844 -0.3085771
3670000000 0.1149735 -0.3061576 0.8850265 0.3061576 0.8850265 0.3061576 0.1149735 -0.3061576
3691000000 0.1130906 -0.3037429 0.8869094 0.3037429 0.8869094 0.3037429 0.1130906 -0.3037429
3712000000 0.1112353 -0.3013331 0.8887647 0.3013331 0.8887647 0.3013331 0.1112353 -0.3013331
3733000000 0.1094071 -0.2989283 0.8905929 0.2989283 0.8905929 0.2989283 0.1094071 -0.2989283
3754000000 0.1076057 -0.2965287 0.8923943 0.2965287 0.8923943 0.2965287 0.1076057 -0.2965287
3775000000 0.1058308 -0.2941344 0.8941692 0.2941344 0.8941692 0.2941344 0.1058308 -0.2941344
3796000000 0.1040820 -0.2917454 0.8959180 0.2917454 0.8959180 0.2917454 0.1040820 -0.2917454
3817000000 0.1023588 -0.2893619 0.8976412 0.2893619 0.8976412 0.2893619 0.1023588 -0.2893619
3838000000 0.1006610 -0.2869840 0.8993390 0.2869840 0.8993390 0.2869840 0.1006610 -0.2869840
3859000000 0.0989882 -0.2846118 0.9010118 0.2846118 0.9010118 0.2846118 0.0989882 -0.2846118
3880000000 0.0973401 -0.2822453 0.9026599 0.2822453 0.9026599 0.2822453 0.0973401 -0.2822453
3901000000 0.0957163 -0.2798846 0.9042837 0.2798846 0.9042837 0.2798846 0.0957163 -0.2798846
3922000000 0.0941164 -0.2775299 0.9058836 0.2775299 0.9058836 0.2775299 0.0941164 -0.2775299
3943000000 0.0925401 -0.2751811 0.9074599 0.2751811 0.9074599 0.2751811 0.0925401 -0.2751811
3964000000 0.0909872 -0.2728384 0.9090128 0.2728384 0.9090128 0.2728384 0.0909872 -0.2728384
3985000000 0.0894573 -0.2705018 0.9105427 0.2705018 0.9105427 0.2705018 0.0894573 -0.2705018
4006000000 0.0879501 -0.2681714 0.9120499 0.2681714 0.9120499 0.2681714 0.0879501 -0.2681714
4027000000 0.0864652 -0.2658472 0.9135348 0.2658472 0.9135348 0.2658472 0.0864652 -0.2658472
4048000000 0.0850024 -0.2635294 0.9149976 0.2635294 0.9149976 0.2635294 0.0850024 -0.2635294
4069000000 0.0835613 -0.2612178 0.9164387 0.2612178 0.9164387 0.2612178 0.0835613 -0.2612178
4090000000 0.0821417 -0.2589127 0.9178583 0.2589127 0.9178583 0.2589127 0.0821417 -0.2589127
4111000000 0.0807433 -0.2566140 0.9192567 0.2566140 0.9192567 0.2566140 0.0807433 -0.2566140
4132000000 0.0793658 -0.2543219 0.9206342 0.2543219 0.9206342 0.2543219 0.0793658 -0.2543219
4153000000 0.0780088 -0.2520362 0.9219912 0.2520362 0.9219912 0.2520362 0.0780088 -0.2520362
4174000000 0.0766722 -0.2497571 0.9233278 0.2497571 0.9233278 0.2497571 0.0766722 -0.2497571
4195000000 0.0753557 -0.2474846 0.9246443 0.2474846 0.9246443 0.2474846 0.0753557 -0.2474846
4216000000 0.0740589 -0.2452188 0.9259411 0.2452188 0.9259411 0.2452188 0.0740589 -0.2452188
4237000000 0.0727816 -0.2429596 0.9272184 0.2429596 0.9272184 0.2429596 0.0727816 -0.2429596
4258000000 0.0715236 -0.2407071 0.9284764 0.2407071 0.9284764 0.2407071 0.0715236 -0.2407071
4279000000 0.0702846 -0.2384613 0.9297154 0.2384613 0.9297154 0.2384613 0.0702846 -0.2384613
4300000000 0.0690643 -0.2362223 0.9309357 0.2362223 0.9309357 0.2362223 0.0690643 -0.2362223
4321000000 0.0678625 -0.2339900 0.9321375 0.2339900 0.9321375 0.2339900 0.0678625 -0.2339900
4342000000 0.0666790 -0.2317645 0.9333210 0.2317645 0.9333210 0.2317645 0.0666790 -0.2317645
4363000000 0.0655135 -0.2295458 0.9344865 0.2295458 0.9344865 0.2295458 0.0655135 -0.2295458
4384000000 0.0643657 -0.2273339 0.9356343 0.2273339 0.9356343 0.2273339 0.0643657 -0.2273339
4405000000 0.0632355 -0.2251289 0.9367645 0.2251289 0.9367645 0.2251289 0.0632355 -0.2251289
4426000000 0.0621225 -0.2229306 0.9378775 0.2229306 0.9378775 0.2229306 0.0621225 -0.2229306
4447000000 0.0610267 -0.2207393 0.9389733 0.2207393 0.9389733 0.2207393 0.0610267 -0.2207393
4468000000 0.0599477 -0.2185547 0.9400523 0.2185547 0.9400523 0.2185547 0.0599477 -0.2185547
4489000000 0.0588853 -0.2163771 0.9411147 0.2163771 0.9411147 0.2163771 0.0588853 -0.2163771
4510000000 0.0578394 -0.2142063 0.9421606 0.2142063 0.9421606 0.2142063 0.0578394 -0.2142063
