!Murata Part Number: GRM1882C2A5R7BA01
!These Parameters are Measured in Series Mode Connection
!Data Generated on Mar 30, 2021
!       o--ll--o
!Port1            Port2
!       o------o
!Operation Temp=25[degC], DC Bias Voltage=0[V]
!Freq. Start=100[MHz] Stop=9[GHz] 401[Steps]
# Hz S RI R 50
!Freq.(Hz) S11(Real) S11(Imag) S21(Real) S21(Imag) S12(Real) S12(Imag) S22(Real) S22(Imag)
100000000 0.8859052 -0.3176455 0.1140948 0.3176455 0.1140948 0.3176455 0.8859052 -0.3176455
121000000 0.8411932 -0.3651248 0.1588068 0.3651248 0.1588068 0.3651248 0.8411932 -0.3651248
142000000 0.7934270 -0.4043746 0.2065730 0.4043746 0.2065730 0.4043746 0.7934270 -0.4043746
163000000 0.7442885 -0.4356789 0.2557115 0.4356789 0.2557115 0.4356789 0.7442885 -0.4356789
184000000 0.6951703 -0.4596368 0.3048297 0.4596368 0.3048297 0.4596368 0.6951703 -0.4596368
205000000 0.6471498 -0.4770354 0.3528502 0.4770354 0.3528502 0.4770354 0.6471498 -0.4770354
226000000 0.6010032 -0.4887438 0.3989968 0.4887438 0.3989968 0.4887438 0.6010032 -0.4887438
247000000 0.5572444 -0.4956336 0.4427556 0.4956336 0.4427556 0.4956336 0.5572444 -0.4956336
268000000 0.5161730 -0.4985268 0.4838270 0.4985268 0.4838270 0.4985268 0.5161730 -0.4985268
289000000 0.4779240 -0.4981661 0.5220760 0.4981661 0.5220760 0.4981661 0.4779240 -0.4981661
310000000 0.4425116 -0.4952016 0.5574884 0.4952016 0.5574884 0.4952016 0.4425116 -0.4952016
331000000 0.4098663 -0.4901891 0.5901337 0.4901891 0.5901337 0.4901891 0.4098663 -0.4901891
352000000 0.3798638 -0.4835949 0.6201362 0.4835949 0.6201362 0.4835949 0.3798638 -0.4835949
373000000 0.3523472 -0.4758048 0.6476528 0.4758048 0.6476528 0.4758048 0.3523472 -0.4758048
394000000 0.3271429 -0.4671339 0.6728571 0.4671339 0.6728571 0.4671339 0.3271429 -0.4671339
415000000 0.3040718 -0.4578371 0.6959282 0.4578371 0.6959282 0.4578371 0.3040718 -0.4578371
436000000 0.2829567 -0.4481188 0.7170433 0.4481188 0.7170433 0.4481188 0.2829567 -0.4481188
457000000 0.2636275 -0.4381417 0.7363725 0.4381417 0.7363725 0.4381417 0.2636275 -0.4381417
478000000 0.2459239 -0.4280338 0.7540761 0.4280338 0.7540761 0.4280338 0.2459239 -0.4280338
499000000 0.2296968 -0.4178954 0.7703032 0.4178954 0.7703032 0.4178954 0.2296968 -0.4178954
520000000 0.2148090 -0.4078041 0.7851910 0.4078041 0.7851910 0.4078041 0.2148090 -0.4078041
541000000 0.2011353 -0.3978192 0.7988647 0.3978192 0.7988647 0.3978192 0.2011353 -0.3978192
562000000 0.1885619 -0.3879856 0.8114381 0.3879856 0.8114381 0.3879856 0.1885619 -0.3879856
583000000 0.1769858 -0.3783362 0.8230142 0.3783362 0.8230142 0.3783362 0.1769858 -0.3783362
604000000 0.1663141 -0.3688950 0.8336859 0.3688950 0.8336859 0.3688950 0.1663141 -0.3688950
625000000 0.1564629 -0.3596785 0.8435371 0.3596785 0.8435371 0.3596785 0.1564629 -0.3596785
646000000 0.1473571 -0.3506973 0.8526429 0.3506973 0.8526429 0.3506973 0.1473571 -0.3506973
667000000 0.1389287 -0.3419578 0.8610713 0.3419578 0.8610713 0.3419578 0.1389287 -0.3419578
688000000 0.1311170 -0.3334624 0.8688830 0.3334624 0.8688830 0.3334624 0.1311170 -0.3334624
709000000 0.1238671 -0.3252111 0.8761329 0.3252111 0.8761329 0.3252111 0.1238671 -0.3252111
730000000 0.1171297 -0.3172017 0.8828703 0.3172017 0.8828703 0.3172017 0.1171297 -0.3172017
751000000 0.1108605 -0.3094304 0.8891395 0.3094304 0.8891395 0.3094304 0.1108605 -0.3094304
772000000 0.1050196 -0.3018923 0.8949804 0.3018923 0.8949804 0.3018923 0.1050196 -0.3018923
793000000 0.0995708 -0.2945815 0.9004292 0.2945815 0.9004292 0.2945815 0.0995708 -0.2945815
814000000 0.0944817 -0.2874915 0.9055183 0.2874915 0.9055183 0.2874915 0.0944817 -0.2874915
835000000 0.0897230 -0.2806155 0.9102770 0.2806155 0.9102770 0.2806155 0.0897230 -0.2806155
856000000 0.0852680 -0.2739465 0.9147320 0.2739465 0.9147320 0.2739465 0.0852680 -0.2739465
877000000 0.0810927 -0.2674771 0.9189073 0.2674771 0.9189073 0.2674771 0.0810927 -0.2674771
898000000 0.0771752 -0.2612002 0.9228248 0.2612002 0.9228248 0.2612002 0.0771752 -0.2612002
919000000 0.0734958 -0.2551086 0.9265042 0.2551086 0.9265042 0.2551086 0.0734958 -0.2551086
940000000 0.0700364 -0.2491951 0.9299636 0.2491951 0.9299636 0.2491951 0.0700364 -0.2491951
961000000 0.0667807 -0.2434529 0.9332193 0.2434529 0.9332193 0.2434529 0.0667807 -0.2434529
982000000 0.0637136 -0.2378751 0.9362864 0.2378751 0.9362864 0.2378751 0.0637136 -0.2378751
1003000000 0.0608217 -0.2324553 0.9391783 0.2324553 0.9391783 0.2324553 0.0608217 -0.2324553
1024000000 0.0580924 -0.2271871 0.9419076 0.2271871 0.9419076 0.2271871 0.0580924 -0.2271871
1045000000 0.0555143 -0.2220643 0.9444857 0.2220643 0.9444857 0.2220643 0.0555143 -0.2220643
1066000000 0.0530771 -0.2170811 0.9469229 0.2170811 0.9469229 0.2170811 0.0530771 -0.2170811
1087000000 0.0507711 -0.2122318 0.9492289 0.2122318 0.9492289 0.2122318 0.0507711 -0.2122318
1108000000 0.0485876 -0.2075110 0.9514124 0.2075110 0.9514124 0.2075110 0.0485876 -0.2075110
1129000000 0.0465184 -0.2029134 0.9534816 0.2029134 0.9534816 0.2029134 0.0465184 -0.2029134
1150000000 0.0445563 -0.1984342 0.9554437 0.1984342 0.9554437 0.1984342 0.0445563 -0.1984342
1171000000 0.0426943 -0.1940685 0.9573057 0.1940685 0.9573057 0.1940685 0.0426943 -0.1940685
1192000000 0.0409260 -0.1898118 0.9590740 0.1898118 0.9590740 0.1898118 0.0409260 -0.1898118
1213000000 0.0392458 -0.1856597 0.9607542 0.1856597 0.9607542 0.1856597 0.0392458 -0.1856597
1234000000 0.0376482 -0.1816081 0.9623518 0.1816081 0.9623518 0.1816081 0.0376482 -0.1816081
1255000000 0.0361282 -0.1776531 0.9638718 0.1776531 0.9638718 0.1776531 0.0361282 -0.1776531
1276000000 0.0346813 -0.1737908 0.9653187 0.1737908 0.9653187 0.1737908 0.0346813 -0.1737908
1297000000 0.0333031 -0.1700176 0.9666969 0.1700176 0.9666969 0.1700176 0.0333031 -0.1700176
1318000000 0.0319896 -0.1663300 0.9680104 0.1663300 0.9680104 0.1663300 0.0319896 -0.1663300
1339000000 0.0307372 -0.1627249 0.9692628 0.1627249 0.9692628 0.1627249 0.0307372 -0.1627249
1360000000 0.0295425 -0.1591990 0.9704575 0.1591990 0.9704575 0.1591990 0.0295425 -0.1591990
1381000000 0.0284022 -0.1557493 0.9715978 0.1557493 0.9715978 0.1557493 0.0284022 -0.1557493
1402000000 0.0273134 -0.1523730 0.9726866 0.1523730 0.9726866 0.1523730 0.0273134 -0.1523730
1423000000 0.0262734 -0.1490673 0.9737266 0.1490673 0.9737266 0.1490673 0.0262734 -0.1490673
1444000000 0.0252794 -0.1458297 0.9747206 0.1458297 0.9747206 0.1458297 0.0252794 -0.1458297
1465000000 0.0243292 -0.1426575 0.9756708 0.1426575 0.9756708 0.1426575 0.0243292 -0.1426575
1486000000 0.0234204 -0.1395485 0.9765796 0.1395485 0.9765796 0.1395485 0.0234204 -0.1395485
1507000000 0.0225510 -0.1365004 0.9774490 0.1365004 0.9774490 0.1365004 0.0225510 -0.1365004
1528000000 0.0217190 -0.1335109 0.9782810 0.1335109 0.9782810 0.1335109 0.0217190 -0.1335109
1549000000 0.0209225 -0.1305780 0.9790775 0.1305780 0.9790775 0.1305780 0.0209225 -0.1305780
1570000000 0.0201597 -0.1276997 0.9798403 0.1276997 0.9798403 0.1276997 0.0201597 -0.1276997
1591000000 0.0194292 -0.1248740 0.9805708 0.1248740 0.9805708 0.1248740 0.0194292 -0.1248740
1612000000 0.0187292 -0.1220993 0.9812708 0.1220993 0.9812708 0.1220993 0.0187292 -0.1220993
1633000000 0.0180584 -0.1193736 0.9819416 0.1193736 0.9819416 0.1193736 0.0180584 -0.1193736
1654000000 0.0174155 -0.1166953 0.9825845 0.1166953 0.9825845 0.1166953 0.0174155 -0.1166953
1675000000 0.0167992 -0.1140629 0.9832008 0.1140629 0.9832008 0.1140629 0.0167992 -0.1140629
1696000000 0.0162082 -0.1114747 0.9837918 0.1114747 0.9837918 0.1114747 0.0162082 -0.1114747
1717000000 0.0156414 -0.1089294 0.9843586 0.1089294 0.9843586 0.1089294 0.0156414 -0.1089294
1738000000 0.0150978 -0.1064254 0.9849022 0.1064254 0.9849022 0.1064254 0.0150978 -0.1064254
1759000000 0.0145764 -0.1039615 0.9854236 0.1039615 0.9854236 0.1039615 0.0145764 -0.1039615
1780000000 0.0140763 -0.1015362 0.9859237 0.1015362 0.9859237 0.1015362 0.0140763 -0.1015362
1801000000 0.0135964 -0.0991485 0.9864036 0.0991485 0.9864036 0.0991485 0.0135964 -0.0991485
1822000000 0.0131361 -0.0967970 0.9868639 0.0967970 0.9868639 0.0967970 0.0131361 -0.0967970
1843000000 0.0126944 -0.0944806 0.9873056 0.0944806 0.9873056 0.0944806 0.0126944 -0.0944806
1864000000 0.0122707 -0.0921982 0.9877293 0.0921982 0.9877293 0.0921982 0.0122707 -0.0921982
1885000000 0.0118642 -0.0899487 0.9881358 0.0899487 0.9881358 0.0899487 0.0118642 -0.0899487
1906000000 0.0114743 -0.0877311 0.9885257 0.0877311 0.9885257 0.0877311 0.0114743 -0.0877311
1927000000 0.0111003 -0.0855444 0.9888997 0.0855444 0.9888997 0.0855444 0.0111003 -0.0855444
1948000000 0.0107415 -0.0833878 0.9892585 0.0833878 0.9892585 0.0833878 0.0107415 -0.0833878
1969000000 0.0103975 -0.0812601 0.9896025 0.0812601 0.9896025 0.0812601 0.0103975 -0.0812601
1990000000 0.0100676 -0.0791606 0.9899324 0.0791606 0.9899324 0.0791606 0.0100676 -0.0791606
2011000000 0.0097515 -0.0770884 0.9902485 0.0770884 0.9902485 0.0770884 0.0097515 -0.0770884
2032000000 0.0094484 -0.0750428 0.9905516 0.0750428 0.9905516 0.0750428 0.0094484 -0.0750428
2053000000 0.0091581 -0.0730228 0.9908419 0.0730228 0.9908419 0.0730228 0.0091581 -0.0730228
2074000000 0.0088800 -0.0710277 0.9911200 0.0710277 0.9911200 0.0710277 0.0088800 -0.0710277
2095000000 0.0086138 -0.0690569 0.9913862 0.0690569 0.9913862 0.0690569 0.0086138 -0.0690569
2116000000 0.0083589 -0.0671096 0.9916411 0.0671096 0.9916411 0.0671096 0.0083589 -0.0671096
2137000000 0.0081151 -0.0651851 0.9918849 0.0651851 0.9918849 0.0651851 0.0081151 -0.0651851
2158000000 0.0078820 -0.0632827 0.9921180 0.0632827 0.9921180 0.0632827 0.0078820 -0.0632827
2179000000 0.0076592 -0.0614019 0.9923408 0.0614019 0.9923408 0.0614019 0.0076592 -0.0614019
2200000000 0.0074465 -0.0595419 0.9925535 0.0595419 0.9925535 0.0595419 0.0074465 -0.0595419
2221000000 0.0072434 -0.0577023 0.9927566 0.0577023 0.9927566 0.0577023 0.0072434 -0.0577023
2242000000 0.0070497 -0.0558824 0.9929503 0.0558824 0.9929503 0.0558824 0.0070497 -0.0558824
2263000000 0.0068651 -0.0540816 0.9931349 0.0540816 0.9931349 0.0540816 0.0068651 -0.0540816
2284000000 0.0066893 -0.0522995 0.9933107 0.0522995 0.9933107 0.0522995 0.0066893 -0.0522995
2305000000 0.0065221 -0.0505355 0.9934779 0.0505355 0.9934779 0.0505355 0.0065221 -0.0505355
2326000000 0.0063632 -0.0487891 0.9936368 0.0487891 0.9936368 0.0487891 0.0063632 -0.0487891
2347000000 0.0062124 -0.0470598 0.9937876 0.0470598 0.9937876 0.0470598 0.0062124 -0.0470598
2368000000 0.0060695 -0.0453472 0.9939305 0.0453472 0.9939305 0.0453472 0.0060695 -0.0453472
2389000000 0.0059342 -0.0436507 0.9940658 0.0436507 0.9940658 0.0436507 0.0059342 -0.0436507
2410000000 0.0058064 -0.0419699 0.9941936 0.0419699 0.9941936 0.0419699 0.0058064 -0.0419699
2431000000 0.0056858 -0.0403045 0.9943142 0.0403045 0.9943142 0.0403045 0.0056858 -0.0403045
2452000000 0.0055722 -0.0386539 0.9944278 0.0386539 0.9944278 0.0386539 0.0055722 -0.0386539
2473000000 0.0054655 -0.0370178 0.9945345 0.0370178 0.9945345 0.0370178 0.0054655 -0.0370178
2494000000 0.0053656 -0.0353958 0.9946344 0.0353958 0.9946344 0.0353958 0.0053656 -0.0353958
2515000000 0.0052722 -0.0337875 0.9947278 0.0337875 0.9947278 0.0337875 0.0052722 -0.0337875
2536000000 0.0051852 -0.0321925 0.9948148 0.0321925 0.9948148 0.0321925 0.0051852 -0.0321925
2557000000 0.0051044 -0.0306104 0.9948956 0.0306104 0.9948956 0.0306104 0.0051044 -0.0306104
2578000000 0.0050297 -0.0290410 0.9949703 0.0290410 0.9949703 0.0290410 0.0050297 -0.0290410
2599000000 0.0049610 -0.0274838 0.9950390 0.0274838 0.9950390 0.0274838 0.0049610 -0.0274838
2620000000 0.0048981 -0.0259386 0.9951019 0.0259386 0.9951019 0.0259386 0.0048981 -0.0259386
2641000000 0.0048410 -0.0244049 0.9951590 0.0244049 0.9951590 0.0244049 0.0048410 -0.0244049
2662000000 0.0047894 -0.0228826 0.9952106 0.0228826 0.9952106 0.0228826 0.0047894 -0.0228826
2683000000 0.0047433 -0.0213713 0.9952567 0.0213713 0.9952567 0.0213713 0.0047433 -0.0213713
2704000000 0.0047026 -0.0198706 0.9952974 0.0198706 0.9952974 0.0198706 0.0047026 -0.0198706
2725000000 0.0046671 -0.0183803 0.9953329 0.0183803 0.9953329 0.0183803 0.0046671 -0.0183803
2746000000 0.0046369 -0.0169002 0.9953631 0.0169002 0.9953631 0.0169002 0.0046369 -0.0169002
2767000000 0.0046117 -0.0154299 0.9953883 0.0154299 0.9953883 0.0154299 0.0046117 -0.0154299
2788000000 0.0045915 -0.0139692 0.9954085 0.0139692 0.9954085 0.0139692 0.0045915 -0.0139692
2809000000 0.0045762 -0.0125177 0.9954238 0.0125177 0.9954238 0.0125177 0.0045762 -0.0125177
2830000000 0.0045657 -0.0110753 0.9954343 0.0110753 0.9954343 0.0110753 0.0045657 -0.0110753
2851000000 0.0045600 -0.0096418 0.9954400 0.0096418 0.9954400 0.0096418 0.0045600 -0.0096418
2872000000 0.0045590 -0.0082167 0.9954410 0.0082167 0.9954410 0.0082167 0.0045590 -0.0082167
2893000000 0.0045626 -0.0068000 0.9954374 0.0068000 0.9954374 0.0068000 0.0045626 -0.0068000
2914000000 0.0045707 -0.0053914 0.9954293 0.0053914 0.9954293 0.0053914 0.0045707 -0.0053914
2935000000 0.0045833 -0.0039906 0.9954167 0.0039906 0.9954167 0.0039906 0.0045833 -0.0039906
2956000000 0.0046004 -0.0025974 0.9953996 0.0025974 0.9953996 0.0025974 0.0046004 -0.0025974
2977000000 0.0046218 -0.0012117 0.9953782 0.0012117 0.9953782 0.0012117 0.0046218 -0.0012117
2998000000 0.0046476 0.0001669 0.9953524 -0.0001669 0.9953524 -0.0001669 0.0046476 0.0001669
3019000000 0.0046776 0.0015385 0.9953224 -0.0015385 0.9953224 -0.0015385 0.0046776 0.0015385
3040000000 0.0047118 0.0029033 0.9952882 -0.0029033 0.9952882 -0.0029033 0.0047118 0.0029033
3061000000 0.0047502 0.0042615 0.9952498 -0.0042615 0.9952498 -0.0042615 0.0047502 0.0042615
3082000000 0.0047928 0.0056133 0.9952072 -0.0056133 0.9952072 -0.0056133 0.0047928 0.0056133
3103000000 0.0048394 0.0069589 0.9951606 -0.0069589 0.9951606 -0.0069589 0.0048394 0.0069589
3124000000 0.0048902 0.0082986 0.9951098 -0.0082986 0.9951098 -0.0082986 0.0048902 0.0082986
3145000000 0.0049450 0.0096324 0.9950550 -0.0096324 0.9950550 -0.0096324 0.0049450 0.0096324
3166000000 0.0050037 0.0109606 0.9949963 -0.0109606 0.9949963 -0.0109606 0.0050037 0.0109606
3187000000 0.0050665 0.0122834 0.9949335 -0.0122834 0.9949335 -0.0122834 0.0050665 0.0122834
3208000000 0.0051332 0.0136009 0.9948668 -0.0136009 0.9948668 -0.0136009 0.0051332 0.0136009
3229000000 0.0052039 0.0149133 0.9947961 -0.0149133 0.9947961 -0.0149133 0.0052039 0.0149133
3250000000 0.0052784 0.0162208 0.9947216 -0.0162208 0.9947216 -0.0162208 0.0052784 0.0162208
3271000000 0.0053569 0.0175235 0.9946431 -0.0175235 0.9946431 -0.0175235 0.0053569 0.0175235
3292000000 0.0054392 0.0188216 0.9945608 -0.0188216 0.9945608 -0.0188216 0.0054392 0.0188216
3313000000 0.0055255 0.0201153 0.9944745 -0.0201153 0.9944745 -0.0201153 0.0055255 0.0201153
3334000000 0.0056155 0.0214047 0.9943845 -0.0214047 0.9943845 -0.0214047 0.0056155 0.0214047
3355000000 0.0057094 0.0226900 0.9942906 -0.0226900 0.9942906 -0.0226900 0.0057094 0.0226900
3376000000 0.0058072 0.0239714 0.9941928 -0.0239714 0.9941928 -0.0239714 0.0058072 0.0239714
3397000000 0.0059088 0.0252490 0.9940912 -0.0252490 0.9940912 -0.0252490 0.0059088 0.0252490
3418000000 0.0060143 0.0265229 0.9939857 -0.0265229 0.9939857 -0.0265229 0.0060143 0.0265229
3439000000 0.0061235 0.0277934 0.9938765 -0.0277934 0.9938765 -0.0277934 0.0061235 0.0277934
3460000000 0.0062367 0.0290605 0.9937633 -0.0290605 0.9937633 -0.0290605 0.0062367 0.0290605
3481000000 0.0063536 0.0303244 0.9936464 -0.0303244 0.9936464 -0.0303244 0.0063536 0.0303244
3502000000 0.0064745 0.0315853 0.9935255 -0.0315853 0.9935255 -0.0315853 0.0064745 0.0315853
3523000000 0.0065991 0.0328432 0.9934009 -0.0328432 0.9934009 -0.0328432 0.0065991 0.0328432
3544000000 0.0067277 0.0340984 0.9932723 -0.0340984 0.9932723 -0.0340984 0.0067277 0.0340984
3565000000 0.0068601 0.0353510 0.9931399 -0.0353510 0.9931399 -0.0353510 0.0068601 0.0353510
3586000000 0.0069965 0.0366011 0.9930035 -0.0366011 0.9930035 -0.0366011 0.0069965 0.0366011
3607000000 0.0071368 0.0378489 0.9928632 -0.0378489 0.9928632 -0.0378489 0.0071368 0.0378489
3628000000 0.0072810 0.0390945 0.9927190 -0.0390945 0.9927190 -0.0390945 0.0072810 0.0390945
3649000000 0.0074292 0.0403381 0.9925708 -0.0403381 0.9925708 -0.0403381 0.0074292 0.0403381
3670000000 0.0075814 0.0415797 0.9924186 -0.0415797 0.9924186 -0.0415797 0.0075814 0.0415797
3691000000 0.0077375 0.0428195 0.9922625 -0.0428195 0.9922625 -0.0428195 0.0077375 0.0428195
3712000000 0.0078978 0.0440577 0.9921022 -0.0440577 0.9921022 -0.0440577 0.0078978 0.0440577
3733000000 0.0080621 0.0452944 0.9919379 -0.0452944 0.9919379 -0.0452944 0.0080621 0.0452944
3754000000 0.0082306 0.0465298 0.9917694 -0.0465298 0.9917694 -0.0465298 0.0082306 0.0465298
3775000000 0.0084032 0.0477639 0.9915968 -0.0477639 0.9915968 -0.0477639 0.0084032 0.0477639
3796000000 0.0085800 0.0489969 0.9914200 -0.0489969 0.9914200 -0.0489969 0.0085800 0.0489969
3817000000 0.0087610 0.0502289 0.9912390 -0.0502289 0.9912390 -0.0502289 0.0087610 0.0502289
3838000000 0.0089463 0.0514601 0.9910537 -0.0514601 0.9910537 -0.0514601 0.0089463 0.0514601
3859000000 0.0091360 0.0526906 0.9908640 -0.0526906 0.9908640 -0.0526906 0.0091360 0.0526906
3880000000 0.0093300 0.0539205 0.9906700 -0.0539205 0.9906700 -0.0539205 0.0093300 0.0539205
3901000000 0.0095285 0.0551501 0.9904715 -0.0551501 0.9904715 -0.0551501 0.0095285 0.0551501
3922000000 0.0097315 0.0563793 0.9902685 -0.0563793 0.9902685 -0.0563793 0.0097315 0.0563793
3943000000 0.0099390 0.0576084 0.9900610 -0.0576084 0.9900610 -0.0576084 0.0099390 0.0576084
3964000000 0.0101512 0.0588374 0.9898488 -0.0588374 0.9898488 -0.0588374 0.0101512 0.0588374
3985000000 0.0103680 0.0600666 0.9896320 -0.0600666 0.9896320 -0.0600666 0.0103680 0.0600666
4006000000 0.0105897 0.0612961 0.9894103 -0.0612961 0.9894103 -0.0612961 0.0105897 0.0612961
4027000000 0.0108161 0.0625259 0.9891839 -0.0625259 0.9891839 -0.0625259 0.0108161 0.0625259
4048000000 0.0110475 0.0637563 0.9889525 -0.0637563 0.9889525 -0.0637563 0.0110475 0.0637563
4069000000 0.0112839 0.0649873 0.9887161 -0.0649873 0.9887161 -0.0649873 0.0112839 0.0649873
4090000000 0.0115253 0.0662192 0.9884747 -0.0662192 0.9884747 -0.0662192 0.0115253 0.0662192
4111000000 0.0117720 0.0674520 0.9882280 -0.0674520 0.9882280 -0.0674520 0.0117720 0.0674520
4132000000 0.0120239 0.0686860 0.9879761 -0.0686860 0.9879761 -0.0686860 0.0120239 0.0686860
4153000000 0.0122812 0.0699211 0.9877188 -0.0699211 0.9877188 -0.0699211 0.0122812 0.0699211
4174000000 0.0125440 0.0711577 0.9874560 -0.0711577 0.9874560 -0.0711577 0.0125440 0.0711577
4195000000 0.0128124 0.0723958 0.9871876 -0.0723958 0.9871876 -0.0723958 0.0128124 0.0723958
4216000000 0.0130865 0.0736356 0.9869135 -0.0736356 0.9869135 -0.0736356 0.0130865 0.0736356
4237000000 0.0133664 0.0748772 0.9866336 -0.0748772 0.9866336 -0.0748772 0.0133664 0.0748772
4258000000 0.0136523 0.0761208 0.9863477 -0.0761208 0.9863477 -0.0761208 0.0136523 0.0761208
4279000000 0.0139443 0.0773666 0.9860557 -0.0773666 0.9860557 -0.0773666 0.0139443 0.0773666
4300000000 0.0142425 0.0786147 0.9857575 -0.0786147 0.9857575 -0.0786147 0.0142425 0.0786147
4321000000 0.0145471 0.0798652 0.9854529 -0.0798652 0.9854529 -0.0798652 0.0145471 0.0798652
4342000000 0.0148582 0.0811183 0.9851418 -0.0811183 0.9851418 -0.0811183 0.0148582 0.0811183
4363000000 0.0151760 0.0823742 0.9848240 -0.0823742 0.9848240 -0.0823742 0.0151760 0.0823742
4384000000 0.0155007 0.0836331 0.9844993 -0.0836331 0.9844993 -0.0836331 0.0155007 0.0836331
4405000000 0.0158324 0.0848950 0.9841676 -0.0848950 0.9841676 -0.0848950 0.0158324 0.0848950
4426000000 0.0161714 0.0861603 0.9838286 -0.0861603 0.9838286 -0.0861603 0.0161714 0.0861603
4447000000 0.0165177 0.0874290 0.9834823 -0.0874290 0.9834823 -0.0874290 0.0165177 0.0874290
4468000000 0.0168717 0.0887013 0.9831283 -0.0887013 0.9831283 -0.0887013 0.0168717 0.0887013
4489000000 0.0172336 0.0899774 0.9827664 -0.0899774 0.9827664 -0.0899774 0.0172336 0.0899774
4510000000 0.0176035 0.0912575 0.9823965 -0.0912575 0.9823965 -0.0912575 0.0176035 0.0912575
