!Murata Part Number: GRM1882C1H8R8WA01
!These Parameters are Measured in Series Mode Connection
!Data Generated on Mar 30, 2021
!       o--ll--o
!Port1            Port2
!       o------o
!Operation Temp=25[degC], DC Bias Voltage=0[V]
!Freq. Start=100[MHz] Stop=9[GHz] 401[Steps]
# Hz S RI R 50
!Freq.(Hz) S11(Real) S11(Imag) S21(Real) S21(Imag) S12(Real) S12(Imag) S22(Real) S22(Imag)
100000000 0.7650443 -0.4236553 0.2349557 0.4236553 0.2349557 0.4236553 0.7650443 -0.4236553
121000000 0.6894835 -0.4623094 0.3105165 0.4623094 0.3105165 0.4623094 0.6894835 -0.4623094
142000000 0.6167473 -0.4856966 0.3832527 0.4856966 0.3832527 0.4856966 0.6167473 -0.4856966
163000000 0.5492853 -0.4969883 0.4507147 0.4969883 0.4507147 0.4969883 0.5492853 -0.4969883
184000000 0.4882574 -0.4991831 0.5117426 0.4991831 0.5117426 0.4991831 0.4882574 -0.4991831
205000000 0.4339471 -0.4948284 0.5660529 0.4948284 0.5660529 0.4948284 0.4339471 -0.4948284
226000000 0.3861112 -0.4859486 0.6138888 0.4859486 0.6138888 0.4859486 0.3861112 -0.4859486
247000000 0.3442310 -0.4740821 0.6557690 0.4740821 0.6557690 0.4740821 0.3442310 -0.4740821
268000000 0.3076748 -0.4603618 0.6923252 0.4603618 0.6923252 0.4603618 0.3076748 -0.4603618
289000000 0.2757937 -0.4456017 0.7242063 0.4456017 0.7242063 0.4456017 0.2757937 -0.4456017
310000000 0.2479732 -0.4303750 0.7520268 0.4303750 0.7520268 0.4303750 0.2479732 -0.4303750
331000000 0.2236570 -0.4150770 0.7763430 0.4150770 0.7763430 0.4150770 0.2236570 -0.4150770
352000000 0.2023549 -0.3999746 0.7976451 0.3999746 0.7976451 0.3999746 0.2023549 -0.3999746
373000000 0.1836423 -0.3852423 0.8163577 0.3852423 0.8163577 0.3852423 0.1836423 -0.3852423
394000000 0.1671551 -0.3709894 0.8328449 0.3709894 0.8328449 0.3709894 0.1671551 -0.3709894
415000000 0.1525826 -0.3572795 0.8474174 0.3572795 0.8474174 0.3572795 0.1525826 -0.3572795
436000000 0.1396610 -0.3441443 0.8603390 0.3441443 0.8603390 0.3441443 0.1396610 -0.3441443
457000000 0.1281662 -0.3315938 0.8718338 0.3315938 0.8718338 0.3315938 0.1281662 -0.3315938
478000000 0.1179080 -0.3196234 0.8820920 0.3196234 0.8820920 0.3196234 0.1179080 -0.3196234
499000000 0.1087247 -0.3082188 0.8912753 0.3082188 0.8912753 0.3082188 0.1087247 -0.3082188
520000000 0.1004787 -0.2973593 0.8995213 0.2973593 0.8995213 0.2973593 0.1004787 -0.2973593
541000000 0.0930525 -0.2870211 0.9069475 0.2870211 0.9069475 0.2870211 0.0930525 -0.2870211
562000000 0.0863456 -0.2771779 0.9136544 0.2771779 0.9136544 0.2771779 0.0863456 -0.2771779
583000000 0.0802719 -0.2678033 0.9197281 0.2678033 0.9197281 0.2678033 0.0802719 -0.2678033
604000000 0.0747571 -0.2588704 0.9252429 0.2588704 0.9252429 0.2588704 0.0747571 -0.2588704
625000000 0.0697372 -0.2503532 0.9302628 0.2503532 0.9302628 0.2503532 0.0697372 -0.2503532
646000000 0.0651569 -0.2422268 0.9348431 0.2422268 0.9348431 0.2422268 0.0651569 -0.2422268
667000000 0.0609681 -0.2344671 0.9390319 0.2344671 0.9390319 0.2344671 0.0609681 -0.2344671
688000000 0.0571290 -0.2270517 0.9428710 0.2270517 0.9428710 0.2270517 0.0571290 -0.2270517
709000000 0.0536029 -0.2199590 0.9463971 0.2199590 0.9463971 0.2199590 0.0536029 -0.2199590
730000000 0.0503579 -0.2131692 0.9496421 0.2131692 0.9496421 0.2131692 0.0503579 -0.2131692
751000000 0.0473659 -0.2066636 0.9526341 0.2066636 0.9526341 0.2066636 0.0473659 -0.2066636
772000000 0.0446022 -0.2004247 0.9553978 0.2004247 0.9553978 0.2004247 0.0446022 -0.2004247
793000000 0.0420449 -0.1944362 0.9579551 0.1944362 0.9579551 0.1944362 0.0420449 -0.1944362
814000000 0.0396748 -0.1886830 0.9603252 0.1886830 0.9603252 0.1886830 0.0396748 -0.1886830
835000000 0.0374746 -0.1831510 0.9625254 0.1831510 0.9625254 0.1831510 0.0374746 -0.1831510
856000000 0.0354291 -0.1778271 0.9645709 0.1778271 0.9645709 0.1778271 0.0354291 -0.1778271
877000000 0.0335247 -0.1726991 0.9664753 0.1726991 0.9664753 0.1726991 0.0335247 -0.1726991
898000000 0.0317492 -0.1677556 0.9682508 0.1677556 0.9682508 0.1677556 0.0317492 -0.1677556
919000000 0.0300919 -0.1629862 0.9699081 0.1629862 0.9699081 0.1629862 0.0300919 -0.1629862
940000000 0.0285429 -0.1583809 0.9714571 0.1583809 0.9714571 0.1583809 0.0285429 -0.1583809
961000000 0.0270934 -0.1539305 0.9729066 0.1539305 0.9729066 0.1539305 0.0270934 -0.1539305
982000000 0.0257355 -0.1496267 0.9742645 0.1496267 0.9742645 0.1496267 0.0257355 -0.1496267
1003000000 0.0244621 -0.1454614 0.9755379 0.1454614 0.9755379 0.1454614 0.0244621 -0.1454614
1024000000 0.0232668 -0.1414272 0.9767332 0.1414272 0.9767332 0.1414272 0.0232668 -0.1414272
1045000000 0.0221436 -0.1375172 0.9778564 0.1375172 0.9778564 0.1375172 0.0221436 -0.1375172
1066000000 0.0210873 -0.1337248 0.9789127 0.1337248 0.9789127 0.1337248 0.0210873 -0.1337248
1087000000 0.0200930 -0.1300441 0.9799070 0.1300441 0.9799070 0.1300441 0.0200930 -0.1300441
1108000000 0.0191563 -0.1264693 0.9808437 0.1264693 0.9808437 0.1264693 0.0191563 -0.1264693
1129000000 0.0182732 -0.1229953 0.9817268 0.1229953 0.9817268 0.1229953 0.0182732 -0.1229953
1150000000 0.0174401 -0.1196169 0.9825599 0.1196169 0.9825599 0.1196169 0.0174401 -0.1196169
1171000000 0.0166535 -0.1163295 0.9833465 0.1163295 0.9833465 0.1163295 0.0166535 -0.1163295
1192000000 0.0159105 -0.1131288 0.9840895 0.1131288 0.9840895 0.1131288 0.0159105 -0.1131288
1213000000 0.0152081 -0.1100107 0.9847919 0.1100107 0.9847919 0.1100107 0.0152081 -0.1100107
1234000000 0.0145438 -0.1069712 0.9854562 0.1069712 0.9854562 0.1069712 0.0145438 -0.1069712
1255000000 0.0139152 -0.1040068 0.9860848 0.1040068 0.9860848 0.1040068 0.0139152 -0.1040068
1276000000 0.0133202 -0.1011139 0.9866798 0.1011139 0.9866798 0.1011139 0.0133202 -0.1011139
1297000000 0.0127566 -0.0982895 0.9872434 0.0982895 0.9872434 0.0982895 0.0127566 -0.0982895
1318000000 0.0122226 -0.0955304 0.9877774 0.0955304 0.9877774 0.0955304 0.0122226 -0.0955304
1339000000 0.0117165 -0.0928338 0.9882835 0.0928338 0.9882835 0.0928338 0.0117165 -0.0928338
1360000000 0.0112367 -0.0901969 0.9887633 0.0901969 0.9887633 0.0901969 0.0112367 -0.0901969
1381000000 0.0107816 -0.0876172 0.9892184 0.0876172 0.9892184 0.0876172 0.0107816 -0.0876172
1402000000 0.0103499 -0.0850924 0.9896501 0.0850924 0.9896501 0.0850924 0.0103499 -0.0850924
1423000000 0.0099404 -0.0826200 0.9900596 0.0826200 0.9900596 0.0826200 0.0099404 -0.0826200
1444000000 0.0095518 -0.0801979 0.9904482 0.0801979 0.9904482 0.0801979 0.0095518 -0.0801979
1465000000 0.0091831 -0.0778241 0.9908169 0.0778241 0.9908169 0.0778241 0.0091831 -0.0778241
1486000000 0.0088331 -0.0754965 0.9911669 0.0754965 0.9911669 0.0754965 0.0088331 -0.0754965
1507000000 0.0085010 -0.0732135 0.9914990 0.0732135 0.9914990 0.0732135 0.0085010 -0.0732135
1528000000 0.0081859 -0.0709731 0.9918141 0.0709731 0.9918141 0.0709731 0.0081859 -0.0709731
1549000000 0.0078868 -0.0687738 0.9921132 0.0687738 0.9921132 0.0687738 0.0078868 -0.0687738
1570000000 0.0076031 -0.0666140 0.9923969 0.0666140 0.9923969 0.0666140 0.0076031 -0.0666140
1591000000 0.0073339 -0.0644920 0.9926661 0.0644920 0.9926661 0.0644920 0.0073339 -0.0644920
1612000000 0.0070787 -0.0624066 0.9929213 0.0624066 0.9929213 0.0624066 0.0070787 -0.0624066
1633000000 0.0068367 -0.0603563 0.9931633 0.0603563 0.9931633 0.0603563 0.0068367 -0.0603563
1654000000 0.0066074 -0.0583399 0.9933926 0.0583399 0.9933926 0.0583399 0.0066074 -0.0583399
1675000000 0.0063902 -0.0563560 0.9936098 0.0563560 0.9936098 0.0563560 0.0063902 -0.0563560
1696000000 0.0061845 -0.0544036 0.9938155 0.0544036 0.9938155 0.0544036 0.0061845 -0.0544036
1717000000 0.0059900 -0.0524814 0.9940100 0.0524814 0.9940100 0.0524814 0.0059900 -0.0524814
1738000000 0.0058060 -0.0505884 0.9941940 0.0505884 0.9941940 0.0505884 0.0058060 -0.0505884
1759000000 0.0056322 -0.0487236 0.9943678 0.0487236 0.9943678 0.0487236 0.0056322 -0.0487236
1780000000 0.0054681 -0.0468860 0.9945319 0.0468860 0.9945319 0.0468860 0.0054681 -0.0468860
1801000000 0.0053134 -0.0450746 0.9946866 0.0450746 0.9946866 0.0450746 0.0053134 -0.0450746
1822000000 0.0051677 -0.0432885 0.9948323 0.0432885 0.9948323 0.0432885 0.0051677 -0.0432885
1843000000 0.0050306 -0.0415269 0.9949694 0.0415269 0.9949694 0.0415269 0.0050306 -0.0415269
1864000000 0.0049018 -0.0397890 0.9950982 0.0397890 0.9950982 0.0397890 0.0049018 -0.0397890
1885000000 0.0047810 -0.0380739 0.9952190 0.0380739 0.9952190 0.0380739 0.0047810 -0.0380739
1906000000 0.0046680 -0.0363809 0.9953320 0.0363809 0.9953320 0.0363809 0.0046680 -0.0363809
1927000000 0.0045624 -0.0347092 0.9954376 0.0347092 0.9954376 0.0347092 0.0045624 -0.0347092
1948000000 0.0044639 -0.0330582 0.9955361 0.0330582 0.9955361 0.0330582 0.0044639 -0.0330582
1969000000 0.0043724 -0.0314272 0.9956276 0.0314272 0.9956276 0.0314272 0.0043724 -0.0314272
1990000000 0.0042876 -0.0298155 0.9957124 0.0298155 0.9957124 0.0298155 0.0042876 -0.0298155
2011000000 0.0042093 -0.0282225 0.9957907 0.0282225 0.9957907 0.0282225 0.0042093 -0.0282225
2032000000 0.0041373 -0.0266476 0.9958627 0.0266476 0.9958627 0.0266476 0.0041373 -0.0266476
2053000000 0.0040713 -0.0250903 0.9959287 0.0250903 0.9959287 0.0250903 0.0040713 -0.0250903
2074000000 0.0040112 -0.0235500 0.9959888 0.0235500 0.9959888 0.0235500 0.0040112 -0.0235500
2095000000 0.0039568 -0.0220261 0.9960432 0.0220261 0.9960432 0.0220261 0.0039568 -0.0220261
2116000000 0.0039080 -0.0205181 0.9960920 0.0205181 0.9960920 0.0205181 0.0039080 -0.0205181
2137000000 0.0038645 -0.0190256 0.9961355 0.0190256 0.9961355 0.0190256 0.0038645 -0.0190256
2158000000 0.0038263 -0.0175481 0.9961737 0.0175481 0.9961737 0.0175481 0.0038263 -0.0175481
2179000000 0.0037932 -0.0160851 0.9962068 0.0160851 0.9962068 0.0160851 0.0037932 -0.0160851
2200000000 0.0037650 -0.0146361 0.9962350 0.0146361 0.9962350 0.0146361 0.0037650 -0.0146361
2221000000 0.0037417 -0.0132008 0.9962583 0.0132008 0.9962583 0.0132008 0.0037417 -0.0132008
2242000000 0.0037231 -0.0117786 0.9962769 0.0117786 0.9962769 0.0117786 0.0037231 -0.0117786
2263000000 0.0037090 -0.0103693 0.9962910 0.0103693 0.9962910 0.0103693 0.0037090 -0.0103693
2284000000 0.0036995 -0.0089725 0.9963005 0.0089725 0.9963005 0.0089725 0.0036995 -0.0089725
2305000000 0.0036943 -0.0075876 0.9963057 0.0075876 0.9963057 0.0075876 0.0036943 -0.0075876
2326000000 0.0036934 -0.0062145 0.9963066 0.0062145 0.9963066 0.0062145 0.0036934 -0.0062145
2347000000 0.0036968 -0.0048527 0.9963032 0.0048527 0.9963032 0.0048527 0.0036968 -0.0048527
2368000000 0.0037042 -0.0035018 0.9962958 0.0035018 0.9962958 0.0035018 0.0037042 -0.0035018
2389000000 0.0037156 -0.0021617 0.9962844 0.0021617 0.9962844 0.0021617 0.0037156 -0.0021617
2410000000 0.0037310 -0.0008319 0.9962690 0.0008319 0.9962690 0.0008319 0.0037310 -0.0008319
2431000000 0.0037503 0.0004879 0.9962497 -0.0004879 0.9962497 -0.0004879 0.0037503 0.0004879
2452000000 0.0037734 0.0017980 0.9962266 -0.0017980 0.9962266 -0.0017980 0.0037734 0.0017980
2473000000 0.0038002 0.0030986 0.9961998 -0.0030986 0.9961998 -0.0030986 0.0038002 0.0030986
2494000000 0.0038307 0.0043901 0.9961693 -0.0043901 0.9961693 -0.0043901 0.0038307 0.0043901
2515000000 0.0038648 0.0056727 0.9961352 -0.0056727 0.9961352 -0.0056727 0.0038648 0.0056727
2536000000 0.0039025 0.0069467 0.9960975 -0.0069467 0.9960975 -0.0069467 0.0039025 0.0069467
2557000000 0.0039438 0.0082124 0.9960562 -0.0082124 0.9960562 -0.0082124 0.0039438 0.0082124
2578000000 0.0039885 0.0094700 0.9960115 -0.0094700 0.9960115 -0.0094700 0.0039885 0.0094700
2599000000 0.0040366 0.0107198 0.9959634 -0.0107198 0.9959634 -0.0107198 0.0040366 0.0107198
2620000000 0.0040881 0.0119620 0.9959119 -0.0119620 0.9959119 -0.0119620 0.0040881 0.0119620
2641000000 0.0041430 0.0131968 0.9958570 -0.0131968 0.9958570 -0.0131968 0.0041430 0.0131968
2662000000 0.0042011 0.0144246 0.9957989 -0.0144246 0.9957989 -0.0144246 0.0042011 0.0144246
2683000000 0.0042626 0.0156454 0.9957374 -0.0156454 0.9957374 -0.0156454 0.0042626 0.0156454
2704000000 0.0043273 0.0168596 0.9956727 -0.0168596 0.9956727 -0.0168596 0.0043273 0.0168596
2725000000 0.0043953 0.0180673 0.9956047 -0.0180673 0.9956047 -0.0180673 0.0043953 0.0180673
2746000000 0.0044665 0.0192689 0.9955335 -0.0192689 0.9955335 -0.0192689 0.0044665 0.0192689
2767000000 0.0045409 0.0204643 0.9954591 -0.0204643 0.9954591 -0.0204643 0.0045409 0.0204643
2788000000 0.0046184 0.0216540 0.9953816 -0.0216540 0.9953816 -0.0216540 0.0046184 0.0216540
2809000000 0.0046991 0.0228380 0.9953009 -0.0228380 0.9953009 -0.0228380 0.0046991 0.0228380
2830000000 0.0047830 0.0240167 0.9952170 -0.0240167 0.9952170 -0.0240167 0.0047830 0.0240167
2851000000 0.0048700 0.0251901 0.9951300 -0.0251901 0.9951300 -0.0251901 0.0048700 0.0251901
2872000000 0.0049601 0.0263584 0.9950399 -0.0263584 0.9950399 -0.0263584 0.0049601 0.0263584
2893000000 0.0050533 0.0275220 0.9949467 -0.0275220 0.9949467 -0.0275220 0.0050533 0.0275220
2914000000 0.0051497 0.0286808 0.9948503 -0.0286808 0.9948503 -0.0286808 0.0051497 0.0286808
2935000000 0.0052492 0.0298352 0.9947508 -0.0298352 0.9947508 -0.0298352 0.0052492 0.0298352
2956000000 0.0053518 0.0309853 0.9946482 -0.0309853 0.9946482 -0.0309853 0.0053518 0.0309853
2977000000 0.0054576 0.0321313 0.9945424 -0.0321313 0.9945424 -0.0321313 0.0054576 0.0321313
2998000000 0.0055665 0.0332733 0.9944335 -0.0332733 0.9944335 -0.0332733 0.0055665 0.0332733
3019000000 0.0056786 0.0344115 0.9943214 -0.0344115 0.9943214 -0.0344115 0.0056786 0.0344115
3040000000 0.0057938 0.0355462 0.9942062 -0.0355462 0.9942062 -0.0355462 0.0057938 0.0355462
3061000000 0.0059123 0.0366774 0.9940877 -0.0366774 0.9940877 -0.0366774 0.0059123 0.0366774
3082000000 0.0060339 0.0378054 0.9939661 -0.0378054 0.9939661 -0.0378054 0.0060339 0.0378054
3103000000 0.0061588 0.0389304 0.9938412 -0.0389304 0.9938412 -0.0389304 0.0061588 0.0389304
3124000000 0.0062869 0.0400524 0.9937131 -0.0400524 0.9937131 -0.0400524 0.0062869 0.0400524
3145000000 0.0064184 0.0411716 0.9935816 -0.0411716 0.9935816 -0.0411716 0.0064184 0.0411716
3166000000 0.0065531 0.0422883 0.9934469 -0.0422883 0.9934469 -0.0422883 0.0065531 0.0422883
3187000000 0.0066912 0.0434026 0.9933088 -0.0434026 0.9933088 -0.0434026 0.0066912 0.0434026
3208000000 0.0068327 0.0445146 0.9931673 -0.0445146 0.9931673 -0.0445146 0.0068327 0.0445146
3229000000 0.0069776 0.0456246 0.9930224 -0.0456246 0.9930224 -0.0456246 0.0069776 0.0456246
3250000000 0.0071260 0.0467327 0.9928740 -0.0467327 0.9928740 -0.0467327 0.0071260 0.0467327
3271000000 0.0072780 0.0478390 0.9927220 -0.0478390 0.9927220 -0.0478390 0.0072780 0.0478390
3292000000 0.0074335 0.0489438 0.9925665 -0.0489438 0.9925665 -0.0489438 0.0074335 0.0489438
3313000000 0.0075927 0.0500472 0.9924073 -0.0500472 0.9924073 -0.0500472 0.0075927 0.0500472
3334000000 0.0077557 0.0511494 0.9922443 -0.0511494 0.9922443 -0.0511494 0.0077557 0.0511494
3355000000 0.0079223 0.0522506 0.9920777 -0.0522506 0.9920777 -0.0522506 0.0079223 0.0522506
3376000000 0.0080929 0.0533509 0.9919071 -0.0533509 0.9919071 -0.0533509 0.0080929 0.0533509
3397000000 0.0082674 0.0544505 0.9917326 -0.0544505 0.9917326 -0.0544505 0.0082674 0.0544505
3418000000 0.0084458 0.0555496 0.9915542 -0.0555496 0.9915542 -0.0555496 0.0084458 0.0555496
3439000000 0.0086284 0.0566484 0.9913716 -0.0566484 0.9913716 -0.0566484 0.0086284 0.0566484
3460000000 0.0088152 0.0577470 0.9911848 -0.0577470 0.9911848 -0.0577470 0.0088152 0.0577470
3481000000 0.0090063 0.0588458 0.9909937 -0.0588458 0.9909937 -0.0588458 0.0090063 0.0588458
3502000000 0.0092018 0.0599447 0.9907982 -0.0599447 0.9907982 -0.0599447 0.0092018 0.0599447
3523000000 0.0094019 0.0610441 0.9905981 -0.0610441 0.9905981 -0.0610441 0.0094019 0.0610441
3544000000 0.0096066 0.0621442 0.9903934 -0.0621442 0.9903934 -0.0621442 0.0096066 0.0621442
3565000000 0.0098161 0.0632451 0.9901839 -0.0632451 0.9901839 -0.0632451 0.0098161 0.0632451
3586000000 0.0100305 0.0643471 0.9899695 -0.0643471 0.9899695 -0.0643471 0.0100305 0.0643471
3607000000 0.0102500 0.0654504 0.9897500 -0.0654504 0.9897500 -0.0654504 0.0102500 0.0654504
3628000000 0.0104747 0.0665551 0.9895253 -0.0665551 0.9895253 -0.0665551 0.0104747 0.0665551
3649000000 0.0107049 0.0676616 0.9892951 -0.0676616 0.9892951 -0.0676616 0.0107049 0.0676616
3670000000 0.0109407 0.0687701 0.9890593 -0.0687701 0.9890593 -0.0687701 0.0109407 0.0687701
3691000000 0.0111822 0.0698808 0.9888178 -0.0698808 0.9888178 -0.0698808 0.0111822 0.0698808
3712000000 0.0114298 0.0709939 0.9885702 -0.0709939 0.9885702 -0.0709939 0.0114298 0.0709939
3733000000 0.0116837 0.0721098 0.9883163 -0.0721098 0.9883163 -0.0721098 0.0116837 0.0721098
3754000000 0.0119440 0.0732286 0.9880560 -0.0732286 0.9880560 -0.0732286 0.0119440 0.0732286
3775000000 0.0122111 0.0743507 0.9877889 -0.0743507 0.9877889 -0.0743507 0.0122111 0.0743507
3796000000 0.0124852 0.0754764 0.9875148 -0.0754764 0.9875148 -0.0754764 0.0124852 0.0754764
3817000000 0.0127667 0.0766058 0.9872333 -0.0766058 0.9872333 -0.0766058 0.0127667 0.0766058
3838000000 0.0130558 0.0777394 0.9869442 -0.0777394 0.9869442 -0.0777394 0.0130558 0.0777394
3859000000 0.0133530 0.0788775 0.9866470 -0.0788775 0.9866470 -0.0788775 0.0133530 0.0788775
3880000000 0.0136585 0.0800204 0.9863415 -0.0800204 0.9863415 -0.0800204 0.0136585 0.0800204
3901000000 0.0139729 0.0811684 0.9860271 -0.0811684 0.9860271 -0.0811684 0.0139729 0.0811684
3922000000 0.0142965 0.0823219 0.9857035 -0.0823219 0.9857035 -0.0823219 0.0142965 0.0823219
3943000000 0.0146298 0.0834813 0.9853702 -0.0834813 0.9853702 -0.0834813 0.0146298 0.0834813
3964000000 0.0149734 0.0846470 0.9850266 -0.0846470 0.9850266 -0.0846470 0.0149734 0.0846470
3985000000 0.0153277 0.0858193 0.9846723 -0.0858193 0.9846723 -0.0858193 0.0153277 0.0858193
4006000000 0.0156935 0.0869987 0.9843065 -0.0869987 0.9843065 -0.0869987 0.0156935 0.0869987
4027000000 0.0160713 0.0881856 0.9839287 -0.0881856 0.9839287 -0.0881856 0.0160713 0.0881856
4048000000 0.0164619 0.0893805 0.9835381 -0.0893805 0.9835381 -0.0893805 0.0164619 0.0893805
4069000000 0.0168660 0.0905839 0.9831340 -0.0905839 0.9831340 -0.0905839 0.0168660 0.0905839
4090000000 0.0172846 0.0917962 0.9827154 -0.0917962 0.9827154 -0.0917962 0.0172846 0.0917962
4111000000 0.0177184 0.0930180 0.9822816 -0.0930180 0.9822816 -0.0930180 0.0177184 0.0930180
4132000000 0.0181687 0.0942499 0.9818313 -0.0942499 0.9818313 -0.0942499 0.0181687 0.0942499
4153000000 0.0186363 0.0954923 0.9813637 -0.0954923 0.9813637 -0.0954923 0.0186363 0.0954923
4174000000 0.0191227 0.0967459 0.9808773 -0.0967459 0.9808773 -0.0967459 0.0191227 0.0967459
4195000000 0.0196291 0.0980112 0.9803709 -0.0980112 0.9803709 -0.0980112 0.0196291 0.0980112
4216000000 0.0201569 0.0992890 0.9798431 -0.0992890 0.9798431 -0.0992890 0.0201569 0.0992890
4237000000 0.0207079 0.1005797 0.9792921 -0.1005797 0.9792921 -0.1005797 0.0207079 0.1005797
4258000000 0.0212838 0.1018841 0.9787162 -0.1018841 0.9787162 -0.1018841 0.0212838 0.1018841
4279000000 0.0218866 0.1032029 0.9781134 -0.1032029 0.9781134 -0.1032029 0.0218866 0.1032029
4300000000 0.0225185 0.1045366 0.9774815 -0.1045366 0.9774815 -0.1045366 0.0225185 0.1045366
4321000000 0.0231820 0.1058860 0.9768180 -0.1058860 0.9768180 -0.1058860 0.0231820 0.1058860
4342000000 0.0238797 0.1072516 0.9761203 -0.1072516 0.9761203 -0.1072516 0.0238797 0.1072516
4363000000 0.0246148 0.1086341 0.9753852 -0.1086341 0.9753852 -0.1086341 0.0246148 0.1086341
4384000000 0.0253905 0.1100341 0.9746095 -0.1100341 0.9746095 -0.1100341 0.0253905 0.1100341
4405000000 0.0262108 0.1114521 0.9737892 -0.1114521 0.9737892 -0.1114521 0.0262108 0.1114521
4426000000 0.0270797 0.1128884 0.9729203 -0.1128884 0.9729203 -0.1128884 0.0270797 0.1128884
4447000000 0.0280021 0.1143433 0.9719979 -0.1143433 0.9719979 -0.1143433 0.0280021 0.1143433
4468000000 0.0289833 0.1158169 0.9710167 -0.1158169 0.9710167 -0.1158169 0.0289833 0.1158169
4489000000 0.0300293 0.1173091 0.9699707 -0.1173091 0.9699707 -0.1173091 0.0300293 0.1173091
4510000000 0.0311469 0.1188192 0.9688531 -0.1188192 0.9688531 -0.1188192 0.0311469 0.1188192
