!Murata Part Number: GRM1885C1H181JA01
!These Parameters are Measured in Series Mode Connection
!Data Generated on Mar 30, 2021
!       o--ll--o
!Port1            Port2
!       o------o
!Operation Temp=25[degC], DC Bias Voltage=0[V]
!Freq. Start=100[MHz] Stop=9[GHz] 401[Steps]
# Hz S RI R 50
!Freq.(Hz) S11(Real) S11(Imag) S21(Real) S21(Imag) S12(Real) S12(Imag) S22(Real) S22(Imag)
100000000 0.0079561 -0.0841589 0.9920439 0.0841589 0.9920439 0.0841589 0.0079561 -0.0841589
121000000 0.0055267 -0.0683818 0.9944733 0.0683818 0.9944733 0.0683818 0.0055267 -0.0683818
142000000 0.0040955 -0.0569902 0.9959045 0.0569902 0.9959045 0.0569902 0.0040955 -0.0569902
163000000 0.0031871 -0.0483147 0.9968129 0.0483147 0.9968129 0.0483147 0.0031871 -0.0483147
184000000 0.0025794 -0.0414357 0.9974206 0.0414357 0.9974206 0.0414357 0.0025794 -0.0414357
205000000 0.0021572 -0.0358059 0.9978428 0.0358059 0.9978428 0.0358059 0.0021572 -0.0358059
226000000 0.0018560 -0.0310794 0.9981440 0.0310794 0.9981440 0.0310794 0.0018560 -0.0310794
247000000 0.0016374 -0.0270269 0.9983626 0.0270269 0.9983626 0.0270269 0.0016374 -0.0270269
268000000 0.0014776 -0.0234905 0.9985224 0.0234905 0.9985224 0.0234905 0.0014776 -0.0234905
289000000 0.0013608 -0.0203579 0.9986392 0.0203579 0.9986392 0.0203579 0.0013608 -0.0203579
310000000 0.0012767 -0.0175471 0.9987233 0.0175471 0.9987233 0.0175471 0.0012767 -0.0175471
331000000 0.0012178 -0.0149966 0.9987822 0.0149966 0.9987822 0.0149966 0.0012178 -0.0149966
352000000 0.0011792 -0.0126599 0.9988208 0.0126599 0.9988208 0.0126599 0.0011792 -0.0126599
373000000 0.0011570 -0.0105004 0.9988430 0.0105004 0.9988430 0.0105004 0.0011570 -0.0105004
394000000 0.0011485 -0.0084897 0.9988515 0.0084897 0.9988515 0.0084897 0.0011485 -0.0084897
415000000 0.0011518 -0.0066048 0.9988482 0.0066048 0.9988482 0.0066048 0.0011518 -0.0066048
436000000 0.0011651 -0.0048273 0.9988349 0.0048273 0.9988349 0.0048273 0.0011651 -0.0048273
457000000 0.0011875 -0.0031419 0.9988125 0.0031419 0.9988125 0.0031419 0.0011875 -0.0031419
478000000 0.0012179 -0.0015361 0.9987821 0.0015361 0.9987821 0.0015361 0.0012179 -0.0015361
499000000 0.0012558 0.0000006 0.9987442 -0.0000006 0.9987442 -0.0000006 0.0012558 0.0000006
520000000 0.0013006 0.0014770 0.9986994 -0.0014770 0.9986994 -0.0014770 0.0013006 0.0014770
541000000 0.0013519 0.0029005 0.9986481 -0.0029005 0.9986481 -0.0029005 0.0013519 0.0029005
562000000 0.0014097 0.0042778 0.9985903 -0.0042778 0.9985903 -0.0042778 0.0014097 0.0042778
583000000 0.0014736 0.0056143 0.9985264 -0.0056143 0.9985264 -0.0056143 0.0014736 0.0056143
604000000 0.0015437 0.0069149 0.9984563 -0.0069149 0.9984563 -0.0069149 0.0015437 0.0069149
625000000 0.0016201 0.0081839 0.9983799 -0.0081839 0.9983799 -0.0081839 0.0016201 0.0081839
646000000 0.0017028 0.0094251 0.9982972 -0.0094251 0.9982972 -0.0094251 0.0017028 0.0094251
667000000 0.0017921 0.0106421 0.9982079 -0.0106421 0.9982079 -0.0106421 0.0017921 0.0106421
688000000 0.0018883 0.0118378 0.9981117 -0.0118378 0.9981117 -0.0118378 0.0018883 0.0118378
709000000 0.0019920 0.0130151 0.9980080 -0.0130151 0.9980080 -0.0130151 0.0019920 0.0130151
730000000 0.0021037 0.0141768 0.9978963 -0.0141768 0.9978963 -0.0141768 0.0021037 0.0141768
751000000 0.0022242 0.0153252 0.9977758 -0.0153252 0.9977758 -0.0153252 0.0022242 0.0153252
772000000 0.0023545 0.0164627 0.9976455 -0.0164627 0.9976455 -0.0164627 0.0023545 0.0164627
793000000 0.0024960 0.0175917 0.9975040 -0.0175917 0.9975040 -0.0175917 0.0024960 0.0175917
814000000 0.0026502 0.0187143 0.9973498 -0.0187143 0.9973498 -0.0187143 0.0026502 0.0187143
835000000 0.0028193 0.0198327 0.9971807 -0.0198327 0.9971807 -0.0198327 0.0028193 0.0198327
856000000 0.0030061 0.0209490 0.9969939 -0.0209490 0.9969939 -0.0209490 0.0030061 0.0209490
877000000 0.0032141 0.0220649 0.9967859 -0.0220649 0.9967859 -0.0220649 0.0032141 0.0220649
898000000 0.0034481 0.0231823 0.9965519 -0.0231823 0.9965519 -0.0231823 0.0034481 0.0231823
919000000 0.0037143 0.0243023 0.9962857 -0.0243023 0.9962857 -0.0243023 0.0037143 0.0243023
940000000 0.0040211 0.0254248 0.9959789 -0.0254248 0.9959789 -0.0254248 0.0040211 0.0254248
961000000 0.0043792 0.0265482 0.9956208 -0.0265482 0.9956208 -0.0265482 0.0043792 0.0265482
982000000 0.0048030 0.0276671 0.9951970 -0.0276671 0.9951970 -0.0276671 0.0048030 0.0276671
1003000000 0.0053104 0.0287700 0.9946896 -0.0287700 0.9946896 -0.0287700 0.0053104 0.0287700
1024000000 0.0059221 0.0298341 0.9940779 -0.0298341 0.9940779 -0.0298341 0.0059221 0.0298341
1045000000 0.0066572 0.0308190 0.9933428 -0.0308190 0.9933428 -0.0308190 0.0066572 0.0308190
1066000000 0.0075211 0.0316591 0.9924789 -0.0316591 0.9924789 -0.0316591 0.0075211 0.0316591
1087000000 0.0084804 0.0322630 0.9915196 -0.0322630 0.9915196 -0.0322630 0.0084804 0.0322630
1108000000 0.0094282 0.0325406 0.9905718 -0.0325406 0.9905718 -0.0325406 0.0094282 0.0325406
1129000000 0.0101742 0.0324744 0.9898258 -0.0324744 0.9898258 -0.0324744 0.0101742 0.0324744
1150000000 0.0105209 0.0321991 0.9894791 -0.0321991 0.9894791 -0.0321991 0.0105209 0.0321991
1171000000 0.0104081 0.0319739 0.9895919 -0.0319739 0.9895919 -0.0319739 0.0104081 0.0319739
1192000000 0.0099662 0.0320220 0.9900338 -0.0320220 0.9900338 -0.0320220 0.0099662 0.0320220
1213000000 0.0094038 0.0324126 0.9905962 -0.0324126 0.9905962 -0.0324126 0.0094038 0.0324126
1234000000 0.0088806 0.0330912 0.9911194 -0.0330912 0.9911194 -0.0330912 0.0088806 0.0330912
1255000000 0.0084720 0.0339645 0.9915280 -0.0339645 0.9915280 -0.0339645 0.0084720 0.0339645
1276000000 0.0081956 0.0349520 0.9918044 -0.0349520 0.9918044 -0.0349520 0.0081956 0.0349520
1297000000 0.0080421 0.0359994 0.9919579 -0.0359994 0.9919579 -0.0359994 0.0080421 0.0359994
1318000000 0.0079944 0.0370736 0.9920056 -0.0370736 0.9920056 -0.0370736 0.0079944 0.0370736
1339000000 0.0080362 0.0381559 0.9919638 -0.0381559 0.9919638 -0.0381559 0.0080362 0.0381559
1360000000 0.0081543 0.0392362 0.9918457 -0.0392362 0.9918457 -0.0392362 0.0081543 0.0392362
1381000000 0.0083392 0.0403088 0.9916608 -0.0403088 0.9916608 -0.0403088 0.0083392 0.0403088
1402000000 0.0085845 0.0413703 0.9914155 -0.0413703 0.9914155 -0.0413703 0.0085845 0.0413703
1423000000 0.0088866 0.0424186 0.9911134 -0.0424186 0.9911134 -0.0424186 0.0088866 0.0424186
1444000000 0.0092439 0.0434514 0.9907561 -0.0434514 0.9907561 -0.0434514 0.0092439 0.0434514
1465000000 0.0096563 0.0444657 0.9903437 -0.0444657 0.9903437 -0.0444657 0.0096563 0.0444657
1486000000 0.0101251 0.0454579 0.9898749 -0.0454579 0.9898749 -0.0454579 0.0101251 0.0454579
1507000000 0.0106524 0.0464226 0.9893476 -0.0464226 0.9893476 -0.0464226 0.0106524 0.0464226
1528000000 0.0112407 0.0473526 0.9887593 -0.0473526 0.9887593 -0.0473526 0.0112407 0.0473526
1549000000 0.0118921 0.0482384 0.9881079 -0.0482384 0.9881079 -0.0482384 0.0118921 0.0482384
1570000000 0.0126078 0.0490680 0.9873922 -0.0490680 0.9873922 -0.0490680 0.0126078 0.0490680
1591000000 0.0133871 0.0498262 0.9866129 -0.0498262 0.9866129 -0.0498262 0.0133871 0.0498262
1612000000 0.0142255 0.0504950 0.9857745 -0.0504950 0.9857745 -0.0504950 0.0142255 0.0504950
1633000000 0.0151135 0.0510540 0.9848865 -0.0510540 0.9848865 -0.0510540 0.0151135 0.0510540
1654000000 0.0160344 0.0514821 0.9839656 -0.0514821 0.9839656 -0.0514821 0.0160344 0.0514821
1675000000 0.0169628 0.0517595 0.9830372 -0.0517595 0.9830372 -0.0517595 0.0169628 0.0517595
1696000000 0.0178638 0.0518720 0.9821362 -0.0518720 0.9821362 -0.0518720 0.0178638 0.0518720
1717000000 0.0186939 0.0518155 0.9813061 -0.0518155 0.9813061 -0.0518155 0.0186939 0.0518155
1738000000 0.0194050 0.0516009 0.9805950 -0.0516009 0.9805950 -0.0516009 0.0194050 0.0516009
1759000000 0.0199507 0.0512569 0.9800493 -0.0512569 0.9800493 -0.0512569 0.0199507 0.0512569
1780000000 0.0202949 0.0508298 0.9797051 -0.0508298 0.9797051 -0.0508298 0.0202949 0.0508298
1801000000 0.0204191 0.0503777 0.9795809 -0.0503777 0.9795809 -0.0503777 0.0204191 0.0503777
1822000000 0.0203269 0.0499620 0.9796731 -0.0499620 0.9796731 -0.0499620 0.0203269 0.0499620
1843000000 0.0200431 0.0496376 0.9799569 -0.0496376 0.9799569 -0.0496376 0.0200431 0.0496376
1864000000 0.0196074 0.0494447 0.9803926 -0.0494447 0.9803926 -0.0494447 0.0196074 0.0494447
1885000000 0.0190669 0.0494058 0.9809331 -0.0494058 0.9809331 -0.0494058 0.0190669 0.0494058
1906000000 0.0184678 0.0495262 0.9815322 -0.0495262 0.9815322 -0.0495262 0.0184678 0.0495262
1927000000 0.0178498 0.0497981 0.9821502 -0.0497981 0.9821502 -0.0497981 0.0178498 0.0497981
1948000000 0.0172440 0.0502053 0.9827560 -0.0502053 0.9827560 -0.0502053 0.0172440 0.0502053
1969000000 0.0166721 0.0507276 0.9833279 -0.0507276 0.9833279 -0.0507276 0.0166721 0.0507276
1990000000 0.0161475 0.0513439 0.9838525 -0.0513439 0.9838525 -0.0513439 0.0161475 0.0513439
2011000000 0.0156774 0.0520348 0.9843226 -0.0520348 0.9843226 -0.0520348 0.0156774 0.0520348
2032000000 0.0152642 0.0527830 0.9847358 -0.0527830 0.9847358 -0.0527830 0.0152642 0.0527830
2053000000 0.0149072 0.0535742 0.9850928 -0.0535742 0.9850928 -0.0535742 0.0149072 0.0535742
2074000000 0.0146037 0.0543967 0.9853963 -0.0543967 0.9853963 -0.0543967 0.0146037 0.0543967
2095000000 0.0143500 0.0552412 0.9856500 -0.0552412 0.9856500 -0.0552412 0.0143500 0.0552412
2116000000 0.0141420 0.0561003 0.9858580 -0.0561003 0.9858580 -0.0561003 0.0141420 0.0561003
2137000000 0.0139755 0.0569687 0.9860245 -0.0569687 0.9860245 -0.0569687 0.0139755 0.0569687
2158000000 0.0138462 0.0578420 0.9861538 -0.0578420 0.9861538 -0.0578420 0.0138462 0.0578420
2179000000 0.0137503 0.0587172 0.9862497 -0.0587172 0.9862497 -0.0587172 0.0137503 0.0587172
2200000000 0.0136843 0.0595919 0.9863157 -0.0595919 0.9863157 -0.0595919 0.0136843 0.0595919
2221000000 0.0136450 0.0604645 0.9863550 -0.0604645 0.9863550 -0.0604645 0.0136450 0.0604645
2242000000 0.0136295 0.0613337 0.9863705 -0.0613337 0.9863705 -0.0613337 0.0136295 0.0613337
2263000000 0.0136354 0.0621987 0.9863646 -0.0621987 0.9863646 -0.0621987 0.0136354 0.0621987
2284000000 0.0136602 0.0630591 0.9863398 -0.0630591 0.9863398 -0.0630591 0.0136602 0.0630591
2305000000 0.0137022 0.0639144 0.9862978 -0.0639144 0.9862978 -0.0639144 0.0137022 0.0639144
2326000000 0.0137596 0.0647645 0.9862404 -0.0647645 0.9862404 -0.0647645 0.0137596 0.0647645
2347000000 0.0138308 0.0656094 0.9861692 -0.0656094 0.9861692 -0.0656094 0.0138308 0.0656094
2368000000 0.0139145 0.0664490 0.9860855 -0.0664490 0.9860855 -0.0664490 0.0139145 0.0664490
2389000000 0.0140096 0.0672835 0.9859904 -0.0672835 0.9859904 -0.0672835 0.0140096 0.0672835
2410000000 0.0141150 0.0681131 0.9858850 -0.0681131 0.9858850 -0.0681131 0.0141150 0.0681131
2431000000 0.0142298 0.0689378 0.9857702 -0.0689378 0.9857702 -0.0689378 0.0142298 0.0689378
2452000000 0.0143533 0.0697578 0.9856467 -0.0697578 0.9856467 -0.0697578 0.0143533 0.0697578
2473000000 0.0144846 0.0705734 0.9855154 -0.0705734 0.9855154 -0.0705734 0.0144846 0.0705734
2494000000 0.0146232 0.0713848 0.9853768 -0.0713848 0.9853768 -0.0713848 0.0146232 0.0713848
2515000000 0.0147685 0.0721922 0.9852315 -0.0721922 0.9852315 -0.0721922 0.0147685 0.0721922
2536000000 0.0149201 0.0729958 0.9850799 -0.0729958 0.9850799 -0.0729958 0.0149201 0.0729958
2557000000 0.0150774 0.0737957 0.9849226 -0.0737957 0.9849226 -0.0737957 0.0150774 0.0737957
2578000000 0.0152402 0.0745923 0.9847598 -0.0745923 0.9847598 -0.0745923 0.0152402 0.0745923
2599000000 0.0154080 0.0753856 0.9845920 -0.0753856 0.9845920 -0.0753856 0.0154080 0.0753856
2620000000 0.0155805 0.0761759 0.9844195 -0.0761759 0.9844195 -0.0761759 0.0155805 0.0761759
2641000000 0.0157575 0.0769633 0.9842425 -0.0769633 0.9842425 -0.0769633 0.0157575 0.0769633
2662000000 0.0159386 0.0777481 0.9840614 -0.0777481 0.9840614 -0.0777481 0.0159386 0.0777481
2683000000 0.0161238 0.0785304 0.9838762 -0.0785304 0.9838762 -0.0785304 0.0161238 0.0785304
2704000000 0.0163127 0.0793104 0.9836873 -0.0793104 0.9836873 -0.0793104 0.0163127 0.0793104
2725000000 0.0165052 0.0800882 0.9834948 -0.0800882 0.9834948 -0.0800882 0.0165052 0.0800882
2746000000 0.0167011 0.0808639 0.9832989 -0.0808639 0.9832989 -0.0808639 0.0167011 0.0808639
2767000000 0.0169003 0.0816378 0.9830997 -0.0816378 0.9830997 -0.0816378 0.0169003 0.0816378
2788000000 0.0171026 0.0824099 0.9828974 -0.0824099 0.9828974 -0.0824099 0.0171026 0.0824099
2809000000 0.0173079 0.0831804 0.9826921 -0.0831804 0.9826921 -0.0831804 0.0173079 0.0831804
2830000000 0.0175162 0.0839493 0.9824838 -0.0839493 0.9824838 -0.0839493 0.0175162 0.0839493
2851000000 0.0177272 0.0847169 0.9822728 -0.0847169 0.9822728 -0.0847169 0.0177272 0.0847169
2872000000 0.0179409 0.0854833 0.9820591 -0.0854833 0.9820591 -0.0854833 0.0179409 0.0854833
2893000000 0.0181572 0.0862485 0.9818428 -0.0862485 0.9818428 -0.0862485 0.0181572 0.0862485
2914000000 0.0183761 0.0870127 0.9816239 -0.0870127 0.9816239 -0.0870127 0.0183761 0.0870127
2935000000 0.0185975 0.0877759 0.9814025 -0.0877759 0.9814025 -0.0877759 0.0185975 0.0877759
2956000000 0.0188212 0.0885383 0.9811788 -0.0885383 0.9811788 -0.0885383 0.0188212 0.0885383
2977000000 0.0190474 0.0892999 0.9809526 -0.0892999 0.9809526 -0.0892999 0.0190474 0.0892999
2998000000 0.0192758 0.0900609 0.9807242 -0.0900609 0.9807242 -0.0900609 0.0192758 0.0900609
3019000000 0.0195064 0.0908213 0.9804936 -0.0908213 0.9804936 -0.0908213 0.0195064 0.0908213
3040000000 0.0197393 0.0915813 0.9802607 -0.0915813 0.9802607 -0.0915813 0.0197393 0.0915813
3061000000 0.0199744 0.0923408 0.9800256 -0.0923408 0.9800256 -0.0923408 0.0199744 0.0923408
3082000000 0.0202116 0.0931001 0.9797884 -0.0931001 0.9797884 -0.0931001 0.0202116 0.0931001
3103000000 0.0204508 0.0938591 0.9795492 -0.0938591 0.9795492 -0.0938591 0.0204508 0.0938591
3124000000 0.0206922 0.0946180 0.9793078 -0.0946180 0.9793078 -0.0946180 0.0206922 0.0946180
3145000000 0.0209356 0.0953768 0.9790644 -0.0953768 0.9790644 -0.0953768 0.0209356 0.0953768
3166000000 0.0211811 0.0961356 0.9788189 -0.0961356 0.9788189 -0.0961356 0.0211811 0.0961356
3187000000 0.0214285 0.0968944 0.9785715 -0.0968944 0.9785715 -0.0968944 0.0214285 0.0968944
3208000000 0.0216779 0.0976534 0.9783221 -0.0976534 0.9783221 -0.0976534 0.0216779 0.0976534
3229000000 0.0219293 0.0984126 0.9780707 -0.0984126 0.9780707 -0.0984126 0.0219293 0.0984126
3250000000 0.0221826 0.0991721 0.9778174 -0.0991721 0.9778174 -0.0991721 0.0221826 0.0991721
3271000000 0.0224379 0.0999319 0.9775621 -0.0999319 0.9775621 -0.0999319 0.0224379 0.0999319
3292000000 0.0226952 0.1006921 0.9773048 -0.1006921 0.9773048 -0.1006921 0.0226952 0.1006921
3313000000 0.0229543 0.1014527 0.9770457 -0.1014527 0.9770457 -0.1014527 0.0229543 0.1014527
3334000000 0.0232153 0.1022139 0.9767847 -0.1022139 0.9767847 -0.1022139 0.0232153 0.1022139
3355000000 0.0234783 0.1029757 0.9765217 -0.1029757 0.9765217 -0.1029757 0.0234783 0.1029757
3376000000 0.0237432 0.1037381 0.9762568 -0.1037381 0.9762568 -0.1037381 0.0237432 0.1037381
3397000000 0.0240100 0.1045012 0.9759900 -0.1045012 0.9759900 -0.1045012 0.0240100 0.1045012
3418000000 0.0242786 0.1052651 0.9757214 -0.1052651 0.9757214 -0.1052651 0.0242786 0.1052651
3439000000 0.0245492 0.1060298 0.9754508 -0.1060298 0.9754508 -0.1060298 0.0245492 0.1060298
3460000000 0.0248217 0.1067954 0.9751783 -0.1067954 0.9751783 -0.1067954 0.0248217 0.1067954
3481000000 0.0250961 0.1075619 0.9749039 -0.1075619 0.9749039 -0.1075619 0.0250961 0.1075619
3502000000 0.0253724 0.1083293 0.9746276 -0.1083293 0.9746276 -0.1083293 0.0253724 0.1083293
3523000000 0.0256506 0.1090979 0.9743494 -0.1090979 0.9743494 -0.1090979 0.0256506 0.1090979
3544000000 0.0259307 0.1098675 0.9740693 -0.1098675 0.9740693 -0.1098675 0.0259307 0.1098675
3565000000 0.0262128 0.1106383 0.9737872 -0.1106383 0.9737872 -0.1106383 0.0262128 0.1106383
3586000000 0.0264967 0.1114102 0.9735033 -0.1114102 0.9735033 -0.1114102 0.0264967 0.1114102
3607000000 0.0267827 0.1121835 0.9732173 -0.1121835 0.9732173 -0.1121835 0.0267827 0.1121835
3628000000 0.0270705 0.1129580 0.9729295 -0.1129580 0.9729295 -0.1129580 0.0270705 0.1129580
3649000000 0.0273604 0.1137339 0.9726396 -0.1137339 0.9726396 -0.1137339 0.0273604 0.1137339
3670000000 0.0276522 0.1145112 0.9723478 -0.1145112 0.9723478 -0.1145112 0.0276522 0.1145112
3691000000 0.0279459 0.1152900 0.9720541 -0.1152900 0.9720541 -0.1152900 0.0279459 0.1152900
3712000000 0.0282417 0.1160703 0.9717583 -0.1160703 0.9717583 -0.1160703 0.0282417 0.1160703
3733000000 0.0285395 0.1168521 0.9714605 -0.1168521 0.9714605 -0.1168521 0.0285395 0.1168521
3754000000 0.0288393 0.1176356 0.9711607 -0.1176356 0.9711607 -0.1176356 0.0288393 0.1176356
3775000000 0.0291412 0.1184208 0.9708588 -0.1184208 0.9708588 -0.1184208 0.0291412 0.1184208
3796000000 0.0294451 0.1192076 0.9705549 -0.1192076 0.9705549 -0.1192076 0.0294451 0.1192076
3817000000 0.0297511 0.1199963 0.9702489 -0.1199963 0.9702489 -0.1199963 0.0297511 0.1199963
3838000000 0.0300591 0.1207868 0.9699409 -0.1207868 0.9699409 -0.1207868 0.0300591 0.1207868
3859000000 0.0303693 0.1215791 0.9696307 -0.1215791 0.9696307 -0.1215791 0.0303693 0.1215791
3880000000 0.0306816 0.1223734 0.9693184 -0.1223734 0.9693184 -0.1223734 0.0306816 0.1223734
3901000000 0.0309961 0.1231697 0.9690039 -0.1231697 0.9690039 -0.1231697 0.0309961 0.1231697
3922000000 0.0313127 0.1239679 0.9686873 -0.1239679 0.9686873 -0.1239679 0.0313127 0.1239679
3943000000 0.0316316 0.1247683 0.9683684 -0.1247683 0.9683684 -0.1247683 0.0316316 0.1247683
3964000000 0.0319526 0.1255708 0.9680474 -0.1255708 0.9680474 -0.1255708 0.0319526 0.1255708
3985000000 0.0322759 0.1263755 0.9677241 -0.1263755 0.9677241 -0.1263755 0.0322759 0.1263755
4006000000 0.0326014 0.1271824 0.9673986 -0.1271824 0.9673986 -0.1271824 0.0326014 0.1271824
4027000000 0.0329293 0.1279916 0.9670707 -0.1279916 0.9670707 -0.1279916 0.0329293 0.1279916
4048000000 0.0332594 0.1288031 0.9667406 -0.1288031 0.9667406 -0.1288031 0.0332594 0.1288031
4069000000 0.0335919 0.1296171 0.9664081 -0.1296171 0.9664081 -0.1296171 0.0335919 0.1296171
4090000000 0.0339268 0.1304334 0.9660732 -0.1304334 0.9660732 -0.1304334 0.0339268 0.1304334
4111000000 0.0342641 0.1312523 0.9657359 -0.1312523 0.9657359 -0.1312523 0.0342641 0.1312523
4132000000 0.0346038 0.1320737 0.9653962 -0.1320737 0.9653962 -0.1320737 0.0346038 0.1320737
4153000000 0.0349459 0.1328977 0.9650541 -0.1328977 0.9650541 -0.1328977 0.0349459 0.1328977
4174000000 0.0352906 0.1337244 0.9647094 -0.1337244 0.9647094 -0.1337244 0.0352906 0.1337244
4195000000 0.0356377 0.1345537 0.9643623 -0.1345537 0.9643623 -0.1345537 0.0356377 0.1345537
4216000000 0.0359875 0.1353858 0.9640125 -0.1353858 0.9640125 -0.1353858 0.0359875 0.1353858
4237000000 0.0363398 0.1362208 0.9636602 -0.1362208 0.9636602 -0.1362208 0.0363398 0.1362208
4258000000 0.0366947 0.1370585 0.9633053 -0.1370585 0.9633053 -0.1370585 0.0366947 0.1370585
4279000000 0.0370523 0.1378992 0.9629477 -0.1378992 0.9629477 -0.1378992 0.0370523 0.1378992
4300000000 0.0374126 0.1387429 0.9625874 -0.1387429 0.9625874 -0.1387429 0.0374126 0.1387429
4321000000 0.0377757 0.1395896 0.9622243 -0.1395896 0.9622243 -0.1395896 0.0377757 0.1395896
4342000000 0.0381415 0.1404394 0.9618585 -0.1404394 0.9618585 -0.1404394 0.0381415 0.1404394
4363000000 0.0385101 0.1412923 0.9614899 -0.1412923 0.9614899 -0.1412923 0.0385101 0.1412923
4384000000 0.0388816 0.1421484 0.9611184 -0.1421484 0.9611184 -0.1421484 0.0388816 0.1421484
4405000000 0.0392559 0.1430078 0.9607441 -0.1430078 0.9607441 -0.1430078 0.0392559 0.1430078
4426000000 0.0396332 0.1438704 0.9603668 -0.1438704 0.9603668 -0.1438704 0.0396332 0.1438704
4447000000 0.0400135 0.1447364 0.9599865 -0.1447364 0.9599865 -0.1447364 0.0400135 0.1447364
4468000000 0.0403968 0.1456059 0.9596032 -0.1456059 0.9596032 -0.1456059 0.0403968 0.1456059
4489000000 0.0407832 0.1464788 0.9592168 -0.1464788 0.9592168 -0.1464788 0.0407832 0.1464788
4510000000 0.0411727 0.1473552 0.9588273 -0.1473552 0.9588273 -0.1473552 0.0411727 0.1473552
