!Murata Part Number: GRM1883C2A2R1BA01
!These Parameters are Measured in Series Mode Connection
!Data Generated on Mar 30, 2021
!       o--ll--o
!Port1            Port2
!       o------o
!Operation Temp=25[degC], DC Bias Voltage=0[V]
!Freq. Start=100[MHz] Stop=9[GHz] 401[Steps]
# Hz S RI R 50
!Freq.(Hz) S11(Real) S11(Imag) S21(Real) S21(Imag) S12(Real) S12(Imag) S22(Real) S22(Imag)
100000000 0.9828388 -0.1297470 0.0171612 0.1297470 0.0171612 0.1297470 0.9828388 -0.1297470
121000000 0.9750586 -0.1557853 0.0249414 0.1557853 0.0249414 0.1557853 0.9750586 -0.1557853
142000000 0.9659482 -0.1811601 0.0340518 0.1811601 0.0340518 0.1811601 0.9659482 -0.1811601
163000000 0.9555805 -0.2057779 0.0444195 0.2057779 0.0444195 0.2057779 0.9555805 -0.2057779
184000000 0.9440362 -0.2295548 0.0559638 0.2295548 0.0559638 0.2295548 0.9440362 -0.2295548
205000000 0.9314029 -0.2524176 0.0685971 0.2524176 0.0685971 0.2524176 0.9314029 -0.2524176
226000000 0.9177730 -0.2743036 0.0822270 0.2743036 0.0822270 0.2743036 0.9177730 -0.2743036
247000000 0.9032423 -0.2951614 0.0967577 0.2951614 0.0967577 0.2951614 0.9032423 -0.2951614
268000000 0.8879085 -0.3149509 0.1120915 0.3149509 0.1120915 0.3149509 0.8879085 -0.3149509
289000000 0.8718699 -0.3336426 0.1281301 0.3336426 0.1281301 0.3336426 0.8718699 -0.3336426
310000000 0.8552237 -0.3512175 0.1447763 0.3512175 0.1447763 0.3512175 0.8552237 -0.3512175
331000000 0.8380651 -0.3676664 0.1619349 0.3676664 0.1619349 0.3676664 0.8380651 -0.3676664
352000000 0.8204862 -0.3829891 0.1795138 0.3829891 0.1795138 0.3829891 0.8204862 -0.3829891
373000000 0.8025754 -0.3971935 0.1974246 0.3971935 0.1974246 0.3971935 0.8025754 -0.3971935
394000000 0.7844162 -0.4102949 0.2155838 0.4102949 0.2155838 0.4102949 0.7844162 -0.4102949
415000000 0.7660872 -0.4223151 0.2339128 0.4223151 0.2339128 0.4223151 0.7660872 -0.4223151
436000000 0.7476614 -0.4332812 0.2523386 0.4332812 0.2523386 0.4332812 0.7476614 -0.4332812
457000000 0.7292063 -0.4432251 0.2707937 0.4432251 0.2707937 0.4432251 0.7292063 -0.4432251
478000000 0.7107833 -0.4521824 0.2892167 0.4521824 0.2892167 0.4521824 0.7107833 -0.4521824
499000000 0.6924483 -0.4601916 0.3075517 0.4601916 0.3075517 0.4601916 0.6924483 -0.4601916
520000000 0.6742512 -0.4672935 0.3257488 0.4672935 0.3257488 0.4672935 0.6742512 -0.4672935
541000000 0.6562367 -0.4735305 0.3437633 0.4735305 0.3437633 0.4735305 0.6562367 -0.4735305
562000000 0.6384438 -0.4789458 0.3615562 0.4789458 0.3615562 0.4789458 0.6384438 -0.4789458
583000000 0.6209066 -0.4835834 0.3790934 0.4835834 0.3790934 0.4835834 0.6209066 -0.4835834
604000000 0.6036544 -0.4874868 0.3963456 0.4874868 0.3963456 0.4874868 0.6036544 -0.4874868
625000000 0.5867122 -0.4906996 0.4132878 0.4906996 0.4132878 0.4906996 0.5867122 -0.4906996
646000000 0.5701008 -0.4932644 0.4298992 0.4932644 0.4298992 0.4932644 0.5701008 -0.4932644
667000000 0.5538370 -0.4952227 0.4461630 0.4952227 0.4461630 0.4952227 0.5538370 -0.4952227
688000000 0.5379344 -0.4966149 0.4620656 0.4966149 0.4620656 0.4966149 0.5379344 -0.4966149
709000000 0.5224035 -0.4974802 0.4775965 0.4974802 0.4775965 0.4974802 0.5224035 -0.4974802
730000000 0.5072518 -0.4978559 0.4927482 0.4978559 0.4927482 0.4978559 0.5072518 -0.4978559
751000000 0.4924845 -0.4977779 0.5075155 0.4977779 0.5075155 0.4977779 0.4924845 -0.4977779
772000000 0.4781044 -0.4972805 0.5218956 0.4972805 0.5218956 0.4972805 0.4781044 -0.4972805
793000000 0.4641124 -0.4963961 0.5358876 0.4963961 0.5358876 0.4963961 0.4641124 -0.4963961
814000000 0.4505076 -0.4951554 0.5494924 0.4951554 0.5494924 0.4951554 0.4505076 -0.4951554
835000000 0.4372878 -0.4935876 0.5627122 0.4935876 0.5627122 0.4935876 0.4372878 -0.4935876
856000000 0.4244493 -0.4917199 0.5755507 0.4917199 0.5755507 0.4917199 0.4244493 -0.4917199
877000000 0.4119874 -0.4895780 0.5880126 0.4895780 0.5880126 0.4895780 0.4119874 -0.4895780
898000000 0.3998964 -0.4871862 0.6001036 0.4871862 0.6001036 0.4871862 0.3998964 -0.4871862
919000000 0.3881699 -0.4845668 0.6118301 0.4845668 0.6118301 0.4845668 0.3881699 -0.4845668
940000000 0.3768008 -0.4817411 0.6231992 0.4817411 0.6231992 0.4817411 0.3768008 -0.4817411
961000000 0.3657815 -0.4787286 0.6342185 0.4787286 0.6342185 0.4787286 0.3657815 -0.4787286
982000000 0.3551039 -0.4755476 0.6448961 0.4755476 0.6448961 0.4755476 0.3551039 -0.4755476
1003000000 0.3447598 -0.4722152 0.6552402 0.4722152 0.6552402 0.4722152 0.3447598 -0.4722152
1024000000 0.3347405 -0.4687470 0.6652595 0.4687470 0.6652595 0.4687470 0.3347405 -0.4687470
1045000000 0.3250373 -0.4651578 0.6749627 0.4651578 0.6749627 0.4651578 0.3250373 -0.4651578
1066000000 0.3156414 -0.4614611 0.6843586 0.4614611 0.6843586 0.4614611 0.3156414 -0.4614611
1087000000 0.3065439 -0.4576693 0.6934561 0.4576693 0.6934561 0.4576693 0.3065439 -0.4576693
1108000000 0.2977360 -0.4537942 0.7022640 0.4537942 0.7022640 0.4537942 0.2977360 -0.4537942
1129000000 0.2892087 -0.4498462 0.7107913 0.4498462 0.7107913 0.4498462 0.2892087 -0.4498462
1150000000 0.2809535 -0.4458354 0.7190465 0.4458354 0.7190465 0.4458354 0.2809535 -0.4458354
1171000000 0.2729616 -0.4417707 0.7270384 0.4417707 0.7270384 0.4417707 0.2729616 -0.4417707
1192000000 0.2652247 -0.4376605 0.7347753 0.4376605 0.7347753 0.4376605 0.2652247 -0.4376605
1213000000 0.2577343 -0.4335125 0.7422657 0.4335125 0.7422657 0.4335125 0.2577343 -0.4335125
1234000000 0.2504823 -0.4293335 0.7495177 0.4293335 0.7495177 0.4293335 0.2504823 -0.4293335
1255000000 0.2434608 -0.4251302 0.7565392 0.4251302 0.7565392 0.4251302 0.2434608 -0.4251302
1276000000 0.2366619 -0.4209084 0.7633381 0.4209084 0.7633381 0.4209084 0.2366619 -0.4209084
1297000000 0.2300782 -0.4166735 0.7699218 0.4166735 0.7699218 0.4166735 0.2300782 -0.4166735
1318000000 0.2237022 -0.4124304 0.7762978 0.4124304 0.7762978 0.4124304 0.2237022 -0.4124304
1339000000 0.2175269 -0.4081836 0.7824731 0.4081836 0.7824731 0.4081836 0.2175269 -0.4081836
1360000000 0.2115452 -0.4039372 0.7884548 0.4039372 0.7884548 0.4039372 0.2115452 -0.4039372
1381000000 0.2057506 -0.3996949 0.7942494 0.3996949 0.7942494 0.3996949 0.2057506 -0.3996949
1402000000 0.2001364 -0.3954601 0.7998636 0.3954601 0.7998636 0.3954601 0.2001364 -0.3954601
1423000000 0.1946964 -0.3912360 0.8053036 0.3912360 0.8053036 0.3912360 0.1946964 -0.3912360
1444000000 0.1894245 -0.3870252 0.8105755 0.3870252 0.8105755 0.3870252 0.1894245 -0.3870252
1465000000 0.1843148 -0.3828303 0.8156852 0.3828303 0.8156852 0.3828303 0.1843148 -0.3828303
1486000000 0.1793618 -0.3786535 0.8206382 0.3786535 0.8206382 0.3786535 0.1793618 -0.3786535
1507000000 0.1745599 -0.3744968 0.8254401 0.3744968 0.8254401 0.3744968 0.1745599 -0.3744968
1528000000 0.1699038 -0.3703622 0.8300962 0.3703622 0.8300962 0.3703622 0.1699038 -0.3703622
1549000000 0.1653885 -0.3662512 0.8346115 0.3662512 0.8346115 0.3662512 0.1653885 -0.3662512
1570000000 0.1610091 -0.3621653 0.8389909 0.3621653 0.8389909 0.3621653 0.1610091 -0.3621653
1591000000 0.1567608 -0.3581057 0.8432392 0.3581057 0.8432392 0.3581057 0.1567608 -0.3581057
1612000000 0.1526391 -0.3540736 0.8473609 0.3540736 0.8473609 0.3540736 0.1526391 -0.3540736
1633000000 0.1486397 -0.3500701 0.8513603 0.3500701 0.8513603 0.3500701 0.1486397 -0.3500701
1654000000 0.1447583 -0.3460959 0.8552417 0.3460959 0.8552417 0.3460959 0.1447583 -0.3460959
1675000000 0.1409908 -0.3421518 0.8590092 0.3421518 0.8590092 0.3421518 0.1409908 -0.3421518
1696000000 0.1373335 -0.3382385 0.8626665 0.3382385 0.8626665 0.3382385 0.1373335 -0.3382385
1717000000 0.1337824 -0.3343566 0.8662176 0.3343566 0.8662176 0.3343566 0.1337824 -0.3343566
1738000000 0.1303340 -0.3305064 0.8696660 0.3305064 0.8696660 0.3305064 0.1303340 -0.3305064
1759000000 0.1269849 -0.3266884 0.8730151 0.3266884 0.8730151 0.3266884 0.1269849 -0.3266884
1780000000 0.1237317 -0.3229029 0.8762683 0.3229029 0.8762683 0.3229029 0.1237317 -0.3229029
1801000000 0.1205711 -0.3191501 0.8794289 0.3191501 0.8794289 0.3191501 0.1205711 -0.3191501
1822000000 0.1175000 -0.3154302 0.8825000 0.3154302 0.8825000 0.3154302 0.1175000 -0.3154302
1843000000 0.1145156 -0.3117433 0.8854844 0.3117433 0.8854844 0.3117433 0.1145156 -0.3117433
1864000000 0.1116149 -0.3080895 0.8883851 0.3080895 0.8883851 0.3080895 0.1116149 -0.3080895
1885000000 0.1087951 -0.3044687 0.8912049 0.3044687 0.8912049 0.3044687 0.1087951 -0.3044687
1906000000 0.1060537 -0.3008810 0.8939463 0.3008810 0.8939463 0.3008810 0.1060537 -0.3008810
1927000000 0.1033880 -0.2973263 0.8966120 0.2973263 0.8966120 0.2973263 0.1033880 -0.2973263
1948000000 0.1007956 -0.2938045 0.8992044 0.2938045 0.8992044 0.2938045 0.1007956 -0.2938045
1969000000 0.0982742 -0.2903154 0.9017258 0.2903154 0.9017258 0.2903154 0.0982742 -0.2903154
1990000000 0.0958214 -0.2868590 0.9041786 0.2868590 0.9041786 0.2868590 0.0958214 -0.2868590
2011000000 0.0934351 -0.2834349 0.9065649 0.2834349 0.9065649 0.2834349 0.0934351 -0.2834349
2032000000 0.0911131 -0.2800430 0.9088869 0.2800430 0.9088869 0.2800430 0.0911131 -0.2800430
2053000000 0.0888535 -0.2766831 0.9111465 0.2766831 0.9111465 0.2766831 0.0888535 -0.2766831
2074000000 0.0866542 -0.2733550 0.9133458 0.2733550 0.9133458 0.2733550 0.0866542 -0.2733550
2095000000 0.0845135 -0.2700582 0.9154865 0.2700582 0.9154865 0.2700582 0.0845135 -0.2700582
2116000000 0.0824294 -0.2667927 0.9175706 0.2667927 0.9175706 0.2667927 0.0824294 -0.2667927
2137000000 0.0804003 -0.2635580 0.9195997 0.2635580 0.9195997 0.2635580 0.0804003 -0.2635580
2158000000 0.0784244 -0.2603538 0.9215756 0.2603538 0.9215756 0.2603538 0.0784244 -0.2603538
2179000000 0.0765001 -0.2571799 0.9234999 0.2571799 0.9234999 0.2571799 0.0765001 -0.2571799
2200000000 0.0746260 -0.2540359 0.9253740 0.2540359 0.9253740 0.2540359 0.0746260 -0.2540359
2221000000 0.0728003 -0.2509215 0.9271997 0.2509215 0.9271997 0.2509215 0.0728003 -0.2509215
2242000000 0.0710218 -0.2478364 0.9289782 0.2478364 0.9289782 0.2478364 0.0710218 -0.2478364
2263000000 0.0692890 -0.2447802 0.9307110 0.2447802 0.9307110 0.2447802 0.0692890 -0.2447802
2284000000 0.0676006 -0.2417525 0.9323994 0.2417525 0.9323994 0.2417525 0.0676006 -0.2417525
2305000000 0.0659553 -0.2387530 0.9340447 0.2387530 0.9340447 0.2387530 0.0659553 -0.2387530
2326000000 0.0643517 -0.2357813 0.9356483 0.2357813 0.9356483 0.2357813 0.0643517 -0.2357813
2347000000 0.0627888 -0.2328371 0.9372112 0.2328371 0.9372112 0.2328371 0.0627888 -0.2328371
2368000000 0.0612653 -0.2299201 0.9387347 0.2299201 0.9387347 0.2299201 0.0612653 -0.2299201
2389000000 0.0597801 -0.2270298 0.9402199 0.2270298 0.9402199 0.2270298 0.0597801 -0.2270298
2410000000 0.0583321 -0.2241660 0.9416679 0.2241660 0.9416679 0.2241660 0.0583321 -0.2241660
2431000000 0.0569203 -0.2213281 0.9430797 0.2213281 0.9430797 0.2213281 0.0569203 -0.2213281
2452000000 0.0555437 -0.2185160 0.9444563 0.2185160 0.9444563 0.2185160 0.0555437 -0.2185160
2473000000 0.0542012 -0.2157292 0.9457988 0.2157292 0.9457988 0.2157292 0.0542012 -0.2157292
2494000000 0.0528920 -0.2129674 0.9471080 0.2129674 0.9471080 0.2129674 0.0528920 -0.2129674
2515000000 0.0516151 -0.2102302 0.9483849 0.2102302 0.9483849 0.2102302 0.0516151 -0.2102302
2536000000 0.0503697 -0.2075173 0.9496303 0.2075173 0.9496303 0.2075173 0.0503697 -0.2075173
2557000000 0.0491548 -0.2048283 0.9508452 0.2048283 0.9508452 0.2048283 0.0491548 -0.2048283
2578000000 0.0479697 -0.2021629 0.9520303 0.2021629 0.9520303 0.2021629 0.0479697 -0.2021629
2599000000 0.0468136 -0.1995206 0.9531864 0.1995206 0.9531864 0.1995206 0.0468136 -0.1995206
2620000000 0.0456857 -0.1969013 0.9543143 0.1969013 0.9543143 0.1969013 0.0456857 -0.1969013
2641000000 0.0445853 -0.1943046 0.9554147 0.1943046 0.9554147 0.1943046 0.0445853 -0.1943046
2662000000 0.0435116 -0.1917300 0.9564884 0.1917300 0.9564884 0.1917300 0.0435116 -0.1917300
2683000000 0.0424639 -0.1891774 0.9575361 0.1891774 0.9575361 0.1891774 0.0424639 -0.1891774
2704000000 0.0414417 -0.1866462 0.9585583 0.1866462 0.9585583 0.1866462 0.0414417 -0.1866462
2725000000 0.0404441 -0.1841364 0.9595559 0.1841364 0.9595559 0.1841364 0.0404441 -0.1841364
2746000000 0.0394707 -0.1816474 0.9605293 0.1816474 0.9605293 0.1816474 0.0394707 -0.1816474
2767000000 0.0385208 -0.1791791 0.9614792 0.1791791 0.9614792 0.1791791 0.0385208 -0.1791791
2788000000 0.0375937 -0.1767310 0.9624063 0.1767310 0.9624063 0.1767310 0.0375937 -0.1767310
2809000000 0.0366890 -0.1743029 0.9633110 0.1743029 0.9633110 0.1743029 0.0366890 -0.1743029
2830000000 0.0358061 -0.1718945 0.9641939 0.1718945 0.9641939 0.1718945 0.0358061 -0.1718945
2851000000 0.0349444 -0.1695054 0.9650556 0.1695054 0.9650556 0.1695054 0.0349444 -0.1695054
2872000000 0.0341035 -0.1671355 0.9658965 0.1671355 0.9658965 0.1671355 0.0341035 -0.1671355
2893000000 0.0332828 -0.1647843 0.9667172 0.1647843 0.9667172 0.1647843 0.0332828 -0.1647843
2914000000 0.0324818 -0.1624516 0.9675182 0.1624516 0.9675182 0.1624516 0.0324818 -0.1624516
2935000000 0.0317001 -0.1601371 0.9682999 0.1601371 0.9682999 0.1601371 0.0317001 -0.1601371
2956000000 0.0309372 -0.1578406 0.9690628 0.1578406 0.9690628 0.1578406 0.0309372 -0.1578406
2977000000 0.0301927 -0.1555617 0.9698073 0.1555617 0.9698073 0.1555617 0.0301927 -0.1555617
2998000000 0.0294662 -0.1533003 0.9705338 0.1533003 0.9705338 0.1533003 0.0294662 -0.1533003
3019000000 0.0287572 -0.1510559 0.9712428 0.1510559 0.9712428 0.1510559 0.0287572 -0.1510559
3040000000 0.0280653 -0.1488284 0.9719347 0.1488284 0.9719347 0.1488284 0.0280653 -0.1488284
3061000000 0.0273902 -0.1466175 0.9726098 0.1466175 0.9726098 0.1466175 0.0273902 -0.1466175
3082000000 0.0267314 -0.1444230 0.9732686 0.1444230 0.9732686 0.1444230 0.0267314 -0.1444230
3103000000 0.0260886 -0.1422445 0.9739114 0.1422445 0.9739114 0.1422445 0.0260886 -0.1422445
3124000000 0.0254615 -0.1400819 0.9745385 0.1400819 0.9745385 0.1400819 0.0254615 -0.1400819
3145000000 0.0248497 -0.1379349 0.9751503 0.1379349 0.9751503 0.1379349 0.0248497 -0.1379349
3166000000 0.0242528 -0.1358032 0.9757472 0.1358032 0.9757472 0.1358032 0.0242528 -0.1358032
3187000000 0.0236706 -0.1336867 0.9763294 0.1336867 0.9763294 0.1336867 0.0236706 -0.1336867
3208000000 0.0231027 -0.1315850 0.9768973 0.1315850 0.9768973 0.1315850 0.0231027 -0.1315850
3229000000 0.0225488 -0.1294981 0.9774512 0.1294981 0.9774512 0.1294981 0.0225488 -0.1294981
3250000000 0.0220087 -0.1274255 0.9779913 0.1274255 0.9779913 0.1274255 0.0220087 -0.1274255
3271000000 0.0214820 -0.1253672 0.9785180 0.1253672 0.9785180 0.1253672 0.0214820 -0.1253672
3292000000 0.0209684 -0.1233228 0.9790316 0.1233228 0.9790316 0.1233228 0.0209684 -0.1233228
3313000000 0.0204677 -0.1212923 0.9795323 0.1212923 0.9795323 0.1212923 0.0204677 -0.1212923
3334000000 0.0199797 -0.1192753 0.9800203 0.1192753 0.9800203 0.1192753 0.0199797 -0.1192753
3355000000 0.0195040 -0.1172717 0.9804960 0.1172717 0.9804960 0.1172717 0.0195040 -0.1172717
3376000000 0.0190404 -0.1152812 0.9809596 0.1152812 0.9809596 0.1152812 0.0190404 -0.1152812
3397000000 0.0185887 -0.1133037 0.9814113 0.1133037 0.9814113 0.1133037 0.0185887 -0.1133037
3418000000 0.0181486 -0.1113389 0.9818514 0.1113389 0.9818514 0.1113389 0.0181486 -0.1113389
3439000000 0.0177200 -0.1093867 0.9822800 0.1093867 0.9822800 0.1093867 0.0177200 -0.1093867
3460000000 0.0173026 -0.1074469 0.9826974 0.1074469 0.9826974 0.1074469 0.0173026 -0.1074469
3481000000 0.0168961 -0.1055192 0.9831039 0.1055192 0.9831039 0.1055192 0.0168961 -0.1055192
3502000000 0.0165004 -0.1036035 0.9834996 0.1036035 0.9834996 0.1036035 0.0165004 -0.1036035
3523000000 0.0161152 -0.1016997 0.9838848 0.1016997 0.9838848 0.1016997 0.0161152 -0.1016997
3544000000 0.0157405 -0.0998074 0.9842595 0.0998074 0.9842595 0.0998074 0.0157405 -0.0998074
3565000000 0.0153759 -0.0979266 0.9846241 0.0979266 0.9846241 0.0979266 0.0153759 -0.0979266
3586000000 0.0150213 -0.0960571 0.9849787 0.0960571 0.9849787 0.0960571 0.0150213 -0.0960571
3607000000 0.0146765 -0.0941987 0.9853235 0.0941987 0.9853235 0.0941987 0.0146765 -0.0941987
3628000000 0.0143414 -0.0923512 0.9856586 0.0923512 0.9856586 0.0923512 0.0143414 -0.0923512
3649000000 0.0140157 -0.0905145 0.9859843 0.0905145 0.9859843 0.0905145 0.0140157 -0.0905145
3670000000 0.0136993 -0.0886884 0.9863007 0.0886884 0.9863007 0.0886884 0.0136993 -0.0886884
3691000000 0.0133920 -0.0868727 0.9866080 0.0868727 0.9866080 0.0868727 0.0133920 -0.0868727
3712000000 0.0130937 -0.0850673 0.9869063 0.0850673 0.9869063 0.0850673 0.0130937 -0.0850673
3733000000 0.0128043 -0.0832720 0.9871957 0.0832720 0.9871957 0.0832720 0.0128043 -0.0832720
3754000000 0.0125235 -0.0814867 0.9874765 0.0814867 0.9874765 0.0814867 0.0125235 -0.0814867
3775000000 0.0122513 -0.0797111 0.9877487 0.0797111 0.9877487 0.0797111 0.0122513 -0.0797111
3796000000 0.0119875 -0.0779453 0.9880125 0.0779453 0.9880125 0.0779453 0.0119875 -0.0779453
3817000000 0.0117319 -0.0761890 0.9882681 0.0761890 0.9882681 0.0761890 0.0117319 -0.0761890
3838000000 0.0114844 -0.0744420 0.9885156 0.0744420 0.9885156 0.0744420 0.0114844 -0.0744420
3859000000 0.0112450 -0.0727043 0.9887550 0.0727043 0.9887550 0.0727043 0.0112450 -0.0727043
3880000000 0.0110134 -0.0709756 0.9889866 0.0709756 0.9889866 0.0709756 0.0110134 -0.0709756
3901000000 0.0107895 -0.0692559 0.9892105 0.0692559 0.9892105 0.0692559 0.0107895 -0.0692559
3922000000 0.0105733 -0.0675450 0.9894267 0.0675450 0.9894267 0.0675450 0.0105733 -0.0675450
3943000000 0.0103646 -0.0658428 0.9896354 0.0658428 0.9896354 0.0658428 0.0103646 -0.0658428
3964000000 0.0101634 -0.0641491 0.9898366 0.0641491 0.9898366 0.0641491 0.0101634 -0.0641491
3985000000 0.0099694 -0.0624639 0.9900306 0.0624639 0.9900306 0.0624639 0.0099694 -0.0624639
4006000000 0.0097826 -0.0607869 0.9902174 0.0607869 0.9902174 0.0607869 0.0097826 -0.0607869
4027000000 0.0096029 -0.0591180 0.9903971 0.0591180 0.9903971 0.0591180 0.0096029 -0.0591180
4048000000 0.0094302 -0.0574572 0.9905698 0.0574572 0.9905698 0.0574572 0.0094302 -0.0574572
4069000000 0.0092644 -0.0558043 0.9907356 0.0558043 0.9907356 0.0558043 0.0092644 -0.0558043
4090000000 0.0091054 -0.0541591 0.9908946 0.0541591 0.9908946 0.0541591 0.0091054 -0.0541591
4111000000 0.0089531 -0.0525216 0.9910469 0.0525216 0.9910469 0.0525216 0.0089531 -0.0525216
4132000000 0.0088074 -0.0508917 0.9911926 0.0508917 0.9911926 0.0508917 0.0088074 -0.0508917
4153000000 0.0086683 -0.0492692 0.9913317 0.0492692 0.9913317 0.0492692 0.0086683 -0.0492692
4174000000 0.0085356 -0.0476539 0.9914644 0.0476539 0.9914644 0.0476539 0.0085356 -0.0476539
4195000000 0.0084093 -0.0460459 0.9915907 0.0460459 0.9915907 0.0460459 0.0084093 -0.0460459
4216000000 0.0082892 -0.0444449 0.9917108 0.0444449 0.9917108 0.0444449 0.0082892 -0.0444449
4237000000 0.0081754 -0.0428509 0.9918246 0.0428509 0.9918246 0.0428509 0.0081754 -0.0428509
4258000000 0.0080678 -0.0412638 0.9919322 0.0412638 0.9919322 0.0412638 0.0080678 -0.0412638
4279000000 0.0079662 -0.0396834 0.9920338 0.0396834 0.9920338 0.0396834 0.0079662 -0.0396834
4300000000 0.0078706 -0.0381096 0.9921294 0.0381096 0.9921294 0.0381096 0.0078706 -0.0381096
4321000000 0.0077809 -0.0365424 0.9922191 0.0365424 0.9922191 0.0365424 0.0077809 -0.0365424
4342000000 0.0076971 -0.0349816 0.9923029 0.0349816 0.9923029 0.0349816 0.0076971 -0.0349816
4363000000 0.0076192 -0.0334271 0.9923808 0.0334271 0.9923808 0.0334271 0.0076192 -0.0334271
4384000000 0.0075470 -0.0318789 0.9924530 0.0318789 0.9924530 0.0318789 0.0075470 -0.0318789
4405000000 0.0074804 -0.0303367 0.9925196 0.0303367 0.9925196 0.0303367 0.0074804 -0.0303367
4426000000 0.0074195 -0.0288006 0.9925805 0.0288006 0.9925805 0.0288006 0.0074195 -0.0288006
4447000000 0.0073642 -0.0272704 0.9926358 0.0272704 0.9926358 0.0272704 0.0073642 -0.0272704
4468000000 0.0073144 -0.0257460 0.9926856 0.0257460 0.9926856 0.0257460 0.0073144 -0.0257460
4489000000 0.0072701 -0.0242274 0.9927299 0.0242274 0.9927299 0.0242274 0.0072701 -0.0242274
4510000000 0.0072312 -0.0227144 0.9927688 0.0227144 0.9927688 0.0227144 0.0072312 -0.0227144
