!Murata Part Number: GRM1881X1H332JA01
!These Parameters are Measured in Series Mode Connection
!Data Generated on Mar 30, 2021
!       o--ll--o
!Port1            Port2
!       o------o
!Operation Temp=25[degC], DC Bias Voltage=0[V]
!Freq. Start=1000[kHz] Stop=6[GHz] 401[Steps]
# Hz S RI R 50
!Freq.(Hz) S11(Real) S11(Imag) S21(Real) S21(Imag) S12(Real) S12(Imag) S22(Real) S22(Imag)
1000000 0.1918838 -0.3935371 0.8081162 0.3935371 0.8081162 0.3935371 0.1918838 -0.3935371
1021987 0.1852346 -0.3882373 0.8147654 0.3882373 0.8147654 0.3882373 0.1852346 -0.3882373
1044457 0.1787652 -0.3828996 0.8212348 0.3828996 0.8212348 0.3828996 0.1787652 -0.3828996
1067422 0.1724741 -0.3775304 0.8275259 0.3775304 0.8275259 0.3775304 0.1724741 -0.3775304
1090891 0.1663598 -0.3721359 0.8336402 0.3721359 0.8336402 0.3721359 0.1663598 -0.3721359
1114877 0.1604205 -0.3667223 0.8395795 0.3667223 0.8395795 0.3667223 0.1604205 -0.3667223
1139390 0.1546542 -0.3612954 0.8453458 0.3612954 0.8453458 0.3612954 0.1546542 -0.3612954
1164441 0.1490586 -0.3558608 0.8509414 0.3558608 0.8509414 0.3558608 0.1490586 -0.3558608
1190044 0.1436313 -0.3504238 0.8563687 0.3504238 0.8563687 0.3504238 0.1436313 -0.3504238
1216210 0.1383697 -0.3449895 0.8616303 0.3449895 0.8616303 0.3449895 0.1383697 -0.3449895
1242950 0.1332712 -0.3395629 0.8667288 0.3395629 0.8667288 0.3395629 0.1332712 -0.3395629
1270279 0.1283328 -0.3341487 0.8716672 0.3341487 0.8716672 0.3341487 0.1283328 -0.3341487
1298209 0.1235516 -0.3287511 0.8764484 0.3287511 0.8764484 0.3287511 0.1235516 -0.3287511
1326753 0.1189245 -0.3233745 0.8810755 0.3233745 0.8810755 0.3233745 0.1189245 -0.3233745
1355924 0.1144484 -0.3180227 0.8855516 0.3180227 0.8855516 0.3180227 0.1144484 -0.3180227
1385737 0.1101199 -0.3126995 0.8898801 0.3126995 0.8898801 0.3126995 0.1101199 -0.3126995
1416205 0.1059359 -0.3074084 0.8940641 0.3074084 0.8940641 0.3074084 0.1059359 -0.3074084
1447343 0.1018929 -0.3021526 0.8981071 0.3021526 0.8981071 0.3021526 0.1018929 -0.3021526
1479166 0.0979876 -0.2969353 0.9020124 0.2969353 0.9020124 0.2969353 0.0979876 -0.2969353
1511688 0.0942165 -0.2917592 0.9057835 0.2917592 0.9057835 0.2917592 0.0942165 -0.2917592
1544926 0.0905764 -0.2866270 0.9094236 0.2866270 0.9094236 0.2866270 0.0905764 -0.2866270
1578894 0.0870636 -0.2815412 0.9129364 0.2815412 0.9129364 0.2815412 0.0870636 -0.2815412
1613609 0.0836748 -0.2765040 0.9163252 0.2765040 0.9163252 0.2765040 0.0836748 -0.2765040
1649087 0.0804067 -0.2715174 0.9195933 0.2715174 0.9195933 0.2715174 0.0804067 -0.2715174
1685346 0.0772557 -0.2665835 0.9227443 0.2665835 0.9227443 0.2665835 0.0772557 -0.2665835
1722402 0.0742185 -0.2617039 0.9257815 0.2617039 0.9257815 0.2617039 0.0742185 -0.2617039
1760272 0.0712918 -0.2568801 0.9287082 0.2568801 0.9287082 0.2568801 0.0712918 -0.2568801
1798975 0.0684723 -0.2521136 0.9315277 0.2521136 0.9315277 0.2521136 0.0684723 -0.2521136
1838529 0.0657567 -0.2474056 0.9342433 0.2474056 0.9342433 0.2474056 0.0657567 -0.2474056
1878953 0.0631419 -0.2427573 0.9368581 0.2427573 0.9368581 0.2427573 0.0631419 -0.2427573
1920266 0.0606246 -0.2381695 0.9393754 0.2381695 0.9393754 0.2381695 0.0606246 -0.2381695
1962487 0.0582017 -0.2336432 0.9417983 0.2336432 0.9417983 0.2336432 0.0582017 -0.2336432
2005636 0.0558702 -0.2291791 0.9441298 0.2291791 0.9441298 0.2291791 0.0558702 -0.2291791
2049734 0.0536271 -0.2247778 0.9463729 0.2247778 0.9463729 0.2247778 0.0536271 -0.2247778
2094801 0.0514695 -0.2204397 0.9485305 0.2204397 0.9485305 0.2204397 0.0514695 -0.2204397
2140860 0.0493945 -0.2161653 0.9506055 0.2161653 0.9506055 0.2161653 0.0493945 -0.2161653
2187931 0.0473993 -0.2119548 0.9526007 0.2119548 0.9526007 0.2119548 0.0473993 -0.2119548
2236037 0.0454811 -0.2078085 0.9545189 0.2078085 0.9545189 0.2078085 0.0454811 -0.2078085
2285201 0.0436374 -0.2037265 0.9563626 0.2037265 0.9563626 0.2037265 0.0436374 -0.2037265
2335446 0.0418654 -0.1997087 0.9581346 0.1997087 0.9581346 0.1997087 0.0418654 -0.1997087
2386795 0.0401627 -0.1957552 0.9598373 0.1957552 0.9598373 0.1957552 0.0401627 -0.1957552
2439274 0.0385268 -0.1918659 0.9614732 0.1918659 0.9614732 0.1918659 0.0385268 -0.1918659
2492906 0.0369553 -0.1880406 0.9630447 0.1880406 0.9630447 0.1880406 0.0369553 -0.1880406
2547717 0.0354459 -0.1842789 0.9645541 0.1842789 0.9645541 0.1842789 0.0354459 -0.1842789
2603734 0.0339962 -0.1805807 0.9660038 0.1805807 0.9660038 0.1805807 0.0339962 -0.1805807
2660982 0.0326042 -0.1769456 0.9673958 0.1769456 0.9673958 0.1769456 0.0326042 -0.1769456
2719490 0.0312677 -0.1733732 0.9687323 0.1733732 0.9687323 0.1733732 0.0312677 -0.1733732
2779283 0.0299846 -0.1698629 0.9700154 0.1698629 0.9700154 0.1698629 0.0299846 -0.1698629
2840391 0.0287530 -0.1664145 0.9712470 0.1664145 0.9712470 0.1664145 0.0287530 -0.1664145
2902843 0.0275708 -0.1630273 0.9724292 0.1630273 0.9724292 0.1630273 0.0275708 -0.1630273
2966668 0.0264363 -0.1597007 0.9735637 0.1597007 0.9735637 0.1597007 0.0264363 -0.1597007
3031896 0.0253475 -0.1564342 0.9746525 0.1564342 0.9746525 0.1564342 0.0253475 -0.1564342
3098558 0.0243028 -0.1532272 0.9756972 0.1532272 0.9756972 0.1532272 0.0243028 -0.1532272
3166686 0.0233005 -0.1500790 0.9766995 0.1500790 0.9766995 0.1500790 0.0233005 -0.1500790
3236312 0.0223390 -0.1469890 0.9776610 0.1469890 0.9776610 0.1469890 0.0223390 -0.1469890
3307469 0.0214165 -0.1439564 0.9785835 0.1439564 0.9785835 0.1439564 0.0214165 -0.1439564
3380190 0.0205318 -0.1409806 0.9794682 0.1409806 0.9794682 0.1409806 0.0205318 -0.1409806
3454511 0.0196831 -0.1380609 0.9803169 0.1380609 0.9803169 0.1380609 0.0196831 -0.1380609
3530465 0.0188693 -0.1351964 0.9811307 0.1351964 0.9811307 0.1351964 0.0188693 -0.1351964
3608090 0.0180888 -0.1323865 0.9819112 0.1323865 0.9819112 0.1323865 0.0180888 -0.1323865
3687421 0.0173403 -0.1296304 0.9826597 0.1296304 0.9826597 0.1296304 0.0173403 -0.1296304
3768496 0.0166227 -0.1269274 0.9833773 0.1269274 0.9833773 0.1269274 0.0166227 -0.1269274
3851354 0.0159346 -0.1242766 0.9840654 0.1242766 0.9840654 0.1242766 0.0159346 -0.1242766
3936034 0.0152749 -0.1216773 0.9847251 0.1216773 0.9847251 0.1216773 0.0152749 -0.1216773
4022575 0.0146425 -0.1191288 0.9853575 0.1191288 0.9853575 0.1191288 0.0146425 -0.1191288
4111020 0.0140363 -0.1166301 0.9859637 0.1166301 0.9859637 0.1166301 0.0140363 -0.1166301
4201409 0.0134551 -0.1141806 0.9865449 0.1141806 0.9865449 0.1141806 0.0134551 -0.1141806
4293785 0.0128980 -0.1117794 0.9871020 0.1117794 0.9871020 0.1117794 0.0128980 -0.1117794
4388193 0.0123641 -0.1094258 0.9876359 0.1094258 0.9876359 0.1094258 0.0123641 -0.1094258
4484676 0.0118524 -0.1071189 0.9881476 0.1071189 0.9881476 0.1071189 0.0118524 -0.1071189
4583281 0.0113619 -0.1048581 0.9886381 0.1048581 0.9886381 0.1048581 0.0113619 -0.1048581
4684054 0.0108919 -0.1026424 0.9891081 0.1026424 0.9891081 0.1026424 0.0108919 -0.1026424
4787042 0.0104415 -0.1004712 0.9895585 0.1004712 0.9895585 0.1004712 0.0104415 -0.1004712
4892295 0.0100098 -0.0983437 0.9899902 0.0983437 0.9899902 0.0983437 0.0100098 -0.0983437
4999862 0.0095962 -0.0962590 0.9904038 0.0962590 0.9904038 0.0962590 0.0095962 -0.0962590
5109794 0.0091999 -0.0942165 0.9908001 0.0942165 0.9908001 0.0942165 0.0091999 -0.0942165
5222143 0.0088202 -0.0922154 0.9911798 0.0922154 0.9911798 0.0922154 0.0088202 -0.0922154
5336962 0.0084563 -0.0902549 0.9915437 0.0902549 0.9915437 0.0902549 0.0084563 -0.0902549
5454306 0.0081077 -0.0883342 0.9918923 0.0883342 0.9918923 0.0883342 0.0081077 -0.0883342
5574230 0.0077738 -0.0864528 0.9922262 0.0864528 0.9922262 0.0864528 0.0077738 -0.0864528
5696791 0.0074538 -0.0846097 0.9925462 0.0846097 0.9925462 0.0846097 0.0074538 -0.0846097
5822046 0.0071473 -0.0828044 0.9928527 0.0828044 0.9928527 0.0828044 0.0071473 -0.0828044
5950055 0.0068536 -0.0810361 0.9931464 0.0810361 0.9931464 0.0810361 0.0068536 -0.0810361
6080879 0.0065723 -0.0793040 0.9934277 0.0793040 0.9934277 0.0793040 0.0065723 -0.0793040
6214580 0.0063028 -0.0776076 0.9936972 0.0776076 0.9936972 0.0776076 0.0063028 -0.0776076
6351220 0.0060447 -0.0759461 0.9939553 0.0759461 0.9939553 0.0759461 0.0060447 -0.0759461
6490864 0.0057975 -0.0743188 0.9942025 0.0743188 0.9942025 0.0743188 0.0057975 -0.0743188
6633579 0.0055606 -0.0727252 0.9944394 0.0727252 0.9944394 0.0727252 0.0055606 -0.0727252
6779431 0.0053338 -0.0711644 0.9946662 0.0711644 0.9946662 0.0711644 0.0053338 -0.0711644
6928491 0.0051165 -0.0696360 0.9948835 0.0696360 0.9948835 0.0696360 0.0051165 -0.0696360
7080828 0.0049084 -0.0681392 0.9950916 0.0681392 0.9950916 0.0681392 0.0049084 -0.0681392
7236514 0.0047091 -0.0666734 0.9952909 0.0666734 0.9952909 0.0666734 0.0047091 -0.0666734
7395623 0.0045182 -0.0652380 0.9954818 0.0652380 0.9954818 0.0652380 0.0045182 -0.0652380
7558231 0.0043354 -0.0638324 0.9956646 0.0638324 0.9956646 0.0638324 0.0043354 -0.0638324
7724414 0.0041604 -0.0624560 0.9958396 0.0624560 0.9958396 0.0624560 0.0041604 -0.0624560
7894251 0.0039927 -0.0611082 0.9960073 0.0611082 0.9960073 0.0611082 0.0039927 -0.0611082
8067822 0.0038321 -0.0597884 0.9961679 0.0597884 0.9961679 0.0597884 0.0038321 -0.0597884
8245209 0.0036784 -0.0584961 0.9963216 0.0584961 0.9963216 0.0584961 0.0036784 -0.0584961
8426497 0.0035311 -0.0572307 0.9964689 0.0572307 0.9964689 0.0572307 0.0035311 -0.0572307
8611770 0.0033901 -0.0559916 0.9966099 0.0559916 0.9966099 0.0559916 0.0033901 -0.0559916
8801117 0.0032551 -0.0547784 0.9967449 0.0547784 0.9967449 0.0547784 0.0032551 -0.0547784
8994628 0.0031259 -0.0535904 0.9968741 0.0535904 0.9968741 0.0535904 0.0031259 -0.0535904
9192393 0.0030021 -0.0524272 0.9969979 0.0524272 0.9969979 0.0524272 0.0030021 -0.0524272
9394506 0.0028836 -0.0512882 0.9971164 0.0512882 0.9971164 0.0512882 0.0028836 -0.0512882
9601063 0.0027701 -0.0501730 0.9972299 0.0501730 0.9972299 0.0501730 0.0027701 -0.0501730
9812162 0.0026615 -0.0490810 0.9973385 0.0490810 0.9973385 0.0490810 0.0026615 -0.0490810
10027902 0.0025574 -0.0480118 0.9974426 0.0480118 0.9974426 0.0480118 0.0025574 -0.0480118
10248386 0.0024579 -0.0469649 0.9975421 0.0469649 0.9975421 0.0469649 0.0024579 -0.0469649
10473717 0.0023625 -0.0459398 0.9976375 0.0459398 0.9976375 0.0459398 0.0023625 -0.0459398
10704003 0.0022713 -0.0449360 0.9977287 0.0449360 0.9977287 0.0449360 0.0022713 -0.0449360
10939352 0.0021839 -0.0439532 0.9978161 0.0439532 0.9978161 0.0439532 0.0021839 -0.0439532
11179876 0.0021003 -0.0429908 0.9978997 0.0429908 0.9978997 0.0429908 0.0021003 -0.0429908
11425688 0.0020203 -0.0420484 0.9979797 0.0420484 0.9979797 0.0420484 0.0020203 -0.0420484
11676904 0.0019437 -0.0411257 0.9980563 0.0411257 0.9980563 0.0411257 0.0019437 -0.0411257
11933645 0.0018703 -0.0402221 0.9981297 0.0402221 0.9981297 0.0402221 0.0018703 -0.0402221
12196030 0.0018002 -0.0393373 0.9981998 0.0393373 0.9981998 0.0393373 0.0018002 -0.0393373
12464184 0.0017330 -0.0384709 0.9982670 0.0384709 0.9982670 0.0384709 0.0017330 -0.0384709
12738235 0.0016688 -0.0376225 0.9983312 0.0376225 0.9983312 0.0376225 0.0016688 -0.0376225
13018310 0.0016073 -0.0367916 0.9983927 0.0367916 0.9983927 0.0367916 0.0016073 -0.0367916
13304544 0.0015484 -0.0359780 0.9984516 0.0359780 0.9984516 0.0359780 0.0015484 -0.0359780
13597071 0.0014922 -0.0351812 0.9985078 0.0351812 0.9985078 0.0351812 0.0014922 -0.0351812
13896030 0.0014383 -0.0344009 0.9985617 0.0344009 0.9985617 0.0344009 0.0014383 -0.0344009
14201563 0.0013868 -0.0336367 0.9986132 0.0336367 0.9986132 0.0336367 0.0013868 -0.0336367
14513813 0.0013375 -0.0328883 0.9986625 0.0328883 0.9986625 0.0328883 0.0013375 -0.0328883
14832928 0.0012904 -0.0321553 0.9987096 0.0321553 0.9987096 0.0321553 0.0012904 -0.0321553
15159060 0.0012453 -0.0314374 0.9987547 0.0314374 0.9987547 0.0314374 0.0012453 -0.0314374
15492362 0.0012022 -0.0307343 0.9987978 0.0307343 0.9987978 0.0307343 0.0012022 -0.0307343
15832993 0.0011610 -0.0300456 0.9988390 0.0300456 0.9988390 0.0300456 0.0011610 -0.0300456
16181113 0.0011217 -0.0293710 0.9988783 0.0293710 0.9988783 0.0293710 0.0011217 -0.0293710
16536888 0.0010840 -0.0287102 0.9989160 0.0287102 0.9989160 0.0287102 0.0010840 -0.0287102
16900485 0.0010480 -0.0280629 0.9989520 0.0280629 0.9989520 0.0280629 0.0010480 -0.0280629
17272076 0.0010137 -0.0274288 0.9989863 0.0274288 0.9989863 0.0274288 0.0010137 -0.0274288
17651837 0.0009808 -0.0268076 0.9990192 0.0268076 0.9990192 0.0268076 0.0009808 -0.0268076
18039948 0.0009495 -0.0261991 0.9990505 0.0261991 0.9990505 0.0261991 0.0009495 -0.0261991
18436593 0.0009195 -0.0256028 0.9990805 0.0256028 0.9990805 0.0256028 0.0009195 -0.0256028
18841959 0.0008909 -0.0250187 0.9991091 0.0250187 0.9991091 0.0250187 0.0008909 -0.0250187
19256237 0.0008636 -0.0244463 0.9991364 0.0244463 0.9991364 0.0244463 0.0008636 -0.0244463
19679624 0.0008376 -0.0238855 0.9991624 0.0238855 0.9991624 0.0238855 0.0008376 -0.0238855
20112321 0.0008127 -0.0233359 0.9991873 0.0233359 0.9991873 0.0233359 0.0008127 -0.0233359
20554530 0.0007890 -0.0227973 0.9992110 0.0227973 0.9992110 0.0227973 0.0007890 -0.0227973
21006463 0.0007664 -0.0222695 0.9992336 0.0222695 0.9992336 0.0222695 0.0007664 -0.0222695
21468333 0.0007449 -0.0217522 0.9992551 0.0217522 0.9992551 0.0217522 0.0007449 -0.0217522
21940357 0.0007244 -0.0212452 0.9992756 0.0212452 0.9992756 0.0212452 0.0007244 -0.0212452
22422760 0.0007048 -0.0207482 0.9992952 0.0207482 0.9992952 0.0207482 0.0007048 -0.0207482
22915770 0.0006862 -0.0202610 0.9993138 0.0202610 0.9993138 0.0202610 0.0006862 -0.0202610
23419619 0.0006685 -0.0197835 0.9993315 0.0197835 0.9993315 0.0197835 0.0006685 -0.0197835
23934547 0.0006517 -0.0193152 0.9993483 0.0193152 0.9993483 0.0193152 0.0006517 -0.0193152
24460796 0.0006357 -0.0188561 0.9993643 0.0188561 0.9993643 0.0188561 0.0006357 -0.0188561
24998616 0.0006206 -0.0184060 0.9993794 0.0184060 0.9993794 0.0184060 0.0006206 -0.0184060
25548261 0.0006062 -0.0179646 0.9993938 0.0179646 0.9993938 0.0179646 0.0006062 -0.0179646
26109991 0.0005925 -0.0175316 0.9994075 0.0175316 0.9994075 0.0175316 0.0005925 -0.0175316
26684072 0.0005796 -0.0171070 0.9994204 0.0171070 0.9994204 0.0171070 0.0005796 -0.0171070
27270775 0.0005673 -0.0166906 0.9994327 0.0166906 0.9994327 0.0166906 0.0005673 -0.0166906
27870378 0.0005557 -0.0162820 0.9994443 0.0162820 0.9994443 0.0162820 0.0005557 -0.0162820
28483164 0.0005448 -0.0158812 0.9994552 0.0158812 0.9994552 0.0158812 0.0005448 -0.0158812
29109424 0.0005345 -0.0154879 0.9994655 0.0154879 0.9994655 0.0154879 0.0005345 -0.0154879
29749453 0.0005247 -0.0151020 0.9994753 0.0151020 0.9994753 0.0151020 0.0005247 -0.0151020
30403555 0.0005156 -0.0147232 0.9994844 0.0147232 0.9994844 0.0147232 0.0005156 -0.0147232
31072038 0.0005070 -0.0143515 0.9994930 0.0143515 0.9994930 0.0143515 0.0005070 -0.0143515
31755220 0.0004989 -0.0139866 0.9995011 0.0139866 0.9995011 0.0139866 0.0004989 -0.0139866
32453422 0.0004913 -0.0136284 0.9995087 0.0136284 0.9995087 0.0136284 0.0004913 -0.0136284
33166976 0.0004843 -0.0132767 0.9995157 0.0132767 0.9995157 0.0132767 0.0004843 -0.0132767
33896219 0.0004777 -0.0129314 0.9995223 0.0129314 0.9995223 0.0129314 0.0004777 -0.0129314
34641496 0.0004716 -0.0125922 0.9995284 0.0125922 0.9995284 0.0125922 0.0004716 -0.0125922
35403159 0.0004659 -0.0122590 0.9995341 0.0122590 0.9995341 0.0122590 0.0004659 -0.0122590
36181569 0.0004606 -0.0119317 0.9995394 0.0119317 0.9995394 0.0119317 0.0004606 -0.0119317
36977093 0.0004558 -0.0116101 0.9995442 0.0116101 0.9995442 0.0116101 0.0004558 -0.0116101
37790109 0.0004514 -0.0112941 0.9995486 0.0112941 0.9995486 0.0112941 0.0004514 -0.0112941
38621001 0.0004474 -0.0109835 0.9995526 0.0109835 0.9995526 0.0109835 0.0004474 -0.0109835
39470161 0.0004437 -0.0106782 0.9995563 0.0106782 0.9995563 0.0106782 0.0004437 -0.0106782
40337993 0.0004404 -0.0103780 0.9995596 0.0103780 0.9995596 0.0103780 0.0004404 -0.0103780
41224905 0.0004375 -0.0100829 0.9995625 0.0100829 0.9995625 0.0100829 0.0004375 -0.0100829
42131317 0.0004349 -0.0097925 0.9995651 0.0097925 0.9995651 0.0097925 0.0004349 -0.0097925
43057659 0.0004326 -0.0095070 0.9995674 0.0095070 0.9995674 0.0095070 0.0004326 -0.0095070
44004369 0.0004307 -0.0092260 0.9995693 0.0092260 0.9995693 0.0092260 0.0004307 -0.0092260
44971893 0.0004290 -0.0089494 0.9995710 0.0089494 0.9995710 0.0089494 0.0004290 -0.0089494
45960691 0.0004277 -0.0086772 0.9995723 0.0086772 0.9995723 0.0086772 0.0004277 -0.0086772
46971230 0.0004267 -0.0084092 0.9995733 0.0084092 0.9995733 0.0084092 0.0004267 -0.0084092
48003987 0.0004259 -0.0081453 0.9995741 0.0081453 0.9995741 0.0081453 0.0004259 -0.0081453
49059451 0.0004254 -0.0078853 0.9995746 0.0078853 0.9995746 0.0078853 0.0004254 -0.0078853
50138122 0.0004252 -0.0076292 0.9995748 0.0076292 0.9995748 0.0076292 0.0004252 -0.0076292
51240510 0.0004252 -0.0073768 0.9995748 0.0073768 0.9995748 0.0073768 0.0004252 -0.0073768
52367136 0.0004255 -0.0071280 0.9995745 0.0071280 0.9995745 0.0071280 0.0004255 -0.0071280
53518533 0.0004260 -0.0068827 0.9995740 0.0068827 0.9995740 0.0068827 0.0004260 -0.0068827
54695245 0.0004268 -0.0066407 0.9995732 0.0066407 0.9995732 0.0066407 0.0004268 -0.0066407
55897831 0.0004278 -0.0064020 0.9995722 0.0064020 0.9995722 0.0064020 0.0004278 -0.0064020
57126857 0.0004290 -0.0061665 0.9995710 0.0061665 0.9995710 0.0061665 0.0004290 -0.0061665
58382906 0.0004304 -0.0059339 0.9995696 0.0059339 0.9995696 0.0059339 0.0004304 -0.0059339
59666572 0.0004321 -0.0057043 0.9995679 0.0057043 0.9995679 0.0057043 0.0004321 -0.0057043
60978462 0.0004339 -0.0054775 0.9995661 0.0054775 0.9995661 0.0054775 0.0004339 -0.0054775
62319196 0.0004360 -0.0052535 0.9995640 0.0052535 0.9995640 0.0052535 0.0004360 -0.0052535
63689409 0.0004382 -0.0050320 0.9995618 0.0050320 0.9995618 0.0050320 0.0004382 -0.0050320
65089750 0.0004407 -0.0048130 0.9995593 0.0048130 0.9995593 0.0048130 0.0004407 -0.0048130
66520879 0.0004433 -0.0045963 0.9995567 0.0045963 0.9995567 0.0045963 0.0004433 -0.0045963
67983474 0.0004461 -0.0043820 0.9995539 0.0043820 0.9995539 0.0043820 0.0004461 -0.0043820
69478228 0.0004491 -0.0041698 0.9995509 0.0041698 0.9995509 0.0041698 0.0004491 -0.0041698
71005847 0.0004524 -0.0039598 0.9995476 0.0039598 0.9995476 0.0039598 0.0004524 -0.0039598
72567054 0.0004557 -0.0037517 0.9995443 0.0037517 0.9995443 0.0037517 0.0004557 -0.0037517
74162587 0.0004593 -0.0035454 0.9995407 0.0035454 0.9995407 0.0035454 0.0004593 -0.0035454
75793201 0.0004631 -0.0033410 0.9995369 0.0033410 0.9995369 0.0033410 0.0004631 -0.0033410
77459667 0.0004670 -0.0031382 0.9995330 0.0031382 0.9995330 0.0031382 0.0004670 -0.0031382
79162774 0.0004711 -0.0029370 0.9995289 0.0029370 0.9995289 0.0029370 0.0004711 -0.0029370
80903327 0.0004754 -0.0027372 0.9995246 0.0027372 0.9995246 0.0027372 0.0004754 -0.0027372
82682150 0.0004799 -0.0025389 0.9995201 0.0025389 0.9995201 0.0025389 0.0004799 -0.0025389
84500083 0.0004846 -0.0023418 0.9995154 0.0023418 0.9995154 0.0023418 0.0004846 -0.0023418
86357988 0.0004895 -0.0021459 0.9995105 0.0021459 0.9995105 0.0021459 0.0004895 -0.0021459
88256743 0.0004945 -0.0019510 0.9995055 0.0019510 0.9995055 0.0019510 0.0004945 -0.0019510
90197245 0.0004998 -0.0017572 0.9995002 0.0017572 0.9995002 0.0017572 0.0004998 -0.0017572
92180413 0.0005053 -0.0015642 0.9994947 0.0015642 0.9994947 0.0015642 0.0005053 -0.0015642
94207185 0.0005110 -0.0013721 0.9994890 0.0013721 0.9994890 0.0013721 0.0005110 -0.0013721
96278520 0.0005169 -0.0011806 0.9994831 0.0011806 0.9994831 0.0011806 0.0005169 -0.0011806
98395398 0.0005230 -0.0009897 0.9994770 0.0009897 0.9994770 0.0009897 0.0005230 -0.0009897
100558819 0.0005294 -0.0007993 0.9994706 0.0007993 0.9994706 0.0007993 0.0005294 -0.0007993
102769807 0.0005361 -0.0006092 0.9994639 0.0006092 0.9994639 0.0006092 0.0005361 -0.0006092
105029408 0.0005430 -0.0004195 0.9994570 0.0004195 0.9994570 0.0004195 0.0005430 -0.0004195
107338692 0.0005501 -0.0002300 0.9994499 0.0002300 0.9994499 0.0002300 0.0005501 -0.0002300
