!Murata Part Number: GRM1885C1H5R1WA01
!These Parameters are Measured in Series Mode Connection
!Data Generated on Mar 30, 2021
!       o--ll--o
!Port1            Port2
!       o------o
!Operation Temp=25[degC], DC Bias Voltage=0[V]
!Freq. Start=100[MHz] Stop=9[GHz] 401[Steps]
# Hz S RI R 50
!Freq.(Hz) S11(Real) S11(Imag) S21(Real) S21(Imag) S12(Real) S12(Imag) S22(Real) S22(Imag)
100000000 0.9066064 -0.2907716 0.0933936 0.2907716 0.0933936 0.2907716 0.9066064 -0.2907716
121000000 0.8688402 -0.3373130 0.1311598 0.3373130 0.1311598 0.3373130 0.8688402 -0.3373130
142000000 0.8277271 -0.3773018 0.1722729 0.3773018 0.1722729 0.3773018 0.8277271 -0.3773018
163000000 0.7845754 -0.4107437 0.2154246 0.4107437 0.2154246 0.4107437 0.7845754 -0.4107437
184000000 0.7405406 -0.4379043 0.2594594 0.4379043 0.2594594 0.4379043 0.7405406 -0.4379043
205000000 0.6965874 -0.4592334 0.3034126 0.4592334 0.3034126 0.4592334 0.6965874 -0.4592334
226000000 0.6534798 -0.4752941 0.3465202 0.4752941 0.3465202 0.4752941 0.6534798 -0.4752941
247000000 0.6117895 -0.4867030 0.3882105 0.4867030 0.3882105 0.4867030 0.6117895 -0.4867030
268000000 0.5719176 -0.4940842 0.4280824 0.4940842 0.4280824 0.4940842 0.5719176 -0.4940842
289000000 0.5341215 -0.4980372 0.4658785 0.4980372 0.4658785 0.4980372 0.5341215 -0.4980372
310000000 0.4985427 -0.4991163 0.5014573 0.4991163 0.5014573 0.4991163 0.4985427 -0.4991163
331000000 0.4652336 -0.4978203 0.5347664 0.4978203 0.5347664 0.4978203 0.4652336 -0.4978203
352000000 0.4341803 -0.4945878 0.5658197 0.4945878 0.5658197 0.4945878 0.4341803 -0.4945878
373000000 0.4053218 -0.4897985 0.5946782 0.4897985 0.5946782 0.4897985 0.4053218 -0.4897985
394000000 0.3785656 -0.4837759 0.6214344 0.4837759 0.6214344 0.4837759 0.3785656 -0.4837759
415000000 0.3537993 -0.4767933 0.6462007 0.4767933 0.6462007 0.4767933 0.3537993 -0.4767933
436000000 0.3308997 -0.4690789 0.6691003 0.4690789 0.6691003 0.4690789 0.3308997 -0.4690789
457000000 0.3097395 -0.4608217 0.6902605 0.4608217 0.6902605 0.4608217 0.3097395 -0.4608217
478000000 0.2901914 -0.4521774 0.7098086 0.4521774 0.7098086 0.4521774 0.2901914 -0.4521774
499000000 0.2721317 -0.4432731 0.7278683 0.4432731 0.7278683 0.4432731 0.2721317 -0.4432731
520000000 0.2554422 -0.4342119 0.7445578 0.4342119 0.7445578 0.4342119 0.2554422 -0.4342119
541000000 0.2400116 -0.4250772 0.7599884 0.4250772 0.7599884 0.4250772 0.2400116 -0.4250772
562000000 0.2257356 -0.4159354 0.7742644 0.4159354 0.7742644 0.4159354 0.2257356 -0.4159354
583000000 0.2125179 -0.4068395 0.7874821 0.4068395 0.7874821 0.4068395 0.2125179 -0.4068395
604000000 0.2002694 -0.3978309 0.7997306 0.3978309 0.7997306 0.3978309 0.2002694 -0.3978309
625000000 0.1889086 -0.3889420 0.8110914 0.3889420 0.8110914 0.3889420 0.1889086 -0.3889420
646000000 0.1783608 -0.3801973 0.8216392 0.3801973 0.8216392 0.3801973 0.1783608 -0.3801973
667000000 0.1685577 -0.3716155 0.8314423 0.3716155 0.8314423 0.3716155 0.1685577 -0.3716155
688000000 0.1594373 -0.3632098 0.8405627 0.3632098 0.8405627 0.3632098 0.1594373 -0.3632098
709000000 0.1509429 -0.3549897 0.8490571 0.3549897 0.8490571 0.3549897 0.1509429 -0.3549897
730000000 0.1430231 -0.3469614 0.8569769 0.3469614 0.8569769 0.3469614 0.1430231 -0.3469614
751000000 0.1356310 -0.3391281 0.8643690 0.3391281 0.8643690 0.3391281 0.1356310 -0.3391281
772000000 0.1287241 -0.3314912 0.8712759 0.3314912 0.8712759 0.3314912 0.1287241 -0.3314912
793000000 0.1222638 -0.3240504 0.8777362 0.3240504 0.8777362 0.3240504 0.1222638 -0.3240504
814000000 0.1162147 -0.3168041 0.8837853 0.3168041 0.8837853 0.3168041 0.1162147 -0.3168041
835000000 0.1105449 -0.3097495 0.8894551 0.3097495 0.8894551 0.3097495 0.1105449 -0.3097495
856000000 0.1052251 -0.3028833 0.8947749 0.3028833 0.8947749 0.3028833 0.1052251 -0.3028833
877000000 0.1002288 -0.2962012 0.8997712 0.2962012 0.8997712 0.2962012 0.1002288 -0.2962012
898000000 0.0955318 -0.2896988 0.9044682 0.2896988 0.9044682 0.2896988 0.0955318 -0.2896988
919000000 0.0911118 -0.2833713 0.9088882 0.2833713 0.9088882 0.2833713 0.0911118 -0.2833713
940000000 0.0869486 -0.2772136 0.9130514 0.2772136 0.9130514 0.2772136 0.0869486 -0.2772136
961000000 0.0830238 -0.2712206 0.9169762 0.2712206 0.9169762 0.2712206 0.0830238 -0.2712206
982000000 0.0793204 -0.2653871 0.9206796 0.2653871 0.9206796 0.2653871 0.0793204 -0.2653871
1003000000 0.0758229 -0.2597078 0.9241771 0.2597078 0.9241771 0.2597078 0.0758229 -0.2597078
1024000000 0.0725171 -0.2541776 0.9274829 0.2541776 0.9274829 0.2541776 0.0725171 -0.2541776
1045000000 0.0693899 -0.2487914 0.9306101 0.2487914 0.9306101 0.2487914 0.0693899 -0.2487914
1066000000 0.0664294 -0.2435440 0.9335706 0.2435440 0.9335706 0.2435440 0.0664294 -0.2435440
1087000000 0.0636244 -0.2384306 0.9363756 0.2384306 0.9363756 0.2384306 0.0636244 -0.2384306
1108000000 0.0609649 -0.2334463 0.9390351 0.2334463 0.9390351 0.2334463 0.0609649 -0.2334463
1129000000 0.0584414 -0.2285866 0.9415586 0.2285866 0.9415586 0.2285866 0.0584414 -0.2285866
1150000000 0.0560453 -0.2238469 0.9439547 0.2238469 0.9439547 0.2238469 0.0560453 -0.2238469
1171000000 0.0537687 -0.2192228 0.9462313 0.2192228 0.9462313 0.2192228 0.0537687 -0.2192228
1192000000 0.0516041 -0.2147102 0.9483959 0.2147102 0.9483959 0.2147102 0.0516041 -0.2147102
1213000000 0.0495447 -0.2103048 0.9504553 0.2103048 0.9504553 0.2103048 0.0495447 -0.2103048
1234000000 0.0475842 -0.2060029 0.9524158 0.2060029 0.9524158 0.2060029 0.0475842 -0.2060029
1255000000 0.0457168 -0.2018006 0.9542832 0.2018006 0.9542832 0.2018006 0.0457168 -0.2018006
1276000000 0.0439369 -0.1976943 0.9560631 0.1976943 0.9560631 0.1976943 0.0439369 -0.1976943
1297000000 0.0422396 -0.1936805 0.9577604 0.1936805 0.9577604 0.1936805 0.0422396 -0.1936805
1318000000 0.0406201 -0.1897558 0.9593799 0.1897558 0.9593799 0.1897558 0.0406201 -0.1897558
1339000000 0.0390741 -0.1859171 0.9609259 0.1859171 0.9609259 0.1859171 0.0390741 -0.1859171
1360000000 0.0375975 -0.1821612 0.9624025 0.1821612 0.9624025 0.1821612 0.0375975 -0.1821612
1381000000 0.0361864 -0.1784852 0.9638136 0.1784852 0.9638136 0.1784852 0.0361864 -0.1784852
1402000000 0.0348375 -0.1748862 0.9651625 0.1748862 0.9651625 0.1748862 0.0348375 -0.1748862
1423000000 0.0335473 -0.1713615 0.9664527 0.1713615 0.9664527 0.1713615 0.0335473 -0.1713615
1444000000 0.0323128 -0.1679085 0.9676872 0.1679085 0.9676872 0.1679085 0.0323128 -0.1679085
1465000000 0.0311310 -0.1645246 0.9688690 0.1645246 0.9688690 0.1645246 0.0311310 -0.1645246
1486000000 0.0299993 -0.1612075 0.9700007 0.1612075 0.9700007 0.1612075 0.0299993 -0.1612075
1507000000 0.0289152 -0.1579548 0.9710848 0.1579548 0.9710848 0.1579548 0.0289152 -0.1579548
1528000000 0.0278763 -0.1547643 0.9721237 0.1547643 0.9721237 0.1547643 0.0278763 -0.1547643
1549000000 0.0268803 -0.1516339 0.9731197 0.1516339 0.9731197 0.1516339 0.0268803 -0.1516339
1570000000 0.0259252 -0.1485616 0.9740748 0.1485616 0.9740748 0.1485616 0.0259252 -0.1485616
1591000000 0.0250091 -0.1455453 0.9749909 0.1455453 0.9749909 0.1455453 0.0250091 -0.1455453
1612000000 0.0241299 -0.1425833 0.9758701 0.1425833 0.9758701 0.1425833 0.0241299 -0.1425833
1633000000 0.0232862 -0.1396736 0.9767138 0.1396736 0.9767138 0.1396736 0.0232862 -0.1396736
1654000000 0.0224761 -0.1368146 0.9775239 0.1368146 0.9775239 0.1368146 0.0224761 -0.1368146
1675000000 0.0216982 -0.1340046 0.9783018 0.1340046 0.9783018 0.1340046 0.0216982 -0.1340046
1696000000 0.0209510 -0.1312419 0.9790490 0.1312419 0.9790490 0.1312419 0.0209510 -0.1312419
1717000000 0.0202332 -0.1285252 0.9797668 0.1285252 0.9797668 0.1285252 0.0202332 -0.1285252
1738000000 0.0195435 -0.1258528 0.9804565 0.1258528 0.9804565 0.1258528 0.0195435 -0.1258528
1759000000 0.0188807 -0.1232233 0.9811193 0.1232233 0.9811193 0.1232233 0.0188807 -0.1232233
1780000000 0.0182435 -0.1206354 0.9817565 0.1206354 0.9817565 0.1206354 0.0182435 -0.1206354
1801000000 0.0176310 -0.1180878 0.9823690 0.1180878 0.9823690 0.1180878 0.0176310 -0.1180878
1822000000 0.0170421 -0.1155792 0.9829579 0.1155792 0.9829579 0.1155792 0.0170421 -0.1155792
1843000000 0.0164758 -0.1131084 0.9835242 0.1131084 0.9835242 0.1131084 0.0164758 -0.1131084
1864000000 0.0159313 -0.1106742 0.9840687 0.1106742 0.9840687 0.1106742 0.0159313 -0.1106742
1885000000 0.0154076 -0.1082754 0.9845924 0.1082754 0.9845924 0.1082754 0.0154076 -0.1082754
1906000000 0.0149039 -0.1059111 0.9850961 0.1059111 0.9850961 0.1059111 0.0149039 -0.1059111
1927000000 0.0144195 -0.1035801 0.9855805 0.1035801 0.9855805 0.1035801 0.0144195 -0.1035801
1948000000 0.0139536 -0.1012814 0.9860464 0.1012814 0.9860464 0.1012814 0.0139536 -0.1012814
1969000000 0.0135055 -0.0990141 0.9864945 0.0990141 0.9864945 0.0990141 0.0135055 -0.0990141
1990000000 0.0130745 -0.0967772 0.9869255 0.0967772 0.9869255 0.0967772 0.0130745 -0.0967772
2011000000 0.0126600 -0.0945698 0.9873400 0.0945698 0.9873400 0.0945698 0.0126600 -0.0945698
2032000000 0.0122615 -0.0923910 0.9877385 0.0923910 0.9877385 0.0923910 0.0122615 -0.0923910
2053000000 0.0118783 -0.0902400 0.9881217 0.0902400 0.9881217 0.0902400 0.0118783 -0.0902400
2074000000 0.0115098 -0.0881161 0.9884902 0.0881161 0.9884902 0.0881161 0.0115098 -0.0881161
2095000000 0.0111557 -0.0860183 0.9888443 0.0860183 0.9888443 0.0860183 0.0111557 -0.0860183
2116000000 0.0108153 -0.0839459 0.9891847 0.0839459 0.9891847 0.0839459 0.0108153 -0.0839459
2137000000 0.0104882 -0.0818982 0.9895118 0.0818982 0.9895118 0.0818982 0.0104882 -0.0818982
2158000000 0.0101740 -0.0798745 0.9898260 0.0798745 0.9898260 0.0798745 0.0101740 -0.0798745
2179000000 0.0098723 -0.0778741 0.9901277 0.0778741 0.9901277 0.0778741 0.0098723 -0.0778741
2200000000 0.0095825 -0.0758964 0.9904175 0.0758964 0.9904175 0.0758964 0.0095825 -0.0758964
2221000000 0.0093045 -0.0739406 0.9906955 0.0739406 0.9906955 0.0739406 0.0093045 -0.0739406
2242000000 0.0090377 -0.0720062 0.9909623 0.0720062 0.9909623 0.0720062 0.0090377 -0.0720062
2263000000 0.0087818 -0.0700925 0.9912182 0.0700925 0.9912182 0.0700925 0.0087818 -0.0700925
2284000000 0.0085366 -0.0681991 0.9914634 0.0681991 0.9914634 0.0681991 0.0085366 -0.0681991
2305000000 0.0083016 -0.0663252 0.9916984 0.0663252 0.9916984 0.0663252 0.0083016 -0.0663252
2326000000 0.0080767 -0.0644704 0.9919233 0.0644704 0.9919233 0.0644704 0.0080767 -0.0644704
2347000000 0.0078614 -0.0626342 0.9921386 0.0626342 0.9921386 0.0626342 0.0078614 -0.0626342
2368000000 0.0076555 -0.0608159 0.9923445 0.0608159 0.9923445 0.0608159 0.0076555 -0.0608159
2389000000 0.0074587 -0.0590152 0.9925413 0.0590152 0.9925413 0.0590152 0.0074587 -0.0590152
2410000000 0.0072709 -0.0572316 0.9927291 0.0572316 0.9927291 0.0572316 0.0072709 -0.0572316
2431000000 0.0070917 -0.0554644 0.9929083 0.0554644 0.9929083 0.0554644 0.0070917 -0.0554644
2452000000 0.0069209 -0.0537134 0.9930791 0.0537134 0.9930791 0.0537134 0.0069209 -0.0537134
2473000000 0.0067583 -0.0519781 0.9932417 0.0519781 0.9932417 0.0519781 0.0067583 -0.0519781
2494000000 0.0066037 -0.0502580 0.9933963 0.0502580 0.9933963 0.0502580 0.0066037 -0.0502580
2515000000 0.0064569 -0.0485527 0.9935431 0.0485527 0.9935431 0.0485527 0.0064569 -0.0485527
2536000000 0.0063177 -0.0468619 0.9936823 0.0468619 0.9936823 0.0468619 0.0063177 -0.0468619
2557000000 0.0061859 -0.0451850 0.9938141 0.0451850 0.9938141 0.0451850 0.0061859 -0.0451850
2578000000 0.0060614 -0.0435218 0.9939386 0.0435218 0.9939386 0.0435218 0.0060614 -0.0435218
2599000000 0.0059439 -0.0418718 0.9940561 0.0418718 0.9940561 0.0418718 0.0059439 -0.0418718
2620000000 0.0058333 -0.0402347 0.9941667 0.0402347 0.9941667 0.0402347 0.0058333 -0.0402347
2641000000 0.0057294 -0.0386102 0.9942706 0.0386102 0.9942706 0.0386102 0.0057294 -0.0386102
2662000000 0.0056322 -0.0369978 0.9943678 0.0369978 0.9943678 0.0369978 0.0056322 -0.0369978
2683000000 0.0055414 -0.0353973 0.9944586 0.0353973 0.9944586 0.0353973 0.0055414 -0.0353973
2704000000 0.0054570 -0.0338083 0.9945430 0.0338083 0.9945430 0.0338083 0.0054570 -0.0338083
2725000000 0.0053788 -0.0322306 0.9946212 0.0322306 0.9946212 0.0322306 0.0053788 -0.0322306
2746000000 0.0053066 -0.0306637 0.9946934 0.0306637 0.9946934 0.0306637 0.0053066 -0.0306637
2767000000 0.0052405 -0.0291074 0.9947595 0.0291074 0.9947595 0.0291074 0.0052405 -0.0291074
2788000000 0.0051801 -0.0275614 0.9948199 0.0275614 0.9948199 0.0275614 0.0051801 -0.0275614
2809000000 0.0051256 -0.0260254 0.9948744 0.0260254 0.9948744 0.0260254 0.0051256 -0.0260254
2830000000 0.0050766 -0.0244991 0.9949234 0.0244991 0.9949234 0.0244991 0.0050766 -0.0244991
2851000000 0.0050332 -0.0229823 0.9949668 0.0229823 0.9949668 0.0229823 0.0050332 -0.0229823
2872000000 0.0049953 -0.0214747 0.9950047 0.0214747 0.9950047 0.0214747 0.0049953 -0.0214747
2893000000 0.0049628 -0.0199759 0.9950372 0.0199759 0.9950372 0.0199759 0.0049628 -0.0199759
2914000000 0.0049355 -0.0184858 0.9950645 0.0184858 0.9950645 0.0184858 0.0049355 -0.0184858
2935000000 0.0049135 -0.0170041 0.9950865 0.0170041 0.9950865 0.0170041 0.0049135 -0.0170041
2956000000 0.0048966 -0.0155306 0.9951034 0.0155306 0.9951034 0.0155306 0.0048966 -0.0155306
2977000000 0.0048847 -0.0140649 0.9951153 0.0140649 0.9951153 0.0140649 0.0048847 -0.0140649
2998000000 0.0048779 -0.0126070 0.9951221 0.0126070 0.9951221 0.0126070 0.0048779 -0.0126070
3019000000 0.0048760 -0.0111564 0.9951240 0.0111564 0.9951240 0.0111564 0.0048760 -0.0111564
3040000000 0.0048789 -0.0097131 0.9951211 0.0097131 0.9951211 0.0097131 0.0048789 -0.0097131
3061000000 0.0048867 -0.0082768 0.9951133 0.0082768 0.9951133 0.0082768 0.0048867 -0.0082768
3082000000 0.0048993 -0.0068472 0.9951007 0.0068472 0.9951007 0.0068472 0.0048993 -0.0068472
3103000000 0.0049165 -0.0054242 0.9950835 0.0054242 0.9950835 0.0054242 0.0049165 -0.0054242
3124000000 0.0049385 -0.0040076 0.9950615 0.0040076 0.9950615 0.0040076 0.0049385 -0.0040076
3145000000 0.0049650 -0.0025971 0.9950350 0.0025971 0.9950350 0.0025971 0.0049650 -0.0025971
3166000000 0.0049961 -0.0011925 0.9950039 0.0011925 0.9950039 0.0011925 0.0049961 -0.0011925
3187000000 0.0050318 0.0002064 0.9949682 -0.0002064 0.9949682 -0.0002064 0.0050318 0.0002064
3208000000 0.0050720 0.0015997 0.9949280 -0.0015997 0.9949280 -0.0015997 0.0050720 0.0015997
3229000000 0.0051167 0.0029877 0.9948833 -0.0029877 0.9948833 -0.0029877 0.0051167 0.0029877
3250000000 0.0051658 0.0043705 0.9948342 -0.0043705 0.9948342 -0.0043705 0.0051658 0.0043705
3271000000 0.0052193 0.0057484 0.9947807 -0.0057484 0.9947807 -0.0057484 0.0052193 0.0057484
3292000000 0.0052772 0.0071215 0.9947228 -0.0071215 0.9947228 -0.0071215 0.0052772 0.0071215
3313000000 0.0053395 0.0084900 0.9946605 -0.0084900 0.9946605 -0.0084900 0.0053395 0.0084900
3334000000 0.0054062 0.0098541 0.9945938 -0.0098541 0.9945938 -0.0098541 0.0054062 0.0098541
3355000000 0.0054772 0.0112139 0.9945228 -0.0112139 0.9945228 -0.0112139 0.0054772 0.0112139
3376000000 0.0055525 0.0125697 0.9944475 -0.0125697 0.9944475 -0.0125697 0.0055525 0.0125697
3397000000 0.0056321 0.0139216 0.9943679 -0.0139216 0.9943679 -0.0139216 0.0056321 0.0139216
3418000000 0.0057160 0.0152697 0.9942840 -0.0152697 0.9942840 -0.0152697 0.0057160 0.0152697
3439000000 0.0058042 0.0166144 0.9941958 -0.0166144 0.9941958 -0.0166144 0.0058042 0.0166144
3460000000 0.0058968 0.0179556 0.9941032 -0.0179556 0.9941032 -0.0179556 0.0058968 0.0179556
3481000000 0.0059936 0.0192936 0.9940064 -0.0192936 0.9940064 -0.0192936 0.0059936 0.0192936
3502000000 0.0060946 0.0206286 0.9939054 -0.0206286 0.9939054 -0.0206286 0.0060946 0.0206286
3523000000 0.0062000 0.0219607 0.9938000 -0.0219607 0.9938000 -0.0219607 0.0062000 0.0219607
3544000000 0.0063097 0.0232900 0.9936903 -0.0232900 0.9936903 -0.0232900 0.0063097 0.0232900
3565000000 0.0064237 0.0246168 0.9935763 -0.0246168 0.9935763 -0.0246168 0.0064237 0.0246168
3586000000 0.0065420 0.0259411 0.9934580 -0.0259411 0.9934580 -0.0259411 0.0065420 0.0259411
3607000000 0.0066646 0.0272633 0.9933354 -0.0272633 0.9933354 -0.0272633 0.0066646 0.0272633
3628000000 0.0067916 0.0285833 0.9932084 -0.0285833 0.9932084 -0.0285833 0.0067916 0.0285833
3649000000 0.0069229 0.0299013 0.9930771 -0.0299013 0.9930771 -0.0299013 0.0069229 0.0299013
3670000000 0.0070586 0.0312176 0.9929414 -0.0312176 0.9929414 -0.0312176 0.0070586 0.0312176
3691000000 0.0071987 0.0325322 0.9928013 -0.0325322 0.9928013 -0.0325322 0.0071987 0.0325322
3712000000 0.0073433 0.0338454 0.9926567 -0.0338454 0.9926567 -0.0338454 0.0073433 0.0338454
3733000000 0.0074922 0.0351572 0.9925078 -0.0351572 0.9925078 -0.0351572 0.0074922 0.0351572
3754000000 0.0076457 0.0364679 0.9923543 -0.0364679 0.9923543 -0.0364679 0.0076457 0.0364679
3775000000 0.0078037 0.0377775 0.9921963 -0.0377775 0.9921963 -0.0377775 0.0078037 0.0377775
3796000000 0.0079662 0.0390862 0.9920338 -0.0390862 0.9920338 -0.0390862 0.0079662 0.0390862
3817000000 0.0081333 0.0403943 0.9918667 -0.0403943 0.9918667 -0.0403943 0.0081333 0.0403943
3838000000 0.0083050 0.0417017 0.9916950 -0.0417017 0.9916950 -0.0417017 0.0083050 0.0417017
3859000000 0.0084814 0.0430088 0.9915186 -0.0430088 0.9915186 -0.0430088 0.0084814 0.0430088
3880000000 0.0086625 0.0443155 0.9913375 -0.0443155 0.9913375 -0.0443155 0.0086625 0.0443155
3901000000 0.0088483 0.0456222 0.9911517 -0.0456222 0.9911517 -0.0456222 0.0088483 0.0456222
3922000000 0.0090390 0.0469289 0.9909610 -0.0469289 0.9909610 -0.0469289 0.0090390 0.0469289
3943000000 0.0092345 0.0482357 0.9907655 -0.0482357 0.9907655 -0.0482357 0.0092345 0.0482357
3964000000 0.0094350 0.0495429 0.9905650 -0.0495429 0.9905650 -0.0495429 0.0094350 0.0495429
3985000000 0.0096404 0.0508506 0.9903596 -0.0508506 0.9903596 -0.0508506 0.0096404 0.0508506
4006000000 0.0098509 0.0521590 0.9901491 -0.0521590 0.9901491 -0.0521590 0.0098509 0.0521590
4027000000 0.0100665 0.0534681 0.9899335 -0.0534681 0.9899335 -0.0534681 0.0100665 0.0534681
4048000000 0.0102873 0.0547782 0.9897127 -0.0547782 0.9897127 -0.0547782 0.0102873 0.0547782
4069000000 0.0105133 0.0560894 0.9894867 -0.0560894 0.9894867 -0.0560894 0.0105133 0.0560894
4090000000 0.0107447 0.0574019 0.9892553 -0.0574019 0.9892553 -0.0574019 0.0107447 0.0574019
4111000000 0.0109815 0.0587159 0.9890185 -0.0587159 0.9890185 -0.0587159 0.0109815 0.0587159
4132000000 0.0112238 0.0600314 0.9887762 -0.0600314 0.9887762 -0.0600314 0.0112238 0.0600314
4153000000 0.0114717 0.0613486 0.9885283 -0.0613486 0.9885283 -0.0613486 0.0114717 0.0613486
4174000000 0.0117253 0.0626678 0.9882747 -0.0626678 0.9882747 -0.0626678 0.0117253 0.0626678
4195000000 0.0119847 0.0639891 0.9880153 -0.0639891 0.9880153 -0.0639891 0.0119847 0.0639891
4216000000 0.0122499 0.0653126 0.9877501 -0.0653126 0.9877501 -0.0653126 0.0122499 0.0653126
4237000000 0.0125212 0.0666385 0.9874788 -0.0666385 0.9874788 -0.0666385 0.0125212 0.0666385
4258000000 0.0127986 0.0679671 0.9872014 -0.0679671 0.9872014 -0.0679671 0.0127986 0.0679671
4279000000 0.0130822 0.0692984 0.9869178 -0.0692984 0.9869178 -0.0692984 0.0130822 0.0692984
4300000000 0.0133721 0.0706326 0.9866279 -0.0706326 0.9866279 -0.0706326 0.0133721 0.0706326
4321000000 0.0136686 0.0719699 0.9863314 -0.0719699 0.9863314 -0.0719699 0.0136686 0.0719699
4342000000 0.0139716 0.0733106 0.9860284 -0.0733106 0.9860284 -0.0733106 0.0139716 0.0733106
4363000000 0.0142814 0.0746547 0.9857186 -0.0746547 0.9857186 -0.0746547 0.0142814 0.0746547
4384000000 0.0145981 0.0760025 0.9854019 -0.0760025 0.9854019 -0.0760025 0.0145981 0.0760025
4405000000 0.0149219 0.0773542 0.9850781 -0.0773542 0.9850781 -0.0773542 0.0149219 0.0773542
4426000000 0.0152529 0.0787099 0.9847471 -0.0787099 0.9847471 -0.0787099 0.0152529 0.0787099
4447000000 0.0155913 0.0800698 0.9844087 -0.0800698 0.9844087 -0.0800698 0.0155913 0.0800698
4468000000 0.0159373 0.0814342 0.9840627 -0.0814342 0.9840627 -0.0814342 0.0159373 0.0814342
4489000000 0.0162910 0.0828033 0.9837090 -0.0828033 0.9837090 -0.0828033 0.0162910 0.0828033
4510000000 0.0166526 0.0841772 0.9833474 -0.0841772 0.9833474 -0.0841772 0.0166526 0.0841772
