!Murata Part Number: GRM1851X1A822JA44
!These Parameters are Measured in Series Mode Connection
!Data Generated on Mar 30, 2021
!       o--ll--o
!Port1            Port2
!       o------o
!Operation Temp=25[degC], DC Bias Voltage=0[V]
!Freq. Start=1000[kHz] Stop=6[GHz] 401[Steps]
# Hz S RI R 50
!Freq.(Hz) S11(Real) S11(Imag) S21(Real) S21(Imag) S12(Real) S12(Imag) S22(Real) S22(Imag)
1000000 0.0380957 -0.1909829 0.9619043 0.1909829 0.9619043 0.1909829 0.0380957 -0.1909829
1021987 0.0365399 -0.1871751 0.9634601 0.1871751 0.9634601 0.1871751 0.0365399 -0.1871751
1044457 0.0350456 -0.1834309 0.9649544 0.1834309 0.9649544 0.1834309 0.0350456 -0.1834309
1067422 0.0336106 -0.1797502 0.9663894 0.1797502 0.9663894 0.1797502 0.0336106 -0.1797502
1090891 0.0322326 -0.1761325 0.9677674 0.1761325 0.9677674 0.1761325 0.0322326 -0.1761325
1114877 0.0309096 -0.1725773 0.9690904 0.1725773 0.9690904 0.1725773 0.0309096 -0.1725773
1139390 0.0296395 -0.1690844 0.9703605 0.1690844 0.9703605 0.1690844 0.0296395 -0.1690844
1164441 0.0284204 -0.1656531 0.9715796 0.1656531 0.9715796 0.1656531 0.0284204 -0.1656531
1190044 0.0272503 -0.1622829 0.9727497 0.1622829 0.9727497 0.1622829 0.0272503 -0.1622829
1216210 0.0261273 -0.1589734 0.9738727 0.1589734 0.9738727 0.1589734 0.0261273 -0.1589734
1242950 0.0250497 -0.1557237 0.9749503 0.1557237 0.9749503 0.1557237 0.0250497 -0.1557237
1270279 0.0240158 -0.1525335 0.9759842 0.1525335 0.9759842 0.1525335 0.0240158 -0.1525335
1298209 0.0230237 -0.1494019 0.9769763 0.1494019 0.9769763 0.1494019 0.0230237 -0.1494019
1326753 0.0220721 -0.1463284 0.9779279 0.1463284 0.9779279 0.1463284 0.0220721 -0.1463284
1355924 0.0211592 -0.1433122 0.9788408 0.1433122 0.9788408 0.1433122 0.0211592 -0.1433122
1385737 0.0202835 -0.1403527 0.9797165 0.1403527 0.9797165 0.1403527 0.0202835 -0.1403527
1416205 0.0194437 -0.1374491 0.9805563 0.1374491 0.9805563 0.1374491 0.0194437 -0.1374491
1447343 0.0186382 -0.1346006 0.9813618 0.1346006 0.9813618 0.1346006 0.0186382 -0.1346006
1479166 0.0178658 -0.1318066 0.9821342 0.1318066 0.9821342 0.1318066 0.0178658 -0.1318066
1511688 0.0171252 -0.1290662 0.9828748 0.1290662 0.9828748 0.1290662 0.0171252 -0.1290662
1544926 0.0164150 -0.1263788 0.9835850 0.1263788 0.9835850 0.1263788 0.0164150 -0.1263788
1578894 0.0157341 -0.1237434 0.9842659 0.1237434 0.9842659 0.1237434 0.0157341 -0.1237434
1613609 0.0150812 -0.1211595 0.9849188 0.1211595 0.9849188 0.1211595 0.0150812 -0.1211595
1649087 0.0144554 -0.1186260 0.9855446 0.1186260 0.9855446 0.1186260 0.0144554 -0.1186260
1685346 0.0138555 -0.1161424 0.9861445 0.1161424 0.9861445 0.1161424 0.0138555 -0.1161424
1722402 0.0132804 -0.1137078 0.9867196 0.1137078 0.9867196 0.1137078 0.0132804 -0.1137078
1760272 0.0127291 -0.1113214 0.9872709 0.1113214 0.9872709 0.1113214 0.0127291 -0.1113214
1798975 0.0122008 -0.1089824 0.9877992 0.1089824 0.9877992 0.1089824 0.0122008 -0.1089824
1838529 0.0116944 -0.1066900 0.9883056 0.1066900 0.9883056 0.1066900 0.0116944 -0.1066900
1878953 0.0112091 -0.1044436 0.9887909 0.1044436 0.9887909 0.1044436 0.0112091 -0.1044436
1920266 0.0107439 -0.1022422 0.9892561 0.1022422 0.9892561 0.1022422 0.0107439 -0.1022422
1962487 0.0102982 -0.1000851 0.9897018 0.1000851 0.9897018 0.1000851 0.0102982 -0.1000851
2005636 0.0098711 -0.0979715 0.9901289 0.0979715 0.9901289 0.0979715 0.0098711 -0.0979715
2049734 0.0094618 -0.0959007 0.9905382 0.0959007 0.9905382 0.0959007 0.0094618 -0.0959007
2094801 0.0090696 -0.0938720 0.9909304 0.0938720 0.9909304 0.0938720 0.0090696 -0.0938720
2140860 0.0086938 -0.0918845 0.9913062 0.0918845 0.9913062 0.0918845 0.0086938 -0.0918845
2187931 0.0083338 -0.0899375 0.9916662 0.0899375 0.9916662 0.0899375 0.0083338 -0.0899375
2236037 0.0079888 -0.0880303 0.9920112 0.0880303 0.9920112 0.0880303 0.0079888 -0.0880303
2285201 0.0076583 -0.0861622 0.9923417 0.0861622 0.9923417 0.0861622 0.0076583 -0.0861622
2335446 0.0073416 -0.0843324 0.9926584 0.0843324 0.9926584 0.0843324 0.0073416 -0.0843324
2386795 0.0070383 -0.0825402 0.9929617 0.0825402 0.9929617 0.0825402 0.0070383 -0.0825402
2439274 0.0067477 -0.0807849 0.9932523 0.0807849 0.9932523 0.0807849 0.0067477 -0.0807849
2492906 0.0064693 -0.0790658 0.9935307 0.0790658 0.9935307 0.0790658 0.0064693 -0.0790658
2547717 0.0062026 -0.0773823 0.9937974 0.0773823 0.9937974 0.0773823 0.0062026 -0.0773823
2603734 0.0059471 -0.0757336 0.9940529 0.0757336 0.9940529 0.0757336 0.0059471 -0.0757336
2660982 0.0057024 -0.0741190 0.9942976 0.0741190 0.9942976 0.0741190 0.0057024 -0.0741190
2719490 0.0054679 -0.0725380 0.9945321 0.0725380 0.9945321 0.0725380 0.0054679 -0.0725380
2779283 0.0052434 -0.0709898 0.9947566 0.0709898 0.9947566 0.0709898 0.0052434 -0.0709898
2840391 0.0050283 -0.0694739 0.9949717 0.0694739 0.9949717 0.0694739 0.0050283 -0.0694739
2902843 0.0048223 -0.0679896 0.9951777 0.0679896 0.9951777 0.0679896 0.0048223 -0.0679896
2966668 0.0046250 -0.0665362 0.9953750 0.0665362 0.9953750 0.0665362 0.0046250 -0.0665362
3031896 0.0044360 -0.0651131 0.9955640 0.0651131 0.9955640 0.0651131 0.0044360 -0.0651131
3098558 0.0042550 -0.0637199 0.9957450 0.0637199 0.9957450 0.0637199 0.0042550 -0.0637199
3166686 0.0040817 -0.0623557 0.9959183 0.0623557 0.9959183 0.0623557 0.0040817 -0.0623557
3236312 0.0039156 -0.0610202 0.9960844 0.0610202 0.9960844 0.0610202 0.0039156 -0.0610202
3307469 0.0037566 -0.0597126 0.9962434 0.0597126 0.9962434 0.0597126 0.0037566 -0.0597126
3380190 0.0036043 -0.0584325 0.9963957 0.0584325 0.9963957 0.0584325 0.0036043 -0.0584325
3454511 0.0034585 -0.0571793 0.9965415 0.0571793 0.9965415 0.0571793 0.0034585 -0.0571793
3530465 0.0033188 -0.0559524 0.9966812 0.0559524 0.9966812 0.0559524 0.0033188 -0.0559524
3608090 0.0031850 -0.0547513 0.9968150 0.0547513 0.9968150 0.0547513 0.0031850 -0.0547513
3687421 0.0030569 -0.0535755 0.9969431 0.0535755 0.9969431 0.0535755 0.0030569 -0.0535755
3768496 0.0029342 -0.0524244 0.9970658 0.0524244 0.9970658 0.0524244 0.0029342 -0.0524244
3851354 0.0028168 -0.0512976 0.9971832 0.0512976 0.9971832 0.0512976 0.0028168 -0.0512976
3936034 0.0027043 -0.0501946 0.9972957 0.0501946 0.9972957 0.0501946 0.0027043 -0.0501946
4022575 0.0025965 -0.0491148 0.9974035 0.0491148 0.9974035 0.0491148 0.0025965 -0.0491148
4111020 0.0024934 -0.0480577 0.9975066 0.0480577 0.9975066 0.0480577 0.0024934 -0.0480577
4201409 0.0023946 -0.0470230 0.9976054 0.0470230 0.9976054 0.0470230 0.0023946 -0.0470230
4293785 0.0023000 -0.0460102 0.9977000 0.0460102 0.9977000 0.0460102 0.0023000 -0.0460102
4388193 0.0022094 -0.0450187 0.9977906 0.0450187 0.9977906 0.0450187 0.0022094 -0.0450187
4484676 0.0021227 -0.0440482 0.9978773 0.0440482 0.9978773 0.0440482 0.0021227 -0.0440482
4583281 0.0020396 -0.0430981 0.9979604 0.0430981 0.9979604 0.0430981 0.0020396 -0.0430981
4684054 0.0019601 -0.0421682 0.9980399 0.0421682 0.9980399 0.0421682 0.0019601 -0.0421682
4787042 0.0018840 -0.0412579 0.9981160 0.0412579 0.9981160 0.0412579 0.0018840 -0.0412579
4892295 0.0018111 -0.0403669 0.9981889 0.0403669 0.9981889 0.0403669 0.0018111 -0.0403669
4999862 0.0017413 -0.0394947 0.9982587 0.0394947 0.9982587 0.0394947 0.0017413 -0.0394947
5109794 0.0016744 -0.0386410 0.9983256 0.0386410 0.9983256 0.0386410 0.0016744 -0.0386410
5222143 0.0016105 -0.0378053 0.9983895 0.0378053 0.9983895 0.0378053 0.0016105 -0.0378053
5336962 0.0015492 -0.0369873 0.9984508 0.0369873 0.9984508 0.0369873 0.0015492 -0.0369873
5454306 0.0014905 -0.0361866 0.9985095 0.0361866 0.9985095 0.0361866 0.0014905 -0.0361866
5574230 0.0014344 -0.0354029 0.9985656 0.0354029 0.9985656 0.0354029 0.0014344 -0.0354029
5696791 0.0013806 -0.0346357 0.9986194 0.0346357 0.9986194 0.0346357 0.0013806 -0.0346357
5822046 0.0013292 -0.0338847 0.9986708 0.0338847 0.9986708 0.0338847 0.0013292 -0.0338847
5950055 0.0012799 -0.0331496 0.9987201 0.0331496 0.9987201 0.0331496 0.0012799 -0.0331496
6080879 0.0012327 -0.0324301 0.9987673 0.0324301 0.9987673 0.0324301 0.0012327 -0.0324301
6214580 0.0011876 -0.0317258 0.9988124 0.0317258 0.9988124 0.0317258 0.0011876 -0.0317258
6351220 0.0011443 -0.0310363 0.9988557 0.0310363 0.9988557 0.0310363 0.0011443 -0.0310363
6490864 0.0011030 -0.0303614 0.9988970 0.0303614 0.9988970 0.0303614 0.0011030 -0.0303614
6633579 0.0010634 -0.0297008 0.9989366 0.0297008 0.9989366 0.0297008 0.0010634 -0.0297008
6779431 0.0010254 -0.0290542 0.9989746 0.0290542 0.9989746 0.0290542 0.0010254 -0.0290542
6928491 0.0009892 -0.0284211 0.9990108 0.0284211 0.9990108 0.0284211 0.0009892 -0.0284211
7080828 0.0009544 -0.0278015 0.9990456 0.0278015 0.9990456 0.0278015 0.0009544 -0.0278015
7236514 0.0009212 -0.0271949 0.9990788 0.0271949 0.9990788 0.0271949 0.0009212 -0.0271949
7395623 0.0008894 -0.0266011 0.9991106 0.0266011 0.9991106 0.0266011 0.0008894 -0.0266011
7558231 0.0008589 -0.0260198 0.9991411 0.0260198 0.9991411 0.0260198 0.0008589 -0.0260198
7724414 0.0008298 -0.0254507 0.9991702 0.0254507 0.9991702 0.0254507 0.0008298 -0.0254507
7894251 0.0008019 -0.0248936 0.9991981 0.0248936 0.9991981 0.0248936 0.0008019 -0.0248936
8067822 0.0007753 -0.0243483 0.9992247 0.0243483 0.9992247 0.0243483 0.0007753 -0.0243483
8245209 0.0007498 -0.0238144 0.9992502 0.0238144 0.9992502 0.0238144 0.0007498 -0.0238144
8426497 0.0007253 -0.0232917 0.9992747 0.0232917 0.9992747 0.0232917 0.0007253 -0.0232917
8611770 0.0007020 -0.0227800 0.9992980 0.0227800 0.9992980 0.0227800 0.0007020 -0.0227800
8801117 0.0006797 -0.0222790 0.9993203 0.0222790 0.9993203 0.0222790 0.0006797 -0.0222790
8994628 0.0006583 -0.0217886 0.9993417 0.0217886 0.9993417 0.0217886 0.0006583 -0.0217886
9192393 0.0006379 -0.0213084 0.9993621 0.0213084 0.9993621 0.0213084 0.0006379 -0.0213084
9394506 0.0006183 -0.0208382 0.9993817 0.0208382 0.9993817 0.0208382 0.0006183 -0.0208382
9601063 0.0005996 -0.0203779 0.9994004 0.0203779 0.9994004 0.0203779 0.0005996 -0.0203779
9812162 0.0005818 -0.0199271 0.9994182 0.0199271 0.9994182 0.0199271 0.0005818 -0.0199271
10027902 0.0005647 -0.0194858 0.9994353 0.0194858 0.9994353 0.0194858 0.0005647 -0.0194858
10248386 0.0005484 -0.0190537 0.9994516 0.0190537 0.9994516 0.0190537 0.0005484 -0.0190537
10473717 0.0005328 -0.0186305 0.9994672 0.0186305 0.9994672 0.0186305 0.0005328 -0.0186305
10704003 0.0005179 -0.0182162 0.9994821 0.0182162 0.9994821 0.0182162 0.0005179 -0.0182162
10939352 0.0005036 -0.0178104 0.9994964 0.0178104 0.9994964 0.0178104 0.0005036 -0.0178104
11179876 0.0004900 -0.0174131 0.9995100 0.0174131 0.9995100 0.0174131 0.0004900 -0.0174131
11425688 0.0004771 -0.0170240 0.9995229 0.0170240 0.9995229 0.0170240 0.0004771 -0.0170240
11676904 0.0004647 -0.0166429 0.9995353 0.0166429 0.9995353 0.0166429 0.0004647 -0.0166429
11933645 0.0004528 -0.0162697 0.9995472 0.0162697 0.9995472 0.0162697 0.0004528 -0.0162697
12196030 0.0004415 -0.0159042 0.9995585 0.0159042 0.9995585 0.0159042 0.0004415 -0.0159042
12464184 0.0004308 -0.0155461 0.9995692 0.0155461 0.9995692 0.0155461 0.0004308 -0.0155461
12738235 0.0004205 -0.0151955 0.9995795 0.0151955 0.9995795 0.0151955 0.0004205 -0.0151955
13018310 0.0004107 -0.0148520 0.9995893 0.0148520 0.9995893 0.0148520 0.0004107 -0.0148520
13304544 0.0004014 -0.0145155 0.9995986 0.0145155 0.9995986 0.0145155 0.0004014 -0.0145155
13597071 0.0003925 -0.0141859 0.9996075 0.0141859 0.9996075 0.0141859 0.0003925 -0.0141859
13896030 0.0003840 -0.0138631 0.9996160 0.0138631 0.9996160 0.0138631 0.0003840 -0.0138631
14201563 0.0003760 -0.0135467 0.9996240 0.0135467 0.9996240 0.0135467 0.0003760 -0.0135467
14513813 0.0003683 -0.0132368 0.9996317 0.0132368 0.9996317 0.0132368 0.0003683 -0.0132368
14832928 0.0003611 -0.0129332 0.9996389 0.0129332 0.9996389 0.0129332 0.0003611 -0.0129332
15159060 0.0003542 -0.0126356 0.9996458 0.0126356 0.9996458 0.0126356 0.0003542 -0.0126356
15492362 0.0003476 -0.0123441 0.9996524 0.0123441 0.9996524 0.0123441 0.0003476 -0.0123441
15832993 0.0003414 -0.0120584 0.9996586 0.0120584 0.9996586 0.0120584 0.0003414 -0.0120584
16181113 0.0003355 -0.0117784 0.9996645 0.0117784 0.9996645 0.0117784 0.0003355 -0.0117784
16536888 0.0003299 -0.0115040 0.9996701 0.0115040 0.9996701 0.0115040 0.0003299 -0.0115040
16900485 0.0003246 -0.0112351 0.9996754 0.0112351 0.9996754 0.0112351 0.0003246 -0.0112351
17272076 0.0003196 -0.0109715 0.9996804 0.0109715 0.9996804 0.0109715 0.0003196 -0.0109715
17651837 0.0003149 -0.0107130 0.9996851 0.0107130 0.9996851 0.0107130 0.0003149 -0.0107130
18039948 0.0003105 -0.0104597 0.9996895 0.0104597 0.9996895 0.0104597 0.0003105 -0.0104597
18436593 0.0003063 -0.0102113 0.9996937 0.0102113 0.9996937 0.0102113 0.0003063 -0.0102113
18841959 0.0003024 -0.0099678 0.9996976 0.0099678 0.9996976 0.0099678 0.0003024 -0.0099678
19256237 0.0002988 -0.0097291 0.9997012 0.0097291 0.9997012 0.0097291 0.0002988 -0.0097291
19679624 0.0002953 -0.0094949 0.9997047 0.0094949 0.9997047 0.0094949 0.0002953 -0.0094949
20112321 0.0002921 -0.0092653 0.9997079 0.0092653 0.9997079 0.0092653 0.0002921 -0.0092653
20554530 0.0002891 -0.0090400 0.9997109 0.0090400 0.9997109 0.0090400 0.0002891 -0.0090400
21006463 0.0002864 -0.0088191 0.9997136 0.0088191 0.9997136 0.0088191 0.0002864 -0.0088191
21468333 0.0002838 -0.0086024 0.9997162 0.0086024 0.9997162 0.0086024 0.0002838 -0.0086024
21940357 0.0002815 -0.0083898 0.9997185 0.0083898 0.9997185 0.0083898 0.0002815 -0.0083898
22422760 0.0002793 -0.0081811 0.9997207 0.0081811 0.9997207 0.0081811 0.0002793 -0.0081811
22915770 0.0002773 -0.0079764 0.9997227 0.0079764 0.9997227 0.0079764 0.0002773 -0.0079764
23419619 0.0002756 -0.0077755 0.9997244 0.0077755 0.9997244 0.0077755 0.0002756 -0.0077755
23934547 0.0002739 -0.0075783 0.9997261 0.0075783 0.9997261 0.0075783 0.0002739 -0.0075783
24460796 0.0002725 -0.0073847 0.9997275 0.0073847 0.9997275 0.0073847 0.0002725 -0.0073847
24998616 0.0002713 -0.0071947 0.9997287 0.0071947 0.9997287 0.0071947 0.0002713 -0.0071947
25548261 0.0002702 -0.0070081 0.9997298 0.0070081 0.9997298 0.0070081 0.0002702 -0.0070081
26109991 0.0002692 -0.0068248 0.9997308 0.0068248 0.9997308 0.0068248 0.0002692 -0.0068248
26684072 0.0002684 -0.0066449 0.9997316 0.0066449 0.9997316 0.0066449 0.0002684 -0.0066449
27270775 0.0002678 -0.0064681 0.9997322 0.0064681 0.9997322 0.0064681 0.0002678 -0.0064681
27870378 0.0002673 -0.0062944 0.9997327 0.0062944 0.9997327 0.0062944 0.0002673 -0.0062944
28483164 0.0002670 -0.0061238 0.9997330 0.0061238 0.9997330 0.0061238 0.0002670 -0.0061238
29109424 0.0002668 -0.0059561 0.9997332 0.0059561 0.9997332 0.0059561 0.0002668 -0.0059561
29749453 0.0002667 -0.0057913 0.9997333 0.0057913 0.9997333 0.0057913 0.0002667 -0.0057913
30403555 0.0002668 -0.0056293 0.9997332 0.0056293 0.9997332 0.0056293 0.0002668 -0.0056293
31072038 0.0002670 -0.0054700 0.9997330 0.0054700 0.9997330 0.0054700 0.0002670 -0.0054700
31755220 0.0002673 -0.0053134 0.9997327 0.0053134 0.9997327 0.0053134 0.0002673 -0.0053134
32453422 0.0002677 -0.0051593 0.9997323 0.0051593 0.9997323 0.0051593 0.0002677 -0.0051593
33166976 0.0002683 -0.0050077 0.9997317 0.0050077 0.9997317 0.0050077 0.0002683 -0.0050077
33896219 0.0002689 -0.0048586 0.9997311 0.0048586 0.9997311 0.0048586 0.0002689 -0.0048586
34641496 0.0002697 -0.0047118 0.9997303 0.0047118 0.9997303 0.0047118 0.0002697 -0.0047118
35403159 0.0002706 -0.0045674 0.9997294 0.0045674 0.9997294 0.0045674 0.0002706 -0.0045674
36181569 0.0002716 -0.0044251 0.9997284 0.0044251 0.9997284 0.0044251 0.0002716 -0.0044251
36977093 0.0002728 -0.0042850 0.9997272 0.0042850 0.9997272 0.0042850 0.0002728 -0.0042850
37790109 0.0002740 -0.0041471 0.9997260 0.0041471 0.9997260 0.0041471 0.0002740 -0.0041471
38621001 0.0002753 -0.0040111 0.9997247 0.0040111 0.9997247 0.0040111 0.0002753 -0.0040111
39470161 0.0002767 -0.0038771 0.9997233 0.0038771 0.9997233 0.0038771 0.0002767 -0.0038771
40337993 0.0002782 -0.0037451 0.9997218 0.0037451 0.9997218 0.0037451 0.0002782 -0.0037451
41224905 0.0002798 -0.0036148 0.9997202 0.0036148 0.9997202 0.0036148 0.0002798 -0.0036148
42131317 0.0002815 -0.0034864 0.9997185 0.0034864 0.9997185 0.0034864 0.0002815 -0.0034864
43057659 0.0002833 -0.0033597 0.9997167 0.0033597 0.9997167 0.0033597 0.0002833 -0.0033597
44004369 0.0002852 -0.0032346 0.9997148 0.0032346 0.9997148 0.0032346 0.0002852 -0.0032346
44971893 0.0002871 -0.0031112 0.9997129 0.0031112 0.9997129 0.0031112 0.0002871 -0.0031112
45960691 0.0002891 -0.0029893 0.9997109 0.0029893 0.9997109 0.0029893 0.0002891 -0.0029893
46971230 0.0002913 -0.0028689 0.9997087 0.0028689 0.9997087 0.0028689 0.0002913 -0.0028689
48003987 0.0002935 -0.0027499 0.9997065 0.0027499 0.9997065 0.0027499 0.0002935 -0.0027499
49059451 0.0002957 -0.0026323 0.9997043 0.0026323 0.9997043 0.0026323 0.0002957 -0.0026323
50138122 0.0002981 -0.0025161 0.9997019 0.0025161 0.9997019 0.0025161 0.0002981 -0.0025161
51240510 0.0003005 -0.0024011 0.9996995 0.0024011 0.9996995 0.0024011 0.0003005 -0.0024011
52367136 0.0003030 -0.0022873 0.9996970 0.0022873 0.9996970 0.0022873 0.0003030 -0.0022873
53518533 0.0003056 -0.0021746 0.9996944 0.0021746 0.9996944 0.0021746 0.0003056 -0.0021746
54695245 0.0003083 -0.0020631 0.9996917 0.0020631 0.9996917 0.0020631 0.0003083 -0.0020631
55897831 0.0003110 -0.0019526 0.9996890 0.0019526 0.9996890 0.0019526 0.0003110 -0.0019526
57126857 0.0003139 -0.0018430 0.9996861 0.0018430 0.9996861 0.0018430 0.0003139 -0.0018430
58382906 0.0003168 -0.0017345 0.9996832 0.0017345 0.9996832 0.0017345 0.0003168 -0.0017345
59666572 0.0003197 -0.0016268 0.9996803 0.0016268 0.9996803 0.0016268 0.0003197 -0.0016268
60978462 0.0003228 -0.0015199 0.9996772 0.0015199 0.9996772 0.0015199 0.0003228 -0.0015199
62319196 0.0003259 -0.0014138 0.9996741 0.0014138 0.9996741 0.0014138 0.0003259 -0.0014138
63689409 0.0003291 -0.0013084 0.9996709 0.0013084 0.9996709 0.0013084 0.0003291 -0.0013084
65089750 0.0003324 -0.0012037 0.9996676 0.0012037 0.9996676 0.0012037 0.0003324 -0.0012037
66520879 0.0003358 -0.0010996 0.9996642 0.0010996 0.9996642 0.0010996 0.0003358 -0.0010996
67983474 0.0003392 -0.0009961 0.9996608 0.0009961 0.9996608 0.0009961 0.0003392 -0.0009961
69478228 0.0003428 -0.0008931 0.9996572 0.0008931 0.9996572 0.0008931 0.0003428 -0.0008931
71005847 0.0003464 -0.0007905 0.9996536 0.0007905 0.9996536 0.0007905 0.0003464 -0.0007905
72567054 0.0003502 -0.0006884 0.9996498 0.0006884 0.9996498 0.0006884 0.0003502 -0.0006884
74162587 0.0003540 -0.0005866 0.9996460 0.0005866 0.9996460 0.0005866 0.0003540 -0.0005866
75793201 0.0003580 -0.0004851 0.9996420 0.0004851 0.9996420 0.0004851 0.0003580 -0.0004851
77459667 0.0003620 -0.0003838 0.9996380 0.0003838 0.9996380 0.0003838 0.0003620 -0.0003838
79162774 0.0003662 -0.0002828 0.9996338 0.0002828 0.9996338 0.0002828 0.0003662 -0.0002828
80903327 0.0003705 -0.0001818 0.9996295 0.0001818 0.9996295 0.0001818 0.0003705 -0.0001818
82682150 0.0003750 -0.0000810 0.9996250 0.0000810 0.9996250 0.0000810 0.0003750 -0.0000810
84500083 0.0003795 0.0000199 0.9996205 -0.0000199 0.9996205 -0.0000199 0.0003795 0.0000199
86357988 0.0003843 0.0001207 0.9996157 -0.0001207 0.9996157 -0.0001207 0.0003843 0.0001207
88256743 0.0003891 0.0002217 0.9996109 -0.0002217 0.9996109 -0.0002217 0.0003891 0.0002217
90197245 0.0003942 0.0003228 0.9996058 -0.0003228 0.9996058 -0.0003228 0.0003942 0.0003228
92180413 0.0003994 0.0004240 0.9996006 -0.0004240 0.9996006 -0.0004240 0.0003994 0.0004240
94207185 0.0004048 0.0005256 0.9995952 -0.0005256 0.9995952 -0.0005256 0.0004048 0.0005256
96278520 0.0004105 0.0006275 0.9995895 -0.0006275 0.9995895 -0.0006275 0.0004105 0.0006275
98395398 0.0004163 0.0007297 0.9995837 -0.0007297 0.9995837 -0.0007297 0.0004163 0.0007297
100558819 0.0004224 0.0008324 0.9995776 -0.0008324 0.9995776 -0.0008324 0.0004224 0.0008324
102769807 0.0004287 0.0009356 0.9995713 -0.0009356 0.9995713 -0.0009356 0.0004287 0.0009356
105029408 0.0004353 0.0010394 0.9995647 -0.0010394 0.9995647 -0.0010394 0.0004353 0.0010394
107338692 0.0004422 0.0011439 0.9995578 -0.0011439 0.9995578 -0.0011439 0.0004422 0.0011439
