!Murata Part Number: GRM1882C1H4R6CA01
!These Parameters are Measured in Series Mode Connection
!Data Generated on Mar 30, 2021
!       o--ll--o
!Port1            Port2
!       o------o
!Operation Temp=25[degC], DC Bias Voltage=0[V]
!Freq. Start=100[MHz] Stop=9[GHz] 401[Steps]
# Hz S RI R 50
!Freq.(Hz) S11(Real) S11(Imag) S21(Real) S21(Imag) S12(Real) S12(Imag) S22(Real) S22(Imag)
100000000 0.9226389 -0.2669290 0.0773611 0.2669290 0.0773611 0.2669290 0.9226389 -0.2669290
121000000 0.8905599 -0.3118875 0.1094401 0.3118875 0.1094401 0.3118875 0.8905599 -0.3118875
142000000 0.8551035 -0.3516163 0.1448965 0.3516163 0.1448965 0.3516163 0.8551035 -0.3516163
163000000 0.8172784 -0.3859724 0.1827216 0.3859724 0.1827216 0.3859724 0.8172784 -0.3859724
184000000 0.7780214 -0.4150173 0.2219786 0.4150173 0.2219786 0.4150173 0.7780214 -0.4150173
205000000 0.7381606 -0.4389748 0.2618394 0.4389748 0.2618394 0.4389748 0.7381606 -0.4389748
226000000 0.6983960 -0.4581852 0.3016040 0.4581852 0.3016040 0.4581852 0.6983960 -0.4581852
247000000 0.6592933 -0.4730635 0.3407067 0.4730635 0.3407067 0.4730635 0.6592933 -0.4730635
268000000 0.6212896 -0.4840629 0.3787104 0.4840629 0.3787104 0.4840629 0.6212896 -0.4840629
289000000 0.5847052 -0.4916459 0.4152948 0.4916459 0.4152948 0.4916459 0.5847052 -0.4916459
310000000 0.5497593 -0.4962630 0.4502407 0.4962630 0.4502407 0.4962630 0.5497593 -0.4962630
331000000 0.5165874 -0.4983388 0.4834126 0.4983388 0.4834126 0.4983388 0.5165874 -0.4983388
352000000 0.4852577 -0.4982627 0.5147423 0.4982627 0.5147423 0.4982627 0.4852577 -0.4982627
373000000 0.4557859 -0.4963851 0.5442141 0.4963851 0.5442141 0.4963851 0.4557859 -0.4963851
394000000 0.4281487 -0.4930161 0.5718513 0.4930161 0.5718513 0.4930161 0.4281487 -0.4930161
415000000 0.4022944 -0.4884265 0.5977056 0.4884265 0.5977056 0.4884265 0.4022944 -0.4884265
436000000 0.3781518 -0.4828503 0.6218482 0.4828503 0.6218482 0.4828503 0.3781518 -0.4828503
457000000 0.3556372 -0.4764879 0.6443628 0.4764879 0.6443628 0.4764879 0.3556372 -0.4764879
478000000 0.3346596 -0.4695097 0.6653404 0.4695097 0.6653404 0.4695097 0.3346596 -0.4695097
499000000 0.3151249 -0.4620593 0.6848751 0.4620593 0.6848751 0.4620593 0.3151249 -0.4620593
520000000 0.2969385 -0.4542575 0.7030615 0.4542575 0.7030615 0.4542575 0.2969385 -0.4542575
541000000 0.2800081 -0.4462047 0.7199919 0.4462047 0.7199919 0.4462047 0.2800081 -0.4462047
562000000 0.2642441 -0.4379846 0.7357559 0.4379846 0.7357559 0.4379846 0.2642441 -0.4379846
583000000 0.2495616 -0.4296661 0.7504384 0.4296661 0.7504384 0.4296661 0.2495616 -0.4296661
604000000 0.2358801 -0.4213057 0.7641199 0.4213057 0.7641199 0.4213057 0.2358801 -0.4213057
625000000 0.2231244 -0.4129497 0.7768756 0.4129497 0.7768756 0.4129497 0.2231244 -0.4129497
646000000 0.2112240 -0.4046353 0.7887760 0.4046353 0.7887760 0.4046353 0.2112240 -0.4046353
667000000 0.2001139 -0.3963926 0.7998861 0.3963926 0.7998861 0.3963926 0.2001139 -0.3963926
688000000 0.1897338 -0.3882456 0.8102662 0.3882456 0.8102662 0.3882456 0.1897338 -0.3882456
709000000 0.1800278 -0.3802130 0.8199722 0.3802130 0.8199722 0.3802130 0.1800278 -0.3802130
730000000 0.1709448 -0.3723094 0.8290552 0.3723094 0.8290552 0.3723094 0.1709448 -0.3723094
751000000 0.1624375 -0.3645456 0.8375625 0.3645456 0.8375625 0.3645456 0.1624375 -0.3645456
772000000 0.1544626 -0.3569299 0.8455374 0.3569299 0.8455374 0.3569299 0.1544626 -0.3569299
793000000 0.1469802 -0.3494678 0.8530198 0.3494678 0.8530198 0.3494678 0.1469802 -0.3494678
814000000 0.1399540 -0.3421630 0.8600460 0.3421630 0.8600460 0.3421630 0.1399540 -0.3421630
835000000 0.1333502 -0.3350175 0.8666498 0.3350175 0.8666498 0.3350175 0.1333502 -0.3350175
856000000 0.1271382 -0.3280322 0.8728618 0.3280322 0.8728618 0.3280322 0.1271382 -0.3280322
877000000 0.1212896 -0.3212066 0.8787104 0.3212066 0.8787104 0.3212066 0.1212896 -0.3212066
898000000 0.1157786 -0.3145395 0.8842214 0.3145395 0.8842214 0.3145395 0.1157786 -0.3145395
919000000 0.1105814 -0.3080292 0.8894186 0.3080292 0.8894186 0.3080292 0.1105814 -0.3080292
940000000 0.1056760 -0.3016730 0.8943240 0.3016730 0.8943240 0.3016730 0.1056760 -0.3016730
961000000 0.1010423 -0.2954682 0.8989577 0.2954682 0.8989577 0.2954682 0.1010423 -0.2954682
982000000 0.0966618 -0.2894115 0.9033382 0.2894115 0.9033382 0.2894115 0.0966618 -0.2894115
1003000000 0.0925175 -0.2834996 0.9074825 0.2834996 0.9074825 0.2834996 0.0925175 -0.2834996
1024000000 0.0885937 -0.2777289 0.9114063 0.2777289 0.9114063 0.2777289 0.0885937 -0.2777289
1045000000 0.0848758 -0.2720955 0.9151242 0.2720955 0.9151242 0.2720955 0.0848758 -0.2720955
1066000000 0.0813505 -0.2665958 0.9186495 0.2665958 0.9186495 0.2665958 0.0813505 -0.2665958
1087000000 0.0780054 -0.2612259 0.9219946 0.2612259 0.9219946 0.2612259 0.0780054 -0.2612259
1108000000 0.0748293 -0.2559820 0.9251707 0.2559820 0.9251707 0.2559820 0.0748293 -0.2559820
1129000000 0.0718114 -0.2508603 0.9281886 0.2508603 0.9281886 0.2508603 0.0718114 -0.2508603
1150000000 0.0689421 -0.2458570 0.9310579 0.2458570 0.9310579 0.2458570 0.0689421 -0.2458570
1171000000 0.0662122 -0.2409683 0.9337878 0.2409683 0.9337878 0.2409683 0.0662122 -0.2409683
1192000000 0.0636135 -0.2361908 0.9363865 0.2361908 0.9363865 0.2361908 0.0636135 -0.2361908
1213000000 0.0611381 -0.2315207 0.9388619 0.2315207 0.9388619 0.2315207 0.0611381 -0.2315207
1234000000 0.0587788 -0.2269547 0.9412212 0.2269547 0.9412212 0.2269547 0.0587788 -0.2269547
1255000000 0.0565289 -0.2224893 0.9434711 0.2224893 0.9434711 0.2224893 0.0565289 -0.2224893
1276000000 0.0543821 -0.2181213 0.9456179 0.2181213 0.9456179 0.2181213 0.0543821 -0.2181213
1297000000 0.0523326 -0.2138474 0.9476674 0.2138474 0.9476674 0.2138474 0.0523326 -0.2138474
1318000000 0.0503750 -0.2096647 0.9496250 0.2096647 0.9496250 0.2096647 0.0503750 -0.2096647
1339000000 0.0485042 -0.2055700 0.9514958 0.2055700 0.9514958 0.2055700 0.0485042 -0.2055700
1360000000 0.0467156 -0.2015606 0.9532844 0.2015606 0.9532844 0.2015606 0.0467156 -0.2015606
1381000000 0.0450046 -0.1976335 0.9549954 0.1976335 0.9549954 0.1976335 0.0450046 -0.1976335
1402000000 0.0433672 -0.1937862 0.9566328 0.1937862 0.9566328 0.1937862 0.0433672 -0.1937862
1423000000 0.0417996 -0.1900159 0.9582004 0.1900159 0.9582004 0.1900159 0.0417996 -0.1900159
1444000000 0.0402981 -0.1863203 0.9597019 0.1863203 0.9597019 0.1863203 0.0402981 -0.1863203
1465000000 0.0388593 -0.1826967 0.9611407 0.1826967 0.9611407 0.1826967 0.0388593 -0.1826967
1486000000 0.0374801 -0.1791431 0.9625199 0.1791431 0.9625199 0.1791431 0.0374801 -0.1791431
1507000000 0.0361575 -0.1756570 0.9638425 0.1756570 0.9638425 0.1756570 0.0361575 -0.1756570
1528000000 0.0348887 -0.1722363 0.9651113 0.1722363 0.9651113 0.1722363 0.0348887 -0.1722363
1549000000 0.0336712 -0.1688789 0.9663288 0.1688789 0.9663288 0.1688789 0.0336712 -0.1688789
1570000000 0.0325024 -0.1655828 0.9674976 0.1655828 0.9674976 0.1655828 0.0325024 -0.1655828
1591000000 0.0313800 -0.1623461 0.9686200 0.1623461 0.9686200 0.1623461 0.0313800 -0.1623461
1612000000 0.0303019 -0.1591669 0.9696981 0.1591669 0.9696981 0.1591669 0.0303019 -0.1591669
1633000000 0.0292659 -0.1560434 0.9707341 0.1560434 0.9707341 0.1560434 0.0292659 -0.1560434
1654000000 0.0282703 -0.1529738 0.9717297 0.1529738 0.9717297 0.1529738 0.0282703 -0.1529738
1675000000 0.0273131 -0.1499566 0.9726869 0.1499566 0.9726869 0.1499566 0.0273131 -0.1499566
1696000000 0.0263926 -0.1469900 0.9736074 0.1469900 0.9736074 0.1469900 0.0263926 -0.1469900
1717000000 0.0255072 -0.1440726 0.9744928 0.1440726 0.9744928 0.1440726 0.0255072 -0.1440726
1738000000 0.0246554 -0.1412028 0.9753446 0.1412028 0.9753446 0.1412028 0.0246554 -0.1412028
1759000000 0.0238357 -0.1383793 0.9761643 0.1383793 0.9761643 0.1383793 0.0238357 -0.1383793
1780000000 0.0230467 -0.1356006 0.9769533 0.1356006 0.9769533 0.1356006 0.0230467 -0.1356006
1801000000 0.0222872 -0.1328654 0.9777128 0.1328654 0.9777128 0.1328654 0.0222872 -0.1328654
1822000000 0.0215559 -0.1301723 0.9784441 0.1301723 0.9784441 0.1301723 0.0215559 -0.1301723
1843000000 0.0208517 -0.1275203 0.9791483 0.1275203 0.9791483 0.1275203 0.0208517 -0.1275203
1864000000 0.0201735 -0.1249080 0.9798265 0.1249080 0.9798265 0.1249080 0.0201735 -0.1249080
1885000000 0.0195201 -0.1223344 0.9804799 0.1223344 0.9804799 0.1223344 0.0195201 -0.1223344
1906000000 0.0188907 -0.1197982 0.9811093 0.1197982 0.9811093 0.1197982 0.0188907 -0.1197982
1927000000 0.0182842 -0.1172985 0.9817158 0.1172985 0.9817158 0.1172985 0.0182842 -0.1172985
1948000000 0.0176999 -0.1148342 0.9823001 0.1148342 0.9823001 0.1148342 0.0176999 -0.1148342
1969000000 0.0171368 -0.1124042 0.9828632 0.1124042 0.9828632 0.1124042 0.0171368 -0.1124042
1990000000 0.0165941 -0.1100077 0.9834059 0.1100077 0.9834059 0.1100077 0.0165941 -0.1100077
2011000000 0.0160710 -0.1076437 0.9839290 0.1076437 0.9839290 0.1076437 0.0160710 -0.1076437
2032000000 0.0155670 -0.1053113 0.9844330 0.1053113 0.9844330 0.1053113 0.0155670 -0.1053113
2053000000 0.0150811 -0.1030096 0.9849189 0.1030096 0.9849189 0.1030096 0.0150811 -0.1030096
2074000000 0.0146129 -0.1007378 0.9853871 0.1007378 0.9853871 0.1007378 0.0146129 -0.1007378
2095000000 0.0141616 -0.0984951 0.9858384 0.0984951 0.9858384 0.0984951 0.0141616 -0.0984951
2116000000 0.0137266 -0.0962806 0.9862734 0.0962806 0.9862734 0.0962806 0.0137266 -0.0962806
2137000000 0.0133074 -0.0940937 0.9866926 0.0940937 0.9866926 0.0940937 0.0133074 -0.0940937
2158000000 0.0129035 -0.0919336 0.9870965 0.0919336 0.9870965 0.0919336 0.0129035 -0.0919336
2179000000 0.0125142 -0.0897996 0.9874858 0.0897996 0.9874858 0.0897996 0.0125142 -0.0897996
2200000000 0.0121392 -0.0876909 0.9878608 0.0876909 0.9878608 0.0876909 0.0121392 -0.0876909
2221000000 0.0117780 -0.0856070 0.9882220 0.0856070 0.9882220 0.0856070 0.0117780 -0.0856070
2242000000 0.0114300 -0.0835472 0.9885700 0.0835472 0.9885700 0.0835472 0.0114300 -0.0835472
2263000000 0.0110949 -0.0815108 0.9889051 0.0815108 0.9889051 0.0815108 0.0110949 -0.0815108
2284000000 0.0107722 -0.0794973 0.9892278 0.0794973 0.9892278 0.0794973 0.0107722 -0.0794973
2305000000 0.0104615 -0.0775061 0.9895385 0.0775061 0.9895385 0.0775061 0.0104615 -0.0775061
2326000000 0.0101626 -0.0755366 0.9898374 0.0755366 0.9898374 0.0755366 0.0101626 -0.0755366
2347000000 0.0098749 -0.0735882 0.9901251 0.0735882 0.9901251 0.0735882 0.0098749 -0.0735882
2368000000 0.0095982 -0.0716605 0.9904018 0.0716605 0.9904018 0.0716605 0.0095982 -0.0716605
2389000000 0.0093322 -0.0697529 0.9906678 0.0697529 0.9906678 0.0697529 0.0093322 -0.0697529
2410000000 0.0090764 -0.0678648 0.9909236 0.0678648 0.9909236 0.0678648 0.0090764 -0.0678648
2431000000 0.0088307 -0.0659960 0.9911693 0.0659960 0.9911693 0.0659960 0.0088307 -0.0659960
2452000000 0.0085947 -0.0641457 0.9914053 0.0641457 0.9914053 0.0641457 0.0085947 -0.0641457
2473000000 0.0083681 -0.0623137 0.9916319 0.0623137 0.9916319 0.0623137 0.0083681 -0.0623137
2494000000 0.0081507 -0.0604994 0.9918493 0.0604994 0.9918493 0.0604994 0.0081507 -0.0604994
2515000000 0.0079422 -0.0587024 0.9920578 0.0587024 0.9920578 0.0587024 0.0079422 -0.0587024
2536000000 0.0077424 -0.0569224 0.9922576 0.0569224 0.9922576 0.0569224 0.0077424 -0.0569224
2557000000 0.0075510 -0.0551588 0.9924490 0.0551588 0.9924490 0.0551588 0.0075510 -0.0551588
2578000000 0.0073679 -0.0534114 0.9926321 0.0534114 0.9926321 0.0534114 0.0073679 -0.0534114
2599000000 0.0071927 -0.0516796 0.9928073 0.0516796 0.9928073 0.0516796 0.0071927 -0.0516796
2620000000 0.0070253 -0.0499632 0.9929747 0.0499632 0.9929747 0.0499632 0.0070253 -0.0499632
2641000000 0.0068654 -0.0482618 0.9931346 0.0482618 0.9931346 0.0482618 0.0068654 -0.0482618
2662000000 0.0067130 -0.0465750 0.9932870 0.0465750 0.9932870 0.0465750 0.0067130 -0.0465750
2683000000 0.0065678 -0.0449025 0.9934322 0.0449025 0.9934322 0.0449025 0.0065678 -0.0449025
2704000000 0.0064296 -0.0432440 0.9935704 0.0432440 0.9935704 0.0432440 0.0064296 -0.0432440
2725000000 0.0062982 -0.0415991 0.9937018 0.0415991 0.9937018 0.0415991 0.0062982 -0.0415991
2746000000 0.0061736 -0.0399675 0.9938264 0.0399675 0.9938264 0.0399675 0.0061736 -0.0399675
2767000000 0.0060555 -0.0383489 0.9939445 0.0383489 0.9939445 0.0383489 0.0060555 -0.0383489
2788000000 0.0059437 -0.0367430 0.9940563 0.0367430 0.9940563 0.0367430 0.0059437 -0.0367430
2809000000 0.0058382 -0.0351496 0.9941618 0.0351496 0.9941618 0.0351496 0.0058382 -0.0351496
2830000000 0.0057388 -0.0335682 0.9942612 0.0335682 0.9942612 0.0335682 0.0057388 -0.0335682
2851000000 0.0056454 -0.0319988 0.9943546 0.0319988 0.9943546 0.0319988 0.0056454 -0.0319988
2872000000 0.0055578 -0.0304409 0.9944422 0.0304409 0.9944422 0.0304409 0.0055578 -0.0304409
2893000000 0.0054759 -0.0288943 0.9945241 0.0288943 0.9945241 0.0288943 0.0054759 -0.0288943
2914000000 0.0053996 -0.0273588 0.9946004 0.0273588 0.9946004 0.0273588 0.0053996 -0.0273588
2935000000 0.0053287 -0.0258341 0.9946713 0.0258341 0.9946713 0.0258341 0.0053287 -0.0258341
2956000000 0.0052633 -0.0243199 0.9947367 0.0243199 0.9947367 0.0243199 0.0052633 -0.0243199
2977000000 0.0052031 -0.0228161 0.9947969 0.0228161 0.9947969 0.0228161 0.0052031 -0.0228161
2998000000 0.0051480 -0.0213224 0.9948520 0.0213224 0.9948520 0.0213224 0.0051480 -0.0213224
3019000000 0.0050980 -0.0198386 0.9949020 0.0198386 0.9949020 0.0198386 0.0050980 -0.0198386
3040000000 0.0050530 -0.0183644 0.9949470 0.0183644 0.9949470 0.0183644 0.0050530 -0.0183644
3061000000 0.0050128 -0.0168996 0.9949872 0.0168996 0.9949872 0.0168996 0.0050128 -0.0168996
3082000000 0.0049774 -0.0154441 0.9950226 0.0154441 0.9950226 0.0154441 0.0049774 -0.0154441
3103000000 0.0049467 -0.0139976 0.9950533 0.0139976 0.9950533 0.0139976 0.0049467 -0.0139976
3124000000 0.0049207 -0.0125599 0.9950793 0.0125599 0.9950793 0.0125599 0.0049207 -0.0125599
3145000000 0.0048992 -0.0111308 0.9951008 0.0111308 0.9951008 0.0111308 0.0048992 -0.0111308
3166000000 0.0048821 -0.0097101 0.9951179 0.0097101 0.9951179 0.0097101 0.0048821 -0.0097101
3187000000 0.0048694 -0.0082976 0.9951306 0.0082976 0.9951306 0.0082976 0.0048694 -0.0082976
3208000000 0.0048611 -0.0068932 0.9951389 0.0068932 0.9951389 0.0068932 0.0048611 -0.0068932
3229000000 0.0048570 -0.0054966 0.9951430 0.0054966 0.9951430 0.0054966 0.0048570 -0.0054966
3250000000 0.0048571 -0.0041078 0.9951429 0.0041078 0.9951429 0.0041078 0.0048571 -0.0041078
3271000000 0.0048614 -0.0027264 0.9951386 0.0027264 0.9951386 0.0027264 0.0048614 -0.0027264
3292000000 0.0048697 -0.0013524 0.9951303 0.0013524 0.9951303 0.0013524 0.0048697 -0.0013524
3313000000 0.0048820 0.0000144 0.9951180 -0.0000144 0.9951180 -0.0000144 0.0048820 0.0000144
3334000000 0.0048984 0.0013743 0.9951016 -0.0013743 0.9951016 -0.0013743 0.0048984 0.0013743
3355000000 0.0049186 0.0027273 0.9950814 -0.0027273 0.9950814 -0.0027273 0.0049186 0.0027273
3376000000 0.0049427 0.0040735 0.9950573 -0.0040735 0.9950573 -0.0040735 0.0049427 0.0040735
3397000000 0.0049706 0.0054133 0.9950294 -0.0054133 0.9950294 -0.0054133 0.0049706 0.0054133
3418000000 0.0050023 0.0067467 0.9949977 -0.0067467 0.9949977 -0.0067467 0.0050023 0.0067467
3439000000 0.0050377 0.0080738 0.9949623 -0.0080738 0.9949623 -0.0080738 0.0050377 0.0080738
3460000000 0.0050768 0.0093949 0.9949232 -0.0093949 0.9949232 -0.0093949 0.0050768 0.0093949
3481000000 0.0051195 0.0107100 0.9948805 -0.0107100 0.9948805 -0.0107100 0.0051195 0.0107100
3502000000 0.0051659 0.0120192 0.9948341 -0.0120192 0.9948341 -0.0120192 0.0051659 0.0120192
3523000000 0.0052158 0.0133229 0.9947842 -0.0133229 0.9947842 -0.0133229 0.0052158 0.0133229
3544000000 0.0052693 0.0146210 0.9947307 -0.0146210 0.9947307 -0.0146210 0.0052693 0.0146210
3565000000 0.0053263 0.0159137 0.9946737 -0.0159137 0.9946737 -0.0159137 0.0053263 0.0159137
3586000000 0.0053868 0.0172011 0.9946132 -0.0172011 0.9946132 -0.0172011 0.0053868 0.0172011
3607000000 0.0054508 0.0184834 0.9945492 -0.0184834 0.9945492 -0.0184834 0.0054508 0.0184834
3628000000 0.0055181 0.0197607 0.9944819 -0.0197607 0.9944819 -0.0197607 0.0055181 0.0197607
3649000000 0.0055889 0.0210331 0.9944111 -0.0210331 0.9944111 -0.0210331 0.0055889 0.0210331
3670000000 0.0056631 0.0223008 0.9943369 -0.0223008 0.9943369 -0.0223008 0.0056631 0.0223008
3691000000 0.0057406 0.0235638 0.9942594 -0.0235638 0.9942594 -0.0235638 0.0057406 0.0235638
3712000000 0.0058214 0.0248223 0.9941786 -0.0248223 0.9941786 -0.0248223 0.0058214 0.0248223
3733000000 0.0059056 0.0260764 0.9940944 -0.0260764 0.9940944 -0.0260764 0.0059056 0.0260764
3754000000 0.0059931 0.0273262 0.9940069 -0.0273262 0.9940069 -0.0273262 0.0059931 0.0273262
3775000000 0.0060838 0.0285719 0.9939162 -0.0285719 0.9939162 -0.0285719 0.0060838 0.0285719
3796000000 0.0061779 0.0298136 0.9938221 -0.0298136 0.9938221 -0.0298136 0.0061779 0.0298136
3817000000 0.0062752 0.0310513 0.9937248 -0.0310513 0.9937248 -0.0310513 0.0062752 0.0310513
3838000000 0.0063757 0.0322851 0.9936243 -0.0322851 0.9936243 -0.0322851 0.0063757 0.0322851
3859000000 0.0064795 0.0335153 0.9935205 -0.0335153 0.9935205 -0.0335153 0.0064795 0.0335153
3880000000 0.0065865 0.0347419 0.9934135 -0.0347419 0.9934135 -0.0347419 0.0065865 0.0347419
3901000000 0.0066967 0.0359649 0.9933033 -0.0359649 0.9933033 -0.0359649 0.0066967 0.0359649
3922000000 0.0068102 0.0371846 0.9931898 -0.0371846 0.9931898 -0.0371846 0.0068102 0.0371846
3943000000 0.0069269 0.0384010 0.9930731 -0.0384010 0.9930731 -0.0384010 0.0069269 0.0384010
3964000000 0.0070468 0.0396142 0.9929532 -0.0396142 0.9929532 -0.0396142 0.0070468 0.0396142
3985000000 0.0071699 0.0408244 0.9928301 -0.0408244 0.9928301 -0.0408244 0.0071699 0.0408244
4006000000 0.0072962 0.0420316 0.9927038 -0.0420316 0.9927038 -0.0420316 0.0072962 0.0420316
4027000000 0.0074257 0.0432359 0.9925743 -0.0432359 0.9925743 -0.0432359 0.0074257 0.0432359
4048000000 0.0075584 0.0444375 0.9924416 -0.0444375 0.9924416 -0.0444375 0.0075584 0.0444375
4069000000 0.0076944 0.0456364 0.9923056 -0.0456364 0.9923056 -0.0456364 0.0076944 0.0456364
4090000000 0.0078336 0.0468327 0.9921664 -0.0468327 0.9921664 -0.0468327 0.0078336 0.0468327
4111000000 0.0079760 0.0480266 0.9920240 -0.0480266 0.9920240 -0.0480266 0.0079760 0.0480266
4132000000 0.0081216 0.0492181 0.9918784 -0.0492181 0.9918784 -0.0492181 0.0081216 0.0492181
4153000000 0.0082705 0.0504074 0.9917295 -0.0504074 0.9917295 -0.0504074 0.0082705 0.0504074
4174000000 0.0084227 0.0515945 0.9915773 -0.0515945 0.9915773 -0.0515945 0.0084227 0.0515945
4195000000 0.0085782 0.0527795 0.9914218 -0.0527795 0.9914218 -0.0527795 0.0085782 0.0527795
4216000000 0.0087369 0.0539626 0.9912631 -0.0539626 0.9912631 -0.0539626 0.0087369 0.0539626
4237000000 0.0088990 0.0551437 0.9911010 -0.0551437 0.9911010 -0.0551437 0.0088990 0.0551437
4258000000 0.0090644 0.0563232 0.9909356 -0.0563232 0.9909356 -0.0563232 0.0090644 0.0563232
4279000000 0.0092331 0.0575009 0.9907669 -0.0575009 0.9907669 -0.0575009 0.0092331 0.0575009
4300000000 0.0094052 0.0586771 0.9905948 -0.0586771 0.9905948 -0.0586771 0.0094052 0.0586771
4321000000 0.0095807 0.0598518 0.9904193 -0.0598518 0.9904193 -0.0598518 0.0095807 0.0598518
4342000000 0.0097596 0.0610251 0.9902404 -0.0610251 0.9902404 -0.0610251 0.0097596 0.0610251
4363000000 0.0099420 0.0621971 0.9900580 -0.0621971 0.9900580 -0.0621971 0.0099420 0.0621971
4384000000 0.0101278 0.0633680 0.9898722 -0.0633680 0.9898722 -0.0633680 0.0101278 0.0633680
4405000000 0.0103171 0.0645377 0.9896829 -0.0645377 0.9896829 -0.0645377 0.0103171 0.0645377
4426000000 0.0105100 0.0657065 0.9894900 -0.0657065 0.9894900 -0.0657065 0.0105100 0.0657065
4447000000 0.0107065 0.0668743 0.9892935 -0.0668743 0.9892935 -0.0668743 0.0107065 0.0668743
4468000000 0.0109065 0.0680414 0.9890935 -0.0680414 0.9890935 -0.0680414 0.0109065 0.0680414
4489000000 0.0111102 0.0692078 0.9888898 -0.0692078 0.9888898 -0.0692078 0.0111102 0.0692078
4510000000 0.0113176 0.0703735 0.9886824 -0.0703735 0.9886824 -0.0703735 0.0113176 0.0703735
