!Murata Part Number: GRM1857U1A103JA44
!These Parameters are Measured in Series Mode Connection
!Data Generated on Mar 30, 2021
!       o--ll--o
!Port1            Port2
!       o------o
!Operation Temp=25[degC], DC Bias Voltage=0[V]
!Freq. Start=1000[kHz] Stop=6[GHz] 401[Steps]
# Hz S RI R 50
!Freq.(Hz) S11(Real) S11(Imag) S21(Real) S21(Imag) S12(Real) S12(Imag) S22(Real) S22(Imag)
1000000 0.0234878 -0.1510281 0.9765122 0.1510281 0.9765122 0.1510281 0.0234878 -0.1510281
1021987 0.0225154 -0.1479247 0.9774846 0.1479247 0.9774846 0.1479247 0.0225154 -0.1479247
1044457 0.0215826 -0.1448790 0.9784174 0.1448790 0.9784174 0.1448790 0.0215826 -0.1448790
1067422 0.0206879 -0.1418903 0.9793121 0.1418903 0.9793121 0.1418903 0.0206879 -0.1418903
1090891 0.0198297 -0.1389579 0.9801703 0.1389579 0.9801703 0.1389579 0.0198297 -0.1389579
1114877 0.0190066 -0.1360810 0.9809934 0.1360810 0.9809934 0.1360810 0.0190066 -0.1360810
1139390 0.0182172 -0.1332590 0.9817828 0.1332590 0.9817828 0.1332590 0.0182172 -0.1332590
1164441 0.0174603 -0.1304911 0.9825397 0.1304911 0.9825397 0.1304911 0.0174603 -0.1304911
1190044 0.0167345 -0.1277764 0.9832655 0.1277764 0.9832655 0.1277764 0.0167345 -0.1277764
1216210 0.0160386 -0.1251143 0.9839614 0.1251143 0.9839614 0.1251143 0.0160386 -0.1251143
1242950 0.0153713 -0.1225040 0.9846287 0.1225040 0.9846287 0.1225040 0.0153713 -0.1225040
1270279 0.0147317 -0.1199446 0.9852683 0.1199446 0.9852683 0.1199446 0.0147317 -0.1199446
1298209 0.0141184 -0.1174354 0.9858816 0.1174354 0.9858816 0.1174354 0.0141184 -0.1174354
1326753 0.0135306 -0.1149757 0.9864694 0.1149757 0.9864694 0.1149757 0.0135306 -0.1149757
1355924 0.0129671 -0.1125645 0.9870329 0.1125645 0.9870329 0.1125645 0.0129671 -0.1125645
1385737 0.0124271 -0.1102012 0.9875729 0.1102012 0.9875729 0.1102012 0.0124271 -0.1102012
1416205 0.0119094 -0.1078850 0.9880906 0.1078850 0.9880906 0.1078850 0.0119094 -0.1078850
1447343 0.0114133 -0.1056150 0.9885867 0.1056150 0.9885867 0.1056150 0.0114133 -0.1056150
1479166 0.0109378 -0.1033905 0.9890622 0.1033905 0.9890622 0.1033905 0.0109378 -0.1033905
1511688 0.0104822 -0.1012108 0.9895178 0.1012108 0.9895178 0.1012108 0.0104822 -0.1012108
1544926 0.0100455 -0.0990750 0.9899545 0.0990750 0.9899545 0.0990750 0.0100455 -0.0990750
1578894 0.0096271 -0.0969823 0.9903729 0.0969823 0.9903729 0.0969823 0.0096271 -0.0969823
1613609 0.0092262 -0.0949321 0.9907738 0.0949321 0.9907738 0.0949321 0.0092262 -0.0949321
1649087 0.0088420 -0.0929235 0.9911580 0.0929235 0.9911580 0.0929235 0.0088420 -0.0929235
1685346 0.0084739 -0.0909559 0.9915261 0.0909559 0.9915261 0.0909559 0.0084739 -0.0909559
1722402 0.0081212 -0.0890284 0.9918788 0.0890284 0.9918788 0.0890284 0.0081212 -0.0890284
1760272 0.0077833 -0.0871404 0.9922167 0.0871404 0.9922167 0.0871404 0.0077833 -0.0871404
1798975 0.0074596 -0.0852911 0.9925404 0.0852911 0.9925404 0.0852911 0.0074596 -0.0852911
1838529 0.0071494 -0.0834797 0.9928506 0.0834797 0.9928506 0.0834797 0.0071494 -0.0834797
1878953 0.0068523 -0.0817057 0.9931477 0.0817057 0.9931477 0.0817057 0.0068523 -0.0817057
1920266 0.0065676 -0.0799682 0.9934324 0.0799682 0.9934324 0.0799682 0.0065676 -0.0799682
1962487 0.0062950 -0.0782666 0.9937050 0.0782666 0.9937050 0.0782666 0.0062950 -0.0782666
2005636 0.0060338 -0.0766002 0.9939662 0.0766002 0.9939662 0.0766002 0.0060338 -0.0766002
2049734 0.0057836 -0.0749684 0.9942164 0.0749684 0.9942164 0.0749684 0.0057836 -0.0749684
2094801 0.0055439 -0.0733704 0.9944561 0.0733704 0.9944561 0.0733704 0.0055439 -0.0733704
2140860 0.0053143 -0.0718056 0.9946857 0.0718056 0.9946857 0.0718056 0.0053143 -0.0718056
2187931 0.0050944 -0.0702734 0.9949056 0.0702734 0.9949056 0.0702734 0.0050944 -0.0702734
2236037 0.0048838 -0.0687731 0.9951162 0.0687731 0.9951162 0.0687731 0.0048838 -0.0687731
2285201 0.0046820 -0.0673041 0.9953180 0.0673041 0.9953180 0.0673041 0.0046820 -0.0673041
2335446 0.0044888 -0.0658657 0.9955112 0.0658657 0.9955112 0.0658657 0.0044888 -0.0658657
2386795 0.0043037 -0.0644575 0.9956963 0.0644575 0.9956963 0.0644575 0.0043037 -0.0644575
2439274 0.0041265 -0.0630787 0.9958735 0.0630787 0.9958735 0.0630787 0.0041265 -0.0630787
2492906 0.0039567 -0.0617288 0.9960433 0.0617288 0.9960433 0.0617288 0.0039567 -0.0617288
2547717 0.0037942 -0.0604072 0.9962058 0.0604072 0.9962058 0.0604072 0.0037942 -0.0604072
2603734 0.0036385 -0.0591134 0.9963615 0.0591134 0.9963615 0.0591134 0.0036385 -0.0591134
2660982 0.0034894 -0.0578467 0.9965106 0.0578467 0.9965106 0.0578467 0.0034894 -0.0578467
2719490 0.0033466 -0.0566067 0.9966534 0.0566067 0.9966534 0.0566067 0.0033466 -0.0566067
2779283 0.0032098 -0.0553927 0.9967902 0.0553927 0.9967902 0.0553927 0.0032098 -0.0553927
2840391 0.0030788 -0.0542043 0.9969212 0.0542043 0.9969212 0.0542043 0.0030788 -0.0542043
2902843 0.0029534 -0.0530410 0.9970466 0.0530410 0.9970466 0.0530410 0.0029534 -0.0530410
2966668 0.0028333 -0.0519022 0.9971667 0.0519022 0.9971667 0.0519022 0.0028333 -0.0519022
3031896 0.0027183 -0.0507873 0.9972817 0.0507873 0.9972817 0.0507873 0.0027183 -0.0507873
3098558 0.0026082 -0.0496961 0.9973918 0.0496961 0.9973918 0.0496961 0.0026082 -0.0496961
3166686 0.0025028 -0.0486278 0.9974972 0.0486278 0.9974972 0.0486278 0.0025028 -0.0486278
3236312 0.0024018 -0.0475822 0.9975982 0.0475822 0.9975982 0.0475822 0.0024018 -0.0475822
3307469 0.0023051 -0.0465586 0.9976949 0.0465586 0.9976949 0.0465586 0.0023051 -0.0465586
3380190 0.0022125 -0.0455566 0.9977875 0.0455566 0.9977875 0.0455566 0.0022125 -0.0455566
3454511 0.0021239 -0.0445759 0.9978761 0.0445759 0.9978761 0.0445759 0.0021239 -0.0445759
3530465 0.0020390 -0.0436159 0.9979610 0.0436159 0.9979610 0.0436159 0.0020390 -0.0436159
3608090 0.0019577 -0.0426763 0.9980423 0.0426763 0.9980423 0.0426763 0.0019577 -0.0426763
3687421 0.0018799 -0.0417565 0.9981201 0.0417565 0.9981201 0.0417565 0.0018799 -0.0417565
3768496 0.0018054 -0.0408562 0.9981946 0.0408562 0.9981946 0.0408562 0.0018054 -0.0408562
3851354 0.0017341 -0.0399750 0.9982659 0.0399750 0.9982659 0.0399750 0.0017341 -0.0399750
3936034 0.0016658 -0.0391124 0.9983342 0.0391124 0.9983342 0.0391124 0.0016658 -0.0391124
4022575 0.0016004 -0.0382681 0.9983996 0.0382681 0.9983996 0.0382681 0.0016004 -0.0382681
4111020 0.0015378 -0.0374417 0.9984622 0.0374417 0.9984622 0.0374417 0.0015378 -0.0374417
4201409 0.0014779 -0.0366328 0.9985221 0.0366328 0.9985221 0.0366328 0.0014779 -0.0366328
4293785 0.0014205 -0.0358411 0.9985795 0.0358411 0.9985795 0.0358411 0.0014205 -0.0358411
4388193 0.0013656 -0.0350662 0.9986344 0.0350662 0.9986344 0.0350662 0.0013656 -0.0350662
4484676 0.0013131 -0.0343077 0.9986869 0.0343077 0.9986869 0.0343077 0.0013131 -0.0343077
4583281 0.0012627 -0.0335652 0.9987373 0.0335652 0.9987373 0.0335652 0.0012627 -0.0335652
4684054 0.0012145 -0.0328385 0.9987855 0.0328385 0.9987855 0.0328385 0.0012145 -0.0328385
4787042 0.0011684 -0.0321272 0.9988316 0.0321272 0.9988316 0.0321272 0.0011684 -0.0321272
4892295 0.0011243 -0.0314310 0.9988757 0.0314310 0.9988757 0.0314310 0.0011243 -0.0314310
4999862 0.0010820 -0.0307495 0.9989180 0.0307495 0.9989180 0.0307495 0.0010820 -0.0307495
5109794 0.0010416 -0.0300825 0.9989584 0.0300825 0.9989584 0.0300825 0.0010416 -0.0300825
5222143 0.0010029 -0.0294296 0.9989971 0.0294296 0.9989971 0.0294296 0.0010029 -0.0294296
5336962 0.0009658 -0.0287906 0.9990342 0.0287906 0.9990342 0.0287906 0.0009658 -0.0287906
5454306 0.0009304 -0.0281650 0.9990696 0.0281650 0.9990696 0.0281650 0.0009304 -0.0281650
5574230 0.0008965 -0.0275528 0.9991035 0.0275528 0.9991035 0.0275528 0.0008965 -0.0275528
5696791 0.0008640 -0.0269534 0.9991360 0.0269534 0.9991360 0.0269534 0.0008640 -0.0269534
5822046 0.0008329 -0.0263668 0.9991671 0.0263668 0.9991671 0.0263668 0.0008329 -0.0263668
5950055 0.0008032 -0.0257926 0.9991968 0.0257926 0.9991968 0.0257926 0.0008032 -0.0257926
6080879 0.0007747 -0.0252305 0.9992253 0.0252305 0.9992253 0.0252305 0.0007747 -0.0252305
6214580 0.0007475 -0.0246803 0.9992525 0.0246803 0.9992525 0.0246803 0.0007475 -0.0246803
6351220 0.0007214 -0.0241417 0.9992786 0.0241417 0.9992786 0.0241417 0.0007214 -0.0241417
6490864 0.0006965 -0.0236145 0.9993035 0.0236145 0.9993035 0.0236145 0.0006965 -0.0236145
6633579 0.0006726 -0.0230984 0.9993274 0.0230984 0.9993274 0.0230984 0.0006726 -0.0230984
6779431 0.0006498 -0.0225932 0.9993502 0.0225932 0.9993502 0.0225932 0.0006498 -0.0225932
6928491 0.0006280 -0.0220987 0.9993720 0.0220987 0.9993720 0.0220987 0.0006280 -0.0220987
7080828 0.0006071 -0.0216146 0.9993929 0.0216146 0.9993929 0.0216146 0.0006071 -0.0216146
7236514 0.0005871 -0.0211407 0.9994129 0.0211407 0.9994129 0.0211407 0.0005871 -0.0211407
7395623 0.0005680 -0.0206768 0.9994320 0.0206768 0.9994320 0.0206768 0.0005680 -0.0206768
7558231 0.0005497 -0.0202226 0.9994503 0.0202226 0.9994503 0.0202226 0.0005497 -0.0202226
7724414 0.0005322 -0.0197779 0.9994678 0.0197779 0.9994678 0.0197779 0.0005322 -0.0197779
7894251 0.0005155 -0.0193426 0.9994845 0.0193426 0.9994845 0.0193426 0.0005155 -0.0193426
8067822 0.0004995 -0.0189165 0.9995005 0.0189165 0.9995005 0.0189165 0.0004995 -0.0189165
8245209 0.0004842 -0.0184992 0.9995158 0.0184992 0.9995158 0.0184992 0.0004842 -0.0184992
8426497 0.0004696 -0.0180907 0.9995304 0.0180907 0.9995304 0.0180907 0.0004696 -0.0180907
8611770 0.0004556 -0.0176908 0.9995444 0.0176908 0.9995444 0.0176908 0.0004556 -0.0176908
8801117 0.0004423 -0.0172992 0.9995577 0.0172992 0.9995577 0.0172992 0.0004423 -0.0172992
8994628 0.0004295 -0.0169158 0.9995705 0.0169158 0.9995705 0.0169158 0.0004295 -0.0169158
9192393 0.0004173 -0.0165404 0.9995827 0.0165404 0.9995827 0.0165404 0.0004173 -0.0165404
9394506 0.0004056 -0.0161728 0.9995944 0.0161728 0.9995944 0.0161728 0.0004056 -0.0161728
9601063 0.0003944 -0.0158128 0.9996056 0.0158128 0.9996056 0.0158128 0.0003944 -0.0158128
9812162 0.0003838 -0.0154603 0.9996162 0.0154603 0.9996162 0.0154603 0.0003838 -0.0154603
10027902 0.0003736 -0.0151152 0.9996264 0.0151152 0.9996264 0.0151152 0.0003736 -0.0151152
10248386 0.0003638 -0.0147771 0.9996362 0.0147771 0.9996362 0.0147771 0.0003638 -0.0147771
10473717 0.0003545 -0.0144461 0.9996455 0.0144461 0.9996455 0.0144461 0.0003545 -0.0144461
10704003 0.0003456 -0.0141219 0.9996544 0.0141219 0.9996544 0.0141219 0.0003456 -0.0141219
10939352 0.0003371 -0.0138044 0.9996629 0.0138044 0.9996629 0.0138044 0.0003371 -0.0138044
11179876 0.0003290 -0.0134934 0.9996710 0.0134934 0.9996710 0.0134934 0.0003290 -0.0134934
11425688 0.0003213 -0.0131888 0.9996787 0.0131888 0.9996787 0.0131888 0.0003213 -0.0131888
11676904 0.0003139 -0.0128904 0.9996861 0.0128904 0.9996861 0.0128904 0.0003139 -0.0128904
11933645 0.0003068 -0.0125982 0.9996932 0.0125982 0.9996932 0.0125982 0.0003068 -0.0125982
12196030 0.0003001 -0.0123119 0.9996999 0.0123119 0.9996999 0.0123119 0.0003001 -0.0123119
12464184 0.0002937 -0.0120314 0.9997063 0.0120314 0.9997063 0.0120314 0.0002937 -0.0120314
12738235 0.0002875 -0.0117566 0.9997125 0.0117566 0.9997125 0.0117566 0.0002875 -0.0117566
13018310 0.0002817 -0.0114874 0.9997183 0.0114874 0.9997183 0.0114874 0.0002817 -0.0114874
13304544 0.0002761 -0.0112236 0.9997239 0.0112236 0.9997239 0.0112236 0.0002761 -0.0112236
13597071 0.0002708 -0.0109652 0.9997292 0.0109652 0.9997292 0.0109652 0.0002708 -0.0109652
13896030 0.0002657 -0.0107119 0.9997343 0.0107119 0.9997343 0.0107119 0.0002657 -0.0107119
14201563 0.0002608 -0.0104637 0.9997392 0.0104637 0.9997392 0.0104637 0.0002608 -0.0104637
14513813 0.0002562 -0.0102205 0.9997438 0.0102205 0.9997438 0.0102205 0.0002562 -0.0102205
14832928 0.0002518 -0.0099821 0.9997482 0.0099821 0.9997482 0.0099821 0.0002518 -0.0099821
15159060 0.0002477 -0.0097484 0.9997523 0.0097484 0.9997523 0.0097484 0.0002477 -0.0097484
15492362 0.0002437 -0.0095193 0.9997563 0.0095193 0.9997563 0.0095193 0.0002437 -0.0095193
15832993 0.0002399 -0.0092948 0.9997601 0.0092948 0.9997601 0.0092948 0.0002399 -0.0092948
16181113 0.0002363 -0.0090746 0.9997637 0.0090746 0.9997637 0.0090746 0.0002363 -0.0090746
16536888 0.0002329 -0.0088588 0.9997671 0.0088588 0.9997671 0.0088588 0.0002329 -0.0088588
16900485 0.0002297 -0.0086471 0.9997703 0.0086471 0.9997703 0.0086471 0.0002297 -0.0086471
17272076 0.0002266 -0.0084396 0.9997734 0.0084396 0.9997734 0.0084396 0.0002266 -0.0084396
17651837 0.0002237 -0.0082360 0.9997763 0.0082360 0.9997763 0.0082360 0.0002237 -0.0082360
18039948 0.0002209 -0.0080363 0.9997791 0.0080363 0.9997791 0.0080363 0.0002209 -0.0080363
18436593 0.0002183 -0.0078405 0.9997817 0.0078405 0.9997817 0.0078405 0.0002183 -0.0078405
18841959 0.0002158 -0.0076483 0.9997842 0.0076483 0.9997842 0.0076483 0.0002158 -0.0076483
19256237 0.0002135 -0.0074598 0.9997865 0.0074598 0.9997865 0.0074598 0.0002135 -0.0074598
19679624 0.0002113 -0.0072748 0.9997887 0.0072748 0.9997887 0.0072748 0.0002113 -0.0072748
20112321 0.0002092 -0.0070932 0.9997908 0.0070932 0.9997908 0.0070932 0.0002092 -0.0070932
20554530 0.0002073 -0.0069150 0.9997927 0.0069150 0.9997927 0.0069150 0.0002073 -0.0069150
21006463 0.0002054 -0.0067401 0.9997946 0.0067401 0.9997946 0.0067401 0.0002054 -0.0067401
21468333 0.0002037 -0.0065684 0.9997963 0.0065684 0.9997963 0.0065684 0.0002037 -0.0065684
21940357 0.0002021 -0.0063998 0.9997979 0.0063998 0.9997979 0.0063998 0.0002021 -0.0063998
22422760 0.0002006 -0.0062342 0.9997994 0.0062342 0.9997994 0.0062342 0.0002006 -0.0062342
22915770 0.0001993 -0.0060716 0.9998007 0.0060716 0.9998007 0.0060716 0.0001993 -0.0060716
23419619 0.0001980 -0.0059118 0.9998020 0.0059118 0.9998020 0.0059118 0.0001980 -0.0059118
23934547 0.0001968 -0.0057548 0.9998032 0.0057548 0.9998032 0.0057548 0.0001968 -0.0057548
24460796 0.0001957 -0.0056006 0.9998043 0.0056006 0.9998043 0.0056006 0.0001957 -0.0056006
24998616 0.0001947 -0.0054490 0.9998053 0.0054490 0.9998053 0.0054490 0.0001947 -0.0054490
25548261 0.0001939 -0.0053000 0.9998061 0.0053000 0.9998061 0.0053000 0.0001939 -0.0053000
26109991 0.0001931 -0.0051535 0.9998069 0.0051535 0.9998069 0.0051535 0.0001931 -0.0051535
26684072 0.0001924 -0.0050094 0.9998076 0.0050094 0.9998076 0.0050094 0.0001924 -0.0050094
27270775 0.0001918 -0.0048678 0.9998082 0.0048678 0.9998082 0.0048678 0.0001918 -0.0048678
27870378 0.0001912 -0.0047284 0.9998088 0.0047284 0.9998088 0.0047284 0.0001912 -0.0047284
28483164 0.0001908 -0.0045912 0.9998092 0.0045912 0.9998092 0.0045912 0.0001908 -0.0045912
29109424 0.0001905 -0.0044563 0.9998095 0.0044563 0.9998095 0.0044563 0.0001905 -0.0044563
29749453 0.0001902 -0.0043234 0.9998098 0.0043234 0.9998098 0.0043234 0.0001902 -0.0043234
30403555 0.0001900 -0.0041926 0.9998100 0.0041926 0.9998100 0.0041926 0.0001900 -0.0041926
31072038 0.0001900 -0.0040637 0.9998100 0.0040637 0.9998100 0.0040637 0.0001900 -0.0040637
31755220 0.0001899 -0.0039368 0.9998101 0.0039368 0.9998101 0.0039368 0.0001899 -0.0039368
32453422 0.0001900 -0.0038118 0.9998100 0.0038118 0.9998100 0.0038118 0.0001900 -0.0038118
33166976 0.0001902 -0.0036885 0.9998098 0.0036885 0.9998098 0.0036885 0.0001902 -0.0036885
33896219 0.0001905 -0.0035670 0.9998095 0.0035670 0.9998095 0.0035670 0.0001905 -0.0035670
34641496 0.0001908 -0.0034472 0.9998092 0.0034472 0.9998092 0.0034472 0.0001908 -0.0034472
35403159 0.0001912 -0.0033290 0.9998088 0.0033290 0.9998088 0.0033290 0.0001912 -0.0033290
36181569 0.0001917 -0.0032124 0.9998083 0.0032124 0.9998083 0.0032124 0.0001917 -0.0032124
36977093 0.0001923 -0.0030973 0.9998077 0.0030973 0.9998077 0.0030973 0.0001923 -0.0030973
37790109 0.0001930 -0.0029836 0.9998070 0.0029836 0.9998070 0.0029836 0.0001930 -0.0029836
38621001 0.0001938 -0.0028714 0.9998062 0.0028714 0.9998062 0.0028714 0.0001938 -0.0028714
39470161 0.0001947 -0.0027605 0.9998053 0.0027605 0.9998053 0.0027605 0.0001947 -0.0027605
40337993 0.0001956 -0.0026510 0.9998044 0.0026510 0.9998044 0.0026510 0.0001956 -0.0026510
41224905 0.0001967 -0.0025426 0.9998033 0.0025426 0.9998033 0.0025426 0.0001967 -0.0025426
42131317 0.0001978 -0.0024355 0.9998022 0.0024355 0.9998022 0.0024355 0.0001978 -0.0024355
43057659 0.0001991 -0.0023295 0.9998009 0.0023295 0.9998009 0.0023295 0.0001991 -0.0023295
44004369 0.0002005 -0.0022247 0.9997995 0.0022247 0.9997995 0.0022247 0.0002005 -0.0022247
44971893 0.0002019 -0.0021208 0.9997981 0.0021208 0.9997981 0.0021208 0.0002019 -0.0021208
45960691 0.0002035 -0.0020180 0.9997965 0.0020180 0.9997965 0.0020180 0.0002035 -0.0020180
46971230 0.0002052 -0.0019161 0.9997948 0.0019161 0.9997948 0.0019161 0.0002052 -0.0019161
48003987 0.0002070 -0.0018151 0.9997930 0.0018151 0.9997930 0.0018151 0.0002070 -0.0018151
49059451 0.0002089 -0.0017149 0.9997911 0.0017149 0.9997911 0.0017149 0.0002089 -0.0017149
50138122 0.0002109 -0.0016156 0.9997891 0.0016156 0.9997891 0.0016156 0.0002109 -0.0016156
51240510 0.0002131 -0.0015170 0.9997869 0.0015170 0.9997869 0.0015170 0.0002131 -0.0015170
52367136 0.0002154 -0.0014191 0.9997846 0.0014191 0.9997846 0.0014191 0.0002154 -0.0014191
53518533 0.0002178 -0.0013219 0.9997822 0.0013219 0.9997822 0.0013219 0.0002178 -0.0013219
54695245 0.0002204 -0.0012252 0.9997796 0.0012252 0.9997796 0.0012252 0.0002204 -0.0012252
55897831 0.0002231 -0.0011292 0.9997769 0.0011292 0.9997769 0.0011292 0.0002231 -0.0011292
57126857 0.0002260 -0.0010336 0.9997740 0.0010336 0.9997740 0.0010336 0.0002260 -0.0010336
58382906 0.0002290 -0.0009386 0.9997710 0.0009386 0.9997710 0.0009386 0.0002290 -0.0009386
59666572 0.0002322 -0.0008439 0.9997678 0.0008439 0.9997678 0.0008439 0.0002322 -0.0008439
60978462 0.0002355 -0.0007496 0.9997645 0.0007496 0.9997645 0.0007496 0.0002355 -0.0007496
62319196 0.0002391 -0.0006556 0.9997609 0.0006556 0.9997609 0.0006556 0.0002391 -0.0006556
63689409 0.0002428 -0.0005619 0.9997572 0.0005619 0.9997572 0.0005619 0.0002428 -0.0005619
65089750 0.0002467 -0.0004685 0.9997533 0.0004685 0.9997533 0.0004685 0.0002467 -0.0004685
66520879 0.0002508 -0.0003752 0.9997492 0.0003752 0.9997492 0.0003752 0.0002508 -0.0003752
67983474 0.0002551 -0.0002820 0.9997449 0.0002820 0.9997449 0.0002820 0.0002551 -0.0002820
69478228 0.0002597 -0.0001890 0.9997403 0.0001890 0.9997403 0.0001890 0.0002597 -0.0001890
71005847 0.0002645 -0.0000959 0.9997355 0.0000959 0.9997355 0.0000959 0.0002645 -0.0000959
72567054 0.0002695 -0.0000029 0.9997305 0.0000029 0.9997305 0.0000029 0.0002695 -0.0000029
74162587 0.0002748 0.0000902 0.9997252 -0.0000902 0.9997252 -0.0000902 0.0002748 0.0000902
75793201 0.0002803 0.0001835 0.9997197 -0.0001835 0.9997197 -0.0001835 0.0002803 0.0001835
77459667 0.0002862 0.0002769 0.9997138 -0.0002769 0.9997138 -0.0002769 0.0002862 0.0002769
79162774 0.0002923 0.0003706 0.9997077 -0.0003706 0.9997077 -0.0003706 0.0002923 0.0003706
80903327 0.0002988 0.0004645 0.9997012 -0.0004645 0.9997012 -0.0004645 0.0002988 0.0004645
82682150 0.0003056 0.0005588 0.9996944 -0.0005588 0.9996944 -0.0005588 0.0003056 0.0005588
84500083 0.0003128 0.0006535 0.9996872 -0.0006535 0.9996872 -0.0006535 0.0003128 0.0006535
86357988 0.0003204 0.0007487 0.9996796 -0.0007487 0.9996796 -0.0007487 0.0003204 0.0007487
88256743 0.0003284 0.0008444 0.9996716 -0.0008444 0.9996716 -0.0008444 0.0003284 0.0008444
90197245 0.0003368 0.0009407 0.9996632 -0.0009407 0.9996632 -0.0009407 0.0003368 0.0009407
92180413 0.0003457 0.0010376 0.9996543 -0.0010376 0.9996543 -0.0010376 0.0003457 0.0010376
94207185 0.0003551 0.0011354 0.9996449 -0.0011354 0.9996449 -0.0011354 0.0003551 0.0011354
96278520 0.0003651 0.0012339 0.9996349 -0.0012339 0.9996349 -0.0012339 0.0003651 0.0012339
98395398 0.0003757 0.0013334 0.9996243 -0.0013334 0.9996243 -0.0013334 0.0003757 0.0013334
100558819 0.0003870 0.0014339 0.9996130 -0.0014339 0.9996130 -0.0014339 0.0003870 0.0014339
102769807 0.0003991 0.0015355 0.9996009 -0.0015355 0.9996009 -0.0015355 0.0003991 0.0015355
105029408 0.0004119 0.0016384 0.9995881 -0.0016384 0.9995881 -0.0016384 0.0004119 0.0016384
107338692 0.0004258 0.0017426 0.9995742 -0.0017426 0.9995742 -0.0017426 0.0004258 0.0017426
