!Murata Part Number: GRM1885C1H9R0DA01
!These Parameters are Measured in Series Mode Connection
!Data Generated on Mar 30, 2021
!       o--ll--o
!Port1            Port2
!       o------o
!Operation Temp=25[degC], DC Bias Voltage=0[V]
!Freq. Start=100[MHz] Stop=9[GHz] 401[Steps]
# Hz S RI R 50
!Freq.(Hz) S11(Real) S11(Imag) S21(Real) S21(Imag) S12(Real) S12(Imag) S22(Real) S22(Imag)
100000000 0.7568604 -0.4286598 0.2431396 0.4286598 0.2431396 0.4286598 0.7568604 -0.4286598
121000000 0.6797635 -0.4661651 0.3202365 0.4661651 0.3202365 0.4661651 0.6797635 -0.4661651
142000000 0.6060456 -0.4881312 0.3939544 0.4881312 0.3939544 0.4881312 0.6060456 -0.4881312
163000000 0.5381057 -0.4979520 0.4618943 0.4979520 0.4618943 0.4979520 0.5381057 -0.4979520
184000000 0.4770021 -0.4987679 0.5229979 0.4987679 0.5229979 0.4987679 0.4770021 -0.4987679
205000000 0.4229080 -0.4932001 0.5770920 0.4932001 0.5770920 0.4932001 0.4229080 -0.4932001
226000000 0.3754827 -0.4832995 0.6245173 0.4832995 0.6245173 0.4832995 0.3754827 -0.4832995
247000000 0.3341309 -0.4706027 0.6658691 0.4706027 0.6658691 0.4706027 0.3341309 -0.4706027
268000000 0.2981644 -0.4562257 0.7018356 0.4562257 0.7018356 0.4562257 0.2981644 -0.4562257
289000000 0.2668951 -0.4409598 0.7331049 0.4409598 0.7331049 0.4409598 0.2668951 -0.4409598
310000000 0.2396823 -0.4253544 0.7603177 0.4253544 0.7603177 0.4253544 0.2396823 -0.4253544
331000000 0.2159534 -0.4097825 0.7840466 0.4097825 0.7840466 0.4097825 0.2159534 -0.4097825
352000000 0.1952086 -0.3944911 0.8047914 0.3944911 0.8047914 0.3944911 0.1952086 -0.3944911
373000000 0.1770184 -0.3796382 0.8229816 0.3796382 0.8229816 0.3796382 0.1770184 -0.3796382
394000000 0.1610166 -0.3653189 0.8389834 0.3653189 0.8389834 0.3653189 0.1610166 -0.3653189
415000000 0.1468925 -0.3515856 0.8531075 0.3515856 0.8531075 0.3515856 0.1468925 -0.3515856
436000000 0.1343835 -0.3384605 0.8656165 0.3384605 0.8656165 0.3384605 0.1343835 -0.3384605
457000000 0.1232675 -0.3259463 0.8767325 0.3259463 0.8767325 0.3259463 0.1232675 -0.3259463
478000000 0.1133564 -0.3140322 0.8866436 0.3140322 0.8866436 0.3140322 0.1133564 -0.3140322
499000000 0.1044912 -0.3026990 0.8955088 0.3026990 0.8955088 0.3026990 0.1044912 -0.3026990
520000000 0.0965364 -0.2919226 0.9034636 0.2919226 0.9034636 0.2919226 0.0965364 -0.2919226
541000000 0.0893770 -0.2816757 0.9106230 0.2816757 0.9106230 0.2816757 0.0893770 -0.2816757
562000000 0.0829146 -0.2719298 0.9170854 0.2719298 0.9170854 0.2719298 0.0829146 -0.2719298
583000000 0.0770651 -0.2626565 0.9229349 0.2626565 0.9229349 0.2626565 0.0770651 -0.2626565
604000000 0.0717562 -0.2538274 0.9282438 0.2538274 0.9282438 0.2538274 0.0717562 -0.2538274
625000000 0.0669256 -0.2454154 0.9330744 0.2454154 0.9330744 0.2454154 0.0669256 -0.2454154
646000000 0.0625196 -0.2373945 0.9374804 0.2373945 0.9374804 0.2373945 0.0625196 -0.2373945
667000000 0.0584913 -0.2297401 0.9415087 0.2297401 0.9415087 0.2297401 0.0584913 -0.2297401
688000000 0.0548002 -0.2224289 0.9451998 0.2224289 0.9451998 0.2224289 0.0548002 -0.2224289
709000000 0.0514109 -0.2154392 0.9485891 0.2154392 0.9485891 0.2154392 0.0514109 -0.2154392
730000000 0.0482925 -0.2087508 0.9517075 0.2087508 0.9517075 0.2087508 0.0482925 -0.2087508
751000000 0.0454178 -0.2023445 0.9545822 0.2023445 0.9545822 0.2023445 0.0454178 -0.2023445
772000000 0.0427629 -0.1962029 0.9572371 0.1962029 0.9572371 0.1962029 0.0427629 -0.1962029
793000000 0.0403066 -0.1903096 0.9596934 0.1903096 0.9596934 0.1903096 0.0403066 -0.1903096
814000000 0.0380304 -0.1846493 0.9619696 0.1846493 0.9619696 0.1846493 0.0380304 -0.1846493
835000000 0.0359176 -0.1792078 0.9640824 0.1792078 0.9640824 0.1792078 0.0359176 -0.1792078
856000000 0.0339537 -0.1739721 0.9660463 0.1739721 0.9660463 0.1739721 0.0339537 -0.1739721
877000000 0.0321254 -0.1689300 0.9678746 0.1689300 0.9678746 0.1689300 0.0321254 -0.1689300
898000000 0.0304210 -0.1640700 0.9695790 0.1640700 0.9695790 0.1640700 0.0304210 -0.1640700
919000000 0.0288302 -0.1593818 0.9711698 0.1593818 0.9711698 0.1593818 0.0288302 -0.1593818
940000000 0.0273435 -0.1548554 0.9726565 0.1548554 0.9726565 0.1548554 0.0273435 -0.1548554
961000000 0.0259524 -0.1504819 0.9740476 0.1504819 0.9740476 0.1504819 0.0259524 -0.1504819
982000000 0.0246494 -0.1462526 0.9753506 0.1462526 0.9753506 0.1462526 0.0246494 -0.1462526
1003000000 0.0234275 -0.1421598 0.9765725 0.1421598 0.9765725 0.1421598 0.0234275 -0.1421598
1024000000 0.0222805 -0.1381960 0.9777195 0.1381960 0.9777195 0.1381960 0.0222805 -0.1381960
1045000000 0.0212029 -0.1343544 0.9787971 0.1343544 0.9787971 0.1343544 0.0212029 -0.1343544
1066000000 0.0201895 -0.1306286 0.9798105 0.1306286 0.9798105 0.1306286 0.0201895 -0.1306286
1087000000 0.0192356 -0.1270125 0.9807644 0.1270125 0.9807644 0.1270125 0.0192356 -0.1270125
1108000000 0.0183371 -0.1235005 0.9816629 0.1235005 0.9816629 0.1235005 0.0183371 -0.1235005
1129000000 0.0174901 -0.1200875 0.9825099 0.1200875 0.9825099 0.1200875 0.0174901 -0.1200875
1150000000 0.0166910 -0.1167684 0.9833090 0.1167684 0.9833090 0.1167684 0.0166910 -0.1167684
1171000000 0.0159367 -0.1135387 0.9840633 0.1135387 0.9840633 0.1135387 0.0159367 -0.1135387
1192000000 0.0152241 -0.1103941 0.9847759 0.1103941 0.9847759 0.1103941 0.0152241 -0.1103941
1213000000 0.0145506 -0.1073305 0.9854494 0.1073305 0.9854494 0.1073305 0.0145506 -0.1073305
1234000000 0.0139137 -0.1043440 0.9860863 0.1043440 0.9860863 0.1043440 0.0139137 -0.1043440
1255000000 0.0133111 -0.1014311 0.9866889 0.1014311 0.9866889 0.1014311 0.0133111 -0.1014311
1276000000 0.0127406 -0.0985885 0.9872594 0.0985885 0.9872594 0.0985885 0.0127406 -0.0985885
1297000000 0.0122004 -0.0958128 0.9877996 0.0958128 0.9877996 0.0958128 0.0122004 -0.0958128
1318000000 0.0116886 -0.0931012 0.9883114 0.0931012 0.9883114 0.0931012 0.0116886 -0.0931012
1339000000 0.0112036 -0.0904507 0.9887964 0.0904507 0.9887964 0.0904507 0.0112036 -0.0904507
1360000000 0.0107438 -0.0878588 0.9892562 0.0878588 0.9892562 0.0878588 0.0107438 -0.0878588
1381000000 0.0103079 -0.0853229 0.9896921 0.0853229 0.9896921 0.0853229 0.0103079 -0.0853229
1402000000 0.0098944 -0.0828405 0.9901056 0.0828405 0.9901056 0.0828405 0.0098944 -0.0828405
1423000000 0.0095021 -0.0804096 0.9904979 0.0804096 0.9904979 0.0804096 0.0095021 -0.0804096
1444000000 0.0091300 -0.0780278 0.9908700 0.0780278 0.9908700 0.0780278 0.0091300 -0.0780278
1465000000 0.0087770 -0.0756932 0.9912230 0.0756932 0.9912230 0.0756932 0.0087770 -0.0756932
1486000000 0.0084420 -0.0734039 0.9915580 0.0734039 0.9915580 0.0734039 0.0084420 -0.0734039
1507000000 0.0081242 -0.0711581 0.9918758 0.0711581 0.9918758 0.0711581 0.0081242 -0.0711581
1528000000 0.0078226 -0.0689539 0.9921774 0.0689539 0.9921774 0.0689539 0.0078226 -0.0689539
1549000000 0.0075366 -0.0667898 0.9924634 0.0667898 0.9924634 0.0667898 0.0075366 -0.0667898
1570000000 0.0072652 -0.0646643 0.9927348 0.0646643 0.9927348 0.0646643 0.0072652 -0.0646643
1591000000 0.0070079 -0.0625757 0.9929921 0.0625757 0.9929921 0.0625757 0.0070079 -0.0625757
1612000000 0.0067640 -0.0605228 0.9932360 0.0605228 0.9932360 0.0605228 0.0067640 -0.0605228
1633000000 0.0065329 -0.0585041 0.9934671 0.0585041 0.9934671 0.0585041 0.0065329 -0.0585041
1654000000 0.0063139 -0.0565184 0.9936861 0.0565184 0.9936861 0.0565184 0.0063139 -0.0565184
1675000000 0.0061066 -0.0545645 0.9938934 0.0545645 0.9938934 0.0545645 0.0061066 -0.0545645
1696000000 0.0059104 -0.0526411 0.9940896 0.0526411 0.9940896 0.0526411 0.0059104 -0.0526411
1717000000 0.0057249 -0.0507473 0.9942751 0.0507473 0.9942751 0.0507473 0.0057249 -0.0507473
1738000000 0.0055496 -0.0488818 0.9944504 0.0488818 0.9944504 0.0488818 0.0055496 -0.0488818
1759000000 0.0053841 -0.0470438 0.9946159 0.0470438 0.9946159 0.0470438 0.0053841 -0.0470438
1780000000 0.0052280 -0.0452321 0.9947720 0.0452321 0.9947720 0.0452321 0.0052280 -0.0452321
1801000000 0.0050809 -0.0434460 0.9949191 0.0434460 0.9949191 0.0434460 0.0050809 -0.0434460
1822000000 0.0049424 -0.0416845 0.9950576 0.0416845 0.9950576 0.0416845 0.0049424 -0.0416845
1843000000 0.0048123 -0.0399467 0.9951877 0.0399467 0.9951877 0.0399467 0.0048123 -0.0399467
1864000000 0.0046903 -0.0382319 0.9953097 0.0382319 0.9953097 0.0382319 0.0046903 -0.0382319
1885000000 0.0045760 -0.0365392 0.9954240 0.0365392 0.9954240 0.0365392 0.0045760 -0.0365392
1906000000 0.0044691 -0.0348679 0.9955309 0.0348679 0.9955309 0.0348679 0.0044691 -0.0348679
1927000000 0.0043694 -0.0332173 0.9956306 0.0332173 0.9956306 0.0332173 0.0043694 -0.0332173
1948000000 0.0042766 -0.0315867 0.9957234 0.0315867 0.9957234 0.0315867 0.0042766 -0.0315867
1969000000 0.0041906 -0.0299755 0.9958094 0.0299755 0.9958094 0.0299755 0.0041906 -0.0299755
1990000000 0.0041110 -0.0283829 0.9958890 0.0283829 0.9958890 0.0283829 0.0041110 -0.0283829
2011000000 0.0040378 -0.0268084 0.9959622 0.0268084 0.9959622 0.0268084 0.0040378 -0.0268084
2032000000 0.0039706 -0.0252514 0.9960294 0.0252514 0.9960294 0.0252514 0.0039706 -0.0252514
2053000000 0.0039093 -0.0237113 0.9960907 0.0237113 0.9960907 0.0237113 0.0039093 -0.0237113
2074000000 0.0038537 -0.0221876 0.9961463 0.0221876 0.9961463 0.0221876 0.0038537 -0.0221876
2095000000 0.0038036 -0.0206797 0.9961964 0.0206797 0.9961964 0.0206797 0.0038036 -0.0206797
2116000000 0.0037589 -0.0191872 0.9962411 0.0191872 0.9962411 0.0191872 0.0037589 -0.0191872
2137000000 0.0037195 -0.0177095 0.9962805 0.0177095 0.9962805 0.0177095 0.0037195 -0.0177095
2158000000 0.0036852 -0.0162462 0.9963148 0.0162462 0.9963148 0.0162462 0.0036852 -0.0162462
2179000000 0.0036558 -0.0147968 0.9963442 0.0147968 0.9963442 0.0147968 0.0036558 -0.0147968
2200000000 0.0036313 -0.0133608 0.9963687 0.0133608 0.9963687 0.0133608 0.0036313 -0.0133608
2221000000 0.0036114 -0.0119379 0.9963886 0.0119379 0.9963886 0.0119379 0.0036114 -0.0119379
2242000000 0.0035962 -0.0105277 0.9964038 0.0105277 0.9964038 0.0105277 0.0035962 -0.0105277
2263000000 0.0035855 -0.0091297 0.9964145 0.0091297 0.9964145 0.0091297 0.0035855 -0.0091297
2284000000 0.0035791 -0.0077435 0.9964209 0.0077435 0.9964209 0.0077435 0.0035791 -0.0077435
2305000000 0.0035771 -0.0063688 0.9964229 0.0063688 0.9964229 0.0063688 0.0035771 -0.0063688
2326000000 0.0035792 -0.0050052 0.9964208 0.0050052 0.9964208 0.0050052 0.0035792 -0.0050052
2347000000 0.0035855 -0.0036524 0.9964145 0.0036524 0.9964145 0.0036524 0.0035855 -0.0036524
2368000000 0.0035957 -0.0023100 0.9964043 0.0023100 0.9964043 0.0023100 0.0035957 -0.0023100
2389000000 0.0036100 -0.0009777 0.9963900 0.0009777 0.9963900 0.0009777 0.0036100 -0.0009777
2410000000 0.0036281 0.0003449 0.9963719 -0.0003449 0.9963719 -0.0003449 0.0036281 0.0003449
2431000000 0.0036501 0.0016580 0.9963499 -0.0016580 0.9963499 -0.0016580 0.0036501 0.0016580
2452000000 0.0036758 0.0029619 0.9963242 -0.0029619 0.9963242 -0.0029619 0.0036758 0.0029619
2473000000 0.0037052 0.0042570 0.9962948 -0.0042570 0.9962948 -0.0042570 0.0037052 0.0042570
2494000000 0.0037383 0.0055435 0.9962617 -0.0055435 0.9962617 -0.0055435 0.0037383 0.0055435
2515000000 0.0037750 0.0068217 0.9962250 -0.0068217 0.9962250 -0.0068217 0.0037750 0.0068217
2536000000 0.0038152 0.0080919 0.9961848 -0.0080919 0.9961848 -0.0080919 0.0038152 0.0080919
2557000000 0.0038589 0.0093543 0.9961411 -0.0093543 0.9961411 -0.0093543 0.0038589 0.0093543
2578000000 0.0039060 0.0106092 0.9960940 -0.0106092 0.9960940 -0.0106092 0.0039060 0.0106092
2599000000 0.0039566 0.0118569 0.9960434 -0.0118569 0.9960434 -0.0118569 0.0039566 0.0118569
2620000000 0.0040106 0.0130976 0.9959894 -0.0130976 0.9959894 -0.0130976 0.0040106 0.0130976
2641000000 0.0040679 0.0143316 0.9959321 -0.0143316 0.9959321 -0.0143316 0.0040679 0.0143316
2662000000 0.0041285 0.0155590 0.9958715 -0.0155590 0.9958715 -0.0155590 0.0041285 0.0155590
2683000000 0.0041924 0.0167801 0.9958076 -0.0167801 0.9958076 -0.0167801 0.0041924 0.0167801
2704000000 0.0042597 0.0179952 0.9957403 -0.0179952 0.9957403 -0.0179952 0.0042597 0.0179952
2725000000 0.0043301 0.0192045 0.9956699 -0.0192045 0.9956699 -0.0192045 0.0043301 0.0192045
2746000000 0.0044039 0.0204081 0.9955961 -0.0204081 0.9955961 -0.0204081 0.0044039 0.0204081
2767000000 0.0044808 0.0216064 0.9955192 -0.0216064 0.9955192 -0.0216064 0.0044808 0.0216064
2788000000 0.0045610 0.0227994 0.9954390 -0.0227994 0.9954390 -0.0227994 0.0045610 0.0227994
2809000000 0.0046443 0.0239875 0.9953557 -0.0239875 0.9953557 -0.0239875 0.0046443 0.0239875
2830000000 0.0047309 0.0251708 0.9952691 -0.0251708 0.9952691 -0.0251708 0.0047309 0.0251708
2851000000 0.0048207 0.0263495 0.9951793 -0.0263495 0.9951793 -0.0263495 0.0048207 0.0263495
2872000000 0.0049136 0.0275239 0.9950864 -0.0275239 0.9950864 -0.0275239 0.0049136 0.0275239
2893000000 0.0050098 0.0286941 0.9949902 -0.0286941 0.9949902 -0.0286941 0.0050098 0.0286941
2914000000 0.0051092 0.0298603 0.9948908 -0.0298603 0.9948908 -0.0298603 0.0051092 0.0298603
2935000000 0.0052117 0.0310227 0.9947883 -0.0310227 0.9947883 -0.0310227 0.0052117 0.0310227
2956000000 0.0053176 0.0321815 0.9946824 -0.0321815 0.9946824 -0.0321815 0.0053176 0.0321815
2977000000 0.0054266 0.0333369 0.9945734 -0.0333369 0.9945734 -0.0333369 0.0054266 0.0333369
2998000000 0.0055389 0.0344891 0.9944611 -0.0344891 0.9944611 -0.0344891 0.0055389 0.0344891
3019000000 0.0056545 0.0356383 0.9943455 -0.0356383 0.9943455 -0.0356383 0.0056545 0.0356383
3040000000 0.0057734 0.0367846 0.9942266 -0.0367846 0.9942266 -0.0367846 0.0057734 0.0367846
3061000000 0.0058956 0.0379282 0.9941044 -0.0379282 0.9941044 -0.0379282 0.0058956 0.0379282
3082000000 0.0060212 0.0390694 0.9939788 -0.0390694 0.9939788 -0.0390694 0.0060212 0.0390694
3103000000 0.0061501 0.0402083 0.9938499 -0.0402083 0.9938499 -0.0402083 0.0061501 0.0402083
3124000000 0.0062825 0.0413451 0.9937175 -0.0413451 0.9937175 -0.0413451 0.0062825 0.0413451
3145000000 0.0064183 0.0424800 0.9935817 -0.0424800 0.9935817 -0.0424800 0.0064183 0.0424800
3166000000 0.0065577 0.0436132 0.9934423 -0.0436132 0.9934423 -0.0436132 0.0065577 0.0436132
3187000000 0.0067006 0.0447448 0.9932994 -0.0447448 0.9932994 -0.0447448 0.0067006 0.0447448
3208000000 0.0068471 0.0458750 0.9931529 -0.0458750 0.9931529 -0.0458750 0.0068471 0.0458750
3229000000 0.0069973 0.0470042 0.9930027 -0.0470042 0.9930027 -0.0470042 0.0069973 0.0470042
3250000000 0.0071513 0.0481323 0.9928487 -0.0481323 0.9928487 -0.0481323 0.0071513 0.0481323
3271000000 0.0073090 0.0492596 0.9926910 -0.0492596 0.9926910 -0.0492596 0.0073090 0.0492596
3292000000 0.0074706 0.0503864 0.9925294 -0.0503864 0.9925294 -0.0503864 0.0074706 0.0503864
3313000000 0.0076361 0.0515128 0.9923639 -0.0515128 0.9923639 -0.0515128 0.0076361 0.0515128
3334000000 0.0078057 0.0526390 0.9921943 -0.0526390 0.9921943 -0.0526390 0.0078057 0.0526390
3355000000 0.0079793 0.0537653 0.9920207 -0.0537653 0.9920207 -0.0537653 0.0079793 0.0537653
3376000000 0.0081572 0.0548917 0.9918428 -0.0548917 0.9918428 -0.0548917 0.0081572 0.0548917
3397000000 0.0083394 0.0560187 0.9916606 -0.0560187 0.9916606 -0.0560187 0.0083394 0.0560187
3418000000 0.0085260 0.0571463 0.9914740 -0.0571463 0.9914740 -0.0571463 0.0085260 0.0571463
3439000000 0.0087172 0.0582747 0.9912828 -0.0582747 0.9912828 -0.0582747 0.0087172 0.0582747
3460000000 0.0089130 0.0594043 0.9910870 -0.0594043 0.9910870 -0.0594043 0.0089130 0.0594043
3481000000 0.0091136 0.0605352 0.9908864 -0.0605352 0.9908864 -0.0605352 0.0091136 0.0605352
3502000000 0.0093191 0.0616677 0.9906809 -0.0616677 0.9906809 -0.0616677 0.0093191 0.0616677
3523000000 0.0095297 0.0628020 0.9904703 -0.0628020 0.9904703 -0.0628020 0.0095297 0.0628020
3544000000 0.0097456 0.0639384 0.9902544 -0.0639384 0.9902544 -0.0639384 0.0097456 0.0639384
3565000000 0.0099669 0.0650772 0.9900331 -0.0650772 0.9900331 -0.0650772 0.0099669 0.0650772
3586000000 0.0101938 0.0662185 0.9898062 -0.0662185 0.9898062 -0.0662185 0.0101938 0.0662185
3607000000 0.0104266 0.0673628 0.9895734 -0.0673628 0.9895734 -0.0673628 0.0104266 0.0673628
3628000000 0.0106654 0.0685102 0.9893346 -0.0685102 0.9893346 -0.0685102 0.0106654 0.0685102
3649000000 0.0109105 0.0696610 0.9890895 -0.0696610 0.9890895 -0.0696610 0.0109105 0.0696610
3670000000 0.0111621 0.0708157 0.9888379 -0.0708157 0.9888379 -0.0708157 0.0111621 0.0708157
3691000000 0.0114205 0.0719745 0.9885795 -0.0719745 0.9885795 -0.0719745 0.0114205 0.0719745
3712000000 0.0116860 0.0731377 0.9883140 -0.0731377 0.9883140 -0.0731377 0.0116860 0.0731377
3733000000 0.0119589 0.0743057 0.9880411 -0.0743057 0.9880411 -0.0743057 0.0119589 0.0743057
3754000000 0.0122396 0.0754788 0.9877604 -0.0754788 0.9877604 -0.0754788 0.0122396 0.0754788
3775000000 0.0125284 0.0766575 0.9874716 -0.0766575 0.9874716 -0.0766575 0.0125284 0.0766575
3796000000 0.0128258 0.0778421 0.9871742 -0.0778421 0.9871742 -0.0778421 0.0128258 0.0778421
3817000000 0.0131321 0.0790330 0.9868679 -0.0790330 0.9868679 -0.0790330 0.0131321 0.0790330
3838000000 0.0134478 0.0802308 0.9865522 -0.0802308 0.9865522 -0.0802308 0.0134478 0.0802308
3859000000 0.0137735 0.0814357 0.9862265 -0.0814357 0.9862265 -0.0814357 0.0137735 0.0814357
3880000000 0.0141096 0.0826484 0.9858904 -0.0826484 0.9858904 -0.0826484 0.0141096 0.0826484
3901000000 0.0144569 0.0838694 0.9855431 -0.0838694 0.9855431 -0.0838694 0.0144569 0.0838694
3922000000 0.0148160 0.0850990 0.9851840 -0.0850990 0.9851840 -0.0850990 0.0148160 0.0850990
3943000000 0.0151875 0.0863380 0.9848125 -0.0863380 0.9848125 -0.0863380 0.0151875 0.0863380
3964000000 0.0155723 0.0875869 0.9844277 -0.0875869 0.9844277 -0.0875869 0.0155723 0.0875869
3985000000 0.0159713 0.0888463 0.9840287 -0.0888463 0.9840287 -0.0888463 0.0159713 0.0888463
4006000000 0.0163854 0.0901169 0.9836146 -0.0901169 0.9836146 -0.0901169 0.0163854 0.0901169
4027000000 0.0168157 0.0913993 0.9831843 -0.0913993 0.9831843 -0.0913993 0.0168157 0.0913993
4048000000 0.0172633 0.0926944 0.9827367 -0.0926944 0.9827367 -0.0926944 0.0172633 0.0926944
4069000000 0.0177296 0.0940027 0.9822704 -0.0940027 0.9822704 -0.0940027 0.0177296 0.0940027
4090000000 0.0182159 0.0953252 0.9817841 -0.0953252 0.9817841 -0.0953252 0.0182159 0.0953252
4111000000 0.0187238 0.0966626 0.9812762 -0.0966626 0.9812762 -0.0966626 0.0187238 0.0966626
4132000000 0.0192551 0.0980159 0.9807449 -0.0980159 0.9807449 -0.0980159 0.0192551 0.0980159
4153000000 0.0198117 0.0993859 0.9801883 -0.0993859 0.9801883 -0.0993859 0.0198117 0.0993859
4174000000 0.0203958 0.1007737 0.9796042 -0.1007737 0.9796042 -0.1007737 0.0203958 0.1007737
4195000000 0.0210099 0.1021801 0.9789901 -0.1021801 0.9789901 -0.1021801 0.0210099 0.1021801
4216000000 0.0216568 0.1036062 0.9783432 -0.1036062 0.9783432 -0.1036062 0.0216568 0.1036062
4237000000 0.0223394 0.1050531 0.9776606 -0.1050531 0.9776606 -0.1050531 0.0223394 0.1050531
4258000000 0.0230614 0.1065218 0.9769386 -0.1065218 0.9769386 -0.1065218 0.0230614 0.1065218
4279000000 0.0238266 0.1080132 0.9761734 -0.1080132 0.9761734 -0.1080132 0.0238266 0.1080132
4300000000 0.0246395 0.1095285 0.9753605 -0.1095285 0.9753605 -0.1095285 0.0246395 0.1095285
4321000000 0.0255051 0.1110685 0.9744949 -0.1110685 0.9744949 -0.1110685 0.0255051 0.1110685
4342000000 0.0264294 0.1126341 0.9735706 -0.1126341 0.9735706 -0.1126341 0.0264294 0.1126341
4363000000 0.0274188 0.1142259 0.9725812 -0.1142259 0.9725812 -0.1142259 0.0274188 0.1142259
4384000000 0.0284809 0.1158444 0.9715191 -0.1158444 0.9715191 -0.1158444 0.0284809 0.1158444
4405000000 0.0296244 0.1174896 0.9703756 -0.1174896 0.9703756 -0.1174896 0.0296244 0.1174896
4426000000 0.0308592 0.1191611 0.9691408 -0.1191611 0.9691408 -0.1191611 0.0308592 0.1191611
4447000000 0.0321967 0.1208576 0.9678033 -0.1208576 0.9678033 -0.1208576 0.0321967 0.1208576
4468000000 0.0336501 0.1225771 0.9663499 -0.1225771 0.9663499 -0.1225771 0.0336501 0.1225771
4489000000 0.0352345 0.1243160 0.9647655 -0.1243160 0.9647655 -0.1243160 0.0352345 0.1243160
4510000000 0.0369673 0.1260692 0.9630327 -0.1260692 0.9630327 -0.1260692 0.0369673 0.1260692
