!Murata Part Number: GRM0225C1E6R5BA03
!These Parameters are Measured in Series Mode Connection
!Data Generated on Mar 30, 2021
!       o--ll--o
!Port1            Port2
!       o------o
!Operation Temp=25[degC], DC Bias Voltage=0[V]
!Freq. Start=100[MHz] Stop=9[GHz] 401[Steps]
# Hz S RI R 50
!Freq.(Hz) S11(Real) S11(Imag) S21(Real) S21(Imag) S12(Real) S12(Imag) S22(Real) S22(Imag)
100000000 0.8567900 -0.3499941 0.1432100 0.3499941 0.1432100 0.3499941 0.8567900 -0.3499941
121000000 0.8033441 -0.3971151 0.1966559 0.3971151 0.1966559 0.3971151 0.8033441 -0.3971151
142000000 0.7477945 -0.4338615 0.2522055 0.4338615 0.2522055 0.4338615 0.7477945 -0.4338615
163000000 0.6922392 -0.4610873 0.3077608 0.4610873 0.3077608 0.4610873 0.6922392 -0.4610873
184000000 0.6382438 -0.4799661 0.3617562 0.4799661 0.3617562 0.4799661 0.6382438 -0.4799661
205000000 0.5868736 -0.4917890 0.4131264 0.4917890 0.4131264 0.4917890 0.5868736 -0.4917890
226000000 0.5387726 -0.4978244 0.4612274 0.4978244 0.4612274 0.4978244 0.5387726 -0.4978244
247000000 0.4942590 -0.4992326 0.5057410 0.4992326 0.5057410 0.4992326 0.4942590 -0.4992326
268000000 0.4534155 -0.4970257 0.5465845 0.4970257 0.5465845 0.4970257 0.4534155 -0.4970257
289000000 0.4161657 -0.4920566 0.5838343 0.4920566 0.5838343 0.4920566 0.4161657 -0.4920566
310000000 0.3823335 -0.4850260 0.6176665 0.4850260 0.6176665 0.4850260 0.3823335 -0.4850260
331000000 0.3516866 -0.4764983 0.6483134 0.4764983 0.6483134 0.4764983 0.3516866 -0.4764983
352000000 0.3239670 -0.4669214 0.6760330 0.4669214 0.6760330 0.4669214 0.3239670 -0.4669214
373000000 0.2989107 -0.4566458 0.7010893 0.4566458 0.7010893 0.4566458 0.2989107 -0.4566458
394000000 0.2762609 -0.4459432 0.7237391 0.4459432 0.7237391 0.4459432 0.2762609 -0.4459432
415000000 0.2557753 -0.4350217 0.7442247 0.4350217 0.7442247 0.4350217 0.2557753 -0.4350217
436000000 0.2372299 -0.4240387 0.7627701 0.4240387 0.7627701 0.4240387 0.2372299 -0.4240387
457000000 0.2204206 -0.4131124 0.7795794 0.4131124 0.7795794 0.4131124 0.2204206 -0.4131124
478000000 0.2051632 -0.4023298 0.7948368 0.4023298 0.7948368 0.4023298 0.2051632 -0.4023298
499000000 0.1912927 -0.3917538 0.8087073 0.3917538 0.8087073 0.3917538 0.1912927 -0.3917538
520000000 0.1786621 -0.3814288 0.8213379 0.3814288 0.8213379 0.3814288 0.1786621 -0.3814288
541000000 0.1671407 -0.3713847 0.8328593 0.3713847 0.8328593 0.3713847 0.1671407 -0.3713847
562000000 0.1566125 -0.3616408 0.8433875 0.3616408 0.8433875 0.3616408 0.1566125 -0.3616408
583000000 0.1469747 -0.3522079 0.8530253 0.3522079 0.8530253 0.3522079 0.1469747 -0.3522079
604000000 0.1381363 -0.3430904 0.8618637 0.3430904 0.8618637 0.3430904 0.1381363 -0.3430904
625000000 0.1300168 -0.3342882 0.8699832 0.3342882 0.8699832 0.3342882 0.1300168 -0.3342882
646000000 0.1225447 -0.3257978 0.8774553 0.3257978 0.8774553 0.3257978 0.1225447 -0.3257978
667000000 0.1156565 -0.3176129 0.8843435 0.3176129 0.8843435 0.3176129 0.1156565 -0.3176129
688000000 0.1092961 -0.3097258 0.8907039 0.3097258 0.8907039 0.3097258 0.1092961 -0.3097258
709000000 0.1034134 -0.3021272 0.8965866 0.3021272 0.8965866 0.3021272 0.1034134 -0.3021272
730000000 0.0979638 -0.2948073 0.9020362 0.2948073 0.9020362 0.2948073 0.0979638 -0.2948073
751000000 0.0929077 -0.2877556 0.9070923 0.2877556 0.9070923 0.2877556 0.0929077 -0.2877556
772000000 0.0882096 -0.2809616 0.9117904 0.2809616 0.9117904 0.2809616 0.0882096 -0.2809616
793000000 0.0838377 -0.2744146 0.9161623 0.2744146 0.9161623 0.2744146 0.0838377 -0.2744146
814000000 0.0797637 -0.2681041 0.9202363 0.2681041 0.9202363 0.2681041 0.0797637 -0.2681041
835000000 0.0759621 -0.2620197 0.9240379 0.2620197 0.9240379 0.2620197 0.0759621 -0.2620197
856000000 0.0724099 -0.2561514 0.9275901 0.2561514 0.9275901 0.2561514 0.0724099 -0.2561514
877000000 0.0690866 -0.2504895 0.9309134 0.2504895 0.9309134 0.2504895 0.0690866 -0.2504895
898000000 0.0659734 -0.2450245 0.9340266 0.2450245 0.9340266 0.2450245 0.0659734 -0.2450245
919000000 0.0630537 -0.2397475 0.9369463 0.2397475 0.9369463 0.2397475 0.0630537 -0.2397475
940000000 0.0603122 -0.2346498 0.9396878 0.2346498 0.9396878 0.2346498 0.0603122 -0.2346498
961000000 0.0577351 -0.2297233 0.9422649 0.2297233 0.9422649 0.2297233 0.0577351 -0.2297233
982000000 0.0553099 -0.2249601 0.9446901 0.2249601 0.9446901 0.2249601 0.0553099 -0.2249601
1003000000 0.0530253 -0.2203526 0.9469747 0.2203526 0.9469747 0.2203526 0.0530253 -0.2203526
1024000000 0.0508710 -0.2158939 0.9491290 0.2158939 0.9491290 0.2158939 0.0508710 -0.2158939
1045000000 0.0488374 -0.2115772 0.9511626 0.2115772 0.9511626 0.2115772 0.0488374 -0.2115772
1066000000 0.0469161 -0.2073961 0.9530839 0.2073961 0.9530839 0.2073961 0.0469161 -0.2073961
1087000000 0.0450991 -0.2033445 0.9549009 0.2033445 0.9549009 0.2033445 0.0450991 -0.2033445
1108000000 0.0433792 -0.1994166 0.9566208 0.1994166 0.9566208 0.1994166 0.0433792 -0.1994166
1129000000 0.0417498 -0.1956071 0.9582502 0.1956071 0.9582502 0.1956071 0.0417498 -0.1956071
1150000000 0.0402049 -0.1919106 0.9597951 0.1919106 0.9597951 0.1919106 0.0402049 -0.1919106
1171000000 0.0387388 -0.1883224 0.9612612 0.1883224 0.9612612 0.1883224 0.0387388 -0.1883224
1192000000 0.0373466 -0.1848377 0.9626534 0.1848377 0.9626534 0.1848377 0.0373466 -0.1848377
1213000000 0.0360234 -0.1814522 0.9639766 0.1814522 0.9639766 0.1814522 0.0360234 -0.1814522
1234000000 0.0347649 -0.1781617 0.9652351 0.1781617 0.9652351 0.1781617 0.0347649 -0.1781617
1255000000 0.0335671 -0.1749621 0.9664329 0.1749621 0.9664329 0.1749621 0.0335671 -0.1749621
1276000000 0.0324262 -0.1718497 0.9675738 0.1718497 0.9675738 0.1718497 0.0324262 -0.1718497
1297000000 0.0313388 -0.1688210 0.9686612 0.1688210 0.9686612 0.1688210 0.0313388 -0.1688210
1318000000 0.0303018 -0.1658725 0.9696982 0.1658725 0.9696982 0.1658725 0.0303018 -0.1658725
1339000000 0.0293121 -0.1630010 0.9706879 0.1630010 0.9706879 0.1630010 0.0293121 -0.1630010
1360000000 0.0283671 -0.1602035 0.9716329 0.1602035 0.9716329 0.1602035 0.0283671 -0.1602035
1381000000 0.0274641 -0.1574771 0.9725359 0.1574771 0.9725359 0.1574771 0.0274641 -0.1574771
1402000000 0.0266008 -0.1548188 0.9733992 0.1548188 0.9733992 0.1548188 0.0266008 -0.1548188
1423000000 0.0257750 -0.1522263 0.9742250 0.1522263 0.9742250 0.1522263 0.0257750 -0.1522263
1444000000 0.0249846 -0.1496968 0.9750154 0.1496968 0.9750154 0.1496968 0.0249846 -0.1496968
1465000000 0.0242278 -0.1472281 0.9757722 0.1472281 0.9757722 0.1472281 0.0242278 -0.1472281
1486000000 0.0235026 -0.1448178 0.9764974 0.1448178 0.9764974 0.1448178 0.0235026 -0.1448178
1507000000 0.0228075 -0.1424639 0.9771925 0.1424639 0.9771925 0.1424639 0.0228075 -0.1424639
1528000000 0.0221408 -0.1401641 0.9778592 0.1401641 0.9778592 0.1401641 0.0221408 -0.1401641
1549000000 0.0215012 -0.1379167 0.9784988 0.1379167 0.9784988 0.1379167 0.0215012 -0.1379167
1570000000 0.0208871 -0.1357196 0.9791129 0.1357196 0.9791129 0.1357196 0.0208871 -0.1357196
1591000000 0.0202974 -0.1335711 0.9797026 0.1335711 0.9797026 0.1335711 0.0202974 -0.1335711
1612000000 0.0197308 -0.1314695 0.9802692 0.1314695 0.9802692 0.1314695 0.0197308 -0.1314695
1633000000 0.0191862 -0.1294132 0.9808138 0.1294132 0.9808138 0.1294132 0.0191862 -0.1294132
1654000000 0.0186625 -0.1274005 0.9813375 0.1274005 0.9813375 0.1274005 0.0186625 -0.1274005
1675000000 0.0181587 -0.1254300 0.9818413 0.1254300 0.9818413 0.1254300 0.0181587 -0.1254300
1696000000 0.0176739 -0.1235003 0.9823261 0.1235003 0.9823261 0.1235003 0.0176739 -0.1235003
1717000000 0.0172072 -0.1216100 0.9827928 0.1216100 0.9827928 0.1216100 0.0172072 -0.1216100
1738000000 0.0167577 -0.1197578 0.9832423 0.1197578 0.9832423 0.1197578 0.0167577 -0.1197578
1759000000 0.0163246 -0.1179425 0.9836754 0.1179425 0.9836754 0.1179425 0.0163246 -0.1179425
1780000000 0.0159073 -0.1161628 0.9840927 0.1161628 0.9840927 0.1161628 0.0159073 -0.1161628
1801000000 0.0155049 -0.1144175 0.9844951 0.1144175 0.9844951 0.1144175 0.0155049 -0.1144175
1822000000 0.0151169 -0.1127057 0.9848831 0.1127057 0.9848831 0.1127057 0.0151169 -0.1127057
1843000000 0.0147426 -0.1110262 0.9852574 0.1110262 0.9852574 0.1110262 0.0147426 -0.1110262
1864000000 0.0143813 -0.1093781 0.9856187 0.1093781 0.9856187 0.1093781 0.0143813 -0.1093781
1885000000 0.0140327 -0.1077603 0.9859673 0.1077603 0.9859673 0.1077603 0.0140327 -0.1077603
1906000000 0.0136960 -0.1061719 0.9863040 0.1061719 0.9863040 0.1061719 0.0136960 -0.1061719
1927000000 0.0133708 -0.1046121 0.9866292 0.1046121 0.9866292 0.1046121 0.0133708 -0.1046121
1948000000 0.0130567 -0.1030799 0.9869433 0.1030799 0.9869433 0.1030799 0.0130567 -0.1030799
1969000000 0.0127531 -0.1015746 0.9872469 0.1015746 0.9872469 0.1015746 0.0127531 -0.1015746
1990000000 0.0124597 -0.1000953 0.9875403 0.1000953 0.9875403 0.1000953 0.0124597 -0.1000953
2011000000 0.0121760 -0.0986413 0.9878240 0.0986413 0.9878240 0.0986413 0.0121760 -0.0986413
2032000000 0.0119016 -0.0972118 0.9880984 0.0972118 0.9880984 0.0972118 0.0119016 -0.0972118
2053000000 0.0116363 -0.0958062 0.9883637 0.0958062 0.9883637 0.0958062 0.0116363 -0.0958062
2074000000 0.0113795 -0.0944237 0.9886205 0.0944237 0.9886205 0.0944237 0.0113795 -0.0944237
2095000000 0.0111310 -0.0930638 0.9888690 0.0930638 0.9888690 0.0930638 0.0111310 -0.0930638
2116000000 0.0108905 -0.0917257 0.9891095 0.0917257 0.9891095 0.0917257 0.0108905 -0.0917257
2137000000 0.0106576 -0.0904089 0.9893424 0.0904089 0.9893424 0.0904089 0.0106576 -0.0904089
2158000000 0.0104322 -0.0891127 0.9895678 0.0891127 0.9895678 0.0891127 0.0104322 -0.0891127
2179000000 0.0102138 -0.0878367 0.9897862 0.0878367 0.9897862 0.0878367 0.0102138 -0.0878367
2200000000 0.0100022 -0.0865803 0.9899978 0.0865803 0.9899978 0.0865803 0.0100022 -0.0865803
2221000000 0.0097973 -0.0853428 0.9902027 0.0853428 0.9902027 0.0853428 0.0097973 -0.0853428
2242000000 0.0095987 -0.0841239 0.9904013 0.0841239 0.9904013 0.0841239 0.0095987 -0.0841239
2263000000 0.0094062 -0.0829231 0.9905938 0.0829231 0.9905938 0.0829231 0.0094062 -0.0829231
2284000000 0.0092196 -0.0817398 0.9907804 0.0817398 0.9907804 0.0817398 0.0092196 -0.0817398
2305000000 0.0090387 -0.0805736 0.9909613 0.0805736 0.9909613 0.0805736 0.0090387 -0.0805736
2326000000 0.0088633 -0.0794241 0.9911367 0.0794241 0.9911367 0.0794241 0.0088633 -0.0794241
2347000000 0.0086932 -0.0782909 0.9913068 0.0782909 0.9913068 0.0782909 0.0086932 -0.0782909
2368000000 0.0085282 -0.0771734 0.9914718 0.0771734 0.9914718 0.0771734 0.0085282 -0.0771734
2389000000 0.0083682 -0.0760714 0.9916318 0.0760714 0.9916318 0.0760714 0.0083682 -0.0760714
2410000000 0.0082129 -0.0749845 0.9917871 0.0749845 0.9917871 0.0749845 0.0082129 -0.0749845
2431000000 0.0080623 -0.0739122 0.9919377 0.0739122 0.9919377 0.0739122 0.0080623 -0.0739122
2452000000 0.0079161 -0.0728543 0.9920839 0.0728543 0.9920839 0.0728543 0.0079161 -0.0728543
2473000000 0.0077743 -0.0718103 0.9922257 0.0718103 0.9922257 0.0718103 0.0077743 -0.0718103
2494000000 0.0076366 -0.0707799 0.9923634 0.0707799 0.9923634 0.0707799 0.0076366 -0.0707799
2515000000 0.0075030 -0.0697629 0.9924970 0.0697629 0.9924970 0.0697629 0.0075030 -0.0697629
2536000000 0.0073733 -0.0687588 0.9926267 0.0687588 0.9926267 0.0687588 0.0073733 -0.0687588
2557000000 0.0072474 -0.0677674 0.9927526 0.0677674 0.9927526 0.0677674 0.0072474 -0.0677674
2578000000 0.0071252 -0.0667884 0.9928748 0.0667884 0.9928748 0.0667884 0.0071252 -0.0667884
2599000000 0.0070065 -0.0658215 0.9929935 0.0658215 0.9929935 0.0658215 0.0070065 -0.0658215
2620000000 0.0068912 -0.0648664 0.9931088 0.0648664 0.9931088 0.0648664 0.0068912 -0.0648664
2641000000 0.0067794 -0.0639228 0.9932206 0.0639228 0.9932206 0.0639228 0.0067794 -0.0639228
2662000000 0.0066707 -0.0629905 0.9933293 0.0629905 0.9933293 0.0629905 0.0066707 -0.0629905
2683000000 0.0065652 -0.0620692 0.9934348 0.0620692 0.9934348 0.0620692 0.0065652 -0.0620692
2704000000 0.0064627 -0.0611587 0.9935373 0.0611587 0.9935373 0.0611587 0.0064627 -0.0611587
2725000000 0.0063632 -0.0602587 0.9936368 0.0602587 0.9936368 0.0602587 0.0063632 -0.0602587
2746000000 0.0062666 -0.0593691 0.9937334 0.0593691 0.9937334 0.0593691 0.0062666 -0.0593691
2767000000 0.0061727 -0.0584895 0.9938273 0.0584895 0.9938273 0.0584895 0.0061727 -0.0584895
2788000000 0.0060816 -0.0576198 0.9939184 0.0576198 0.9939184 0.0576198 0.0060816 -0.0576198
2809000000 0.0059931 -0.0567597 0.9940069 0.0567597 0.9940069 0.0567597 0.0059931 -0.0567597
2830000000 0.0059072 -0.0559090 0.9940928 0.0559090 0.9940928 0.0559090 0.0059072 -0.0559090
2851000000 0.0058237 -0.0550676 0.9941763 0.0550676 0.9941763 0.0550676 0.0058237 -0.0550676
2872000000 0.0057426 -0.0542352 0.9942574 0.0542352 0.9942574 0.0542352 0.0057426 -0.0542352
2893000000 0.0056639 -0.0534117 0.9943361 0.0534117 0.9943361 0.0534117 0.0056639 -0.0534117
2914000000 0.0055875 -0.0525968 0.9944125 0.0525968 0.9944125 0.0525968 0.0055875 -0.0525968
2935000000 0.0055133 -0.0517904 0.9944867 0.0517904 0.9944867 0.0517904 0.0055133 -0.0517904
2956000000 0.0054412 -0.0509924 0.9945588 0.0509924 0.9945588 0.0509924 0.0054412 -0.0509924
2977000000 0.0053713 -0.0502024 0.9946287 0.0502024 0.9946287 0.0502024 0.0053713 -0.0502024
2998000000 0.0053034 -0.0494205 0.9946966 0.0494205 0.9946966 0.0494205 0.0053034 -0.0494205
3019000000 0.0052375 -0.0486463 0.9947625 0.0486463 0.9947625 0.0486463 0.0052375 -0.0486463
3040000000 0.0051735 -0.0478798 0.9948265 0.0478798 0.9948265 0.0478798 0.0051735 -0.0478798
3061000000 0.0051114 -0.0471208 0.9948886 0.0471208 0.9948886 0.0471208 0.0051114 -0.0471208
3082000000 0.0050512 -0.0463692 0.9949488 0.0463692 0.9949488 0.0463692 0.0050512 -0.0463692
3103000000 0.0049927 -0.0456247 0.9950073 0.0456247 0.9950073 0.0456247 0.0049927 -0.0456247
3124000000 0.0049360 -0.0448874 0.9950640 0.0448874 0.9950640 0.0448874 0.0049360 -0.0448874
3145000000 0.0048810 -0.0441569 0.9951190 0.0441569 0.9951190 0.0441569 0.0048810 -0.0441569
3166000000 0.0048277 -0.0434333 0.9951723 0.0434333 0.9951723 0.0434333 0.0048277 -0.0434333
3187000000 0.0047759 -0.0427163 0.9952241 0.0427163 0.9952241 0.0427163 0.0047759 -0.0427163
3208000000 0.0047258 -0.0420059 0.9952742 0.0420059 0.9952742 0.0420059 0.0047258 -0.0420059
3229000000 0.0046772 -0.0413019 0.9953228 0.0413019 0.9953228 0.0413019 0.0046772 -0.0413019
3250000000 0.0046301 -0.0406042 0.9953699 0.0406042 0.9953699 0.0406042 0.0046301 -0.0406042
3271000000 0.0045845 -0.0399126 0.9954155 0.0399126 0.9954155 0.0399126 0.0045845 -0.0399126
3292000000 0.0045403 -0.0392272 0.9954597 0.0392272 0.9954597 0.0392272 0.0045403 -0.0392272
3313000000 0.0044975 -0.0385476 0.9955025 0.0385476 0.9955025 0.0385476 0.0044975 -0.0385476
3334000000 0.0044560 -0.0378740 0.9955440 0.0378740 0.9955440 0.0378740 0.0044560 -0.0378740
3355000000 0.0044159 -0.0372060 0.9955841 0.0372060 0.9955841 0.0372060 0.0044159 -0.0372060
3376000000 0.0043771 -0.0365437 0.9956229 0.0365437 0.9956229 0.0365437 0.0043771 -0.0365437
3397000000 0.0043396 -0.0358869 0.9956604 0.0358869 0.9956604 0.0358869 0.0043396 -0.0358869
3418000000 0.0043033 -0.0352356 0.9956967 0.0352356 0.9956967 0.0352356 0.0043033 -0.0352356
3439000000 0.0042682 -0.0345895 0.9957318 0.0345895 0.9957318 0.0345895 0.0042682 -0.0345895
3460000000 0.0042343 -0.0339488 0.9957657 0.0339488 0.9957657 0.0339488 0.0042343 -0.0339488
3481000000 0.0042016 -0.0333131 0.9957984 0.0333131 0.9957984 0.0333131 0.0042016 -0.0333131
3502000000 0.0041700 -0.0326826 0.9958300 0.0326826 0.9958300 0.0326826 0.0041700 -0.0326826
3523000000 0.0041395 -0.0320570 0.9958605 0.0320570 0.9958605 0.0320570 0.0041395 -0.0320570
3544000000 0.0041102 -0.0314362 0.9958898 0.0314362 0.9958898 0.0314362 0.0041102 -0.0314362
3565000000 0.0040818 -0.0308203 0.9959182 0.0308203 0.9959182 0.0308203 0.0040818 -0.0308203
3586000000 0.0040545 -0.0302091 0.9959455 0.0302091 0.9959455 0.0302091 0.0040545 -0.0302091
3607000000 0.0040283 -0.0296026 0.9959717 0.0296026 0.9959717 0.0296026 0.0040283 -0.0296026
3628000000 0.0040030 -0.0290006 0.9959970 0.0290006 0.9959970 0.0290006 0.0040030 -0.0290006
3649000000 0.0039787 -0.0284031 0.9960213 0.0284031 0.9960213 0.0284031 0.0039787 -0.0284031
3670000000 0.0039554 -0.0278100 0.9960446 0.0278100 0.9960446 0.0278100 0.0039554 -0.0278100
3691000000 0.0039329 -0.0272212 0.9960671 0.0272212 0.9960671 0.0272212 0.0039329 -0.0272212
3712000000 0.0039114 -0.0266367 0.9960886 0.0266367 0.9960886 0.0266367 0.0039114 -0.0266367
3733000000 0.0038909 -0.0260564 0.9961091 0.0260564 0.9961091 0.0260564 0.0038909 -0.0260564
3754000000 0.0038711 -0.0254802 0.9961289 0.0254802 0.9961289 0.0254802 0.0038711 -0.0254802
3775000000 0.0038523 -0.0249081 0.9961477 0.0249081 0.9961477 0.0249081 0.0038523 -0.0249081
3796000000 0.0038343 -0.0243399 0.9961657 0.0243399 0.9961657 0.0243399 0.0038343 -0.0243399
3817000000 0.0038171 -0.0237758 0.9961829 0.0237758 0.9961829 0.0237758 0.0038171 -0.0237758
3838000000 0.0038007 -0.0232154 0.9961993 0.0232154 0.9961993 0.0232154 0.0038007 -0.0232154
3859000000 0.0037851 -0.0226589 0.9962149 0.0226589 0.9962149 0.0226589 0.0037851 -0.0226589
3880000000 0.0037703 -0.0221061 0.9962297 0.0221061 0.9962297 0.0221061 0.0037703 -0.0221061
3901000000 0.0037563 -0.0215570 0.9962437 0.0215570 0.9962437 0.0215570 0.0037563 -0.0215570
3922000000 0.0037430 -0.0210116 0.9962570 0.0210116 0.9962570 0.0210116 0.0037430 -0.0210116
3943000000 0.0037305 -0.0204697 0.9962695 0.0204697 0.9962695 0.0204697 0.0037305 -0.0204697
3964000000 0.0037186 -0.0199313 0.9962814 0.0199313 0.9962814 0.0199313 0.0037186 -0.0199313
3985000000 0.0037075 -0.0193964 0.9962925 0.0193964 0.9962925 0.0193964 0.0037075 -0.0193964
4006000000 0.0036971 -0.0188649 0.9963029 0.0188649 0.9963029 0.0188649 0.0036971 -0.0188649
4027000000 0.0036874 -0.0183368 0.9963126 0.0183368 0.9963126 0.0183368 0.0036874 -0.0183368
4048000000 0.0036783 -0.0178120 0.9963217 0.0178120 0.9963217 0.0178120 0.0036783 -0.0178120
4069000000 0.0036699 -0.0172904 0.9963301 0.0172904 0.9963301 0.0172904 0.0036699 -0.0172904
4090000000 0.0036621 -0.0167721 0.9963379 0.0167721 0.9963379 0.0167721 0.0036621 -0.0167721
4111000000 0.0036550 -0.0162569 0.9963450 0.0162569 0.9963450 0.0162569 0.0036550 -0.0162569
4132000000 0.0036485 -0.0157448 0.9963515 0.0157448 0.9963515 0.0157448 0.0036485 -0.0157448
4153000000 0.0036426 -0.0152358 0.9963574 0.0152358 0.9963574 0.0152358 0.0036426 -0.0152358
4174000000 0.0036373 -0.0147298 0.9963627 0.0147298 0.9963627 0.0147298 0.0036373 -0.0147298
4195000000 0.0036326 -0.0142268 0.9963674 0.0142268 0.9963674 0.0142268 0.0036326 -0.0142268
4216000000 0.0036285 -0.0137268 0.9963715 0.0137268 0.9963715 0.0137268 0.0036285 -0.0137268
4237000000 0.0036249 -0.0132296 0.9963751 0.0132296 0.9963751 0.0132296 0.0036249 -0.0132296
4258000000 0.0036219 -0.0127353 0.9963781 0.0127353 0.9963781 0.0127353 0.0036219 -0.0127353
4279000000 0.0036195 -0.0122438 0.9963805 0.0122438 0.9963805 0.0122438 0.0036195 -0.0122438
4300000000 0.0036176 -0.0117551 0.9963824 0.0117551 0.9963824 0.0117551 0.0036176 -0.0117551
4321000000 0.0036162 -0.0112691 0.9963838 0.0112691 0.9963838 0.0112691 0.0036162 -0.0112691
4342000000 0.0036154 -0.0107858 0.9963846 0.0107858 0.9963846 0.0107858 0.0036154 -0.0107858
4363000000 0.0036151 -0.0103052 0.9963849 0.0103052 0.9963849 0.0103052 0.0036151 -0.0103052
4384000000 0.0036152 -0.0098272 0.9963848 0.0098272 0.9963848 0.0098272 0.0036152 -0.0098272
4405000000 0.0036159 -0.0093518 0.9963841 0.0093518 0.9963841 0.0093518 0.0036159 -0.0093518
4426000000 0.0036171 -0.0088789 0.9963829 0.0088789 0.9963829 0.0088789 0.0036171 -0.0088789
4447000000 0.0036187 -0.0084085 0.9963813 0.0084085 0.9963813 0.0084085 0.0036187 -0.0084085
4468000000 0.0036209 -0.0079407 0.9963791 0.0079407 0.9963791 0.0079407 0.0036209 -0.0079407
4489000000 0.0036235 -0.0074752 0.9963765 0.0074752 0.9963765 0.0074752 0.0036235 -0.0074752
4510000000 0.0036265 -0.0070122 0.9963735 0.0070122 0.9963735 0.0070122 0.0036265 -0.0070122
