!Murata Part Number: GRM0222C1E5R0WA03
!These Parameters are Measured in Series Mode Connection
!Data Generated on Mar 30, 2021
!       o--ll--o
!Port1            Port2
!       o------o
!Operation Temp=25[degC], DC Bias Voltage=0[V]
!Freq. Start=100[MHz] Stop=9[GHz] 401[Steps]
# Hz S RI R 50
!Freq.(Hz) S11(Real) S11(Imag) S21(Real) S21(Imag) S12(Real) S12(Imag) S22(Real) S22(Imag)
100000000 0.9099958 -0.2859422 0.0900042 0.2859422 0.0900042 0.2859422 0.9099958 -0.2859422
121000000 0.8734792 -0.3321376 0.1265208 0.3321376 0.1265208 0.3321376 0.8734792 -0.3321376
142000000 0.8336459 -0.3720479 0.1663541 0.3720479 0.1663541 0.3720479 0.8336459 -0.3720479
163000000 0.7917456 -0.4056564 0.2082544 0.4056564 0.2082544 0.4056564 0.7917456 -0.4056564
184000000 0.7488889 -0.4331955 0.2511111 0.4331955 0.2511111 0.4331955 0.7488889 -0.4331955
205000000 0.7060101 -0.4550766 0.2939899 0.4550766 0.2939899 0.4550766 0.7060101 -0.4550766
226000000 0.6638555 -0.4718237 0.3361445 0.4718237 0.3361445 0.4718237 0.6638555 -0.4718237
247000000 0.6229898 -0.4840170 0.3770102 0.4840170 0.3770102 0.4840170 0.6229898 -0.4840170
268000000 0.5838150 -0.4922486 0.4161850 0.4922486 0.4161850 0.4922486 0.5838150 -0.4922486
289000000 0.5465947 -0.4970912 0.4534053 0.4970912 0.4534053 0.4970912 0.5465947 -0.4970912
310000000 0.5114804 -0.4990778 0.4885196 0.4990778 0.4885196 0.4990778 0.5114804 -0.4990778
331000000 0.4785359 -0.4986906 0.5214641 0.4986906 0.5214641 0.4986906 0.4785359 -0.4986906
352000000 0.4477597 -0.4963559 0.5522403 0.4963559 0.5522403 0.4963559 0.4477597 -0.4963559
373000000 0.4191026 -0.4924447 0.5808974 0.4924447 0.5808974 0.4924447 0.4191026 -0.4924447
394000000 0.3924834 -0.4872750 0.6075166 0.4872750 0.6075166 0.4872750 0.3924834 -0.4872750
415000000 0.3678001 -0.4811164 0.6321999 0.4811164 0.6321999 0.4811164 0.3678001 -0.4811164
436000000 0.3449387 -0.4741953 0.6550613 0.4741953 0.6550613 0.4741953 0.3449387 -0.4741953
457000000 0.3237796 -0.4667003 0.6762204 0.4667003 0.6762204 0.4667003 0.3237796 -0.4667003
478000000 0.3042026 -0.4587873 0.6957974 0.4587873 0.6957974 0.4587873 0.3042026 -0.4587873
499000000 0.2860900 -0.4505845 0.7139100 0.4505845 0.7139100 0.4505845 0.2860900 -0.4505845
520000000 0.2693285 -0.4421965 0.7306715 0.4421965 0.7306715 0.4421965 0.2693285 -0.4421965
541000000 0.2538109 -0.4337082 0.7461891 0.4337082 0.7461891 0.4337082 0.2538109 -0.4337082
562000000 0.2394366 -0.4251880 0.7605634 0.4251880 0.7605634 0.4251880 0.2394366 -0.4251880
583000000 0.2261120 -0.4166906 0.7738880 0.4166906 0.7738880 0.4166906 0.2261120 -0.4166906
604000000 0.2137505 -0.4082594 0.7862495 0.4082594 0.7862495 0.4082594 0.2137505 -0.4082594
625000000 0.2022725 -0.3999284 0.7977275 0.3999284 0.7977275 0.3999284 0.2022725 -0.3999284
646000000 0.1916049 -0.3917241 0.8083951 0.3917241 0.8083951 0.3917241 0.1916049 -0.3917241
667000000 0.1816806 -0.3836665 0.8183194 0.3836665 0.8183194 0.3836665 0.1816806 -0.3836665
688000000 0.1724386 -0.3757707 0.8275614 0.3757707 0.8275614 0.3757707 0.1724386 -0.3757707
709000000 0.1638231 -0.3680472 0.8361769 0.3680472 0.8361769 0.3680472 0.1638231 -0.3680472
730000000 0.1557833 -0.3605037 0.8442167 0.3605037 0.8442167 0.3605037 0.1557833 -0.3605037
751000000 0.1482728 -0.3531445 0.8517272 0.3531445 0.8517272 0.3531445 0.1482728 -0.3531445
772000000 0.1412494 -0.3459723 0.8587506 0.3459723 0.8587506 0.3459723 0.1412494 -0.3459723
793000000 0.1346747 -0.3389876 0.8653253 0.3389876 0.8653253 0.3389876 0.1346747 -0.3389876
814000000 0.1285136 -0.3321896 0.8714864 0.3321896 0.8714864 0.3321896 0.1285136 -0.3321896
835000000 0.1227343 -0.3255766 0.8772657 0.3255766 0.8772657 0.3255766 0.1227343 -0.3255766
856000000 0.1173076 -0.3191457 0.8826924 0.3191457 0.8826924 0.3191457 0.1173076 -0.3191457
877000000 0.1122069 -0.3128936 0.8877931 0.3128936 0.8877931 0.3128936 0.1122069 -0.3128936
898000000 0.1074080 -0.3068164 0.8925920 0.3068164 0.8925920 0.3068164 0.1074080 -0.3068164
919000000 0.1028887 -0.3009097 0.8971113 0.3009097 0.8971113 0.3009097 0.1028887 -0.3009097
940000000 0.0986287 -0.2951692 0.9013713 0.2951692 0.9013713 0.2951692 0.0986287 -0.2951692
961000000 0.0946094 -0.2895899 0.9053906 0.2895899 0.9053906 0.2895899 0.0946094 -0.2895899
982000000 0.0908139 -0.2841673 0.9091861 0.2841673 0.9091861 0.2841673 0.0908139 -0.2841673
1003000000 0.0872265 -0.2788963 0.9127735 0.2788963 0.9127735 0.2788963 0.0872265 -0.2788963
1024000000 0.0838329 -0.2737722 0.9161671 0.2737722 0.9161671 0.2737722 0.0838329 -0.2737722
1045000000 0.0806200 -0.2687901 0.9193800 0.2687901 0.9193800 0.2687901 0.0806200 -0.2687901
1066000000 0.0775756 -0.2639452 0.9224244 0.2639452 0.9224244 0.2639452 0.0775756 -0.2639452
1087000000 0.0746886 -0.2592329 0.9253114 0.2592329 0.9253114 0.2592329 0.0746886 -0.2592329
1108000000 0.0719487 -0.2546486 0.9280513 0.2546486 0.9280513 0.2546486 0.0719487 -0.2546486
1129000000 0.0693464 -0.2501878 0.9306536 0.2501878 0.9306536 0.2501878 0.0693464 -0.2501878
1150000000 0.0668731 -0.2458463 0.9331269 0.2458463 0.9331269 0.2458463 0.0668731 -0.2458463
1171000000 0.0645205 -0.2416198 0.9354795 0.2416198 0.9354795 0.2416198 0.0645205 -0.2416198
1192000000 0.0622813 -0.2375042 0.9377187 0.2375042 0.9377187 0.2375042 0.0622813 -0.2375042
1213000000 0.0601486 -0.2334956 0.9398514 0.2334956 0.9398514 0.2334956 0.0601486 -0.2334956
1234000000 0.0581158 -0.2295902 0.9418842 0.2295902 0.9418842 0.2295902 0.0581158 -0.2295902
1255000000 0.0561770 -0.2257844 0.9438230 0.2257844 0.9438230 0.2257844 0.0561770 -0.2257844
1276000000 0.0543268 -0.2220745 0.9456732 0.2220745 0.9456732 0.2220745 0.0543268 -0.2220745
1297000000 0.0525599 -0.2184573 0.9474401 0.2184573 0.9474401 0.2184573 0.0525599 -0.2184573
1318000000 0.0508717 -0.2149294 0.9491283 0.2149294 0.9491283 0.2149294 0.0508717 -0.2149294
1339000000 0.0492575 -0.2114877 0.9507425 0.2114877 0.9507425 0.2114877 0.0492575 -0.2114877
1360000000 0.0477134 -0.2081292 0.9522866 0.2081292 0.9522866 0.2081292 0.0477134 -0.2081292
1381000000 0.0462355 -0.2048510 0.9537645 0.2048510 0.9537645 0.2048510 0.0462355 -0.2048510
1402000000 0.0448200 -0.2016503 0.9551800 0.2016503 0.9551800 0.2016503 0.0448200 -0.2016503
1423000000 0.0434637 -0.1985244 0.9565363 0.1985244 0.9565363 0.1985244 0.0434637 -0.1985244
1444000000 0.0421635 -0.1954708 0.9578365 0.1954708 0.9578365 0.1954708 0.0421635 -0.1954708
1465000000 0.0409163 -0.1924869 0.9590837 0.1924869 0.9590837 0.1924869 0.0409163 -0.1924869
1486000000 0.0397194 -0.1895705 0.9602806 0.1895705 0.9602806 0.1895705 0.0397194 -0.1895705
1507000000 0.0385703 -0.1867193 0.9614297 0.1867193 0.9614297 0.1867193 0.0385703 -0.1867193
1528000000 0.0374664 -0.1839310 0.9625336 0.1839310 0.9625336 0.1839310 0.0374664 -0.1839310
1549000000 0.0364056 -0.1812036 0.9635944 0.1812036 0.9635944 0.1812036 0.0364056 -0.1812036
1570000000 0.0353857 -0.1785351 0.9646143 0.1785351 0.9646143 0.1785351 0.0353857 -0.1785351
1591000000 0.0344047 -0.1759236 0.9655953 0.1759236 0.9655953 0.1759236 0.0344047 -0.1759236
1612000000 0.0334606 -0.1733671 0.9665394 0.1733671 0.9665394 0.1733671 0.0334606 -0.1733671
1633000000 0.0325519 -0.1708639 0.9674481 0.1708639 0.9674481 0.1708639 0.0325519 -0.1708639
1654000000 0.0316766 -0.1684124 0.9683234 0.1684124 0.9683234 0.1684124 0.0316766 -0.1684124
1675000000 0.0308334 -0.1660108 0.9691666 0.1660108 0.9691666 0.1660108 0.0308334 -0.1660108
1696000000 0.0300207 -0.1636577 0.9699793 0.1636577 0.9699793 0.1636577 0.0300207 -0.1636577
1717000000 0.0292370 -0.1613514 0.9707630 0.1613514 0.9707630 0.1613514 0.0292370 -0.1613514
1738000000 0.0284812 -0.1590905 0.9715188 0.1590905 0.9715188 0.1590905 0.0284812 -0.1590905
1759000000 0.0277519 -0.1568736 0.9722481 0.1568736 0.9722481 0.1568736 0.0277519 -0.1568736
1780000000 0.0270480 -0.1546994 0.9729520 0.1546994 0.9729520 0.1546994 0.0270480 -0.1546994
1801000000 0.0263683 -0.1525666 0.9736317 0.1525666 0.9736317 0.1525666 0.0263683 -0.1525666
1822000000 0.0257118 -0.1504740 0.9742882 0.1504740 0.9742882 0.1504740 0.0257118 -0.1504740
1843000000 0.0250775 -0.1484202 0.9749225 0.1484202 0.9749225 0.1484202 0.0250775 -0.1484202
1864000000 0.0244644 -0.1464043 0.9755356 0.1464043 0.9755356 0.1464043 0.0244644 -0.1464043
1885000000 0.0238717 -0.1444250 0.9761283 0.1444250 0.9761283 0.1444250 0.0238717 -0.1444250
1906000000 0.0232985 -0.1424813 0.9767015 0.1424813 0.9767015 0.1424813 0.0232985 -0.1424813
1927000000 0.0227440 -0.1405722 0.9772560 0.1405722 0.9772560 0.1405722 0.0227440 -0.1405722
1948000000 0.0222074 -0.1386967 0.9777926 0.1386967 0.9777926 0.1386967 0.0222074 -0.1386967
1969000000 0.0216880 -0.1368538 0.9783120 0.1368538 0.9783120 0.1368538 0.0216880 -0.1368538
1990000000 0.0211851 -0.1350426 0.9788149 0.1350426 0.9788149 0.1350426 0.0211851 -0.1350426
2011000000 0.0206981 -0.1332622 0.9793019 0.1332622 0.9793019 0.1332622 0.0206981 -0.1332622
2032000000 0.0202264 -0.1315118 0.9797736 0.1315118 0.9797736 0.1315118 0.0202264 -0.1315118
2053000000 0.0197692 -0.1297905 0.9802308 0.1297905 0.9802308 0.1297905 0.0197692 -0.1297905
2074000000 0.0193262 -0.1280975 0.9806738 0.1280975 0.9806738 0.1280975 0.0193262 -0.1280975
2095000000 0.0188966 -0.1264321 0.9811034 0.1264321 0.9811034 0.1264321 0.0188966 -0.1264321
2116000000 0.0184802 -0.1247935 0.9815198 0.1247935 0.9815198 0.1247935 0.0184802 -0.1247935
2137000000 0.0180762 -0.1231811 0.9819238 0.1231811 0.9819238 0.1231811 0.0180762 -0.1231811
2158000000 0.0176843 -0.1215940 0.9823157 0.1215940 0.9823157 0.1215940 0.0176843 -0.1215940
2179000000 0.0173041 -0.1200317 0.9826959 0.1200317 0.9826959 0.1200317 0.0173041 -0.1200317
2200000000 0.0169350 -0.1184934 0.9830650 0.1184934 0.9830650 0.1184934 0.0169350 -0.1184934
2221000000 0.0165767 -0.1169787 0.9834233 0.1169787 0.9834233 0.1169787 0.0165767 -0.1169787
2242000000 0.0162289 -0.1154868 0.9837711 0.1154868 0.9837711 0.1154868 0.0162289 -0.1154868
2263000000 0.0158911 -0.1140172 0.9841089 0.1140172 0.9841089 0.1140172 0.0158911 -0.1140172
2284000000 0.0155630 -0.1125693 0.9844370 0.1125693 0.9844370 0.1125693 0.0155630 -0.1125693
2305000000 0.0152442 -0.1111426 0.9847558 0.1111426 0.9847558 0.1111426 0.0152442 -0.1111426
2326000000 0.0149345 -0.1097365 0.9850655 0.1097365 0.9850655 0.1097365 0.0149345 -0.1097365
2347000000 0.0146334 -0.1083506 0.9853666 0.1083506 0.9853666 0.1083506 0.0146334 -0.1083506
2368000000 0.0143408 -0.1069843 0.9856592 0.1069843 0.9856592 0.1069843 0.0143408 -0.1069843
2389000000 0.0140564 -0.1056372 0.9859436 0.1056372 0.9859436 0.1056372 0.0140564 -0.1056372
2410000000 0.0137798 -0.1043087 0.9862202 0.1043087 0.9862202 0.1043087 0.0137798 -0.1043087
2431000000 0.0135108 -0.1029985 0.9864892 0.1029985 0.9864892 0.1029985 0.0135108 -0.1029985
2452000000 0.0132491 -0.1017062 0.9867509 0.1017062 0.9867509 0.1017062 0.0132491 -0.1017062
2473000000 0.0129946 -0.1004312 0.9870054 0.1004312 0.9870054 0.1004312 0.0129946 -0.1004312
2494000000 0.0127470 -0.0991732 0.9872530 0.0991732 0.9872530 0.0991732 0.0127470 -0.0991732
2515000000 0.0125060 -0.0979317 0.9874940 0.0979317 0.9874940 0.0979317 0.0125060 -0.0979317
2536000000 0.0122715 -0.0967065 0.9877285 0.0967065 0.9877285 0.0967065 0.0122715 -0.0967065
2557000000 0.0120432 -0.0954971 0.9879568 0.0954971 0.9879568 0.0954971 0.0120432 -0.0954971
2578000000 0.0118210 -0.0943032 0.9881790 0.0943032 0.9881790 0.0943032 0.0118210 -0.0943032
2599000000 0.0116046 -0.0931244 0.9883954 0.0931244 0.9883954 0.0931244 0.0116046 -0.0931244
2620000000 0.0113940 -0.0919603 0.9886060 0.0919603 0.9886060 0.0919603 0.0113940 -0.0919603
2641000000 0.0111888 -0.0908107 0.9888112 0.0908107 0.9888112 0.0908107 0.0111888 -0.0908107
2662000000 0.0109890 -0.0896753 0.9890110 0.0896753 0.9890110 0.0896753 0.0109890 -0.0896753
2683000000 0.0107944 -0.0885536 0.9892056 0.0885536 0.9892056 0.0885536 0.0107944 -0.0885536
2704000000 0.0106049 -0.0874454 0.9893951 0.0874454 0.9893951 0.0874454 0.0106049 -0.0874454
2725000000 0.0104202 -0.0863505 0.9895798 0.0863505 0.9895798 0.0863505 0.0104202 -0.0863505
2746000000 0.0102402 -0.0852685 0.9897598 0.0852685 0.9897598 0.0852685 0.0102402 -0.0852685
2767000000 0.0100649 -0.0841991 0.9899351 0.0841991 0.9899351 0.0841991 0.0100649 -0.0841991
2788000000 0.0098940 -0.0831421 0.9901060 0.0831421 0.9901060 0.0831421 0.0098940 -0.0831421
2809000000 0.0097275 -0.0820973 0.9902725 0.0820973 0.9902725 0.0820973 0.0097275 -0.0820973
2830000000 0.0095651 -0.0810643 0.9904349 0.0810643 0.9904349 0.0810643 0.0095651 -0.0810643
2851000000 0.0094069 -0.0800429 0.9905931 0.0800429 0.9905931 0.0800429 0.0094069 -0.0800429
2872000000 0.0092527 -0.0790329 0.9907473 0.0790329 0.9907473 0.0790329 0.0092527 -0.0790329
2893000000 0.0091023 -0.0780341 0.9908977 0.0780341 0.9908977 0.0780341 0.0091023 -0.0780341
2914000000 0.0089558 -0.0770461 0.9910442 0.0770461 0.9910442 0.0770461 0.0089558 -0.0770461
2935000000 0.0088128 -0.0760689 0.9911872 0.0760689 0.9911872 0.0760689 0.0088128 -0.0760689
2956000000 0.0086735 -0.0751021 0.9913265 0.0751021 0.9913265 0.0751021 0.0086735 -0.0751021
2977000000 0.0085376 -0.0741456 0.9914624 0.0741456 0.9914624 0.0741456 0.0085376 -0.0741456
2998000000 0.0084051 -0.0731991 0.9915949 0.0731991 0.9915949 0.0731991 0.0084051 -0.0731991
3019000000 0.0082759 -0.0722626 0.9917241 0.0722626 0.9917241 0.0722626 0.0082759 -0.0722626
3040000000 0.0081498 -0.0713356 0.9918502 0.0713356 0.9918502 0.0713356 0.0081498 -0.0713356
3061000000 0.0080269 -0.0704182 0.9919731 0.0704182 0.9919731 0.0704182 0.0080269 -0.0704182
3082000000 0.0079070 -0.0695100 0.9920930 0.0695100 0.9920930 0.0695100 0.0079070 -0.0695100
3103000000 0.0077901 -0.0686110 0.9922099 0.0686110 0.9922099 0.0686110 0.0077901 -0.0686110
3124000000 0.0076761 -0.0677209 0.9923239 0.0677209 0.9923239 0.0677209 0.0076761 -0.0677209
3145000000 0.0075649 -0.0668396 0.9924351 0.0668396 0.9924351 0.0668396 0.0075649 -0.0668396
3166000000 0.0074564 -0.0659669 0.9925436 0.0659669 0.9925436 0.0659669 0.0074564 -0.0659669
3187000000 0.0073505 -0.0651026 0.9926495 0.0651026 0.9926495 0.0651026 0.0073505 -0.0651026
3208000000 0.0072473 -0.0642466 0.9927527 0.0642466 0.9927527 0.0642466 0.0072473 -0.0642466
3229000000 0.0071466 -0.0633987 0.9928534 0.0633987 0.9928534 0.0633987 0.0071466 -0.0633987
3250000000 0.0070484 -0.0625588 0.9929516 0.0625588 0.9929516 0.0625588 0.0070484 -0.0625588
3271000000 0.0069526 -0.0617267 0.9930474 0.0617267 0.9930474 0.0617267 0.0069526 -0.0617267
3292000000 0.0068592 -0.0609024 0.9931408 0.0609024 0.9931408 0.0609024 0.0068592 -0.0609024
3313000000 0.0067681 -0.0600855 0.9932319 0.0600855 0.9932319 0.0600855 0.0067681 -0.0600855
3334000000 0.0066792 -0.0592761 0.9933208 0.0592761 0.9933208 0.0592761 0.0066792 -0.0592761
3355000000 0.0065925 -0.0584740 0.9934075 0.0584740 0.9934075 0.0584740 0.0065925 -0.0584740
3376000000 0.0065079 -0.0576790 0.9934921 0.0576790 0.9934921 0.0576790 0.0065079 -0.0576790
3397000000 0.0064254 -0.0568910 0.9935746 0.0568910 0.9935746 0.0568910 0.0064254 -0.0568910
3418000000 0.0063450 -0.0561099 0.9936550 0.0561099 0.9936550 0.0561099 0.0063450 -0.0561099
3439000000 0.0062665 -0.0553356 0.9937335 0.0553356 0.9937335 0.0553356 0.0062665 -0.0553356
3460000000 0.0061901 -0.0545680 0.9938099 0.0545680 0.9938099 0.0545680 0.0061901 -0.0545680
3481000000 0.0061155 -0.0538069 0.9938845 0.0538069 0.9938845 0.0538069 0.0061155 -0.0538069
3502000000 0.0060427 -0.0530522 0.9939573 0.0530522 0.9939573 0.0530522 0.0060427 -0.0530522
3523000000 0.0059718 -0.0523039 0.9940282 0.0523039 0.9940282 0.0523039 0.0059718 -0.0523039
3544000000 0.0059027 -0.0515618 0.9940973 0.0515618 0.9940973 0.0515618 0.0059027 -0.0515618
3565000000 0.0058353 -0.0508257 0.9941647 0.0508257 0.9941647 0.0508257 0.0058353 -0.0508257
3586000000 0.0057696 -0.0500957 0.9942304 0.0500957 0.9942304 0.0500957 0.0057696 -0.0500957
3607000000 0.0057056 -0.0493716 0.9942944 0.0493716 0.9942944 0.0493716 0.0057056 -0.0493716
3628000000 0.0056432 -0.0486533 0.9943568 0.0486533 0.9943568 0.0486533 0.0056432 -0.0486533
3649000000 0.0055824 -0.0479407 0.9944176 0.0479407 0.9944176 0.0479407 0.0055824 -0.0479407
3670000000 0.0055231 -0.0472337 0.9944769 0.0472337 0.9944769 0.0472337 0.0055231 -0.0472337
3691000000 0.0054654 -0.0465322 0.9945346 0.0465322 0.9945346 0.0465322 0.0054654 -0.0465322
3712000000 0.0054092 -0.0458362 0.9945908 0.0458362 0.9945908 0.0458362 0.0054092 -0.0458362
3733000000 0.0053544 -0.0451455 0.9946456 0.0451455 0.9946456 0.0451455 0.0053544 -0.0451455
3754000000 0.0053010 -0.0444600 0.9946990 0.0444600 0.9946990 0.0444600 0.0053010 -0.0444600
3775000000 0.0052491 -0.0437798 0.9947509 0.0437798 0.9947509 0.0437798 0.0052491 -0.0437798
3796000000 0.0051985 -0.0431046 0.9948015 0.0431046 0.9948015 0.0431046 0.0051985 -0.0431046
3817000000 0.0051493 -0.0424344 0.9948507 0.0424344 0.9948507 0.0424344 0.0051493 -0.0424344
3838000000 0.0051014 -0.0417692 0.9948986 0.0417692 0.9948986 0.0417692 0.0051014 -0.0417692
3859000000 0.0050547 -0.0411088 0.9949453 0.0411088 0.9949453 0.0411088 0.0050547 -0.0411088
3880000000 0.0050094 -0.0404533 0.9949906 0.0404533 0.9949906 0.0404533 0.0050094 -0.0404533
3901000000 0.0049652 -0.0398024 0.9950348 0.0398024 0.9950348 0.0398024 0.0049652 -0.0398024
3922000000 0.0049223 -0.0391561 0.9950777 0.0391561 0.9950777 0.0391561 0.0049223 -0.0391561
3943000000 0.0048806 -0.0385144 0.9951194 0.0385144 0.9951194 0.0385144 0.0048806 -0.0385144
3964000000 0.0048400 -0.0378772 0.9951600 0.0378772 0.9951600 0.0378772 0.0048400 -0.0378772
3985000000 0.0048006 -0.0372444 0.9951994 0.0372444 0.9951994 0.0372444 0.0048006 -0.0372444
4006000000 0.0047623 -0.0366160 0.9952377 0.0366160 0.9952377 0.0366160 0.0047623 -0.0366160
4027000000 0.0047251 -0.0359918 0.9952749 0.0359918 0.9952749 0.0359918 0.0047251 -0.0359918
4048000000 0.0046890 -0.0353719 0.9953110 0.0353719 0.9953110 0.0353719 0.0046890 -0.0353719
4069000000 0.0046539 -0.0347561 0.9953461 0.0347561 0.9953461 0.0347561 0.0046539 -0.0347561
4090000000 0.0046199 -0.0341445 0.9953801 0.0341445 0.9953801 0.0341445 0.0046199 -0.0341445
4111000000 0.0045869 -0.0335369 0.9954131 0.0335369 0.9954131 0.0335369 0.0045869 -0.0335369
4132000000 0.0045549 -0.0329332 0.9954451 0.0329332 0.9954451 0.0329332 0.0045549 -0.0329332
4153000000 0.0045239 -0.0323335 0.9954761 0.0323335 0.9954761 0.0323335 0.0045239 -0.0323335
4174000000 0.0044938 -0.0317377 0.9955062 0.0317377 0.9955062 0.0317377 0.0044938 -0.0317377
4195000000 0.0044647 -0.0311456 0.9955353 0.0311456 0.9955353 0.0311456 0.0044647 -0.0311456
4216000000 0.0044365 -0.0305573 0.9955635 0.0305573 0.9955635 0.0305573 0.0044365 -0.0305573
4237000000 0.0044092 -0.0299727 0.9955908 0.0299727 0.9955908 0.0299727 0.0044092 -0.0299727
4258000000 0.0043828 -0.0293918 0.9956172 0.0293918 0.9956172 0.0293918 0.0043828 -0.0293918
4279000000 0.0043573 -0.0288144 0.9956427 0.0288144 0.9956427 0.0288144 0.0043573 -0.0288144
4300000000 0.0043326 -0.0282406 0.9956674 0.0282406 0.9956674 0.0282406 0.0043326 -0.0282406
4321000000 0.0043088 -0.0276703 0.9956912 0.0276703 0.9956912 0.0276703 0.0043088 -0.0276703
4342000000 0.0042858 -0.0271035 0.9957142 0.0271035 0.9957142 0.0271035 0.0042858 -0.0271035
4363000000 0.0042637 -0.0265400 0.9957363 0.0265400 0.9957363 0.0265400 0.0042637 -0.0265400
4384000000 0.0042423 -0.0259799 0.9957577 0.0259799 0.9957577 0.0259799 0.0042423 -0.0259799
4405000000 0.0042217 -0.0254231 0.9957783 0.0254231 0.9957783 0.0254231 0.0042217 -0.0254231
4426000000 0.0042020 -0.0248696 0.9957980 0.0248696 0.9957980 0.0248696 0.0042020 -0.0248696
4447000000 0.0041829 -0.0243192 0.9958171 0.0243192 0.9958171 0.0243192 0.0041829 -0.0243192
4468000000 0.0041646 -0.0237721 0.9958354 0.0237721 0.9958354 0.0237721 0.0041646 -0.0237721
4489000000 0.0041471 -0.0232280 0.9958529 0.0232280 0.9958529 0.0232280 0.0041471 -0.0232280
4510000000 0.0041303 -0.0226871 0.9958697 0.0226871 0.9958697 0.0226871 0.0041303 -0.0226871
