!Murata Part Number: GRM0222C1C300GA02
!These Parameters are Measured in Series Mode Connection
!Data Generated on Mar 30, 2021
!       o--ll--o
!Port1            Port2
!       o------o
!Operation Temp=25[degC], DC Bias Voltage=0[V]
!Freq. Start=100[MHz] Stop=9[GHz] 401[Steps]
# Hz S RI R 50
!Freq.(Hz) S11(Real) S11(Imag) S21(Real) S21(Imag) S12(Real) S12(Imag) S22(Real) S22(Imag)
100000000 0.2196661 -0.4122813 0.7803339 0.4122813 0.7803339 0.4122813 0.2196661 -0.4122813
121000000 0.1613925 -0.3657870 0.8386075 0.3657870 0.8386075 0.3657870 0.1613925 -0.3657870
142000000 0.1227286 -0.3256526 0.8772714 0.3256526 0.8772714 0.3256526 0.1227286 -0.3256526
163000000 0.0960969 -0.2918832 0.9039031 0.2918832 0.9039031 0.2918832 0.0960969 -0.2918832
184000000 0.0771138 -0.2635619 0.9228862 0.2635619 0.9228862 0.2635619 0.0771138 -0.2635619
205000000 0.0631703 -0.2396887 0.9368297 0.2396887 0.9368297 0.2396887 0.0631703 -0.2396887
226000000 0.0526593 -0.2194006 0.9473407 0.2194006 0.9473407 0.2194006 0.0526593 -0.2194006
247000000 0.0445563 -0.2020028 0.9554437 0.2020028 0.9554437 0.2020028 0.0445563 -0.2020028
268000000 0.0381874 -0.1869493 0.9618126 0.1869493 0.9618126 0.1869493 0.0381874 -0.1869493
289000000 0.0330961 -0.1738125 0.9669039 0.1738125 0.9669039 0.1738125 0.0330961 -0.1738125
310000000 0.0289657 -0.1622573 0.9710343 0.1622573 0.9710343 0.1622573 0.0289657 -0.1622573
331000000 0.0255708 -0.1520185 0.9744292 0.1520185 0.9744292 0.1520185 0.0255708 -0.1520185
352000000 0.0227480 -0.1428852 0.9772520 0.1428852 0.9772520 0.1428852 0.0227480 -0.1428852
373000000 0.0203768 -0.1346879 0.9796232 0.1346879 0.9796232 0.1346879 0.0203768 -0.1346879
394000000 0.0183664 -0.1272889 0.9816336 0.1272889 0.9816336 0.1272889 0.0183664 -0.1272889
415000000 0.0166478 -0.1205761 0.9833522 0.1205761 0.9833522 0.1205761 0.0166478 -0.1205761
436000000 0.0151675 -0.1144567 0.9848325 0.1144567 0.9848325 0.1144567 0.0151675 -0.1144567
457000000 0.0138838 -0.1088537 0.9861162 0.1088537 0.9861162 0.1088537 0.0138838 -0.1088537
478000000 0.0127638 -0.1037028 0.9872362 0.1037028 0.9872362 0.1037028 0.0127638 -0.1037028
499000000 0.0117810 -0.0989496 0.9882190 0.0989496 0.9882190 0.0989496 0.0117810 -0.0989496
520000000 0.0109141 -0.0945482 0.9890859 0.0945482 0.9890859 0.0945482 0.0109141 -0.0945482
541000000 0.0101458 -0.0904594 0.9898542 0.0904594 0.9898542 0.0904594 0.0101458 -0.0904594
562000000 0.0094619 -0.0866493 0.9905381 0.0866493 0.9905381 0.0866493 0.0094619 -0.0866493
583000000 0.0088507 -0.0830889 0.9911493 0.0830889 0.9911493 0.0830889 0.0088507 -0.0830889
604000000 0.0083025 -0.0797532 0.9916975 0.0797532 0.9916975 0.0797532 0.0083025 -0.0797532
625000000 0.0078089 -0.0766200 0.9921911 0.0766200 0.9921911 0.0766200 0.0078089 -0.0766200
646000000 0.0073632 -0.0736702 0.9926368 0.0736702 0.9926368 0.0736702 0.0073632 -0.0736702
667000000 0.0069595 -0.0708870 0.9930405 0.0708870 0.9930405 0.0708870 0.0069595 -0.0708870
688000000 0.0065929 -0.0682555 0.9934071 0.0682555 0.9934071 0.0682555 0.0065929 -0.0682555
709000000 0.0062590 -0.0657626 0.9937410 0.0657626 0.9937410 0.0657626 0.0062590 -0.0657626
730000000 0.0059543 -0.0633965 0.9940457 0.0633965 0.9940457 0.0633965 0.0059543 -0.0633965
751000000 0.0056755 -0.0611468 0.9943245 0.0611468 0.9943245 0.0611468 0.0056755 -0.0611468
772000000 0.0054200 -0.0590042 0.9945800 0.0590042 0.9945800 0.0590042 0.0054200 -0.0590042
793000000 0.0051853 -0.0569604 0.9948147 0.0569604 0.9948147 0.0569604 0.0051853 -0.0569604
814000000 0.0049694 -0.0550079 0.9950306 0.0550079 0.9950306 0.0550079 0.0049694 -0.0550079
835000000 0.0047705 -0.0531398 0.9952295 0.0531398 0.9952295 0.0531398 0.0047705 -0.0531398
856000000 0.0045868 -0.0513501 0.9954132 0.0513501 0.9954132 0.0513501 0.0045868 -0.0513501
877000000 0.0044171 -0.0496333 0.9955829 0.0496333 0.9955829 0.0496333 0.0044171 -0.0496333
898000000 0.0042601 -0.0479843 0.9957399 0.0479843 0.9957399 0.0479843 0.0042601 -0.0479843
919000000 0.0041146 -0.0463985 0.9958854 0.0463985 0.9958854 0.0463985 0.0041146 -0.0463985
940000000 0.0039796 -0.0448717 0.9960204 0.0448717 0.9960204 0.0448717 0.0039796 -0.0448717
961000000 0.0038544 -0.0434001 0.9961456 0.0434001 0.9961456 0.0434001 0.0038544 -0.0434001
982000000 0.0037380 -0.0419803 0.9962620 0.0419803 0.9962620 0.0419803 0.0037380 -0.0419803
1003000000 0.0036297 -0.0406089 0.9963703 0.0406089 0.9963703 0.0406089 0.0036297 -0.0406089
1024000000 0.0035290 -0.0392832 0.9964710 0.0392832 0.9964710 0.0392832 0.0035290 -0.0392832
1045000000 0.0034352 -0.0380003 0.9965648 0.0380003 0.9965648 0.0380003 0.0034352 -0.0380003
1066000000 0.0033479 -0.0367577 0.9966521 0.0367577 0.9966521 0.0367577 0.0033479 -0.0367577
1087000000 0.0032665 -0.0355531 0.9967335 0.0355531 0.9967335 0.0355531 0.0032665 -0.0355531
1108000000 0.0031907 -0.0343845 0.9968093 0.0343845 0.9968093 0.0343845 0.0031907 -0.0343845
1129000000 0.0031200 -0.0332497 0.9968800 0.0332497 0.9968800 0.0332497 0.0031200 -0.0332497
1150000000 0.0030541 -0.0321470 0.9969459 0.0321470 0.9969459 0.0321470 0.0030541 -0.0321470
1171000000 0.0029926 -0.0310747 0.9970074 0.0310747 0.9970074 0.0310747 0.0029926 -0.0310747
1192000000 0.0029354 -0.0300311 0.9970646 0.0300311 0.9970646 0.0300311 0.0029354 -0.0300311
1213000000 0.0028820 -0.0290149 0.9971180 0.0290149 0.9971180 0.0290149 0.0028820 -0.0290149
1234000000 0.0028323 -0.0280245 0.9971677 0.0280245 0.9971677 0.0280245 0.0028323 -0.0280245
1255000000 0.0027860 -0.0270588 0.9972140 0.0270588 0.9972140 0.0270588 0.0027860 -0.0270588
1276000000 0.0027430 -0.0261164 0.9972570 0.0261164 0.9972570 0.0261164 0.0027430 -0.0261164
1297000000 0.0027030 -0.0251964 0.9972970 0.0251964 0.9972970 0.0251964 0.0027030 -0.0251964
1318000000 0.0026659 -0.0242976 0.9973341 0.0242976 0.9973341 0.0242976 0.0026659 -0.0242976
1339000000 0.0026315 -0.0234190 0.9973685 0.0234190 0.9973685 0.0234190 0.0026315 -0.0234190
1360000000 0.0025996 -0.0225597 0.9974004 0.0225597 0.9974004 0.0225597 0.0025996 -0.0225597
1381000000 0.0025702 -0.0217189 0.9974298 0.0217189 0.9974298 0.0217189 0.0025702 -0.0217189
1402000000 0.0025430 -0.0208957 0.9974570 0.0208957 0.9974570 0.0208957 0.0025430 -0.0208957
1423000000 0.0025180 -0.0200893 0.9974820 0.0200893 0.9974820 0.0200893 0.0025180 -0.0200893
1444000000 0.0024951 -0.0192991 0.9975049 0.0192991 0.9975049 0.0192991 0.0024951 -0.0192991
1465000000 0.0024741 -0.0185242 0.9975259 0.0185242 0.9975259 0.0185242 0.0024741 -0.0185242
1486000000 0.0024550 -0.0177642 0.9975450 0.0177642 0.9975450 0.0177642 0.0024550 -0.0177642
1507000000 0.0024377 -0.0170183 0.9975623 0.0170183 0.9975623 0.0170183 0.0024377 -0.0170183
1528000000 0.0024221 -0.0162860 0.9975779 0.0162860 0.9975779 0.0162860 0.0024221 -0.0162860
1549000000 0.0024080 -0.0155667 0.9975920 0.0155667 0.9975920 0.0155667 0.0024080 -0.0155667
1570000000 0.0023955 -0.0148600 0.9976045 0.0148600 0.9976045 0.0148600 0.0023955 -0.0148600
1591000000 0.0023845 -0.0141652 0.9976155 0.0141652 0.9976155 0.0141652 0.0023845 -0.0141652
1612000000 0.0023749 -0.0134821 0.9976251 0.0134821 0.9976251 0.0134821 0.0023749 -0.0134821
1633000000 0.0023667 -0.0128101 0.9976333 0.0128101 0.9976333 0.0128101 0.0023667 -0.0128101
1654000000 0.0023598 -0.0121487 0.9976402 0.0121487 0.9976402 0.0121487 0.0023598 -0.0121487
1675000000 0.0023541 -0.0114977 0.9976459 0.0114977 0.9976459 0.0114977 0.0023541 -0.0114977
1696000000 0.0023496 -0.0108566 0.9976504 0.0108566 0.9976504 0.0108566 0.0023496 -0.0108566
1717000000 0.0023463 -0.0102250 0.9976537 0.0102250 0.9976537 0.0102250 0.0023463 -0.0102250
1738000000 0.0023441 -0.0096027 0.9976559 0.0096027 0.9976559 0.0096027 0.0023441 -0.0096027
1759000000 0.0023429 -0.0089893 0.9976571 0.0089893 0.9976571 0.0089893 0.0023429 -0.0089893
1780000000 0.0023428 -0.0083844 0.9976572 0.0083844 0.9976572 0.0083844 0.0023428 -0.0083844
1801000000 0.0023437 -0.0077879 0.9976563 0.0077879 0.9976563 0.0077879 0.0023437 -0.0077879
1822000000 0.0023456 -0.0071993 0.9976544 0.0071993 0.9976544 0.0071993 0.0023456 -0.0071993
1843000000 0.0023484 -0.0066185 0.9976516 0.0066185 0.9976516 0.0066185 0.0023484 -0.0066185
1864000000 0.0023521 -0.0060451 0.9976479 0.0060451 0.9976479 0.0060451 0.0023521 -0.0060451
1885000000 0.0023566 -0.0054790 0.9976434 0.0054790 0.9976434 0.0054790 0.0023566 -0.0054790
1906000000 0.0023621 -0.0049199 0.9976379 0.0049199 0.9976379 0.0049199 0.0023621 -0.0049199
1927000000 0.0023683 -0.0043675 0.9976317 0.0043675 0.9976317 0.0043675 0.0023683 -0.0043675
1948000000 0.0023754 -0.0038217 0.9976246 0.0038217 0.9976246 0.0038217 0.0023754 -0.0038217
1969000000 0.0023832 -0.0032822 0.9976168 0.0032822 0.9976168 0.0032822 0.0023832 -0.0032822
1990000000 0.0023918 -0.0027489 0.9976082 0.0027489 0.9976082 0.0027489 0.0023918 -0.0027489
2011000000 0.0024012 -0.0022216 0.9975988 0.0022216 0.9975988 0.0022216 0.0024012 -0.0022216
2032000000 0.0024112 -0.0017000 0.9975888 0.0017000 0.9975888 0.0017000 0.0024112 -0.0017000
2053000000 0.0024220 -0.0011840 0.9975780 0.0011840 0.9975780 0.0011840 0.0024220 -0.0011840
2074000000 0.0024334 -0.0006735 0.9975666 0.0006735 0.9975666 0.0006735 0.0024334 -0.0006735
2095000000 0.0024455 -0.0001682 0.9975545 0.0001682 0.9975545 0.0001682 0.0024455 -0.0001682
2116000000 0.0024583 0.0003320 0.9975417 -0.0003320 0.9975417 -0.0003320 0.0024583 0.0003320
2137000000 0.0024717 0.0008271 0.9975283 -0.0008271 0.9975283 -0.0008271 0.0024717 0.0008271
2158000000 0.0024857 0.0013175 0.9975143 -0.0013175 0.9975143 -0.0013175 0.0024857 0.0013175
2179000000 0.0025004 0.0018031 0.9974996 -0.0018031 0.9974996 -0.0018031 0.0025004 0.0018031
2200000000 0.0025156 0.0022842 0.9974844 -0.0022842 0.9974844 -0.0022842 0.0025156 0.0022842
2221000000 0.0025314 0.0027609 0.9974686 -0.0027609 0.9974686 -0.0027609 0.0025314 0.0027609
2242000000 0.0025478 0.0032332 0.9974522 -0.0032332 0.9974522 -0.0032332 0.0025478 0.0032332
2263000000 0.0025648 0.0037013 0.9974352 -0.0037013 0.9974352 -0.0037013 0.0025648 0.0037013
2284000000 0.0025823 0.0041654 0.9974177 -0.0041654 0.9974177 -0.0041654 0.0025823 0.0041654
2305000000 0.0026004 0.0046255 0.9973996 -0.0046255 0.9973996 -0.0046255 0.0026004 0.0046255
2326000000 0.0026190 0.0050817 0.9973810 -0.0050817 0.9973810 -0.0050817 0.0026190 0.0050817
2347000000 0.0026381 0.0055341 0.9973619 -0.0055341 0.9973619 -0.0055341 0.0026381 0.0055341
2368000000 0.0026577 0.0059828 0.9973423 -0.0059828 0.9973423 -0.0059828 0.0026577 0.0059828
2389000000 0.0026779 0.0064280 0.9973221 -0.0064280 0.9973221 -0.0064280 0.0026779 0.0064280
2410000000 0.0026985 0.0068697 0.9973015 -0.0068697 0.9973015 -0.0068697 0.0026985 0.0068697
2431000000 0.0027197 0.0073079 0.9972803 -0.0073079 0.9972803 -0.0073079 0.0027197 0.0073079
2452000000 0.0027413 0.0077429 0.9972587 -0.0077429 0.9972587 -0.0077429 0.0027413 0.0077429
2473000000 0.0027634 0.0081746 0.9972366 -0.0081746 0.9972366 -0.0081746 0.0027634 0.0081746
2494000000 0.0027860 0.0086032 0.9972140 -0.0086032 0.9972140 -0.0086032 0.0027860 0.0086032
2515000000 0.0028091 0.0090286 0.9971909 -0.0090286 0.9971909 -0.0090286 0.0028091 0.0090286
2536000000 0.0028326 0.0094511 0.9971674 -0.0094511 0.9971674 -0.0094511 0.0028326 0.0094511
2557000000 0.0028566 0.0098706 0.9971434 -0.0098706 0.9971434 -0.0098706 0.0028566 0.0098706
2578000000 0.0028810 0.0102872 0.9971190 -0.0102872 0.9971190 -0.0102872 0.0028810 0.0102872
2599000000 0.0029058 0.0107011 0.9970942 -0.0107011 0.9970942 -0.0107011 0.0029058 0.0107011
2620000000 0.0029311 0.0111122 0.9970689 -0.0111122 0.9970689 -0.0111122 0.0029311 0.0111122
2641000000 0.0029569 0.0115206 0.9970431 -0.0115206 0.9970431 -0.0115206 0.0029569 0.0115206
2662000000 0.0029831 0.0119264 0.9970169 -0.0119264 0.9970169 -0.0119264 0.0029831 0.0119264
2683000000 0.0030097 0.0123296 0.9969903 -0.0123296 0.9969903 -0.0123296 0.0030097 0.0123296
2704000000 0.0030367 0.0127303 0.9969633 -0.0127303 0.9969633 -0.0127303 0.0030367 0.0127303
2725000000 0.0030641 0.0131286 0.9969359 -0.0131286 0.9969359 -0.0131286 0.0030641 0.0131286
2746000000 0.0030920 0.0135244 0.9969080 -0.0135244 0.9969080 -0.0135244 0.0030920 0.0135244
2767000000 0.0031202 0.0139180 0.9968798 -0.0139180 0.9968798 -0.0139180 0.0031202 0.0139180
2788000000 0.0031489 0.0143092 0.9968511 -0.0143092 0.9968511 -0.0143092 0.0031489 0.0143092
2809000000 0.0031779 0.0146982 0.9968221 -0.0146982 0.9968221 -0.0146982 0.0031779 0.0146982
2830000000 0.0032074 0.0150849 0.9967926 -0.0150849 0.9967926 -0.0150849 0.0032074 0.0150849
2851000000 0.0032373 0.0154695 0.9967627 -0.0154695 0.9967627 -0.0154695 0.0032373 0.0154695
2872000000 0.0032675 0.0158520 0.9967325 -0.0158520 0.9967325 -0.0158520 0.0032675 0.0158520
2893000000 0.0032982 0.0162324 0.9967018 -0.0162324 0.9967018 -0.0162324 0.0032982 0.0162324
2914000000 0.0033292 0.0166108 0.9966708 -0.0166108 0.9966708 -0.0166108 0.0033292 0.0166108
2935000000 0.0033606 0.0169872 0.9966394 -0.0169872 0.9966394 -0.0169872 0.0033606 0.0169872
2956000000 0.0033924 0.0173616 0.9966076 -0.0173616 0.9966076 -0.0173616 0.0033924 0.0173616
2977000000 0.0034246 0.0177341 0.9965754 -0.0177341 0.9965754 -0.0177341 0.0034246 0.0177341
2998000000 0.0034571 0.0181047 0.9965429 -0.0181047 0.9965429 -0.0181047 0.0034571 0.0181047
3019000000 0.0034901 0.0184735 0.9965099 -0.0184735 0.9965099 -0.0184735 0.0034901 0.0184735
3040000000 0.0035234 0.0188405 0.9964766 -0.0188405 0.9964766 -0.0188405 0.0035234 0.0188405
3061000000 0.0035570 0.0192057 0.9964430 -0.0192057 0.9964430 -0.0192057 0.0035570 0.0192057
3082000000 0.0035911 0.0195691 0.9964089 -0.0195691 0.9964089 -0.0195691 0.0035911 0.0195691
3103000000 0.0036255 0.0199308 0.9963745 -0.0199308 0.9963745 -0.0199308 0.0036255 0.0199308
3124000000 0.0036602 0.0202909 0.9963398 -0.0202909 0.9963398 -0.0202909 0.0036602 0.0202909
3145000000 0.0036953 0.0206493 0.9963047 -0.0206493 0.9963047 -0.0206493 0.0036953 0.0206493
3166000000 0.0037308 0.0210060 0.9962692 -0.0210060 0.9962692 -0.0210060 0.0037308 0.0210060
3187000000 0.0037667 0.0213612 0.9962333 -0.0213612 0.9962333 -0.0213612 0.0037667 0.0213612
3208000000 0.0038029 0.0217148 0.9961971 -0.0217148 0.9961971 -0.0217148 0.0038029 0.0217148
3229000000 0.0038394 0.0220668 0.9961606 -0.0220668 0.9961606 -0.0220668 0.0038394 0.0220668
3250000000 0.0038763 0.0224173 0.9961237 -0.0224173 0.9961237 -0.0224173 0.0038763 0.0224173
3271000000 0.0039135 0.0227663 0.9960865 -0.0227663 0.9960865 -0.0227663 0.0039135 0.0227663
3292000000 0.0039511 0.0231139 0.9960489 -0.0231139 0.9960489 -0.0231139 0.0039511 0.0231139
3313000000 0.0039891 0.0234600 0.9960109 -0.0234600 0.9960109 -0.0234600 0.0039891 0.0234600
3334000000 0.0040274 0.0238047 0.9959726 -0.0238047 0.9959726 -0.0238047 0.0040274 0.0238047
3355000000 0.0040660 0.0241479 0.9959340 -0.0241479 0.9959340 -0.0241479 0.0040660 0.0241479
3376000000 0.0041050 0.0244898 0.9958950 -0.0244898 0.9958950 -0.0244898 0.0041050 0.0244898
3397000000 0.0041443 0.0248304 0.9958557 -0.0248304 0.9958557 -0.0248304 0.0041443 0.0248304
3418000000 0.0041839 0.0251695 0.9958161 -0.0251695 0.9958161 -0.0251695 0.0041839 0.0251695
3439000000 0.0042239 0.0255074 0.9957761 -0.0255074 0.9957761 -0.0255074 0.0042239 0.0255074
3460000000 0.0042643 0.0258440 0.9957357 -0.0258440 0.9957357 -0.0258440 0.0042643 0.0258440
3481000000 0.0043049 0.0261793 0.9956951 -0.0261793 0.9956951 -0.0261793 0.0043049 0.0261793
3502000000 0.0043459 0.0265133 0.9956541 -0.0265133 0.9956541 -0.0265133 0.0043459 0.0265133
3523000000 0.0043872 0.0268461 0.9956128 -0.0268461 0.9956128 -0.0268461 0.0043872 0.0268461
3544000000 0.0044289 0.0271776 0.9955711 -0.0271776 0.9955711 -0.0271776 0.0044289 0.0271776
3565000000 0.0044709 0.0275079 0.9955291 -0.0275079 0.9955291 -0.0275079 0.0044709 0.0275079
3586000000 0.0045132 0.0278371 0.9954868 -0.0278371 0.9954868 -0.0278371 0.0045132 0.0278371
3607000000 0.0045558 0.0281650 0.9954442 -0.0281650 0.9954442 -0.0281650 0.0045558 0.0281650
3628000000 0.0045988 0.0284918 0.9954012 -0.0284918 0.9954012 -0.0284918 0.0045988 0.0284918
3649000000 0.0046421 0.0288174 0.9953579 -0.0288174 0.9953579 -0.0288174 0.0046421 0.0288174
3670000000 0.0046857 0.0291419 0.9953143 -0.0291419 0.9953143 -0.0291419 0.0046857 0.0291419
3691000000 0.0047296 0.0294653 0.9952704 -0.0294653 0.9952704 -0.0294653 0.0047296 0.0294653
3712000000 0.0047738 0.0297876 0.9952262 -0.0297876 0.9952262 -0.0297876 0.0047738 0.0297876
3733000000 0.0048184 0.0301088 0.9951816 -0.0301088 0.9951816 -0.0301088 0.0048184 0.0301088
3754000000 0.0048633 0.0304289 0.9951367 -0.0304289 0.9951367 -0.0304289 0.0048633 0.0304289
3775000000 0.0049085 0.0307479 0.9950915 -0.0307479 0.9950915 -0.0307479 0.0049085 0.0307479
3796000000 0.0049540 0.0310659 0.9950460 -0.0310659 0.9950460 -0.0310659 0.0049540 0.0310659
3817000000 0.0049998 0.0313828 0.9950002 -0.0313828 0.9950002 -0.0313828 0.0049998 0.0313828
3838000000 0.0050460 0.0316987 0.9949540 -0.0316987 0.9949540 -0.0316987 0.0050460 0.0316987
3859000000 0.0050924 0.0320136 0.9949076 -0.0320136 0.9949076 -0.0320136 0.0050924 0.0320136
3880000000 0.0051392 0.0323275 0.9948608 -0.0323275 0.9948608 -0.0323275 0.0051392 0.0323275
3901000000 0.0051862 0.0326403 0.9948138 -0.0326403 0.9948138 -0.0326403 0.0051862 0.0326403
3922000000 0.0052336 0.0329522 0.9947664 -0.0329522 0.9947664 -0.0329522 0.0052336 0.0329522
3943000000 0.0052813 0.0332631 0.9947187 -0.0332631 0.9947187 -0.0332631 0.0052813 0.0332631
3964000000 0.0053293 0.0335730 0.9946707 -0.0335730 0.9946707 -0.0335730 0.0053293 0.0335730
3985000000 0.0053776 0.0338820 0.9946224 -0.0338820 0.9946224 -0.0338820 0.0053776 0.0338820
4006000000 0.0054261 0.0341901 0.9945739 -0.0341901 0.9945739 -0.0341901 0.0054261 0.0341901
4027000000 0.0054750 0.0344971 0.9945250 -0.0344971 0.9945250 -0.0344971 0.0054750 0.0344971
4048000000 0.0055242 0.0348033 0.9944758 -0.0348033 0.9944758 -0.0348033 0.0055242 0.0348033
4069000000 0.0055737 0.0351085 0.9944263 -0.0351085 0.9944263 -0.0351085 0.0055737 0.0351085
4090000000 0.0056235 0.0354129 0.9943765 -0.0354129 0.9943765 -0.0354129 0.0056235 0.0354129
4111000000 0.0056735 0.0357163 0.9943265 -0.0357163 0.9943265 -0.0357163 0.0056735 0.0357163
4132000000 0.0057239 0.0360188 0.9942761 -0.0360188 0.9942761 -0.0360188 0.0057239 0.0360188
4153000000 0.0057745 0.0363204 0.9942255 -0.0363204 0.9942255 -0.0363204 0.0057745 0.0363204
4174000000 0.0058255 0.0366212 0.9941745 -0.0366212 0.9941745 -0.0366212 0.0058255 0.0366212
4195000000 0.0058767 0.0369210 0.9941233 -0.0369210 0.9941233 -0.0369210 0.0058767 0.0369210
4216000000 0.0059282 0.0372200 0.9940718 -0.0372200 0.9940718 -0.0372200 0.0059282 0.0372200
4237000000 0.0059800 0.0375182 0.9940200 -0.0375182 0.9940200 -0.0375182 0.0059800 0.0375182
4258000000 0.0060321 0.0378155 0.9939679 -0.0378155 0.9939679 -0.0378155 0.0060321 0.0378155
4279000000 0.0060845 0.0381119 0.9939155 -0.0381119 0.9939155 -0.0381119 0.0060845 0.0381119
4300000000 0.0061371 0.0384075 0.9938629 -0.0384075 0.9938629 -0.0384075 0.0061371 0.0384075
4321000000 0.0061900 0.0387023 0.9938100 -0.0387023 0.9938100 -0.0387023 0.0061900 0.0387023
4342000000 0.0062432 0.0389962 0.9937568 -0.0389962 0.9937568 -0.0389962 0.0062432 0.0389962
4363000000 0.0062967 0.0392893 0.9937033 -0.0392893 0.9937033 -0.0392893 0.0062967 0.0392893
4384000000 0.0063505 0.0395816 0.9936495 -0.0395816 0.9936495 -0.0395816 0.0063505 0.0395816
4405000000 0.0064045 0.0398731 0.9935955 -0.0398731 0.9935955 -0.0398731 0.0064045 0.0398731
4426000000 0.0064588 0.0401638 0.9935412 -0.0401638 0.9935412 -0.0401638 0.0064588 0.0401638
4447000000 0.0065133 0.0404536 0.9934867 -0.0404536 0.9934867 -0.0404536 0.0065133 0.0404536
4468000000 0.0065681 0.0407427 0.9934319 -0.0407427 0.9934319 -0.0407427 0.0065681 0.0407427
4489000000 0.0066232 0.0410310 0.9933768 -0.0410310 0.9933768 -0.0410310 0.0066232 0.0410310
4510000000 0.0066785 0.0413185 0.9933215 -0.0413185 0.9933215 -0.0413185 0.0066785 0.0413185
