!Murata Part Number: GRM0222C1C4R7CA03
!These Parameters are Measured in Series Mode Connection
!Data Generated on Mar 30, 2021
!       o--ll--o
!Port1            Port2
!       o------o
!Operation Temp=25[degC], DC Bias Voltage=0[V]
!Freq. Start=100[MHz] Stop=9[GHz] 401[Steps]
# Hz S RI R 50
!Freq.(Hz) S11(Real) S11(Imag) S21(Real) S21(Imag) S12(Real) S12(Imag) S22(Real) S22(Imag)
100000000 0.9196290 -0.2716299 0.0803710 0.2716299 0.0803710 0.2716299 0.9196290 -0.2716299
121000000 0.8865345 -0.3168738 0.1134655 0.3168738 0.1134655 0.3168738 0.8865345 -0.3168738
142000000 0.8501078 -0.3566281 0.1498922 0.3566281 0.1498922 0.3566281 0.8501078 -0.3566281
163000000 0.8114181 -0.3907876 0.1885819 0.3907876 0.1885819 0.3907876 0.8114181 -0.3907876
184000000 0.7714440 -0.4194628 0.2285560 0.4194628 0.2285560 0.4194628 0.7714440 -0.4194628
205000000 0.7310370 -0.4429292 0.2689630 0.4429292 0.2689630 0.4429292 0.7310370 -0.4429292
226000000 0.6909040 -0.4615772 0.3090960 0.4615772 0.3090960 0.4615772 0.6909040 -0.4615772
247000000 0.6516057 -0.4758653 0.3483943 0.4758653 0.3483943 0.4758653 0.6516057 -0.4758653
268000000 0.6135651 -0.4862826 0.3864349 0.4862826 0.3864349 0.4862826 0.6135651 -0.4862826
289000000 0.5770838 -0.4933189 0.4229162 0.4933189 0.4229162 0.4933189 0.5770838 -0.4933189
310000000 0.5423598 -0.4974444 0.4576402 0.4974444 0.4576402 0.4974444 0.5423598 -0.4974444
331000000 0.5095071 -0.4990963 0.4904929 0.4990963 0.4904929 0.4990963 0.5095071 -0.4990963
352000000 0.4785735 -0.4986715 0.5214265 0.4986715 0.5214265 0.4986715 0.4785735 -0.4986715
373000000 0.4495564 -0.4965229 0.5504436 0.4965229 0.5504436 0.4965229 0.4495564 -0.4965229
394000000 0.4224162 -0.4929605 0.5775838 0.4929605 0.5775838 0.4929605 0.4224162 -0.4929605
415000000 0.3970875 -0.4882524 0.6029125 0.4882524 0.6029125 0.4882524 0.3970875 -0.4882524
436000000 0.3734877 -0.4826286 0.6265123 0.4826286 0.6265123 0.4826286 0.3734877 -0.4826286
457000000 0.3515236 -0.4762846 0.6484764 0.4762846 0.6484764 0.4762846 0.3515236 -0.4762846
478000000 0.3310968 -0.4693851 0.6689032 0.4693851 0.6689032 0.4693851 0.3310968 -0.4693851
499000000 0.3121073 -0.4620685 0.6878927 0.4620685 0.6878927 0.4620685 0.3121073 -0.4620685
520000000 0.2944562 -0.4544499 0.7055438 0.4544499 0.7055438 0.4544499 0.2944562 -0.4544499
541000000 0.2780475 -0.4466248 0.7219525 0.4466248 0.7219525 0.4466248 0.2780475 -0.4466248
562000000 0.2627895 -0.4386716 0.7372105 0.4386716 0.7372105 0.4386716 0.2627895 -0.4386716
583000000 0.2485955 -0.4306550 0.7514045 0.4306550 0.7514045 0.4306550 0.2485955 -0.4306550
604000000 0.2353838 -0.4226272 0.7646162 0.4226272 0.7646162 0.4226272 0.2353838 -0.4226272
625000000 0.2230786 -0.4146309 0.7769214 0.4146309 0.7769214 0.4146309 0.2230786 -0.4146309
646000000 0.2116094 -0.4066998 0.7883906 0.4066998 0.7883906 0.4066998 0.2116094 -0.4066998
667000000 0.2009110 -0.3988612 0.7990890 0.3988612 0.7990890 0.3988612 0.2009110 -0.3988612
688000000 0.1909233 -0.3911363 0.8090767 0.3911363 0.8090767 0.3911363 0.1909233 -0.3911363
709000000 0.1815911 -0.3835414 0.8184089 0.3835414 0.8184089 0.3835414 0.1815911 -0.3835414
730000000 0.1728635 -0.3760890 0.8271365 0.3760890 0.8271365 0.3760890 0.1728635 -0.3760890
751000000 0.1646940 -0.3687882 0.8353060 0.3687882 0.8353060 0.3687882 0.1646940 -0.3687882
772000000 0.1570398 -0.3616454 0.8429602 0.3616454 0.8429602 0.3616454 0.1570398 -0.3616454
793000000 0.1498620 -0.3546650 0.8501380 0.3546650 0.8501380 0.3546650 0.1498620 -0.3546650
814000000 0.1431245 -0.3478492 0.8568755 0.3478492 0.8568755 0.3478492 0.1431245 -0.3478492
835000000 0.1367947 -0.3411991 0.8632053 0.3411991 0.8632053 0.3411991 0.1367947 -0.3411991
856000000 0.1308423 -0.3347145 0.8691577 0.3347145 0.8691577 0.3347145 0.1308423 -0.3347145
877000000 0.1252399 -0.3283940 0.8747601 0.3283940 0.8747601 0.3283940 0.1252399 -0.3283940
898000000 0.1199621 -0.3222359 0.8800379 0.3222359 0.8800379 0.3222359 0.1199621 -0.3222359
919000000 0.1149857 -0.3162376 0.8850143 0.3162376 0.8850143 0.3162376 0.1149857 -0.3162376
940000000 0.1102896 -0.3103961 0.8897104 0.3103961 0.8897104 0.3103961 0.1102896 -0.3103961
961000000 0.1058541 -0.3047080 0.8941459 0.3047080 0.8941459 0.3047080 0.1058541 -0.3047080
982000000 0.1016612 -0.2991697 0.8983388 0.2991697 0.8983388 0.2991697 0.1016612 -0.2991697
1003000000 0.0976945 -0.2937774 0.9023055 0.2937774 0.9023055 0.2937774 0.0976945 -0.2937774
1024000000 0.0939387 -0.2885273 0.9060613 0.2885273 0.9060613 0.2885273 0.0939387 -0.2885273
1045000000 0.0903798 -0.2834153 0.9096202 0.2834153 0.9096202 0.2834153 0.0903798 -0.2834153
1066000000 0.0870048 -0.2784373 0.9129952 0.2784373 0.9129952 0.2784373 0.0870048 -0.2784373
1087000000 0.0838020 -0.2735894 0.9161980 0.2735894 0.9161980 0.2735894 0.0838020 -0.2735894
1108000000 0.0807602 -0.2688676 0.9192398 0.2688676 0.9192398 0.2688676 0.0807602 -0.2688676
1129000000 0.0778692 -0.2642679 0.9221308 0.2642679 0.9221308 0.2642679 0.0778692 -0.2642679
1150000000 0.0751197 -0.2597864 0.9248803 0.2597864 0.9248803 0.2597864 0.0751197 -0.2597864
1171000000 0.0725029 -0.2554192 0.9274971 0.2554192 0.9274971 0.2554192 0.0725029 -0.2554192
1192000000 0.0700108 -0.2511628 0.9299892 0.2511628 0.9299892 0.2511628 0.0700108 -0.2511628
1213000000 0.0676358 -0.2470133 0.9323642 0.2470133 0.9323642 0.2470133 0.0676358 -0.2470133
1234000000 0.0653711 -0.2429673 0.9346289 0.2429673 0.9346289 0.2429673 0.0653711 -0.2429673
1255000000 0.0632100 -0.2390214 0.9367900 0.2390214 0.9367900 0.2390214 0.0632100 -0.2390214
1276000000 0.0611467 -0.2351722 0.9388533 0.2351722 0.9388533 0.2351722 0.0611467 -0.2351722
1297000000 0.0591755 -0.2314165 0.9408245 0.2314165 0.9408245 0.2314165 0.0591755 -0.2314165
1318000000 0.0572912 -0.2277512 0.9427088 0.2277512 0.9427088 0.2277512 0.0572912 -0.2277512
1339000000 0.0554889 -0.2241732 0.9445111 0.2241732 0.9445111 0.2241732 0.0554889 -0.2241732
1360000000 0.0537642 -0.2206797 0.9462358 0.2206797 0.9462358 0.2206797 0.0537642 -0.2206797
1381000000 0.0521128 -0.2172678 0.9478872 0.2172678 0.9478872 0.2172678 0.0521128 -0.2172678
1402000000 0.0505307 -0.2139349 0.9494693 0.2139349 0.9494693 0.2139349 0.0505307 -0.2139349
1423000000 0.0490143 -0.2106784 0.9509857 0.2106784 0.9509857 0.2106784 0.0490143 -0.2106784
1444000000 0.0475600 -0.2074956 0.9524400 0.2074956 0.9524400 0.2074956 0.0475600 -0.2074956
1465000000 0.0461647 -0.2043843 0.9538353 0.2043843 0.9538353 0.2043843 0.0461647 -0.2043843
1486000000 0.0448253 -0.2013421 0.9551747 0.2013421 0.9551747 0.2013421 0.0448253 -0.2013421
1507000000 0.0435390 -0.1983667 0.9564610 0.1983667 0.9564610 0.1983667 0.0435390 -0.1983667
1528000000 0.0423031 -0.1954560 0.9576969 0.1954560 0.9576969 0.1954560 0.0423031 -0.1954560
1549000000 0.0411151 -0.1926078 0.9588849 0.1926078 0.9588849 0.1926078 0.0411151 -0.1926078
1570000000 0.0399726 -0.1898203 0.9600274 0.1898203 0.9600274 0.1898203 0.0399726 -0.1898203
1591000000 0.0388734 -0.1870915 0.9611266 0.1870915 0.9611266 0.1870915 0.0388734 -0.1870915
1612000000 0.0378155 -0.1844195 0.9621845 0.1844195 0.9621845 0.1844195 0.0378155 -0.1844195
1633000000 0.0367968 -0.1818026 0.9632032 0.1818026 0.9632032 0.1818026 0.0367968 -0.1818026
1654000000 0.0358155 -0.1792390 0.9641845 0.1792390 0.9641845 0.1792390 0.0358155 -0.1792390
1675000000 0.0348699 -0.1767271 0.9651301 0.1767271 0.9651301 0.1767271 0.0348699 -0.1767271
1696000000 0.0339583 -0.1742653 0.9660417 0.1742653 0.9660417 0.1742653 0.0339583 -0.1742653
1717000000 0.0330793 -0.1718520 0.9669207 0.1718520 0.9669207 0.1718520 0.0330793 -0.1718520
1738000000 0.0322312 -0.1694859 0.9677688 0.1694859 0.9677688 0.1694859 0.0322312 -0.1694859
1759000000 0.0314127 -0.1671654 0.9685873 0.1671654 0.9685873 0.1671654 0.0314127 -0.1671654
1780000000 0.0306226 -0.1648892 0.9693774 0.1648892 0.9693774 0.1648892 0.0306226 -0.1648892
1801000000 0.0298595 -0.1626561 0.9701405 0.1626561 0.9701405 0.1626561 0.0298595 -0.1626561
1822000000 0.0291223 -0.1604647 0.9708777 0.1604647 0.9708777 0.1604647 0.0291223 -0.1604647
1843000000 0.0284099 -0.1583138 0.9715901 0.1583138 0.9715901 0.1583138 0.0284099 -0.1583138
1864000000 0.0277212 -0.1562022 0.9722788 0.1562022 0.9722788 0.1562022 0.0277212 -0.1562022
1885000000 0.0270553 -0.1541288 0.9729447 0.1541288 0.9729447 0.1541288 0.0270553 -0.1541288
1906000000 0.0264111 -0.1520925 0.9735889 0.1520925 0.9735889 0.1520925 0.0264111 -0.1520925
1927000000 0.0257879 -0.1500923 0.9742121 0.1500923 0.9742121 0.1500923 0.0257879 -0.1500923
1948000000 0.0251847 -0.1481272 0.9748153 0.1481272 0.9748153 0.1481272 0.0251847 -0.1481272
1969000000 0.0246007 -0.1461960 0.9753993 0.1461960 0.9753993 0.1461960 0.0246007 -0.1461960
1990000000 0.0240351 -0.1442980 0.9759649 0.1442980 0.9759649 0.1442980 0.0240351 -0.1442980
2011000000 0.0234873 -0.1424322 0.9765127 0.1424322 0.9765127 0.1424322 0.0234873 -0.1424322
2032000000 0.0229565 -0.1405977 0.9770435 0.1405977 0.9770435 0.1405977 0.0229565 -0.1405977
2053000000 0.0224421 -0.1387937 0.9775579 0.1387937 0.9775579 0.1387937 0.0224421 -0.1387937
2074000000 0.0219434 -0.1370193 0.9780566 0.1370193 0.9780566 0.1370193 0.0219434 -0.1370193
2095000000 0.0214598 -0.1352738 0.9785402 0.1352738 0.9785402 0.1352738 0.0214598 -0.1352738
2116000000 0.0209907 -0.1335563 0.9790093 0.1335563 0.9790093 0.1335563 0.0209907 -0.1335563
2137000000 0.0205357 -0.1318662 0.9794643 0.1318662 0.9794643 0.1318662 0.0205357 -0.1318662
2158000000 0.0200942 -0.1302027 0.9799058 0.1302027 0.9799058 0.1302027 0.0200942 -0.1302027
2179000000 0.0196656 -0.1285652 0.9803344 0.1285652 0.9803344 0.1285652 0.0196656 -0.1285652
2200000000 0.0192496 -0.1269529 0.9807504 0.1269529 0.9807504 0.1269529 0.0192496 -0.1269529
2221000000 0.0188456 -0.1253652 0.9811544 0.1253652 0.9811544 0.1253652 0.0188456 -0.1253652
2242000000 0.0184532 -0.1238015 0.9815468 0.1238015 0.9815468 0.1238015 0.0184532 -0.1238015
2263000000 0.0180721 -0.1222612 0.9819279 0.1222612 0.9819279 0.1222612 0.0180721 -0.1222612
2284000000 0.0177018 -0.1207437 0.9822982 0.1207437 0.9822982 0.1207437 0.0177018 -0.1207437
2305000000 0.0173419 -0.1192484 0.9826581 0.1192484 0.9826581 0.1192484 0.0173419 -0.1192484
2326000000 0.0169921 -0.1177749 0.9830079 0.1177749 0.9830079 0.1177749 0.0169921 -0.1177749
2347000000 0.0166520 -0.1163224 0.9833480 0.1163224 0.9833480 0.1163224 0.0166520 -0.1163224
2368000000 0.0163213 -0.1148906 0.9836787 0.1148906 0.9836787 0.1148906 0.0163213 -0.1148906
2389000000 0.0159997 -0.1134789 0.9840003 0.1134789 0.9840003 0.1134789 0.0159997 -0.1134789
2410000000 0.0156869 -0.1120869 0.9843131 0.1120869 0.9843131 0.1120869 0.0156869 -0.1120869
2431000000 0.0153825 -0.1107140 0.9846175 0.1107140 0.9846175 0.1107140 0.0153825 -0.1107140
2452000000 0.0150864 -0.1093599 0.9849136 0.1093599 0.9849136 0.1093599 0.0150864 -0.1093599
2473000000 0.0147982 -0.1080241 0.9852018 0.1080241 0.9852018 0.1080241 0.0147982 -0.1080241
2494000000 0.0145177 -0.1067061 0.9854823 0.1067061 0.9854823 0.1067061 0.0145177 -0.1067061
2515000000 0.0142446 -0.1054056 0.9857554 0.1054056 0.9857554 0.1054056 0.0142446 -0.1054056
2536000000 0.0139787 -0.1041221 0.9860213 0.1041221 0.9860213 0.1041221 0.0139787 -0.1041221
2557000000 0.0137197 -0.1028553 0.9862803 0.1028553 0.9862803 0.1028553 0.0137197 -0.1028553
2578000000 0.0134675 -0.1016047 0.9865325 0.1016047 0.9865325 0.1016047 0.0134675 -0.1016047
2599000000 0.0132219 -0.1003701 0.9867781 0.1003701 0.9867781 0.1003701 0.0132219 -0.1003701
2620000000 0.0129825 -0.0991510 0.9870175 0.0991510 0.9870175 0.0991510 0.0129825 -0.0991510
2641000000 0.0127494 -0.0979471 0.9872506 0.0979471 0.9872506 0.0979471 0.0127494 -0.0979471
2662000000 0.0125221 -0.0967581 0.9874779 0.0967581 0.9874779 0.0967581 0.0125221 -0.0967581
2683000000 0.0123007 -0.0955836 0.9876993 0.0955836 0.9876993 0.0955836 0.0123007 -0.0955836
2704000000 0.0120848 -0.0944233 0.9879152 0.0944233 0.9879152 0.0944233 0.0120848 -0.0944233
2725000000 0.0118744 -0.0932770 0.9881256 0.0932770 0.9881256 0.0932770 0.0118744 -0.0932770
2746000000 0.0116692 -0.0921443 0.9883308 0.0921443 0.9883308 0.0921443 0.0116692 -0.0921443
2767000000 0.0114692 -0.0910249 0.9885308 0.0910249 0.9885308 0.0910249 0.0114692 -0.0910249
2788000000 0.0112741 -0.0899185 0.9887259 0.0899185 0.9887259 0.0899185 0.0112741 -0.0899185
2809000000 0.0110839 -0.0888250 0.9889161 0.0888250 0.9889161 0.0888250 0.0110839 -0.0888250
2830000000 0.0108984 -0.0877439 0.9891016 0.0877439 0.9891016 0.0877439 0.0108984 -0.0877439
2851000000 0.0107174 -0.0866750 0.9892826 0.0866750 0.9892826 0.0866750 0.0107174 -0.0866750
2872000000 0.0105408 -0.0856182 0.9894592 0.0856182 0.9894592 0.0856182 0.0105408 -0.0856182
2893000000 0.0103686 -0.0845731 0.9896314 0.0845731 0.9896314 0.0845731 0.0103686 -0.0845731
2914000000 0.0102005 -0.0835395 0.9897995 0.0835395 0.9897995 0.0835395 0.0102005 -0.0835395
2935000000 0.0100365 -0.0825171 0.9899635 0.0825171 0.9899635 0.0825171 0.0100365 -0.0825171
2956000000 0.0098765 -0.0815058 0.9901235 0.0815058 0.9901235 0.0815058 0.0098765 -0.0815058
2977000000 0.0097203 -0.0805053 0.9902797 0.0805053 0.9902797 0.0805053 0.0097203 -0.0805053
2998000000 0.0095678 -0.0795154 0.9904322 0.0795154 0.9904322 0.0795154 0.0095678 -0.0795154
3019000000 0.0094190 -0.0785359 0.9905810 0.0785359 0.9905810 0.0785359 0.0094190 -0.0785359
3040000000 0.0092738 -0.0775666 0.9907262 0.0775666 0.9907262 0.0775666 0.0092738 -0.0775666
3061000000 0.0091320 -0.0766073 0.9908680 0.0766073 0.9908680 0.0766073 0.0091320 -0.0766073
3082000000 0.0089936 -0.0756578 0.9910064 0.0756578 0.9910064 0.0756578 0.0089936 -0.0756578
3103000000 0.0088584 -0.0747179 0.9911416 0.0747179 0.9911416 0.0747179 0.0088584 -0.0747179
3124000000 0.0087265 -0.0737874 0.9912735 0.0737874 0.9912735 0.0737874 0.0087265 -0.0737874
3145000000 0.0085977 -0.0728661 0.9914023 0.0728661 0.9914023 0.0728661 0.0085977 -0.0728661
3166000000 0.0084719 -0.0719539 0.9915281 0.0719539 0.9915281 0.0719539 0.0084719 -0.0719539
3187000000 0.0083490 -0.0710506 0.9916510 0.0710506 0.9916510 0.0710506 0.0083490 -0.0710506
3208000000 0.0082290 -0.0701560 0.9917710 0.0701560 0.9917710 0.0701560 0.0082290 -0.0701560
3229000000 0.0081119 -0.0692700 0.9918881 0.0692700 0.9918881 0.0692700 0.0081119 -0.0692700
3250000000 0.0079975 -0.0683924 0.9920025 0.0683924 0.9920025 0.0683924 0.0079975 -0.0683924
3271000000 0.0078857 -0.0675231 0.9921143 0.0675231 0.9921143 0.0675231 0.0078857 -0.0675231
3292000000 0.0077766 -0.0666618 0.9922234 0.0666618 0.9922234 0.0666618 0.0077766 -0.0666618
3313000000 0.0076700 -0.0658086 0.9923300 0.0658086 0.9923300 0.0658086 0.0076700 -0.0658086
3334000000 0.0075659 -0.0649631 0.9924341 0.0649631 0.9924341 0.0649631 0.0075659 -0.0649631
3355000000 0.0074643 -0.0641253 0.9925357 0.0641253 0.9925357 0.0641253 0.0074643 -0.0641253
3376000000 0.0073650 -0.0632950 0.9926350 0.0632950 0.9926350 0.0632950 0.0073650 -0.0632950
3397000000 0.0072680 -0.0624721 0.9927320 0.0624721 0.9927320 0.0624721 0.0072680 -0.0624721
3418000000 0.0071732 -0.0616565 0.9928268 0.0616565 0.9928268 0.0616565 0.0071732 -0.0616565
3439000000 0.0070807 -0.0608480 0.9929193 0.0608480 0.9929193 0.0608480 0.0070807 -0.0608480
3460000000 0.0069903 -0.0600465 0.9930097 0.0600465 0.9930097 0.0600465 0.0069903 -0.0600465
3481000000 0.0069021 -0.0592520 0.9930979 0.0592520 0.9930979 0.0592520 0.0069021 -0.0592520
3502000000 0.0068159 -0.0584642 0.9931841 0.0584642 0.9931841 0.0584642 0.0068159 -0.0584642
3523000000 0.0067317 -0.0576830 0.9932683 0.0576830 0.9932683 0.0576830 0.0067317 -0.0576830
3544000000 0.0066494 -0.0569084 0.9933506 0.0569084 0.9933506 0.0569084 0.0066494 -0.0569084
3565000000 0.0065691 -0.0561403 0.9934309 0.0561403 0.9934309 0.0561403 0.0065691 -0.0561403
3586000000 0.0064907 -0.0553784 0.9935093 0.0553784 0.9935093 0.0553784 0.0064907 -0.0553784
3607000000 0.0064141 -0.0546228 0.9935859 0.0546228 0.9935859 0.0546228 0.0064141 -0.0546228
3628000000 0.0063393 -0.0538733 0.9936607 0.0538733 0.9936607 0.0538733 0.0063393 -0.0538733
3649000000 0.0062663 -0.0531298 0.9937337 0.0531298 0.9937337 0.0531298 0.0062663 -0.0531298
3670000000 0.0061950 -0.0523922 0.9938050 0.0523922 0.9938050 0.0523922 0.0061950 -0.0523922
3691000000 0.0061254 -0.0516604 0.9938746 0.0516604 0.9938746 0.0516604 0.0061254 -0.0516604
3712000000 0.0060574 -0.0509344 0.9939426 0.0509344 0.9939426 0.0509344 0.0060574 -0.0509344
3733000000 0.0059910 -0.0502140 0.9940090 0.0502140 0.9940090 0.0502140 0.0059910 -0.0502140
3754000000 0.0059263 -0.0494991 0.9940737 0.0494991 0.9940737 0.0494991 0.0059263 -0.0494991
3775000000 0.0058630 -0.0487896 0.9941370 0.0487896 0.9941370 0.0487896 0.0058630 -0.0487896
3796000000 0.0058013 -0.0480855 0.9941987 0.0480855 0.9941987 0.0480855 0.0058013 -0.0480855
3817000000 0.0057411 -0.0473867 0.9942589 0.0473867 0.9942589 0.0473867 0.0057411 -0.0473867
3838000000 0.0056823 -0.0466931 0.9943177 0.0466931 0.9943177 0.0466931 0.0056823 -0.0466931
3859000000 0.0056250 -0.0460046 0.9943750 0.0460046 0.9943750 0.0460046 0.0056250 -0.0460046
3880000000 0.0055690 -0.0453211 0.9944310 0.0453211 0.9944310 0.0453211 0.0055690 -0.0453211
3901000000 0.0055144 -0.0446426 0.9944856 0.0446426 0.9944856 0.0446426 0.0055144 -0.0446426
3922000000 0.0054612 -0.0439689 0.9945388 0.0439689 0.9945388 0.0439689 0.0054612 -0.0439689
3943000000 0.0054093 -0.0433001 0.9945907 0.0433001 0.9945907 0.0433001 0.0054093 -0.0433001
3964000000 0.0053586 -0.0426359 0.9946414 0.0426359 0.9946414 0.0426359 0.0053586 -0.0426359
3985000000 0.0053092 -0.0419765 0.9946908 0.0419765 0.9946908 0.0419765 0.0053092 -0.0419765
4006000000 0.0052611 -0.0413216 0.9947389 0.0413216 0.9947389 0.0413216 0.0052611 -0.0413216
4027000000 0.0052142 -0.0406712 0.9947858 0.0406712 0.9947858 0.0406712 0.0052142 -0.0406712
4048000000 0.0051685 -0.0400252 0.9948315 0.0400252 0.9948315 0.0400252 0.0051685 -0.0400252
4069000000 0.0051239 -0.0393837 0.9948761 0.0393837 0.9948761 0.0393837 0.0051239 -0.0393837
4090000000 0.0050805 -0.0387464 0.9949195 0.0387464 0.9949195 0.0387464 0.0050805 -0.0387464
4111000000 0.0050382 -0.0381134 0.9949618 0.0381134 0.9949618 0.0381134 0.0050382 -0.0381134
4132000000 0.0049970 -0.0374846 0.9950030 0.0374846 0.9950030 0.0374846 0.0049970 -0.0374846
4153000000 0.0049569 -0.0368599 0.9950431 0.0368599 0.9950431 0.0368599 0.0049569 -0.0368599
4174000000 0.0049179 -0.0362393 0.9950821 0.0362393 0.9950821 0.0362393 0.0049179 -0.0362393
4195000000 0.0048799 -0.0356226 0.9951201 0.0356226 0.9951201 0.0356226 0.0048799 -0.0356226
4216000000 0.0048430 -0.0350099 0.9951570 0.0350099 0.9951570 0.0350099 0.0048430 -0.0350099
4237000000 0.0048070 -0.0344012 0.9951930 0.0344012 0.9951930 0.0344012 0.0048070 -0.0344012
4258000000 0.0047720 -0.0337962 0.9952280 0.0337962 0.9952280 0.0337962 0.0047720 -0.0337962
4279000000 0.0047381 -0.0331950 0.9952619 0.0331950 0.9952619 0.0331950 0.0047381 -0.0331950
4300000000 0.0047050 -0.0325976 0.9952950 0.0325976 0.9952950 0.0325976 0.0047050 -0.0325976
4321000000 0.0046729 -0.0320038 0.9953271 0.0320038 0.9953271 0.0320038 0.0046729 -0.0320038
4342000000 0.0046418 -0.0314137 0.9953582 0.0314137 0.9953582 0.0314137 0.0046418 -0.0314137
4363000000 0.0046115 -0.0308271 0.9953885 0.0308271 0.9953885 0.0308271 0.0046115 -0.0308271
4384000000 0.0045821 -0.0302440 0.9954179 0.0302440 0.9954179 0.0302440 0.0045821 -0.0302440
4405000000 0.0045536 -0.0296644 0.9954464 0.0296644 0.9954464 0.0296644 0.0045536 -0.0296644
4426000000 0.0045260 -0.0290883 0.9954740 0.0290883 0.9954740 0.0290883 0.0045260 -0.0290883
4447000000 0.0044992 -0.0285155 0.9955008 0.0285155 0.9955008 0.0285155 0.0044992 -0.0285155
4468000000 0.0044732 -0.0279460 0.9955268 0.0279460 0.9955268 0.0279460 0.0044732 -0.0279460
4489000000 0.0044481 -0.0273799 0.9955519 0.0273799 0.9955519 0.0273799 0.0044481 -0.0273799
4510000000 0.0044238 -0.0268170 0.9955762 0.0268170 0.9955762 0.0268170 0.0044238 -0.0268170
