!Murata Part Number: GRM0225C1E2R9WA03
!These Parameters are Measured in Series Mode Connection
!Data Generated on Mar 30, 2021
!       o--ll--o
!Port1            Port2
!       o------o
!Operation Temp=25[degC], DC Bias Voltage=0[V]
!Freq. Start=100[MHz] Stop=9[GHz] 401[Steps]
# Hz S RI R 50
!Freq.(Hz) S11(Real) S11(Imag) S21(Real) S21(Imag) S12(Real) S12(Imag) S22(Real) S22(Imag)
100000000 0.9677923 -0.1763697 0.0322077 0.1763697 0.0322077 0.1763697 0.9677923 -0.1763697
121000000 0.9535316 -0.2102770 0.0464684 0.2102770 0.0464684 0.2102770 0.9535316 -0.2102770
142000000 0.9370929 -0.2425366 0.0629071 0.2425366 0.0629071 0.2425366 0.9370929 -0.2425366
163000000 0.9187170 -0.2729708 0.0812830 0.2729708 0.0812830 0.2729708 0.9187170 -0.2729708
184000000 0.8986581 -0.3014429 0.1013419 0.3014429 0.1013419 0.3014429 0.8986581 -0.3014429
205000000 0.8771760 -0.3278571 0.1228240 0.3278571 0.1228240 0.3278571 0.8771760 -0.3278571
226000000 0.8545291 -0.3521565 0.1454709 0.3521565 0.1454709 0.3521565 0.8545291 -0.3521565
247000000 0.8309684 -0.3743205 0.1690316 0.3743205 0.1690316 0.3743205 0.8309684 -0.3743205
268000000 0.8067324 -0.3943603 0.1932676 0.3943603 0.1932676 0.3943603 0.8067324 -0.3943603
289000000 0.7820432 -0.4123151 0.2179568 0.4123151 0.2179568 0.4123151 0.7820432 -0.4123151
310000000 0.7571042 -0.4282474 0.2428958 0.4282474 0.2428958 0.4282474 0.7571042 -0.4282474
331000000 0.7320979 -0.4422379 0.2679021 0.4422379 0.2679021 0.4422379 0.7320979 -0.4422379
352000000 0.7071855 -0.4543819 0.2928145 0.4543819 0.2928145 0.4543819 0.7071855 -0.4543819
373000000 0.6825069 -0.4647846 0.3174931 0.4647846 0.3174931 0.4647846 0.6825069 -0.4647846
394000000 0.6581813 -0.4735576 0.3418187 0.4735576 0.3418187 0.4735576 0.6581813 -0.4735576
415000000 0.6343082 -0.4808163 0.3656918 0.4808163 0.3656918 0.4808163 0.6343082 -0.4808163
436000000 0.6109691 -0.4866766 0.3890309 0.4866766 0.3890309 0.4866766 0.6109691 -0.4866766
457000000 0.5882289 -0.4912532 0.4117711 0.4912532 0.4117711 0.4912532 0.5882289 -0.4912532
478000000 0.5661374 -0.4946578 0.4338626 0.4946578 0.4338626 0.4946578 0.5661374 -0.4946578
499000000 0.5447315 -0.4969977 0.4552685 0.4969977 0.4552685 0.4969977 0.5447315 -0.4969977
520000000 0.5240367 -0.4983752 0.4759633 0.4983752 0.4759633 0.4983752 0.5240367 -0.4983752
541000000 0.5040684 -0.4988866 0.4959316 0.4988866 0.4959316 0.4988866 0.5040684 -0.4988866
562000000 0.4848336 -0.4986222 0.5151664 0.4986222 0.5151664 0.4986222 0.4848336 -0.4986222
583000000 0.4663326 -0.4976659 0.5336674 0.4976659 0.5336674 0.4976659 0.4663326 -0.4976659
604000000 0.4485595 -0.4960951 0.5514405 0.4960951 0.5514405 0.4960951 0.4485595 -0.4960951
625000000 0.4315039 -0.4939812 0.5684961 0.4939812 0.5684961 0.4939812 0.4315039 -0.4939812
646000000 0.4151514 -0.4913893 0.5848486 0.4913893 0.5848486 0.4913893 0.4151514 -0.4913893
667000000 0.3994849 -0.4883791 0.6005151 0.4883791 0.6005151 0.4883791 0.3994849 -0.4883791
688000000 0.3844849 -0.4850044 0.6155151 0.4850044 0.6155151 0.4850044 0.3844849 -0.4850044
709000000 0.3701301 -0.4813143 0.6298699 0.4813143 0.6298699 0.4813143 0.3701301 -0.4813143
730000000 0.3563982 -0.4773529 0.6436018 0.4773529 0.6436018 0.4773529 0.3563982 -0.4773529
751000000 0.3432662 -0.4731599 0.6567338 0.4731599 0.6567338 0.4731599 0.3432662 -0.4731599
772000000 0.3307105 -0.4687711 0.6692895 0.4687711 0.6692895 0.4687711 0.3307105 -0.4687711
793000000 0.3187077 -0.4642184 0.6812923 0.4642184 0.6812923 0.4642184 0.3187077 -0.4642184
814000000 0.3072342 -0.4595306 0.6927658 0.4595306 0.6927658 0.4595306 0.3072342 -0.4595306
835000000 0.2962671 -0.4547330 0.7037329 0.4547330 0.7037329 0.4547330 0.2962671 -0.4547330
856000000 0.2857836 -0.4498484 0.7142164 0.4498484 0.7142164 0.4498484 0.2857836 -0.4498484
877000000 0.2757616 -0.4448969 0.7242384 0.4448969 0.7242384 0.4448969 0.2757616 -0.4448969
898000000 0.2661797 -0.4398965 0.7338203 0.4398965 0.7338203 0.4398965 0.2661797 -0.4398965
919000000 0.2570172 -0.4348629 0.7429828 0.4348629 0.7429828 0.4348629 0.2570172 -0.4348629
940000000 0.2482542 -0.4298101 0.7517458 0.4298101 0.7517458 0.4298101 0.2482542 -0.4298101
961000000 0.2398716 -0.4247504 0.7601284 0.4247504 0.7601284 0.4247504 0.2398716 -0.4247504
982000000 0.2318508 -0.4196945 0.7681492 0.4196945 0.7681492 0.4196945 0.2318508 -0.4196945
1003000000 0.2241744 -0.4146519 0.7758256 0.4146519 0.7758256 0.4146519 0.2241744 -0.4146519
1024000000 0.2168257 -0.4096308 0.7831743 0.4096308 0.7831743 0.4096308 0.2168257 -0.4096308
1045000000 0.2097885 -0.4046384 0.7902115 0.4046384 0.7902115 0.4046384 0.2097885 -0.4046384
1066000000 0.2030477 -0.3996809 0.7969523 0.3996809 0.7969523 0.3996809 0.2030477 -0.3996809
1087000000 0.1965888 -0.3947636 0.8034112 0.3947636 0.8034112 0.3947636 0.1965888 -0.3947636
1108000000 0.1903981 -0.3898911 0.8096019 0.3898911 0.8096019 0.3898911 0.1903981 -0.3898911
1129000000 0.1844624 -0.3850672 0.8155376 0.3850672 0.8155376 0.3850672 0.1844624 -0.3850672
1150000000 0.1787693 -0.3802954 0.8212307 0.3802954 0.8212307 0.3802954 0.1787693 -0.3802954
1171000000 0.1733071 -0.3755782 0.8266929 0.3755782 0.8266929 0.3755782 0.1733071 -0.3755782
1192000000 0.1680646 -0.3709181 0.8319354 0.3709181 0.8319354 0.3709181 0.1680646 -0.3709181
1213000000 0.1630313 -0.3663168 0.8369687 0.3663168 0.8369687 0.3663168 0.1630313 -0.3663168
1234000000 0.1581971 -0.3617758 0.8418029 0.3617758 0.8418029 0.3617758 0.1581971 -0.3617758
1255000000 0.1535524 -0.3572963 0.8464476 0.3572963 0.8464476 0.3572963 0.1535524 -0.3572963
1276000000 0.1490884 -0.3528792 0.8509116 0.3528792 0.8509116 0.3528792 0.1490884 -0.3528792
1297000000 0.1447965 -0.3485250 0.8552035 0.3485250 0.8552035 0.3485250 0.1447965 -0.3485250
1318000000 0.1406685 -0.3442341 0.8593315 0.3442341 0.8593315 0.3442341 0.1406685 -0.3442341
1339000000 0.1366969 -0.3400067 0.8633031 0.3400067 0.8633031 0.3400067 0.1366969 -0.3400067
1360000000 0.1328744 -0.3358428 0.8671256 0.3358428 0.8671256 0.3358428 0.1328744 -0.3358428
1381000000 0.1291941 -0.3317422 0.8708059 0.3317422 0.8708059 0.3317422 0.1291941 -0.3317422
1402000000 0.1256496 -0.3277047 0.8743504 0.3277047 0.8743504 0.3277047 0.1256496 -0.3277047
1423000000 0.1222346 -0.3237298 0.8777654 0.3237298 0.8777654 0.3237298 0.1222346 -0.3237298
1444000000 0.1189433 -0.3198170 0.8810567 0.3198170 0.8810567 0.3198170 0.1189433 -0.3198170
1465000000 0.1157701 -0.3159658 0.8842299 0.3159658 0.8842299 0.3159658 0.1157701 -0.3159658
1486000000 0.1127099 -0.3121756 0.8872901 0.3121756 0.8872901 0.3121756 0.1127099 -0.3121756
1507000000 0.1097576 -0.3084454 0.8902424 0.3084454 0.8902424 0.3084454 0.1097576 -0.3084454
1528000000 0.1069084 -0.3047747 0.8930916 0.3047747 0.8930916 0.3047747 0.1069084 -0.3047747
1549000000 0.1041579 -0.3011626 0.8958421 0.3011626 0.8958421 0.3011626 0.1041579 -0.3011626
1570000000 0.1015019 -0.2976082 0.8984981 0.2976082 0.8984981 0.2976082 0.1015019 -0.2976082
1591000000 0.0989363 -0.2941107 0.9010637 0.2941107 0.9010637 0.2941107 0.0989363 -0.2941107
1612000000 0.0964571 -0.2906690 0.9035429 0.2906690 0.9035429 0.2906690 0.0964571 -0.2906690
1633000000 0.0940609 -0.2872824 0.9059391 0.2872824 0.9059391 0.2872824 0.0940609 -0.2872824
1654000000 0.0917441 -0.2839499 0.9082559 0.2839499 0.9082559 0.2839499 0.0917441 -0.2839499
1675000000 0.0895034 -0.2806705 0.9104966 0.2806705 0.9104966 0.2806705 0.0895034 -0.2806705
1696000000 0.0873357 -0.2774432 0.9126643 0.2774432 0.9126643 0.2774432 0.0873357 -0.2774432
1717000000 0.0852379 -0.2742672 0.9147621 0.2742672 0.9147621 0.2742672 0.0852379 -0.2742672
1738000000 0.0832073 -0.2711414 0.9167927 0.2711414 0.9167927 0.2711414 0.0832073 -0.2711414
1759000000 0.0812412 -0.2680649 0.9187588 0.2680649 0.9187588 0.2680649 0.0812412 -0.2680649
1780000000 0.0793369 -0.2650368 0.9206631 0.2650368 0.9206631 0.2650368 0.0793369 -0.2650368
1801000000 0.0774921 -0.2620561 0.9225079 0.2620561 0.9225079 0.2620561 0.0774921 -0.2620561
1822000000 0.0757043 -0.2591219 0.9242957 0.2591219 0.9242957 0.2591219 0.0757043 -0.2591219
1843000000 0.0739714 -0.2562332 0.9260286 0.2562332 0.9260286 0.2562332 0.0739714 -0.2562332
1864000000 0.0722912 -0.2533891 0.9277088 0.2533891 0.9277088 0.2533891 0.0722912 -0.2533891
1885000000 0.0706617 -0.2505888 0.9293383 0.2505888 0.9293383 0.2505888 0.0706617 -0.2505888
1906000000 0.0690810 -0.2478314 0.9309190 0.2478314 0.9309190 0.2478314 0.0690810 -0.2478314
1927000000 0.0675473 -0.2451159 0.9324527 0.2451159 0.9324527 0.2451159 0.0675473 -0.2451159
1948000000 0.0660587 -0.2424416 0.9339413 0.2424416 0.9339413 0.2424416 0.0660587 -0.2424416
1969000000 0.0646136 -0.2398075 0.9353864 0.2398075 0.9353864 0.2398075 0.0646136 -0.2398075
1990000000 0.0632104 -0.2372129 0.9367896 0.2372129 0.9367896 0.2372129 0.0632104 -0.2372129
2011000000 0.0618476 -0.2346569 0.9381524 0.2346569 0.9381524 0.2346569 0.0618476 -0.2346569
2032000000 0.0605236 -0.2321387 0.9394764 0.2321387 0.9394764 0.2321387 0.0605236 -0.2321387
2053000000 0.0592371 -0.2296575 0.9407629 0.2296575 0.9407629 0.2296575 0.0592371 -0.2296575
2074000000 0.0579868 -0.2272127 0.9420132 0.2272127 0.9420132 0.2272127 0.0579868 -0.2272127
2095000000 0.0567713 -0.2248033 0.9432287 0.2248033 0.9432287 0.2248033 0.0567713 -0.2248033
2116000000 0.0555895 -0.2224287 0.9444105 0.2224287 0.9444105 0.2224287 0.0555895 -0.2224287
2137000000 0.0544401 -0.2200882 0.9455599 0.2200882 0.9455599 0.2200882 0.0544401 -0.2200882
2158000000 0.0533220 -0.2177811 0.9466780 0.2177811 0.9466780 0.2177811 0.0533220 -0.2177811
2179000000 0.0522342 -0.2155066 0.9477658 0.2155066 0.9477658 0.2155066 0.0522342 -0.2155066
2200000000 0.0511757 -0.2132640 0.9488243 0.2132640 0.9488243 0.2132640 0.0511757 -0.2132640
2221000000 0.0501453 -0.2110528 0.9498547 0.2110528 0.9498547 0.2110528 0.0501453 -0.2110528
2242000000 0.0491422 -0.2088723 0.9508578 0.2088723 0.9508578 0.2088723 0.0491422 -0.2088723
2263000000 0.0481655 -0.2067219 0.9518345 0.2067219 0.9518345 0.2067219 0.0481655 -0.2067219
2284000000 0.0472143 -0.2046008 0.9527857 0.2046008 0.9527857 0.2046008 0.0472143 -0.2046008
2305000000 0.0462878 -0.2025086 0.9537122 0.2025086 0.9537122 0.2025086 0.0462878 -0.2025086
2326000000 0.0453851 -0.2004446 0.9546149 0.2004446 0.9546149 0.2004446 0.0453851 -0.2004446
2347000000 0.0445054 -0.1984083 0.9554946 0.1984083 0.9554946 0.1984083 0.0445054 -0.1984083
2368000000 0.0436481 -0.1963990 0.9563519 0.1963990 0.9563519 0.1963990 0.0436481 -0.1963990
2389000000 0.0428125 -0.1944163 0.9571875 0.1944163 0.9571875 0.1944163 0.0428125 -0.1944163
2410000000 0.0419977 -0.1924596 0.9580023 0.1924596 0.9580023 0.1924596 0.0419977 -0.1924596
2431000000 0.0412032 -0.1905284 0.9587968 0.1905284 0.9587968 0.1905284 0.0412032 -0.1905284
2452000000 0.0404284 -0.1886222 0.9595716 0.1886222 0.9595716 0.1886222 0.0404284 -0.1886222
2473000000 0.0396726 -0.1867404 0.9603274 0.1867404 0.9603274 0.1867404 0.0396726 -0.1867404
2494000000 0.0389353 -0.1848827 0.9610647 0.1848827 0.9610647 0.1848827 0.0389353 -0.1848827
2515000000 0.0382158 -0.1830484 0.9617842 0.1830484 0.9617842 0.1830484 0.0382158 -0.1830484
2536000000 0.0375137 -0.1812372 0.9624863 0.1812372 0.9624863 0.1812372 0.0375137 -0.1812372
2557000000 0.0368284 -0.1794485 0.9631716 0.1794485 0.9631716 0.1794485 0.0368284 -0.1794485
2578000000 0.0361594 -0.1776820 0.9638406 0.1776820 0.9638406 0.1776820 0.0361594 -0.1776820
2599000000 0.0355062 -0.1759373 0.9644938 0.1759373 0.9644938 0.1759373 0.0355062 -0.1759373
2620000000 0.0348684 -0.1742138 0.9651316 0.1742138 0.9651316 0.1742138 0.0348684 -0.1742138
2641000000 0.0342454 -0.1725111 0.9657546 0.1725111 0.9657546 0.1725111 0.0342454 -0.1725111
2662000000 0.0336370 -0.1708290 0.9663630 0.1708290 0.9663630 0.1708290 0.0336370 -0.1708290
2683000000 0.0330426 -0.1691669 0.9669574 0.1691669 0.9669574 0.1691669 0.0330426 -0.1691669
2704000000 0.0324619 -0.1675245 0.9675381 0.1675245 0.9675381 0.1675245 0.0324619 -0.1675245
2725000000 0.0318944 -0.1659014 0.9681056 0.1659014 0.9681056 0.1659014 0.0318944 -0.1659014
2746000000 0.0313399 -0.1642973 0.9686601 0.1642973 0.9686601 0.1642973 0.0313399 -0.1642973
2767000000 0.0307978 -0.1627118 0.9692022 0.1627118 0.9692022 0.1627118 0.0307978 -0.1627118
2788000000 0.0302679 -0.1611445 0.9697321 0.1611445 0.9697321 0.1611445 0.0302679 -0.1611445
2809000000 0.0297499 -0.1595951 0.9702501 0.1595951 0.9702501 0.1595951 0.0297499 -0.1595951
2830000000 0.0292433 -0.1580633 0.9707567 0.1580633 0.9707567 0.1580633 0.0292433 -0.1580633
2851000000 0.0287480 -0.1565487 0.9712520 0.1565487 0.9712520 0.1565487 0.0287480 -0.1565487
2872000000 0.0282636 -0.1550510 0.9717364 0.1550510 0.9717364 0.1550510 0.0282636 -0.1550510
2893000000 0.0277897 -0.1535699 0.9722103 0.1535699 0.9722103 0.1535699 0.0277897 -0.1535699
2914000000 0.0273262 -0.1521052 0.9726738 0.1521052 0.9726738 0.1521052 0.0273262 -0.1521052
2935000000 0.0268726 -0.1506564 0.9731274 0.1506564 0.9731274 0.1506564 0.0268726 -0.1506564
2956000000 0.0264289 -0.1492234 0.9735711 0.1492234 0.9735711 0.1492234 0.0264289 -0.1492234
2977000000 0.0259947 -0.1478058 0.9740053 0.1478058 0.9740053 0.1478058 0.0259947 -0.1478058
2998000000 0.0255697 -0.1464033 0.9744303 0.1464033 0.9744303 0.1464033 0.0255697 -0.1464033
3019000000 0.0251537 -0.1450157 0.9748463 0.1450157 0.9748463 0.1450157 0.0251537 -0.1450157
3040000000 0.0247466 -0.1436428 0.9752534 0.1436428 0.9752534 0.1436428 0.0247466 -0.1436428
3061000000 0.0243480 -0.1422841 0.9756520 0.1422841 0.9756520 0.1422841 0.0243480 -0.1422841
3082000000 0.0239577 -0.1409396 0.9760423 0.1409396 0.9760423 0.1409396 0.0239577 -0.1409396
3103000000 0.0235756 -0.1396090 0.9764244 0.1396090 0.9764244 0.1396090 0.0235756 -0.1396090
3124000000 0.0232014 -0.1382919 0.9767986 0.1382919 0.9767986 0.1382919 0.0232014 -0.1382919
3145000000 0.0228350 -0.1369883 0.9771650 0.1369883 0.9771650 0.1369883 0.0228350 -0.1369883
3166000000 0.0224760 -0.1356978 0.9775240 0.1356978 0.9775240 0.1356978 0.0224760 -0.1356978
3187000000 0.0221245 -0.1344202 0.9778755 0.1344202 0.9778755 0.1344202 0.0221245 -0.1344202
3208000000 0.0217801 -0.1331553 0.9782199 0.1331553 0.9782199 0.1331553 0.0217801 -0.1331553
3229000000 0.0214426 -0.1319028 0.9785574 0.1319028 0.9785574 0.1319028 0.0214426 -0.1319028
3250000000 0.0211121 -0.1306627 0.9788879 0.1306627 0.9788879 0.1306627 0.0211121 -0.1306627
3271000000 0.0207881 -0.1294346 0.9792119 0.1294346 0.9792119 0.1294346 0.0207881 -0.1294346
3292000000 0.0204707 -0.1282183 0.9795293 0.1282183 0.9795293 0.1282183 0.0204707 -0.1282183
3313000000 0.0201596 -0.1270137 0.9798404 0.1270137 0.9798404 0.1270137 0.0201596 -0.1270137
3334000000 0.0198547 -0.1258206 0.9801453 0.1258206 0.9801453 0.1258206 0.0198547 -0.1258206
3355000000 0.0195559 -0.1246387 0.9804441 0.1246387 0.9804441 0.1246387 0.0195559 -0.1246387
3376000000 0.0192629 -0.1234680 0.9807371 0.1234680 0.9807371 0.1234680 0.0192629 -0.1234680
3397000000 0.0189758 -0.1223081 0.9810242 0.1223081 0.9810242 0.1223081 0.0189758 -0.1223081
3418000000 0.0186942 -0.1211589 0.9813058 0.1211589 0.9813058 0.1211589 0.0186942 -0.1211589
3439000000 0.0184182 -0.1200203 0.9815818 0.1200203 0.9815818 0.1200203 0.0184182 -0.1200203
3460000000 0.0181476 -0.1188921 0.9818524 0.1188921 0.9818524 0.1188921 0.0181476 -0.1188921
3481000000 0.0178822 -0.1177741 0.9821178 0.1177741 0.9821178 0.1177741 0.0178822 -0.1177741
3502000000 0.0176219 -0.1166661 0.9823781 0.1166661 0.9823781 0.1166661 0.0176219 -0.1166661
3523000000 0.0173667 -0.1155681 0.9826333 0.1155681 0.9826333 0.1155681 0.0173667 -0.1155681
3544000000 0.0171164 -0.1144797 0.9828836 0.1144797 0.9828836 0.1144797 0.0171164 -0.1144797
3565000000 0.0168709 -0.1134009 0.9831291 0.1134009 0.9831291 0.1134009 0.0168709 -0.1134009
3586000000 0.0166301 -0.1123316 0.9833699 0.1123316 0.9833699 0.1123316 0.0166301 -0.1123316
3607000000 0.0163938 -0.1112715 0.9836062 0.1112715 0.9836062 0.1112715 0.0163938 -0.1112715
3628000000 0.0161621 -0.1102206 0.9838379 0.1102206 0.9838379 0.1102206 0.0161621 -0.1102206
3649000000 0.0159348 -0.1091786 0.9840652 0.1091786 0.9840652 0.1091786 0.0159348 -0.1091786
3670000000 0.0157117 -0.1081455 0.9842883 0.1081455 0.9842883 0.1081455 0.0157117 -0.1081455
3691000000 0.0154929 -0.1071211 0.9845071 0.1071211 0.9845071 0.1071211 0.0154929 -0.1071211
3712000000 0.0152782 -0.1061053 0.9847218 0.1061053 0.9847218 0.1061053 0.0152782 -0.1061053
3733000000 0.0150675 -0.1050979 0.9849325 0.1050979 0.9849325 0.1050979 0.0150675 -0.1050979
3754000000 0.0148607 -0.1040988 0.9851393 0.1040988 0.9851393 0.1040988 0.0148607 -0.1040988
3775000000 0.0146578 -0.1031080 0.9853422 0.1031080 0.9853422 0.1031080 0.0146578 -0.1031080
3796000000 0.0144587 -0.1021252 0.9855413 0.1021252 0.9855413 0.1021252 0.0144587 -0.1021252
3817000000 0.0142633 -0.1011503 0.9857367 0.1011503 0.9857367 0.1011503 0.0142633 -0.1011503
3838000000 0.0140716 -0.1001833 0.9859284 0.1001833 0.9859284 0.1001833 0.0140716 -0.1001833
3859000000 0.0138833 -0.0992240 0.9861167 0.0992240 0.9861167 0.0992240 0.0138833 -0.0992240
3880000000 0.0136986 -0.0982723 0.9863014 0.0982723 0.9863014 0.0982723 0.0136986 -0.0982723
3901000000 0.0135173 -0.0973281 0.9864827 0.0973281 0.9864827 0.0973281 0.0135173 -0.0973281
3922000000 0.0133393 -0.0963912 0.9866607 0.0963912 0.9866607 0.0963912 0.0133393 -0.0963912
3943000000 0.0131645 -0.0954616 0.9868355 0.0954616 0.9868355 0.0954616 0.0131645 -0.0954616
3964000000 0.0129930 -0.0945392 0.9870070 0.0945392 0.9870070 0.0945392 0.0129930 -0.0945392
3985000000 0.0128246 -0.0936239 0.9871754 0.0936239 0.9871754 0.0936239 0.0128246 -0.0936239
4006000000 0.0126593 -0.0927155 0.9873407 0.0927155 0.9873407 0.0927155 0.0126593 -0.0927155
4027000000 0.0124970 -0.0918140 0.9875030 0.0918140 0.9875030 0.0918140 0.0124970 -0.0918140
4048000000 0.0123377 -0.0909192 0.9876623 0.0909192 0.9876623 0.0909192 0.0123377 -0.0909192
4069000000 0.0121813 -0.0900311 0.9878187 0.0900311 0.9878187 0.0900311 0.0121813 -0.0900311
4090000000 0.0120277 -0.0891495 0.9879723 0.0891495 0.9879723 0.0891495 0.0120277 -0.0891495
4111000000 0.0118769 -0.0882745 0.9881231 0.0882745 0.9881231 0.0882745 0.0118769 -0.0882745
4132000000 0.0117289 -0.0874058 0.9882711 0.0874058 0.9882711 0.0874058 0.0117289 -0.0874058
4153000000 0.0115835 -0.0865434 0.9884165 0.0865434 0.9884165 0.0865434 0.0115835 -0.0865434
4174000000 0.0114408 -0.0856873 0.9885592 0.0856873 0.9885592 0.0856873 0.0114408 -0.0856873
4195000000 0.0113007 -0.0848372 0.9886993 0.0848372 0.9886993 0.0848372 0.0113007 -0.0848372
4216000000 0.0111631 -0.0839932 0.9888369 0.0839932 0.9888369 0.0839932 0.0111631 -0.0839932
4237000000 0.0110280 -0.0831552 0.9889720 0.0831552 0.9889720 0.0831552 0.0110280 -0.0831552
4258000000 0.0108953 -0.0823230 0.9891047 0.0823230 0.9891047 0.0823230 0.0108953 -0.0823230
4279000000 0.0107650 -0.0814966 0.9892350 0.0814966 0.9892350 0.0814966 0.0107650 -0.0814966
4300000000 0.0106371 -0.0806759 0.9893629 0.0806759 0.9893629 0.0806759 0.0106371 -0.0806759
4321000000 0.0105115 -0.0798609 0.9894885 0.0798609 0.9894885 0.0798609 0.0105115 -0.0798609
4342000000 0.0103881 -0.0790515 0.9896119 0.0790515 0.9896119 0.0790515 0.0103881 -0.0790515
4363000000 0.0102670 -0.0782475 0.9897330 0.0782475 0.9897330 0.0782475 0.0102670 -0.0782475
4384000000 0.0101481 -0.0774489 0.9898519 0.0774489 0.9898519 0.0774489 0.0101481 -0.0774489
4405000000 0.0100313 -0.0766557 0.9899687 0.0766557 0.9899687 0.0766557 0.0100313 -0.0766557
4426000000 0.0099166 -0.0758678 0.9900834 0.0758678 0.9900834 0.0758678 0.0099166 -0.0758678
4447000000 0.0098040 -0.0750850 0.9901960 0.0750850 0.9901960 0.0750850 0.0098040 -0.0750850
4468000000 0.0096934 -0.0743074 0.9903066 0.0743074 0.9903066 0.0743074 0.0096934 -0.0743074
4489000000 0.0095849 -0.0735349 0.9904151 0.0735349 0.9904151 0.0735349 0.0095849 -0.0735349
4510000000 0.0094783 -0.0727674 0.9905217 0.0727674 0.9905217 0.0727674 0.0094783 -0.0727674
