!Murata Part Number: GRM0222C1C390JA02
!These Parameters are Measured in Series Mode Connection
!Data Generated on Mar 30, 2021
!       o--ll--o
!Port1            Port2
!       o------o
!Operation Temp=25[degC], DC Bias Voltage=0[V]
!Freq. Start=100[MHz] Stop=9[GHz] 401[Steps]
# Hz S RI R 50
!Freq.(Hz) S11(Real) S11(Imag) S21(Real) S21(Imag) S12(Real) S12(Imag) S22(Real) S22(Imag)
100000000 0.1430240 -0.3482493 0.8569760 0.3482493 0.8569760 0.3482493 0.1430240 -0.3482493
121000000 0.1024825 -0.3010443 0.8975175 0.3010443 0.8975175 0.3010443 0.1024825 -0.3010443
142000000 0.0767046 -0.2634943 0.9232954 0.2634943 0.9232954 0.2634943 0.0767046 -0.2634943
163000000 0.0594418 -0.2334304 0.9405582 0.2334304 0.9405582 0.2334304 0.0594418 -0.2334304
184000000 0.0473737 -0.2090250 0.9526263 0.2090250 0.9526263 0.2090250 0.0473737 -0.2090250
205000000 0.0386320 -0.1889107 0.9613680 0.1889107 0.9613680 0.1889107 0.0386320 -0.1889107
226000000 0.0321098 -0.1720910 0.9678902 0.1720910 0.9678902 0.1720910 0.0321098 -0.1720910
247000000 0.0271211 -0.1578387 0.9728789 0.1578387 0.9728789 0.1578387 0.0271211 -0.1578387
268000000 0.0232238 -0.1456177 0.9767762 0.1456177 0.9767762 0.1456177 0.0232238 -0.1456177
289000000 0.0201235 -0.1350266 0.9798765 0.1350266 0.9798765 0.1350266 0.0201235 -0.1350266
310000000 0.0176181 -0.1257607 0.9823819 0.1257607 0.9823819 0.1257607 0.0176181 -0.1257607
331000000 0.0155657 -0.1175854 0.9844343 0.1175854 0.9844343 0.1175854 0.0155657 -0.1175854
352000000 0.0138638 -0.1103172 0.9861362 0.1103172 0.9861362 0.1103172 0.0138638 -0.1103172
373000000 0.0124376 -0.1038112 0.9875624 0.1038112 0.9875624 0.1038112 0.0124376 -0.1038112
394000000 0.0112310 -0.0979513 0.9887690 0.0979513 0.9887690 0.0979513 0.0112310 -0.0979513
415000000 0.0102013 -0.0926435 0.9897987 0.0926435 0.9897987 0.0926435 0.0102013 -0.0926435
436000000 0.0093160 -0.0878113 0.9906840 0.0878113 0.9906840 0.0878113 0.0093160 -0.0878113
457000000 0.0085496 -0.0833912 0.9914504 0.0833912 0.9914504 0.0833912 0.0085496 -0.0833912
478000000 0.0078818 -0.0793307 0.9921182 0.0793307 0.9921182 0.0793307 0.0078818 -0.0793307
499000000 0.0072967 -0.0755857 0.9927033 0.0755857 0.9927033 0.0755857 0.0072967 -0.0755857
520000000 0.0067814 -0.0721190 0.9932186 0.0721190 0.9932186 0.0721190 0.0067814 -0.0721190
541000000 0.0063253 -0.0688989 0.9936747 0.0688989 0.9936747 0.0688989 0.0063253 -0.0688989
562000000 0.0059200 -0.0658985 0.9940800 0.0658985 0.9940800 0.0658985 0.0059200 -0.0658985
583000000 0.0055583 -0.0630945 0.9944417 0.0630945 0.9944417 0.0630945 0.0055583 -0.0630945
604000000 0.0052343 -0.0604668 0.9947657 0.0604668 0.9947657 0.0604668 0.0052343 -0.0604668
625000000 0.0049432 -0.0579980 0.9950568 0.0579980 0.9950568 0.0579980 0.0049432 -0.0579980
646000000 0.0046807 -0.0556728 0.9953193 0.0556728 0.9953193 0.0556728 0.0046807 -0.0556728
667000000 0.0044435 -0.0534779 0.9955565 0.0534779 0.9955565 0.0534779 0.0044435 -0.0534779
688000000 0.0042284 -0.0514015 0.9957716 0.0514015 0.9957716 0.0514015 0.0042284 -0.0514015
709000000 0.0040330 -0.0494333 0.9959670 0.0494333 0.9959670 0.0494333 0.0040330 -0.0494333
730000000 0.0038551 -0.0475640 0.9961449 0.0475640 0.9961449 0.0475640 0.0038551 -0.0475640
751000000 0.0036928 -0.0457854 0.9963072 0.0457854 0.9963072 0.0457854 0.0036928 -0.0457854
772000000 0.0035444 -0.0440903 0.9964556 0.0440903 0.9964556 0.0440903 0.0035444 -0.0440903
793000000 0.0034085 -0.0424720 0.9965915 0.0424720 0.9965915 0.0424720 0.0034085 -0.0424720
814000000 0.0032839 -0.0409248 0.9967161 0.0409248 0.9967161 0.0409248 0.0032839 -0.0409248
835000000 0.0031695 -0.0394432 0.9968305 0.0394432 0.9968305 0.0394432 0.0031695 -0.0394432
856000000 0.0030643 -0.0380225 0.9969357 0.0380225 0.9969357 0.0380225 0.0030643 -0.0380225
877000000 0.0029674 -0.0366584 0.9970326 0.0366584 0.9970326 0.0366584 0.0029674 -0.0366584
898000000 0.0028782 -0.0353469 0.9971218 0.0353469 0.9971218 0.0353469 0.0028782 -0.0353469
919000000 0.0027960 -0.0340844 0.9972040 0.0340844 0.9972040 0.0340844 0.0027960 -0.0340844
940000000 0.0027201 -0.0328678 0.9972799 0.0328678 0.9972799 0.0328678 0.0027201 -0.0328678
961000000 0.0026501 -0.0316940 0.9973499 0.0316940 0.9973499 0.0316940 0.0026501 -0.0316940
982000000 0.0025855 -0.0305602 0.9974145 0.0305602 0.9974145 0.0305602 0.0025855 -0.0305602
1003000000 0.0025258 -0.0294641 0.9974742 0.0294641 0.9974742 0.0294641 0.0025258 -0.0294641
1024000000 0.0024706 -0.0284032 0.9975294 0.0284032 0.9975294 0.0284032 0.0024706 -0.0284032
1045000000 0.0024197 -0.0273755 0.9975803 0.0273755 0.9975803 0.0273755 0.0024197 -0.0273755
1066000000 0.0023727 -0.0263791 0.9976273 0.0263791 0.9976273 0.0263791 0.0023727 -0.0263791
1087000000 0.0023294 -0.0254121 0.9976706 0.0254121 0.9976706 0.0254121 0.0023294 -0.0254121
1108000000 0.0022894 -0.0244729 0.9977106 0.0244729 0.9977106 0.0244729 0.0022894 -0.0244729
1129000000 0.0022526 -0.0235599 0.9977474 0.0235599 0.9977474 0.0235599 0.0022526 -0.0235599
1150000000 0.0022187 -0.0226717 0.9977813 0.0226717 0.9977813 0.0226717 0.0022187 -0.0226717
1171000000 0.0021876 -0.0218070 0.9978124 0.0218070 0.9978124 0.0218070 0.0021876 -0.0218070
1192000000 0.0021591 -0.0209645 0.9978409 0.0209645 0.9978409 0.0209645 0.0021591 -0.0209645
1213000000 0.0021330 -0.0201431 0.9978670 0.0201431 0.9978670 0.0201431 0.0021330 -0.0201431
1234000000 0.0021091 -0.0193418 0.9978909 0.0193418 0.9978909 0.0193418 0.0021091 -0.0193418
1255000000 0.0020874 -0.0185595 0.9979126 0.0185595 0.9979126 0.0185595 0.0020874 -0.0185595
1276000000 0.0020677 -0.0177953 0.9979323 0.0177953 0.9979323 0.0177953 0.0020677 -0.0177953
1297000000 0.0020500 -0.0170483 0.9979500 0.0170483 0.9979500 0.0170483 0.0020500 -0.0170483
1318000000 0.0020340 -0.0163177 0.9979660 0.0163177 0.9979660 0.0163177 0.0020340 -0.0163177
1339000000 0.0020197 -0.0156027 0.9979803 0.0156027 0.9979803 0.0156027 0.0020197 -0.0156027
1360000000 0.0020070 -0.0149026 0.9979930 0.0149026 0.9979930 0.0149026 0.0020070 -0.0149026
1381000000 0.0019959 -0.0142168 0.9980041 0.0142168 0.9980041 0.0142168 0.0019959 -0.0142168
1402000000 0.0019862 -0.0135446 0.9980138 0.0135446 0.9980138 0.0135446 0.0019862 -0.0135446
1423000000 0.0019780 -0.0128854 0.9980220 0.0128854 0.9980220 0.0128854 0.0019780 -0.0128854
1444000000 0.0019710 -0.0122387 0.9980290 0.0122387 0.9980290 0.0122387 0.0019710 -0.0122387
1465000000 0.0019653 -0.0116038 0.9980347 0.0116038 0.9980347 0.0116038 0.0019653 -0.0116038
1486000000 0.0019608 -0.0109804 0.9980392 0.0109804 0.9980392 0.0109804 0.0019608 -0.0109804
1507000000 0.0019575 -0.0103679 0.9980425 0.0103679 0.9980425 0.0103679 0.0019575 -0.0103679
1528000000 0.0019553 -0.0097659 0.9980447 0.0097659 0.9980447 0.0097659 0.0019553 -0.0097659
1549000000 0.0019541 -0.0091739 0.9980459 0.0091739 0.9980459 0.0091739 0.0019541 -0.0091739
1570000000 0.0019540 -0.0085916 0.9980460 0.0085916 0.9980460 0.0085916 0.0019540 -0.0085916
1591000000 0.0019548 -0.0080186 0.9980452 0.0080186 0.9980452 0.0080186 0.0019548 -0.0080186
1612000000 0.0019566 -0.0074545 0.9980434 0.0074545 0.9980434 0.0074545 0.0019566 -0.0074545
1633000000 0.0019593 -0.0068990 0.9980407 0.0068990 0.9980407 0.0068990 0.0019593 -0.0068990
1654000000 0.0019629 -0.0063518 0.9980371 0.0063518 0.9980371 0.0063518 0.0019629 -0.0063518
1675000000 0.0019673 -0.0058125 0.9980327 0.0058125 0.9980327 0.0058125 0.0019673 -0.0058125
1696000000 0.0019725 -0.0052809 0.9980275 0.0052809 0.9980275 0.0052809 0.0019725 -0.0052809
1717000000 0.0019785 -0.0047566 0.9980215 0.0047566 0.9980215 0.0047566 0.0019785 -0.0047566
1738000000 0.0019853 -0.0042395 0.9980147 0.0042395 0.9980147 0.0042395 0.0019853 -0.0042395
1759000000 0.0019929 -0.0037292 0.9980071 0.0037292 0.9980071 0.0037292 0.0019929 -0.0037292
1780000000 0.0020011 -0.0032256 0.9979989 0.0032256 0.9979989 0.0032256 0.0020011 -0.0032256
1801000000 0.0020101 -0.0027283 0.9979899 0.0027283 0.9979899 0.0027283 0.0020101 -0.0027283
1822000000 0.0020197 -0.0022372 0.9979803 0.0022372 0.9979803 0.0022372 0.0020197 -0.0022372
1843000000 0.0020300 -0.0017521 0.9979700 0.0017521 0.9979700 0.0017521 0.0020300 -0.0017521
1864000000 0.0020409 -0.0012728 0.9979591 0.0012728 0.9979591 0.0012728 0.0020409 -0.0012728
1885000000 0.0020525 -0.0007990 0.9979475 0.0007990 0.9979475 0.0007990 0.0020525 -0.0007990
1906000000 0.0020647 -0.0003306 0.9979353 0.0003306 0.9979353 0.0003306 0.0020647 -0.0003306
1927000000 0.0020774 0.0001325 0.9979226 -0.0001325 0.9979226 -0.0001325 0.0020774 0.0001325
1948000000 0.0020908 0.0005906 0.9979092 -0.0005906 0.9979092 -0.0005906 0.0020908 0.0005906
1969000000 0.0021047 0.0010438 0.9978953 -0.0010438 0.9978953 -0.0010438 0.0021047 0.0010438
1990000000 0.0021192 0.0014923 0.9978808 -0.0014923 0.9978808 -0.0014923 0.0021192 0.0014923
2011000000 0.0021343 0.0019361 0.9978657 -0.0019361 0.9978657 -0.0019361 0.0021343 0.0019361
2032000000 0.0021499 0.0023755 0.9978501 -0.0023755 0.9978501 -0.0023755 0.0021499 0.0023755
2053000000 0.0021660 0.0028106 0.9978340 -0.0028106 0.9978340 -0.0028106 0.0021660 0.0028106
2074000000 0.0021826 0.0032415 0.9978174 -0.0032415 0.9978174 -0.0032415 0.0021826 0.0032415
2095000000 0.0021997 0.0036683 0.9978003 -0.0036683 0.9978003 -0.0036683 0.0021997 0.0036683
2116000000 0.0022173 0.0040911 0.9977827 -0.0040911 0.9977827 -0.0040911 0.0022173 0.0040911
2137000000 0.0022355 0.0045102 0.9977645 -0.0045102 0.9977645 -0.0045102 0.0022355 0.0045102
2158000000 0.0022541 0.0049254 0.9977459 -0.0049254 0.9977459 -0.0049254 0.0022541 0.0049254
2179000000 0.0022731 0.0053371 0.9977269 -0.0053371 0.9977269 -0.0053371 0.0022731 0.0053371
2200000000 0.0022927 0.0057452 0.9977073 -0.0057452 0.9977073 -0.0057452 0.0022927 0.0057452
2221000000 0.0023127 0.0061499 0.9976873 -0.0061499 0.9976873 -0.0061499 0.0023127 0.0061499
2242000000 0.0023331 0.0065513 0.9976669 -0.0065513 0.9976669 -0.0065513 0.0023331 0.0065513
2263000000 0.0023541 0.0069494 0.9976459 -0.0069494 0.9976459 -0.0069494 0.0023541 0.0069494
2284000000 0.0023754 0.0073444 0.9976246 -0.0073444 0.9976246 -0.0073444 0.0023754 0.0073444
2305000000 0.0023972 0.0077363 0.9976028 -0.0077363 0.9976028 -0.0077363 0.0023972 0.0077363
2326000000 0.0024194 0.0081252 0.9975806 -0.0081252 0.9975806 -0.0081252 0.0024194 0.0081252
2347000000 0.0024421 0.0085111 0.9975579 -0.0085111 0.9975579 -0.0085111 0.0024421 0.0085111
2368000000 0.0024651 0.0088943 0.9975349 -0.0088943 0.9975349 -0.0088943 0.0024651 0.0088943
2389000000 0.0024886 0.0092746 0.9975114 -0.0092746 0.9975114 -0.0092746 0.0024886 0.0092746
2410000000 0.0025125 0.0096523 0.9974875 -0.0096523 0.9974875 -0.0096523 0.0025125 0.0096523
2431000000 0.0025368 0.0100273 0.9974632 -0.0100273 0.9974632 -0.0100273 0.0025368 0.0100273
2452000000 0.0025616 0.0103998 0.9974384 -0.0103998 0.9974384 -0.0103998 0.0025616 0.0103998
2473000000 0.0025867 0.0107698 0.9974133 -0.0107698 0.9974133 -0.0107698 0.0025867 0.0107698
2494000000 0.0026122 0.0111373 0.9973878 -0.0111373 0.9973878 -0.0111373 0.0026122 0.0111373
2515000000 0.0026381 0.0115024 0.9973619 -0.0115024 0.9973619 -0.0115024 0.0026381 0.0115024
2536000000 0.0026644 0.0118652 0.9973356 -0.0118652 0.9973356 -0.0118652 0.0026644 0.0118652
2557000000 0.0026911 0.0122257 0.9973089 -0.0122257 0.9973089 -0.0122257 0.0026911 0.0122257
2578000000 0.0027182 0.0125840 0.9972818 -0.0125840 0.9972818 -0.0125840 0.0027182 0.0125840
2599000000 0.0027456 0.0129401 0.9972544 -0.0129401 0.9972544 -0.0129401 0.0027456 0.0129401
2620000000 0.0027735 0.0132940 0.9972265 -0.0132940 0.9972265 -0.0132940 0.0027735 0.0132940
2641000000 0.0028017 0.0136460 0.9971983 -0.0136460 0.9971983 -0.0136460 0.0028017 0.0136460
2662000000 0.0028303 0.0139958 0.9971697 -0.0139958 0.9971697 -0.0139958 0.0028303 0.0139958
2683000000 0.0028593 0.0143437 0.9971407 -0.0143437 0.9971407 -0.0143437 0.0028593 0.0143437
2704000000 0.0028886 0.0146896 0.9971114 -0.0146896 0.9971114 -0.0146896 0.0028886 0.0146896
2725000000 0.0029183 0.0150337 0.9970817 -0.0150337 0.9970817 -0.0150337 0.0029183 0.0150337
2746000000 0.0029484 0.0153758 0.9970516 -0.0153758 0.9970516 -0.0153758 0.0029484 0.0153758
2767000000 0.0029788 0.0157162 0.9970212 -0.0157162 0.9970212 -0.0157162 0.0029788 0.0157162
2788000000 0.0030096 0.0160547 0.9969904 -0.0160547 0.9969904 -0.0160547 0.0030096 0.0160547
2809000000 0.0030408 0.0163915 0.9969592 -0.0163915 0.9969592 -0.0163915 0.0030408 0.0163915
2830000000 0.0030723 0.0167266 0.9969277 -0.0167266 0.9969277 -0.0167266 0.0030723 0.0167266
2851000000 0.0031042 0.0170600 0.9968958 -0.0170600 0.9968958 -0.0170600 0.0031042 0.0170600
2872000000 0.0031365 0.0173918 0.9968635 -0.0173918 0.9968635 -0.0173918 0.0031365 0.0173918
2893000000 0.0031691 0.0177219 0.9968309 -0.0177219 0.9968309 -0.0177219 0.0031691 0.0177219
2914000000 0.0032020 0.0180504 0.9967980 -0.0180504 0.9967980 -0.0180504 0.0032020 0.0180504
2935000000 0.0032353 0.0183774 0.9967647 -0.0183774 0.9967647 -0.0183774 0.0032353 0.0183774
2956000000 0.0032690 0.0187029 0.9967310 -0.0187029 0.9967310 -0.0187029 0.0032690 0.0187029
2977000000 0.0033030 0.0190269 0.9966970 -0.0190269 0.9966970 -0.0190269 0.0033030 0.0190269
2998000000 0.0033373 0.0193494 0.9966627 -0.0193494 0.9966627 -0.0193494 0.0033373 0.0193494
3019000000 0.0033721 0.0196704 0.9966279 -0.0196704 0.9966279 -0.0196704 0.0033721 0.0196704
3040000000 0.0034071 0.0199901 0.9965929 -0.0199901 0.9965929 -0.0199901 0.0034071 0.0199901
3061000000 0.0034425 0.0203083 0.9965575 -0.0203083 0.9965575 -0.0203083 0.0034425 0.0203083
3082000000 0.0034783 0.0206252 0.9965217 -0.0206252 0.9965217 -0.0206252 0.0034783 0.0206252
3103000000 0.0035143 0.0209407 0.9964857 -0.0209407 0.9964857 -0.0209407 0.0035143 0.0209407
3124000000 0.0035508 0.0212549 0.9964492 -0.0212549 0.9964492 -0.0212549 0.0035508 0.0212549
3145000000 0.0035876 0.0215678 0.9964124 -0.0215678 0.9964124 -0.0215678 0.0035876 0.0215678
3166000000 0.0036247 0.0218795 0.9963753 -0.0218795 0.9963753 -0.0218795 0.0036247 0.0218795
3187000000 0.0036621 0.0221898 0.9963379 -0.0221898 0.9963379 -0.0221898 0.0036621 0.0221898
3208000000 0.0036999 0.0224990 0.9963001 -0.0224990 0.9963001 -0.0224990 0.0036999 0.0224990
3229000000 0.0037381 0.0228069 0.9962619 -0.0228069 0.9962619 -0.0228069 0.0037381 0.0228069
3250000000 0.0037765 0.0231136 0.9962235 -0.0231136 0.9962235 -0.0231136 0.0037765 0.0231136
3271000000 0.0038154 0.0234192 0.9961846 -0.0234192 0.9961846 -0.0234192 0.0038154 0.0234192
3292000000 0.0038545 0.0237235 0.9961455 -0.0237235 0.9961455 -0.0237235 0.0038545 0.0237235
3313000000 0.0038940 0.0240268 0.9961060 -0.0240268 0.9961060 -0.0240268 0.0038940 0.0240268
3334000000 0.0039338 0.0243289 0.9960662 -0.0243289 0.9960662 -0.0243289 0.0039338 0.0243289
3355000000 0.0039740 0.0246299 0.9960260 -0.0246299 0.9960260 -0.0246299 0.0039740 0.0246299
3376000000 0.0040145 0.0249298 0.9959855 -0.0249298 0.9959855 -0.0249298 0.0040145 0.0249298
3397000000 0.0040553 0.0252286 0.9959447 -0.0252286 0.9959447 -0.0252286 0.0040553 0.0252286
3418000000 0.0040965 0.0255264 0.9959035 -0.0255264 0.9959035 -0.0255264 0.0040965 0.0255264
3439000000 0.0041380 0.0258231 0.9958620 -0.0258231 0.9958620 -0.0258231 0.0041380 0.0258231
3460000000 0.0041798 0.0261187 0.9958202 -0.0261187 0.9958202 -0.0261187 0.0041798 0.0261187
3481000000 0.0042220 0.0264134 0.9957780 -0.0264134 0.9957780 -0.0264134 0.0042220 0.0264134
3502000000 0.0042644 0.0267070 0.9957356 -0.0267070 0.9957356 -0.0267070 0.0042644 0.0267070
3523000000 0.0043073 0.0269997 0.9956927 -0.0269997 0.9956927 -0.0269997 0.0043073 0.0269997
3544000000 0.0043504 0.0272913 0.9956496 -0.0272913 0.9956496 -0.0272913 0.0043504 0.0272913
3565000000 0.0043939 0.0275820 0.9956061 -0.0275820 0.9956061 -0.0275820 0.0043939 0.0275820
3586000000 0.0044377 0.0278718 0.9955623 -0.0278718 0.9955623 -0.0278718 0.0044377 0.0278718
3607000000 0.0044818 0.0281606 0.9955182 -0.0281606 0.9955182 -0.0281606 0.0044818 0.0281606
3628000000 0.0045263 0.0284484 0.9954737 -0.0284484 0.9954737 -0.0284484 0.0045263 0.0284484
3649000000 0.0045711 0.0287354 0.9954289 -0.0287354 0.9954289 -0.0287354 0.0045711 0.0287354
3670000000 0.0046162 0.0290214 0.9953838 -0.0290214 0.9953838 -0.0290214 0.0046162 0.0290214
3691000000 0.0046617 0.0293065 0.9953383 -0.0293065 0.9953383 -0.0293065 0.0046617 0.0293065
3712000000 0.0047074 0.0295907 0.9952926 -0.0295907 0.9952926 -0.0295907 0.0047074 0.0295907
3733000000 0.0047535 0.0298740 0.9952465 -0.0298740 0.9952465 -0.0298740 0.0047535 0.0298740
3754000000 0.0048000 0.0301565 0.9952000 -0.0301565 0.9952000 -0.0301565 0.0048000 0.0301565
3775000000 0.0048467 0.0304381 0.9951533 -0.0304381 0.9951533 -0.0304381 0.0048467 0.0304381
3796000000 0.0048938 0.0307188 0.9951062 -0.0307188 0.9951062 -0.0307188 0.0048938 0.0307188
3817000000 0.0049412 0.0309987 0.9950588 -0.0309987 0.9950588 -0.0309987 0.0049412 0.0309987
3838000000 0.0049889 0.0312777 0.9950111 -0.0312777 0.9950111 -0.0312777 0.0049889 0.0312777
3859000000 0.0050369 0.0315559 0.9949631 -0.0315559 0.9949631 -0.0315559 0.0050369 0.0315559
3880000000 0.0050852 0.0318333 0.9949148 -0.0318333 0.9949148 -0.0318333 0.0050852 0.0318333
3901000000 0.0051339 0.0321099 0.9948661 -0.0321099 0.9948661 -0.0321099 0.0051339 0.0321099
3922000000 0.0051829 0.0323856 0.9948171 -0.0323856 0.9948171 -0.0323856 0.0051829 0.0323856
3943000000 0.0052322 0.0326606 0.9947678 -0.0326606 0.9947678 -0.0326606 0.0052322 0.0326606
3964000000 0.0052818 0.0329347 0.9947182 -0.0329347 0.9947182 -0.0329347 0.0052818 0.0329347
3985000000 0.0053318 0.0332081 0.9946682 -0.0332081 0.9946682 -0.0332081 0.0053318 0.0332081
4006000000 0.0053820 0.0334807 0.9946180 -0.0334807 0.9946180 -0.0334807 0.0053820 0.0334807
4027000000 0.0054326 0.0337525 0.9945674 -0.0337525 0.9945674 -0.0337525 0.0054326 0.0337525
4048000000 0.0054835 0.0340235 0.9945165 -0.0340235 0.9945165 -0.0340235 0.0054835 0.0340235
4069000000 0.0055347 0.0342938 0.9944653 -0.0342938 0.9944653 -0.0342938 0.0055347 0.0342938
4090000000 0.0055862 0.0345633 0.9944138 -0.0345633 0.9944138 -0.0345633 0.0055862 0.0345633
4111000000 0.0056380 0.0348320 0.9943620 -0.0348320 0.9943620 -0.0348320 0.0056380 0.0348320
4132000000 0.0056902 0.0351000 0.9943098 -0.0351000 0.9943098 -0.0351000 0.0056902 0.0351000
4153000000 0.0057426 0.0353673 0.9942574 -0.0353673 0.9942574 -0.0353673 0.0057426 0.0353673
4174000000 0.0057954 0.0356338 0.9942046 -0.0356338 0.9942046 -0.0356338 0.0057954 0.0356338
4195000000 0.0058484 0.0358995 0.9941516 -0.0358995 0.9941516 -0.0358995 0.0058484 0.0358995
4216000000 0.0059018 0.0361646 0.9940982 -0.0361646 0.9940982 -0.0361646 0.0059018 0.0361646
4237000000 0.0059555 0.0364289 0.9940445 -0.0364289 0.9940445 -0.0364289 0.0059555 0.0364289
4258000000 0.0060095 0.0366925 0.9939905 -0.0366925 0.9939905 -0.0366925 0.0060095 0.0366925
4279000000 0.0060637 0.0369554 0.9939363 -0.0369554 0.9939363 -0.0369554 0.0060637 0.0369554
4300000000 0.0061183 0.0372175 0.9938817 -0.0372175 0.9938817 -0.0372175 0.0061183 0.0372175
4321000000 0.0061732 0.0374790 0.9938268 -0.0374790 0.9938268 -0.0374790 0.0061732 0.0374790
4342000000 0.0062284 0.0377397 0.9937716 -0.0377397 0.9937716 -0.0377397 0.0062284 0.0377397
4363000000 0.0062839 0.0379997 0.9937161 -0.0379997 0.9937161 -0.0379997 0.0062839 0.0379997
4384000000 0.0063396 0.0382591 0.9936604 -0.0382591 0.9936604 -0.0382591 0.0063396 0.0382591
4405000000 0.0063957 0.0385177 0.9936043 -0.0385177 0.9936043 -0.0385177 0.0063957 0.0385177
4426000000 0.0064521 0.0387757 0.9935479 -0.0387757 0.9935479 -0.0387757 0.0064521 0.0387757
4447000000 0.0065087 0.0390329 0.9934913 -0.0390329 0.9934913 -0.0390329 0.0065087 0.0390329
4468000000 0.0065657 0.0392895 0.9934343 -0.0392895 0.9934343 -0.0392895 0.0065657 0.0392895
4489000000 0.0066229 0.0395453 0.9933771 -0.0395453 0.9933771 -0.0395453 0.0066229 0.0395453
4510000000 0.0066805 0.0398005 0.9933195 -0.0398005 0.9933195 -0.0398005 0.0066805 0.0398005
