!Murata Part Number: GRM0223C1E3R3WA03
!These Parameters are Measured in Series Mode Connection
!Data Generated on Mar 30, 2021
!       o--ll--o
!Port1            Port2
!       o------o
!Operation Temp=25[degC], DC Bias Voltage=0[V]
!Freq. Start=100[MHz] Stop=9[GHz] 401[Steps]
# Hz S RI R 50
!Freq.(Hz) S11(Real) S11(Imag) S21(Real) S21(Imag) S12(Real) S12(Imag) S22(Real) S22(Imag)
100000000 0.9586888 -0.1988108 0.0413112 0.1988108 0.0413112 0.1988108 0.9586888 -0.1988108
121000000 0.9406436 -0.2360503 0.0593564 0.2360503 0.0593564 0.2360503 0.9406436 -0.2360503
142000000 0.9200266 -0.2709695 0.0799734 0.2709695 0.0799734 0.2709695 0.9200266 -0.2709695
163000000 0.8972101 -0.3033591 0.1027899 0.3033591 0.1027899 0.3033591 0.8972101 -0.3033591
184000000 0.8725770 -0.3330783 0.1274230 0.3330783 0.1274230 0.3330783 0.8725770 -0.3330783
205000000 0.8465068 -0.3600512 0.1534932 0.3600512 0.1534932 0.3600512 0.8465068 -0.3600512
226000000 0.8193646 -0.3842612 0.1806354 0.3842612 0.1806354 0.3842612 0.8193646 -0.3842612
247000000 0.7914923 -0.4057431 0.2085077 0.4057431 0.2085077 0.4057431 0.7914923 -0.4057431
268000000 0.7632019 -0.4245745 0.2367981 0.4245745 0.2367981 0.4245745 0.7632019 -0.4245745
289000000 0.7347717 -0.4408670 0.2652283 0.4408670 0.2652283 0.4408670 0.7347717 -0.4408670
310000000 0.7064443 -0.4547576 0.2935557 0.4547576 0.2935557 0.4547576 0.7064443 -0.4547576
331000000 0.6784266 -0.4664012 0.3215734 0.4664012 0.3215734 0.4664012 0.6784266 -0.4664012
352000000 0.6508908 -0.4759630 0.3491092 0.4759630 0.3491092 0.4759630 0.6508908 -0.4759630
373000000 0.6239767 -0.4836134 0.3760233 0.4836134 0.3760233 0.4836134 0.6239767 -0.4836134
394000000 0.5977942 -0.4895228 0.4022058 0.4895228 0.4022058 0.4895228 0.5977942 -0.4895228
415000000 0.5724272 -0.4938579 0.4275728 0.4938579 0.4275728 0.4938579 0.5724272 -0.4938579
436000000 0.5479360 -0.4967792 0.4520640 0.4967792 0.4520640 0.4967792 0.5479360 -0.4967792
457000000 0.5243611 -0.4984388 0.4756389 0.4984388 0.4756389 0.4984388 0.5243611 -0.4984388
478000000 0.5017261 -0.4989792 0.4982739 0.4989792 0.4982739 0.4989792 0.5017261 -0.4989792
499000000 0.4800405 -0.4985325 0.5199595 0.4985325 0.5199595 0.4985325 0.4800405 -0.4985325
520000000 0.4593025 -0.4972200 0.5406975 0.4972200 0.5406975 0.4972200 0.4593025 -0.4972200
541000000 0.4395010 -0.4951527 0.5604990 0.4951527 0.5604990 0.4951527 0.4395010 -0.4951527
562000000 0.4206175 -0.4924309 0.5793825 0.4924309 0.5793825 0.4924309 0.4206175 -0.4924309
583000000 0.4026283 -0.4891455 0.5973717 0.4891455 0.5973717 0.4891455 0.4026283 -0.4891455
604000000 0.3855052 -0.4853776 0.6144948 0.4853776 0.6144948 0.4853776 0.3855052 -0.4853776
625000000 0.3692173 -0.4812000 0.6307827 0.4812000 0.6307827 0.4812000 0.3692173 -0.4812000
646000000 0.3537317 -0.4766773 0.6462683 0.4766773 0.6462683 0.4766773 0.3537317 -0.4766773
667000000 0.3390142 -0.4718670 0.6609858 0.4718670 0.6609858 0.4718670 0.3390142 -0.4718670
688000000 0.3250304 -0.4668199 0.6749696 0.4668199 0.6749696 0.4668199 0.3250304 -0.4668199
709000000 0.3117454 -0.4615806 0.6882546 0.4615806 0.6882546 0.4615806 0.3117454 -0.4615806
730000000 0.2991253 -0.4561884 0.7008747 0.4561884 0.7008747 0.4561884 0.2991253 -0.4561884
751000000 0.2871363 -0.4506780 0.7128637 0.4506780 0.7128637 0.4506780 0.2871363 -0.4506780
772000000 0.2757459 -0.4450793 0.7242541 0.4450793 0.7242541 0.4450793 0.2757459 -0.4450793
793000000 0.2649227 -0.4394187 0.7350773 0.4394187 0.7350773 0.4394187 0.2649227 -0.4394187
814000000 0.2546363 -0.4337191 0.7453637 0.4337191 0.7453637 0.4337191 0.2546363 -0.4337191
835000000 0.2448577 -0.4280002 0.7551423 0.4280002 0.7551423 0.4280002 0.2448577 -0.4280002
856000000 0.2355593 -0.4222792 0.7644407 0.4222792 0.7644407 0.4222792 0.2355593 -0.4222792
877000000 0.2267146 -0.4165709 0.7732854 0.4165709 0.7732854 0.4165709 0.2267146 -0.4165709
898000000 0.2182987 -0.4108877 0.7817013 0.4108877 0.7817013 0.4108877 0.2182987 -0.4108877
919000000 0.2102878 -0.4052406 0.7897122 0.4052406 0.7897122 0.4052406 0.2102878 -0.4052406
940000000 0.2026596 -0.3996388 0.7973404 0.3996388 0.7973404 0.3996388 0.2026596 -0.3996388
961000000 0.1953927 -0.3940898 0.8046073 0.3940898 0.8046073 0.3940898 0.1953927 -0.3940898
982000000 0.1884674 -0.3886004 0.8115326 0.3886004 0.8115326 0.3886004 0.1884674 -0.3886004
1003000000 0.1818646 -0.3831757 0.8181354 0.3831757 0.8181354 0.3831757 0.1818646 -0.3831757
1024000000 0.1755667 -0.3778203 0.8244333 0.3778203 0.8244333 0.3778203 0.1755667 -0.3778203
1045000000 0.1695569 -0.3725378 0.8304431 0.3725378 0.8304431 0.3725378 0.1695569 -0.3725378
1066000000 0.1638195 -0.3673310 0.8361805 0.3673310 0.8361805 0.3673310 0.1638195 -0.3673310
1087000000 0.1583397 -0.3622022 0.8416603 0.3622022 0.8416603 0.3622022 0.1583397 -0.3622022
1108000000 0.1531036 -0.3571530 0.8468964 0.3571530 0.8468964 0.3571530 0.1531036 -0.3571530
1129000000 0.1480980 -0.3521846 0.8519020 0.3521846 0.8519020 0.3521846 0.1480980 -0.3521846
1150000000 0.1433107 -0.3472977 0.8566893 0.3472977 0.8566893 0.3472977 0.1433107 -0.3472977
1171000000 0.1387301 -0.3424929 0.8612699 0.3424929 0.8612699 0.3424929 0.1387301 -0.3424929
1192000000 0.1343453 -0.3377702 0.8656547 0.3377702 0.8656547 0.3377702 0.1343453 -0.3377702
1213000000 0.1301461 -0.3331295 0.8698539 0.3331295 0.8698539 0.3331295 0.1301461 -0.3331295
1234000000 0.1261228 -0.3285703 0.8738772 0.3285703 0.8738772 0.3285703 0.1261228 -0.3285703
1255000000 0.1222663 -0.3240920 0.8777337 0.3240920 0.8777337 0.3240920 0.1222663 -0.3240920
1276000000 0.1185682 -0.3196940 0.8814318 0.3196940 0.8814318 0.3196940 0.1185682 -0.3196940
1297000000 0.1150204 -0.3153753 0.8849796 0.3153753 0.8849796 0.3153753 0.1150204 -0.3153753
1318000000 0.1116153 -0.3111350 0.8883847 0.3111350 0.8883847 0.3111350 0.1116153 -0.3111350
1339000000 0.1083459 -0.3069719 0.8916541 0.3069719 0.8916541 0.3069719 0.1083459 -0.3069719
1360000000 0.1052053 -0.3028848 0.8947947 0.3028848 0.8947947 0.3028848 0.1052053 -0.3028848
1381000000 0.1021874 -0.2988726 0.8978126 0.2988726 0.8978126 0.2988726 0.1021874 -0.2988726
1402000000 0.0992861 -0.2949338 0.9007139 0.2949338 0.9007139 0.2949338 0.0992861 -0.2949338
1423000000 0.0964958 -0.2910673 0.9035042 0.2910673 0.9035042 0.2910673 0.0964958 -0.2910673
1444000000 0.0938112 -0.2872715 0.9061888 0.2872715 0.9061888 0.2872715 0.0938112 -0.2872715
1465000000 0.0912273 -0.2835452 0.9087727 0.2835452 0.9087727 0.2835452 0.0912273 -0.2835452
1486000000 0.0887393 -0.2798869 0.9112607 0.2798869 0.9112607 0.2798869 0.0887393 -0.2798869
1507000000 0.0863429 -0.2762953 0.9136571 0.2762953 0.9136571 0.2762953 0.0863429 -0.2762953
1528000000 0.0840337 -0.2727689 0.9159663 0.2727689 0.9159663 0.2727689 0.0840337 -0.2727689
1549000000 0.0818078 -0.2693063 0.9181922 0.2693063 0.9181922 0.2693063 0.0818078 -0.2693063
1570000000 0.0796614 -0.2659061 0.9203386 0.2659061 0.9203386 0.2659061 0.0796614 -0.2659061
1591000000 0.0775909 -0.2625670 0.9224091 0.2625670 0.9224091 0.2625670 0.0775909 -0.2625670
1612000000 0.0755930 -0.2592876 0.9244070 0.2592876 0.9244070 0.2592876 0.0755930 -0.2592876
1633000000 0.0736645 -0.2560666 0.9263355 0.2560666 0.9263355 0.2560666 0.0736645 -0.2560666
1654000000 0.0718022 -0.2529025 0.9281978 0.2529025 0.9281978 0.2529025 0.0718022 -0.2529025
1675000000 0.0700034 -0.2497941 0.9299966 0.2497941 0.9299966 0.2497941 0.0700034 -0.2497941
1696000000 0.0682653 -0.2467402 0.9317347 0.2467402 0.9317347 0.2467402 0.0682653 -0.2467402
1717000000 0.0665853 -0.2437394 0.9334147 0.2437394 0.9334147 0.2437394 0.0665853 -0.2437394
1738000000 0.0649610 -0.2407905 0.9350390 0.2407905 0.9350390 0.2407905 0.0649610 -0.2407905
1759000000 0.0633900 -0.2378922 0.9366100 0.2378922 0.9366100 0.2378922 0.0633900 -0.2378922
1780000000 0.0618701 -0.2350435 0.9381299 0.2350435 0.9381299 0.2350435 0.0618701 -0.2350435
1801000000 0.0603992 -0.2322431 0.9396008 0.2322431 0.9396008 0.2322431 0.0603992 -0.2322431
1822000000 0.0589754 -0.2294899 0.9410246 0.2294899 0.9410246 0.2294899 0.0589754 -0.2294899
1843000000 0.0575967 -0.2267828 0.9424033 0.2267828 0.9424033 0.2267828 0.0575967 -0.2267828
1864000000 0.0562612 -0.2241207 0.9437388 0.2241207 0.9437388 0.2241207 0.0562612 -0.2241207
1885000000 0.0549674 -0.2215026 0.9450326 0.2215026 0.9450326 0.2215026 0.0549674 -0.2215026
1906000000 0.0537135 -0.2189273 0.9462865 0.2189273 0.9462865 0.2189273 0.0537135 -0.2189273
1927000000 0.0524980 -0.2163939 0.9475020 0.2163939 0.9475020 0.2163939 0.0524980 -0.2163939
1948000000 0.0513194 -0.2139014 0.9486806 0.2139014 0.9486806 0.2139014 0.0513194 -0.2139014
1969000000 0.0501763 -0.2114489 0.9498237 0.2114489 0.9498237 0.2114489 0.0501763 -0.2114489
1990000000 0.0490672 -0.2090354 0.9509328 0.2090354 0.9509328 0.2090354 0.0490672 -0.2090354
2011000000 0.0479911 -0.2066600 0.9520089 0.2066600 0.9520089 0.2066600 0.0479911 -0.2066600
2032000000 0.0469465 -0.2043218 0.9530535 0.2043218 0.9530535 0.2043218 0.0469465 -0.2043218
2053000000 0.0459324 -0.2020200 0.9540676 0.2020200 0.9540676 0.2020200 0.0459324 -0.2020200
2074000000 0.0449475 -0.1997536 0.9550525 0.1997536 0.9550525 0.1997536 0.0449475 -0.1997536
2095000000 0.0439909 -0.1975220 0.9560091 0.1975220 0.9560091 0.1975220 0.0439909 -0.1975220
2116000000 0.0430616 -0.1953242 0.9569384 0.1953242 0.9569384 0.1953242 0.0430616 -0.1953242
2137000000 0.0421584 -0.1931595 0.9578416 0.1931595 0.9578416 0.1931595 0.0421584 -0.1931595
2158000000 0.0412806 -0.1910272 0.9587194 0.1910272 0.9587194 0.1910272 0.0412806 -0.1910272
2179000000 0.0404272 -0.1889266 0.9595728 0.1889266 0.9595728 0.1889266 0.0404272 -0.1889266
2200000000 0.0395973 -0.1868568 0.9604027 0.1868568 0.9604027 0.1868568 0.0395973 -0.1868568
2221000000 0.0387901 -0.1848172 0.9612099 0.1848172 0.9612099 0.1848172 0.0387901 -0.1848172
2242000000 0.0380049 -0.1828071 0.9619951 0.1828071 0.9619951 0.1828071 0.0380049 -0.1828071
2263000000 0.0372409 -0.1808260 0.9627591 0.1808260 0.9627591 0.1808260 0.0372409 -0.1808260
2284000000 0.0364973 -0.1788730 0.9635027 0.1788730 0.9635027 0.1788730 0.0364973 -0.1788730
2305000000 0.0357735 -0.1769476 0.9642265 0.1769476 0.9642265 0.1769476 0.0357735 -0.1769476
2326000000 0.0350689 -0.1750492 0.9649311 0.1750492 0.9649311 0.1750492 0.0350689 -0.1750492
2347000000 0.0343827 -0.1731772 0.9656173 0.1731772 0.9656173 0.1731772 0.0343827 -0.1731772
2368000000 0.0337144 -0.1713310 0.9662856 0.1713310 0.9662856 0.1713310 0.0337144 -0.1713310
2389000000 0.0330633 -0.1695101 0.9669367 0.1695101 0.9669367 0.1695101 0.0330633 -0.1695101
2410000000 0.0324290 -0.1677138 0.9675710 0.1677138 0.9675710 0.1677138 0.0324290 -0.1677138
2431000000 0.0318109 -0.1659418 0.9681891 0.1659418 0.9681891 0.1659418 0.0318109 -0.1659418
2452000000 0.0312085 -0.1641933 0.9687915 0.1641933 0.9687915 0.1641933 0.0312085 -0.1641933
2473000000 0.0306212 -0.1624681 0.9693788 0.1624681 0.9693788 0.1624681 0.0306212 -0.1624681
2494000000 0.0300486 -0.1607655 0.9699514 0.1607655 0.9699514 0.1607655 0.0300486 -0.1607655
2515000000 0.0294903 -0.1590850 0.9705097 0.1590850 0.9705097 0.1590850 0.0294903 -0.1590850
2536000000 0.0289457 -0.1574263 0.9710543 0.1574263 0.9710543 0.1574263 0.0289457 -0.1574263
2557000000 0.0284146 -0.1557888 0.9715854 0.1557888 0.9715854 0.1557888 0.0284146 -0.1557888
2578000000 0.0278963 -0.1541721 0.9721037 0.1541721 0.9721037 0.1541721 0.0278963 -0.1541721
2599000000 0.0273907 -0.1525758 0.9726093 0.1525758 0.9726093 0.1525758 0.0273907 -0.1525758
2620000000 0.0268972 -0.1509995 0.9731028 0.1509995 0.9731028 0.1509995 0.0268972 -0.1509995
2641000000 0.0264156 -0.1494427 0.9735844 0.1494427 0.9735844 0.1494427 0.0264156 -0.1494427
2662000000 0.0259454 -0.1479051 0.9740546 0.1479051 0.9740546 0.1479051 0.0259454 -0.1479051
2683000000 0.0254863 -0.1463862 0.9745137 0.1463862 0.9745137 0.1463862 0.0254863 -0.1463862
2704000000 0.0250381 -0.1448857 0.9749619 0.1448857 0.9749619 0.1448857 0.0250381 -0.1448857
2725000000 0.0246003 -0.1434032 0.9753997 0.1434032 0.9753997 0.1434032 0.0246003 -0.1434032
2746000000 0.0241728 -0.1419384 0.9758272 0.1419384 0.9758272 0.1419384 0.0241728 -0.1419384
2767000000 0.0237551 -0.1404909 0.9762449 0.1404909 0.9762449 0.1404909 0.0237551 -0.1404909
2788000000 0.0233471 -0.1390603 0.9766529 0.1390603 0.9766529 0.1390603 0.0233471 -0.1390603
2809000000 0.0229484 -0.1376464 0.9770516 0.1376464 0.9770516 0.1376464 0.0229484 -0.1376464
2830000000 0.0225587 -0.1362488 0.9774413 0.1362488 0.9774413 0.1362488 0.0225587 -0.1362488
2851000000 0.0221779 -0.1348672 0.9778221 0.1348672 0.9778221 0.1348672 0.0221779 -0.1348672
2872000000 0.0218057 -0.1335012 0.9781943 0.1335012 0.9781943 0.1335012 0.0218057 -0.1335012
2893000000 0.0214418 -0.1321506 0.9785582 0.1321506 0.9785582 0.1321506 0.0214418 -0.1321506
2914000000 0.0210861 -0.1308151 0.9789139 0.1308151 0.9789139 0.1308151 0.0210861 -0.1308151
2935000000 0.0207382 -0.1294944 0.9792618 0.1294944 0.9792618 0.1294944 0.0207382 -0.1294944
2956000000 0.0203981 -0.1281882 0.9796019 0.1281882 0.9796019 0.1281882 0.0203981 -0.1281882
2977000000 0.0200654 -0.1268962 0.9799346 0.1268962 0.9799346 0.1268962 0.0200654 -0.1268962
2998000000 0.0197400 -0.1256182 0.9802600 0.1256182 0.9802600 0.1256182 0.0197400 -0.1256182
3019000000 0.0194217 -0.1243540 0.9805783 0.1243540 0.9805783 0.1243540 0.0194217 -0.1243540
3040000000 0.0191102 -0.1231031 0.9808898 0.1231031 0.9808898 0.1231031 0.0191102 -0.1231031
3061000000 0.0188055 -0.1218655 0.9811945 0.1218655 0.9811945 0.1218655 0.0188055 -0.1218655
3082000000 0.0185074 -0.1206409 0.9814926 0.1206409 0.9814926 0.1206409 0.0185074 -0.1206409
3103000000 0.0182156 -0.1194290 0.9817844 0.1194290 0.9817844 0.1194290 0.0182156 -0.1194290
3124000000 0.0179301 -0.1182295 0.9820699 0.1182295 0.9820699 0.1182295 0.0179301 -0.1182295
3145000000 0.0176506 -0.1170424 0.9823494 0.1170424 0.9823494 0.1170424 0.0176506 -0.1170424
3166000000 0.0173770 -0.1158673 0.9826230 0.1158673 0.9826230 0.1158673 0.0173770 -0.1158673
3187000000 0.0171091 -0.1147040 0.9828909 0.1147040 0.9828909 0.1147040 0.0171091 -0.1147040
3208000000 0.0168469 -0.1135524 0.9831531 0.1135524 0.9831531 0.1135524 0.0168469 -0.1135524
3229000000 0.0165902 -0.1124122 0.9834098 0.1124122 0.9834098 0.1124122 0.0165902 -0.1124122
3250000000 0.0163388 -0.1112832 0.9836612 0.1112832 0.9836612 0.1112832 0.0163388 -0.1112832
3271000000 0.0160926 -0.1101652 0.9839074 0.1101652 0.9839074 0.1101652 0.0160926 -0.1101652
3292000000 0.0158515 -0.1090580 0.9841485 0.1090580 0.9841485 0.1090580 0.0158515 -0.1090580
3313000000 0.0156153 -0.1079615 0.9843847 0.1079615 0.9843847 0.1079615 0.0156153 -0.1079615
3334000000 0.0153840 -0.1068755 0.9846160 0.1068755 0.9846160 0.1068755 0.0153840 -0.1068755
3355000000 0.0151574 -0.1057997 0.9848426 0.1057997 0.9848426 0.1057997 0.0151574 -0.1057997
3376000000 0.0149354 -0.1047341 0.9850646 0.1047341 0.9850646 0.1047341 0.0149354 -0.1047341
3397000000 0.0147179 -0.1036783 0.9852821 0.1036783 0.9852821 0.1036783 0.0147179 -0.1036783
3418000000 0.0145049 -0.1026323 0.9854951 0.1026323 0.9854951 0.1026323 0.0145049 -0.1026323
3439000000 0.0142961 -0.1015960 0.9857039 0.1015960 0.9857039 0.1015960 0.0142961 -0.1015960
3460000000 0.0140915 -0.1005690 0.9859085 0.1005690 0.9859085 0.1005690 0.0140915 -0.1005690
3481000000 0.0138910 -0.0995514 0.9861090 0.0995514 0.9861090 0.0995514 0.0138910 -0.0995514
3502000000 0.0136946 -0.0985429 0.9863054 0.0985429 0.9863054 0.0985429 0.0136946 -0.0985429
3523000000 0.0135020 -0.0975433 0.9864980 0.0975433 0.9864980 0.0975433 0.0135020 -0.0975433
3544000000 0.0133133 -0.0965526 0.9866867 0.0965526 0.9866867 0.0965526 0.0133133 -0.0965526
3565000000 0.0131283 -0.0955706 0.9868717 0.0955706 0.9868717 0.0955706 0.0131283 -0.0955706
3586000000 0.0129470 -0.0945971 0.9870530 0.0945971 0.9870530 0.0945971 0.0129470 -0.0945971
3607000000 0.0127692 -0.0936320 0.9872308 0.0936320 0.9872308 0.0936320 0.0127692 -0.0936320
3628000000 0.0125950 -0.0926752 0.9874050 0.0926752 0.9874050 0.0926752 0.0125950 -0.0926752
3649000000 0.0124242 -0.0917266 0.9875758 0.0917266 0.9875758 0.0917266 0.0124242 -0.0917266
3670000000 0.0122567 -0.0907859 0.9877433 0.0907859 0.9877433 0.0907859 0.0122567 -0.0907859
3691000000 0.0120925 -0.0898531 0.9879075 0.0898531 0.9879075 0.0898531 0.0120925 -0.0898531
3712000000 0.0119315 -0.0889281 0.9880685 0.0889281 0.9880685 0.0889281 0.0119315 -0.0889281
3733000000 0.0117736 -0.0880108 0.9882264 0.0880108 0.9882264 0.0880108 0.0117736 -0.0880108
3754000000 0.0116188 -0.0871009 0.9883812 0.0871009 0.9883812 0.0871009 0.0116188 -0.0871009
3775000000 0.0114670 -0.0861984 0.9885330 0.0861984 0.9885330 0.0861984 0.0114670 -0.0861984
3796000000 0.0113181 -0.0853033 0.9886819 0.0853033 0.9886819 0.0853033 0.0113181 -0.0853033
3817000000 0.0111722 -0.0844153 0.9888278 0.0844153 0.9888278 0.0844153 0.0111722 -0.0844153
3838000000 0.0110290 -0.0835344 0.9889710 0.0835344 0.9889710 0.0835344 0.0110290 -0.0835344
3859000000 0.0108886 -0.0826604 0.9891114 0.0826604 0.9891114 0.0826604 0.0108886 -0.0826604
3880000000 0.0107509 -0.0817933 0.9892491 0.0817933 0.9892491 0.0817933 0.0107509 -0.0817933
3901000000 0.0106159 -0.0809329 0.9893841 0.0809329 0.9893841 0.0809329 0.0106159 -0.0809329
3922000000 0.0104834 -0.0800792 0.9895166 0.0800792 0.9895166 0.0800792 0.0104834 -0.0800792
3943000000 0.0103535 -0.0792320 0.9896465 0.0792320 0.9896465 0.0792320 0.0103535 -0.0792320
3964000000 0.0102261 -0.0783913 0.9897739 0.0783913 0.9897739 0.0783913 0.0102261 -0.0783913
3985000000 0.0101011 -0.0775569 0.9898989 0.0775569 0.9898989 0.0775569 0.0101011 -0.0775569
4006000000 0.0099786 -0.0767288 0.9900214 0.0767288 0.9900214 0.0767288 0.0099786 -0.0767288
4027000000 0.0098583 -0.0759068 0.9901417 0.0759068 0.9901417 0.0759068 0.0098583 -0.0759068
4048000000 0.0097404 -0.0750910 0.9902596 0.0750910 0.9902596 0.0750910 0.0097404 -0.0750910
4069000000 0.0096247 -0.0742811 0.9903753 0.0742811 0.9903753 0.0742811 0.0096247 -0.0742811
4090000000 0.0095112 -0.0734771 0.9904888 0.0734771 0.9904888 0.0734771 0.0095112 -0.0734771
4111000000 0.0093999 -0.0726789 0.9906001 0.0726789 0.9906001 0.0726789 0.0093999 -0.0726789
4132000000 0.0092908 -0.0718865 0.9907092 0.0718865 0.9907092 0.0718865 0.0092908 -0.0718865
4153000000 0.0091837 -0.0710998 0.9908163 0.0710998 0.9908163 0.0710998 0.0091837 -0.0710998
4174000000 0.0090786 -0.0703186 0.9909214 0.0703186 0.9909214 0.0703186 0.0090786 -0.0703186
4195000000 0.0089756 -0.0695429 0.9910244 0.0695429 0.9910244 0.0695429 0.0089756 -0.0695429
4216000000 0.0088745 -0.0687726 0.9911255 0.0687726 0.9911255 0.0687726 0.0088745 -0.0687726
4237000000 0.0087754 -0.0680076 0.9912246 0.0680076 0.9912246 0.0680076 0.0087754 -0.0680076
4258000000 0.0086781 -0.0672479 0.9913219 0.0672479 0.9913219 0.0672479 0.0086781 -0.0672479
4279000000 0.0085828 -0.0664934 0.9914172 0.0664934 0.9914172 0.0664934 0.0085828 -0.0664934
4300000000 0.0084892 -0.0657441 0.9915108 0.0657441 0.9915108 0.0657441 0.0084892 -0.0657441
4321000000 0.0083975 -0.0649998 0.9916025 0.0649998 0.9916025 0.0649998 0.0083975 -0.0649998
4342000000 0.0083075 -0.0642604 0.9916925 0.0642604 0.9916925 0.0642604 0.0083075 -0.0642604
4363000000 0.0082192 -0.0635260 0.9917808 0.0635260 0.9917808 0.0635260 0.0082192 -0.0635260
4384000000 0.0081326 -0.0627964 0.9918674 0.0627964 0.9918674 0.0627964 0.0081326 -0.0627964
4405000000 0.0080477 -0.0620716 0.9919523 0.0620716 0.9919523 0.0620716 0.0080477 -0.0620716
4426000000 0.0079645 -0.0613515 0.9920355 0.0613515 0.9920355 0.0613515 0.0079645 -0.0613515
4447000000 0.0078828 -0.0606361 0.9921172 0.0606361 0.9921172 0.0606361 0.0078828 -0.0606361
4468000000 0.0078027 -0.0599252 0.9921973 0.0599252 0.9921973 0.0599252 0.0078027 -0.0599252
4489000000 0.0077242 -0.0592189 0.9922758 0.0592189 0.9922758 0.0592189 0.0077242 -0.0592189
4510000000 0.0076472 -0.0585171 0.9923528 0.0585171 0.9923528 0.0585171 0.0076472 -0.0585171
