!Murata Part Number: GRM0225C1C3R2BA03
!These Parameters are Measured in Series Mode Connection
!Data Generated on Mar 30, 2021
!       o--ll--o
!Port1            Port2
!       o------o
!Operation Temp=25[degC], DC Bias Voltage=0[V]
!Freq. Start=100[MHz] Stop=9[GHz] 401[Steps]
# Hz S RI R 50
!Freq.(Hz) S11(Real) S11(Imag) S21(Real) S21(Imag) S12(Real) S12(Imag) S22(Real) S22(Imag)
100000000 0.9610589 -0.1932624 0.0389411 0.1932624 0.0389411 0.1932624 0.9610589 -0.1932624
121000000 0.9439887 -0.2297105 0.0560113 0.2297105 0.0560113 0.2297105 0.9439887 -0.2297105
142000000 0.9244407 -0.2640177 0.0755593 0.2640177 0.0755593 0.2640177 0.9244407 -0.2640177
163000000 0.9027510 -0.2959813 0.0972490 0.2959813 0.0972490 0.2959813 0.9027510 -0.2959813
184000000 0.8792678 -0.3254590 0.1207322 0.3254590 0.1207322 0.3254590 0.8792678 -0.3254590
205000000 0.8543390 -0.3523675 0.1456610 0.3523675 0.1456610 0.3523675 0.8543390 -0.3523675
226000000 0.8283020 -0.3766769 0.1716980 0.3766769 0.1716980 0.3766769 0.8283020 -0.3766769
247000000 0.8014761 -0.3984052 0.1985239 0.3984052 0.1985239 0.3984052 0.8014761 -0.3984052
268000000 0.7741556 -0.4176108 0.2258444 0.4176108 0.2258444 0.4176108 0.7741556 -0.4176108
289000000 0.7466059 -0.4343847 0.2533941 0.4343847 0.2533941 0.4343847 0.7466059 -0.4343847
310000000 0.7190615 -0.4488436 0.2809385 0.4488436 0.2809385 0.4488436 0.7190615 -0.4488436
331000000 0.6917252 -0.4611223 0.3082748 0.4611223 0.3082748 0.4611223 0.6917252 -0.4611223
352000000 0.6647684 -0.4713679 0.3352316 0.4713679 0.3352316 0.4713679 0.6647684 -0.4713679
373000000 0.6383329 -0.4797340 0.3616671 0.4797340 0.3616671 0.4797340 0.6383329 -0.4797340
394000000 0.6125328 -0.4863765 0.3874672 0.4863765 0.3874672 0.4863765 0.6125328 -0.4863765
415000000 0.5874576 -0.4914496 0.4125424 0.4914496 0.4125424 0.4914496 0.5874576 -0.4914496
436000000 0.5631743 -0.4951032 0.4368257 0.4951032 0.4368257 0.4951032 0.5631743 -0.4951032
457000000 0.5397306 -0.4974810 0.4602694 0.4974810 0.4602694 0.4974810 0.5397306 -0.4974810
478000000 0.5171578 -0.4987187 0.4828422 0.4987187 0.4828422 0.4987187 0.5171578 -0.4987187
499000000 0.4954730 -0.4989430 0.5045270 0.4989430 0.5045270 0.4989430 0.4954730 -0.4989430
520000000 0.4746816 -0.4982717 0.5253184 0.4982717 0.5253184 0.4982717 0.4746816 -0.4982717
541000000 0.4547795 -0.4968130 0.5452205 0.4968130 0.5452205 0.4968130 0.4547795 -0.4968130
562000000 0.4357548 -0.4946655 0.5642452 0.4946655 0.5642452 0.4946655 0.4357548 -0.4946655
583000000 0.4175897 -0.4919192 0.5824103 0.4919192 0.5824103 0.4919192 0.4175897 -0.4919192
604000000 0.4002617 -0.4886552 0.5997383 0.4886552 0.5997383 0.4886552 0.4002617 -0.4886552
625000000 0.3837447 -0.4849465 0.6162553 0.4849465 0.6162553 0.4849465 0.3837447 -0.4849465
646000000 0.3680104 -0.4808586 0.6319896 0.4808586 0.6319896 0.4808586 0.3680104 -0.4808586
667000000 0.3530285 -0.4764499 0.6469715 0.4764499 0.6469715 0.4764499 0.3530285 -0.4764499
688000000 0.3387679 -0.4717724 0.6612321 0.4717724 0.6612321 0.4717724 0.3387679 -0.4717724
709000000 0.3251972 -0.4668723 0.6748028 0.4668723 0.6748028 0.4668723 0.3251972 -0.4668723
730000000 0.3122846 -0.4617905 0.6877154 0.4617905 0.6877154 0.4617905 0.3122846 -0.4617905
751000000 0.2999991 -0.4565629 0.7000009 0.4565629 0.7000009 0.4565629 0.2999991 -0.4565629
772000000 0.2883099 -0.4512214 0.7116901 0.4512214 0.7116901 0.4512214 0.2883099 -0.4512214
793000000 0.2771873 -0.4457939 0.7228127 0.4457939 0.7228127 0.4457939 0.2771873 -0.4457939
814000000 0.2666023 -0.4403046 0.7333977 0.4403046 0.7333977 0.4403046 0.2666023 -0.4403046
835000000 0.2565273 -0.4347751 0.7434727 0.4347751 0.7434727 0.4347751 0.2565273 -0.4347751
856000000 0.2469354 -0.4292238 0.7530646 0.4292238 0.7530646 0.4292238 0.2469354 -0.4292238
877000000 0.2378013 -0.4236668 0.7621987 0.4236668 0.7621987 0.4236668 0.2378013 -0.4236668
898000000 0.2291004 -0.4181182 0.7708996 0.4181182 0.7708996 0.4181182 0.2291004 -0.4181182
919000000 0.2208098 -0.4125900 0.7791902 0.4125900 0.7791902 0.4125900 0.2208098 -0.4125900
940000000 0.2129073 -0.4070926 0.7870927 0.4070926 0.7870927 0.4070926 0.2129073 -0.4070926
961000000 0.2053721 -0.4016347 0.7946279 0.4016347 0.7946279 0.4016347 0.2053721 -0.4016347
982000000 0.1981846 -0.3962240 0.8018154 0.3962240 0.8018154 0.3962240 0.1981846 -0.3962240
1003000000 0.1913260 -0.3908667 0.8086740 0.3908667 0.8086740 0.3908667 0.1913260 -0.3908667
1024000000 0.1847786 -0.3855683 0.8152214 0.3855683 0.8152214 0.3855683 0.1847786 -0.3855683
1045000000 0.1785259 -0.3803332 0.8214741 0.3803332 0.8214741 0.3803332 0.1785259 -0.3803332
1066000000 0.1725521 -0.3751649 0.8274479 0.3751649 0.8274479 0.3751649 0.1725521 -0.3751649
1087000000 0.1668425 -0.3700665 0.8331575 0.3700665 0.8331575 0.3700665 0.1668425 -0.3700665
1108000000 0.1613829 -0.3650403 0.8386171 0.3650403 0.8386171 0.3650403 0.1613829 -0.3650403
1129000000 0.1561604 -0.3600881 0.8438396 0.3600881 0.8438396 0.3600881 0.1561604 -0.3600881
1150000000 0.1511624 -0.3552113 0.8488376 0.3552113 0.8488376 0.3552113 0.1511624 -0.3552113
1171000000 0.1463773 -0.3504108 0.8536227 0.3504108 0.8536227 0.3504108 0.1463773 -0.3504108
1192000000 0.1417941 -0.3456871 0.8582059 0.3456871 0.8582059 0.3456871 0.1417941 -0.3456871
1213000000 0.1374024 -0.3410407 0.8625976 0.3410407 0.8625976 0.3410407 0.1374024 -0.3410407
1234000000 0.1331925 -0.3364715 0.8668075 0.3364715 0.8668075 0.3364715 0.1331925 -0.3364715
1255000000 0.1291551 -0.3319794 0.8708449 0.3319794 0.8708449 0.3319794 0.1291551 -0.3319794
1276000000 0.1252815 -0.3275638 0.8747185 0.3275638 0.8747185 0.3275638 0.1252815 -0.3275638
1297000000 0.1215636 -0.3232244 0.8784364 0.3232244 0.8784364 0.3232244 0.1215636 -0.3232244
1318000000 0.1179936 -0.3189603 0.8820064 0.3189603 0.8820064 0.3189603 0.1179936 -0.3189603
1339000000 0.1145644 -0.3147708 0.8854356 0.3147708 0.8854356 0.3147708 0.1145644 -0.3147708
1360000000 0.1112689 -0.3106548 0.8887311 0.3106548 0.8887311 0.3106548 0.1112689 -0.3106548
1381000000 0.1081008 -0.3066115 0.8918992 0.3066115 0.8918992 0.3066115 0.1081008 -0.3066115
1402000000 0.1050539 -0.3026398 0.8949461 0.3026398 0.8949461 0.3026398 0.1050539 -0.3026398
1423000000 0.1021225 -0.2987384 0.8978775 0.2987384 0.8978775 0.2987384 0.1021225 -0.2987384
1444000000 0.0993011 -0.2949063 0.9006989 0.2949063 0.9006989 0.2949063 0.0993011 -0.2949063
1465000000 0.0965845 -0.2911422 0.9034155 0.2911422 0.9034155 0.2911422 0.0965845 -0.2911422
1486000000 0.0939679 -0.2874448 0.9060321 0.2874448 0.9060321 0.2874448 0.0939679 -0.2874448
1507000000 0.0914467 -0.2838129 0.9085533 0.2838129 0.9085533 0.2838129 0.0914467 -0.2838129
1528000000 0.0890166 -0.2802453 0.9109834 0.2802453 0.9109834 0.2802453 0.0890166 -0.2802453
1549000000 0.0866733 -0.2767407 0.9133267 0.2767407 0.9133267 0.2767407 0.0866733 -0.2767407
1570000000 0.0844131 -0.2732977 0.9155869 0.2732977 0.9155869 0.2732977 0.0844131 -0.2732977
1591000000 0.0822322 -0.2699151 0.9177678 0.2699151 0.9177678 0.2699151 0.0822322 -0.2699151
1612000000 0.0801271 -0.2665916 0.9198729 0.2665916 0.9198729 0.2665916 0.0801271 -0.2665916
1633000000 0.0780945 -0.2633260 0.9219055 0.2633260 0.9219055 0.2633260 0.0780945 -0.2633260
1654000000 0.0761313 -0.2601170 0.9238687 0.2601170 0.9238687 0.2601170 0.0761313 -0.2601170
1675000000 0.0742344 -0.2569634 0.9257656 0.2569634 0.9257656 0.2569634 0.0742344 -0.2569634
1696000000 0.0724011 -0.2538639 0.9275989 0.2538639 0.9275989 0.2538639 0.0724011 -0.2538639
1717000000 0.0706287 -0.2508174 0.9293713 0.2508174 0.9293713 0.2508174 0.0706287 -0.2508174
1738000000 0.0689146 -0.2478226 0.9310854 0.2478226 0.9310854 0.2478226 0.0689146 -0.2478226
1759000000 0.0672563 -0.2448784 0.9327437 0.2448784 0.9327437 0.2448784 0.0672563 -0.2448784
1780000000 0.0656517 -0.2419837 0.9343483 0.2419837 0.9343483 0.2419837 0.0656517 -0.2419837
1801000000 0.0640985 -0.2391373 0.9359015 0.2391373 0.9359015 0.2391373 0.0640985 -0.2391373
1822000000 0.0625946 -0.2363382 0.9374054 0.2363382 0.9374054 0.2363382 0.0625946 -0.2363382
1843000000 0.0611380 -0.2335852 0.9388620 0.2335852 0.9388620 0.2335852 0.0611380 -0.2335852
1864000000 0.0597269 -0.2308773 0.9402731 0.2308773 0.9402731 0.2308773 0.0597269 -0.2308773
1885000000 0.0583594 -0.2282134 0.9416406 0.2282134 0.9416406 0.2282134 0.0583594 -0.2282134
1906000000 0.0570340 -0.2255927 0.9429660 0.2255927 0.9429660 0.2255927 0.0570340 -0.2255927
1927000000 0.0557488 -0.2230140 0.9442512 0.2230140 0.9442512 0.2230140 0.0557488 -0.2230140
1948000000 0.0545024 -0.2204764 0.9454976 0.2204764 0.9454976 0.2204764 0.0545024 -0.2204764
1969000000 0.0532933 -0.2179790 0.9467067 0.2179790 0.9467067 0.2179790 0.0532933 -0.2179790
1990000000 0.0521201 -0.2155208 0.9478799 0.2155208 0.9478799 0.2155208 0.0521201 -0.2155208
2011000000 0.0509814 -0.2131011 0.9490186 0.2131011 0.9490186 0.2131011 0.0509814 -0.2131011
2032000000 0.0498759 -0.2107188 0.9501241 0.2107188 0.9501241 0.2107188 0.0498759 -0.2107188
2053000000 0.0488025 -0.2083731 0.9511975 0.2083731 0.9511975 0.2083731 0.0488025 -0.2083731
2074000000 0.0477599 -0.2060633 0.9522401 0.2060633 0.9522401 0.2060633 0.0477599 -0.2060633
2095000000 0.0467471 -0.2037884 0.9532529 0.2037884 0.9532529 0.2037884 0.0467471 -0.2037884
2116000000 0.0457629 -0.2015478 0.9542371 0.2015478 0.9542371 0.2015478 0.0457629 -0.2015478
2137000000 0.0448063 -0.1993406 0.9551937 0.1993406 0.9551937 0.1993406 0.0448063 -0.1993406
2158000000 0.0438764 -0.1971661 0.9561236 0.1971661 0.9561236 0.1971661 0.0438764 -0.1971661
2179000000 0.0429721 -0.1950236 0.9570279 0.1950236 0.9570279 0.1950236 0.0429721 -0.1950236
2200000000 0.0420927 -0.1929123 0.9579073 0.1929123 0.9579073 0.1929123 0.0420927 -0.1929123
2221000000 0.0412373 -0.1908316 0.9587627 0.1908316 0.9587627 0.1908316 0.0412373 -0.1908316
2242000000 0.0404049 -0.1887807 0.9595951 0.1887807 0.9595951 0.1887807 0.0404049 -0.1887807
2263000000 0.0395950 -0.1867591 0.9604050 0.1867591 0.9604050 0.1867591 0.0395950 -0.1867591
2284000000 0.0388066 -0.1847661 0.9611934 0.1847661 0.9611934 0.1847661 0.0388066 -0.1847661
2305000000 0.0380390 -0.1828010 0.9619610 0.1828010 0.9619610 0.1828010 0.0380390 -0.1828010
2326000000 0.0372916 -0.1808633 0.9627084 0.1808633 0.9627084 0.1808633 0.0372916 -0.1808633
2347000000 0.0365637 -0.1789523 0.9634363 0.1789523 0.9634363 0.1789523 0.0365637 -0.1789523
2368000000 0.0358547 -0.1770675 0.9641453 0.1770675 0.9641453 0.1770675 0.0358547 -0.1770675
2389000000 0.0351639 -0.1752083 0.9648361 0.1752083 0.9648361 0.1752083 0.0351639 -0.1752083
2410000000 0.0344908 -0.1733742 0.9655092 0.1733742 0.9655092 0.1733742 0.0344908 -0.1733742
2431000000 0.0338347 -0.1715647 0.9661653 0.1715647 0.9661653 0.1715647 0.0338347 -0.1715647
2452000000 0.0331952 -0.1697791 0.9668048 0.1697791 0.9668048 0.1697791 0.0331952 -0.1697791
2473000000 0.0325717 -0.1680171 0.9674283 0.1680171 0.9674283 0.1680171 0.0325717 -0.1680171
2494000000 0.0319637 -0.1662781 0.9680363 0.1662781 0.9680363 0.1662781 0.0319637 -0.1662781
2515000000 0.0313708 -0.1645616 0.9686292 0.1645616 0.9686292 0.1645616 0.0313708 -0.1645616
2536000000 0.0307924 -0.1628672 0.9692076 0.1628672 0.9692076 0.1628672 0.0307924 -0.1628672
2557000000 0.0302282 -0.1611944 0.9697718 0.1611944 0.9697718 0.1611944 0.0302282 -0.1611944
2578000000 0.0296776 -0.1595428 0.9703224 0.1595428 0.9703224 0.1595428 0.0296776 -0.1595428
2599000000 0.0291403 -0.1579119 0.9708597 0.1579119 0.9708597 0.1579119 0.0291403 -0.1579119
2620000000 0.0286159 -0.1563013 0.9713841 0.1563013 0.9713841 0.1563013 0.0286159 -0.1563013
2641000000 0.0281040 -0.1547106 0.9718960 0.1547106 0.9718960 0.1547106 0.0281040 -0.1547106
2662000000 0.0276042 -0.1531394 0.9723958 0.1531394 0.9723958 0.1531394 0.0276042 -0.1531394
2683000000 0.0271162 -0.1515873 0.9728838 0.1515873 0.9728838 0.1515873 0.0271162 -0.1515873
2704000000 0.0266396 -0.1500540 0.9733604 0.1500540 0.9733604 0.1500540 0.0266396 -0.1500540
2725000000 0.0261740 -0.1485390 0.9738260 0.1485390 0.9738260 0.1485390 0.0261740 -0.1485390
2746000000 0.0257193 -0.1470420 0.9742807 0.1470420 0.9742807 0.1470420 0.0257193 -0.1470420
2767000000 0.0252750 -0.1455626 0.9747250 0.1455626 0.9747250 0.1455626 0.0252750 -0.1455626
2788000000 0.0248409 -0.1441005 0.9751591 0.1441005 0.9751591 0.1441005 0.0248409 -0.1441005
2809000000 0.0244167 -0.1426554 0.9755833 0.1426554 0.9755833 0.1426554 0.0244167 -0.1426554
2830000000 0.0240021 -0.1412269 0.9759979 0.1412269 0.9759979 0.1412269 0.0240021 -0.1412269
2851000000 0.0235968 -0.1398147 0.9764032 0.1398147 0.9764032 0.1398147 0.0235968 -0.1398147
2872000000 0.0232006 -0.1384184 0.9767994 0.1384184 0.9767994 0.1384184 0.0232006 -0.1384184
2893000000 0.0228132 -0.1370379 0.9771868 0.1370379 0.9771868 0.1370379 0.0228132 -0.1370379
2914000000 0.0224344 -0.1356728 0.9775656 0.1356728 0.9775656 0.1356728 0.0224344 -0.1356728
2935000000 0.0220640 -0.1343227 0.9779360 0.1343227 0.9779360 0.1343227 0.0220640 -0.1343227
2956000000 0.0217017 -0.1329875 0.9782983 0.1329875 0.9782983 0.1329875 0.0217017 -0.1329875
2977000000 0.0213473 -0.1316668 0.9786527 0.1316668 0.9786527 0.1316668 0.0213473 -0.1316668
2998000000 0.0210006 -0.1303604 0.9789994 0.1303604 0.9789994 0.1303604 0.0210006 -0.1303604
3019000000 0.0206614 -0.1290679 0.9793386 0.1290679 0.9793386 0.1290679 0.0206614 -0.1290679
3040000000 0.0203296 -0.1277893 0.9796704 0.1277893 0.9796704 0.1277893 0.0203296 -0.1277893
3061000000 0.0200048 -0.1265241 0.9799952 0.1265241 0.9799952 0.1265241 0.0200048 -0.1265241
3082000000 0.0196870 -0.1252721 0.9803130 0.1252721 0.9803130 0.1252721 0.0196870 -0.1252721
3103000000 0.0193759 -0.1240332 0.9806241 0.1240332 0.9806241 0.1240332 0.0193759 -0.1240332
3124000000 0.0190714 -0.1228070 0.9809286 0.1228070 0.9809286 0.1228070 0.0190714 -0.1228070
3145000000 0.0187733 -0.1215934 0.9812267 0.1215934 0.9812267 0.1215934 0.0187733 -0.1215934
3166000000 0.0184815 -0.1203921 0.9815185 0.1203921 0.9815185 0.1203921 0.0184815 -0.1203921
3187000000 0.0181958 -0.1192029 0.9818042 0.1192029 0.9818042 0.1192029 0.0181958 -0.1192029
3208000000 0.0179160 -0.1180256 0.9820840 0.1180256 0.9820840 0.1180256 0.0179160 -0.1180256
3229000000 0.0176420 -0.1168600 0.9823580 0.1168600 0.9823580 0.1168600 0.0176420 -0.1168600
3250000000 0.0173737 -0.1157058 0.9826263 0.1157058 0.9826263 0.1157058 0.0173737 -0.1157058
3271000000 0.0171108 -0.1145629 0.9828892 0.1145629 0.9828892 0.1145629 0.0171108 -0.1145629
3292000000 0.0168534 -0.1134311 0.9831466 0.1134311 0.9831466 0.1134311 0.0168534 -0.1134311
3313000000 0.0166012 -0.1123102 0.9833988 0.1123102 0.9833988 0.1123102 0.0166012 -0.1123102
3334000000 0.0163542 -0.1112000 0.9836458 0.1112000 0.9836458 0.1112000 0.0163542 -0.1112000
3355000000 0.0161121 -0.1101003 0.9838879 0.1101003 0.9838879 0.1101003 0.0161121 -0.1101003
3376000000 0.0158750 -0.1090109 0.9841250 0.1090109 0.9841250 0.1090109 0.0158750 -0.1090109
3397000000 0.0156426 -0.1079317 0.9843574 0.1079317 0.9843574 0.1079317 0.0156426 -0.1079317
3418000000 0.0154148 -0.1068625 0.9845852 0.1068625 0.9845852 0.1068625 0.0154148 -0.1068625
3439000000 0.0151916 -0.1058031 0.9848084 0.1058031 0.9848084 0.1058031 0.0151916 -0.1058031
3460000000 0.0149729 -0.1047534 0.9850271 0.1047534 0.9850271 0.1047534 0.0149729 -0.1047534
3481000000 0.0147585 -0.1037132 0.9852415 0.1037132 0.9852415 0.1037132 0.0147585 -0.1037132
3502000000 0.0145484 -0.1026823 0.9854516 0.1026823 0.9854516 0.1026823 0.0145484 -0.1026823
3523000000 0.0143424 -0.1016606 0.9856576 0.1016606 0.9856576 0.1016606 0.0143424 -0.1016606
3544000000 0.0141404 -0.1006480 0.9858596 0.1006480 0.9858596 0.1006480 0.0141404 -0.1006480
3565000000 0.0139424 -0.0996443 0.9860576 0.0996443 0.9860576 0.0996443 0.0139424 -0.0996443
3586000000 0.0137483 -0.0986493 0.9862517 0.0986493 0.9862517 0.0986493 0.0137483 -0.0986493
3607000000 0.0135580 -0.0976629 0.9864420 0.0976629 0.9864420 0.0976629 0.0135580 -0.0976629
3628000000 0.0133714 -0.0966850 0.9866286 0.0966850 0.9866286 0.0966850 0.0133714 -0.0966850
3649000000 0.0131884 -0.0957155 0.9868116 0.0957155 0.9868116 0.0957155 0.0131884 -0.0957155
3670000000 0.0130090 -0.0947542 0.9869910 0.0947542 0.9869910 0.0947542 0.0130090 -0.0947542
3691000000 0.0128330 -0.0938009 0.9871670 0.0938009 0.9871670 0.0938009 0.0128330 -0.0938009
3712000000 0.0126605 -0.0928556 0.9873395 0.0928556 0.9873395 0.0928556 0.0126605 -0.0928556
3733000000 0.0124912 -0.0919181 0.9875088 0.0919181 0.9875088 0.0919181 0.0124912 -0.0919181
3754000000 0.0123252 -0.0909883 0.9876748 0.0909883 0.9876748 0.0909883 0.0123252 -0.0909883
3775000000 0.0121624 -0.0900661 0.9878376 0.0900661 0.9878376 0.0900661 0.0121624 -0.0900661
3796000000 0.0120027 -0.0891514 0.9879973 0.0891514 0.9879973 0.0891514 0.0120027 -0.0891514
3817000000 0.0118461 -0.0882440 0.9881539 0.0882440 0.9881539 0.0882440 0.0118461 -0.0882440
3838000000 0.0116924 -0.0873439 0.9883076 0.0873439 0.9883076 0.0873439 0.0116924 -0.0873439
3859000000 0.0115417 -0.0864509 0.9884583 0.0864509 0.9884583 0.0864509 0.0115417 -0.0864509
3880000000 0.0113938 -0.0855649 0.9886062 0.0855649 0.9886062 0.0855649 0.0113938 -0.0855649
3901000000 0.0112488 -0.0846859 0.9887512 0.0846859 0.9887512 0.0846859 0.0112488 -0.0846859
3922000000 0.0111064 -0.0838137 0.9888936 0.0838137 0.9888936 0.0838137 0.0111064 -0.0838137
3943000000 0.0109668 -0.0829482 0.9890332 0.0829482 0.9890332 0.0829482 0.0109668 -0.0829482
3964000000 0.0108298 -0.0820892 0.9891702 0.0820892 0.9891702 0.0820892 0.0108298 -0.0820892
3985000000 0.0106955 -0.0812369 0.9893045 0.0812369 0.9893045 0.0812369 0.0106955 -0.0812369
4006000000 0.0105636 -0.0803909 0.9894364 0.0803909 0.9894364 0.0803909 0.0105636 -0.0803909
4027000000 0.0104342 -0.0795513 0.9895658 0.0795513 0.9895658 0.0795513 0.0104342 -0.0795513
4048000000 0.0103073 -0.0787179 0.9896927 0.0787179 0.9896927 0.0787179 0.0103073 -0.0787179
4069000000 0.0101828 -0.0778906 0.9898172 0.0778906 0.9898172 0.0778906 0.0101828 -0.0778906
4090000000 0.0100606 -0.0770694 0.9899394 0.0770694 0.9899394 0.0770694 0.0100606 -0.0770694
4111000000 0.0099407 -0.0762542 0.9900593 0.0762542 0.9900593 0.0762542 0.0099407 -0.0762542
4132000000 0.0098230 -0.0754449 0.9901770 0.0754449 0.9901770 0.0754449 0.0098230 -0.0754449
4153000000 0.0097076 -0.0746413 0.9902924 0.0746413 0.9902924 0.0746413 0.0097076 -0.0746413
4174000000 0.0095943 -0.0738435 0.9904057 0.0738435 0.9904057 0.0738435 0.0095943 -0.0738435
4195000000 0.0094832 -0.0730513 0.9905168 0.0730513 0.9905168 0.0730513 0.0094832 -0.0730513
4216000000 0.0093741 -0.0722647 0.9906259 0.0722647 0.9906259 0.0722647 0.0093741 -0.0722647
4237000000 0.0092671 -0.0714836 0.9907329 0.0714836 0.9907329 0.0714836 0.0092671 -0.0714836
4258000000 0.0091621 -0.0707078 0.9908379 0.0707078 0.9908379 0.0707078 0.0091621 -0.0707078
4279000000 0.0090591 -0.0699374 0.9909409 0.0699374 0.9909409 0.0699374 0.0090591 -0.0699374
4300000000 0.0089580 -0.0691723 0.9910420 0.0691723 0.9910420 0.0691723 0.0089580 -0.0691723
4321000000 0.0088588 -0.0684123 0.9911412 0.0684123 0.9911412 0.0684123 0.0088588 -0.0684123
4342000000 0.0087615 -0.0676574 0.9912385 0.0676574 0.9912385 0.0676574 0.0087615 -0.0676574
4363000000 0.0086660 -0.0669076 0.9913340 0.0669076 0.9913340 0.0669076 0.0086660 -0.0669076
4384000000 0.0085723 -0.0661628 0.9914277 0.0661628 0.9914277 0.0661628 0.0085723 -0.0661628
4405000000 0.0084803 -0.0654229 0.9915197 0.0654229 0.9915197 0.0654229 0.0084803 -0.0654229
4426000000 0.0083901 -0.0646878 0.9916099 0.0646878 0.9916099 0.0646878 0.0083901 -0.0646878
4447000000 0.0083017 -0.0639575 0.9916983 0.0639575 0.9916983 0.0639575 0.0083017 -0.0639575
4468000000 0.0082148 -0.0632319 0.9917852 0.0632319 0.9917852 0.0632319 0.0082148 -0.0632319
4489000000 0.0081297 -0.0625109 0.9918703 0.0625109 0.9918703 0.0625109 0.0081297 -0.0625109
4510000000 0.0080461 -0.0617946 0.9919539 0.0617946 0.9919539 0.0617946 0.0080461 -0.0617946
