!Murata Part Number: GRM0225C1C4R8WA03
!These Parameters are Measured in Series Mode Connection
!Data Generated on Mar 30, 2021
!       o--ll--o
!Port1            Port2
!       o------o
!Operation Temp=25[degC], DC Bias Voltage=0[V]
!Freq. Start=100[MHz] Stop=9[GHz] 401[Steps]
# Hz S RI R 50
!Freq.(Hz) S11(Real) S11(Imag) S21(Real) S21(Imag) S12(Real) S12(Imag) S22(Real) S22(Imag)
100000000 0.9164606 -0.2764539 0.0835394 0.2764539 0.0835394 0.2764539 0.9164606 -0.2764539
121000000 0.8822283 -0.3220444 0.1177717 0.3220444 0.1177717 0.3220444 0.8822283 -0.3220444
142000000 0.8446607 -0.3618831 0.1553393 0.3618831 0.1553393 0.3618831 0.8446607 -0.3618831
163000000 0.8048868 -0.3958910 0.1951132 0.3958910 0.1951132 0.3958910 0.8048868 -0.3958910
184000000 0.7639300 -0.4242166 0.2360700 0.4242166 0.2360700 0.4242166 0.7639300 -0.4242166
205000000 0.7226707 -0.4471785 0.2773293 0.4471785 0.2773293 0.4471785 0.7226707 -0.4471785
226000000 0.6818311 -0.4652103 0.3181689 0.4652103 0.3181689 0.4652103 0.6818311 -0.4652103
247000000 0.6419750 -0.4788105 0.3580250 0.4788105 0.3580250 0.4788105 0.6419750 -0.4788105
268000000 0.6035207 -0.4885027 0.3964793 0.4885027 0.3964793 0.4885027 0.6035207 -0.4885027
289000000 0.5667583 -0.4948048 0.4332417 0.4948048 0.4332417 0.4948048 0.5667583 -0.4948048
310000000 0.5318717 -0.4982090 0.4681283 0.4982090 0.4681283 0.4982090 0.5318717 -0.4982090
331000000 0.4989590 -0.4991683 0.5010410 0.4991683 0.5010410 0.4991683 0.4989590 -0.4991683
352000000 0.4680518 -0.4980905 0.5319482 0.4980905 0.5319482 0.4980905 0.4680518 -0.4980905
373000000 0.4391324 -0.4953355 0.5608676 0.4953355 0.5608676 0.4953355 0.4391324 -0.4953355
394000000 0.4121473 -0.4912168 0.5878527 0.4912168 0.5878527 0.4912168 0.4121473 -0.4912168
415000000 0.3870187 -0.4860037 0.6129813 0.4860037 0.6129813 0.4860037 0.3870187 -0.4860037
436000000 0.3636531 -0.4799256 0.6363469 0.4799256 0.6363469 0.4799256 0.3636531 -0.4799256
457000000 0.3419485 -0.4731761 0.6580515 0.4731761 0.6580515 0.4731761 0.3419485 -0.4731761
478000000 0.3217988 -0.4659174 0.6782012 0.4659174 0.6782012 0.4659174 0.3217988 -0.4659174
499000000 0.3030978 -0.4582848 0.6969022 0.4582848 0.6969022 0.4582848 0.3030978 -0.4582848
520000000 0.2857414 -0.4503899 0.7142586 0.4503899 0.7142586 0.4503899 0.2857414 -0.4503899
541000000 0.2696296 -0.4423249 0.7303704 0.4423249 0.7303704 0.4423249 0.2696296 -0.4423249
562000000 0.2546675 -0.4341650 0.7453325 0.4341650 0.7453325 0.4341650 0.2546675 -0.4341650
583000000 0.2407657 -0.4259714 0.7592343 0.4259714 0.7592343 0.4259714 0.2407657 -0.4259714
604000000 0.2278410 -0.4177936 0.7721590 0.4177936 0.7721590 0.4177936 0.2278410 -0.4177936
625000000 0.2158158 -0.4096712 0.7841842 0.4096712 0.7841842 0.4096712 0.2158158 -0.4096712
646000000 0.2046188 -0.4016357 0.7953812 0.4016357 0.7953812 0.4016357 0.2046188 -0.4016357
667000000 0.1941839 -0.3937116 0.8058161 0.3937116 0.8058161 0.3937116 0.1941839 -0.3937116
688000000 0.1844507 -0.3859181 0.8155493 0.3859181 0.8155493 0.3859181 0.1844507 -0.3859181
709000000 0.1753636 -0.3782697 0.8246364 0.3782697 0.8246364 0.3782697 0.1753636 -0.3782697
730000000 0.1668716 -0.3707770 0.8331284 0.3707770 0.8331284 0.3707770 0.1668716 -0.3707770
751000000 0.1589283 -0.3634476 0.8410717 0.3634476 0.8410717 0.3634476 0.1589283 -0.3634476
772000000 0.1514911 -0.3562866 0.8485089 0.3562866 0.8485089 0.3562866 0.1514911 -0.3562866
793000000 0.1445210 -0.3492970 0.8554790 0.3492970 0.8554790 0.3492970 0.1445210 -0.3492970
814000000 0.1379824 -0.3424801 0.8620176 0.3424801 0.8620176 0.3424801 0.1379824 -0.3424801
835000000 0.1318427 -0.3358357 0.8681573 0.3358357 0.8681573 0.3358357 0.1318427 -0.3358357
856000000 0.1260722 -0.3293629 0.8739278 0.3293629 0.8739278 0.3293629 0.1260722 -0.3293629
877000000 0.1206436 -0.3230597 0.8793564 0.3230597 0.8793564 0.3230597 0.1206436 -0.3230597
898000000 0.1155319 -0.3169233 0.8844681 0.3169233 0.8844681 0.3169233 0.1155319 -0.3169233
919000000 0.1107143 -0.3109508 0.8892857 0.3109508 0.8892857 0.3109508 0.1107143 -0.3109508
940000000 0.1061699 -0.3051385 0.8938301 0.3051385 0.8938301 0.3051385 0.1061699 -0.3051385
961000000 0.1018793 -0.2994826 0.8981207 0.2994826 0.8981207 0.2994826 0.1018793 -0.2994826
982000000 0.0978250 -0.2939791 0.9021750 0.2939791 0.9021750 0.2939791 0.0978250 -0.2939791
1003000000 0.0939906 -0.2886238 0.9060094 0.2886238 0.9060094 0.2886238 0.0939906 -0.2886238
1024000000 0.0903614 -0.2834125 0.9096386 0.2834125 0.9096386 0.2834125 0.0903614 -0.2834125
1045000000 0.0869235 -0.2783408 0.9130765 0.2783408 0.9130765 0.2783408 0.0869235 -0.2783408
1066000000 0.0836644 -0.2734045 0.9163356 0.2734045 0.9163356 0.2734045 0.0836644 -0.2734045
1087000000 0.0805723 -0.2685993 0.9194277 0.2685993 0.9194277 0.2685993 0.0805723 -0.2685993
1108000000 0.0776365 -0.2639209 0.9223635 0.2639209 0.9223635 0.2639209 0.0776365 -0.2639209
1129000000 0.0748470 -0.2593654 0.9251530 0.2593654 0.9251530 0.2593654 0.0748470 -0.2593654
1150000000 0.0721947 -0.2549285 0.9278053 0.2549285 0.9278053 0.2549285 0.0721947 -0.2549285
1171000000 0.0696710 -0.2506064 0.9303290 0.2506064 0.9303290 0.2506064 0.0696710 -0.2506064
1192000000 0.0672682 -0.2463952 0.9327318 0.2463952 0.9327318 0.2463952 0.0672682 -0.2463952
1213000000 0.0649787 -0.2422912 0.9350213 0.2422912 0.9350213 0.2422912 0.0649787 -0.2422912
1234000000 0.0627960 -0.2382906 0.9372040 0.2382906 0.9372040 0.2382906 0.0627960 -0.2382906
1255000000 0.0607137 -0.2343901 0.9392863 0.2343901 0.9392863 0.2343901 0.0607137 -0.2343901
1276000000 0.0587259 -0.2305861 0.9412741 0.2305861 0.9412741 0.2305861 0.0587259 -0.2305861
1297000000 0.0568273 -0.2268755 0.9431727 0.2268755 0.9431727 0.2268755 0.0568273 -0.2268755
1318000000 0.0550126 -0.2232550 0.9449874 0.2232550 0.9449874 0.2232550 0.0550126 -0.2232550
1339000000 0.0532774 -0.2197215 0.9467226 0.2197215 0.9467226 0.2197215 0.0532774 -0.2197215
1360000000 0.0516170 -0.2162722 0.9483830 0.2162722 0.9483830 0.2162722 0.0516170 -0.2162722
1381000000 0.0500275 -0.2129042 0.9499725 0.2129042 0.9499725 0.2129042 0.0500275 -0.2129042
1402000000 0.0485050 -0.2096147 0.9514950 0.2096147 0.9514950 0.2096147 0.0485050 -0.2096147
1423000000 0.0470458 -0.2064011 0.9529542 0.2064011 0.9529542 0.2064011 0.0470458 -0.2064011
1444000000 0.0456468 -0.2032609 0.9543532 0.2032609 0.9543532 0.2032609 0.0456468 -0.2032609
1465000000 0.0443046 -0.2001916 0.9556954 0.2001916 0.9556954 0.2001916 0.0443046 -0.2001916
1486000000 0.0430164 -0.1971910 0.9569836 0.1971910 0.9569836 0.1971910 0.0430164 -0.1971910
1507000000 0.0417794 -0.1942566 0.9582206 0.1942566 0.9582206 0.1942566 0.0417794 -0.1942566
1528000000 0.0405911 -0.1913865 0.9594089 0.1913865 0.9594089 0.1913865 0.0405911 -0.1913865
1549000000 0.0394489 -0.1885784 0.9605511 0.1885784 0.9605511 0.1885784 0.0394489 -0.1885784
1570000000 0.0383507 -0.1858304 0.9616493 0.1858304 0.9616493 0.1858304 0.0383507 -0.1858304
1591000000 0.0372942 -0.1831406 0.9627058 0.1831406 0.9627058 0.1831406 0.0372942 -0.1831406
1612000000 0.0362775 -0.1805071 0.9637225 0.1805071 0.9637225 0.1805071 0.0362775 -0.1805071
1633000000 0.0352987 -0.1779281 0.9647013 0.1779281 0.9647013 0.1779281 0.0352987 -0.1779281
1654000000 0.0343559 -0.1754019 0.9656441 0.1754019 0.9656441 0.1754019 0.0343559 -0.1754019
1675000000 0.0334475 -0.1729268 0.9665525 0.1729268 0.9665525 0.1729268 0.0334475 -0.1729268
1696000000 0.0325719 -0.1705014 0.9674281 0.1705014 0.9674281 0.1705014 0.0325719 -0.1705014
1717000000 0.0317276 -0.1681239 0.9682724 0.1681239 0.9682724 0.1681239 0.0317276 -0.1681239
1738000000 0.0309132 -0.1657931 0.9690868 0.1657931 0.9690868 0.1657931 0.0309132 -0.1657931
1759000000 0.0301273 -0.1635074 0.9698727 0.1635074 0.9698727 0.1635074 0.0301273 -0.1635074
1780000000 0.0293687 -0.1612655 0.9706313 0.1612655 0.9706313 0.1612655 0.0293687 -0.1612655
1801000000 0.0286361 -0.1590661 0.9713639 0.1590661 0.9713639 0.1590661 0.0286361 -0.1590661
1822000000 0.0279285 -0.1569079 0.9720715 0.1569079 0.9720715 0.1569079 0.0279285 -0.1569079
1843000000 0.0272447 -0.1547898 0.9727553 0.1547898 0.9727553 0.1547898 0.0272447 -0.1547898
1864000000 0.0265838 -0.1527105 0.9734162 0.1527105 0.9734162 0.1527105 0.0265838 -0.1527105
1885000000 0.0259448 -0.1506689 0.9740552 0.1506689 0.9740552 0.1506689 0.0259448 -0.1506689
1906000000 0.0253267 -0.1486639 0.9746733 0.1486639 0.9746733 0.1486639 0.0253267 -0.1486639
1927000000 0.0247288 -0.1466946 0.9752712 0.1466946 0.9752712 0.1466946 0.0247288 -0.1466946
1948000000 0.0241501 -0.1447598 0.9758499 0.1447598 0.9758499 0.1447598 0.0241501 -0.1447598
1969000000 0.0235900 -0.1428586 0.9764100 0.1428586 0.9764100 0.1428586 0.0235900 -0.1428586
1990000000 0.0230476 -0.1409900 0.9769524 0.1409900 0.9769524 0.1409900 0.0230476 -0.1409900
2011000000 0.0225222 -0.1391532 0.9774778 0.1391532 0.9774778 0.1391532 0.0225222 -0.1391532
2032000000 0.0220132 -0.1373473 0.9779868 0.1373473 0.9779868 0.1373473 0.0220132 -0.1373473
2053000000 0.0215200 -0.1355715 0.9784800 0.1355715 0.9784800 0.1355715 0.0215200 -0.1355715
2074000000 0.0210419 -0.1338248 0.9789581 0.1338248 0.9789581 0.1338248 0.0210419 -0.1338248
2095000000 0.0205783 -0.1321066 0.9794217 0.1321066 0.9794217 0.1321066 0.0205783 -0.1321066
2116000000 0.0201287 -0.1304161 0.9798713 0.1304161 0.9798713 0.1304161 0.0201287 -0.1304161
2137000000 0.0196926 -0.1287525 0.9803074 0.1287525 0.9803074 0.1287525 0.0196926 -0.1287525
2158000000 0.0192695 -0.1271152 0.9807305 0.1271152 0.9807305 0.1271152 0.0192695 -0.1271152
2179000000 0.0188589 -0.1255033 0.9811411 0.1255033 0.9811411 0.1255033 0.0188589 -0.1255033
2200000000 0.0184603 -0.1239164 0.9815397 0.1239164 0.9815397 0.1239164 0.0184603 -0.1239164
2221000000 0.0180733 -0.1223537 0.9819267 0.1223537 0.9819267 0.1223537 0.0180733 -0.1223537
2242000000 0.0176974 -0.1208147 0.9823026 0.1208147 0.9823026 0.1208147 0.0176974 -0.1208147
2263000000 0.0173324 -0.1192987 0.9826676 0.1192987 0.9826676 0.1192987 0.0173324 -0.1192987
2284000000 0.0169777 -0.1178051 0.9830223 0.1178051 0.9830223 0.1178051 0.0169777 -0.1178051
2305000000 0.0166331 -0.1163334 0.9833669 0.1163334 0.9833669 0.1163334 0.0166331 -0.1163334
2326000000 0.0162982 -0.1148830 0.9837018 0.1148830 0.9837018 0.1148830 0.0162982 -0.1148830
2347000000 0.0159726 -0.1134535 0.9840274 0.1134535 0.9840274 0.1134535 0.0159726 -0.1134535
2368000000 0.0156560 -0.1120442 0.9843440 0.1120442 0.9843440 0.1120442 0.0156560 -0.1120442
2389000000 0.0153482 -0.1106548 0.9846518 0.1106548 0.9846518 0.1106548 0.0153482 -0.1106548
2410000000 0.0150488 -0.1092847 0.9849512 0.1092847 0.9849512 0.1092847 0.0150488 -0.1092847
2431000000 0.0147576 -0.1079335 0.9852424 0.1079335 0.9852424 0.1079335 0.0147576 -0.1079335
2452000000 0.0144742 -0.1066007 0.9855258 0.1066007 0.9855258 0.1066007 0.0144742 -0.1066007
2473000000 0.0141985 -0.1052859 0.9858015 0.1052859 0.9858015 0.1052859 0.0141985 -0.1052859
2494000000 0.0139301 -0.1039887 0.9860699 0.1039887 0.9860699 0.1039887 0.0139301 -0.1039887
2515000000 0.0136689 -0.1027086 0.9863311 0.1027086 0.9863311 0.1027086 0.0136689 -0.1027086
2536000000 0.0134146 -0.1014453 0.9865854 0.1014453 0.9865854 0.1014453 0.0134146 -0.1014453
2557000000 0.0131670 -0.1001984 0.9868330 0.1001984 0.9868330 0.1001984 0.0131670 -0.1001984
2578000000 0.0129259 -0.0989675 0.9870741 0.0989675 0.9870741 0.0989675 0.0129259 -0.0989675
2599000000 0.0126910 -0.0977522 0.9873090 0.0977522 0.9873090 0.0977522 0.0126910 -0.0977522
2620000000 0.0124623 -0.0965522 0.9875377 0.0965522 0.9875377 0.0965522 0.0124623 -0.0965522
2641000000 0.0122394 -0.0953671 0.9877606 0.0953671 0.9877606 0.0953671 0.0122394 -0.0953671
2662000000 0.0120223 -0.0941967 0.9879777 0.0941967 0.9879777 0.0941967 0.0120223 -0.0941967
2683000000 0.0118107 -0.0930406 0.9881893 0.0930406 0.9881893 0.0930406 0.0118107 -0.0930406
2704000000 0.0116044 -0.0918984 0.9883956 0.0918984 0.9883956 0.0918984 0.0116044 -0.0918984
2725000000 0.0114034 -0.0907699 0.9885966 0.0907699 0.9885966 0.0907699 0.0114034 -0.0907699
2746000000 0.0112075 -0.0896548 0.9887925 0.0896548 0.9887925 0.0896548 0.0112075 -0.0896548
2767000000 0.0110165 -0.0885528 0.9889835 0.0885528 0.9889835 0.0885528 0.0110165 -0.0885528
2788000000 0.0108303 -0.0874637 0.9891697 0.0874637 0.9891697 0.0874637 0.0108303 -0.0874637
2809000000 0.0106487 -0.0863870 0.9893513 0.0863870 0.9893513 0.0863870 0.0106487 -0.0863870
2830000000 0.0104716 -0.0853227 0.9895284 0.0853227 0.9895284 0.0853227 0.0104716 -0.0853227
2851000000 0.0102988 -0.0842704 0.9897012 0.0842704 0.9897012 0.0842704 0.0102988 -0.0842704
2872000000 0.0101304 -0.0832298 0.9898696 0.0832298 0.9898696 0.0832298 0.0101304 -0.0832298
2893000000 0.0099660 -0.0822008 0.9900340 0.0822008 0.9900340 0.0822008 0.0099660 -0.0822008
2914000000 0.0098057 -0.0811831 0.9901943 0.0811831 0.9901943 0.0811831 0.0098057 -0.0811831
2935000000 0.0096493 -0.0801764 0.9903507 0.0801764 0.9903507 0.0801764 0.0096493 -0.0801764
2956000000 0.0094967 -0.0791806 0.9905033 0.0791806 0.9905033 0.0791806 0.0094967 -0.0791806
2977000000 0.0093478 -0.0781955 0.9906522 0.0781955 0.9906522 0.0781955 0.0093478 -0.0781955
2998000000 0.0092025 -0.0772207 0.9907975 0.0772207 0.9907975 0.0772207 0.0092025 -0.0772207
3019000000 0.0090607 -0.0762561 0.9909393 0.0762561 0.9909393 0.0762561 0.0090607 -0.0762561
3040000000 0.0089223 -0.0753016 0.9910777 0.0753016 0.9910777 0.0753016 0.0089223 -0.0753016
3061000000 0.0087872 -0.0743568 0.9912128 0.0743568 0.9912128 0.0743568 0.0087872 -0.0743568
3082000000 0.0086554 -0.0734217 0.9913446 0.0734217 0.9913446 0.0734217 0.0086554 -0.0734217
3103000000 0.0085267 -0.0724960 0.9914733 0.0724960 0.9914733 0.0724960 0.0085267 -0.0724960
3124000000 0.0084010 -0.0715796 0.9915990 0.0715796 0.9915990 0.0715796 0.0084010 -0.0715796
3145000000 0.0082784 -0.0706722 0.9917216 0.0706722 0.9917216 0.0706722 0.0082784 -0.0706722
3166000000 0.0081587 -0.0697737 0.9918413 0.0697737 0.9918413 0.0697737 0.0081587 -0.0697737
3187000000 0.0080418 -0.0688840 0.9919582 0.0688840 0.9919582 0.0688840 0.0080418 -0.0688840
3208000000 0.0079277 -0.0680028 0.9920723 0.0680028 0.9920723 0.0680028 0.0079277 -0.0680028
3229000000 0.0078163 -0.0671301 0.9921837 0.0671301 0.9921837 0.0671301 0.0078163 -0.0671301
3250000000 0.0077075 -0.0662655 0.9922925 0.0662655 0.9922925 0.0662655 0.0077075 -0.0662655
3271000000 0.0076013 -0.0654091 0.9923987 0.0654091 0.9923987 0.0654091 0.0076013 -0.0654091
3292000000 0.0074976 -0.0645607 0.9925024 0.0645607 0.9925024 0.0645607 0.0074976 -0.0645607
3313000000 0.0073963 -0.0637200 0.9926037 0.0637200 0.9926037 0.0637200 0.0073963 -0.0637200
3334000000 0.0072974 -0.0628870 0.9927026 0.0628870 0.9927026 0.0628870 0.0072974 -0.0628870
3355000000 0.0072009 -0.0620616 0.9927991 0.0620616 0.9927991 0.0620616 0.0072009 -0.0620616
3376000000 0.0071066 -0.0612435 0.9928934 0.0612435 0.9928934 0.0612435 0.0071066 -0.0612435
3397000000 0.0070145 -0.0604327 0.9929855 0.0604327 0.9929855 0.0604327 0.0070145 -0.0604327
3418000000 0.0069247 -0.0596291 0.9930753 0.0596291 0.9930753 0.0596291 0.0069247 -0.0596291
3439000000 0.0068369 -0.0588324 0.9931631 0.0588324 0.9931631 0.0588324 0.0068369 -0.0588324
3460000000 0.0067512 -0.0580426 0.9932488 0.0580426 0.9932488 0.0580426 0.0067512 -0.0580426
3481000000 0.0066675 -0.0572596 0.9933325 0.0572596 0.9933325 0.0572596 0.0066675 -0.0572596
3502000000 0.0065859 -0.0564832 0.9934141 0.0564832 0.9934141 0.0564832 0.0065859 -0.0564832
3523000000 0.0065061 -0.0557134 0.9934939 0.0557134 0.9934939 0.0557134 0.0065061 -0.0557134
3544000000 0.0064282 -0.0549500 0.9935718 0.0549500 0.9935718 0.0549500 0.0064282 -0.0549500
3565000000 0.0063522 -0.0541929 0.9936478 0.0541929 0.9936478 0.0541929 0.0063522 -0.0541929
3586000000 0.0062780 -0.0534420 0.9937220 0.0534420 0.9937220 0.0534420 0.0062780 -0.0534420
3607000000 0.0062055 -0.0526972 0.9937945 0.0526972 0.9937945 0.0526972 0.0062055 -0.0526972
3628000000 0.0061348 -0.0519584 0.9938652 0.0519584 0.9938652 0.0519584 0.0061348 -0.0519584
3649000000 0.0060658 -0.0512255 0.9939342 0.0512255 0.9939342 0.0512255 0.0060658 -0.0512255
3670000000 0.0059984 -0.0504984 0.9940016 0.0504984 0.9940016 0.0504984 0.0059984 -0.0504984
3691000000 0.0059327 -0.0497770 0.9940673 0.0497770 0.9940673 0.0497770 0.0059327 -0.0497770
3712000000 0.0058685 -0.0490612 0.9941315 0.0490612 0.9941315 0.0490612 0.0058685 -0.0490612
3733000000 0.0058059 -0.0483509 0.9941941 0.0483509 0.9941941 0.0483509 0.0058059 -0.0483509
3754000000 0.0057448 -0.0476461 0.9942552 0.0476461 0.9942552 0.0476461 0.0057448 -0.0476461
3775000000 0.0056851 -0.0469466 0.9943149 0.0469466 0.9943149 0.0469466 0.0056851 -0.0469466
3796000000 0.0056270 -0.0462524 0.9943730 0.0462524 0.9943730 0.0462524 0.0056270 -0.0462524
3817000000 0.0055703 -0.0455633 0.9944297 0.0455633 0.9944297 0.0455633 0.0055703 -0.0455633
3838000000 0.0055149 -0.0448794 0.9944851 0.0448794 0.9944851 0.0448794 0.0055149 -0.0448794
3859000000 0.0054610 -0.0442004 0.9945390 0.0442004 0.9945390 0.0442004 0.0054610 -0.0442004
3880000000 0.0054083 -0.0435264 0.9945917 0.0435264 0.9945917 0.0435264 0.0054083 -0.0435264
3901000000 0.0053570 -0.0428572 0.9946430 0.0428572 0.9946430 0.0428572 0.0053570 -0.0428572
3922000000 0.0053070 -0.0421928 0.9946930 0.0421928 0.9946930 0.0421928 0.0053070 -0.0421928
3943000000 0.0052583 -0.0415332 0.9947417 0.0415332 0.9947417 0.0415332 0.0052583 -0.0415332
3964000000 0.0052108 -0.0408781 0.9947892 0.0408781 0.9947892 0.0408781 0.0052108 -0.0408781
3985000000 0.0051645 -0.0402276 0.9948355 0.0402276 0.9948355 0.0402276 0.0051645 -0.0402276
4006000000 0.0051194 -0.0395816 0.9948806 0.0395816 0.9948806 0.0395816 0.0051194 -0.0395816
4027000000 0.0050754 -0.0389401 0.9949246 0.0389401 0.9949246 0.0389401 0.0050754 -0.0389401
4048000000 0.0050326 -0.0383029 0.9949674 0.0383029 0.9949674 0.0383029 0.0050326 -0.0383029
4069000000 0.0049910 -0.0376699 0.9950090 0.0376699 0.9950090 0.0376699 0.0049910 -0.0376699
4090000000 0.0049504 -0.0370413 0.9950496 0.0370413 0.9950496 0.0370413 0.0049504 -0.0370413
4111000000 0.0049109 -0.0364167 0.9950891 0.0364167 0.9950891 0.0364167 0.0049109 -0.0364167
4132000000 0.0048725 -0.0357963 0.9951275 0.0357963 0.9951275 0.0357963 0.0048725 -0.0357963
4153000000 0.0048351 -0.0351800 0.9951649 0.0351800 0.9951649 0.0351800 0.0048351 -0.0351800
4174000000 0.0047988 -0.0345676 0.9952012 0.0345676 0.9952012 0.0345676 0.0047988 -0.0345676
4195000000 0.0047635 -0.0339591 0.9952365 0.0339591 0.9952365 0.0339591 0.0047635 -0.0339591
4216000000 0.0047291 -0.0333546 0.9952709 0.0333546 0.9952709 0.0333546 0.0047291 -0.0333546
4237000000 0.0046957 -0.0327538 0.9953043 0.0327538 0.9953043 0.0327538 0.0046957 -0.0327538
4258000000 0.0046633 -0.0321568 0.9953367 0.0321568 0.9953367 0.0321568 0.0046633 -0.0321568
4279000000 0.0046318 -0.0315635 0.9953682 0.0315635 0.9953682 0.0315635 0.0046318 -0.0315635
4300000000 0.0046012 -0.0309738 0.9953988 0.0309738 0.9953988 0.0309738 0.0046012 -0.0309738
4321000000 0.0045715 -0.0303878 0.9954285 0.0303878 0.9954285 0.0303878 0.0045715 -0.0303878
4342000000 0.0045428 -0.0298053 0.9954572 0.0298053 0.9954572 0.0298053 0.0045428 -0.0298053
4363000000 0.0045148 -0.0292263 0.9954852 0.0292263 0.9954852 0.0292263 0.0045148 -0.0292263
4384000000 0.0044878 -0.0286508 0.9955122 0.0286508 0.9955122 0.0286508 0.0044878 -0.0286508
4405000000 0.0044616 -0.0280786 0.9955384 0.0280786 0.9955384 0.0280786 0.0044616 -0.0280786
4426000000 0.0044362 -0.0275099 0.9955638 0.0275099 0.9955638 0.0275099 0.0044362 -0.0275099
4447000000 0.0044116 -0.0269444 0.9955884 0.0269444 0.9955884 0.0269444 0.0044116 -0.0269444
4468000000 0.0043878 -0.0263822 0.9956122 0.0263822 0.9956122 0.0263822 0.0043878 -0.0263822
4489000000 0.0043649 -0.0258232 0.9956351 0.0258232 0.9956351 0.0258232 0.0043649 -0.0258232
4510000000 0.0043427 -0.0252675 0.9956573 0.0252675 0.9956573 0.0252675 0.0043427 -0.0252675
