!Murata Part Number: GRM0225C1HR30BA03
!These Parameters are Measured in Series Mode Connection
!Data Generated on Mar 30, 2021
!       o--ll--o
!Port1            Port2
!       o------o
!Operation Temp=25[degC], DC Bias Voltage=0[V]
!Freq. Start=100[MHz] Stop=20[GHz] 401[Steps]
# Hz S RI R 50
!Freq.(Hz) S11(Real) S11(Imag) S21(Real) S21(Imag) S12(Real) S12(Imag) S22(Real) S22(Imag)
100000000 0.9996421 -0.0188433 0.0003579 0.0188433 0.0003579 0.0188433 0.9996421 -0.0188433
149750000 0.9991977 -0.0282063 0.0008023 0.0282063 0.0008023 0.0282063 0.9991977 -0.0282063
199500000 0.9985768 -0.0375555 0.0014232 0.0375555 0.0014232 0.0375555 0.9985768 -0.0375555
249250000 0.9977800 -0.0468862 0.0022200 0.0468862 0.0022200 0.0468862 0.9977800 -0.0468862
299000000 0.9968080 -0.0561941 0.0031920 0.0561941 0.0031920 0.0561941 0.9968080 -0.0561941
348750000 0.9956616 -0.0654746 0.0043384 0.0654746 0.0043384 0.0654746 0.9956616 -0.0654746
398500000 0.9943419 -0.0747231 0.0056581 0.0747231 0.0056581 0.0747231 0.9943419 -0.0747231
448250000 0.9928499 -0.0839354 0.0071501 0.0839354 0.0071501 0.0839354 0.9928499 -0.0839354
498000000 0.9911871 -0.0931071 0.0088129 0.0931071 0.0088129 0.0931071 0.9911871 -0.0931071
547750000 0.9893548 -0.1022338 0.0106452 0.1022338 0.0106452 0.1022338 0.9893548 -0.1022338
597500000 0.9873548 -0.1113114 0.0126452 0.1113114 0.0126452 0.1113114 0.9873548 -0.1113114
647250000 0.9851886 -0.1203356 0.0148114 0.1203356 0.0148114 0.1203356 0.9851886 -0.1203356
697000000 0.9828581 -0.1293023 0.0171419 0.1293023 0.0171419 0.1293023 0.9828581 -0.1293023
746750000 0.9803654 -0.1382076 0.0196346 0.1382076 0.0196346 0.1382076 0.9803654 -0.1382076
796500000 0.9777126 -0.1470475 0.0222874 0.1470475 0.0222874 0.1470475 0.9777126 -0.1470475
846250000 0.9749020 -0.1558182 0.0250980 0.1558182 0.0250980 0.1558182 0.9749020 -0.1558182
896000000 0.9719358 -0.1645160 0.0280642 0.1645160 0.0280642 0.1645160 0.9719358 -0.1645160
945750000 0.9688165 -0.1731371 0.0311835 0.1731371 0.0311835 0.1731371 0.9688165 -0.1731371
995500000 0.9655468 -0.1816781 0.0344532 0.1816781 0.0344532 0.1816781 0.9655468 -0.1816781
1045250000 0.9621293 -0.1901356 0.0378707 0.1901356 0.0378707 0.1901356 0.9621293 -0.1901356
1095000000 0.9585668 -0.1985062 0.0414332 0.1985062 0.0414332 0.1985062 0.9585668 -0.1985062
1144750000 0.9548622 -0.2067867 0.0451378 0.2067867 0.0451378 0.2067867 0.9548622 -0.2067867
1194500000 0.9510184 -0.2149740 0.0489816 0.2149740 0.0489816 0.2149740 0.9510184 -0.2149740
1244250000 0.9470385 -0.2230652 0.0529615 0.2230652 0.0529615 0.2230652 0.9470385 -0.2230652
1294000000 0.9429255 -0.2310573 0.0570745 0.2310573 0.0570745 0.2310573 0.9429255 -0.2310573
1343750000 0.9386827 -0.2389478 0.0613173 0.2389478 0.0613173 0.2389478 0.9386827 -0.2389478
1393500000 0.9343133 -0.2467339 0.0656867 0.2467339 0.0656867 0.2467339 0.9343133 -0.2467339
1443250000 0.9298206 -0.2544132 0.0701794 0.2544132 0.0701794 0.2544132 0.9298206 -0.2544132
1493000000 0.9252080 -0.2619833 0.0747920 0.2619833 0.0747920 0.2619833 0.9252080 -0.2619833
1542750000 0.9204788 -0.2694421 0.0795212 0.2694421 0.0795212 0.2694421 0.9204788 -0.2694421
1592500000 0.9156366 -0.2767873 0.0843634 0.2767873 0.0843634 0.2767873 0.9156366 -0.2767873
1642250000 0.9106847 -0.2840171 0.0893153 0.2840171 0.0893153 0.2840171 0.9106847 -0.2840171
1692000000 0.9056267 -0.2911297 0.0943733 0.2911297 0.0943733 0.2911297 0.9056267 -0.2911297
1741750000 0.9004662 -0.2981232 0.0995338 0.2981232 0.0995338 0.2981232 0.9004662 -0.2981232
1791500000 0.8952067 -0.3049962 0.1047933 0.3049962 0.1047933 0.3049962 0.8952067 -0.3049962
1841250000 0.8898518 -0.3117471 0.1101482 0.3117471 0.1101482 0.3117471 0.8898518 -0.3117471
1891000000 0.8844050 -0.3183746 0.1155950 0.3183746 0.1155950 0.3183746 0.8844050 -0.3183746
1940750000 0.8788699 -0.3248776 0.1211301 0.3248776 0.1211301 0.3248776 0.8788699 -0.3248776
1990500000 0.8732501 -0.3312549 0.1267499 0.3312549 0.1267499 0.3312549 0.8732501 -0.3312549
2040250000 0.8675492 -0.3375056 0.1324508 0.3375056 0.1324508 0.3375056 0.8675492 -0.3375056
2090000000 0.8617708 -0.3436289 0.1382292 0.3436289 0.1382292 0.3436289 0.8617708 -0.3436289
2139750000 0.8559183 -0.3496239 0.1440817 0.3496239 0.1440817 0.3496239 0.8559183 -0.3496239
2189500000 0.8499955 -0.3554901 0.1500045 0.3554901 0.1500045 0.3554901 0.8499955 -0.3554901
2239250000 0.8440056 -0.3612270 0.1559944 0.3612270 0.1559944 0.3612270 0.8440056 -0.3612270
2289000000 0.8379523 -0.3668342 0.1620477 0.3668342 0.1620477 0.3668342 0.8379523 -0.3668342
2338750000 0.8318390 -0.3723115 0.1681610 0.3723115 0.1681610 0.3723115 0.8318390 -0.3723115
2388500000 0.8256692 -0.3776586 0.1743308 0.3776586 0.1743308 0.3776586 0.8256692 -0.3776586
2438250000 0.8194461 -0.3828754 0.1805539 0.3828754 0.1805539 0.3828754 0.8194461 -0.3828754
2488000000 0.8131732 -0.3879621 0.1868268 0.3879621 0.1868268 0.3879621 0.8131732 -0.3879621
2537750000 0.8068537 -0.3929186 0.1931463 0.3929186 0.1931463 0.3929186 0.8068537 -0.3929186
2587500000 0.8004910 -0.3977453 0.1995090 0.3977453 0.1995090 0.3977453 0.8004910 -0.3977453
2637250000 0.7940882 -0.4024424 0.2059118 0.4024424 0.2059118 0.4024424 0.7940882 -0.4024424
2687000000 0.7876485 -0.4070104 0.2123515 0.4070104 0.2123515 0.4070104 0.7876485 -0.4070104
2736750000 0.7811750 -0.4114496 0.2188250 0.4114496 0.2188250 0.4114496 0.7811750 -0.4114496
2786500000 0.7746707 -0.4157607 0.2253293 0.4157607 0.2253293 0.4157607 0.7746707 -0.4157607
2836250000 0.7681387 -0.4199443 0.2318613 0.4199443 0.2318613 0.4199443 0.7681387 -0.4199443
2886000000 0.7615819 -0.4240010 0.2384181 0.4240010 0.2384181 0.4240010 0.7615819 -0.4240010
2935750000 0.7550031 -0.4279317 0.2449969 0.4279317 0.2449969 0.4279317 0.7550031 -0.4279317
2985500000 0.7484052 -0.4317373 0.2515948 0.4317373 0.2515948 0.4317373 0.7484052 -0.4317373
3035250000 0.7417910 -0.4354185 0.2582090 0.4354185 0.2582090 0.4354185 0.7417910 -0.4354185
3085000000 0.7351630 -0.4389764 0.2648370 0.4389764 0.2648370 0.4389764 0.7351630 -0.4389764
3134750000 0.7285241 -0.4424120 0.2714759 0.4424120 0.2714759 0.4424120 0.7285241 -0.4424120
3184500000 0.7218766 -0.4457264 0.2781234 0.4457264 0.2781234 0.4457264 0.7218766 -0.4457264
3234250000 0.7152231 -0.4489208 0.2847769 0.4489208 0.2847769 0.4489208 0.7152231 -0.4489208
3284000000 0.7085661 -0.4519962 0.2914339 0.4519962 0.2914339 0.4519962 0.7085661 -0.4519962
3333750000 0.7019080 -0.4549539 0.2980920 0.4549539 0.2980920 0.4549539 0.7019080 -0.4549539
3383500000 0.6952509 -0.4577952 0.3047491 0.4577952 0.3047491 0.4577952 0.6952509 -0.4577952
3433250000 0.6885971 -0.4605215 0.3114029 0.4605215 0.3114029 0.4605215 0.6885971 -0.4605215
3483000000 0.6819489 -0.4631339 0.3180511 0.4631339 0.3180511 0.4631339 0.6819489 -0.4631339
3532750000 0.6753083 -0.4656340 0.3246917 0.4656340 0.3246917 0.4656340 0.6753083 -0.4656340
3582500000 0.6686773 -0.4680231 0.3313227 0.4680231 0.3313227 0.4680231 0.6686773 -0.4680231
3632250000 0.6620578 -0.4703027 0.3379422 0.4703027 0.3379422 0.4703027 0.6620578 -0.4703027
3682000000 0.6554519 -0.4724742 0.3445481 0.4724742 0.3445481 0.4724742 0.6554519 -0.4724742
3731750000 0.6488614 -0.4745391 0.3511386 0.4745391 0.3511386 0.4745391 0.6488614 -0.4745391
3781500000 0.6422879 -0.4764990 0.3577121 0.4764990 0.3577121 0.4764990 0.6422879 -0.4764990
3831250000 0.6357333 -0.4783552 0.3642667 0.4783552 0.3642667 0.4783552 0.6357333 -0.4783552
3881000000 0.6291991 -0.4801095 0.3708009 0.4801095 0.3708009 0.4801095 0.6291991 -0.4801095
3930750000 0.6226869 -0.4817633 0.3773131 0.4817633 0.3773131 0.4817633 0.6226869 -0.4817633
3980500000 0.6161984 -0.4833182 0.3838016 0.4833182 0.3838016 0.4833182 0.6161984 -0.4833182
4030250000 0.6097348 -0.4847758 0.3902652 0.4847758 0.3902652 0.4847758 0.6097348 -0.4847758
4080000000 0.6032976 -0.4861377 0.3967024 0.4861377 0.3967024 0.4861377 0.6032976 -0.4861377
4129750000 0.5968882 -0.4874055 0.4031118 0.4874055 0.4031118 0.4874055 0.5968882 -0.4874055
4179500000 0.5905079 -0.4885807 0.4094921 0.4885807 0.4094921 0.4885807 0.5905079 -0.4885807
4229250000 0.5841578 -0.4896650 0.4158422 0.4896650 0.4158422 0.4896650 0.5841578 -0.4896650
4279000000 0.5778392 -0.4906599 0.4221608 0.4906599 0.4221608 0.4906599 0.5778392 -0.4906599
4328750000 0.5715531 -0.4915671 0.4284469 0.4915671 0.4284469 0.4915671 0.5715531 -0.4915671
4378500000 0.5653007 -0.4923882 0.4346993 0.4923882 0.4346993 0.4923882 0.5653007 -0.4923882
4428250000 0.5590828 -0.4931248 0.4409172 0.4931248 0.4409172 0.4931248 0.5590828 -0.4931248
4478000000 0.5529006 -0.4937784 0.4470994 0.4937784 0.4470994 0.4937784 0.5529006 -0.4937784
4527750000 0.5467549 -0.4943506 0.4532451 0.4943506 0.4532451 0.4943506 0.5467549 -0.4943506
4577500000 0.5406465 -0.4948431 0.4593535 0.4948431 0.4593535 0.4948431 0.5406465 -0.4948431
4627250000 0.5345763 -0.4952574 0.4654237 0.4952574 0.4654237 0.4952574 0.5345763 -0.4952574
4677000000 0.5285451 -0.4955950 0.4714549 0.4955950 0.4714549 0.4955950 0.5285451 -0.4955950
4726750000 0.5225535 -0.4958575 0.4774465 0.4958575 0.4774465 0.4958575 0.5225535 -0.4958575
4776500000 0.5166023 -0.4960464 0.4833977 0.4960464 0.4833977 0.4960464 0.5166023 -0.4960464
4826250000 0.5106920 -0.4961633 0.4893080 0.4961633 0.4893080 0.4961633 0.5106920 -0.4961633
4876000000 0.5048234 -0.4962097 0.4951766 0.4962097 0.4951766 0.4962097 0.5048234 -0.4962097
4925750000 0.4989968 -0.4961871 0.5010032 0.4961871 0.5010032 0.4961871 0.4989968 -0.4961871
4975500000 0.4932130 -0.4960969 0.5067870 0.4960969 0.5067870 0.4960969 0.4932130 -0.4960969
5025250000 0.4874722 -0.4959407 0.5125278 0.4959407 0.5125278 0.4959407 0.4874722 -0.4959407
5075000000 0.4817750 -0.4957198 0.5182250 0.4957198 0.5182250 0.4957198 0.4817750 -0.4957198
5124750000 0.4761218 -0.4954358 0.5238782 0.4954358 0.5238782 0.4954358 0.4761218 -0.4954358
5174500000 0.4705130 -0.4950901 0.5294870 0.4950901 0.5294870 0.4950901 0.4705130 -0.4950901
5224250000 0.4649488 -0.4946840 0.5350512 0.4946840 0.5350512 0.4946840 0.4649488 -0.4946840
5274000000 0.4594296 -0.4942189 0.5405704 0.4942189 0.5405704 0.4942189 0.4594296 -0.4942189
5323750000 0.4539557 -0.4936963 0.5460443 0.4936963 0.5460443 0.4936963 0.4539557 -0.4936963
5373500000 0.4485273 -0.4931174 0.5514727 0.4931174 0.5514727 0.4931174 0.4485273 -0.4931174
5423250000 0.4431446 -0.4924837 0.5568554 0.4924837 0.5568554 0.4924837 0.4431446 -0.4924837
5473000000 0.4378079 -0.4917963 0.5621921 0.4917963 0.5621921 0.4917963 0.4378079 -0.4917963
5522750000 0.4325172 -0.4910567 0.5674828 0.4910567 0.5674828 0.4910567 0.4325172 -0.4910567
5572500000 0.4272727 -0.4902661 0.5727273 0.4902661 0.5727273 0.4902661 0.4272727 -0.4902661
5622250000 0.4220746 -0.4894257 0.5779254 0.4894257 0.5779254 0.4894257 0.4220746 -0.4894257
5672000000 0.4169228 -0.4885368 0.5830772 0.4885368 0.5830772 0.4885368 0.4169228 -0.4885368
5721750000 0.4118176 -0.4876006 0.5881824 0.4876006 0.5881824 0.4876006 0.4118176 -0.4876006
5771500000 0.4067588 -0.4866183 0.5932412 0.4866183 0.5932412 0.4866183 0.4067588 -0.4866183
5821250000 0.4017466 -0.4855911 0.5982534 0.4855911 0.5982534 0.4855911 0.4017466 -0.4855911
5871000000 0.3967810 -0.4845201 0.6032190 0.4845201 0.6032190 0.4845201 0.3967810 -0.4845201
5920750000 0.3918618 -0.4834065 0.6081382 0.4834065 0.6081382 0.4834065 0.3918618 -0.4834065
5970500000 0.3869891 -0.4822513 0.6130109 0.4822513 0.6130109 0.4822513 0.3869891 -0.4822513
6020250000 0.3821629 -0.4810558 0.6178371 0.4810558 0.6178371 0.4810558 0.3821629 -0.4810558
6070000000 0.3773830 -0.4798210 0.6226170 0.4798210 0.6226170 0.4798210 0.3773830 -0.4798210
6119750000 0.3726494 -0.4785479 0.6273506 0.4785479 0.6273506 0.4785479 0.3726494 -0.4785479
6169500000 0.3679619 -0.4772375 0.6320381 0.4772375 0.6320381 0.4772375 0.3679619 -0.4772375
6219250000 0.3633205 -0.4758910 0.6366795 0.4758910 0.6366795 0.4758910 0.3633205 -0.4758910
6269000000 0.3587250 -0.4745093 0.6412750 0.4745093 0.6412750 0.4745093 0.3587250 -0.4745093
6318750000 0.3541752 -0.4730933 0.6458248 0.4730933 0.6458248 0.4730933 0.3541752 -0.4730933
6368500000 0.3496710 -0.4716441 0.6503290 0.4716441 0.6503290 0.4716441 0.3496710 -0.4716441
6418250000 0.3452123 -0.4701626 0.6547877 0.4701626 0.6547877 0.4701626 0.3452123 -0.4701626
6468000000 0.3407988 -0.4686497 0.6592012 0.4686497 0.6592012 0.4686497 0.3407988 -0.4686497
6517750000 0.3364304 -0.4671063 0.6635696 0.4671063 0.6635696 0.4671063 0.3364304 -0.4671063
6567500000 0.3321068 -0.4655334 0.6678932 0.4655334 0.6678932 0.4655334 0.3321068 -0.4655334
6617250000 0.3278279 -0.4639317 0.6721721 0.4639317 0.6721721 0.4639317 0.3278279 -0.4639317
6667000000 0.3235933 -0.4623022 0.6764067 0.4623022 0.6764067 0.4623022 0.3235933 -0.4623022
6716750000 0.3194030 -0.4606456 0.6805970 0.4606456 0.6805970 0.4606456 0.3194030 -0.4606456
6766500000 0.3152565 -0.4589629 0.6847435 0.4589629 0.6847435 0.4589629 0.3152565 -0.4589629
6816250000 0.3111538 -0.4572547 0.6888462 0.4572547 0.6888462 0.4572547 0.3111538 -0.4572547
6866000000 0.3070945 -0.4555220 0.6929055 0.4555220 0.6929055 0.4555220 0.3070945 -0.4555220
6915750000 0.3030783 -0.4537654 0.6969217 0.4537654 0.6969217 0.4537654 0.3030783 -0.4537654
6965500000 0.2991051 -0.4519856 0.7008949 0.4519856 0.7008949 0.4519856 0.2991051 -0.4519856
7015250000 0.2951745 -0.4501836 0.7048255 0.4501836 0.7048255 0.4501836 0.2951745 -0.4501836
7065000000 0.2912863 -0.4483599 0.7087137 0.4483599 0.7087137 0.4483599 0.2912863 -0.4483599
7114750000 0.2874401 -0.4465152 0.7125599 0.4465152 0.7125599 0.4465152 0.2874401 -0.4465152
7164500000 0.2836357 -0.4446503 0.7163643 0.4446503 0.7163643 0.4446503 0.2836357 -0.4446503
7214250000 0.2798727 -0.4427658 0.7201273 0.4427658 0.7201273 0.4427658 0.2798727 -0.4427658
7264000000 0.2761510 -0.4408624 0.7238490 0.4408624 0.7238490 0.4408624 0.2761510 -0.4408624
7313750000 0.2724701 -0.4389407 0.7275299 0.4389407 0.7275299 0.4389407 0.2724701 -0.4389407
7363500000 0.2688298 -0.4370014 0.7311702 0.4370014 0.7311702 0.4370014 0.2688298 -0.4370014
7413250000 0.2652297 -0.4350450 0.7347703 0.4350450 0.7347703 0.4350450 0.2652297 -0.4350450
7463000000 0.2616697 -0.4330722 0.7383303 0.4330722 0.7383303 0.4330722 0.2616697 -0.4330722
7512750000 0.2581492 -0.4310835 0.7418508 0.4310835 0.7418508 0.4310835 0.2581492 -0.4310835
7562500000 0.2546681 -0.4290796 0.7453319 0.4290796 0.7453319 0.4290796 0.2546681 -0.4290796
7612250000 0.2512260 -0.4270609 0.7487740 0.4270609 0.7487740 0.4270609 0.2512260 -0.4270609
7662000000 0.2478225 -0.4250280 0.7521775 0.4250280 0.7521775 0.4250280 0.2478225 -0.4250280
7711750000 0.2444575 -0.4229815 0.7555425 0.4229815 0.7555425 0.4229815 0.2444575 -0.4229815
7761500000 0.2411305 -0.4209219 0.7588695 0.4209219 0.7588695 0.4209219 0.2411305 -0.4209219
7811250000 0.2378411 -0.4188496 0.7621589 0.4188496 0.7621589 0.4188496 0.2378411 -0.4188496
7861000000 0.2345892 -0.4167652 0.7654108 0.4167652 0.7654108 0.4167652 0.2345892 -0.4167652
7910750000 0.2313744 -0.4146692 0.7686256 0.4146692 0.7686256 0.4146692 0.2313744 -0.4146692
7960500000 0.2281963 -0.4125620 0.7718037 0.4125620 0.7718037 0.4125620 0.2281963 -0.4125620
8010250000 0.2250546 -0.4104441 0.7749454 0.4104441 0.7749454 0.4104441 0.2250546 -0.4104441
8060000000 0.2219490 -0.4083160 0.7780510 0.4083160 0.7780510 0.4083160 0.2219490 -0.4083160
8109750000 0.2188792 -0.4061780 0.7811208 0.4061780 0.7811208 0.4061780 0.2188792 -0.4061780
8159500000 0.2158448 -0.4040306 0.7841552 0.4040306 0.7841552 0.4040306 0.2158448 -0.4040306
8209250000 0.2128455 -0.4018743 0.7871545 0.4018743 0.7871545 0.4018743 0.2128455 -0.4018743
8259000000 0.2098810 -0.3997094 0.7901190 0.3997094 0.7901190 0.3997094 0.2098810 -0.3997094
8308750000 0.2069510 -0.3975363 0.7930490 0.3975363 0.7930490 0.3975363 0.2069510 -0.3975363
8358500000 0.2040551 -0.3953554 0.7959449 0.3953554 0.7959449 0.3953554 0.2040551 -0.3953554
8408250000 0.2011930 -0.3931671 0.7988070 0.3931671 0.7988070 0.3931671 0.2011930 -0.3931671
8458000000 0.1983644 -0.3909718 0.8016356 0.3909718 0.8016356 0.3909718 0.1983644 -0.3909718
8507750000 0.1955690 -0.3887698 0.8044310 0.3887698 0.8044310 0.3887698 0.1955690 -0.3887698
8557500000 0.1928065 -0.3865614 0.8071935 0.3865614 0.8071935 0.3865614 0.1928065 -0.3865614
8607250000 0.1900765 -0.3843471 0.8099235 0.3843471 0.8099235 0.3843471 0.1900765 -0.3843471
8657000000 0.1873787 -0.3821271 0.8126213 0.3821271 0.8126213 0.3821271 0.1873787 -0.3821271
8706750000 0.1847129 -0.3799017 0.8152871 0.3799017 0.8152871 0.3799017 0.1847129 -0.3799017
8756500000 0.1820786 -0.3776713 0.8179214 0.3776713 0.8179214 0.3776713 0.1820786 -0.3776713
8806250000 0.1794756 -0.3754362 0.8205244 0.3754362 0.8205244 0.3754362 0.1794756 -0.3754362
8856000000 0.1769036 -0.3731967 0.8230964 0.3731967 0.8230964 0.3731967 0.1769036 -0.3731967
8905750000 0.1743623 -0.3709531 0.8256377 0.3709531 0.8256377 0.3709531 0.1743623 -0.3709531
8955500000 0.1718513 -0.3687055 0.8281487 0.3687055 0.8281487 0.3687055 0.1718513 -0.3687055
9005250000 0.1693703 -0.3664545 0.8306297 0.3664545 0.8306297 0.3664545 0.1693703 -0.3664545
9055000000 0.1669191 -0.3642001 0.8330809 0.3642001 0.8330809 0.3642001 0.1669191 -0.3642001
9104750000 0.1644974 -0.3619427 0.8355026 0.3619427 0.8355026 0.3619427 0.1644974 -0.3619427
9154500000 0.1621048 -0.3596824 0.8378952 0.3596824 0.8378952 0.3596824 0.1621048 -0.3596824
9204250000 0.1597411 -0.3574197 0.8402589 0.3574197 0.8402589 0.3574197 0.1597411 -0.3574197
9254000000 0.1574060 -0.3551546 0.8425940 0.3551546 0.8425940 0.3551546 0.1574060 -0.3551546
9303750000 0.1550991 -0.3528875 0.8449009 0.3528875 0.8449009 0.3528875 0.1550991 -0.3528875
9353500000 0.1528202 -0.3506185 0.8471798 0.3506185 0.8471798 0.3506185 0.1528202 -0.3506185
9403250000 0.1505690 -0.3483479 0.8494310 0.3483479 0.8494310 0.3483479 0.1505690 -0.3483479
9453000000 0.1483452 -0.3460760 0.8516548 0.3460760 0.8516548 0.3460760 0.1483452 -0.3460760
9502750000 0.1461485 -0.3438028 0.8538515 0.3438028 0.8538515 0.3438028 0.1461485 -0.3438028
9552500000 0.1439786 -0.3415286 0.8560214 0.3415286 0.8560214 0.3415286 0.1439786 -0.3415286
9602250000 0.1418354 -0.3392537 0.8581646 0.3392537 0.8581646 0.3392537 0.1418354 -0.3392537
9652000000 0.1397184 -0.3369781 0.8602816 0.3369781 0.8602816 0.3369781 0.1397184 -0.3369781
9701750000 0.1376275 -0.3347022 0.8623725 0.3347022 0.8623725 0.3347022 0.1376275 -0.3347022
9751500000 0.1355622 -0.3324260 0.8644378 0.3324260 0.8644378 0.3324260 0.1355622 -0.3324260
9801250000 0.1335225 -0.3301498 0.8664775 0.3301498 0.8664775 0.3301498 0.1335225 -0.3301498
9851000000 0.1315080 -0.3278737 0.8684920 0.3278737 0.8684920 0.3278737 0.1315080 -0.3278737
9900750000 0.1295184 -0.3255979 0.8704816 0.3255979 0.8704816 0.3255979 0.1295184 -0.3255979
9950500000 0.1275536 -0.3233226 0.8724464 0.3233226 0.8724464 0.3233226 0.1275536 -0.3233226
10000250000 0.1256131 -0.3210479 0.8743869 0.3210479 0.8743869 0.3210479 0.1256131 -0.3210479
10050000000 0.1236968 -0.3187739 0.8763032 0.3187739 0.8763032 0.3187739 0.1236968 -0.3187739
10099750000 0.1218045 -0.3165009 0.8781955 0.3165009 0.8781955 0.3165009 0.1218045 -0.3165009
10149500000 0.1199358 -0.3142290 0.8800642 0.3142290 0.8800642 0.3142290 0.1199358 -0.3142290
10199250000 0.1180905 -0.3119582 0.8819095 0.3119582 0.8819095 0.3119582 0.1180905 -0.3119582
10249000000 0.1162685 -0.3096888 0.8837315 0.3096888 0.8837315 0.3096888 0.1162685 -0.3096888
10298750000 0.1144693 -0.3074209 0.8855307 0.3074209 0.8855307 0.3074209 0.1144693 -0.3074209
10348500000 0.1126928 -0.3051545 0.8873072 0.3051545 0.8873072 0.3051545 0.1126928 -0.3051545
10398250000 0.1109388 -0.3028899 0.8890612 0.3028899 0.8890612 0.3028899 0.1109388 -0.3028899
10448000000 0.1092070 -0.3006272 0.8907930 0.3006272 0.8907930 0.3006272 0.1092070 -0.3006272
10497750000 0.1074971 -0.2983664 0.8925029 0.2983664 0.8925029 0.2983664 0.1074971 -0.2983664
