!Murata Part Number: GRM0225C1C8R3CA03
!These Parameters are Measured in Series Mode Connection
!Data Generated on Mar 30, 2021
!       o--ll--o
!Port1            Port2
!       o------o
!Operation Temp=25[degC], DC Bias Voltage=0[V]
!Freq. Start=100[MHz] Stop=9[GHz] 401[Steps]
# Hz S RI R 50
!Freq.(Hz) S11(Real) S11(Imag) S21(Real) S21(Imag) S12(Real) S12(Imag) S22(Real) S22(Imag)
100000000 0.7858209 -0.4098953 0.2141791 0.4098953 0.2141791 0.4098953 0.7858209 -0.4098953
121000000 0.7146967 -0.4511264 0.2853033 0.4511264 0.2853033 0.4511264 0.7146967 -0.4511264
142000000 0.6451514 -0.4779586 0.3548486 0.4779586 0.3548486 0.4779586 0.6451514 -0.4779586
163000000 0.5796753 -0.4930250 0.4203247 0.4930250 0.4203247 0.4930250 0.5796753 -0.4930250
184000000 0.5196138 -0.4989511 0.4803862 0.4989511 0.4803862 0.4989511 0.5196138 -0.4989511
205000000 0.4654816 -0.4980641 0.5345184 0.4980641 0.5345184 0.4980641 0.4654816 -0.4980641
226000000 0.4172556 -0.4922831 0.5827444 0.4922831 0.5827444 0.4922831 0.4172556 -0.4922831
247000000 0.3746013 -0.4831162 0.6253987 0.4831162 0.6253987 0.4831162 0.3746013 -0.4831162
268000000 0.3370298 -0.4717097 0.6629702 0.4717097 0.6629702 0.4717097 0.3370298 -0.4717097
289000000 0.3039974 -0.4589129 0.6960026 0.4589129 0.6960026 0.4589129 0.3039974 -0.4589129
310000000 0.2749636 -0.4453431 0.7250364 0.4453431 0.7250364 0.4453431 0.2749636 -0.4453431
331000000 0.2494229 -0.4314407 0.7505771 0.4314407 0.7505771 0.4314407 0.2494229 -0.4314407
352000000 0.2269183 -0.4175143 0.7730817 0.4175143 0.7730817 0.4175143 0.2269183 -0.4175143
373000000 0.2070461 -0.4037758 0.7929539 0.4037758 0.7929539 0.4037758 0.2070461 -0.4037758
394000000 0.1894545 -0.3903667 0.8105455 0.3903667 0.8105455 0.3903667 0.1894545 -0.3903667
415000000 0.1738390 -0.3773777 0.8261610 0.3773777 0.8261610 0.3773777 0.1738390 -0.3773777
436000000 0.1599383 -0.3648633 0.8400617 0.3648633 0.8400617 0.3648633 0.1599383 -0.3648633
457000000 0.1475280 -0.3528524 0.8524720 0.3528524 0.8524720 0.3528524 0.1475280 -0.3528524
478000000 0.1364160 -0.3413557 0.8635840 0.3413557 0.8635840 0.3413557 0.1364160 -0.3413557
499000000 0.1264379 -0.3303717 0.8735621 0.3303717 0.8735621 0.3303717 0.1264379 -0.3303717
520000000 0.1174525 -0.3198903 0.8825475 0.3198903 0.8825475 0.3198903 0.1174525 -0.3198903
541000000 0.1093388 -0.3098961 0.8906612 0.3098961 0.8906612 0.3098961 0.1093388 -0.3098961
562000000 0.1019926 -0.3003699 0.8980074 0.3003699 0.8980074 0.3003699 0.1019926 -0.3003699
583000000 0.0953240 -0.2912910 0.9046760 0.2912910 0.9046760 0.2912910 0.0953240 -0.2912910
604000000 0.0892553 -0.2826372 0.9107447 0.2826372 0.9107447 0.2826372 0.0892553 -0.2826372
625000000 0.0837193 -0.2743865 0.9162807 0.2743865 0.9162807 0.2743865 0.0837193 -0.2743865
646000000 0.0786576 -0.2665169 0.9213424 0.2665169 0.9213424 0.2665169 0.0786576 -0.2665169
667000000 0.0740191 -0.2590071 0.9259809 0.2590071 0.9259809 0.2590071 0.0740191 -0.2590071
688000000 0.0697594 -0.2518366 0.9302406 0.2518366 0.9302406 0.2518366 0.0697594 -0.2518366
709000000 0.0658396 -0.2449858 0.9341604 0.2449858 0.9341604 0.2449858 0.0658396 -0.2449858
730000000 0.0622254 -0.2384361 0.9377746 0.2384361 0.9377746 0.2384361 0.0622254 -0.2384361
751000000 0.0588867 -0.2321700 0.9411133 0.2321700 0.9411133 0.2321700 0.0588867 -0.2321700
772000000 0.0557969 -0.2261709 0.9442031 0.2261709 0.9442031 0.2261709 0.0557969 -0.2261709
793000000 0.0529325 -0.2204234 0.9470675 0.2204234 0.9470675 0.2204234 0.0529325 -0.2204234
814000000 0.0502726 -0.2149128 0.9497274 0.2149128 0.9497274 0.2149128 0.0502726 -0.2149128
835000000 0.0477986 -0.2096256 0.9522014 0.2096256 0.9522014 0.2096256 0.0477986 -0.2096256
856000000 0.0454941 -0.2045492 0.9545059 0.2045492 0.9545059 0.2045492 0.0454941 -0.2045492
877000000 0.0433442 -0.1996714 0.9566558 0.1996714 0.9566558 0.1996714 0.0433442 -0.1996714
898000000 0.0413357 -0.1949813 0.9586643 0.1949813 0.9586643 0.1949813 0.0413357 -0.1949813
919000000 0.0394568 -0.1904685 0.9605432 0.1904685 0.9605432 0.1904685 0.0394568 -0.1904685
940000000 0.0376967 -0.1861233 0.9623033 0.1861233 0.9623033 0.1861233 0.0376967 -0.1861233
961000000 0.0360460 -0.1819366 0.9639540 0.1819366 0.9639540 0.1819366 0.0360460 -0.1819366
982000000 0.0344959 -0.1778999 0.9655041 0.1778999 0.9655041 0.1778999 0.0344959 -0.1778999
1003000000 0.0330386 -0.1740053 0.9669614 0.1740053 0.9669614 0.1740053 0.0330386 -0.1740053
1024000000 0.0316670 -0.1702454 0.9683330 0.1702454 0.9683330 0.1702454 0.0316670 -0.1702454
1045000000 0.0303746 -0.1666133 0.9696254 0.1666133 0.9696254 0.1666133 0.0303746 -0.1666133
1066000000 0.0291557 -0.1631025 0.9708443 0.1631025 0.9708443 0.1631025 0.0291557 -0.1631025
1087000000 0.0280049 -0.1597068 0.9719951 0.1597068 0.9719951 0.1597068 0.0280049 -0.1597068
1108000000 0.0269172 -0.1564206 0.9730828 0.1564206 0.9730828 0.1564206 0.0269172 -0.1564206
1129000000 0.0258884 -0.1532385 0.9741116 0.1532385 0.9741116 0.1532385 0.0258884 -0.1532385
1150000000 0.0249144 -0.1501556 0.9750856 0.1501556 0.9750856 0.1501556 0.0249144 -0.1501556
1171000000 0.0239914 -0.1471670 0.9760086 0.1471670 0.9760086 0.1471670 0.0239914 -0.1471670
1192000000 0.0231160 -0.1442683 0.9768840 0.1442683 0.9768840 0.1442683 0.0231160 -0.1442683
1213000000 0.0222851 -0.1414555 0.9777149 0.1414555 0.9777149 0.1414555 0.0222851 -0.1414555
1234000000 0.0214958 -0.1387244 0.9785042 0.1387244 0.9785042 0.1387244 0.0214958 -0.1387244
1255000000 0.0207455 -0.1360715 0.9792545 0.1360715 0.9792545 0.1360715 0.0207455 -0.1360715
1276000000 0.0200317 -0.1334933 0.9799683 0.1334933 0.9799683 0.1334933 0.0200317 -0.1334933
1297000000 0.0193522 -0.1309864 0.9806478 0.1309864 0.9806478 0.1309864 0.0193522 -0.1309864
1318000000 0.0187048 -0.1285477 0.9812952 0.1285477 0.9812952 0.1285477 0.0187048 -0.1285477
1339000000 0.0180878 -0.1261744 0.9819122 0.1261744 0.9819122 0.1261744 0.0180878 -0.1261744
1360000000 0.0174992 -0.1238636 0.9825008 0.1238636 0.9825008 0.1238636 0.0174992 -0.1238636
1381000000 0.0169374 -0.1216127 0.9830626 0.1216127 0.9830626 0.1216127 0.0169374 -0.1216127
1402000000 0.0164009 -0.1194193 0.9835991 0.1194193 0.9835991 0.1194193 0.0164009 -0.1194193
1423000000 0.0158882 -0.1172810 0.9841118 0.1172810 0.9841118 0.1172810 0.0158882 -0.1172810
1444000000 0.0153980 -0.1151956 0.9846020 0.1151956 0.9846020 0.1151956 0.0153980 -0.1151956
1465000000 0.0149291 -0.1131609 0.9850709 0.1131609 0.9850709 0.1131609 0.0149291 -0.1131609
1486000000 0.0144804 -0.1111750 0.9855196 0.1111750 0.9855196 0.1111750 0.0144804 -0.1111750
1507000000 0.0140506 -0.1092359 0.9859494 0.1092359 0.9859494 0.1092359 0.0140506 -0.1092359
1528000000 0.0136390 -0.1073420 0.9863610 0.1073420 0.9863610 0.1073420 0.0136390 -0.1073420
1549000000 0.0132444 -0.1054913 0.9867556 0.1054913 0.9867556 0.1054913 0.0132444 -0.1054913
1570000000 0.0128660 -0.1036824 0.9871340 0.1036824 0.9871340 0.1036824 0.0128660 -0.1036824
1591000000 0.0125030 -0.1019137 0.9874970 0.1019137 0.9874970 0.1019137 0.0125030 -0.1019137
1612000000 0.0121546 -0.1001836 0.9878454 0.1001836 0.9878454 0.1001836 0.0121546 -0.1001836
1633000000 0.0118202 -0.0984909 0.9881798 0.0984909 0.9881798 0.0984909 0.0118202 -0.0984909
1654000000 0.0114989 -0.0968340 0.9885011 0.0968340 0.9885011 0.0968340 0.0114989 -0.0968340
1675000000 0.0111902 -0.0952119 0.9888098 0.0952119 0.9888098 0.0952119 0.0111902 -0.0952119
1696000000 0.0108935 -0.0936232 0.9891065 0.0936232 0.9891065 0.0936232 0.0108935 -0.0936232
1717000000 0.0106082 -0.0920668 0.9893918 0.0920668 0.9893918 0.0920668 0.0106082 -0.0920668
1738000000 0.0103338 -0.0905416 0.9896662 0.0905416 0.9896662 0.0905416 0.0103338 -0.0905416
1759000000 0.0100698 -0.0890465 0.9899302 0.0890465 0.9899302 0.0890465 0.0100698 -0.0890465
1780000000 0.0098157 -0.0875806 0.9901843 0.0875806 0.9901843 0.0875806 0.0098157 -0.0875806
1801000000 0.0095710 -0.0861427 0.9904290 0.0861427 0.9904290 0.0861427 0.0095710 -0.0861427
1822000000 0.0093354 -0.0847321 0.9906646 0.0847321 0.9906646 0.0847321 0.0093354 -0.0847321
1843000000 0.0091084 -0.0833479 0.9908916 0.0833479 0.9908916 0.0833479 0.0091084 -0.0833479
1864000000 0.0088897 -0.0819891 0.9911103 0.0819891 0.9911103 0.0819891 0.0088897 -0.0819891
1885000000 0.0086789 -0.0806549 0.9913211 0.0806549 0.9913211 0.0806549 0.0086789 -0.0806549
1906000000 0.0084757 -0.0793447 0.9915243 0.0793447 0.9915243 0.0793447 0.0084757 -0.0793447
1927000000 0.0082798 -0.0780576 0.9917202 0.0780576 0.9917202 0.0780576 0.0082798 -0.0780576
1948000000 0.0080908 -0.0767930 0.9919092 0.0767930 0.9919092 0.0767930 0.0080908 -0.0767930
1969000000 0.0079085 -0.0755500 0.9920915 0.0755500 0.9920915 0.0755500 0.0079085 -0.0755500
1990000000 0.0077326 -0.0743282 0.9922674 0.0743282 0.9922674 0.0743282 0.0077326 -0.0743282
2011000000 0.0075628 -0.0731268 0.9924372 0.0731268 0.9924372 0.0731268 0.0075628 -0.0731268
2032000000 0.0073989 -0.0719453 0.9926011 0.0719453 0.9926011 0.0719453 0.0073989 -0.0719453
2053000000 0.0072407 -0.0707830 0.9927593 0.0707830 0.9927593 0.0707830 0.0072407 -0.0707830
2074000000 0.0070880 -0.0696394 0.9929120 0.0696394 0.9929120 0.0696394 0.0070880 -0.0696394
2095000000 0.0069405 -0.0685140 0.9930595 0.0685140 0.9930595 0.0685140 0.0069405 -0.0685140
2116000000 0.0067980 -0.0674062 0.9932020 0.0674062 0.9932020 0.0674062 0.0067980 -0.0674062
2137000000 0.0066604 -0.0663155 0.9933396 0.0663155 0.9933396 0.0663155 0.0066604 -0.0663155
2158000000 0.0065274 -0.0652415 0.9934726 0.0652415 0.9934726 0.0652415 0.0065274 -0.0652415
2179000000 0.0063990 -0.0641836 0.9936010 0.0641836 0.9936010 0.0641836 0.0063990 -0.0641836
2200000000 0.0062749 -0.0631416 0.9937251 0.0631416 0.9937251 0.0631416 0.0062749 -0.0631416
2221000000 0.0061549 -0.0621148 0.9938451 0.0621148 0.9938451 0.0621148 0.0061549 -0.0621148
2242000000 0.0060390 -0.0611029 0.9939610 0.0611029 0.9939610 0.0611029 0.0060390 -0.0611029
2263000000 0.0059269 -0.0601055 0.9940731 0.0601055 0.9940731 0.0601055 0.0059269 -0.0601055
2284000000 0.0058186 -0.0591223 0.9941814 0.0591223 0.9941814 0.0591223 0.0058186 -0.0591223
2305000000 0.0057139 -0.0581527 0.9942861 0.0581527 0.9942861 0.0581527 0.0057139 -0.0581527
2326000000 0.0056127 -0.0571966 0.9943873 0.0571966 0.9943873 0.0571966 0.0056127 -0.0571966
2347000000 0.0055149 -0.0562535 0.9944851 0.0562535 0.9944851 0.0562535 0.0055149 -0.0562535
2368000000 0.0054203 -0.0553231 0.9945797 0.0553231 0.9945797 0.0553231 0.0054203 -0.0553231
2389000000 0.0053289 -0.0544050 0.9946711 0.0544050 0.9946711 0.0544050 0.0053289 -0.0544050
2410000000 0.0052405 -0.0534990 0.9947595 0.0534990 0.9947595 0.0534990 0.0052405 -0.0534990
2431000000 0.0051550 -0.0526048 0.9948450 0.0526048 0.9948450 0.0526048 0.0051550 -0.0526048
2452000000 0.0050724 -0.0517221 0.9949276 0.0517221 0.9949276 0.0517221 0.0050724 -0.0517221
2473000000 0.0049926 -0.0508505 0.9950074 0.0508505 0.9950074 0.0508505 0.0049926 -0.0508505
2494000000 0.0049154 -0.0499899 0.9950846 0.0499899 0.9950846 0.0499899 0.0049154 -0.0499899
2515000000 0.0048408 -0.0491398 0.9951592 0.0491398 0.9951592 0.0491398 0.0048408 -0.0491398
2536000000 0.0047687 -0.0483002 0.9952313 0.0483002 0.9952313 0.0483002 0.0047687 -0.0483002
2557000000 0.0046990 -0.0474708 0.9953010 0.0474708 0.9953010 0.0474708 0.0046990 -0.0474708
2578000000 0.0046317 -0.0466512 0.9953683 0.0466512 0.9953683 0.0466512 0.0046317 -0.0466512
2599000000 0.0045666 -0.0458413 0.9954334 0.0458413 0.9954334 0.0458413 0.0045666 -0.0458413
2620000000 0.0045038 -0.0450408 0.9954962 0.0450408 0.9954962 0.0450408 0.0045038 -0.0450408
2641000000 0.0044431 -0.0442496 0.9955569 0.0442496 0.9955569 0.0442496 0.0044431 -0.0442496
2662000000 0.0043844 -0.0434674 0.9956156 0.0434674 0.9956156 0.0434674 0.0043844 -0.0434674
2683000000 0.0043278 -0.0426940 0.9956722 0.0426940 0.9956722 0.0426940 0.0043278 -0.0426940
2704000000 0.0042731 -0.0419292 0.9957269 0.0419292 0.9957269 0.0419292 0.0042731 -0.0419292
2725000000 0.0042204 -0.0411728 0.9957796 0.0411728 0.9957796 0.0411728 0.0042204 -0.0411728
2746000000 0.0041694 -0.0404247 0.9958306 0.0404247 0.9958306 0.0404247 0.0041694 -0.0404247
2767000000 0.0041203 -0.0396846 0.9958797 0.0396846 0.9958797 0.0396846 0.0041203 -0.0396846
2788000000 0.0040729 -0.0389524 0.9959271 0.0389524 0.9959271 0.0389524 0.0040729 -0.0389524
2809000000 0.0040272 -0.0382279 0.9959728 0.0382279 0.9959728 0.0382279 0.0040272 -0.0382279
2830000000 0.0039831 -0.0375109 0.9960169 0.0375109 0.9960169 0.0375109 0.0039831 -0.0375109
2851000000 0.0039407 -0.0368013 0.9960593 0.0368013 0.9960593 0.0368013 0.0039407 -0.0368013
2872000000 0.0038998 -0.0360989 0.9961002 0.0360989 0.9961002 0.0360989 0.0038998 -0.0360989
2893000000 0.0038604 -0.0354036 0.9961396 0.0354036 0.9961396 0.0354036 0.0038604 -0.0354036
2914000000 0.0038224 -0.0347152 0.9961776 0.0347152 0.9961776 0.0347152 0.0038224 -0.0347152
2935000000 0.0037860 -0.0340336 0.9962140 0.0340336 0.9962140 0.0340336 0.0037860 -0.0340336
2956000000 0.0037508 -0.0333586 0.9962492 0.0333586 0.9962492 0.0333586 0.0037508 -0.0333586
2977000000 0.0037171 -0.0326901 0.9962829 0.0326901 0.9962829 0.0326901 0.0037171 -0.0326901
2998000000 0.0036847 -0.0320280 0.9963153 0.0320280 0.9963153 0.0320280 0.0036847 -0.0320280
3019000000 0.0036535 -0.0313721 0.9963465 0.0313721 0.9963465 0.0313721 0.0036535 -0.0313721
3040000000 0.0036237 -0.0307223 0.9963763 0.0307223 0.9963763 0.0307223 0.0036237 -0.0307223
3061000000 0.0035950 -0.0300785 0.9964050 0.0300785 0.9964050 0.0300785 0.0035950 -0.0300785
3082000000 0.0035675 -0.0294406 0.9964325 0.0294406 0.9964325 0.0294406 0.0035675 -0.0294406
3103000000 0.0035412 -0.0288084 0.9964588 0.0288084 0.9964588 0.0288084 0.0035412 -0.0288084
3124000000 0.0035161 -0.0281819 0.9964839 0.0281819 0.9964839 0.0281819 0.0035161 -0.0281819
3145000000 0.0034920 -0.0275609 0.9965080 0.0275609 0.9965080 0.0275609 0.0034920 -0.0275609
3166000000 0.0034690 -0.0269454 0.9965310 0.0269454 0.9965310 0.0269454 0.0034690 -0.0269454
3187000000 0.0034470 -0.0263351 0.9965530 0.0263351 0.9965530 0.0263351 0.0034470 -0.0263351
3208000000 0.0034261 -0.0257301 0.9965739 0.0257301 0.9965739 0.0257301 0.0034261 -0.0257301
3229000000 0.0034062 -0.0251302 0.9965938 0.0251302 0.9965938 0.0251302 0.0034062 -0.0251302
3250000000 0.0033873 -0.0245353 0.9966127 0.0245353 0.9966127 0.0245353 0.0033873 -0.0245353
3271000000 0.0033693 -0.0239454 0.9966307 0.0239454 0.9966307 0.0239454 0.0033693 -0.0239454
3292000000 0.0033522 -0.0233603 0.9966478 0.0233603 0.9966478 0.0233603 0.0033522 -0.0233603
3313000000 0.0033361 -0.0227799 0.9966639 0.0227799 0.9966639 0.0227799 0.0033361 -0.0227799
3334000000 0.0033208 -0.0222042 0.9966792 0.0222042 0.9966792 0.0222042 0.0033208 -0.0222042
3355000000 0.0033064 -0.0216331 0.9966936 0.0216331 0.9966936 0.0216331 0.0033064 -0.0216331
3376000000 0.0032928 -0.0210665 0.9967072 0.0210665 0.9967072 0.0210665 0.0032928 -0.0210665
3397000000 0.0032801 -0.0205043 0.9967199 0.0205043 0.9967199 0.0205043 0.0032801 -0.0205043
3418000000 0.0032682 -0.0199465 0.9967318 0.0199465 0.9967318 0.0199465 0.0032682 -0.0199465
3439000000 0.0032571 -0.0193929 0.9967429 0.0193929 0.9967429 0.0193929 0.0032571 -0.0193929
3460000000 0.0032468 -0.0188434 0.9967532 0.0188434 0.9967532 0.0188434 0.0032468 -0.0188434
3481000000 0.0032372 -0.0182981 0.9967628 0.0182981 0.9967628 0.0182981 0.0032372 -0.0182981
3502000000 0.0032283 -0.0177569 0.9967717 0.0177569 0.9967717 0.0177569 0.0032283 -0.0177569
3523000000 0.0032202 -0.0172196 0.9967798 0.0172196 0.9967798 0.0172196 0.0032202 -0.0172196
3544000000 0.0032128 -0.0166862 0.9967872 0.0166862 0.9967872 0.0166862 0.0032128 -0.0166862
3565000000 0.0032061 -0.0161566 0.9967939 0.0161566 0.9967939 0.0161566 0.0032061 -0.0161566
3586000000 0.0032000 -0.0156308 0.9968000 0.0156308 0.9968000 0.0156308 0.0032000 -0.0156308
3607000000 0.0031946 -0.0151087 0.9968054 0.0151087 0.9968054 0.0151087 0.0031946 -0.0151087
3628000000 0.0031899 -0.0145903 0.9968101 0.0145903 0.9968101 0.0145903 0.0031899 -0.0145903
3649000000 0.0031858 -0.0140754 0.9968142 0.0140754 0.9968142 0.0140754 0.0031858 -0.0140754
3670000000 0.0031824 -0.0135641 0.9968176 0.0135641 0.9968176 0.0135641 0.0031824 -0.0135641
3691000000 0.0031795 -0.0130562 0.9968205 0.0130562 0.9968205 0.0130562 0.0031795 -0.0130562
3712000000 0.0031772 -0.0125518 0.9968228 0.0125518 0.9968228 0.0125518 0.0031772 -0.0125518
3733000000 0.0031756 -0.0120506 0.9968244 0.0120506 0.9968244 0.0120506 0.0031756 -0.0120506
3754000000 0.0031745 -0.0115528 0.9968255 0.0115528 0.9968255 0.0115528 0.0031745 -0.0115528
3775000000 0.0031739 -0.0110582 0.9968261 0.0110582 0.9968261 0.0110582 0.0031739 -0.0110582
3796000000 0.0031740 -0.0105669 0.9968260 0.0105669 0.9968260 0.0105669 0.0031740 -0.0105669
3817000000 0.0031745 -0.0100786 0.9968255 0.0100786 0.9968255 0.0100786 0.0031745 -0.0100786
3838000000 0.0031756 -0.0095935 0.9968244 0.0095935 0.9968244 0.0095935 0.0031756 -0.0095935
3859000000 0.0031772 -0.0091113 0.9968228 0.0091113 0.9968228 0.0091113 0.0031772 -0.0091113
3880000000 0.0031793 -0.0086322 0.9968207 0.0086322 0.9968207 0.0086322 0.0031793 -0.0086322
3901000000 0.0031820 -0.0081561 0.9968180 0.0081561 0.9968180 0.0081561 0.0031820 -0.0081561
3922000000 0.0031851 -0.0076828 0.9968149 0.0076828 0.9968149 0.0076828 0.0031851 -0.0076828
3943000000 0.0031887 -0.0072124 0.9968113 0.0072124 0.9968113 0.0072124 0.0031887 -0.0072124
3964000000 0.0031927 -0.0067448 0.9968073 0.0067448 0.9968073 0.0067448 0.0031927 -0.0067448
3985000000 0.0031972 -0.0062799 0.9968028 0.0062799 0.9968028 0.0062799 0.0031972 -0.0062799
4006000000 0.0032022 -0.0058178 0.9967978 0.0058178 0.9967978 0.0058178 0.0032022 -0.0058178
4027000000 0.0032076 -0.0053584 0.9967924 0.0053584 0.9967924 0.0053584 0.0032076 -0.0053584
4048000000 0.0032135 -0.0049017 0.9967865 0.0049017 0.9967865 0.0049017 0.0032135 -0.0049017
4069000000 0.0032198 -0.0044475 0.9967802 0.0044475 0.9967802 0.0044475 0.0032198 -0.0044475
4090000000 0.0032265 -0.0039959 0.9967735 0.0039959 0.9967735 0.0039959 0.0032265 -0.0039959
4111000000 0.0032337 -0.0035468 0.9967663 0.0035468 0.9967663 0.0035468 0.0032337 -0.0035468
4132000000 0.0032412 -0.0031002 0.9967588 0.0031002 0.9967588 0.0031002 0.0032412 -0.0031002
4153000000 0.0032491 -0.0026561 0.9967509 0.0026561 0.9967509 0.0026561 0.0032491 -0.0026561
4174000000 0.0032575 -0.0022144 0.9967425 0.0022144 0.9967425 0.0022144 0.0032575 -0.0022144
4195000000 0.0032662 -0.0017751 0.9967338 0.0017751 0.9967338 0.0017751 0.0032662 -0.0017751
4216000000 0.0032753 -0.0013381 0.9967247 0.0013381 0.9967247 0.0013381 0.0032753 -0.0013381
4237000000 0.0032847 -0.0009035 0.9967153 0.0009035 0.9967153 0.0009035 0.0032847 -0.0009035
4258000000 0.0032946 -0.0004711 0.9967054 0.0004711 0.9967054 0.0004711 0.0032946 -0.0004711
4279000000 0.0033048 -0.0000410 0.9966952 0.0000410 0.9966952 0.0000410 0.0033048 -0.0000410
4300000000 0.0033153 0.0003869 0.9966847 -0.0003869 0.9966847 -0.0003869 0.0033153 0.0003869
4321000000 0.0033262 0.0008126 0.9966738 -0.0008126 0.9966738 -0.0008126 0.0033262 0.0008126
4342000000 0.0033375 0.0012362 0.9966625 -0.0012362 0.9966625 -0.0012362 0.0033375 0.0012362
4363000000 0.0033490 0.0016576 0.9966510 -0.0016576 0.9966510 -0.0016576 0.0033490 0.0016576
4384000000 0.0033610 0.0020770 0.9966390 -0.0020770 0.9966390 -0.0020770 0.0033610 0.0020770
4405000000 0.0033732 0.0024942 0.9966268 -0.0024942 0.9966268 -0.0024942 0.0033732 0.0024942
4426000000 0.0033857 0.0029095 0.9966143 -0.0029095 0.9966143 -0.0029095 0.0033857 0.0029095
4447000000 0.0033986 0.0033227 0.9966014 -0.0033227 0.9966014 -0.0033227 0.0033986 0.0033227
4468000000 0.0034118 0.0037339 0.9965882 -0.0037339 0.9965882 -0.0037339 0.0034118 0.0037339
4489000000 0.0034253 0.0041432 0.9965747 -0.0041432 0.9965747 -0.0041432 0.0034253 0.0041432
4510000000 0.0034391 0.0045505 0.9965609 -0.0045505 0.9965609 -0.0045505 0.0034391 0.0045505
