!Murata Part Number: GRM0225C1HR80WA03
!These Parameters are Measured in Series Mode Connection
!Data Generated on Mar 30, 2021
!       o--ll--o
!Port1            Port2
!       o------o
!Operation Temp=25[degC], DC Bias Voltage=0[V]
!Freq. Start=100[MHz] Stop=20[GHz] 401[Steps]
# Hz S RI R 50
!Freq.(Hz) S11(Real) S11(Imag) S21(Real) S21(Imag) S12(Real) S12(Imag) S22(Real) S22(Imag)
100000000 0.9974658 -0.0501412 0.0025342 0.0501412 0.0025342 0.0501412 0.9974658 -0.0501412
149750000 0.9943339 -0.0748563 0.0056661 0.0748563 0.0056661 0.0748563 0.9943339 -0.0748563
199500000 0.9899854 -0.0992996 0.0100146 0.0992996 0.0100146 0.0992996 0.9899854 -0.0992996
249250000 0.9844505 -0.1233855 0.0155495 0.1233855 0.0155495 0.1233855 0.9844505 -0.1233855
299000000 0.9777673 -0.1470329 0.0222327 0.1470329 0.0222327 0.1470329 0.9777673 -0.1470329
348750000 0.9699809 -0.1701653 0.0300191 0.1701653 0.0300191 0.1701653 0.9699809 -0.1701653
398500000 0.9611429 -0.1927120 0.0388571 0.1927120 0.0388571 0.1927120 0.9611429 -0.1927120
448250000 0.9513101 -0.2146086 0.0486899 0.2146086 0.0486899 0.2146086 0.9513101 -0.2146086
498000000 0.9405443 -0.2357972 0.0594557 0.2357972 0.0594557 0.2357972 0.9405443 -0.2357972
547750000 0.9289109 -0.2562271 0.0710891 0.2562271 0.0710891 0.2562271 0.9289109 -0.2562271
597500000 0.9164781 -0.2758547 0.0835219 0.2758547 0.0835219 0.2758547 0.9164781 -0.2758547
647250000 0.9033161 -0.2946436 0.0966839 0.2946436 0.0966839 0.2946436 0.9033161 -0.2946436
697000000 0.8894962 -0.3125650 0.1105038 0.3125650 0.1105038 0.3125650 0.8894962 -0.3125650
746750000 0.8750900 -0.3295966 0.1249100 0.3295966 0.1249100 0.3295966 0.8750900 -0.3295966
796500000 0.8601684 -0.3457232 0.1398316 0.3457232 0.1398316 0.3457232 0.8601684 -0.3457232
846250000 0.8448012 -0.3609360 0.1551988 0.3609360 0.1551988 0.3609360 0.8448012 -0.3609360
896000000 0.8290566 -0.3752323 0.1709434 0.3752323 0.1709434 0.3752323 0.8290566 -0.3752323
945750000 0.8130004 -0.3886148 0.1869996 0.3886148 0.1869996 0.3886148 0.8130004 -0.3886148
995500000 0.7966955 -0.4010913 0.2033045 0.4010913 0.2033045 0.4010913 0.7966955 -0.4010913
1045250000 0.7802018 -0.4126743 0.2197982 0.4126743 0.2197982 0.4126743 0.7802018 -0.4126743
1095000000 0.7635758 -0.4233801 0.2364242 0.4233801 0.2364242 0.4233801 0.7635758 -0.4233801
1144750000 0.7468706 -0.4332288 0.2531294 0.4332288 0.2531294 0.4332288 0.7468706 -0.4332288
1194500000 0.7301355 -0.4422433 0.2698645 0.4422433 0.2698645 0.4422433 0.7301355 -0.4422433
1244250000 0.7134158 -0.4504491 0.2865842 0.4504491 0.2865842 0.4504491 0.7134158 -0.4504491
1294000000 0.6967533 -0.4578735 0.3032467 0.4578735 0.3032467 0.4578735 0.6967533 -0.4578735
1343750000 0.6801861 -0.4645459 0.3198139 0.4645459 0.3198139 0.4645459 0.6801861 -0.4645459
1393500000 0.6637484 -0.4704963 0.3362516 0.4704963 0.3362516 0.4704963 0.6637484 -0.4704963
1443250000 0.6474710 -0.4757561 0.3525290 0.4757561 0.3525290 0.4757561 0.6474710 -0.4757561
1493000000 0.6313813 -0.4803569 0.3686187 0.4803569 0.3686187 0.4803569 0.6313813 -0.4803569
1542750000 0.6155034 -0.4843304 0.3844966 0.4843304 0.3844966 0.4843304 0.6155034 -0.4843304
1592500000 0.5998583 -0.4877086 0.4001417 0.4877086 0.4001417 0.4877086 0.5998583 -0.4877086
1642250000 0.5844642 -0.4905230 0.4155358 0.4905230 0.4155358 0.4905230 0.5844642 -0.4905230
1692000000 0.5693366 -0.4928047 0.4306634 0.4928047 0.4306634 0.4928047 0.5693366 -0.4928047
1741750000 0.5544885 -0.4945842 0.4455115 0.4945842 0.4455115 0.4945842 0.5544885 -0.4945842
1791500000 0.5399304 -0.4958911 0.4600696 0.4958911 0.4600696 0.4958911 0.5399304 -0.4958911
1841250000 0.5256710 -0.4967544 0.4743290 0.4967544 0.4743290 0.4967544 0.5256710 -0.4967544
1891000000 0.5117169 -0.4972018 0.4882831 0.4972018 0.4882831 0.4972018 0.5117169 -0.4972018
1940750000 0.4980729 -0.4972603 0.5019271 0.4972603 0.5019271 0.4972603 0.4980729 -0.4972603
1990500000 0.4847424 -0.4969556 0.5152576 0.4969556 0.5152576 0.4969556 0.4847424 -0.4969556
2040250000 0.4717272 -0.4963125 0.5282728 0.4963125 0.5282728 0.4963125 0.4717272 -0.4963125
2090000000 0.4590279 -0.4953546 0.5409721 0.4953546 0.5409721 0.4953546 0.4590279 -0.4953546
2139750000 0.4466441 -0.4941043 0.5533559 0.4941043 0.5533559 0.4941043 0.4466441 -0.4941043
2189500000 0.4345741 -0.4925830 0.5654259 0.4925830 0.5654259 0.4925830 0.4345741 -0.4925830
2239250000 0.4228156 -0.4908109 0.5771844 0.4908109 0.5771844 0.4908109 0.4228156 -0.4908109
2289000000 0.4113655 -0.4888073 0.5886345 0.4888073 0.5886345 0.4888073 0.4113655 -0.4888073
2338750000 0.4002199 -0.4865901 0.5997801 0.4865901 0.5997801 0.4865901 0.4002199 -0.4865901
2388500000 0.3893746 -0.4841765 0.6106254 0.4841765 0.6106254 0.4841765 0.3893746 -0.4841765
2438250000 0.3788246 -0.4815826 0.6211754 0.4815826 0.6211754 0.4815826 0.3788246 -0.4815826
2488000000 0.3685648 -0.4788235 0.6314352 0.4788235 0.6314352 0.4788235 0.3685648 -0.4788235
2537750000 0.3585895 -0.4759134 0.6414105 0.4759134 0.6414105 0.4759134 0.3585895 -0.4759134
2587500000 0.3488929 -0.4728657 0.6511071 0.4728657 0.6511071 0.4728657 0.3488929 -0.4728657
2637250000 0.3394691 -0.4696927 0.6605309 0.4696927 0.6605309 0.4696927 0.3394691 -0.4696927
2687000000 0.3303117 -0.4664063 0.6696883 0.4664063 0.6696883 0.4664063 0.3303117 -0.4664063
2736750000 0.3214144 -0.4630173 0.6785856 0.4630173 0.6785856 0.4630173 0.3214144 -0.4630173
2786500000 0.3127709 -0.4595359 0.6872291 0.4595359 0.6872291 0.4595359 0.3127709 -0.4595359
2836250000 0.3043748 -0.4559716 0.6956252 0.4559716 0.6956252 0.4559716 0.3043748 -0.4559716
2886000000 0.2962194 -0.4523333 0.7037806 0.4523333 0.7037806 0.4523333 0.2962194 -0.4523333
2935750000 0.2882985 -0.4486292 0.7117015 0.4486292 0.7117015 0.4486292 0.2882985 -0.4486292
2985500000 0.2806056 -0.4448671 0.7193944 0.4448671 0.7193944 0.4448671 0.2806056 -0.4448671
3035250000 0.2731343 -0.4410541 0.7268657 0.4410541 0.7268657 0.4410541 0.2731343 -0.4410541
3085000000 0.2658784 -0.4371967 0.7341216 0.4371967 0.7341216 0.4371967 0.2658784 -0.4371967
3134750000 0.2588317 -0.4333012 0.7411683 0.4333012 0.7411683 0.4333012 0.2588317 -0.4333012
3184500000 0.2519881 -0.4293733 0.7480119 0.4293733 0.7480119 0.4293733 0.2519881 -0.4293733
3234250000 0.2453416 -0.4254182 0.7546584 0.4254182 0.7546584 0.4254182 0.2453416 -0.4254182
3284000000 0.2388863 -0.4214408 0.7611137 0.4214408 0.7611137 0.4214408 0.2388863 -0.4214408
3333750000 0.2326165 -0.4174457 0.7673835 0.4174457 0.7673835 0.4174457 0.2326165 -0.4174457
3383500000 0.2265266 -0.4134370 0.7734734 0.4134370 0.7734734 0.4134370 0.2265266 -0.4134370
3433250000 0.2206112 -0.4094187 0.7793888 0.4094187 0.7793888 0.4094187 0.2206112 -0.4094187
3483000000 0.2148648 -0.4053942 0.7851352 0.4053942 0.7851352 0.4053942 0.2148648 -0.4053942
3532750000 0.2092823 -0.4013668 0.7907177 0.4013668 0.7907177 0.4013668 0.2092823 -0.4013668
3582500000 0.2038587 -0.3973395 0.7961413 0.3973395 0.7961413 0.3973395 0.2038587 -0.3973395
3632250000 0.1985889 -0.3933152 0.8014111 0.3933152 0.8014111 0.3933152 0.1985889 -0.3933152
3682000000 0.1934683 -0.3892963 0.8065317 0.3892963 0.8065317 0.3892963 0.1934683 -0.3892963
3731750000 0.1884921 -0.3852853 0.8115079 0.3852853 0.8115079 0.3852853 0.1884921 -0.3852853
3781500000 0.1836559 -0.3812841 0.8163441 0.3812841 0.8163441 0.3812841 0.1836559 -0.3812841
3831250000 0.1789554 -0.3772949 0.8210446 0.3772949 0.8210446 0.3772949 0.1789554 -0.3772949
3881000000 0.1743862 -0.3733193 0.8256138 0.3733193 0.8256138 0.3733193 0.1743862 -0.3733193
3930750000 0.1699443 -0.3693590 0.8300557 0.3693590 0.8300557 0.3693590 0.1699443 -0.3693590
3980500000 0.1656257 -0.3654155 0.8343743 0.3654155 0.8343743 0.3654155 0.1656257 -0.3654155
4030250000 0.1614266 -0.3614900 0.8385734 0.3614900 0.8385734 0.3614900 0.1614266 -0.3614900
4080000000 0.1573432 -0.3575839 0.8426568 0.3575839 0.8426568 0.3575839 0.1573432 -0.3575839
4129750000 0.1533720 -0.3536983 0.8466280 0.3536983 0.8466280 0.3536983 0.1533720 -0.3536983
4179500000 0.1495094 -0.3498340 0.8504906 0.3498340 0.8504906 0.3498340 0.1495094 -0.3498340
4229250000 0.1457521 -0.3459919 0.8542479 0.3459919 0.8542479 0.3459919 0.1457521 -0.3459919
4279000000 0.1420968 -0.3421730 0.8579032 0.3421730 0.8579032 0.3421730 0.1420968 -0.3421730
4328750000 0.1385405 -0.3383778 0.8614595 0.3383778 0.8614595 0.3383778 0.1385405 -0.3383778
4378500000 0.1350800 -0.3346071 0.8649200 0.3346071 0.8649200 0.3346071 0.1350800 -0.3346071
4428250000 0.1317123 -0.3308612 0.8682877 0.3308612 0.8682877 0.3308612 0.1317123 -0.3308612
4478000000 0.1284348 -0.3271408 0.8715652 0.3271408 0.8715652 0.3271408 0.1284348 -0.3271408
4527750000 0.1252446 -0.3234462 0.8747554 0.3234462 0.8747554 0.3234462 0.1252446 -0.3234462
4577500000 0.1221391 -0.3197778 0.8778609 0.3197778 0.8778609 0.3197778 0.1221391 -0.3197778
4627250000 0.1191156 -0.3161358 0.8808844 0.3161358 0.8808844 0.3161358 0.1191156 -0.3161358
4677000000 0.1161718 -0.3125206 0.8838282 0.3125206 0.8838282 0.3125206 0.1161718 -0.3125206
4726750000 0.1133052 -0.3089324 0.8866948 0.3089324 0.8866948 0.3089324 0.1133052 -0.3089324
4776500000 0.1105136 -0.3053712 0.8894864 0.3053712 0.8894864 0.3053712 0.1105136 -0.3053712
4826250000 0.1077947 -0.3018372 0.8922053 0.3018372 0.8922053 0.3018372 0.1077947 -0.3018372
4876000000 0.1051463 -0.2983305 0.8948537 0.2983305 0.8948537 0.2983305 0.1051463 -0.2983305
4925750000 0.1025664 -0.2948512 0.8974336 0.2948512 0.8974336 0.2948512 0.1025664 -0.2948512
4975500000 0.1000529 -0.2913992 0.8999471 0.2913992 0.8999471 0.2913992 0.1000529 -0.2913992
5025250000 0.0976039 -0.2879746 0.9023961 0.2879746 0.9023961 0.2879746 0.0976039 -0.2879746
5075000000 0.0952176 -0.2845772 0.9047824 0.2845772 0.9047824 0.2845772 0.0952176 -0.2845772
5124750000 0.0928920 -0.2812072 0.9071080 0.2812072 0.9071080 0.2812072 0.0928920 -0.2812072
5174500000 0.0906255 -0.2778643 0.9093745 0.2778643 0.9093745 0.2778643 0.0906255 -0.2778643
5224250000 0.0884164 -0.2745484 0.9115836 0.2745484 0.9115836 0.2745484 0.0884164 -0.2745484
5274000000 0.0862630 -0.2712596 0.9137370 0.2712596 0.9137370 0.2712596 0.0862630 -0.2712596
5323750000 0.0841638 -0.2679975 0.9158362 0.2679975 0.9158362 0.2679975 0.0841638 -0.2679975
5373500000 0.0821171 -0.2647621 0.9178829 0.2647621 0.9178829 0.2647621 0.0821171 -0.2647621
5423250000 0.0801216 -0.2615532 0.9198784 0.2615532 0.9198784 0.2615532 0.0801216 -0.2615532
5473000000 0.0781758 -0.2583706 0.9218242 0.2583706 0.9218242 0.2583706 0.0781758 -0.2583706
5522750000 0.0762783 -0.2552142 0.9237217 0.2552142 0.9237217 0.2552142 0.0762783 -0.2552142
5572500000 0.0744278 -0.2520837 0.9255722 0.2520837 0.9255722 0.2520837 0.0744278 -0.2520837
5622250000 0.0726230 -0.2489789 0.9273770 0.2489789 0.9273770 0.2489789 0.0726230 -0.2489789
5672000000 0.0708626 -0.2458997 0.9291374 0.2458997 0.9291374 0.2458997 0.0708626 -0.2458997
5721750000 0.0691454 -0.2428457 0.9308546 0.2428457 0.9308546 0.2428457 0.0691454 -0.2428457
5771500000 0.0674703 -0.2398168 0.9325297 0.2398168 0.9325297 0.2398168 0.0674703 -0.2398168
5821250000 0.0658361 -0.2368128 0.9341639 0.2368128 0.9341639 0.2368128 0.0658361 -0.2368128
5871000000 0.0642418 -0.2338333 0.9357582 0.2338333 0.9357582 0.2338333 0.0642418 -0.2338333
5920750000 0.0626862 -0.2308782 0.9373138 0.2308782 0.9373138 0.2308782 0.0626862 -0.2308782
5970500000 0.0611683 -0.2279472 0.9388317 0.2279472 0.9388317 0.2279472 0.0611683 -0.2279472
6020250000 0.0596873 -0.2250401 0.9403127 0.2250401 0.9403127 0.2250401 0.0596873 -0.2250401
6070000000 0.0582420 -0.2221565 0.9417580 0.2221565 0.9417580 0.2221565 0.0582420 -0.2221565
6119750000 0.0568315 -0.2192964 0.9431685 0.2192964 0.9431685 0.2192964 0.0568315 -0.2192964
6169500000 0.0554550 -0.2164593 0.9445450 0.2164593 0.9445450 0.2164593 0.0554550 -0.2164593
6219250000 0.0541116 -0.2136451 0.9458884 0.2136451 0.9458884 0.2136451 0.0541116 -0.2136451
6269000000 0.0528004 -0.2108535 0.9471996 0.2108535 0.9471996 0.2108535 0.0528004 -0.2108535
6318750000 0.0515207 -0.2080842 0.9484793 0.2080842 0.9484793 0.2080842 0.0515207 -0.2080842
6368500000 0.0502716 -0.2053370 0.9497284 0.2053370 0.9497284 0.2053370 0.0502716 -0.2053370
6418250000 0.0490523 -0.2026116 0.9509477 0.2026116 0.9509477 0.2026116 0.0490523 -0.2026116
6468000000 0.0478621 -0.1999078 0.9521379 0.1999078 0.9521379 0.1999078 0.0478621 -0.1999078
6517750000 0.0467003 -0.1972252 0.9532997 0.1972252 0.9532997 0.1972252 0.0467003 -0.1972252
6567500000 0.0455662 -0.1945638 0.9544338 0.1945638 0.9544338 0.1945638 0.0455662 -0.1945638
6617250000 0.0444591 -0.1919231 0.9555409 0.1919231 0.9555409 0.1919231 0.0444591 -0.1919231
6667000000 0.0433784 -0.1893030 0.9566216 0.1893030 0.9566216 0.1893030 0.0433784 -0.1893030
6716750000 0.0423233 -0.1867032 0.9576767 0.1867032 0.9576767 0.1867032 0.0423233 -0.1867032
6766500000 0.0412934 -0.1841234 0.9587066 0.1841234 0.9587066 0.1841234 0.0412934 -0.1841234
6816250000 0.0402879 -0.1815634 0.9597121 0.1815634 0.9597121 0.1815634 0.0402879 -0.1815634
6866000000 0.0393064 -0.1790230 0.9606936 0.1790230 0.9606936 0.1790230 0.0393064 -0.1790230
6915750000 0.0383482 -0.1765019 0.9616518 0.1765019 0.9616518 0.1765019 0.0383482 -0.1765019
6965500000 0.0374127 -0.1739999 0.9625873 0.1739999 0.9625873 0.1739999 0.0374127 -0.1739999
7015250000 0.0364996 -0.1715167 0.9635004 0.1715167 0.9635004 0.1715167 0.0364996 -0.1715167
7065000000 0.0356081 -0.1690522 0.9643919 0.1690522 0.9643919 0.1690522 0.0356081 -0.1690522
7114750000 0.0347380 -0.1666059 0.9652620 0.1666059 0.9652620 0.1666059 0.0347380 -0.1666059
7164500000 0.0338885 -0.1641778 0.9661115 0.1641778 0.9661115 0.1641778 0.0338885 -0.1641778
7214250000 0.0330594 -0.1617676 0.9669406 0.1617676 0.9669406 0.1617676 0.0330594 -0.1617676
7264000000 0.0322500 -0.1593751 0.9677500 0.1593751 0.9677500 0.1593751 0.0322500 -0.1593751
7313750000 0.0314601 -0.1570001 0.9685399 0.1570001 0.9685399 0.1570001 0.0314601 -0.1570001
7363500000 0.0306890 -0.1546422 0.9693110 0.1546422 0.9693110 0.1546422 0.0306890 -0.1546422
7413250000 0.0299365 -0.1523014 0.9700635 0.1523014 0.9700635 0.1523014 0.0299365 -0.1523014
7463000000 0.0292021 -0.1499773 0.9707979 0.1499773 0.9707979 0.1499773 0.0292021 -0.1499773
7512750000 0.0284854 -0.1476699 0.9715146 0.1476699 0.9715146 0.1476699 0.0284854 -0.1476699
7562500000 0.0277860 -0.1453788 0.9722140 0.1453788 0.9722140 0.1453788 0.0277860 -0.1453788
7612250000 0.0271036 -0.1431039 0.9728964 0.1431039 0.9728964 0.1431039 0.0271036 -0.1431039
7662000000 0.0264377 -0.1408449 0.9735623 0.1408449 0.9735623 0.1408449 0.0264377 -0.1408449
7711750000 0.0257881 -0.1386016 0.9742119 0.1386016 0.9742119 0.1386016 0.0257881 -0.1386016
7761500000 0.0251544 -0.1363740 0.9748456 0.1363740 0.9748456 0.1363740 0.0251544 -0.1363740
7811250000 0.0245361 -0.1341616 0.9754639 0.1341616 0.9754639 0.1341616 0.0245361 -0.1341616
7861000000 0.0239331 -0.1319645 0.9760669 0.1319645 0.9760669 0.1319645 0.0239331 -0.1319645
7910750000 0.0233450 -0.1297822 0.9766550 0.1297822 0.9766550 0.1297822 0.0233450 -0.1297822
7960500000 0.0227715 -0.1276148 0.9772285 0.1276148 0.9772285 0.1276148 0.0227715 -0.1276148
8010250000 0.0222123 -0.1254620 0.9777877 0.1254620 0.9777877 0.1254620 0.0222123 -0.1254620
8060000000 0.0216671 -0.1233235 0.9783329 0.1233235 0.9783329 0.1233235 0.0216671 -0.1233235
8109750000 0.0211355 -0.1211993 0.9788645 0.1211993 0.9788645 0.1211993 0.0211355 -0.1211993
8159500000 0.0206174 -0.1190891 0.9793826 0.1190891 0.9793826 0.1190891 0.0206174 -0.1190891
8209250000 0.0201125 -0.1169928 0.9798875 0.1169928 0.9798875 0.1169928 0.0201125 -0.1169928
8259000000 0.0196204 -0.1149101 0.9803796 0.1149101 0.9803796 0.1149101 0.0196204 -0.1149101
8308750000 0.0191410 -0.1128410 0.9808590 0.1128410 0.9808590 0.1128410 0.0191410 -0.1128410
8358500000 0.0186739 -0.1107852 0.9813261 0.1107852 0.9813261 0.1107852 0.0186739 -0.1107852
8408250000 0.0182190 -0.1087427 0.9817810 0.1087427 0.9817810 0.1087427 0.0182190 -0.1087427
8458000000 0.0177760 -0.1067131 0.9822240 0.1067131 0.9822240 0.1067131 0.0177760 -0.1067131
8507750000 0.0173447 -0.1046964 0.9826553 0.1046964 0.9826553 0.1046964 0.0173447 -0.1046964
8557500000 0.0169248 -0.1026923 0.9830752 0.1026923 0.9830752 0.1026923 0.0169248 -0.1026923
8607250000 0.0165162 -0.1007009 0.9834838 0.1007009 0.9834838 0.1007009 0.0165162 -0.1007009
8657000000 0.0161186 -0.0987218 0.9838814 0.0987218 0.9838814 0.0987218 0.0161186 -0.0987218
8706750000 0.0157317 -0.0967549 0.9842683 0.0967549 0.9842683 0.0967549 0.0157317 -0.0967549
8756500000 0.0153555 -0.0948001 0.9846445 0.0948001 0.9846445 0.0948001 0.0153555 -0.0948001
8806250000 0.0149897 -0.0928573 0.9850103 0.0928573 0.9850103 0.0928573 0.0149897 -0.0928573
8856000000 0.0146341 -0.0909262 0.9853659 0.0909262 0.9853659 0.0909262 0.0146341 -0.0909262
8905750000 0.0142885 -0.0890068 0.9857115 0.0890068 0.9857115 0.0890068 0.0142885 -0.0890068
8955500000 0.0139527 -0.0870988 0.9860473 0.0870988 0.9860473 0.0870988 0.0139527 -0.0870988
9005250000 0.0136266 -0.0852023 0.9863734 0.0852023 0.9863734 0.0852023 0.0136266 -0.0852023
9055000000 0.0133100 -0.0833169 0.9866900 0.0833169 0.9866900 0.0833169 0.0133100 -0.0833169
9104750000 0.0130027 -0.0814427 0.9869973 0.0814427 0.9869973 0.0814427 0.0130027 -0.0814427
9154500000 0.0127046 -0.0795794 0.9872954 0.0795794 0.9872954 0.0795794 0.0127046 -0.0795794
9204250000 0.0124154 -0.0777270 0.9875846 0.0777270 0.9875846 0.0777270 0.0124154 -0.0777270
9254000000 0.0121351 -0.0758852 0.9878649 0.0758852 0.9878649 0.0758852 0.0121351 -0.0758852
9303750000 0.0118634 -0.0740540 0.9881366 0.0740540 0.9881366 0.0740540 0.0118634 -0.0740540
9353500000 0.0116002 -0.0722332 0.9883998 0.0722332 0.9883998 0.0722332 0.0116002 -0.0722332
9403250000 0.0113454 -0.0704228 0.9886546 0.0704228 0.9886546 0.0704228 0.0113454 -0.0704228
9453000000 0.0110988 -0.0686226 0.9889012 0.0686226 0.9889012 0.0686226 0.0110988 -0.0686226
9502750000 0.0108603 -0.0668324 0.9891397 0.0668324 0.9891397 0.0668324 0.0108603 -0.0668324
9552500000 0.0106298 -0.0650523 0.9893702 0.0650523 0.9893702 0.0650523 0.0106298 -0.0650523
9602250000 0.0104071 -0.0632819 0.9895929 0.0632819 0.9895929 0.0632819 0.0104071 -0.0632819
9652000000 0.0101920 -0.0615213 0.9898080 0.0615213 0.9898080 0.0615213 0.0101920 -0.0615213
9701750000 0.0099845 -0.0597703 0.9900155 0.0597703 0.9900155 0.0597703 0.0099845 -0.0597703
9751500000 0.0097844 -0.0580289 0.9902156 0.0580289 0.9902156 0.0580289 0.0097844 -0.0580289
9801250000 0.0095917 -0.0562968 0.9904083 0.0562968 0.9904083 0.0562968 0.0095917 -0.0562968
9851000000 0.0094061 -0.0545740 0.9905939 0.0545740 0.9905939 0.0545740 0.0094061 -0.0545740
9900750000 0.0092276 -0.0528604 0.9907724 0.0528604 0.9907724 0.0528604 0.0092276 -0.0528604
9950500000 0.0090560 -0.0511559 0.9909440 0.0511559 0.9909440 0.0511559 0.0090560 -0.0511559
10000250000 0.0088913 -0.0494604 0.9911087 0.0494604 0.9911087 0.0494604 0.0088913 -0.0494604
10050000000 0.0087333 -0.0477737 0.9912667 0.0477737 0.9912667 0.0477737 0.0087333 -0.0477737
10099750000 0.0085819 -0.0460958 0.9914181 0.0460958 0.9914181 0.0460958 0.0085819 -0.0460958
10149500000 0.0084370 -0.0444267 0.9915630 0.0444267 0.9915630 0.0444267 0.0084370 -0.0444267
10199250000 0.0082986 -0.0427661 0.9917014 0.0427661 0.9917014 0.0427661 0.0082986 -0.0427661
10249000000 0.0081664 -0.0411139 0.9918336 0.0411139 0.9918336 0.0411139 0.0081664 -0.0411139
10298750000 0.0080405 -0.0394702 0.9919595 0.0394702 0.9919595 0.0394702 0.0080405 -0.0394702
10348500000 0.0079208 -0.0378348 0.9920792 0.0378348 0.9920792 0.0378348 0.0079208 -0.0378348
10398250000 0.0078070 -0.0362076 0.9921930 0.0362076 0.9921930 0.0362076 0.0078070 -0.0362076
10448000000 0.0076992 -0.0345885 0.9923008 0.0345885 0.9923008 0.0345885 0.0076992 -0.0345885
10497750000 0.0075972 -0.0329775 0.9924028 0.0329775 0.9924028 0.0329775 0.0075972 -0.0329775
