!Murata Part Number: GRM0223C1C3R1WA03
!These Parameters are Measured in Series Mode Connection
!Data Generated on Mar 30, 2021
!       o--ll--o
!Port1            Port2
!       o------o
!Operation Temp=25[degC], DC Bias Voltage=0[V]
!Freq. Start=100[MHz] Stop=9[GHz] 401[Steps]
# Hz S RI R 50
!Freq.(Hz) S11(Real) S11(Imag) S21(Real) S21(Imag) S12(Real) S12(Imag) S22(Real) S22(Imag)
100000000 0.9633643 -0.1876715 0.0366357 0.1876715 0.0366357 0.1876715 0.9633643 -0.1876715
121000000 0.9472494 -0.2232996 0.0527506 0.2232996 0.0527506 0.2232996 0.9472494 -0.2232996
142000000 0.9287536 -0.2569588 0.0712464 0.2569588 0.0712464 0.2569588 0.9287536 -0.2569588
163000000 0.9081794 -0.2884534 0.0918206 0.2884534 0.0918206 0.2884534 0.9081794 -0.2884534
184000000 0.8858417 -0.3176420 0.1141583 0.3176420 0.1141583 0.3176420 0.8858417 -0.3176420
205000000 0.8620580 -0.3444350 0.1379420 0.3444350 0.1379420 0.3444350 0.8620580 -0.3444350
226000000 0.8371387 -0.3687917 0.1628613 0.3687917 0.1628613 0.3687917 0.8371387 -0.3687917
247000000 0.8113801 -0.3907153 0.1886199 0.3907153 0.1886199 0.3907153 0.8113801 -0.3907153
268000000 0.7850585 -0.4102464 0.2149415 0.4102464 0.2149415 0.4102464 0.7850585 -0.4102464
289000000 0.7584256 -0.4274574 0.2415744 0.4274574 0.2415744 0.4274574 0.7584256 -0.4274574
310000000 0.7317066 -0.4424455 0.2682934 0.4424455 0.2682934 0.4424455 0.7317066 -0.4424455
331000000 0.7050987 -0.4553266 0.2949013 0.4553266 0.2949013 0.4553266 0.7050987 -0.4553266
352000000 0.6787714 -0.4662298 0.3212286 0.4662298 0.3212286 0.4662298 0.6787714 -0.4662298
373000000 0.6528671 -0.4752924 0.3471329 0.4752924 0.3471329 0.4752924 0.6528671 -0.4752924
394000000 0.6275030 -0.4826555 0.3724970 0.4826555 0.3724970 0.4826555 0.6275030 -0.4826555
415000000 0.6027729 -0.4884606 0.3972271 0.4884606 0.3972271 0.4884606 0.6027729 -0.4884606
436000000 0.5787499 -0.4928467 0.4212501 0.4928467 0.4212501 0.4928467 0.5787499 -0.4928467
457000000 0.5554881 -0.4959483 0.4445119 0.4959483 0.4445119 0.4959483 0.5554881 -0.4959483
478000000 0.5330258 -0.4978936 0.4669742 0.4978936 0.4669742 0.4978936 0.5330258 -0.4978936
499000000 0.5113872 -0.4988038 0.4886128 0.4988038 0.4886128 0.4988038 0.5113872 -0.4988038
520000000 0.4905847 -0.4987921 0.5094153 0.4987921 0.5094153 0.4987921 0.4905847 -0.4987921
541000000 0.4706210 -0.4979632 0.5293790 0.4979632 0.5293790 0.4979632 0.4706210 -0.4979632
562000000 0.4514908 -0.4964139 0.5485092 0.4964139 0.5485092 0.4964139 0.4514908 -0.4964139
583000000 0.4331822 -0.4942327 0.5668178 0.4942327 0.5668178 0.4942327 0.4331822 -0.4942327
604000000 0.4156782 -0.4914999 0.5843218 0.4914999 0.5843218 0.4914999 0.4156782 -0.4914999
625000000 0.3989580 -0.4882886 0.6010420 0.4882886 0.6010420 0.4882886 0.3989580 -0.4882886
646000000 0.3829976 -0.4846645 0.6170024 0.4846645 0.6170024 0.4846645 0.3829976 -0.4846645
667000000 0.3677710 -0.4806869 0.6322290 0.4806869 0.6322290 0.4806869 0.3677710 -0.4806869
688000000 0.3532508 -0.4764087 0.6467492 0.4764087 0.6467492 0.4764087 0.3532508 -0.4764087
709000000 0.3394086 -0.4718775 0.6605914 0.4718775 0.6605914 0.4718775 0.3394086 -0.4718775
730000000 0.3262157 -0.4671352 0.6737843 0.4671352 0.6737843 0.4671352 0.3262157 -0.4671352
751000000 0.3136434 -0.4622195 0.6863566 0.4622195 0.6863566 0.4622195 0.3136434 -0.4622195
772000000 0.3016632 -0.4571636 0.6983368 0.4571636 0.6983368 0.4571636 0.3016632 -0.4571636
793000000 0.2902471 -0.4519968 0.7097529 0.4519968 0.7097529 0.4519968 0.2902471 -0.4519968
814000000 0.2793678 -0.4467450 0.7206322 0.4467450 0.7206322 0.4467450 0.2793678 -0.4467450
835000000 0.2689990 -0.4414311 0.7310010 0.4414311 0.7310010 0.4414311 0.2689990 -0.4414311
856000000 0.2591150 -0.4360750 0.7408850 0.4360750 0.7408850 0.4360750 0.2591150 -0.4360750
877000000 0.2496913 -0.4306942 0.7503087 0.4306942 0.7503087 0.4306942 0.2496913 -0.4306942
898000000 0.2407044 -0.4253040 0.7592956 0.4253040 0.7592956 0.4253040 0.2407044 -0.4253040
919000000 0.2321317 -0.4199177 0.7678683 0.4199177 0.7678683 0.4199177 0.2321317 -0.4199177
940000000 0.2239519 -0.4145468 0.7760481 0.4145468 0.7760481 0.4145468 0.2239519 -0.4145468
961000000 0.2161444 -0.4092013 0.7838556 0.4092013 0.7838556 0.4092013 0.2161444 -0.4092013
982000000 0.2086899 -0.4038899 0.7913101 0.4038899 0.7913101 0.4038899 0.2086899 -0.4038899
1003000000 0.2015700 -0.3986197 0.7984300 0.3986197 0.7984300 0.3986197 0.2015700 -0.3986197
1024000000 0.1947672 -0.3933972 0.8052328 0.3933972 0.8052328 0.3933972 0.1947672 -0.3933972
1045000000 0.1882650 -0.3882275 0.8117350 0.3882275 0.8117350 0.3882275 0.1882650 -0.3882275
1066000000 0.1820478 -0.3831151 0.8179522 0.3831151 0.8179522 0.3831151 0.1820478 -0.3831151
1087000000 0.1761007 -0.3780638 0.8238993 0.3780638 0.8238993 0.3780638 0.1761007 -0.3780638
1108000000 0.1704099 -0.3730766 0.8295901 0.3730766 0.8295901 0.3730766 0.1704099 -0.3730766
1129000000 0.1649621 -0.3681559 0.8350379 0.3681559 0.8350379 0.3681559 0.1649621 -0.3681559
1150000000 0.1597449 -0.3633036 0.8402551 0.3633036 0.8402551 0.3633036 0.1597449 -0.3633036
1171000000 0.1547465 -0.3585213 0.8452535 0.3585213 0.8452535 0.3585213 0.1547465 -0.3585213
1192000000 0.1499558 -0.3538101 0.8500442 0.3538101 0.8500442 0.3538101 0.1499558 -0.3538101
1213000000 0.1453624 -0.3491708 0.8546376 0.3491708 0.8546376 0.3491708 0.1453624 -0.3491708
1234000000 0.1409563 -0.3446038 0.8590437 0.3446038 0.8590437 0.3446038 0.1409563 -0.3446038
1255000000 0.1367283 -0.3401092 0.8632717 0.3401092 0.8632717 0.3401092 0.1367283 -0.3401092
1276000000 0.1326695 -0.3356872 0.8673305 0.3356872 0.8673305 0.3356872 0.1326695 -0.3356872
1297000000 0.1287717 -0.3313374 0.8712283 0.3313374 0.8712283 0.3313374 0.1287717 -0.3313374
1318000000 0.1250268 -0.3270596 0.8749732 0.3270596 0.8749732 0.3270596 0.1250268 -0.3270596
1339000000 0.1214277 -0.3228531 0.8785723 0.3228531 0.8785723 0.3228531 0.1214277 -0.3228531
1360000000 0.1179672 -0.3187174 0.8820328 0.3187174 0.8820328 0.3187174 0.1179672 -0.3187174
1381000000 0.1146387 -0.3146516 0.8853613 0.3146516 0.8853613 0.3146516 0.1146387 -0.3146516
1402000000 0.1114360 -0.3106549 0.8885640 0.3106549 0.8885640 0.3106549 0.1114360 -0.3106549
1423000000 0.1083532 -0.3067264 0.8916468 0.3067264 0.8916468 0.3067264 0.1083532 -0.3067264
1444000000 0.1053847 -0.3028651 0.8946153 0.3028651 0.8946153 0.3028651 0.1053847 -0.3028651
1465000000 0.1025253 -0.2990701 0.8974747 0.2990701 0.8974747 0.2990701 0.1025253 -0.2990701
1486000000 0.0997698 -0.2953401 0.9002302 0.2953401 0.9002302 0.2953401 0.0997698 -0.2953401
1507000000 0.0971136 -0.2916741 0.9028864 0.2916741 0.9028864 0.2916741 0.0971136 -0.2916741
1528000000 0.0945523 -0.2880710 0.9054477 0.2880710 0.9054477 0.2880710 0.0945523 -0.2880710
1549000000 0.0920815 -0.2845297 0.9079185 0.2845297 0.9079185 0.2845297 0.0920815 -0.2845297
1570000000 0.0896972 -0.2810489 0.9103028 0.2810489 0.9103028 0.2810489 0.0896972 -0.2810489
1591000000 0.0873958 -0.2776275 0.9126042 0.2776275 0.9126042 0.2776275 0.0873958 -0.2776275
1612000000 0.0851734 -0.2742644 0.9148266 0.2742644 0.9148266 0.2742644 0.0851734 -0.2742644
1633000000 0.0830268 -0.2709583 0.9169732 0.2709583 0.9169732 0.2709583 0.0830268 -0.2709583
1654000000 0.0809526 -0.2677081 0.9190474 0.2677081 0.9190474 0.2677081 0.0809526 -0.2677081
1675000000 0.0789478 -0.2645127 0.9210522 0.2645127 0.9210522 0.2645127 0.0789478 -0.2645127
1696000000 0.0770095 -0.2613709 0.9229905 0.2613709 0.9229905 0.2613709 0.0770095 -0.2613709
1717000000 0.0751349 -0.2582816 0.9248651 0.2582816 0.9248651 0.2582816 0.0751349 -0.2582816
1738000000 0.0733213 -0.2552436 0.9266787 0.2552436 0.9266787 0.2552436 0.0733213 -0.2552436
1759000000 0.0715663 -0.2522558 0.9284337 0.2522558 0.9284337 0.2522558 0.0715663 -0.2522558
1780000000 0.0698674 -0.2493172 0.9301326 0.2493172 0.9301326 0.2493172 0.0698674 -0.2493172
1801000000 0.0682223 -0.2464268 0.9317777 0.2464268 0.9317777 0.2464268 0.0682223 -0.2464268
1822000000 0.0666290 -0.2435833 0.9333710 0.2435833 0.9333710 0.2435833 0.0666290 -0.2435833
1843000000 0.0650854 -0.2407858 0.9349146 0.2407858 0.9349146 0.2407858 0.0650854 -0.2407858
1864000000 0.0635894 -0.2380334 0.9364106 0.2380334 0.9364106 0.2380334 0.0635894 -0.2380334
1885000000 0.0621393 -0.2353249 0.9378607 0.2353249 0.9378607 0.2353249 0.0621393 -0.2353249
1906000000 0.0607333 -0.2326595 0.9392667 0.2326595 0.9392667 0.2326595 0.0607333 -0.2326595
1927000000 0.0593696 -0.2300361 0.9406304 0.2300361 0.9406304 0.2300361 0.0593696 -0.2300361
1948000000 0.0580467 -0.2274538 0.9419533 0.2274538 0.9419533 0.2274538 0.0580467 -0.2274538
1969000000 0.0567630 -0.2249118 0.9432370 0.2249118 0.9432370 0.2249118 0.0567630 -0.2249118
1990000000 0.0555170 -0.2224091 0.9444830 0.2224091 0.9444830 0.2224091 0.0555170 -0.2224091
2011000000 0.0543074 -0.2199448 0.9456926 0.2199448 0.9456926 0.2199448 0.0543074 -0.2199448
2032000000 0.0531327 -0.2175182 0.9468673 0.2175182 0.9468673 0.2175182 0.0531327 -0.2175182
2053000000 0.0519918 -0.2151283 0.9480082 0.2151283 0.9480082 0.2151283 0.0519918 -0.2151283
2074000000 0.0508834 -0.2127743 0.9491166 0.2127743 0.9491166 0.2127743 0.0508834 -0.2127743
2095000000 0.0498063 -0.2104556 0.9501937 0.2104556 0.9501937 0.2104556 0.0498063 -0.2104556
2116000000 0.0487593 -0.2081712 0.9512407 0.2081712 0.9512407 0.2081712 0.0487593 -0.2081712
2137000000 0.0477416 -0.2059205 0.9522584 0.2059205 0.9522584 0.2059205 0.0477416 -0.2059205
2158000000 0.0467519 -0.2037026 0.9532481 0.2037026 0.9532481 0.2037026 0.0467519 -0.2037026
2179000000 0.0457893 -0.2015169 0.9542107 0.2015169 0.9542107 0.2015169 0.0457893 -0.2015169
2200000000 0.0448529 -0.1993627 0.9551471 0.1993627 0.9551471 0.1993627 0.0448529 -0.1993627
2221000000 0.0439419 -0.1972393 0.9560581 0.1972393 0.9560581 0.1972393 0.0439419 -0.1972393
2242000000 0.0430552 -0.1951460 0.9569448 0.1951460 0.9569448 0.1951460 0.0430552 -0.1951460
2263000000 0.0421921 -0.1930822 0.9578079 0.1930822 0.9578079 0.1930822 0.0421921 -0.1930822
2284000000 0.0413519 -0.1910472 0.9586481 0.1910472 0.9586481 0.1910472 0.0413519 -0.1910472
2305000000 0.0405337 -0.1890405 0.9594663 0.1890405 0.9594663 0.1890405 0.0405337 -0.1890405
2326000000 0.0397368 -0.1870613 0.9602632 0.1870613 0.9602632 0.1870613 0.0397368 -0.1870613
2347000000 0.0389606 -0.1851092 0.9610394 0.1851092 0.9610394 0.1851092 0.0389606 -0.1851092
2368000000 0.0382042 -0.1831836 0.9617958 0.1831836 0.9617958 0.1831836 0.0382042 -0.1831836
2389000000 0.0374672 -0.1812838 0.9625328 0.1812838 0.9625328 0.1812838 0.0374672 -0.1812838
2410000000 0.0367489 -0.1794094 0.9632511 0.1794094 0.9632511 0.1794094 0.0367489 -0.1794094
2431000000 0.0360487 -0.1775599 0.9639513 0.1775599 0.9639513 0.1775599 0.0360487 -0.1775599
2452000000 0.0353660 -0.1757346 0.9646340 0.1757346 0.9646340 0.1757346 0.0353660 -0.1757346
2473000000 0.0347003 -0.1739331 0.9652997 0.1739331 0.9652997 0.1739331 0.0347003 -0.1739331
2494000000 0.0340510 -0.1721550 0.9659490 0.1721550 0.9659490 0.1721550 0.0340510 -0.1721550
2515000000 0.0334176 -0.1703997 0.9665824 0.1703997 0.9665824 0.1703997 0.0334176 -0.1703997
2536000000 0.0327997 -0.1686667 0.9672003 0.1686667 0.9672003 0.1686667 0.0327997 -0.1686667
2557000000 0.0321968 -0.1669556 0.9678032 0.1669556 0.9678032 0.1669556 0.0321968 -0.1669556
2578000000 0.0316084 -0.1652661 0.9683916 0.1652661 0.9683916 0.1652661 0.0316084 -0.1652661
2599000000 0.0310341 -0.1635975 0.9689659 0.1635975 0.9689659 0.1635975 0.0310341 -0.1635975
2620000000 0.0304734 -0.1619496 0.9695266 0.1619496 0.9695266 0.1619496 0.0304734 -0.1619496
2641000000 0.0299261 -0.1603218 0.9700739 0.1603218 0.9700739 0.1603218 0.0299261 -0.1603218
2662000000 0.0293916 -0.1587139 0.9706084 0.1587139 0.9706084 0.1587139 0.0293916 -0.1587139
2683000000 0.0288696 -0.1571253 0.9711304 0.1571253 0.9711304 0.1571253 0.0288696 -0.1571253
2704000000 0.0283597 -0.1555558 0.9716403 0.1555558 0.9716403 0.1555558 0.0283597 -0.1555558
2725000000 0.0278616 -0.1540049 0.9721384 0.1540049 0.9721384 0.1540049 0.0278616 -0.1540049
2746000000 0.0273750 -0.1524723 0.9726250 0.1524723 0.9726250 0.1524723 0.0273750 -0.1524723
2767000000 0.0268995 -0.1509576 0.9731005 0.1509576 0.9731005 0.1509576 0.0268995 -0.1509576
2788000000 0.0264348 -0.1494605 0.9735652 0.1494605 0.9735652 0.1494605 0.0264348 -0.1494605
2809000000 0.0259807 -0.1479806 0.9740193 0.1479806 0.9740193 0.1479806 0.0259807 -0.1479806
2830000000 0.0255367 -0.1465177 0.9744633 0.1465177 0.9744633 0.1465177 0.0255367 -0.1465177
2851000000 0.0251027 -0.1450714 0.9748973 0.1450714 0.9748973 0.1450714 0.0251027 -0.1450714
2872000000 0.0246784 -0.1436413 0.9753216 0.1436413 0.9753216 0.1436413 0.0246784 -0.1436413
2893000000 0.0242634 -0.1422272 0.9757366 0.1422272 0.9757366 0.1422272 0.0242634 -0.1422272
2914000000 0.0238577 -0.1408288 0.9761423 0.1408288 0.9761423 0.1408288 0.0238577 -0.1408288
2935000000 0.0234608 -0.1394457 0.9765392 0.1394457 0.9765392 0.1394457 0.0234608 -0.1394457
2956000000 0.0230725 -0.1380778 0.9769275 0.1380778 0.9769275 0.1380778 0.0230725 -0.1380778
2977000000 0.0226928 -0.1367246 0.9773072 0.1367246 0.9773072 0.1367246 0.0226928 -0.1367246
2998000000 0.0223212 -0.1353860 0.9776788 0.1353860 0.9776788 0.1353860 0.0223212 -0.1353860
3019000000 0.0219576 -0.1340617 0.9780424 0.1340617 0.9780424 0.1340617 0.0219576 -0.1340617
3040000000 0.0216018 -0.1327514 0.9783982 0.1327514 0.9783982 0.1327514 0.0216018 -0.1327514
3061000000 0.0212536 -0.1314548 0.9787464 0.1314548 0.9787464 0.1314548 0.0212536 -0.1314548
3082000000 0.0209128 -0.1301718 0.9790872 0.1301718 0.9790872 0.1301718 0.0209128 -0.1301718
3103000000 0.0205792 -0.1289020 0.9794208 0.1289020 0.9794208 0.1289020 0.0205792 -0.1289020
3124000000 0.0202526 -0.1276453 0.9797474 0.1276453 0.9797474 0.1276453 0.0202526 -0.1276453
3145000000 0.0199329 -0.1264014 0.9800671 0.1264014 0.9800671 0.1264014 0.0199329 -0.1264014
3166000000 0.0196199 -0.1251700 0.9803801 0.1251700 0.9803801 0.1251700 0.0196199 -0.1251700
3187000000 0.0193133 -0.1239510 0.9806867 0.1239510 0.9806867 0.1239510 0.0193133 -0.1239510
3208000000 0.0190131 -0.1227442 0.9809869 0.1227442 0.9809869 0.1227442 0.0190131 -0.1227442
3229000000 0.0187191 -0.1215493 0.9812809 0.1215493 0.9812809 0.1215493 0.0187191 -0.1215493
3250000000 0.0184311 -0.1203661 0.9815689 0.1203661 0.9815689 0.1203661 0.0184311 -0.1203661
3271000000 0.0181491 -0.1191944 0.9818509 0.1191944 0.9818509 0.1191944 0.0181491 -0.1191944
3292000000 0.0178728 -0.1180341 0.9821272 0.1180341 0.9821272 0.1180341 0.0178728 -0.1180341
3313000000 0.0176021 -0.1168848 0.9823979 0.1168848 0.9823979 0.1168848 0.0176021 -0.1168848
3334000000 0.0173368 -0.1157466 0.9826632 0.1157466 0.9826632 0.1157466 0.0173368 -0.1157466
3355000000 0.0170770 -0.1146190 0.9829230 0.1146190 0.9829230 0.1146190 0.0170770 -0.1146190
3376000000 0.0168223 -0.1135021 0.9831777 0.1135021 0.9831777 0.1135021 0.0168223 -0.1135021
3397000000 0.0165728 -0.1123956 0.9834272 0.1123956 0.9834272 0.1123956 0.0165728 -0.1123956
3418000000 0.0163283 -0.1112993 0.9836717 0.1112993 0.9836717 0.1112993 0.0163283 -0.1112993
3439000000 0.0160886 -0.1102130 0.9839114 0.1102130 0.9839114 0.1102130 0.0160886 -0.1102130
3460000000 0.0158536 -0.1091366 0.9841464 0.1091366 0.9841464 0.1091366 0.0158536 -0.1091366
3481000000 0.0156234 -0.1080700 0.9843766 0.1080700 0.9843766 0.1080700 0.0156234 -0.1080700
3502000000 0.0153976 -0.1070129 0.9846024 0.1070129 0.9846024 0.1070129 0.0153976 -0.1070129
3523000000 0.0151764 -0.1059653 0.9848236 0.1059653 0.9848236 0.1059653 0.0151764 -0.1059653
3544000000 0.0149594 -0.1049269 0.9850406 0.1049269 0.9850406 0.1049269 0.0149594 -0.1049269
3565000000 0.0147467 -0.1038976 0.9852533 0.1038976 0.9852533 0.1038976 0.0147467 -0.1038976
3586000000 0.0145382 -0.1028773 0.9854618 0.1028773 0.9854618 0.1028773 0.0145382 -0.1028773
3607000000 0.0143337 -0.1018659 0.9856663 0.1018659 0.9856663 0.1018659 0.0143337 -0.1018659
3628000000 0.0141332 -0.1008631 0.9858668 0.1008631 0.9858668 0.1008631 0.0141332 -0.1008631
3649000000 0.0139365 -0.0998688 0.9860635 0.0998688 0.9860635 0.0998688 0.0139365 -0.0998688
3670000000 0.0137437 -0.0988830 0.9862563 0.0988830 0.9862563 0.0988830 0.0137437 -0.0988830
3691000000 0.0135546 -0.0979055 0.9864454 0.0979055 0.9864454 0.0979055 0.0135546 -0.0979055
3712000000 0.0133691 -0.0969361 0.9866309 0.0969361 0.9866309 0.0969361 0.0133691 -0.0969361
3733000000 0.0131872 -0.0959748 0.9868128 0.0959748 0.9868128 0.0959748 0.0131872 -0.0959748
3754000000 0.0130087 -0.0950213 0.9869913 0.0950213 0.9869913 0.0950213 0.0130087 -0.0950213
3775000000 0.0128337 -0.0940757 0.9871663 0.0940757 0.9871663 0.0940757 0.0128337 -0.0940757
3796000000 0.0126621 -0.0931377 0.9873379 0.0931377 0.9873379 0.0931377 0.0126621 -0.0931377
3817000000 0.0124936 -0.0922072 0.9875064 0.0922072 0.9875064 0.0922072 0.0124936 -0.0922072
3838000000 0.0123284 -0.0912842 0.9876716 0.0912842 0.9876716 0.0912842 0.0123284 -0.0912842
3859000000 0.0121664 -0.0903685 0.9878336 0.0903685 0.9878336 0.0903685 0.0121664 -0.0903685
3880000000 0.0120074 -0.0894600 0.9879926 0.0894600 0.9879926 0.0894600 0.0120074 -0.0894600
3901000000 0.0118514 -0.0885587 0.9881486 0.0885587 0.9881486 0.0885587 0.0118514 -0.0885587
3922000000 0.0116984 -0.0876643 0.9883016 0.0876643 0.9883016 0.0876643 0.0116984 -0.0876643
3943000000 0.0115482 -0.0867768 0.9884518 0.0867768 0.9884518 0.0867768 0.0115482 -0.0867768
3964000000 0.0114009 -0.0858962 0.9885991 0.0858962 0.9885991 0.0858962 0.0114009 -0.0858962
3985000000 0.0112564 -0.0850222 0.9887436 0.0850222 0.9887436 0.0850222 0.0112564 -0.0850222
4006000000 0.0111146 -0.0841548 0.9888854 0.0841548 0.9888854 0.0841548 0.0111146 -0.0841548
4027000000 0.0109754 -0.0832939 0.9890246 0.0832939 0.9890246 0.0832939 0.0109754 -0.0832939
4048000000 0.0108389 -0.0824395 0.9891611 0.0824395 0.9891611 0.0824395 0.0108389 -0.0824395
4069000000 0.0107049 -0.0815913 0.9892951 0.0815913 0.9892951 0.0815913 0.0107049 -0.0815913
4090000000 0.0105735 -0.0807494 0.9894265 0.0807494 0.9894265 0.0807494 0.0105735 -0.0807494
4111000000 0.0104445 -0.0799137 0.9895555 0.0799137 0.9895555 0.0799137 0.0104445 -0.0799137
4132000000 0.0103179 -0.0790839 0.9896821 0.0790839 0.9896821 0.0790839 0.0103179 -0.0790839
4153000000 0.0101937 -0.0782602 0.9898063 0.0782602 0.9898063 0.0782602 0.0101937 -0.0782602
4174000000 0.0100719 -0.0774423 0.9899281 0.0774423 0.9899281 0.0774423 0.0100719 -0.0774423
4195000000 0.0099523 -0.0766302 0.9900477 0.0766302 0.9900477 0.0766302 0.0099523 -0.0766302
4216000000 0.0098349 -0.0758239 0.9901651 0.0758239 0.9901651 0.0758239 0.0098349 -0.0758239
4237000000 0.0097198 -0.0750231 0.9902802 0.0750231 0.9902802 0.0750231 0.0097198 -0.0750231
4258000000 0.0096068 -0.0742280 0.9903932 0.0742280 0.9903932 0.0742280 0.0096068 -0.0742280
4279000000 0.0094959 -0.0734383 0.9905041 0.0734383 0.9905041 0.0734383 0.0094959 -0.0734383
4300000000 0.0093871 -0.0726541 0.9906129 0.0726541 0.9906129 0.0726541 0.0093871 -0.0726541
4321000000 0.0092804 -0.0718751 0.9907196 0.0718751 0.9907196 0.0718751 0.0092804 -0.0718751
4342000000 0.0091756 -0.0711015 0.9908244 0.0711015 0.9908244 0.0711015 0.0091756 -0.0711015
4363000000 0.0090729 -0.0703330 0.9909271 0.0703330 0.9909271 0.0703330 0.0090729 -0.0703330
4384000000 0.0089720 -0.0695697 0.9910280 0.0695697 0.9910280 0.0695697 0.0089720 -0.0695697
4405000000 0.0088731 -0.0688114 0.9911269 0.0688114 0.9911269 0.0688114 0.0088731 -0.0688114
4426000000 0.0087760 -0.0680581 0.9912240 0.0680581 0.9912240 0.0680581 0.0087760 -0.0680581
4447000000 0.0086807 -0.0673097 0.9913193 0.0673097 0.9913193 0.0673097 0.0086807 -0.0673097
4468000000 0.0085873 -0.0665662 0.9914127 0.0665662 0.9914127 0.0665662 0.0085873 -0.0665662
4489000000 0.0084956 -0.0658275 0.9915044 0.0658275 0.9915044 0.0658275 0.0084956 -0.0658275
4510000000 0.0084056 -0.0650935 0.9915944 0.0650935 0.9915944 0.0650935 0.0084056 -0.0650935
