!Murata Part Number: GRM0225C1E5R1CA03
!These Parameters are Measured in Series Mode Connection
!Data Generated on Mar 30, 2021
!       o--ll--o
!Port1            Port2
!       o------o
!Operation Temp=25[degC], DC Bias Voltage=0[V]
!Freq. Start=100[MHz] Stop=9[GHz] 401[Steps]
# Hz S RI R 50
!Freq.(Hz) S11(Real) S11(Imag) S21(Real) S21(Imag) S12(Real) S12(Imag) S22(Real) S22(Imag)
100000000 0.9067026 -0.2906021 0.0932974 0.2906021 0.0932974 0.2906021 0.9067026 -0.2906021
121000000 0.8690434 -0.3370541 0.1309566 0.3370541 0.1309566 0.3370541 0.8690434 -0.3370541
142000000 0.8280902 -0.3769510 0.1719098 0.3769510 0.1719098 0.3769510 0.8280902 -0.3769510
163000000 0.7851536 -0.4103123 0.2148464 0.4103123 0.2148464 0.4103123 0.7851536 -0.4103123
184000000 0.7413864 -0.4374167 0.2586136 0.4374167 0.2586136 0.4374167 0.7413864 -0.4374167
205000000 0.6977472 -0.4587251 0.3022528 0.4587251 0.3022528 0.4587251 0.6977472 -0.4587251
226000000 0.6549907 -0.4748091 0.3450093 0.4748091 0.3450093 0.4748091 0.6549907 -0.4748091
247000000 0.6136787 -0.4862899 0.3863213 0.4862899 0.3863213 0.4862899 0.6136787 -0.4862899
268000000 0.5742021 -0.4937938 0.4257979 0.4937938 0.4257979 0.4937938 0.5742021 -0.4937938
289000000 0.5368088 -0.4979195 0.4631912 0.4979195 0.4631912 0.4979195 0.5368088 -0.4979195
310000000 0.5016321 -0.4992190 0.4983679 0.4992190 0.4983679 0.4992190 0.5016321 -0.4992190
331000000 0.4687178 -0.4981871 0.5312822 0.4981871 0.5312822 0.4981871 0.4687178 -0.4981871
352000000 0.4380466 -0.4952582 0.5619534 0.4952582 0.5619534 0.4952582 0.4380466 -0.4952582
373000000 0.4095539 -0.4908068 0.5904461 0.4908068 0.5904461 0.4908068 0.4095539 -0.4908068
394000000 0.3831445 -0.4851520 0.6168555 0.4851520 0.6168555 0.4851520 0.3831445 -0.4851520
415000000 0.3587045 -0.4785623 0.6412955 0.4785623 0.6412955 0.4785623 0.3587045 -0.4785623
436000000 0.3361100 -0.4712616 0.6638900 0.4712616 0.6638900 0.4712616 0.3361100 -0.4712616
457000000 0.3152334 -0.4634353 0.6847666 0.4634353 0.6847666 0.4634353 0.3152334 -0.4634353
478000000 0.2959479 -0.4552356 0.7040521 0.4552356 0.7040521 0.4552356 0.2959479 -0.4552356
499000000 0.2781306 -0.4467868 0.7218694 0.4467868 0.7218694 0.4467868 0.2781306 -0.4467868
520000000 0.2616641 -0.4381895 0.7383359 0.4381895 0.7383359 0.4381895 0.2616641 -0.4381895
541000000 0.2464380 -0.4295249 0.7535620 0.4295249 0.7535620 0.4295249 0.2464380 -0.4295249
562000000 0.2323495 -0.4208578 0.7676505 0.4208578 0.7676505 0.4208578 0.2323495 -0.4208578
583000000 0.2193032 -0.4122396 0.7806968 0.4122396 0.7806968 0.4122396 0.2193032 -0.4122396
604000000 0.2072113 -0.4037107 0.7927887 0.4037107 0.7927887 0.4037107 0.2072113 -0.4037107
625000000 0.1959932 -0.3953023 0.8040068 0.3953023 0.8040068 0.3953023 0.1959932 -0.3953023
646000000 0.1855755 -0.3870384 0.8144245 0.3870384 0.8144245 0.3870384 0.1855755 -0.3870384
667000000 0.1758907 -0.3789369 0.8241093 0.3789369 0.8241093 0.3789369 0.1758907 -0.3789369
688000000 0.1668779 -0.3710107 0.8331221 0.3710107 0.8331221 0.3710107 0.1668779 -0.3710107
709000000 0.1584812 -0.3632688 0.8415188 0.3632688 0.8415188 0.3632688 0.1584812 -0.3632688
730000000 0.1506500 -0.3557170 0.8493500 0.3557170 0.8493500 0.3557170 0.1506500 -0.3557170
751000000 0.1433383 -0.3483586 0.8566617 0.3483586 0.8566617 0.3483586 0.1433383 -0.3483586
772000000 0.1365041 -0.3411947 0.8634959 0.3411947 0.8634959 0.3411947 0.1365041 -0.3411947
793000000 0.1301093 -0.3342250 0.8698907 0.3342250 0.8698907 0.3342250 0.1301093 -0.3342250
814000000 0.1241194 -0.3274478 0.8758806 0.3274478 0.8758806 0.3274478 0.1241194 -0.3274478
835000000 0.1185027 -0.3208603 0.8814973 0.3208603 0.8814973 0.3208603 0.1185027 -0.3208603
856000000 0.1132305 -0.3144591 0.8867695 0.3144591 0.8867695 0.3144591 0.1132305 -0.3144591
877000000 0.1082768 -0.3082401 0.8917232 0.3082401 0.8917232 0.3082401 0.1082768 -0.3082401
898000000 0.1036176 -0.3021990 0.8963824 0.3021990 0.8963824 0.3021990 0.1036176 -0.3021990
919000000 0.0992310 -0.2963309 0.9007690 0.2963309 0.9007690 0.2963309 0.0992310 -0.2963309
940000000 0.0950973 -0.2906308 0.9049027 0.2906308 0.9049027 0.2906308 0.0950973 -0.2906308
961000000 0.0911981 -0.2850938 0.9088019 0.2850938 0.9088019 0.2850938 0.0911981 -0.2850938
982000000 0.0875169 -0.2797146 0.9124831 0.2797146 0.9124831 0.2797146 0.0875169 -0.2797146
1003000000 0.0840382 -0.2744882 0.9159618 0.2744882 0.9159618 0.2744882 0.0840382 -0.2744882
1024000000 0.0807482 -0.2694093 0.9192518 0.2694093 0.9192518 0.2694093 0.0807482 -0.2694093
1045000000 0.0776340 -0.2644731 0.9223660 0.2644731 0.9223660 0.2644731 0.0776340 -0.2644731
1066000000 0.0746836 -0.2596745 0.9253164 0.2596745 0.9253164 0.2596745 0.0746836 -0.2596745
1087000000 0.0718863 -0.2550087 0.9281137 0.2550087 0.9281137 0.2550087 0.0718863 -0.2550087
1108000000 0.0692321 -0.2504710 0.9307679 0.2504710 0.9307679 0.2504710 0.0692321 -0.2504710
1129000000 0.0667115 -0.2460568 0.9332885 0.2460568 0.9332885 0.2460568 0.0667115 -0.2460568
1150000000 0.0643163 -0.2417617 0.9356837 0.2417617 0.9356837 0.2417617 0.0643163 -0.2417617
1171000000 0.0620384 -0.2375813 0.9379616 0.2375813 0.9379616 0.2375813 0.0620384 -0.2375813
1192000000 0.0598706 -0.2335117 0.9401294 0.2335117 0.9401294 0.2335117 0.0598706 -0.2335117
1213000000 0.0578061 -0.2295486 0.9421939 0.2295486 0.9421939 0.2295486 0.0578061 -0.2295486
1234000000 0.0558387 -0.2256884 0.9441613 0.2256884 0.9441613 0.2256884 0.0558387 -0.2256884
1255000000 0.0539627 -0.2219272 0.9460373 0.2219272 0.9460373 0.2219272 0.0539627 -0.2219272
1276000000 0.0521725 -0.2182615 0.9478275 0.2182615 0.9478275 0.2182615 0.0521725 -0.2182615
1297000000 0.0504633 -0.2146880 0.9495367 0.2146880 0.9495367 0.2146880 0.0504633 -0.2146880
1318000000 0.0488304 -0.2112032 0.9511696 0.2112032 0.9511696 0.2112032 0.0488304 -0.2112032
1339000000 0.0472695 -0.2078041 0.9527305 0.2078041 0.9527305 0.2078041 0.0472695 -0.2078041
1360000000 0.0457765 -0.2044876 0.9542235 0.2044876 0.9542235 0.2044876 0.0457765 -0.2044876
1381000000 0.0443476 -0.2012508 0.9556524 0.2012508 0.9556524 0.2012508 0.0443476 -0.2012508
1402000000 0.0429795 -0.1980909 0.9570205 0.1980909 0.9570205 0.1980909 0.0429795 -0.1980909
1423000000 0.0416688 -0.1950053 0.9583312 0.1950053 0.9583312 0.1950053 0.0416688 -0.1950053
1444000000 0.0404124 -0.1919913 0.9595876 0.1919913 0.9595876 0.1919913 0.0404124 -0.1919913
1465000000 0.0392075 -0.1890465 0.9607925 0.1890465 0.9607925 0.1890465 0.0392075 -0.1890465
1486000000 0.0380515 -0.1861685 0.9619485 0.1861685 0.9619485 0.1861685 0.0380515 -0.1861685
1507000000 0.0369417 -0.1833551 0.9630583 0.1833551 0.9630583 0.1833551 0.0369417 -0.1833551
1528000000 0.0358759 -0.1806041 0.9641241 0.1806041 0.9641241 0.1806041 0.0358759 -0.1806041
1549000000 0.0348519 -0.1779134 0.9651481 0.1779134 0.9651481 0.1779134 0.0348519 -0.1779134
1570000000 0.0338675 -0.1752810 0.9661325 0.1752810 0.9661325 0.1752810 0.0338675 -0.1752810
1591000000 0.0329209 -0.1727050 0.9670791 0.1727050 0.9670791 0.1727050 0.0329209 -0.1727050
1612000000 0.0320102 -0.1701835 0.9679898 0.1701835 0.9679898 0.1701835 0.0320102 -0.1701835
1633000000 0.0311336 -0.1677149 0.9688664 0.1677149 0.9688664 0.1677149 0.0311336 -0.1677149
1654000000 0.0302897 -0.1652973 0.9697103 0.1652973 0.9697103 0.1652973 0.0302897 -0.1652973
1675000000 0.0294767 -0.1629291 0.9705233 0.1629291 0.9705233 0.1629291 0.0294767 -0.1629291
1696000000 0.0286934 -0.1606088 0.9713066 0.1606088 0.9713066 0.1606088 0.0286934 -0.1606088
1717000000 0.0279383 -0.1583349 0.9720617 0.1583349 0.9720617 0.1583349 0.0279383 -0.1583349
1738000000 0.0272101 -0.1561060 0.9727899 0.1561060 0.9727899 0.1561060 0.0272101 -0.1561060
1759000000 0.0265077 -0.1539205 0.9734923 0.1539205 0.9734923 0.1539205 0.0265077 -0.1539205
1780000000 0.0258299 -0.1517773 0.9741701 0.1517773 0.9741701 0.1517773 0.0258299 -0.1517773
1801000000 0.0251756 -0.1496750 0.9748244 0.1496750 0.9748244 0.1496750 0.0251756 -0.1496750
1822000000 0.0245438 -0.1476124 0.9754562 0.1476124 0.9754562 0.1476124 0.0245438 -0.1476124
1843000000 0.0239335 -0.1455883 0.9760665 0.1455883 0.9760665 0.1455883 0.0239335 -0.1455883
1864000000 0.0233438 -0.1436016 0.9766562 0.1436016 0.9766562 0.1436016 0.0233438 -0.1436016
1885000000 0.0227739 -0.1416511 0.9772261 0.1416511 0.9772261 0.1416511 0.0227739 -0.1416511
1906000000 0.0222228 -0.1397358 0.9777772 0.1397358 0.9777772 0.1397358 0.0222228 -0.1397358
1927000000 0.0216900 -0.1378547 0.9783100 0.1378547 0.9783100 0.1378547 0.0216900 -0.1378547
1948000000 0.0211744 -0.1360068 0.9788256 0.1360068 0.9788256 0.1360068 0.0211744 -0.1360068
1969000000 0.0206756 -0.1341911 0.9793244 0.1341911 0.9793244 0.1341911 0.0206756 -0.1341911
1990000000 0.0201928 -0.1324068 0.9798072 0.1324068 0.9798072 0.1324068 0.0201928 -0.1324068
2011000000 0.0197254 -0.1306530 0.9802746 0.1306530 0.9802746 0.1306530 0.0197254 -0.1306530
2032000000 0.0192727 -0.1289287 0.9807273 0.1289287 0.9807273 0.1289287 0.0192727 -0.1289287
2053000000 0.0188342 -0.1272332 0.9811658 0.1272332 0.9811658 0.1272332 0.0188342 -0.1272332
2074000000 0.0184094 -0.1255658 0.9815906 0.1255658 0.9815906 0.1255658 0.0184094 -0.1255658
2095000000 0.0179976 -0.1239256 0.9820024 0.1239256 0.9820024 0.1239256 0.0179976 -0.1239256
2116000000 0.0175985 -0.1223119 0.9824015 0.1223119 0.9824015 0.1223119 0.0175985 -0.1223119
2137000000 0.0172116 -0.1207240 0.9827884 0.1207240 0.9827884 0.1207240 0.0172116 -0.1207240
2158000000 0.0168363 -0.1191612 0.9831637 0.1191612 0.9831637 0.1191612 0.0168363 -0.1191612
2179000000 0.0164723 -0.1176229 0.9835277 0.1176229 0.9835277 0.1176229 0.0164723 -0.1176229
2200000000 0.0161192 -0.1161084 0.9838808 0.1161084 0.9838808 0.1161084 0.0161192 -0.1161084
2221000000 0.0157765 -0.1146171 0.9842235 0.1146171 0.9842235 0.1146171 0.0157765 -0.1146171
2242000000 0.0154438 -0.1131484 0.9845562 0.1131484 0.9845562 0.1131484 0.0154438 -0.1131484
2263000000 0.0151209 -0.1117017 0.9848791 0.1117017 0.9848791 0.1117017 0.0151209 -0.1117017
2284000000 0.0148074 -0.1102765 0.9851926 0.1102765 0.9851926 0.1102765 0.0148074 -0.1102765
2305000000 0.0145029 -0.1088722 0.9854971 0.1088722 0.9854971 0.1088722 0.0145029 -0.1088722
2326000000 0.0142072 -0.1074883 0.9857928 0.1074883 0.9857928 0.1074883 0.0142072 -0.1074883
2347000000 0.0139198 -0.1061243 0.9860802 0.1061243 0.9860802 0.1061243 0.0139198 -0.1061243
2368000000 0.0136407 -0.1047797 0.9863593 0.1047797 0.9863593 0.1047797 0.0136407 -0.1047797
2389000000 0.0133693 -0.1034541 0.9866307 0.1034541 0.9866307 0.1034541 0.0133693 -0.1034541
2410000000 0.0131056 -0.1021469 0.9868944 0.1021469 0.9868944 0.1021469 0.0131056 -0.1021469
2431000000 0.0128493 -0.1008578 0.9871507 0.1008578 0.9871507 0.1008578 0.0128493 -0.1008578
2452000000 0.0126000 -0.0995863 0.9874000 0.0995863 0.9874000 0.0995863 0.0126000 -0.0995863
2473000000 0.0123576 -0.0983319 0.9876424 0.0983319 0.9876424 0.0983319 0.0123576 -0.0983319
2494000000 0.0121219 -0.0970943 0.9878781 0.0970943 0.9878781 0.0970943 0.0121219 -0.0970943
2515000000 0.0118926 -0.0958732 0.9881074 0.0958732 0.9881074 0.0958732 0.0118926 -0.0958732
2536000000 0.0116695 -0.0946680 0.9883305 0.0946680 0.9883305 0.0946680 0.0116695 -0.0946680
2557000000 0.0114525 -0.0934785 0.9885475 0.0934785 0.9885475 0.0934785 0.0114525 -0.0934785
2578000000 0.0112413 -0.0923042 0.9887587 0.0923042 0.9887587 0.0923042 0.0112413 -0.0923042
2599000000 0.0110358 -0.0911449 0.9889642 0.0911449 0.9889642 0.0911449 0.0110358 -0.0911449
2620000000 0.0108357 -0.0900002 0.9891643 0.0900002 0.9891643 0.0900002 0.0108357 -0.0900002
2641000000 0.0106410 -0.0888698 0.9893590 0.0888698 0.9893590 0.0888698 0.0106410 -0.0888698
2662000000 0.0104514 -0.0877533 0.9895486 0.0877533 0.9895486 0.0877533 0.0104514 -0.0877533
2683000000 0.0102668 -0.0866504 0.9897332 0.0866504 0.9897332 0.0866504 0.0102668 -0.0866504
2704000000 0.0100871 -0.0855610 0.9899129 0.0855610 0.9899129 0.0855610 0.0100871 -0.0855610
2725000000 0.0099120 -0.0844845 0.9900880 0.0844845 0.9900880 0.0844845 0.0099120 -0.0844845
2746000000 0.0097415 -0.0834209 0.9902585 0.0834209 0.9902585 0.0834209 0.0097415 -0.0834209
2767000000 0.0095755 -0.0823697 0.9904245 0.0823697 0.9904245 0.0823697 0.0095755 -0.0823697
2788000000 0.0094137 -0.0813308 0.9905863 0.0813308 0.9905863 0.0813308 0.0094137 -0.0813308
2809000000 0.0092561 -0.0803039 0.9907439 0.0803039 0.9907439 0.0803039 0.0092561 -0.0803039
2830000000 0.0091026 -0.0792886 0.9908974 0.0792886 0.9908974 0.0792886 0.0091026 -0.0792886
2851000000 0.0089530 -0.0782849 0.9910470 0.0782849 0.9910470 0.0782849 0.0089530 -0.0782849
2872000000 0.0088073 -0.0772924 0.9911927 0.0772924 0.9911927 0.0772924 0.0088073 -0.0772924
2893000000 0.0086652 -0.0763109 0.9913348 0.0763109 0.9913348 0.0763109 0.0086652 -0.0763109
2914000000 0.0085268 -0.0753401 0.9914732 0.0753401 0.9914732 0.0753401 0.0085268 -0.0753401
2935000000 0.0083919 -0.0743800 0.9916081 0.0743800 0.9916081 0.0743800 0.0083919 -0.0743800
2956000000 0.0082604 -0.0734302 0.9917396 0.0734302 0.9917396 0.0734302 0.0082604 -0.0734302
2977000000 0.0081322 -0.0724905 0.9918678 0.0724905 0.9918678 0.0724905 0.0081322 -0.0724905
2998000000 0.0080073 -0.0715608 0.9919927 0.0715608 0.9919927 0.0715608 0.0080073 -0.0715608
3019000000 0.0078855 -0.0706408 0.9921145 0.0706408 0.9921145 0.0706408 0.0078855 -0.0706408
3040000000 0.0077667 -0.0697303 0.9922333 0.0697303 0.9922333 0.0697303 0.0077667 -0.0697303
3061000000 0.0076510 -0.0688292 0.9923490 0.0688292 0.9923490 0.0688292 0.0076510 -0.0688292
3082000000 0.0075382 -0.0679373 0.9924618 0.0679373 0.9924618 0.0679373 0.0075382 -0.0679373
3103000000 0.0074281 -0.0670544 0.9925719 0.0670544 0.9925719 0.0670544 0.0074281 -0.0670544
3124000000 0.0073209 -0.0661803 0.9926791 0.0661803 0.9926791 0.0661803 0.0073209 -0.0661803
3145000000 0.0072163 -0.0653149 0.9927837 0.0653149 0.9927837 0.0653149 0.0072163 -0.0653149
3166000000 0.0071143 -0.0644580 0.9928857 0.0644580 0.9928857 0.0644580 0.0071143 -0.0644580
3187000000 0.0070149 -0.0636094 0.9929851 0.0636094 0.9929851 0.0636094 0.0070149 -0.0636094
3208000000 0.0069180 -0.0627689 0.9930820 0.0627689 0.9930820 0.0627689 0.0069180 -0.0627689
3229000000 0.0068235 -0.0619365 0.9931765 0.0619365 0.9931765 0.0619365 0.0068235 -0.0619365
3250000000 0.0067313 -0.0611120 0.9932687 0.0611120 0.9932687 0.0611120 0.0067313 -0.0611120
3271000000 0.0066415 -0.0602952 0.9933585 0.0602952 0.9933585 0.0602952 0.0066415 -0.0602952
3292000000 0.0065539 -0.0594860 0.9934461 0.0594860 0.9934461 0.0594860 0.0065539 -0.0594860
3313000000 0.0064684 -0.0586842 0.9935316 0.0586842 0.9935316 0.0586842 0.0064684 -0.0586842
3334000000 0.0063852 -0.0578898 0.9936148 0.0578898 0.9936148 0.0578898 0.0063852 -0.0578898
3355000000 0.0063040 -0.0571025 0.9936960 0.0571025 0.9936960 0.0571025 0.0063040 -0.0571025
3376000000 0.0062248 -0.0563223 0.9937752 0.0563223 0.9937752 0.0563223 0.0062248 -0.0563223
3397000000 0.0061476 -0.0555490 0.9938524 0.0555490 0.9938524 0.0555490 0.0061476 -0.0555490
3418000000 0.0060724 -0.0547825 0.9939276 0.0547825 0.9939276 0.0547825 0.0060724 -0.0547825
3439000000 0.0059990 -0.0540227 0.9940010 0.0540227 0.9940010 0.0540227 0.0059990 -0.0540227
3460000000 0.0059275 -0.0532695 0.9940725 0.0532695 0.9940725 0.0532695 0.0059275 -0.0532695
3481000000 0.0058579 -0.0525227 0.9941421 0.0525227 0.9941421 0.0525227 0.0058579 -0.0525227
3502000000 0.0057899 -0.0517823 0.9942101 0.0517823 0.9942101 0.0517823 0.0057899 -0.0517823
3523000000 0.0057237 -0.0510481 0.9942763 0.0510481 0.9942763 0.0510481 0.0057237 -0.0510481
3544000000 0.0056592 -0.0503200 0.9943408 0.0503200 0.9943408 0.0503200 0.0056592 -0.0503200
3565000000 0.0055963 -0.0495980 0.9944037 0.0495980 0.9944037 0.0495980 0.0055963 -0.0495980
3586000000 0.0055351 -0.0488818 0.9944649 0.0488818 0.9944649 0.0488818 0.0055351 -0.0488818
3607000000 0.0054754 -0.0481715 0.9945246 0.0481715 0.9945246 0.0481715 0.0054754 -0.0481715
3628000000 0.0054172 -0.0474669 0.9945828 0.0474669 0.9945828 0.0474669 0.0054172 -0.0474669
3649000000 0.0053606 -0.0467680 0.9946394 0.0467680 0.9946394 0.0467680 0.0053606 -0.0467680
3670000000 0.0053054 -0.0460745 0.9946946 0.0460745 0.9946946 0.0460745 0.0053054 -0.0460745
3691000000 0.0052517 -0.0453866 0.9947483 0.0453866 0.9947483 0.0453866 0.0052517 -0.0453866
3712000000 0.0051994 -0.0447039 0.9948006 0.0447039 0.9948006 0.0447039 0.0051994 -0.0447039
3733000000 0.0051484 -0.0440266 0.9948516 0.0440266 0.9948516 0.0440266 0.0051484 -0.0440266
3754000000 0.0050988 -0.0433544 0.9949012 0.0433544 0.9949012 0.0433544 0.0050988 -0.0433544
3775000000 0.0050506 -0.0426873 0.9949494 0.0426873 0.9949494 0.0426873 0.0050506 -0.0426873
3796000000 0.0050036 -0.0420252 0.9949964 0.0420252 0.9949964 0.0420252 0.0050036 -0.0420252
3817000000 0.0049579 -0.0413681 0.9950421 0.0413681 0.9950421 0.0413681 0.0049579 -0.0413681
3838000000 0.0049134 -0.0407158 0.9950866 0.0407158 0.9950866 0.0407158 0.0049134 -0.0407158
3859000000 0.0048701 -0.0400683 0.9951299 0.0400683 0.9951299 0.0400683 0.0048701 -0.0400683
3880000000 0.0048281 -0.0394256 0.9951719 0.0394256 0.9951719 0.0394256 0.0048281 -0.0394256
3901000000 0.0047872 -0.0387874 0.9952128 0.0387874 0.9952128 0.0387874 0.0047872 -0.0387874
3922000000 0.0047474 -0.0381538 0.9952526 0.0381538 0.9952526 0.0381538 0.0047474 -0.0381538
3943000000 0.0047087 -0.0375247 0.9952913 0.0375247 0.9952913 0.0375247 0.0047087 -0.0375247
3964000000 0.0046712 -0.0369000 0.9953288 0.0369000 0.9953288 0.0369000 0.0046712 -0.0369000
3985000000 0.0046347 -0.0362797 0.9953653 0.0362797 0.9953653 0.0362797 0.0046347 -0.0362797
4006000000 0.0045993 -0.0356636 0.9954007 0.0356636 0.9954007 0.0356636 0.0045993 -0.0356636
4027000000 0.0045649 -0.0350518 0.9954351 0.0350518 0.9954351 0.0350518 0.0045649 -0.0350518
4048000000 0.0045315 -0.0344441 0.9954685 0.0344441 0.9954685 0.0344441 0.0045315 -0.0344441
4069000000 0.0044991 -0.0338406 0.9955009 0.0338406 0.9955009 0.0338406 0.0044991 -0.0338406
4090000000 0.0044676 -0.0332410 0.9955324 0.0332410 0.9955324 0.0332410 0.0044676 -0.0332410
4111000000 0.0044372 -0.0326455 0.9955628 0.0326455 0.9955628 0.0326455 0.0044372 -0.0326455
4132000000 0.0044076 -0.0320538 0.9955924 0.0320538 0.9955924 0.0320538 0.0044076 -0.0320538
4153000000 0.0043790 -0.0314660 0.9956210 0.0314660 0.9956210 0.0314660 0.0043790 -0.0314660
4174000000 0.0043513 -0.0308820 0.9956487 0.0308820 0.9956487 0.0308820 0.0043513 -0.0308820
4195000000 0.0043245 -0.0303018 0.9956755 0.0303018 0.9956755 0.0303018 0.0043245 -0.0303018
4216000000 0.0042985 -0.0297252 0.9957015 0.0297252 0.9957015 0.0297252 0.0042985 -0.0297252
4237000000 0.0042734 -0.0291523 0.9957266 0.0291523 0.9957266 0.0291523 0.0042734 -0.0291523
4258000000 0.0042491 -0.0285830 0.9957509 0.0285830 0.9957509 0.0285830 0.0042491 -0.0285830
4279000000 0.0042256 -0.0280172 0.9957744 0.0280172 0.9957744 0.0280172 0.0042256 -0.0280172
4300000000 0.0042030 -0.0274549 0.9957970 0.0274549 0.9957970 0.0274549 0.0042030 -0.0274549
4321000000 0.0041811 -0.0268960 0.9958189 0.0268960 0.9958189 0.0268960 0.0041811 -0.0268960
4342000000 0.0041600 -0.0263405 0.9958400 0.0263405 0.9958400 0.0263405 0.0041600 -0.0263405
4363000000 0.0041397 -0.0257884 0.9958603 0.0257884 0.9958603 0.0257884 0.0041397 -0.0257884
4384000000 0.0041201 -0.0252395 0.9958799 0.0252395 0.9958799 0.0252395 0.0041201 -0.0252395
4405000000 0.0041013 -0.0246939 0.9958987 0.0246939 0.9958987 0.0246939 0.0041013 -0.0246939
4426000000 0.0040831 -0.0241515 0.9959169 0.0241515 0.9959169 0.0241515 0.0040831 -0.0241515
4447000000 0.0040657 -0.0236122 0.9959343 0.0236122 0.9959343 0.0236122 0.0040657 -0.0236122
4468000000 0.0040490 -0.0230761 0.9959510 0.0230761 0.9959510 0.0230761 0.0040490 -0.0230761
4489000000 0.0040330 -0.0225430 0.9959670 0.0225430 0.9959670 0.0225430 0.0040330 -0.0225430
4510000000 0.0040176 -0.0220130 0.9959824 0.0220130 0.9959824 0.0220130 0.0040176 -0.0220130
