!Murata Part Number: GRM0225C1E6R0CA03
!These Parameters are Measured in Series Mode Connection
!Data Generated on Mar 30, 2021
!       o--ll--o
!Port1            Port2
!       o------o
!Operation Temp=25[degC], DC Bias Voltage=0[V]
!Freq. Start=100[MHz] Stop=9[GHz] 401[Steps]
# Hz S RI R 50
!Freq.(Hz) S11(Real) S11(Imag) S21(Real) S21(Imag) S12(Real) S12(Imag) S22(Real) S22(Imag)
100000000 0.8753331 -0.3300662 0.1246669 0.3300662 0.1246669 0.3300662 0.8753331 -0.3300662
121000000 0.8274146 -0.3775555 0.1725854 0.3775555 0.1725854 0.3775555 0.8274146 -0.3775555
142000000 0.7767763 -0.4160154 0.2232237 0.4160154 0.2232237 0.4160154 0.7767763 -0.4160154
163000000 0.7252615 -0.4459315 0.2747385 0.4459315 0.2747385 0.4459315 0.7252615 -0.4459315
184000000 0.6743367 -0.4681115 0.3256633 0.4681115 0.3256633 0.4681115 0.6743367 -0.4681115
205000000 0.6250842 -0.4835301 0.3749158 0.4835301 0.3749158 0.4835301 0.6250842 -0.4835301
226000000 0.5782386 -0.4932087 0.4217614 0.4932087 0.4217614 0.4932087 0.5782386 -0.4932087
247000000 0.5342456 -0.4981321 0.4657544 0.4981321 0.4657544 0.4981321 0.5342456 -0.4981321
268000000 0.4933259 -0.4991992 0.5066741 0.4991992 0.5066741 0.4991992 0.4933259 -0.4991992
289000000 0.4555355 -0.4971994 0.5444645 0.4971994 0.5444645 0.4971994 0.4555355 -0.4971994
310000000 0.4208158 -0.4928063 0.5791842 0.4928063 0.5791842 0.4928063 0.4208158 -0.4928063
331000000 0.3890338 -0.4865822 0.6109662 0.4865822 0.6109662 0.4865822 0.3890338 -0.4865822
352000000 0.3600123 -0.4789887 0.6399877 0.4789887 0.6399877 0.4789887 0.3600123 -0.4789887
373000000 0.3335513 -0.4703996 0.6664487 0.4703996 0.6664487 0.4703996 0.3335513 -0.4703996
394000000 0.3094432 -0.4611140 0.6905568 0.4611140 0.6905568 0.4611140 0.3094432 -0.4611140
415000000 0.2874828 -0.4513693 0.7125172 0.4513693 0.7125172 0.4513693 0.2874828 -0.4513693
436000000 0.2674734 -0.4413518 0.7325266 0.4413518 0.7325266 0.4413518 0.2674734 -0.4413518
457000000 0.2492304 -0.4312064 0.7507696 0.4312064 0.7507696 0.4312064 0.2492304 -0.4312064
478000000 0.2325831 -0.4210449 0.7674169 0.4210449 0.7674169 0.4210449 0.2325831 -0.4210449
499000000 0.2173754 -0.4109524 0.7826246 0.4109524 0.7826246 0.4109524 0.2173754 -0.4109524
520000000 0.2034658 -0.4009932 0.7965342 0.4009932 0.7965342 0.4009932 0.2034658 -0.4009932
541000000 0.1907262 -0.3912145 0.8092738 0.3912145 0.8092738 0.3912145 0.1907262 -0.3912145
562000000 0.1790418 -0.3816504 0.8209582 0.3816504 0.8209582 0.3816504 0.1790418 -0.3816504
583000000 0.1683094 -0.3723249 0.8316906 0.3723249 0.8316906 0.3723249 0.1683094 -0.3723249
604000000 0.1584367 -0.3632538 0.8415633 0.3632538 0.8415633 0.3632538 0.1584367 -0.3632538
625000000 0.1493411 -0.3544464 0.8506589 0.3544464 0.8506589 0.3544464 0.1493411 -0.3544464
646000000 0.1409487 -0.3459077 0.8590513 0.3459077 0.8590513 0.3459077 0.1409487 -0.3459077
667000000 0.1331934 -0.3376384 0.8668066 0.3376384 0.8668066 0.3376384 0.1331934 -0.3376384
688000000 0.1260164 -0.3296368 0.8739836 0.3296368 0.8739836 0.3296368 0.1260164 -0.3296368
709000000 0.1193646 -0.3218989 0.8806354 0.3218989 0.8806354 0.3218989 0.1193646 -0.3218989
730000000 0.1131909 -0.3144193 0.8868091 0.3144193 0.8868091 0.3144193 0.1131909 -0.3144193
751000000 0.1074527 -0.3071913 0.8925473 0.3071913 0.8925473 0.3071913 0.1074527 -0.3071913
772000000 0.1021119 -0.3002075 0.8978881 0.3002075 0.8978881 0.3002075 0.1021119 -0.3002075
793000000 0.0971344 -0.2934600 0.9028656 0.2934600 0.9028656 0.2934600 0.0971344 -0.2934600
814000000 0.0924893 -0.2869406 0.9075107 0.2869406 0.9075107 0.2869406 0.0924893 -0.2869406
835000000 0.0881489 -0.2806409 0.9118511 0.2806409 0.9118511 0.2806409 0.0881489 -0.2806409
856000000 0.0840881 -0.2745526 0.9159119 0.2745526 0.9159119 0.2745526 0.0840881 -0.2745526
877000000 0.0802844 -0.2686673 0.9197156 0.2686673 0.9197156 0.2686673 0.0802844 -0.2686673
898000000 0.0767174 -0.2629769 0.9232826 0.2629769 0.9232826 0.2629769 0.0767174 -0.2629769
919000000 0.0733683 -0.2574734 0.9266317 0.2574734 0.9266317 0.2574734 0.0733683 -0.2574734
940000000 0.0702206 -0.2521491 0.9297794 0.2521491 0.9297794 0.2521491 0.0702206 -0.2521491
961000000 0.0672588 -0.2469963 0.9327412 0.2469963 0.9327412 0.2469963 0.0672588 -0.2469963
982000000 0.0644692 -0.2420079 0.9355308 0.2420079 0.9355308 0.2420079 0.0644692 -0.2420079
1003000000 0.0618390 -0.2371770 0.9381610 0.2371770 0.9381610 0.2371770 0.0618390 -0.2371770
1024000000 0.0593566 -0.2324968 0.9406434 0.2324968 0.9406434 0.2324968 0.0593566 -0.2324968
1045000000 0.0570117 -0.2279609 0.9429883 0.2279609 0.9429883 0.2279609 0.0570117 -0.2279609
1066000000 0.0547944 -0.2235633 0.9452056 0.2235633 0.9452056 0.2235633 0.0547944 -0.2235633
1087000000 0.0526960 -0.2192981 0.9473040 0.2192981 0.9473040 0.2192981 0.0526960 -0.2192981
1108000000 0.0507084 -0.2151597 0.9492916 0.2151597 0.9492916 0.2151597 0.0507084 -0.2151597
1129000000 0.0488241 -0.2111428 0.9511759 0.2111428 0.9511759 0.2111428 0.0488241 -0.2111428
1150000000 0.0470364 -0.2072423 0.9529636 0.2072423 0.9529636 0.2072423 0.0470364 -0.2072423
1171000000 0.0453388 -0.2034534 0.9546612 0.2034534 0.9546612 0.2034534 0.0453388 -0.2034534
1192000000 0.0437257 -0.1997715 0.9562743 0.1997715 0.9562743 0.1997715 0.0437257 -0.1997715
1213000000 0.0421916 -0.1961922 0.9578084 0.1961922 0.9578084 0.1961922 0.0421916 -0.1961922
1234000000 0.0407317 -0.1927113 0.9592683 0.1927113 0.9592683 0.1927113 0.0407317 -0.1927113
1255000000 0.0393413 -0.1893249 0.9606587 0.1893249 0.9606587 0.1893249 0.0393413 -0.1893249
1276000000 0.0380164 -0.1860292 0.9619836 0.1860292 0.9619836 0.1860292 0.0380164 -0.1860292
1297000000 0.0367528 -0.1828206 0.9632472 0.1828206 0.9632472 0.1828206 0.0367528 -0.1828206
1318000000 0.0355471 -0.1796957 0.9644529 0.1796957 0.9644529 0.1796957 0.0355471 -0.1796957
1339000000 0.0343958 -0.1766512 0.9656042 0.1766512 0.9656042 0.1766512 0.0343958 -0.1766512
1360000000 0.0332958 -0.1736839 0.9667042 0.1736839 0.9667042 0.1736839 0.0332958 -0.1736839
1381000000 0.0322442 -0.1707910 0.9677558 0.1707910 0.9677558 0.1707910 0.0322442 -0.1707910
1402000000 0.0312383 -0.1679696 0.9687617 0.1679696 0.9687617 0.1679696 0.0312383 -0.1679696
1423000000 0.0302756 -0.1652170 0.9697244 0.1652170 0.9697244 0.1652170 0.0302756 -0.1652170
1444000000 0.0293537 -0.1625306 0.9706463 0.1625306 0.9706463 0.1625306 0.0293537 -0.1625306
1465000000 0.0284704 -0.1599080 0.9715296 0.1599080 0.9715296 0.1599080 0.0284704 -0.1599080
1486000000 0.0276237 -0.1573469 0.9723763 0.1573469 0.9723763 0.1573469 0.0276237 -0.1573469
1507000000 0.0268116 -0.1548450 0.9731884 0.1548450 0.9731884 0.1548450 0.0268116 -0.1548450
1528000000 0.0260324 -0.1524003 0.9739676 0.1524003 0.9739676 0.1524003 0.0260324 -0.1524003
1549000000 0.0252843 -0.1500106 0.9747157 0.1500106 0.9747157 0.1500106 0.0252843 -0.1500106
1570000000 0.0245658 -0.1476740 0.9754342 0.1476740 0.9754342 0.1476740 0.0245658 -0.1476740
1591000000 0.0238754 -0.1453887 0.9761246 0.1453887 0.9761246 0.1453887 0.0238754 -0.1453887
1612000000 0.0232117 -0.1431529 0.9767883 0.1431529 0.9767883 0.1431529 0.0232117 -0.1431529
1633000000 0.0225734 -0.1409649 0.9774266 0.1409649 0.9774266 0.1409649 0.0225734 -0.1409649
1654000000 0.0219594 -0.1388231 0.9780406 0.1388231 0.9780406 0.1388231 0.0219594 -0.1388231
1675000000 0.0213683 -0.1367259 0.9786317 0.1367259 0.9786317 0.1367259 0.0213683 -0.1367259
1696000000 0.0207992 -0.1346718 0.9792008 0.1346718 0.9792008 0.1346718 0.0207992 -0.1346718
1717000000 0.0202510 -0.1326595 0.9797490 0.1326595 0.9797490 0.1326595 0.0202510 -0.1326595
1738000000 0.0197228 -0.1306875 0.9802772 0.1306875 0.9802772 0.1306875 0.0197228 -0.1306875
1759000000 0.0192136 -0.1287546 0.9807864 0.1287546 0.9807864 0.1287546 0.0192136 -0.1287546
1780000000 0.0187226 -0.1268595 0.9812774 0.1268595 0.9812774 0.1268595 0.0187226 -0.1268595
1801000000 0.0182490 -0.1250009 0.9817510 0.1250009 0.9817510 0.1250009 0.0182490 -0.1250009
1822000000 0.0177919 -0.1231778 0.9822081 0.1231778 0.9822081 0.1231778 0.0177919 -0.1231778
1843000000 0.0173508 -0.1213891 0.9826492 0.1213891 0.9826492 0.1213891 0.0173508 -0.1213891
1864000000 0.0169249 -0.1196336 0.9830751 0.1196336 0.9830751 0.1196336 0.0169249 -0.1196336
1885000000 0.0165135 -0.1179104 0.9834865 0.1179104 0.9834865 0.1179104 0.0165135 -0.1179104
1906000000 0.0161161 -0.1162184 0.9838839 0.1162184 0.9838839 0.1162184 0.0161161 -0.1162184
1927000000 0.0157320 -0.1145568 0.9842680 0.1145568 0.9842680 0.1145568 0.0157320 -0.1145568
1948000000 0.0153607 -0.1129246 0.9846393 0.1129246 0.9846393 0.1129246 0.0153607 -0.1129246
1969000000 0.0150017 -0.1113210 0.9849983 0.1113210 0.9849983 0.1113210 0.0150017 -0.1113210
1990000000 0.0146544 -0.1097451 0.9853456 0.1097451 0.9853456 0.1097451 0.0146544 -0.1097451
2011000000 0.0143185 -0.1081961 0.9856815 0.1081961 0.9856815 0.1081961 0.0143185 -0.1081961
2032000000 0.0139934 -0.1066733 0.9860066 0.1066733 0.9860066 0.1066733 0.0139934 -0.1066733
2053000000 0.0136788 -0.1051759 0.9863212 0.1051759 0.9863212 0.1051759 0.0136788 -0.1051759
2074000000 0.0133741 -0.1037031 0.9866259 0.1037031 0.9866259 0.1037031 0.0133741 -0.1037031
2095000000 0.0130792 -0.1022543 0.9869208 0.1022543 0.9869208 0.1022543 0.0130792 -0.1022543
2116000000 0.0127934 -0.1008289 0.9872066 0.1008289 0.9872066 0.1008289 0.0127934 -0.1008289
2137000000 0.0125166 -0.0994261 0.9874834 0.0994261 0.9874834 0.0994261 0.0125166 -0.0994261
2158000000 0.0122484 -0.0980454 0.9877516 0.0980454 0.9877516 0.0980454 0.0122484 -0.0980454
2179000000 0.0119885 -0.0966861 0.9880115 0.0966861 0.9880115 0.0966861 0.0119885 -0.0966861
2200000000 0.0117365 -0.0953477 0.9882635 0.0953477 0.9882635 0.0953477 0.0117365 -0.0953477
2221000000 0.0114922 -0.0940297 0.9885078 0.0940297 0.9885078 0.0940297 0.0114922 -0.0940297
2242000000 0.0112553 -0.0927314 0.9887447 0.0927314 0.9887447 0.0927314 0.0112553 -0.0927314
2263000000 0.0110255 -0.0914525 0.9889745 0.0914525 0.9889745 0.0914525 0.0110255 -0.0914525
2284000000 0.0108026 -0.0901922 0.9891974 0.0901922 0.9891974 0.0901922 0.0108026 -0.0901922
2305000000 0.0105863 -0.0889503 0.9894137 0.0889503 0.9894137 0.0889503 0.0105863 -0.0889503
2326000000 0.0103764 -0.0877262 0.9896236 0.0877262 0.9896236 0.0877262 0.0103764 -0.0877262
2347000000 0.0101728 -0.0865195 0.9898272 0.0865195 0.9898272 0.0865195 0.0101728 -0.0865195
2368000000 0.0099751 -0.0853297 0.9900249 0.0853297 0.9900249 0.0853297 0.0099751 -0.0853297
2389000000 0.0097832 -0.0841564 0.9902168 0.0841564 0.9902168 0.0841564 0.0097832 -0.0841564
2410000000 0.0095968 -0.0829992 0.9904032 0.0829992 0.9904032 0.0829992 0.0095968 -0.0829992
2431000000 0.0094159 -0.0818577 0.9905841 0.0818577 0.9905841 0.0818577 0.0094159 -0.0818577
2452000000 0.0092401 -0.0807315 0.9907599 0.0807315 0.9907599 0.0807315 0.0092401 -0.0807315
2473000000 0.0090695 -0.0796202 0.9909305 0.0796202 0.9909305 0.0796202 0.0090695 -0.0796202
2494000000 0.0089037 -0.0785236 0.9910963 0.0785236 0.9910963 0.0785236 0.0089037 -0.0785236
2515000000 0.0087426 -0.0774412 0.9912574 0.0774412 0.9912574 0.0774412 0.0087426 -0.0774412
2536000000 0.0085861 -0.0763727 0.9914139 0.0763727 0.9914139 0.0763727 0.0085861 -0.0763727
2557000000 0.0084340 -0.0753178 0.9915660 0.0753178 0.9915660 0.0753178 0.0084340 -0.0753178
2578000000 0.0082863 -0.0742761 0.9917137 0.0742761 0.9917137 0.0742761 0.0082863 -0.0742761
2599000000 0.0081427 -0.0732474 0.9918573 0.0732474 0.9918573 0.0732474 0.0081427 -0.0732474
2620000000 0.0080031 -0.0722314 0.9919969 0.0722314 0.9919969 0.0722314 0.0080031 -0.0722314
2641000000 0.0078674 -0.0712277 0.9921326 0.0712277 0.9921326 0.0712277 0.0078674 -0.0712277
2662000000 0.0077356 -0.0702362 0.9922644 0.0702362 0.9922644 0.0702362 0.0077356 -0.0702362
2683000000 0.0076074 -0.0692564 0.9923926 0.0692564 0.9923926 0.0692564 0.0076074 -0.0692564
2704000000 0.0074828 -0.0682882 0.9925172 0.0682882 0.9925172 0.0682882 0.0074828 -0.0682882
2725000000 0.0073616 -0.0673313 0.9926384 0.0673313 0.9926384 0.0673313 0.0073616 -0.0673313
2746000000 0.0072438 -0.0663855 0.9927562 0.0663855 0.9927562 0.0663855 0.0072438 -0.0663855
2767000000 0.0071293 -0.0654505 0.9928707 0.0654505 0.9928707 0.0654505 0.0071293 -0.0654505
2788000000 0.0070179 -0.0645260 0.9929821 0.0645260 0.9929821 0.0645260 0.0070179 -0.0645260
2809000000 0.0069096 -0.0636119 0.9930904 0.0636119 0.9930904 0.0636119 0.0069096 -0.0636119
2830000000 0.0068043 -0.0627080 0.9931957 0.0627080 0.9931957 0.0627080 0.0068043 -0.0627080
2851000000 0.0067020 -0.0618139 0.9932980 0.0618139 0.9932980 0.0618139 0.0067020 -0.0618139
2872000000 0.0066024 -0.0609296 0.9933976 0.0609296 0.9933976 0.0609296 0.0066024 -0.0609296
2893000000 0.0065056 -0.0600547 0.9934944 0.0600547 0.9934944 0.0600547 0.0065056 -0.0600547
2914000000 0.0064115 -0.0591892 0.9935885 0.0591892 0.9935885 0.0591892 0.0064115 -0.0591892
2935000000 0.0063200 -0.0583328 0.9936800 0.0583328 0.9936800 0.0583328 0.0063200 -0.0583328
2956000000 0.0062310 -0.0574853 0.9937690 0.0574853 0.9937690 0.0574853 0.0062310 -0.0574853
2977000000 0.0061445 -0.0566465 0.9938555 0.0566465 0.9938555 0.0566465 0.0061445 -0.0566465
2998000000 0.0060603 -0.0558163 0.9939397 0.0558163 0.9939397 0.0558163 0.0060603 -0.0558163
3019000000 0.0059785 -0.0549946 0.9940215 0.0549946 0.9940215 0.0549946 0.0059785 -0.0549946
3040000000 0.0058990 -0.0541810 0.9941010 0.0541810 0.9941010 0.0541810 0.0058990 -0.0541810
3061000000 0.0058217 -0.0533755 0.9941783 0.0533755 0.9941783 0.0533755 0.0058217 -0.0533755
3082000000 0.0057466 -0.0525780 0.9942534 0.0525780 0.9942534 0.0525780 0.0057466 -0.0525780
3103000000 0.0056735 -0.0517882 0.9943265 0.0517882 0.9943265 0.0517882 0.0056735 -0.0517882
3124000000 0.0056025 -0.0510060 0.9943975 0.0510060 0.9943975 0.0510060 0.0056025 -0.0510060
3145000000 0.0055335 -0.0502312 0.9944665 0.0502312 0.9944665 0.0502312 0.0055335 -0.0502312
3166000000 0.0054665 -0.0494638 0.9945335 0.0494638 0.9945335 0.0494638 0.0054665 -0.0494638
3187000000 0.0054013 -0.0487035 0.9945987 0.0487035 0.9945987 0.0487035 0.0054013 -0.0487035
3208000000 0.0053380 -0.0479503 0.9946620 0.0479503 0.9946620 0.0479503 0.0053380 -0.0479503
3229000000 0.0052765 -0.0472040 0.9947235 0.0472040 0.9947235 0.0472040 0.0052765 -0.0472040
3250000000 0.0052168 -0.0464644 0.9947832 0.0464644 0.9947832 0.0464644 0.0052168 -0.0464644
3271000000 0.0051588 -0.0457315 0.9948412 0.0457315 0.9948412 0.0457315 0.0051588 -0.0457315
3292000000 0.0051024 -0.0450052 0.9948976 0.0450052 0.9948976 0.0450052 0.0051024 -0.0450052
3313000000 0.0050477 -0.0442852 0.9949523 0.0442852 0.9949523 0.0442852 0.0050477 -0.0442852
3334000000 0.0049946 -0.0435716 0.9950054 0.0435716 0.9950054 0.0435716 0.0049946 -0.0435716
3355000000 0.0049431 -0.0428641 0.9950569 0.0428641 0.9950569 0.0428641 0.0049431 -0.0428641
3376000000 0.0048931 -0.0421627 0.9951069 0.0421627 0.9951069 0.0421627 0.0048931 -0.0421627
3397000000 0.0048446 -0.0414672 0.9951554 0.0414672 0.9951554 0.0414672 0.0048446 -0.0414672
3418000000 0.0047975 -0.0407776 0.9952025 0.0407776 0.9952025 0.0407776 0.0047975 -0.0407776
3439000000 0.0047519 -0.0400938 0.9952481 0.0400938 0.9952481 0.0400938 0.0047519 -0.0400938
3460000000 0.0047076 -0.0394156 0.9952924 0.0394156 0.9952924 0.0394156 0.0047076 -0.0394156
3481000000 0.0046647 -0.0387430 0.9953353 0.0387430 0.9953353 0.0387430 0.0046647 -0.0387430
3502000000 0.0046231 -0.0380758 0.9953769 0.0380758 0.9953769 0.0380758 0.0046231 -0.0380758
3523000000 0.0045829 -0.0374139 0.9954171 0.0374139 0.9954171 0.0374139 0.0045829 -0.0374139
3544000000 0.0045439 -0.0367574 0.9954561 0.0367574 0.9954561 0.0367574 0.0045439 -0.0367574
3565000000 0.0045061 -0.0361060 0.9954939 0.0361060 0.9954939 0.0361060 0.0045061 -0.0361060
3586000000 0.0044696 -0.0354597 0.9955304 0.0354597 0.9955304 0.0354597 0.0044696 -0.0354597
3607000000 0.0044343 -0.0348184 0.9955657 0.0348184 0.9955657 0.0348184 0.0044343 -0.0348184
3628000000 0.0044001 -0.0341820 0.9955999 0.0341820 0.9955999 0.0341820 0.0044001 -0.0341820
3649000000 0.0043671 -0.0335505 0.9956329 0.0335505 0.9956329 0.0335505 0.0043671 -0.0335505
3670000000 0.0043351 -0.0329237 0.9956649 0.0329237 0.9956649 0.0329237 0.0043351 -0.0329237
3691000000 0.0043043 -0.0323016 0.9956957 0.0323016 0.9956957 0.0323016 0.0043043 -0.0323016
3712000000 0.0042745 -0.0316841 0.9957255 0.0316841 0.9957255 0.0316841 0.0042745 -0.0316841
3733000000 0.0042458 -0.0310711 0.9957542 0.0310711 0.9957542 0.0310711 0.0042458 -0.0310711
3754000000 0.0042181 -0.0304626 0.9957819 0.0304626 0.9957819 0.0304626 0.0042181 -0.0304626
3775000000 0.0041915 -0.0298585 0.9958085 0.0298585 0.9958085 0.0298585 0.0041915 -0.0298585
3796000000 0.0041658 -0.0292587 0.9958342 0.0292587 0.9958342 0.0292587 0.0041658 -0.0292587
3817000000 0.0041410 -0.0286631 0.9958590 0.0286631 0.9958590 0.0286631 0.0041410 -0.0286631
3838000000 0.0041172 -0.0280717 0.9958828 0.0280717 0.9958828 0.0280717 0.0041172 -0.0280717
3859000000 0.0040944 -0.0274844 0.9959056 0.0274844 0.9959056 0.0274844 0.0040944 -0.0274844
3880000000 0.0040724 -0.0269012 0.9959276 0.0269012 0.9959276 0.0269012 0.0040724 -0.0269012
3901000000 0.0040513 -0.0263219 0.9959487 0.0263219 0.9959487 0.0263219 0.0040513 -0.0263219
3922000000 0.0040311 -0.0257466 0.9959689 0.0257466 0.9959689 0.0257466 0.0040311 -0.0257466
3943000000 0.0040118 -0.0251751 0.9959882 0.0251751 0.9959882 0.0251751 0.0040118 -0.0251751
3964000000 0.0039933 -0.0246074 0.9960067 0.0246074 0.9960067 0.0246074 0.0039933 -0.0246074
3985000000 0.0039756 -0.0240435 0.9960244 0.0240435 0.9960244 0.0240435 0.0039756 -0.0240435
4006000000 0.0039588 -0.0234833 0.9960412 0.0234833 0.9960412 0.0234833 0.0039588 -0.0234833
4027000000 0.0039427 -0.0229266 0.9960573 0.0229266 0.9960573 0.0229266 0.0039427 -0.0229266
4048000000 0.0039274 -0.0223736 0.9960726 0.0223736 0.9960726 0.0223736 0.0039274 -0.0223736
4069000000 0.0039129 -0.0218241 0.9960871 0.0218241 0.9960871 0.0218241 0.0039129 -0.0218241
4090000000 0.0038991 -0.0212780 0.9961009 0.0212780 0.9961009 0.0212780 0.0038991 -0.0212780
4111000000 0.0038860 -0.0207354 0.9961140 0.0207354 0.9961140 0.0207354 0.0038860 -0.0207354
4132000000 0.0038737 -0.0201961 0.9961263 0.0201961 0.9961263 0.0201961 0.0038737 -0.0201961
4153000000 0.0038621 -0.0196602 0.9961379 0.0196602 0.9961379 0.0196602 0.0038621 -0.0196602
4174000000 0.0038511 -0.0191275 0.9961489 0.0191275 0.9961489 0.0191275 0.0038511 -0.0191275
4195000000 0.0038409 -0.0185981 0.9961591 0.0185981 0.9961591 0.0185981 0.0038409 -0.0185981
4216000000 0.0038313 -0.0180718 0.9961687 0.0180718 0.9961687 0.0180718 0.0038313 -0.0180718
4237000000 0.0038224 -0.0175487 0.9961776 0.0175487 0.9961776 0.0175487 0.0038224 -0.0175487
4258000000 0.0038142 -0.0170286 0.9961858 0.0170286 0.9961858 0.0170286 0.0038142 -0.0170286
4279000000 0.0038065 -0.0165116 0.9961935 0.0165116 0.9961935 0.0165116 0.0038065 -0.0165116
4300000000 0.0037995 -0.0159976 0.9962005 0.0159976 0.9962005 0.0159976 0.0037995 -0.0159976
4321000000 0.0037931 -0.0154866 0.9962069 0.0154866 0.9962069 0.0154866 0.0037931 -0.0154866
4342000000 0.0037873 -0.0149784 0.9962127 0.0149784 0.9962127 0.0149784 0.0037873 -0.0149784
4363000000 0.0037822 -0.0144732 0.9962178 0.0144732 0.9962178 0.0144732 0.0037822 -0.0144732
4384000000 0.0037775 -0.0139708 0.9962225 0.0139708 0.9962225 0.0139708 0.0037775 -0.0139708
4405000000 0.0037735 -0.0134711 0.9962265 0.0134711 0.9962265 0.0134711 0.0037735 -0.0134711
4426000000 0.0037700 -0.0129743 0.9962300 0.0129743 0.9962300 0.0129743 0.0037700 -0.0129743
4447000000 0.0037671 -0.0124801 0.9962329 0.0124801 0.9962329 0.0124801 0.0037671 -0.0124801
4468000000 0.0037647 -0.0119886 0.9962353 0.0119886 0.9962353 0.0119886 0.0037647 -0.0119886
4489000000 0.0037629 -0.0114998 0.9962371 0.0114998 0.9962371 0.0114998 0.0037629 -0.0114998
4510000000 0.0037616 -0.0110136 0.9962384 0.0110136 0.9962384 0.0110136 0.0037616 -0.0110136
