!Murata Part Number: GRM0225C1C5R6WA03
!These Parameters are Measured in Series Mode Connection
!Data Generated on Mar 30, 2021
!       o--ll--o
!Port1            Port2
!       o------o
!Operation Temp=25[degC], DC Bias Voltage=0[V]
!Freq. Start=100[MHz] Stop=9[GHz] 401[Steps]
# Hz S RI R 50
!Freq.(Hz) S11(Real) S11(Imag) S21(Real) S21(Imag) S12(Real) S12(Imag) S22(Real) S22(Imag)
100000000 0.8896319 -0.3130914 0.1103681 0.3130914 0.1103681 0.3130914 0.8896319 -0.3130914
121000000 0.8462468 -0.3604010 0.1537532 0.3604010 0.1537532 0.3604010 0.8462468 -0.3604010
142000000 0.7998010 -0.3997835 0.2001990 0.3997835 0.2001990 0.3997835 0.7998010 -0.3997835
163000000 0.7519078 -0.4314848 0.2480922 0.4314848 0.2480922 0.4314848 0.7519078 -0.4314848
184000000 0.7039122 -0.4560539 0.2960878 0.4560539 0.2960878 0.4560539 0.7039122 -0.4560539
205000000 0.6568644 -0.4742241 0.3431356 0.4742241 0.3431356 0.4742241 0.6568644 -0.4742241
226000000 0.6115309 -0.4868135 0.3884691 0.4868135 0.3884691 0.4868135 0.6115309 -0.4868135
247000000 0.5684287 -0.4946498 0.4315713 0.4946498 0.4315713 0.4946498 0.5684287 -0.4946498
268000000 0.5278691 -0.4985195 0.4721309 0.4985195 0.4721309 0.4985195 0.5278691 -0.4985195
289000000 0.4900031 -0.4991387 0.5099969 0.4991387 0.5099969 0.4991387 0.4900031 -0.4991387
310000000 0.4548631 -0.4971382 0.5451369 0.4971382 0.5451369 0.4971382 0.4548631 -0.4971382
331000000 0.4223974 -0.4930612 0.5776026 0.4930612 0.5776026 0.4930612 0.4223974 -0.4930612
352000000 0.3924985 -0.4873663 0.6075015 0.4873663 0.6075015 0.4873663 0.3924985 -0.4873663
373000000 0.3650243 -0.4804354 0.6349757 0.4804354 0.6349757 0.4804354 0.3650243 -0.4804354
394000000 0.3398140 -0.4725822 0.6601860 0.4725822 0.6601860 0.4725822 0.3398140 -0.4725822
415000000 0.3166993 -0.4640624 0.6833007 0.4640624 0.6833007 0.4640624 0.3166993 -0.4640624
436000000 0.2955121 -0.4550820 0.7044879 0.4550820 0.7044879 0.4550820 0.2955121 -0.4550820
457000000 0.2760895 -0.4458061 0.7239105 0.4458061 0.7239105 0.4458061 0.2760895 -0.4458061
478000000 0.2582771 -0.4363658 0.7417229 0.4363658 0.7417229 0.4363658 0.2582771 -0.4363658
499000000 0.2419304 -0.4268640 0.7580696 0.4268640 0.7580696 0.4268640 0.2419304 -0.4268640
520000000 0.2269161 -0.4173816 0.7730839 0.4173816 0.7730839 0.4173816 0.2269161 -0.4173816
541000000 0.2131117 -0.4079805 0.7868883 0.4079805 0.7868883 0.4079805 0.2131117 -0.4079805
562000000 0.2004057 -0.3987083 0.7995943 0.3987083 0.7995943 0.3987083 0.2004057 -0.3987083
583000000 0.1886968 -0.3896005 0.8113032 0.3896005 0.8113032 0.3896005 0.1886968 -0.3896005
604000000 0.1778933 -0.3806833 0.8221067 0.3806833 0.8221067 0.3806833 0.1778933 -0.3806833
625000000 0.1679125 -0.3719751 0.8320875 0.3719751 0.8320875 0.3719751 0.1679125 -0.3719751
646000000 0.1586797 -0.3634887 0.8413203 0.3634887 0.8413203 0.3634887 0.1586797 -0.3634887
667000000 0.1501275 -0.3552316 0.8498725 0.3552316 0.8498725 0.3552316 0.1501275 -0.3552316
688000000 0.1421955 -0.3472082 0.8578045 0.3472082 0.8578045 0.3472082 0.1421955 -0.3472082
709000000 0.1348289 -0.3394195 0.8651711 0.3394195 0.8651711 0.3394195 0.1348289 -0.3394195
730000000 0.1279785 -0.3318646 0.8720215 0.3318646 0.8720215 0.3318646 0.1279785 -0.3318646
751000000 0.1216002 -0.3245406 0.8783998 0.3245406 0.8783998 0.3245406 0.1216002 -0.3245406
772000000 0.1156537 -0.3174435 0.8843463 0.3174435 0.8843463 0.3174435 0.1156537 -0.3174435
793000000 0.1101031 -0.3105683 0.8898969 0.3105683 0.8898969 0.3105683 0.1101031 -0.3105683
814000000 0.1049158 -0.3039093 0.8950842 0.3039093 0.8950842 0.3039093 0.1049158 -0.3039093
835000000 0.1000621 -0.2974601 0.8999379 0.2974601 0.8999379 0.2974601 0.1000621 -0.2974601
856000000 0.0955153 -0.2912144 0.9044847 0.2912144 0.9044847 0.2912144 0.0955153 -0.2912144
877000000 0.0912513 -0.2851653 0.9087487 0.2851653 0.9087487 0.2851653 0.0912513 -0.2851653
898000000 0.0872481 -0.2793061 0.9127519 0.2793061 0.9127519 0.2793061 0.0872481 -0.2793061
919000000 0.0834856 -0.2736300 0.9165144 0.2736300 0.9165144 0.2736300 0.0834856 -0.2736300
940000000 0.0799457 -0.2681301 0.9200543 0.2681301 0.9200543 0.2681301 0.0799457 -0.2681301
961000000 0.0766119 -0.2628000 0.9233881 0.2628000 0.9233881 0.2628000 0.0766119 -0.2628000
982000000 0.0734690 -0.2576331 0.9265310 0.2576331 0.9265310 0.2576331 0.0734690 -0.2576331
1003000000 0.0705032 -0.2526230 0.9294968 0.2526230 0.9294968 0.2526230 0.0705032 -0.2526230
1024000000 0.0677021 -0.2477637 0.9322979 0.2477637 0.9322979 0.2477637 0.0677021 -0.2477637
1045000000 0.0650539 -0.2430492 0.9349461 0.2430492 0.9349461 0.2430492 0.0650539 -0.2430492
1066000000 0.0625482 -0.2384738 0.9374518 0.2384738 0.9374518 0.2384738 0.0625482 -0.2384738
1087000000 0.0601753 -0.2340320 0.9398247 0.2340320 0.9398247 0.2340320 0.0601753 -0.2340320
1108000000 0.0579262 -0.2297184 0.9420738 0.2297184 0.9420738 0.2297184 0.0579262 -0.2297184
1129000000 0.0557928 -0.2255282 0.9442072 0.2255282 0.9442072 0.2255282 0.0557928 -0.2255282
1150000000 0.0537674 -0.2214562 0.9462326 0.2214562 0.9462326 0.2214562 0.0537674 -0.2214562
1171000000 0.0518433 -0.2174980 0.9481567 0.2174980 0.9481567 0.2174980 0.0518433 -0.2174980
1192000000 0.0500139 -0.2136490 0.9499861 0.2136490 0.9499861 0.2136490 0.0500139 -0.2136490
1213000000 0.0482733 -0.2099049 0.9517267 0.2099049 0.9517267 0.2099049 0.0482733 -0.2099049
1234000000 0.0466161 -0.2062617 0.9533839 0.2062617 0.9533839 0.2062617 0.0466161 -0.2062617
1255000000 0.0450371 -0.2027154 0.9549629 0.2027154 0.9549629 0.2027154 0.0450371 -0.2027154
1276000000 0.0435317 -0.1992624 0.9564683 0.1992624 0.9564683 0.1992624 0.0435317 -0.1992624
1297000000 0.0420956 -0.1958991 0.9579044 0.1958991 0.9579044 0.1958991 0.0420956 -0.1958991
1318000000 0.0407246 -0.1926220 0.9592754 0.1926220 0.9592754 0.1926220 0.0407246 -0.1926220
1339000000 0.0394150 -0.1894280 0.9605850 0.1894280 0.9605850 0.1894280 0.0394150 -0.1894280
1360000000 0.0381634 -0.1863138 0.9618366 0.1863138 0.9618366 0.1863138 0.0381634 -0.1863138
1381000000 0.0369664 -0.1832766 0.9630336 0.1832766 0.9630336 0.1832766 0.0369664 -0.1832766
1402000000 0.0358211 -0.1803135 0.9641789 0.1803135 0.9641789 0.1803135 0.0358211 -0.1803135
1423000000 0.0347245 -0.1774219 0.9652755 0.1774219 0.9652755 0.1774219 0.0347245 -0.1774219
1444000000 0.0336741 -0.1745990 0.9663259 0.1745990 0.9663259 0.1745990 0.0336741 -0.1745990
1465000000 0.0326674 -0.1718424 0.9673326 0.1718424 0.9673326 0.1718424 0.0326674 -0.1718424
1486000000 0.0317021 -0.1691499 0.9682979 0.1691499 0.9682979 0.1691499 0.0317021 -0.1691499
1507000000 0.0307761 -0.1665190 0.9692239 0.1665190 0.9692239 0.1665190 0.0307761 -0.1665190
1528000000 0.0298872 -0.1639477 0.9701128 0.1639477 0.9701128 0.1639477 0.0298872 -0.1639477
1549000000 0.0290336 -0.1614339 0.9709664 0.1614339 0.9709664 0.1614339 0.0290336 -0.1614339
1570000000 0.0282136 -0.1589755 0.9717864 0.1589755 0.9717864 0.1589755 0.0282136 -0.1589755
1591000000 0.0274255 -0.1565708 0.9725745 0.1565708 0.9725745 0.1565708 0.0274255 -0.1565708
1612000000 0.0266676 -0.1542179 0.9733324 0.1542179 0.9733324 0.1542179 0.0266676 -0.1542179
1633000000 0.0259386 -0.1519150 0.9740614 0.1519150 0.9740614 0.1519150 0.0259386 -0.1519150
1654000000 0.0252371 -0.1496605 0.9747629 0.1496605 0.9747629 0.1496605 0.0252371 -0.1496605
1675000000 0.0245616 -0.1474527 0.9754384 0.1474527 0.9754384 0.1474527 0.0245616 -0.1474527
1696000000 0.0239111 -0.1452903 0.9760889 0.1452903 0.9760889 0.1452903 0.0239111 -0.1452903
1717000000 0.0232843 -0.1431716 0.9767157 0.1431716 0.9767157 0.1431716 0.0232843 -0.1431716
1738000000 0.0226802 -0.1410954 0.9773198 0.1410954 0.9773198 0.1410954 0.0226802 -0.1410954
1759000000 0.0220978 -0.1390601 0.9779022 0.1390601 0.9779022 0.1390601 0.0220978 -0.1390601
1780000000 0.0215360 -0.1370647 0.9784640 0.1370647 0.9784640 0.1370647 0.0215360 -0.1370647
1801000000 0.0209939 -0.1351077 0.9790061 0.1351077 0.9790061 0.1351077 0.0209939 -0.1351077
1822000000 0.0204707 -0.1331880 0.9795293 0.1331880 0.9795293 0.1331880 0.0204707 -0.1331880
1843000000 0.0199656 -0.1313045 0.9800344 0.1313045 0.9800344 0.1313045 0.0199656 -0.1313045
1864000000 0.0194777 -0.1294561 0.9805223 0.1294561 0.9805223 0.1294561 0.0194777 -0.1294561
1885000000 0.0190063 -0.1276417 0.9809937 0.1276417 0.9809937 0.1276417 0.0190063 -0.1276417
1906000000 0.0185508 -0.1258602 0.9814492 0.1258602 0.9814492 0.1258602 0.0185508 -0.1258602
1927000000 0.0181105 -0.1241108 0.9818895 0.1241108 0.9818895 0.1241108 0.0181105 -0.1241108
1948000000 0.0176847 -0.1223924 0.9823153 0.1223924 0.9823153 0.1223924 0.0176847 -0.1223924
1969000000 0.0172729 -0.1207042 0.9827271 0.1207042 0.9827271 0.1207042 0.0172729 -0.1207042
1990000000 0.0168744 -0.1190452 0.9831256 0.1190452 0.9831256 0.1190452 0.0168744 -0.1190452
2011000000 0.0164888 -0.1174147 0.9835112 0.1174147 0.9835112 0.1174147 0.0164888 -0.1174147
2032000000 0.0161155 -0.1158119 0.9838845 0.1158119 0.9838845 0.1158119 0.0161155 -0.1158119
2053000000 0.0157541 -0.1142359 0.9842459 0.1142359 0.9842459 0.1142359 0.0157541 -0.1142359
2074000000 0.0154041 -0.1126860 0.9845959 0.1126860 0.9845959 0.1126860 0.0154041 -0.1126860
2095000000 0.0150650 -0.1111615 0.9849350 0.1111615 0.9849350 0.1111615 0.0150650 -0.1111615
2116000000 0.0147364 -0.1096617 0.9852636 0.1096617 0.9852636 0.1096617 0.0147364 -0.1096617
2137000000 0.0144180 -0.1081859 0.9855820 0.1081859 0.9855820 0.1081859 0.0144180 -0.1081859
2158000000 0.0141093 -0.1067334 0.9858907 0.1067334 0.9858907 0.1067334 0.0141093 -0.1067334
2179000000 0.0138100 -0.1053037 0.9861900 0.1053037 0.9861900 0.1053037 0.0138100 -0.1053037
2200000000 0.0135198 -0.1038961 0.9864802 0.1038961 0.9864802 0.1038961 0.0135198 -0.1038961
2221000000 0.0132382 -0.1025101 0.9867618 0.1025101 0.9867618 0.1025101 0.0132382 -0.1025101
2242000000 0.0129651 -0.1011450 0.9870349 0.1011450 0.9870349 0.1011450 0.0129651 -0.1011450
2263000000 0.0127000 -0.0998004 0.9873000 0.0998004 0.9873000 0.0998004 0.0127000 -0.0998004
2284000000 0.0124427 -0.0984756 0.9875573 0.0984756 0.9875573 0.0984756 0.0124427 -0.0984756
2305000000 0.0121930 -0.0971703 0.9878070 0.0971703 0.9878070 0.0971703 0.0121930 -0.0971703
2326000000 0.0119506 -0.0958839 0.9880494 0.0958839 0.9880494 0.0958839 0.0119506 -0.0958839
2347000000 0.0117151 -0.0946159 0.9882849 0.0946159 0.9882849 0.0946159 0.0117151 -0.0946159
2368000000 0.0114864 -0.0933659 0.9885136 0.0933659 0.9885136 0.0933659 0.0114864 -0.0933659
2389000000 0.0112643 -0.0921334 0.9887357 0.0921334 0.9887357 0.0921334 0.0112643 -0.0921334
2410000000 0.0110485 -0.0909180 0.9889515 0.0909180 0.9889515 0.0909180 0.0110485 -0.0909180
2431000000 0.0108388 -0.0897192 0.9891612 0.0897192 0.9891612 0.0897192 0.0108388 -0.0897192
2452000000 0.0106350 -0.0885368 0.9893650 0.0885368 0.9893650 0.0885368 0.0106350 -0.0885368
2473000000 0.0104370 -0.0873702 0.9895630 0.0873702 0.9895630 0.0873702 0.0104370 -0.0873702
2494000000 0.0102444 -0.0862191 0.9897556 0.0862191 0.9897556 0.0862191 0.0102444 -0.0862191
2515000000 0.0100572 -0.0850831 0.9899428 0.0850831 0.9899428 0.0850831 0.0100572 -0.0850831
2536000000 0.0098752 -0.0839620 0.9901248 0.0839620 0.9901248 0.0839620 0.0098752 -0.0839620
2557000000 0.0096982 -0.0828552 0.9903018 0.0828552 0.9903018 0.0828552 0.0096982 -0.0828552
2578000000 0.0095261 -0.0817626 0.9904739 0.0817626 0.9904739 0.0817626 0.0095261 -0.0817626
2599000000 0.0093586 -0.0806837 0.9906414 0.0806837 0.9906414 0.0806837 0.0093586 -0.0806837
2620000000 0.0091957 -0.0796183 0.9908043 0.0796183 0.9908043 0.0796183 0.0091957 -0.0796183
2641000000 0.0090373 -0.0785660 0.9909627 0.0785660 0.9909627 0.0785660 0.0090373 -0.0785660
2662000000 0.0088831 -0.0775266 0.9911169 0.0775266 0.9911169 0.0775266 0.0088831 -0.0775266
2683000000 0.0087330 -0.0764998 0.9912670 0.0764998 0.9912670 0.0764998 0.0087330 -0.0764998
2704000000 0.0085870 -0.0754852 0.9914130 0.0754852 0.9914130 0.0754852 0.0085870 -0.0754852
2725000000 0.0084449 -0.0744827 0.9915551 0.0744827 0.9915551 0.0744827 0.0084449 -0.0744827
2746000000 0.0083066 -0.0734919 0.9916934 0.0734919 0.9916934 0.0734919 0.0083066 -0.0734919
2767000000 0.0081720 -0.0725126 0.9918280 0.0725126 0.9918280 0.0725126 0.0081720 -0.0725126
2788000000 0.0080410 -0.0715446 0.9919590 0.0715446 0.9919590 0.0715446 0.0080410 -0.0715446
2809000000 0.0079134 -0.0705876 0.9920866 0.0705876 0.9920866 0.0705876 0.0079134 -0.0705876
2830000000 0.0077892 -0.0696414 0.9922108 0.0696414 0.9922108 0.0696414 0.0077892 -0.0696414
2851000000 0.0076683 -0.0687057 0.9923317 0.0687057 0.9923317 0.0687057 0.0076683 -0.0687057
2872000000 0.0075505 -0.0677803 0.9924495 0.0677803 0.9924495 0.0677803 0.0075505 -0.0677803
2893000000 0.0074359 -0.0668651 0.9925641 0.0668651 0.9925641 0.0668651 0.0074359 -0.0668651
2914000000 0.0073242 -0.0659597 0.9926758 0.0659597 0.9926758 0.0659597 0.0073242 -0.0659597
2935000000 0.0072155 -0.0650641 0.9927845 0.0650641 0.9927845 0.0650641 0.0072155 -0.0650641
2956000000 0.0071097 -0.0641779 0.9928903 0.0641779 0.9928903 0.0641779 0.0071097 -0.0641779
2977000000 0.0070066 -0.0633011 0.9929934 0.0633011 0.9929934 0.0633011 0.0070066 -0.0633011
2998000000 0.0069062 -0.0624334 0.9930938 0.0624334 0.9930938 0.0624334 0.0069062 -0.0624334
3019000000 0.0068084 -0.0615746 0.9931916 0.0615746 0.9931916 0.0615746 0.0068084 -0.0615746
3040000000 0.0067131 -0.0607246 0.9932869 0.0607246 0.9932869 0.0607246 0.0067131 -0.0607246
3061000000 0.0066204 -0.0598831 0.9933796 0.0598831 0.9933796 0.0598831 0.0066204 -0.0598831
3082000000 0.0065301 -0.0590501 0.9934699 0.0590501 0.9934699 0.0590501 0.0065301 -0.0590501
3103000000 0.0064421 -0.0582253 0.9935579 0.0582253 0.9935579 0.0582253 0.0064421 -0.0582253
3124000000 0.0063564 -0.0574086 0.9936436 0.0574086 0.9936436 0.0574086 0.0063564 -0.0574086
3145000000 0.0062730 -0.0565999 0.9937270 0.0565999 0.9937270 0.0565999 0.0062730 -0.0565999
3166000000 0.0061917 -0.0557989 0.9938083 0.0557989 0.9938083 0.0557989 0.0061917 -0.0557989
3187000000 0.0061126 -0.0550056 0.9938874 0.0550056 0.9938874 0.0550056 0.0061126 -0.0550056
3208000000 0.0060355 -0.0542198 0.9939645 0.0542198 0.9939645 0.0542198 0.0060355 -0.0542198
3229000000 0.0059605 -0.0534413 0.9940395 0.0534413 0.9940395 0.0534413 0.0059605 -0.0534413
3250000000 0.0058874 -0.0526700 0.9941126 0.0526700 0.9941126 0.0526700 0.0058874 -0.0526700
3271000000 0.0058163 -0.0519058 0.9941837 0.0519058 0.9941837 0.0519058 0.0058163 -0.0519058
3292000000 0.0057470 -0.0511486 0.9942530 0.0511486 0.9942530 0.0511486 0.0057470 -0.0511486
3313000000 0.0056796 -0.0503981 0.9943204 0.0503981 0.9943204 0.0503981 0.0056796 -0.0503981
3334000000 0.0056140 -0.0496544 0.9943860 0.0496544 0.9943860 0.0496544 0.0056140 -0.0496544
3355000000 0.0055501 -0.0489172 0.9944499 0.0489172 0.9944499 0.0489172 0.0055501 -0.0489172
3376000000 0.0054879 -0.0481865 0.9945121 0.0481865 0.9945121 0.0481865 0.0054879 -0.0481865
3397000000 0.0054273 -0.0474622 0.9945727 0.0474622 0.9945727 0.0474622 0.0054273 -0.0474622
3418000000 0.0053684 -0.0467440 0.9946316 0.0467440 0.9946316 0.0467440 0.0053684 -0.0467440
3439000000 0.0053111 -0.0460320 0.9946889 0.0460320 0.9946889 0.0460320 0.0053111 -0.0460320
3460000000 0.0052553 -0.0453260 0.9947447 0.0453260 0.9947447 0.0453260 0.0052553 -0.0453260
3481000000 0.0052011 -0.0446259 0.9947989 0.0446259 0.9947989 0.0446259 0.0052011 -0.0446259
3502000000 0.0051483 -0.0439316 0.9948517 0.0439316 0.9948517 0.0439316 0.0051483 -0.0439316
3523000000 0.0050970 -0.0432430 0.9949030 0.0432430 0.9949030 0.0432430 0.0050970 -0.0432430
3544000000 0.0050470 -0.0425600 0.9949530 0.0425600 0.9949530 0.0425600 0.0050470 -0.0425600
3565000000 0.0049985 -0.0418825 0.9950015 0.0418825 0.9950015 0.0418825 0.0049985 -0.0418825
3586000000 0.0049513 -0.0412104 0.9950487 0.0412104 0.9950487 0.0412104 0.0049513 -0.0412104
3607000000 0.0049055 -0.0405436 0.9950945 0.0405436 0.9950945 0.0405436 0.0049055 -0.0405436
3628000000 0.0048609 -0.0398821 0.9951391 0.0398821 0.9951391 0.0398821 0.0048609 -0.0398821
3649000000 0.0048176 -0.0392257 0.9951824 0.0392257 0.9951824 0.0392257 0.0048176 -0.0392257
3670000000 0.0047756 -0.0385744 0.9952244 0.0385744 0.9952244 0.0385744 0.0047756 -0.0385744
3691000000 0.0047347 -0.0379280 0.9952653 0.0379280 0.9952653 0.0379280 0.0047347 -0.0379280
3712000000 0.0046951 -0.0372865 0.9953049 0.0372865 0.9953049 0.0372865 0.0046951 -0.0372865
3733000000 0.0046566 -0.0366499 0.9953434 0.0366499 0.9953434 0.0366499 0.0046566 -0.0366499
3754000000 0.0046192 -0.0360180 0.9953808 0.0360180 0.9953808 0.0360180 0.0046192 -0.0360180
3775000000 0.0045830 -0.0353907 0.9954170 0.0353907 0.9954170 0.0353907 0.0045830 -0.0353907
3796000000 0.0045478 -0.0347681 0.9954522 0.0347681 0.9954522 0.0347681 0.0045478 -0.0347681
3817000000 0.0045137 -0.0341499 0.9954863 0.0341499 0.9954863 0.0341499 0.0045137 -0.0341499
3838000000 0.0044807 -0.0335362 0.9955193 0.0335362 0.9955193 0.0335362 0.0044807 -0.0335362
3859000000 0.0044487 -0.0329268 0.9955513 0.0329268 0.9955513 0.0329268 0.0044487 -0.0329268
3880000000 0.0044177 -0.0323218 0.9955823 0.0323218 0.9955823 0.0323218 0.0044177 -0.0323218
3901000000 0.0043877 -0.0317209 0.9956123 0.0317209 0.9956123 0.0317209 0.0043877 -0.0317209
3922000000 0.0043586 -0.0311243 0.9956414 0.0311243 0.9956414 0.0311243 0.0043586 -0.0311243
3943000000 0.0043305 -0.0305317 0.9956695 0.0305317 0.9956695 0.0305317 0.0043305 -0.0305317
3964000000 0.0043034 -0.0299432 0.9956966 0.0299432 0.9956966 0.0299432 0.0043034 -0.0299432
3985000000 0.0042771 -0.0293586 0.9957229 0.0293586 0.9957229 0.0293586 0.0042771 -0.0293586
4006000000 0.0042517 -0.0287780 0.9957483 0.0287780 0.9957483 0.0287780 0.0042517 -0.0287780
4027000000 0.0042272 -0.0282012 0.9957728 0.0282012 0.9957728 0.0282012 0.0042272 -0.0282012
4048000000 0.0042036 -0.0276283 0.9957964 0.0276283 0.9957964 0.0276283 0.0042036 -0.0276283
4069000000 0.0041808 -0.0270590 0.9958192 0.0270590 0.9958192 0.0270590 0.0041808 -0.0270590
4090000000 0.0041588 -0.0264935 0.9958412 0.0264935 0.9958412 0.0264935 0.0041588 -0.0264935
4111000000 0.0041377 -0.0259316 0.9958623 0.0259316 0.9958623 0.0259316 0.0041377 -0.0259316
4132000000 0.0041173 -0.0253732 0.9958827 0.0253732 0.9958827 0.0253732 0.0041173 -0.0253732
4153000000 0.0040977 -0.0248184 0.9959023 0.0248184 0.9959023 0.0248184 0.0040977 -0.0248184
4174000000 0.0040789 -0.0242671 0.9959211 0.0242671 0.9959211 0.0242671 0.0040789 -0.0242671
4195000000 0.0040609 -0.0237191 0.9959391 0.0237191 0.9959391 0.0237191 0.0040609 -0.0237191
4216000000 0.0040436 -0.0231746 0.9959564 0.0231746 0.9959564 0.0231746 0.0040436 -0.0231746
4237000000 0.0040270 -0.0226333 0.9959730 0.0226333 0.9959730 0.0226333 0.0040270 -0.0226333
4258000000 0.0040111 -0.0220954 0.9959889 0.0220954 0.9959889 0.0220954 0.0040111 -0.0220954
4279000000 0.0039959 -0.0215606 0.9960041 0.0215606 0.9960041 0.0215606 0.0039959 -0.0215606
4300000000 0.0039814 -0.0210291 0.9960186 0.0210291 0.9960186 0.0210291 0.0039814 -0.0210291
4321000000 0.0039676 -0.0205007 0.9960324 0.0205007 0.9960324 0.0205007 0.0039676 -0.0205007
4342000000 0.0039545 -0.0199754 0.9960455 0.0199754 0.9960455 0.0199754 0.0039545 -0.0199754
4363000000 0.0039420 -0.0194531 0.9960580 0.0194531 0.9960580 0.0194531 0.0039420 -0.0194531
4384000000 0.0039301 -0.0189338 0.9960699 0.0189338 0.9960699 0.0189338 0.0039301 -0.0189338
4405000000 0.0039189 -0.0184175 0.9960811 0.0184175 0.9960811 0.0184175 0.0039189 -0.0184175
4426000000 0.0039083 -0.0179042 0.9960917 0.0179042 0.9960917 0.0179042 0.0039083 -0.0179042
4447000000 0.0038983 -0.0173937 0.9961017 0.0173937 0.9961017 0.0173937 0.0038983 -0.0173937
4468000000 0.0038890 -0.0168860 0.9961110 0.0168860 0.9961110 0.0168860 0.0038890 -0.0168860
4489000000 0.0038802 -0.0163812 0.9961198 0.0163812 0.9961198 0.0163812 0.0038802 -0.0163812
4510000000 0.0038719 -0.0158791 0.9961281 0.0158791 0.9961281 0.0158791 0.0038719 -0.0158791
