!Murata Part Number: GRM0222C1E5R7DA03
!These Parameters are Measured in Series Mode Connection
!Data Generated on Mar 30, 2021
!       o--ll--o
!Port1            Port2
!       o------o
!Operation Temp=25[degC], DC Bias Voltage=0[V]
!Freq. Start=100[MHz] Stop=9[GHz] 401[Steps]
# Hz S RI R 50
!Freq.(Hz) S11(Real) S11(Imag) S21(Real) S21(Imag) S12(Real) S12(Imag) S22(Real) S22(Imag)
100000000 0.8861085 -0.3174180 0.1138915 0.3174180 0.1138915 0.3174180 0.8861085 -0.3174180
121000000 0.8415854 -0.3648125 0.1584146 0.3648125 0.1584146 0.3648125 0.8415854 -0.3648125
142000000 0.7940748 -0.4040035 0.2059252 0.4040035 0.2059252 0.4040035 0.7940748 -0.4040035
163000000 0.7452489 -0.4352925 0.2547511 0.4352925 0.2547511 0.4352925 0.7452489 -0.4352925
184000000 0.6964862 -0.4592899 0.3035138 0.4592899 0.3035138 0.4592899 0.6964862 -0.4592899
205000000 0.6488484 -0.4767880 0.3511516 0.4767880 0.3511516 0.4767880 0.6488484 -0.4767880
226000000 0.6030974 -0.4886558 0.3969026 0.4886558 0.3969026 0.4886558 0.6030974 -0.4886558
247000000 0.5597349 -0.4957611 0.4402651 0.4957611 0.4402651 0.4957611 0.5597349 -0.4957611
268000000 0.5190516 -0.4989205 0.4809484 0.4989205 0.4809484 0.4989205 0.5190516 -0.4989205
289000000 0.4811758 -0.4988698 0.5188242 0.4988698 0.5188242 0.4988698 0.4811758 -0.4988698
310000000 0.4461176 -0.4962525 0.5538824 0.4962525 0.5538824 0.4962525 0.4461176 -0.4962525
331000000 0.4138049 -0.4916179 0.5861951 0.4916179 0.5861951 0.4916179 0.4138049 -0.4916179
352000000 0.3841125 -0.4854267 0.6158875 0.4854267 0.6158875 0.4854267 0.3841125 -0.4854267
373000000 0.3568834 -0.4780597 0.6431166 0.4780597 0.6431166 0.4780597 0.3568834 -0.4780597
394000000 0.3319444 -0.4698278 0.6680556 0.4698278 0.6680556 0.4698278 0.3319444 -0.4698278
415000000 0.3091175 -0.4609823 0.6908825 0.4609823 0.6908825 0.4609823 0.3091175 -0.4609823
436000000 0.2882267 -0.4517248 0.7117733 0.4517248 0.7117733 0.4517248 0.2882267 -0.4517248
457000000 0.2691033 -0.4422156 0.7308967 0.4422156 0.7308967 0.4422156 0.2691033 -0.4422156
478000000 0.2515881 -0.4325808 0.7484119 0.4325808 0.7484119 0.4325808 0.2515881 -0.4325808
499000000 0.2355336 -0.4229191 0.7644664 0.4229191 0.7644664 0.4229191 0.2355336 -0.4229191
520000000 0.2208039 -0.4133070 0.7791961 0.4133070 0.7791961 0.4133070 0.2208039 -0.4133070
541000000 0.2072748 -0.4038027 0.7927252 0.4038027 0.7927252 0.4038027 0.2072748 -0.4038027
562000000 0.1948339 -0.3944505 0.8051661 0.3944505 0.8051661 0.3944505 0.1948339 -0.3944505
583000000 0.1833790 -0.3852827 0.8166210 0.3852827 0.8166210 0.3852827 0.1833790 -0.3852827
604000000 0.1728182 -0.3763227 0.8271818 0.3763227 0.8271818 0.3763227 0.1728182 -0.3763227
625000000 0.1630686 -0.3675869 0.8369314 0.3675869 0.8369314 0.3675869 0.1630686 -0.3675869
646000000 0.1540558 -0.3590855 0.8459442 0.3590855 0.8459442 0.3590855 0.1540558 -0.3590855
667000000 0.1457125 -0.3508246 0.8542875 0.3508246 0.8542875 0.3508246 0.1457125 -0.3508246
688000000 0.1379785 -0.3428068 0.8620215 0.3428068 0.8620215 0.3428068 0.1379785 -0.3428068
709000000 0.1307997 -0.3350318 0.8692003 0.3350318 0.8692003 0.3350318 0.1307997 -0.3350318
730000000 0.1241272 -0.3274974 0.8758728 0.3274974 0.8758728 0.3274974 0.1241272 -0.3274974
751000000 0.1179173 -0.3201997 0.8820827 0.3201997 0.8820827 0.3201997 0.1179173 -0.3201997
772000000 0.1121302 -0.3131339 0.8878698 0.3131339 0.8878698 0.3131339 0.1121302 -0.3131339
793000000 0.1067304 -0.3062941 0.8932696 0.3062941 0.8932696 0.3062941 0.1067304 -0.3062941
814000000 0.1016858 -0.2996739 0.8983142 0.2996739 0.8983142 0.2996739 0.1016858 -0.2996739
835000000 0.0969672 -0.2932664 0.9030328 0.2932664 0.9030328 0.2932664 0.0969672 -0.2932664
856000000 0.0925483 -0.2870646 0.9074517 0.2870646 0.9074517 0.2870646 0.0925483 -0.2870646
877000000 0.0884054 -0.2810614 0.9115946 0.2810614 0.9115946 0.2810614 0.0884054 -0.2810614
898000000 0.0845168 -0.2752496 0.9154832 0.2752496 0.9154832 0.2752496 0.0845168 -0.2752496
919000000 0.0808629 -0.2696220 0.9191371 0.2696220 0.9191371 0.2696220 0.0808629 -0.2696220
940000000 0.0774260 -0.2641716 0.9225740 0.2641716 0.9225740 0.2641716 0.0774260 -0.2641716
961000000 0.0741897 -0.2588915 0.9258103 0.2588915 0.9258103 0.2588915 0.0741897 -0.2588915
982000000 0.0711393 -0.2537750 0.9288607 0.2537750 0.9288607 0.2537750 0.0711393 -0.2537750
1003000000 0.0682614 -0.2488157 0.9317386 0.2488157 0.9317386 0.2488157 0.0682614 -0.2488157
1024000000 0.0655435 -0.2440071 0.9344565 0.2440071 0.9344565 0.2440071 0.0655435 -0.2440071
1045000000 0.0629745 -0.2393434 0.9370255 0.2393434 0.9370255 0.2393434 0.0629745 -0.2393434
1066000000 0.0605439 -0.2348185 0.9394561 0.2348185 0.9394561 0.2348185 0.0605439 -0.2348185
1087000000 0.0582424 -0.2304270 0.9417576 0.2304270 0.9417576 0.2304270 0.0582424 -0.2304270
1108000000 0.0560611 -0.2261634 0.9439389 0.2261634 0.9439389 0.2261634 0.0560611 -0.2261634
1129000000 0.0539923 -0.2220226 0.9460077 0.2220226 0.9460077 0.2220226 0.0539923 -0.2220226
1150000000 0.0520284 -0.2179997 0.9479716 0.2179997 0.9479716 0.2179997 0.0520284 -0.2179997
1171000000 0.0501627 -0.2140898 0.9498373 0.2140898 0.9498373 0.2140898 0.0501627 -0.2140898
1192000000 0.0483890 -0.2102887 0.9516110 0.2102887 0.9516110 0.2102887 0.0483890 -0.2102887
1213000000 0.0467015 -0.2065918 0.9532985 0.2065918 0.9532985 0.2065918 0.0467015 -0.2065918
1234000000 0.0450948 -0.2029952 0.9549052 0.2029952 0.9549052 0.2029952 0.0450948 -0.2029952
1255000000 0.0435641 -0.1994949 0.9564359 0.1994949 0.9564359 0.1994949 0.0435641 -0.1994949
1276000000 0.0421047 -0.1960871 0.9578953 0.1960871 0.9578953 0.1960871 0.0421047 -0.1960871
1297000000 0.0407124 -0.1927682 0.9592876 0.1927682 0.9592876 0.1927682 0.0407124 -0.1927682
1318000000 0.0393834 -0.1895350 0.9606166 0.1895350 0.9606166 0.1895350 0.0393834 -0.1895350
1339000000 0.0381139 -0.1863840 0.9618861 0.1863840 0.9618861 0.1863840 0.0381139 -0.1863840
1360000000 0.0369005 -0.1833122 0.9630995 0.1833122 0.9630995 0.1833122 0.0369005 -0.1833122
1381000000 0.0357401 -0.1803166 0.9642599 0.1803166 0.9642599 0.1803166 0.0357401 -0.1803166
1402000000 0.0346297 -0.1773944 0.9653703 0.1773944 0.9653703 0.1773944 0.0346297 -0.1773944
1423000000 0.0335667 -0.1745428 0.9664333 0.1745428 0.9664333 0.1745428 0.0335667 -0.1745428
1444000000 0.0325483 -0.1717594 0.9674517 0.1717594 0.9674517 0.1717594 0.0325483 -0.1717594
1465000000 0.0315723 -0.1690416 0.9684277 0.1690416 0.9684277 0.1690416 0.0315723 -0.1690416
1486000000 0.0306364 -0.1663870 0.9693636 0.1663870 0.9693636 0.1663870 0.0306364 -0.1663870
1507000000 0.0297385 -0.1637934 0.9702615 0.1637934 0.9702615 0.1637934 0.0297385 -0.1637934
1528000000 0.0288767 -0.1612588 0.9711233 0.1612588 0.9711233 0.1612588 0.0288767 -0.1612588
1549000000 0.0280490 -0.1587809 0.9719510 0.1587809 0.9719510 0.1587809 0.0280490 -0.1587809
1570000000 0.0272539 -0.1563578 0.9727461 0.1563578 0.9727461 0.1563578 0.0272539 -0.1563578
1591000000 0.0264896 -0.1539876 0.9735104 0.1539876 0.9735104 0.1539876 0.0264896 -0.1539876
1612000000 0.0257546 -0.1516687 0.9742454 0.1516687 0.9742454 0.1516687 0.0257546 -0.1516687
1633000000 0.0250477 -0.1493991 0.9749523 0.1493991 0.9749523 0.1493991 0.0250477 -0.1493991
1654000000 0.0243673 -0.1471772 0.9756327 0.1471772 0.9756327 0.1471772 0.0243673 -0.1471772
1675000000 0.0237122 -0.1450016 0.9762878 0.1450016 0.9762878 0.1450016 0.0237122 -0.1450016
1696000000 0.0230812 -0.1428706 0.9769188 0.1428706 0.9769188 0.1428706 0.0230812 -0.1428706
1717000000 0.0224733 -0.1407828 0.9775267 0.1407828 0.9775267 0.1407828 0.0224733 -0.1407828
1738000000 0.0218874 -0.1387368 0.9781126 0.1387368 0.9781126 0.1387368 0.0218874 -0.1387368
1759000000 0.0213224 -0.1367313 0.9786776 0.1367313 0.9786776 0.1367313 0.0213224 -0.1367313
1780000000 0.0207774 -0.1347650 0.9792226 0.1347650 0.9792226 0.1347650 0.0207774 -0.1347650
1801000000 0.0202516 -0.1328366 0.9797484 0.1328366 0.9797484 0.1328366 0.0202516 -0.1328366
1822000000 0.0197440 -0.1309450 0.9802560 0.1309450 0.9802560 0.1309450 0.0197440 -0.1309450
1843000000 0.0192540 -0.1290891 0.9807460 0.1290891 0.9807460 0.1290891 0.0192540 -0.1290891
1864000000 0.0187807 -0.1272677 0.9812193 0.1272677 0.9812193 0.1272677 0.0187807 -0.1272677
1885000000 0.0183234 -0.1254798 0.9816766 0.1254798 0.9816766 0.1254798 0.0183234 -0.1254798
1906000000 0.0178815 -0.1237244 0.9821185 0.1237244 0.9821185 0.1237244 0.0178815 -0.1237244
1927000000 0.0174544 -0.1220005 0.9825456 0.1220005 0.9825456 0.1220005 0.0174544 -0.1220005
1948000000 0.0170413 -0.1203072 0.9829587 0.1203072 0.9829587 0.1203072 0.0170413 -0.1203072
1969000000 0.0166418 -0.1186437 0.9833582 0.1186437 0.9833582 0.1186437 0.0166418 -0.1186437
1990000000 0.0162552 -0.1170089 0.9837448 0.1170089 0.9837448 0.1170089 0.0162552 -0.1170089
2011000000 0.0158812 -0.1154022 0.9841188 0.1154022 0.9841188 0.1154022 0.0158812 -0.1154022
2032000000 0.0155191 -0.1138227 0.9844809 0.1138227 0.9844809 0.1138227 0.0155191 -0.1138227
2053000000 0.0151685 -0.1122696 0.9848315 0.1122696 0.9848315 0.1122696 0.0151685 -0.1122696
2074000000 0.0148290 -0.1107423 0.9851710 0.1107423 0.9851710 0.1107423 0.0148290 -0.1107423
2095000000 0.0145001 -0.1092399 0.9854999 0.1092399 0.9854999 0.1092399 0.0145001 -0.1092399
2116000000 0.0141814 -0.1077618 0.9858186 0.1077618 0.9858186 0.1077618 0.0141814 -0.1077618
2137000000 0.0138726 -0.1063074 0.9861274 0.1063074 0.9861274 0.1063074 0.0138726 -0.1063074
2158000000 0.0135733 -0.1048760 0.9864267 0.1048760 0.9864267 0.1048760 0.0135733 -0.1048760
2179000000 0.0132831 -0.1034669 0.9867169 0.1034669 0.9867169 0.1034669 0.0132831 -0.1034669
2200000000 0.0130017 -0.1020796 0.9869983 0.1020796 0.9869983 0.1020796 0.0130017 -0.1020796
2221000000 0.0127287 -0.1007135 0.9872713 0.1007135 0.9872713 0.1007135 0.0127287 -0.1007135
2242000000 0.0124639 -0.0993681 0.9875361 0.0993681 0.9875361 0.0993681 0.0124639 -0.0993681
2263000000 0.0122070 -0.0980427 0.9877930 0.0980427 0.9877930 0.0980427 0.0122070 -0.0980427
2284000000 0.0119577 -0.0967370 0.9880423 0.0967370 0.9880423 0.0967370 0.0119577 -0.0967370
2305000000 0.0117157 -0.0954503 0.9882843 0.0954503 0.9882843 0.0954503 0.0117157 -0.0954503
2326000000 0.0114808 -0.0941823 0.9885192 0.0941823 0.9885192 0.0941823 0.0114808 -0.0941823
2347000000 0.0112527 -0.0929324 0.9887473 0.0929324 0.9887473 0.0929324 0.0112527 -0.0929324
2368000000 0.0110313 -0.0917001 0.9889687 0.0917001 0.9889687 0.0917001 0.0110313 -0.0917001
2389000000 0.0108162 -0.0904851 0.9891838 0.0904851 0.9891838 0.0904851 0.0108162 -0.0904851
2410000000 0.0106072 -0.0892870 0.9893928 0.0892870 0.9893928 0.0892870 0.0106072 -0.0892870
2431000000 0.0104043 -0.0881052 0.9895957 0.0881052 0.9895957 0.0881052 0.0104043 -0.0881052
2452000000 0.0102071 -0.0869394 0.9897929 0.0869394 0.9897929 0.0869394 0.0102071 -0.0869394
2473000000 0.0100154 -0.0857893 0.9899846 0.0857893 0.9899846 0.0857893 0.0100154 -0.0857893
2494000000 0.0098292 -0.0846545 0.9901708 0.0846545 0.9901708 0.0846545 0.0098292 -0.0846545
2515000000 0.0096482 -0.0835345 0.9903518 0.0835345 0.9903518 0.0835345 0.0096482 -0.0835345
2536000000 0.0094722 -0.0824290 0.9905278 0.0824290 0.9905278 0.0824290 0.0094722 -0.0824290
2557000000 0.0093011 -0.0813378 0.9906989 0.0813378 0.9906989 0.0813378 0.0093011 -0.0813378
2578000000 0.0091348 -0.0802604 0.9908652 0.0802604 0.9908652 0.0802604 0.0091348 -0.0802604
2599000000 0.0089731 -0.0791966 0.9910269 0.0791966 0.9910269 0.0791966 0.0089731 -0.0791966
2620000000 0.0088158 -0.0781461 0.9911842 0.0781461 0.9911842 0.0781461 0.0088158 -0.0781461
2641000000 0.0086629 -0.0771084 0.9913371 0.0771084 0.9913371 0.0771084 0.0086629 -0.0771084
2662000000 0.0085141 -0.0760835 0.9914859 0.0760835 0.9914859 0.0760835 0.0085141 -0.0760835
2683000000 0.0083694 -0.0750709 0.9916306 0.0750709 0.9916306 0.0750709 0.0083694 -0.0750709
2704000000 0.0082286 -0.0740704 0.9917714 0.0740704 0.9917714 0.0740704 0.0082286 -0.0740704
2725000000 0.0080917 -0.0730817 0.9919083 0.0730817 0.9919083 0.0730817 0.0080917 -0.0730817
2746000000 0.0079585 -0.0721046 0.9920415 0.0721046 0.9920415 0.0721046 0.0079585 -0.0721046
2767000000 0.0078288 -0.0711389 0.9921712 0.0711389 0.9921712 0.0711389 0.0078288 -0.0711389
2788000000 0.0077027 -0.0701842 0.9922973 0.0701842 0.9922973 0.0701842 0.0077027 -0.0701842
2809000000 0.0075800 -0.0692403 0.9924200 0.0692403 0.9924200 0.0692403 0.0075800 -0.0692403
2830000000 0.0074606 -0.0683071 0.9925394 0.0683071 0.9925394 0.0683071 0.0074606 -0.0683071
2851000000 0.0073444 -0.0673843 0.9926556 0.0673843 0.9926556 0.0673843 0.0073444 -0.0673843
2872000000 0.0072313 -0.0664716 0.9927687 0.0664716 0.9927687 0.0664716 0.0072313 -0.0664716
2893000000 0.0071212 -0.0655689 0.9928788 0.0655689 0.9928788 0.0655689 0.0071212 -0.0655689
2914000000 0.0070141 -0.0646759 0.9929859 0.0646759 0.9929859 0.0646759 0.0070141 -0.0646759
2935000000 0.0069099 -0.0637925 0.9930901 0.0637925 0.9930901 0.0637925 0.0069099 -0.0637925
2956000000 0.0068085 -0.0629184 0.9931915 0.0629184 0.9931915 0.0629184 0.0068085 -0.0629184
2977000000 0.0067097 -0.0620535 0.9932903 0.0620535 0.9932903 0.0620535 0.0067097 -0.0620535
2998000000 0.0066137 -0.0611976 0.9933863 0.0611976 0.9933863 0.0611976 0.0066137 -0.0611976
3019000000 0.0065202 -0.0603505 0.9934798 0.0603505 0.9934798 0.0603505 0.0065202 -0.0603505
3040000000 0.0064292 -0.0595120 0.9935708 0.0595120 0.9935708 0.0595120 0.0064292 -0.0595120
3061000000 0.0063406 -0.0586820 0.9936594 0.0586820 0.9936594 0.0586820 0.0063406 -0.0586820
3082000000 0.0062544 -0.0578603 0.9937456 0.0578603 0.9937456 0.0578603 0.0062544 -0.0578603
3103000000 0.0061706 -0.0570467 0.9938294 0.0570467 0.9938294 0.0570467 0.0061706 -0.0570467
3124000000 0.0060890 -0.0562411 0.9939110 0.0562411 0.9939110 0.0562411 0.0060890 -0.0562411
3145000000 0.0060095 -0.0554433 0.9939905 0.0554433 0.9939905 0.0554433 0.0060095 -0.0554433
3166000000 0.0059323 -0.0546532 0.9940677 0.0546532 0.9940677 0.0546532 0.0059323 -0.0546532
3187000000 0.0058571 -0.0538706 0.9941429 0.0538706 0.9941429 0.0538706 0.0058571 -0.0538706
3208000000 0.0057840 -0.0530954 0.9942160 0.0530954 0.9942160 0.0530954 0.0057840 -0.0530954
3229000000 0.0057128 -0.0523274 0.9942872 0.0523274 0.9942872 0.0523274 0.0057128 -0.0523274
3250000000 0.0056436 -0.0515665 0.9943564 0.0515665 0.9943564 0.0515665 0.0056436 -0.0515665
3271000000 0.0055763 -0.0508127 0.9944237 0.0508127 0.9944237 0.0508127 0.0055763 -0.0508127
3292000000 0.0055109 -0.0500657 0.9944891 0.0500657 0.9944891 0.0500657 0.0055109 -0.0500657
3313000000 0.0054472 -0.0493254 0.9945528 0.0493254 0.9945528 0.0493254 0.0054472 -0.0493254
3334000000 0.0053853 -0.0485917 0.9946147 0.0485917 0.9946147 0.0485917 0.0053853 -0.0485917
3355000000 0.0053251 -0.0478645 0.9946749 0.0478645 0.9946749 0.0478645 0.0053251 -0.0478645
3376000000 0.0052666 -0.0471436 0.9947334 0.0471436 0.9947334 0.0471436 0.0052666 -0.0471436
3397000000 0.0052097 -0.0464290 0.9947903 0.0464290 0.9947903 0.0464290 0.0052097 -0.0464290
3418000000 0.0051545 -0.0457206 0.9948455 0.0457206 0.9948455 0.0457206 0.0051545 -0.0457206
3439000000 0.0051008 -0.0450182 0.9948992 0.0450182 0.9948992 0.0450182 0.0051008 -0.0450182
3460000000 0.0050486 -0.0443217 0.9949514 0.0443217 0.9949514 0.0443217 0.0050486 -0.0443217
3481000000 0.0049979 -0.0436311 0.9950021 0.0436311 0.9950021 0.0436311 0.0049979 -0.0436311
3502000000 0.0049487 -0.0429462 0.9950513 0.0429462 0.9950513 0.0429462 0.0049487 -0.0429462
3523000000 0.0049009 -0.0422669 0.9950991 0.0422669 0.9950991 0.0422669 0.0049009 -0.0422669
3544000000 0.0048545 -0.0415931 0.9951455 0.0415931 0.9951455 0.0415931 0.0048545 -0.0415931
3565000000 0.0048095 -0.0409248 0.9951905 0.0409248 0.9951905 0.0409248 0.0048095 -0.0409248
3586000000 0.0047657 -0.0402618 0.9952343 0.0402618 0.9952343 0.0402618 0.0047657 -0.0402618
3607000000 0.0047233 -0.0396041 0.9952767 0.0396041 0.9952767 0.0396041 0.0047233 -0.0396041
3628000000 0.0046822 -0.0389515 0.9953178 0.0389515 0.9953178 0.0389515 0.0046822 -0.0389515
3649000000 0.0046424 -0.0383040 0.9953576 0.0383040 0.9953576 0.0383040 0.0046424 -0.0383040
3670000000 0.0046037 -0.0376615 0.9953963 0.0376615 0.9953963 0.0376615 0.0046037 -0.0376615
3691000000 0.0045662 -0.0370240 0.9954338 0.0370240 0.9954338 0.0370240 0.0045662 -0.0370240
3712000000 0.0045300 -0.0363912 0.9954700 0.0363912 0.9954700 0.0363912 0.0045300 -0.0363912
3733000000 0.0044948 -0.0357633 0.9955052 0.0357633 0.9955052 0.0357633 0.0044948 -0.0357633
3754000000 0.0044608 -0.0351400 0.9955392 0.0351400 0.9955392 0.0351400 0.0044608 -0.0351400
3775000000 0.0044279 -0.0345213 0.9955721 0.0345213 0.9955721 0.0345213 0.0044279 -0.0345213
3796000000 0.0043960 -0.0339071 0.9956040 0.0339071 0.9956040 0.0339071 0.0043960 -0.0339071
3817000000 0.0043653 -0.0332974 0.9956347 0.0332974 0.9956347 0.0332974 0.0043653 -0.0332974
3838000000 0.0043355 -0.0326921 0.9956645 0.0326921 0.9956645 0.0326921 0.0043355 -0.0326921
3859000000 0.0043068 -0.0320911 0.9956932 0.0320911 0.9956932 0.0320911 0.0043068 -0.0320911
3880000000 0.0042790 -0.0314943 0.9957210 0.0314943 0.9957210 0.0314943 0.0042790 -0.0314943
3901000000 0.0042522 -0.0309018 0.9957478 0.0309018 0.9957478 0.0309018 0.0042522 -0.0309018
3922000000 0.0042264 -0.0303133 0.9957736 0.0303133 0.9957736 0.0303133 0.0042264 -0.0303133
3943000000 0.0042015 -0.0297290 0.9957985 0.0297290 0.9957985 0.0297290 0.0042015 -0.0297290
3964000000 0.0041775 -0.0291486 0.9958225 0.0291486 0.9958225 0.0291486 0.0041775 -0.0291486
3985000000 0.0041545 -0.0285721 0.9958455 0.0285721 0.9958455 0.0285721 0.0041545 -0.0285721
4006000000 0.0041323 -0.0279995 0.9958677 0.0279995 0.9958677 0.0279995 0.0041323 -0.0279995
4027000000 0.0041109 -0.0274307 0.9958891 0.0274307 0.9958891 0.0274307 0.0041109 -0.0274307
4048000000 0.0040904 -0.0268657 0.9959096 0.0268657 0.9959096 0.0268657 0.0040904 -0.0268657
4069000000 0.0040708 -0.0263044 0.9959292 0.0263044 0.9959292 0.0263044 0.0040708 -0.0263044
4090000000 0.0040519 -0.0257467 0.9959481 0.0257467 0.9959481 0.0257467 0.0040519 -0.0257467
4111000000 0.0040339 -0.0251927 0.9959661 0.0251927 0.9959661 0.0251927 0.0040339 -0.0251927
4132000000 0.0040166 -0.0246421 0.9959834 0.0246421 0.9959834 0.0246421 0.0040166 -0.0246421
4153000000 0.0040002 -0.0240951 0.9959998 0.0240951 0.9959998 0.0240951 0.0040002 -0.0240951
4174000000 0.0039844 -0.0235515 0.9960156 0.0235515 0.9960156 0.0235515 0.0039844 -0.0235515
4195000000 0.0039694 -0.0230113 0.9960306 0.0230113 0.9960306 0.0230113 0.0039694 -0.0230113
4216000000 0.0039552 -0.0224744 0.9960448 0.0224744 0.9960448 0.0224744 0.0039552 -0.0224744
4237000000 0.0039416 -0.0219408 0.9960584 0.0219408 0.9960584 0.0219408 0.0039416 -0.0219408
4258000000 0.0039288 -0.0214104 0.9960712 0.0214104 0.9960712 0.0214104 0.0039288 -0.0214104
4279000000 0.0039166 -0.0208833 0.9960834 0.0208833 0.9960834 0.0208833 0.0039166 -0.0208833
4300000000 0.0039052 -0.0203593 0.9960948 0.0203593 0.9960948 0.0203593 0.0039052 -0.0203593
4321000000 0.0038943 -0.0198384 0.9961057 0.0198384 0.9961057 0.0198384 0.0038943 -0.0198384
4342000000 0.0038842 -0.0193206 0.9961158 0.0193206 0.9961158 0.0193206 0.0038842 -0.0193206
4363000000 0.0038747 -0.0188058 0.9961253 0.0188058 0.9961253 0.0188058 0.0038747 -0.0188058
4384000000 0.0038658 -0.0182940 0.9961342 0.0182940 0.9961342 0.0182940 0.0038658 -0.0182940
4405000000 0.0038575 -0.0177851 0.9961425 0.0177851 0.9961425 0.0177851 0.0038575 -0.0177851
4426000000 0.0038499 -0.0172791 0.9961501 0.0172791 0.9961501 0.0172791 0.0038499 -0.0172791
4447000000 0.0038428 -0.0167760 0.9961572 0.0167760 0.9961572 0.0167760 0.0038428 -0.0167760
4468000000 0.0038364 -0.0162757 0.9961636 0.0162757 0.9961636 0.0162757 0.0038364 -0.0162757
4489000000 0.0038305 -0.0157781 0.9961695 0.0157781 0.9961695 0.0157781 0.0038305 -0.0157781
4510000000 0.0038252 -0.0152834 0.9961748 0.0152834 0.9961748 0.0152834 0.0038252 -0.0152834
