!Murata Part Number: GRM0225C1C150JA03
!These Parameters are Measured in Series Mode Connection
!Data Generated on Mar 30, 2021
!       o--ll--o
!Port1            Port2
!       o------o
!Operation Temp=25[degC], DC Bias Voltage=0[V]
!Freq. Start=100[MHz] Stop=9[GHz] 401[Steps]
# Hz S RI R 50
!Freq.(Hz) S11(Real) S11(Imag) S21(Real) S21(Imag) S12(Real) S12(Imag) S22(Real) S22(Imag)
100000000 0.5290626 -0.4984059 0.4709374 0.4984059 0.4709374 0.4984059 0.5290626 -0.4984059
121000000 0.4341109 -0.4947328 0.5658891 0.4947328 0.5658891 0.4947328 0.4341109 -0.4947328
142000000 0.3576786 -0.4782515 0.6423214 0.4782515 0.6423214 0.4782515 0.3576786 -0.4782515
163000000 0.2969996 -0.4557119 0.7030004 0.4557119 0.7030004 0.4557119 0.2969996 -0.4557119
184000000 0.2489228 -0.4310048 0.7510772 0.4310048 0.7510772 0.4310048 0.2489228 -0.4310048
205000000 0.2106647 -0.4062361 0.7893353 0.4062361 0.7893353 0.4062361 0.2106647 -0.4062361
226000000 0.1799890 -0.3824725 0.8200110 0.3824725 0.8200110 0.3824725 0.1799890 -0.3824725
247000000 0.1551697 -0.3601986 0.8448303 0.3601986 0.8448303 0.3601986 0.1551697 -0.3601986
268000000 0.1348969 -0.3395825 0.8651031 0.3395825 0.8651031 0.3395825 0.1348969 -0.3395825
289000000 0.1181802 -0.3206265 0.8818198 0.3206265 0.8818198 0.3206265 0.1181802 -0.3206265
310000000 0.1042694 -0.3032496 0.8957306 0.3032496 0.8957306 0.3032496 0.1042694 -0.3032496
331000000 0.0925928 -0.2873346 0.9074072 0.2873346 0.9074072 0.2873346 0.0925928 -0.2873346
352000000 0.0827117 -0.2727520 0.9172883 0.2727520 0.9172883 0.2727520 0.0827117 -0.2727520
373000000 0.0742864 -0.2593734 0.9257136 0.2593734 0.9257136 0.2593734 0.0742864 -0.2593734
394000000 0.0670514 -0.2470777 0.9329486 0.2470777 0.9329486 0.2470777 0.0670514 -0.2470777
415000000 0.0607978 -0.2357539 0.9392022 0.2357539 0.9392022 0.2357539 0.0607978 -0.2357539
436000000 0.0553595 -0.2253020 0.9446405 0.2253020 0.9446405 0.2253020 0.0553595 -0.2253020
457000000 0.0506034 -0.2156327 0.9493966 0.2156327 0.9493966 0.2156327 0.0506034 -0.2156327
478000000 0.0464220 -0.2066667 0.9535780 0.2066667 0.9535780 0.2066667 0.0464220 -0.2066667
499000000 0.0427278 -0.1983338 0.9572722 0.1983338 0.9572722 0.1983338 0.0427278 -0.1983338
520000000 0.0394493 -0.1905719 0.9605507 0.1905719 0.9605507 0.1905719 0.0394493 -0.1905719
541000000 0.0365273 -0.1833262 0.9634727 0.1833262 0.9634727 0.1833262 0.0365273 -0.1833262
562000000 0.0339127 -0.1765481 0.9660873 0.1765481 0.9660873 0.1765481 0.0339127 -0.1765481
583000000 0.0315644 -0.1701944 0.9684356 0.1701944 0.9684356 0.1701944 0.0315644 -0.1701944
604000000 0.0294480 -0.1642271 0.9705520 0.1642271 0.9705520 0.1642271 0.0294480 -0.1642271
625000000 0.0275344 -0.1586121 0.9724656 0.1586121 0.9724656 0.1586121 0.0275344 -0.1586121
646000000 0.0257988 -0.1533190 0.9742012 0.1533190 0.9742012 0.1533190 0.0257988 -0.1533190
667000000 0.0242202 -0.1483210 0.9757798 0.1483210 0.9757798 0.1483210 0.0242202 -0.1483210
688000000 0.0227804 -0.1435937 0.9772196 0.1435937 0.9772196 0.1435937 0.0227804 -0.1435937
709000000 0.0214640 -0.1391154 0.9785360 0.1391154 0.9785360 0.1391154 0.0214640 -0.1391154
730000000 0.0202574 -0.1348667 0.9797426 0.1348667 0.9797426 0.1348667 0.0202574 -0.1348667
751000000 0.0191489 -0.1308299 0.9808511 0.1308299 0.9808511 0.1308299 0.0191489 -0.1308299
772000000 0.0181284 -0.1269891 0.9818716 0.1269891 0.9818716 0.1269891 0.0181284 -0.1269891
793000000 0.0171870 -0.1233300 0.9828130 0.1233300 0.9828130 0.1233300 0.0171870 -0.1233300
814000000 0.0163169 -0.1198395 0.9836831 0.1198395 0.9836831 0.1198395 0.0163169 -0.1198395
835000000 0.0155112 -0.1165058 0.9844888 0.1165058 0.9844888 0.1165058 0.0155112 -0.1165058
856000000 0.0147639 -0.1133182 0.9852361 0.1133182 0.9852361 0.1133182 0.0147639 -0.1133182
877000000 0.0140695 -0.1102667 0.9859305 0.1102667 0.9859305 0.1102667 0.0140695 -0.1102667
898000000 0.0134234 -0.1073424 0.9865766 0.1073424 0.9865766 0.1073424 0.0134234 -0.1073424
919000000 0.0128212 -0.1045370 0.9871788 0.1045370 0.9871788 0.1045370 0.0128212 -0.1045370
940000000 0.0122592 -0.1018431 0.9877408 0.1018431 0.9877408 0.1018431 0.0122592 -0.1018431
961000000 0.0117341 -0.0992538 0.9882659 0.0992538 0.9882659 0.0992538 0.0117341 -0.0992538
982000000 0.0112427 -0.0967626 0.9887573 0.0967626 0.9887573 0.0967626 0.0112427 -0.0967626
1003000000 0.0107823 -0.0943637 0.9892177 0.0943637 0.9892177 0.0943637 0.0107823 -0.0943637
1024000000 0.0103505 -0.0920516 0.9896495 0.0920516 0.9896495 0.0920516 0.0103505 -0.0920516
1045000000 0.0099450 -0.0898214 0.9900550 0.0898214 0.9900550 0.0898214 0.0099450 -0.0898214
1066000000 0.0095639 -0.0876685 0.9904361 0.0876685 0.9904361 0.0876685 0.0095639 -0.0876685
1087000000 0.0092054 -0.0855885 0.9907946 0.0855885 0.9907946 0.0855885 0.0092054 -0.0855885
1108000000 0.0088677 -0.0835774 0.9911323 0.0835774 0.9911323 0.0835774 0.0088677 -0.0835774
1129000000 0.0085493 -0.0816317 0.9914507 0.0816317 0.9914507 0.0816317 0.0085493 -0.0816317
1150000000 0.0082489 -0.0797477 0.9917511 0.0797477 0.9917511 0.0797477 0.0082489 -0.0797477
1171000000 0.0079653 -0.0779224 0.9920347 0.0779224 0.9920347 0.0779224 0.0079653 -0.0779224
1192000000 0.0076973 -0.0761527 0.9923027 0.0761527 0.9923027 0.0761527 0.0076973 -0.0761527
1213000000 0.0074439 -0.0744359 0.9925561 0.0744359 0.9925561 0.0744359 0.0074439 -0.0744359
1234000000 0.0072040 -0.0727693 0.9927960 0.0727693 0.9927960 0.0727693 0.0072040 -0.0727693
1255000000 0.0069768 -0.0711504 0.9930232 0.0711504 0.9930232 0.0711504 0.0069768 -0.0711504
1276000000 0.0067615 -0.0695771 0.9932385 0.0695771 0.9932385 0.0695771 0.0067615 -0.0695771
1297000000 0.0065574 -0.0680472 0.9934426 0.0680472 0.9934426 0.0680472 0.0065574 -0.0680472
1318000000 0.0063637 -0.0665586 0.9936363 0.0665586 0.9936363 0.0665586 0.0063637 -0.0665586
1339000000 0.0061799 -0.0651094 0.9938201 0.0651094 0.9938201 0.0651094 0.0061799 -0.0651094
1360000000 0.0060053 -0.0636980 0.9939947 0.0636980 0.9939947 0.0636980 0.0060053 -0.0636980
1381000000 0.0058393 -0.0623226 0.9941607 0.0623226 0.9941607 0.0623226 0.0058393 -0.0623226
1402000000 0.0056816 -0.0609816 0.9943184 0.0609816 0.9943184 0.0609816 0.0056816 -0.0609816
1423000000 0.0055316 -0.0596736 0.9944684 0.0596736 0.9944684 0.0596736 0.0055316 -0.0596736
1444000000 0.0053888 -0.0583971 0.9946112 0.0583971 0.9946112 0.0583971 0.0053888 -0.0583971
1465000000 0.0052529 -0.0571509 0.9947471 0.0571509 0.9947471 0.0571509 0.0052529 -0.0571509
1486000000 0.0051235 -0.0559337 0.9948765 0.0559337 0.9948765 0.0559337 0.0051235 -0.0559337
1507000000 0.0050003 -0.0547442 0.9949997 0.0547442 0.9949997 0.0547442 0.0050003 -0.0547442
1528000000 0.0048829 -0.0535815 0.9951171 0.0535815 0.9951171 0.0535815 0.0048829 -0.0535815
1549000000 0.0047709 -0.0524444 0.9952291 0.0524444 0.9952291 0.0524444 0.0047709 -0.0524444
1570000000 0.0046643 -0.0513319 0.9953357 0.0513319 0.9953357 0.0513319 0.0046643 -0.0513319
1591000000 0.0045625 -0.0502430 0.9954375 0.0502430 0.9954375 0.0502430 0.0045625 -0.0502430
1612000000 0.0044655 -0.0491770 0.9955345 0.0491770 0.9955345 0.0491770 0.0044655 -0.0491770
1633000000 0.0043729 -0.0481328 0.9956271 0.0481328 0.9956271 0.0481328 0.0043729 -0.0481328
1654000000 0.0042846 -0.0471098 0.9957154 0.0471098 0.9957154 0.0471098 0.0042846 -0.0471098
1675000000 0.0042004 -0.0461070 0.9957996 0.0461070 0.9957996 0.0461070 0.0042004 -0.0461070
1696000000 0.0041200 -0.0451238 0.9958800 0.0451238 0.9958800 0.0451238 0.0041200 -0.0451238
1717000000 0.0040432 -0.0441595 0.9959568 0.0441595 0.9959568 0.0441595 0.0040432 -0.0441595
1738000000 0.0039700 -0.0432134 0.9960300 0.0432134 0.9960300 0.0432134 0.0039700 -0.0432134
1759000000 0.0039001 -0.0422849 0.9960999 0.0422849 0.9960999 0.0422849 0.0039001 -0.0422849
1780000000 0.0038333 -0.0413733 0.9961667 0.0413733 0.9961667 0.0413733 0.0038333 -0.0413733
1801000000 0.0037697 -0.0404781 0.9962303 0.0404781 0.9962303 0.0404781 0.0037697 -0.0404781
1822000000 0.0037089 -0.0395987 0.9962911 0.0395987 0.9962911 0.0395987 0.0037089 -0.0395987
1843000000 0.0036509 -0.0387346 0.9963491 0.0387346 0.9963491 0.0387346 0.0036509 -0.0387346
1864000000 0.0035955 -0.0378853 0.9964045 0.0378853 0.9964045 0.0378853 0.0035955 -0.0378853
1885000000 0.0035427 -0.0370503 0.9964573 0.0370503 0.9964573 0.0370503 0.0035427 -0.0370503
1906000000 0.0034923 -0.0362291 0.9965077 0.0362291 0.9965077 0.0362291 0.0034923 -0.0362291
1927000000 0.0034443 -0.0354213 0.9965557 0.0354213 0.9965557 0.0354213 0.0034443 -0.0354213
1948000000 0.0033985 -0.0346264 0.9966015 0.0346264 0.9966015 0.0346264 0.0033985 -0.0346264
1969000000 0.0033548 -0.0338441 0.9966452 0.0338441 0.9966452 0.0338441 0.0033548 -0.0338441
1990000000 0.0033132 -0.0330740 0.9966868 0.0330740 0.9966868 0.0330740 0.0033132 -0.0330740
2011000000 0.0032735 -0.0323157 0.9967265 0.0323157 0.9967265 0.0323157 0.0032735 -0.0323157
2032000000 0.0032358 -0.0315688 0.9967642 0.0315688 0.9967642 0.0315688 0.0032358 -0.0315688
2053000000 0.0031998 -0.0308330 0.9968002 0.0308330 0.9968002 0.0308330 0.0031998 -0.0308330
2074000000 0.0031656 -0.0301079 0.9968344 0.0301079 0.9968344 0.0301079 0.0031656 -0.0301079
2095000000 0.0031331 -0.0293933 0.9968669 0.0293933 0.9968669 0.0293933 0.0031331 -0.0293933
2116000000 0.0031022 -0.0286888 0.9968978 0.0286888 0.9968978 0.0286888 0.0031022 -0.0286888
2137000000 0.0030729 -0.0279941 0.9969271 0.0279941 0.9969271 0.0279941 0.0030729 -0.0279941
2158000000 0.0030451 -0.0273090 0.9969549 0.0273090 0.9969549 0.0273090 0.0030451 -0.0273090
2179000000 0.0030187 -0.0266332 0.9969813 0.0266332 0.9969813 0.0266332 0.0030187 -0.0266332
2200000000 0.0029937 -0.0259664 0.9970063 0.0259664 0.9970063 0.0259664 0.0029937 -0.0259664
2221000000 0.0029700 -0.0253084 0.9970300 0.0253084 0.9970300 0.0253084 0.0029700 -0.0253084
2242000000 0.0029476 -0.0246589 0.9970524 0.0246589 0.9970524 0.0246589 0.0029476 -0.0246589
2263000000 0.0029265 -0.0240176 0.9970735 0.0240176 0.9970735 0.0240176 0.0029265 -0.0240176
2284000000 0.0029066 -0.0233845 0.9970934 0.0233845 0.9970934 0.0233845 0.0029066 -0.0233845
2305000000 0.0028878 -0.0227592 0.9971122 0.0227592 0.9971122 0.0227592 0.0028878 -0.0227592
2326000000 0.0028702 -0.0221415 0.9971298 0.0221415 0.9971298 0.0221415 0.0028702 -0.0221415
2347000000 0.0028536 -0.0215313 0.9971464 0.0215313 0.9971464 0.0215313 0.0028536 -0.0215313
2368000000 0.0028381 -0.0209283 0.9971619 0.0209283 0.9971619 0.0209283 0.0028381 -0.0209283
2389000000 0.0028236 -0.0203323 0.9971764 0.0203323 0.9971764 0.0203323 0.0028236 -0.0203323
2410000000 0.0028101 -0.0197433 0.9971899 0.0197433 0.9971899 0.0197433 0.0028101 -0.0197433
2431000000 0.0027975 -0.0191609 0.9972025 0.0191609 0.9972025 0.0191609 0.0027975 -0.0191609
2452000000 0.0027859 -0.0185850 0.9972141 0.0185850 0.9972141 0.0185850 0.0027859 -0.0185850
2473000000 0.0027751 -0.0180155 0.9972249 0.0180155 0.9972249 0.0180155 0.0027751 -0.0180155
2494000000 0.0027652 -0.0174522 0.9972348 0.0174522 0.9972348 0.0174522 0.0027652 -0.0174522
2515000000 0.0027562 -0.0168950 0.9972438 0.0168950 0.9972438 0.0168950 0.0027562 -0.0168950
2536000000 0.0027479 -0.0163436 0.9972521 0.0163436 0.9972521 0.0163436 0.0027479 -0.0163436
2557000000 0.0027404 -0.0157980 0.9972596 0.0157980 0.9972596 0.0157980 0.0027404 -0.0157980
2578000000 0.0027337 -0.0152580 0.9972663 0.0152580 0.9972663 0.0152580 0.0027337 -0.0152580
2599000000 0.0027277 -0.0147235 0.9972723 0.0147235 0.9972723 0.0147235 0.0027277 -0.0147235
2620000000 0.0027225 -0.0141944 0.9972775 0.0141944 0.9972775 0.0141944 0.0027225 -0.0141944
2641000000 0.0027179 -0.0136704 0.9972821 0.0136704 0.9972821 0.0136704 0.0027179 -0.0136704
2662000000 0.0027140 -0.0131516 0.9972860 0.0131516 0.9972860 0.0131516 0.0027140 -0.0131516
2683000000 0.0027108 -0.0126378 0.9972892 0.0126378 0.9972892 0.0126378 0.0027108 -0.0126378
2704000000 0.0027082 -0.0121288 0.9972918 0.0121288 0.9972918 0.0121288 0.0027082 -0.0121288
2725000000 0.0027062 -0.0116245 0.9972938 0.0116245 0.9972938 0.0116245 0.0027062 -0.0116245
2746000000 0.0027049 -0.0111249 0.9972951 0.0111249 0.9972951 0.0111249 0.0027049 -0.0111249
2767000000 0.0027041 -0.0106299 0.9972959 0.0106299 0.9972959 0.0106299 0.0027041 -0.0106299
2788000000 0.0027039 -0.0101393 0.9972961 0.0101393 0.9972961 0.0101393 0.0027039 -0.0101393
2809000000 0.0027042 -0.0096530 0.9972958 0.0096530 0.9972958 0.0096530 0.0027042 -0.0096530
2830000000 0.0027051 -0.0091709 0.9972949 0.0091709 0.9972949 0.0091709 0.0027051 -0.0091709
2851000000 0.0027065 -0.0086931 0.9972935 0.0086931 0.9972935 0.0086931 0.0027065 -0.0086931
2872000000 0.0027085 -0.0082192 0.9972915 0.0082192 0.9972915 0.0082192 0.0027085 -0.0082192
2893000000 0.0027109 -0.0077494 0.9972891 0.0077494 0.9972891 0.0077494 0.0027109 -0.0077494
2914000000 0.0027139 -0.0072834 0.9972861 0.0072834 0.9972861 0.0072834 0.0027139 -0.0072834
2935000000 0.0027173 -0.0068212 0.9972827 0.0068212 0.9972827 0.0068212 0.0027173 -0.0068212
2956000000 0.0027211 -0.0063628 0.9972789 0.0063628 0.9972789 0.0063628 0.0027211 -0.0063628
2977000000 0.0027255 -0.0059080 0.9972745 0.0059080 0.9972745 0.0059080 0.0027255 -0.0059080
2998000000 0.0027303 -0.0054567 0.9972697 0.0054567 0.9972697 0.0054567 0.0027303 -0.0054567
3019000000 0.0027355 -0.0050090 0.9972645 0.0050090 0.9972645 0.0050090 0.0027355 -0.0050090
3040000000 0.0027411 -0.0045646 0.9972589 0.0045646 0.9972589 0.0045646 0.0027411 -0.0045646
3061000000 0.0027472 -0.0041236 0.9972528 0.0041236 0.9972528 0.0041236 0.0027472 -0.0041236
3082000000 0.0027537 -0.0036859 0.9972463 0.0036859 0.9972463 0.0036859 0.0027537 -0.0036859
3103000000 0.0027605 -0.0032514 0.9972395 0.0032514 0.9972395 0.0032514 0.0027605 -0.0032514
3124000000 0.0027678 -0.0028201 0.9972322 0.0028201 0.9972322 0.0028201 0.0027678 -0.0028201
3145000000 0.0027755 -0.0023918 0.9972245 0.0023918 0.9972245 0.0023918 0.0027755 -0.0023918
3166000000 0.0027835 -0.0019666 0.9972165 0.0019666 0.9972165 0.0019666 0.0027835 -0.0019666
3187000000 0.0027919 -0.0015443 0.9972081 0.0015443 0.9972081 0.0015443 0.0027919 -0.0015443
3208000000 0.0028006 -0.0011249 0.9971994 0.0011249 0.9971994 0.0011249 0.0028006 -0.0011249
3229000000 0.0028097 -0.0007084 0.9971903 0.0007084 0.9971903 0.0007084 0.0028097 -0.0007084
3250000000 0.0028192 -0.0002946 0.9971808 0.0002946 0.9971808 0.0002946 0.0028192 -0.0002946
3271000000 0.0028290 0.0001164 0.9971710 -0.0001164 0.9971710 -0.0001164 0.0028290 0.0001164
3292000000 0.0028391 0.0005247 0.9971609 -0.0005247 0.9971609 -0.0005247 0.0028391 0.0005247
3313000000 0.0028496 0.0009304 0.9971504 -0.0009304 0.9971504 -0.0009304 0.0028496 0.0009304
3334000000 0.0028604 0.0013335 0.9971396 -0.0013335 0.9971396 -0.0013335 0.0028604 0.0013335
3355000000 0.0028715 0.0017341 0.9971285 -0.0017341 0.9971285 -0.0017341 0.0028715 0.0017341
3376000000 0.0028829 0.0021321 0.9971171 -0.0021321 0.9971171 -0.0021321 0.0028829 0.0021321
3397000000 0.0028947 0.0025278 0.9971053 -0.0025278 0.9971053 -0.0025278 0.0028947 0.0025278
3418000000 0.0029067 0.0029210 0.9970933 -0.0029210 0.9970933 -0.0029210 0.0029067 0.0029210
3439000000 0.0029191 0.0033119 0.9970809 -0.0033119 0.9970809 -0.0033119 0.0029191 0.0033119
3460000000 0.0029317 0.0037005 0.9970683 -0.0037005 0.9970683 -0.0037005 0.0029317 0.0037005
3481000000 0.0029446 0.0040869 0.9970554 -0.0040869 0.9970554 -0.0040869 0.0029446 0.0040869
3502000000 0.0029579 0.0044710 0.9970421 -0.0044710 0.9970421 -0.0044710 0.0029579 0.0044710
3523000000 0.0029714 0.0048529 0.9970286 -0.0048529 0.9970286 -0.0048529 0.0029714 0.0048529
3544000000 0.0029851 0.0052327 0.9970149 -0.0052327 0.9970149 -0.0052327 0.0029851 0.0052327
3565000000 0.0029992 0.0056104 0.9970008 -0.0056104 0.9970008 -0.0056104 0.0029992 0.0056104
3586000000 0.0030135 0.0059860 0.9969865 -0.0059860 0.9969865 -0.0059860 0.0030135 0.0059860
3607000000 0.0030282 0.0063595 0.9969718 -0.0063595 0.9969718 -0.0063595 0.0030282 0.0063595
3628000000 0.0030430 0.0067311 0.9969570 -0.0067311 0.9969570 -0.0067311 0.0030430 0.0067311
3649000000 0.0030582 0.0071008 0.9969418 -0.0071008 0.9969418 -0.0071008 0.0030582 0.0071008
3670000000 0.0030736 0.0074685 0.9969264 -0.0074685 0.9969264 -0.0074685 0.0030736 0.0074685
3691000000 0.0030892 0.0078343 0.9969108 -0.0078343 0.9969108 -0.0078343 0.0030892 0.0078343
3712000000 0.0031052 0.0081982 0.9968948 -0.0081982 0.9968948 -0.0081982 0.0031052 0.0081982
3733000000 0.0031213 0.0085603 0.9968787 -0.0085603 0.9968787 -0.0085603 0.0031213 0.0085603
3754000000 0.0031378 0.0089207 0.9968622 -0.0089207 0.9968622 -0.0089207 0.0031378 0.0089207
3775000000 0.0031545 0.0092792 0.9968455 -0.0092792 0.9968455 -0.0092792 0.0031545 0.0092792
3796000000 0.0031714 0.0096361 0.9968286 -0.0096361 0.9968286 -0.0096361 0.0031714 0.0096361
3817000000 0.0031886 0.0099912 0.9968114 -0.0099912 0.9968114 -0.0099912 0.0031886 0.0099912
3838000000 0.0032060 0.0103446 0.9967940 -0.0103446 0.9967940 -0.0103446 0.0032060 0.0103446
3859000000 0.0032237 0.0106964 0.9967763 -0.0106964 0.9967763 -0.0106964 0.0032237 0.0106964
3880000000 0.0032416 0.0110466 0.9967584 -0.0110466 0.9967584 -0.0110466 0.0032416 0.0110466
3901000000 0.0032597 0.0113952 0.9967403 -0.0113952 0.9967403 -0.0113952 0.0032597 0.0113952
3922000000 0.0032781 0.0117422 0.9967219 -0.0117422 0.9967219 -0.0117422 0.0032781 0.0117422
3943000000 0.0032968 0.0120876 0.9967032 -0.0120876 0.9967032 -0.0120876 0.0032968 0.0120876
3964000000 0.0033156 0.0124316 0.9966844 -0.0124316 0.9966844 -0.0124316 0.0033156 0.0124316
3985000000 0.0033347 0.0127740 0.9966653 -0.0127740 0.9966653 -0.0127740 0.0033347 0.0127740
4006000000 0.0033541 0.0131150 0.9966459 -0.0131150 0.9966459 -0.0131150 0.0033541 0.0131150
4027000000 0.0033737 0.0134546 0.9966263 -0.0134546 0.9966263 -0.0134546 0.0033737 0.0134546
4048000000 0.0033935 0.0137927 0.9966065 -0.0137927 0.9966065 -0.0137927 0.0033935 0.0137927
4069000000 0.0034135 0.0141294 0.9965865 -0.0141294 0.9965865 -0.0141294 0.0034135 0.0141294
4090000000 0.0034338 0.0144647 0.9965662 -0.0144647 0.9965662 -0.0144647 0.0034338 0.0144647
4111000000 0.0034543 0.0147987 0.9965457 -0.0147987 0.9965457 -0.0147987 0.0034543 0.0147987
4132000000 0.0034751 0.0151314 0.9965249 -0.0151314 0.9965249 -0.0151314 0.0034751 0.0151314
4153000000 0.0034961 0.0154627 0.9965039 -0.0154627 0.9965039 -0.0154627 0.0034961 0.0154627
4174000000 0.0035173 0.0157927 0.9964827 -0.0157927 0.9964827 -0.0157927 0.0035173 0.0157927
4195000000 0.0035388 0.0161215 0.9964612 -0.0161215 0.9964612 -0.0161215 0.0035388 0.0161215
4216000000 0.0035604 0.0164490 0.9964396 -0.0164490 0.9964396 -0.0164490 0.0035604 0.0164490
4237000000 0.0035824 0.0167753 0.9964176 -0.0167753 0.9964176 -0.0167753 0.0035824 0.0167753
4258000000 0.0036045 0.0171003 0.9963955 -0.0171003 0.9963955 -0.0171003 0.0036045 0.0171003
4279000000 0.0036269 0.0174242 0.9963731 -0.0174242 0.9963731 -0.0174242 0.0036269 0.0174242
4300000000 0.0036495 0.0177468 0.9963505 -0.0177468 0.9963505 -0.0177468 0.0036495 0.0177468
4321000000 0.0036724 0.0180683 0.9963276 -0.0180683 0.9963276 -0.0180683 0.0036724 0.0180683
4342000000 0.0036955 0.0183887 0.9963045 -0.0183887 0.9963045 -0.0183887 0.0036955 0.0183887
4363000000 0.0037188 0.0187079 0.9962812 -0.0187079 0.9962812 -0.0187079 0.0037188 0.0187079
4384000000 0.0037423 0.0190260 0.9962577 -0.0190260 0.9962577 -0.0190260 0.0037423 0.0190260
4405000000 0.0037661 0.0193431 0.9962339 -0.0193431 0.9962339 -0.0193431 0.0037661 0.0193431
4426000000 0.0037902 0.0196590 0.9962098 -0.0196590 0.9962098 -0.0196590 0.0037902 0.0196590
4447000000 0.0038145 0.0199739 0.9961855 -0.0199739 0.9961855 -0.0199739 0.0038145 0.0199739
4468000000 0.0038390 0.0202877 0.9961610 -0.0202877 0.9961610 -0.0202877 0.0038390 0.0202877
4489000000 0.0038637 0.0206005 0.9961363 -0.0206005 0.9961363 -0.0206005 0.0038637 0.0206005
4510000000 0.0038887 0.0209122 0.9961113 -0.0209122 0.9961113 -0.0209122 0.0038887 0.0209122
