!Murata Part Number: GRM0222C1E4R4CA03
!These Parameters are Measured in Series Mode Connection
!Data Generated on Mar 30, 2021
!       o--ll--o
!Port1            Port2
!       o------o
!Operation Temp=25[degC], DC Bias Voltage=0[V]
!Freq. Start=100[MHz] Stop=9[GHz] 401[Steps]
# Hz S RI R 50
!Freq.(Hz) S11(Real) S11(Imag) S21(Real) S21(Imag) S12(Real) S12(Imag) S22(Real) S22(Imag)
100000000 0.9288588 -0.2568388 0.0711412 0.2568388 0.0711412 0.2568388 0.9288588 -0.2568388
121000000 0.8991507 -0.3008604 0.1008493 0.3008604 0.1008493 0.3008604 0.8991507 -0.3008604
142000000 0.8661667 -0.3401576 0.1338333 0.3401576 0.1338333 0.3401576 0.8661667 -0.3401576
163000000 0.8308024 -0.3745638 0.1691976 0.3745638 0.1691976 0.3745638 0.8308024 -0.3745638
184000000 0.7939007 -0.4040929 0.2060993 0.4040929 0.2060993 0.4040929 0.7939007 -0.4040929
205000000 0.7562180 -0.4289055 0.2437820 0.4289055 0.2437820 0.4289055 0.7562180 -0.4289055
226000000 0.7184056 -0.4492719 0.2815944 0.4492719 0.2815944 0.4492719 0.7184056 -0.4492719
247000000 0.6810017 -0.4655359 0.3189983 0.4655359 0.3189983 0.4655359 0.6810017 -0.4655359
268000000 0.6444332 -0.4780842 0.3555668 0.4780842 0.3555668 0.4780842 0.6444332 -0.4780842
289000000 0.6090243 -0.4873201 0.3909757 0.4873201 0.3909757 0.4873201 0.6090243 -0.4873201
310000000 0.5750081 -0.4936444 0.4249919 0.4936444 0.4249919 0.4936444 0.5750081 -0.4936444
331000000 0.5425399 -0.4974408 0.4574601 0.4974408 0.4574601 0.4974408 0.5425399 -0.4974408
352000000 0.5117115 -0.4990674 0.4882885 0.4990674 0.4882885 0.4990674 0.5117115 -0.4990674
373000000 0.4825637 -0.4988509 0.5174363 0.4988509 0.5174363 0.4988509 0.4825637 -0.4988509
394000000 0.4550979 -0.4970849 0.5449021 0.4970849 0.5449021 0.4970849 0.4550979 -0.4970849
415000000 0.4292859 -0.4940292 0.5707141 0.4940292 0.5707141 0.4940292 0.4292859 -0.4940292
436000000 0.4050781 -0.4899114 0.5949219 0.4899114 0.5949219 0.4899114 0.4050781 -0.4899114
457000000 0.3824100 -0.4849291 0.6175900 0.4849291 0.6175900 0.4849291 0.3824100 -0.4849291
478000000 0.3612077 -0.4792523 0.6387923 0.4792523 0.6387923 0.4792523 0.3612077 -0.4792523
499000000 0.3413919 -0.4730264 0.6586081 0.4730264 0.6586081 0.4730264 0.3413919 -0.4730264
520000000 0.3228808 -0.4663750 0.6771192 0.4663750 0.6771192 0.4663750 0.3228808 -0.4663750
541000000 0.3055924 -0.4594024 0.6944076 0.4594024 0.6944076 0.4594024 0.3055924 -0.4594024
562000000 0.2894465 -0.4521966 0.7105535 0.4521966 0.7105535 0.4521966 0.2894465 -0.4521966
583000000 0.2743653 -0.4448310 0.7256347 0.4448310 0.7256347 0.4448310 0.2743653 -0.4448310
604000000 0.2602745 -0.4373671 0.7397255 0.4373671 0.7397255 0.4373671 0.2602745 -0.4373671
625000000 0.2471039 -0.4298554 0.7528961 0.4298554 0.7528961 0.4298554 0.2471039 -0.4298554
646000000 0.2347872 -0.4223378 0.7652128 0.4223378 0.7652128 0.4223378 0.2347872 -0.4223378
667000000 0.2232623 -0.4148487 0.7767377 0.4148487 0.7767377 0.4148487 0.2232623 -0.4148487
688000000 0.2124716 -0.4074158 0.7875284 0.4074158 0.7875284 0.4074158 0.2124716 -0.4074158
709000000 0.2023612 -0.4000617 0.7976388 0.4000617 0.7976388 0.4000617 0.2023612 -0.4000617
730000000 0.1928814 -0.3928043 0.8071186 0.3928043 0.8071186 0.3928043 0.1928814 -0.3928043
751000000 0.1839861 -0.3856578 0.8160139 0.3856578 0.8160139 0.3856578 0.1839861 -0.3856578
772000000 0.1756329 -0.3786330 0.8243671 0.3786330 0.8243671 0.3786330 0.1756329 -0.3786330
793000000 0.1677824 -0.3717382 0.8322176 0.3717382 0.8322176 0.3717382 0.1677824 -0.3717382
814000000 0.1603984 -0.3649797 0.8396016 0.3649797 0.8396016 0.3649797 0.1603984 -0.3649797
835000000 0.1534477 -0.3583614 0.8465523 0.3583614 0.8465523 0.3583614 0.1534477 -0.3583614
856000000 0.1468994 -0.3518863 0.8531006 0.3518863 0.8531006 0.3518863 0.1468994 -0.3518863
877000000 0.1407253 -0.3455556 0.8592747 0.3455556 0.8592747 0.3455556 0.1407253 -0.3455556
898000000 0.1348993 -0.3393698 0.8651007 0.3393698 0.8651007 0.3393698 0.1348993 -0.3393698
919000000 0.1293974 -0.3333284 0.8706026 0.3333284 0.8706026 0.3333284 0.1293974 -0.3333284
940000000 0.1241974 -0.3274304 0.8758026 0.3274304 0.8758026 0.3274304 0.1241974 -0.3274304
961000000 0.1192789 -0.3216740 0.8807211 0.3216740 0.8807211 0.3216740 0.1192789 -0.3216740
982000000 0.1146232 -0.3160571 0.8853768 0.3160571 0.8853768 0.3160571 0.1146232 -0.3160571
1003000000 0.1102127 -0.3105773 0.8897873 0.3105773 0.8897873 0.3105773 0.1102127 -0.3105773
1024000000 0.1060315 -0.3052317 0.8939685 0.3052317 0.8939685 0.3052317 0.1060315 -0.3052317
1045000000 0.1020648 -0.3000176 0.8979352 0.3000176 0.8979352 0.3000176 0.1020648 -0.3000176
1066000000 0.0982987 -0.2949317 0.9017013 0.2949317 0.9017013 0.2949317 0.0982987 -0.2949317
1087000000 0.0947207 -0.2899708 0.9052793 0.2899708 0.9052793 0.2899708 0.0947207 -0.2899708
1108000000 0.0913190 -0.2851318 0.9086810 0.2851318 0.9086810 0.2851318 0.0913190 -0.2851318
1129000000 0.0880827 -0.2804114 0.9119173 0.2804114 0.9119173 0.2804114 0.0880827 -0.2804114
1150000000 0.0850016 -0.2758061 0.9149984 0.2758061 0.9149984 0.2758061 0.0850016 -0.2758061
1171000000 0.0820665 -0.2713128 0.9179335 0.2713128 0.9179335 0.2713128 0.0820665 -0.2713128
1192000000 0.0792687 -0.2669282 0.9207313 0.2669282 0.9207313 0.2669282 0.0792687 -0.2669282
1213000000 0.0766000 -0.2626490 0.9234000 0.2626490 0.9234000 0.2626490 0.0766000 -0.2626490
1234000000 0.0740530 -0.2584721 0.9259470 0.2584721 0.9259470 0.2584721 0.0740530 -0.2584721
1255000000 0.0716206 -0.2543944 0.9283794 0.2543944 0.9283794 0.2543944 0.0716206 -0.2543944
1276000000 0.0692963 -0.2504129 0.9307037 0.2504129 0.9307037 0.2504129 0.0692963 -0.2504129
1297000000 0.0670741 -0.2465245 0.9329259 0.2465245 0.9329259 0.2465245 0.0670741 -0.2465245
1318000000 0.0649483 -0.2427264 0.9350517 0.2427264 0.9350517 0.2427264 0.0649483 -0.2427264
1339000000 0.0629136 -0.2390158 0.9370864 0.2390158 0.9370864 0.2390158 0.0629136 -0.2390158
1360000000 0.0609650 -0.2353899 0.9390350 0.2353899 0.9390350 0.2353899 0.0609650 -0.2353899
1381000000 0.0590980 -0.2318462 0.9409020 0.2318462 0.9409020 0.2318462 0.0590980 -0.2318462
1402000000 0.0573082 -0.2283820 0.9426918 0.2283820 0.9426918 0.2283820 0.0573082 -0.2283820
1423000000 0.0555916 -0.2249949 0.9444084 0.2249949 0.9444084 0.2249949 0.0555916 -0.2249949
1444000000 0.0539444 -0.2216824 0.9460556 0.2216824 0.9460556 0.2216824 0.0539444 -0.2216824
1465000000 0.0523630 -0.2184423 0.9476370 0.2184423 0.9476370 0.2184423 0.0523630 -0.2184423
1486000000 0.0508441 -0.2152722 0.9491559 0.2152722 0.9491559 0.2152722 0.0508441 -0.2152722
1507000000 0.0493846 -0.2121701 0.9506154 0.2121701 0.9506154 0.2121701 0.0493846 -0.2121701
1528000000 0.0479815 -0.2091338 0.9520185 0.2091338 0.9520185 0.2091338 0.0479815 -0.2091338
1549000000 0.0466320 -0.2061613 0.9533680 0.2061613 0.9533680 0.2061613 0.0466320 -0.2061613
1570000000 0.0453337 -0.2032506 0.9546663 0.2032506 0.9546663 0.2032506 0.0453337 -0.2032506
1591000000 0.0440839 -0.2003999 0.9559161 0.2003999 0.9559161 0.2003999 0.0440839 -0.2003999
1612000000 0.0428804 -0.1976073 0.9571196 0.1976073 0.9571196 0.1976073 0.0428804 -0.1976073
1633000000 0.0417211 -0.1948711 0.9582789 0.1948711 0.9582789 0.1948711 0.0417211 -0.1948711
1654000000 0.0406039 -0.1921896 0.9593961 0.1921896 0.9593961 0.1921896 0.0406039 -0.1921896
1675000000 0.0395269 -0.1895611 0.9604731 0.1895611 0.9604731 0.1895611 0.0395269 -0.1895611
1696000000 0.0384881 -0.1869842 0.9615119 0.1869842 0.9615119 0.1869842 0.0384881 -0.1869842
1717000000 0.0374860 -0.1844572 0.9625140 0.1844572 0.9625140 0.1844572 0.0374860 -0.1844572
1738000000 0.0365189 -0.1819787 0.9634811 0.1819787 0.9634811 0.1819787 0.0365189 -0.1819787
1759000000 0.0355852 -0.1795472 0.9644148 0.1795472 0.9644148 0.1795472 0.0355852 -0.1795472
1780000000 0.0346834 -0.1771615 0.9653166 0.1771615 0.9653166 0.1771615 0.0346834 -0.1771615
1801000000 0.0338123 -0.1748202 0.9661877 0.1748202 0.9661877 0.1748202 0.0338123 -0.1748202
1822000000 0.0329705 -0.1725220 0.9670295 0.1725220 0.9670295 0.1725220 0.0329705 -0.1725220
1843000000 0.0321567 -0.1702658 0.9678433 0.1702658 0.9678433 0.1702658 0.0321567 -0.1702658
1864000000 0.0313698 -0.1680502 0.9686302 0.1680502 0.9686302 0.1680502 0.0313698 -0.1680502
1885000000 0.0306087 -0.1658742 0.9693913 0.1658742 0.9693913 0.1658742 0.0306087 -0.1658742
1906000000 0.0298723 -0.1637367 0.9701277 0.1637367 0.9701277 0.1637367 0.0298723 -0.1637367
1927000000 0.0291595 -0.1616367 0.9708405 0.1616367 0.9708405 0.1616367 0.0291595 -0.1616367
1948000000 0.0284696 -0.1595730 0.9715304 0.1595730 0.9715304 0.1595730 0.0284696 -0.1595730
1969000000 0.0278014 -0.1575446 0.9721986 0.1575446 0.9721986 0.1575446 0.0278014 -0.1575446
1990000000 0.0271542 -0.1555508 0.9728458 0.1555508 0.9728458 0.1555508 0.0271542 -0.1555508
2011000000 0.0265272 -0.1535904 0.9734728 0.1535904 0.9734728 0.1535904 0.0265272 -0.1535904
2032000000 0.0259195 -0.1516626 0.9740805 0.1516626 0.9740805 0.1516626 0.0259195 -0.1516626
2053000000 0.0253305 -0.1497666 0.9746695 0.1497666 0.9746695 0.1497666 0.0253305 -0.1497666
2074000000 0.0247594 -0.1479015 0.9752406 0.1479015 0.9752406 0.1479015 0.0247594 -0.1479015
2095000000 0.0242055 -0.1460665 0.9757945 0.1460665 0.9757945 0.1460665 0.0242055 -0.1460665
2116000000 0.0236682 -0.1442608 0.9763318 0.1442608 0.9763318 0.1442608 0.0236682 -0.1442608
2137000000 0.0231469 -0.1424836 0.9768531 0.1424836 0.9768531 0.1424836 0.0231469 -0.1424836
2158000000 0.0226410 -0.1407343 0.9773590 0.1407343 0.9773590 0.1407343 0.0226410 -0.1407343
2179000000 0.0221499 -0.1390121 0.9778501 0.1390121 0.9778501 0.1390121 0.0221499 -0.1390121
2200000000 0.0216731 -0.1373164 0.9783269 0.1373164 0.9783269 0.1373164 0.0216731 -0.1373164
2221000000 0.0212101 -0.1356464 0.9787899 0.1356464 0.9787899 0.1356464 0.0212101 -0.1356464
2242000000 0.0207604 -0.1340016 0.9792396 0.1340016 0.9792396 0.1340016 0.0207604 -0.1340016
2263000000 0.0203235 -0.1323812 0.9796765 0.1323812 0.9796765 0.1323812 0.0203235 -0.1323812
2284000000 0.0198990 -0.1307848 0.9801010 0.1307848 0.9801010 0.1307848 0.0198990 -0.1307848
2305000000 0.0194864 -0.1292117 0.9805136 0.1292117 0.9805136 0.1292117 0.0194864 -0.1292117
2326000000 0.0190854 -0.1276613 0.9809146 0.1276613 0.9809146 0.1276613 0.0190854 -0.1276613
2347000000 0.0186955 -0.1261332 0.9813045 0.1261332 0.9813045 0.1261332 0.0186955 -0.1261332
2368000000 0.0183164 -0.1246267 0.9816836 0.1246267 0.9816836 0.1246267 0.0183164 -0.1246267
2389000000 0.0179477 -0.1231415 0.9820523 0.1231415 0.9820523 0.1231415 0.0179477 -0.1231415
2410000000 0.0175891 -0.1216768 0.9824109 0.1216768 0.9824109 0.1216768 0.0175891 -0.1216768
2431000000 0.0172402 -0.1202324 0.9827598 0.1202324 0.9827598 0.1202324 0.0172402 -0.1202324
2452000000 0.0169007 -0.1188077 0.9830993 0.1188077 0.9830993 0.1188077 0.0169007 -0.1188077
2473000000 0.0165704 -0.1174022 0.9834296 0.1174022 0.9834296 0.1174022 0.0165704 -0.1174022
2494000000 0.0162488 -0.1160156 0.9837512 0.1160156 0.9837512 0.1160156 0.0162488 -0.1160156
2515000000 0.0159358 -0.1146473 0.9840642 0.1146473 0.9840642 0.1146473 0.0159358 -0.1146473
2536000000 0.0156311 -0.1132970 0.9843689 0.1132970 0.9843689 0.1132970 0.0156311 -0.1132970
2557000000 0.0153344 -0.1119643 0.9846656 0.1119643 0.9846656 0.1119643 0.0153344 -0.1119643
2578000000 0.0150454 -0.1106488 0.9849546 0.1106488 0.9849546 0.1106488 0.0150454 -0.1106488
2599000000 0.0147639 -0.1093501 0.9852361 0.1093501 0.9852361 0.1093501 0.0147639 -0.1093501
2620000000 0.0144898 -0.1080678 0.9855102 0.1080678 0.9855102 0.1080678 0.0144898 -0.1080678
2641000000 0.0142227 -0.1068015 0.9857773 0.1068015 0.9857773 0.1068015 0.0142227 -0.1068015
2662000000 0.0139624 -0.1055510 0.9860376 0.1055510 0.9860376 0.1055510 0.0139624 -0.1055510
2683000000 0.0137088 -0.1043159 0.9862912 0.1043159 0.9862912 0.1043159 0.0137088 -0.1043159
2704000000 0.0134617 -0.1030958 0.9865383 0.1030958 0.9865383 0.1030958 0.0134617 -0.1030958
2725000000 0.0132208 -0.1018905 0.9867792 0.1018905 0.9867792 0.1018905 0.0132208 -0.1018905
2746000000 0.0129860 -0.1006996 0.9870140 0.1006996 0.9870140 0.1006996 0.0129860 -0.1006996
2767000000 0.0127571 -0.0995227 0.9872429 0.0995227 0.9872429 0.0995227 0.0127571 -0.0995227
2788000000 0.0125339 -0.0983598 0.9874661 0.0983598 0.9874661 0.0983598 0.0125339 -0.0983598
2809000000 0.0123163 -0.0972103 0.9876837 0.0972103 0.9876837 0.0972103 0.0123163 -0.0972103
2830000000 0.0121041 -0.0960741 0.9878959 0.0960741 0.9878959 0.0960741 0.0121041 -0.0960741
2851000000 0.0118971 -0.0949509 0.9881029 0.0949509 0.9881029 0.0949509 0.0118971 -0.0949509
2872000000 0.0116953 -0.0938404 0.9883047 0.0938404 0.9883047 0.0938404 0.0116953 -0.0938404
2893000000 0.0114984 -0.0927424 0.9885016 0.0927424 0.9885016 0.0927424 0.0114984 -0.0927424
2914000000 0.0113064 -0.0916565 0.9886936 0.0916565 0.9886936 0.0916565 0.0113064 -0.0916565
2935000000 0.0111190 -0.0905827 0.9888810 0.0905827 0.9888810 0.0905827 0.0111190 -0.0905827
2956000000 0.0109362 -0.0895206 0.9890638 0.0895206 0.9890638 0.0895206 0.0109362 -0.0895206
2977000000 0.0107579 -0.0884699 0.9892421 0.0884699 0.9892421 0.0884699 0.0107579 -0.0884699
2998000000 0.0105838 -0.0874306 0.9894162 0.0874306 0.9894162 0.0874306 0.0105838 -0.0874306
3019000000 0.0104140 -0.0864023 0.9895860 0.0864023 0.9895860 0.0864023 0.0104140 -0.0864023
3040000000 0.0102483 -0.0853848 0.9897517 0.0853848 0.9897517 0.0853848 0.0102483 -0.0853848
3061000000 0.0100866 -0.0843780 0.9899134 0.0843780 0.9899134 0.0843780 0.0100866 -0.0843780
3082000000 0.0099287 -0.0833816 0.9900713 0.0833816 0.9900713 0.0833816 0.0099287 -0.0833816
3103000000 0.0097747 -0.0823954 0.9902253 0.0823954 0.9902253 0.0823954 0.0097747 -0.0823954
3124000000 0.0096243 -0.0814193 0.9903757 0.0814193 0.9903757 0.0814193 0.0096243 -0.0814193
3145000000 0.0094775 -0.0804530 0.9905225 0.0804530 0.9905225 0.0804530 0.0094775 -0.0804530
3166000000 0.0093342 -0.0794964 0.9906658 0.0794964 0.9906658 0.0794964 0.0093342 -0.0794964
3187000000 0.0091943 -0.0785493 0.9908057 0.0785493 0.9908057 0.0785493 0.0091943 -0.0785493
3208000000 0.0090578 -0.0776114 0.9909422 0.0776114 0.9909422 0.0776114 0.0090578 -0.0776114
3229000000 0.0089245 -0.0766827 0.9910755 0.0766827 0.9910755 0.0766827 0.0089245 -0.0766827
3250000000 0.0087943 -0.0757630 0.9912057 0.0757630 0.9912057 0.0757630 0.0087943 -0.0757630
3271000000 0.0086673 -0.0748521 0.9913327 0.0748521 0.9913327 0.0748521 0.0086673 -0.0748521
3292000000 0.0085432 -0.0739498 0.9914568 0.0739498 0.9914568 0.0739498 0.0085432 -0.0739498
3313000000 0.0084221 -0.0730561 0.9915779 0.0730561 0.9915779 0.0730561 0.0084221 -0.0730561
3334000000 0.0083038 -0.0721706 0.9916962 0.0721706 0.9916962 0.0721706 0.0083038 -0.0721706
3355000000 0.0081884 -0.0712934 0.9918116 0.0712934 0.9918116 0.0712934 0.0081884 -0.0712934
3376000000 0.0080756 -0.0704242 0.9919244 0.0704242 0.9919244 0.0704242 0.0080756 -0.0704242
3397000000 0.0079656 -0.0695630 0.9920344 0.0695630 0.9920344 0.0695630 0.0079656 -0.0695630
3418000000 0.0078581 -0.0687095 0.9921419 0.0687095 0.9921419 0.0687095 0.0078581 -0.0687095
3439000000 0.0077532 -0.0678636 0.9922468 0.0678636 0.9922468 0.0678636 0.0077532 -0.0678636
3460000000 0.0076507 -0.0670253 0.9923493 0.0670253 0.9923493 0.0670253 0.0076507 -0.0670253
3481000000 0.0075507 -0.0661943 0.9924493 0.0661943 0.9924493 0.0661943 0.0075507 -0.0661943
3502000000 0.0074530 -0.0653706 0.9925470 0.0653706 0.9925470 0.0653706 0.0074530 -0.0653706
3523000000 0.0073577 -0.0645540 0.9926423 0.0645540 0.9926423 0.0645540 0.0073577 -0.0645540
3544000000 0.0072646 -0.0637444 0.9927354 0.0637444 0.9927354 0.0637444 0.0072646 -0.0637444
3565000000 0.0071738 -0.0629417 0.9928262 0.0629417 0.9928262 0.0629417 0.0071738 -0.0629417
3586000000 0.0070850 -0.0621458 0.9929150 0.0621458 0.9929150 0.0621458 0.0070850 -0.0621458
3607000000 0.0069984 -0.0613565 0.9930016 0.0613565 0.9930016 0.0613565 0.0069984 -0.0613565
3628000000 0.0069139 -0.0605738 0.9930861 0.0605738 0.9930861 0.0605738 0.0069139 -0.0605738
3649000000 0.0068314 -0.0597975 0.9931686 0.0597975 0.9931686 0.0597975 0.0068314 -0.0597975
3670000000 0.0067509 -0.0590276 0.9932491 0.0590276 0.9932491 0.0590276 0.0067509 -0.0590276
3691000000 0.0066723 -0.0582639 0.9933277 0.0582639 0.9933277 0.0582639 0.0066723 -0.0582639
3712000000 0.0065956 -0.0575064 0.9934044 0.0575064 0.9934044 0.0575064 0.0065956 -0.0575064
3733000000 0.0065207 -0.0567549 0.9934793 0.0567549 0.9934793 0.0567549 0.0065207 -0.0567549
3754000000 0.0064476 -0.0560094 0.9935524 0.0560094 0.9935524 0.0560094 0.0064476 -0.0560094
3775000000 0.0063764 -0.0552696 0.9936236 0.0552696 0.9936236 0.0552696 0.0063764 -0.0552696
3796000000 0.0063068 -0.0545357 0.9936932 0.0545357 0.9936932 0.0545357 0.0063068 -0.0545357
3817000000 0.0062390 -0.0538074 0.9937610 0.0538074 0.9937610 0.0538074 0.0062390 -0.0538074
3838000000 0.0061728 -0.0530847 0.9938272 0.0530847 0.9938272 0.0530847 0.0061728 -0.0530847
3859000000 0.0061082 -0.0523675 0.9938918 0.0523675 0.9938918 0.0523675 0.0061082 -0.0523675
3880000000 0.0060453 -0.0516557 0.9939547 0.0516557 0.9939547 0.0516557 0.0060453 -0.0516557
3901000000 0.0059839 -0.0509492 0.9940161 0.0509492 0.9940161 0.0509492 0.0059839 -0.0509492
3922000000 0.0059240 -0.0502479 0.9940760 0.0502479 0.9940760 0.0502479 0.0059240 -0.0502479
3943000000 0.0058657 -0.0495518 0.9941343 0.0495518 0.9941343 0.0495518 0.0058657 -0.0495518
3964000000 0.0058088 -0.0488608 0.9941912 0.0488608 0.9941912 0.0488608 0.0058088 -0.0488608
3985000000 0.0057533 -0.0481748 0.9942467 0.0481748 0.9942467 0.0481748 0.0057533 -0.0481748
4006000000 0.0056992 -0.0474937 0.9943008 0.0474937 0.9943008 0.0474937 0.0056992 -0.0474937
4027000000 0.0056466 -0.0468175 0.9943534 0.0468175 0.9943534 0.0468175 0.0056466 -0.0468175
4048000000 0.0055953 -0.0461460 0.9944047 0.0461460 0.9944047 0.0461460 0.0055953 -0.0461460
4069000000 0.0055453 -0.0454793 0.9944547 0.0454793 0.9944547 0.0454793 0.0055453 -0.0454793
4090000000 0.0054966 -0.0448172 0.9945034 0.0448172 0.9945034 0.0448172 0.0054966 -0.0448172
4111000000 0.0054492 -0.0441597 0.9945508 0.0441597 0.9945508 0.0441597 0.0054492 -0.0441597
4132000000 0.0054031 -0.0435067 0.9945969 0.0435067 0.9945969 0.0435067 0.0054031 -0.0435067
4153000000 0.0053581 -0.0428582 0.9946419 0.0428582 0.9946419 0.0428582 0.0053581 -0.0428582
4174000000 0.0053144 -0.0422140 0.9946856 0.0422140 0.9946856 0.0422140 0.0053144 -0.0422140
4195000000 0.0052719 -0.0415741 0.9947281 0.0415741 0.9947281 0.0415741 0.0052719 -0.0415741
4216000000 0.0052305 -0.0409385 0.9947695 0.0409385 0.9947695 0.0409385 0.0052305 -0.0409385
4237000000 0.0051903 -0.0403071 0.9948097 0.0403071 0.9948097 0.0403071 0.0051903 -0.0403071
4258000000 0.0051512 -0.0396799 0.9948488 0.0396799 0.9948488 0.0396799 0.0051512 -0.0396799
4279000000 0.0051131 -0.0390567 0.9948869 0.0390567 0.9948869 0.0390567 0.0051131 -0.0390567
4300000000 0.0050762 -0.0384375 0.9949238 0.0384375 0.9949238 0.0384375 0.0050762 -0.0384375
4321000000 0.0050403 -0.0378223 0.9949597 0.0378223 0.9949597 0.0378223 0.0050403 -0.0378223
4342000000 0.0050055 -0.0372109 0.9949945 0.0372109 0.9949945 0.0372109 0.0050055 -0.0372109
4363000000 0.0049716 -0.0366035 0.9950284 0.0366035 0.9950284 0.0366035 0.0049716 -0.0366035
4384000000 0.0049388 -0.0359998 0.9950612 0.0359998 0.9950612 0.0359998 0.0049388 -0.0359998
4405000000 0.0049070 -0.0353999 0.9950930 0.0353999 0.9950930 0.0353999 0.0049070 -0.0353999
4426000000 0.0048761 -0.0348037 0.9951239 0.0348037 0.9951239 0.0348037 0.0048761 -0.0348037
4447000000 0.0048461 -0.0342111 0.9951539 0.0342111 0.9951539 0.0342111 0.0048461 -0.0342111
4468000000 0.0048171 -0.0336222 0.9951829 0.0336222 0.9951829 0.0336222 0.0048171 -0.0336222
4489000000 0.0047890 -0.0330367 0.9952110 0.0330367 0.9952110 0.0330367 0.0047890 -0.0330367
4510000000 0.0047618 -0.0324548 0.9952382 0.0324548 0.9952382 0.0324548 0.0047618 -0.0324548
