!Murata Part Number: GRM0225C1C7R4DA03
!These Parameters are Measured in Series Mode Connection
!Data Generated on Mar 30, 2021
!       o--ll--o
!Port1            Port2
!       o------o
!Operation Temp=25[degC], DC Bias Voltage=0[V]
!Freq. Start=100[MHz] Stop=9[GHz] 401[Steps]
# Hz S RI R 50
!Freq.(Hz) S11(Real) S11(Imag) S21(Real) S21(Imag) S12(Real) S12(Imag) S22(Real) S22(Imag)
100000000 0.8219363 -0.3822426 0.1780637 0.3822426 0.1780637 0.3822426 0.8219363 -0.3822426
121000000 0.7591360 -0.4272157 0.2408640 0.4272157 0.2408640 0.4272157 0.7591360 -0.4272157
142000000 0.6958220 -0.4595976 0.3041780 0.4595976 0.3041780 0.4595976 0.6958220 -0.4595976
163000000 0.6344088 -0.4810658 0.3655912 0.4810658 0.3655912 0.4810658 0.6344088 -0.4810658
184000000 0.5764671 -0.4935193 0.4235329 0.4935193 0.4235329 0.4935193 0.5764671 -0.4935193
205000000 0.5228732 -0.4988081 0.4771268 0.4988081 0.4771268 0.4988081 0.5228732 -0.4988081
226000000 0.4739893 -0.4985846 0.5260107 0.4985846 0.5260107 0.4985846 0.4739893 -0.4985846
247000000 0.4298291 -0.4942429 0.5701709 0.4942429 0.5701709 0.4942429 0.4298291 -0.4942429
268000000 0.3901903 -0.4869133 0.6098097 0.4869133 0.6098097 0.4869133 0.3901903 -0.4869133
289000000 0.3547512 -0.4774871 0.6452488 0.4774871 0.6452488 0.4774871 0.3547512 -0.4774871
310000000 0.3231357 -0.4666515 0.6768643 0.4666515 0.6768643 0.4666515 0.3231357 -0.4666515
331000000 0.2949551 -0.4549276 0.7050449 0.4549276 0.7050449 0.4549276 0.2949551 -0.4549276
352000000 0.2698326 -0.4427047 0.7301674 0.4427047 0.7301674 0.4427047 0.2698326 -0.4427047
373000000 0.2474175 -0.4302698 0.7525825 0.4302698 0.7525825 0.4302698 0.2474175 -0.4302698
394000000 0.2273906 -0.4178309 0.7726094 0.4178309 0.7726094 0.4178309 0.2273906 -0.4178309
415000000 0.2094665 -0.4055369 0.7905335 0.4055369 0.7905335 0.4055369 0.2094665 -0.4055369
436000000 0.1933927 -0.3934914 0.8066073 0.3934914 0.8066073 0.3934914 0.1933927 -0.3934914
457000000 0.1789474 -0.3817649 0.8210526 0.3817649 0.8210526 0.3817649 0.1789474 -0.3817649
478000000 0.1659362 -0.3704026 0.8340638 0.3704026 0.8340638 0.3704026 0.1659362 -0.3704026
499000000 0.1541900 -0.3594317 0.8458100 0.3594317 0.8458100 0.3594317 0.1541900 -0.3594317
520000000 0.1435611 -0.3488659 0.8564389 0.3488659 0.8564389 0.3488659 0.1435611 -0.3488659
541000000 0.1339211 -0.3387091 0.8660789 0.3387091 0.8660789 0.3387091 0.1339211 -0.3387091
562000000 0.1251580 -0.3289584 0.8748420 0.3289584 0.8748420 0.3289584 0.1251580 -0.3289584
583000000 0.1171741 -0.3196060 0.8828259 0.3196060 0.8828259 0.3196060 0.1171741 -0.3196060
604000000 0.1098843 -0.3106407 0.8901157 0.3106407 0.8901157 0.3106407 0.1098843 -0.3106407
625000000 0.1032140 -0.3020492 0.8967860 0.3020492 0.8967860 0.3020492 0.1032140 -0.3020492
646000000 0.0970980 -0.2938168 0.9029020 0.2938168 0.9029020 0.2938168 0.0970980 -0.2938168
667000000 0.0914789 -0.2859281 0.9085211 0.2859281 0.9085211 0.2859281 0.0914789 -0.2859281
688000000 0.0863063 -0.2783674 0.9136937 0.2783674 0.9136937 0.2783674 0.0863063 -0.2783674
709000000 0.0815359 -0.2711190 0.9184641 0.2711190 0.9184641 0.2711190 0.0815359 -0.2711190
730000000 0.0771284 -0.2641676 0.9228716 0.2641676 0.9228716 0.2641676 0.0771284 -0.2641676
751000000 0.0730491 -0.2574983 0.9269509 0.2574983 0.9269509 0.2574983 0.0730491 -0.2574983
772000000 0.0692673 -0.2510965 0.9307327 0.2510965 0.9307327 0.2510965 0.0692673 -0.2510965
793000000 0.0657555 -0.2449486 0.9342445 0.2449486 0.9342445 0.2449486 0.0657555 -0.2449486
814000000 0.0624894 -0.2390412 0.9375106 0.2390412 0.9375106 0.2390412 0.0624894 -0.2390412
835000000 0.0594472 -0.2333619 0.9405528 0.2333619 0.9405528 0.2333619 0.0594472 -0.2333619
856000000 0.0566095 -0.2278989 0.9433905 0.2278989 0.9433905 0.2278989 0.0566095 -0.2278989
877000000 0.0539589 -0.2226407 0.9460411 0.2226407 0.9460411 0.2226407 0.0539589 -0.2226407
898000000 0.0514797 -0.2175769 0.9485203 0.2175769 0.9485203 0.2175769 0.0514797 -0.2175769
919000000 0.0491578 -0.2126975 0.9508422 0.2126975 0.9508422 0.2126975 0.0491578 -0.2126975
940000000 0.0469805 -0.2079929 0.9530195 0.2079929 0.9530195 0.2079929 0.0469805 -0.2079929
961000000 0.0449364 -0.2034543 0.9550636 0.2034543 0.9550636 0.2034543 0.0449364 -0.2034543
982000000 0.0430151 -0.1990734 0.9569849 0.1990734 0.9569849 0.1990734 0.0430151 -0.1990734
1003000000 0.0412072 -0.1948422 0.9587928 0.1948422 0.9587928 0.1948422 0.0412072 -0.1948422
1024000000 0.0395042 -0.1907534 0.9604958 0.1907534 0.9604958 0.1907534 0.0395042 -0.1907534
1045000000 0.0378983 -0.1867999 0.9621017 0.1867999 0.9621017 0.1867999 0.0378983 -0.1867999
1066000000 0.0363825 -0.1829753 0.9636175 0.1829753 0.9636175 0.1829753 0.0363825 -0.1829753
1087000000 0.0349503 -0.1792733 0.9650497 0.1792733 0.9650497 0.1792733 0.0349503 -0.1792733
1108000000 0.0335959 -0.1756881 0.9664041 0.1756881 0.9664041 0.1756881 0.0335959 -0.1756881
1129000000 0.0323139 -0.1722142 0.9676861 0.1722142 0.9676861 0.1722142 0.0323139 -0.1722142
1150000000 0.0310994 -0.1688465 0.9689006 0.1688465 0.9689006 0.1688465 0.0310994 -0.1688465
1171000000 0.0299478 -0.1655801 0.9700522 0.1655801 0.9700522 0.1655801 0.0299478 -0.1655801
1192000000 0.0288550 -0.1624103 0.9711450 0.1624103 0.9711450 0.1624103 0.0288550 -0.1624103
1213000000 0.0278172 -0.1593329 0.9721828 0.1593329 0.9721828 0.1593329 0.0278172 -0.1593329
1234000000 0.0268309 -0.1563438 0.9731691 0.1563438 0.9731691 0.1563438 0.0268309 -0.1563438
1255000000 0.0258928 -0.1534390 0.9741072 0.1534390 0.9741072 0.1534390 0.0258928 -0.1534390
1276000000 0.0250000 -0.1506150 0.9750000 0.1506150 0.9750000 0.1506150 0.0250000 -0.1506150
1297000000 0.0241496 -0.1478683 0.9758504 0.1478683 0.9758504 0.1478683 0.0241496 -0.1478683
1318000000 0.0233391 -0.1451956 0.9766609 0.1451956 0.9766609 0.1451956 0.0233391 -0.1451956
1339000000 0.0225662 -0.1425939 0.9774338 0.1425939 0.9774338 0.1425939 0.0225662 -0.1425939
1360000000 0.0218287 -0.1400601 0.9781713 0.1400601 0.9781713 0.1400601 0.0218287 -0.1400601
1381000000 0.0211244 -0.1375915 0.9788756 0.1375915 0.9788756 0.1375915 0.0211244 -0.1375915
1402000000 0.0204516 -0.1351855 0.9795484 0.1351855 0.9795484 0.1351855 0.0204516 -0.1351855
1423000000 0.0198084 -0.1328396 0.9801916 0.1328396 0.9801916 0.1328396 0.0198084 -0.1328396
1444000000 0.0191932 -0.1305514 0.9808068 0.1305514 0.9808068 0.1305514 0.0191932 -0.1305514
1465000000 0.0186045 -0.1283187 0.9813955 0.1283187 0.9813955 0.1283187 0.0186045 -0.1283187
1486000000 0.0180409 -0.1261393 0.9819591 0.1261393 0.9819591 0.1261393 0.0180409 -0.1261393
1507000000 0.0175010 -0.1240112 0.9824990 0.1240112 0.9824990 0.1240112 0.0175010 -0.1240112
1528000000 0.0169835 -0.1219325 0.9830165 0.1219325 0.9830165 0.1219325 0.0169835 -0.1219325
1549000000 0.0164874 -0.1199013 0.9835126 0.1199013 0.9835126 0.1199013 0.0164874 -0.1199013
1570000000 0.0160114 -0.1179159 0.9839886 0.1179159 0.9839886 0.1179159 0.0160114 -0.1179159
1591000000 0.0155547 -0.1159745 0.9844453 0.1159745 0.9844453 0.1159745 0.0155547 -0.1159745
1612000000 0.0151162 -0.1140757 0.9848838 0.1140757 0.9848838 0.1140757 0.0151162 -0.1140757
1633000000 0.0146951 -0.1122179 0.9853049 0.1122179 0.9853049 0.1122179 0.0146951 -0.1122179
1654000000 0.0142904 -0.1103996 0.9857096 0.1103996 0.9857096 0.1103996 0.0142904 -0.1103996
1675000000 0.0139014 -0.1086195 0.9860986 0.1086195 0.9860986 0.1086195 0.0139014 -0.1086195
1696000000 0.0135274 -0.1068762 0.9864726 0.1068762 0.9864726 0.1068762 0.0135274 -0.1068762
1717000000 0.0131676 -0.1051686 0.9868324 0.1051686 0.9868324 0.1051686 0.0131676 -0.1051686
1738000000 0.0128214 -0.1034953 0.9871786 0.1034953 0.9871786 0.1034953 0.0128214 -0.1034953
1759000000 0.0124882 -0.1018552 0.9875118 0.1018552 0.9875118 0.1018552 0.0124882 -0.1018552
1780000000 0.0121673 -0.1002474 0.9878327 0.1002474 0.9878327 0.1002474 0.0121673 -0.1002474
1801000000 0.0118583 -0.0986705 0.9881417 0.0986705 0.9881417 0.0986705 0.0118583 -0.0986705
1822000000 0.0115605 -0.0971238 0.9884395 0.0971238 0.9884395 0.0971238 0.0115605 -0.0971238
1843000000 0.0112735 -0.0956062 0.9887265 0.0956062 0.9887265 0.0956062 0.0112735 -0.0956062
1864000000 0.0109969 -0.0941168 0.9890031 0.0941168 0.9890031 0.0941168 0.0109969 -0.0941168
1885000000 0.0107302 -0.0926546 0.9892698 0.0926546 0.9892698 0.0926546 0.0107302 -0.0926546
1906000000 0.0104729 -0.0912189 0.9895271 0.0912189 0.9895271 0.0912189 0.0104729 -0.0912189
1927000000 0.0102246 -0.0898089 0.9897754 0.0898089 0.9897754 0.0898089 0.0102246 -0.0898089
1948000000 0.0099851 -0.0884237 0.9900149 0.0884237 0.9900149 0.0884237 0.0099851 -0.0884237
1969000000 0.0097539 -0.0870626 0.9902461 0.0870626 0.9902461 0.0870626 0.0097539 -0.0870626
1990000000 0.0095306 -0.0857248 0.9904694 0.0857248 0.9904694 0.0857248 0.0095306 -0.0857248
2011000000 0.0093151 -0.0844098 0.9906849 0.0844098 0.9906849 0.0844098 0.0093151 -0.0844098
2032000000 0.0091069 -0.0831167 0.9908931 0.0831167 0.9908931 0.0831167 0.0091069 -0.0831167
2053000000 0.0089057 -0.0818451 0.9910943 0.0818451 0.9910943 0.0818451 0.0089057 -0.0818451
2074000000 0.0087114 -0.0805941 0.9912886 0.0805941 0.9912886 0.0805941 0.0087114 -0.0805941
2095000000 0.0085236 -0.0793634 0.9914764 0.0793634 0.9914764 0.0793634 0.0085236 -0.0793634
2116000000 0.0083421 -0.0781522 0.9916579 0.0781522 0.9916579 0.0781522 0.0083421 -0.0781522
2137000000 0.0081666 -0.0769601 0.9918334 0.0769601 0.9918334 0.0769601 0.0081666 -0.0769601
2158000000 0.0079969 -0.0757865 0.9920031 0.0757865 0.9920031 0.0757865 0.0079969 -0.0757865
2179000000 0.0078328 -0.0746309 0.9921672 0.0746309 0.9921672 0.0746309 0.0078328 -0.0746309
2200000000 0.0076741 -0.0734927 0.9923259 0.0734927 0.9923259 0.0734927 0.0076741 -0.0734927
2221000000 0.0075206 -0.0723717 0.9924794 0.0723717 0.9924794 0.0723717 0.0075206 -0.0723717
2242000000 0.0073722 -0.0712672 0.9926278 0.0712672 0.9926278 0.0712672 0.0073722 -0.0712672
2263000000 0.0072285 -0.0701788 0.9927715 0.0701788 0.9927715 0.0701788 0.0072285 -0.0701788
2284000000 0.0070895 -0.0691061 0.9929105 0.0691061 0.9929105 0.0691061 0.0070895 -0.0691061
2305000000 0.0069550 -0.0680487 0.9930450 0.0680487 0.9930450 0.0680487 0.0069550 -0.0680487
2326000000 0.0068248 -0.0670063 0.9931752 0.0670063 0.9931752 0.0670063 0.0068248 -0.0670063
2347000000 0.0066988 -0.0659783 0.9933012 0.0659783 0.9933012 0.0659783 0.0066988 -0.0659783
2368000000 0.0065768 -0.0649645 0.9934232 0.0649645 0.9934232 0.0649645 0.0065768 -0.0649645
2389000000 0.0064587 -0.0639645 0.9935413 0.0639645 0.9935413 0.0639645 0.0064587 -0.0639645
2410000000 0.0063444 -0.0629779 0.9936556 0.0629779 0.9936556 0.0629779 0.0063444 -0.0629779
2431000000 0.0062338 -0.0620044 0.9937662 0.0620044 0.9937662 0.0620044 0.0062338 -0.0620044
2452000000 0.0061267 -0.0610437 0.9938733 0.0610437 0.9938733 0.0610437 0.0061267 -0.0610437
2473000000 0.0060230 -0.0600955 0.9939770 0.0600955 0.9939770 0.0600955 0.0060230 -0.0600955
2494000000 0.0059226 -0.0591594 0.9940774 0.0591594 0.9940774 0.0591594 0.0059226 -0.0591594
2515000000 0.0058253 -0.0582352 0.9941747 0.0582352 0.9941747 0.0582352 0.0058253 -0.0582352
2536000000 0.0057312 -0.0573226 0.9942688 0.0573226 0.9942688 0.0573226 0.0057312 -0.0573226
2557000000 0.0056401 -0.0564214 0.9943599 0.0564214 0.9943599 0.0564214 0.0056401 -0.0564214
2578000000 0.0055519 -0.0555311 0.9944481 0.0555311 0.9944481 0.0555311 0.0055519 -0.0555311
2599000000 0.0054664 -0.0546517 0.9945336 0.0546517 0.9945336 0.0546517 0.0054664 -0.0546517
2620000000 0.0053837 -0.0537828 0.9946163 0.0537828 0.9946163 0.0537828 0.0053837 -0.0537828
2641000000 0.0053037 -0.0529241 0.9946963 0.0529241 0.9946963 0.0529241 0.0053037 -0.0529241
2662000000 0.0052261 -0.0520756 0.9947739 0.0520756 0.9947739 0.0520756 0.0052261 -0.0520756
2683000000 0.0051511 -0.0512369 0.9948489 0.0512369 0.9948489 0.0512369 0.0051511 -0.0512369
2704000000 0.0050785 -0.0504078 0.9949215 0.0504078 0.9949215 0.0504078 0.0050785 -0.0504078
2725000000 0.0050082 -0.0495881 0.9949918 0.0495881 0.9949918 0.0495881 0.0050082 -0.0495881
2746000000 0.0049402 -0.0487775 0.9950598 0.0487775 0.9950598 0.0487775 0.0049402 -0.0487775
2767000000 0.0048744 -0.0479760 0.9951256 0.0479760 0.9951256 0.0479760 0.0048744 -0.0479760
2788000000 0.0048107 -0.0471833 0.9951893 0.0471833 0.9951893 0.0471833 0.0048107 -0.0471833
2809000000 0.0047491 -0.0463991 0.9952509 0.0463991 0.9952509 0.0463991 0.0047491 -0.0463991
2830000000 0.0046895 -0.0456234 0.9953105 0.0456234 0.9953105 0.0456234 0.0046895 -0.0456234
2851000000 0.0046319 -0.0448559 0.9953681 0.0448559 0.9953681 0.0448559 0.0046319 -0.0448559
2872000000 0.0045762 -0.0440965 0.9954238 0.0440965 0.9954238 0.0440965 0.0045762 -0.0440965
2893000000 0.0045223 -0.0433449 0.9954777 0.0433449 0.9954777 0.0433449 0.0045223 -0.0433449
2914000000 0.0044702 -0.0426011 0.9955298 0.0426011 0.9955298 0.0426011 0.0044702 -0.0426011
2935000000 0.0044199 -0.0418648 0.9955801 0.0418648 0.9955801 0.0418648 0.0044199 -0.0418648
2956000000 0.0043713 -0.0411360 0.9956287 0.0411360 0.9956287 0.0411360 0.0043713 -0.0411360
2977000000 0.0043244 -0.0404144 0.9956756 0.0404144 0.9956756 0.0404144 0.0043244 -0.0404144
2998000000 0.0042790 -0.0396999 0.9957210 0.0396999 0.9957210 0.0396999 0.0042790 -0.0396999
3019000000 0.0042353 -0.0389924 0.9957647 0.0389924 0.9957647 0.0389924 0.0042353 -0.0389924
3040000000 0.0041930 -0.0382917 0.9958070 0.0382917 0.9958070 0.0382917 0.0041930 -0.0382917
3061000000 0.0041523 -0.0375977 0.9958477 0.0375977 0.9958477 0.0375977 0.0041523 -0.0375977
3082000000 0.0041130 -0.0369103 0.9958870 0.0369103 0.9958870 0.0369103 0.0041130 -0.0369103
3103000000 0.0040751 -0.0362293 0.9959249 0.0362293 0.9959249 0.0362293 0.0040751 -0.0362293
3124000000 0.0040386 -0.0355546 0.9959614 0.0355546 0.9959614 0.0355546 0.0040386 -0.0355546
3145000000 0.0040034 -0.0348861 0.9959966 0.0348861 0.9959966 0.0348861 0.0040034 -0.0348861
3166000000 0.0039696 -0.0342236 0.9960304 0.0342236 0.9960304 0.0342236 0.0039696 -0.0342236
3187000000 0.0039370 -0.0335671 0.9960630 0.0335671 0.9960630 0.0335671 0.0039370 -0.0335671
3208000000 0.0039057 -0.0329164 0.9960943 0.0329164 0.9960943 0.0329164 0.0039057 -0.0329164
3229000000 0.0038755 -0.0322714 0.9961245 0.0322714 0.9961245 0.0322714 0.0038755 -0.0322714
3250000000 0.0038466 -0.0316321 0.9961534 0.0316321 0.9961534 0.0316321 0.0038466 -0.0316321
3271000000 0.0038188 -0.0309982 0.9961812 0.0309982 0.9961812 0.0309982 0.0038188 -0.0309982
3292000000 0.0037922 -0.0303698 0.9962078 0.0303698 0.9962078 0.0303698 0.0037922 -0.0303698
3313000000 0.0037666 -0.0297466 0.9962334 0.0297466 0.9962334 0.0297466 0.0037666 -0.0297466
3334000000 0.0037421 -0.0291287 0.9962579 0.0291287 0.9962579 0.0291287 0.0037421 -0.0291287
3355000000 0.0037187 -0.0285159 0.9962813 0.0285159 0.9962813 0.0285159 0.0037187 -0.0285159
3376000000 0.0036963 -0.0279081 0.9963037 0.0279081 0.9963037 0.0279081 0.0036963 -0.0279081
3397000000 0.0036749 -0.0273052 0.9963251 0.0273052 0.9963251 0.0273052 0.0036749 -0.0273052
3418000000 0.0036545 -0.0267072 0.9963455 0.0267072 0.9963455 0.0267072 0.0036545 -0.0267072
3439000000 0.0036350 -0.0261140 0.9963650 0.0261140 0.9963650 0.0261140 0.0036350 -0.0261140
3460000000 0.0036164 -0.0255254 0.9963836 0.0255254 0.9963836 0.0255254 0.0036164 -0.0255254
3481000000 0.0035988 -0.0249414 0.9964012 0.0249414 0.9964012 0.0249414 0.0035988 -0.0249414
3502000000 0.0035821 -0.0243619 0.9964179 0.0243619 0.9964179 0.0243619 0.0035821 -0.0243619
3523000000 0.0035662 -0.0237869 0.9964338 0.0237869 0.9964338 0.0237869 0.0035662 -0.0237869
3544000000 0.0035512 -0.0232162 0.9964488 0.0232162 0.9964488 0.0232162 0.0035512 -0.0232162
3565000000 0.0035370 -0.0226498 0.9964630 0.0226498 0.9964630 0.0226498 0.0035370 -0.0226498
3586000000 0.0035237 -0.0220876 0.9964763 0.0220876 0.9964763 0.0220876 0.0035237 -0.0220876
3607000000 0.0035111 -0.0215295 0.9964889 0.0215295 0.9964889 0.0215295 0.0035111 -0.0215295
3628000000 0.0034993 -0.0209755 0.9965007 0.0209755 0.9965007 0.0209755 0.0034993 -0.0209755
3649000000 0.0034883 -0.0204255 0.9965117 0.0204255 0.9965117 0.0204255 0.0034883 -0.0204255
3670000000 0.0034780 -0.0198794 0.9965220 0.0198794 0.9965220 0.0198794 0.0034780 -0.0198794
3691000000 0.0034685 -0.0193372 0.9965315 0.0193372 0.9965315 0.0193372 0.0034685 -0.0193372
3712000000 0.0034596 -0.0187988 0.9965404 0.0187988 0.9965404 0.0187988 0.0034596 -0.0187988
3733000000 0.0034515 -0.0182642 0.9965485 0.0182642 0.9965485 0.0182642 0.0034515 -0.0182642
3754000000 0.0034441 -0.0177332 0.9965559 0.0177332 0.9965559 0.0177332 0.0034441 -0.0177332
3775000000 0.0034373 -0.0172058 0.9965627 0.0172058 0.9965627 0.0172058 0.0034373 -0.0172058
3796000000 0.0034312 -0.0166820 0.9965688 0.0166820 0.9965688 0.0166820 0.0034312 -0.0166820
3817000000 0.0034258 -0.0161618 0.9965742 0.0161618 0.9965742 0.0161618 0.0034258 -0.0161618
3838000000 0.0034209 -0.0156449 0.9965791 0.0156449 0.9965791 0.0156449 0.0034209 -0.0156449
3859000000 0.0034167 -0.0151315 0.9965833 0.0151315 0.9965833 0.0151315 0.0034167 -0.0151315
3880000000 0.0034131 -0.0146214 0.9965869 0.0146214 0.9965869 0.0146214 0.0034131 -0.0146214
3901000000 0.0034101 -0.0141146 0.9965899 0.0141146 0.9965899 0.0141146 0.0034101 -0.0141146
3922000000 0.0034077 -0.0136110 0.9965923 0.0136110 0.9965923 0.0136110 0.0034077 -0.0136110
3943000000 0.0034059 -0.0131106 0.9965941 0.0131106 0.9965941 0.0131106 0.0034059 -0.0131106
3964000000 0.0034046 -0.0126133 0.9965954 0.0126133 0.9965954 0.0126133 0.0034046 -0.0126133
3985000000 0.0034039 -0.0121192 0.9965961 0.0121192 0.9965961 0.0121192 0.0034039 -0.0121192
4006000000 0.0034037 -0.0116281 0.9965963 0.0116281 0.9965963 0.0116281 0.0034037 -0.0116281
4027000000 0.0034040 -0.0111399 0.9965960 0.0111399 0.9965960 0.0111399 0.0034040 -0.0111399
4048000000 0.0034049 -0.0106548 0.9965951 0.0106548 0.9965951 0.0106548 0.0034049 -0.0106548
4069000000 0.0034063 -0.0101725 0.9965937 0.0101725 0.9965937 0.0101725 0.0034063 -0.0101725
4090000000 0.0034081 -0.0096931 0.9965919 0.0096931 0.9965919 0.0096931 0.0034081 -0.0096931
4111000000 0.0034105 -0.0092165 0.9965895 0.0092165 0.9965895 0.0092165 0.0034105 -0.0092165
4132000000 0.0034133 -0.0087427 0.9965867 0.0087427 0.9965867 0.0087427 0.0034133 -0.0087427
4153000000 0.0034167 -0.0082717 0.9965833 0.0082717 0.9965833 0.0082717 0.0034167 -0.0082717
4174000000 0.0034205 -0.0078033 0.9965795 0.0078033 0.9965795 0.0078033 0.0034205 -0.0078033
4195000000 0.0034247 -0.0073376 0.9965753 0.0073376 0.9965753 0.0073376 0.0034247 -0.0073376
4216000000 0.0034294 -0.0068745 0.9965706 0.0068745 0.9965706 0.0068745 0.0034294 -0.0068745
4237000000 0.0034345 -0.0064140 0.9965655 0.0064140 0.9965655 0.0064140 0.0034345 -0.0064140
4258000000 0.0034401 -0.0059561 0.9965599 0.0059561 0.9965599 0.0059561 0.0034401 -0.0059561
4279000000 0.0034461 -0.0055006 0.9965539 0.0055006 0.9965539 0.0055006 0.0034461 -0.0055006
4300000000 0.0034525 -0.0050476 0.9965475 0.0050476 0.9965475 0.0050476 0.0034525 -0.0050476
4321000000 0.0034593 -0.0045971 0.9965407 0.0045971 0.9965407 0.0045971 0.0034593 -0.0045971
4342000000 0.0034666 -0.0041490 0.9965334 0.0041490 0.9965334 0.0041490 0.0034666 -0.0041490
4363000000 0.0034742 -0.0037032 0.9965258 0.0037032 0.9965258 0.0037032 0.0034742 -0.0037032
4384000000 0.0034822 -0.0032598 0.9965178 0.0032598 0.9965178 0.0032598 0.0034822 -0.0032598
4405000000 0.0034906 -0.0028187 0.9965094 0.0028187 0.9965094 0.0028187 0.0034906 -0.0028187
4426000000 0.0034994 -0.0023798 0.9965006 0.0023798 0.9965006 0.0023798 0.0034994 -0.0023798
4447000000 0.0035085 -0.0019432 0.9964915 0.0019432 0.9964915 0.0019432 0.0035085 -0.0019432
4468000000 0.0035180 -0.0015088 0.9964820 0.0015088 0.9964820 0.0015088 0.0035180 -0.0015088
4489000000 0.0035279 -0.0010766 0.9964721 0.0010766 0.9964721 0.0010766 0.0035279 -0.0010766
4510000000 0.0035381 -0.0006465 0.9964619 0.0006465 0.9964619 0.0006465 0.0035381 -0.0006465
