!Murata Part Number: GRM0225C1C8R2DA03
!These Parameters are Measured in Series Mode Connection
!Data Generated on Mar 30, 2021
!       o--ll--o
!Port1            Port2
!       o------o
!Operation Temp=25[degC], DC Bias Voltage=0[V]
!Freq. Start=100[MHz] Stop=9[GHz] 401[Steps]
# Hz S RI R 50
!Freq.(Hz) S11(Real) S11(Imag) S21(Real) S21(Imag) S12(Real) S12(Imag) S22(Real) S22(Imag)
100000000 0.7898728 -0.4070457 0.2101272 0.4070457 0.2101272 0.4070457 0.7898728 -0.4070457
121000000 0.7196145 -0.4487597 0.2803855 0.4487597 0.2803855 0.4487597 0.7196145 -0.4487597
142000000 0.6506825 -0.4762513 0.3493175 0.4762513 0.3493175 0.4762513 0.6506825 -0.4762513
163000000 0.5855717 -0.4920443 0.4144283 0.4920443 0.4144283 0.4920443 0.5855717 -0.4920443
184000000 0.5256633 -0.4986860 0.4743367 0.4986860 0.4743367 0.4986860 0.5256633 -0.4986860
205000000 0.4715192 -0.4984564 0.5284808 0.4984564 0.5284808 0.4984564 0.4715192 -0.4984564
226000000 0.4231622 -0.4932515 0.5768378 0.4932515 0.5768378 0.4932515 0.4231622 -0.4932515
247000000 0.3802969 -0.4845724 0.6197031 0.4845724 0.6197031 0.4845724 0.3802969 -0.4845724
268000000 0.3424653 -0.4735680 0.6575347 0.4735680 0.6575347 0.4735680 0.3424653 -0.4735680
289000000 0.3091463 -0.4610955 0.6908537 0.4610955 0.6908537 0.4610955 0.3091463 -0.4610955
310000000 0.2798157 -0.4477818 0.7201843 0.4477818 0.7201843 0.4477818 0.2798157 -0.4477818
331000000 0.2539788 -0.4340773 0.7460212 0.4340773 0.7460212 0.4340773 0.2539788 -0.4340773
352000000 0.2311859 -0.4203001 0.7688141 0.4203001 0.7688141 0.4203001 0.2311859 -0.4203001
373000000 0.2110378 -0.4066705 0.7889622 0.4066705 0.7889622 0.4066705 0.2110378 -0.4066705
394000000 0.1931849 -0.3933373 0.8068151 0.3933373 0.8068151 0.3933373 0.1931849 -0.3933373
415000000 0.1773241 -0.3803973 0.8226759 0.3803973 0.8226759 0.3803973 0.1773241 -0.3803973
436000000 0.1631943 -0.3679102 0.8368057 0.3679102 0.8368057 0.3679102 0.1631943 -0.3679102
457000000 0.1505710 -0.3559090 0.8494290 0.3559090 0.8494290 0.3559090 0.1505710 -0.3559090
478000000 0.1392613 -0.3444080 0.8607387 0.3444080 0.8607387 0.3444080 0.1392613 -0.3444080
499000000 0.1291001 -0.3334085 0.8708999 0.3334085 0.8708999 0.3334085 0.1291001 -0.3334085
520000000 0.1199452 -0.3229027 0.8800548 0.3229027 0.8800548 0.3229027 0.1199452 -0.3229027
541000000 0.1116748 -0.3128771 0.8883252 0.3128771 0.8883252 0.3128771 0.1116748 -0.3128771
562000000 0.1041835 -0.3033142 0.8958165 0.3033142 0.8958165 0.3033142 0.1041835 -0.3033142
583000000 0.0973808 -0.2941941 0.9026192 0.2941941 0.9026192 0.2941941 0.0973808 -0.2941941
604000000 0.0911880 -0.2854962 0.9088120 0.2854962 0.9088120 0.2854962 0.0911880 -0.2854962
625000000 0.0855371 -0.2771989 0.9144629 0.2771989 0.9144629 0.2771989 0.0855371 -0.2771989
646000000 0.0803688 -0.2692810 0.9196312 0.2692810 0.9196312 0.2692810 0.0803688 -0.2692810
667000000 0.0756316 -0.2617218 0.9243684 0.2617218 0.9243684 0.2617218 0.0756316 -0.2617218
688000000 0.0712804 -0.2545012 0.9287196 0.2545012 0.9287196 0.2545012 0.0712804 -0.2545012
709000000 0.0672754 -0.2476000 0.9327246 0.2476000 0.9327246 0.2476000 0.0672754 -0.2476000
730000000 0.0635822 -0.2409998 0.9364178 0.2409998 0.9364178 0.2409998 0.0635822 -0.2409998
751000000 0.0601699 -0.2346834 0.9398301 0.2346834 0.9398301 0.2346834 0.0601699 -0.2346834
772000000 0.0570117 -0.2286344 0.9429883 0.2286344 0.9429883 0.2286344 0.0570117 -0.2286344
793000000 0.0540835 -0.2228374 0.9459165 0.2228374 0.9459165 0.2228374 0.0540835 -0.2228374
814000000 0.0513642 -0.2172782 0.9486358 0.2172782 0.9486358 0.2172782 0.0513642 -0.2172782
835000000 0.0488348 -0.2119430 0.9511652 0.2119430 0.9511652 0.2119430 0.0488348 -0.2119430
856000000 0.0464785 -0.2068193 0.9535215 0.2068193 0.9535215 0.2068193 0.0464785 -0.2068193
877000000 0.0442803 -0.2018952 0.9557197 0.2018952 0.9557197 0.2018952 0.0442803 -0.2018952
898000000 0.0422266 -0.1971597 0.9577734 0.1971597 0.9577734 0.1971597 0.0422266 -0.1971597
919000000 0.0403054 -0.1926025 0.9596946 0.1926025 0.9596946 0.1926025 0.0403054 -0.1926025
940000000 0.0385059 -0.1882137 0.9614941 0.1882137 0.9614941 0.1882137 0.0385059 -0.1882137
961000000 0.0368181 -0.1839844 0.9631819 0.1839844 0.9631819 0.1839844 0.0368181 -0.1839844
982000000 0.0352333 -0.1799062 0.9647667 0.1799062 0.9647667 0.1799062 0.0352333 -0.1799062
1003000000 0.0337435 -0.1759710 0.9662565 0.1759710 0.9662565 0.1759710 0.0337435 -0.1759710
1024000000 0.0323415 -0.1721715 0.9676585 0.1721715 0.9676585 0.1721715 0.0323415 -0.1721715
1045000000 0.0310205 -0.1685007 0.9689795 0.1685007 0.9689795 0.1685007 0.0310205 -0.1685007
1066000000 0.0297748 -0.1649522 0.9702252 0.1649522 0.9702252 0.1649522 0.0297748 -0.1649522
1087000000 0.0285988 -0.1615197 0.9714012 0.1615197 0.9714012 0.1615197 0.0285988 -0.1615197
1108000000 0.0274875 -0.1581977 0.9725125 0.1581977 0.9725125 0.1581977 0.0274875 -0.1581977
1129000000 0.0264365 -0.1549808 0.9735635 0.1549808 0.9735635 0.1549808 0.0264365 -0.1549808
1150000000 0.0254415 -0.1518638 0.9745585 0.1518638 0.9745585 0.1518638 0.0254415 -0.1518638
1171000000 0.0244988 -0.1488420 0.9755012 0.1488420 0.9755012 0.1488420 0.0244988 -0.1488420
1192000000 0.0236050 -0.1459111 0.9763950 0.1459111 0.9763950 0.1459111 0.0236050 -0.1459111
1213000000 0.0227567 -0.1430668 0.9772433 0.1430668 0.9772433 0.1430668 0.0227567 -0.1430668
1234000000 0.0219510 -0.1403051 0.9780490 0.1403051 0.9780490 0.1403051 0.0219510 -0.1403051
1255000000 0.0211853 -0.1376224 0.9788147 0.1376224 0.9788147 0.1376224 0.0211853 -0.1376224
1276000000 0.0204570 -0.1350150 0.9795430 0.1350150 0.9795430 0.1350150 0.0204570 -0.1350150
1297000000 0.0197638 -0.1324798 0.9802362 0.1324798 0.9802362 0.1324798 0.0197638 -0.1324798
1318000000 0.0191036 -0.1300136 0.9808964 0.1300136 0.9808964 0.1300136 0.0191036 -0.1300136
1339000000 0.0184744 -0.1276135 0.9815256 0.1276135 0.9815256 0.1276135 0.0184744 -0.1276135
1360000000 0.0178743 -0.1252765 0.9821257 0.1252765 0.9821257 0.1252765 0.0178743 -0.1252765
1381000000 0.0173017 -0.1230002 0.9826983 0.1230002 0.9826983 0.1230002 0.0173017 -0.1230002
1402000000 0.0167550 -0.1207820 0.9832450 0.1207820 0.9832450 0.1207820 0.0167550 -0.1207820
1423000000 0.0162327 -0.1186195 0.9837673 0.1186195 0.9837673 0.1186195 0.0162327 -0.1186195
1444000000 0.0157334 -0.1165106 0.9842666 0.1165106 0.9842666 0.1165106 0.0157334 -0.1165106
1465000000 0.0152559 -0.1144530 0.9847441 0.1144530 0.9847441 0.1144530 0.0152559 -0.1144530
1486000000 0.0147990 -0.1124447 0.9852010 0.1124447 0.9852010 0.1124447 0.0147990 -0.1124447
1507000000 0.0143616 -0.1104839 0.9856384 0.1104839 0.9856384 0.1104839 0.0143616 -0.1104839
1528000000 0.0139426 -0.1085687 0.9860574 0.1085687 0.9860574 0.1085687 0.0139426 -0.1085687
1549000000 0.0135411 -0.1066974 0.9864589 0.1066974 0.9864589 0.1066974 0.0135411 -0.1066974
1570000000 0.0131562 -0.1048683 0.9868438 0.1048683 0.9868438 0.1048683 0.0131562 -0.1048683
1591000000 0.0127871 -0.1030800 0.9872129 0.1030800 0.9872129 0.1030800 0.0127871 -0.1030800
1612000000 0.0124328 -0.1013307 0.9875672 0.1013307 0.9875672 0.1013307 0.0124328 -0.1013307
1633000000 0.0120928 -0.0996193 0.9879072 0.0996193 0.9879072 0.0996193 0.0120928 -0.0996193
1654000000 0.0117662 -0.0979443 0.9882338 0.0979443 0.9882338 0.0979443 0.0117662 -0.0979443
1675000000 0.0114525 -0.0963044 0.9885475 0.0963044 0.9885475 0.0963044 0.0114525 -0.0963044
1696000000 0.0111511 -0.0946984 0.9888489 0.0946984 0.9888489 0.0946984 0.0111511 -0.0946984
1717000000 0.0108612 -0.0931251 0.9891388 0.0931251 0.9891388 0.0931251 0.0108612 -0.0931251
1738000000 0.0105825 -0.0915833 0.9894175 0.0915833 0.9894175 0.0915833 0.0105825 -0.0915833
1759000000 0.0103143 -0.0900722 0.9896857 0.0900722 0.9896857 0.0900722 0.0103143 -0.0900722
1780000000 0.0100563 -0.0885905 0.9899437 0.0885905 0.9899437 0.0885905 0.0100563 -0.0885905
1801000000 0.0098078 -0.0871373 0.9901922 0.0871373 0.9901922 0.0871373 0.0098078 -0.0871373
1822000000 0.0095686 -0.0857117 0.9904314 0.0857117 0.9904314 0.0857117 0.0095686 -0.0857117
1843000000 0.0093382 -0.0843128 0.9906618 0.0843128 0.9906618 0.0843128 0.0093382 -0.0843128
1864000000 0.0091162 -0.0829397 0.9908838 0.0829397 0.9908838 0.0829397 0.0091162 -0.0829397
1885000000 0.0089023 -0.0815916 0.9910977 0.0815916 0.9910977 0.0815916 0.0089023 -0.0815916
1906000000 0.0086960 -0.0802677 0.9913040 0.0802677 0.9913040 0.0802677 0.0086960 -0.0802677
1927000000 0.0084972 -0.0789673 0.9915028 0.0789673 0.9915028 0.0789673 0.0084972 -0.0789673
1948000000 0.0083054 -0.0776896 0.9916946 0.0776896 0.9916946 0.0776896 0.0083054 -0.0776896
1969000000 0.0081204 -0.0764339 0.9918796 0.0764339 0.9918796 0.0764339 0.0081204 -0.0764339
1990000000 0.0079419 -0.0751996 0.9920581 0.0751996 0.9920581 0.0751996 0.0079419 -0.0751996
2011000000 0.0077696 -0.0739860 0.9922304 0.0739860 0.9922304 0.0739860 0.0077696 -0.0739860
2032000000 0.0076033 -0.0727925 0.9923967 0.0727925 0.9923967 0.0727925 0.0076033 -0.0727925
2053000000 0.0074427 -0.0716185 0.9925573 0.0716185 0.9925573 0.0716185 0.0074427 -0.0716185
2074000000 0.0072877 -0.0704634 0.9927123 0.0704634 0.9927123 0.0704634 0.0072877 -0.0704634
2095000000 0.0071380 -0.0693268 0.9928620 0.0693268 0.9928620 0.0693268 0.0071380 -0.0693268
2116000000 0.0069933 -0.0682080 0.9930067 0.0682080 0.9930067 0.0682080 0.0069933 -0.0682080
2137000000 0.0068536 -0.0671066 0.9931464 0.0671066 0.9931464 0.0671066 0.0068536 -0.0671066
2158000000 0.0067186 -0.0660220 0.9932814 0.0660220 0.9932814 0.0660220 0.0067186 -0.0660220
2179000000 0.0065881 -0.0649538 0.9934119 0.0649538 0.9934119 0.0649538 0.0065881 -0.0649538
2200000000 0.0064621 -0.0639016 0.9935379 0.0639016 0.9935379 0.0639016 0.0064621 -0.0639016
2221000000 0.0063402 -0.0628649 0.9936598 0.0628649 0.9936598 0.0628649 0.0063402 -0.0628649
2242000000 0.0062224 -0.0618433 0.9937776 0.0618433 0.9937776 0.0618433 0.0062224 -0.0618433
2263000000 0.0061085 -0.0608364 0.9938915 0.0608364 0.9938915 0.0608364 0.0061085 -0.0608364
2284000000 0.0059983 -0.0598437 0.9940017 0.0598437 0.9940017 0.0598437 0.0059983 -0.0598437
2305000000 0.0058919 -0.0588650 0.9941081 0.0588650 0.9941081 0.0588650 0.0058919 -0.0588650
2326000000 0.0057889 -0.0578998 0.9942111 0.0578998 0.9942111 0.0578998 0.0057889 -0.0578998
2347000000 0.0056893 -0.0569478 0.9943107 0.0569478 0.9943107 0.0569478 0.0056893 -0.0569478
2368000000 0.0055930 -0.0560086 0.9944070 0.0560086 0.9944070 0.0560086 0.0055930 -0.0560086
2389000000 0.0054999 -0.0550820 0.9945001 0.0550820 0.9945001 0.0550820 0.0054999 -0.0550820
2410000000 0.0054098 -0.0541676 0.9945902 0.0541676 0.9945902 0.0541676 0.0054098 -0.0541676
2431000000 0.0053227 -0.0532651 0.9946773 0.0532651 0.9946773 0.0532651 0.0053227 -0.0532651
2452000000 0.0052384 -0.0523742 0.9947616 0.0523742 0.9947616 0.0523742 0.0052384 -0.0523742
2473000000 0.0051569 -0.0514946 0.9948431 0.0514946 0.9948431 0.0514946 0.0051569 -0.0514946
2494000000 0.0050781 -0.0506260 0.9949219 0.0506260 0.9949219 0.0506260 0.0050781 -0.0506260
2515000000 0.0050019 -0.0497682 0.9949981 0.0497682 0.9949981 0.0497682 0.0050019 -0.0497682
2536000000 0.0049282 -0.0489210 0.9950718 0.0489210 0.9950718 0.0489210 0.0049282 -0.0489210
2557000000 0.0048569 -0.0480840 0.9951431 0.0480840 0.9951431 0.0480840 0.0048569 -0.0480840
2578000000 0.0047879 -0.0472570 0.9952121 0.0472570 0.9952121 0.0472570 0.0047879 -0.0472570
2599000000 0.0047213 -0.0464397 0.9952787 0.0464397 0.9952787 0.0464397 0.0047213 -0.0464397
2620000000 0.0046568 -0.0456321 0.9953432 0.0456321 0.9953432 0.0456321 0.0046568 -0.0456321
2641000000 0.0045945 -0.0448337 0.9954055 0.0448337 0.9954055 0.0448337 0.0045945 -0.0448337
2662000000 0.0045342 -0.0440445 0.9954658 0.0440445 0.9954658 0.0440445 0.0045342 -0.0440445
2683000000 0.0044760 -0.0432642 0.9955240 0.0432642 0.9955240 0.0432642 0.0044760 -0.0432642
2704000000 0.0044198 -0.0424926 0.9955802 0.0424926 0.9955802 0.0424926 0.0044198 -0.0424926
2725000000 0.0043654 -0.0417294 0.9956346 0.0417294 0.9956346 0.0417294 0.0043654 -0.0417294
2746000000 0.0043129 -0.0409746 0.9956871 0.0409746 0.9956871 0.0409746 0.0043129 -0.0409746
2767000000 0.0042621 -0.0402280 0.9957379 0.0402280 0.9957379 0.0402280 0.0042621 -0.0402280
2788000000 0.0042131 -0.0394893 0.9957869 0.0394893 0.9957869 0.0394893 0.0042131 -0.0394893
2809000000 0.0041658 -0.0387583 0.9958342 0.0387583 0.9958342 0.0387583 0.0041658 -0.0387583
2830000000 0.0041202 -0.0380350 0.9958798 0.0380350 0.9958798 0.0380350 0.0041202 -0.0380350
2851000000 0.0040761 -0.0373191 0.9959239 0.0373191 0.9959239 0.0373191 0.0040761 -0.0373191
2872000000 0.0040336 -0.0366105 0.9959664 0.0366105 0.9959664 0.0366105 0.0040336 -0.0366105
2893000000 0.0039925 -0.0359091 0.9960075 0.0359091 0.9960075 0.0359091 0.0039925 -0.0359091
2914000000 0.0039530 -0.0352146 0.9960470 0.0352146 0.9960470 0.0352146 0.0039530 -0.0352146
2935000000 0.0039149 -0.0345270 0.9960851 0.0345270 0.9960851 0.0345270 0.0039149 -0.0345270
2956000000 0.0038781 -0.0338460 0.9961219 0.0338460 0.9961219 0.0338460 0.0038781 -0.0338460
2977000000 0.0038428 -0.0331716 0.9961572 0.0331716 0.9961572 0.0331716 0.0038428 -0.0331716
2998000000 0.0038087 -0.0325037 0.9961913 0.0325037 0.9961913 0.0325037 0.0038087 -0.0325037
3019000000 0.0037759 -0.0318420 0.9962241 0.0318420 0.9962241 0.0318420 0.0037759 -0.0318420
3040000000 0.0037444 -0.0311865 0.9962556 0.0311865 0.9962556 0.0311865 0.0037444 -0.0311865
3061000000 0.0037141 -0.0305370 0.9962859 0.0305370 0.9962859 0.0305370 0.0037141 -0.0305370
3082000000 0.0036850 -0.0298934 0.9963150 0.0298934 0.9963150 0.0298934 0.0036850 -0.0298934
3103000000 0.0036570 -0.0292557 0.9963430 0.0292557 0.9963430 0.0292557 0.0036570 -0.0292557
3124000000 0.0036302 -0.0286236 0.9963698 0.0286236 0.9963698 0.0286236 0.0036302 -0.0286236
3145000000 0.0036044 -0.0279971 0.9963956 0.0279971 0.9963956 0.0279971 0.0036044 -0.0279971
3166000000 0.0035798 -0.0273761 0.9964202 0.0273761 0.9964202 0.0273761 0.0035798 -0.0273761
3187000000 0.0035562 -0.0267604 0.9964438 0.0267604 0.9964438 0.0267604 0.0035562 -0.0267604
3208000000 0.0035336 -0.0261500 0.9964664 0.0261500 0.9964664 0.0261500 0.0035336 -0.0261500
3229000000 0.0035120 -0.0255448 0.9964880 0.0255448 0.9964880 0.0255448 0.0035120 -0.0255448
3250000000 0.0034913 -0.0249446 0.9965087 0.0249446 0.9965087 0.0249446 0.0034913 -0.0249446
3271000000 0.0034717 -0.0243494 0.9965283 0.0243494 0.9965283 0.0243494 0.0034717 -0.0243494
3292000000 0.0034529 -0.0237590 0.9965471 0.0237590 0.9965471 0.0237590 0.0034529 -0.0237590
3313000000 0.0034351 -0.0231735 0.9965649 0.0231735 0.9965649 0.0231735 0.0034351 -0.0231735
3334000000 0.0034181 -0.0225926 0.9965819 0.0225926 0.9965819 0.0225926 0.0034181 -0.0225926
3355000000 0.0034020 -0.0220164 0.9965980 0.0220164 0.9965980 0.0220164 0.0034020 -0.0220164
3376000000 0.0033868 -0.0214446 0.9966132 0.0214446 0.9966132 0.0214446 0.0033868 -0.0214446
3397000000 0.0033724 -0.0208773 0.9966276 0.0208773 0.9966276 0.0208773 0.0033724 -0.0208773
3418000000 0.0033587 -0.0203144 0.9966413 0.0203144 0.9966413 0.0203144 0.0033587 -0.0203144
3439000000 0.0033459 -0.0197558 0.9966541 0.0197558 0.9966541 0.0197558 0.0033459 -0.0197558
3460000000 0.0033339 -0.0192014 0.9966661 0.0192014 0.9966661 0.0192014 0.0033339 -0.0192014
3481000000 0.0033226 -0.0186511 0.9966774 0.0186511 0.9966774 0.0186511 0.0033226 -0.0186511
3502000000 0.0033120 -0.0181048 0.9966880 0.0181048 0.9966880 0.0181048 0.0033120 -0.0181048
3523000000 0.0033022 -0.0175626 0.9966978 0.0175626 0.9966978 0.0175626 0.0033022 -0.0175626
3544000000 0.0032931 -0.0170243 0.9967069 0.0170243 0.9967069 0.0170243 0.0032931 -0.0170243
3565000000 0.0032846 -0.0164898 0.9967154 0.0164898 0.9967154 0.0164898 0.0032846 -0.0164898
3586000000 0.0032769 -0.0159591 0.9967231 0.0159591 0.9967231 0.0159591 0.0032769 -0.0159591
3607000000 0.0032698 -0.0154322 0.9967302 0.0154322 0.9967302 0.0154322 0.0032698 -0.0154322
3628000000 0.0032634 -0.0149089 0.9967366 0.0149089 0.9967366 0.0149089 0.0032634 -0.0149089
3649000000 0.0032576 -0.0143892 0.9967424 0.0143892 0.9967424 0.0143892 0.0032576 -0.0143892
3670000000 0.0032524 -0.0138731 0.9967476 0.0138731 0.9967476 0.0138731 0.0032524 -0.0138731
3691000000 0.0032478 -0.0133604 0.9967522 0.0133604 0.9967522 0.0133604 0.0032478 -0.0133604
3712000000 0.0032439 -0.0128512 0.9967561 0.0128512 0.9967561 0.0128512 0.0032439 -0.0128512
3733000000 0.0032405 -0.0123453 0.9967595 0.0123453 0.9967595 0.0123453 0.0032405 -0.0123453
3754000000 0.0032377 -0.0118427 0.9967623 0.0118427 0.9967623 0.0118427 0.0032377 -0.0118427
3775000000 0.0032355 -0.0113434 0.9967645 0.0113434 0.9967645 0.0113434 0.0032355 -0.0113434
3796000000 0.0032338 -0.0108473 0.9967662 0.0108473 0.9967662 0.0108473 0.0032338 -0.0108473
3817000000 0.0032326 -0.0103543 0.9967674 0.0103543 0.9967674 0.0103543 0.0032326 -0.0103543
3838000000 0.0032320 -0.0098645 0.9967680 0.0098645 0.9967680 0.0098645 0.0032320 -0.0098645
3859000000 0.0032320 -0.0093777 0.9967680 0.0093777 0.9967680 0.0093777 0.0032320 -0.0093777
3880000000 0.0032324 -0.0088939 0.9967676 0.0088939 0.9967676 0.0088939 0.0032324 -0.0088939
3901000000 0.0032333 -0.0084131 0.9967667 0.0084131 0.9967667 0.0084131 0.0032333 -0.0084131
3922000000 0.0032348 -0.0079351 0.9967652 0.0079351 0.9967652 0.0079351 0.0032348 -0.0079351
3943000000 0.0032367 -0.0074601 0.9967633 0.0074601 0.9967633 0.0074601 0.0032367 -0.0074601
3964000000 0.0032391 -0.0069878 0.9967609 0.0069878 0.9967609 0.0069878 0.0032391 -0.0069878
3985000000 0.0032419 -0.0065184 0.9967581 0.0065184 0.9967581 0.0065184 0.0032419 -0.0065184
4006000000 0.0032452 -0.0060517 0.9967548 0.0060517 0.9967548 0.0060517 0.0032452 -0.0060517
4027000000 0.0032490 -0.0055876 0.9967510 0.0055876 0.9967510 0.0055876 0.0032490 -0.0055876
4048000000 0.0032532 -0.0051263 0.9967468 0.0051263 0.9967468 0.0051263 0.0032532 -0.0051263
4069000000 0.0032579 -0.0046675 0.9967421 0.0046675 0.9967421 0.0046675 0.0032579 -0.0046675
4090000000 0.0032629 -0.0042113 0.9967371 0.0042113 0.9967371 0.0042113 0.0032629 -0.0042113
4111000000 0.0032684 -0.0037577 0.9967316 0.0037577 0.9967316 0.0037577 0.0032684 -0.0037577
4132000000 0.0032743 -0.0033065 0.9967257 0.0033065 0.9967257 0.0033065 0.0032743 -0.0033065
4153000000 0.0032806 -0.0028578 0.9967194 0.0028578 0.9967194 0.0028578 0.0032806 -0.0028578
4174000000 0.0032874 -0.0024116 0.9967126 0.0024116 0.9967126 0.0024116 0.0032874 -0.0024116
4195000000 0.0032945 -0.0019677 0.9967055 0.0019677 0.9967055 0.0019677 0.0032945 -0.0019677
4216000000 0.0033020 -0.0015262 0.9966980 0.0015262 0.9966980 0.0015262 0.0033020 -0.0015262
4237000000 0.0033098 -0.0010870 0.9966902 0.0010870 0.9966902 0.0010870 0.0033098 -0.0010870
4258000000 0.0033181 -0.0006501 0.9966819 0.0006501 0.9966819 0.0006501 0.0033181 -0.0006501
4279000000 0.0033267 -0.0002154 0.9966733 0.0002154 0.9966733 0.0002154 0.0033267 -0.0002154
4300000000 0.0033357 0.0002170 0.9966643 -0.0002170 0.9966643 -0.0002170 0.0033357 0.0002170
4321000000 0.0033450 0.0006473 0.9966550 -0.0006473 0.9966550 -0.0006473 0.0033450 0.0006473
4342000000 0.0033547 0.0010753 0.9966453 -0.0010753 0.9966453 -0.0010753 0.0033547 0.0010753
4363000000 0.0033647 0.0015013 0.9966353 -0.0015013 0.9966353 -0.0015013 0.0033647 0.0015013
4384000000 0.0033750 0.0019251 0.9966250 -0.0019251 0.9966250 -0.0019251 0.0033750 0.0019251
4405000000 0.0033857 0.0023469 0.9966143 -0.0023469 0.9966143 -0.0023469 0.0033857 0.0023469
4426000000 0.0033968 0.0027666 0.9966032 -0.0027666 0.9966032 -0.0027666 0.0033968 0.0027666
4447000000 0.0034081 0.0031844 0.9965919 -0.0031844 0.9965919 -0.0031844 0.0034081 0.0031844
4468000000 0.0034198 0.0036001 0.9965802 -0.0036001 0.9965802 -0.0036001 0.0034198 0.0036001
4489000000 0.0034318 0.0040139 0.9965682 -0.0040139 0.9965682 -0.0040139 0.0034318 0.0040139
4510000000 0.0034441 0.0044257 0.9965559 -0.0044257 0.9965559 -0.0044257 0.0034441 0.0044257
