!Murata Part Number: GRM0222C1H430GA02
!These Parameters are Measured in Series Mode Connection
!Data Generated on Mar 30, 2021
!       o--ll--o
!Port1            Port2
!       o------o
!Operation Temp=25[degC], DC Bias Voltage=0[V]
!Freq. Start=100[MHz] Stop=9[GHz] 401[Steps]
# Hz S RI R 50
!Freq.(Hz) S11(Real) S11(Imag) S21(Real) S21(Imag) S12(Real) S12(Imag) S22(Real) S22(Imag)
100000000 0.1208291 -0.3239411 0.8791709 0.3239411 0.8791709 0.3239411 0.1208291 -0.3239411
121000000 0.0859857 -0.2779366 0.9140143 0.2779366 0.9140143 0.2779366 0.0859857 -0.2779366
142000000 0.0640954 -0.2420967 0.9359046 0.2420967 0.9359046 0.2420967 0.0640954 -0.2420967
163000000 0.0495493 -0.2137650 0.9504507 0.2137650 0.9504507 0.2137650 0.0495493 -0.2137650
184000000 0.0394339 -0.1909563 0.9605661 0.1909563 0.9605661 0.1909563 0.0394339 -0.1909563
205000000 0.0321342 -0.1722644 0.9678658 0.1722644 0.9678658 0.1722644 0.0321342 -0.1722644
226000000 0.0267028 -0.1566968 0.9732972 0.1566968 0.9732972 0.1566968 0.0267028 -0.1566968
247000000 0.0225571 -0.1435438 0.9774429 0.1435438 0.9774429 0.1435438 0.0225571 -0.1435438
268000000 0.0193237 -0.1322893 0.9806763 0.1322893 0.9806763 0.1322893 0.0193237 -0.1322893
289000000 0.0167549 -0.1225512 0.9832451 0.1225512 0.9832451 0.1225512 0.0167549 -0.1225512
310000000 0.0146813 -0.1140414 0.9853187 0.1140414 0.9853187 0.1140414 0.0146813 -0.1140414
331000000 0.0129841 -0.1065395 0.9870159 0.1065395 0.9870159 0.1065395 0.0129841 -0.1065395
352000000 0.0115780 -0.0998740 0.9884220 0.0998740 0.9884220 0.0998740 0.0115780 -0.0998740
373000000 0.0104004 -0.0939099 0.9895996 0.0939099 0.9895996 0.0939099 0.0104004 -0.0939099
394000000 0.0094047 -0.0885394 0.9905953 0.0885394 0.9905953 0.0885394 0.0094047 -0.0885394
415000000 0.0085556 -0.0836755 0.9914444 0.0836755 0.9914444 0.0836755 0.0085556 -0.0836755
436000000 0.0078260 -0.0792473 0.9921740 0.0792473 0.9921740 0.0792473 0.0078260 -0.0792473
457000000 0.0071947 -0.0751965 0.9928053 0.0751965 0.9928053 0.0751965 0.0071947 -0.0751965
478000000 0.0066450 -0.0714746 0.9933550 0.0714746 0.9933550 0.0714746 0.0066450 -0.0714746
499000000 0.0061636 -0.0680411 0.9938364 0.0680411 0.9938364 0.0680411 0.0061636 -0.0680411
520000000 0.0057399 -0.0648618 0.9942601 0.0648618 0.9942601 0.0648618 0.0057399 -0.0648618
541000000 0.0053652 -0.0619077 0.9946348 0.0619077 0.9946348 0.0619077 0.0053652 -0.0619077
562000000 0.0050324 -0.0591540 0.9949676 0.0591540 0.9949676 0.0591540 0.0050324 -0.0591540
583000000 0.0047356 -0.0565794 0.9952644 0.0565794 0.9952644 0.0565794 0.0047356 -0.0565794
604000000 0.0044700 -0.0541656 0.9955300 0.0541656 0.9955300 0.0541656 0.0044700 -0.0541656
625000000 0.0042316 -0.0518965 0.9957684 0.0518965 0.9957684 0.0518965 0.0042316 -0.0518965
646000000 0.0040169 -0.0497584 0.9959831 0.0497584 0.9959831 0.0497584 0.0040169 -0.0497584
667000000 0.0038229 -0.0477389 0.9961771 0.0477389 0.9961771 0.0477389 0.0038229 -0.0477389
688000000 0.0036474 -0.0458273 0.9963526 0.0458273 0.9963526 0.0458273 0.0036474 -0.0458273
709000000 0.0034881 -0.0440141 0.9965119 0.0440141 0.9965119 0.0440141 0.0034881 -0.0440141
730000000 0.0033432 -0.0422910 0.9966568 0.0422910 0.9966568 0.0422910 0.0033432 -0.0422910
751000000 0.0032113 -0.0406505 0.9967887 0.0406505 0.9967887 0.0406505 0.0032113 -0.0406505
772000000 0.0030908 -0.0390859 0.9969092 0.0390859 0.9969092 0.0390859 0.0030908 -0.0390859
793000000 0.0029808 -0.0375912 0.9970192 0.0375912 0.9970192 0.0375912 0.0029808 -0.0375912
814000000 0.0028801 -0.0361610 0.9971199 0.0361610 0.9971199 0.0361610 0.0028801 -0.0361610
835000000 0.0027878 -0.0347906 0.9972122 0.0347906 0.9972122 0.0347906 0.0027878 -0.0347906
856000000 0.0027032 -0.0334755 0.9972968 0.0334755 0.9972968 0.0334755 0.0027032 -0.0334755
877000000 0.0026255 -0.0322119 0.9973745 0.0322119 0.9973745 0.0322119 0.0026255 -0.0322119
898000000 0.0025541 -0.0309961 0.9974459 0.0309961 0.9974459 0.0309961 0.0025541 -0.0309961
919000000 0.0024886 -0.0298249 0.9975114 0.0298249 0.9975114 0.0298249 0.0024886 -0.0298249
940000000 0.0024283 -0.0286953 0.9975717 0.0286953 0.9975717 0.0286953 0.0024283 -0.0286953
961000000 0.0023730 -0.0276046 0.9976270 0.0276046 0.9976270 0.0276046 0.0023730 -0.0276046
982000000 0.0023220 -0.0265503 0.9976780 0.0265503 0.9976780 0.0265503 0.0023220 -0.0265503
1003000000 0.0022753 -0.0255302 0.9977247 0.0255302 0.9977247 0.0255302 0.0022753 -0.0255302
1024000000 0.0022323 -0.0245422 0.9977677 0.0245422 0.9977677 0.0245422 0.0022323 -0.0245422
1045000000 0.0021929 -0.0235843 0.9978071 0.0235843 0.9978071 0.0235843 0.0021929 -0.0235843
1066000000 0.0021567 -0.0226547 0.9978433 0.0226547 0.9978433 0.0226547 0.0021567 -0.0226547
1087000000 0.0021237 -0.0217519 0.9978763 0.0217519 0.9978763 0.0217519 0.0021237 -0.0217519
1108000000 0.0020934 -0.0208743 0.9979066 0.0208743 0.9979066 0.0208743 0.0020934 -0.0208743
1129000000 0.0020658 -0.0200206 0.9979342 0.0200206 0.9979342 0.0200206 0.0020658 -0.0200206
1150000000 0.0020407 -0.0191893 0.9979593 0.0191893 0.9979593 0.0191893 0.0020407 -0.0191893
1171000000 0.0020179 -0.0183794 0.9979821 0.0183794 0.9979821 0.0183794 0.0020179 -0.0183794
1192000000 0.0019973 -0.0175897 0.9980027 0.0175897 0.9980027 0.0175897 0.0019973 -0.0175897
1213000000 0.0019787 -0.0168191 0.9980213 0.0168191 0.9980213 0.0168191 0.0019787 -0.0168191
1234000000 0.0019621 -0.0160667 0.9980379 0.0160667 0.9980379 0.0160667 0.0019621 -0.0160667
1255000000 0.0019473 -0.0153316 0.9980527 0.0153316 0.9980527 0.0153316 0.0019473 -0.0153316
1276000000 0.0019342 -0.0146129 0.9980658 0.0146129 0.9980658 0.0146129 0.0019342 -0.0146129
1297000000 0.0019227 -0.0139099 0.9980773 0.0139099 0.9980773 0.0139099 0.0019227 -0.0139099
1318000000 0.0019128 -0.0132217 0.9980872 0.0132217 0.9980872 0.0132217 0.0019128 -0.0132217
1339000000 0.0019043 -0.0125477 0.9980957 0.0125477 0.9980957 0.0125477 0.0019043 -0.0125477
1360000000 0.0018973 -0.0118873 0.9981027 0.0118873 0.9981027 0.0118873 0.0018973 -0.0118873
1381000000 0.0018915 -0.0112398 0.9981085 0.0112398 0.9981085 0.0112398 0.0018915 -0.0112398
1402000000 0.0018870 -0.0106046 0.9981130 0.0106046 0.9981130 0.0106046 0.0018870 -0.0106046
1423000000 0.0018838 -0.0099812 0.9981162 0.0099812 0.9981162 0.0099812 0.0018838 -0.0099812
1444000000 0.0018817 -0.0093691 0.9981183 0.0093691 0.9981183 0.0093691 0.0018817 -0.0093691
1465000000 0.0018806 -0.0087679 0.9981194 0.0087679 0.9981194 0.0087679 0.0018806 -0.0087679
1486000000 0.0018807 -0.0081769 0.9981193 0.0081769 0.9981193 0.0081769 0.0018807 -0.0081769
1507000000 0.0018817 -0.0075959 0.9981183 0.0075959 0.9981183 0.0075959 0.0018817 -0.0075959
1528000000 0.0018838 -0.0070245 0.9981162 0.0070245 0.9981162 0.0070245 0.0018838 -0.0070245
1549000000 0.0018867 -0.0064621 0.9981133 0.0064621 0.9981133 0.0064621 0.0018867 -0.0064621
1570000000 0.0018906 -0.0059085 0.9981094 0.0059085 0.9981094 0.0059085 0.0018906 -0.0059085
1591000000 0.0018954 -0.0053634 0.9981046 0.0053634 0.9981046 0.0053634 0.0018954 -0.0053634
1612000000 0.0019009 -0.0048263 0.9980991 0.0048263 0.9980991 0.0048263 0.0019009 -0.0048263
1633000000 0.0019074 -0.0042970 0.9980926 0.0042970 0.9980926 0.0042970 0.0019074 -0.0042970
1654000000 0.0019145 -0.0037752 0.9980855 0.0037752 0.9980855 0.0037752 0.0019145 -0.0037752
1675000000 0.0019225 -0.0032607 0.9980775 0.0032607 0.9980775 0.0032607 0.0019225 -0.0032607
1696000000 0.0019312 -0.0027530 0.9980688 0.0027530 0.9980688 0.0027530 0.0019312 -0.0027530
1717000000 0.0019406 -0.0022521 0.9980594 0.0022521 0.9980594 0.0022521 0.0019406 -0.0022521
1738000000 0.0019507 -0.0017576 0.9980493 0.0017576 0.9980493 0.0017576 0.0019507 -0.0017576
1759000000 0.0019616 -0.0012694 0.9980384 0.0012694 0.9980384 0.0012694 0.0019616 -0.0012694
1780000000 0.0019730 -0.0007872 0.9980270 0.0007872 0.9980270 0.0007872 0.0019730 -0.0007872
1801000000 0.0019851 -0.0003107 0.9980149 0.0003107 0.9980149 0.0003107 0.0019851 -0.0003107
1822000000 0.0019979 0.0001601 0.9980021 -0.0001601 0.9980021 -0.0001601 0.0019979 0.0001601
1843000000 0.0020112 0.0006255 0.9979888 -0.0006255 0.9979888 -0.0006255 0.0020112 0.0006255
1864000000 0.0020252 0.0010857 0.9979748 -0.0010857 0.9979748 -0.0010857 0.0020252 0.0010857
1885000000 0.0020398 0.0015408 0.9979602 -0.0015408 0.9979602 -0.0015408 0.0020398 0.0015408
1906000000 0.0020549 0.0019911 0.9979451 -0.0019911 0.9979451 -0.0019911 0.0020549 0.0019911
1927000000 0.0020706 0.0024365 0.9979294 -0.0024365 0.9979294 -0.0024365 0.0020706 0.0024365
1948000000 0.0020869 0.0028774 0.9979131 -0.0028774 0.9979131 -0.0028774 0.0020869 0.0028774
1969000000 0.0021037 0.0033139 0.9978963 -0.0033139 0.9978963 -0.0033139 0.0021037 0.0033139
1990000000 0.0021211 0.0037460 0.9978789 -0.0037460 0.9978789 -0.0037460 0.0021211 0.0037460
2011000000 0.0021389 0.0041740 0.9978611 -0.0041740 0.9978611 -0.0041740 0.0021389 0.0041740
2032000000 0.0021573 0.0045979 0.9978427 -0.0045979 0.9978427 -0.0045979 0.0021573 0.0045979
2053000000 0.0021762 0.0050179 0.9978238 -0.0050179 0.9978238 -0.0050179 0.0021762 0.0050179
2074000000 0.0021957 0.0054341 0.9978043 -0.0054341 0.9978043 -0.0054341 0.0021957 0.0054341
2095000000 0.0022156 0.0058466 0.9977844 -0.0058466 0.9977844 -0.0058466 0.0022156 0.0058466
2116000000 0.0022360 0.0062555 0.9977640 -0.0062555 0.9977640 -0.0062555 0.0022360 0.0062555
2137000000 0.0022569 0.0066609 0.9977431 -0.0066609 0.9977431 -0.0066609 0.0022569 0.0066609
2158000000 0.0022782 0.0070629 0.9977218 -0.0070629 0.9977218 -0.0070629 0.0022782 0.0070629
2179000000 0.0023001 0.0074616 0.9976999 -0.0074616 0.9976999 -0.0074616 0.0023001 0.0074616
2200000000 0.0023224 0.0078571 0.9976776 -0.0078571 0.9976776 -0.0078571 0.0023224 0.0078571
2221000000 0.0023451 0.0082495 0.9976549 -0.0082495 0.9976549 -0.0082495 0.0023451 0.0082495
2242000000 0.0023684 0.0086388 0.9976316 -0.0086388 0.9976316 -0.0086388 0.0023684 0.0086388
2263000000 0.0023921 0.0090252 0.9976079 -0.0090252 0.9976079 -0.0090252 0.0023921 0.0090252
2284000000 0.0024162 0.0094088 0.9975838 -0.0094088 0.9975838 -0.0094088 0.0024162 0.0094088
2305000000 0.0024408 0.0097895 0.9975592 -0.0097895 0.9975592 -0.0097895 0.0024408 0.0097895
2326000000 0.0024658 0.0101675 0.9975342 -0.0101675 0.9975342 -0.0101675 0.0024658 0.0101675
2347000000 0.0024913 0.0105429 0.9975087 -0.0105429 0.9975087 -0.0105429 0.0024913 0.0105429
2368000000 0.0025172 0.0109156 0.9974828 -0.0109156 0.9974828 -0.0109156 0.0025172 0.0109156
2389000000 0.0025435 0.0112859 0.9974565 -0.0112859 0.9974565 -0.0112859 0.0025435 0.0112859
2410000000 0.0025703 0.0116536 0.9974297 -0.0116536 0.9974297 -0.0116536 0.0025703 0.0116536
2431000000 0.0025975 0.0120190 0.9974025 -0.0120190 0.9974025 -0.0120190 0.0025975 0.0120190
2452000000 0.0026251 0.0123820 0.9973749 -0.0123820 0.9973749 -0.0123820 0.0026251 0.0123820
2473000000 0.0026531 0.0127428 0.9973469 -0.0127428 0.9973469 -0.0127428 0.0026531 0.0127428
2494000000 0.0026816 0.0131013 0.9973184 -0.0131013 0.9973184 -0.0131013 0.0026816 0.0131013
2515000000 0.0027105 0.0134576 0.9972895 -0.0134576 0.9972895 -0.0134576 0.0027105 0.0134576
2536000000 0.0027398 0.0138118 0.9972602 -0.0138118 0.9972602 -0.0138118 0.0027398 0.0138118
2557000000 0.0027695 0.0141639 0.9972305 -0.0141639 0.9972305 -0.0141639 0.0027695 0.0141639
2578000000 0.0027996 0.0145139 0.9972004 -0.0145139 0.9972004 -0.0145139 0.0027996 0.0145139
2599000000 0.0028301 0.0148620 0.9971699 -0.0148620 0.9971699 -0.0148620 0.0028301 0.0148620
2620000000 0.0028611 0.0152081 0.9971389 -0.0152081 0.9971389 -0.0152081 0.0028611 0.0152081
2641000000 0.0028924 0.0155523 0.9971076 -0.0155523 0.9971076 -0.0155523 0.0028924 0.0155523
2662000000 0.0029242 0.0158947 0.9970758 -0.0158947 0.9970758 -0.0158947 0.0029242 0.0158947
2683000000 0.0029564 0.0162352 0.9970436 -0.0162352 0.9970436 -0.0162352 0.0029564 0.0162352
2704000000 0.0029889 0.0165739 0.9970111 -0.0165739 0.9970111 -0.0165739 0.0029889 0.0165739
2725000000 0.0030219 0.0169109 0.9969781 -0.0169109 0.9969781 -0.0169109 0.0030219 0.0169109
2746000000 0.0030553 0.0172462 0.9969447 -0.0172462 0.9969447 -0.0172462 0.0030553 0.0172462
2767000000 0.0030890 0.0175797 0.9969110 -0.0175797 0.9969110 -0.0175797 0.0030890 0.0175797
2788000000 0.0031232 0.0179117 0.9968768 -0.0179117 0.9968768 -0.0179117 0.0031232 0.0179117
2809000000 0.0031578 0.0182420 0.9968422 -0.0182420 0.9968422 -0.0182420 0.0031578 0.0182420
2830000000 0.0031928 0.0185707 0.9968072 -0.0185707 0.9968072 -0.0185707 0.0031928 0.0185707
2851000000 0.0032282 0.0188978 0.9967718 -0.0188978 0.9967718 -0.0188978 0.0032282 0.0188978
2872000000 0.0032639 0.0192235 0.9967361 -0.0192235 0.9967361 -0.0192235 0.0032639 0.0192235
2893000000 0.0033001 0.0195476 0.9966999 -0.0195476 0.9966999 -0.0195476 0.0033001 0.0195476
2914000000 0.0033367 0.0198703 0.9966633 -0.0198703 0.9966633 -0.0198703 0.0033367 0.0198703
2935000000 0.0033736 0.0201915 0.9966264 -0.0201915 0.9966264 -0.0201915 0.0033736 0.0201915
2956000000 0.0034110 0.0205113 0.9965890 -0.0205113 0.9965890 -0.0205113 0.0034110 0.0205113
2977000000 0.0034488 0.0208297 0.9965512 -0.0208297 0.9965512 -0.0208297 0.0034488 0.0208297
2998000000 0.0034869 0.0211467 0.9965131 -0.0211467 0.9965131 -0.0211467 0.0034869 0.0211467
3019000000 0.0035255 0.0214623 0.9964745 -0.0214623 0.9964745 -0.0214623 0.0035255 0.0214623
3040000000 0.0035644 0.0217767 0.9964356 -0.0217767 0.9964356 -0.0217767 0.0035644 0.0217767
3061000000 0.0036037 0.0220897 0.9963963 -0.0220897 0.9963963 -0.0220897 0.0036037 0.0220897
3082000000 0.0036435 0.0224015 0.9963565 -0.0224015 0.9963565 -0.0224015 0.0036435 0.0224015
3103000000 0.0036836 0.0227119 0.9963164 -0.0227119 0.9963164 -0.0227119 0.0036836 0.0227119
3124000000 0.0037241 0.0230212 0.9962759 -0.0230212 0.9962759 -0.0230212 0.0037241 0.0230212
3145000000 0.0037650 0.0233292 0.9962350 -0.0233292 0.9962350 -0.0233292 0.0037650 0.0233292
3166000000 0.0038063 0.0236359 0.9961937 -0.0236359 0.9961937 -0.0236359 0.0038063 0.0236359
3187000000 0.0038480 0.0239415 0.9961520 -0.0239415 0.9961520 -0.0239415 0.0038480 0.0239415
3208000000 0.0038901 0.0242459 0.9961099 -0.0242459 0.9961099 -0.0242459 0.0038901 0.0242459
3229000000 0.0039325 0.0245492 0.9960675 -0.0245492 0.9960675 -0.0245492 0.0039325 0.0245492
3250000000 0.0039754 0.0248513 0.9960246 -0.0248513 0.9960246 -0.0248513 0.0039754 0.0248513
3271000000 0.0040187 0.0251523 0.9959813 -0.0251523 0.9959813 -0.0251523 0.0040187 0.0251523
3292000000 0.0040623 0.0254522 0.9959377 -0.0254522 0.9959377 -0.0254522 0.0040623 0.0254522
3313000000 0.0041064 0.0257509 0.9958936 -0.0257509 0.9958936 -0.0257509 0.0041064 0.0257509
3334000000 0.0041508 0.0260486 0.9958492 -0.0260486 0.9958492 -0.0260486 0.0041508 0.0260486
3355000000 0.0041956 0.0263452 0.9958044 -0.0263452 0.9958044 -0.0263452 0.0041956 0.0263452
3376000000 0.0042408 0.0266408 0.9957592 -0.0266408 0.9957592 -0.0266408 0.0042408 0.0266408
3397000000 0.0042864 0.0269352 0.9957136 -0.0269352 0.9957136 -0.0269352 0.0042864 0.0269352
3418000000 0.0043324 0.0272287 0.9956676 -0.0272287 0.9956676 -0.0272287 0.0043324 0.0272287
3439000000 0.0043788 0.0275211 0.9956212 -0.0275211 0.9956212 -0.0275211 0.0043788 0.0275211
3460000000 0.0044255 0.0278125 0.9955745 -0.0278125 0.9955745 -0.0278125 0.0044255 0.0278125
3481000000 0.0044727 0.0281030 0.9955273 -0.0281030 0.9955273 -0.0281030 0.0044727 0.0281030
3502000000 0.0045202 0.0283924 0.9954798 -0.0283924 0.9954798 -0.0283924 0.0045202 0.0283924
3523000000 0.0045681 0.0286808 0.9954319 -0.0286808 0.9954319 -0.0286808 0.0045681 0.0286808
3544000000 0.0046165 0.0289683 0.9953835 -0.0289683 0.9953835 -0.0289683 0.0046165 0.0289683
3565000000 0.0046651 0.0292548 0.9953349 -0.0292548 0.9953349 -0.0292548 0.0046651 0.0292548
3586000000 0.0047142 0.0295403 0.9952858 -0.0295403 0.9952858 -0.0295403 0.0047142 0.0295403
3607000000 0.0047637 0.0298249 0.9952363 -0.0298249 0.9952363 -0.0298249 0.0047637 0.0298249
3628000000 0.0048135 0.0301085 0.9951865 -0.0301085 0.9951865 -0.0301085 0.0048135 0.0301085
3649000000 0.0048638 0.0303912 0.9951362 -0.0303912 0.9951362 -0.0303912 0.0048638 0.0303912
3670000000 0.0049144 0.0306730 0.9950856 -0.0306730 0.9950856 -0.0306730 0.0049144 0.0306730
3691000000 0.0049654 0.0309539 0.9950346 -0.0309539 0.9950346 -0.0309539 0.0049654 0.0309539
3712000000 0.0050168 0.0312338 0.9949832 -0.0312338 0.9949832 -0.0312338 0.0050168 0.0312338
3733000000 0.0050685 0.0315129 0.9949315 -0.0315129 0.9949315 -0.0315129 0.0050685 0.0315129
3754000000 0.0051207 0.0317910 0.9948793 -0.0317910 0.9948793 -0.0317910 0.0051207 0.0317910
3775000000 0.0051732 0.0320683 0.9948268 -0.0320683 0.9948268 -0.0320683 0.0051732 0.0320683
3796000000 0.0052261 0.0323446 0.9947739 -0.0323446 0.9947739 -0.0323446 0.0052261 0.0323446
3817000000 0.0052793 0.0326201 0.9947207 -0.0326201 0.9947207 -0.0326201 0.0052793 0.0326201
3838000000 0.0053330 0.0328947 0.9946670 -0.0328947 0.9946670 -0.0328947 0.0053330 0.0328947
3859000000 0.0053870 0.0331684 0.9946130 -0.0331684 0.9946130 -0.0331684 0.0053870 0.0331684
3880000000 0.0054414 0.0334413 0.9945586 -0.0334413 0.9945586 -0.0334413 0.0054414 0.0334413
3901000000 0.0054961 0.0337133 0.9945039 -0.0337133 0.9945039 -0.0337133 0.0054961 0.0337133
3922000000 0.0055512 0.0339844 0.9944488 -0.0339844 0.9944488 -0.0339844 0.0055512 0.0339844
3943000000 0.0056067 0.0342547 0.9943933 -0.0342547 0.9943933 -0.0342547 0.0056067 0.0342547
3964000000 0.0056626 0.0345241 0.9943374 -0.0345241 0.9943374 -0.0345241 0.0056626 0.0345241
3985000000 0.0057188 0.0347927 0.9942812 -0.0347927 0.9942812 -0.0347927 0.0057188 0.0347927
4006000000 0.0057754 0.0350605 0.9942246 -0.0350605 0.9942246 -0.0350605 0.0057754 0.0350605
4027000000 0.0058323 0.0353273 0.9941677 -0.0353273 0.9941677 -0.0353273 0.0058323 0.0353273
4048000000 0.0058896 0.0355934 0.9941104 -0.0355934 0.9941104 -0.0355934 0.0058896 0.0355934
4069000000 0.0059473 0.0358586 0.9940527 -0.0358586 0.9940527 -0.0358586 0.0059473 0.0358586
4090000000 0.0060053 0.0361230 0.9939947 -0.0361230 0.9939947 -0.0361230 0.0060053 0.0361230
4111000000 0.0060637 0.0363865 0.9939363 -0.0363865 0.9939363 -0.0363865 0.0060637 0.0363865
4132000000 0.0061224 0.0366492 0.9938776 -0.0366492 0.9938776 -0.0366492 0.0061224 0.0366492
4153000000 0.0061815 0.0369111 0.9938185 -0.0369111 0.9938185 -0.0369111 0.0061815 0.0369111
4174000000 0.0062409 0.0371722 0.9937591 -0.0371722 0.9937591 -0.0371722 0.0062409 0.0371722
4195000000 0.0063006 0.0374324 0.9936994 -0.0374324 0.9936994 -0.0374324 0.0063006 0.0374324
4216000000 0.0063607 0.0376918 0.9936393 -0.0376918 0.9936393 -0.0376918 0.0063607 0.0376918
4237000000 0.0064212 0.0379504 0.9935788 -0.0379504 0.9935788 -0.0379504 0.0064212 0.0379504
4258000000 0.0064819 0.0382081 0.9935181 -0.0382081 0.9935181 -0.0382081 0.0064819 0.0382081
4279000000 0.0065430 0.0384651 0.9934570 -0.0384651 0.9934570 -0.0384651 0.0065430 0.0384651
4300000000 0.0066045 0.0387212 0.9933955 -0.0387212 0.9933955 -0.0387212 0.0066045 0.0387212
4321000000 0.0066662 0.0389765 0.9933338 -0.0389765 0.9933338 -0.0389765 0.0066662 0.0389765
4342000000 0.0067283 0.0392309 0.9932717 -0.0392309 0.9932717 -0.0392309 0.0067283 0.0392309
4363000000 0.0067907 0.0394846 0.9932093 -0.0394846 0.9932093 -0.0394846 0.0067907 0.0394846
4384000000 0.0068534 0.0397374 0.9931466 -0.0397374 0.9931466 -0.0397374 0.0068534 0.0397374
4405000000 0.0069164 0.0399895 0.9930836 -0.0399895 0.9930836 -0.0399895 0.0069164 0.0399895
4426000000 0.0069797 0.0402407 0.9930203 -0.0402407 0.9930203 -0.0402407 0.0069797 0.0402407
4447000000 0.0070434 0.0404910 0.9929566 -0.0404910 0.9929566 -0.0404910 0.0070434 0.0404910
4468000000 0.0071073 0.0407406 0.9928927 -0.0407406 0.9928927 -0.0407406 0.0071073 0.0407406
4489000000 0.0071715 0.0409893 0.9928285 -0.0409893 0.9928285 -0.0409893 0.0071715 0.0409893
4510000000 0.0072360 0.0412373 0.9927640 -0.0412373 0.9927640 -0.0412373 0.0072360 0.0412373
