!Murata Part Number: GRM0225C1C4R6CA03
!These Parameters are Measured in Series Mode Connection
!Data Generated on Mar 30, 2021
!       o--ll--o
!Port1            Port2
!       o------o
!Operation Temp=25[degC], DC Bias Voltage=0[V]
!Freq. Start=100[MHz] Stop=9[GHz] 401[Steps]
# Hz S RI R 50
!Freq.(Hz) S11(Real) S11(Imag) S21(Real) S21(Imag) S12(Real) S12(Imag) S22(Real) S22(Imag)
100000000 0.9227542 -0.2667492 0.0772458 0.2667492 0.0772458 0.2667492 0.9227542 -0.2667492
121000000 0.8907959 -0.3116143 0.1092041 0.3116143 0.1092041 0.3116143 0.8907959 -0.3116143
142000000 0.8555173 -0.3512487 0.1444827 0.3512487 0.1444827 0.3512487 0.8555173 -0.3512487
163000000 0.8179290 -0.3855240 0.1820710 0.3855240 0.1820710 0.3855240 0.8179290 -0.3855240
184000000 0.7789645 -0.4145159 0.2210355 0.4145159 0.2210355 0.4145159 0.7789645 -0.4145159
205000000 0.7394447 -0.4384597 0.2605553 0.4384597 0.2605553 0.4384597 0.7394447 -0.4384597
226000000 0.7000595 -0.4577039 0.2999405 0.4577039 0.2999405 0.4577039 0.7000595 -0.4577039
247000000 0.6613637 -0.4726683 0.3386363 0.4726683 0.3386363 0.4726683 0.6613637 -0.4726683
268000000 0.6237837 -0.4838075 0.3762163 0.4838075 0.3762163 0.4838075 0.6237837 -0.4838075
289000000 0.5876298 -0.4915828 0.4123702 0.4915828 0.4123702 0.4915828 0.5876298 -0.4915828
310000000 0.5531130 -0.4964418 0.4468870 0.4964418 0.4468870 0.4964418 0.5531130 -0.4964418
331000000 0.5203620 -0.4988049 0.4796380 0.4988049 0.4796380 0.4988049 0.5203620 -0.4988049
352000000 0.4894399 -0.4990568 0.5105601 0.4990568 0.5105601 0.4990568 0.4894399 -0.4990568
373000000 0.4603587 -0.4975426 0.5396413 0.4975426 0.5396413 0.4975426 0.4603587 -0.4975426
394000000 0.4330928 -0.4945675 0.5669072 0.4945675 0.5669072 0.4945675 0.4330928 -0.4945675
415000000 0.4075888 -0.4903978 0.5924112 0.4903978 0.5924112 0.4903978 0.4075888 -0.4903978
436000000 0.3837752 -0.4852630 0.6162248 0.4852630 0.6162248 0.4852630 0.3837752 -0.4852630
457000000 0.3615680 -0.4793599 0.6384320 0.4793599 0.6384320 0.4793599 0.3615680 -0.4793599
478000000 0.3408766 -0.4728555 0.6591234 0.4728555 0.6591234 0.4728555 0.3408766 -0.4728555
499000000 0.3216078 -0.4658906 0.6783922 0.4658906 0.6783922 0.4658906 0.3216078 -0.4658906
520000000 0.3036679 -0.4585833 0.6963321 0.4585833 0.6963321 0.4585833 0.3036679 -0.4585833
541000000 0.2869653 -0.4510323 0.7130347 0.4510323 0.7130347 0.4510323 0.2869653 -0.4510323
562000000 0.2714120 -0.4433192 0.7285880 0.4433192 0.7285880 0.4433192 0.2714120 -0.4433192
583000000 0.2569238 -0.4355117 0.7430762 0.4355117 0.7430762 0.4355117 0.2569238 -0.4355117
604000000 0.2434214 -0.4276651 0.7565786 0.4276651 0.7565786 0.4276651 0.2434214 -0.4276651
625000000 0.2308307 -0.4198244 0.7691693 0.4198244 0.7691693 0.4198244 0.2308307 -0.4198244
646000000 0.2190823 -0.4120265 0.7809177 0.4120265 0.7809177 0.4120265 0.2190823 -0.4120265
667000000 0.2081121 -0.4043005 0.7918879 0.4043005 0.7918879 0.4043005 0.2081121 -0.4043005
688000000 0.1978605 -0.3966700 0.8021395 0.3966700 0.8021395 0.3966700 0.1978605 -0.3966700
709000000 0.1882726 -0.3891532 0.8117274 0.3891532 0.8117274 0.3891532 0.1882726 -0.3891532
730000000 0.1792981 -0.3817644 0.8207019 0.3817644 0.8207019 0.3817644 0.1792981 -0.3817644
751000000 0.1708904 -0.3745143 0.8291096 0.3745143 0.8291096 0.3745143 0.1708904 -0.3745143
772000000 0.1630067 -0.3674108 0.8369933 0.3674108 0.8369933 0.3674108 0.1630067 -0.3674108
793000000 0.1556080 -0.3604594 0.8443920 0.3604594 0.8443920 0.3604594 0.1556080 -0.3604594
814000000 0.1486582 -0.3536636 0.8513418 0.3536636 0.8513418 0.3536636 0.1486582 -0.3536636
835000000 0.1421243 -0.3470254 0.8578757 0.3470254 0.8578757 0.3470254 0.1421243 -0.3470254
856000000 0.1359759 -0.3405456 0.8640241 0.3405456 0.8640241 0.3405456 0.1359759 -0.3405456
877000000 0.1301853 -0.3342237 0.8698147 0.3342237 0.8698147 0.3342237 0.1301853 -0.3342237
898000000 0.1247269 -0.3280586 0.8752731 0.3280586 0.8752731 0.3280586 0.1247269 -0.3280586
919000000 0.1195772 -0.3220484 0.8804228 0.3220484 0.8804228 0.3220484 0.1195772 -0.3220484
940000000 0.1147147 -0.3161907 0.8852853 0.3161907 0.8852853 0.3161907 0.1147147 -0.3161907
961000000 0.1101195 -0.3104826 0.8898805 0.3104826 0.8898805 0.3104826 0.1101195 -0.3104826
982000000 0.1057733 -0.3049210 0.8942267 0.3049210 0.8942267 0.3049210 0.1057733 -0.3049210
1003000000 0.1016595 -0.2995025 0.8983405 0.2995025 0.8983405 0.2995025 0.1016595 -0.2995025
1024000000 0.0977624 -0.2942235 0.9022376 0.2942235 0.9022376 0.2942235 0.0977624 -0.2942235
1045000000 0.0940679 -0.2890805 0.9059321 0.2890805 0.9059321 0.2890805 0.0940679 -0.2890805
1066000000 0.0905627 -0.2840696 0.9094373 0.2840696 0.9094373 0.2840696 0.0905627 -0.2840696
1087000000 0.0872347 -0.2791870 0.9127653 0.2791870 0.9127653 0.2791870 0.0872347 -0.2791870
1108000000 0.0840726 -0.2744291 0.9159274 0.2744291 0.9159274 0.2744291 0.0840726 -0.2744291
1129000000 0.0810661 -0.2697921 0.9189339 0.2697921 0.9189339 0.2697921 0.0810661 -0.2697921
1150000000 0.0782055 -0.2652722 0.9217945 0.2652722 0.9217945 0.2652722 0.0782055 -0.2652722
1171000000 0.0754818 -0.2608659 0.9245182 0.2608659 0.9245182 0.2608659 0.0754818 -0.2608659
1192000000 0.0728869 -0.2565694 0.9271131 0.2565694 0.9271131 0.2565694 0.0728869 -0.2565694
1213000000 0.0704130 -0.2523794 0.9295870 0.2523794 0.9295870 0.2523794 0.0704130 -0.2523794
1234000000 0.0680530 -0.2482923 0.9319470 0.2482923 0.9319470 0.2482923 0.0680530 -0.2482923
1255000000 0.0658002 -0.2443049 0.9341998 0.2443049 0.9341998 0.2443049 0.0658002 -0.2443049
1276000000 0.0636486 -0.2404140 0.9363514 0.2404140 0.9363514 0.2404140 0.0636486 -0.2404140
1297000000 0.0615923 -0.2366163 0.9384077 0.2366163 0.9384077 0.2366163 0.0615923 -0.2366163
1318000000 0.0596260 -0.2329089 0.9403740 0.2329089 0.9403740 0.2329089 0.0596260 -0.2329089
1339000000 0.0577448 -0.2292888 0.9422552 0.2292888 0.9422552 0.2292888 0.0577448 -0.2292888
1360000000 0.0559439 -0.2257531 0.9440561 0.2257531 0.9440561 0.2257531 0.0559439 -0.2257531
1381000000 0.0542190 -0.2222991 0.9457810 0.2222991 0.9457810 0.2222991 0.0542190 -0.2222991
1402000000 0.0525660 -0.2189242 0.9474340 0.2189242 0.9474340 0.2189242 0.0525660 -0.2189242
1423000000 0.0509812 -0.2156257 0.9490188 0.2156257 0.9490188 0.2156257 0.0509812 -0.2156257
1444000000 0.0494609 -0.2124013 0.9505391 0.2124013 0.9505391 0.2124013 0.0494609 -0.2124013
1465000000 0.0480019 -0.2092484 0.9519981 0.2092484 0.9519981 0.2092484 0.0480019 -0.2092484
1486000000 0.0466010 -0.2061649 0.9533990 0.2061649 0.9533990 0.2061649 0.0466010 -0.2061649
1507000000 0.0452553 -0.2031484 0.9547447 0.2031484 0.9547447 0.2031484 0.0452553 -0.2031484
1528000000 0.0439620 -0.2001969 0.9560380 0.2001969 0.9560380 0.2001969 0.0439620 -0.2001969
1549000000 0.0427185 -0.1973083 0.9572815 0.1973083 0.9572815 0.1973083 0.0427185 -0.1973083
1570000000 0.0415224 -0.1944807 0.9584776 0.1944807 0.9584776 0.1944807 0.0415224 -0.1944807
1591000000 0.0403714 -0.1917120 0.9596286 0.1917120 0.9596286 0.1917120 0.0403714 -0.1917120
1612000000 0.0392634 -0.1890006 0.9607366 0.1890006 0.9607366 0.1890006 0.0392634 -0.1890006
1633000000 0.0381964 -0.1863445 0.9618036 0.1863445 0.9618036 0.1863445 0.0381964 -0.1863445
1654000000 0.0371683 -0.1837422 0.9628317 0.1837422 0.9628317 0.1837422 0.0371683 -0.1837422
1675000000 0.0361774 -0.1811919 0.9638226 0.1811919 0.9638226 0.1811919 0.0361774 -0.1811919
1696000000 0.0352221 -0.1786921 0.9647779 0.1786921 0.9647779 0.1786921 0.0352221 -0.1786921
1717000000 0.0343007 -0.1762412 0.9656993 0.1762412 0.9656993 0.1762412 0.0343007 -0.1762412
1738000000 0.0334116 -0.1738379 0.9665884 0.1738379 0.9665884 0.1738379 0.0334116 -0.1738379
1759000000 0.0325535 -0.1714806 0.9674465 0.1714806 0.9674465 0.1714806 0.0325535 -0.1714806
1780000000 0.0317250 -0.1691681 0.9682750 0.1691681 0.9682750 0.1691681 0.0317250 -0.1691681
1801000000 0.0309248 -0.1668989 0.9690752 0.1668989 0.9690752 0.1668989 0.0309248 -0.1668989
1822000000 0.0301517 -0.1646719 0.9698483 0.1646719 0.9698483 0.1646719 0.0301517 -0.1646719
1843000000 0.0294046 -0.1624859 0.9705954 0.1624859 0.9705954 0.1624859 0.0294046 -0.1624859
1864000000 0.0286823 -0.1603395 0.9713177 0.1603395 0.9713177 0.1603395 0.0286823 -0.1603395
1885000000 0.0279838 -0.1582318 0.9720162 0.1582318 0.9720162 0.1582318 0.0279838 -0.1582318
1906000000 0.0273081 -0.1561616 0.9726919 0.1561616 0.9726919 0.1561616 0.0273081 -0.1561616
1927000000 0.0266543 -0.1541279 0.9733457 0.1541279 0.9733457 0.1541279 0.0266543 -0.1541279
1948000000 0.0260216 -0.1521296 0.9739784 0.1521296 0.9739784 0.1521296 0.0260216 -0.1521296
1969000000 0.0254090 -0.1501658 0.9745910 0.1501658 0.9745910 0.1501658 0.0254090 -0.1501658
1990000000 0.0248158 -0.1482355 0.9751842 0.1482355 0.9751842 0.1482355 0.0248158 -0.1482355
2011000000 0.0242411 -0.1463378 0.9757589 0.1463378 0.9757589 0.1463378 0.0242411 -0.1463378
2032000000 0.0236844 -0.1444718 0.9763156 0.1444718 0.9763156 0.1444718 0.0236844 -0.1444718
2053000000 0.0231448 -0.1426367 0.9768552 0.1426367 0.9768552 0.1426367 0.0231448 -0.1426367
2074000000 0.0226218 -0.1408316 0.9773782 0.1408316 0.9773782 0.1408316 0.0226218 -0.1408316
2095000000 0.0221147 -0.1390558 0.9778853 0.1390558 0.9778853 0.1390558 0.0221147 -0.1390558
2116000000 0.0216229 -0.1373085 0.9783771 0.1373085 0.9783771 0.1373085 0.0216229 -0.1373085
2137000000 0.0211458 -0.1355889 0.9788542 0.1355889 0.9788542 0.1355889 0.0211458 -0.1355889
2158000000 0.0206829 -0.1338963 0.9793171 0.1338963 0.9793171 0.1338963 0.0206829 -0.1338963
2179000000 0.0202337 -0.1322301 0.9797663 0.1322301 0.9797663 0.1322301 0.0202337 -0.1322301
2200000000 0.0197977 -0.1305894 0.9802023 0.1305894 0.9802023 0.1305894 0.0197977 -0.1305894
2221000000 0.0193743 -0.1289738 0.9806257 0.1289738 0.9806257 0.1289738 0.0193743 -0.1289738
2242000000 0.0189633 -0.1273826 0.9810367 0.1273826 0.9810367 0.1273826 0.0189633 -0.1273826
2263000000 0.0185640 -0.1258151 0.9814360 0.1258151 0.9814360 0.1258151 0.0185640 -0.1258151
2284000000 0.0181762 -0.1242708 0.9818238 0.1242708 0.9818238 0.1242708 0.0181762 -0.1242708
2305000000 0.0177993 -0.1227490 0.9822007 0.1227490 0.9822007 0.1227490 0.0177993 -0.1227490
2326000000 0.0174331 -0.1212494 0.9825669 0.1212494 0.9825669 0.1212494 0.0174331 -0.1212494
2347000000 0.0170772 -0.1197712 0.9829228 0.1197712 0.9829228 0.1197712 0.0170772 -0.1197712
2368000000 0.0167312 -0.1183140 0.9832688 0.1183140 0.9832688 0.1183140 0.0167312 -0.1183140
2389000000 0.0163948 -0.1168773 0.9836052 0.1168773 0.9836052 0.1168773 0.0163948 -0.1168773
2410000000 0.0160676 -0.1154607 0.9839324 0.1154607 0.9839324 0.1154607 0.0160676 -0.1154607
2431000000 0.0157495 -0.1140635 0.9842505 0.1140635 0.9842505 0.1140635 0.0157495 -0.1140635
2452000000 0.0154400 -0.1126854 0.9845600 0.1126854 0.9845600 0.1126854 0.0154400 -0.1126854
2473000000 0.0151388 -0.1113260 0.9848612 0.1113260 0.9848612 0.1113260 0.0151388 -0.1113260
2494000000 0.0148458 -0.1099847 0.9851542 0.1099847 0.9851542 0.1099847 0.0148458 -0.1099847
2515000000 0.0145607 -0.1086613 0.9854393 0.1086613 0.9854393 0.1086613 0.0145607 -0.1086613
2536000000 0.0142832 -0.1073552 0.9857168 0.1073552 0.9857168 0.1073552 0.0142832 -0.1073552
2557000000 0.0140130 -0.1060661 0.9859870 0.1060661 0.9859870 0.1060661 0.0140130 -0.1060661
2578000000 0.0137500 -0.1047936 0.9862500 0.1047936 0.9862500 0.1047936 0.0137500 -0.1047936
2599000000 0.0134939 -0.1035373 0.9865061 0.1035373 0.9865061 0.1035373 0.0134939 -0.1035373
2620000000 0.0132445 -0.1022969 0.9867555 0.1022969 0.9867555 0.1022969 0.0132445 -0.1022969
2641000000 0.0130016 -0.1010720 0.9869984 0.1010720 0.9869984 0.1010720 0.0130016 -0.1010720
2662000000 0.0127651 -0.0998623 0.9872349 0.0998623 0.9872349 0.0998623 0.0127651 -0.0998623
2683000000 0.0125346 -0.0986674 0.9874654 0.0986674 0.9874654 0.0986674 0.0125346 -0.0986674
2704000000 0.0123101 -0.0974871 0.9876899 0.0974871 0.9876899 0.0974871 0.0123101 -0.0974871
2725000000 0.0120913 -0.0963210 0.9879087 0.0963210 0.9879087 0.0963210 0.0120913 -0.0963210
2746000000 0.0118782 -0.0951688 0.9881218 0.0951688 0.9881218 0.0951688 0.0118782 -0.0951688
2767000000 0.0116704 -0.0940302 0.9883296 0.0940302 0.9883296 0.0940302 0.0116704 -0.0940302
2788000000 0.0114679 -0.0929050 0.9885321 0.0929050 0.9885321 0.0929050 0.0114679 -0.0929050
2809000000 0.0112706 -0.0917928 0.9887294 0.0917928 0.9887294 0.0917928 0.0112706 -0.0917928
2830000000 0.0110782 -0.0906934 0.9889218 0.0906934 0.9889218 0.0906934 0.0110782 -0.0906934
2851000000 0.0108907 -0.0896066 0.9891093 0.0896066 0.9891093 0.0896066 0.0108907 -0.0896066
2872000000 0.0107078 -0.0885320 0.9892922 0.0885320 0.9892922 0.0885320 0.0107078 -0.0885320
2893000000 0.0105295 -0.0874694 0.9894705 0.0874694 0.9894705 0.0874694 0.0105295 -0.0874694
2914000000 0.0103557 -0.0864186 0.9896443 0.0864186 0.9896443 0.0864186 0.0103557 -0.0864186
2935000000 0.0101862 -0.0853793 0.9898138 0.0853793 0.9898138 0.0853793 0.0101862 -0.0853793
2956000000 0.0100208 -0.0843514 0.9899792 0.0843514 0.9899792 0.0843514 0.0100208 -0.0843514
2977000000 0.0098596 -0.0833345 0.9901404 0.0833345 0.9901404 0.0833345 0.0098596 -0.0833345
2998000000 0.0097023 -0.0823285 0.9902977 0.0823285 0.9902977 0.0823285 0.0097023 -0.0823285
3019000000 0.0095490 -0.0813331 0.9904510 0.0813331 0.9904510 0.0813331 0.0095490 -0.0813331
3040000000 0.0093993 -0.0803482 0.9906007 0.0803482 0.9906007 0.0803482 0.0093993 -0.0803482
3061000000 0.0092534 -0.0793735 0.9907466 0.0793735 0.9907466 0.0793735 0.0092534 -0.0793735
3082000000 0.0091110 -0.0784089 0.9908890 0.0784089 0.9908890 0.0784089 0.0091110 -0.0784089
3103000000 0.0089721 -0.0774541 0.9910279 0.0774541 0.9910279 0.0774541 0.0089721 -0.0774541
3124000000 0.0088366 -0.0765090 0.9911634 0.0765090 0.9911634 0.0765090 0.0088366 -0.0765090
3145000000 0.0087044 -0.0755734 0.9912956 0.0755734 0.9912956 0.0755734 0.0087044 -0.0755734
3166000000 0.0085754 -0.0746470 0.9914246 0.0746470 0.9914246 0.0746470 0.0085754 -0.0746470
3187000000 0.0084495 -0.0737299 0.9915505 0.0737299 0.9915505 0.0737299 0.0084495 -0.0737299
3208000000 0.0083267 -0.0728216 0.9916733 0.0728216 0.9916733 0.0728216 0.0083267 -0.0728216
3229000000 0.0082069 -0.0719222 0.9917931 0.0719222 0.9917931 0.0719222 0.0082069 -0.0719222
3250000000 0.0080900 -0.0710314 0.9919100 0.0710314 0.9919100 0.0710314 0.0080900 -0.0710314
3271000000 0.0079759 -0.0701491 0.9920241 0.0701491 0.9920241 0.0701491 0.0079759 -0.0701491
3292000000 0.0078646 -0.0692751 0.9921354 0.0692751 0.9921354 0.0692751 0.0078646 -0.0692751
3313000000 0.0077560 -0.0684093 0.9922440 0.0684093 0.9922440 0.0684093 0.0077560 -0.0684093
3334000000 0.0076500 -0.0675515 0.9923500 0.0675515 0.9923500 0.0675515 0.0076500 -0.0675515
3355000000 0.0075466 -0.0667016 0.9924534 0.0667016 0.9924534 0.0667016 0.0075466 -0.0667016
3376000000 0.0074457 -0.0658595 0.9925543 0.0658595 0.9925543 0.0658595 0.0074457 -0.0658595
3397000000 0.0073472 -0.0650249 0.9926528 0.0650249 0.9926528 0.0650249 0.0073472 -0.0650249
3418000000 0.0072512 -0.0641979 0.9927488 0.0641979 0.9927488 0.0641979 0.0072512 -0.0641979
3439000000 0.0071575 -0.0633781 0.9928425 0.0633781 0.9928425 0.0633781 0.0071575 -0.0633781
3460000000 0.0070660 -0.0625657 0.9929340 0.0625657 0.9929340 0.0625657 0.0070660 -0.0625657
3481000000 0.0069768 -0.0617603 0.9930232 0.0617603 0.9930232 0.0617603 0.0069768 -0.0617603
3502000000 0.0068898 -0.0609618 0.9931102 0.0609618 0.9931102 0.0609618 0.0068898 -0.0609618
3523000000 0.0068049 -0.0601703 0.9931951 0.0601703 0.9931951 0.0601703 0.0068049 -0.0601703
3544000000 0.0067220 -0.0593854 0.9932780 0.0593854 0.9932780 0.0593854 0.0067220 -0.0593854
3565000000 0.0066412 -0.0586072 0.9933588 0.0586072 0.9933588 0.0586072 0.0066412 -0.0586072
3586000000 0.0065624 -0.0578356 0.9934376 0.0578356 0.9934376 0.0578356 0.0065624 -0.0578356
3607000000 0.0064856 -0.0570703 0.9935144 0.0570703 0.9935144 0.0570703 0.0064856 -0.0570703
3628000000 0.0064106 -0.0563113 0.9935894 0.0563113 0.9935894 0.0563113 0.0064106 -0.0563113
3649000000 0.0063375 -0.0555585 0.9936625 0.0555585 0.9936625 0.0555585 0.0063375 -0.0555585
3670000000 0.0062662 -0.0548119 0.9937338 0.0548119 0.9937338 0.0548119 0.0062662 -0.0548119
3691000000 0.0061967 -0.0540712 0.9938033 0.0540712 0.9938033 0.0540712 0.0061967 -0.0540712
3712000000 0.0061289 -0.0533364 0.9938711 0.0533364 0.9938711 0.0533364 0.0061289 -0.0533364
3733000000 0.0060629 -0.0526074 0.9939371 0.0526074 0.9939371 0.0526074 0.0060629 -0.0526074
3754000000 0.0059985 -0.0518842 0.9940015 0.0518842 0.9940015 0.0518842 0.0059985 -0.0518842
3775000000 0.0059357 -0.0511665 0.9940643 0.0511665 0.9940643 0.0511665 0.0059357 -0.0511665
3796000000 0.0058745 -0.0504544 0.9941255 0.0504544 0.9941255 0.0504544 0.0058745 -0.0504544
3817000000 0.0058149 -0.0497478 0.9941851 0.0497478 0.9941851 0.0497478 0.0058149 -0.0497478
3838000000 0.0057568 -0.0490465 0.9942432 0.0490465 0.9942432 0.0490465 0.0057568 -0.0490465
3859000000 0.0057002 -0.0483504 0.9942998 0.0483504 0.9942998 0.0483504 0.0057002 -0.0483504
3880000000 0.0056451 -0.0476596 0.9943549 0.0476596 0.9943549 0.0476596 0.0056451 -0.0476596
3901000000 0.0055914 -0.0469739 0.9944086 0.0469739 0.9944086 0.0469739 0.0055914 -0.0469739
3922000000 0.0055391 -0.0462932 0.9944609 0.0462932 0.9944609 0.0462932 0.0055391 -0.0462932
3943000000 0.0054882 -0.0456175 0.9945118 0.0456175 0.9945118 0.0456175 0.0054882 -0.0456175
3964000000 0.0054387 -0.0449466 0.9945613 0.0449466 0.9945613 0.0449466 0.0054387 -0.0449466
3985000000 0.0053905 -0.0442806 0.9946095 0.0442806 0.9946095 0.0442806 0.0053905 -0.0442806
4006000000 0.0053435 -0.0436193 0.9946565 0.0436193 0.9946565 0.0436193 0.0053435 -0.0436193
4027000000 0.0052979 -0.0429626 0.9947021 0.0429626 0.9947021 0.0429626 0.0052979 -0.0429626
4048000000 0.0052535 -0.0423106 0.9947465 0.0423106 0.9947465 0.0423106 0.0052535 -0.0423106
4069000000 0.0052103 -0.0416631 0.9947897 0.0416631 0.9947897 0.0416631 0.0052103 -0.0416631
4090000000 0.0051683 -0.0410200 0.9948317 0.0410200 0.9948317 0.0410200 0.0051683 -0.0410200
4111000000 0.0051275 -0.0403814 0.9948725 0.0403814 0.9948725 0.0403814 0.0051275 -0.0403814
4132000000 0.0050878 -0.0397471 0.9949122 0.0397471 0.9949122 0.0397471 0.0050878 -0.0397471
4153000000 0.0050493 -0.0391170 0.9949507 0.0391170 0.9949507 0.0391170 0.0050493 -0.0391170
4174000000 0.0050119 -0.0384911 0.9949881 0.0384911 0.9949881 0.0384911 0.0050119 -0.0384911
4195000000 0.0049756 -0.0378694 0.9950244 0.0378694 0.9950244 0.0378694 0.0049756 -0.0378694
4216000000 0.0049403 -0.0372518 0.9950597 0.0372518 0.9950597 0.0372518 0.0049403 -0.0372518
4237000000 0.0049061 -0.0366382 0.9950939 0.0366382 0.9950939 0.0366382 0.0049061 -0.0366382
4258000000 0.0048729 -0.0360286 0.9951271 0.0360286 0.9951271 0.0360286 0.0048729 -0.0360286
4279000000 0.0048408 -0.0354229 0.9951592 0.0354229 0.9951592 0.0354229 0.0048408 -0.0354229
4300000000 0.0048096 -0.0348210 0.9951904 0.0348210 0.9951904 0.0348210 0.0048096 -0.0348210
4321000000 0.0047794 -0.0342230 0.9952206 0.0342230 0.9952206 0.0342230 0.0047794 -0.0342230
4342000000 0.0047501 -0.0336287 0.9952499 0.0336287 0.9952499 0.0336287 0.0047501 -0.0336287
4363000000 0.0047218 -0.0330381 0.9952782 0.0330381 0.9952782 0.0330381 0.0047218 -0.0330381
4384000000 0.0046944 -0.0324512 0.9953056 0.0324512 0.9953056 0.0324512 0.0046944 -0.0324512
4405000000 0.0046679 -0.0318678 0.9953321 0.0318678 0.9953321 0.0318678 0.0046679 -0.0318678
4426000000 0.0046423 -0.0312880 0.9953577 0.0312880 0.9953577 0.0312880 0.0046423 -0.0312880
4447000000 0.0046176 -0.0307118 0.9953824 0.0307118 0.9953824 0.0307118 0.0046176 -0.0307118
4468000000 0.0045937 -0.0301389 0.9954063 0.0301389 0.9954063 0.0301389 0.0045937 -0.0301389
4489000000 0.0045707 -0.0295695 0.9954293 0.0295695 0.9954293 0.0295695 0.0045707 -0.0295695
4510000000 0.0045485 -0.0290034 0.9954515 0.0290034 0.9954515 0.0290034 0.0045485 -0.0290034
