!Murata Part Number: GRM0225C1H750JA02
!These Parameters are Measured in Series Mode Connection
!Data Generated on Mar 30, 2021
!       o--ll--o
!Port1            Port2
!       o------o
!Operation Temp=25[degC], DC Bias Voltage=0[V]
!Freq. Start=100[MHz] Stop=9[GHz] 401[Steps]
# Hz S RI R 50
!Freq.(Hz) S11(Real) S11(Imag) S21(Real) S21(Imag) S12(Real) S12(Imag) S22(Real) S22(Imag)
100000000 0.0437019 -0.2016064 0.9562981 0.2016064 0.9562981 0.2016064 0.0437019 -0.2016064
121000000 0.0304847 -0.1684984 0.9695153 0.1684984 0.9695153 0.1684984 0.0304847 -0.1684984
142000000 0.0225122 -0.1443296 0.9774878 0.1443296 0.9774878 0.1443296 0.0225122 -0.1443296
163000000 0.0173492 -0.1259616 0.9826508 0.1259616 0.9826508 0.1259616 0.0173492 -0.1259616
184000000 0.0138206 -0.1115437 0.9861794 0.1115437 0.9861794 0.1115437 0.0138206 -0.1115437
205000000 0.0113054 -0.0999263 0.9886946 0.0999263 0.9886946 0.0999263 0.0113054 -0.0999263
226000000 0.0094509 -0.0903616 0.9905491 0.0903616 0.9905491 0.0903616 0.0094509 -0.0903616
247000000 0.0080454 -0.0823444 0.9919546 0.0823444 0.9919546 0.0823444 0.0080454 -0.0823444
268000000 0.0069555 -0.0755214 0.9930445 0.0755214 0.9930445 0.0755214 0.0069555 -0.0755214
289000000 0.0060937 -0.0696386 0.9939063 0.0696386 0.9939063 0.0696386 0.0060937 -0.0696386
310000000 0.0054011 -0.0645091 0.9945989 0.0645091 0.9945989 0.0645091 0.0054011 -0.0645091
331000000 0.0048364 -0.0599921 0.9951636 0.0599921 0.9951636 0.0599921 0.0048364 -0.0599921
352000000 0.0043703 -0.0559797 0.9956297 0.0559797 0.9956297 0.0559797 0.0043703 -0.0559797
373000000 0.0039815 -0.0523880 0.9960185 0.0523880 0.9960185 0.0523880 0.0039815 -0.0523880
394000000 0.0036540 -0.0491505 0.9963460 0.0491505 0.9963460 0.0491505 0.0036540 -0.0491505
415000000 0.0033758 -0.0462140 0.9966242 0.0462140 0.9966242 0.0462140 0.0033758 -0.0462140
436000000 0.0031379 -0.0435356 0.9968621 0.0435356 0.9968621 0.0435356 0.0031379 -0.0435356
457000000 0.0029330 -0.0410799 0.9970670 0.0410799 0.9970670 0.0410799 0.0029330 -0.0410799
478000000 0.0027556 -0.0388179 0.9972444 0.0388179 0.9972444 0.0388179 0.0027556 -0.0388179
499000000 0.0026011 -0.0367252 0.9973989 0.0367252 0.9973989 0.0367252 0.0026011 -0.0367252
520000000 0.0024661 -0.0347816 0.9975339 0.0347816 0.9975339 0.0347816 0.0024661 -0.0347816
541000000 0.0023476 -0.0329697 0.9976524 0.0329697 0.9976524 0.0329697 0.0023476 -0.0329697
562000000 0.0022432 -0.0312750 0.9977568 0.0312750 0.9977568 0.0312750 0.0022432 -0.0312750
583000000 0.0021511 -0.0296847 0.9978489 0.0296847 0.9978489 0.0296847 0.0021511 -0.0296847
604000000 0.0020695 -0.0281881 0.9979305 0.0281881 0.9979305 0.0281881 0.0020695 -0.0281881
625000000 0.0019971 -0.0267758 0.9980029 0.0267758 0.9980029 0.0267758 0.0019971 -0.0267758
646000000 0.0019328 -0.0254396 0.9980672 0.0254396 0.9980672 0.0254396 0.0019328 -0.0254396
667000000 0.0018756 -0.0241723 0.9981244 0.0241723 0.9981244 0.0241723 0.0018756 -0.0241723
688000000 0.0018247 -0.0229676 0.9981753 0.0229676 0.9981753 0.0229676 0.0018247 -0.0229676
709000000 0.0017795 -0.0218200 0.9982205 0.0218200 0.9982205 0.0218200 0.0017795 -0.0218200
730000000 0.0017393 -0.0207246 0.9982607 0.0207246 0.9982607 0.0207246 0.0017393 -0.0207246
751000000 0.0017035 -0.0196771 0.9982965 0.0196771 0.9982965 0.0196771 0.0017035 -0.0196771
772000000 0.0016718 -0.0186735 0.9983282 0.0186735 0.9983282 0.0186735 0.0016718 -0.0186735
793000000 0.0016438 -0.0177103 0.9983562 0.0177103 0.9983562 0.0177103 0.0016438 -0.0177103
814000000 0.0016191 -0.0167844 0.9983809 0.0167844 0.9983809 0.0167844 0.0016191 -0.0167844
835000000 0.0015974 -0.0158931 0.9984026 0.0158931 0.9984026 0.0158931 0.0015974 -0.0158931
856000000 0.0015785 -0.0150337 0.9984215 0.0150337 0.9984215 0.0150337 0.0015785 -0.0150337
877000000 0.0015622 -0.0142041 0.9984378 0.0142041 0.9984378 0.0142041 0.0015622 -0.0142041
898000000 0.0015481 -0.0134021 0.9984519 0.0134021 0.9984519 0.0134021 0.0015481 -0.0134021
919000000 0.0015363 -0.0126257 0.9984637 0.0126257 0.9984637 0.0126257 0.0015363 -0.0126257
940000000 0.0015264 -0.0118734 0.9984736 0.0118734 0.9984736 0.0118734 0.0015264 -0.0118734
961000000 0.0015184 -0.0111436 0.9984816 0.0111436 0.9984816 0.0111436 0.0015184 -0.0111436
982000000 0.0015121 -0.0104347 0.9984879 0.0104347 0.9984879 0.0104347 0.0015121 -0.0104347
1003000000 0.0015074 -0.0097455 0.9984926 0.0097455 0.9984926 0.0097455 0.0015074 -0.0097455
1024000000 0.0015043 -0.0090748 0.9984957 0.0090748 0.9984957 0.0090748 0.0015043 -0.0090748
1045000000 0.0015025 -0.0084214 0.9984975 0.0084214 0.9984975 0.0084214 0.0015025 -0.0084214
1066000000 0.0015022 -0.0077844 0.9984978 0.0077844 0.9984978 0.0077844 0.0015022 -0.0077844
1087000000 0.0015030 -0.0071627 0.9984970 0.0071627 0.9984970 0.0071627 0.0015030 -0.0071627
1108000000 0.0015051 -0.0065556 0.9984949 0.0065556 0.9984949 0.0065556 0.0015051 -0.0065556
1129000000 0.0015083 -0.0059622 0.9984917 0.0059622 0.9984917 0.0059622 0.0015083 -0.0059622
1150000000 0.0015126 -0.0053818 0.9984874 0.0053818 0.9984874 0.0053818 0.0015126 -0.0053818
1171000000 0.0015180 -0.0048136 0.9984820 0.0048136 0.9984820 0.0048136 0.0015180 -0.0048136
1192000000 0.0015243 -0.0042571 0.9984757 0.0042571 0.9984757 0.0042571 0.0015243 -0.0042571
1213000000 0.0015316 -0.0037115 0.9984684 0.0037115 0.9984684 0.0037115 0.0015316 -0.0037115
1234000000 0.0015398 -0.0031764 0.9984602 0.0031764 0.9984602 0.0031764 0.0015398 -0.0031764
1255000000 0.0015489 -0.0026513 0.9984511 0.0026513 0.9984511 0.0026513 0.0015489 -0.0026513
1276000000 0.0015588 -0.0021356 0.9984412 0.0021356 0.9984412 0.0021356 0.0015588 -0.0021356
1297000000 0.0015695 -0.0016289 0.9984305 0.0016289 0.9984305 0.0016289 0.0015695 -0.0016289
1318000000 0.0015811 -0.0011307 0.9984189 0.0011307 0.9984189 0.0011307 0.0015811 -0.0011307
1339000000 0.0015934 -0.0006407 0.9984066 0.0006407 0.9984066 0.0006407 0.0015934 -0.0006407
1360000000 0.0016064 -0.0001585 0.9983936 0.0001585 0.9983936 0.0001585 0.0016064 -0.0001585
1381000000 0.0016202 0.0003163 0.9983798 -0.0003163 0.9983798 -0.0003163 0.0016202 0.0003163
1402000000 0.0016347 0.0007840 0.9983653 -0.0007840 0.9983653 -0.0007840 0.0016347 0.0007840
1423000000 0.0016499 0.0012449 0.9983501 -0.0012449 0.9983501 -0.0012449 0.0016499 0.0012449
1444000000 0.0016658 0.0016993 0.9983342 -0.0016993 0.9983342 -0.0016993 0.0016658 0.0016993
1465000000 0.0016823 0.0021475 0.9983177 -0.0021475 0.9983177 -0.0021475 0.0016823 0.0021475
1486000000 0.0016995 0.0025897 0.9983005 -0.0025897 0.9983005 -0.0025897 0.0016995 0.0025897
1507000000 0.0017174 0.0030262 0.9982826 -0.0030262 0.9982826 -0.0030262 0.0017174 0.0030262
1528000000 0.0017359 0.0034573 0.9982641 -0.0034573 0.9982641 -0.0034573 0.0017359 0.0034573
1549000000 0.0017550 0.0038831 0.9982450 -0.0038831 0.9982450 -0.0038831 0.0017550 0.0038831
1570000000 0.0017747 0.0043038 0.9982253 -0.0043038 0.9982253 -0.0043038 0.0017747 0.0043038
1591000000 0.0017950 0.0047197 0.9982050 -0.0047197 0.9982050 -0.0047197 0.0017950 0.0047197
1612000000 0.0018159 0.0051309 0.9981841 -0.0051309 0.9981841 -0.0051309 0.0018159 0.0051309
1633000000 0.0018375 0.0055377 0.9981625 -0.0055377 0.9981625 -0.0055377 0.0018375 0.0055377
1654000000 0.0018596 0.0059401 0.9981404 -0.0059401 0.9981404 -0.0059401 0.0018596 0.0059401
1675000000 0.0018823 0.0063384 0.9981177 -0.0063384 0.9981177 -0.0063384 0.0018823 0.0063384
1696000000 0.0019055 0.0067326 0.9980945 -0.0067326 0.9980945 -0.0067326 0.0019055 0.0067326
1717000000 0.0019294 0.0071230 0.9980706 -0.0071230 0.9980706 -0.0071230 0.0019294 0.0071230
1738000000 0.0019538 0.0075096 0.9980462 -0.0075096 0.9980462 -0.0075096 0.0019538 0.0075096
1759000000 0.0019788 0.0078926 0.9980212 -0.0078926 0.9980212 -0.0078926 0.0019788 0.0078926
1780000000 0.0020044 0.0082722 0.9979956 -0.0082722 0.9979956 -0.0082722 0.0020044 0.0082722
1801000000 0.0020305 0.0086484 0.9979695 -0.0086484 0.9979695 -0.0086484 0.0020305 0.0086484
1822000000 0.0020572 0.0090213 0.9979428 -0.0090213 0.9979428 -0.0090213 0.0020572 0.0090213
1843000000 0.0020845 0.0093911 0.9979155 -0.0093911 0.9979155 -0.0093911 0.0020845 0.0093911
1864000000 0.0021123 0.0097579 0.9978877 -0.0097579 0.9978877 -0.0097579 0.0021123 0.0097579
1885000000 0.0021406 0.0101216 0.9978594 -0.0101216 0.9978594 -0.0101216 0.0021406 0.0101216
1906000000 0.0021696 0.0104826 0.9978304 -0.0104826 0.9978304 -0.0104826 0.0021696 0.0104826
1927000000 0.0021991 0.0108407 0.9978009 -0.0108407 0.9978009 -0.0108407 0.0021991 0.0108407
1948000000 0.0022291 0.0111962 0.9977709 -0.0111962 0.9977709 -0.0111962 0.0022291 0.0111962
1969000000 0.0022597 0.0115491 0.9977403 -0.0115491 0.9977403 -0.0115491 0.0022597 0.0115491
1990000000 0.0022909 0.0118994 0.9977091 -0.0118994 0.9977091 -0.0118994 0.0022909 0.0118994
2011000000 0.0023226 0.0122473 0.9976774 -0.0122473 0.9976774 -0.0122473 0.0023226 0.0122473
2032000000 0.0023549 0.0125928 0.9976451 -0.0125928 0.9976451 -0.0125928 0.0023549 0.0125928
2053000000 0.0023878 0.0129360 0.9976122 -0.0129360 0.9976122 -0.0129360 0.0023878 0.0129360
2074000000 0.0024212 0.0132769 0.9975788 -0.0132769 0.9975788 -0.0132769 0.0024212 0.0132769
2095000000 0.0024552 0.0136156 0.9975448 -0.0136156 0.9975448 -0.0136156 0.0024552 0.0136156
2116000000 0.0024897 0.0139521 0.9975103 -0.0139521 0.9975103 -0.0139521 0.0024897 0.0139521
2137000000 0.0025248 0.0142866 0.9974752 -0.0142866 0.9974752 -0.0142866 0.0025248 0.0142866
2158000000 0.0025605 0.0146190 0.9974395 -0.0146190 0.9974395 -0.0146190 0.0025605 0.0146190
2179000000 0.0025967 0.0149495 0.9974033 -0.0149495 0.9974033 -0.0149495 0.0025967 0.0149495
2200000000 0.0026335 0.0152780 0.9973665 -0.0152780 0.9973665 -0.0152780 0.0026335 0.0152780
2221000000 0.0026709 0.0156046 0.9973291 -0.0156046 0.9973291 -0.0156046 0.0026709 0.0156046
2242000000 0.0027089 0.0159293 0.9972911 -0.0159293 0.9972911 -0.0159293 0.0027089 0.0159293
2263000000 0.0027474 0.0162523 0.9972526 -0.0162523 0.9972526 -0.0162523 0.0027474 0.0162523
2284000000 0.0027865 0.0165734 0.9972135 -0.0165734 0.9972135 -0.0165734 0.0027865 0.0165734
2305000000 0.0028262 0.0168929 0.9971738 -0.0168929 0.9971738 -0.0168929 0.0028262 0.0168929
2326000000 0.0028665 0.0172106 0.9971335 -0.0172106 0.9971335 -0.0172106 0.0028665 0.0172106
2347000000 0.0029073 0.0175267 0.9970927 -0.0175267 0.9970927 -0.0175267 0.0029073 0.0175267
2368000000 0.0029488 0.0178412 0.9970512 -0.0178412 0.9970512 -0.0178412 0.0029488 0.0178412
2389000000 0.0029908 0.0181540 0.9970092 -0.0181540 0.9970092 -0.0181540 0.0029908 0.0181540
2410000000 0.0030334 0.0184653 0.9969666 -0.0184653 0.9969666 -0.0184653 0.0030334 0.0184653
2431000000 0.0030766 0.0187750 0.9969234 -0.0187750 0.9969234 -0.0187750 0.0030766 0.0187750
2452000000 0.0031205 0.0190833 0.9968795 -0.0190833 0.9968795 -0.0190833 0.0031205 0.0190833
2473000000 0.0031649 0.0193900 0.9968351 -0.0193900 0.9968351 -0.0193900 0.0031649 0.0193900
2494000000 0.0032099 0.0196953 0.9967901 -0.0196953 0.9967901 -0.0196953 0.0032099 0.0196953
2515000000 0.0032555 0.0199991 0.9967445 -0.0199991 0.9967445 -0.0199991 0.0032555 0.0199991
2536000000 0.0033017 0.0203015 0.9966983 -0.0203015 0.9966983 -0.0203015 0.0033017 0.0203015
2557000000 0.0033485 0.0206025 0.9966515 -0.0206025 0.9966515 -0.0206025 0.0033485 0.0206025
2578000000 0.0033959 0.0209021 0.9966041 -0.0209021 0.9966041 -0.0209021 0.0033959 0.0209021
2599000000 0.0034439 0.0212004 0.9965561 -0.0212004 0.9965561 -0.0212004 0.0034439 0.0212004
2620000000 0.0034925 0.0214973 0.9965075 -0.0214973 0.9965075 -0.0214973 0.0034925 0.0214973
2641000000 0.0035417 0.0217928 0.9964583 -0.0217928 0.9964583 -0.0217928 0.0035417 0.0217928
2662000000 0.0035916 0.0220871 0.9964084 -0.0220871 0.9964084 -0.0220871 0.0035916 0.0220871
2683000000 0.0036420 0.0223800 0.9963580 -0.0223800 0.9963580 -0.0223800 0.0036420 0.0223800
2704000000 0.0036931 0.0226717 0.9963069 -0.0226717 0.9963069 -0.0226717 0.0036931 0.0226717
2725000000 0.0037448 0.0229620 0.9962552 -0.0229620 0.9962552 -0.0229620 0.0037448 0.0229620
2746000000 0.0037971 0.0232511 0.9962029 -0.0232511 0.9962029 -0.0232511 0.0037971 0.0232511
2767000000 0.0038500 0.0235390 0.9961500 -0.0235390 0.9961500 -0.0235390 0.0038500 0.0235390
2788000000 0.0039035 0.0238255 0.9960965 -0.0238255 0.9960965 -0.0238255 0.0039035 0.0238255
2809000000 0.0039576 0.0241109 0.9960424 -0.0241109 0.9960424 -0.0241109 0.0039576 0.0241109
2830000000 0.0040124 0.0243950 0.9959876 -0.0243950 0.9959876 -0.0243950 0.0040124 0.0243950
2851000000 0.0040678 0.0246779 0.9959322 -0.0246779 0.9959322 -0.0246779 0.0040678 0.0246779
2872000000 0.0041238 0.0249595 0.9958762 -0.0249595 0.9958762 -0.0249595 0.0041238 0.0249595
2893000000 0.0041804 0.0252400 0.9958196 -0.0252400 0.9958196 -0.0252400 0.0041804 0.0252400
2914000000 0.0042376 0.0255192 0.9957624 -0.0255192 0.9957624 -0.0255192 0.0042376 0.0255192
2935000000 0.0042954 0.0257972 0.9957046 -0.0257972 0.9957046 -0.0257972 0.0042954 0.0257972
2956000000 0.0043539 0.0260740 0.9956461 -0.0260740 0.9956461 -0.0260740 0.0043539 0.0260740
2977000000 0.0044129 0.0263496 0.9955871 -0.0263496 0.9955871 -0.0263496 0.0044129 0.0263496
2998000000 0.0044726 0.0266240 0.9955274 -0.0266240 0.9955274 -0.0266240 0.0044726 0.0266240
3019000000 0.0045328 0.0268972 0.9954672 -0.0268972 0.9954672 -0.0268972 0.0045328 0.0268972
3040000000 0.0045937 0.0271692 0.9954063 -0.0271692 0.9954063 -0.0271692 0.0045937 0.0271692
3061000000 0.0046551 0.0274400 0.9953449 -0.0274400 0.9953449 -0.0274400 0.0046551 0.0274400
3082000000 0.0047172 0.0277096 0.9952828 -0.0277096 0.9952828 -0.0277096 0.0047172 0.0277096
3103000000 0.0047798 0.0279780 0.9952202 -0.0279780 0.9952202 -0.0279780 0.0047798 0.0279780
3124000000 0.0048431 0.0282452 0.9951569 -0.0282452 0.9951569 -0.0282452 0.0048431 0.0282452
3145000000 0.0049069 0.0285112 0.9950931 -0.0285112 0.9950931 -0.0285112 0.0049069 0.0285112
3166000000 0.0049713 0.0287760 0.9950287 -0.0287760 0.9950287 -0.0287760 0.0049713 0.0287760
3187000000 0.0050363 0.0290396 0.9949637 -0.0290396 0.9949637 -0.0290396 0.0050363 0.0290396
3208000000 0.0051018 0.0293019 0.9948982 -0.0293019 0.9948982 -0.0293019 0.0051018 0.0293019
3229000000 0.0051679 0.0295631 0.9948321 -0.0295631 0.9948321 -0.0295631 0.0051679 0.0295631
3250000000 0.0052345 0.0298230 0.9947655 -0.0298230 0.9947655 -0.0298230 0.0052345 0.0298230
3271000000 0.0053017 0.0300817 0.9946983 -0.0300817 0.9946983 -0.0300817 0.0053017 0.0300817
3292000000 0.0053695 0.0303391 0.9946305 -0.0303391 0.9946305 -0.0303391 0.0053695 0.0303391
3313000000 0.0054378 0.0305953 0.9945622 -0.0305953 0.9945622 -0.0305953 0.0054378 0.0305953
3334000000 0.0055065 0.0308503 0.9944935 -0.0308503 0.9944935 -0.0308503 0.0055065 0.0308503
3355000000 0.0055759 0.0311040 0.9944241 -0.0311040 0.9944241 -0.0311040 0.0055759 0.0311040
3376000000 0.0056457 0.0313565 0.9943543 -0.0313565 0.9943543 -0.0313565 0.0056457 0.0313565
3397000000 0.0057160 0.0316077 0.9942840 -0.0316077 0.9942840 -0.0316077 0.0057160 0.0316077
3418000000 0.0057867 0.0318576 0.9942133 -0.0318576 0.9942133 -0.0318576 0.0057867 0.0318576
3439000000 0.0058580 0.0321063 0.9941420 -0.0321063 0.9941420 -0.0321063 0.0058580 0.0321063
3460000000 0.0059297 0.0323537 0.9940703 -0.0323537 0.9940703 -0.0323537 0.0059297 0.0323537
3481000000 0.0060019 0.0325997 0.9939981 -0.0325997 0.9939981 -0.0325997 0.0060019 0.0325997
3502000000 0.0060745 0.0328445 0.9939255 -0.0328445 0.9939255 -0.0328445 0.0060745 0.0328445
3523000000 0.0061475 0.0330880 0.9938525 -0.0330880 0.9938525 -0.0330880 0.0061475 0.0330880
3544000000 0.0062209 0.0333302 0.9937791 -0.0333302 0.9937791 -0.0333302 0.0062209 0.0333302
3565000000 0.0062947 0.0335710 0.9937053 -0.0335710 0.9937053 -0.0335710 0.0062947 0.0335710
3586000000 0.0063689 0.0338106 0.9936311 -0.0338106 0.9936311 -0.0338106 0.0063689 0.0338106
3607000000 0.0064434 0.0340487 0.9935566 -0.0340487 0.9935566 -0.0340487 0.0064434 0.0340487
3628000000 0.0065183 0.0342856 0.9934817 -0.0342856 0.9934817 -0.0342856 0.0065183 0.0342856
3649000000 0.0065935 0.0345211 0.9934065 -0.0345211 0.9934065 -0.0345211 0.0065935 0.0345211
3670000000 0.0066690 0.0347552 0.9933310 -0.0347552 0.9933310 -0.0347552 0.0066690 0.0347552
3691000000 0.0067448 0.0349880 0.9932552 -0.0349880 0.9932552 -0.0349880 0.0067448 0.0349880
3712000000 0.0068209 0.0352194 0.9931791 -0.0352194 0.9931791 -0.0352194 0.0068209 0.0352194
3733000000 0.0068972 0.0354495 0.9931028 -0.0354495 0.9931028 -0.0354495 0.0068972 0.0354495
3754000000 0.0069738 0.0356781 0.9930262 -0.0356781 0.9930262 -0.0356781 0.0069738 0.0356781
3775000000 0.0070505 0.0359054 0.9929495 -0.0359054 0.9929495 -0.0359054 0.0070505 0.0359054
3796000000 0.0071274 0.0361313 0.9928726 -0.0361313 0.9928726 -0.0361313 0.0071274 0.0361313
3817000000 0.0072045 0.0363558 0.9927955 -0.0363558 0.9927955 -0.0363558 0.0072045 0.0363558
3838000000 0.0072818 0.0365789 0.9927182 -0.0365789 0.9927182 -0.0365789 0.0072818 0.0365789
3859000000 0.0073591 0.0368005 0.9926409 -0.0368005 0.9926409 -0.0368005 0.0073591 0.0368005
3880000000 0.0074365 0.0370208 0.9925635 -0.0370208 0.9925635 -0.0370208 0.0074365 0.0370208
3901000000 0.0075140 0.0372397 0.9924860 -0.0372397 0.9924860 -0.0372397 0.0075140 0.0372397
3922000000 0.0075915 0.0374571 0.9924085 -0.0374571 0.9924085 -0.0374571 0.0075915 0.0374571
3943000000 0.0076691 0.0376732 0.9923309 -0.0376732 0.9923309 -0.0376732 0.0076691 0.0376732
3964000000 0.0077466 0.0378878 0.9922534 -0.0378878 0.9922534 -0.0378878 0.0077466 0.0378878
3985000000 0.0078241 0.0381010 0.9921759 -0.0381010 0.9921759 -0.0381010 0.0078241 0.0381010
4006000000 0.0079015 0.0383127 0.9920985 -0.0383127 0.9920985 -0.0383127 0.0079015 0.0383127
4027000000 0.0079788 0.0385231 0.9920212 -0.0385231 0.9920212 -0.0385231 0.0079788 0.0385231
4048000000 0.0080560 0.0387320 0.9919440 -0.0387320 0.9919440 -0.0387320 0.0080560 0.0387320
4069000000 0.0081331 0.0389396 0.9918669 -0.0389396 0.9918669 -0.0389396 0.0081331 0.0389396
4090000000 0.0082100 0.0391457 0.9917900 -0.0391457 0.9917900 -0.0391457 0.0082100 0.0391457
4111000000 0.0082866 0.0393504 0.9917134 -0.0393504 0.9917134 -0.0393504 0.0082866 0.0393504
4132000000 0.0083630 0.0395537 0.9916370 -0.0395537 0.9916370 -0.0395537 0.0083630 0.0395537
4153000000 0.0084392 0.0397557 0.9915608 -0.0397557 0.9915608 -0.0397557 0.0084392 0.0397557
4174000000 0.0085150 0.0399562 0.9914850 -0.0399562 0.9914850 -0.0399562 0.0085150 0.0399562
4195000000 0.0085905 0.0401554 0.9914095 -0.0401554 0.9914095 -0.0401554 0.0085905 0.0401554
4216000000 0.0086656 0.0403531 0.9913344 -0.0403531 0.9913344 -0.0403531 0.0086656 0.0403531
4237000000 0.0087404 0.0405496 0.9912596 -0.0405496 0.9912596 -0.0405496 0.0087404 0.0405496
4258000000 0.0088147 0.0407446 0.9911853 -0.0407446 0.9911853 -0.0407446 0.0088147 0.0407446
4279000000 0.0088886 0.0409384 0.9911114 -0.0409384 0.9911114 -0.0409384 0.0088886 0.0409384
4300000000 0.0089620 0.0411308 0.9910380 -0.0411308 0.9910380 -0.0411308 0.0089620 0.0411308
4321000000 0.0090349 0.0413219 0.9909651 -0.0413219 0.9909651 -0.0413219 0.0090349 0.0413219
4342000000 0.0091072 0.0415117 0.9908928 -0.0415117 0.9908928 -0.0415117 0.0091072 0.0415117
4363000000 0.0091789 0.0417002 0.9908211 -0.0417002 0.9908211 -0.0417002 0.0091789 0.0417002
4384000000 0.0092501 0.0418874 0.9907499 -0.0418874 0.9907499 -0.0418874 0.0092501 0.0418874
4405000000 0.0093206 0.0420734 0.9906794 -0.0420734 0.9906794 -0.0420734 0.0093206 0.0420734
4426000000 0.0093905 0.0422582 0.9906095 -0.0422582 0.9906095 -0.0422582 0.0093905 0.0422582
4447000000 0.0094596 0.0424417 0.9905404 -0.0424417 0.9905404 -0.0424417 0.0094596 0.0424417
4468000000 0.0095281 0.0426241 0.9904719 -0.0426241 0.9904719 -0.0426241 0.0095281 0.0426241
4489000000 0.0095957 0.0428053 0.9904043 -0.0428053 0.9904043 -0.0428053 0.0095957 0.0428053
4510000000 0.0096627 0.0429854 0.9903373 -0.0429854 0.9903373 -0.0429854 0.0096627 0.0429854
