!Murata Part Number: GRM0222C1H8R4WA03
!These Parameters are Measured in Series Mode Connection
!Data Generated on Mar 30, 2021
!       o--ll--o
!Port1            Port2
!       o------o
!Operation Temp=25[degC], DC Bias Voltage=0[V]
!Freq. Start=100[MHz] Stop=9[GHz] 401[Steps]
# Hz S RI R 50
!Freq.(Hz) S11(Real) S11(Imag) S21(Real) S21(Imag) S12(Real) S12(Imag) S22(Real) S22(Imag)
100000000 0.7817611 -0.4126898 0.2182389 0.4126898 0.2182389 0.4126898 0.7817611 -0.4126898
121000000 0.7097862 -0.4534234 0.2902138 0.4534234 0.2902138 0.4534234 0.7097862 -0.4534234
142000000 0.6396468 -0.4795879 0.3603532 0.4795879 0.3603532 0.4795879 0.6396468 -0.4795879
163000000 0.5738252 -0.4939267 0.4261748 0.4939267 0.4261748 0.4939267 0.5738252 -0.4939267
184000000 0.5136282 -0.4991421 0.4863718 0.4991421 0.4863718 0.4991421 0.5136282 -0.4991421
205000000 0.4595222 -0.4976069 0.5404778 0.4976069 0.5404778 0.4976069 0.4595222 -0.4976069
226000000 0.4114373 -0.4912614 0.5885627 0.4912614 0.5885627 0.4912614 0.4114373 -0.4912614
247000000 0.3690002 -0.4816195 0.6309998 0.4816195 0.6309998 0.4816195 0.3690002 -0.4816195
268000000 0.3316915 -0.4698234 0.6683085 0.4698234 0.6683085 0.4698234 0.3316915 -0.4698234
289000000 0.2989453 -0.4567143 0.7010547 0.4567143 0.7010547 0.4567143 0.2989453 -0.4567143
310000000 0.2702057 -0.4428992 0.7297943 0.4428992 0.7297943 0.4428992 0.2702057 -0.4428992
331000000 0.2449565 -0.4288082 0.7550435 0.4288082 0.7550435 0.4288082 0.2449565 -0.4288082
352000000 0.2227344 -0.4147404 0.7772656 0.4147404 0.7772656 0.4147404 0.2227344 -0.4147404
373000000 0.2031315 -0.4008993 0.7968685 0.4008993 0.7968685 0.4008993 0.2031315 -0.4008993
394000000 0.1857936 -0.3874193 0.8142064 0.3874193 0.8142064 0.3874193 0.1857936 -0.3874193
415000000 0.1704156 -0.3743849 0.8295844 0.3743849 0.8295844 0.3743849 0.1704156 -0.3743849
436000000 0.1567359 -0.3618456 0.8432641 0.3618456 0.8432641 0.3618456 0.1567359 -0.3618456
457000000 0.1445306 -0.3498262 0.8554694 0.3498262 0.8554694 0.3498262 0.1445306 -0.3498262
478000000 0.1336083 -0.3383341 0.8663917 0.3383341 0.8663917 0.3383341 0.1336083 -0.3383341
499000000 0.1238054 -0.3273649 0.8761946 0.3273649 0.8761946 0.3273649 0.1238054 -0.3273649
520000000 0.1149819 -0.3169065 0.8850181 0.3169065 0.8850181 0.3169065 0.1149819 -0.3169065
541000000 0.1070176 -0.3069414 0.8929824 0.3069414 0.8929824 0.3069414 0.1070176 -0.3069414
562000000 0.0998093 -0.2974493 0.9001907 0.2974493 0.9001907 0.2974493 0.0998093 -0.2974493
583000000 0.0932681 -0.2884080 0.9067319 0.2884080 0.9067319 0.2884080 0.0932681 -0.2884080
604000000 0.0873173 -0.2797946 0.9126827 0.2797946 0.9126827 0.2797946 0.0873173 -0.2797946
625000000 0.0818903 -0.2715861 0.9181097 0.2715861 0.9181097 0.2715861 0.0818903 -0.2715861
646000000 0.0769295 -0.2637600 0.9230705 0.2637600 0.9230705 0.2637600 0.0769295 -0.2637600
667000000 0.0723846 -0.2562946 0.9276154 0.2562946 0.9276154 0.2562946 0.0723846 -0.2562946
688000000 0.0682118 -0.2491688 0.9317882 0.2491688 0.9317882 0.2491688 0.0682118 -0.2491688
709000000 0.0643726 -0.2423629 0.9356274 0.2423629 0.9356274 0.2423629 0.0643726 -0.2423629
730000000 0.0608335 -0.2358579 0.9391665 0.2358579 0.9391665 0.2358579 0.0608335 -0.2358579
751000000 0.0575647 -0.2296361 0.9424353 0.2296361 0.9424353 0.2296361 0.0575647 -0.2296361
772000000 0.0545401 -0.2236808 0.9454599 0.2236808 0.9454599 0.2236808 0.0545401 -0.2236808
793000000 0.0517365 -0.2179764 0.9482635 0.2179764 0.9482635 0.2179764 0.0517365 -0.2179764
814000000 0.0491335 -0.2125083 0.9508665 0.2125083 0.9508665 0.2125083 0.0491335 -0.2125083
835000000 0.0467128 -0.2072628 0.9532872 0.2072628 0.9532872 0.2072628 0.0467128 -0.2072628
856000000 0.0444581 -0.2022272 0.9555419 0.2022272 0.9555419 0.2022272 0.0444581 -0.2022272
877000000 0.0423549 -0.1973894 0.9576451 0.1973894 0.9576451 0.1973894 0.0423549 -0.1973894
898000000 0.0403904 -0.1927383 0.9596096 0.1927383 0.9596096 0.1927383 0.0403904 -0.1927383
919000000 0.0385527 -0.1882636 0.9614473 0.1882636 0.9614473 0.1882636 0.0385527 -0.1882636
940000000 0.0368315 -0.1839556 0.9631685 0.1839556 0.9631685 0.1839556 0.0368315 -0.1839556
961000000 0.0352173 -0.1798051 0.9647827 0.1798051 0.9647827 0.1798051 0.0352173 -0.1798051
982000000 0.0337017 -0.1758038 0.9662983 0.1758038 0.9662983 0.1758038 0.0337017 -0.1758038
1003000000 0.0322769 -0.1719437 0.9677231 0.1719437 0.9677231 0.1719437 0.0322769 -0.1719437
1024000000 0.0309361 -0.1682174 0.9690639 0.1682174 0.9690639 0.1682174 0.0309361 -0.1682174
1045000000 0.0296728 -0.1646179 0.9703272 0.1646179 0.9703272 0.1646179 0.0296728 -0.1646179
1066000000 0.0284814 -0.1611389 0.9715186 0.1611389 0.9715186 0.1611389 0.0284814 -0.1611389
1087000000 0.0273566 -0.1577743 0.9726434 0.1577743 0.9726434 0.1577743 0.0273566 -0.1577743
1108000000 0.0262937 -0.1545183 0.9737063 0.1545183 0.9737063 0.1545183 0.0262937 -0.1545183
1129000000 0.0252883 -0.1513657 0.9747117 0.1513657 0.9747117 0.1513657 0.0252883 -0.1513657
1150000000 0.0243365 -0.1483113 0.9756635 0.1483113 0.9756635 0.1483113 0.0243365 -0.1483113
1171000000 0.0234346 -0.1453506 0.9765654 0.1453506 0.9765654 0.1453506 0.0234346 -0.1453506
1192000000 0.0225794 -0.1424791 0.9774206 0.1424791 0.9774206 0.1424791 0.0225794 -0.1424791
1213000000 0.0217676 -0.1396927 0.9782324 0.1396927 0.9782324 0.1396927 0.0217676 -0.1396927
1234000000 0.0209966 -0.1369875 0.9790034 0.1369875 0.9790034 0.1369875 0.0209966 -0.1369875
1255000000 0.0202637 -0.1343597 0.9797363 0.1343597 0.9797363 0.1343597 0.0202637 -0.1343597
1276000000 0.0195665 -0.1318059 0.9804335 0.1318059 0.9804335 0.1318059 0.0195665 -0.1318059
1297000000 0.0189028 -0.1293228 0.9810972 0.1293228 0.9810972 0.1293228 0.0189028 -0.1293228
1318000000 0.0182706 -0.1269074 0.9817294 0.1269074 0.9817294 0.1269074 0.0182706 -0.1269074
1339000000 0.0176679 -0.1245567 0.9823321 0.1245567 0.9823321 0.1245567 0.0176679 -0.1245567
1360000000 0.0170932 -0.1222681 0.9829068 0.1222681 0.9829068 0.1222681 0.0170932 -0.1222681
1381000000 0.0165446 -0.1200388 0.9834554 0.1200388 0.9834554 0.1200388 0.0165446 -0.1200388
1402000000 0.0160208 -0.1178664 0.9839792 0.1178664 0.9839792 0.1178664 0.0160208 -0.1178664
1423000000 0.0155202 -0.1157486 0.9844798 0.1157486 0.9844798 0.1157486 0.0155202 -0.1157486
1444000000 0.0150417 -0.1136832 0.9849583 0.1136832 0.9849583 0.1136832 0.0150417 -0.1136832
1465000000 0.0145840 -0.1116680 0.9854160 0.1116680 0.9854160 0.1116680 0.0145840 -0.1116680
1486000000 0.0141459 -0.1097012 0.9858541 0.1097012 0.9858541 0.1097012 0.0141459 -0.1097012
1507000000 0.0137265 -0.1077808 0.9862735 0.1077808 0.9862735 0.1077808 0.0137265 -0.1077808
1528000000 0.0133247 -0.1059050 0.9866753 0.1059050 0.9866753 0.1059050 0.0133247 -0.1059050
1549000000 0.0129396 -0.1040721 0.9870604 0.1040721 0.9870604 0.1040721 0.0129396 -0.1040721
1570000000 0.0125703 -0.1022806 0.9874297 0.1022806 0.9874297 0.1022806 0.0125703 -0.1022806
1591000000 0.0122161 -0.1005288 0.9877839 0.1005288 0.9877839 0.1005288 0.0122161 -0.1005288
1612000000 0.0118762 -0.0988154 0.9881238 0.0988154 0.9881238 0.0988154 0.0118762 -0.0988154
1633000000 0.0115499 -0.0971388 0.9884501 0.0971388 0.9884501 0.0971388 0.0115499 -0.0971388
1654000000 0.0112365 -0.0954979 0.9887635 0.0954979 0.9887635 0.0954979 0.0112365 -0.0954979
1675000000 0.0109354 -0.0938912 0.9890646 0.0938912 0.9890646 0.0938912 0.0109354 -0.0938912
1696000000 0.0106459 -0.0923177 0.9893541 0.0923177 0.9893541 0.0923177 0.0106459 -0.0923177
1717000000 0.0103677 -0.0907762 0.9896323 0.0907762 0.9896323 0.0907762 0.0103677 -0.0907762
1738000000 0.0101001 -0.0892655 0.9898999 0.0892655 0.9898999 0.0892655 0.0101001 -0.0892655
1759000000 0.0098426 -0.0877846 0.9901574 0.0877846 0.9901574 0.0877846 0.0098426 -0.0877846
1780000000 0.0095948 -0.0863326 0.9904052 0.0863326 0.9904052 0.0863326 0.0095948 -0.0863326
1801000000 0.0093562 -0.0849084 0.9906438 0.0849084 0.9906438 0.0849084 0.0093562 -0.0849084
1822000000 0.0091265 -0.0835111 0.9908735 0.0835111 0.9908735 0.0835111 0.0091265 -0.0835111
1843000000 0.0089053 -0.0821399 0.9910947 0.0821399 0.9910947 0.0821399 0.0089053 -0.0821399
1864000000 0.0086921 -0.0807940 0.9913079 0.0807940 0.9913079 0.0807940 0.0086921 -0.0807940
1885000000 0.0084867 -0.0794724 0.9915133 0.0794724 0.9915133 0.0794724 0.0084867 -0.0794724
1906000000 0.0082886 -0.0781745 0.9917114 0.0781745 0.9917114 0.0781745 0.0082886 -0.0781745
1927000000 0.0080977 -0.0768994 0.9919023 0.0768994 0.9919023 0.0768994 0.0080977 -0.0768994
1948000000 0.0079136 -0.0756466 0.9920864 0.0756466 0.9920864 0.0756466 0.0079136 -0.0756466
1969000000 0.0077360 -0.0744153 0.9922640 0.0744153 0.9922640 0.0744153 0.0077360 -0.0744153
1990000000 0.0075646 -0.0732048 0.9924354 0.0732048 0.9924354 0.0732048 0.0075646 -0.0732048
2011000000 0.0073993 -0.0720146 0.9926007 0.0720146 0.9926007 0.0720146 0.0073993 -0.0720146
2032000000 0.0072397 -0.0708440 0.9927603 0.0708440 0.9927603 0.0708440 0.0072397 -0.0708440
2053000000 0.0070857 -0.0696924 0.9929143 0.0696924 0.9929143 0.0696924 0.0070857 -0.0696924
2074000000 0.0069369 -0.0685594 0.9930631 0.0685594 0.9930631 0.0685594 0.0069369 -0.0685594
2095000000 0.0067934 -0.0674443 0.9932066 0.0674443 0.9932066 0.0674443 0.0067934 -0.0674443
2116000000 0.0066547 -0.0663466 0.9933453 0.0663466 0.9933453 0.0663466 0.0066547 -0.0663466
2137000000 0.0065208 -0.0652659 0.9934792 0.0652659 0.9934792 0.0652659 0.0065208 -0.0652659
2158000000 0.0063914 -0.0642017 0.9936086 0.0642017 0.9936086 0.0642017 0.0063914 -0.0642017
2179000000 0.0062664 -0.0631535 0.9937336 0.0631535 0.9937336 0.0631535 0.0062664 -0.0631535
2200000000 0.0061457 -0.0621209 0.9938543 0.0621209 0.9938543 0.0621209 0.0061457 -0.0621209
2221000000 0.0060290 -0.0611034 0.9939710 0.0611034 0.9939710 0.0611034 0.0060290 -0.0611034
2242000000 0.0059163 -0.0601006 0.9940837 0.0601006 0.9940837 0.0601006 0.0059163 -0.0601006
2263000000 0.0058074 -0.0591122 0.9941926 0.0591122 0.9941926 0.0591122 0.0058074 -0.0591122
2284000000 0.0057021 -0.0581377 0.9942979 0.0581377 0.9942979 0.0581377 0.0057021 -0.0581377
2305000000 0.0056004 -0.0571768 0.9943996 0.0571768 0.9943996 0.0571768 0.0056004 -0.0571768
2326000000 0.0055020 -0.0562292 0.9944980 0.0562292 0.9944980 0.0562292 0.0055020 -0.0562292
2347000000 0.0054070 -0.0552945 0.9945930 0.0552945 0.9945930 0.0552945 0.0054070 -0.0552945
2368000000 0.0053151 -0.0543723 0.9946849 0.0543723 0.9946849 0.0543723 0.0053151 -0.0543723
2389000000 0.0052264 -0.0534623 0.9947736 0.0534623 0.9947736 0.0534623 0.0052264 -0.0534623
2410000000 0.0051406 -0.0525643 0.9948594 0.0525643 0.9948594 0.0525643 0.0051406 -0.0525643
2431000000 0.0050576 -0.0516779 0.9949424 0.0516779 0.9949424 0.0516779 0.0050576 -0.0516779
2452000000 0.0049775 -0.0508029 0.9950225 0.0508029 0.9950225 0.0508029 0.0049775 -0.0508029
2473000000 0.0049000 -0.0499389 0.9951000 0.0499389 0.9951000 0.0499389 0.0049000 -0.0499389
2494000000 0.0048252 -0.0490857 0.9951748 0.0490857 0.9951748 0.0490857 0.0048252 -0.0490857
2515000000 0.0047528 -0.0482430 0.9952472 0.0482430 0.9952472 0.0482430 0.0047528 -0.0482430
2536000000 0.0046830 -0.0474106 0.9953170 0.0474106 0.9953170 0.0474106 0.0046830 -0.0474106
2557000000 0.0046155 -0.0465883 0.9953845 0.0465883 0.9953845 0.0465883 0.0046155 -0.0465883
2578000000 0.0045502 -0.0457757 0.9954498 0.0457757 0.9954498 0.0457757 0.0045502 -0.0457757
2599000000 0.0044872 -0.0449727 0.9955128 0.0449727 0.9955128 0.0449727 0.0044872 -0.0449727
2620000000 0.0044264 -0.0441790 0.9955736 0.0441790 0.9955736 0.0441790 0.0044264 -0.0441790
2641000000 0.0043677 -0.0433945 0.9956323 0.0433945 0.9956323 0.0433945 0.0043677 -0.0433945
2662000000 0.0043109 -0.0426189 0.9956891 0.0426189 0.9956891 0.0426189 0.0043109 -0.0426189
2683000000 0.0042562 -0.0418520 0.9957438 0.0418520 0.9957438 0.0418520 0.0042562 -0.0418520
2704000000 0.0042034 -0.0410936 0.9957966 0.0410936 0.9957966 0.0410936 0.0042034 -0.0410936
2725000000 0.0041524 -0.0403435 0.9958476 0.0403435 0.9958476 0.0403435 0.0041524 -0.0403435
2746000000 0.0041032 -0.0396016 0.9958968 0.0396016 0.9958968 0.0396016 0.0041032 -0.0396016
2767000000 0.0040558 -0.0388676 0.9959442 0.0388676 0.9959442 0.0388676 0.0040558 -0.0388676
2788000000 0.0040100 -0.0381414 0.9959900 0.0381414 0.9959900 0.0381414 0.0040100 -0.0381414
2809000000 0.0039660 -0.0374229 0.9960340 0.0374229 0.9960340 0.0374229 0.0039660 -0.0374229
2830000000 0.0039235 -0.0367118 0.9960765 0.0367118 0.9960765 0.0367118 0.0039235 -0.0367118
2851000000 0.0038826 -0.0360079 0.9961174 0.0360079 0.9961174 0.0360079 0.0038826 -0.0360079
2872000000 0.0038432 -0.0353113 0.9961568 0.0353113 0.9961568 0.0353113 0.0038432 -0.0353113
2893000000 0.0038053 -0.0346216 0.9961947 0.0346216 0.9961947 0.0346216 0.0038053 -0.0346216
2914000000 0.0037689 -0.0339387 0.9962311 0.0339387 0.9962311 0.0339387 0.0037689 -0.0339387
2935000000 0.0037338 -0.0332626 0.9962662 0.0332626 0.9962662 0.0332626 0.0037338 -0.0332626
2956000000 0.0037001 -0.0325930 0.9962999 0.0325930 0.9962999 0.0325930 0.0037001 -0.0325930
2977000000 0.0036677 -0.0319298 0.9963323 0.0319298 0.9963323 0.0319298 0.0036677 -0.0319298
2998000000 0.0036367 -0.0312729 0.9963633 0.0312729 0.9963633 0.0312729 0.0036367 -0.0312729
3019000000 0.0036068 -0.0306222 0.9963932 0.0306222 0.9963932 0.0306222 0.0036068 -0.0306222
3040000000 0.0035782 -0.0299775 0.9964218 0.0299775 0.9964218 0.0299775 0.0035782 -0.0299775
3061000000 0.0035509 -0.0293388 0.9964491 0.0293388 0.9964491 0.0293388 0.0035509 -0.0293388
3082000000 0.0035246 -0.0287058 0.9964754 0.0287058 0.9964754 0.0287058 0.0035246 -0.0287058
3103000000 0.0034995 -0.0280785 0.9965005 0.0280785 0.9965005 0.0280785 0.0034995 -0.0280785
3124000000 0.0034755 -0.0274569 0.9965245 0.0274569 0.9965245 0.0274569 0.0034755 -0.0274569
3145000000 0.0034526 -0.0268407 0.9965474 0.0268407 0.9965474 0.0268407 0.0034526 -0.0268407
3166000000 0.0034308 -0.0262298 0.9965692 0.0262298 0.9965692 0.0262298 0.0034308 -0.0262298
3187000000 0.0034099 -0.0256242 0.9965901 0.0256242 0.9965901 0.0256242 0.0034099 -0.0256242
3208000000 0.0033901 -0.0250238 0.9966099 0.0250238 0.9966099 0.0250238 0.0033901 -0.0250238
3229000000 0.0033713 -0.0244285 0.9966287 0.0244285 0.9966287 0.0244285 0.0033713 -0.0244285
3250000000 0.0033534 -0.0238381 0.9966466 0.0238381 0.9966466 0.0238381 0.0033534 -0.0238381
3271000000 0.0033364 -0.0232526 0.9966636 0.0232526 0.9966636 0.0232526 0.0033364 -0.0232526
3292000000 0.0033204 -0.0226718 0.9966796 0.0226718 0.9966796 0.0226718 0.0033204 -0.0226718
3313000000 0.0033052 -0.0220958 0.9966948 0.0220958 0.9966948 0.0220958 0.0033052 -0.0220958
3334000000 0.0032909 -0.0215244 0.9967091 0.0215244 0.9967091 0.0215244 0.0032909 -0.0215244
3355000000 0.0032775 -0.0209575 0.9967225 0.0209575 0.9967225 0.0209575 0.0032775 -0.0209575
3376000000 0.0032649 -0.0203951 0.9967351 0.0203951 0.9967351 0.0203951 0.0032649 -0.0203951
3397000000 0.0032531 -0.0198370 0.9967469 0.0198370 0.9967469 0.0198370 0.0032531 -0.0198370
3418000000 0.0032421 -0.0192832 0.9967579 0.0192832 0.9967579 0.0192832 0.0032421 -0.0192832
3439000000 0.0032319 -0.0187336 0.9967681 0.0187336 0.9967681 0.0187336 0.0032319 -0.0187336
3460000000 0.0032224 -0.0181882 0.9967776 0.0181882 0.9967776 0.0181882 0.0032224 -0.0181882
3481000000 0.0032137 -0.0176468 0.9967863 0.0176468 0.9967863 0.0176468 0.0032137 -0.0176468
3502000000 0.0032057 -0.0171094 0.9967943 0.0171094 0.9967943 0.0171094 0.0032057 -0.0171094
3523000000 0.0031984 -0.0165760 0.9968016 0.0165760 0.9968016 0.0165760 0.0031984 -0.0165760
3544000000 0.0031918 -0.0160463 0.9968082 0.0160463 0.9968082 0.0160463 0.0031918 -0.0160463
3565000000 0.0031858 -0.0155205 0.9968142 0.0155205 0.9968142 0.0155205 0.0031858 -0.0155205
3586000000 0.0031806 -0.0149985 0.9968194 0.0149985 0.9968194 0.0149985 0.0031806 -0.0149985
3607000000 0.0031760 -0.0144800 0.9968240 0.0144800 0.9968240 0.0144800 0.0031760 -0.0144800
3628000000 0.0031720 -0.0139652 0.9968280 0.0139652 0.9968280 0.0139652 0.0031720 -0.0139652
3649000000 0.0031687 -0.0134539 0.9968313 0.0134539 0.9968313 0.0134539 0.0031687 -0.0134539
3670000000 0.0031659 -0.0129461 0.9968341 0.0129461 0.9968341 0.0129461 0.0031659 -0.0129461
3691000000 0.0031638 -0.0124418 0.9968362 0.0124418 0.9968362 0.0124418 0.0031638 -0.0124418
3712000000 0.0031622 -0.0119408 0.9968378 0.0119408 0.9968378 0.0119408 0.0031622 -0.0119408
3733000000 0.0031613 -0.0114431 0.9968387 0.0114431 0.9968387 0.0114431 0.0031613 -0.0114431
3754000000 0.0031608 -0.0109486 0.9968392 0.0109486 0.9968392 0.0109486 0.0031608 -0.0109486
3775000000 0.0031610 -0.0104574 0.9968390 0.0104574 0.9968390 0.0104574 0.0031610 -0.0104574
3796000000 0.0031617 -0.0099694 0.9968383 0.0099694 0.9968383 0.0099694 0.0031617 -0.0099694
3817000000 0.0031629 -0.0094844 0.9968371 0.0094844 0.9968371 0.0094844 0.0031629 -0.0094844
3838000000 0.0031646 -0.0090025 0.9968354 0.0090025 0.9968354 0.0090025 0.0031646 -0.0090025
3859000000 0.0031668 -0.0085236 0.9968332 0.0085236 0.9968332 0.0085236 0.0031668 -0.0085236
3880000000 0.0031696 -0.0080477 0.9968304 0.0080477 0.9968304 0.0080477 0.0031696 -0.0080477
3901000000 0.0031728 -0.0075746 0.9968272 0.0075746 0.9968272 0.0075746 0.0031728 -0.0075746
3922000000 0.0031765 -0.0071045 0.9968235 0.0071045 0.9968235 0.0071045 0.0031765 -0.0071045
3943000000 0.0031807 -0.0066371 0.9968193 0.0066371 0.9968193 0.0066371 0.0031807 -0.0066371
3964000000 0.0031853 -0.0061726 0.9968147 0.0061726 0.9968147 0.0061726 0.0031853 -0.0061726
3985000000 0.0031904 -0.0057108 0.9968096 0.0057108 0.9968096 0.0057108 0.0031904 -0.0057108
4006000000 0.0031959 -0.0052517 0.9968041 0.0052517 0.9968041 0.0052517 0.0031959 -0.0052517
4027000000 0.0032019 -0.0047952 0.9967981 0.0047952 0.9967981 0.0047952 0.0032019 -0.0047952
4048000000 0.0032083 -0.0043414 0.9967917 0.0043414 0.9967917 0.0043414 0.0032083 -0.0043414
4069000000 0.0032151 -0.0038901 0.9967849 0.0038901 0.9967849 0.0038901 0.0032151 -0.0038901
4090000000 0.0032224 -0.0034414 0.9967776 0.0034414 0.9967776 0.0034414 0.0032224 -0.0034414
4111000000 0.0032300 -0.0029951 0.9967700 0.0029951 0.9967700 0.0029951 0.0032300 -0.0029951
4132000000 0.0032381 -0.0025514 0.9967619 0.0025514 0.9967619 0.0025514 0.0032381 -0.0025514
4153000000 0.0032465 -0.0021100 0.9967535 0.0021100 0.9967535 0.0021100 0.0032465 -0.0021100
4174000000 0.0032553 -0.0016711 0.9967447 0.0016711 0.9967447 0.0016711 0.0032553 -0.0016711
4195000000 0.0032645 -0.0012345 0.9967355 0.0012345 0.9967355 0.0012345 0.0032645 -0.0012345
4216000000 0.0032741 -0.0008002 0.9967259 0.0008002 0.9967259 0.0008002 0.0032741 -0.0008002
4237000000 0.0032841 -0.0003682 0.9967159 0.0003682 0.9967159 0.0003682 0.0032841 -0.0003682
4258000000 0.0032944 0.0000615 0.9967056 -0.0000615 0.9967056 -0.0000615 0.0032944 0.0000615
4279000000 0.0033050 0.0004890 0.9966950 -0.0004890 0.9966950 -0.0004890 0.0033050 0.0004890
4300000000 0.0033160 0.0009143 0.9966840 -0.0009143 0.9966840 -0.0009143 0.0033160 0.0009143
4321000000 0.0033274 0.0013374 0.9966726 -0.0013374 0.9966726 -0.0013374 0.0033274 0.0013374
4342000000 0.0033390 0.0017584 0.9966610 -0.0017584 0.9966610 -0.0017584 0.0033390 0.0017584
4363000000 0.0033510 0.0021773 0.9966490 -0.0021773 0.9966490 -0.0021773 0.0033510 0.0021773
4384000000 0.0033634 0.0025942 0.9966366 -0.0025942 0.9966366 -0.0025942 0.0033634 0.0025942
4405000000 0.0033760 0.0030090 0.9966240 -0.0030090 0.9966240 -0.0030090 0.0033760 0.0030090
4426000000 0.0033890 0.0034217 0.9966110 -0.0034217 0.9966110 -0.0034217 0.0033890 0.0034217
4447000000 0.0034023 0.0038325 0.9965977 -0.0038325 0.9965977 -0.0038325 0.0034023 0.0038325
4468000000 0.0034159 0.0042413 0.9965841 -0.0042413 0.9965841 -0.0042413 0.0034159 0.0042413
4489000000 0.0034297 0.0046482 0.9965703 -0.0046482 0.9965703 -0.0046482 0.0034297 0.0046482
4510000000 0.0034439 0.0050532 0.9965561 -0.0050532 0.9965561 -0.0050532 0.0034439 0.0050532
