!Murata Part Number: GRM0222C1H9R9CA03
!These Parameters are Measured in Series Mode Connection
!Data Generated on Mar 30, 2021
!       o--ll--o
!Port1            Port2
!       o------o
!Operation Temp=25[degC], DC Bias Voltage=0[V]
!Freq. Start=100[MHz] Stop=9[GHz] 401[Steps]
# Hz S RI R 50
!Freq.(Hz) S11(Real) S11(Imag) S21(Real) S21(Imag) S12(Real) S12(Imag) S22(Real) S22(Imag)
100000000 0.7205983 -0.4483106 0.2794017 0.4483106 0.2794017 0.4483106 0.7205983 -0.4483106
121000000 0.6377959 -0.4801592 0.3622041 0.4801592 0.3622041 0.4801592 0.6377959 -0.4801592
142000000 0.5610158 -0.4957010 0.4389842 0.4957010 0.4389842 0.4957010 0.5610158 -0.4957010
163000000 0.4922298 -0.4992932 0.5077702 0.4992932 0.5077702 0.4992932 0.4922298 -0.4992932
184000000 0.4319137 -0.4946114 0.5680863 0.4946114 0.5680863 0.4946114 0.4319137 -0.4946114
205000000 0.3796912 -0.4844934 0.6203088 0.4844934 0.6203088 0.4844934 0.3796912 -0.4844934
226000000 0.3347805 -0.4710111 0.6652195 0.4710111 0.6652195 0.4710111 0.3347805 -0.4710111
247000000 0.2962645 -0.4556198 0.7037355 0.4556198 0.7037355 0.4556198 0.2962645 -0.4556198
268000000 0.2632360 -0.4393127 0.7367640 0.4393127 0.7367640 0.4393127 0.2632360 -0.4393127
289000000 0.2348666 -0.4227505 0.7651334 0.4227505 0.7651334 0.4227505 0.2348666 -0.4227505
310000000 0.2104315 -0.4063611 0.7895685 0.4063611 0.7895685 0.4063611 0.2104315 -0.4063611
331000000 0.1893120 -0.3904123 0.8106880 0.3904123 0.8106880 0.3904123 0.1893120 -0.3904123
352000000 0.1709874 -0.3750630 0.8290126 0.3750630 0.8290126 0.3750630 0.1709874 -0.3750630
373000000 0.1550230 -0.3603997 0.8449770 0.3603997 0.8449770 0.3603997 0.1550230 -0.3603997
394000000 0.1410569 -0.3464602 0.8589431 0.3464602 0.8589431 0.3464602 0.1410569 -0.3464602
415000000 0.1287884 -0.3332513 0.8712116 0.3332513 0.8712116 0.3332513 0.1287884 -0.3332513
436000000 0.1179673 -0.3207597 0.8820327 0.3207597 0.8820327 0.3207597 0.1179673 -0.3207597
457000000 0.1083852 -0.3089599 0.8916148 0.3089599 0.8916148 0.3089599 0.1083852 -0.3089599
478000000 0.0998680 -0.2978194 0.9001320 0.2978194 0.9001320 0.2978194 0.0998680 -0.2978194
499000000 0.0922694 -0.2873020 0.9077306 0.2873020 0.9077306 0.2873020 0.0922694 -0.2873020
520000000 0.0854667 -0.2773703 0.9145333 0.2773703 0.9145333 0.2773703 0.0854667 -0.2773703
541000000 0.0793561 -0.2679869 0.9206439 0.2679869 0.9206439 0.2679869 0.0793561 -0.2679869
562000000 0.0738498 -0.2591156 0.9261502 0.2591156 0.9261502 0.2591156 0.0738498 -0.2591156
583000000 0.0688728 -0.2507216 0.9311272 0.2507216 0.9311272 0.2507216 0.0688728 -0.2507216
604000000 0.0643612 -0.2427722 0.9356388 0.2427722 0.9356388 0.2427722 0.0643612 -0.2427722
625000000 0.0602603 -0.2352368 0.9397397 0.2352368 0.9397397 0.2352368 0.0602603 -0.2352368
646000000 0.0565229 -0.2280867 0.9434771 0.2280867 0.9434771 0.2280867 0.0565229 -0.2280867
667000000 0.0531083 -0.2212954 0.9468917 0.2212954 0.9468917 0.2212954 0.0531083 -0.2212954
688000000 0.0499811 -0.2148382 0.9500189 0.2148382 0.9500189 0.2148382 0.0499811 -0.2148382
709000000 0.0471109 -0.2086925 0.9528891 0.2086925 0.9528891 0.2086925 0.0471109 -0.2086925
730000000 0.0444707 -0.2028372 0.9555293 0.2028372 0.9555293 0.2028372 0.0444707 -0.2028372
751000000 0.0420371 -0.1972532 0.9579629 0.1972532 0.9579629 0.1972532 0.0420371 -0.1972532
772000000 0.0397896 -0.1919224 0.9602104 0.1919224 0.9602104 0.1919224 0.0397896 -0.1919224
793000000 0.0377101 -0.1868286 0.9622899 0.1868286 0.9622899 0.1868286 0.0377101 -0.1868286
814000000 0.0357825 -0.1819565 0.9642175 0.1819565 0.9642175 0.1819565 0.0357825 -0.1819565
835000000 0.0339928 -0.1772921 0.9660072 0.1772921 0.9660072 0.1772921 0.0339928 -0.1772921
856000000 0.0323284 -0.1728225 0.9676716 0.1728225 0.9676716 0.1728225 0.0323284 -0.1728225
877000000 0.0307781 -0.1685359 0.9692219 0.1685359 0.9692219 0.1685359 0.0307781 -0.1685359
898000000 0.0293320 -0.1644211 0.9706680 0.1644211 0.9706680 0.1644211 0.0293320 -0.1644211
919000000 0.0279810 -0.1604680 0.9720190 0.1604680 0.9720190 0.1604680 0.0279810 -0.1604680
940000000 0.0267173 -0.1566671 0.9732827 0.1566671 0.9732827 0.1566671 0.0267173 -0.1566671
961000000 0.0255337 -0.1530096 0.9744663 0.1530096 0.9744663 0.1530096 0.0255337 -0.1530096
982000000 0.0244237 -0.1494874 0.9755763 0.1494874 0.9755763 0.1494874 0.0244237 -0.1494874
1003000000 0.0233814 -0.1460930 0.9766186 0.1460930 0.9766186 0.1460930 0.0233814 -0.1460930
1024000000 0.0224016 -0.1428194 0.9775984 0.1428194 0.9775984 0.1428194 0.0224016 -0.1428194
1045000000 0.0214796 -0.1396599 0.9785204 0.1396599 0.9785204 0.1396599 0.0214796 -0.1396599
1066000000 0.0206110 -0.1366085 0.9793890 0.1366085 0.9793890 0.1366085 0.0206110 -0.1366085
1087000000 0.0197919 -0.1336596 0.9802081 0.1336596 0.9802081 0.1336596 0.0197919 -0.1336596
1108000000 0.0190186 -0.1308079 0.9809814 0.1308079 0.9809814 0.1308079 0.0190186 -0.1308079
1129000000 0.0182881 -0.1280483 0.9817119 0.1280483 0.9817119 0.1280483 0.0182881 -0.1280483
1150000000 0.0175972 -0.1253763 0.9824028 0.1253763 0.9824028 0.1253763 0.0175972 -0.1253763
1171000000 0.0169432 -0.1227876 0.9830568 0.1227876 0.9830568 0.1227876 0.0169432 -0.1227876
1192000000 0.0163238 -0.1202780 0.9836762 0.1202780 0.9836762 0.1202780 0.0163238 -0.1202780
1213000000 0.0157364 -0.1178439 0.9842636 0.1178439 0.9842636 0.1178439 0.0157364 -0.1178439
1234000000 0.0151792 -0.1154816 0.9848208 0.1154816 0.9848208 0.1154816 0.0151792 -0.1154816
1255000000 0.0146500 -0.1131877 0.9853500 0.1131877 0.9853500 0.1131877 0.0146500 -0.1131877
1276000000 0.0141472 -0.1109592 0.9858528 0.1109592 0.9858528 0.1109592 0.0141472 -0.1109592
1297000000 0.0136691 -0.1087931 0.9863309 0.1087931 0.9863309 0.1087931 0.0136691 -0.1087931
1318000000 0.0132142 -0.1066865 0.9867858 0.1066865 0.9867858 0.1066865 0.0132142 -0.1066865
1339000000 0.0127811 -0.1046369 0.9872189 0.1046369 0.9872189 0.1046369 0.0127811 -0.1046369
1360000000 0.0123685 -0.1026417 0.9876315 0.1026417 0.9876315 0.1026417 0.0123685 -0.1026417
1381000000 0.0119751 -0.1006987 0.9880249 0.1006987 0.9880249 0.1006987 0.0119751 -0.1006987
1402000000 0.0115999 -0.0988057 0.9884001 0.0988057 0.9884001 0.0988057 0.0115999 -0.0988057
1423000000 0.0112418 -0.0969604 0.9887582 0.0969604 0.9887582 0.0969604 0.0112418 -0.0969604
1444000000 0.0108999 -0.0951611 0.9891001 0.0951611 0.9891001 0.0951611 0.0108999 -0.0951611
1465000000 0.0105732 -0.0934057 0.9894268 0.0934057 0.9894268 0.0934057 0.0105732 -0.0934057
1486000000 0.0102610 -0.0916926 0.9897390 0.0916926 0.9897390 0.0916926 0.0102610 -0.0916926
1507000000 0.0099624 -0.0900200 0.9900376 0.0900200 0.9900376 0.0900200 0.0099624 -0.0900200
1528000000 0.0096768 -0.0883864 0.9903232 0.0883864 0.9903232 0.0883864 0.0096768 -0.0883864
1549000000 0.0094034 -0.0867902 0.9905966 0.0867902 0.9905966 0.0867902 0.0094034 -0.0867902
1570000000 0.0091415 -0.0852301 0.9908585 0.0852301 0.9908585 0.0852301 0.0091415 -0.0852301
1591000000 0.0088907 -0.0837046 0.9911093 0.0837046 0.9911093 0.0837046 0.0088907 -0.0837046
1612000000 0.0086504 -0.0822125 0.9913496 0.0822125 0.9913496 0.0822125 0.0086504 -0.0822125
1633000000 0.0084199 -0.0807525 0.9915801 0.0807525 0.9915801 0.0807525 0.0084199 -0.0807525
1654000000 0.0081989 -0.0793235 0.9918011 0.0793235 0.9918011 0.0793235 0.0081989 -0.0793235
1675000000 0.0079869 -0.0779244 0.9920131 0.0779244 0.9920131 0.0779244 0.0079869 -0.0779244
1696000000 0.0077835 -0.0765540 0.9922165 0.0765540 0.9922165 0.0765540 0.0077835 -0.0765540
1717000000 0.0075881 -0.0752114 0.9924119 0.0752114 0.9924119 0.0752114 0.0075881 -0.0752114
1738000000 0.0074005 -0.0738956 0.9925995 0.0738956 0.9925995 0.0738956 0.0074005 -0.0738956
1759000000 0.0072204 -0.0726057 0.9927796 0.0726057 0.9927796 0.0726057 0.0072204 -0.0726057
1780000000 0.0070472 -0.0713407 0.9929528 0.0713407 0.9929528 0.0713407 0.0070472 -0.0713407
1801000000 0.0068809 -0.0701000 0.9931191 0.0701000 0.9931191 0.0701000 0.0068809 -0.0701000
1822000000 0.0067209 -0.0688826 0.9932791 0.0688826 0.9932791 0.0688826 0.0067209 -0.0688826
1843000000 0.0065671 -0.0676877 0.9934329 0.0676877 0.9934329 0.0676877 0.0065671 -0.0676877
1864000000 0.0064191 -0.0665147 0.9935809 0.0665147 0.9935809 0.0665147 0.0064191 -0.0665147
1885000000 0.0062768 -0.0653629 0.9937232 0.0653629 0.9937232 0.0653629 0.0062768 -0.0653629
1906000000 0.0061399 -0.0642315 0.9938601 0.0642315 0.9938601 0.0642315 0.0061399 -0.0642315
1927000000 0.0060081 -0.0631199 0.9939919 0.0631199 0.9939919 0.0631199 0.0060081 -0.0631199
1948000000 0.0058813 -0.0620276 0.9941187 0.0620276 0.9941187 0.0620276 0.0058813 -0.0620276
1969000000 0.0057592 -0.0609538 0.9942408 0.0609538 0.9942408 0.0609538 0.0057592 -0.0609538
1990000000 0.0056416 -0.0598981 0.9943584 0.0598981 0.9943584 0.0598981 0.0056416 -0.0598981
2011000000 0.0055284 -0.0588598 0.9944716 0.0588598 0.9944716 0.0588598 0.0055284 -0.0588598
2032000000 0.0054193 -0.0578385 0.9945807 0.0578385 0.9945807 0.0578385 0.0054193 -0.0578385
2053000000 0.0053143 -0.0568337 0.9946857 0.0568337 0.9946857 0.0568337 0.0053143 -0.0568337
2074000000 0.0052131 -0.0558448 0.9947869 0.0558448 0.9947869 0.0558448 0.0052131 -0.0558448
2095000000 0.0051156 -0.0548715 0.9948844 0.0548715 0.9948844 0.0548715 0.0051156 -0.0548715
2116000000 0.0050217 -0.0539132 0.9949783 0.0539132 0.9949783 0.0539132 0.0050217 -0.0539132
2137000000 0.0049312 -0.0529695 0.9950688 0.0529695 0.9950688 0.0529695 0.0049312 -0.0529695
2158000000 0.0048439 -0.0520400 0.9951561 0.0520400 0.9951561 0.0520400 0.0048439 -0.0520400
2179000000 0.0047599 -0.0511244 0.9952401 0.0511244 0.9952401 0.0511244 0.0047599 -0.0511244
2200000000 0.0046789 -0.0502222 0.9953211 0.0502222 0.9953211 0.0502222 0.0046789 -0.0502222
2221000000 0.0046009 -0.0493330 0.9953991 0.0493330 0.9953991 0.0493330 0.0046009 -0.0493330
2242000000 0.0045256 -0.0484565 0.9954744 0.0484565 0.9954744 0.0484565 0.0045256 -0.0484565
2263000000 0.0044531 -0.0475924 0.9955469 0.0475924 0.9955469 0.0475924 0.0044531 -0.0475924
2284000000 0.0043833 -0.0467403 0.9956167 0.0467403 0.9956167 0.0467403 0.0043833 -0.0467403
2305000000 0.0043160 -0.0458999 0.9956840 0.0458999 0.9956840 0.0458999 0.0043160 -0.0458999
2326000000 0.0042511 -0.0450709 0.9957489 0.0450709 0.9957489 0.0450709 0.0042511 -0.0450709
2347000000 0.0041886 -0.0442530 0.9958114 0.0442530 0.9958114 0.0442530 0.0041886 -0.0442530
2368000000 0.0041284 -0.0434459 0.9958716 0.0434459 0.9958716 0.0434459 0.0041284 -0.0434459
2389000000 0.0040704 -0.0426493 0.9959296 0.0426493 0.9959296 0.0426493 0.0040704 -0.0426493
2410000000 0.0040145 -0.0418630 0.9959855 0.0418630 0.9959855 0.0418630 0.0040145 -0.0418630
2431000000 0.0039607 -0.0410867 0.9960393 0.0410867 0.9960393 0.0410867 0.0039607 -0.0410867
2452000000 0.0039088 -0.0403201 0.9960912 0.0403201 0.9960912 0.0403201 0.0039088 -0.0403201
2473000000 0.0038589 -0.0395630 0.9961411 0.0395630 0.9961411 0.0395630 0.0038589 -0.0395630
2494000000 0.0038109 -0.0388153 0.9961891 0.0388153 0.9961891 0.0388153 0.0038109 -0.0388153
2515000000 0.0037647 -0.0380765 0.9962353 0.0380765 0.9962353 0.0380765 0.0037647 -0.0380765
2536000000 0.0037202 -0.0373466 0.9962798 0.0373466 0.9962798 0.0373466 0.0037202 -0.0373466
2557000000 0.0036774 -0.0366254 0.9963226 0.0366254 0.9963226 0.0366254 0.0036774 -0.0366254
2578000000 0.0036362 -0.0359125 0.9963638 0.0359125 0.9963638 0.0359125 0.0036362 -0.0359125
2599000000 0.0035967 -0.0352078 0.9964033 0.0352078 0.9964033 0.0352078 0.0035967 -0.0352078
2620000000 0.0035586 -0.0345112 0.9964414 0.0345112 0.9964414 0.0345112 0.0035586 -0.0345112
2641000000 0.0035221 -0.0338223 0.9964779 0.0338223 0.9964779 0.0338223 0.0035221 -0.0338223
2662000000 0.0034870 -0.0331412 0.9965130 0.0331412 0.9965130 0.0331412 0.0034870 -0.0331412
2683000000 0.0034533 -0.0324675 0.9965467 0.0324675 0.9965467 0.0324675 0.0034533 -0.0324675
2704000000 0.0034210 -0.0318011 0.9965790 0.0318011 0.9965790 0.0318011 0.0034210 -0.0318011
2725000000 0.0033899 -0.0311418 0.9966101 0.0311418 0.9966101 0.0311418 0.0033899 -0.0311418
2746000000 0.0033602 -0.0304896 0.9966398 0.0304896 0.9966398 0.0304896 0.0033602 -0.0304896
2767000000 0.0033317 -0.0298441 0.9966683 0.0298441 0.9966683 0.0298441 0.0033317 -0.0298441
2788000000 0.0033044 -0.0292054 0.9966956 0.0292054 0.9966956 0.0292054 0.0033044 -0.0292054
2809000000 0.0032783 -0.0285731 0.9967217 0.0285731 0.9967217 0.0285731 0.0032783 -0.0285731
2830000000 0.0032533 -0.0279472 0.9967467 0.0279472 0.9967467 0.0279472 0.0032533 -0.0279472
2851000000 0.0032295 -0.0273276 0.9967705 0.0273276 0.9967705 0.0273276 0.0032295 -0.0273276
2872000000 0.0032067 -0.0267141 0.9967933 0.0267141 0.9967933 0.0267141 0.0032067 -0.0267141
2893000000 0.0031850 -0.0261066 0.9968150 0.0261066 0.9968150 0.0261066 0.0031850 -0.0261066
2914000000 0.0031642 -0.0255049 0.9968358 0.0255049 0.9968358 0.0255049 0.0031642 -0.0255049
2935000000 0.0031445 -0.0249090 0.9968555 0.0249090 0.9968555 0.0249090 0.0031445 -0.0249090
2956000000 0.0031258 -0.0243187 0.9968742 0.0243187 0.9968742 0.0243187 0.0031258 -0.0243187
2977000000 0.0031079 -0.0237338 0.9968921 0.0237338 0.9968921 0.0237338 0.0031079 -0.0237338
2998000000 0.0030910 -0.0231544 0.9969090 0.0231544 0.9969090 0.0231544 0.0030910 -0.0231544
3019000000 0.0030750 -0.0225802 0.9969250 0.0225802 0.9969250 0.0225802 0.0030750 -0.0225802
3040000000 0.0030598 -0.0220112 0.9969402 0.0220112 0.9969402 0.0220112 0.0030598 -0.0220112
3061000000 0.0030455 -0.0214473 0.9969545 0.0214473 0.9969545 0.0214473 0.0030455 -0.0214473
3082000000 0.0030320 -0.0208883 0.9969680 0.0208883 0.9969680 0.0208883 0.0030320 -0.0208883
3103000000 0.0030193 -0.0203342 0.9969807 0.0203342 0.9969807 0.0203342 0.0030193 -0.0203342
3124000000 0.0030074 -0.0197848 0.9969926 0.0197848 0.9969926 0.0197848 0.0030074 -0.0197848
3145000000 0.0029963 -0.0192402 0.9970037 0.0192402 0.9970037 0.0192402 0.0029963 -0.0192402
3166000000 0.0029859 -0.0187001 0.9970141 0.0187001 0.9970141 0.0187001 0.0029859 -0.0187001
3187000000 0.0029762 -0.0181645 0.9970238 0.0181645 0.9970238 0.0181645 0.0029762 -0.0181645
3208000000 0.0029672 -0.0176333 0.9970328 0.0176333 0.9970328 0.0176333 0.0029672 -0.0176333
3229000000 0.0029589 -0.0171064 0.9970411 0.0171064 0.9970411 0.0171064 0.0029589 -0.0171064
3250000000 0.0029513 -0.0165838 0.9970487 0.0165838 0.9970487 0.0165838 0.0029513 -0.0165838
3271000000 0.0029444 -0.0160653 0.9970556 0.0160653 0.9970556 0.0160653 0.0029444 -0.0160653
3292000000 0.0029380 -0.0155509 0.9970620 0.0155509 0.9970620 0.0155509 0.0029380 -0.0155509
3313000000 0.0029323 -0.0150406 0.9970677 0.0150406 0.9970677 0.0150406 0.0029323 -0.0150406
3334000000 0.0029273 -0.0145341 0.9970727 0.0145341 0.9970727 0.0145341 0.0029273 -0.0145341
3355000000 0.0029228 -0.0140315 0.9970772 0.0140315 0.9970772 0.0140315 0.0029228 -0.0140315
3376000000 0.0029189 -0.0135327 0.9970811 0.0135327 0.9970811 0.0135327 0.0029189 -0.0135327
3397000000 0.0029155 -0.0130377 0.9970845 0.0130377 0.9970845 0.0130377 0.0029155 -0.0130377
3418000000 0.0029128 -0.0125463 0.9970872 0.0125463 0.9970872 0.0125463 0.0029128 -0.0125463
3439000000 0.0029105 -0.0120584 0.9970895 0.0120584 0.9970895 0.0120584 0.0029105 -0.0120584
3460000000 0.0029088 -0.0115741 0.9970912 0.0115741 0.9970912 0.0115741 0.0029088 -0.0115741
3481000000 0.0029076 -0.0110933 0.9970924 0.0110933 0.9970924 0.0110933 0.0029076 -0.0110933
3502000000 0.0029070 -0.0106158 0.9970930 0.0106158 0.9970930 0.0106158 0.0029070 -0.0106158
3523000000 0.0029068 -0.0101417 0.9970932 0.0101417 0.9970932 0.0101417 0.0029068 -0.0101417
3544000000 0.0029071 -0.0096709 0.9970929 0.0096709 0.9970929 0.0096709 0.0029071 -0.0096709
3565000000 0.0029079 -0.0092033 0.9970921 0.0092033 0.9970921 0.0092033 0.0029079 -0.0092033
3586000000 0.0029091 -0.0087389 0.9970909 0.0087389 0.9970909 0.0087389 0.0029091 -0.0087389
3607000000 0.0029108 -0.0082776 0.9970892 0.0082776 0.9970892 0.0082776 0.0029108 -0.0082776
3628000000 0.0029130 -0.0078194 0.9970870 0.0078194 0.9970870 0.0078194 0.0029130 -0.0078194
3649000000 0.0029156 -0.0073641 0.9970844 0.0073641 0.9970844 0.0073641 0.0029156 -0.0073641
3670000000 0.0029186 -0.0069119 0.9970814 0.0069119 0.9970814 0.0069119 0.0029186 -0.0069119
3691000000 0.0029220 -0.0064625 0.9970780 0.0064625 0.9970780 0.0064625 0.0029220 -0.0064625
3712000000 0.0029259 -0.0060160 0.9970741 0.0060160 0.9970741 0.0060160 0.0029259 -0.0060160
3733000000 0.0029301 -0.0055724 0.9970699 0.0055724 0.9970699 0.0055724 0.0029301 -0.0055724
3754000000 0.0029348 -0.0051314 0.9970652 0.0051314 0.9970652 0.0051314 0.0029348 -0.0051314
3775000000 0.0029398 -0.0046933 0.9970602 0.0046933 0.9970602 0.0046933 0.0029398 -0.0046933
3796000000 0.0029452 -0.0042578 0.9970548 0.0042578 0.9970548 0.0042578 0.0029452 -0.0042578
3817000000 0.0029510 -0.0038249 0.9970490 0.0038249 0.9970490 0.0038249 0.0029510 -0.0038249
3838000000 0.0029571 -0.0033946 0.9970429 0.0033946 0.9970429 0.0033946 0.0029571 -0.0033946
3859000000 0.0029636 -0.0029669 0.9970364 0.0029669 0.9970364 0.0029669 0.0029636 -0.0029669
3880000000 0.0029705 -0.0025417 0.9970295 0.0025417 0.9970295 0.0025417 0.0029705 -0.0025417
3901000000 0.0029777 -0.0021190 0.9970223 0.0021190 0.9970223 0.0021190 0.0029777 -0.0021190
3922000000 0.0029852 -0.0016987 0.9970148 0.0016987 0.9970148 0.0016987 0.0029852 -0.0016987
3943000000 0.0029931 -0.0012808 0.9970069 0.0012808 0.9970069 0.0012808 0.0029931 -0.0012808
3964000000 0.0030013 -0.0008652 0.9969987 0.0008652 0.9969987 0.0008652 0.0030013 -0.0008652
3985000000 0.0030098 -0.0004520 0.9969902 0.0004520 0.9969902 0.0004520 0.0030098 -0.0004520
4006000000 0.0030186 -0.0000411 0.9969814 0.0000411 0.9969814 0.0000411 0.0030186 -0.0000411
4027000000 0.0030277 0.0003676 0.9969723 -0.0003676 0.9969723 -0.0003676 0.0030277 0.0003676
4048000000 0.0030372 0.0007741 0.9969628 -0.0007741 0.9969628 -0.0007741 0.0030372 0.0007741
4069000000 0.0030469 0.0011783 0.9969531 -0.0011783 0.9969531 -0.0011783 0.0030469 0.0011783
4090000000 0.0030569 0.0015805 0.9969431 -0.0015805 0.9969431 -0.0015805 0.0030569 0.0015805
4111000000 0.0030672 0.0019805 0.9969328 -0.0019805 0.9969328 -0.0019805 0.0030672 0.0019805
4132000000 0.0030778 0.0023784 0.9969222 -0.0023784 0.9969222 -0.0023784 0.0030778 0.0023784
4153000000 0.0030886 0.0027743 0.9969114 -0.0027743 0.9969114 -0.0027743 0.0030886 0.0027743
4174000000 0.0030998 0.0031681 0.9969002 -0.0031681 0.9969002 -0.0031681 0.0030998 0.0031681
4195000000 0.0031112 0.0035600 0.9968888 -0.0035600 0.9968888 -0.0035600 0.0031112 0.0035600
4216000000 0.0031228 0.0039499 0.9968772 -0.0039499 0.9968772 -0.0039499 0.0031228 0.0039499
4237000000 0.0031348 0.0043378 0.9968652 -0.0043378 0.9968652 -0.0043378 0.0031348 0.0043378
4258000000 0.0031469 0.0047239 0.9968531 -0.0047239 0.9968531 -0.0047239 0.0031469 0.0047239
4279000000 0.0031594 0.0051080 0.9968406 -0.0051080 0.9968406 -0.0051080 0.0031594 0.0051080
4300000000 0.0031720 0.0054903 0.9968280 -0.0054903 0.9968280 -0.0054903 0.0031720 0.0054903
4321000000 0.0031849 0.0058708 0.9968151 -0.0058708 0.9968151 -0.0058708 0.0031849 0.0058708
4342000000 0.0031981 0.0062495 0.9968019 -0.0062495 0.9968019 -0.0062495 0.0031981 0.0062495
4363000000 0.0032115 0.0066264 0.9967885 -0.0066264 0.9967885 -0.0066264 0.0032115 0.0066264
4384000000 0.0032251 0.0070015 0.9967749 -0.0070015 0.9967749 -0.0070015 0.0032251 0.0070015
4405000000 0.0032389 0.0073749 0.9967611 -0.0073749 0.9967611 -0.0073749 0.0032389 0.0073749
4426000000 0.0032530 0.0077466 0.9967470 -0.0077466 0.9967470 -0.0077466 0.0032530 0.0077466
4447000000 0.0032673 0.0081167 0.9967327 -0.0081167 0.9967327 -0.0081167 0.0032673 0.0081167
4468000000 0.0032817 0.0084851 0.9967183 -0.0084851 0.9967183 -0.0084851 0.0032817 0.0084851
4489000000 0.0032965 0.0088518 0.9967035 -0.0088518 0.9967035 -0.0088518 0.0032965 0.0088518
4510000000 0.0033114 0.0092169 0.9966886 -0.0092169 0.9966886 -0.0092169 0.0033114 0.0092169
