!Murata Part Number: GRM033R71H122KA12
!These Parameters are Measured in Series Mode Connection
!Data Generated on Mar 30, 2021
!       o--ll--o
!Port1            Port2
!       o------o
!Operation Temp=25[degC], DC Bias Voltage=0[V]
!Freq. Start=100[Hz] Stop=6[GHz] 401[Steps]
# Hz S RI R 50
!Freq.(Hz) S11(Real) S11(Imag) S21(Real) S21(Imag) S12(Real) S12(Imag) S22(Real) S22(Imag)
100 0.9999996 -0.0000752 0.0000004 0.0000752 0.0000004 0.0000752 0.9999996 -0.0000752
105 0.9999996 -0.0000786 0.0000004 0.0000786 0.0000004 0.0000786 0.9999996 -0.0000786
109 0.9999995 -0.0000822 0.0000005 0.0000822 0.0000005 0.0000822 0.9999995 -0.0000822
114 0.9999995 -0.0000860 0.0000005 0.0000860 0.0000005 0.0000860 0.9999995 -0.0000860
120 0.9999995 -0.0000899 0.0000005 0.0000899 0.0000005 0.0000899 0.9999995 -0.0000899
125 0.9999995 -0.0000940 0.0000005 0.0000940 0.0000005 0.0000940 0.9999995 -0.0000940
131 0.9999995 -0.0000983 0.0000005 0.0000983 0.0000005 0.0000983 0.9999995 -0.0000983
137 0.9999994 -0.0001027 0.0000006 0.0001027 0.0000006 0.0001027 0.9999994 -0.0001027
143 0.9999994 -0.0001074 0.0000006 0.0001074 0.0000006 0.0001074 0.9999994 -0.0001074
150 0.9999994 -0.0001123 0.0000006 0.0001123 0.0000006 0.0001123 0.9999994 -0.0001123
156 0.9999994 -0.0001174 0.0000006 0.0001174 0.0000006 0.0001174 0.9999994 -0.0001174
164 0.9999993 -0.0001228 0.0000007 0.0001228 0.0000007 0.0001228 0.9999993 -0.0001228
171 0.9999993 -0.0001284 0.0000007 0.0001284 0.0000007 0.0001284 0.9999993 -0.0001284
179 0.9999993 -0.0001343 0.0000007 0.0001343 0.0000007 0.0001343 0.9999993 -0.0001343
187 0.9999992 -0.0001404 0.0000008 0.0001404 0.0000008 0.0001404 0.9999992 -0.0001404
196 0.9999992 -0.0001468 0.0000008 0.0001468 0.0000008 0.0001468 0.9999992 -0.0001468
205 0.9999992 -0.0001535 0.0000008 0.0001535 0.0000008 0.0001535 0.9999992 -0.0001535
214 0.9999991 -0.0001605 0.0000009 0.0001605 0.0000009 0.0001605 0.9999991 -0.0001605
224 0.9999991 -0.0001678 0.0000009 0.0001678 0.0000009 0.0001678 0.9999991 -0.0001678
234 0.9999990 -0.0001755 0.0000010 0.0001755 0.0000010 0.0001755 0.9999990 -0.0001755
245 0.9999990 -0.0001835 0.0000010 0.0001835 0.0000010 0.0001835 0.9999990 -0.0001835
256 0.9999990 -0.0001919 0.0000010 0.0001919 0.0000010 0.0001919 0.9999990 -0.0001919
268 0.9999989 -0.0002006 0.0000011 0.0002006 0.0000011 0.0002006 0.9999989 -0.0002006
280 0.9999989 -0.0002098 0.0000011 0.0002098 0.0000011 0.0002098 0.9999989 -0.0002098
293 0.9999988 -0.0002193 0.0000012 0.0002193 0.0000012 0.0002193 0.9999988 -0.0002193
306 0.9999988 -0.0002293 0.0000012 0.0002293 0.0000012 0.0002293 0.9999988 -0.0002293
320 0.9999987 -0.0002398 0.0000013 0.0002398 0.0000013 0.0002398 0.9999987 -0.0002398
335 0.9999986 -0.0002508 0.0000014 0.0002508 0.0000014 0.0002508 0.9999986 -0.0002508
350 0.9999986 -0.0002622 0.0000014 0.0002622 0.0000014 0.0002622 0.9999986 -0.0002622
366 0.9999985 -0.0002742 0.0000015 0.0002742 0.0000015 0.0002742 0.9999985 -0.0002742
383 0.9999984 -0.0002867 0.0000016 0.0002867 0.0000016 0.0002867 0.9999984 -0.0002867
401 0.9999984 -0.0002998 0.0000016 0.0002998 0.0000016 0.0002998 0.9999984 -0.0002998
419 0.9999983 -0.0003134 0.0000017 0.0003134 0.0000017 0.0003134 0.9999983 -0.0003134
438 0.9999982 -0.0003277 0.0000018 0.0003277 0.0000018 0.0003277 0.9999982 -0.0003277
458 0.9999981 -0.0003427 0.0000019 0.0003427 0.0000019 0.0003427 0.9999981 -0.0003427
479 0.9999980 -0.0003583 0.0000020 0.0003583 0.0000020 0.0003583 0.9999980 -0.0003583
501 0.9999979 -0.0003747 0.0000021 0.0003747 0.0000021 0.0003747 0.9999979 -0.0003747
524 0.9999978 -0.0003918 0.0000022 0.0003918 0.0000022 0.0003918 0.9999978 -0.0003918
548 0.9999977 -0.0004096 0.0000023 0.0004096 0.0000023 0.0004096 0.9999977 -0.0004096
573 0.9999976 -0.0004283 0.0000024 0.0004283 0.0000024 0.0004283 0.9999976 -0.0004283
600 0.9999975 -0.0004479 0.0000025 0.0004479 0.0000025 0.0004479 0.9999975 -0.0004479
627 0.9999974 -0.0004683 0.0000026 0.0004683 0.0000026 0.0004683 0.9999974 -0.0004683
656 0.9999973 -0.0004897 0.0000027 0.0004897 0.0000027 0.0004897 0.9999973 -0.0004897
686 0.9999972 -0.0005120 0.0000028 0.0005120 0.0000028 0.0005120 0.9999972 -0.0005120
717 0.9999970 -0.0005354 0.0000030 0.0005354 0.0000030 0.0005354 0.9999970 -0.0005354
750 0.9999969 -0.0005598 0.0000031 0.0005598 0.0000031 0.0005598 0.9999969 -0.0005598
784 0.9999968 -0.0005854 0.0000032 0.0005854 0.0000032 0.0005854 0.9999968 -0.0005854
820 0.9999966 -0.0006121 0.0000034 0.0006121 0.0000034 0.0006121 0.9999966 -0.0006121
858 0.9999965 -0.0006400 0.0000035 0.0006400 0.0000035 0.0006400 0.9999965 -0.0006400
897 0.9999963 -0.0006693 0.0000037 0.0006693 0.0000037 0.0006693 0.9999963 -0.0006693
938 0.9999961 -0.0006998 0.0000039 0.0006998 0.0000039 0.0006998 0.9999961 -0.0006998
981 0.9999960 -0.0007318 0.0000040 0.0007318 0.0000040 0.0007318 0.9999960 -0.0007318
1026 0.9999958 -0.0007652 0.0000042 0.0007652 0.0000042 0.0007652 0.9999958 -0.0007652
1073 0.9999956 -0.0008001 0.0000044 0.0008001 0.0000044 0.0008001 0.9999956 -0.0008001
1122 0.9999954 -0.0008367 0.0000046 0.0008367 0.0000046 0.0008367 0.9999954 -0.0008367
1174 0.9999951 -0.0008749 0.0000049 0.0008749 0.0000049 0.0008749 0.9999951 -0.0008749
1227 0.9999949 -0.0009148 0.0000051 0.0009148 0.0000051 0.0009148 0.9999949 -0.0009148
1283 0.9999947 -0.0009566 0.0000053 0.0009566 0.0000053 0.0009566 0.9999947 -0.0009566
1342 0.9999944 -0.0010003 0.0000056 0.0010003 0.0000056 0.0010003 0.9999944 -0.0010003
1404 0.9999941 -0.0010460 0.0000059 0.0010460 0.0000059 0.0010460 0.9999941 -0.0010460
1468 0.9999938 -0.0010938 0.0000062 0.0010938 0.0000062 0.0010938 0.9999938 -0.0010938
1535 0.9999934 -0.0011437 0.0000066 0.0011437 0.0000066 0.0011437 0.9999934 -0.0011437
1606 0.9999931 -0.0011960 0.0000069 0.0011960 0.0000069 0.0011960 0.9999931 -0.0011960
1679 0.9999927 -0.0012506 0.0000073 0.0012506 0.0000073 0.0012506 0.9999927 -0.0012506
1756 0.9999923 -0.0013077 0.0000077 0.0013077 0.0000077 0.0013077 0.9999923 -0.0013077
1836 0.9999918 -0.0013675 0.0000082 0.0013675 0.0000082 0.0013675 0.9999918 -0.0013675
1920 0.9999913 -0.0014299 0.0000087 0.0014299 0.0000087 0.0014299 0.9999913 -0.0014299
2008 0.9999908 -0.0014952 0.0000092 0.0014952 0.0000092 0.0014952 0.9999908 -0.0014952
2100 0.9999903 -0.0015635 0.0000097 0.0015635 0.0000097 0.0015635 0.9999903 -0.0015635
2196 0.9999897 -0.0016349 0.0000103 0.0016349 0.0000103 0.0016349 0.9999897 -0.0016349
2297 0.9999891 -0.0017096 0.0000109 0.0017096 0.0000109 0.0017096 0.9999891 -0.0017096
2402 0.9999884 -0.0017877 0.0000116 0.0017877 0.0000116 0.0017877 0.9999884 -0.0017877
2512 0.9999876 -0.0018693 0.0000124 0.0018693 0.0000124 0.0018693 0.9999876 -0.0018693
2627 0.9999869 -0.0019546 0.0000131 0.0019546 0.0000131 0.0019546 0.9999869 -0.0019546
2748 0.9999860 -0.0020439 0.0000140 0.0020439 0.0000140 0.0020439 0.9999860 -0.0020439
2873 0.9999851 -0.0021372 0.0000149 0.0021372 0.0000149 0.0021372 0.9999851 -0.0021372
3005 0.9999842 -0.0022347 0.0000158 0.0022347 0.0000158 0.0022347 0.9999842 -0.0022347
3143 0.9999832 -0.0023367 0.0000168 0.0023367 0.0000168 0.0023367 0.9999832 -0.0023367
3287 0.9999821 -0.0024434 0.0000179 0.0024434 0.0000179 0.0024434 0.9999821 -0.0024434
3437 0.9999809 -0.0025549 0.0000191 0.0025549 0.0000191 0.0025549 0.9999809 -0.0025549
3594 0.9999797 -0.0026715 0.0000203 0.0026715 0.0000203 0.0026715 0.9999797 -0.0026715
3759 0.9999784 -0.0027934 0.0000216 0.0027934 0.0000216 0.0027934 0.9999784 -0.0027934
3931 0.9999770 -0.0029208 0.0000230 0.0029208 0.0000230 0.0029208 0.9999770 -0.0029208
4111 0.9999755 -0.0030541 0.0000245 0.0030541 0.0000245 0.0030541 0.9999755 -0.0030541
4299 0.9999739 -0.0031935 0.0000261 0.0031935 0.0000261 0.0031935 0.9999739 -0.0031935
4496 0.9999722 -0.0033392 0.0000278 0.0033392 0.0000278 0.0033392 0.9999722 -0.0033392
4702 0.9999704 -0.0034915 0.0000296 0.0034915 0.0000296 0.0034915 0.9999704 -0.0034915
4918 0.9999684 -0.0036508 0.0000316 0.0036508 0.0000316 0.0036508 0.9999684 -0.0036508
5143 0.9999663 -0.0038174 0.0000337 0.0038174 0.0000337 0.0038174 0.9999663 -0.0038174
5378 0.9999641 -0.0039916 0.0000359 0.0039916 0.0000359 0.0039916 0.9999641 -0.0039916
5625 0.9999618 -0.0041737 0.0000382 0.0041737 0.0000382 0.0041737 0.9999618 -0.0041737
5882 0.9999592 -0.0043642 0.0000408 0.0043642 0.0000408 0.0043642 0.9999592 -0.0043642
6151 0.9999565 -0.0045633 0.0000435 0.0045633 0.0000435 0.0045633 0.9999565 -0.0045633
6433 0.9999535 -0.0047716 0.0000465 0.0047716 0.0000465 0.0047716 0.9999535 -0.0047716
6728 0.9999504 -0.0049894 0.0000496 0.0049894 0.0000496 0.0049894 0.9999504 -0.0049894
7036 0.9999470 -0.0052171 0.0000530 0.0052171 0.0000530 0.0052171 0.9999470 -0.0052171
7358 0.9999433 -0.0054553 0.0000567 0.0054553 0.0000567 0.0054553 0.9999433 -0.0054553
7695 0.9999394 -0.0057043 0.0000606 0.0057043 0.0000606 0.0057043 0.9999394 -0.0057043
8047 0.9999351 -0.0059647 0.0000649 0.0059647 0.0000649 0.0059647 0.9999351 -0.0059647
8416 0.9999305 -0.0062370 0.0000695 0.0062370 0.0000695 0.0062370 0.9999305 -0.0062370
8801 0.9999256 -0.0065218 0.0000744 0.0065218 0.0000744 0.0065218 0.9999256 -0.0065218
9204 0.9999202 -0.0068195 0.0000798 0.0068195 0.0000798 0.0068195 0.9999202 -0.0068195
9626 0.9999143 -0.0071309 0.0000857 0.0071309 0.0000857 0.0071309 0.9999143 -0.0071309
10066 0.9999080 -0.0074565 0.0000920 0.0074565 0.0000920 0.0074565 0.9999080 -0.0074565
10527 0.9999011 -0.0077970 0.0000989 0.0077970 0.0000989 0.0077970 0.9999011 -0.0077970
11009 0.9998936 -0.0081531 0.0001064 0.0081531 0.0001064 0.0081531 0.9998936 -0.0081531
11514 0.9998855 -0.0085254 0.0001145 0.0085254 0.0001145 0.0085254 0.9998855 -0.0085254
12041 0.9998767 -0.0089147 0.0001233 0.0089147 0.0001233 0.0089147 0.9998767 -0.0089147
12592 0.9998670 -0.0093218 0.0001330 0.0093218 0.0001330 0.0093218 0.9998670 -0.0093218
13169 0.9998566 -0.0097474 0.0001434 0.0097474 0.0001434 0.0097474 0.9998566 -0.0097474
13772 0.9998452 -0.0101925 0.0001548 0.0101925 0.0001548 0.0101925 0.9998452 -0.0101925
14402 0.9998329 -0.0106579 0.0001671 0.0106579 0.0001671 0.0106579 0.9998329 -0.0106579
15062 0.9998194 -0.0111445 0.0001806 0.0111445 0.0001806 0.0111445 0.9998194 -0.0111445
15752 0.9998048 -0.0116532 0.0001952 0.0116532 0.0001952 0.0116532 0.9998048 -0.0116532
16473 0.9997888 -0.0121852 0.0002112 0.0121852 0.0002112 0.0121852 0.9997888 -0.0121852
17227 0.9997715 -0.0127414 0.0002285 0.0127414 0.0002285 0.0127414 0.9997715 -0.0127414
18016 0.9997526 -0.0133229 0.0002474 0.0133229 0.0002474 0.0133229 0.9997526 -0.0133229
18841 0.9997321 -0.0139308 0.0002679 0.0139308 0.0002679 0.0139308 0.9997321 -0.0139308
19704 0.9997098 -0.0145665 0.0002902 0.0145665 0.0002902 0.0145665 0.9997098 -0.0145665
20606 0.9996855 -0.0152310 0.0003145 0.0152310 0.0003145 0.0152310 0.9996855 -0.0152310
21550 0.9996590 -0.0159257 0.0003410 0.0159257 0.0003410 0.0159257 0.9996590 -0.0159257
22537 0.9996303 -0.0166520 0.0003697 0.0166520 0.0003697 0.0166520 0.9996303 -0.0166520
23569 0.9995990 -0.0174113 0.0004010 0.0174113 0.0004010 0.0174113 0.9995990 -0.0174113
24648 0.9995651 -0.0182050 0.0004349 0.0182050 0.0004349 0.0182050 0.9995651 -0.0182050
25777 0.9995281 -0.0190348 0.0004719 0.0190348 0.0004719 0.0190348 0.9995281 -0.0190348
26957 0.9994880 -0.0199022 0.0005120 0.0199022 0.0005120 0.0199022 0.9994880 -0.0199022
28191 0.9994444 -0.0208090 0.0005556 0.0208090 0.0005556 0.0208090 0.9994444 -0.0208090
29482 0.9993970 -0.0217569 0.0006030 0.0217569 0.0006030 0.0217569 0.9993970 -0.0217569
30832 0.9993455 -0.0227477 0.0006545 0.0227477 0.0006545 0.0227477 0.9993455 -0.0227477
32244 0.9992895 -0.0237835 0.0007105 0.0237835 0.0007105 0.0237835 0.9992895 -0.0237835
33721 0.9992287 -0.0248662 0.0007713 0.0248662 0.0007713 0.0248662 0.9992287 -0.0248662
35265 0.9991627 -0.0259979 0.0008373 0.0259979 0.0008373 0.0259979 0.9991627 -0.0259979
36880 0.9990909 -0.0271809 0.0009091 0.0271809 0.0009091 0.0271809 0.9990909 -0.0271809
38569 0.9990129 -0.0284174 0.0009871 0.0284174 0.0009871 0.0284174 0.9990129 -0.0284174
40335 0.9989282 -0.0297099 0.0010718 0.0297099 0.0010718 0.0297099 0.9989282 -0.0297099
42182 0.9988361 -0.0310610 0.0011639 0.0310610 0.0011639 0.0310610 0.9988361 -0.0310610
44113 0.9987360 -0.0324731 0.0012640 0.0324731 0.0012640 0.0324731 0.9987360 -0.0324731
46134 0.9986271 -0.0339491 0.0013729 0.0339491 0.0013729 0.0339491 0.9986271 -0.0339491
48246 0.9985087 -0.0354919 0.0014913 0.0354919 0.0014913 0.0354919 0.9985087 -0.0354919
50455 0.9983799 -0.0371044 0.0016201 0.0371044 0.0016201 0.0371044 0.9983799 -0.0371044
52766 0.9982398 -0.0387898 0.0017602 0.0387898 0.0017602 0.0387898 0.9982398 -0.0387898
55182 0.9980873 -0.0405513 0.0019127 0.0405513 0.0019127 0.0405513 0.9980873 -0.0405513
57709 0.9979214 -0.0423923 0.0020786 0.0423923 0.0020786 0.0423923 0.9979214 -0.0423923
60352 0.9977406 -0.0443163 0.0022594 0.0443163 0.0022594 0.0443163 0.9977406 -0.0443163
63115 0.9975438 -0.0463270 0.0024562 0.0463270 0.0024562 0.0463270 0.9975438 -0.0463270
66005 0.9973294 -0.0484282 0.0026706 0.0484282 0.0026706 0.0484282 0.9973294 -0.0484282
69028 0.9970957 -0.0506239 0.0029043 0.0506239 0.0029043 0.0506239 0.9970957 -0.0506239
72189 0.9968411 -0.0529181 0.0031589 0.0529181 0.0031589 0.0529181 0.9968411 -0.0529181
75495 0.9965635 -0.0553153 0.0034365 0.0553153 0.0034365 0.0553153 0.9965635 -0.0553153
78952 0.9962609 -0.0578197 0.0037391 0.0578197 0.0037391 0.0578197 0.9962609 -0.0578197
82567 0.9959309 -0.0604360 0.0040691 0.0604360 0.0040691 0.0604360 0.9959309 -0.0604360
86348 0.9955710 -0.0631690 0.0044290 0.0631690 0.0044290 0.0631690 0.9955710 -0.0631690
90302 0.9951785 -0.0660235 0.0048215 0.0660235 0.0048215 0.0660235 0.9951785 -0.0660235
94437 0.9947503 -0.0690047 0.0052497 0.0690047 0.0052497 0.0690047 0.9947503 -0.0690047
98762 0.9942833 -0.0721177 0.0057167 0.0721177 0.0057167 0.0721177 0.9942833 -0.0721177
103284 0.9937738 -0.0753679 0.0062262 0.0753679 0.0062262 0.0753679 0.9937738 -0.0753679
108014 0.9932181 -0.0787609 0.0067819 0.0787609 0.0067819 0.0787609 0.9932181 -0.0787609
112960 0.9926118 -0.0823024 0.0073882 0.0823024 0.0073882 0.0823024 0.9926118 -0.0823024
118133 0.9919505 -0.0859983 0.0080495 0.0859983 0.0080495 0.0859983 0.9919505 -0.0859983
123542 0.9912292 -0.0898544 0.0087708 0.0898544 0.0087708 0.0898544 0.9912292 -0.0898544
129199 0.9904426 -0.0938769 0.0095574 0.0938769 0.0095574 0.0938769 0.9904426 -0.0938769
135116 0.9895848 -0.0980721 0.0104152 0.0980721 0.0104152 0.0980721 0.9895848 -0.0980721
141303 0.9886495 -0.1024462 0.0113505 0.1024462 0.0113505 0.1024462 0.9886495 -0.1024462
147774 0.9876299 -0.1070055 0.0123701 0.1070055 0.0123701 0.1070055 0.9876299 -0.1070055
154540 0.9865186 -0.1117566 0.0134814 0.1117566 0.0134814 0.1117566 0.9865186 -0.1117566
161617 0.9853077 -0.1167059 0.0146923 0.1167059 0.0146923 0.1167059 0.9853077 -0.1167059
169018 0.9839884 -0.1218599 0.0160116 0.1218599 0.0160116 0.1218599 0.9839884 -0.1218599
176758 0.9825516 -0.1272250 0.0174484 0.1272250 0.0174484 0.1272250 0.9825516 -0.1272250
184852 0.9809871 -0.1328076 0.0190129 0.1328076 0.0190129 0.1328076 0.9809871 -0.1328076
193316 0.9792842 -0.1386138 0.0207158 0.1386138 0.0207158 0.1386138 0.9792842 -0.1386138
202169 0.9774313 -0.1446498 0.0225687 0.1446498 0.0225687 0.1446498 0.9774313 -0.1446498
211427 0.9754158 -0.1509213 0.0245842 0.1509213 0.0245842 0.1509213 0.9754158 -0.1509213
221108 0.9732244 -0.1574337 0.0267756 0.1574337 0.0267756 0.1574337 0.9732244 -0.1574337
231233 0.9708428 -0.1641923 0.0291572 0.1641923 0.0291572 0.1641923 0.9708428 -0.1641923
241822 0.9682557 -0.1712016 0.0317443 0.1712016 0.0317443 0.1712016 0.9682557 -0.1712016
252896 0.9654466 -0.1784656 0.0345534 0.1784656 0.0345534 0.1784656 0.9654466 -0.1784656
264476 0.9623981 -0.1859877 0.0376019 0.1859877 0.0376019 0.1859877 0.9623981 -0.1859877
276587 0.9590918 -0.1937703 0.0409082 0.1937703 0.0409082 0.1937703 0.9590918 -0.1937703
289253 0.9555079 -0.2018150 0.0444921 0.2018150 0.0444921 0.2018150 0.9555079 -0.2018150
302498 0.9516257 -0.2101223 0.0483743 0.2101223 0.0483743 0.2101223 0.9516257 -0.2101223
316350 0.9474233 -0.2186913 0.0525767 0.2186913 0.0525767 0.2186913 0.9474233 -0.2186913
330837 0.9428776 -0.2275197 0.0571224 0.2275197 0.0571224 0.2275197 0.9428776 -0.2275197
345986 0.9379645 -0.2366036 0.0620355 0.2366036 0.0620355 0.2366036 0.9379645 -0.2366036
361830 0.9326588 -0.2459370 0.0673412 0.2459370 0.0673412 0.2459370 0.9326588 -0.2459370
378399 0.9269344 -0.2555121 0.0730656 0.2555121 0.0730656 0.2555121 0.9269344 -0.2555121
395726 0.9207643 -0.2653186 0.0792357 0.2653186 0.0792357 0.2653186 0.9207643 -0.2653186
413847 0.9141210 -0.2753438 0.0858790 0.2753438 0.0858790 0.2753438 0.9141210 -0.2753438
432798 0.9069763 -0.2855718 0.0930237 0.2855718 0.0930237 0.2855718 0.9069763 -0.2855718
452617 0.8993017 -0.2959842 0.1006983 0.2959842 0.1006983 0.2959842 0.8993017 -0.2959842
473344 0.8910687 -0.3065588 0.1089313 0.3065588 0.1089313 0.3065588 0.8910687 -0.3065588
495019 0.8822494 -0.3172701 0.1177506 0.3172701 0.1177506 0.3172701 0.8822494 -0.3172701
517687 0.8728162 -0.3280890 0.1271838 0.3280890 0.1271838 0.3280890 0.8728162 -0.3280890
541393 0.8627429 -0.3389823 0.1372571 0.3389823 0.1372571 0.3389823 0.8627429 -0.3389823
566185 0.8520049 -0.3499129 0.1479951 0.3499129 0.1479951 0.3499129 0.8520049 -0.3499129
592111 0.8405796 -0.3608397 0.1594204 0.3608397 0.1594204 0.3608397 0.8405796 -0.3608397
619225 0.8284474 -0.3717175 0.1715526 0.3717175 0.1715526 0.3717175 0.8284474 -0.3717175
647581 0.8155917 -0.3824970 0.1844083 0.3824970 0.1844083 0.3824970 0.8155917 -0.3824970
677235 0.8020003 -0.3931254 0.1979997 0.3931254 0.1979997 0.3931254 0.8020003 -0.3931254
708247 0.7876654 -0.4035463 0.2123346 0.4035463 0.2123346 0.4035463 0.7876654 -0.4035463
740679 0.7725846 -0.4137001 0.2274154 0.4137001 0.2274154 0.4137001 0.7725846 -0.4137001
774597 0.7567614 -0.4235249 0.2432386 0.4235249 0.2432386 0.4235249 0.7567614 -0.4235249
810067 0.7402057 -0.4329567 0.2597943 0.4329567 0.2597943 0.4329567 0.7402057 -0.4329567
847162 0.7229346 -0.4419306 0.2770654 0.4419306 0.2770654 0.4419306 0.7229346 -0.4419306
885955 0.7049724 -0.4503812 0.2950276 0.4503812 0.2950276 0.4503812 0.7049724 -0.4503812
926525 0.6863511 -0.4582439 0.3136489 0.4582439 0.3136489 0.4582439 0.6863511 -0.4582439
968953 0.6671103 -0.4654562 0.3328897 0.4654562 0.3328897 0.4654562 0.6671103 -0.4654562
1013323 0.6472976 -0.4719581 0.3527024 0.4719581 0.3527024 0.4719581 0.6472976 -0.4719581
1059725 0.6269678 -0.4776938 0.3730322 0.4776938 0.3730322 0.4776938 0.6269678 -0.4776938
1108252 0.6061828 -0.4826126 0.3938172 0.4826126 0.3938172 0.4826126 0.6061828 -0.4826126
1159002 0.5850107 -0.4866700 0.4149893 0.4866700 0.4149893 0.4866700 0.5850107 -0.4866700
1212075 0.5635254 -0.4898285 0.4364746 0.4898285 0.4364746 0.4898285 0.5635254 -0.4898285
1267578 0.5418053 -0.4920585 0.4581947 0.4920585 0.4581947 0.4920585 0.5418053 -0.4920585
1325623 0.5199322 -0.4933394 0.4800678 0.4933394 0.4800678 0.4933394 0.5199322 -0.4933394
1386327 0.4979902 -0.4936590 0.5020098 0.4936590 0.5020098 0.4936590 0.4979902 -0.4936590
1449809 0.4760644 -0.4930151 0.5239356 0.4930151 0.5239356 0.4930151 0.4760644 -0.4930151
1516199 0.4542393 -0.4914142 0.5457607 0.4914142 0.5457607 0.4914142 0.4542393 -0.4914142
1585629 0.4325981 -0.4888725 0.5674019 0.4888725 0.5674019 0.4888725 0.4325981 -0.4888725
1658239 0.4112207 -0.4854146 0.5887793 0.4854146 0.5887793 0.4854146 0.4112207 -0.4854146
1734173 0.3901833 -0.4810734 0.6098167 0.4810734 0.6098167 0.4810734 0.3901833 -0.4810734
1813585 0.3695566 -0.4758892 0.6304434 0.4758892 0.6304434 0.4758892 0.3695566 -0.4758892
1896632 0.3494059 -0.4699088 0.6505941 0.4699088 0.6505941 0.4699088 0.3494059 -0.4699088
1983483 0.3297895 -0.4631846 0.6702105 0.4631846 0.6702105 0.4631846 0.3297895 -0.4631846
2074311 0.3107588 -0.4557734 0.6892412 0.4557734 0.6892412 0.4557734 0.3107588 -0.4557734
