!Murata Part Number: GRM033R61C104ME14
!These Parameters are Measured in Series Mode Connection
!Data Generated on Mar 30, 2021
!       o--ll--o
!Port1            Port2
!       o------o
!Operation Temp=25[degC], DC Bias Voltage=0[V]
!Freq. Start=100[Hz] Stop=6[GHz] 401[Steps]
# Hz S RI R 50
!Freq.(Hz) S11(Real) S11(Imag) S21(Real) S21(Imag) S12(Real) S12(Imag) S22(Real) S22(Imag)
100 0.9999063 -0.0047874 0.0000937 0.0047874 0.0000937 0.0047874 0.9999063 -0.0047874
105 0.9999010 -0.0050046 0.0000990 0.0050046 0.0000990 0.0050046 0.9999010 -0.0050046
109 0.9998953 -0.0052316 0.0001047 0.0052316 0.0001047 0.0052316 0.9998953 -0.0052316
114 0.9998892 -0.0054689 0.0001108 0.0054689 0.0001108 0.0054689 0.9998892 -0.0054689
120 0.9998827 -0.0057169 0.0001173 0.0057169 0.0001173 0.0057169 0.9998827 -0.0057169
125 0.9998757 -0.0059762 0.0001243 0.0059762 0.0001243 0.0059762 0.9998757 -0.0059762
131 0.9998683 -0.0062473 0.0001317 0.0062473 0.0001317 0.0062473 0.9998683 -0.0062473
137 0.9998603 -0.0065306 0.0001397 0.0065306 0.0001397 0.0065306 0.9998603 -0.0065306
143 0.9998517 -0.0068267 0.0001483 0.0068267 0.0001483 0.0068267 0.9998517 -0.0068267
150 0.9998425 -0.0071362 0.0001575 0.0071362 0.0001575 0.0071362 0.9998425 -0.0071362
156 0.9998326 -0.0074597 0.0001674 0.0074597 0.0001674 0.0074597 0.9998326 -0.0074597
164 0.9998221 -0.0077978 0.0001779 0.0077978 0.0001779 0.0077978 0.9998221 -0.0077978
171 0.9998108 -0.0081512 0.0001892 0.0081512 0.0001892 0.0081512 0.9998108 -0.0081512
179 0.9997988 -0.0085206 0.0002012 0.0085206 0.0002012 0.0085206 0.9997988 -0.0085206
187 0.9997859 -0.0089066 0.0002141 0.0089066 0.0002141 0.0089066 0.9997859 -0.0089066
196 0.9997721 -0.0093100 0.0002279 0.0093100 0.0002279 0.0093100 0.9997721 -0.0093100
205 0.9997573 -0.0097317 0.0002427 0.0097317 0.0002427 0.0097317 0.9997573 -0.0097317
214 0.9997415 -0.0101724 0.0002585 0.0101724 0.0002585 0.0101724 0.9997415 -0.0101724
224 0.9997247 -0.0106330 0.0002753 0.0106330 0.0002753 0.0106330 0.9997247 -0.0106330
234 0.9997066 -0.0111144 0.0002934 0.0111144 0.0002934 0.0111144 0.9997066 -0.0111144
245 0.9996873 -0.0116175 0.0003127 0.0116175 0.0003127 0.0116175 0.9996873 -0.0116175
256 0.9996667 -0.0121434 0.0003333 0.0121434 0.0003333 0.0121434 0.9996667 -0.0121434
268 0.9996447 -0.0126930 0.0003553 0.0126930 0.0003553 0.0126930 0.9996447 -0.0126930
280 0.9996211 -0.0132675 0.0003789 0.0132675 0.0003789 0.0132675 0.9996211 -0.0132675
293 0.9995958 -0.0138680 0.0004042 0.0138680 0.0004042 0.0138680 0.9995958 -0.0138680
306 0.9995687 -0.0144957 0.0004313 0.0144957 0.0004313 0.0144957 0.9995687 -0.0144957
320 0.9995397 -0.0151518 0.0004603 0.0151518 0.0004603 0.0151518 0.9995397 -0.0151518
335 0.9995085 -0.0158377 0.0004915 0.0158377 0.0004915 0.0158377 0.9995085 -0.0158377
350 0.9994750 -0.0165546 0.0005250 0.0165546 0.0005250 0.0165546 0.9994750 -0.0165546
366 0.9994390 -0.0173041 0.0005610 0.0173041 0.0005610 0.0173041 0.9994390 -0.0173041
383 0.9994003 -0.0180875 0.0005997 0.0180875 0.0005997 0.0180875 0.9994003 -0.0180875
401 0.9993586 -0.0189065 0.0006414 0.0189065 0.0006414 0.0189065 0.9993586 -0.0189065
419 0.9993137 -0.0197627 0.0006863 0.0197627 0.0006863 0.0197627 0.9993137 -0.0197627
438 0.9992652 -0.0206577 0.0007348 0.0206577 0.0007348 0.0206577 0.9992652 -0.0206577
458 0.9992128 -0.0215933 0.0007872 0.0215933 0.0007872 0.0215933 0.9992128 -0.0215933
479 0.9991561 -0.0225714 0.0008439 0.0225714 0.0008439 0.0225714 0.9991561 -0.0225714
501 0.9990948 -0.0235938 0.0009052 0.0235938 0.0009052 0.0235938 0.9990948 -0.0235938
524 0.9990285 -0.0246625 0.0009715 0.0246625 0.0009715 0.0246625 0.9990285 -0.0246625
548 0.9989566 -0.0257797 0.0010434 0.0257797 0.0010434 0.0257797 0.9989566 -0.0257797
573 0.9988787 -0.0269474 0.0011213 0.0269474 0.0011213 0.0269474 0.9988787 -0.0269474
600 0.9987942 -0.0281680 0.0012058 0.0281680 0.0012058 0.0281680 0.9987942 -0.0281680
627 0.9987025 -0.0294438 0.0012975 0.0294438 0.0012975 0.0294438 0.9987025 -0.0294438
656 0.9986029 -0.0307771 0.0013971 0.0307771 0.0013971 0.0307771 0.9986029 -0.0307771
686 0.9984948 -0.0321706 0.0015052 0.0321706 0.0015052 0.0321706 0.9984948 -0.0321706
717 0.9983773 -0.0336269 0.0016227 0.0336269 0.0016227 0.0336269 0.9983773 -0.0336269
750 0.9982497 -0.0351487 0.0017503 0.0351487 0.0017503 0.0351487 0.9982497 -0.0351487
784 0.9981111 -0.0367389 0.0018889 0.0367389 0.0018889 0.0367389 0.9981111 -0.0367389
820 0.9979604 -0.0384004 0.0020396 0.0384004 0.0020396 0.0384004 0.9979604 -0.0384004
858 0.9977966 -0.0401364 0.0022034 0.0401364 0.0022034 0.0401364 0.9977966 -0.0401364
897 0.9976186 -0.0419500 0.0023814 0.0419500 0.0023814 0.0419500 0.9976186 -0.0419500
938 0.9974252 -0.0438446 0.0025748 0.0438446 0.0025748 0.0438446 0.9974252 -0.0438446
981 0.9972149 -0.0458237 0.0027851 0.0458237 0.0027851 0.0458237 0.9972149 -0.0458237
1026 0.9969865 -0.0478909 0.0030135 0.0478909 0.0030135 0.0478909 0.9969865 -0.0478909
1073 0.9967382 -0.0500499 0.0032618 0.0500499 0.0032618 0.0500499 0.9967382 -0.0500499
1122 0.9964684 -0.0523046 0.0035316 0.0523046 0.0035316 0.0523046 0.9964684 -0.0523046
1174 0.9961753 -0.0546591 0.0038247 0.0546591 0.0038247 0.0546591 0.9961753 -0.0546591
1227 0.9958568 -0.0571176 0.0041432 0.0571176 0.0041432 0.0571176 0.9958568 -0.0571176
1283 0.9955109 -0.0596844 0.0044891 0.0596844 0.0044891 0.0596844 0.9955109 -0.0596844
1342 0.9951351 -0.0623641 0.0048649 0.0623641 0.0048649 0.0623641 0.9951351 -0.0623641
1404 0.9947269 -0.0651614 0.0052731 0.0651614 0.0052731 0.0651614 0.9947269 -0.0651614
1468 0.9942835 -0.0680811 0.0057165 0.0680811 0.0057165 0.0680811 0.9942835 -0.0680811
1535 0.9938019 -0.0711284 0.0061981 0.0711284 0.0061981 0.0711284 0.9938019 -0.0711284
1606 0.9932789 -0.0743083 0.0067211 0.0743083 0.0067211 0.0743083 0.9932789 -0.0743083
1679 0.9927108 -0.0776263 0.0072892 0.0776263 0.0072892 0.0776263 0.9927108 -0.0776263
1756 0.9920937 -0.0810880 0.0079063 0.0810880 0.0079063 0.0810880 0.9920937 -0.0810880
1836 0.9914235 -0.0846990 0.0085765 0.0846990 0.0085765 0.0846990 0.9914235 -0.0846990
1920 0.9906954 -0.0884652 0.0093046 0.0884652 0.0093046 0.0884652 0.9906954 -0.0884652
2008 0.9899045 -0.0923926 0.0100955 0.0923926 0.0100955 0.0923926 0.9899045 -0.0923926
2100 0.9890452 -0.0964875 0.0109548 0.0964875 0.0109548 0.0964875 0.9890452 -0.0964875
2196 0.9881117 -0.1007559 0.0118883 0.1007559 0.0118883 0.1007559 0.9881117 -0.1007559
2297 0.9870974 -0.1052044 0.0129026 0.1052044 0.0129026 0.1052044 0.9870974 -0.1052044
2402 0.9859953 -0.1098393 0.0140047 0.1098393 0.0140047 0.1098393 0.9859953 -0.1098393
2512 0.9847979 -0.1146671 0.0152021 0.1146671 0.0152021 0.1146671 0.9847979 -0.1146671
2627 0.9834967 -0.1196944 0.0165033 0.1196944 0.0165033 0.1196944 0.9834967 -0.1196944
2748 0.9820829 -0.1249275 0.0179171 0.1249275 0.0179171 0.1249275 0.9820829 -0.1249275
2873 0.9805469 -0.1303728 0.0194531 0.1303728 0.0194531 0.1303728 0.9805469 -0.1303728
3005 0.9788781 -0.1360367 0.0211219 0.1360367 0.0211219 0.1360367 0.9788781 -0.1360367
3143 0.9770653 -0.1419252 0.0229347 0.1419252 0.0229347 0.1419252 0.9770653 -0.1419252
3287 0.9750965 -0.1480442 0.0249035 0.1480442 0.0249035 0.1480442 0.9750965 -0.1480442
3437 0.9729586 -0.1543991 0.0270414 0.1543991 0.0270414 0.1543991 0.9729586 -0.1543991
3594 0.9706377 -0.1609952 0.0293623 0.1609952 0.0293623 0.1609952 0.9706377 -0.1609952
3759 0.9681190 -0.1678371 0.0318810 0.1678371 0.0318810 0.1678371 0.9681190 -0.1678371
3931 0.9653865 -0.1749289 0.0346135 0.1749289 0.0346135 0.1749289 0.9653865 -0.1749289
4111 0.9624234 -0.1822739 0.0375766 0.1822739 0.0375766 0.1822739 0.9624234 -0.1822739
4299 0.9592117 -0.1898747 0.0407883 0.1898747 0.0407883 0.1898747 0.9592117 -0.1898747
4496 0.9557323 -0.1977330 0.0442677 0.1977330 0.0442677 0.1977330 0.9557323 -0.1977330
4702 0.9519653 -0.2058492 0.0480347 0.2058492 0.0480347 0.2058492 0.9519653 -0.2058492
4918 0.9478896 -0.2142227 0.0521104 0.2142227 0.0521104 0.2142227 0.9478896 -0.2142227
5143 0.9434829 -0.2228514 0.0565171 0.2228514 0.0565171 0.2228514 0.9434829 -0.2228514
5378 0.9387221 -0.2317315 0.0612779 0.2317315 0.0612779 0.2317315 0.9387221 -0.2317315
5625 0.9335833 -0.2408578 0.0664167 0.2408578 0.0664167 0.2408578 0.9335833 -0.2408578
5882 0.9280415 -0.2502228 0.0719585 0.2502228 0.0719585 0.2502228 0.9280415 -0.2502228
6151 0.9220711 -0.2598169 0.0779289 0.2598169 0.0779289 0.2598169 0.9220711 -0.2598169
6433 0.9156458 -0.2696283 0.0843542 0.2696283 0.0843542 0.2696283 0.9156458 -0.2696283
6728 0.9087389 -0.2796425 0.0912611 0.2796425 0.0912611 0.2796425 0.9087389 -0.2796425
7036 0.9013235 -0.2898424 0.0986765 0.2898424 0.0986765 0.2898424 0.9013235 -0.2898424
7358 0.8933726 -0.3002077 0.1066274 0.3002077 0.1066274 0.3002077 0.8933726 -0.3002077
7695 0.8848594 -0.3107151 0.1151406 0.3107151 0.1151406 0.3107151 0.8848594 -0.3107151
8047 0.8757577 -0.3213379 0.1242423 0.3213379 0.1242423 0.3213379 0.8757577 -0.3213379
8416 0.8660424 -0.3320460 0.1339576 0.3320460 0.1339576 0.3320460 0.8660424 -0.3320460
8801 0.8556895 -0.3428055 0.1443105 0.3428055 0.1443105 0.3428055 0.8556895 -0.3428055
9204 0.8446768 -0.3535789 0.1553232 0.3535789 0.1553232 0.3535789 0.8446768 -0.3535789
9626 0.8329844 -0.3643251 0.1670156 0.3643251 0.1670156 0.3643251 0.8329844 -0.3643251
10066 0.8205951 -0.3749991 0.1794049 0.3749991 0.1794049 0.3749991 0.8205951 -0.3749991
10527 0.8074953 -0.3855524 0.1925047 0.3855524 0.1925047 0.3855524 0.8074953 -0.3855524
11009 0.7936749 -0.3959331 0.2063251 0.3959331 0.2063251 0.3959331 0.7936749 -0.3959331
11514 0.7791286 -0.4060861 0.2208714 0.4060861 0.2208714 0.4060861 0.7791286 -0.4060861
12041 0.7638562 -0.4159535 0.2361438 0.4159535 0.2361438 0.4159535 0.7638562 -0.4159535
12592 0.7478632 -0.4254753 0.2521368 0.4254753 0.2521368 0.4254753 0.7478632 -0.4254753
13169 0.7311611 -0.4345896 0.2688389 0.4345896 0.2688389 0.4345896 0.7311611 -0.4345896
13772 0.7137684 -0.4432337 0.2862316 0.4432337 0.2862316 0.4432337 0.7137684 -0.4432337
14402 0.6957103 -0.4513448 0.3042897 0.4513448 0.3042897 0.4513448 0.6957103 -0.4513448
15062 0.6770196 -0.4588607 0.3229804 0.4588607 0.3229804 0.4588607 0.6770196 -0.4588607
15752 0.6577364 -0.4657212 0.3422636 0.4657212 0.3422636 0.4657212 0.6577364 -0.4657212
16473 0.6379083 -0.4718687 0.3620917 0.4718687 0.3620917 0.4718687 0.6379083 -0.4718687
17227 0.6175899 -0.4772498 0.3824101 0.4772498 0.3824101 0.4772498 0.6175899 -0.4772498
18016 0.5968428 -0.4818159 0.4031572 0.4818159 0.4031572 0.4818159 0.5968428 -0.4818159
18841 0.5757347 -0.4855244 0.4242653 0.4855244 0.4242653 0.4855244 0.5757347 -0.4855244
19704 0.5543389 -0.4883399 0.4456611 0.4883399 0.4456611 0.4883399 0.5543389 -0.4883399
20606 0.5327328 -0.4902346 0.4672672 0.4902346 0.4672672 0.4902346 0.5327328 -0.4902346
21550 0.5109977 -0.4911892 0.4890023 0.4911892 0.4890023 0.4911892 0.5109977 -0.4911892
22537 0.4892168 -0.4911935 0.5107832 0.4911935 0.5107832 0.4911935 0.4892168 -0.4911935
23569 0.4674741 -0.4902464 0.5325259 0.4902464 0.5325259 0.4902464 0.4674741 -0.4902464
24648 0.4458536 -0.4883562 0.5541464 0.4883562 0.5541464 0.4883562 0.4458536 -0.4883562
25777 0.4244371 -0.4855404 0.5755629 0.4855404 0.5755629 0.4855404 0.4244371 -0.4855404
26957 0.4033037 -0.4818250 0.5966963 0.4818250 0.5966963 0.4818250 0.4033037 -0.4818250
28191 0.3825282 -0.4772445 0.6174718 0.4772445 0.6174718 0.4772445 0.3825282 -0.4772445
29482 0.3621803 -0.4718406 0.6378197 0.4718406 0.6378197 0.4718406 0.3621803 -0.4718406
30832 0.3423236 -0.4656615 0.6576764 0.4656615 0.6576764 0.4656615 0.3423236 -0.4656615
32244 0.3230148 -0.4587610 0.6769852 0.4587610 0.6769852 0.4587610 0.3230148 -0.4587610
33721 0.3043035 -0.4511970 0.6956965 0.4511970 0.6956965 0.4511970 0.3043035 -0.4511970
35265 0.2862315 -0.4430311 0.7137685 0.4430311 0.7137685 0.4430311 0.2862315 -0.4430311
36880 0.2688329 -0.4343267 0.7311671 0.4343267 0.7311671 0.4343267 0.2688329 -0.4343267
38569 0.2521344 -0.4251482 0.7478656 0.4251482 0.7478656 0.4251482 0.2521344 -0.4251482
40335 0.2361549 -0.4155604 0.7638451 0.4155604 0.7638451 0.4155604 0.2361549 -0.4155604
42182 0.2209066 -0.4056270 0.7790934 0.4056270 0.7790934 0.4056270 0.2209066 -0.4056270
44113 0.2063946 -0.3954100 0.7936054 0.3954100 0.7936054 0.3954100 0.2063946 -0.3954100
46134 0.1926184 -0.3849692 0.8073816 0.3849692 0.8073816 0.3849692 0.1926184 -0.3849692
48246 0.1795716 -0.3743614 0.8204284 0.3743614 0.8204284 0.3743614 0.1795716 -0.3743614
50455 0.1672433 -0.3636400 0.8327567 0.3636400 0.8327567 0.3636400 0.1672433 -0.3636400
52766 0.1556183 -0.3528548 0.8443817 0.3528548 0.8443817 0.3528548 0.1556183 -0.3528548
55182 0.1446780 -0.3420514 0.8553220 0.3420514 0.8553220 0.3420514 0.1446780 -0.3420514
57709 0.1344007 -0.3312719 0.8655993 0.3312719 0.8655993 0.3312719 0.1344007 -0.3312719
60352 0.1247625 -0.3205538 0.8752375 0.3205538 0.8752375 0.3205538 0.1247625 -0.3205538
63115 0.1157379 -0.3099309 0.8842621 0.3099309 0.8842621 0.3099309 0.1157379 -0.3099309
66005 0.1073001 -0.2994331 0.8926999 0.2994331 0.8926999 0.2994331 0.1073001 -0.2994331
69028 0.0994215 -0.2890863 0.9005785 0.2890863 0.9005785 0.2890863 0.0994215 -0.2890863
72189 0.0920740 -0.2789131 0.9079260 0.2789131 0.9079260 0.2789131 0.0920740 -0.2789131
75495 0.0852297 -0.2689327 0.9147703 0.2689327 0.9147703 0.2689327 0.0852297 -0.2689327
78952 0.0788608 -0.2591611 0.9211392 0.2591611 0.9211392 0.2591611 0.0788608 -0.2591611
82567 0.0729400 -0.2496117 0.9270600 0.2496117 0.9270600 0.2496117 0.0729400 -0.2496117
86348 0.0674408 -0.2402952 0.9325592 0.2402952 0.9325592 0.2402952 0.0674408 -0.2402952
90302 0.0623372 -0.2312197 0.9376628 0.2312197 0.9376628 0.2312197 0.0623372 -0.2312197
94437 0.0576046 -0.2223917 0.9423954 0.2223917 0.9423954 0.2223917 0.0576046 -0.2223917
98762 0.0532191 -0.2138154 0.9467809 0.2138154 0.9467809 0.2138154 0.0532191 -0.2138154
103284 0.0491579 -0.2054936 0.9508421 0.2054936 0.9508421 0.2054936 0.0491579 -0.2054936
108014 0.0453994 -0.1974275 0.9546006 0.1974275 0.9546006 0.1974275 0.0453994 -0.1974275
112960 0.0419232 -0.1896173 0.9580768 0.1896173 0.9580768 0.1896173 0.0419232 -0.1896173
118133 0.0387097 -0.1820616 0.9612903 0.1820616 0.9612903 0.1820616 0.0387097 -0.1820616
123542 0.0357407 -0.1747586 0.9642593 0.1747586 0.9642593 0.1747586 0.0357407 -0.1747586
129199 0.0329990 -0.1677054 0.9670010 0.1677054 0.9670010 0.1677054 0.0329990 -0.1677054
135116 0.0304683 -0.1608983 0.9695317 0.1608983 0.9695317 0.1608983 0.0304683 -0.1608983
141303 0.0281335 -0.1543334 0.9718665 0.1543334 0.9718665 0.1543334 0.0281335 -0.1543334
147774 0.0259801 -0.1480060 0.9740199 0.1480060 0.9740199 0.1480060 0.0259801 -0.1480060
154540 0.0239951 -0.1419112 0.9760049 0.1419112 0.9760049 0.1419112 0.0239951 -0.1419112
161617 0.0221657 -0.1360435 0.9778343 0.1360435 0.9778343 0.1360435 0.0221657 -0.1360435
169018 0.0204804 -0.1303974 0.9795196 0.1303974 0.9795196 0.1303974 0.0204804 -0.1303974
176758 0.0189283 -0.1249671 0.9810717 0.1249671 0.9810717 0.1249671 0.0189283 -0.1249671
184852 0.0174993 -0.1197467 0.9825007 0.1197467 0.9825007 0.1197467 0.0174993 -0.1197467
193316 0.0161838 -0.1147302 0.9838162 0.1147302 0.9838162 0.1147302 0.0161838 -0.1147302
202169 0.0149731 -0.1099114 0.9850269 0.1099114 0.9850269 0.1099114 0.0149731 -0.1099114
211427 0.0138591 -0.1052842 0.9861409 0.1052842 0.9861409 0.1052842 0.0138591 -0.1052842
221108 0.0128340 -0.1008425 0.9871660 0.1008425 0.9871660 0.1008425 0.0128340 -0.1008425
231233 0.0118910 -0.0965802 0.9881090 0.0965802 0.9881090 0.0965802 0.0118910 -0.0965802
241822 0.0110233 -0.0924911 0.9889767 0.0924911 0.9889767 0.0924911 0.0110233 -0.0924911
252896 0.0102250 -0.0885693 0.9897750 0.0885693 0.9897750 0.0885693 0.0102250 -0.0885693
264476 0.0094904 -0.0848088 0.9905096 0.0848088 0.9905096 0.0848088 0.0094904 -0.0848088
276587 0.0088144 -0.0812038 0.9911856 0.0812038 0.9911856 0.0812038 0.0088144 -0.0812038
289253 0.0081921 -0.0777486 0.9918079 0.0777486 0.9918079 0.0777486 0.0081921 -0.0777486
302498 0.0076191 -0.0744376 0.9923809 0.0744376 0.9923809 0.0744376 0.0076191 -0.0744376
316350 0.0070913 -0.0712651 0.9929087 0.0712651 0.9929087 0.0712651 0.0070913 -0.0712651
330837 0.0066049 -0.0682260 0.9933951 0.0682260 0.9933951 0.0682260 0.0066049 -0.0682260
345986 0.0061565 -0.0653150 0.9938435 0.0653150 0.9938435 0.0653150 0.0061565 -0.0653150
361830 0.0057429 -0.0625269 0.9942571 0.0625269 0.9942571 0.0625269 0.0057429 -0.0625269
378399 0.0053612 -0.0598568 0.9946388 0.0598568 0.9946388 0.0598568 0.0053612 -0.0598568
395726 0.0050086 -0.0573000 0.9949914 0.0573000 0.9949914 0.0573000 0.0050086 -0.0573000
413847 0.0046827 -0.0548518 0.9953173 0.0548518 0.9953173 0.0548518 0.0046827 -0.0548518
432798 0.0043814 -0.0525076 0.9956186 0.0525076 0.9956186 0.0525076 0.0043814 -0.0525076
452617 0.0041024 -0.0502633 0.9958976 0.0502633 0.9958976 0.0502633 0.0041024 -0.0502633
473344 0.0038440 -0.0481144 0.9961560 0.0481144 0.9961560 0.0481144 0.0038440 -0.0481144
495019 0.0036045 -0.0460571 0.9963955 0.0460571 0.9963955 0.0460571 0.0036045 -0.0460571
517687 0.0033822 -0.0440874 0.9966178 0.0440874 0.9966178 0.0440874 0.0033822 -0.0440874
541393 0.0031759 -0.0422016 0.9968241 0.0422016 0.9968241 0.0422016 0.0031759 -0.0422016
566185 0.0029842 -0.0403961 0.9970158 0.0403961 0.9970158 0.0403961 0.0029842 -0.0403961
592111 0.0028060 -0.0386674 0.9971940 0.0386674 0.9971940 0.0386674 0.0028060 -0.0386674
619225 0.0026403 -0.0370123 0.9973597 0.0370123 0.9973597 0.0370123 0.0026403 -0.0370123
647581 0.0024860 -0.0354275 0.9975140 0.0354275 0.9975140 0.0354275 0.0024860 -0.0354275
677235 0.0023424 -0.0339100 0.9976576 0.0339100 0.9976576 0.0339100 0.0023424 -0.0339100
708247 0.0022086 -0.0324570 0.9977914 0.0324570 0.9977914 0.0324570 0.0022086 -0.0324570
740679 0.0020840 -0.0310657 0.9979160 0.0310657 0.9979160 0.0310657 0.0020840 -0.0310657
774597 0.0019679 -0.0297334 0.9980321 0.0297334 0.9980321 0.0297334 0.0019679 -0.0297334
810067 0.0018597 -0.0284575 0.9981403 0.0284575 0.9981403 0.0284575 0.0018597 -0.0284575
847162 0.0017589 -0.0272358 0.9982411 0.0272358 0.9982411 0.0272358 0.0017589 -0.0272358
885955 0.0016650 -0.0260659 0.9983350 0.0260659 0.9983350 0.0260659 0.0016650 -0.0260659
926525 0.0015776 -0.0249456 0.9984224 0.0249456 0.9984224 0.0249456 0.0015776 -0.0249456
968953 0.0014962 -0.0238728 0.9985038 0.0238728 0.9985038 0.0238728 0.0014962 -0.0238728
1013323 0.0014204 -0.0228456 0.9985796 0.0228456 0.9985796 0.0228456 0.0014204 -0.0228456
1059725 0.0013499 -0.0218619 0.9986501 0.0218619 0.9986501 0.0218619 0.0013499 -0.0218619
1108252 0.0012843 -0.0209200 0.9987157 0.0209200 0.9987157 0.0209200 0.0012843 -0.0209200
1159002 0.0012234 -0.0200182 0.9987766 0.0200182 0.9987766 0.0200182 0.0012234 -0.0200182
1212075 0.0011667 -0.0191547 0.9988333 0.0191547 0.9988333 0.0191547 0.0011667 -0.0191547
1267578 0.0011141 -0.0183280 0.9988859 0.0183280 0.9988859 0.0183280 0.0011141 -0.0183280
1325623 0.0010652 -0.0175366 0.9989348 0.0175366 0.9989348 0.0175366 0.0010652 -0.0175366
1386327 0.0010198 -0.0167789 0.9989802 0.0167789 0.9989802 0.0167789 0.0010198 -0.0167789
1449809 0.0009777 -0.0160536 0.9990223 0.0160536 0.9990223 0.0160536 0.0009777 -0.0160536
1516199 0.0009386 -0.0153594 0.9990614 0.0153594 0.9990614 0.0153594 0.0009386 -0.0153594
1585629 0.0009023 -0.0146948 0.9990977 0.0146948 0.9990977 0.0146948 0.0009023 -0.0146948
1658239 0.0008686 -0.0140588 0.9991314 0.0140588 0.9991314 0.0140588 0.0008686 -0.0140588
1734173 0.0008374 -0.0134501 0.9991626 0.0134501 0.9991626 0.0134501 0.0008374 -0.0134501
1813585 0.0008083 -0.0128675 0.9991917 0.0128675 0.9991917 0.0128675 0.0008083 -0.0128675
1896632 0.0007814 -0.0123100 0.9992186 0.0123100 0.9992186 0.0123100 0.0007814 -0.0123100
1983483 0.0007563 -0.0117765 0.9992437 0.0117765 0.9992437 0.0117765 0.0007563 -0.0117765
2074311 0.0007330 -0.0112660 0.9992670 0.0112660 0.9992670 0.0112660 0.0007330 -0.0112660
