!Murata Part Number: GRM033C80J224ME90
!These Parameters are Measured in Series Mode Connection
!Data Generated on Mar 30, 2021
!       o--ll--o
!Port1            Port2
!       o------o
!Operation Temp=25[degC], DC Bias Voltage=0[V]
!Freq. Start=100[Hz] Stop=6[GHz] 401[Steps]
# Hz S RI R 50
!Freq.(Hz) S11(Real) S11(Imag) S21(Real) S21(Imag) S12(Real) S12(Imag) S22(Real) S22(Imag)
100 0.9997269 -0.0120332 0.0002731 0.0120332 0.0002731 0.0120332 0.9997269 -0.0120332
105 0.9997084 -0.0125802 0.0002916 0.0125802 0.0002916 0.0125802 0.9997084 -0.0125802
109 0.9996884 -0.0131521 0.0003116 0.0131521 0.0003116 0.0131521 0.9996884 -0.0131521
114 0.9996667 -0.0137500 0.0003333 0.0137500 0.0003333 0.0137500 0.9996667 -0.0137500
120 0.9996433 -0.0143751 0.0003567 0.0143751 0.0003567 0.0143751 0.9996433 -0.0143751
125 0.9996179 -0.0150286 0.0003821 0.0150286 0.0003821 0.0150286 0.9996179 -0.0150286
131 0.9995904 -0.0157119 0.0004096 0.0157119 0.0004096 0.0157119 0.9995904 -0.0157119
137 0.9995607 -0.0164261 0.0004393 0.0164261 0.0004393 0.0164261 0.9995607 -0.0164261
143 0.9995284 -0.0171729 0.0004716 0.0171729 0.0004716 0.0171729 0.9995284 -0.0171729
150 0.9994935 -0.0179535 0.0005065 0.0179535 0.0005065 0.0179535 0.9994935 -0.0179535
156 0.9994556 -0.0187695 0.0005444 0.0187695 0.0005444 0.0187695 0.9994556 -0.0187695
164 0.9994146 -0.0196225 0.0005854 0.0196225 0.0005854 0.0196225 0.9994146 -0.0196225
171 0.9993701 -0.0205142 0.0006299 0.0205142 0.0006299 0.0205142 0.9993701 -0.0205142
179 0.9993219 -0.0214463 0.0006781 0.0214463 0.0006781 0.0214463 0.9993219 -0.0214463
187 0.9992696 -0.0224206 0.0007304 0.0224206 0.0007304 0.0224206 0.9992696 -0.0224206
196 0.9992130 -0.0234390 0.0007870 0.0234390 0.0007870 0.0234390 0.9992130 -0.0234390
205 0.9991515 -0.0245036 0.0008485 0.0245036 0.0008485 0.0245036 0.9991515 -0.0245036
214 0.9990849 -0.0256163 0.0009151 0.0256163 0.0009151 0.0256163 0.9990849 -0.0256163
224 0.9990126 -0.0267793 0.0009874 0.0267793 0.0009874 0.0267793 0.9990126 -0.0267793
234 0.9989343 -0.0279949 0.0010657 0.0279949 0.0010657 0.0279949 0.9989343 -0.0279949
245 0.9988492 -0.0292655 0.0011508 0.0292655 0.0011508 0.0292655 0.9988492 -0.0292655
256 0.9987569 -0.0305934 0.0012431 0.0305934 0.0012431 0.0305934 0.9987569 -0.0305934
268 0.9986567 -0.0319814 0.0013433 0.0319814 0.0013433 0.0319814 0.9986567 -0.0319814
280 0.9985480 -0.0334321 0.0014520 0.0334321 0.0014520 0.0334321 0.9985480 -0.0334321
293 0.9984299 -0.0349482 0.0015701 0.0349482 0.0015701 0.0349482 0.9984299 -0.0349482
306 0.9983016 -0.0365327 0.0016984 0.0365327 0.0016984 0.0365327 0.9983016 -0.0365327
320 0.9981622 -0.0381887 0.0018378 0.0381887 0.0018378 0.0381887 0.9981622 -0.0381887
335 0.9980108 -0.0399193 0.0019892 0.0399193 0.0019892 0.0399193 0.9980108 -0.0399193
350 0.9978461 -0.0417278 0.0021539 0.0417278 0.0021539 0.0417278 0.9978461 -0.0417278
366 0.9976671 -0.0436176 0.0023329 0.0436176 0.0023329 0.0436176 0.9976671 -0.0436176
383 0.9974724 -0.0455924 0.0025276 0.0455924 0.0025276 0.0455924 0.9974724 -0.0455924
401 0.9972606 -0.0476558 0.0027394 0.0476558 0.0027394 0.0476558 0.9972606 -0.0476558
419 0.9970302 -0.0498118 0.0029698 0.0498118 0.0029698 0.0498118 0.9970302 -0.0498118
438 0.9967794 -0.0520643 0.0032206 0.0520643 0.0032206 0.0520643 0.9967794 -0.0520643
458 0.9965064 -0.0544175 0.0034936 0.0544175 0.0034936 0.0544175 0.9965064 -0.0544175
479 0.9962093 -0.0568757 0.0037907 0.0568757 0.0037907 0.0568757 0.9962093 -0.0568757
501 0.9958858 -0.0594434 0.0041142 0.0594434 0.0041142 0.0594434 0.9958858 -0.0594434
524 0.9955335 -0.0621253 0.0044665 0.0621253 0.0044665 0.0621253 0.9955335 -0.0621253
548 0.9951500 -0.0649261 0.0048500 0.0649261 0.0048500 0.0649261 0.9951500 -0.0649261
573 0.9947323 -0.0678509 0.0052677 0.0678509 0.0052677 0.0678509 0.9947323 -0.0678509
600 0.9942774 -0.0709048 0.0057226 0.0709048 0.0057226 0.0709048 0.9942774 -0.0709048
627 0.9937819 -0.0740930 0.0062181 0.0740930 0.0062181 0.0740930 0.9937819 -0.0740930
656 0.9932423 -0.0774211 0.0067577 0.0774211 0.0067577 0.0774211 0.9932423 -0.0774211
686 0.9926547 -0.0808948 0.0073453 0.0808948 0.0073453 0.0808948 0.9926547 -0.0808948
717 0.9920146 -0.0845197 0.0079854 0.0845197 0.0079854 0.0845197 0.9920146 -0.0845197
750 0.9913176 -0.0883019 0.0086824 0.0883019 0.0086824 0.0883019 0.9913176 -0.0883019
784 0.9905585 -0.0922475 0.0094415 0.0922475 0.0094415 0.0922475 0.9905585 -0.0922475
820 0.9897318 -0.0963627 0.0102682 0.0963627 0.0102682 0.0963627 0.9897318 -0.0963627
858 0.9888317 -0.1006539 0.0111683 0.1006539 0.0111683 0.1006539 0.9888317 -0.1006539
897 0.9878515 -0.1051276 0.0121485 0.1051276 0.0121485 0.1051276 0.9878515 -0.1051276
938 0.9867843 -0.1097903 0.0132157 0.1097903 0.0132157 0.1097903 0.9867843 -0.1097903
981 0.9856225 -0.1146487 0.0143775 0.1146487 0.0143775 0.1146487 0.9856225 -0.1146487
1026 0.9843578 -0.1197094 0.0156422 0.1197094 0.0156422 0.1197094 0.9843578 -0.1197094
1073 0.9829813 -0.1249792 0.0170187 0.1249792 0.0170187 0.1249792 0.9829813 -0.1249792
1122 0.9814834 -0.1304646 0.0185166 0.1304646 0.0185166 0.1304646 0.9814834 -0.1304646
1174 0.9798535 -0.1361721 0.0201465 0.1361721 0.0201465 0.1361721 0.9798535 -0.1361721
1227 0.9780804 -0.1421083 0.0219196 0.1421083 0.0219196 0.1421083 0.9780804 -0.1421083
1283 0.9761519 -0.1482792 0.0238481 0.1482792 0.0238481 0.1482792 0.9761519 -0.1482792
1342 0.9740550 -0.1546908 0.0259450 0.1546908 0.0259450 0.1546908 0.9740550 -0.1546908
1404 0.9717757 -0.1613487 0.0282243 0.1613487 0.0282243 0.1613487 0.9717757 -0.1613487
1468 0.9692988 -0.1682579 0.0307012 0.1682579 0.0307012 0.1682579 0.9692988 -0.1682579
1535 0.9666082 -0.1754230 0.0333918 0.1754230 0.0333918 0.1754230 0.9666082 -0.1754230
1606 0.9636867 -0.1828479 0.0363133 0.1828479 0.0363133 0.1828479 0.9636867 -0.1828479
1679 0.9605160 -0.1905357 0.0394840 0.1905357 0.0394840 0.1905357 0.9605160 -0.1905357
1756 0.9570766 -0.1984885 0.0429234 0.1984885 0.0429234 0.1984885 0.9570766 -0.1984885
1836 0.9533478 -0.2067074 0.0466522 0.2067074 0.0466522 0.2067074 0.9533478 -0.2067074
1920 0.9493078 -0.2151922 0.0506922 0.2151922 0.0506922 0.2151922 0.9493078 -0.2151922
2008 0.9449337 -0.2239413 0.0550663 0.2239413 0.0550663 0.2239413 0.9449337 -0.2239413
2100 0.9402014 -0.2329514 0.0597986 0.2329514 0.0597986 0.2329514 0.9402014 -0.2329514
2196 0.9350858 -0.2422175 0.0649142 0.2422175 0.0649142 0.2422175 0.9350858 -0.2422175
2297 0.9295608 -0.2517325 0.0704392 0.2517325 0.0704392 0.2517325 0.9295608 -0.2517325
2402 0.9235996 -0.2614868 0.0764004 0.2614868 0.0764004 0.2614868 0.9235996 -0.2614868
2512 0.9171744 -0.2714687 0.0828256 0.2714687 0.0828256 0.2714687 0.9171744 -0.2714687
2627 0.9102571 -0.2816635 0.0897429 0.2816635 0.0897429 0.2816635 0.9102571 -0.2816635
2748 0.9028191 -0.2920536 0.0971809 0.2920536 0.0971809 0.2920536 0.9028191 -0.2920536
2873 0.8948319 -0.3026182 0.1051681 0.3026182 0.1051681 0.3026182 0.8948319 -0.3026182
3005 0.8862670 -0.3133331 0.1137330 0.3133331 0.1137330 0.3133331 0.8862670 -0.3133331
3143 0.8770967 -0.3241704 0.1229033 0.3241704 0.1229033 0.3241704 0.8770967 -0.3241704
3287 0.8672942 -0.3350987 0.1327058 0.3350987 0.1327058 0.3350987 0.8672942 -0.3350987
3437 0.8568341 -0.3460823 0.1431659 0.3460823 0.1431659 0.3460823 0.8568341 -0.3460823
3594 0.8456929 -0.3570819 0.1543071 0.3570819 0.1543071 0.3570819 0.8456929 -0.3570819
3759 0.8338496 -0.3680541 0.1661504 0.3680541 0.1661504 0.3680541 0.8338496 -0.3680541
3931 0.8212863 -0.3789514 0.1787137 0.3789514 0.1787137 0.3789514 0.8212863 -0.3789514
4111 0.8079887 -0.3897226 0.1920113 0.3897226 0.1920113 0.3897226 0.8079887 -0.3897226
4299 0.7939467 -0.4003131 0.2060533 0.4003131 0.2060533 0.4003131 0.7939467 -0.4003131
4496 0.7791553 -0.4106647 0.2208447 0.4106647 0.2208447 0.4106647 0.7791553 -0.4106647
4702 0.7636147 -0.4207166 0.2363853 0.4207166 0.2363853 0.4207166 0.7636147 -0.4207166
4918 0.7473317 -0.4304058 0.2526683 0.4304058 0.2526683 0.4304058 0.7473317 -0.4304058
5143 0.7303192 -0.4396675 0.2696808 0.4396675 0.2696808 0.4396675 0.7303192 -0.4396675
5378 0.7125977 -0.4484363 0.2874023 0.4484363 0.2874023 0.4484363 0.7125977 -0.4484363
5625 0.6941949 -0.4566469 0.3058051 0.4566469 0.3058051 0.4566469 0.6941949 -0.4566469
5882 0.6751462 -0.4642350 0.3248538 0.4642350 0.3248538 0.4642350 0.6751462 -0.4642350
6151 0.6554948 -0.4711385 0.3445052 0.4711385 0.3445052 0.4711385 0.6554948 -0.4711385
6433 0.6352915 -0.4772986 0.3647085 0.4772986 0.3647085 0.4772986 0.6352915 -0.4772986
6728 0.6145946 -0.4826608 0.3854054 0.4826608 0.3854054 0.4826608 0.6145946 -0.4826608
7036 0.5934692 -0.4871762 0.4065308 0.4871762 0.4065308 0.4871762 0.5934692 -0.4871762
7358 0.5719866 -0.4908023 0.4280134 0.4908023 0.4280134 0.4908023 0.5719866 -0.4908023
7695 0.5502237 -0.4935041 0.4497763 0.4935041 0.4497763 0.4935041 0.5502237 -0.4935041
8047 0.5282614 -0.4952550 0.4717386 0.4952550 0.4717386 0.4952550 0.5282614 -0.4952550
8416 0.5061842 -0.4960371 0.4938158 0.4960371 0.4938158 0.4960371 0.5061842 -0.4960371
8801 0.4840781 -0.4958422 0.5159219 0.4958422 0.5159219 0.4958422 0.4840781 -0.4958422
9204 0.4620299 -0.4946713 0.5379701 0.4946713 0.5379701 0.4946713 0.4620299 -0.4946713
9626 0.4401258 -0.4925353 0.5598742 0.4925353 0.5598742 0.4925353 0.4401258 -0.4925353
10066 0.4184495 -0.4894542 0.5815505 0.4894542 0.5815505 0.4894542 0.4184495 -0.4894542
10527 0.3970815 -0.4854571 0.6029185 0.4854571 0.6029185 0.4854571 0.3970815 -0.4854571
11009 0.3760977 -0.4805811 0.6239023 0.4805811 0.6239023 0.4805811 0.3760977 -0.4805811
11514 0.3555685 -0.4748710 0.6444315 0.4748710 0.6444315 0.4748710 0.3555685 -0.4748710
12041 0.3355577 -0.4683777 0.6644423 0.4683777 0.6644423 0.4683777 0.3355577 -0.4683777
12592 0.3161221 -0.4611577 0.6838779 0.4611577 0.6838779 0.4611577 0.3161221 -0.4611577
13169 0.2973108 -0.4532717 0.7026892 0.4532717 0.7026892 0.4532717 0.2973108 -0.4532717
13772 0.2791652 -0.4447836 0.7208348 0.4447836 0.7208348 0.4447836 0.2791652 -0.4447836
14402 0.2617186 -0.4357589 0.7382814 0.4357589 0.7382814 0.4357589 0.2617186 -0.4357589
15062 0.2449966 -0.4262644 0.7550034 0.4262644 0.7550034 0.4262644 0.2449966 -0.4262644
15752 0.2290171 -0.4163664 0.7709829 0.4163664 0.7709829 0.4163664 0.2290171 -0.4163664
16473 0.2137909 -0.4061304 0.7862091 0.4061304 0.7862091 0.4061304 0.2137909 -0.4061304
17227 0.1993220 -0.3956198 0.8006780 0.3956198 0.8006780 0.3956198 0.1993220 -0.3956198
18016 0.1856084 -0.3848958 0.8143916 0.3848958 0.8143916 0.3848958 0.1856084 -0.3848958
18841 0.1726425 -0.3740161 0.8273575 0.3740161 0.8273575 0.3740161 0.1726425 -0.3740161
19704 0.1604118 -0.3630353 0.8395882 0.3630353 0.8395882 0.3630353 0.1604118 -0.3630353
20606 0.1488998 -0.3520037 0.8511002 0.3520037 0.8511002 0.3520037 0.1488998 -0.3520037
21550 0.1380864 -0.3409680 0.8619136 0.3409680 0.8619136 0.3409680 0.1380864 -0.3409680
22537 0.1279486 -0.3299705 0.8720514 0.3299705 0.8720514 0.3299705 0.1279486 -0.3299705
23569 0.1184611 -0.3190493 0.8815389 0.3190493 0.8815389 0.3190493 0.1184611 -0.3190493
24648 0.1095969 -0.3082385 0.8904031 0.3082385 0.8904031 0.3082385 0.1095969 -0.3082385
25777 0.1013279 -0.2975682 0.8986721 0.2975682 0.8986721 0.2975682 0.1013279 -0.2975682
26957 0.0936250 -0.2870646 0.9063750 0.2870646 0.9063750 0.2870646 0.0936250 -0.2870646
28191 0.0864591 -0.2767501 0.9135409 0.2767501 0.9135409 0.2767501 0.0864591 -0.2767501
29482 0.0798006 -0.2666440 0.9201994 0.2666440 0.9201994 0.2666440 0.0798006 -0.2666440
30832 0.0736206 -0.2567621 0.9263794 0.2567621 0.9263794 0.2567621 0.0736206 -0.2567621
32244 0.0678905 -0.2471175 0.9321095 0.2471175 0.9321095 0.2471175 0.0678905 -0.2471175
33721 0.0625826 -0.2377204 0.9374174 0.2377204 0.9374174 0.2377204 0.0625826 -0.2377204
35265 0.0576698 -0.2285786 0.9423302 0.2285786 0.9423302 0.2285786 0.0576698 -0.2285786
36880 0.0531262 -0.2196979 0.9468738 0.2196979 0.9468738 0.2196979 0.0531262 -0.2196979
38569 0.0489271 -0.2110820 0.9510729 0.2110820 0.9510729 0.2110820 0.0489271 -0.2110820
40335 0.0450487 -0.2027328 0.9549513 0.2027328 0.9549513 0.2027328 0.0450487 -0.2027328
42182 0.0414687 -0.1946508 0.9585313 0.1946508 0.9585313 0.1946508 0.0414687 -0.1946508
44113 0.0381657 -0.1868352 0.9618343 0.1868352 0.9618343 0.1868352 0.0381657 -0.1868352
46134 0.0351198 -0.1792840 0.9648802 0.1792840 0.9648802 0.1792840 0.0351198 -0.1792840
48246 0.0323121 -0.1719942 0.9676879 0.1719942 0.9676879 0.1719942 0.0323121 -0.1719942
50455 0.0297251 -0.1649621 0.9702749 0.1649621 0.9702749 0.1649621 0.0297251 -0.1649621
52766 0.0273421 -0.1581831 0.9726579 0.1581831 0.9726579 0.1581831 0.0273421 -0.1581831
55182 0.0251478 -0.1516522 0.9748522 0.1516522 0.9748522 0.1516522 0.0251478 -0.1516522
57709 0.0231279 -0.1453639 0.9768721 0.1453639 0.9768721 0.1453639 0.0231279 -0.1453639
60352 0.0212690 -0.1393125 0.9787310 0.1393125 0.9787310 0.1393125 0.0212690 -0.1393125
63115 0.0195588 -0.1334916 0.9804412 0.1334916 0.9804412 0.1334916 0.0195588 -0.1334916
66005 0.0179857 -0.1278951 0.9820143 0.1278951 0.9820143 0.1278951 0.0179857 -0.1278951
69028 0.0165390 -0.1225165 0.9834610 0.1225165 0.9834610 0.1225165 0.0165390 -0.1225165
72189 0.0152090 -0.1173491 0.9847910 0.1173491 0.9847910 0.1173491 0.0152090 -0.1173491
75495 0.0139865 -0.1123864 0.9860135 0.1123864 0.9860135 0.1123864 0.0139865 -0.1123864
78952 0.0128629 -0.1076217 0.9871371 0.1076217 0.9871371 0.1076217 0.0128629 -0.1076217
82567 0.0118306 -0.1030486 0.9881694 0.1030486 0.9881694 0.1030486 0.0118306 -0.1030486
86348 0.0108823 -0.0986605 0.9891177 0.0986605 0.9891177 0.0986605 0.0108823 -0.0986605
90302 0.0100114 -0.0944510 0.9899886 0.0944510 0.9899886 0.0944510 0.0100114 -0.0944510
94437 0.0092116 -0.0904138 0.9907884 0.0904138 0.9907884 0.0904138 0.0092116 -0.0904138
98762 0.0084773 -0.0865427 0.9915227 0.0865427 0.9915227 0.0865427 0.0084773 -0.0865427
103284 0.0078033 -0.0828315 0.9921967 0.0828315 0.9921967 0.0828315 0.0078033 -0.0828315
108014 0.0071846 -0.0792745 0.9928154 0.0792745 0.9928154 0.0792745 0.0071846 -0.0792745
112960 0.0066170 -0.0758657 0.9933830 0.0758657 0.9933830 0.0758657 0.0066170 -0.0758657
118133 0.0060961 -0.0725995 0.9939039 0.0725995 0.9939039 0.0725995 0.0060961 -0.0725995
123542 0.0056183 -0.0694706 0.9943817 0.0694706 0.9943817 0.0694706 0.0056183 -0.0694706
129199 0.0051800 -0.0664734 0.9948200 0.0664734 0.9948200 0.0664734 0.0051800 -0.0664734
135116 0.0047781 -0.0636030 0.9952219 0.0636030 0.9952219 0.0636030 0.0047781 -0.0636030
141303 0.0044094 -0.0608542 0.9955906 0.0608542 0.9955906 0.0608542 0.0044094 -0.0608542
147774 0.0040713 -0.0582222 0.9959287 0.0582222 0.9959287 0.0582222 0.0040713 -0.0582222
154540 0.0037613 -0.0557023 0.9962387 0.0557023 0.9962387 0.0557023 0.0037613 -0.0557023
161617 0.0034770 -0.0532901 0.9965230 0.0532901 0.9965230 0.0532901 0.0034770 -0.0532901
169018 0.0032164 -0.0509811 0.9967836 0.0509811 0.9967836 0.0509811 0.0032164 -0.0509811
176758 0.0029773 -0.0487712 0.9970227 0.0487712 0.9970227 0.0487712 0.0029773 -0.0487712
184852 0.0027581 -0.0466561 0.9972419 0.0466561 0.9972419 0.0466561 0.0027581 -0.0466561
193316 0.0025570 -0.0446321 0.9974430 0.0446321 0.9974430 0.0446321 0.0025570 -0.0446321
202169 0.0023726 -0.0426953 0.9976274 0.0426953 0.9976274 0.0426953 0.0023726 -0.0426953
211427 0.0022033 -0.0408421 0.9977967 0.0408421 0.9977967 0.0408421 0.0022033 -0.0408421
221108 0.0020480 -0.0390690 0.9979520 0.0390690 0.9979520 0.0390690 0.0020480 -0.0390690
231233 0.0019054 -0.0373727 0.9980946 0.0373727 0.9980946 0.0373727 0.0019054 -0.0373727
241822 0.0017745 -0.0357497 0.9982255 0.0357497 0.9982255 0.0357497 0.0017745 -0.0357497
252896 0.0016542 -0.0341972 0.9983458 0.0341972 0.9983458 0.0341972 0.0016542 -0.0341972
264476 0.0015437 -0.0327120 0.9984563 0.0327120 0.9984563 0.0327120 0.0015437 -0.0327120
276587 0.0014420 -0.0312913 0.9985580 0.0312913 0.9985580 0.0312913 0.0014420 -0.0312913
289253 0.0013485 -0.0299323 0.9986515 0.0299323 0.9986515 0.0299323 0.0013485 -0.0299323
302498 0.0012623 -0.0286324 0.9987377 0.0286324 0.9987377 0.0286324 0.0012623 -0.0286324
316350 0.0011830 -0.0273890 0.9988170 0.0273890 0.9988170 0.0273890 0.0011830 -0.0273890
330837 0.0011098 -0.0261997 0.9988902 0.0261997 0.9988902 0.0261997 0.0011098 -0.0261997
345986 0.0010422 -0.0250621 0.9989578 0.0250621 0.9989578 0.0250621 0.0010422 -0.0250621
361830 0.0009798 -0.0239740 0.9990202 0.0239740 0.9990202 0.0239740 0.0009798 -0.0239740
378399 0.0009222 -0.0229332 0.9990778 0.0229332 0.9990778 0.0229332 0.0009222 -0.0229332
395726 0.0008688 -0.0219376 0.9991312 0.0219376 0.9991312 0.0219376 0.0008688 -0.0219376
413847 0.0008193 -0.0209853 0.9991807 0.0209853 0.9991807 0.0209853 0.0008193 -0.0209853
432798 0.0007735 -0.0200744 0.9992265 0.0200744 0.9992265 0.0200744 0.0007735 -0.0200744
452617 0.0007309 -0.0192031 0.9992691 0.0192031 0.9992691 0.0192031 0.0007309 -0.0192031
473344 0.0006914 -0.0183696 0.9993086 0.0183696 0.9993086 0.0183696 0.0006914 -0.0183696
495019 0.0006546 -0.0175722 0.9993454 0.0175722 0.9993454 0.0175722 0.0006546 -0.0175722
517687 0.0006204 -0.0168094 0.9993796 0.0168094 0.9993796 0.0168094 0.0006204 -0.0168094
541393 0.0005885 -0.0160796 0.9994115 0.0160796 0.9994115 0.0160796 0.0005885 -0.0160796
566185 0.0005588 -0.0153814 0.9994412 0.0153814 0.9994412 0.0153814 0.0005588 -0.0153814
592111 0.0005311 -0.0147134 0.9994689 0.0147134 0.9994689 0.0147134 0.0005311 -0.0147134
619225 0.0005053 -0.0140743 0.9994947 0.0140743 0.9994947 0.0140743 0.0005053 -0.0140743
647581 0.0004812 -0.0134628 0.9995188 0.0134628 0.9995188 0.0134628 0.0004812 -0.0134628
677235 0.0004587 -0.0128777 0.9995413 0.0128777 0.9995413 0.0128777 0.0004587 -0.0128777
708247 0.0004376 -0.0123178 0.9995624 0.0123178 0.9995624 0.0123178 0.0004376 -0.0123178
740679 0.0004180 -0.0117821 0.9995820 0.0117821 0.9995820 0.0117821 0.0004180 -0.0117821
774597 0.0003997 -0.0112694 0.9996003 0.0112694 0.9996003 0.0112694 0.0003997 -0.0112694
810067 0.0003826 -0.0107789 0.9996174 0.0107789 0.9996174 0.0107789 0.0003826 -0.0107789
847162 0.0003667 -0.0103094 0.9996333 0.0103094 0.9996333 0.0103094 0.0003667 -0.0103094
885955 0.0003518 -0.0098601 0.9996482 0.0098601 0.9996482 0.0098601 0.0003518 -0.0098601
926525 0.0003380 -0.0094302 0.9996620 0.0094302 0.9996620 0.0094302 0.0003380 -0.0094302
968953 0.0003251 -0.0090187 0.9996749 0.0090187 0.9996749 0.0090187 0.0003251 -0.0090187
1013323 0.0003131 -0.0086250 0.9996869 0.0086250 0.9996869 0.0086250 0.0003131 -0.0086250
1059725 0.0003019 -0.0082481 0.9996981 0.0082481 0.9996981 0.0082481 0.0003019 -0.0082481
1108252 0.0002916 -0.0078875 0.9997084 0.0078875 0.9997084 0.0078875 0.0002916 -0.0078875
1159002 0.0002819 -0.0075424 0.9997181 0.0075424 0.9997181 0.0075424 0.0002819 -0.0075424
1212075 0.0002730 -0.0072121 0.9997270 0.0072121 0.9997270 0.0072121 0.0002730 -0.0072121
1267578 0.0002647 -0.0068960 0.9997353 0.0068960 0.9997353 0.0068960 0.0002647 -0.0068960
1325623 0.0002570 -0.0065935 0.9997430 0.0065935 0.9997430 0.0065935 0.0002570 -0.0065935
1386327 0.0002499 -0.0063040 0.9997501 0.0063040 0.9997501 0.0063040 0.0002499 -0.0063040
1449809 0.0002434 -0.0060269 0.9997566 0.0060269 0.9997566 0.0060269 0.0002434 -0.0060269
1516199 0.0002373 -0.0057617 0.9997627 0.0057617 0.9997627 0.0057617 0.0002373 -0.0057617
1585629 0.0002317 -0.0055079 0.9997683 0.0055079 0.9997683 0.0055079 0.0002317 -0.0055079
1658239 0.0002265 -0.0052650 0.9997735 0.0052650 0.9997735 0.0052650 0.0002265 -0.0052650
1734173 0.0002217 -0.0050326 0.9997783 0.0050326 0.9997783 0.0050326 0.0002217 -0.0050326
1813585 0.0002173 -0.0048101 0.9997827 0.0048101 0.9997827 0.0048101 0.0002173 -0.0048101
1896632 0.0002133 -0.0045971 0.9997867 0.0045971 0.9997867 0.0045971 0.0002133 -0.0045971
1983483 0.0002095 -0.0043932 0.9997905 0.0043932 0.9997905 0.0043932 0.0002095 -0.0043932
2074311 0.0002061 -0.0041981 0.9997939 0.0041981 0.9997939 0.0041981 0.0002061 -0.0041981
