!Murata Part Number: GRM033C80G105ME05
!These Parameters are Measured in Series Mode Connection
!Data Generated on Mar 30, 2021
!       o--ll--o
!Port1            Port2
!       o------o
!Operation Temp=25[degC], DC Bias Voltage=0[V]
!Freq. Start=100[Hz] Stop=6[GHz] 401[Steps]
# Hz S RI R 50
!Freq.(Hz) S11(Real) S11(Imag) S21(Real) S21(Imag) S12(Real) S12(Imag) S22(Real) S22(Imag)
100 0.9965568 -0.0527972 0.0034432 0.0527972 0.0034432 0.0527972 0.9965568 -0.0527972
105 0.9962732 -0.0551804 0.0037268 0.0551804 0.0037268 0.0551804 0.9962732 -0.0551804
109 0.9959644 -0.0576698 0.0040356 0.0576698 0.0040356 0.0576698 0.9959644 -0.0576698
114 0.9956282 -0.0602698 0.0043718 0.0602698 0.0043718 0.0602698 0.9956282 -0.0602698
120 0.9952621 -0.0629850 0.0047379 0.0629850 0.0047379 0.0629850 0.9952621 -0.0629850
125 0.9948637 -0.0658202 0.0051363 0.0658202 0.0051363 0.0658202 0.9948637 -0.0658202
131 0.9944299 -0.0687804 0.0055701 0.0687804 0.0055701 0.0687804 0.9944299 -0.0687804
137 0.9939578 -0.0718708 0.0060422 0.0718708 0.0060422 0.0718708 0.9939578 -0.0718708
143 0.9934439 -0.0750966 0.0065561 0.0750966 0.0065561 0.0750966 0.9934439 -0.0750966
150 0.9928846 -0.0784633 0.0071154 0.0784633 0.0071154 0.0784633 0.9928846 -0.0784633
156 0.9922758 -0.0819766 0.0077242 0.0819766 0.0077242 0.0819766 0.9922758 -0.0819766
164 0.9916133 -0.0856423 0.0083867 0.0856423 0.0083867 0.0856423 0.9916133 -0.0856423
171 0.9908924 -0.0894664 0.0091076 0.0894664 0.0091076 0.0894664 0.9908924 -0.0894664
179 0.9901080 -0.0934550 0.0098920 0.0934550 0.0098920 0.0934550 0.9901080 -0.0934550
187 0.9892544 -0.0976143 0.0107456 0.0976143 0.0107456 0.0976143 0.9892544 -0.0976143
196 0.9883257 -0.1019508 0.0116743 0.1019508 0.0116743 0.1019508 0.9883257 -0.1019508
205 0.9873153 -0.1064711 0.0126847 0.1064711 0.0126847 0.1064711 0.9873153 -0.1064711
214 0.9862161 -0.1111816 0.0137839 0.1111816 0.0137839 0.1111816 0.9862161 -0.1111816
224 0.9850204 -0.1160891 0.0149796 0.1160891 0.0149796 0.1160891 0.9850204 -0.1160891
234 0.9837197 -0.1212003 0.0162803 0.1212003 0.0162803 0.1212003 0.9837197 -0.1212003
245 0.9823050 -0.1265219 0.0176950 0.1265219 0.0176950 0.1265219 0.9823050 -0.1265219
256 0.9807664 -0.1320605 0.0192336 0.1320605 0.0192336 0.1320605 0.9807664 -0.1320605
268 0.9790933 -0.1378228 0.0209067 0.1378228 0.0209067 0.1378228 0.9790933 -0.1378228
280 0.9772742 -0.1438150 0.0227258 0.1438150 0.0227258 0.1438150 0.9772742 -0.1438150
293 0.9752967 -0.1500435 0.0247033 0.1500435 0.0247033 0.1500435 0.9752967 -0.1500435
306 0.9731474 -0.1565141 0.0268526 0.1565141 0.0268526 0.1565141 0.9731474 -0.1565141
320 0.9708121 -0.1632323 0.0291879 0.1632323 0.0291879 0.1632323 0.9708121 -0.1632323
335 0.9682753 -0.1702032 0.0317247 0.1702032 0.0317247 0.1702032 0.9682753 -0.1702032
350 0.9655206 -0.1774311 0.0344794 0.1774311 0.0344794 0.1774311 0.9655206 -0.1774311
366 0.9625303 -0.1849199 0.0374697 0.1849199 0.0374697 0.1849199 0.9625303 -0.1849199
383 0.9592858 -0.1926723 0.0407142 0.1926723 0.0407142 0.1926723 0.9592858 -0.1926723
401 0.9557671 -0.2006904 0.0442329 0.2006904 0.0442329 0.2006904 0.9557671 -0.2006904
419 0.9519531 -0.2089749 0.0480469 0.2089749 0.0480469 0.2089749 0.9519531 -0.2089749
438 0.9478216 -0.2175251 0.0521784 0.2175251 0.0521784 0.2175251 0.9478216 -0.2175251
458 0.9433493 -0.2263391 0.0566507 0.2263391 0.0566507 0.2263391 0.9433493 -0.2263391
479 0.9385115 -0.2354131 0.0614885 0.2354131 0.0614885 0.2354131 0.9385115 -0.2354131
501 0.9332829 -0.2447413 0.0667171 0.2447413 0.0667171 0.2447413 0.9332829 -0.2447413
524 0.9276368 -0.2543158 0.0723632 0.2543158 0.0723632 0.2543158 0.9276368 -0.2543158
548 0.9215461 -0.2641266 0.0784539 0.2641266 0.0784539 0.2641266 0.9215461 -0.2641266
573 0.9149828 -0.2741607 0.0850172 0.2741607 0.0850172 0.2741607 0.9149828 -0.2741607
600 0.9079184 -0.2844024 0.0920816 0.2844024 0.0920816 0.2844024 0.9079184 -0.2844024
627 0.9003243 -0.2948330 0.0996757 0.2948330 0.0996757 0.2948330 0.9003243 -0.2948330
656 0.8921720 -0.3054304 0.1078280 0.3054304 0.1078280 0.3054304 0.8921720 -0.3054304
686 0.8834331 -0.3161690 0.1165669 0.3161690 0.1165669 0.3161690 0.8834331 -0.3161690
717 0.8740802 -0.3270196 0.1259198 0.3270196 0.1259198 0.3270196 0.8740802 -0.3270196
750 0.8640872 -0.3379492 0.1359128 0.3379492 0.1359128 0.3379492 0.8640872 -0.3379492
784 0.8534293 -0.3489205 0.1465707 0.3489205 0.1465707 0.3489205 0.8534293 -0.3489205
820 0.8420841 -0.3598928 0.1579159 0.3598928 0.1579159 0.3598928 0.8420841 -0.3598928
858 0.8300320 -0.3708210 0.1699680 0.3708210 0.1699680 0.3708210 0.8300320 -0.3708210
897 0.8172565 -0.3816564 0.1827435 0.3816564 0.1827435 0.3816564 0.8172565 -0.3816564
938 0.8037453 -0.3923465 0.1962547 0.3923465 0.1962547 0.3923465 0.8037453 -0.3923465
981 0.7894905 -0.4028355 0.2105095 0.4028355 0.2105095 0.4028355 0.7894905 -0.4028355
1026 0.7744894 -0.4130646 0.2255106 0.4130646 0.2255106 0.4130646 0.7744894 -0.4130646
1073 0.7587451 -0.4229725 0.2412549 0.4229725 0.2412549 0.4229725 0.7587451 -0.4229725
1122 0.7422668 -0.4324961 0.2577332 0.4324961 0.2577332 0.4324961 0.7422668 -0.4324961
1174 0.7250707 -0.4415711 0.2749293 0.4415711 0.2749293 0.4415711 0.7250707 -0.4415711
1227 0.7071800 -0.4501329 0.2928200 0.4501329 0.2928200 0.4501329 0.7071800 -0.4501329
1283 0.6886254 -0.4581174 0.3113746 0.4581174 0.3113746 0.4581174 0.6886254 -0.4581174
1342 0.6694450 -0.4654623 0.3305550 0.4654623 0.3305550 0.4654623 0.6694450 -0.4654623
1404 0.6496844 -0.4721078 0.3503156 0.4721078 0.3503156 0.4721078 0.6496844 -0.4721078
1468 0.6293966 -0.4779976 0.3706034 0.4779976 0.3706034 0.4779976 0.6293966 -0.4779976
1535 0.6086415 -0.4830806 0.3913585 0.4830806 0.3913585 0.4830806 0.6086415 -0.4830806
1606 0.5874855 -0.4873109 0.4125145 0.4873109 0.4125145 0.4873109 0.5874855 -0.4873109
1679 0.5660006 -0.4906498 0.4339994 0.4906498 0.4339994 0.4906498 0.5660006 -0.4906498
1756 0.5442634 -0.4930658 0.4557366 0.4930658 0.4557366 0.4930658 0.5442634 -0.4930658
1836 0.5223547 -0.4945358 0.4776453 0.4945358 0.4776453 0.4945358 0.5223547 -0.4945358
1920 0.5003576 -0.4950454 0.4996424 0.4950454 0.4996424 0.4950454 0.5003576 -0.4950454
2008 0.4783566 -0.4945894 0.5216434 0.4945894 0.5216434 0.4945894 0.4783566 -0.4945894
2100 0.4564366 -0.4931717 0.5435634 0.4931717 0.5435634 0.4931717 0.4564366 -0.4931717
2196 0.4346811 -0.4908055 0.5653189 0.4908055 0.5653189 0.4908055 0.4346811 -0.4908055
2297 0.4131713 -0.4875127 0.5868287 0.4875127 0.5868287 0.4875127 0.4131713 -0.4875127
2402 0.3919848 -0.4833238 0.6080152 0.4833238 0.6080152 0.4833238 0.3919848 -0.4833238
2512 0.3711946 -0.4782768 0.6288054 0.4782768 0.6288054 0.4782768 0.3711946 -0.4782768
2627 0.3508681 -0.4724170 0.6491319 0.4724170 0.6491319 0.4724170 0.3508681 -0.4724170
2748 0.3310664 -0.4657953 0.6689336 0.4657953 0.6689336 0.4657953 0.3310664 -0.4657953
2873 0.3118435 -0.4584677 0.6881565 0.4584677 0.6881565 0.4584677 0.3118435 -0.4584677
3005 0.2932462 -0.4504943 0.7067538 0.4504943 0.7067538 0.4504943 0.2932462 -0.4504943
3143 0.2753137 -0.4419378 0.7246863 0.4419378 0.7246863 0.4419378 0.2753137 -0.4419378
3287 0.2580774 -0.4328626 0.7419226 0.4328626 0.7419226 0.4328626 0.2580774 -0.4328626
3437 0.2415614 -0.4233341 0.7584386 0.4233341 0.7584386 0.4233341 0.2415614 -0.4233341
3594 0.2257821 -0.4134171 0.7742179 0.4134171 0.7742179 0.4134171 0.2257821 -0.4134171
3759 0.2107495 -0.4031755 0.7892505 0.4031755 0.7892505 0.4031755 0.2107495 -0.4031755
3931 0.1964668 -0.3926713 0.8035332 0.3926713 0.8035332 0.3926713 0.1964668 -0.3926713
4111 0.1829313 -0.3819642 0.8170687 0.3819642 0.8170687 0.3819642 0.1829313 -0.3819642
4299 0.1701353 -0.3711105 0.8298647 0.3711105 0.8298647 0.3711105 0.1701353 -0.3711105
4496 0.1580662 -0.3601633 0.8419338 0.3601633 0.8419338 0.3601633 0.1580662 -0.3601633
4702 0.1467073 -0.3491720 0.8532927 0.3491720 0.8532927 0.3491720 0.1467073 -0.3491720
4918 0.1360388 -0.3381820 0.8639612 0.3381820 0.8639612 0.3381820 0.1360388 -0.3381820
5143 0.1260379 -0.3272347 0.8739621 0.3272347 0.8739621 0.3272347 0.1260379 -0.3272347
5378 0.1166796 -0.3163673 0.8833204 0.3163673 0.8833204 0.3163673 0.1166796 -0.3163673
5625 0.1079373 -0.3056131 0.8920627 0.3056131 0.8920627 0.3056131 0.1079373 -0.3056131
5882 0.0997832 -0.2950017 0.9002168 0.2950017 0.9002168 0.2950017 0.0997832 -0.2950017
6151 0.0921886 -0.2845586 0.9078114 0.2845586 0.9078114 0.2845586 0.0921886 -0.2845586
6433 0.0851248 -0.2743059 0.9148752 0.2743059 0.9148752 0.2743059 0.0851248 -0.2743059
6728 0.0785626 -0.2642624 0.9214374 0.2642624 0.9214374 0.2642624 0.0785626 -0.2642624
7036 0.0724735 -0.2544436 0.9275265 0.2544436 0.9275265 0.2544436 0.0724735 -0.2544436
7358 0.0668293 -0.2448624 0.9331707 0.2448624 0.9331707 0.2448624 0.0668293 -0.2448624
7695 0.0616023 -0.2355289 0.9383977 0.2355289 0.9383977 0.2355289 0.0616023 -0.2355289
8047 0.0567661 -0.2264507 0.9432339 0.2264507 0.9432339 0.2264507 0.0567661 -0.2264507
8416 0.0522949 -0.2176334 0.9477051 0.2176334 0.9477051 0.2176334 0.0522949 -0.2176334
8801 0.0481641 -0.2090806 0.9518359 0.2090806 0.9518359 0.2090806 0.0481641 -0.2090806
9204 0.0443503 -0.2007942 0.9556497 0.2007942 0.9556497 0.2007942 0.0443503 -0.2007942
9626 0.0408312 -0.1927747 0.9591688 0.1927747 0.9591688 0.1927747 0.0408312 -0.1927747
10066 0.0375857 -0.1850212 0.9624143 0.1850212 0.9624143 0.1850212 0.0375857 -0.1850212
10527 0.0345939 -0.1775316 0.9654061 0.1775316 0.9654061 0.1775316 0.0345939 -0.1775316
11009 0.0318371 -0.1703028 0.9681629 0.1703028 0.9681629 0.1703028 0.0318371 -0.1703028
11514 0.0292977 -0.1633311 0.9707023 0.1633311 0.9707023 0.1633311 0.0292977 -0.1633311
12041 0.0269593 -0.1566119 0.9730407 0.1566119 0.9730407 0.1566119 0.0269593 -0.1566119
12592 0.0248066 -0.1501400 0.9751934 0.1501400 0.9751934 0.1501400 0.0248066 -0.1501400
13169 0.0228254 -0.1439100 0.9771746 0.1439100 0.9771746 0.1439100 0.0228254 -0.1439100
13772 0.0210023 -0.1379158 0.9789977 0.1379158 0.9789977 0.1379158 0.0210023 -0.1379158
14402 0.0193251 -0.1321512 0.9806749 0.1321512 0.9806749 0.1321512 0.0193251 -0.1321512
15062 0.0177823 -0.1266099 0.9822177 0.1266099 0.9822177 0.1266099 0.0177823 -0.1266099
15752 0.0163635 -0.1212853 0.9836365 0.1212853 0.9836365 0.1212853 0.0163635 -0.1212853
16473 0.0150587 -0.1161706 0.9849413 0.1161706 0.9849413 0.1161706 0.0150587 -0.1161706
17227 0.0138591 -0.1112592 0.9861409 0.1112592 0.9861409 0.1112592 0.0138591 -0.1112592
18016 0.0127562 -0.1065445 0.9872438 0.1065445 0.9872438 0.1065445 0.0127562 -0.1065445
18841 0.0117424 -0.1020198 0.9882576 0.1020198 0.9882576 0.1020198 0.0117424 -0.1020198
19704 0.0108106 -0.0976786 0.9891894 0.0976786 0.9891894 0.0976786 0.0108106 -0.0976786
20606 0.0099543 -0.0935143 0.9900457 0.0935143 0.9900457 0.0935143 0.0099543 -0.0935143
21550 0.0091675 -0.0895206 0.9908325 0.0895206 0.9908325 0.0895206 0.0091675 -0.0895206
22537 0.0084446 -0.0856913 0.9915554 0.0856913 0.9915554 0.0856913 0.0084446 -0.0856913
23569 0.0077805 -0.0820204 0.9922195 0.0820204 0.9922195 0.0820204 0.0077805 -0.0820204
24648 0.0071705 -0.0785018 0.9928295 0.0785018 0.9928295 0.0785018 0.0071705 -0.0785018
25777 0.0066102 -0.0751298 0.9933898 0.0751298 0.9933898 0.0751298 0.0066102 -0.0751298
26957 0.0060958 -0.0718988 0.9939042 0.0718988 0.9939042 0.0718988 0.0060958 -0.0718988
28191 0.0056234 -0.0688033 0.9943766 0.0688033 0.9943766 0.0688033 0.0056234 -0.0688033
29482 0.0051897 -0.0658380 0.9948103 0.0658380 0.9948103 0.0658380 0.0051897 -0.0658380
30832 0.0047916 -0.0629979 0.9952084 0.0629979 0.9952084 0.0629979 0.0047916 -0.0629979
32244 0.0044263 -0.0602780 0.9955737 0.0602780 0.9955737 0.0602780 0.0044263 -0.0602780
33721 0.0040909 -0.0576734 0.9959091 0.0576734 0.9959091 0.0576734 0.0040909 -0.0576734
35265 0.0037832 -0.0551796 0.9962168 0.0551796 0.9962168 0.0551796 0.0037832 -0.0551796
36880 0.0035008 -0.0527921 0.9964992 0.0527921 0.9964992 0.0527921 0.0035008 -0.0527921
38569 0.0032417 -0.0505065 0.9967583 0.0505065 0.9967583 0.0505065 0.0032417 -0.0505065
40335 0.0030039 -0.0483188 0.9969961 0.0483188 0.9969961 0.0483188 0.0030039 -0.0483188
42182 0.0027858 -0.0462248 0.9972142 0.0462248 0.9972142 0.0462248 0.0027858 -0.0462248
44113 0.0025856 -0.0442208 0.9974144 0.0442208 0.9974144 0.0442208 0.0025856 -0.0442208
46134 0.0024019 -0.0423030 0.9975981 0.0423030 0.9975981 0.0423030 0.0024019 -0.0423030
48246 0.0022333 -0.0404678 0.9977667 0.0404678 0.9977667 0.0404678 0.0022333 -0.0404678
50455 0.0020785 -0.0387118 0.9979215 0.0387118 0.9979215 0.0387118 0.0020785 -0.0387118
52766 0.0019364 -0.0370317 0.9980636 0.0370317 0.9980636 0.0370317 0.0019364 -0.0370317
55182 0.0018060 -0.0354242 0.9981940 0.0354242 0.9981940 0.0354242 0.0018060 -0.0354242
57709 0.0016861 -0.0338864 0.9983139 0.0338864 0.9983139 0.0338864 0.0016861 -0.0338864
60352 0.0015760 -0.0324152 0.9984240 0.0324152 0.9984240 0.0324152 0.0015760 -0.0324152
63115 0.0014747 -0.0310078 0.9985253 0.0310078 0.9985253 0.0310078 0.0014747 -0.0310078
66005 0.0013816 -0.0296615 0.9986184 0.0296615 0.9986184 0.0296615 0.0013816 -0.0296615
69028 0.0012960 -0.0283736 0.9987040 0.0283736 0.9987040 0.0283736 0.0012960 -0.0283736
72189 0.0012171 -0.0271418 0.9987829 0.0271418 0.9987829 0.0271418 0.0012171 -0.0271418
75495 0.0011444 -0.0259635 0.9988556 0.0259635 0.9988556 0.0259635 0.0011444 -0.0259635
78952 0.0010774 -0.0248365 0.9989226 0.0248365 0.9989226 0.0248365 0.0010774 -0.0248365
82567 0.0010155 -0.0237585 0.9989845 0.0237585 0.9989845 0.0237585 0.0010155 -0.0237585
86348 0.0009584 -0.0227274 0.9990416 0.0227274 0.9990416 0.0227274 0.0009584 -0.0227274
90302 0.0009056 -0.0217412 0.9990944 0.0217412 0.9990944 0.0217412 0.0009056 -0.0217412
94437 0.0008567 -0.0207979 0.9991433 0.0207979 0.9991433 0.0207979 0.0008567 -0.0207979
98762 0.0008115 -0.0198957 0.9991885 0.0198957 0.9991885 0.0198957 0.0008115 -0.0198957
103284 0.0007695 -0.0190327 0.9992305 0.0190327 0.9992305 0.0190327 0.0007695 -0.0190327
108014 0.0007306 -0.0182072 0.9992694 0.0182072 0.9992694 0.0182072 0.0007306 -0.0182072
112960 0.0006945 -0.0174176 0.9993055 0.0174176 0.9993055 0.0174176 0.0006945 -0.0174176
118133 0.0006609 -0.0166624 0.9993391 0.0166624 0.9993391 0.0166624 0.0006609 -0.0166624
123542 0.0006296 -0.0159399 0.9993704 0.0159399 0.9993704 0.0159399 0.0006296 -0.0159399
129199 0.0006005 -0.0152488 0.9993995 0.0152488 0.9993995 0.0152488 0.0006005 -0.0152488
135116 0.0005733 -0.0145876 0.9994267 0.0145876 0.9994267 0.0145876 0.0005733 -0.0145876
141303 0.0005480 -0.0139552 0.9994520 0.0139552 0.9994520 0.0139552 0.0005480 -0.0139552
147774 0.0005244 -0.0133501 0.9994756 0.0133501 0.9994756 0.0133501 0.0005244 -0.0133501
154540 0.0005024 -0.0127713 0.9994976 0.0127713 0.9994976 0.0127713 0.0005024 -0.0127713
161617 0.0004818 -0.0122175 0.9995182 0.0122175 0.9995182 0.0122175 0.0004818 -0.0122175
169018 0.0004626 -0.0116878 0.9995374 0.0116878 0.9995374 0.0116878 0.0004626 -0.0116878
176758 0.0004446 -0.0111809 0.9995554 0.0111809 0.9995554 0.0111809 0.0004446 -0.0111809
184852 0.0004278 -0.0106960 0.9995722 0.0106960 0.9995722 0.0106960 0.0004278 -0.0106960
193316 0.0004122 -0.0102320 0.9995878 0.0102320 0.9995878 0.0102320 0.0004122 -0.0102320
202169 0.0003975 -0.0097881 0.9996025 0.0097881 0.9996025 0.0097881 0.0003975 -0.0097881
211427 0.0003838 -0.0093634 0.9996162 0.0093634 0.9996162 0.0093634 0.0003838 -0.0093634
221108 0.0003711 -0.0089571 0.9996289 0.0089571 0.9996289 0.0089571 0.0003711 -0.0089571
231233 0.0003592 -0.0085684 0.9996408 0.0085684 0.9996408 0.0085684 0.0003592 -0.0085684
241822 0.0003480 -0.0081964 0.9996520 0.0081964 0.9996520 0.0081964 0.0003480 -0.0081964
252896 0.0003377 -0.0078406 0.9996623 0.0078406 0.9996623 0.0078406 0.0003377 -0.0078406
264476 0.0003280 -0.0075002 0.9996720 0.0075002 0.9996720 0.0075002 0.0003280 -0.0075002
276587 0.0003189 -0.0071745 0.9996811 0.0071745 0.9996811 0.0071745 0.0003189 -0.0071745
289253 0.0003105 -0.0068630 0.9996895 0.0068630 0.9996895 0.0068630 0.0003105 -0.0068630
302498 0.0003027 -0.0065649 0.9996973 0.0065649 0.9996973 0.0065649 0.0003027 -0.0065649
316350 0.0002953 -0.0062798 0.9997047 0.0062798 0.9997047 0.0062798 0.0002953 -0.0062798
330837 0.0002885 -0.0060071 0.9997115 0.0060071 0.9997115 0.0060071 0.0002885 -0.0060071
345986 0.0002821 -0.0057462 0.9997179 0.0057462 0.9997179 0.0057462 0.0002821 -0.0057462
361830 0.0002761 -0.0054966 0.9997239 0.0054966 0.9997239 0.0054966 0.0002761 -0.0054966
378399 0.0002705 -0.0052579 0.9997295 0.0052579 0.9997295 0.0052579 0.0002705 -0.0052579
395726 0.0002653 -0.0050296 0.9997347 0.0050296 0.9997347 0.0050296 0.0002653 -0.0050296
413847 0.0002604 -0.0048112 0.9997396 0.0048112 0.9997396 0.0048112 0.0002604 -0.0048112
432798 0.0002558 -0.0046023 0.9997442 0.0046023 0.9997442 0.0046023 0.0002558 -0.0046023
452617 0.0002514 -0.0044025 0.9997486 0.0044025 0.9997486 0.0044025 0.0002514 -0.0044025
473344 0.0002474 -0.0042114 0.9997526 0.0042114 0.9997526 0.0042114 0.0002474 -0.0042114
495019 0.0002435 -0.0040287 0.9997565 0.0040287 0.9997565 0.0040287 0.0002435 -0.0040287
517687 0.0002398 -0.0038539 0.9997602 0.0038539 0.9997602 0.0038539 0.0002398 -0.0038539
541393 0.0002363 -0.0036867 0.9997637 0.0036867 0.9997637 0.0036867 0.0002363 -0.0036867
566185 0.0002330 -0.0035268 0.9997670 0.0035268 0.9997670 0.0035268 0.0002330 -0.0035268
592111 0.0002298 -0.0033739 0.9997702 0.0033739 0.9997702 0.0033739 0.0002298 -0.0033739
619225 0.0002268 -0.0032276 0.9997732 0.0032276 0.9997732 0.0032276 0.0002268 -0.0032276
647581 0.0002238 -0.0030877 0.9997762 0.0030877 0.9997762 0.0030877 0.0002238 -0.0030877
677235 0.0002210 -0.0029538 0.9997790 0.0029538 0.9997790 0.0029538 0.0002210 -0.0029538
708247 0.0002182 -0.0028258 0.9997818 0.0028258 0.9997818 0.0028258 0.0002182 -0.0028258
740679 0.0002155 -0.0027033 0.9997845 0.0027033 0.9997845 0.0027033 0.0002155 -0.0027033
774597 0.0002129 -0.0025862 0.9997871 0.0025862 0.9997871 0.0025862 0.0002129 -0.0025862
810067 0.0002103 -0.0024741 0.9997897 0.0024741 0.9997897 0.0024741 0.0002103 -0.0024741
847162 0.0002077 -0.0023668 0.9997923 0.0023668 0.9997923 0.0023668 0.0002077 -0.0023668
885955 0.0002053 -0.0022641 0.9997947 0.0022641 0.9997947 0.0022641 0.0002053 -0.0022641
926525 0.0002028 -0.0021658 0.9997972 0.0021658 0.9997972 0.0021658 0.0002028 -0.0021658
968953 0.0002004 -0.0020718 0.9997996 0.0020718 0.9997996 0.0020718 0.0002004 -0.0020718
1013323 0.0001980 -0.0019817 0.9998020 0.0019817 0.9998020 0.0019817 0.0001980 -0.0019817
1059725 0.0001956 -0.0018955 0.9998044 0.0018955 0.9998044 0.0018955 0.0001956 -0.0018955
1108252 0.0001933 -0.0018129 0.9998067 0.0018129 0.9998067 0.0018129 0.0001933 -0.0018129
1159002 0.0001910 -0.0017338 0.9998090 0.0017338 0.9998090 0.0017338 0.0001910 -0.0017338
1212075 0.0001887 -0.0016580 0.9998113 0.0016580 0.9998113 0.0016580 0.0001887 -0.0016580
1267578 0.0001865 -0.0015854 0.9998135 0.0015854 0.9998135 0.0015854 0.0001865 -0.0015854
1325623 0.0001843 -0.0015158 0.9998157 0.0015158 0.9998157 0.0015158 0.0001843 -0.0015158
1386327 0.0001821 -0.0014490 0.9998179 0.0014490 0.9998179 0.0014490 0.0001821 -0.0014490
1449809 0.0001800 -0.0013851 0.9998200 0.0013851 0.9998200 0.0013851 0.0001800 -0.0013851
1516199 0.0001780 -0.0013237 0.9998220 0.0013237 0.9998220 0.0013237 0.0001780 -0.0013237
1585629 0.0001760 -0.0012648 0.9998240 0.0012648 0.9998240 0.0012648 0.0001760 -0.0012648
1658239 0.0001740 -0.0012084 0.9998260 0.0012084 0.9998260 0.0012084 0.0001740 -0.0012084
1734173 0.0001721 -0.0011542 0.9998279 0.0011542 0.9998279 0.0011542 0.0001721 -0.0011542
1813585 0.0001703 -0.0011021 0.9998297 0.0011021 0.9998297 0.0011021 0.0001703 -0.0011021
1896632 0.0001685 -0.0010522 0.9998315 0.0010522 0.9998315 0.0010522 0.0001685 -0.0010522
1983483 0.0001668 -0.0010042 0.9998332 0.0010042 0.9998332 0.0010042 0.0001668 -0.0010042
2074311 0.0001652 -0.0009581 0.9998348 0.0009581 0.9998348 0.0009581 0.0001652 -0.0009581
