!Murata Part Number: GRM033R11C101KA01
!These Parameters are Measured in Series Mode Connection
!Data Generated on Mar 30, 2021
!       o--ll--o
!Port1            Port2
!       o------o
!Operation Temp=25[degC], DC Bias Voltage=0[V]
!Freq. Start=100[Hz] Stop=6[GHz] 401[Steps]
# Hz S RI R 50
!Freq.(Hz) S11(Real) S11(Imag) S21(Real) S21(Imag) S12(Real) S12(Imag) S22(Real) S22(Imag)
100 0.9999999 -0.0000065 0.0000001 0.0000065 0.0000001 0.0000065 0.9999999 -0.0000065
105 0.9999999 -0.0000068 0.0000001 0.0000068 0.0000001 0.0000068 0.9999999 -0.0000068
109 0.9999999 -0.0000071 0.0000001 0.0000071 0.0000001 0.0000071 0.9999999 -0.0000071
114 0.9999999 -0.0000074 0.0000001 0.0000074 0.0000001 0.0000074 0.9999999 -0.0000074
120 0.9999999 -0.0000078 0.0000001 0.0000078 0.0000001 0.0000078 0.9999999 -0.0000078
125 0.9999999 -0.0000081 0.0000001 0.0000081 0.0000001 0.0000081 0.9999999 -0.0000081
131 0.9999999 -0.0000085 0.0000001 0.0000085 0.0000001 0.0000085 0.9999999 -0.0000085
137 0.9999999 -0.0000089 0.0000001 0.0000089 0.0000001 0.0000089 0.9999999 -0.0000089
143 0.9999999 -0.0000093 0.0000001 0.0000093 0.0000001 0.0000093 0.9999999 -0.0000093
150 0.9999999 -0.0000097 0.0000001 0.0000097 0.0000001 0.0000097 0.9999999 -0.0000097
156 0.9999999 -0.0000102 0.0000001 0.0000102 0.0000001 0.0000102 0.9999999 -0.0000102
164 0.9999999 -0.0000106 0.0000001 0.0000106 0.0000001 0.0000106 0.9999999 -0.0000106
171 0.9999999 -0.0000111 0.0000001 0.0000111 0.0000001 0.0000111 0.9999999 -0.0000111
179 0.9999999 -0.0000116 0.0000001 0.0000116 0.0000001 0.0000116 0.9999999 -0.0000116
187 0.9999999 -0.0000121 0.0000001 0.0000121 0.0000001 0.0000121 0.9999999 -0.0000121
196 0.9999999 -0.0000127 0.0000001 0.0000127 0.0000001 0.0000127 0.9999999 -0.0000127
205 0.9999999 -0.0000133 0.0000001 0.0000133 0.0000001 0.0000133 0.9999999 -0.0000133
214 0.9999999 -0.0000139 0.0000001 0.0000139 0.0000001 0.0000139 0.9999999 -0.0000139
224 0.9999999 -0.0000145 0.0000001 0.0000145 0.0000001 0.0000145 0.9999999 -0.0000145
234 0.9999999 -0.0000152 0.0000001 0.0000152 0.0000001 0.0000152 0.9999999 -0.0000152
245 0.9999999 -0.0000159 0.0000001 0.0000159 0.0000001 0.0000159 0.9999999 -0.0000159
256 0.9999999 -0.0000166 0.0000001 0.0000166 0.0000001 0.0000166 0.9999999 -0.0000166
268 0.9999999 -0.0000173 0.0000001 0.0000173 0.0000001 0.0000173 0.9999999 -0.0000173
280 0.9999999 -0.0000181 0.0000001 0.0000181 0.0000001 0.0000181 0.9999999 -0.0000181
293 0.9999998 -0.0000190 0.0000002 0.0000190 0.0000002 0.0000190 0.9999998 -0.0000190
306 0.9999998 -0.0000198 0.0000002 0.0000198 0.0000002 0.0000198 0.9999998 -0.0000198
320 0.9999998 -0.0000207 0.0000002 0.0000207 0.0000002 0.0000207 0.9999998 -0.0000207
335 0.9999998 -0.0000217 0.0000002 0.0000217 0.0000002 0.0000217 0.9999998 -0.0000217
350 0.9999998 -0.0000227 0.0000002 0.0000227 0.0000002 0.0000227 0.9999998 -0.0000227
366 0.9999998 -0.0000237 0.0000002 0.0000237 0.0000002 0.0000237 0.9999998 -0.0000237
383 0.9999998 -0.0000248 0.0000002 0.0000248 0.0000002 0.0000248 0.9999998 -0.0000248
401 0.9999998 -0.0000259 0.0000002 0.0000259 0.0000002 0.0000259 0.9999998 -0.0000259
419 0.9999998 -0.0000271 0.0000002 0.0000271 0.0000002 0.0000271 0.9999998 -0.0000271
438 0.9999998 -0.0000283 0.0000002 0.0000283 0.0000002 0.0000283 0.9999998 -0.0000283
458 0.9999998 -0.0000296 0.0000002 0.0000296 0.0000002 0.0000296 0.9999998 -0.0000296
479 0.9999998 -0.0000310 0.0000002 0.0000310 0.0000002 0.0000310 0.9999998 -0.0000310
501 0.9999998 -0.0000324 0.0000002 0.0000324 0.0000002 0.0000324 0.9999998 -0.0000324
524 0.9999998 -0.0000338 0.0000002 0.0000338 0.0000002 0.0000338 0.9999998 -0.0000338
548 0.9999997 -0.0000354 0.0000003 0.0000354 0.0000003 0.0000354 0.9999997 -0.0000354
573 0.9999997 -0.0000370 0.0000003 0.0000370 0.0000003 0.0000370 0.9999997 -0.0000370
600 0.9999997 -0.0000387 0.0000003 0.0000387 0.0000003 0.0000387 0.9999997 -0.0000387
627 0.9999997 -0.0000405 0.0000003 0.0000405 0.0000003 0.0000405 0.9999997 -0.0000405
656 0.9999997 -0.0000423 0.0000003 0.0000423 0.0000003 0.0000423 0.9999997 -0.0000423
686 0.9999997 -0.0000442 0.0000003 0.0000442 0.0000003 0.0000442 0.9999997 -0.0000442
717 0.9999997 -0.0000462 0.0000003 0.0000462 0.0000003 0.0000462 0.9999997 -0.0000462
750 0.9999997 -0.0000483 0.0000003 0.0000483 0.0000003 0.0000483 0.9999997 -0.0000483
784 0.9999997 -0.0000505 0.0000003 0.0000505 0.0000003 0.0000505 0.9999997 -0.0000505
820 0.9999996 -0.0000529 0.0000004 0.0000529 0.0000004 0.0000529 0.9999996 -0.0000529
858 0.9999996 -0.0000553 0.0000004 0.0000553 0.0000004 0.0000553 0.9999996 -0.0000553
897 0.9999996 -0.0000578 0.0000004 0.0000578 0.0000004 0.0000578 0.9999996 -0.0000578
938 0.9999996 -0.0000604 0.0000004 0.0000604 0.0000004 0.0000604 0.9999996 -0.0000604
981 0.9999996 -0.0000632 0.0000004 0.0000632 0.0000004 0.0000632 0.9999996 -0.0000632
1026 0.9999996 -0.0000661 0.0000004 0.0000661 0.0000004 0.0000661 0.9999996 -0.0000661
1073 0.9999996 -0.0000691 0.0000004 0.0000691 0.0000004 0.0000691 0.9999996 -0.0000691
1122 0.9999995 -0.0000722 0.0000005 0.0000722 0.0000005 0.0000722 0.9999995 -0.0000722
1174 0.9999995 -0.0000755 0.0000005 0.0000755 0.0000005 0.0000755 0.9999995 -0.0000755
1227 0.9999995 -0.0000790 0.0000005 0.0000790 0.0000005 0.0000790 0.9999995 -0.0000790
1283 0.9999995 -0.0000826 0.0000005 0.0000826 0.0000005 0.0000826 0.9999995 -0.0000826
1342 0.9999995 -0.0000863 0.0000005 0.0000863 0.0000005 0.0000863 0.9999995 -0.0000863
1404 0.9999995 -0.0000903 0.0000005 0.0000903 0.0000005 0.0000903 0.9999995 -0.0000903
1468 0.9999995 -0.0000944 0.0000005 0.0000944 0.0000005 0.0000944 0.9999995 -0.0000944
1535 0.9999994 -0.0000987 0.0000006 0.0000987 0.0000006 0.0000987 0.9999994 -0.0000987
1606 0.9999994 -0.0001032 0.0000006 0.0001032 0.0000006 0.0001032 0.9999994 -0.0001032
1679 0.9999994 -0.0001079 0.0000006 0.0001079 0.0000006 0.0001079 0.9999994 -0.0001079
1756 0.9999994 -0.0001128 0.0000006 0.0001128 0.0000006 0.0001128 0.9999994 -0.0001128
1836 0.9999993 -0.0001180 0.0000007 0.0001180 0.0000007 0.0001180 0.9999993 -0.0001180
1920 0.9999993 -0.0001234 0.0000007 0.0001234 0.0000007 0.0001234 0.9999993 -0.0001234
2008 0.9999993 -0.0001290 0.0000007 0.0001290 0.0000007 0.0001290 0.9999993 -0.0001290
2100 0.9999993 -0.0001349 0.0000007 0.0001349 0.0000007 0.0001349 0.9999993 -0.0001349
2196 0.9999992 -0.0001411 0.0000008 0.0001411 0.0000008 0.0001411 0.9999992 -0.0001411
2297 0.9999992 -0.0001475 0.0000008 0.0001475 0.0000008 0.0001475 0.9999992 -0.0001475
2402 0.9999992 -0.0001543 0.0000008 0.0001543 0.0000008 0.0001543 0.9999992 -0.0001543
2512 0.9999991 -0.0001613 0.0000009 0.0001613 0.0000009 0.0001613 0.9999991 -0.0001613
2627 0.9999991 -0.0001687 0.0000009 0.0001687 0.0000009 0.0001687 0.9999991 -0.0001687
2748 0.9999991 -0.0001764 0.0000009 0.0001764 0.0000009 0.0001764 0.9999991 -0.0001764
2873 0.9999990 -0.0001844 0.0000010 0.0001844 0.0000010 0.0001844 0.9999990 -0.0001844
3005 0.9999990 -0.0001929 0.0000010 0.0001929 0.0000010 0.0001929 0.9999990 -0.0001929
3143 0.9999989 -0.0002017 0.0000011 0.0002017 0.0000011 0.0002017 0.9999989 -0.0002017
3287 0.9999989 -0.0002109 0.0000011 0.0002109 0.0000011 0.0002109 0.9999989 -0.0002109
3437 0.9999988 -0.0002205 0.0000012 0.0002205 0.0000012 0.0002205 0.9999988 -0.0002205
3594 0.9999987 -0.0002306 0.0000013 0.0002306 0.0000013 0.0002306 0.9999987 -0.0002306
3759 0.9999987 -0.0002411 0.0000013 0.0002411 0.0000013 0.0002411 0.9999987 -0.0002411
3931 0.9999986 -0.0002521 0.0000014 0.0002521 0.0000014 0.0002521 0.9999986 -0.0002521
4111 0.9999985 -0.0002636 0.0000015 0.0002636 0.0000015 0.0002636 0.9999985 -0.0002636
4299 0.9999985 -0.0002756 0.0000015 0.0002756 0.0000015 0.0002756 0.9999985 -0.0002756
4496 0.9999984 -0.0002882 0.0000016 0.0002882 0.0000016 0.0002882 0.9999984 -0.0002882
4702 0.9999983 -0.0003014 0.0000017 0.0003014 0.0000017 0.0003014 0.9999983 -0.0003014
4918 0.9999982 -0.0003151 0.0000018 0.0003151 0.0000018 0.0003151 0.9999982 -0.0003151
5143 0.9999981 -0.0003295 0.0000019 0.0003295 0.0000019 0.0003295 0.9999981 -0.0003295
5378 0.9999980 -0.0003445 0.0000020 0.0003445 0.0000020 0.0003445 0.9999980 -0.0003445
5625 0.9999979 -0.0003603 0.0000021 0.0003603 0.0000021 0.0003603 0.9999979 -0.0003603
5882 0.9999978 -0.0003767 0.0000022 0.0003767 0.0000022 0.0003767 0.9999978 -0.0003767
6151 0.9999977 -0.0003939 0.0000023 0.0003939 0.0000023 0.0003939 0.9999977 -0.0003939
6433 0.9999975 -0.0004119 0.0000025 0.0004119 0.0000025 0.0004119 0.9999975 -0.0004119
6728 0.9999974 -0.0004306 0.0000026 0.0004306 0.0000026 0.0004306 0.9999974 -0.0004306
7036 0.9999973 -0.0004503 0.0000027 0.0004503 0.0000027 0.0004503 0.9999973 -0.0004503
7358 0.9999972 -0.0004708 0.0000028 0.0004708 0.0000028 0.0004708 0.9999972 -0.0004708
7695 0.9999970 -0.0004923 0.0000030 0.0004923 0.0000030 0.0004923 0.9999970 -0.0004923
8047 0.9999969 -0.0005147 0.0000031 0.0005147 0.0000031 0.0005147 0.9999969 -0.0005147
8416 0.9999967 -0.0005382 0.0000033 0.0005382 0.0000033 0.0005382 0.9999967 -0.0005382
8801 0.9999965 -0.0005628 0.0000035 0.0005628 0.0000035 0.0005628 0.9999965 -0.0005628
9204 0.9999964 -0.0005884 0.0000036 0.0005884 0.0000036 0.0005884 0.9999964 -0.0005884
9626 0.9999962 -0.0006153 0.0000038 0.0006153 0.0000038 0.0006153 0.9999962 -0.0006153
10066 0.9999960 -0.0006433 0.0000040 0.0006433 0.0000040 0.0006433 0.9999960 -0.0006433
10527 0.9999958 -0.0006727 0.0000042 0.0006727 0.0000042 0.0006727 0.9999958 -0.0006727
11009 0.9999956 -0.0007034 0.0000044 0.0007034 0.0000044 0.0007034 0.9999956 -0.0007034
11514 0.9999954 -0.0007355 0.0000046 0.0007355 0.0000046 0.0007355 0.9999954 -0.0007355
12041 0.9999952 -0.0007690 0.0000048 0.0007690 0.0000048 0.0007690 0.9999952 -0.0007690
12592 0.9999950 -0.0008041 0.0000050 0.0008041 0.0000050 0.0008041 0.9999950 -0.0008041
13169 0.9999948 -0.0008408 0.0000052 0.0008408 0.0000052 0.0008408 0.9999948 -0.0008408
13772 0.9999945 -0.0008792 0.0000055 0.0008792 0.0000055 0.0008792 0.9999945 -0.0008792
14402 0.9999942 -0.0009193 0.0000058 0.0009193 0.0000058 0.0009193 0.9999942 -0.0009193
15062 0.9999939 -0.0009613 0.0000061 0.0009613 0.0000061 0.0009613 0.9999939 -0.0009613
15752 0.9999936 -0.0010052 0.0000064 0.0010052 0.0000064 0.0010052 0.9999936 -0.0010052
16473 0.9999933 -0.0010511 0.0000067 0.0010511 0.0000067 0.0010511 0.9999933 -0.0010511
17227 0.9999930 -0.0010991 0.0000070 0.0010991 0.0000070 0.0010991 0.9999930 -0.0010991
18016 0.9999926 -0.0011492 0.0000074 0.0011492 0.0000074 0.0011492 0.9999926 -0.0011492
18841 0.9999922 -0.0012017 0.0000078 0.0012017 0.0000078 0.0012017 0.9999922 -0.0012017
19704 0.9999918 -0.0012566 0.0000082 0.0012566 0.0000082 0.0012566 0.9999918 -0.0012566
20606 0.9999913 -0.0013140 0.0000087 0.0013140 0.0000087 0.0013140 0.9999913 -0.0013140
21550 0.9999908 -0.0013740 0.0000092 0.0013740 0.0000092 0.0013740 0.9999908 -0.0013740
22537 0.9999903 -0.0014368 0.0000097 0.0014368 0.0000097 0.0014368 0.9999903 -0.0014368
23569 0.9999897 -0.0015024 0.0000103 0.0015024 0.0000103 0.0015024 0.9999897 -0.0015024
24648 0.9999891 -0.0015710 0.0000109 0.0015710 0.0000109 0.0015710 0.9999891 -0.0015710
25777 0.9999885 -0.0016428 0.0000115 0.0016428 0.0000115 0.0016428 0.9999885 -0.0016428
26957 0.9999878 -0.0017178 0.0000122 0.0017178 0.0000122 0.0017178 0.9999878 -0.0017178
28191 0.9999870 -0.0017963 0.0000130 0.0017963 0.0000130 0.0017963 0.9999870 -0.0017963
29482 0.9999861 -0.0018783 0.0000139 0.0018783 0.0000139 0.0018783 0.9999861 -0.0018783
30832 0.9999852 -0.0019641 0.0000148 0.0019641 0.0000148 0.0019641 0.9999852 -0.0019641
32244 0.9999843 -0.0020537 0.0000157 0.0020537 0.0000157 0.0020537 0.9999843 -0.0020537
33721 0.9999832 -0.0021475 0.0000168 0.0021475 0.0000168 0.0021475 0.9999832 -0.0021475
35265 0.9999821 -0.0022456 0.0000179 0.0022456 0.0000179 0.0022456 0.9999821 -0.0022456
36880 0.9999809 -0.0023481 0.0000191 0.0023481 0.0000191 0.0023481 0.9999809 -0.0023481
38569 0.9999796 -0.0024552 0.0000204 0.0024552 0.0000204 0.0024552 0.9999796 -0.0024552
40335 0.9999781 -0.0025673 0.0000219 0.0025673 0.0000219 0.0025673 0.9999781 -0.0025673
42182 0.9999766 -0.0026844 0.0000234 0.0026844 0.0000234 0.0026844 0.9999766 -0.0026844
44113 0.9999750 -0.0028069 0.0000250 0.0028069 0.0000250 0.0028069 0.9999750 -0.0028069
46134 0.9999732 -0.0029350 0.0000268 0.0029350 0.0000268 0.0029350 0.9999732 -0.0029350
48246 0.9999713 -0.0030688 0.0000287 0.0030688 0.0000287 0.0030688 0.9999713 -0.0030688
50455 0.9999693 -0.0032088 0.0000307 0.0032088 0.0000307 0.0032088 0.9999693 -0.0032088
52766 0.9999671 -0.0033551 0.0000329 0.0033551 0.0000329 0.0033551 0.9999671 -0.0033551
55182 0.9999648 -0.0035081 0.0000352 0.0035081 0.0000352 0.0035081 0.9999648 -0.0035081
57709 0.9999623 -0.0036680 0.0000377 0.0036680 0.0000377 0.0036680 0.9999623 -0.0036680
60352 0.9999596 -0.0038352 0.0000404 0.0038352 0.0000404 0.0038352 0.9999596 -0.0038352
63115 0.9999567 -0.0040099 0.0000433 0.0040099 0.0000433 0.0040099 0.9999567 -0.0040099
66005 0.9999537 -0.0041927 0.0000463 0.0041927 0.0000463 0.0041927 0.9999537 -0.0041927
69028 0.9999504 -0.0043837 0.0000496 0.0043837 0.0000496 0.0043837 0.9999504 -0.0043837
72189 0.9999469 -0.0045834 0.0000531 0.0045834 0.0000531 0.0045834 0.9999469 -0.0045834
75495 0.9999432 -0.0047922 0.0000568 0.0047922 0.0000568 0.0047922 0.9999432 -0.0047922
78952 0.9999392 -0.0050104 0.0000608 0.0050104 0.0000608 0.0050104 0.9999392 -0.0050104
82567 0.9999349 -0.0052386 0.0000651 0.0052386 0.0000651 0.0052386 0.9999349 -0.0052386
86348 0.9999304 -0.0054772 0.0000696 0.0054772 0.0000696 0.0054772 0.9999304 -0.0054772
90302 0.9999255 -0.0057266 0.0000745 0.0057266 0.0000745 0.0057266 0.9999255 -0.0057266
94437 0.9999203 -0.0059874 0.0000797 0.0059874 0.0000797 0.0059874 0.9999203 -0.0059874
98762 0.9999148 -0.0062601 0.0000852 0.0062601 0.0000852 0.0062601 0.9999148 -0.0062601
103284 0.9999088 -0.0065452 0.0000912 0.0065452 0.0000912 0.0065452 0.9999088 -0.0065452
108014 0.9999024 -0.0068433 0.0000976 0.0068433 0.0000976 0.0068433 0.9999024 -0.0068433
112960 0.9998956 -0.0071549 0.0001044 0.0071549 0.0001044 0.0071549 0.9998956 -0.0071549
118133 0.9998882 -0.0074808 0.0001118 0.0074808 0.0001118 0.0074808 0.9998882 -0.0074808
123542 0.9998804 -0.0078215 0.0001196 0.0078215 0.0001196 0.0078215 0.9998804 -0.0078215
129199 0.9998719 -0.0081778 0.0001281 0.0081778 0.0001281 0.0081778 0.9998719 -0.0081778
135116 0.9998627 -0.0085504 0.0001373 0.0085504 0.0001373 0.0085504 0.9998627 -0.0085504
141303 0.9998529 -0.0089399 0.0001471 0.0089399 0.0001471 0.0089399 0.9998529 -0.0089399
147774 0.9998423 -0.0093472 0.0001577 0.0093472 0.0001577 0.0093472 0.9998423 -0.0093472
154540 0.9998308 -0.0097731 0.0001692 0.0097731 0.0001692 0.0097731 0.9998308 -0.0097731
161617 0.9998183 -0.0102185 0.0001817 0.0102185 0.0001817 0.0102185 0.9998183 -0.0102185
169018 0.9998049 -0.0106842 0.0001951 0.0106842 0.0001951 0.0106842 0.9998049 -0.0106842
176758 0.9997903 -0.0111711 0.0002097 0.0111711 0.0002097 0.0111711 0.9997903 -0.0111711
184852 0.9997746 -0.0116802 0.0002254 0.0116802 0.0002254 0.0116802 0.9997746 -0.0116802
193316 0.9997574 -0.0122126 0.0002426 0.0122126 0.0002426 0.0122126 0.9997574 -0.0122126
202169 0.9997388 -0.0127692 0.0002612 0.0127692 0.0002612 0.0127692 0.9997388 -0.0127692
211427 0.9997186 -0.0133513 0.0002814 0.0133513 0.0002814 0.0133513 0.9997186 -0.0133513
221108 0.9996967 -0.0139598 0.0003033 0.0139598 0.0003033 0.0139598 0.9996967 -0.0139598
231233 0.9996728 -0.0145961 0.0003272 0.0145961 0.0003272 0.0145961 0.9996728 -0.0145961
241822 0.9996469 -0.0152613 0.0003531 0.0152613 0.0003531 0.0152613 0.9996469 -0.0152613
252896 0.9996187 -0.0159568 0.0003813 0.0159568 0.0003813 0.0159568 0.9996187 -0.0159568
264476 0.9995880 -0.0166840 0.0004120 0.0166840 0.0004120 0.0166840 0.9995880 -0.0166840
276587 0.9995546 -0.0174441 0.0004454 0.0174441 0.0004454 0.0174441 0.9995546 -0.0174441
289253 0.9995182 -0.0182389 0.0004818 0.0182389 0.0004818 0.0182389 0.9995182 -0.0182389
302498 0.9994786 -0.0190696 0.0005214 0.0190696 0.0005214 0.0190696 0.9994786 -0.0190696
316350 0.9994356 -0.0199381 0.0005644 0.0199381 0.0005644 0.0199381 0.9994356 -0.0199381
330837 0.9993887 -0.0208460 0.0006113 0.0208460 0.0006113 0.0208460 0.9993887 -0.0208460
345986 0.9993377 -0.0217949 0.0006623 0.0217949 0.0006623 0.0217949 0.9993377 -0.0217949
361830 0.9992822 -0.0227868 0.0007178 0.0227868 0.0007178 0.0227868 0.9992822 -0.0227868
378399 0.9992218 -0.0238236 0.0007782 0.0238236 0.0007782 0.0238236 0.9992218 -0.0238236
395726 0.9991562 -0.0249072 0.0008438 0.0249072 0.0008438 0.0249072 0.9991562 -0.0249072
413847 0.9990847 -0.0260397 0.0009153 0.0260397 0.0009153 0.0260397 0.9990847 -0.0260397
432798 0.9990070 -0.0272233 0.0009930 0.0272233 0.0009930 0.0272233 0.9990070 -0.0272233
452617 0.9989226 -0.0284602 0.0010774 0.0284602 0.0010774 0.0284602 0.9989226 -0.0284602
473344 0.9988307 -0.0297528 0.0011693 0.0297528 0.0011693 0.0297528 0.9988307 -0.0297528
495019 0.9987309 -0.0311036 0.0012691 0.0311036 0.0012691 0.0311036 0.9987309 -0.0311036
517687 0.9986225 -0.0325151 0.0013775 0.0325151 0.0013775 0.0325151 0.9986225 -0.0325151
541393 0.9985046 -0.0339900 0.0014954 0.0339900 0.0014954 0.0339900 0.9985046 -0.0339900
566185 0.9983766 -0.0355311 0.0016234 0.0355311 0.0016234 0.0355311 0.9983766 -0.0355311
592111 0.9982375 -0.0371412 0.0017625 0.0371412 0.0017625 0.0371412 0.9982375 -0.0371412
619225 0.9980864 -0.0388236 0.0019136 0.0388236 0.0019136 0.0388236 0.9980864 -0.0388236
647581 0.9979223 -0.0405812 0.0020777 0.0405812 0.0020777 0.0405812 0.9979223 -0.0405812
677235 0.9977441 -0.0424174 0.0022559 0.0424174 0.0022559 0.0424174 0.9977441 -0.0424174
708247 0.9975506 -0.0443357 0.0024494 0.0443357 0.0024494 0.0443357 0.9975506 -0.0443357
740679 0.9973404 -0.0463397 0.0026596 0.0463397 0.0026596 0.0463397 0.9973404 -0.0463397
774597 0.9971121 -0.0484331 0.0028879 0.0484331 0.0028879 0.0484331 0.9971121 -0.0484331
810067 0.9968641 -0.0506198 0.0031359 0.0506198 0.0031359 0.0506198 0.9968641 -0.0506198
847162 0.9965947 -0.0529039 0.0034053 0.0529039 0.0034053 0.0529039 0.9965947 -0.0529039
885955 0.9963021 -0.0552895 0.0036979 0.0552895 0.0036979 0.0552895 0.9963021 -0.0552895
926525 0.9959840 -0.0577812 0.0040160 0.0577812 0.0040160 0.0577812 0.9959840 -0.0577812
968953 0.9956384 -0.0603834 0.0043616 0.0603834 0.0043616 0.0603834 0.9956384 -0.0603834
1013323 0.9952626 -0.0631009 0.0047374 0.0631009 0.0047374 0.0631009 0.9952626 -0.0631009
1059725 0.9948541 -0.0659385 0.0051459 0.0659385 0.0051459 0.0659385 0.9948541 -0.0659385
1108252 0.9944098 -0.0689014 0.0055902 0.0689014 0.0055902 0.0689014 0.9944098 -0.0689014
1159002 0.9939265 -0.0719947 0.0060735 0.0719947 0.0060735 0.0719947 0.9939265 -0.0719947
1212075 0.9934008 -0.0752239 0.0065992 0.0752239 0.0065992 0.0752239 0.9934008 -0.0752239
1267578 0.9928287 -0.0785945 0.0071713 0.0785945 0.0071713 0.0785945 0.9928287 -0.0785945
1325623 0.9922060 -0.0821123 0.0077940 0.0821123 0.0077940 0.0821123 0.9922060 -0.0821123
1386327 0.9915282 -0.0857829 0.0084718 0.0857829 0.0084718 0.0857829 0.9915282 -0.0857829
1449809 0.9907903 -0.0896126 0.0092097 0.0896126 0.0092097 0.0896126 0.9907903 -0.0896126
1516199 0.9899869 -0.0936072 0.0100131 0.0936072 0.0100131 0.0936072 0.9899869 -0.0936072
1585629 0.9891120 -0.0977731 0.0108880 0.0977731 0.0108880 0.0977731 0.9891120 -0.0977731
1658239 0.9881594 -0.1021166 0.0118406 0.1021166 0.0118406 0.1021166 0.9881594 -0.1021166
1734173 0.9871220 -0.1066440 0.0128780 0.1066440 0.0128780 0.1066440 0.9871220 -0.1066440
1813585 0.9859923 -0.1113616 0.0140077 0.1113616 0.0140077 0.1113616 0.9859923 -0.1113616
1896632 0.9847622 -0.1162760 0.0152378 0.1162760 0.0152378 0.1162760 0.9847622 -0.1162760
1983483 0.9834229 -0.1213935 0.0165771 0.1213935 0.0165771 0.1213935 0.9834229 -0.1213935
2074311 0.9819649 -0.1267203 0.0180351 0.1267203 0.0180351 0.1267203 0.9819649 -0.1267203
