!Murata Part Number: GRM033R60J105MEA2
!These Parameters are Measured in Series Mode Connection
!Data Generated on Mar 30, 2021
!       o--ll--o
!Port1            Port2
!       o------o
!Operation Temp=25[degC], DC Bias Voltage=0[V]
!Freq. Start=100[Hz] Stop=6[GHz] 401[Steps]
# Hz S RI R 50
!Freq.(Hz) S11(Real) S11(Imag) S21(Real) S21(Imag) S12(Real) S12(Imag) S22(Real) S22(Imag)
100 0.9971987 -0.0481041 0.0028013 0.0481041 0.0028013 0.0481041 0.9971987 -0.0481041
105 0.9969606 -0.0502766 0.0030394 0.0502766 0.0030394 0.0502766 0.9969606 -0.0502766
109 0.9967019 -0.0525464 0.0032981 0.0525464 0.0032981 0.0525464 0.9967019 -0.0525464
114 0.9964206 -0.0549177 0.0035794 0.0549177 0.0035794 0.0549177 0.9964206 -0.0549177
120 0.9961148 -0.0573949 0.0038852 0.0573949 0.0038852 0.0573949 0.9961148 -0.0573949
125 0.9957820 -0.0599826 0.0042180 0.0599826 0.0042180 0.0599826 0.9957820 -0.0599826
131 0.9954199 -0.0626854 0.0045801 0.0626854 0.0045801 0.0626854 0.9954199 -0.0626854
137 0.9950257 -0.0655082 0.0049743 0.0655082 0.0049743 0.0655082 0.9950257 -0.0655082
143 0.9945965 -0.0684560 0.0054035 0.0684560 0.0054035 0.0684560 0.9945965 -0.0684560
150 0.9941292 -0.0715340 0.0058708 0.0715340 0.0058708 0.0715340 0.9941292 -0.0715340
156 0.9936201 -0.0747477 0.0063799 0.0747477 0.0063799 0.0747477 0.9936201 -0.0747477
164 0.9930656 -0.0781023 0.0069344 0.0781023 0.0069344 0.0781023 0.9930656 -0.0781023
171 0.9924615 -0.0816036 0.0075385 0.0816036 0.0075385 0.0816036 0.9924615 -0.0816036
179 0.9918033 -0.0852573 0.0081967 0.0852573 0.0081967 0.0852573 0.9918033 -0.0852573
187 0.9910863 -0.0890694 0.0089137 0.0890694 0.0089137 0.0890694 0.9910863 -0.0890694
196 0.9903050 -0.0930457 0.0096950 0.0930457 0.0096950 0.0930457 0.9903050 -0.0930457
205 0.9894538 -0.0971926 0.0105462 0.0971926 0.0105462 0.0971926 0.9894538 -0.0971926
214 0.9885266 -0.1015162 0.0114734 0.1015162 0.0114734 0.1015162 0.9885266 -0.1015162
224 0.9875166 -0.1060227 0.0124834 0.1060227 0.0124834 0.1060227 0.9875166 -0.1060227
234 0.9864166 -0.1107186 0.0135834 0.1107186 0.0135834 0.1107186 0.9864166 -0.1107186
245 0.9852189 -0.1156101 0.0147811 0.1156101 0.0147811 0.1156101 0.9852189 -0.1156101
256 0.9839150 -0.1207038 0.0160850 0.1207038 0.0160850 0.1207038 0.9839150 -0.1207038
268 0.9824959 -0.1260059 0.0175041 0.1260059 0.0175041 0.1260059 0.9824959 -0.1260059
280 0.9809517 -0.1315227 0.0190483 0.1315227 0.0190483 0.1315227 0.9809517 -0.1315227
293 0.9792719 -0.1372604 0.0207281 0.1372604 0.0207281 0.1372604 0.9792719 -0.1372604
306 0.9774454 -0.1432249 0.0225546 0.1432249 0.0225546 0.1432249 0.9774454 -0.1432249
320 0.9754599 -0.1494220 0.0245401 0.1494220 0.0245401 0.1494220 0.9754599 -0.1494220
335 0.9733024 -0.1558573 0.0266976 0.1558573 0.0266976 0.1558573 0.9733024 -0.1558573
350 0.9709591 -0.1625358 0.0290409 0.1625358 0.0290409 0.1625358 0.9709591 -0.1625358
366 0.9684151 -0.1694621 0.0315849 0.1694621 0.0315849 0.1694621 0.9684151 -0.1694621
383 0.9656544 -0.1766405 0.0343456 0.1766405 0.0343456 0.1766405 0.9656544 -0.1766405
401 0.9626603 -0.1840745 0.0373397 0.1840745 0.0373397 0.1840745 0.9626603 -0.1840745
419 0.9594148 -0.1917667 0.0405852 0.1917667 0.0405852 0.1917667 0.9594148 -0.1917667
438 0.9558987 -0.1997190 0.0441013 0.1997190 0.0441013 0.1997190 0.9558987 -0.1997190
458 0.9520918 -0.2079322 0.0479082 0.2079322 0.0479082 0.2079322 0.9520918 -0.2079322
479 0.9479730 -0.2164060 0.0520270 0.2164060 0.0520270 0.2164060 0.9479730 -0.2164060
501 0.9435197 -0.2251385 0.0564803 0.2251385 0.0564803 0.2251385 0.9435197 -0.2251385
524 0.9387085 -0.2341266 0.0612915 0.2341266 0.0612915 0.2341266 0.9387085 -0.2341266
548 0.9335147 -0.2433652 0.0664853 0.2433652 0.0664853 0.2433652 0.9335147 -0.2433652
573 0.9279128 -0.2528472 0.0720872 0.2528472 0.0720872 0.2528472 0.9279128 -0.2528472
600 0.9218763 -0.2625634 0.0781237 0.2625634 0.0781237 0.2625634 0.9218763 -0.2625634
627 0.9153779 -0.2725022 0.0846221 0.2725022 0.0846221 0.2725022 0.9153779 -0.2725022
656 0.9083899 -0.2826492 0.0916101 0.2826492 0.0916101 0.2826492 0.9083899 -0.2826492
686 0.9008839 -0.2929870 0.0991161 0.2929870 0.0991161 0.2929870 0.9008839 -0.2929870
717 0.8928316 -0.3034953 0.1071684 0.3034953 0.1071684 0.3034953 0.8928316 -0.3034953
750 0.8842047 -0.3141501 0.1157953 0.3141501 0.1157953 0.3141501 0.8842047 -0.3141501
784 0.8749754 -0.3249239 0.1250246 0.3249239 0.1250246 0.3249239 0.8749754 -0.3249239
820 0.8651168 -0.3357852 0.1348832 0.3357852 0.1348832 0.3357852 0.8651168 -0.3357852
858 0.8546035 -0.3466988 0.1453965 0.3466988 0.1453965 0.3466988 0.8546035 -0.3466988
897 0.8434120 -0.3576253 0.1565880 0.3576253 0.1565880 0.3576253 0.8434120 -0.3576253
938 0.8315210 -0.3685211 0.1684790 0.3685211 0.1684790 0.3685211 0.8315210 -0.3685211
981 0.8189126 -0.3793387 0.1810874 0.3793387 0.1810874 0.3793387 0.8189126 -0.3793387
1026 0.8055724 -0.3900265 0.1944276 0.3900265 0.1944276 0.3900265 0.8055724 -0.3900265
1073 0.7914906 -0.4005295 0.2085094 0.4005295 0.2085094 0.4005295 0.7914906 -0.4005295
1122 0.7766621 -0.4107891 0.2233379 0.4107891 0.2233379 0.4107891 0.7766621 -0.4107891
1174 0.7610877 -0.4207440 0.2389123 0.4207440 0.2389123 0.4207440 0.7610877 -0.4207440
1227 0.7447748 -0.4303307 0.2552252 0.4303307 0.2552252 0.4303307 0.7447748 -0.4303307
1283 0.7277370 -0.4394839 0.2722630 0.4394839 0.2722630 0.4394839 0.7277370 -0.4394839
1342 0.7099959 -0.4481380 0.2900041 0.4481380 0.2900041 0.4481380 0.7099959 -0.4481380
1404 0.6915802 -0.4562275 0.3084198 0.4562275 0.3084198 0.4562275 0.6915802 -0.4562275
1468 0.6725268 -0.4636881 0.3274732 0.4636881 0.3274732 0.4636881 0.6725268 -0.4636881
1535 0.6528803 -0.4704581 0.3471197 0.4704581 0.3471197 0.4704581 0.6528803 -0.4704581
1606 0.6326930 -0.4764794 0.3673070 0.4764794 0.3673070 0.4764794 0.6326930 -0.4764794
1679 0.6120247 -0.4816985 0.3879753 0.4816985 0.3879753 0.4816985 0.6120247 -0.4816985
1756 0.5909418 -0.4860678 0.4090582 0.4860678 0.4090582 0.4860678 0.5909418 -0.4860678
1836 0.5695169 -0.4895466 0.4304831 0.4895466 0.4304831 0.4895466 0.5695169 -0.4895466
1920 0.5478275 -0.4921019 0.4521725 0.4921019 0.4521725 0.4921019 0.5478275 -0.4921019
2008 0.5259555 -0.4937094 0.4740445 0.4937094 0.4740445 0.4937094 0.5259555 -0.4937094
2100 0.5039851 -0.4943536 0.4960149 0.4943536 0.4960149 0.4943536 0.5039851 -0.4943536
2196 0.4820024 -0.4940287 0.5179976 0.4940287 0.5179976 0.4940287 0.4820024 -0.4940287
2297 0.4600933 -0.4927385 0.5399067 0.4927385 0.5399067 0.4927385 0.4600933 -0.4927385
2402 0.4383426 -0.4904962 0.5616574 0.4904962 0.5616574 0.4904962 0.4383426 -0.4904962
2512 0.4168324 -0.4873240 0.5831676 0.4873240 0.5831676 0.4873240 0.4168324 -0.4873240
2627 0.3956412 -0.4832530 0.6043588 0.4832530 0.6043588 0.4832530 0.3956412 -0.4832530
2748 0.3748424 -0.4783220 0.6251576 0.4783220 0.6251576 0.4783220 0.3748424 -0.4783220
2873 0.3545035 -0.4725767 0.6454965 0.4725767 0.6454965 0.4725767 0.3545035 -0.4725767
3005 0.3346856 -0.4660689 0.6653144 0.4660689 0.6653144 0.4660689 0.3346856 -0.4660689
3143 0.3154425 -0.4588551 0.6845575 0.4588551 0.6845575 0.4588551 0.3154425 -0.4588551
3287 0.2968203 -0.4509957 0.7031797 0.4509957 0.7031797 0.4509957 0.2968203 -0.4509957
3437 0.2788576 -0.4425536 0.7211424 0.4425536 0.7211424 0.4425536 0.2788576 -0.4425536
3594 0.2615852 -0.4335932 0.7384148 0.4335932 0.7384148 0.4335932 0.2615852 -0.4335932
3759 0.2450262 -0.4241795 0.7549738 0.4241795 0.7549738 0.4241795 0.2450262 -0.4241795
3931 0.2291967 -0.4143770 0.7708033 0.4143770 0.7708033 0.4143770 0.2291967 -0.4143770
4111 0.2141059 -0.4042487 0.7858941 0.4042487 0.7858941 0.4042487 0.2141059 -0.4042487
4299 0.1997566 -0.3938559 0.8002434 0.3938559 0.8002434 0.3938559 0.1997566 -0.3938559
4496 0.1861460 -0.3832570 0.8138540 0.3832570 0.8138540 0.3832570 0.1861460 -0.3832570
4702 0.1732662 -0.3725075 0.8267338 0.3725075 0.8267338 0.3725075 0.1732662 -0.3725075
4918 0.1611050 -0.3616593 0.8388950 0.3616593 0.8388950 0.3616593 0.1611050 -0.3616593
5143 0.1496460 -0.3507607 0.8503540 0.3507607 0.8503540 0.3507607 0.1496460 -0.3507607
5378 0.1388700 -0.3398560 0.8611300 0.3398560 0.8611300 0.3398560 0.1388700 -0.3398560
5625 0.1287550 -0.3289859 0.8712450 0.3289859 0.8712450 0.3289859 0.1287550 -0.3289859
5882 0.1192769 -0.3181867 0.8807231 0.3181867 0.8807231 0.3181867 0.1192769 -0.3181867
6151 0.1104102 -0.3074913 0.8895898 0.3074913 0.8895898 0.3074913 0.1104102 -0.3074913
6433 0.1021283 -0.2969285 0.8978717 0.2969285 0.8978717 0.2969285 0.1021283 -0.2969285
6728 0.0944036 -0.2865239 0.9055964 0.2865239 0.9055964 0.2865239 0.0944036 -0.2865239
7036 0.0872084 -0.2762993 0.9127916 0.2762993 0.9127916 0.2762993 0.0872084 -0.2762993
7358 0.0805150 -0.2662737 0.9194850 0.2662737 0.9194850 0.2662737 0.0805150 -0.2662737
7695 0.0742957 -0.2564629 0.9257043 0.2564629 0.9257043 0.2564629 0.0742957 -0.2564629
8047 0.0685235 -0.2468801 0.9314765 0.2468801 0.9314765 0.2468801 0.0685235 -0.2468801
8416 0.0631717 -0.2375358 0.9368283 0.2375358 0.9368283 0.2375358 0.0631717 -0.2375358
8801 0.0582145 -0.2284385 0.9417855 0.2284385 0.9417855 0.2284385 0.0582145 -0.2284385
9204 0.0536271 -0.2195944 0.9463729 0.2195944 0.9463729 0.2195944 0.0536271 -0.2195944
9626 0.0493855 -0.2110078 0.9506145 0.2110078 0.9506145 0.2110078 0.0493855 -0.2110078
10066 0.0454667 -0.2026815 0.9545333 0.2026815 0.9545333 0.2026815 0.0454667 -0.2026815
10527 0.0418488 -0.1946167 0.9581512 0.1946167 0.9581512 0.1946167 0.0418488 -0.1946167
11009 0.0385109 -0.1868134 0.9614891 0.1868134 0.9614891 0.1868134 0.0385109 -0.1868134
11514 0.0354334 -0.1792703 0.9645666 0.1792703 0.9645666 0.1792703 0.0354334 -0.1792703
12041 0.0325975 -0.1719853 0.9674025 0.1719853 0.9674025 0.1719853 0.0325975 -0.1719853
12592 0.0299856 -0.1649552 0.9700144 0.1649552 0.9700144 0.1649552 0.0299856 -0.1649552
13169 0.0275814 -0.1581762 0.9724186 0.1581762 0.9724186 0.1581762 0.0275814 -0.1581762
13772 0.0253691 -0.1516440 0.9746309 0.1516440 0.9746309 0.1516440 0.0253691 -0.1516440
14402 0.0233344 -0.1453534 0.9766656 0.1453534 0.9766656 0.1453534 0.0233344 -0.1453534
15062 0.0214635 -0.1392992 0.9785365 0.1392992 0.9785365 0.1392992 0.0214635 -0.1392992
15752 0.0197439 -0.1334757 0.9802561 0.1334757 0.9802561 0.1334757 0.0197439 -0.1334757
16473 0.0181638 -0.1278767 0.9818362 0.1278767 0.9818362 0.1278767 0.0181638 -0.1278767
17227 0.0167122 -0.1224962 0.9832878 0.1224962 0.9832878 0.1224962 0.0167122 -0.1224962
18016 0.0153789 -0.1173277 0.9846211 0.1173277 0.9846211 0.1173277 0.0153789 -0.1173277
18841 0.0141544 -0.1123648 0.9858456 0.1123648 0.9858456 0.1123648 0.0141544 -0.1123648
19704 0.0130300 -0.1076010 0.9869700 0.1076010 0.9869700 0.1076010 0.0130300 -0.1076010
20606 0.0119976 -0.1030297 0.9880024 0.1030297 0.9880024 0.1030297 0.0119976 -0.1030297
21550 0.0110497 -0.0986445 0.9889503 0.0986445 0.9889503 0.0986445 0.0110497 -0.0986445
22537 0.0101793 -0.0944390 0.9898207 0.0944390 0.9898207 0.0944390 0.0101793 -0.0944390
23569 0.0093802 -0.0904066 0.9906198 0.0904066 0.9906198 0.0904066 0.0093802 -0.0904066
24648 0.0086464 -0.0865412 0.9913536 0.0865412 0.9913536 0.0865412 0.0086464 -0.0865412
25777 0.0079725 -0.0828366 0.9920275 0.0828366 0.9920275 0.0828366 0.0079725 -0.0828366
26957 0.0073535 -0.0792866 0.9926465 0.0792866 0.9926465 0.0792866 0.0073535 -0.0792866
28191 0.0067849 -0.0758855 0.9932151 0.0758855 0.9932151 0.0758855 0.0067849 -0.0758855
29482 0.0062625 -0.0726273 0.9937375 0.0726273 0.9937375 0.0726273 0.0062625 -0.0726273
30832 0.0057823 -0.0695065 0.9942177 0.0695065 0.9942177 0.0695065 0.0057823 -0.0695065
32244 0.0053409 -0.0665176 0.9946591 0.0665176 0.9946591 0.0665176 0.0053409 -0.0665176
33721 0.0049351 -0.0636553 0.9950649 0.0636553 0.9950649 0.0636553 0.0049351 -0.0636553
35265 0.0045618 -0.0609146 0.9954382 0.0609146 0.9954382 0.0609146 0.0045618 -0.0609146
36880 0.0042184 -0.0582903 0.9957816 0.0582903 0.9957816 0.0582903 0.0042184 -0.0582903
38569 0.0039024 -0.0557778 0.9960976 0.0557778 0.9960976 0.0557778 0.0039024 -0.0557778
40335 0.0036114 -0.0533724 0.9963886 0.0533724 0.9963886 0.0533724 0.0036114 -0.0533724
42182 0.0033436 -0.0510696 0.9966564 0.0510696 0.9966564 0.0510696 0.0033436 -0.0510696
44113 0.0030969 -0.0488653 0.9969031 0.0488653 0.9969031 0.0488653 0.0030969 -0.0488653
46134 0.0028696 -0.0467551 0.9971304 0.0467551 0.9971304 0.0467551 0.0028696 -0.0467551
48246 0.0026602 -0.0447353 0.9973398 0.0447353 0.9973398 0.0447353 0.0026602 -0.0447353
50455 0.0024672 -0.0428019 0.9975328 0.0428019 0.9975328 0.0428019 0.0024672 -0.0428019
52766 0.0022894 -0.0409514 0.9977106 0.0409514 0.9977106 0.0409514 0.0022894 -0.0409514
55182 0.0021254 -0.0391801 0.9978746 0.0391801 0.9978746 0.0391801 0.0021254 -0.0391801
57709 0.0019743 -0.0374849 0.9980257 0.0374849 0.9980257 0.0374849 0.0019743 -0.0374849
60352 0.0018350 -0.0358624 0.9981650 0.0358624 0.9981650 0.0358624 0.0018350 -0.0358624
63115 0.0017065 -0.0343096 0.9982935 0.0343096 0.9982935 0.0343096 0.0017065 -0.0343096
66005 0.0015881 -0.0328235 0.9984119 0.0328235 0.9984119 0.0328235 0.0015881 -0.0328235
69028 0.0014789 -0.0314014 0.9985211 0.0314014 0.9985211 0.0314014 0.0014789 -0.0314014
72189 0.0013782 -0.0300404 0.9986218 0.0300404 0.9986218 0.0300404 0.0013782 -0.0300404
75495 0.0012854 -0.0287380 0.9987146 0.0287380 0.9987146 0.0287380 0.0012854 -0.0287380
78952 0.0011999 -0.0274918 0.9988001 0.0274918 0.9988001 0.0274918 0.0011999 -0.0274918
82567 0.0011211 -0.0262992 0.9988789 0.0262992 0.9988789 0.0262992 0.0011211 -0.0262992
86348 0.0010484 -0.0251582 0.9989516 0.0251582 0.9989516 0.0251582 0.0010484 -0.0251582
90302 0.0009814 -0.0240664 0.9990186 0.0240664 0.9990186 0.0240664 0.0009814 -0.0240664
94437 0.0009197 -0.0230219 0.9990803 0.0230219 0.9990803 0.0230219 0.0009197 -0.0230219
98762 0.0008628 -0.0220225 0.9991372 0.0220225 0.9991372 0.0220225 0.0008628 -0.0220225
103284 0.0008103 -0.0210664 0.9991897 0.0210664 0.9991897 0.0210664 0.0008103 -0.0210664
108014 0.0007620 -0.0201517 0.9992380 0.0201517 0.9992380 0.0201517 0.0007620 -0.0201517
112960 0.0007174 -0.0192767 0.9992826 0.0192767 0.9992826 0.0192767 0.0007174 -0.0192767
118133 0.0006762 -0.0184397 0.9993238 0.0184397 0.9993238 0.0184397 0.0006762 -0.0184397
123542 0.0006383 -0.0176390 0.9993617 0.0176390 0.9993617 0.0176390 0.0006383 -0.0176390
129199 0.0006032 -0.0168731 0.9993968 0.0168731 0.9993968 0.0168731 0.0006032 -0.0168731
135116 0.0005709 -0.0161405 0.9994291 0.0161405 0.9994291 0.0161405 0.0005709 -0.0161405
141303 0.0005409 -0.0154398 0.9994591 0.0154398 0.9994591 0.0154398 0.0005409 -0.0154398
147774 0.0005132 -0.0147696 0.9994868 0.0147696 0.9994868 0.0147696 0.0005132 -0.0147696
154540 0.0004876 -0.0141286 0.9995124 0.0141286 0.9995124 0.0141286 0.0004876 -0.0141286
161617 0.0004638 -0.0135155 0.9995362 0.0135155 0.9995362 0.0135155 0.0004638 -0.0135155
169018 0.0004417 -0.0129292 0.9995583 0.0129292 0.9995583 0.0129292 0.0004417 -0.0129292
176758 0.0004212 -0.0123684 0.9995788 0.0123684 0.9995788 0.0123684 0.0004212 -0.0123684
184852 0.0004021 -0.0118320 0.9995979 0.0118320 0.9995979 0.0118320 0.0004021 -0.0118320
193316 0.0003843 -0.0113191 0.9996157 0.0113191 0.9996157 0.0113191 0.0003843 -0.0113191
202169 0.0003676 -0.0108285 0.9996324 0.0108285 0.9996324 0.0108285 0.0003676 -0.0108285
211427 0.0003521 -0.0103593 0.9996479 0.0103593 0.9996479 0.0103593 0.0003521 -0.0103593
221108 0.0003375 -0.0099105 0.9996625 0.0099105 0.9996625 0.0099105 0.0003375 -0.0099105
231233 0.0003237 -0.0094813 0.9996763 0.0094813 0.9996763 0.0094813 0.0003237 -0.0094813
241822 0.0003108 -0.0090707 0.9996892 0.0090707 0.9996892 0.0090707 0.0003108 -0.0090707
252896 0.0002986 -0.0086781 0.9997014 0.0086781 0.9997014 0.0086781 0.0002986 -0.0086781
264476 0.0002871 -0.0083025 0.9997129 0.0083025 0.9997129 0.0083025 0.0002871 -0.0083025
276587 0.0002762 -0.0079432 0.9997238 0.0079432 0.9997238 0.0079432 0.0002762 -0.0079432
289253 0.0002659 -0.0075994 0.9997341 0.0075994 0.9997341 0.0075994 0.0002659 -0.0075994
302498 0.0002561 -0.0072706 0.9997439 0.0072706 0.9997439 0.0072706 0.0002561 -0.0072706
316350 0.0002467 -0.0069560 0.9997533 0.0069560 0.9997533 0.0069560 0.0002467 -0.0069560
330837 0.0002379 -0.0066551 0.9997621 0.0066551 0.9997621 0.0066551 0.0002379 -0.0066551
345986 0.0002294 -0.0063671 0.9997706 0.0063671 0.9997706 0.0063671 0.0002294 -0.0063671
361830 0.0002213 -0.0060915 0.9997787 0.0060915 0.9997787 0.0060915 0.0002213 -0.0060915
378399 0.0002136 -0.0058278 0.9997864 0.0058278 0.9997864 0.0058278 0.0002136 -0.0058278
395726 0.0002063 -0.0055754 0.9997937 0.0055754 0.9997937 0.0055754 0.0002063 -0.0055754
413847 0.0001993 -0.0053339 0.9998007 0.0053339 0.9998007 0.0053339 0.0001993 -0.0053339
432798 0.0001927 -0.0051028 0.9998073 0.0051028 0.9998073 0.0051028 0.0001927 -0.0051028
452617 0.0001863 -0.0048815 0.9998137 0.0048815 0.9998137 0.0048815 0.0001863 -0.0048815
473344 0.0001803 -0.0046697 0.9998197 0.0046697 0.9998197 0.0046697 0.0001803 -0.0046697
495019 0.0001746 -0.0044670 0.9998254 0.0044670 0.9998254 0.0044670 0.0001746 -0.0044670
517687 0.0001691 -0.0042730 0.9998309 0.0042730 0.9998309 0.0042730 0.0001691 -0.0042730
541393 0.0001640 -0.0040872 0.9998360 0.0040872 0.9998360 0.0040872 0.0001640 -0.0040872
566185 0.0001591 -0.0039094 0.9998409 0.0039094 0.9998409 0.0039094 0.0001591 -0.0039094
592111 0.0001545 -0.0037391 0.9998455 0.0037391 0.9998455 0.0037391 0.0001545 -0.0037391
619225 0.0001501 -0.0035761 0.9998499 0.0035761 0.9998499 0.0035761 0.0001501 -0.0035761
647581 0.0001460 -0.0034201 0.9998540 0.0034201 0.9998540 0.0034201 0.0001460 -0.0034201
677235 0.0001421 -0.0032707 0.9998579 0.0032707 0.9998579 0.0032707 0.0001421 -0.0032707
708247 0.0001385 -0.0031277 0.9998615 0.0031277 0.9998615 0.0031277 0.0001385 -0.0031277
740679 0.0001351 -0.0029907 0.9998649 0.0029907 0.9998649 0.0029907 0.0001351 -0.0029907
774597 0.0001319 -0.0028596 0.9998681 0.0028596 0.9998681 0.0028596 0.0001319 -0.0028596
810067 0.0001289 -0.0027341 0.9998711 0.0027341 0.9998711 0.0027341 0.0001289 -0.0027341
847162 0.0001261 -0.0026139 0.9998739 0.0026139 0.9998739 0.0026139 0.0001261 -0.0026139
885955 0.0001235 -0.0024989 0.9998765 0.0024989 0.9998765 0.0024989 0.0001235 -0.0024989
926525 0.0001211 -0.0023887 0.9998789 0.0023887 0.9998789 0.0023887 0.0001211 -0.0023887
968953 0.0001188 -0.0022832 0.9998812 0.0022832 0.9998812 0.0022832 0.0001188 -0.0022832
1013323 0.0001167 -0.0021822 0.9998833 0.0021822 0.9998833 0.0021822 0.0001167 -0.0021822
1059725 0.0001148 -0.0020855 0.9998852 0.0020855 0.9998852 0.0020855 0.0001148 -0.0020855
1108252 0.0001130 -0.0019928 0.9998870 0.0019928 0.9998870 0.0019928 0.0001130 -0.0019928
1159002 0.0001113 -0.0019042 0.9998887 0.0019042 0.9998887 0.0019042 0.0001113 -0.0019042
1212075 0.0001098 -0.0018192 0.9998902 0.0018192 0.9998902 0.0018192 0.0001098 -0.0018192
1267578 0.0001084 -0.0017379 0.9998916 0.0017379 0.9998916 0.0017379 0.0001084 -0.0017379
1325623 0.0001071 -0.0016600 0.9998929 0.0016600 0.9998929 0.0016600 0.0001071 -0.0016600
1386327 0.0001059 -0.0015853 0.9998941 0.0015853 0.9998941 0.0015853 0.0001059 -0.0015853
1449809 0.0001048 -0.0015138 0.9998952 0.0015138 0.9998952 0.0015138 0.0001048 -0.0015138
1516199 0.0001038 -0.0014454 0.9998962 0.0014454 0.9998962 0.0014454 0.0001038 -0.0014454
1585629 0.0001028 -0.0013797 0.9998972 0.0013797 0.9998972 0.0013797 0.0001028 -0.0013797
1658239 0.0001020 -0.0013169 0.9998980 0.0013169 0.9998980 0.0013169 0.0001020 -0.0013169
1734173 0.0001012 -0.0012566 0.9998988 0.0012566 0.9998988 0.0012566 0.0001012 -0.0012566
1813585 0.0001005 -0.0011988 0.9998995 0.0011988 0.9998995 0.0011988 0.0001005 -0.0011988
1896632 0.0000999 -0.0011434 0.9999001 0.0011434 0.9999001 0.0011434 0.0000999 -0.0011434
1983483 0.0000993 -0.0010903 0.9999007 0.0010903 0.9999007 0.0010903 0.0000993 -0.0010903
2074311 0.0000988 -0.0010394 0.9999012 0.0010394 0.9999012 0.0010394 0.0000988 -0.0010394
