!Murata Part Number: GRM032R60G105ME05
!These Parameters are Measured in Series Mode Connection
!Data Generated on Mar 30, 2021
!       o--ll--o
!Port1            Port2
!       o------o
!Operation Temp=25[degC], DC Bias Voltage=0[V]
!Freq. Start=100[Hz] Stop=6[GHz] 401[Steps]
# Hz S RI R 50
!Freq.(Hz) S11(Real) S11(Imag) S21(Real) S21(Imag) S12(Real) S12(Imag) S22(Real) S22(Imag)
100 0.9969769 -0.0503574 0.0030231 0.0503574 0.0030231 0.0503574 0.9969769 -0.0503574
105 0.9967140 -0.0526290 0.0032860 0.0526290 0.0032860 0.0526290 0.9967140 -0.0526290
109 0.9964285 -0.0550016 0.0035715 0.0550016 0.0035715 0.0550016 0.9964285 -0.0550016
114 0.9961186 -0.0574796 0.0038814 0.0574796 0.0038814 0.0574796 0.9961186 -0.0574796
120 0.9957819 -0.0600675 0.0042181 0.0600675 0.0042181 0.0600675 0.9957819 -0.0600675
125 0.9954163 -0.0627701 0.0045837 0.0627701 0.0045837 0.0627701 0.9954163 -0.0627701
131 0.9950190 -0.0655922 0.0049810 0.0655922 0.0049810 0.0655922 0.9950190 -0.0655922
137 0.9945872 -0.0685389 0.0054128 0.0685389 0.0054128 0.0685389 0.9945872 -0.0685389
143 0.9941178 -0.0716154 0.0058822 0.0716154 0.0058822 0.0716154 0.9941178 -0.0716154
150 0.9936075 -0.0748273 0.0063925 0.0748273 0.0063925 0.0748273 0.9936075 -0.0748273
156 0.9930526 -0.0781801 0.0069474 0.0781801 0.0069474 0.0781801 0.9930526 -0.0781801
164 0.9924489 -0.0816795 0.0075511 0.0816795 0.0075511 0.0816795 0.9924489 -0.0816795
171 0.9917921 -0.0853314 0.0082079 0.0853314 0.0082079 0.0853314 0.9917921 -0.0853314
179 0.9910774 -0.0891419 0.0089226 0.0891419 0.0089226 0.0891419 0.9910774 -0.0891419
187 0.9902995 -0.0931172 0.0097005 0.0931172 0.0097005 0.0931172 0.9902995 -0.0931172
196 0.9894528 -0.0972635 0.0105472 0.0972635 0.0105472 0.0972635 0.9894528 -0.0972635
205 0.9885310 -0.1015873 0.0114690 0.1015873 0.0114690 0.1015873 0.9885310 -0.1015873
214 0.9875275 -0.1060951 0.0124725 0.1060951 0.0124725 0.1060951 0.9875275 -0.1060951
224 0.9864349 -0.1107935 0.0135651 0.1107935 0.0135651 0.1107935 0.9864349 -0.1107935
234 0.9852454 -0.1156889 0.0147546 0.1156889 0.0147546 0.1156889 0.9852454 -0.1156889
245 0.9839503 -0.1207881 0.0160497 0.1207881 0.0160497 0.1207881 0.9839503 -0.1207881
256 0.9825406 -0.1260975 0.0174594 0.1260975 0.0174594 0.1260975 0.9825406 -0.1260975
268 0.9810061 -0.1316236 0.0189939 0.1316236 0.0189939 0.1316236 0.9810061 -0.1316236
280 0.9793362 -0.1373728 0.0206638 0.1373728 0.0206638 0.1373728 0.9793362 -0.1373728
293 0.9775192 -0.1433511 0.0224808 0.1433511 0.0224808 0.1433511 0.9775192 -0.1433511
306 0.9755428 -0.1495645 0.0244572 0.1495645 0.0244572 0.1495645 0.9755428 -0.1495645
320 0.9733935 -0.1560186 0.0266065 0.1560186 0.0266065 0.1560186 0.9733935 -0.1560186
335 0.9710572 -0.1627185 0.0289428 0.1627185 0.0289428 0.1627185 0.9710572 -0.1627185
350 0.9685184 -0.1696688 0.0314816 0.1696688 0.0314816 0.1696688 0.9685184 -0.1696688
366 0.9657608 -0.1768737 0.0342392 0.1768737 0.0342392 0.1768737 0.9657608 -0.1768737
383 0.9627672 -0.1843365 0.0372328 0.1843365 0.0372328 0.1843365 0.9627672 -0.1843365
401 0.9595190 -0.1920596 0.0404810 0.1920596 0.0404810 0.1920596 0.9595190 -0.1920596
419 0.9559968 -0.2000447 0.0440032 0.2000447 0.0440032 0.2000447 0.9559968 -0.2000447
438 0.9521799 -0.2082920 0.0478201 0.2082920 0.0478201 0.2082920 0.9521799 -0.2082920
458 0.9480465 -0.2168008 0.0519535 0.2168008 0.0519535 0.2168008 0.9480465 -0.2168008
479 0.9435739 -0.2255687 0.0564261 0.2255687 0.0564261 0.2255687 0.9435739 -0.2255687
501 0.9387384 -0.2345917 0.0612616 0.2345917 0.0612616 0.2345917 0.9387384 -0.2345917
524 0.9335151 -0.2438640 0.0664849 0.2438640 0.0664849 0.2438640 0.9335151 -0.2438640
548 0.9278786 -0.2533777 0.0721214 0.2533777 0.0721214 0.2533777 0.9278786 -0.2533777
573 0.9218023 -0.2631227 0.0781977 0.2631227 0.0781977 0.2631227 0.9218023 -0.2631227
600 0.9152594 -0.2730864 0.0847406 0.2730864 0.0847406 0.2730864 0.9152594 -0.2730864
627 0.9082224 -0.2832537 0.0917776 0.2832537 0.0917776 0.2832537 0.9082224 -0.2832537
656 0.9006636 -0.2936062 0.0993364 0.2936062 0.0993364 0.2936062 0.9006636 -0.2936062
686 0.8925556 -0.3041227 0.1074444 0.3041227 0.1074444 0.3041227 0.8925556 -0.3041227
717 0.8838710 -0.3147787 0.1161290 0.3147787 0.1161290 0.3147787 0.8838710 -0.3147787
750 0.8745831 -0.3255461 0.1254169 0.3255461 0.1254169 0.3255461 0.8745831 -0.3255461
784 0.8646665 -0.3363932 0.1353335 0.3363932 0.1353335 0.3363932 0.8646665 -0.3363932
820 0.8540969 -0.3472847 0.1459031 0.3472847 0.1459031 0.3472847 0.8540969 -0.3472847
858 0.8428524 -0.3581812 0.1571476 0.3581812 0.1571476 0.3581812 0.8428524 -0.3581812
897 0.8309130 -0.3690399 0.1690870 0.3690399 0.1690870 0.3690399 0.8309130 -0.3690399
938 0.8182623 -0.3798138 0.1817377 0.3798138 0.1817377 0.3798138 0.8182623 -0.3798138
981 0.8048871 -0.3904526 0.1951129 0.3904526 0.1951129 0.3904526 0.8048871 -0.3904526
1026 0.7907785 -0.4009024 0.2092215 0.4009024 0.2092215 0.4009024 0.7907785 -0.4009024
1073 0.7759323 -0.4111062 0.2240677 0.4111062 0.2240677 0.4111062 0.7759323 -0.4111062
1122 0.7603500 -0.4210047 0.2396500 0.4210047 0.2396500 0.4210047 0.7603500 -0.4210047
1174 0.7440386 -0.4305358 0.2559614 0.4305358 0.2559614 0.4305358 0.7440386 -0.4305358
1227 0.7270119 -0.4396366 0.2729881 0.4396366 0.2729881 0.4396366 0.7270119 -0.4396366
1283 0.7092905 -0.4482430 0.2907095 0.4482430 0.2907095 0.4482430 0.7092905 -0.4482430
1342 0.6909022 -0.4562913 0.3090978 0.4562913 0.3090978 0.4562913 0.6909022 -0.4562913
1404 0.6718825 -0.4637187 0.3281175 0.4637187 0.3281175 0.4637187 0.6718825 -0.4637187
1468 0.6522741 -0.4704647 0.3477259 0.4704647 0.3477259 0.4704647 0.6522741 -0.4704647
1535 0.6321275 -0.4764719 0.3678725 0.4764719 0.3678725 0.4764719 0.6321275 -0.4764719
1606 0.6115002 -0.4816873 0.3884998 0.4816873 0.3884998 0.4816873 0.6115002 -0.4816873
1679 0.5904564 -0.4860630 0.4095436 0.4860630 0.4095436 0.4860630 0.5904564 -0.4860630
1756 0.5690665 -0.4895579 0.4309335 0.4895579 0.4309335 0.4895579 0.5690665 -0.4895579
1836 0.5474063 -0.4921379 0.4525937 0.4921379 0.4525937 0.4921379 0.5474063 -0.4921379
1920 0.5255555 -0.4937770 0.4744445 0.4937770 0.4744445 0.4937770 0.5255555 -0.4937770
2008 0.5035972 -0.4944583 0.4964028 0.4944583 0.4964028 0.4944583 0.5035972 -0.4944583
2100 0.4816163 -0.4941736 0.5183837 0.4941736 0.5183837 0.4941736 0.4816163 -0.4941736
2196 0.4596984 -0.4929246 0.5403016 0.4929246 0.5403016 0.4929246 0.4596984 -0.4929246
2297 0.4379280 -0.4907220 0.5620720 0.4907220 0.5620720 0.4907220 0.4379280 -0.4907220
2402 0.4163880 -0.4875860 0.5836120 0.4875860 0.5836120 0.4875860 0.4163880 -0.4875860
2512 0.3951574 -0.4835453 0.6048426 0.4835453 0.6048426 0.4835453 0.3951574 -0.4835453
2627 0.3743112 -0.4786369 0.6256888 0.4786369 0.6256888 0.4786369 0.3743112 -0.4786369
2748 0.3539186 -0.4729050 0.6460814 0.4729050 0.6460814 0.4729050 0.3539186 -0.4729050
2873 0.3340426 -0.4664002 0.6659574 0.4664002 0.6659574 0.4664002 0.3340426 -0.4664002
3005 0.3147390 -0.4591784 0.6852610 0.4591784 0.6852610 0.4591784 0.3147390 -0.4591784
3143 0.2960563 -0.4512995 0.7039437 0.4512995 0.7039437 0.4512995 0.2960563 -0.4512995
3287 0.2780352 -0.4428268 0.7219648 0.4428268 0.7219648 0.4428268 0.2780352 -0.4428268
3437 0.2607084 -0.4338251 0.7392916 0.4338251 0.7392916 0.4338251 0.2607084 -0.4338251
3594 0.2441012 -0.4243605 0.7558988 0.4243605 0.7558988 0.4243605 0.2441012 -0.4243605
3759 0.2282311 -0.4144986 0.7717689 0.4144986 0.7717689 0.4144986 0.2282311 -0.4144986
3931 0.2131086 -0.4043041 0.7868914 0.4043041 0.7868914 0.4043041 0.2131086 -0.4043041
4111 0.1987376 -0.3938399 0.8012624 0.3938399 0.8012624 0.3938399 0.1987376 -0.3938399
4299 0.1851159 -0.3831663 0.8148841 0.3831663 0.8148841 0.3831663 0.1851159 -0.3831663
4496 0.1722359 -0.3723405 0.8277641 0.3723405 0.8277641 0.3723405 0.1722359 -0.3723405
4702 0.1600851 -0.3614164 0.8399149 0.3614164 0.8399149 0.3614164 0.1600851 -0.3614164
4918 0.1486470 -0.3504440 0.8513530 0.3504440 0.8513530 0.3504440 0.1486470 -0.3504440
5143 0.1379017 -0.3394691 0.8620983 0.3394691 0.8620983 0.3394691 0.1379017 -0.3394691
5378 0.1278262 -0.3285337 0.8721738 0.3285337 0.8721738 0.3285337 0.1278262 -0.3285337
5625 0.1183954 -0.3176755 0.8816046 0.3176755 0.8816046 0.3176755 0.1183954 -0.3176755
5882 0.1095826 -0.3069281 0.8904174 0.3069281 0.8904174 0.3069281 0.1095826 -0.3069281
6151 0.1013597 -0.2963212 0.8986403 0.2963212 0.8986403 0.2963212 0.1013597 -0.2963212
6433 0.0936980 -0.2858806 0.9063020 0.2858806 0.9063020 0.2858806 0.0936980 -0.2858806
6728 0.0865684 -0.2756287 0.9134316 0.2756287 0.9134316 0.2756287 0.0865684 -0.2756287
7036 0.0799419 -0.2655841 0.9200581 0.2655841 0.9200581 0.2655841 0.0799419 -0.2655841
7358 0.0737894 -0.2557625 0.9262106 0.2557625 0.9262106 0.2557625 0.0737894 -0.2557625
7695 0.0680829 -0.2461768 0.9319171 0.2461768 0.9319171 0.2461768 0.0680829 -0.2461768
8047 0.0627948 -0.2368370 0.9372052 0.2368370 0.9372052 0.2368370 0.0627948 -0.2368370
8416 0.0578982 -0.2277508 0.9421018 0.2277508 0.9421018 0.2277508 0.0578982 -0.2277508
8801 0.0533677 -0.2189237 0.9466323 0.2189237 0.9466323 0.2189237 0.0533677 -0.2189237
9204 0.0491786 -0.2103594 0.9508214 0.2103594 0.9508214 0.2103594 0.0491786 -0.2103594
9626 0.0453076 -0.2020597 0.9546924 0.2020597 0.9546924 0.2020597 0.0453076 -0.2020597
10066 0.0417323 -0.1940249 0.9582677 0.1940249 0.9582677 0.1940249 0.0417323 -0.1940249
10527 0.0384319 -0.1862543 0.9615681 0.1862543 0.9615681 0.1862543 0.0384319 -0.1862543
11009 0.0353866 -0.1787457 0.9646134 0.1787457 0.9646134 0.1787457 0.0353866 -0.1787457
11514 0.0325777 -0.1714963 0.9674223 0.1714963 0.9674223 0.1714963 0.0325777 -0.1714963
12041 0.0299879 -0.1645021 0.9700121 0.1645021 0.9700121 0.1645021 0.0299879 -0.1645021
12592 0.0276008 -0.1577588 0.9723992 0.1577588 0.9723992 0.1577588 0.0276008 -0.1577588
13169 0.0254013 -0.1512614 0.9745987 0.1512614 0.9745987 0.1512614 0.0254013 -0.1512614
13772 0.0233752 -0.1450043 0.9766248 0.1450043 0.9766248 0.1450043 0.0233752 -0.1450043
14402 0.0215094 -0.1389819 0.9784906 0.1389819 0.9784906 0.1389819 0.0215094 -0.1389819
15062 0.0197917 -0.1331881 0.9802083 0.1331881 0.9802083 0.1331881 0.0197917 -0.1331881
15752 0.0182106 -0.1276166 0.9817894 0.1276166 0.9817894 0.1276166 0.0182106 -0.1276166
16473 0.0167557 -0.1222611 0.9832443 0.1222611 0.9832443 0.1222611 0.0167557 -0.1222611
17227 0.0154172 -0.1171150 0.9845828 0.1171150 0.9845828 0.1171150 0.0154172 -0.1171150
18016 0.0141861 -0.1121719 0.9858139 0.1121719 0.9858139 0.1121719 0.0141861 -0.1121719
18841 0.0130540 -0.1074253 0.9869460 0.1074253 0.9869460 0.1074253 0.0130540 -0.1074253
19704 0.0120132 -0.1028687 0.9879868 0.1028687 0.9879868 0.1028687 0.0120132 -0.1028687
20606 0.0110566 -0.0984957 0.9889434 0.0984957 0.9889434 0.0984957 0.0110566 -0.0984957
21550 0.0101775 -0.0943001 0.9898225 0.0943001 0.9898225 0.0943001 0.0101775 -0.0943001
22537 0.0093699 -0.0902755 0.9906301 0.0902755 0.9906301 0.0902755 0.0093699 -0.0902755
23569 0.0086280 -0.0864159 0.9913720 0.0864159 0.9913720 0.0864159 0.0086280 -0.0864159
24648 0.0079467 -0.0827153 0.9920533 0.0827153 0.9920533 0.0827153 0.0079467 -0.0827153
25777 0.0073212 -0.0791678 0.9926788 0.0791678 0.9926788 0.0791678 0.0073212 -0.0791678
26957 0.0067469 -0.0757678 0.9932531 0.0757678 0.9932531 0.0757678 0.0067469 -0.0757678
28191 0.0062198 -0.0725096 0.9937802 0.0725096 0.9937802 0.0725096 0.0062198 -0.0725096
29482 0.0057361 -0.0693879 0.9942639 0.0693879 0.9942639 0.0693879 0.0057361 -0.0693879
30832 0.0052923 -0.0663975 0.9947077 0.0663975 0.9947077 0.0663975 0.0052923 -0.0663975
32244 0.0048851 -0.0635331 0.9951149 0.0635331 0.9951149 0.0635331 0.0048851 -0.0635331
33721 0.0045116 -0.0607899 0.9954884 0.0607899 0.9954884 0.0607899 0.0045116 -0.0607899
35265 0.0041690 -0.0581630 0.9958310 0.0581630 0.9958310 0.0581630 0.0041690 -0.0581630
36880 0.0038548 -0.0556479 0.9961452 0.0556479 0.9961452 0.0556479 0.0038548 -0.0556479
38569 0.0035666 -0.0532400 0.9964334 0.0532400 0.9964334 0.0532400 0.0035666 -0.0532400
40335 0.0033023 -0.0509351 0.9966977 0.0509351 0.9966977 0.0509351 0.0033023 -0.0509351
42182 0.0030599 -0.0487288 0.9969401 0.0487288 0.9969401 0.0487288 0.0030599 -0.0487288
44113 0.0028376 -0.0466172 0.9971624 0.0466172 0.9971624 0.0466172 0.0028376 -0.0466172
46134 0.0026337 -0.0445964 0.9973663 0.0445964 0.9973663 0.0445964 0.0026337 -0.0445964
48246 0.0024466 -0.0426627 0.9975534 0.0426627 0.9975534 0.0426627 0.0024466 -0.0426627
50455 0.0022750 -0.0408123 0.9977250 0.0408123 0.9977250 0.0408123 0.0022750 -0.0408123
52766 0.0021174 -0.0390419 0.9978826 0.0390419 0.9978826 0.0390419 0.0021174 -0.0390419
55182 0.0019728 -0.0373481 0.9980272 0.0373481 0.9980272 0.0373481 0.0019728 -0.0373481
57709 0.0018401 -0.0357276 0.9981599 0.0357276 0.9981599 0.0357276 0.0018401 -0.0357276
60352 0.0017181 -0.0341774 0.9982819 0.0341774 0.9982819 0.0341774 0.0017181 -0.0341774
63115 0.0016060 -0.0326944 0.9983940 0.0326944 0.9983940 0.0326944 0.0016060 -0.0326944
66005 0.0015029 -0.0312759 0.9984971 0.0312759 0.9984971 0.0312759 0.0015029 -0.0312759
69028 0.0014080 -0.0299190 0.9985920 0.0299190 0.9985920 0.0299190 0.0014080 -0.0299190
72189 0.0013207 -0.0286212 0.9986793 0.0286212 0.9986793 0.0286212 0.0013207 -0.0286212
75495 0.0012402 -0.0273798 0.9987598 0.0273798 0.9987598 0.0273798 0.0012402 -0.0273798
78952 0.0011659 -0.0261925 0.9988341 0.0261925 0.9988341 0.0261925 0.0011659 -0.0261925
82567 0.0010974 -0.0250569 0.9989026 0.0250569 0.9989026 0.0250569 0.0010974 -0.0250569
86348 0.0010341 -0.0239707 0.9989659 0.0239707 0.9989659 0.0239707 0.0010341 -0.0239707
90302 0.0009755 -0.0229319 0.9990245 0.0229319 0.9990245 0.0229319 0.0009755 -0.0229319
94437 0.0009213 -0.0219383 0.9990787 0.0219383 0.9990787 0.0219383 0.0009213 -0.0219383
98762 0.0008710 -0.0209879 0.9991290 0.0209879 0.9991290 0.0209879 0.0008710 -0.0209879
103284 0.0008243 -0.0200790 0.9991757 0.0200790 0.9991757 0.0200790 0.0008243 -0.0200790
108014 0.0007809 -0.0192096 0.9992191 0.0192096 0.9992191 0.0192096 0.0007809 -0.0192096
112960 0.0007405 -0.0183780 0.9992595 0.0183780 0.9992595 0.0183780 0.0007405 -0.0183780
118133 0.0007029 -0.0175825 0.9992971 0.0175825 0.9992971 0.0175825 0.0007029 -0.0175825
123542 0.0006678 -0.0168217 0.9993322 0.0168217 0.9993322 0.0168217 0.0006678 -0.0168217
129199 0.0006350 -0.0160938 0.9993650 0.0160938 0.9993650 0.0160938 0.0006350 -0.0160938
135116 0.0006043 -0.0153975 0.9993957 0.0153975 0.9993957 0.0153975 0.0006043 -0.0153975
141303 0.0005756 -0.0147315 0.9994244 0.0147315 0.9994244 0.0147315 0.0005756 -0.0147315
147774 0.0005488 -0.0140942 0.9994512 0.0140942 0.9994512 0.0140942 0.0005488 -0.0140942
154540 0.0005236 -0.0134846 0.9994764 0.0134846 0.9994764 0.0134846 0.0005236 -0.0134846
161617 0.0004999 -0.0129013 0.9995001 0.0129013 0.9995001 0.0129013 0.0004999 -0.0129013
169018 0.0004778 -0.0123432 0.9995222 0.0123432 0.9995222 0.0123432 0.0004778 -0.0123432
176758 0.0004569 -0.0118092 0.9995431 0.0118092 0.9995431 0.0118092 0.0004569 -0.0118092
184852 0.0004374 -0.0112983 0.9995626 0.0112983 0.9995626 0.0112983 0.0004374 -0.0112983
193316 0.0004190 -0.0108094 0.9995810 0.0108094 0.9995810 0.0108094 0.0004190 -0.0108094
202169 0.0004018 -0.0103416 0.9995982 0.0103416 0.9995982 0.0103416 0.0004018 -0.0103416
211427 0.0003856 -0.0098939 0.9996144 0.0098939 0.9996144 0.0098939 0.0003856 -0.0098939
221108 0.0003704 -0.0094655 0.9996296 0.0094655 0.9996296 0.0094655 0.0003704 -0.0094655
231233 0.0003561 -0.0090556 0.9996439 0.0090556 0.9996439 0.0090556 0.0003561 -0.0090556
241822 0.0003427 -0.0086633 0.9996573 0.0086633 0.9996573 0.0086633 0.0003427 -0.0086633
252896 0.0003301 -0.0082880 0.9996699 0.0082880 0.9996699 0.0082880 0.0003301 -0.0082880
264476 0.0003183 -0.0079287 0.9996817 0.0079287 0.9996817 0.0079287 0.0003183 -0.0079287
276587 0.0003072 -0.0075850 0.9996928 0.0075850 0.9996928 0.0075850 0.0003072 -0.0075850
289253 0.0002969 -0.0072561 0.9997031 0.0072561 0.9997031 0.0072561 0.0002969 -0.0072561
302498 0.0002871 -0.0069413 0.9997129 0.0069413 0.9997129 0.0069413 0.0002871 -0.0069413
316350 0.0002780 -0.0066401 0.9997220 0.0066401 0.9997220 0.0066401 0.0002780 -0.0066401
330837 0.0002694 -0.0063519 0.9997306 0.0063519 0.9997306 0.0063519 0.0002694 -0.0063519
345986 0.0002614 -0.0060761 0.9997386 0.0060761 0.9997386 0.0060761 0.0002614 -0.0060761
361830 0.0002539 -0.0058122 0.9997461 0.0058122 0.9997461 0.0058122 0.0002539 -0.0058122
378399 0.0002468 -0.0055597 0.9997532 0.0055597 0.9997532 0.0055597 0.0002468 -0.0055597
395726 0.0002402 -0.0053181 0.9997598 0.0053181 0.9997598 0.0053181 0.0002402 -0.0053181
413847 0.0002340 -0.0050869 0.9997660 0.0050869 0.9997660 0.0050869 0.0002340 -0.0050869
432798 0.0002281 -0.0048657 0.9997719 0.0048657 0.9997719 0.0048657 0.0002281 -0.0048657
452617 0.0002226 -0.0046540 0.9997774 0.0046540 0.9997774 0.0046540 0.0002226 -0.0046540
473344 0.0002175 -0.0044514 0.9997825 0.0044514 0.9997825 0.0044514 0.0002175 -0.0044514
495019 0.0002126 -0.0042576 0.9997874 0.0042576 0.9997874 0.0042576 0.0002126 -0.0042576
517687 0.0002080 -0.0040721 0.9997920 0.0040721 0.9997920 0.0040721 0.0002080 -0.0040721
541393 0.0002037 -0.0038946 0.9997963 0.0038946 0.9997963 0.0038946 0.0002037 -0.0038946
566185 0.0001997 -0.0037248 0.9998003 0.0037248 0.9998003 0.0037248 0.0001997 -0.0037248
592111 0.0001958 -0.0035622 0.9998042 0.0035622 0.9998042 0.0035622 0.0001958 -0.0035622
619225 0.0001922 -0.0034067 0.9998078 0.0034067 0.9998078 0.0034067 0.0001922 -0.0034067
647581 0.0001888 -0.0032578 0.9998112 0.0032578 0.9998112 0.0032578 0.0001888 -0.0032578
677235 0.0001856 -0.0031153 0.9998144 0.0031153 0.9998144 0.0031153 0.0001856 -0.0031153
708247 0.0001825 -0.0029789 0.9998175 0.0029789 0.9998175 0.0029789 0.0001825 -0.0029789
740679 0.0001797 -0.0028484 0.9998203 0.0028484 0.9998203 0.0028484 0.0001797 -0.0028484
774597 0.0001769 -0.0027235 0.9998231 0.0027235 0.9998231 0.0027235 0.0001769 -0.0027235
810067 0.0001744 -0.0026038 0.9998256 0.0026038 0.9998256 0.0026038 0.0001744 -0.0026038
847162 0.0001720 -0.0024893 0.9998280 0.0024893 0.9998280 0.0024893 0.0001720 -0.0024893
885955 0.0001697 -0.0023797 0.9998303 0.0023797 0.9998303 0.0023797 0.0001697 -0.0023797
926525 0.0001675 -0.0022748 0.9998325 0.0022748 0.9998325 0.0022748 0.0001675 -0.0022748
968953 0.0001655 -0.0021743 0.9998345 0.0021743 0.9998345 0.0021743 0.0001655 -0.0021743
1013323 0.0001636 -0.0020780 0.9998364 0.0020780 0.9998364 0.0020780 0.0001636 -0.0020780
1059725 0.0001618 -0.0019859 0.9998382 0.0019859 0.9998382 0.0019859 0.0001618 -0.0019859
1108252 0.0001602 -0.0018977 0.9998398 0.0018977 0.9998398 0.0018977 0.0001602 -0.0018977
1159002 0.0001586 -0.0018131 0.9998414 0.0018131 0.9998414 0.0018131 0.0001586 -0.0018131
1212075 0.0001572 -0.0017322 0.9998428 0.0017322 0.9998428 0.0017322 0.0001572 -0.0017322
1267578 0.0001558 -0.0016546 0.9998442 0.0016546 0.9998442 0.0016546 0.0001558 -0.0016546
1325623 0.0001545 -0.0015803 0.9998455 0.0015803 0.9998455 0.0015803 0.0001545 -0.0015803
1386327 0.0001533 -0.0015092 0.9998467 0.0015092 0.9998467 0.0015092 0.0001533 -0.0015092
1449809 0.0001522 -0.0014409 0.9998478 0.0014409 0.9998478 0.0014409 0.0001522 -0.0014409
1516199 0.0001512 -0.0013756 0.9998488 0.0013756 0.9998488 0.0013756 0.0001512 -0.0013756
1585629 0.0001503 -0.0013129 0.9998497 0.0013129 0.9998497 0.0013129 0.0001503 -0.0013129
1658239 0.0001494 -0.0012529 0.9998506 0.0012529 0.9998506 0.0012529 0.0001494 -0.0012529
1734173 0.0001486 -0.0011953 0.9998514 0.0011953 0.9998514 0.0011953 0.0001486 -0.0011953
1813585 0.0001479 -0.0011401 0.9998521 0.0011401 0.9998521 0.0011401 0.0001479 -0.0011401
1896632 0.0001472 -0.0010871 0.9998528 0.0010871 0.9998528 0.0010871 0.0001472 -0.0010871
1983483 0.0001466 -0.0010363 0.9998534 0.0010363 0.9998534 0.0010363 0.0001466 -0.0010363
2074311 0.0001460 -0.0009876 0.9998540 0.0009876 0.9998540 0.0009876 0.0001460 -0.0009876
