!Murata Part Number: GRM033C81A105ME05
!These Parameters are Measured in Series Mode Connection
!Data Generated on Mar 30, 2021
!       o--ll--o
!Port1            Port2
!       o------o
!Operation Temp=25[degC], DC Bias Voltage=0[V]
!Freq. Start=100[Hz] Stop=6[GHz] 401[Steps]
# Hz S RI R 50
!Freq.(Hz) S11(Real) S11(Imag) S21(Real) S21(Imag) S12(Real) S12(Imag) S22(Real) S22(Imag)
100 0.9971802 -0.0496671 0.0028198 0.0496671 0.0028198 0.0496671 0.9971802 -0.0496671
105 0.9969283 -0.0519138 0.0030717 0.0519138 0.0030717 0.0519138 0.9969283 -0.0519138
109 0.9966543 -0.0542606 0.0033457 0.0542606 0.0033457 0.0542606 0.9966543 -0.0542606
114 0.9963563 -0.0567117 0.0036437 0.0567117 0.0036437 0.0567117 0.9963563 -0.0567117
120 0.9960322 -0.0592716 0.0039678 0.0592716 0.0039678 0.0592716 0.9960322 -0.0592716
125 0.9956796 -0.0619449 0.0043204 0.0619449 0.0043204 0.0619449 0.9956796 -0.0619449
131 0.9952961 -0.0647366 0.0047039 0.0647366 0.0047039 0.0647366 0.9952961 -0.0647366
137 0.9948789 -0.0676515 0.0051211 0.0676515 0.0051211 0.0676515 0.9948789 -0.0676515
143 0.9944250 -0.0706949 0.0055750 0.0706949 0.0055750 0.0706949 0.9944250 -0.0706949
150 0.9939311 -0.0738721 0.0060689 0.0738721 0.0060689 0.0738721 0.9939311 -0.0738721
156 0.9933937 -0.0771886 0.0066063 0.0771886 0.0066063 0.0771886 0.9933937 -0.0771886
164 0.9928089 -0.0806503 0.0071911 0.0806503 0.0071911 0.0806503 0.9928089 -0.0806503
171 0.9921724 -0.0842628 0.0078276 0.0842628 0.0078276 0.0842628 0.9921724 -0.0842628
179 0.9914797 -0.0880323 0.0085203 0.0880323 0.0085203 0.0880323 0.9914797 -0.0880323
187 0.9907255 -0.0919650 0.0092745 0.0919650 0.0092745 0.0919650 0.9907255 -0.0919650
196 0.9899045 -0.0960671 0.0100955 0.0960671 0.0100955 0.0960671 0.9899045 -0.0960671
205 0.9890106 -0.1003450 0.0109894 0.1003450 0.0109894 0.1003450 0.9890106 -0.1003450
214 0.9880373 -0.1048053 0.0119627 0.1048053 0.0119627 0.1048053 0.9880373 -0.1048053
224 0.9869777 -0.1094547 0.0130223 0.1094547 0.0130223 0.1094547 0.9869777 -0.1094547
234 0.9858239 -0.1142997 0.0141761 0.1142997 0.0141761 0.1142997 0.9858239 -0.1142997
245 0.9845677 -0.1193471 0.0154323 0.1193471 0.0154323 0.1193471 0.9845677 -0.1193471
256 0.9832002 -0.1246034 0.0167998 0.1246034 0.0167998 0.1246034 0.9832002 -0.1246034
268 0.9817115 -0.1300755 0.0182885 0.1300755 0.0182885 0.1300755 0.9817115 -0.1300755
280 0.9800913 -0.1357696 0.0199087 0.1357696 0.0199087 0.1357696 0.9800913 -0.1357696
293 0.9783280 -0.1416922 0.0216720 0.1416922 0.0216720 0.1416922 0.9783280 -0.1416922
306 0.9764097 -0.1478495 0.0235903 0.1478495 0.0235903 0.1478495 0.9764097 -0.1478495
320 0.9743231 -0.1542472 0.0256769 0.1542472 0.0256769 0.1542472 0.9743231 -0.1542472
335 0.9720543 -0.1608909 0.0279457 0.1608909 0.0279457 0.1608909 0.9720543 -0.1608909
350 0.9695881 -0.1677855 0.0304119 0.1677855 0.0304119 0.1677855 0.9695881 -0.1677855
366 0.9669085 -0.1749355 0.0330915 0.1749355 0.0330915 0.1749355 0.9669085 -0.1749355
383 0.9639983 -0.1823446 0.0360017 0.1823446 0.0360017 0.1823446 0.9639983 -0.1823446
401 0.9608392 -0.1900160 0.0391608 0.1900160 0.0391608 0.1900160 0.9608392 -0.1900160
419 0.9574119 -0.1979515 0.0425881 0.1979515 0.0425881 0.1979515 0.9574119 -0.1979515
438 0.9536957 -0.2061522 0.0463043 0.2061522 0.0463043 0.2061522 0.9536957 -0.2061522
458 0.9496692 -0.2146178 0.0503308 0.2146178 0.0503308 0.2146178 0.9496692 -0.2146178
479 0.9453094 -0.2233466 0.0546906 0.2233466 0.0546906 0.2233466 0.9453094 -0.2233466
501 0.9405926 -0.2323353 0.0594074 0.2323353 0.0594074 0.2323353 0.9405926 -0.2323353
524 0.9354939 -0.2415788 0.0645061 0.2415788 0.0645061 0.2415788 0.9354939 -0.2415788
548 0.9299875 -0.2510701 0.0700125 0.2510701 0.0700125 0.2510701 0.9299875 -0.2510701
573 0.9240467 -0.2607997 0.0759533 0.2607997 0.0759533 0.2607997 0.9240467 -0.2607997
600 0.9176441 -0.2707559 0.0823559 0.2707559 0.0823559 0.2707559 0.9176441 -0.2707559
627 0.9107520 -0.2809241 0.0892480 0.2809241 0.0892480 0.2809241 0.9107520 -0.2809241
656 0.9033419 -0.2912871 0.0966581 0.2912871 0.0966581 0.2912871 0.9033419 -0.2912871
686 0.8953857 -0.3018241 0.1046143 0.3018241 0.1046143 0.3018241 0.8953857 -0.3018241
717 0.8868552 -0.3125114 0.1131448 0.3125114 0.1131448 0.3125114 0.8868552 -0.3125114
750 0.8777229 -0.3233216 0.1222771 0.3233216 0.1222771 0.3233216 0.8777229 -0.3233216
784 0.8679622 -0.3342234 0.1320378 0.3342234 0.1320378 0.3342234 0.8679622 -0.3342234
820 0.8575478 -0.3451819 0.1424522 0.3451819 0.1424522 0.3451819 0.8575478 -0.3451819
858 0.8464564 -0.3561582 0.1535436 0.3561582 0.1535436 0.3561582 0.8464564 -0.3561582
897 0.8346670 -0.3671094 0.1653330 0.3671094 0.1653330 0.3671094 0.8346670 -0.3671094
938 0.8221616 -0.3779888 0.1778384 0.3779888 0.1778384 0.3779888 0.8221616 -0.3779888
981 0.8089256 -0.3887459 0.1910744 0.3887459 0.1910744 0.3887459 0.8089256 -0.3887459
1026 0.7949488 -0.3993264 0.2050512 0.3993264 0.2050512 0.3993264 0.7949488 -0.3993264
1073 0.7802257 -0.4096730 0.2197743 0.4096730 0.2197743 0.4096730 0.7802257 -0.4096730
1122 0.7647562 -0.4197254 0.2352438 0.4197254 0.2352438 0.4197254 0.7647562 -0.4197254
1174 0.7485462 -0.4294211 0.2514538 0.4294211 0.2514538 0.4294211 0.7485462 -0.4294211
1227 0.7316083 -0.4386958 0.2683917 0.4386958 0.2683917 0.4386958 0.7316083 -0.4386958
1283 0.7139620 -0.4474844 0.2860380 0.4474844 0.2860380 0.4474844 0.7139620 -0.4474844
1342 0.6956342 -0.4557218 0.3043658 0.4557218 0.3043658 0.4557218 0.6956342 -0.4557218
1404 0.6766595 -0.4633439 0.3233405 0.4633439 0.3233405 0.4633439 0.6766595 -0.4633439
1468 0.6570802 -0.4702885 0.3429198 0.4702885 0.3429198 0.4702885 0.6570802 -0.4702885
1535 0.6369463 -0.4764968 0.3630537 0.4764968 0.3630537 0.4764968 0.6369463 -0.4764968
1606 0.6163150 -0.4819140 0.3836850 0.4819140 0.3836850 0.4819140 0.6163150 -0.4819140
1679 0.5952508 -0.4864907 0.4047492 0.4864907 0.4047492 0.4864907 0.5952508 -0.4864907
1756 0.5738242 -0.4901839 0.4261758 0.4901839 0.4261758 0.4901839 0.5738242 -0.4901839
1836 0.5521112 -0.4929582 0.4478888 0.4929582 0.4478888 0.4929582 0.5521112 -0.4929582
1920 0.5301925 -0.4947861 0.4698075 0.4947861 0.4698075 0.4947861 0.5301925 -0.4947861
2008 0.5081517 -0.4956490 0.4918483 0.4956490 0.4918483 0.4956490 0.5081517 -0.4956490
2100 0.4860749 -0.4955378 0.5139251 0.4955378 0.5139251 0.4955378 0.4860749 -0.4955378
2196 0.4640485 -0.4944528 0.5359515 0.4944528 0.5359515 0.4944528 0.4640485 -0.4944528
2297 0.4421584 -0.4924039 0.5578416 0.4924039 0.5578416 0.4924039 0.4421584 -0.4924039
2402 0.4204886 -0.4894104 0.5795114 0.4894104 0.5795114 0.4894104 0.4204886 -0.4894104
2512 0.3991196 -0.4855005 0.6008804 0.4855005 0.6008804 0.4855005 0.3991196 -0.4855005
2627 0.3781275 -0.4807107 0.6218725 0.4807107 0.6218725 0.4807107 0.3781275 -0.4807107
2748 0.3575831 -0.4750850 0.6424169 0.4750850 0.6424169 0.4750850 0.3575831 -0.4750850
2873 0.3375505 -0.4686737 0.6624495 0.4686737 0.6624495 0.4686737 0.3375505 -0.4686737
3005 0.3180870 -0.4615329 0.6819130 0.4615329 0.6819130 0.4615329 0.3180870 -0.4615329
3143 0.2992421 -0.4537227 0.7007579 0.4537227 0.7007579 0.4537227 0.2992421 -0.4537227
3287 0.2810577 -0.4453065 0.7189423 0.4453065 0.7189423 0.4453065 0.2810577 -0.4453065
3437 0.2635676 -0.4363498 0.7364324 0.4363498 0.7364324 0.4363498 0.2635676 -0.4363498
3594 0.2467979 -0.4269190 0.7532021 0.4269190 0.7532021 0.4269190 0.2467979 -0.4269190
3759 0.2307671 -0.4170802 0.7692329 0.4170802 0.7692329 0.4170802 0.2307671 -0.4170802
3931 0.2154864 -0.4068989 0.7845136 0.4068989 0.7845136 0.4068989 0.2154864 -0.4068989
4111 0.2009603 -0.3964385 0.7990397 0.3964385 0.7990397 0.3964385 0.2009603 -0.3964385
4299 0.1871871 -0.3857599 0.8128129 0.3857599 0.8128129 0.3857599 0.1871871 -0.3857599
4496 0.1741598 -0.3749211 0.8258402 0.3749211 0.8258402 0.3749211 0.1741598 -0.3749211
4702 0.1618661 -0.3639765 0.8381339 0.3639765 0.8381339 0.3639765 0.1618661 -0.3639765
4918 0.1502900 -0.3529767 0.8497100 0.3529767 0.8497100 0.3529767 0.1502900 -0.3529767
5143 0.1394116 -0.3419683 0.8605884 0.3419683 0.8605884 0.3419683 0.1394116 -0.3419683
5378 0.1292083 -0.3309937 0.8707917 0.3309937 0.8707917 0.3309937 0.1292083 -0.3309937
5625 0.1196550 -0.3200911 0.8803450 0.3200911 0.8803450 0.3200911 0.1196550 -0.3200911
5882 0.1107251 -0.3092948 0.8892749 0.3092948 0.8892749 0.3092948 0.1107251 -0.3092948
6151 0.1023907 -0.2986349 0.8976093 0.2986349 0.8976093 0.2986349 0.1023907 -0.2986349
6433 0.0946229 -0.2881377 0.9053771 0.2881377 0.9053771 0.2881377 0.0946229 -0.2881377
6728 0.0873929 -0.2778259 0.9126071 0.2778259 0.9126071 0.2778259 0.0873929 -0.2778259
7036 0.0806714 -0.2677187 0.9193286 0.2677187 0.9193286 0.2677187 0.0806714 -0.2677187
7358 0.0744296 -0.2578322 0.9255704 0.2578322 0.9255704 0.2578322 0.0744296 -0.2578322
7695 0.0686392 -0.2481795 0.9313608 0.2481795 0.9313608 0.2481795 0.0686392 -0.2481795
8047 0.0632727 -0.2387710 0.9367273 0.2387710 0.9367273 0.2387710 0.0632727 -0.2387710
8416 0.0583033 -0.2296150 0.9416967 0.2296150 0.9416967 0.2296150 0.0583033 -0.2296150
8801 0.0537053 -0.2207171 0.9462947 0.2207171 0.9462947 0.2207171 0.0537053 -0.2207171
9204 0.0494540 -0.2120814 0.9505460 0.2120814 0.9505460 0.2120814 0.0494540 -0.2120814
9626 0.0455260 -0.2037100 0.9544740 0.2037100 0.9544740 0.2037100 0.0455260 -0.2037100
10066 0.0418989 -0.1956038 0.9581011 0.1956038 0.9581011 0.1956038 0.0418989 -0.1956038
10527 0.0385516 -0.1877621 0.9614484 0.1877621 0.9614484 0.1877621 0.0385516 -0.1877621
11009 0.0354642 -0.1801832 0.9645358 0.1801832 0.9645358 0.1801832 0.0354642 -0.1801832
11514 0.0326180 -0.1728645 0.9673820 0.1728645 0.9673820 0.1728645 0.0326180 -0.1728645
12041 0.0299952 -0.1658024 0.9700048 0.1658024 0.9700048 0.1658024 0.0299952 -0.1658024
12592 0.0275794 -0.1589928 0.9724206 0.1589928 0.9724206 0.1589928 0.0275794 -0.1589928
13169 0.0253552 -0.1524308 0.9746448 0.1524308 0.9746448 0.1524308 0.0253552 -0.1524308
13772 0.0233082 -0.1461113 0.9766918 0.1461113 0.9766918 0.1461113 0.0233082 -0.1461113
14402 0.0214249 -0.1400287 0.9785751 0.1400287 0.9785751 0.1400287 0.0214249 -0.1400287
15062 0.0196928 -0.1341770 0.9803072 0.1341770 0.9803072 0.1341770 0.0196928 -0.1341770
15752 0.0181003 -0.1285501 0.9818997 0.1285501 0.9818997 0.1285501 0.0181003 -0.1285501
16473 0.0166366 -0.1231418 0.9833634 0.1231418 0.9833634 0.1231418 0.0166366 -0.1231418
17227 0.0152916 -0.1179455 0.9847084 0.1179455 0.9847084 0.1179455 0.0152916 -0.1179455
18016 0.0140561 -0.1129550 0.9859439 0.1129550 0.9859439 0.1129550 0.0140561 -0.1129550
18841 0.0129213 -0.1081635 0.9870787 0.1081635 0.9870787 0.1081635 0.0129213 -0.1081635
19704 0.0118794 -0.1035648 0.9881206 0.1035648 0.9881206 0.1035648 0.0118794 -0.1035648
20606 0.0109230 -0.0991523 0.9890770 0.0991523 0.9890770 0.0991523 0.0109230 -0.0991523
21550 0.0100451 -0.0949197 0.9899549 0.0949197 0.9899549 0.0949197 0.0100451 -0.0949197
22537 0.0092395 -0.0908606 0.9907605 0.0908606 0.9907605 0.0908606 0.0092395 -0.0908606
23569 0.0085003 -0.0869689 0.9914997 0.0869689 0.9914997 0.0869689 0.0085003 -0.0869689
24648 0.0078222 -0.0832384 0.9921778 0.0832384 0.9921778 0.0832384 0.0078222 -0.0832384
25777 0.0072001 -0.0796633 0.9927999 0.0796633 0.9927999 0.0796633 0.0072001 -0.0796633
26957 0.0066295 -0.0762376 0.9933705 0.0762376 0.9933705 0.0762376 0.0066295 -0.0762376
28191 0.0061062 -0.0729557 0.9938938 0.0729557 0.9938938 0.0729557 0.0061062 -0.0729557
29482 0.0056261 -0.0698120 0.9943739 0.0698120 0.9943739 0.0698120 0.0056261 -0.0698120
30832 0.0051859 -0.0668012 0.9948141 0.0668012 0.9948141 0.0668012 0.0051859 -0.0668012
32244 0.0047820 -0.0639181 0.9952180 0.0639181 0.9952180 0.0639181 0.0047820 -0.0639181
33721 0.0044116 -0.0611575 0.9955884 0.0611575 0.9955884 0.0611575 0.0044116 -0.0611575
35265 0.0040718 -0.0585146 0.9959282 0.0585146 0.9959282 0.0585146 0.0040718 -0.0585146
36880 0.0037599 -0.0559846 0.9962401 0.0559846 0.9962401 0.0559846 0.0037599 -0.0559846
38569 0.0034738 -0.0535629 0.9965262 0.0535629 0.9965262 0.0535629 0.0034738 -0.0535629
40335 0.0032111 -0.0512450 0.9967889 0.0512450 0.9967889 0.0512450 0.0032111 -0.0512450
42182 0.0029699 -0.0490267 0.9970301 0.0490267 0.9970301 0.0490267 0.0029699 -0.0490267
44113 0.0027484 -0.0469039 0.9972516 0.0469039 0.9972516 0.0469039 0.0027484 -0.0469039
46134 0.0025449 -0.0448725 0.9974551 0.0448725 0.9974551 0.0448725 0.0025449 -0.0448725
48246 0.0023579 -0.0429287 0.9976421 0.0429287 0.9976421 0.0429287 0.0023579 -0.0429287
50455 0.0021859 -0.0410688 0.9978141 0.0410688 0.9978141 0.0410688 0.0021859 -0.0410688
52766 0.0020277 -0.0392893 0.9979723 0.0392893 0.9979723 0.0392893 0.0020277 -0.0392893
55182 0.0018820 -0.0375867 0.9981180 0.0375867 0.9981180 0.0375867 0.0018820 -0.0375867
57709 0.0017479 -0.0359577 0.9982521 0.0359577 0.9982521 0.0359577 0.0017479 -0.0359577
60352 0.0016244 -0.0343992 0.9983756 0.0343992 0.9983756 0.0343992 0.0016244 -0.0343992
63115 0.0015105 -0.0329082 0.9984895 0.0329082 0.9984895 0.0329082 0.0015105 -0.0329082
66005 0.0014054 -0.0314817 0.9985946 0.0314817 0.9985946 0.0314817 0.0014054 -0.0314817
69028 0.0013084 -0.0301170 0.9986916 0.0301170 0.9986916 0.0301170 0.0013084 -0.0301170
72189 0.0012188 -0.0288113 0.9987812 0.0288113 0.9987812 0.0288113 0.0012188 -0.0288113
75495 0.0011361 -0.0275622 0.9988639 0.0275622 0.9988639 0.0275622 0.0011361 -0.0275622
78952 0.0010596 -0.0263671 0.9989404 0.0263671 0.9989404 0.0263671 0.0010596 -0.0263671
82567 0.0009888 -0.0252238 0.9990112 0.0252238 0.9990112 0.0252238 0.0009888 -0.0252238
86348 0.0009234 -0.0241299 0.9990766 0.0241299 0.9990766 0.0241299 0.0009234 -0.0241299
90302 0.0008628 -0.0230833 0.9991372 0.0230833 0.9991372 0.0230833 0.0008628 -0.0230833
94437 0.0008067 -0.0220820 0.9991933 0.0220820 0.9991933 0.0220820 0.0008067 -0.0220820
98762 0.0007548 -0.0211240 0.9992452 0.0211240 0.9992452 0.0211240 0.0007548 -0.0211240
103284 0.0007067 -0.0202074 0.9992933 0.0202074 0.9992933 0.0202074 0.0007067 -0.0202074
108014 0.0006621 -0.0193304 0.9993379 0.0193304 0.9993379 0.0193304 0.0006621 -0.0193304
112960 0.0006208 -0.0184913 0.9993792 0.0184913 0.9993792 0.0184913 0.0006208 -0.0184913
118133 0.0005825 -0.0176885 0.9994175 0.0176885 0.9994175 0.0176885 0.0005825 -0.0176885
123542 0.0005471 -0.0169204 0.9994529 0.0169204 0.9994529 0.0169204 0.0005471 -0.0169204
129199 0.0005142 -0.0161856 0.9994858 0.0161856 0.9994858 0.0161856 0.0005142 -0.0161856
135116 0.0004838 -0.0154825 0.9995162 0.0154825 0.9995162 0.0154825 0.0004838 -0.0154825
141303 0.0004556 -0.0148098 0.9995444 0.0148098 0.9995444 0.0148098 0.0004556 -0.0148098
147774 0.0004295 -0.0141662 0.9995705 0.0141662 0.9995705 0.0141662 0.0004295 -0.0141662
154540 0.0004054 -0.0135504 0.9995946 0.0135504 0.9995946 0.0135504 0.0004054 -0.0135504
161617 0.0003830 -0.0129614 0.9996170 0.0129614 0.9996170 0.0129614 0.0003830 -0.0129614
169018 0.0003623 -0.0123978 0.9996377 0.0123978 0.9996377 0.0123978 0.0003623 -0.0123978
176758 0.0003431 -0.0118587 0.9996569 0.0118587 0.9996569 0.0118587 0.0003431 -0.0118587
184852 0.0003253 -0.0113429 0.9996747 0.0113429 0.9996747 0.0113429 0.0003253 -0.0113429
193316 0.0003089 -0.0108496 0.9996911 0.0108496 0.9996911 0.0108496 0.0003089 -0.0108496
202169 0.0002937 -0.0103776 0.9997063 0.0103776 0.9997063 0.0103776 0.0002937 -0.0103776
211427 0.0002796 -0.0099261 0.9997204 0.0099261 0.9997204 0.0099261 0.0002796 -0.0099261
221108 0.0002665 -0.0094943 0.9997335 0.0094943 0.9997335 0.0094943 0.0002665 -0.0094943
231233 0.0002544 -0.0090812 0.9997456 0.0090812 0.9997456 0.0090812 0.0002544 -0.0090812
241822 0.0002432 -0.0086860 0.9997568 0.0086860 0.9997568 0.0086860 0.0002432 -0.0086860
252896 0.0002328 -0.0083081 0.9997672 0.0083081 0.9997672 0.0083081 0.0002328 -0.0083081
264476 0.0002231 -0.0079466 0.9997769 0.0079466 0.9997769 0.0079466 0.0002231 -0.0079466
276587 0.0002141 -0.0076008 0.9997859 0.0076008 0.9997859 0.0076008 0.0002141 -0.0076008
289253 0.0002057 -0.0072701 0.9997943 0.0072701 0.9997943 0.0072701 0.0002057 -0.0072701
302498 0.0001979 -0.0069538 0.9998021 0.0069538 0.9998021 0.0069538 0.0001979 -0.0069538
316350 0.0001906 -0.0066512 0.9998094 0.0066512 0.9998094 0.0066512 0.0001906 -0.0066512
330837 0.0001838 -0.0063619 0.9998162 0.0063619 0.9998162 0.0063619 0.0001838 -0.0063619
345986 0.0001774 -0.0060851 0.9998226 0.0060851 0.9998226 0.0060851 0.0001774 -0.0060851
361830 0.0001714 -0.0058204 0.9998286 0.0058204 0.9998286 0.0058204 0.0001714 -0.0058204
378399 0.0001658 -0.0055672 0.9998342 0.0055672 0.9998342 0.0055672 0.0001658 -0.0055672
395726 0.0001605 -0.0053250 0.9998395 0.0053250 0.9998395 0.0053250 0.0001605 -0.0053250
413847 0.0001555 -0.0050933 0.9998445 0.0050933 0.9998445 0.0050933 0.0001555 -0.0050933
432798 0.0001508 -0.0048717 0.9998492 0.0048717 0.9998492 0.0048717 0.0001508 -0.0048717
452617 0.0001463 -0.0046597 0.9998537 0.0046597 0.9998537 0.0046597 0.0001463 -0.0046597
473344 0.0001420 -0.0044570 0.9998580 0.0044570 0.9998580 0.0044570 0.0001420 -0.0044570
495019 0.0001380 -0.0042630 0.9998620 0.0042630 0.9998620 0.0042630 0.0001380 -0.0042630
517687 0.0001341 -0.0040774 0.9998659 0.0040774 0.9998659 0.0040774 0.0001341 -0.0040774
541393 0.0001305 -0.0038998 0.9998695 0.0038998 0.9998695 0.0038998 0.0001305 -0.0038998
566185 0.0001270 -0.0037299 0.9998730 0.0037299 0.9998730 0.0037299 0.0001270 -0.0037299
592111 0.0001237 -0.0035674 0.9998763 0.0035674 0.9998763 0.0035674 0.0001237 -0.0035674
619225 0.0001205 -0.0034118 0.9998795 0.0034118 0.9998795 0.0034118 0.0001205 -0.0034118
647581 0.0001174 -0.0032630 0.9998826 0.0032630 0.9998826 0.0032630 0.0001174 -0.0032630
677235 0.0001145 -0.0031205 0.9998855 0.0031205 0.9998855 0.0031205 0.0001145 -0.0031205
708247 0.0001118 -0.0029842 0.9998882 0.0029842 0.9998882 0.0029842 0.0001118 -0.0029842
740679 0.0001091 -0.0028537 0.9998909 0.0028537 0.9998909 0.0028537 0.0001091 -0.0028537
774597 0.0001066 -0.0027288 0.9998934 0.0027288 0.9998934 0.0027288 0.0001066 -0.0027288
810067 0.0001042 -0.0026092 0.9998958 0.0026092 0.9998958 0.0026092 0.0001042 -0.0026092
847162 0.0001019 -0.0024948 0.9998981 0.0024948 0.9998981 0.0024948 0.0001019 -0.0024948
885955 0.0000997 -0.0023852 0.9999003 0.0023852 0.9999003 0.0023852 0.0000997 -0.0023852
926525 0.0000977 -0.0022803 0.9999023 0.0022803 0.9999023 0.0022803 0.0000977 -0.0022803
968953 0.0000957 -0.0021798 0.9999043 0.0021798 0.9999043 0.0021798 0.0000957 -0.0021798
1013323 0.0000939 -0.0020836 0.9999061 0.0020836 0.9999061 0.0020836 0.0000939 -0.0020836
1059725 0.0000921 -0.0019915 0.9999079 0.0019915 0.9999079 0.0019915 0.0000921 -0.0019915
1108252 0.0000905 -0.0019033 0.9999095 0.0019033 0.9999095 0.0019033 0.0000905 -0.0019033
1159002 0.0000889 -0.0018188 0.9999111 0.0018188 0.9999111 0.0018188 0.0000889 -0.0018188
1212075 0.0000875 -0.0017379 0.9999125 0.0017379 0.9999125 0.0017379 0.0000875 -0.0017379
1267578 0.0000861 -0.0016604 0.9999139 0.0016604 0.9999139 0.0016604 0.0000861 -0.0016604
1325623 0.0000849 -0.0015861 0.9999151 0.0015861 0.9999151 0.0015861 0.0000849 -0.0015861
1386327 0.0000837 -0.0015150 0.9999163 0.0015150 0.9999163 0.0015150 0.0000837 -0.0015150
1449809 0.0000826 -0.0014468 0.9999174 0.0014468 0.9999174 0.0014468 0.0000826 -0.0014468
1516199 0.0000815 -0.0013815 0.9999185 0.0013815 0.9999185 0.0013815 0.0000815 -0.0013815
1585629 0.0000806 -0.0013189 0.9999194 0.0013189 0.9999194 0.0013189 0.0000806 -0.0013189
1658239 0.0000797 -0.0012589 0.9999203 0.0012589 0.9999203 0.0012589 0.0000797 -0.0012589
1734173 0.0000789 -0.0012014 0.9999211 0.0012014 0.9999211 0.0012014 0.0000789 -0.0012014
1813585 0.0000782 -0.0011463 0.9999218 0.0011463 0.9999218 0.0011463 0.0000782 -0.0011463
1896632 0.0000775 -0.0010934 0.9999225 0.0010934 0.9999225 0.0010934 0.0000775 -0.0010934
1983483 0.0000768 -0.0010427 0.9999232 0.0010427 0.9999232 0.0010427 0.0000768 -0.0010427
2074311 0.0000763 -0.0009941 0.9999237 0.0009941 0.9999237 0.0009941 0.0000763 -0.0009941
