!Murata Part Number: GRM033R71C151KA01
!These Parameters are Measured in Series Mode Connection
!Data Generated on Mar 30, 2021
!       o--ll--o
!Port1            Port2
!       o------o
!Operation Temp=25[degC], DC Bias Voltage=0[V]
!Freq. Start=100[Hz] Stop=6[GHz] 401[Steps]
# Hz S RI R 50
!Freq.(Hz) S11(Real) S11(Imag) S21(Real) S21(Imag) S12(Real) S12(Imag) S22(Real) S22(Imag)
100 0.9999999 -0.0000098 0.0000001 0.0000098 0.0000001 0.0000098 0.9999999 -0.0000098
105 0.9999999 -0.0000102 0.0000001 0.0000102 0.0000001 0.0000102 0.9999999 -0.0000102
109 0.9999999 -0.0000107 0.0000001 0.0000107 0.0000001 0.0000107 0.9999999 -0.0000107
114 0.9999999 -0.0000112 0.0000001 0.0000112 0.0000001 0.0000112 0.9999999 -0.0000112
120 0.9999999 -0.0000117 0.0000001 0.0000117 0.0000001 0.0000117 0.9999999 -0.0000117
125 0.9999999 -0.0000122 0.0000001 0.0000122 0.0000001 0.0000122 0.9999999 -0.0000122
131 0.9999999 -0.0000128 0.0000001 0.0000128 0.0000001 0.0000128 0.9999999 -0.0000128
137 0.9999999 -0.0000133 0.0000001 0.0000133 0.0000001 0.0000133 0.9999999 -0.0000133
143 0.9999999 -0.0000140 0.0000001 0.0000140 0.0000001 0.0000140 0.9999999 -0.0000140
150 0.9999999 -0.0000146 0.0000001 0.0000146 0.0000001 0.0000146 0.9999999 -0.0000146
156 0.9999999 -0.0000153 0.0000001 0.0000153 0.0000001 0.0000153 0.9999999 -0.0000153
164 0.9999998 -0.0000159 0.0000002 0.0000159 0.0000002 0.0000159 0.9999998 -0.0000159
171 0.9999998 -0.0000167 0.0000002 0.0000167 0.0000002 0.0000167 0.9999998 -0.0000167
179 0.9999998 -0.0000174 0.0000002 0.0000174 0.0000002 0.0000174 0.9999998 -0.0000174
187 0.9999998 -0.0000182 0.0000002 0.0000182 0.0000002 0.0000182 0.9999998 -0.0000182
196 0.9999998 -0.0000191 0.0000002 0.0000191 0.0000002 0.0000191 0.9999998 -0.0000191
205 0.9999998 -0.0000199 0.0000002 0.0000199 0.0000002 0.0000199 0.9999998 -0.0000199
214 0.9999998 -0.0000208 0.0000002 0.0000208 0.0000002 0.0000208 0.9999998 -0.0000208
224 0.9999998 -0.0000218 0.0000002 0.0000218 0.0000002 0.0000218 0.9999998 -0.0000218
234 0.9999998 -0.0000228 0.0000002 0.0000228 0.0000002 0.0000228 0.9999998 -0.0000228
245 0.9999998 -0.0000238 0.0000002 0.0000238 0.0000002 0.0000238 0.9999998 -0.0000238
256 0.9999998 -0.0000249 0.0000002 0.0000249 0.0000002 0.0000249 0.9999998 -0.0000249
268 0.9999998 -0.0000260 0.0000002 0.0000260 0.0000002 0.0000260 0.9999998 -0.0000260
280 0.9999998 -0.0000272 0.0000002 0.0000272 0.0000002 0.0000272 0.9999998 -0.0000272
293 0.9999998 -0.0000284 0.0000002 0.0000284 0.0000002 0.0000284 0.9999998 -0.0000284
306 0.9999998 -0.0000297 0.0000002 0.0000297 0.0000002 0.0000297 0.9999998 -0.0000297
320 0.9999997 -0.0000311 0.0000003 0.0000311 0.0000003 0.0000311 0.9999997 -0.0000311
335 0.9999997 -0.0000325 0.0000003 0.0000325 0.0000003 0.0000325 0.9999997 -0.0000325
350 0.9999997 -0.0000340 0.0000003 0.0000340 0.0000003 0.0000340 0.9999997 -0.0000340
366 0.9999997 -0.0000355 0.0000003 0.0000355 0.0000003 0.0000355 0.9999997 -0.0000355
383 0.9999997 -0.0000372 0.0000003 0.0000372 0.0000003 0.0000372 0.9999997 -0.0000372
401 0.9999997 -0.0000389 0.0000003 0.0000389 0.0000003 0.0000389 0.9999997 -0.0000389
419 0.9999997 -0.0000406 0.0000003 0.0000406 0.0000003 0.0000406 0.9999997 -0.0000406
438 0.9999997 -0.0000425 0.0000003 0.0000425 0.0000003 0.0000425 0.9999997 -0.0000425
458 0.9999997 -0.0000444 0.0000003 0.0000444 0.0000003 0.0000444 0.9999997 -0.0000444
479 0.9999997 -0.0000464 0.0000003 0.0000464 0.0000003 0.0000464 0.9999997 -0.0000464
501 0.9999996 -0.0000485 0.0000004 0.0000485 0.0000004 0.0000485 0.9999996 -0.0000485
524 0.9999996 -0.0000508 0.0000004 0.0000508 0.0000004 0.0000508 0.9999996 -0.0000508
548 0.9999996 -0.0000531 0.0000004 0.0000531 0.0000004 0.0000531 0.9999996 -0.0000531
573 0.9999996 -0.0000555 0.0000004 0.0000555 0.0000004 0.0000555 0.9999996 -0.0000555
600 0.9999996 -0.0000580 0.0000004 0.0000580 0.0000004 0.0000580 0.9999996 -0.0000580
627 0.9999996 -0.0000607 0.0000004 0.0000607 0.0000004 0.0000607 0.9999996 -0.0000607
656 0.9999996 -0.0000634 0.0000004 0.0000634 0.0000004 0.0000634 0.9999996 -0.0000634
686 0.9999996 -0.0000663 0.0000004 0.0000663 0.0000004 0.0000663 0.9999996 -0.0000663
717 0.9999995 -0.0000693 0.0000005 0.0000693 0.0000005 0.0000693 0.9999995 -0.0000693
750 0.9999995 -0.0000725 0.0000005 0.0000725 0.0000005 0.0000725 0.9999995 -0.0000725
784 0.9999995 -0.0000758 0.0000005 0.0000758 0.0000005 0.0000758 0.9999995 -0.0000758
820 0.9999995 -0.0000793 0.0000005 0.0000793 0.0000005 0.0000793 0.9999995 -0.0000793
858 0.9999995 -0.0000829 0.0000005 0.0000829 0.0000005 0.0000829 0.9999995 -0.0000829
897 0.9999995 -0.0000867 0.0000005 0.0000867 0.0000005 0.0000867 0.9999995 -0.0000867
938 0.9999994 -0.0000906 0.0000006 0.0000906 0.0000006 0.0000906 0.9999994 -0.0000906
981 0.9999994 -0.0000948 0.0000006 0.0000948 0.0000006 0.0000948 0.9999994 -0.0000948
1026 0.9999994 -0.0000991 0.0000006 0.0000991 0.0000006 0.0000991 0.9999994 -0.0000991
1073 0.9999994 -0.0001036 0.0000006 0.0001036 0.0000006 0.0001036 0.9999994 -0.0001036
1122 0.9999994 -0.0001083 0.0000006 0.0001083 0.0000006 0.0001083 0.9999994 -0.0001083
1174 0.9999994 -0.0001133 0.0000006 0.0001133 0.0000006 0.0001133 0.9999994 -0.0001133
1227 0.9999993 -0.0001185 0.0000007 0.0001185 0.0000007 0.0001185 0.9999993 -0.0001185
1283 0.9999993 -0.0001239 0.0000007 0.0001239 0.0000007 0.0001239 0.9999993 -0.0001239
1342 0.9999993 -0.0001295 0.0000007 0.0001295 0.0000007 0.0001295 0.9999993 -0.0001295
1404 0.9999993 -0.0001355 0.0000007 0.0001355 0.0000007 0.0001355 0.9999993 -0.0001355
1468 0.9999992 -0.0001416 0.0000008 0.0001416 0.0000008 0.0001416 0.9999992 -0.0001416
1535 0.9999992 -0.0001481 0.0000008 0.0001481 0.0000008 0.0001481 0.9999992 -0.0001481
1606 0.9999992 -0.0001549 0.0000008 0.0001549 0.0000008 0.0001549 0.9999992 -0.0001549
1679 0.9999991 -0.0001620 0.0000009 0.0001620 0.0000009 0.0001620 0.9999991 -0.0001620
1756 0.9999991 -0.0001693 0.0000009 0.0001693 0.0000009 0.0001693 0.9999991 -0.0001693
1836 0.9999991 -0.0001771 0.0000009 0.0001771 0.0000009 0.0001771 0.9999991 -0.0001771
1920 0.9999990 -0.0001852 0.0000010 0.0001852 0.0000010 0.0001852 0.9999990 -0.0001852
2008 0.9999990 -0.0001936 0.0000010 0.0001936 0.0000010 0.0001936 0.9999990 -0.0001936
2100 0.9999989 -0.0002025 0.0000011 0.0002025 0.0000011 0.0002025 0.9999989 -0.0002025
2196 0.9999989 -0.0002117 0.0000011 0.0002117 0.0000011 0.0002117 0.9999989 -0.0002117
2297 0.9999988 -0.0002214 0.0000012 0.0002214 0.0000012 0.0002214 0.9999988 -0.0002214
2402 0.9999988 -0.0002315 0.0000012 0.0002315 0.0000012 0.0002315 0.9999988 -0.0002315
2512 0.9999987 -0.0002421 0.0000013 0.0002421 0.0000013 0.0002421 0.9999987 -0.0002421
2627 0.9999987 -0.0002531 0.0000013 0.0002531 0.0000013 0.0002531 0.9999987 -0.0002531
2748 0.9999986 -0.0002647 0.0000014 0.0002647 0.0000014 0.0002647 0.9999986 -0.0002647
2873 0.9999985 -0.0002768 0.0000015 0.0002768 0.0000015 0.0002768 0.9999985 -0.0002768
3005 0.9999984 -0.0002894 0.0000016 0.0002894 0.0000016 0.0002894 0.9999984 -0.0002894
3143 0.9999984 -0.0003027 0.0000016 0.0003027 0.0000016 0.0003027 0.9999984 -0.0003027
3287 0.9999983 -0.0003165 0.0000017 0.0003165 0.0000017 0.0003165 0.9999983 -0.0003165
3437 0.9999982 -0.0003309 0.0000018 0.0003309 0.0000018 0.0003309 0.9999982 -0.0003309
3594 0.9999981 -0.0003460 0.0000019 0.0003460 0.0000019 0.0003460 0.9999981 -0.0003460
3759 0.9999980 -0.0003618 0.0000020 0.0003618 0.0000020 0.0003618 0.9999980 -0.0003618
3931 0.9999979 -0.0003783 0.0000021 0.0003783 0.0000021 0.0003783 0.9999979 -0.0003783
4111 0.9999978 -0.0003956 0.0000022 0.0003956 0.0000022 0.0003956 0.9999978 -0.0003956
4299 0.9999977 -0.0004137 0.0000023 0.0004137 0.0000023 0.0004137 0.9999977 -0.0004137
4496 0.9999975 -0.0004325 0.0000025 0.0004325 0.0000025 0.0004325 0.9999975 -0.0004325
4702 0.9999974 -0.0004523 0.0000026 0.0004523 0.0000026 0.0004523 0.9999974 -0.0004523
4918 0.9999973 -0.0004729 0.0000027 0.0004729 0.0000027 0.0004729 0.9999973 -0.0004729
5143 0.9999971 -0.0004945 0.0000029 0.0004945 0.0000029 0.0004945 0.9999971 -0.0004945
5378 0.9999970 -0.0005170 0.0000030 0.0005170 0.0000030 0.0005170 0.9999970 -0.0005170
5625 0.9999968 -0.0005406 0.0000032 0.0005406 0.0000032 0.0005406 0.9999968 -0.0005406
5882 0.9999967 -0.0005653 0.0000033 0.0005653 0.0000033 0.0005653 0.9999967 -0.0005653
6151 0.9999965 -0.0005911 0.0000035 0.0005911 0.0000035 0.0005911 0.9999965 -0.0005911
6433 0.9999963 -0.0006181 0.0000037 0.0006181 0.0000037 0.0006181 0.9999963 -0.0006181
6728 0.9999961 -0.0006463 0.0000039 0.0006463 0.0000039 0.0006463 0.9999961 -0.0006463
7036 0.9999959 -0.0006757 0.0000041 0.0006757 0.0000041 0.0006757 0.9999959 -0.0006757
7358 0.9999957 -0.0007066 0.0000043 0.0007066 0.0000043 0.0007066 0.9999957 -0.0007066
7695 0.9999955 -0.0007388 0.0000045 0.0007388 0.0000045 0.0007388 0.9999955 -0.0007388
8047 0.9999953 -0.0007725 0.0000047 0.0007725 0.0000047 0.0007725 0.9999953 -0.0007725
8416 0.9999951 -0.0008078 0.0000049 0.0008078 0.0000049 0.0008078 0.9999951 -0.0008078
8801 0.9999948 -0.0008447 0.0000052 0.0008447 0.0000052 0.0008447 0.9999948 -0.0008447
9204 0.9999946 -0.0008832 0.0000054 0.0008832 0.0000054 0.0008832 0.9999946 -0.0008832
9626 0.9999943 -0.0009235 0.0000057 0.0009235 0.0000057 0.0009235 0.9999943 -0.0009235
10066 0.9999940 -0.0009657 0.0000060 0.0009657 0.0000060 0.0009657 0.9999940 -0.0009657
10527 0.9999937 -0.0010098 0.0000063 0.0010098 0.0000063 0.0010098 0.9999937 -0.0010098
11009 0.9999933 -0.0010559 0.0000067 0.0010559 0.0000067 0.0010559 0.9999933 -0.0010559
11514 0.9999930 -0.0011041 0.0000070 0.0011041 0.0000070 0.0011041 0.9999930 -0.0011041
12041 0.9999926 -0.0011545 0.0000074 0.0011545 0.0000074 0.0011545 0.9999926 -0.0011545
12592 0.9999922 -0.0012072 0.0000078 0.0012072 0.0000078 0.0012072 0.9999922 -0.0012072
13169 0.9999918 -0.0012623 0.0000082 0.0012623 0.0000082 0.0012623 0.9999918 -0.0012623
13772 0.9999913 -0.0013200 0.0000087 0.0013200 0.0000087 0.0013200 0.9999913 -0.0013200
14402 0.9999908 -0.0013802 0.0000092 0.0013802 0.0000092 0.0013802 0.9999908 -0.0013802
15062 0.9999903 -0.0014433 0.0000097 0.0014433 0.0000097 0.0014433 0.9999903 -0.0014433
15752 0.9999897 -0.0015092 0.0000103 0.0015092 0.0000103 0.0015092 0.9999897 -0.0015092
16473 0.9999891 -0.0015781 0.0000109 0.0015781 0.0000109 0.0015781 0.9999891 -0.0015781
17227 0.9999884 -0.0016501 0.0000116 0.0016501 0.0000116 0.0016501 0.9999884 -0.0016501
18016 0.9999877 -0.0017255 0.0000123 0.0017255 0.0000123 0.0017255 0.9999877 -0.0017255
18841 0.9999869 -0.0018043 0.0000131 0.0018043 0.0000131 0.0018043 0.9999869 -0.0018043
19704 0.9999861 -0.0018867 0.0000139 0.0018867 0.0000139 0.0018867 0.9999861 -0.0018867
20606 0.9999852 -0.0019728 0.0000148 0.0019728 0.0000148 0.0019728 0.9999852 -0.0019728
21550 0.9999842 -0.0020629 0.0000158 0.0020629 0.0000158 0.0020629 0.9999842 -0.0020629
22537 0.9999831 -0.0021570 0.0000169 0.0021570 0.0000169 0.0021570 0.9999831 -0.0021570
23569 0.9999820 -0.0022555 0.0000180 0.0022555 0.0000180 0.0022555 0.9999820 -0.0022555
24648 0.9999808 -0.0023584 0.0000192 0.0023584 0.0000192 0.0023584 0.9999808 -0.0023584
25777 0.9999795 -0.0024660 0.0000205 0.0024660 0.0000205 0.0024660 0.9999795 -0.0024660
26957 0.9999781 -0.0025786 0.0000219 0.0025786 0.0000219 0.0025786 0.9999781 -0.0025786
28191 0.9999766 -0.0026962 0.0000234 0.0026962 0.0000234 0.0026962 0.9999766 -0.0026962
29482 0.9999750 -0.0028192 0.0000250 0.0028192 0.0000250 0.0028192 0.9999750 -0.0028192
30832 0.9999733 -0.0029478 0.0000267 0.0029478 0.0000267 0.0029478 0.9999733 -0.0029478
32244 0.9999714 -0.0030822 0.0000286 0.0030822 0.0000286 0.0030822 0.9999714 -0.0030822
33721 0.9999694 -0.0032227 0.0000306 0.0032227 0.0000306 0.0032227 0.9999694 -0.0032227
35265 0.9999673 -0.0033697 0.0000327 0.0033697 0.0000327 0.0033697 0.9999673 -0.0033697
36880 0.9999650 -0.0035233 0.0000350 0.0035233 0.0000350 0.0035233 0.9999650 -0.0035233
38569 0.9999626 -0.0036839 0.0000374 0.0036839 0.0000374 0.0036839 0.9999626 -0.0036839
40335 0.9999600 -0.0038518 0.0000400 0.0038518 0.0000400 0.0038518 0.9999600 -0.0038518
42182 0.9999573 -0.0040273 0.0000427 0.0040273 0.0000427 0.0040273 0.9999573 -0.0040273
44113 0.9999543 -0.0042108 0.0000457 0.0042108 0.0000457 0.0042108 0.9999543 -0.0042108
46134 0.9999512 -0.0044027 0.0000488 0.0044027 0.0000488 0.0044027 0.9999512 -0.0044027
48246 0.9999478 -0.0046033 0.0000522 0.0046033 0.0000522 0.0046033 0.9999478 -0.0046033
50455 0.9999442 -0.0048130 0.0000558 0.0048130 0.0000558 0.0048130 0.9999442 -0.0048130
52766 0.9999404 -0.0050322 0.0000596 0.0050322 0.0000596 0.0050322 0.9999404 -0.0050322
55182 0.9999363 -0.0052615 0.0000637 0.0052615 0.0000637 0.0052615 0.9999363 -0.0052615
57709 0.9999319 -0.0055012 0.0000681 0.0055012 0.0000681 0.0055012 0.9999319 -0.0055012
60352 0.9999273 -0.0057518 0.0000727 0.0057518 0.0000727 0.0057518 0.9999273 -0.0057518
63115 0.9999223 -0.0060138 0.0000777 0.0060138 0.0000777 0.0060138 0.9999223 -0.0060138
66005 0.9999169 -0.0062878 0.0000831 0.0062878 0.0000831 0.0062878 0.9999169 -0.0062878
69028 0.9999112 -0.0065743 0.0000888 0.0065743 0.0000888 0.0065743 0.9999112 -0.0065743
72189 0.9999050 -0.0068738 0.0000950 0.0068738 0.0000950 0.0068738 0.9999050 -0.0068738
75495 0.9998984 -0.0071870 0.0001016 0.0071870 0.0001016 0.0071870 0.9998984 -0.0071870
78952 0.9998913 -0.0075145 0.0001087 0.0075145 0.0001087 0.0075145 0.9998913 -0.0075145
82567 0.9998837 -0.0078570 0.0001163 0.0078570 0.0001163 0.0078570 0.9998837 -0.0078570
86348 0.9998754 -0.0082151 0.0001246 0.0082151 0.0001246 0.0082151 0.9998754 -0.0082151
90302 0.9998665 -0.0085895 0.0001335 0.0085895 0.0001335 0.0085895 0.9998665 -0.0085895
94437 0.9998569 -0.0089811 0.0001431 0.0089811 0.0001431 0.0089811 0.9998569 -0.0089811
98762 0.9998465 -0.0093905 0.0001535 0.0093905 0.0001535 0.0093905 0.9998465 -0.0093905
103284 0.9998353 -0.0098187 0.0001647 0.0098187 0.0001647 0.0098187 0.9998353 -0.0098187
108014 0.9998231 -0.0102664 0.0001769 0.0102664 0.0001769 0.0102664 0.9998231 -0.0102664
112960 0.9998099 -0.0107345 0.0001901 0.0107345 0.0001901 0.0107345 0.9998099 -0.0107345
118133 0.9997955 -0.0112240 0.0002045 0.0112240 0.0002045 0.0112240 0.9997955 -0.0112240
123542 0.9997800 -0.0117358 0.0002200 0.0117358 0.0002200 0.0117358 0.9997800 -0.0117358
129199 0.9997631 -0.0122710 0.0002369 0.0122710 0.0002369 0.0122710 0.9997631 -0.0122710
135116 0.9997447 -0.0128307 0.0002553 0.0128307 0.0002553 0.0128307 0.9997447 -0.0128307
141303 0.9997247 -0.0134158 0.0002753 0.0134158 0.0002753 0.0134158 0.9997247 -0.0134158
147774 0.9997030 -0.0140276 0.0002970 0.0140276 0.0002970 0.0140276 0.9997030 -0.0140276
154540 0.9996793 -0.0146672 0.0003207 0.0146672 0.0003207 0.0146672 0.9996793 -0.0146672
161617 0.9996536 -0.0153360 0.0003464 0.0153360 0.0003464 0.0153360 0.9996536 -0.0153360
169018 0.9996256 -0.0160353 0.0003744 0.0160353 0.0003744 0.0160353 0.9996256 -0.0160353
176758 0.9995950 -0.0167663 0.0004050 0.0167663 0.0004050 0.0167663 0.9995950 -0.0167663
184852 0.9995618 -0.0175305 0.0004382 0.0175305 0.0004382 0.0175305 0.9995618 -0.0175305
193316 0.9995256 -0.0183295 0.0004744 0.0183295 0.0004744 0.0183295 0.9995256 -0.0183295
202169 0.9994862 -0.0191648 0.0005138 0.0191648 0.0005138 0.0191648 0.9994862 -0.0191648
211427 0.9994433 -0.0200379 0.0005567 0.0200379 0.0005567 0.0200379 0.9994433 -0.0200379
221108 0.9993966 -0.0209506 0.0006034 0.0209506 0.0006034 0.0209506 0.9993966 -0.0209506
231233 0.9993458 -0.0219047 0.0006542 0.0219047 0.0006542 0.0219047 0.9993458 -0.0219047
241822 0.9992905 -0.0229020 0.0007095 0.0229020 0.0007095 0.0229020 0.9992905 -0.0229020
252896 0.9992302 -0.0239443 0.0007698 0.0239443 0.0007698 0.0239443 0.9992302 -0.0239443
264476 0.9991647 -0.0250337 0.0008353 0.0250337 0.0008353 0.0250337 0.9991647 -0.0250337
276587 0.9990934 -0.0261724 0.0009066 0.0261724 0.0009066 0.0261724 0.9990934 -0.0261724
289253 0.9990159 -0.0273624 0.0009841 0.0273624 0.0009841 0.0273624 0.9990159 -0.0273624
302498 0.9989315 -0.0286060 0.0010685 0.0286060 0.0010685 0.0286060 0.9989315 -0.0286060
316350 0.9988398 -0.0299056 0.0011602 0.0299056 0.0011602 0.0299056 0.9988398 -0.0299056
330837 0.9987401 -0.0312638 0.0012599 0.0312638 0.0012599 0.0312638 0.9987401 -0.0312638
345986 0.9986317 -0.0326829 0.0013683 0.0326829 0.0013683 0.0326829 0.9986317 -0.0326829
361830 0.9985139 -0.0341659 0.0014861 0.0341659 0.0014861 0.0341659 0.9985139 -0.0341659
378399 0.9983859 -0.0357154 0.0016141 0.0357154 0.0016141 0.0357154 0.9983859 -0.0357154
395726 0.9982469 -0.0373343 0.0017531 0.0373343 0.0017531 0.0373343 0.9982469 -0.0373343
413847 0.9980958 -0.0390258 0.0019042 0.0390258 0.0019042 0.0390258 0.9980958 -0.0390258
432798 0.9979318 -0.0407931 0.0020682 0.0407931 0.0020682 0.0407931 0.9979318 -0.0407931
452617 0.9977535 -0.0426394 0.0022465 0.0426394 0.0022465 0.0426394 0.9977535 -0.0426394
473344 0.9975600 -0.0445683 0.0024400 0.0445683 0.0024400 0.0445683 0.9975600 -0.0445683
495019 0.9973497 -0.0465832 0.0026503 0.0465832 0.0026503 0.0465832 0.9973497 -0.0465832
517687 0.9971213 -0.0486882 0.0028787 0.0486882 0.0028787 0.0486882 0.9971213 -0.0486882
541393 0.9968732 -0.0508869 0.0031268 0.0508869 0.0031268 0.0508869 0.9968732 -0.0508869
566185 0.9966036 -0.0531836 0.0033964 0.0531836 0.0033964 0.0531836 0.9966036 -0.0531836
592111 0.9963107 -0.0555825 0.0036893 0.0555825 0.0036893 0.0555825 0.9963107 -0.0555825
619225 0.9959925 -0.0580879 0.0040075 0.0580879 0.0040075 0.0580879 0.9959925 -0.0580879
647581 0.9956465 -0.0607045 0.0043535 0.0607045 0.0043535 0.0607045 0.9956465 -0.0607045
677235 0.9952705 -0.0634371 0.0047295 0.0634371 0.0047295 0.0634371 0.9952705 -0.0634371
708247 0.9948616 -0.0662906 0.0051384 0.0662906 0.0051384 0.0662906 0.9948616 -0.0662906
740679 0.9944169 -0.0692700 0.0055831 0.0692700 0.0055831 0.0692700 0.9944169 -0.0692700
774597 0.9939332 -0.0723806 0.0060668 0.0723806 0.0060668 0.0723806 0.9939332 -0.0723806
810067 0.9934069 -0.0756279 0.0065931 0.0756279 0.0065931 0.0756279 0.9934069 -0.0756279
847162 0.9928342 -0.0790175 0.0071658 0.0790175 0.0071658 0.0790175 0.9928342 -0.0790175
885955 0.9922109 -0.0825551 0.0077891 0.0825551 0.0077891 0.0825551 0.9922109 -0.0825551
926525 0.9915324 -0.0862466 0.0084676 0.0862466 0.0084676 0.0862466 0.9915324 -0.0862466
968953 0.9907938 -0.0900981 0.0092062 0.0900981 0.0092062 0.0900981 0.9907938 -0.0900981
1013323 0.9899895 -0.0941156 0.0100105 0.0941156 0.0100105 0.0941156 0.9899895 -0.0941156
1059725 0.9891137 -0.0983056 0.0108863 0.0983056 0.0108863 0.0983056 0.9891137 -0.0983056
1108252 0.9881600 -0.1026743 0.0118400 0.1026743 0.0118400 0.1026743 0.9881600 -0.1026743
1159002 0.9871214 -0.1072281 0.0128786 0.1072281 0.0128786 0.1072281 0.9871214 -0.1072281
1212075 0.9859904 -0.1119735 0.0140096 0.1119735 0.0140096 0.1119735 0.9859904 -0.1119735
1267578 0.9847588 -0.1169171 0.0152412 0.1169171 0.0152412 0.1169171 0.9847588 -0.1169171
1325623 0.9834178 -0.1220653 0.0165822 0.1220653 0.0165822 0.1220653 0.9834178 -0.1220653
1386327 0.9819578 -0.1274244 0.0180422 0.1274244 0.0180422 0.1274244 0.9819578 -0.1274244
1449809 0.9803687 -0.1330008 0.0196313 0.1330008 0.0196313 0.1330008 0.9803687 -0.1330008
1516199 0.9786392 -0.1388006 0.0213608 0.1388006 0.0213608 0.1388006 0.9786392 -0.1388006
1585629 0.9767576 -0.1448297 0.0232424 0.1448297 0.0232424 0.1448297 0.9767576 -0.1448297
1658239 0.9747109 -0.1510937 0.0252891 0.1510937 0.0252891 0.1510937 0.9747109 -0.1510937
1734173 0.9724856 -0.1575978 0.0275144 0.1575978 0.0275144 0.1575978 0.9724856 -0.1575978
1813585 0.9700668 -0.1643469 0.0299332 0.1643469 0.0299332 0.1643469 0.9700668 -0.1643469
1896632 0.9674390 -0.1713452 0.0325610 0.1713452 0.0325610 0.1713452 0.9674390 -0.1713452
1983483 0.9645855 -0.1785963 0.0354145 0.1785963 0.0354145 0.1785963 0.9645855 -0.1785963
2074311 0.9614885 -0.1861029 0.0385115 0.1861029 0.0385115 0.1861029 0.9614885 -0.1861029
