!Murata Part Number: GRM033R71H221KA12
!These Parameters are Measured in Series Mode Connection
!Data Generated on Mar 30, 2021
!       o--ll--o
!Port1            Port2
!       o------o
!Operation Temp=25[degC], DC Bias Voltage=0[V]
!Freq. Start=100[Hz] Stop=6[GHz] 401[Steps]
# Hz S RI R 50
!Freq.(Hz) S11(Real) S11(Imag) S21(Real) S21(Imag) S12(Real) S12(Imag) S22(Real) S22(Imag)
100 0.9999999 -0.0000145 0.0000001 0.0000145 0.0000001 0.0000145 0.9999999 -0.0000145
105 0.9999998 -0.0000152 0.0000002 0.0000152 0.0000002 0.0000152 0.9999998 -0.0000152
109 0.9999998 -0.0000159 0.0000002 0.0000159 0.0000002 0.0000159 0.9999998 -0.0000159
114 0.9999998 -0.0000166 0.0000002 0.0000166 0.0000002 0.0000166 0.9999998 -0.0000166
120 0.9999998 -0.0000173 0.0000002 0.0000173 0.0000002 0.0000173 0.9999998 -0.0000173
125 0.9999998 -0.0000181 0.0000002 0.0000181 0.0000002 0.0000181 0.9999998 -0.0000181
131 0.9999998 -0.0000190 0.0000002 0.0000190 0.0000002 0.0000190 0.9999998 -0.0000190
137 0.9999998 -0.0000198 0.0000002 0.0000198 0.0000002 0.0000198 0.9999998 -0.0000198
143 0.9999998 -0.0000207 0.0000002 0.0000207 0.0000002 0.0000207 0.9999998 -0.0000207
150 0.9999998 -0.0000217 0.0000002 0.0000217 0.0000002 0.0000217 0.9999998 -0.0000217
156 0.9999998 -0.0000227 0.0000002 0.0000227 0.0000002 0.0000227 0.9999998 -0.0000227
164 0.9999998 -0.0000237 0.0000002 0.0000237 0.0000002 0.0000237 0.9999998 -0.0000237
171 0.9999998 -0.0000248 0.0000002 0.0000248 0.0000002 0.0000248 0.9999998 -0.0000248
179 0.9999998 -0.0000259 0.0000002 0.0000259 0.0000002 0.0000259 0.9999998 -0.0000259
187 0.9999998 -0.0000271 0.0000002 0.0000271 0.0000002 0.0000271 0.9999998 -0.0000271
196 0.9999998 -0.0000283 0.0000002 0.0000283 0.0000002 0.0000283 0.9999998 -0.0000283
205 0.9999998 -0.0000296 0.0000002 0.0000296 0.0000002 0.0000296 0.9999998 -0.0000296
214 0.9999998 -0.0000310 0.0000002 0.0000310 0.0000002 0.0000310 0.9999998 -0.0000310
224 0.9999998 -0.0000324 0.0000002 0.0000324 0.0000002 0.0000324 0.9999998 -0.0000324
234 0.9999997 -0.0000339 0.0000003 0.0000339 0.0000003 0.0000339 0.9999997 -0.0000339
245 0.9999997 -0.0000354 0.0000003 0.0000354 0.0000003 0.0000354 0.9999997 -0.0000354
256 0.9999997 -0.0000370 0.0000003 0.0000370 0.0000003 0.0000370 0.9999997 -0.0000370
268 0.9999997 -0.0000387 0.0000003 0.0000387 0.0000003 0.0000387 0.9999997 -0.0000387
280 0.9999997 -0.0000405 0.0000003 0.0000405 0.0000003 0.0000405 0.9999997 -0.0000405
293 0.9999997 -0.0000423 0.0000003 0.0000423 0.0000003 0.0000423 0.9999997 -0.0000423
306 0.9999997 -0.0000443 0.0000003 0.0000443 0.0000003 0.0000443 0.9999997 -0.0000443
320 0.9999997 -0.0000463 0.0000003 0.0000463 0.0000003 0.0000463 0.9999997 -0.0000463
335 0.9999997 -0.0000484 0.0000003 0.0000484 0.0000003 0.0000484 0.9999997 -0.0000484
350 0.9999997 -0.0000506 0.0000003 0.0000506 0.0000003 0.0000506 0.9999997 -0.0000506
366 0.9999996 -0.0000529 0.0000004 0.0000529 0.0000004 0.0000529 0.9999996 -0.0000529
383 0.9999996 -0.0000553 0.0000004 0.0000553 0.0000004 0.0000553 0.9999996 -0.0000553
401 0.9999996 -0.0000578 0.0000004 0.0000578 0.0000004 0.0000578 0.9999996 -0.0000578
419 0.9999996 -0.0000605 0.0000004 0.0000605 0.0000004 0.0000605 0.9999996 -0.0000605
438 0.9999996 -0.0000632 0.0000004 0.0000632 0.0000004 0.0000632 0.9999996 -0.0000632
458 0.9999996 -0.0000661 0.0000004 0.0000661 0.0000004 0.0000661 0.9999996 -0.0000661
479 0.9999995 -0.0000691 0.0000005 0.0000691 0.0000005 0.0000691 0.9999995 -0.0000691
501 0.9999995 -0.0000723 0.0000005 0.0000723 0.0000005 0.0000723 0.9999995 -0.0000723
524 0.9999995 -0.0000756 0.0000005 0.0000756 0.0000005 0.0000756 0.9999995 -0.0000756
548 0.9999995 -0.0000790 0.0000005 0.0000790 0.0000005 0.0000790 0.9999995 -0.0000790
573 0.9999995 -0.0000826 0.0000005 0.0000826 0.0000005 0.0000826 0.9999995 -0.0000826
600 0.9999995 -0.0000864 0.0000005 0.0000864 0.0000005 0.0000864 0.9999995 -0.0000864
627 0.9999994 -0.0000903 0.0000006 0.0000903 0.0000006 0.0000903 0.9999994 -0.0000903
656 0.9999994 -0.0000944 0.0000006 0.0000944 0.0000006 0.0000944 0.9999994 -0.0000944
686 0.9999994 -0.0000988 0.0000006 0.0000988 0.0000006 0.0000988 0.9999994 -0.0000988
717 0.9999994 -0.0001033 0.0000006 0.0001033 0.0000006 0.0001033 0.9999994 -0.0001033
750 0.9999994 -0.0001080 0.0000006 0.0001080 0.0000006 0.0001080 0.9999994 -0.0001080
784 0.9999993 -0.0001129 0.0000007 0.0001129 0.0000007 0.0001129 0.9999993 -0.0001129
820 0.9999993 -0.0001181 0.0000007 0.0001181 0.0000007 0.0001181 0.9999993 -0.0001181
858 0.9999993 -0.0001234 0.0000007 0.0001234 0.0000007 0.0001234 0.9999993 -0.0001234
897 0.9999993 -0.0001291 0.0000007 0.0001291 0.0000007 0.0001291 0.9999993 -0.0001291
938 0.9999992 -0.0001350 0.0000008 0.0001350 0.0000008 0.0001350 0.9999992 -0.0001350
981 0.9999992 -0.0001411 0.0000008 0.0001411 0.0000008 0.0001411 0.9999992 -0.0001411
1026 0.9999992 -0.0001476 0.0000008 0.0001476 0.0000008 0.0001476 0.9999992 -0.0001476
1073 0.9999991 -0.0001543 0.0000009 0.0001543 0.0000009 0.0001543 0.9999991 -0.0001543
1122 0.9999991 -0.0001614 0.0000009 0.0001614 0.0000009 0.0001614 0.9999991 -0.0001614
1174 0.9999991 -0.0001687 0.0000009 0.0001687 0.0000009 0.0001687 0.9999991 -0.0001687
1227 0.9999990 -0.0001764 0.0000010 0.0001764 0.0000010 0.0001764 0.9999990 -0.0001764
1283 0.9999990 -0.0001845 0.0000010 0.0001845 0.0000010 0.0001845 0.9999990 -0.0001845
1342 0.9999990 -0.0001929 0.0000010 0.0001929 0.0000010 0.0001929 0.9999990 -0.0001929
1404 0.9999989 -0.0002017 0.0000011 0.0002017 0.0000011 0.0002017 0.9999989 -0.0002017
1468 0.9999989 -0.0002109 0.0000011 0.0002109 0.0000011 0.0002109 0.9999989 -0.0002109
1535 0.9999988 -0.0002206 0.0000012 0.0002206 0.0000012 0.0002206 0.9999988 -0.0002206
1606 0.9999988 -0.0002307 0.0000012 0.0002307 0.0000012 0.0002307 0.9999988 -0.0002307
1679 0.9999987 -0.0002412 0.0000013 0.0002412 0.0000013 0.0002412 0.9999987 -0.0002412
1756 0.9999987 -0.0002522 0.0000013 0.0002522 0.0000013 0.0002522 0.9999987 -0.0002522
1836 0.9999986 -0.0002637 0.0000014 0.0002637 0.0000014 0.0002637 0.9999986 -0.0002637
1920 0.9999985 -0.0002758 0.0000015 0.0002758 0.0000015 0.0002758 0.9999985 -0.0002758
2008 0.9999985 -0.0002884 0.0000015 0.0002884 0.0000015 0.0002884 0.9999985 -0.0002884
2100 0.9999984 -0.0003016 0.0000016 0.0003016 0.0000016 0.0003016 0.9999984 -0.0003016
2196 0.9999983 -0.0003153 0.0000017 0.0003153 0.0000017 0.0003153 0.9999983 -0.0003153
2297 0.9999982 -0.0003297 0.0000018 0.0003297 0.0000018 0.0003297 0.9999982 -0.0003297
2402 0.9999981 -0.0003448 0.0000019 0.0003448 0.0000019 0.0003448 0.9999981 -0.0003448
2512 0.9999980 -0.0003605 0.0000020 0.0003605 0.0000020 0.0003605 0.9999980 -0.0003605
2627 0.9999979 -0.0003770 0.0000021 0.0003770 0.0000021 0.0003770 0.9999979 -0.0003770
2748 0.9999978 -0.0003942 0.0000022 0.0003942 0.0000022 0.0003942 0.9999978 -0.0003942
2873 0.9999977 -0.0004122 0.0000023 0.0004122 0.0000023 0.0004122 0.9999977 -0.0004122
3005 0.9999975 -0.0004310 0.0000025 0.0004310 0.0000025 0.0004310 0.9999975 -0.0004310
3143 0.9999974 -0.0004507 0.0000026 0.0004507 0.0000026 0.0004507 0.9999974 -0.0004507
3287 0.9999972 -0.0004712 0.0000028 0.0004712 0.0000028 0.0004712 0.9999972 -0.0004712
3437 0.9999971 -0.0004927 0.0000029 0.0004927 0.0000029 0.0004927 0.9999971 -0.0004927
3594 0.9999969 -0.0005152 0.0000031 0.0005152 0.0000031 0.0005152 0.9999969 -0.0005152
3759 0.9999968 -0.0005387 0.0000032 0.0005387 0.0000032 0.0005387 0.9999968 -0.0005387
3931 0.9999966 -0.0005633 0.0000034 0.0005633 0.0000034 0.0005633 0.9999966 -0.0005633
4111 0.9999964 -0.0005890 0.0000036 0.0005890 0.0000036 0.0005890 0.9999964 -0.0005890
4299 0.9999962 -0.0006158 0.0000038 0.0006158 0.0000038 0.0006158 0.9999962 -0.0006158
4496 0.9999960 -0.0006439 0.0000040 0.0006439 0.0000040 0.0006439 0.9999960 -0.0006439
4702 0.9999958 -0.0006733 0.0000042 0.0006733 0.0000042 0.0006733 0.9999958 -0.0006733
4918 0.9999955 -0.0007040 0.0000045 0.0007040 0.0000045 0.0007040 0.9999955 -0.0007040
5143 0.9999953 -0.0007361 0.0000047 0.0007361 0.0000047 0.0007361 0.9999953 -0.0007361
5378 0.9999951 -0.0007697 0.0000049 0.0007697 0.0000049 0.0007697 0.9999951 -0.0007697
5625 0.9999948 -0.0008048 0.0000052 0.0008048 0.0000052 0.0008048 0.9999948 -0.0008048
5882 0.9999946 -0.0008415 0.0000054 0.0008415 0.0000054 0.0008415 0.9999946 -0.0008415
6151 0.9999943 -0.0008798 0.0000057 0.0008798 0.0000057 0.0008798 0.9999943 -0.0008798
6433 0.9999940 -0.0009200 0.0000060 0.0009200 0.0000060 0.0009200 0.9999940 -0.0009200
6728 0.9999937 -0.0009619 0.0000063 0.0009619 0.0000063 0.0009619 0.9999937 -0.0009619
7036 0.9999934 -0.0010058 0.0000066 0.0010058 0.0000066 0.0010058 0.9999934 -0.0010058
7358 0.9999931 -0.0010517 0.0000069 0.0010517 0.0000069 0.0010517 0.9999931 -0.0010517
7695 0.9999927 -0.0010996 0.0000073 0.0010996 0.0000073 0.0010996 0.9999927 -0.0010996
8047 0.9999923 -0.0011498 0.0000077 0.0011498 0.0000077 0.0011498 0.9999923 -0.0011498
8416 0.9999920 -0.0012023 0.0000080 0.0012023 0.0000080 0.0012023 0.9999920 -0.0012023
8801 0.9999916 -0.0012571 0.0000084 0.0012571 0.0000084 0.0012571 0.9999916 -0.0012571
9204 0.9999911 -0.0013145 0.0000089 0.0013145 0.0000089 0.0013145 0.9999911 -0.0013145
9626 0.9999907 -0.0013745 0.0000093 0.0013745 0.0000093 0.0013745 0.9999907 -0.0013745
10066 0.9999902 -0.0014372 0.0000098 0.0014372 0.0000098 0.0014372 0.9999902 -0.0014372
10527 0.9999897 -0.0015028 0.0000103 0.0015028 0.0000103 0.0015028 0.9999897 -0.0015028
11009 0.9999892 -0.0015714 0.0000108 0.0015714 0.0000108 0.0015714 0.9999892 -0.0015714
11514 0.9999886 -0.0016432 0.0000114 0.0016432 0.0000114 0.0016432 0.9999886 -0.0016432
12041 0.9999880 -0.0017182 0.0000120 0.0017182 0.0000120 0.0017182 0.9999880 -0.0017182
12592 0.9999873 -0.0017967 0.0000127 0.0017967 0.0000127 0.0017967 0.9999873 -0.0017967
13169 0.9999866 -0.0018787 0.0000134 0.0018787 0.0000134 0.0018787 0.9999866 -0.0018787
13772 0.9999858 -0.0019645 0.0000142 0.0019645 0.0000142 0.0019645 0.9999858 -0.0019645
14402 0.9999850 -0.0020542 0.0000150 0.0020542 0.0000150 0.0020542 0.9999850 -0.0020542
15062 0.9999841 -0.0021481 0.0000159 0.0021481 0.0000159 0.0021481 0.9999841 -0.0021481
15752 0.9999831 -0.0022462 0.0000169 0.0022462 0.0000169 0.0022462 0.9999831 -0.0022462
16473 0.9999821 -0.0023488 0.0000179 0.0023488 0.0000179 0.0023488 0.9999821 -0.0023488
17227 0.9999809 -0.0024560 0.0000191 0.0024560 0.0000191 0.0024560 0.9999809 -0.0024560
18016 0.9999797 -0.0025682 0.0000203 0.0025682 0.0000203 0.0025682 0.9999797 -0.0025682
18841 0.9999784 -0.0026855 0.0000216 0.0026855 0.0000216 0.0026855 0.9999784 -0.0026855
19704 0.9999769 -0.0028082 0.0000231 0.0028082 0.0000231 0.0028082 0.9999769 -0.0028082
20606 0.9999754 -0.0029364 0.0000246 0.0029364 0.0000246 0.0029364 0.9999754 -0.0029364
21550 0.9999737 -0.0030705 0.0000263 0.0030705 0.0000263 0.0030705 0.9999737 -0.0030705
22537 0.9999719 -0.0032107 0.0000281 0.0032107 0.0000281 0.0032107 0.9999719 -0.0032107
23569 0.9999699 -0.0033573 0.0000301 0.0033573 0.0000301 0.0033573 0.9999699 -0.0033573
24648 0.9999678 -0.0035106 0.0000322 0.0035106 0.0000322 0.0035106 0.9999678 -0.0035106
25777 0.9999655 -0.0036708 0.0000345 0.0036708 0.0000345 0.0036708 0.9999655 -0.0036708
26957 0.9999630 -0.0038384 0.0000370 0.0038384 0.0000370 0.0038384 0.9999630 -0.0038384
28191 0.9999604 -0.0040136 0.0000396 0.0040136 0.0000396 0.0040136 0.9999604 -0.0040136
29482 0.9999575 -0.0041967 0.0000425 0.0041967 0.0000425 0.0041967 0.9999575 -0.0041967
30832 0.9999544 -0.0043882 0.0000456 0.0043882 0.0000456 0.0043882 0.9999544 -0.0043882
32244 0.9999510 -0.0045884 0.0000490 0.0045884 0.0000490 0.0045884 0.9999510 -0.0045884
33721 0.9999474 -0.0047977 0.0000526 0.0047977 0.0000526 0.0047977 0.9999474 -0.0047977
35265 0.9999435 -0.0050165 0.0000565 0.0050165 0.0000565 0.0050165 0.9999435 -0.0050165
36880 0.9999393 -0.0052453 0.0000607 0.0052453 0.0000607 0.0052453 0.9999393 -0.0052453
38569 0.9999347 -0.0054844 0.0000653 0.0054844 0.0000653 0.0054844 0.9999347 -0.0054844
40335 0.9999299 -0.0057344 0.0000701 0.0057344 0.0000701 0.0057344 0.9999299 -0.0057344
42182 0.9999246 -0.0059958 0.0000754 0.0059958 0.0000754 0.0059958 0.9999246 -0.0059958
44113 0.9999190 -0.0062690 0.0000810 0.0062690 0.0000810 0.0062690 0.9999190 -0.0062690
46134 0.9999130 -0.0065547 0.0000870 0.0065547 0.0000870 0.0065547 0.9999130 -0.0065547
48246 0.9999065 -0.0068534 0.0000935 0.0068534 0.0000935 0.0068534 0.9999065 -0.0068534
50455 0.9998995 -0.0071656 0.0001005 0.0071656 0.0001005 0.0071656 0.9998995 -0.0071656
52766 0.9998920 -0.0074920 0.0001080 0.0074920 0.0001080 0.0074920 0.9998920 -0.0074920
55182 0.9998839 -0.0078333 0.0001161 0.0078333 0.0001161 0.0078333 0.9998839 -0.0078333
57709 0.9998753 -0.0081900 0.0001247 0.0081900 0.0001247 0.0081900 0.9998753 -0.0081900
60352 0.9998660 -0.0085630 0.0001340 0.0085630 0.0001340 0.0085630 0.9998660 -0.0085630
63115 0.9998560 -0.0089530 0.0001440 0.0089530 0.0001440 0.0089530 0.9998560 -0.0089530
66005 0.9998453 -0.0093608 0.0001547 0.0093608 0.0001547 0.0093608 0.9998453 -0.0093608
69028 0.9998337 -0.0097870 0.0001663 0.0097870 0.0001663 0.0097870 0.9998337 -0.0097870
72189 0.9998213 -0.0102327 0.0001787 0.0102327 0.0001787 0.0102327 0.9998213 -0.0102327
75495 0.9998078 -0.0106987 0.0001922 0.0106987 0.0001922 0.0106987 0.9998078 -0.0106987
78952 0.9997934 -0.0111860 0.0002066 0.0111860 0.0002066 0.0111860 0.9997934 -0.0111860
82567 0.9997778 -0.0116954 0.0002222 0.0116954 0.0002222 0.0116954 0.9997778 -0.0116954
86348 0.9997609 -0.0122281 0.0002391 0.0122281 0.0002391 0.0122281 0.9997609 -0.0122281
90302 0.9997427 -0.0127851 0.0002573 0.0127851 0.0002573 0.0127851 0.9997427 -0.0127851
94437 0.9997230 -0.0133674 0.0002770 0.0133674 0.0002770 0.0133674 0.9997230 -0.0133674
98762 0.9997016 -0.0139763 0.0002984 0.0139763 0.0002984 0.0139763 0.9997016 -0.0139763
103284 0.9996785 -0.0146130 0.0003215 0.0146130 0.0003215 0.0146130 0.9996785 -0.0146130
108014 0.9996534 -0.0152787 0.0003466 0.0152787 0.0003466 0.0152787 0.9996534 -0.0152787
112960 0.9996262 -0.0159747 0.0003738 0.0159747 0.0003738 0.0159747 0.9996262 -0.0159747
118133 0.9995966 -0.0167025 0.0004034 0.0167025 0.0004034 0.0167025 0.9995966 -0.0167025
123542 0.9995645 -0.0174635 0.0004355 0.0174635 0.0004355 0.0174635 0.9995645 -0.0174635
129199 0.9995296 -0.0182591 0.0004704 0.0182591 0.0004704 0.0182591 0.9995296 -0.0182591
135116 0.9994917 -0.0190909 0.0005083 0.0190909 0.0005083 0.0190909 0.9994917 -0.0190909
141303 0.9994504 -0.0199606 0.0005496 0.0199606 0.0005496 0.0199606 0.9994504 -0.0199606
147774 0.9994054 -0.0208699 0.0005946 0.0208699 0.0005946 0.0208699 0.9994054 -0.0208699
154540 0.9993565 -0.0218206 0.0006435 0.0218206 0.0006435 0.0218206 0.9993565 -0.0218206
161617 0.9993033 -0.0228144 0.0006967 0.0228144 0.0006967 0.0228144 0.9993033 -0.0228144
169018 0.9992452 -0.0238534 0.0007548 0.0238534 0.0007548 0.0238534 0.9992452 -0.0238534
176758 0.9991820 -0.0249395 0.0008180 0.0249395 0.0008180 0.0249395 0.9991820 -0.0249395
184852 0.9991131 -0.0260749 0.0008869 0.0260749 0.0008869 0.0260749 0.9991131 -0.0260749
193316 0.9990381 -0.0272617 0.0009619 0.0272617 0.0009619 0.0272617 0.9990381 -0.0272617
202169 0.9989563 -0.0285023 0.0010437 0.0285023 0.0010437 0.0285023 0.9989563 -0.0285023
211427 0.9988672 -0.0297989 0.0011328 0.0297989 0.0011328 0.0297989 0.9988672 -0.0297989
221108 0.9987701 -0.0311541 0.0012299 0.0311541 0.0012299 0.0311541 0.9987701 -0.0311541
231233 0.9986644 -0.0325705 0.0013356 0.0325705 0.0013356 0.0325705 0.9986644 -0.0325705
241822 0.9985491 -0.0340507 0.0014509 0.0340507 0.0014509 0.0340507 0.9985491 -0.0340507
252896 0.9984236 -0.0355975 0.0015764 0.0355975 0.0015764 0.0355975 0.9984236 -0.0355975
264476 0.9982868 -0.0372139 0.0017132 0.0372139 0.0017132 0.0372139 0.9982868 -0.0372139
276587 0.9981379 -0.0389029 0.0018621 0.0389029 0.0018621 0.0389029 0.9981379 -0.0389029
289253 0.9979757 -0.0406676 0.0020243 0.0406676 0.0020243 0.0406676 0.9979757 -0.0406676
302498 0.9977991 -0.0425113 0.0022009 0.0425113 0.0022009 0.0425113 0.9977991 -0.0425113
316350 0.9976068 -0.0444374 0.0023932 0.0444374 0.0023932 0.0444374 0.9976068 -0.0444374
330837 0.9973976 -0.0464495 0.0026024 0.0464495 0.0026024 0.0464495 0.9973976 -0.0464495
345986 0.9971699 -0.0485513 0.0028301 0.0485513 0.0028301 0.0485513 0.9971699 -0.0485513
361830 0.9969221 -0.0507466 0.0030779 0.0507466 0.0030779 0.0507466 0.9969221 -0.0507466
378399 0.9966525 -0.0530394 0.0033475 0.0530394 0.0033475 0.0530394 0.9966525 -0.0530394
395726 0.9963592 -0.0554339 0.0036408 0.0554339 0.0036408 0.0554339 0.9963592 -0.0554339
413847 0.9960402 -0.0579344 0.0039598 0.0579344 0.0039598 0.0579344 0.9960402 -0.0579344
432798 0.9956933 -0.0605453 0.0043067 0.0605453 0.0043067 0.0605453 0.9956933 -0.0605453
452617 0.9953160 -0.0632713 0.0046840 0.0632713 0.0046840 0.0632713 0.9953160 -0.0632713
473344 0.9949057 -0.0661173 0.0050943 0.0661173 0.0050943 0.0661173 0.9949057 -0.0661173
495019 0.9944596 -0.0690882 0.0055404 0.0690882 0.0055404 0.0690882 0.9944596 -0.0690882
517687 0.9939745 -0.0721892 0.0060255 0.0721892 0.0060255 0.0721892 0.9939745 -0.0721892
541393 0.9934471 -0.0754256 0.0065529 0.0754256 0.0065529 0.0754256 0.9934471 -0.0754256
566185 0.9928737 -0.0788031 0.0071263 0.0788031 0.0071263 0.0788031 0.9928737 -0.0788031
592111 0.9922501 -0.0823272 0.0077499 0.0823272 0.0077499 0.0823272 0.9922501 -0.0823272
619225 0.9915721 -0.0860039 0.0084279 0.0860039 0.0084279 0.0860039 0.9915721 -0.0860039
647581 0.9908349 -0.0898391 0.0091651 0.0898391 0.0091651 0.0898391 0.9908349 -0.0898391
677235 0.9900331 -0.0938391 0.0099669 0.0938391 0.0099669 0.0938391 0.9900331 -0.0938391
708247 0.9891612 -0.0980101 0.0108388 0.0980101 0.0108388 0.0980101 0.9891612 -0.0980101
740679 0.9882129 -0.1023586 0.0117871 0.1023586 0.0117871 0.1023586 0.9882129 -0.1023586
774597 0.9871816 -0.1068911 0.0128184 0.1068911 0.0128184 0.1068911 0.9871816 -0.1068911
810067 0.9860598 -0.1116142 0.0139402 0.1116142 0.0139402 0.1116142 0.9860598 -0.1116142
847162 0.9848397 -0.1165346 0.0151603 0.1165346 0.0151603 0.1165346 0.9848397 -0.1165346
885955 0.9835127 -0.1216588 0.0164873 0.1216588 0.0164873 0.1216588 0.9835127 -0.1216588
926525 0.9820693 -0.1269936 0.0179307 0.1269936 0.0179307 0.1269936 0.9820693 -0.1269936
968953 0.9804996 -0.1325454 0.0195004 0.1325454 0.0195004 0.1325454 0.9804996 -0.1325454
1013323 0.9787925 -0.1383207 0.0212075 0.1383207 0.0212075 0.1383207 0.9787925 -0.1383207
1059725 0.9769364 -0.1443256 0.0230636 0.1443256 0.0230636 0.1443256 0.9769364 -0.1443256
1108252 0.9749185 -0.1505662 0.0250815 0.1505662 0.0250815 0.1505662 0.9749185 -0.1505662
1159002 0.9727251 -0.1570481 0.0272749 0.1570481 0.0272749 0.1570481 0.9727251 -0.1570481
1212075 0.9703418 -0.1637763 0.0296582 0.1637763 0.0296582 0.1637763 0.9703418 -0.1637763
1267578 0.9677527 -0.1707557 0.0322473 0.1707557 0.0322473 0.1707557 0.9677527 -0.1707557
1325623 0.9649411 -0.1779901 0.0350589 0.1779901 0.0350589 0.1779901 0.9649411 -0.1779901
1386327 0.9618893 -0.1854828 0.0381107 0.1854828 0.0381107 0.1854828 0.9618893 -0.1854828
1449809 0.9585782 -0.1932361 0.0414218 0.1932361 0.0414218 0.1932361 0.9585782 -0.1932361
1516199 0.9549876 -0.2012514 0.0450124 0.2012514 0.0450124 0.2012514 0.9549876 -0.2012514
1585629 0.9510965 -0.2095288 0.0489035 0.2095288 0.0489035 0.2095288 0.9510965 -0.2095288
1658239 0.9468823 -0.2180668 0.0531177 0.2180668 0.0531177 0.2180668 0.9468823 -0.2180668
1734173 0.9423217 -0.2268626 0.0576783 0.2268626 0.0576783 0.2268626 0.9423217 -0.2268626
1813585 0.9373902 -0.2359116 0.0626098 0.2359116 0.0626098 0.2359116 0.9373902 -0.2359116
1896632 0.9320623 -0.2452071 0.0679377 0.2452071 0.0679377 0.2452071 0.9320623 -0.2452071
1983483 0.9263117 -0.2547402 0.0736883 0.2547402 0.0736883 0.2547402 0.9263117 -0.2547402
2074311 0.9201114 -0.2644997 0.0798886 0.2644997 0.0798886 0.2644997 0.9201114 -0.2644997
