!Murata Part Number: GRM033R60J473KE19
!These Parameters are Measured in Series Mode Connection
!Data Generated on Mar 30, 2021
!       o--ll--o
!Port1            Port2
!       o------o
!Operation Temp=25[degC], DC Bias Voltage=0[V]
!Freq. Start=100[Hz] Stop=6[GHz] 401[Steps]
# Hz S RI R 50
!Freq.(Hz) S11(Real) S11(Imag) S21(Real) S21(Imag) S12(Real) S12(Imag) S22(Real) S22(Imag)
100 0.9999613 -0.0029354 0.0000387 0.0029354 0.0000387 0.0029354 0.9999613 -0.0029354
105 0.9999593 -0.0030689 0.0000407 0.0030689 0.0000407 0.0030689 0.9999593 -0.0030689
109 0.9999572 -0.0032084 0.0000428 0.0032084 0.0000428 0.0032084 0.9999572 -0.0032084
114 0.9999550 -0.0033544 0.0000450 0.0033544 0.0000450 0.0033544 0.9999550 -0.0033544
120 0.9999526 -0.0035070 0.0000474 0.0035070 0.0000474 0.0035070 0.9999526 -0.0035070
125 0.9999501 -0.0036665 0.0000499 0.0036665 0.0000499 0.0036665 0.9999501 -0.0036665
131 0.9999474 -0.0038334 0.0000526 0.0038334 0.0000526 0.0038334 0.9999474 -0.0038334
137 0.9999445 -0.0040078 0.0000555 0.0040078 0.0000555 0.0040078 0.9999445 -0.0040078
143 0.9999414 -0.0041901 0.0000586 0.0041901 0.0000586 0.0041901 0.9999414 -0.0041901
150 0.9999381 -0.0043808 0.0000619 0.0043808 0.0000619 0.0043808 0.9999381 -0.0043808
156 0.9999346 -0.0045801 0.0000654 0.0045801 0.0000654 0.0045801 0.9999346 -0.0045801
164 0.9999308 -0.0047885 0.0000692 0.0047885 0.0000692 0.0047885 0.9999308 -0.0047885
171 0.9999268 -0.0050064 0.0000732 0.0050064 0.0000732 0.0050064 0.9999268 -0.0050064
179 0.9999225 -0.0052342 0.0000775 0.0052342 0.0000775 0.0052342 0.9999225 -0.0052342
187 0.9999178 -0.0054724 0.0000822 0.0054724 0.0000822 0.0054724 0.9999178 -0.0054724
196 0.9999129 -0.0057214 0.0000871 0.0057214 0.0000871 0.0057214 0.9999129 -0.0057214
205 0.9999076 -0.0059817 0.0000924 0.0059817 0.0000924 0.0059817 0.9999076 -0.0059817
214 0.9999020 -0.0062538 0.0000980 0.0062538 0.0000980 0.0062538 0.9999020 -0.0062538
224 0.9998959 -0.0065383 0.0001041 0.0065383 0.0001041 0.0065383 0.9998959 -0.0065383
234 0.9998895 -0.0068358 0.0001105 0.0068358 0.0001105 0.0068358 0.9998895 -0.0068358
245 0.9998826 -0.0071468 0.0001174 0.0071468 0.0001174 0.0071468 0.9998826 -0.0071468
256 0.9998751 -0.0074720 0.0001249 0.0074720 0.0001249 0.0074720 0.9998751 -0.0074720
268 0.9998672 -0.0078120 0.0001328 0.0078120 0.0001328 0.0078120 0.9998672 -0.0078120
280 0.9998587 -0.0081674 0.0001413 0.0081674 0.0001413 0.0081674 0.9998587 -0.0081674
293 0.9998495 -0.0085391 0.0001505 0.0085391 0.0001505 0.0085391 0.9998495 -0.0085391
306 0.9998397 -0.0089277 0.0001603 0.0089277 0.0001603 0.0089277 0.9998397 -0.0089277
320 0.9998291 -0.0093339 0.0001709 0.0093339 0.0001709 0.0093339 0.9998291 -0.0093339
335 0.9998177 -0.0097587 0.0001823 0.0097587 0.0001823 0.0097587 0.9998177 -0.0097587
350 0.9998055 -0.0102029 0.0001945 0.0102029 0.0001945 0.0102029 0.9998055 -0.0102029
366 0.9997923 -0.0106673 0.0002077 0.0106673 0.0002077 0.0106673 0.9997923 -0.0106673
383 0.9997781 -0.0111529 0.0002219 0.0111529 0.0002219 0.0111529 0.9997781 -0.0111529
401 0.9997627 -0.0116606 0.0002373 0.0116606 0.0002373 0.0116606 0.9997627 -0.0116606
419 0.9997461 -0.0121914 0.0002539 0.0121914 0.0002539 0.0121914 0.9997461 -0.0121914
438 0.9997282 -0.0127465 0.0002718 0.0127465 0.0002718 0.0127465 0.9997282 -0.0127465
458 0.9997087 -0.0133268 0.0002913 0.0133268 0.0002913 0.0133268 0.9997087 -0.0133268
479 0.9996877 -0.0139336 0.0003123 0.0139336 0.0003123 0.0139336 0.9996877 -0.0139336
501 0.9996649 -0.0145680 0.0003351 0.0145680 0.0003351 0.0145680 0.9996649 -0.0145680
524 0.9996401 -0.0152314 0.0003599 0.0152314 0.0003599 0.0152314 0.9996401 -0.0152314
548 0.9996133 -0.0159249 0.0003867 0.0159249 0.0003867 0.0159249 0.9996133 -0.0159249
573 0.9995842 -0.0166500 0.0004158 0.0166500 0.0004158 0.0166500 0.9995842 -0.0166500
600 0.9995526 -0.0174080 0.0004474 0.0174080 0.0004474 0.0174080 0.9995526 -0.0174080
627 0.9995183 -0.0182006 0.0004817 0.0182006 0.0004817 0.0182006 0.9995183 -0.0182006
656 0.9994810 -0.0190292 0.0005190 0.0190292 0.0005190 0.0190292 0.9994810 -0.0190292
686 0.9994405 -0.0198954 0.0005595 0.0198954 0.0005595 0.0198954 0.9994405 -0.0198954
717 0.9993965 -0.0208009 0.0006035 0.0208009 0.0006035 0.0208009 0.9993965 -0.0208009
750 0.9993486 -0.0217475 0.0006514 0.0217475 0.0006514 0.0217475 0.9993486 -0.0217475
784 0.9992967 -0.0227371 0.0007033 0.0227371 0.0007033 0.0227371 0.9992967 -0.0227371
820 0.9992402 -0.0237715 0.0007598 0.0237715 0.0007598 0.0237715 0.9992402 -0.0237715
858 0.9991788 -0.0248527 0.0008212 0.0248527 0.0008212 0.0248527 0.9991788 -0.0248527
897 0.9991120 -0.0259829 0.0008880 0.0259829 0.0008880 0.0259829 0.9991120 -0.0259829
938 0.9990395 -0.0271643 0.0009605 0.0271643 0.0009605 0.0271643 0.9990395 -0.0271643
981 0.9989607 -0.0283990 0.0010393 0.0283990 0.0010393 0.0283990 0.9989607 -0.0283990
1026 0.9988750 -0.0296895 0.0011250 0.0296895 0.0011250 0.0296895 0.9988750 -0.0296895
1073 0.9987819 -0.0310383 0.0012181 0.0310383 0.0012181 0.0310383 0.9987819 -0.0310383
1122 0.9986807 -0.0324480 0.0013193 0.0324480 0.0013193 0.0324480 0.9986807 -0.0324480
1174 0.9985708 -0.0339213 0.0014292 0.0339213 0.0014292 0.0339213 0.9985708 -0.0339213
1227 0.9984513 -0.0354610 0.0015487 0.0354610 0.0015487 0.0354610 0.9984513 -0.0354610
1283 0.9983215 -0.0370700 0.0016785 0.0370700 0.0016785 0.0370700 0.9983215 -0.0370700
1342 0.9981805 -0.0387516 0.0018195 0.0387516 0.0018195 0.0387516 0.9981805 -0.0387516
1404 0.9980271 -0.0405088 0.0019729 0.0405088 0.0019729 0.0405088 0.9980271 -0.0405088
1468 0.9978605 -0.0423450 0.0021395 0.0423450 0.0021395 0.0423450 0.9978605 -0.0423450
1535 0.9976793 -0.0442638 0.0023207 0.0442638 0.0023207 0.0442638 0.9976793 -0.0442638
1606 0.9974823 -0.0462688 0.0025177 0.0462688 0.0025177 0.0462688 0.9974823 -0.0462688
1679 0.9972682 -0.0483638 0.0027318 0.0483638 0.0027318 0.0483638 0.9972682 -0.0483638
1756 0.9970352 -0.0505528 0.0029648 0.0505528 0.0029648 0.0505528 0.9970352 -0.0505528
1836 0.9967818 -0.0528399 0.0032182 0.0528399 0.0032182 0.0528399 0.9967818 -0.0528399
1920 0.9965061 -0.0552293 0.0034939 0.0552293 0.0034939 0.0552293 0.9965061 -0.0552293
2008 0.9962061 -0.0577256 0.0037939 0.0577256 0.0037939 0.0577256 0.9962061 -0.0577256
2100 0.9958795 -0.0603333 0.0041205 0.0603333 0.0041205 0.0603333 0.9958795 -0.0603333
2196 0.9955240 -0.0630572 0.0044760 0.0630572 0.0044760 0.0630572 0.9955240 -0.0630572
2297 0.9951368 -0.0659024 0.0048632 0.0659024 0.0048632 0.0659024 0.9951368 -0.0659024
2402 0.9947151 -0.0688740 0.0052849 0.0688740 0.0052849 0.0688740 0.9947151 -0.0688740
2512 0.9942557 -0.0719772 0.0057443 0.0719772 0.0057443 0.0719772 0.9942557 -0.0719772
2627 0.9937551 -0.0752175 0.0062449 0.0752175 0.0062449 0.0752175 0.9937551 -0.0752175
2748 0.9932096 -0.0786007 0.0067904 0.0786007 0.0067904 0.0786007 0.9932096 -0.0786007
2873 0.9926151 -0.0821325 0.0073849 0.0821325 0.0073849 0.0821325 0.9926151 -0.0821325
3005 0.9919671 -0.0858188 0.0080329 0.0858188 0.0080329 0.0858188 0.9919671 -0.0858188
3143 0.9912607 -0.0896658 0.0087393 0.0896658 0.0087393 0.0896658 0.9912607 -0.0896658
3287 0.9904906 -0.0936798 0.0095094 0.0936798 0.0095094 0.0936798 0.9904906 -0.0936798
3437 0.9896512 -0.0978671 0.0103488 0.0978671 0.0103488 0.0978671 0.9896512 -0.0978671
3594 0.9887360 -0.1022341 0.0112640 0.1022341 0.0112640 0.1022341 0.9887360 -0.1022341
3759 0.9877383 -0.1067876 0.0122617 0.1067876 0.0122617 0.1067876 0.9877383 -0.1067876
3931 0.9866508 -0.1115341 0.0133492 0.1115341 0.0133492 0.1115341 0.9866508 -0.1115341
4111 0.9854655 -0.1164802 0.0145345 0.1164802 0.0145345 0.1164802 0.9854655 -0.1164802
4299 0.9841737 -0.1216328 0.0158263 0.1216328 0.0158263 0.1216328 0.9841737 -0.1216328
4496 0.9827661 -0.1269985 0.0172339 0.1269985 0.0172339 0.1269985 0.9827661 -0.1269985
4702 0.9812327 -0.1325838 0.0187673 0.1325838 0.0187673 0.1325838 0.9812327 -0.1325838
4918 0.9795625 -0.1383952 0.0204375 0.1383952 0.0204375 0.1383952 0.9795625 -0.1383952
5143 0.9777439 -0.1444392 0.0222561 0.1444392 0.0222561 0.1444392 0.9777439 -0.1444392
5378 0.9757642 -0.1507216 0.0242358 0.1507216 0.0242358 0.1507216 0.9757642 -0.1507216
5625 0.9736099 -0.1572483 0.0263901 0.1572483 0.0263901 0.1572483 0.9736099 -0.1572483
5882 0.9712664 -0.1640246 0.0287336 0.1640246 0.0287336 0.1640246 0.9712664 -0.1640246
6151 0.9687183 -0.1710554 0.0312817 0.1710554 0.0312817 0.1710554 0.9687183 -0.1710554
6433 0.9659489 -0.1783450 0.0340511 0.1783450 0.0340511 0.1783450 0.9659489 -0.1783450
6728 0.9629404 -0.1858968 0.0370596 0.1858968 0.0370596 0.1858968 0.9629404 -0.1858968
7036 0.9596741 -0.1937137 0.0403259 0.1937137 0.0403259 0.1937137 0.9596741 -0.1937137
7358 0.9561299 -0.2017973 0.0438701 0.2017973 0.0438701 0.2017973 0.9561299 -0.2017973
7695 0.9522867 -0.2101482 0.0477133 0.2101482 0.0477133 0.2101482 0.9522867 -0.2101482
8047 0.9481221 -0.2187657 0.0518779 0.2187657 0.0518779 0.2187657 0.9481221 -0.2187657
8416 0.9436128 -0.2276475 0.0563872 0.2276475 0.0563872 0.2276475 0.9436128 -0.2276475
8801 0.9387341 -0.2367898 0.0612659 0.2367898 0.0612659 0.2367898 0.9387341 -0.2367898
9204 0.9334605 -0.2461867 0.0665395 0.2461867 0.0665395 0.2461867 0.9334605 -0.2461867
9626 0.9277655 -0.2558302 0.0722345 0.2558302 0.0722345 0.2558302 0.9277655 -0.2558302
10066 0.9216216 -0.2657101 0.0783784 0.2657101 0.0783784 0.2657101 0.9216216 -0.2657101
10527 0.9150007 -0.2758134 0.0849993 0.2758134 0.0849993 0.2758134 0.9150007 -0.2758134
11009 0.9078745 -0.2861243 0.0921255 0.2861243 0.0921255 0.2861243 0.9078745 -0.2861243
11514 0.9002139 -0.2966240 0.0997861 0.2966240 0.0997861 0.2966240 0.9002139 -0.2966240
12041 0.8919901 -0.3072903 0.1080099 0.3072903 0.1080099 0.3072903 0.8919901 -0.3072903
12592 0.8831747 -0.3180976 0.1168253 0.3180976 0.1168253 0.3180976 0.8831747 -0.3180976
13169 0.8737398 -0.3290165 0.1262602 0.3290165 0.1262602 0.3290165 0.8737398 -0.3290165
13772 0.8636588 -0.3400135 0.1363412 0.3400135 0.1363412 0.3400135 0.8636588 -0.3400135
14402 0.8529066 -0.3510514 0.1470934 0.3510514 0.1470934 0.3510514 0.8529066 -0.3510514
15062 0.8414602 -0.3620888 0.1585398 0.3620888 0.1585398 0.3620888 0.8414602 -0.3620888
15752 0.8292994 -0.3730802 0.1707006 0.3730802 0.1707006 0.3730802 0.8292994 -0.3730802
16473 0.8164073 -0.3839760 0.1835927 0.3839760 0.1835927 0.3839760 0.8164073 -0.3839760
17227 0.8027711 -0.3947229 0.1972289 0.3947229 0.1972289 0.3947229 0.8027711 -0.3947229
18016 0.7883823 -0.4052640 0.2116177 0.4052640 0.2116177 0.4052640 0.7883823 -0.4052640
18841 0.7732381 -0.4155393 0.2267619 0.4155393 0.2267619 0.4155393 0.7732381 -0.4155393
19704 0.7573414 -0.4254860 0.2426586 0.4254860 0.2426586 0.4254860 0.7573414 -0.4254860
20606 0.7407015 -0.4350395 0.2592985 0.4350395 0.2592985 0.4350395 0.7407015 -0.4350395
21550 0.7233350 -0.4441335 0.2766650 0.4441335 0.2766650 0.4441335 0.7233350 -0.4441335
22537 0.7052658 -0.4527019 0.2947342 0.4527019 0.2947342 0.4527019 0.7052658 -0.4527019
23569 0.6865256 -0.4606787 0.3134744 0.4606787 0.3134744 0.4606787 0.6865256 -0.4606787
24648 0.6671540 -0.4679999 0.3328460 0.4679999 0.3328460 0.4679999 0.6671540 -0.4679999
25777 0.6471984 -0.4746039 0.3528016 0.4746039 0.3528016 0.4746039 0.6471984 -0.4746039
26957 0.6267140 -0.4804335 0.3732860 0.4804335 0.3732860 0.4804335 0.6267140 -0.4804335
28191 0.6057633 -0.4854362 0.3942367 0.4854362 0.3942367 0.4854362 0.6057633 -0.4854362
29482 0.5844153 -0.4895659 0.4155847 0.4895659 0.4155847 0.4895659 0.5844153 -0.4895659
30832 0.5627450 -0.4927834 0.4372550 0.4927834 0.4372550 0.4927834 0.5627450 -0.4927834
32244 0.5408323 -0.4950580 0.4591677 0.4950580 0.4591677 0.4950580 0.5408323 -0.4950580
33721 0.5187605 -0.4963674 0.4812395 0.4963674 0.4812395 0.4963674 0.5187605 -0.4963674
35265 0.4966159 -0.4966988 0.5033841 0.4966988 0.5033841 0.4966988 0.4966159 -0.4966988
36880 0.4744857 -0.4960490 0.5255143 0.4960490 0.5255143 0.4960490 0.4744857 -0.4960490
38569 0.4524566 -0.4944243 0.5475434 0.4944243 0.5475434 0.4944243 0.4524566 -0.4944243
40335 0.4306142 -0.4918409 0.5693858 0.4918409 0.5693858 0.4918409 0.4306142 -0.4918409
42182 0.4090407 -0.4883239 0.5909593 0.4883239 0.5909593 0.4883239 0.4090407 -0.4883239
44113 0.3878146 -0.4839068 0.6121854 0.4839068 0.6121854 0.4839068 0.3878146 -0.4839068
46134 0.3670088 -0.4786313 0.6329912 0.4786313 0.6329912 0.4786313 0.3670088 -0.4786313
48246 0.3466902 -0.4725455 0.6533098 0.4725455 0.6533098 0.4725455 0.3466902 -0.4725455
50455 0.3269190 -0.4657035 0.6730810 0.4657035 0.6730810 0.4657035 0.3269190 -0.4657035
52766 0.3077477 -0.4581642 0.6922523 0.4581642 0.6922523 0.4581642 0.3077477 -0.4581642
55182 0.2892213 -0.4499899 0.7107787 0.4499899 0.7107787 0.4499899 0.2892213 -0.4499899
57709 0.2713767 -0.4412452 0.7286233 0.4412452 0.7286233 0.4412452 0.2713767 -0.4412452
60352 0.2542431 -0.4319962 0.7457569 0.4319962 0.7457569 0.4319962 0.2542431 -0.4319962
63115 0.2378420 -0.4223092 0.7621580 0.4223092 0.7621580 0.4223092 0.2378420 -0.4223092
66005 0.2221877 -0.4122498 0.7778123 0.4122498 0.7778123 0.4122498 0.2221877 -0.4122498
69028 0.2072875 -0.4018821 0.7927125 0.4018821 0.7927125 0.4018821 0.2072875 -0.4018821
72189 0.1931424 -0.3912680 0.8068576 0.3912680 0.8068576 0.3912680 0.1931424 -0.3912680
75495 0.1797477 -0.3804666 0.8202523 0.3804666 0.8202523 0.3804666 0.1797477 -0.3804666
78952 0.1670938 -0.3695337 0.8329062 0.3695337 0.8329062 0.3695337 0.1670938 -0.3695337
82567 0.1551663 -0.3585214 0.8448337 0.3585214 0.8448337 0.3585214 0.1551663 -0.3585214
86348 0.1439474 -0.3474782 0.8560526 0.3474782 0.8560526 0.3474782 0.1439474 -0.3474782
90302 0.1334160 -0.3364482 0.8665840 0.3364482 0.8665840 0.3364482 0.1334160 -0.3364482
94437 0.1235483 -0.3254716 0.8764517 0.3254716 0.8764517 0.3254716 0.1235483 -0.3254716
98762 0.1143188 -0.3145846 0.8856812 0.3145846 0.8856812 0.3145846 0.1143188 -0.3145846
103284 0.1057004 -0.3038194 0.8942996 0.3038194 0.8942996 0.3038194 0.1057004 -0.3038194
108014 0.0976649 -0.2932042 0.9023351 0.2932042 0.9023351 0.2932042 0.0976649 -0.2932042
112960 0.0901836 -0.2827637 0.9098164 0.2827637 0.9098164 0.2827637 0.0901836 -0.2827637
118133 0.0832275 -0.2725191 0.9167725 0.2725191 0.9167725 0.2725191 0.0832275 -0.2725191
123542 0.0767678 -0.2624881 0.9232322 0.2624881 0.9232322 0.2624881 0.0767678 -0.2624881
129199 0.0707760 -0.2526858 0.9292240 0.2526858 0.9292240 0.2526858 0.0707760 -0.2526858
135116 0.0652240 -0.2431240 0.9347760 0.2431240 0.9347760 0.2431240 0.0652240 -0.2431240
141303 0.0600847 -0.2338125 0.9399153 0.2338125 0.9399153 0.2338125 0.0600847 -0.2338125
147774 0.0553316 -0.2247585 0.9446684 0.2247585 0.9446684 0.2247585 0.0553316 -0.2247585
154540 0.0509394 -0.2159670 0.9490606 0.2159670 0.9490606 0.2159670 0.0509394 -0.2159670
161617 0.0468838 -0.2074414 0.9531162 0.2074414 0.9531162 0.2074414 0.0468838 -0.2074414
169018 0.0431416 -0.1991834 0.9568584 0.1991834 0.9568584 0.1991834 0.0431416 -0.1991834
176758 0.0396907 -0.1911932 0.9603093 0.1911932 0.9603093 0.1911932 0.0396907 -0.1911932
184852 0.0365104 -0.1834696 0.9634896 0.1834696 0.9634896 0.1834696 0.0365104 -0.1834696
193316 0.0335809 -0.1760105 0.9664191 0.1760105 0.9664191 0.1760105 0.0335809 -0.1760105
202169 0.0308837 -0.1688129 0.9691163 0.1688129 0.9691163 0.1688129 0.0308837 -0.1688129
211427 0.0284015 -0.1618728 0.9715985 0.1618728 0.9715985 0.1618728 0.0284015 -0.1618728
221108 0.0261179 -0.1551857 0.9738821 0.1551857 0.9738821 0.1551857 0.0261179 -0.1551857
231233 0.0240177 -0.1487463 0.9759823 0.1487463 0.9759823 0.1487463 0.0240177 -0.1487463
241822 0.0220868 -0.1425491 0.9779132 0.1425491 0.9779132 0.1425491 0.0220868 -0.1425491
252896 0.0203120 -0.1365882 0.9796880 0.1365882 0.9796880 0.1365882 0.0203120 -0.1365882
264476 0.0186810 -0.1308572 0.9813190 0.1308572 0.9813190 0.1308572 0.0186810 -0.1308572
276587 0.0171824 -0.1253497 0.9828176 0.1253497 0.9828176 0.1253497 0.0171824 -0.1253497
289253 0.0158057 -0.1200591 0.9841943 0.1200591 0.9841943 0.1200591 0.0158057 -0.1200591
302498 0.0145412 -0.1149787 0.9854588 0.1149787 0.9854588 0.1149787 0.0145412 -0.1149787
316350 0.0133797 -0.1101018 0.9866203 0.1101018 0.9866203 0.1101018 0.0133797 -0.1101018
330837 0.0123131 -0.1054216 0.9876869 0.1054216 0.9876869 0.1054216 0.0123131 -0.1054216
345986 0.0113337 -0.1009314 0.9886663 0.1009314 0.9886663 0.1009314 0.0113337 -0.1009314
361830 0.0104343 -0.0966246 0.9895657 0.0966246 0.9895657 0.0966246 0.0104343 -0.0966246
378399 0.0096085 -0.0924947 0.9903915 0.0924947 0.9903915 0.0924947 0.0096085 -0.0924947
395726 0.0088504 -0.0885351 0.9911496 0.0885351 0.9911496 0.0885351 0.0088504 -0.0885351
413847 0.0081542 -0.0847396 0.9918458 0.0847396 0.9918458 0.0847396 0.0081542 -0.0847396
432798 0.0075152 -0.0811020 0.9924848 0.0811020 0.9924848 0.0811020 0.0075152 -0.0811020
452617 0.0069285 -0.0776164 0.9930715 0.0776164 0.9930715 0.0776164 0.0069285 -0.0776164
473344 0.0063898 -0.0742767 0.9936102 0.0742767 0.9936102 0.0742767 0.0063898 -0.0742767
495019 0.0058954 -0.0710775 0.9941046 0.0710775 0.9941046 0.0710775 0.0058954 -0.0710775
517687 0.0054415 -0.0680131 0.9945585 0.0680131 0.9945585 0.0680131 0.0054415 -0.0680131
541393 0.0050248 -0.0650782 0.9949752 0.0650782 0.9949752 0.0650782 0.0050248 -0.0650782
566185 0.0046423 -0.0622676 0.9953577 0.0622676 0.9953577 0.0622676 0.0046423 -0.0622676
592111 0.0042912 -0.0595763 0.9957088 0.0595763 0.9957088 0.0595763 0.0042912 -0.0595763
619225 0.0039690 -0.0569996 0.9960310 0.0569996 0.9960310 0.0569996 0.0039690 -0.0569996
647581 0.0036731 -0.0545327 0.9963269 0.0545327 0.9963269 0.0545327 0.0036731 -0.0545327
677235 0.0034016 -0.0521712 0.9965984 0.0521712 0.9965984 0.0521712 0.0034016 -0.0521712
708247 0.0031523 -0.0499108 0.9968477 0.0499108 0.9968477 0.0499108 0.0031523 -0.0499108
740679 0.0029234 -0.0477472 0.9970766 0.0477472 0.9970766 0.0477472 0.0029234 -0.0477472
774597 0.0027133 -0.0456765 0.9972867 0.0456765 0.9972867 0.0456765 0.0027133 -0.0456765
810067 0.0025204 -0.0436947 0.9974796 0.0436947 0.9974796 0.0436947 0.0025204 -0.0436947
847162 0.0023433 -0.0417983 0.9976567 0.0417983 0.9976567 0.0417983 0.0023433 -0.0417983
885955 0.0021805 -0.0399835 0.9978195 0.0399835 0.9978195 0.0399835 0.0021805 -0.0399835
926525 0.0020310 -0.0382471 0.9979690 0.0382471 0.9979690 0.0382471 0.0020310 -0.0382471
968953 0.0018937 -0.0365856 0.9981063 0.0365856 0.9981063 0.0365856 0.0018937 -0.0365856
1013323 0.0017674 -0.0349958 0.9982326 0.0349958 0.9982326 0.0349958 0.0017674 -0.0349958
1059725 0.0016514 -0.0334748 0.9983486 0.0334748 0.9983486 0.0334748 0.0016514 -0.0334748
1108252 0.0015446 -0.0320196 0.9984554 0.0320196 0.9984554 0.0320196 0.0015446 -0.0320196
1159002 0.0014463 -0.0306274 0.9985537 0.0306274 0.9985537 0.0306274 0.0014463 -0.0306274
1212075 0.0013559 -0.0292955 0.9986441 0.0292955 0.9986441 0.0292955 0.0013559 -0.0292955
1267578 0.0012726 -0.0280213 0.9987274 0.0280213 0.9987274 0.0280213 0.0012726 -0.0280213
1325623 0.0011958 -0.0268023 0.9988042 0.0268023 0.9988042 0.0268023 0.0011958 -0.0268023
1386327 0.0011250 -0.0256362 0.9988750 0.0256362 0.9988750 0.0256362 0.0011250 -0.0256362
1449809 0.0010597 -0.0245205 0.9989403 0.0245205 0.9989403 0.0245205 0.0010597 -0.0245205
1516199 0.0009994 -0.0234532 0.9990006 0.0234532 0.9990006 0.0234532 0.0009994 -0.0234532
1585629 0.0009437 -0.0224321 0.9990563 0.0224321 0.9990563 0.0224321 0.0009437 -0.0224321
1658239 0.0008922 -0.0214552 0.9991078 0.0214552 0.9991078 0.0214552 0.0008922 -0.0214552
1734173 0.0008445 -0.0205207 0.9991555 0.0205207 0.9991555 0.0205207 0.0008445 -0.0205207
1813585 0.0008004 -0.0196265 0.9991996 0.0196265 0.9991996 0.0196265 0.0008004 -0.0196265
1896632 0.0007596 -0.0187710 0.9992404 0.0187710 0.9992404 0.0187710 0.0007596 -0.0187710
1983483 0.0007218 -0.0179525 0.9992782 0.0179525 0.9992782 0.0179525 0.0007218 -0.0179525
2074311 0.0006867 -0.0171694 0.9993133 0.0171694 0.9993133 0.0171694 0.0006867 -0.0171694
