!Murata Part Number: GRM033R61A472MA01
!These Parameters are Measured in Series Mode Connection
!Data Generated on Mar 30, 2021
!       o--ll--o
!Port1            Port2
!       o------o
!Operation Temp=25[degC], DC Bias Voltage=0[V]
!Freq. Start=100[Hz] Stop=6[GHz] 401[Steps]
# Hz S RI R 50
!Freq.(Hz) S11(Real) S11(Imag) S21(Real) S21(Imag) S12(Real) S12(Imag) S22(Real) S22(Imag)
100 0.9999983 -0.0002845 0.0000017 0.0002845 0.0000017 0.0002845 0.9999983 -0.0002845
105 0.9999982 -0.0002975 0.0000018 0.0002975 0.0000018 0.0002975 0.9999982 -0.0002975
109 0.9999981 -0.0003110 0.0000019 0.0003110 0.0000019 0.0003110 0.9999981 -0.0003110
114 0.9999980 -0.0003252 0.0000020 0.0003252 0.0000020 0.0003252 0.9999980 -0.0003252
120 0.9999979 -0.0003401 0.0000021 0.0003401 0.0000021 0.0003401 0.9999979 -0.0003401
125 0.9999978 -0.0003556 0.0000022 0.0003556 0.0000022 0.0003556 0.9999978 -0.0003556
131 0.9999977 -0.0003718 0.0000023 0.0003718 0.0000023 0.0003718 0.9999977 -0.0003718
137 0.9999976 -0.0003888 0.0000024 0.0003888 0.0000024 0.0003888 0.9999976 -0.0003888
143 0.9999975 -0.0004065 0.0000025 0.0004065 0.0000025 0.0004065 0.9999975 -0.0004065
150 0.9999974 -0.0004250 0.0000026 0.0004250 0.0000026 0.0004250 0.9999974 -0.0004250
156 0.9999972 -0.0004444 0.0000028 0.0004444 0.0000028 0.0004444 0.9999972 -0.0004444
164 0.9999971 -0.0004647 0.0000029 0.0004647 0.0000029 0.0004647 0.9999971 -0.0004647
171 0.9999969 -0.0004859 0.0000031 0.0004859 0.0000031 0.0004859 0.9999969 -0.0004859
179 0.9999968 -0.0005081 0.0000032 0.0005081 0.0000032 0.0005081 0.9999968 -0.0005081
187 0.9999966 -0.0005313 0.0000034 0.0005313 0.0000034 0.0005313 0.9999966 -0.0005313
196 0.9999964 -0.0005555 0.0000036 0.0005555 0.0000036 0.0005555 0.9999964 -0.0005555
205 0.9999962 -0.0005808 0.0000038 0.0005808 0.0000038 0.0005808 0.9999962 -0.0005808
214 0.9999960 -0.0006073 0.0000040 0.0006073 0.0000040 0.0006073 0.9999960 -0.0006073
224 0.9999958 -0.0006350 0.0000042 0.0006350 0.0000042 0.0006350 0.9999958 -0.0006350
234 0.9999956 -0.0006640 0.0000044 0.0006640 0.0000044 0.0006640 0.9999956 -0.0006640
245 0.9999953 -0.0006943 0.0000047 0.0006943 0.0000047 0.0006943 0.9999953 -0.0006943
256 0.9999951 -0.0007259 0.0000049 0.0007259 0.0000049 0.0007259 0.9999951 -0.0007259
268 0.9999948 -0.0007590 0.0000052 0.0007590 0.0000052 0.0007590 0.9999948 -0.0007590
280 0.9999946 -0.0007936 0.0000054 0.0007936 0.0000054 0.0007936 0.9999946 -0.0007936
293 0.9999943 -0.0008298 0.0000057 0.0008298 0.0000057 0.0008298 0.9999943 -0.0008298
306 0.9999940 -0.0008676 0.0000060 0.0008676 0.0000060 0.0008676 0.9999940 -0.0008676
320 0.9999937 -0.0009072 0.0000063 0.0009072 0.0000063 0.0009072 0.9999937 -0.0009072
335 0.9999933 -0.0009485 0.0000067 0.0009485 0.0000067 0.0009485 0.9999933 -0.0009485
350 0.9999930 -0.0009918 0.0000070 0.0009918 0.0000070 0.0009918 0.9999930 -0.0009918
366 0.9999926 -0.0010370 0.0000074 0.0010370 0.0000074 0.0010370 0.9999926 -0.0010370
383 0.9999923 -0.0010843 0.0000077 0.0010843 0.0000077 0.0010843 0.9999923 -0.0010843
401 0.9999919 -0.0011337 0.0000081 0.0011337 0.0000081 0.0011337 0.9999919 -0.0011337
419 0.9999915 -0.0011854 0.0000085 0.0011854 0.0000085 0.0011854 0.9999915 -0.0011854
438 0.9999910 -0.0012394 0.0000090 0.0012394 0.0000090 0.0012394 0.9999910 -0.0012394
458 0.9999906 -0.0012960 0.0000094 0.0012960 0.0000094 0.0012960 0.9999906 -0.0012960
479 0.9999901 -0.0013551 0.0000099 0.0013551 0.0000099 0.0013551 0.9999901 -0.0013551
501 0.9999896 -0.0014169 0.0000104 0.0014169 0.0000104 0.0014169 0.9999896 -0.0014169
524 0.9999891 -0.0014815 0.0000109 0.0014815 0.0000109 0.0014815 0.9999891 -0.0014815
548 0.9999885 -0.0015491 0.0000115 0.0015491 0.0000115 0.0015491 0.9999885 -0.0015491
573 0.9999879 -0.0016197 0.0000121 0.0016197 0.0000121 0.0016197 0.9999879 -0.0016197
600 0.9999873 -0.0016936 0.0000127 0.0016936 0.0000127 0.0016936 0.9999873 -0.0016936
627 0.9999866 -0.0017709 0.0000134 0.0017709 0.0000134 0.0017709 0.9999866 -0.0017709
656 0.9999859 -0.0018517 0.0000141 0.0018517 0.0000141 0.0018517 0.9999859 -0.0018517
686 0.9999852 -0.0019362 0.0000148 0.0019362 0.0000148 0.0019362 0.9999852 -0.0019362
717 0.9999844 -0.0020246 0.0000156 0.0020246 0.0000156 0.0020246 0.9999844 -0.0020246
750 0.9999835 -0.0021170 0.0000165 0.0021170 0.0000165 0.0021170 0.9999835 -0.0021170
784 0.9999826 -0.0022136 0.0000174 0.0022136 0.0000174 0.0022136 0.9999826 -0.0022136
820 0.9999816 -0.0023146 0.0000184 0.0023146 0.0000184 0.0023146 0.9999816 -0.0023146
858 0.9999805 -0.0024203 0.0000195 0.0024203 0.0000195 0.0024203 0.9999805 -0.0024203
897 0.9999793 -0.0025308 0.0000207 0.0025308 0.0000207 0.0025308 0.9999793 -0.0025308
938 0.9999781 -0.0026463 0.0000219 0.0026463 0.0000219 0.0026463 0.9999781 -0.0026463
981 0.9999767 -0.0027671 0.0000233 0.0027671 0.0000233 0.0027671 0.9999767 -0.0027671
1026 0.9999753 -0.0028934 0.0000247 0.0028934 0.0000247 0.0028934 0.9999753 -0.0028934
1073 0.9999738 -0.0030254 0.0000262 0.0030254 0.0000262 0.0030254 0.9999738 -0.0030254
1122 0.9999721 -0.0031635 0.0000279 0.0031635 0.0000279 0.0031635 0.9999721 -0.0031635
1174 0.9999703 -0.0033079 0.0000297 0.0033079 0.0000297 0.0033079 0.9999703 -0.0033079
1227 0.9999683 -0.0034589 0.0000317 0.0034589 0.0000317 0.0034589 0.9999683 -0.0034589
1283 0.9999662 -0.0036167 0.0000338 0.0036167 0.0000338 0.0036167 0.9999662 -0.0036167
1342 0.9999640 -0.0037818 0.0000360 0.0037818 0.0000360 0.0037818 0.9999640 -0.0037818
1404 0.9999615 -0.0039543 0.0000385 0.0039543 0.0000385 0.0039543 0.9999615 -0.0039543
1468 0.9999589 -0.0041347 0.0000411 0.0041347 0.0000411 0.0041347 0.9999589 -0.0041347
1535 0.9999561 -0.0043234 0.0000439 0.0043234 0.0000439 0.0043234 0.9999561 -0.0043234
1606 0.9999531 -0.0045206 0.0000469 0.0045206 0.0000469 0.0045206 0.9999531 -0.0045206
1679 0.9999498 -0.0047268 0.0000502 0.0047268 0.0000502 0.0047268 0.9999498 -0.0047268
1756 0.9999463 -0.0049424 0.0000537 0.0049424 0.0000537 0.0049424 0.9999463 -0.0049424
1836 0.9999426 -0.0051677 0.0000574 0.0051677 0.0000574 0.0051677 0.9999426 -0.0051677
1920 0.9999385 -0.0054034 0.0000615 0.0054034 0.0000615 0.0054034 0.9999385 -0.0054034
2008 0.9999342 -0.0056497 0.0000658 0.0056497 0.0000658 0.0056497 0.9999342 -0.0056497
2100 0.9999295 -0.0059073 0.0000705 0.0059073 0.0000705 0.0059073 0.9999295 -0.0059073
2196 0.9999245 -0.0061766 0.0000755 0.0061766 0.0000755 0.0061766 0.9999245 -0.0061766
2297 0.9999192 -0.0064582 0.0000808 0.0064582 0.0000808 0.0064582 0.9999192 -0.0064582
2402 0.9999134 -0.0067525 0.0000866 0.0067525 0.0000866 0.0067525 0.9999134 -0.0067525
2512 0.9999072 -0.0070603 0.0000928 0.0070603 0.0000928 0.0070603 0.9999072 -0.0070603
2627 0.9999006 -0.0073821 0.0000994 0.0073821 0.0000994 0.0073821 0.9999006 -0.0073821
2748 0.9998934 -0.0077186 0.0001066 0.0077186 0.0001066 0.0077186 0.9998934 -0.0077186
2873 0.9998857 -0.0080704 0.0001143 0.0080704 0.0001143 0.0080704 0.9998857 -0.0080704
3005 0.9998775 -0.0084382 0.0001225 0.0084382 0.0001225 0.0084382 0.9998775 -0.0084382
3143 0.9998686 -0.0088228 0.0001314 0.0088228 0.0001314 0.0088228 0.9998686 -0.0088228
3287 0.9998590 -0.0092249 0.0001410 0.0092249 0.0001410 0.0092249 0.9998590 -0.0092249
3437 0.9998487 -0.0096454 0.0001513 0.0096454 0.0001513 0.0096454 0.9998487 -0.0096454
3594 0.9998376 -0.0100851 0.0001624 0.0100851 0.0001624 0.0100851 0.9998376 -0.0100851
3759 0.9998256 -0.0105448 0.0001744 0.0105448 0.0001744 0.0105448 0.9998256 -0.0105448
3931 0.9998126 -0.0110255 0.0001874 0.0110255 0.0001874 0.0110255 0.9998126 -0.0110255
4111 0.9997986 -0.0115281 0.0002014 0.0115281 0.0002014 0.0115281 0.9997986 -0.0115281
4299 0.9997834 -0.0120538 0.0002166 0.0120538 0.0002166 0.0120538 0.9997834 -0.0120538
4496 0.9997669 -0.0126034 0.0002331 0.0126034 0.0002331 0.0126034 0.9997669 -0.0126034
4702 0.9997491 -0.0131781 0.0002509 0.0131781 0.0002509 0.0131781 0.9997491 -0.0131781
4918 0.9997298 -0.0137790 0.0002702 0.0137790 0.0002702 0.0137790 0.9997298 -0.0137790
5143 0.9997088 -0.0144074 0.0002912 0.0144074 0.0002912 0.0144074 0.9997088 -0.0144074
5378 0.9996860 -0.0150645 0.0003140 0.0150645 0.0003140 0.0150645 0.9996860 -0.0150645
5625 0.9996612 -0.0157516 0.0003388 0.0157516 0.0003388 0.0157516 0.9996612 -0.0157516
5882 0.9996343 -0.0164700 0.0003657 0.0164700 0.0003657 0.0164700 0.9996343 -0.0164700
6151 0.9996050 -0.0172213 0.0003950 0.0172213 0.0003950 0.0172213 0.9996050 -0.0172213
6433 0.9995731 -0.0180067 0.0004269 0.0180067 0.0004269 0.0180067 0.9995731 -0.0180067
6728 0.9995383 -0.0188281 0.0004617 0.0188281 0.0004617 0.0188281 0.9995383 -0.0188281
7036 0.9995005 -0.0196868 0.0004995 0.0196868 0.0004995 0.0196868 0.9995005 -0.0196868
7358 0.9994593 -0.0205847 0.0005407 0.0205847 0.0005407 0.0205847 0.9994593 -0.0205847
7695 0.9994143 -0.0215235 0.0005857 0.0215235 0.0005857 0.0215235 0.9994143 -0.0215235
8047 0.9993653 -0.0225050 0.0006347 0.0225050 0.0006347 0.0225050 0.9993653 -0.0225050
8416 0.9993119 -0.0235312 0.0006881 0.0235312 0.0006881 0.0235312 0.9993119 -0.0235312
8801 0.9992537 -0.0246040 0.0007463 0.0246040 0.0007463 0.0246040 0.9992537 -0.0246040
9204 0.9991902 -0.0257256 0.0008098 0.0257256 0.0008098 0.0257256 0.9991902 -0.0257256
9626 0.9991210 -0.0268981 0.0008790 0.0268981 0.0008790 0.0268981 0.9991210 -0.0268981
10066 0.9990455 -0.0281238 0.0009545 0.0281238 0.0009545 0.0281238 0.9990455 -0.0281238
10527 0.9989631 -0.0294051 0.0010369 0.0294051 0.0010369 0.0294051 0.9989631 -0.0294051
11009 0.9988733 -0.0307444 0.0011267 0.0307444 0.0011267 0.0307444 0.9988733 -0.0307444
11514 0.9987754 -0.0321444 0.0012246 0.0321444 0.0012246 0.0321444 0.9987754 -0.0321444
12041 0.9986687 -0.0336076 0.0013313 0.0336076 0.0013313 0.0336076 0.9986687 -0.0336076
12592 0.9985523 -0.0351370 0.0014477 0.0351370 0.0014477 0.0351370 0.9985523 -0.0351370
13169 0.9984254 -0.0367354 0.0015746 0.0367354 0.0015746 0.0367354 0.9984254 -0.0367354
13772 0.9982871 -0.0384059 0.0017129 0.0384059 0.0017129 0.0384059 0.9982871 -0.0384059
14402 0.9981363 -0.0401516 0.0018637 0.0401516 0.0018637 0.0401516 0.9981363 -0.0401516
15062 0.9979719 -0.0419758 0.0020281 0.0419758 0.0020281 0.0419758 0.9979719 -0.0419758
15752 0.9977928 -0.0438821 0.0022072 0.0438821 0.0022072 0.0438821 0.9977928 -0.0438821
16473 0.9975976 -0.0458738 0.0024024 0.0458738 0.0024024 0.0458738 0.9975976 -0.0458738
17227 0.9973850 -0.0479549 0.0026150 0.0479549 0.0026150 0.0479549 0.9973850 -0.0479549
18016 0.9971532 -0.0501290 0.0028468 0.0501290 0.0028468 0.0501290 0.9971532 -0.0501290
18841 0.9969008 -0.0524004 0.0030992 0.0524004 0.0030992 0.0524004 0.9969008 -0.0524004
19704 0.9966257 -0.0547731 0.0033743 0.0547731 0.0033743 0.0547731 0.9966257 -0.0547731
20606 0.9963261 -0.0572515 0.0036739 0.0572515 0.0036739 0.0572515 0.9963261 -0.0572515
21550 0.9959997 -0.0598402 0.0040003 0.0598402 0.0040003 0.0598402 0.9959997 -0.0598402
22537 0.9956442 -0.0625437 0.0043558 0.0625437 0.0043558 0.0625437 0.9956442 -0.0625437
23569 0.9952569 -0.0653671 0.0047431 0.0653671 0.0047431 0.0653671 0.9952569 -0.0653671
24648 0.9948350 -0.0683152 0.0051650 0.0683152 0.0051650 0.0683152 0.9948350 -0.0683152
25777 0.9943755 -0.0713933 0.0056245 0.0713933 0.0056245 0.0713933 0.9943755 -0.0713933
26957 0.9938750 -0.0746068 0.0061250 0.0746068 0.0061250 0.0746068 0.9938750 -0.0746068
28191 0.9933298 -0.0779612 0.0066702 0.0779612 0.0066702 0.0779612 0.9933298 -0.0779612
29482 0.9927359 -0.0814622 0.0072641 0.0814622 0.0072641 0.0814622 0.9927359 -0.0814622
30832 0.9920890 -0.0851158 0.0079110 0.0851158 0.0079110 0.0851158 0.9920890 -0.0851158
32244 0.9913843 -0.0889279 0.0086157 0.0889279 0.0086157 0.0889279 0.9913843 -0.0889279
33721 0.9906167 -0.0929047 0.0093833 0.0929047 0.0093833 0.0929047 0.9906167 -0.0929047
35265 0.9897806 -0.0970526 0.0102194 0.0970526 0.0102194 0.0970526 0.9897806 -0.0970526
36880 0.9888699 -0.1013779 0.0111301 0.1013779 0.0111301 0.1013779 0.9888699 -0.1013779
38569 0.9878780 -0.1058872 0.0121220 0.1058872 0.0121220 0.1058872 0.9878780 -0.1058872
40335 0.9867977 -0.1105871 0.0132023 0.1105871 0.0132023 0.1105871 0.9867977 -0.1105871
42182 0.9856212 -0.1154842 0.0143788 0.1154842 0.0143788 0.1154842 0.9856212 -0.1154842
44113 0.9843401 -0.1205853 0.0156599 0.1205853 0.0156599 0.1205853 0.9843401 -0.1205853
46134 0.9829453 -0.1258969 0.0170547 0.1258969 0.0170547 0.1258969 0.9829453 -0.1258969
48246 0.9814269 -0.1314258 0.0185731 0.1314258 0.0185731 0.1314258 0.9814269 -0.1314258
50455 0.9797743 -0.1371785 0.0202257 0.1371785 0.0202257 0.1371785 0.9797743 -0.1371785
52766 0.9779759 -0.1431612 0.0220241 0.1431612 0.0220241 0.1431612 0.9779759 -0.1431612
55182 0.9760194 -0.1493801 0.0239806 0.1493801 0.0239806 0.1493801 0.9760194 -0.1493801
57709 0.9738916 -0.1558410 0.0261084 0.1558410 0.0261084 0.1558410 0.9738916 -0.1558410
60352 0.9715781 -0.1625495 0.0284219 0.1625495 0.0284219 0.1625495 0.9715781 -0.1625495
63115 0.9690636 -0.1695105 0.0309364 0.1695105 0.0309364 0.1695105 0.9690636 -0.1695105
66005 0.9663318 -0.1767284 0.0336682 0.1767284 0.0336682 0.1767284 0.9663318 -0.1767284
69028 0.9633652 -0.1842071 0.0366348 0.1842071 0.0366348 0.1842071 0.9633652 -0.1842071
72189 0.9601451 -0.1919493 0.0398549 0.1919493 0.0398549 0.1919493 0.9601451 -0.1919493
75495 0.9566518 -0.1999571 0.0433482 0.1999571 0.0433482 0.1999571 0.9566518 -0.1999571
78952 0.9528643 -0.2082313 0.0471357 0.2082313 0.0471357 0.2082313 0.9528643 -0.2082313
82567 0.9487605 -0.2167716 0.0512395 0.2167716 0.0512395 0.2167716 0.9487605 -0.2167716
86348 0.9443171 -0.2255758 0.0556829 0.2255758 0.0556829 0.2255758 0.9443171 -0.2255758
90302 0.9395097 -0.2346406 0.0604903 0.2346406 0.0604903 0.2346406 0.9395097 -0.2346406
94437 0.9343128 -0.2439602 0.0656872 0.2439602 0.0656872 0.2439602 0.9343128 -0.2439602
98762 0.9287000 -0.2535273 0.0713000 0.2535273 0.0713000 0.2535273 0.9287000 -0.2535273
103284 0.9226439 -0.2633317 0.0773561 0.2633317 0.0773561 0.2633317 0.9226439 -0.2633317
108014 0.9161165 -0.2733608 0.0838835 0.2733608 0.0838835 0.2733608 0.9161165 -0.2733608
112960 0.9090892 -0.2835993 0.0909108 0.2835993 0.0909108 0.2835993 0.9090892 -0.2835993
118133 0.9015334 -0.2940287 0.0984666 0.2940287 0.0984666 0.2940287 0.9015334 -0.2940287
123542 0.8934200 -0.3046270 0.1065800 0.3046270 0.1065800 0.3046270 0.8934200 -0.3046270
129199 0.8847207 -0.3153690 0.1152793 0.3153690 0.1152793 0.3153690 0.8847207 -0.3153690
135116 0.8754076 -0.3262255 0.1245924 0.3262255 0.1245924 0.3262255 0.8754076 -0.3262255
141303 0.8654542 -0.3371635 0.1345458 0.3371635 0.1345458 0.3371635 0.8654542 -0.3371635
147774 0.8548353 -0.3481461 0.1451647 0.3481461 0.1451647 0.3481461 0.8548353 -0.3481461
154540 0.8435282 -0.3591321 0.1564718 0.3591321 0.1564718 0.3591321 0.8435282 -0.3591321
161617 0.8315127 -0.3700765 0.1684873 0.3700765 0.1684873 0.3700765 0.8315127 -0.3700765
169018 0.8187721 -0.3809303 0.1812279 0.3809303 0.1812279 0.3809303 0.8187721 -0.3809303
176758 0.8052937 -0.3916407 0.1947063 0.3916407 0.1947063 0.3916407 0.8052937 -0.3916407
184852 0.7910692 -0.4021515 0.2089308 0.4021515 0.2089308 0.4021515 0.7910692 -0.4021515
193316 0.7760958 -0.4124034 0.2239042 0.4124034 0.2239042 0.4124034 0.7760958 -0.4124034
202169 0.7603765 -0.4223346 0.2396235 0.4223346 0.2396235 0.4223346 0.7603765 -0.4223346
211427 0.7439206 -0.4318813 0.2560794 0.4318813 0.2560794 0.4318813 0.7439206 -0.4318813
221108 0.7267444 -0.4409788 0.2732556 0.4409788 0.2732556 0.4409788 0.7267444 -0.4409788
231233 0.7088715 -0.4495620 0.2911285 0.4495620 0.2911285 0.4495620 0.7088715 -0.4495620
241822 0.6903329 -0.4575663 0.3096671 0.4575663 0.3096671 0.4575663 0.6903329 -0.4575663
252896 0.6711674 -0.4649290 0.3288326 0.4649290 0.3288326 0.4649290 0.6711674 -0.4649290
264476 0.6514213 -0.4715901 0.3485787 0.4715901 0.3485787 0.4715901 0.6514213 -0.4715901
276587 0.6311484 -0.4774936 0.3688516 0.4774936 0.3688516 0.4774936 0.6311484 -0.4774936
289253 0.6104093 -0.4825883 0.3895907 0.4825883 0.3895907 0.4825883 0.6104093 -0.4825883
302498 0.5892710 -0.4868288 0.4107290 0.4868288 0.4107290 0.4868288 0.5892710 -0.4868288
316350 0.5678061 -0.4901770 0.4321939 0.4901770 0.4321939 0.4901770 0.5678061 -0.4901770
330837 0.5460919 -0.4926021 0.4539081 0.4926021 0.4539081 0.4926021 0.5460919 -0.4926021
345986 0.5242092 -0.4940821 0.4757908 0.4940821 0.4757908 0.4940821 0.5242092 -0.4940821
361830 0.5022413 -0.4946034 0.4977587 0.4946034 0.4977587 0.4946034 0.5022413 -0.4946034
378399 0.4802726 -0.4941617 0.5197274 0.4941617 0.5197274 0.4941617 0.4802726 -0.4941617
395726 0.4583873 -0.4927621 0.5416127 0.4927621 0.5416127 0.4927621 0.4583873 -0.4927621
413847 0.4366684 -0.4904185 0.5633316 0.4904185 0.5633316 0.4904185 0.4366684 -0.4904185
432798 0.4151961 -0.4871537 0.5848039 0.4871537 0.5848039 0.4871537 0.4151961 -0.4871537
452617 0.3940470 -0.4829985 0.6059530 0.4829985 0.6059530 0.4829985 0.3940470 -0.4829985
473344 0.3732930 -0.4779912 0.6267070 0.4779912 0.6267070 0.4779912 0.3732930 -0.4779912
495019 0.3530002 -0.4721771 0.6469998 0.4721771 0.6469998 0.4721771 0.3530002 -0.4721771
517687 0.3332285 -0.4656068 0.6667715 0.4656068 0.6667715 0.4656068 0.3332285 -0.4656068
541393 0.3140309 -0.4583359 0.6859691 0.4583359 0.6859691 0.4583359 0.3140309 -0.4583359
566185 0.2954531 -0.4504236 0.7045469 0.4504236 0.7045469 0.4504236 0.2954531 -0.4504236
592111 0.2775335 -0.4419317 0.7224665 0.4419317 0.7224665 0.4419317 0.2775335 -0.4419317
619225 0.2603030 -0.4329236 0.7396970 0.4329236 0.7396970 0.4329236 0.2603030 -0.4329236
647581 0.2437851 -0.4234634 0.7562149 0.4234634 0.7562149 0.4234634 0.2437851 -0.4234634
677235 0.2279965 -0.4136148 0.7720035 0.4136148 0.7720035 0.4136148 0.2279965 -0.4136148
708247 0.2129468 -0.4034407 0.7870532 0.4034407 0.7870532 0.4034407 0.2129468 -0.4034407
740679 0.1986398 -0.3930019 0.8013602 0.3930019 0.8013602 0.3930019 0.1986398 -0.3930019
774597 0.1850732 -0.3823568 0.8149268 0.3823568 0.8149268 0.3823568 0.1850732 -0.3823568
810067 0.1722399 -0.3715613 0.8277601 0.3715613 0.8277601 0.3715613 0.1722399 -0.3715613
847162 0.1601279 -0.3606676 0.8398721 0.3606676 0.8398721 0.3606676 0.1601279 -0.3606676
885955 0.1487216 -0.3497244 0.8512784 0.3497244 0.8512784 0.3497244 0.1487216 -0.3497244
926525 0.1380019 -0.3387768 0.8619981 0.3387768 0.8619981 0.3387768 0.1380019 -0.3387768
968953 0.1279467 -0.3278659 0.8720533 0.3278659 0.8720533 0.3278659 0.1279467 -0.3278659
1013323 0.1185322 -0.3170288 0.8814678 0.3170288 0.8814678 0.3170288 0.1185322 -0.3170288
1059725 0.1097324 -0.3062989 0.8902676 0.3062989 0.8902676 0.3062989 0.1097324 -0.3062989
1108252 0.1015204 -0.2957057 0.8984796 0.2957057 0.8984796 0.2957057 0.1015204 -0.2957057
1159002 0.0938683 -0.2852752 0.9061317 0.2852752 0.9061317 0.2852752 0.0938683 -0.2852752
1212075 0.0867477 -0.2750297 0.9132523 0.2750297 0.9132523 0.2750297 0.0867477 -0.2750297
1267578 0.0801304 -0.2649884 0.9198696 0.2649884 0.9198696 0.2649884 0.0801304 -0.2649884
1325623 0.0739881 -0.2551673 0.9260119 0.2551673 0.9260119 0.2551673 0.0739881 -0.2551673
1386327 0.0682929 -0.2455796 0.9317071 0.2455796 0.9317071 0.2455796 0.0682929 -0.2455796
1449809 0.0630178 -0.2362359 0.9369822 0.2362359 0.9369822 0.2362359 0.0630178 -0.2362359
1516199 0.0581363 -0.2271443 0.9418637 0.2271443 0.9418637 0.2271443 0.0581363 -0.2271443
1585629 0.0536230 -0.2183111 0.9463770 0.2183111 0.9463770 0.2183111 0.0536230 -0.2183111
1658239 0.0494532 -0.2097402 0.9505468 0.2097402 0.9505468 0.2097402 0.0494532 -0.2097402
1734173 0.0456037 -0.2014341 0.9543963 0.2014341 0.9543963 0.2014341 0.0456037 -0.2014341
1813585 0.0420520 -0.1933935 0.9579480 0.1933935 0.9579480 0.1933935 0.0420520 -0.1933935
1896632 0.0387770 -0.1856180 0.9612230 0.1856180 0.9612230 0.1856180 0.0387770 -0.1856180
1983483 0.0357588 -0.1781060 0.9642412 0.1781060 0.9642412 0.1781060 0.0357588 -0.1781060
2074311 0.0329784 -0.1708547 0.9670216 0.1708547 0.9670216 0.1708547 0.0329784 -0.1708547
