!Murata Part Number: GRM033B10J333KE01
!These Parameters are Measured in Series Mode Connection
!Data Generated on Mar 30, 2021
!       o--ll--o
!Port1            Port2
!       o------o
!Operation Temp=25[degC], DC Bias Voltage=0[V]
!Freq. Start=100[Hz] Stop=6[GHz] 401[Steps]
# Hz S RI R 50
!Freq.(Hz) S11(Real) S11(Imag) S21(Real) S21(Imag) S12(Real) S12(Imag) S22(Real) S22(Imag)
100 0.9999775 -0.0019320 0.0000225 0.0019320 0.0000225 0.0019320 0.9999775 -0.0019320
105 0.9999764 -0.0020199 0.0000236 0.0020199 0.0000236 0.0020199 0.9999764 -0.0020199
109 0.9999753 -0.0021117 0.0000247 0.0021117 0.0000247 0.0021117 0.9999753 -0.0021117
114 0.9999741 -0.0022078 0.0000259 0.0022078 0.0000259 0.0022078 0.9999741 -0.0022078
120 0.9999729 -0.0023083 0.0000271 0.0023083 0.0000271 0.0023083 0.9999729 -0.0023083
125 0.9999715 -0.0024134 0.0000285 0.0024134 0.0000285 0.0024134 0.9999715 -0.0024134
131 0.9999701 -0.0025232 0.0000299 0.0025232 0.0000299 0.0025232 0.9999701 -0.0025232
137 0.9999686 -0.0026381 0.0000314 0.0026381 0.0000314 0.0026381 0.9999686 -0.0026381
143 0.9999670 -0.0027582 0.0000330 0.0027582 0.0000330 0.0027582 0.9999670 -0.0027582
150 0.9999653 -0.0028837 0.0000347 0.0028837 0.0000347 0.0028837 0.9999653 -0.0028837
156 0.9999635 -0.0030150 0.0000365 0.0030150 0.0000365 0.0030150 0.9999635 -0.0030150
164 0.9999616 -0.0031523 0.0000384 0.0031523 0.0000384 0.0031523 0.9999616 -0.0031523
171 0.9999595 -0.0032958 0.0000405 0.0032958 0.0000405 0.0032958 0.9999595 -0.0032958
179 0.9999573 -0.0034459 0.0000427 0.0034459 0.0000427 0.0034459 0.9999573 -0.0034459
187 0.9999549 -0.0036028 0.0000451 0.0036028 0.0000451 0.0036028 0.9999549 -0.0036028
196 0.9999524 -0.0037668 0.0000476 0.0037668 0.0000476 0.0037668 0.9999524 -0.0037668
205 0.9999497 -0.0039383 0.0000503 0.0039383 0.0000503 0.0039383 0.9999497 -0.0039383
214 0.9999468 -0.0041177 0.0000532 0.0041177 0.0000532 0.0041177 0.9999468 -0.0041177
224 0.9999437 -0.0043052 0.0000563 0.0043052 0.0000563 0.0043052 0.9999437 -0.0043052
234 0.9999404 -0.0045012 0.0000596 0.0045012 0.0000596 0.0045012 0.9999404 -0.0045012
245 0.9999369 -0.0047061 0.0000631 0.0047061 0.0000631 0.0047061 0.9999369 -0.0047061
256 0.9999331 -0.0049204 0.0000669 0.0049204 0.0000669 0.0049204 0.9999331 -0.0049204
268 0.9999291 -0.0051444 0.0000709 0.0051444 0.0000709 0.0051444 0.9999291 -0.0051444
280 0.9999248 -0.0053787 0.0000752 0.0053787 0.0000752 0.0053787 0.9999248 -0.0053787
293 0.9999202 -0.0056235 0.0000798 0.0056235 0.0000798 0.0056235 0.9999202 -0.0056235
306 0.9999153 -0.0058796 0.0000847 0.0058796 0.0000847 0.0058796 0.9999153 -0.0058796
320 0.9999100 -0.0061473 0.0000900 0.0061473 0.0000900 0.0061473 0.9999100 -0.0061473
335 0.9999043 -0.0064272 0.0000957 0.0064272 0.0000957 0.0064272 0.9999043 -0.0064272
350 0.9998982 -0.0067199 0.0001018 0.0067199 0.0001018 0.0067199 0.9998982 -0.0067199
366 0.9998917 -0.0070258 0.0001083 0.0070258 0.0001083 0.0070258 0.9998917 -0.0070258
383 0.9998846 -0.0073458 0.0001154 0.0073458 0.0001154 0.0073458 0.9998846 -0.0073458
401 0.9998771 -0.0076803 0.0001229 0.0076803 0.0001229 0.0076803 0.9998771 -0.0076803
419 0.9998689 -0.0080300 0.0001311 0.0080300 0.0001311 0.0080300 0.9998689 -0.0080300
438 0.9998602 -0.0083957 0.0001398 0.0083957 0.0001398 0.0083957 0.9998602 -0.0083957
458 0.9998507 -0.0087780 0.0001493 0.0087780 0.0001493 0.0087780 0.9998507 -0.0087780
479 0.9998406 -0.0091777 0.0001594 0.0091777 0.0001594 0.0091777 0.9998406 -0.0091777
501 0.9998296 -0.0095956 0.0001704 0.0095956 0.0001704 0.0095956 0.9998296 -0.0095956
524 0.9998177 -0.0100326 0.0001823 0.0100326 0.0001823 0.0100326 0.9998177 -0.0100326
548 0.9998049 -0.0104894 0.0001951 0.0104894 0.0001951 0.0104894 0.9998049 -0.0104894
573 0.9997911 -0.0109670 0.0002089 0.0109670 0.0002089 0.0109670 0.9997911 -0.0109670
600 0.9997762 -0.0114664 0.0002238 0.0114664 0.0002238 0.0114664 0.9997762 -0.0114664
627 0.9997600 -0.0119885 0.0002400 0.0119885 0.0002400 0.0119885 0.9997600 -0.0119885
656 0.9997426 -0.0125343 0.0002574 0.0125343 0.0002574 0.0125343 0.9997426 -0.0125343
686 0.9997237 -0.0131049 0.0002763 0.0131049 0.0002763 0.0131049 0.9997237 -0.0131049
717 0.9997033 -0.0137015 0.0002967 0.0137015 0.0002967 0.0137015 0.9997033 -0.0137015
750 0.9996812 -0.0143252 0.0003188 0.0143252 0.0003188 0.0143252 0.9996812 -0.0143252
784 0.9996573 -0.0149772 0.0003427 0.0149772 0.0003427 0.0149772 0.9996573 -0.0149772
820 0.9996315 -0.0156589 0.0003685 0.0156589 0.0003685 0.0156589 0.9996315 -0.0156589
858 0.9996035 -0.0163715 0.0003965 0.0163715 0.0003965 0.0163715 0.9996035 -0.0163715
897 0.9995732 -0.0171165 0.0004268 0.0171165 0.0004268 0.0171165 0.9995732 -0.0171165
938 0.9995404 -0.0178953 0.0004596 0.0178953 0.0004596 0.0178953 0.9995404 -0.0178953
981 0.9995049 -0.0187095 0.0004951 0.0187095 0.0004951 0.0187095 0.9995049 -0.0187095
1026 0.9994665 -0.0195607 0.0005335 0.0195607 0.0005335 0.0195607 0.9994665 -0.0195607
1073 0.9994249 -0.0204505 0.0005751 0.0204505 0.0005751 0.0204505 0.9994249 -0.0204505
1122 0.9993798 -0.0213808 0.0006202 0.0213808 0.0006202 0.0213808 0.9993798 -0.0213808
1174 0.9993309 -0.0223533 0.0006691 0.0223533 0.0006691 0.0223533 0.9993309 -0.0223533
1227 0.9992779 -0.0233701 0.0007221 0.0233701 0.0007221 0.0233701 0.9992779 -0.0233701
1283 0.9992204 -0.0244329 0.0007796 0.0244329 0.0007796 0.0244329 0.9992204 -0.0244329
1342 0.9991581 -0.0255441 0.0008419 0.0255441 0.0008419 0.0255441 0.9991581 -0.0255441
1404 0.9990904 -0.0267058 0.0009096 0.0267058 0.0009096 0.0267058 0.9990904 -0.0267058
1468 0.9990170 -0.0279202 0.0009830 0.0279202 0.0009830 0.0279202 0.9990170 -0.0279202
1535 0.9989371 -0.0291898 0.0010629 0.0291898 0.0010629 0.0291898 0.9989371 -0.0291898
1606 0.9988504 -0.0305170 0.0011496 0.0305170 0.0011496 0.0305170 0.9988504 -0.0305170
1679 0.9987561 -0.0319045 0.0012439 0.0319045 0.0012439 0.0319045 0.9987561 -0.0319045
1756 0.9986536 -0.0333550 0.0013464 0.0333550 0.0013464 0.0333550 0.9986536 -0.0333550
1836 0.9985420 -0.0348712 0.0014580 0.0348712 0.0014580 0.0348712 0.9985420 -0.0348712
1920 0.9984205 -0.0364563 0.0015795 0.0364563 0.0015795 0.0364563 0.9984205 -0.0364563
2008 0.9982883 -0.0381132 0.0017117 0.0381132 0.0017117 0.0381132 0.9982883 -0.0381132
2100 0.9981442 -0.0398451 0.0018558 0.0398451 0.0018558 0.0398451 0.9981442 -0.0398451
2196 0.9979872 -0.0416555 0.0020128 0.0416555 0.0020128 0.0416555 0.9979872 -0.0416555
2297 0.9978162 -0.0435477 0.0021838 0.0435477 0.0021838 0.0435477 0.9978162 -0.0435477
2402 0.9976297 -0.0455253 0.0023703 0.0455253 0.0023703 0.0455253 0.9976297 -0.0455253
2512 0.9974263 -0.0475922 0.0025737 0.0475922 0.0025737 0.0475922 0.9974263 -0.0475922
2627 0.9972045 -0.0497523 0.0027955 0.0497523 0.0027955 0.0497523 0.9972045 -0.0497523
2748 0.9969626 -0.0520095 0.0030374 0.0520095 0.0030374 0.0520095 0.9969626 -0.0520095
2873 0.9966986 -0.0543682 0.0033014 0.0543682 0.0033014 0.0543682 0.9966986 -0.0543682
3005 0.9964106 -0.0568326 0.0035894 0.0568326 0.0035894 0.0568326 0.9964106 -0.0568326
3143 0.9960963 -0.0594073 0.0039037 0.0594073 0.0039037 0.0594073 0.9960963 -0.0594073
3287 0.9957534 -0.0620969 0.0042466 0.0620969 0.0042466 0.0620969 0.9957534 -0.0620969
3437 0.9953792 -0.0649064 0.0046208 0.0649064 0.0046208 0.0649064 0.9953792 -0.0649064
3594 0.9949707 -0.0678408 0.0050293 0.0678408 0.0050293 0.0678408 0.9949707 -0.0678408
3759 0.9945251 -0.0709051 0.0054749 0.0709051 0.0054749 0.0709051 0.9945251 -0.0709051
3931 0.9940387 -0.0741048 0.0059613 0.0741048 0.0059613 0.0741048 0.9940387 -0.0741048
4111 0.9935080 -0.0774453 0.0064920 0.0774453 0.0064920 0.0774453 0.9935080 -0.0774453
4299 0.9929289 -0.0809324 0.0070711 0.0809324 0.0070711 0.0809324 0.9929289 -0.0809324
4496 0.9922972 -0.0845717 0.0077028 0.0845717 0.0077028 0.0845717 0.9922972 -0.0845717
4702 0.9916080 -0.0883694 0.0083920 0.0883694 0.0083920 0.0883694 0.9916080 -0.0883694
4918 0.9908563 -0.0923315 0.0091437 0.0923315 0.0091437 0.0923315 0.9908563 -0.0923315
5143 0.9900365 -0.0964641 0.0099635 0.0964641 0.0099635 0.0964641 0.9900365 -0.0964641
5378 0.9891426 -0.1007738 0.0108574 0.1007738 0.0108574 0.1007738 0.9891426 -0.1007738
5625 0.9881680 -0.1052669 0.0118320 0.1052669 0.0118320 0.1052669 0.9881680 -0.1052669
5882 0.9871057 -0.1099499 0.0128943 0.1099499 0.0128943 0.1099499 0.9871057 -0.1099499
6151 0.9859480 -0.1148295 0.0140520 0.1148295 0.0140520 0.1148295 0.9859480 -0.1148295
6433 0.9846867 -0.1199123 0.0153133 0.1199123 0.0153133 0.1199123 0.9846867 -0.1199123
6728 0.9833127 -0.1252049 0.0166873 0.1252049 0.0166873 0.1252049 0.9833127 -0.1252049
7036 0.9818164 -0.1307139 0.0181836 0.1307139 0.0181836 0.1307139 0.9818164 -0.1307139
7358 0.9801874 -0.1364458 0.0198126 0.1364458 0.0198126 0.1364458 0.9801874 -0.1364458
7695 0.9784145 -0.1424069 0.0215855 0.1424069 0.0215855 0.1424069 0.9784145 -0.1424069
8047 0.9764854 -0.1486036 0.0235146 0.1486036 0.0235146 0.1486036 0.9764854 -0.1486036
8416 0.9743871 -0.1550416 0.0256129 0.1550416 0.0256129 0.1550416 0.9743871 -0.1550416
8801 0.9721057 -0.1617267 0.0278943 0.1617267 0.0278943 0.1617267 0.9721057 -0.1617267
9204 0.9696262 -0.1686639 0.0303738 0.1686639 0.0303738 0.1686639 0.9696262 -0.1686639
9626 0.9669323 -0.1758579 0.0330677 0.1758579 0.0330677 0.1758579 0.9669323 -0.1758579
10066 0.9640070 -0.1833126 0.0359930 0.1833126 0.0359930 0.1833126 0.9640070 -0.1833126
10527 0.9608319 -0.1910315 0.0391681 0.1910315 0.0391681 0.1910315 0.9608319 -0.1910315
11009 0.9573874 -0.1990167 0.0426126 0.1990167 0.0426126 0.1990167 0.9573874 -0.1990167
11514 0.9536529 -0.2072695 0.0463471 0.2072695 0.0463471 0.2072695 0.9536529 -0.2072695
12041 0.9496063 -0.2157899 0.0503937 0.2157899 0.0503937 0.2157899 0.9496063 -0.2157899
12592 0.9452247 -0.2245767 0.0547753 0.2245767 0.0547753 0.2245767 0.9452247 -0.2245767
13169 0.9404837 -0.2336267 0.0595163 0.2336267 0.0595163 0.2336267 0.9404837 -0.2336267
13772 0.9353579 -0.2429351 0.0646421 0.2429351 0.0646421 0.2429351 0.9353579 -0.2429351
14402 0.9298208 -0.2524950 0.0701792 0.2524950 0.0701792 0.2524950 0.9298208 -0.2524950
15062 0.9238451 -0.2622971 0.0761549 0.2622971 0.0761549 0.2622971 0.9238451 -0.2622971
15752 0.9174025 -0.2723296 0.0825975 0.2723296 0.0825975 0.2723296 0.9174025 -0.2723296
16473 0.9104643 -0.2825780 0.0895357 0.2825780 0.0895357 0.2825780 0.9104643 -0.2825780
17227 0.9030013 -0.2930245 0.0969987 0.2930245 0.0969987 0.2930245 0.9030013 -0.2930245
18016 0.8949841 -0.3036482 0.1050159 0.3036482 0.1050159 0.3036482 0.8949841 -0.3036482
18841 0.8863835 -0.3144246 0.1136165 0.3144246 0.1136165 0.3144246 0.8863835 -0.3144246
19704 0.8771711 -0.3253253 0.1228289 0.3253253 0.1228289 0.3253253 0.8771711 -0.3253253
20606 0.8673193 -0.3363181 0.1326807 0.3363181 0.1326807 0.3363181 0.8673193 -0.3363181
21550 0.8568019 -0.3473668 0.1431981 0.3473668 0.1431981 0.3473668 0.8568019 -0.3473668
22537 0.8455949 -0.3584309 0.1544051 0.3584309 0.1544051 0.3584309 0.8455949 -0.3584309
23569 0.8336767 -0.3694658 0.1663233 0.3694658 0.1663233 0.3694658 0.8336767 -0.3694658
24648 0.8210292 -0.3804227 0.1789708 0.3804227 0.1789708 0.3804227 0.8210292 -0.3804227
25777 0.8076377 -0.3912491 0.1923623 0.3912491 0.1923623 0.3912491 0.8076377 -0.3912491
26957 0.7934924 -0.4018886 0.2065076 0.4018886 0.2065076 0.4018886 0.7934924 -0.4018886
28191 0.7785886 -0.4122815 0.2214114 0.4122815 0.2214114 0.4122815 0.7785886 -0.4122815
29482 0.7629273 -0.4223654 0.2370727 0.4223654 0.2370727 0.4223654 0.7629273 -0.4223654
30832 0.7465161 -0.4320755 0.2534839 0.4320755 0.2534839 0.4320755 0.7465161 -0.4320755
32244 0.7293695 -0.4413458 0.2706305 0.4413458 0.2706305 0.4413458 0.7293695 -0.4413458
33721 0.7115093 -0.4501095 0.2884907 0.4501095 0.2884907 0.4501095 0.7115093 -0.4501095
35265 0.6929652 -0.4583001 0.3070348 0.4583001 0.3070348 0.4583001 0.6929652 -0.4583001
36880 0.6737747 -0.4658528 0.3262253 0.4658528 0.3262253 0.4658528 0.6737747 -0.4658528
38569 0.6539834 -0.4727051 0.3460166 0.4727051 0.3460166 0.4727051 0.6539834 -0.4727051
40335 0.6336443 -0.4787981 0.3663557 0.4787981 0.3663557 0.4787981 0.6336443 -0.4787981
42182 0.6128181 -0.4840779 0.3871819 0.4840779 0.3871819 0.4840779 0.6128181 -0.4840779
44113 0.5915722 -0.4884964 0.4084278 0.4884964 0.4084278 0.4884964 0.5915722 -0.4884964
46134 0.5699801 -0.4920125 0.4300199 0.4920125 0.4300199 0.4920125 0.5699801 -0.4920125
48246 0.5481203 -0.4945929 0.4518797 0.4945929 0.4518797 0.4945929 0.5481203 -0.4945929
50455 0.5260756 -0.4962128 0.4739244 0.4962128 0.4739244 0.4962128 0.5260756 -0.4962128
52766 0.5039314 -0.4968567 0.4960686 0.4968567 0.4960686 0.4968567 0.5039314 -0.4968567
55182 0.4817745 -0.4965185 0.5182255 0.4965185 0.5182255 0.4965185 0.4817745 -0.4965185
57709 0.4596921 -0.4952019 0.5403079 0.4952019 0.5403079 0.4952019 0.4596921 -0.4952019
60352 0.4377701 -0.4929199 0.5622299 0.4929199 0.5622299 0.4929199 0.4377701 -0.4929199
63115 0.4160918 -0.4896950 0.5839082 0.4896950 0.5839082 0.4896950 0.4160918 -0.4896950
66005 0.3947368 -0.4855582 0.6052632 0.4855582 0.6052632 0.4855582 0.3947368 -0.4855582
69028 0.3737798 -0.4805485 0.6262202 0.4805485 0.6262202 0.4805485 0.3737798 -0.4805485
72189 0.3532897 -0.4747122 0.6467103 0.4747122 0.6467103 0.4747122 0.3532897 -0.4747122
75495 0.3333288 -0.4681015 0.6666712 0.4681015 0.6666712 0.4681015 0.3333288 -0.4681015
78952 0.3139521 -0.4607736 0.6860479 0.4607736 0.6860479 0.4607736 0.3139521 -0.4607736
82567 0.2952071 -0.4527899 0.7047929 0.4527899 0.7047929 0.4527899 0.2952071 -0.4527899
86348 0.2771334 -0.4442143 0.7228666 0.4442143 0.7228666 0.4442143 0.2771334 -0.4442143
90302 0.2597628 -0.4351126 0.7402372 0.4351126 0.7402372 0.4351126 0.2597628 -0.4351126
94437 0.2431195 -0.4255510 0.7568805 0.4255510 0.7568805 0.4255510 0.2431195 -0.4255510
98762 0.2272199 -0.4155955 0.7727801 0.4155955 0.7727801 0.4155955 0.2272199 -0.4155955
103284 0.2120738 -0.4053110 0.7879262 0.4053110 0.7879262 0.4053110 0.2120738 -0.4053110
108014 0.1976844 -0.3947602 0.8023156 0.3947602 0.8023156 0.3947602 0.1976844 -0.3947602
112960 0.1840487 -0.3840034 0.8159513 0.3840034 0.8159513 0.3840034 0.1840487 -0.3840034
118133 0.1711586 -0.3730978 0.8288414 0.3730978 0.8288414 0.3730978 0.1711586 -0.3730978
123542 0.1590013 -0.3620967 0.8409987 0.3620967 0.8409987 0.3620967 0.1590013 -0.3620967
129199 0.1475599 -0.3510502 0.8524401 0.3510502 0.8524401 0.3510502 0.1475599 -0.3510502
135116 0.1368141 -0.3400039 0.8631859 0.3400039 0.8631859 0.3400039 0.1368141 -0.3400039
141303 0.1267410 -0.3289995 0.8732590 0.3289995 0.8732590 0.3289995 0.1267410 -0.3289995
147774 0.1173152 -0.3180747 0.8826848 0.3180747 0.8826848 0.3180747 0.1173152 -0.3180747
154540 0.1085100 -0.3072629 0.8914900 0.3072629 0.8914900 0.3072629 0.1085100 -0.3072629
161617 0.1002972 -0.2965938 0.8997028 0.2965938 0.8997028 0.2965938 0.1002972 -0.2965938
169018 0.0926480 -0.2860932 0.9073520 0.2860932 0.9073520 0.2860932 0.0926480 -0.2860932
176758 0.0855334 -0.2757833 0.9144666 0.2757833 0.9144666 0.2757833 0.0855334 -0.2757833
184852 0.0789241 -0.2656830 0.9210759 0.2656830 0.9210759 0.2656830 0.0789241 -0.2656830
193316 0.0727913 -0.2558080 0.9272087 0.2558080 0.9272087 0.2558080 0.0727913 -0.2558080
202169 0.0671067 -0.2461711 0.9328933 0.2461711 0.9328933 0.2461711 0.0671067 -0.2461711
211427 0.0618426 -0.2367827 0.9381574 0.2367827 0.9381574 0.2367827 0.0618426 -0.2367827
221108 0.0569722 -0.2276503 0.9430278 0.2276503 0.9430278 0.2276503 0.0569722 -0.2276503
231233 0.0524698 -0.2187797 0.9475302 0.2187797 0.9475302 0.2187797 0.0524698 -0.2187797
241822 0.0483105 -0.2101746 0.9516895 0.2101746 0.9516895 0.2101746 0.0483105 -0.2101746
252896 0.0444709 -0.2018370 0.9555291 0.2018370 0.9555291 0.2018370 0.0444709 -0.2018370
264476 0.0409286 -0.1937672 0.9590714 0.1937672 0.9590714 0.1937672 0.0409286 -0.1937672
276587 0.0376622 -0.1859645 0.9623378 0.1859645 0.9623378 0.1859645 0.0376622 -0.1859645
289253 0.0346519 -0.1784269 0.9653481 0.1784269 0.9653481 0.1784269 0.0346519 -0.1784269
302498 0.0318789 -0.1711514 0.9681211 0.1711514 0.9681211 0.1711514 0.0318789 -0.1711514
316350 0.0293254 -0.1641343 0.9706746 0.1641343 0.9706746 0.1641343 0.0293254 -0.1641343
330837 0.0269750 -0.1573710 0.9730250 0.1573710 0.9730250 0.1573710 0.0269750 -0.1573710
345986 0.0248122 -0.1508565 0.9751878 0.1508565 0.9751878 0.1508565 0.0248122 -0.1508565
361830 0.0228227 -0.1445853 0.9771773 0.1445853 0.9771773 0.1445853 0.0228227 -0.1445853
378399 0.0209931 -0.1385514 0.9790069 0.1385514 0.9790069 0.1385514 0.0209931 -0.1385514
395726 0.0193110 -0.1327488 0.9806890 0.1327488 0.9806890 0.1327488 0.0193110 -0.1327488
413847 0.0177648 -0.1271710 0.9822352 0.1271710 0.9822352 0.1271710 0.0177648 -0.1271710
432798 0.0163439 -0.1218114 0.9836561 0.1218114 0.9836561 0.1218114 0.0163439 -0.1218114
452617 0.0150384 -0.1166636 0.9849616 0.1166636 0.9849616 0.1166636 0.0150384 -0.1166636
473344 0.0138391 -0.1117207 0.9861609 0.1117207 0.9861609 0.1117207 0.0138391 -0.1117207
495019 0.0127376 -0.1069762 0.9872624 0.1069762 0.9872624 0.1069762 0.0127376 -0.1069762
517687 0.0117261 -0.1024233 0.9882739 0.1024233 0.9882739 0.1024233 0.0117261 -0.1024233
541393 0.0107973 -0.0980556 0.9892027 0.0980556 0.9892027 0.0980556 0.0107973 -0.0980556
566185 0.0099446 -0.0938665 0.9900554 0.0938665 0.9900554 0.0938665 0.0099446 -0.0938665
592111 0.0091618 -0.0898497 0.9908382 0.0898497 0.9908382 0.0898497 0.0091618 -0.0898497
619225 0.0084434 -0.0859988 0.9915566 0.0859988 0.9915566 0.0859988 0.0084434 -0.0859988
647581 0.0077840 -0.0823077 0.9922160 0.0823077 0.9922160 0.0823077 0.0077840 -0.0823077
677235 0.0071790 -0.0787705 0.9928210 0.0787705 0.9928210 0.0787705 0.0071790 -0.0787705
708247 0.0066238 -0.0753812 0.9933762 0.0753812 0.9933762 0.0753812 0.0066238 -0.0753812
740679 0.0061143 -0.0721343 0.9938857 0.0721343 0.9938857 0.0721343 0.0061143 -0.0721343
774597 0.0056469 -0.0690241 0.9943531 0.0690241 0.9943531 0.0690241 0.0056469 -0.0690241
810067 0.0052180 -0.0660454 0.9947820 0.0660454 0.9947820 0.0660454 0.0052180 -0.0660454
847162 0.0048245 -0.0631929 0.9951755 0.0631929 0.9951755 0.0631929 0.0048245 -0.0631929
885955 0.0044634 -0.0604615 0.9955366 0.0604615 0.9955366 0.0604615 0.0044634 -0.0604615
926525 0.0041321 -0.0578464 0.9958679 0.0578464 0.9958679 0.0578464 0.0041321 -0.0578464
968953 0.0038280 -0.0553430 0.9961720 0.0553430 0.9961720 0.0553430 0.0038280 -0.0553430
1013323 0.0035489 -0.0529465 0.9964511 0.0529465 0.9964511 0.0529465 0.0035489 -0.0529465
1059725 0.0032927 -0.0506526 0.9967073 0.0506526 0.9967073 0.0506526 0.0032927 -0.0506526
1108252 0.0030574 -0.0484572 0.9969426 0.0484572 0.9969426 0.0484572 0.0030574 -0.0484572
1159002 0.0028414 -0.0463560 0.9971586 0.0463560 0.9971586 0.0463560 0.0028414 -0.0463560
1212075 0.0026429 -0.0443452 0.9973571 0.0443452 0.9973571 0.0443452 0.0026429 -0.0443452
1267578 0.0024606 -0.0424210 0.9975394 0.0424210 0.9975394 0.0424210 0.0024606 -0.0424210
1325623 0.0022929 -0.0405796 0.9977071 0.0405796 0.9977071 0.0405796 0.0022929 -0.0405796
1386327 0.0021388 -0.0388177 0.9978612 0.0388177 0.9978612 0.0388177 0.0021388 -0.0388177
1449809 0.0019970 -0.0371318 0.9980030 0.0371318 0.9980030 0.0371318 0.0019970 -0.0371318
1516199 0.0018665 -0.0355186 0.9981335 0.0355186 0.9981335 0.0355186 0.0018665 -0.0355186
1585629 0.0017464 -0.0339751 0.9982536 0.0339751 0.9982536 0.0339751 0.0017464 -0.0339751
1658239 0.0016357 -0.0324983 0.9983643 0.0324983 0.9983643 0.0324983 0.0016357 -0.0324983
1734173 0.0015338 -0.0310852 0.9984662 0.0310852 0.9984662 0.0310852 0.0015338 -0.0310852
1813585 0.0014398 -0.0297332 0.9985602 0.0297332 0.9985602 0.0297332 0.0014398 -0.0297332
1896632 0.0013531 -0.0284396 0.9986469 0.0284396 0.9986469 0.0284396 0.0013531 -0.0284396
1983483 0.0012731 -0.0272018 0.9987269 0.0272018 0.9987269 0.0272018 0.0012731 -0.0272018
2074311 0.0011993 -0.0260175 0.9988007 0.0260175 0.9988007 0.0260175 0.0011993 -0.0260175
