!Murata Part Number: GRM033C81E103KE14
!These Parameters are Measured in Series Mode Connection
!Data Generated on Mar 30, 2021
!       o--ll--o
!Port1            Port2
!       o------o
!Operation Temp=25[degC], DC Bias Voltage=0[V]
!Freq. Start=100[Hz] Stop=6[GHz] 401[Steps]
# Hz S RI R 50
!Freq.(Hz) S11(Real) S11(Imag) S21(Real) S21(Imag) S12(Real) S12(Imag) S22(Real) S22(Imag)
100 0.9999959 -0.0006061 0.0000041 0.0006061 0.0000041 0.0006061 0.9999959 -0.0006061
105 0.9999957 -0.0006337 0.0000043 0.0006337 0.0000043 0.0006337 0.9999957 -0.0006337
109 0.9999955 -0.0006626 0.0000045 0.0006626 0.0000045 0.0006626 0.9999955 -0.0006626
114 0.9999953 -0.0006928 0.0000047 0.0006928 0.0000047 0.0006928 0.9999953 -0.0006928
120 0.9999951 -0.0007244 0.0000049 0.0007244 0.0000049 0.0007244 0.9999951 -0.0007244
125 0.9999948 -0.0007575 0.0000052 0.0007575 0.0000052 0.0007575 0.9999948 -0.0007575
131 0.9999946 -0.0007920 0.0000054 0.0007920 0.0000054 0.0007920 0.9999946 -0.0007920
137 0.9999944 -0.0008282 0.0000056 0.0008282 0.0000056 0.0008282 0.9999944 -0.0008282
143 0.9999941 -0.0008660 0.0000059 0.0008660 0.0000059 0.0008660 0.9999941 -0.0008660
150 0.9999938 -0.0009055 0.0000062 0.0009055 0.0000062 0.0009055 0.9999938 -0.0009055
156 0.9999935 -0.0009468 0.0000065 0.0009468 0.0000065 0.0009468 0.9999935 -0.0009468
164 0.9999932 -0.0009900 0.0000068 0.0009900 0.0000068 0.0009900 0.9999932 -0.0009900
171 0.9999929 -0.0010351 0.0000071 0.0010351 0.0000071 0.0010351 0.9999929 -0.0010351
179 0.9999925 -0.0010824 0.0000075 0.0010824 0.0000075 0.0010824 0.9999925 -0.0010824
187 0.9999921 -0.0011317 0.0000079 0.0011317 0.0000079 0.0011317 0.9999921 -0.0011317
196 0.9999917 -0.0011834 0.0000083 0.0011834 0.0000083 0.0011834 0.9999917 -0.0011834
205 0.9999913 -0.0012374 0.0000087 0.0012374 0.0000087 0.0012374 0.9999913 -0.0012374
214 0.9999909 -0.0012938 0.0000091 0.0012938 0.0000091 0.0012938 0.9999909 -0.0012938
224 0.9999904 -0.0013528 0.0000096 0.0013528 0.0000096 0.0013528 0.9999904 -0.0013528
234 0.9999899 -0.0014145 0.0000101 0.0014145 0.0000101 0.0014145 0.9999899 -0.0014145
245 0.9999894 -0.0014791 0.0000106 0.0014791 0.0000106 0.0014791 0.9999894 -0.0014791
256 0.9999888 -0.0015466 0.0000112 0.0015466 0.0000112 0.0015466 0.9999888 -0.0015466
268 0.9999882 -0.0016171 0.0000118 0.0016171 0.0000118 0.0016171 0.9999882 -0.0016171
280 0.9999876 -0.0016909 0.0000124 0.0016909 0.0000124 0.0016909 0.9999876 -0.0016909
293 0.9999869 -0.0017681 0.0000131 0.0017681 0.0000131 0.0017681 0.9999869 -0.0017681
306 0.9999862 -0.0018487 0.0000138 0.0018487 0.0000138 0.0018487 0.9999862 -0.0018487
320 0.9999855 -0.0019331 0.0000145 0.0019331 0.0000145 0.0019331 0.9999855 -0.0019331
335 0.9999847 -0.0020213 0.0000153 0.0020213 0.0000153 0.0020213 0.9999847 -0.0020213
350 0.9999839 -0.0021135 0.0000161 0.0021135 0.0000161 0.0021135 0.9999839 -0.0021135
366 0.9999830 -0.0022100 0.0000170 0.0022100 0.0000170 0.0022100 0.9999830 -0.0022100
383 0.9999820 -0.0023108 0.0000180 0.0023108 0.0000180 0.0023108 0.9999820 -0.0023108
401 0.9999810 -0.0024163 0.0000190 0.0024163 0.0000190 0.0024163 0.9999810 -0.0024163
419 0.9999799 -0.0025266 0.0000201 0.0025266 0.0000201 0.0025266 0.9999799 -0.0025266
438 0.9999787 -0.0026419 0.0000213 0.0026419 0.0000213 0.0026419 0.9999787 -0.0026419
458 0.9999774 -0.0027625 0.0000226 0.0027625 0.0000226 0.0027625 0.9999774 -0.0027625
479 0.9999761 -0.0028886 0.0000239 0.0028886 0.0000239 0.0028886 0.9999761 -0.0028886
501 0.9999746 -0.0030205 0.0000254 0.0030205 0.0000254 0.0030205 0.9999746 -0.0030205
524 0.9999731 -0.0031583 0.0000269 0.0031583 0.0000269 0.0031583 0.9999731 -0.0031583
548 0.9999714 -0.0033025 0.0000286 0.0033025 0.0000286 0.0033025 0.9999714 -0.0033025
573 0.9999696 -0.0034533 0.0000304 0.0034533 0.0000304 0.0034533 0.9999696 -0.0034533
600 0.9999676 -0.0036109 0.0000324 0.0036109 0.0000324 0.0036109 0.9999676 -0.0036109
627 0.9999655 -0.0037757 0.0000345 0.0037757 0.0000345 0.0037757 0.9999655 -0.0037757
656 0.9999632 -0.0039481 0.0000368 0.0039481 0.0000368 0.0039481 0.9999632 -0.0039481
686 0.9999608 -0.0041283 0.0000392 0.0041283 0.0000392 0.0041283 0.9999608 -0.0041283
717 0.9999582 -0.0043167 0.0000418 0.0043167 0.0000418 0.0043167 0.9999582 -0.0043167
750 0.9999553 -0.0045137 0.0000447 0.0045137 0.0000447 0.0045137 0.9999553 -0.0045137
784 0.9999523 -0.0047198 0.0000477 0.0047198 0.0000477 0.0047198 0.9999523 -0.0047198
820 0.9999490 -0.0049352 0.0000510 0.0049352 0.0000510 0.0049352 0.9999490 -0.0049352
858 0.9999454 -0.0051604 0.0000546 0.0051604 0.0000546 0.0051604 0.9999454 -0.0051604
897 0.9999416 -0.0053959 0.0000584 0.0053959 0.0000584 0.0053959 0.9999416 -0.0053959
938 0.9999375 -0.0056422 0.0000625 0.0056422 0.0000625 0.0056422 0.9999375 -0.0056422
981 0.9999330 -0.0058996 0.0000670 0.0058996 0.0000670 0.0058996 0.9999330 -0.0058996
1026 0.9999282 -0.0061688 0.0000718 0.0061688 0.0000718 0.0061688 0.9999282 -0.0061688
1073 0.9999230 -0.0064503 0.0000770 0.0064503 0.0000770 0.0064503 0.9999230 -0.0064503
1122 0.9999173 -0.0067446 0.0000827 0.0067446 0.0000827 0.0067446 0.9999173 -0.0067446
1174 0.9999113 -0.0070523 0.0000887 0.0070523 0.0000887 0.0070523 0.9999113 -0.0070523
1227 0.9999047 -0.0073741 0.0000953 0.0073741 0.0000953 0.0073741 0.9999047 -0.0073741
1283 0.9998976 -0.0077105 0.0001024 0.0077105 0.0001024 0.0077105 0.9998976 -0.0077105
1342 0.9998900 -0.0080622 0.0001100 0.0080622 0.0001100 0.0080622 0.9998900 -0.0080622
1404 0.9998817 -0.0084300 0.0001183 0.0084300 0.0001183 0.0084300 0.9998817 -0.0084300
1468 0.9998728 -0.0088146 0.0001272 0.0088146 0.0001272 0.0088146 0.9998728 -0.0088146
1535 0.9998631 -0.0092166 0.0001369 0.0092166 0.0001369 0.0092166 0.9998631 -0.0092166
1606 0.9998526 -0.0096370 0.0001474 0.0096370 0.0001474 0.0096370 0.9998526 -0.0096370
1679 0.9998412 -0.0100765 0.0001588 0.0100765 0.0001588 0.0100765 0.9998412 -0.0100765
1756 0.9998290 -0.0105361 0.0001710 0.0105361 0.0001710 0.0105361 0.9998290 -0.0105361
1836 0.9998156 -0.0110166 0.0001844 0.0110166 0.0001844 0.0110166 0.9998156 -0.0110166
1920 0.9998012 -0.0115190 0.0001988 0.0115190 0.0001988 0.0115190 0.9998012 -0.0115190
2008 0.9997856 -0.0120442 0.0002144 0.0120442 0.0002144 0.0120442 0.9997856 -0.0120442
2100 0.9997687 -0.0125934 0.0002313 0.0125934 0.0002313 0.0125934 0.9997687 -0.0125934
2196 0.9997503 -0.0131675 0.0002497 0.0131675 0.0002497 0.0131675 0.9997503 -0.0131675
2297 0.9997304 -0.0137678 0.0002696 0.0137678 0.0002696 0.0137678 0.9997304 -0.0137678
2402 0.9997088 -0.0143955 0.0002912 0.0143955 0.0002912 0.0143955 0.9997088 -0.0143955
2512 0.9996854 -0.0150516 0.0003146 0.0150516 0.0003146 0.0150516 0.9996854 -0.0150516
2627 0.9996600 -0.0157377 0.0003400 0.0157377 0.0003400 0.0157377 0.9996600 -0.0157377
2748 0.9996324 -0.0164549 0.0003676 0.0164549 0.0003676 0.0164549 0.9996324 -0.0164549
2873 0.9996025 -0.0172048 0.0003975 0.0172048 0.0003975 0.0172048 0.9996025 -0.0172048
3005 0.9995701 -0.0179888 0.0004299 0.0179888 0.0004299 0.0179888 0.9995701 -0.0179888
3143 0.9995349 -0.0188084 0.0004651 0.0188084 0.0004651 0.0188084 0.9995349 -0.0188084
3287 0.9994966 -0.0196653 0.0005034 0.0196653 0.0005034 0.0196653 0.9994966 -0.0196653
3437 0.9994551 -0.0205611 0.0005449 0.0205611 0.0005449 0.0205611 0.9994551 -0.0205611
3594 0.9994100 -0.0214977 0.0005900 0.0214977 0.0005900 0.0214977 0.9994100 -0.0214977
3759 0.9993611 -0.0224769 0.0006389 0.0224769 0.0006389 0.0224769 0.9993611 -0.0224769
3931 0.9993079 -0.0235005 0.0006921 0.0235005 0.0006921 0.0235005 0.9993079 -0.0235005
4111 0.9992500 -0.0245707 0.0007500 0.0245707 0.0007500 0.0245707 0.9992500 -0.0245707
4299 0.9991871 -0.0256895 0.0008129 0.0256895 0.0008129 0.0256895 0.9991871 -0.0256895
4496 0.9991188 -0.0268592 0.0008812 0.0268592 0.0008812 0.0268592 0.9991188 -0.0268592
4702 0.9990444 -0.0280819 0.0009556 0.0280819 0.0009556 0.0280819 0.9990444 -0.0280819
4918 0.9989635 -0.0293602 0.0010365 0.0293602 0.0010365 0.0293602 0.9989635 -0.0293602
5143 0.9988754 -0.0306965 0.0011246 0.0306965 0.0011246 0.0306965 0.9988754 -0.0306965
5378 0.9987796 -0.0320935 0.0012204 0.0320935 0.0012204 0.0320935 0.9987796 -0.0320935
5625 0.9986752 -0.0335538 0.0013248 0.0335538 0.0013248 0.0335538 0.9986752 -0.0335538
5882 0.9985615 -0.0350803 0.0014385 0.0350803 0.0014385 0.0350803 0.9985615 -0.0350803
6151 0.9984376 -0.0366759 0.0015624 0.0366759 0.0015624 0.0366759 0.9984376 -0.0366759
6433 0.9983026 -0.0383438 0.0016974 0.0383438 0.0016974 0.0383438 0.9983026 -0.0383438
6728 0.9981555 -0.0400872 0.0018445 0.0400872 0.0018445 0.0400872 0.9981555 -0.0400872
7036 0.9979951 -0.0419093 0.0020049 0.0419093 0.0020049 0.0419093 0.9979951 -0.0419093
7358 0.9978202 -0.0438137 0.0021798 0.0438137 0.0021798 0.0438137 0.9978202 -0.0438137
7695 0.9976295 -0.0458040 0.0023705 0.0458040 0.0023705 0.0458040 0.9976295 -0.0458040
8047 0.9974215 -0.0478839 0.0025785 0.0478839 0.0025785 0.0478839 0.9974215 -0.0478839
8416 0.9971946 -0.0500573 0.0028054 0.0500573 0.0028054 0.0500573 0.9971946 -0.0500573
8801 0.9969470 -0.0523284 0.0030530 0.0523284 0.0030530 0.0523284 0.9969470 -0.0523284
9204 0.9966770 -0.0547012 0.0033230 0.0547012 0.0033230 0.0547012 0.9966770 -0.0547012
9626 0.9963824 -0.0571802 0.0036176 0.0571802 0.0036176 0.0571802 0.9963824 -0.0571802
10066 0.9960610 -0.0597700 0.0039390 0.0597700 0.0039390 0.0597700 0.9960610 -0.0597700
10527 0.9957103 -0.0624751 0.0042897 0.0624751 0.0042897 0.0624751 0.9957103 -0.0624751
11009 0.9953278 -0.0653004 0.0046722 0.0653004 0.0046722 0.0653004 0.9953278 -0.0653004
11514 0.9949104 -0.0682509 0.0050896 0.0682509 0.0050896 0.0682509 0.9949104 -0.0682509
12041 0.9944551 -0.0713319 0.0055449 0.0713319 0.0055449 0.0713319 0.9944551 -0.0713319
12592 0.9939584 -0.0745487 0.0060416 0.0745487 0.0060416 0.0745487 0.9939584 -0.0745487
13169 0.9934166 -0.0779067 0.0065834 0.0779067 0.0065834 0.0779067 0.9934166 -0.0779067
13772 0.9928257 -0.0814117 0.0071743 0.0814117 0.0071743 0.0814117 0.9928257 -0.0814117
14402 0.9921813 -0.0850694 0.0078187 0.0850694 0.0078187 0.0850694 0.9921813 -0.0850694
15062 0.9914786 -0.0888859 0.0085214 0.0888859 0.0085214 0.0888859 0.9914786 -0.0888859
15752 0.9907125 -0.0928671 0.0092875 0.0928671 0.0092875 0.0928671 0.9907125 -0.0928671
16473 0.9898772 -0.0970195 0.0101228 0.0970195 0.0101228 0.0970195 0.9898772 -0.0970195
17227 0.9889668 -0.1013492 0.0110332 0.1013492 0.0110332 0.1013492 0.9889668 -0.1013492
18016 0.9879745 -0.1058629 0.0120255 0.1058629 0.0120255 0.1058629 0.9879745 -0.1058629
18841 0.9868932 -0.1105669 0.0131068 0.1105669 0.0131068 0.1105669 0.9868932 -0.1105669
19704 0.9857153 -0.1154679 0.0142847 0.1154679 0.0142847 0.1154679 0.9857153 -0.1154679
20606 0.9844321 -0.1205725 0.0155679 0.1205725 0.0155679 0.1205725 0.9844321 -0.1205725
21550 0.9830347 -0.1258873 0.0169653 0.1258873 0.0169653 0.1258873 0.9830347 -0.1258873
22537 0.9815133 -0.1314187 0.0184867 0.1314187 0.0184867 0.1314187 0.9815133 -0.1314187
23569 0.9798572 -0.1371733 0.0201428 0.1371733 0.0201428 0.1371733 0.9798572 -0.1371733
24648 0.9780550 -0.1431573 0.0219450 0.1431573 0.0219450 0.1431573 0.9780550 -0.1431573
25777 0.9760944 -0.1493768 0.0239056 0.1493768 0.0239056 0.1493768 0.9760944 -0.1493768
26957 0.9739622 -0.1558375 0.0260378 0.1558375 0.0260378 0.1558375 0.9739622 -0.1558375
28191 0.9716442 -0.1625449 0.0283558 0.1625449 0.0283558 0.1625449 0.9716442 -0.1625449
29482 0.9691253 -0.1695038 0.0308747 0.1695038 0.0308747 0.1695038 0.9691253 -0.1695038
30832 0.9663890 -0.1767186 0.0336110 0.1767186 0.0336110 0.1767186 0.9663890 -0.1767186
32244 0.9634182 -0.1841929 0.0365818 0.1841929 0.0365818 0.1841929 0.9634182 -0.1841929
33721 0.9601944 -0.1919298 0.0398056 0.1919298 0.0398056 0.1919298 0.9601944 -0.1919298
35265 0.9566979 -0.1999310 0.0433021 0.1999310 0.0433021 0.1999310 0.9566979 -0.1999310
36880 0.9529081 -0.2081975 0.0470919 0.2081975 0.0470919 0.2081975 0.9529081 -0.2081975
38569 0.9488029 -0.2167287 0.0511971 0.2167287 0.0511971 0.2167287 0.9488029 -0.2167287
40335 0.9443595 -0.2255228 0.0556405 0.2255228 0.0556405 0.2255228 0.9443595 -0.2255228
42182 0.9395536 -0.2345762 0.0604464 0.2345762 0.0604464 0.2345762 0.9395536 -0.2345762
44113 0.9343601 -0.2438836 0.0656399 0.2438836 0.0656399 0.2438836 0.9343601 -0.2438836
46134 0.9287528 -0.2534376 0.0712472 0.2534376 0.0712472 0.2534376 0.9287528 -0.2534376
48246 0.9227047 -0.2632283 0.0772953 0.2632283 0.0772953 0.2632283 0.9227047 -0.2632283
50455 0.9161882 -0.2732435 0.0838118 0.2732435 0.0838118 0.2732435 0.9161882 -0.2732435
52766 0.9091750 -0.2834683 0.0908250 0.2834683 0.0908250 0.2834683 0.9091750 -0.2834683
55182 0.9016365 -0.2938845 0.0983635 0.2938845 0.0983635 0.2938845 0.9016365 -0.2938845
57709 0.8935440 -0.3044709 0.1064560 0.3044709 0.1064560 0.3044709 0.8935440 -0.3044709
60352 0.8848692 -0.3152028 0.1151308 0.3152028 0.1151308 0.3152028 0.8848692 -0.3152028
63115 0.8755843 -0.3260517 0.1244157 0.3260517 0.1244157 0.3260517 0.8755843 -0.3260517
66005 0.8656626 -0.3369855 0.1343374 0.3369855 0.1343374 0.3369855 0.8656626 -0.3369855
69028 0.8550787 -0.3479679 0.1449213 0.3479679 0.1449213 0.3479679 0.8550787 -0.3479679
72189 0.8438094 -0.3589588 0.1561906 0.3589588 0.1561906 0.3589588 0.8438094 -0.3589588
75495 0.8318340 -0.3699138 0.1681660 0.3699138 0.1681660 0.3699138 0.8318340 -0.3699138
78952 0.8191349 -0.3807847 0.1808651 0.3807847 0.1808651 0.3807847 0.8191349 -0.3807847
82567 0.8056984 -0.3915193 0.1943016 0.3915193 0.1943016 0.3915193 0.8056984 -0.3915193
86348 0.7915153 -0.4020618 0.2084847 0.4020618 0.2084847 0.4020618 0.7915153 -0.4020618
90302 0.7765812 -0.4123533 0.2234188 0.4123533 0.2234188 0.4123533 0.7765812 -0.4123533
94437 0.7608977 -0.4223320 0.2391023 0.4223320 0.2391023 0.4223320 0.7608977 -0.4223320
98762 0.7444728 -0.4319340 0.2555272 0.4319340 0.2555272 0.4319340 0.7444728 -0.4319340
103284 0.7273212 -0.4410939 0.2726788 0.4410939 0.2726788 0.4410939 0.7273212 -0.4410939
108014 0.7094650 -0.4497458 0.2905350 0.4497458 0.2905350 0.4497458 0.7094650 -0.4497458
112960 0.6909340 -0.4578241 0.3090660 0.4578241 0.3090660 0.4578241 0.6909340 -0.4578241
118133 0.6717657 -0.4652646 0.3282343 0.4652646 0.3282343 0.4652646 0.6717657 -0.4652646
123542 0.6520056 -0.4720056 0.3479944 0.4720056 0.3479944 0.4720056 0.6520056 -0.4720056
129199 0.6317068 -0.4779891 0.3682932 0.4779891 0.3682932 0.4779891 0.6317068 -0.4779891
135116 0.6109296 -0.4831619 0.3890704 0.4831619 0.3890704 0.4831619 0.6109296 -0.4831619
141303 0.5897414 -0.4874765 0.4102586 0.4874765 0.4102586 0.4874765 0.5897414 -0.4874765
147774 0.5682154 -0.4908927 0.4317846 0.4908927 0.4317846 0.4908927 0.5682154 -0.4908927
154540 0.5464298 -0.4933776 0.4535702 0.4933776 0.4535702 0.4933776 0.5464298 -0.4933776
161617 0.5244670 -0.4949075 0.4755330 0.4949075 0.4755330 0.4949075 0.5244670 -0.4949075
169018 0.5024119 -0.4954673 0.4975881 0.4954673 0.4975881 0.4954673 0.5024119 -0.4954673
176758 0.4803510 -0.4950517 0.5196490 0.4950517 0.5196490 0.4950517 0.4803510 -0.4950517
184852 0.4583709 -0.4936650 0.5416291 0.4936650 0.5416291 0.4936650 0.4583709 -0.4936650
193316 0.4365567 -0.4913209 0.5634433 0.4913209 0.5634433 0.4913209 0.4365567 -0.4913209
202169 0.4149912 -0.4880423 0.5850088 0.4880423 0.5850088 0.4880423 0.4149912 -0.4880423
211427 0.3937530 -0.4838608 0.6062470 0.4838608 0.6062470 0.4838608 0.3937530 -0.4838608
221108 0.3729160 -0.4788160 0.6270840 0.4788160 0.6270840 0.4788160 0.3729160 -0.4788160
231233 0.3525481 -0.4729542 0.6474519 0.4729542 0.6474519 0.4729542 0.3525481 -0.4729542
241822 0.3327105 -0.4663280 0.6672895 0.4663280 0.6672895 0.4663280 0.3327105 -0.4663280
252896 0.3134573 -0.4589947 0.6865427 0.4589947 0.6865427 0.4589947 0.3134573 -0.4589947
264476 0.2948347 -0.4510156 0.7051653 0.4510156 0.7051653 0.4510156 0.2948347 -0.4510156
276587 0.2768814 -0.4424543 0.7231186 0.4424543 0.7231186 0.4424543 0.2768814 -0.4424543
289253 0.2596280 -0.4333762 0.7403720 0.4333762 0.7403720 0.4333762 0.2596280 -0.4333762
302498 0.2430978 -0.4238472 0.7569022 0.4238472 0.7569022 0.4238472 0.2430978 -0.4238472
316350 0.2273064 -0.4139325 0.7726936 0.4139325 0.7726936 0.4139325 0.2273064 -0.4139325
330837 0.2122627 -0.4036963 0.7877373 0.4036963 0.7877373 0.4036963 0.2122627 -0.4036963
345986 0.1979691 -0.3932005 0.8020309 0.3932005 0.8020309 0.3932005 0.1979691 -0.3932005
361830 0.1844224 -0.3825045 0.8155776 0.3825045 0.8155776 0.3825045 0.1844224 -0.3825045
378399 0.1716139 -0.3716644 0.8283861 0.3716644 0.8283861 0.3716644 0.1716139 -0.3716644
395726 0.1595306 -0.3607329 0.8404694 0.3607329 0.8404694 0.3607329 0.1595306 -0.3607329
413847 0.1481554 -0.3497589 0.8518446 0.3497589 0.8518446 0.3497589 0.1481554 -0.3497589
432798 0.1374682 -0.3387872 0.8625318 0.3387872 0.8625318 0.3387872 0.1374682 -0.3387872
452617 0.1274459 -0.3278586 0.8725541 0.3278586 0.8725541 0.3278586 0.1274459 -0.3278586
473344 0.1180635 -0.3170101 0.8819365 0.3170101 0.8819365 0.3170101 0.1180635 -0.3170101
495019 0.1092945 -0.3062742 0.8907055 0.3062742 0.8907055 0.3062742 0.1092945 -0.3062742
517687 0.1011112 -0.2956801 0.8988888 0.2956801 0.8988888 0.2956801 0.1011112 -0.2956801
541393 0.0934851 -0.2852530 0.9065149 0.2852530 0.9065149 0.2852530 0.0934851 -0.2852530
566185 0.0863876 -0.2750145 0.9136124 0.2750145 0.9136124 0.2750145 0.0863876 -0.2750145
592111 0.0797900 -0.2649832 0.9202100 0.2649832 0.9202100 0.2649832 0.0797900 -0.2649832
619225 0.0736639 -0.2551744 0.9263361 0.2551744 0.9263361 0.2551744 0.0736639 -0.2551744
647581 0.0679814 -0.2456007 0.9320186 0.2456007 0.9320186 0.2456007 0.0679814 -0.2456007
677235 0.0627155 -0.2362720 0.9372845 0.2362720 0.9372845 0.2362720 0.0627155 -0.2362720
708247 0.0578397 -0.2271961 0.9421603 0.2271961 0.9421603 0.2271961 0.0578397 -0.2271961
740679 0.0533287 -0.2183784 0.9466713 0.2183784 0.9466713 0.2183784 0.0533287 -0.2183784
774597 0.0491583 -0.2098226 0.9508417 0.2098226 0.9508417 0.2098226 0.0491583 -0.2098226
810067 0.0453053 -0.2015307 0.9546947 0.2015307 0.9546947 0.2015307 0.0453053 -0.2015307
847162 0.0417477 -0.1935032 0.9582523 0.1935032 0.9582523 0.1935032 0.0417477 -0.1935032
885955 0.0384647 -0.1857392 0.9615353 0.1857392 0.9615353 0.1857392 0.0384647 -0.1857392
926525 0.0354366 -0.1782369 0.9645634 0.1782369 0.9645634 0.1782369 0.0354366 -0.1782369
968953 0.0326448 -0.1709935 0.9673552 0.1709935 0.9673552 0.1709935 0.0326448 -0.1709935
1013323 0.0300721 -0.1640053 0.9699279 0.1640053 0.9699279 0.1640053 0.0300721 -0.1640053
1059725 0.0277021 -0.1572679 0.9722979 0.1572679 0.9722979 0.1572679 0.0277021 -0.1572679
1108252 0.0255198 -0.1507766 0.9744802 0.1507766 0.9744802 0.1507766 0.0255198 -0.1507766
1159002 0.0235108 -0.1445258 0.9764892 0.1445258 0.9764892 0.1445258 0.0235108 -0.1445258
1212075 0.0216620 -0.1385100 0.9783380 0.1385100 0.9783380 0.1385100 0.0216620 -0.1385100
1267578 0.0199611 -0.1327231 0.9800389 0.1327231 0.9800389 0.1327231 0.0199611 -0.1327231
1325623 0.0183966 -0.1271589 0.9816034 0.1271589 0.9816034 0.1271589 0.0183966 -0.1271589
1386327 0.0169581 -0.1218111 0.9830419 0.1218111 0.9830419 0.1218111 0.0169581 -0.1218111
1449809 0.0156357 -0.1166733 0.9843643 0.1166733 0.9843643 0.1166733 0.0156357 -0.1166733
1516199 0.0144202 -0.1117389 0.9855798 0.1117389 0.9855798 0.1117389 0.0144202 -0.1117389
1585629 0.0133033 -0.1070014 0.9866967 0.1070014 0.9866967 0.1070014 0.0133033 -0.1070014
1658239 0.0122772 -0.1024543 0.9877228 0.1024543 0.9877228 0.1024543 0.0122772 -0.1024543
1734173 0.0113347 -0.0980913 0.9886653 0.0980913 0.9886653 0.0980913 0.0113347 -0.0980913
1813585 0.0104690 -0.0939059 0.9895310 0.0939059 0.9895310 0.0939059 0.0104690 -0.0939059
1896632 0.0096741 -0.0898919 0.9903259 0.0898919 0.9903259 0.0898919 0.0096741 -0.0898919
1983483 0.0089442 -0.0860431 0.9910558 0.0860431 0.9910558 0.0860431 0.0089442 -0.0860431
2074311 0.0082742 -0.0823534 0.9917258 0.0823534 0.9917258 0.0823534 0.0082742 -0.0823534
