!Murata Part Number: GRM033R61A393KE84
!These Parameters are Measured in Series Mode Connection
!Data Generated on Mar 30, 2021
!       o--ll--o
!Port1            Port2
!       o------o
!Operation Temp=25[degC], DC Bias Voltage=0[V]
!Freq. Start=100[Hz] Stop=6[GHz] 401[Steps]
# Hz S RI R 50
!Freq.(Hz) S11(Real) S11(Imag) S21(Real) S21(Imag) S12(Real) S12(Imag) S22(Real) S22(Imag)
100 0.9999671 -0.0021274 0.0000329 0.0021274 0.0000329 0.0021274 0.9999671 -0.0021274
105 0.9999654 -0.0022240 0.0000346 0.0022240 0.0000346 0.0022240 0.9999654 -0.0022240
109 0.9999636 -0.0023249 0.0000364 0.0023249 0.0000364 0.0023249 0.9999636 -0.0023249
114 0.9999617 -0.0024304 0.0000383 0.0024304 0.0000383 0.0024304 0.9999617 -0.0024304
120 0.9999597 -0.0025407 0.0000403 0.0025407 0.0000403 0.0025407 0.9999597 -0.0025407
125 0.9999576 -0.0026560 0.0000424 0.0026560 0.0000424 0.0026560 0.9999576 -0.0026560
131 0.9999554 -0.0027766 0.0000446 0.0027766 0.0000446 0.0027766 0.9999554 -0.0027766
137 0.9999530 -0.0029026 0.0000470 0.0029026 0.0000470 0.0029026 0.9999530 -0.0029026
143 0.9999505 -0.0030343 0.0000495 0.0030343 0.0000495 0.0030343 0.9999505 -0.0030343
150 0.9999478 -0.0031720 0.0000522 0.0031720 0.0000522 0.0031720 0.9999478 -0.0031720
156 0.9999450 -0.0033159 0.0000550 0.0033159 0.0000550 0.0033159 0.9999450 -0.0033159
164 0.9999420 -0.0034664 0.0000580 0.0034664 0.0000580 0.0034664 0.9999420 -0.0034664
171 0.9999388 -0.0036237 0.0000612 0.0036237 0.0000612 0.0036237 0.9999388 -0.0036237
179 0.9999354 -0.0037881 0.0000646 0.0037881 0.0000646 0.0037881 0.9999354 -0.0037881
187 0.9999319 -0.0039600 0.0000681 0.0039600 0.0000681 0.0039600 0.9999319 -0.0039600
196 0.9999281 -0.0041397 0.0000719 0.0041397 0.0000719 0.0041397 0.9999281 -0.0041397
205 0.9999241 -0.0043275 0.0000759 0.0043275 0.0000759 0.0043275 0.9999241 -0.0043275
214 0.9999198 -0.0045239 0.0000802 0.0045239 0.0000802 0.0045239 0.9999198 -0.0045239
224 0.9999153 -0.0047291 0.0000847 0.0047291 0.0000847 0.0047291 0.9999153 -0.0047291
234 0.9999105 -0.0049437 0.0000895 0.0049437 0.0000895 0.0049437 0.9999105 -0.0049437
245 0.9999055 -0.0051680 0.0000945 0.0051680 0.0000945 0.0051680 0.9999055 -0.0051680
256 0.9999001 -0.0054025 0.0000999 0.0054025 0.0000999 0.0054025 0.9999001 -0.0054025
268 0.9998944 -0.0056477 0.0001056 0.0056477 0.0001056 0.0056477 0.9998944 -0.0056477
280 0.9998883 -0.0059040 0.0001117 0.0059040 0.0001117 0.0059040 0.9998883 -0.0059040
293 0.9998818 -0.0061720 0.0001182 0.0061720 0.0001182 0.0061720 0.9998818 -0.0061720
306 0.9998749 -0.0064522 0.0001251 0.0064522 0.0001251 0.0064522 0.9998749 -0.0064522
320 0.9998675 -0.0067451 0.0001325 0.0067451 0.0001325 0.0067451 0.9998675 -0.0067451
335 0.9998597 -0.0070513 0.0001403 0.0070513 0.0001403 0.0070513 0.9998597 -0.0070513
350 0.9998513 -0.0073715 0.0001487 0.0073715 0.0001487 0.0073715 0.9998513 -0.0073715
366 0.9998423 -0.0077063 0.0001577 0.0077063 0.0001577 0.0077063 0.9998423 -0.0077063
383 0.9998326 -0.0080563 0.0001674 0.0080563 0.0001674 0.0080563 0.9998326 -0.0080563
401 0.9998223 -0.0084223 0.0001777 0.0084223 0.0001777 0.0084223 0.9998223 -0.0084223
419 0.9998111 -0.0088049 0.0001889 0.0088049 0.0001889 0.0088049 0.9998111 -0.0088049
438 0.9997991 -0.0092050 0.0002009 0.0092050 0.0002009 0.0092050 0.9997991 -0.0092050
458 0.9997862 -0.0096232 0.0002138 0.0096232 0.0002138 0.0096232 0.9997862 -0.0096232
479 0.9997723 -0.0100605 0.0002277 0.0100605 0.0002277 0.0100605 0.9997723 -0.0100605
501 0.9997573 -0.0105177 0.0002427 0.0105177 0.0002427 0.0105177 0.9997573 -0.0105177
524 0.9997410 -0.0109956 0.0002590 0.0109956 0.0002590 0.0109956 0.9997410 -0.0109956
548 0.9997235 -0.0114953 0.0002765 0.0114953 0.0002765 0.0114953 0.9997235 -0.0114953
573 0.9997045 -0.0120177 0.0002955 0.0120177 0.0002955 0.0120177 0.9997045 -0.0120177
600 0.9996840 -0.0125638 0.0003160 0.0125638 0.0003160 0.0125638 0.9996840 -0.0125638
627 0.9996618 -0.0131347 0.0003382 0.0131347 0.0003382 0.0131347 0.9996618 -0.0131347
656 0.9996378 -0.0137314 0.0003622 0.0137314 0.0003622 0.0137314 0.9996378 -0.0137314
686 0.9996118 -0.0143552 0.0003882 0.0143552 0.0003882 0.0143552 0.9996118 -0.0143552
717 0.9995837 -0.0150072 0.0004163 0.0150072 0.0004163 0.0150072 0.9995837 -0.0150072
750 0.9995532 -0.0156887 0.0004468 0.0156887 0.0004468 0.0156887 0.9995532 -0.0156887
784 0.9995202 -0.0164010 0.0004798 0.0164010 0.0004798 0.0164010 0.9995202 -0.0164010
820 0.9994845 -0.0171455 0.0005155 0.0171455 0.0005155 0.0171455 0.9994845 -0.0171455
858 0.9994458 -0.0179236 0.0005542 0.0179236 0.0005542 0.0179236 0.9994458 -0.0179236
897 0.9994040 -0.0187367 0.0005960 0.0187367 0.0005960 0.0187367 0.9994040 -0.0187367
938 0.9993587 -0.0195865 0.0006413 0.0195865 0.0006413 0.0195865 0.9993587 -0.0195865
981 0.9993097 -0.0204746 0.0006903 0.0204746 0.0006903 0.0204746 0.9993097 -0.0204746
1026 0.9992567 -0.0214026 0.0007433 0.0214026 0.0007433 0.0214026 0.9992567 -0.0214026
1073 0.9991994 -0.0223723 0.0008006 0.0223723 0.0008006 0.0223723 0.9991994 -0.0223723
1122 0.9991375 -0.0233857 0.0008625 0.0233857 0.0008625 0.0233857 0.9991375 -0.0233857
1174 0.9990706 -0.0244446 0.0009294 0.0244446 0.0009294 0.0244446 0.9990706 -0.0244446
1227 0.9989982 -0.0255510 0.0010018 0.0255510 0.0010018 0.0255510 0.9989982 -0.0255510
1283 0.9989200 -0.0267071 0.0010800 0.0267071 0.0010800 0.0267071 0.9989200 -0.0267071
1342 0.9988355 -0.0279151 0.0011645 0.0279151 0.0011645 0.0279151 0.9988355 -0.0279151
1404 0.9987442 -0.0291773 0.0012558 0.0291773 0.0012558 0.0291773 0.9987442 -0.0291773
1468 0.9986456 -0.0304962 0.0013544 0.0304962 0.0013544 0.0304962 0.9986456 -0.0304962
1535 0.9985389 -0.0318742 0.0014611 0.0318742 0.0014611 0.0318742 0.9985389 -0.0318742
1606 0.9984237 -0.0333141 0.0015763 0.0333141 0.0015763 0.0333141 0.9984237 -0.0333141
1679 0.9982991 -0.0348186 0.0017009 0.0348186 0.0017009 0.0348186 0.9982991 -0.0348186
1756 0.9981644 -0.0363906 0.0018356 0.0363906 0.0018356 0.0363906 0.9981644 -0.0363906
1836 0.9980186 -0.0380331 0.0019814 0.0380331 0.0019814 0.0380331 0.9980186 -0.0380331
1920 0.9978609 -0.0397493 0.0021391 0.0397493 0.0021391 0.0397493 0.9978609 -0.0397493
2008 0.9976901 -0.0415425 0.0023099 0.0415425 0.0023099 0.0415425 0.9976901 -0.0415425
2100 0.9975052 -0.0434161 0.0024948 0.0434161 0.0024948 0.0434161 0.9975052 -0.0434161
2196 0.9973048 -0.0453737 0.0026952 0.0453737 0.0026952 0.0453737 0.9973048 -0.0453737
2297 0.9970876 -0.0474190 0.0029124 0.0474190 0.0029124 0.0474190 0.9970876 -0.0474190
2402 0.9968520 -0.0495560 0.0031480 0.0495560 0.0031480 0.0495560 0.9968520 -0.0495560
2512 0.9965963 -0.0517886 0.0034037 0.0517886 0.0034037 0.0517886 0.9965963 -0.0517886
2627 0.9963187 -0.0541209 0.0036813 0.0541209 0.0036813 0.0541209 0.9963187 -0.0541209
2748 0.9960173 -0.0565575 0.0039827 0.0565575 0.0039827 0.0565575 0.9960173 -0.0565575
2873 0.9956897 -0.0591027 0.0043103 0.0591027 0.0043103 0.0591027 0.9956897 -0.0591027
3005 0.9953336 -0.0617611 0.0046664 0.0617611 0.0046664 0.0617611 0.9953336 -0.0617611
3143 0.9949464 -0.0645377 0.0050536 0.0645377 0.0050536 0.0645377 0.9949464 -0.0645377
3287 0.9945252 -0.0674374 0.0054748 0.0674374 0.0054748 0.0674374 0.9945252 -0.0674374
3437 0.9940668 -0.0704652 0.0059332 0.0704652 0.0059332 0.0704652 0.9940668 -0.0704652
3594 0.9935680 -0.0736265 0.0064320 0.0736265 0.0064320 0.0736265 0.9935680 -0.0736265
3759 0.9930248 -0.0769266 0.0069752 0.0769266 0.0069752 0.0769266 0.9930248 -0.0769266
3931 0.9924335 -0.0803712 0.0075665 0.0803712 0.0075665 0.0803712 0.9924335 -0.0803712
4111 0.9917895 -0.0839660 0.0082105 0.0839660 0.0082105 0.0839660 0.9917895 -0.0839660
4299 0.9910881 -0.0877167 0.0089119 0.0877167 0.0089119 0.0877167 0.9910881 -0.0877167
4496 0.9903242 -0.0916293 0.0096758 0.0916293 0.0096758 0.0916293 0.9903242 -0.0916293
4702 0.9894923 -0.0957099 0.0105077 0.0957099 0.0105077 0.0957099 0.9894923 -0.0957099
4918 0.9885862 -0.0999647 0.0114138 0.0999647 0.0114138 0.0999647 0.9885862 -0.0999647
5143 0.9875995 -0.1043999 0.0124005 0.1043999 0.0124005 0.1043999 0.9875995 -0.1043999
5378 0.9865250 -0.1090217 0.0134750 0.1090217 0.0134750 0.1090217 0.9865250 -0.1090217
5625 0.9853553 -0.1138365 0.0146447 0.1138365 0.0146447 0.1138365 0.9853553 -0.1138365
5882 0.9840820 -0.1188506 0.0159180 0.1188506 0.0159180 0.1188506 0.9840820 -0.1188506
6151 0.9826962 -0.1240703 0.0173038 0.1240703 0.0173038 0.1240703 0.9826962 -0.1240703
6433 0.9811885 -0.1295019 0.0188115 0.1295019 0.0188115 0.1295019 0.9811885 -0.1295019
6728 0.9795486 -0.1351514 0.0204514 0.1351514 0.0204514 0.1351514 0.9795486 -0.1351514
7036 0.9777653 -0.1410249 0.0222347 0.1410249 0.0222347 0.1410249 0.9777653 -0.1410249
7358 0.9758270 -0.1471280 0.0241730 0.1471280 0.0241730 0.1471280 0.9758270 -0.1471280
7695 0.9737208 -0.1534664 0.0262792 0.1534664 0.0262792 0.1534664 0.9737208 -0.1534664
8047 0.9714333 -0.1600450 0.0285667 0.1600450 0.0285667 0.1600450 0.9714333 -0.1600450
8416 0.9689498 -0.1668686 0.0310502 0.1668686 0.0310502 0.1668686 0.9689498 -0.1668686
8801 0.9662549 -0.1739414 0.0337451 0.1739414 0.0337451 0.1739414 0.9662549 -0.1739414
9204 0.9633320 -0.1812669 0.0366680 0.1812669 0.0366680 0.1812669 0.9633320 -0.1812669
9626 0.9601637 -0.1888481 0.0398363 0.1888481 0.0398363 0.1888481 0.9601637 -0.1888481
10066 0.9567312 -0.1966869 0.0432688 0.1966869 0.0432688 0.1966869 0.9567312 -0.1966869
10527 0.9530150 -0.2047844 0.0469850 0.2047844 0.0469850 0.2047844 0.9530150 -0.2047844
11009 0.9489940 -0.2131403 0.0510060 0.2131403 0.0510060 0.2131403 0.9489940 -0.2131403
11514 0.9446465 -0.2217532 0.0553535 0.2217532 0.0553535 0.2217532 0.9446465 -0.2217532
12041 0.9399495 -0.2306202 0.0600505 0.2306202 0.0600505 0.2306202 0.9399495 -0.2306202
12592 0.9348789 -0.2397367 0.0651211 0.2397367 0.0651211 0.2397367 0.9348789 -0.2397367
13169 0.9294097 -0.2490961 0.0705903 0.2490961 0.0705903 0.2490961 0.9294097 -0.2490961
13772 0.9235160 -0.2586898 0.0764840 0.2586898 0.0764840 0.2586898 0.9235160 -0.2586898
14402 0.9171712 -0.2685068 0.0828288 0.2685068 0.0828288 0.2685068 0.9171712 -0.2685068
15062 0.9103479 -0.2785335 0.0896521 0.2785335 0.0896521 0.2785335 0.9103479 -0.2785335
15752 0.9030184 -0.2887535 0.0969816 0.2887535 0.0969816 0.2887535 0.9030184 -0.2887535
16473 0.8951548 -0.2991473 0.1048452 0.2991473 0.1048452 0.2991473 0.8951548 -0.2991473
17227 0.8867292 -0.3096922 0.1132708 0.3096922 0.1132708 0.3096922 0.8867292 -0.3096922
18016 0.8777142 -0.3203619 0.1222858 0.3203619 0.1222858 0.3203619 0.8777142 -0.3203619
18841 0.8680832 -0.3311262 0.1319168 0.3311262 0.1319168 0.3311262 0.8680832 -0.3311262
19704 0.8578108 -0.3419515 0.1421892 0.3419515 0.1421892 0.3419515 0.8578108 -0.3419515
20606 0.8468735 -0.3527998 0.1531265 0.3527998 0.1531265 0.3527998 0.8468735 -0.3527998
21550 0.8352499 -0.3636293 0.1647501 0.3636293 0.1647501 0.3636293 0.8352499 -0.3636293
22537 0.8229216 -0.3743944 0.1770784 0.3743944 0.1770784 0.3743944 0.8229216 -0.3743944
23569 0.8098737 -0.3850453 0.1901263 0.3850453 0.1901263 0.3850453 0.8098737 -0.3850453
24648 0.7960954 -0.3955289 0.2039046 0.3955289 0.2039046 0.3955289 0.7960954 -0.3955289
25777 0.7815807 -0.4057884 0.2184193 0.4057884 0.2184193 0.4057884 0.7815807 -0.4057884
26957 0.7663289 -0.4157646 0.2336711 0.4157646 0.2336711 0.4157646 0.7663289 -0.4157646
28191 0.7503454 -0.4253956 0.2496546 0.4253956 0.2496546 0.4253956 0.7503454 -0.4253956
29482 0.7336422 -0.4346181 0.2663578 0.4346181 0.2663578 0.4346181 0.7336422 -0.4346181
30832 0.7162381 -0.4433677 0.2837619 0.4433677 0.2837619 0.4433677 0.7162381 -0.4433677
32244 0.6981596 -0.4515804 0.3018404 0.4515804 0.3018404 0.4515804 0.6981596 -0.4515804
33721 0.6794404 -0.4591929 0.3205596 0.4591929 0.3205596 0.4591929 0.6794404 -0.4591929
35265 0.6601219 -0.4661441 0.3398781 0.4661441 0.3398781 0.4661441 0.6601219 -0.4661441
36880 0.6402532 -0.4723762 0.3597468 0.4723762 0.3597468 0.4723762 0.6402532 -0.4723762
38569 0.6198903 -0.4778355 0.3801097 0.4778355 0.3801097 0.4778355 0.6198903 -0.4778355
40335 0.5990962 -0.4824738 0.4009038 0.4824738 0.4009038 0.4824738 0.5990962 -0.4824738
42182 0.5779396 -0.4862490 0.4220604 0.4862490 0.4220604 0.4862490 0.5779396 -0.4862490
44113 0.5564949 -0.4891265 0.4435051 0.4891265 0.4435051 0.4891265 0.5564949 -0.4891265
46134 0.5348402 -0.4910796 0.4651598 0.4910796 0.4651598 0.4910796 0.5348402 -0.4910796
48246 0.5130568 -0.4920900 0.4869432 0.4920900 0.4869432 0.4920900 0.5130568 -0.4920900
50455 0.4912281 -0.4921487 0.5087719 0.4921487 0.5087719 0.4921487 0.4912281 -0.4921487
52766 0.4694378 -0.4912555 0.5305622 0.4912555 0.5305622 0.4912555 0.4694378 -0.4912555
55182 0.4477689 -0.4894197 0.5522311 0.4894197 0.5522311 0.4894197 0.4477689 -0.4894197
57709 0.4263026 -0.4866592 0.5736974 0.4866592 0.5736974 0.4866592 0.4263026 -0.4866592
60352 0.4051167 -0.4830003 0.5948833 0.4830003 0.5948833 0.4830003 0.4051167 -0.4830003
63115 0.3842851 -0.4784775 0.6157149 0.4784775 0.6157149 0.4784775 0.3842851 -0.4784775
66005 0.3638761 -0.4731321 0.6361239 0.4731321 0.6361239 0.4731321 0.3638761 -0.4731321
69028 0.3439524 -0.4670114 0.6560476 0.4670114 0.6560476 0.4670114 0.3439524 -0.4670114
72189 0.3245699 -0.4601682 0.6754301 0.4601682 0.6754301 0.4601682 0.3245699 -0.4601682
75495 0.3057775 -0.4526592 0.6942225 0.4526592 0.6942225 0.4526592 0.3057775 -0.4526592
78952 0.2876171 -0.4445445 0.7123829 0.4445445 0.7123829 0.4445445 0.2876171 -0.4445445
82567 0.2701228 -0.4358859 0.7298772 0.4358859 0.7298772 0.4358859 0.2701228 -0.4358859
86348 0.2533216 -0.4267465 0.7466784 0.4267465 0.7466784 0.4267465 0.2533216 -0.4267465
90302 0.2372334 -0.4171895 0.7627666 0.4171895 0.7627666 0.4171895 0.2372334 -0.4171895
94437 0.2218713 -0.4072774 0.7781287 0.4072774 0.7781287 0.4072774 0.2218713 -0.4072774
98762 0.2072421 -0.3970713 0.7927579 0.3970713 0.7927579 0.3970713 0.2072421 -0.3970713
103284 0.1933465 -0.3866302 0.8066535 0.3866302 0.8066535 0.3866302 0.1933465 -0.3866302
108014 0.1801800 -0.3760105 0.8198200 0.3760105 0.8198200 0.3760105 0.1801800 -0.3760105
112960 0.1677334 -0.3652655 0.8322666 0.3652655 0.8322666 0.3652655 0.1677334 -0.3652655
118133 0.1559932 -0.3544451 0.8440068 0.3544451 0.8440068 0.3544451 0.1559932 -0.3544451
123542 0.1449423 -0.3435958 0.8550577 0.3435958 0.8550577 0.3435958 0.1449423 -0.3435958
129199 0.1345608 -0.3327601 0.8654392 0.3327601 0.8654392 0.3327601 0.1345608 -0.3327601
135116 0.1248261 -0.3219768 0.8751739 0.3219768 0.8751739 0.3219768 0.1248261 -0.3219768
141303 0.1157137 -0.3112809 0.8842863 0.3112809 0.8842863 0.3112809 0.1157137 -0.3112809
147774 0.1071977 -0.3007035 0.8928023 0.3007035 0.8928023 0.3007035 0.1071977 -0.3007035
154540 0.0992511 -0.2902722 0.9007489 0.2902722 0.9007489 0.2902722 0.0992511 -0.2902722
161617 0.0918463 -0.2800111 0.9081537 0.2800111 0.9081537 0.2800111 0.0918463 -0.2800111
169018 0.0849555 -0.2699409 0.9150445 0.2699409 0.9150445 0.2699409 0.0849555 -0.2699409
176758 0.0785506 -0.2600792 0.9214494 0.2600792 0.9214494 0.2600792 0.0785506 -0.2600792
184852 0.0726041 -0.2504406 0.9273959 0.2504406 0.9273959 0.2504406 0.0726041 -0.2504406
193316 0.0670888 -0.2410371 0.9329112 0.2410371 0.9329112 0.2410371 0.0670888 -0.2410371
202169 0.0619782 -0.2318781 0.9380218 0.2318781 0.9380218 0.2318781 0.0619782 -0.2318781
211427 0.0572466 -0.2229710 0.9427534 0.2229710 0.9427534 0.2229710 0.0572466 -0.2229710
221108 0.0528693 -0.2143208 0.9471307 0.2143208 0.9471307 0.2143208 0.0528693 -0.2143208
231233 0.0488224 -0.2059309 0.9511776 0.2059309 0.9511776 0.2059309 0.0488224 -0.2059309
241822 0.0450834 -0.1978030 0.9549166 0.1978030 0.9549166 0.1978030 0.0450834 -0.1978030
252896 0.0416306 -0.1899375 0.9583694 0.1899375 0.9583694 0.1899375 0.0416306 -0.1899375
264476 0.0384436 -0.1823332 0.9615564 0.1823332 0.9615564 0.1823332 0.0384436 -0.1823332
276587 0.0355030 -0.1749882 0.9644970 0.1749882 0.9644970 0.1749882 0.0355030 -0.1749882
289253 0.0327907 -0.1678993 0.9672093 0.1678993 0.9672093 0.1678993 0.0327907 -0.1678993
302498 0.0302896 -0.1610627 0.9697104 0.1610627 0.9697104 0.1610627 0.0302896 -0.1610627
316350 0.0279837 -0.1544739 0.9720163 0.1544739 0.9720163 0.1544739 0.0279837 -0.1544739
330837 0.0258582 -0.1481278 0.9741418 0.1481278 0.9741418 0.1481278 0.0258582 -0.1481278
345986 0.0238991 -0.1420189 0.9761009 0.1420189 0.9761009 0.1420189 0.0238991 -0.1420189
361830 0.0220935 -0.1361411 0.9779065 0.1361411 0.9779065 0.1361411 0.0220935 -0.1361411
378399 0.0204294 -0.1304884 0.9795706 0.1304884 0.9795706 0.1304884 0.0204294 -0.1304884
395726 0.0188957 -0.1250544 0.9811043 0.1250544 0.9811043 0.1250544 0.0188957 -0.1250544
413847 0.0174821 -0.1198324 0.9825179 0.1198324 0.9825179 0.1198324 0.0174821 -0.1198324
432798 0.0161793 -0.1148158 0.9838207 0.1148158 0.9838207 0.1148158 0.0161793 -0.1148158
452617 0.0149783 -0.1099980 0.9850217 0.1099980 0.9850217 0.1099980 0.0149783 -0.1099980
473344 0.0138712 -0.1053724 0.9861288 0.1053724 0.9861288 0.1053724 0.0138712 -0.1053724
495019 0.0128506 -0.1009323 0.9871494 0.1009323 0.9871494 0.1009323 0.0128506 -0.1009323
517687 0.0119097 -0.0966713 0.9880903 0.0966713 0.9880903 0.0966713 0.0119097 -0.0966713
541393 0.0110421 -0.0925829 0.9889579 0.0925829 0.9889579 0.0925829 0.0110421 -0.0925829
566185 0.0102421 -0.0886608 0.9897579 0.0886608 0.9897579 0.0886608 0.0102421 -0.0886608
592111 0.0095045 -0.0848989 0.9904955 0.0848989 0.9904955 0.0848989 0.0095045 -0.0848989
619225 0.0088244 -0.0812912 0.9911756 0.0812912 0.9911756 0.0812912 0.0088244 -0.0812912
647581 0.0081972 -0.0778319 0.9918028 0.0778319 0.9918028 0.0778319 0.0081972 -0.0778319
677235 0.0076190 -0.0745153 0.9923810 0.0745153 0.9923810 0.0745153 0.0076190 -0.0745153
708247 0.0070859 -0.0713359 0.9929141 0.0713359 0.9929141 0.0713359 0.0070859 -0.0713359
740679 0.0065945 -0.0682885 0.9934055 0.0682885 0.9934055 0.0682885 0.0065945 -0.0682885
774597 0.0061414 -0.0653679 0.9938586 0.0653679 0.9938586 0.0653679 0.0061414 -0.0653679
810067 0.0057239 -0.0625691 0.9942761 0.0625691 0.9942761 0.0625691 0.0057239 -0.0625691
847162 0.0053390 -0.0598875 0.9946610 0.0598875 0.9946610 0.0598875 0.0053390 -0.0598875
885955 0.0049844 -0.0573182 0.9950156 0.0573182 0.9950156 0.0573182 0.0049844 -0.0573182
926525 0.0046577 -0.0548570 0.9953423 0.0548570 0.9953423 0.0548570 0.0046577 -0.0548570
968953 0.0043567 -0.0524995 0.9956433 0.0524995 0.9956433 0.0524995 0.0043567 -0.0524995
1013323 0.0040794 -0.0502416 0.9959206 0.0502416 0.9959206 0.0502416 0.0040794 -0.0502416
1059725 0.0038240 -0.0480792 0.9961760 0.0480792 0.9961760 0.0480792 0.0038240 -0.0480792
1108252 0.0035887 -0.0460086 0.9964113 0.0460086 0.9964113 0.0460086 0.0035887 -0.0460086
1159002 0.0033721 -0.0440260 0.9966279 0.0440260 0.9966279 0.0440260 0.0033721 -0.0440260
1212075 0.0031725 -0.0421279 0.9968275 0.0421279 0.9968275 0.0421279 0.0031725 -0.0421279
1267578 0.0029886 -0.0403108 0.9970114 0.0403108 0.9970114 0.0403108 0.0029886 -0.0403108
1325623 0.0028192 -0.0385713 0.9971808 0.0385713 0.9971808 0.0385713 0.0028192 -0.0385713
1386327 0.0026631 -0.0369064 0.9973369 0.0369064 0.9973369 0.0369064 0.0026631 -0.0369064
1449809 0.0025192 -0.0353129 0.9974808 0.0353129 0.9974808 0.0353129 0.0025192 -0.0353129
1516199 0.0023865 -0.0337878 0.9976135 0.0337878 0.9976135 0.0337878 0.0023865 -0.0337878
1585629 0.0022641 -0.0323284 0.9977359 0.0323284 0.9977359 0.0323284 0.0022641 -0.0323284
1658239 0.0021510 -0.0309319 0.9978490 0.0309319 0.9978490 0.0309319 0.0021510 -0.0309319
1734173 0.0020466 -0.0295955 0.9979534 0.0295955 0.9979534 0.0295955 0.0020466 -0.0295955
1813585 0.0019501 -0.0283169 0.9980499 0.0283169 0.9980499 0.0283169 0.0019501 -0.0283169
1896632 0.0018608 -0.0270934 0.9981392 0.0270934 0.9981392 0.0270934 0.0018608 -0.0270934
1983483 0.0017781 -0.0259229 0.9982219 0.0259229 0.9982219 0.0259229 0.0017781 -0.0259229
2074311 0.0017014 -0.0248029 0.9982986 0.0248029 0.9982986 0.0248029 0.0017014 -0.0248029
