!Murata Part Number: GRM033C80J683KE15
!These Parameters are Measured in Series Mode Connection
!Data Generated on Mar 30, 2021
!       o--ll--o
!Port1            Port2
!       o------o
!Operation Temp=25[degC], DC Bias Voltage=0[V]
!Freq. Start=100[Hz] Stop=6[GHz] 401[Steps]
# Hz S RI R 50
!Freq.(Hz) S11(Real) S11(Imag) S21(Real) S21(Imag) S12(Real) S12(Imag) S22(Real) S22(Imag)
100 0.9999420 -0.0033685 0.0000580 0.0033685 0.0000580 0.0033685 0.9999420 -0.0033685
105 0.9999390 -0.0035217 0.0000610 0.0035217 0.0000610 0.0035217 0.9999390 -0.0035217
109 0.9999359 -0.0036819 0.0000641 0.0036819 0.0000641 0.0036819 0.9999359 -0.0036819
114 0.9999326 -0.0038493 0.0000674 0.0038493 0.0000674 0.0038493 0.9999326 -0.0038493
120 0.9999289 -0.0040243 0.0000711 0.0040243 0.0000711 0.0040243 0.9999289 -0.0040243
125 0.9999251 -0.0042072 0.0000749 0.0042072 0.0000749 0.0042072 0.9999251 -0.0042072
131 0.9999210 -0.0043984 0.0000790 0.0043984 0.0000790 0.0043984 0.9999210 -0.0043984
137 0.9999165 -0.0045983 0.0000835 0.0045983 0.0000835 0.0045983 0.9999165 -0.0045983
143 0.9999118 -0.0048072 0.0000882 0.0048072 0.0000882 0.0048072 0.9999118 -0.0048072
150 0.9999068 -0.0050255 0.0000932 0.0050255 0.0000932 0.0050255 0.9999068 -0.0050255
156 0.9999014 -0.0052537 0.0000986 0.0052537 0.0000986 0.0052537 0.9999014 -0.0052537
164 0.9998956 -0.0054922 0.0001044 0.0054922 0.0001044 0.0054922 0.9998956 -0.0054922
171 0.9998895 -0.0057415 0.0001105 0.0057415 0.0001105 0.0057415 0.9998895 -0.0057415
179 0.9998830 -0.0060020 0.0001170 0.0060020 0.0001170 0.0060020 0.9998830 -0.0060020
187 0.9998761 -0.0062743 0.0001239 0.0062743 0.0001239 0.0062743 0.9998761 -0.0062743
196 0.9998688 -0.0065590 0.0001312 0.0065590 0.0001312 0.0065590 0.9998688 -0.0065590
205 0.9998610 -0.0068565 0.0001390 0.0068565 0.0001390 0.0068565 0.9998610 -0.0068565
214 0.9998527 -0.0071675 0.0001473 0.0071675 0.0001473 0.0071675 0.9998527 -0.0071675
224 0.9998438 -0.0074925 0.0001562 0.0074925 0.0001562 0.0074925 0.9998438 -0.0074925
234 0.9998345 -0.0078323 0.0001655 0.0078323 0.0001655 0.0078323 0.9998345 -0.0078323
245 0.9998245 -0.0081874 0.0001755 0.0081874 0.0001755 0.0081874 0.9998245 -0.0081874
256 0.9998139 -0.0085587 0.0001861 0.0085587 0.0001861 0.0085587 0.9998139 -0.0085587
268 0.9998026 -0.0089468 0.0001974 0.0089468 0.0001974 0.0089468 0.9998026 -0.0089468
280 0.9997906 -0.0093525 0.0002094 0.0093525 0.0002094 0.0093525 0.9997906 -0.0093525
293 0.9997778 -0.0097767 0.0002222 0.0097767 0.0002222 0.0097767 0.9997778 -0.0097767
306 0.9997641 -0.0102201 0.0002359 0.0102201 0.0002359 0.0102201 0.9997641 -0.0102201
320 0.9997495 -0.0106837 0.0002505 0.0106837 0.0002505 0.0106837 0.9997495 -0.0106837
335 0.9997339 -0.0111685 0.0002661 0.0111685 0.0002661 0.0111685 0.9997339 -0.0111685
350 0.9997172 -0.0116752 0.0002828 0.0116752 0.0002828 0.0116752 0.9997172 -0.0116752
366 0.9996993 -0.0122051 0.0003007 0.0122051 0.0003007 0.0122051 0.9996993 -0.0122051
383 0.9996800 -0.0127591 0.0003200 0.0127591 0.0003200 0.0127591 0.9996800 -0.0127591
401 0.9996593 -0.0133384 0.0003407 0.0133384 0.0003407 0.0133384 0.9996593 -0.0133384
419 0.9996370 -0.0139441 0.0003630 0.0139441 0.0003630 0.0139441 0.9996370 -0.0139441
438 0.9996130 -0.0145773 0.0003870 0.0145773 0.0003870 0.0145773 0.9996130 -0.0145773
458 0.9995870 -0.0152395 0.0004130 0.0152395 0.0004130 0.0152395 0.9995870 -0.0152395
479 0.9995590 -0.0159318 0.0004410 0.0159318 0.0004410 0.0159318 0.9995590 -0.0159318
501 0.9995287 -0.0166557 0.0004713 0.0166557 0.0004713 0.0166557 0.9995287 -0.0166557
524 0.9994959 -0.0174126 0.0005041 0.0174126 0.0005041 0.0174126 0.9994959 -0.0174126
548 0.9994604 -0.0182039 0.0005396 0.0182039 0.0005396 0.0182039 0.9994604 -0.0182039
573 0.9994219 -0.0190313 0.0005781 0.0190313 0.0005781 0.0190313 0.9994219 -0.0190313
600 0.9993801 -0.0198963 0.0006199 0.0198963 0.0006199 0.0198963 0.9993801 -0.0198963
627 0.9993347 -0.0208007 0.0006653 0.0208007 0.0006653 0.0208007 0.9993347 -0.0208007
656 0.9992854 -0.0217461 0.0007146 0.0217461 0.0007146 0.0217461 0.9992854 -0.0217461
686 0.9992318 -0.0227345 0.0007682 0.0227345 0.0007682 0.0227345 0.9992318 -0.0227345
717 0.9991736 -0.0237678 0.0008264 0.0237678 0.0008264 0.0237678 0.9991736 -0.0237678
750 0.9991104 -0.0248480 0.0008896 0.0248480 0.0008896 0.0248480 0.9991104 -0.0248480
784 0.9990416 -0.0259770 0.0009584 0.0259770 0.0009584 0.0259770 0.9990416 -0.0259770
820 0.9989667 -0.0271572 0.0010333 0.0271572 0.0010333 0.0271572 0.9989667 -0.0271572
858 0.9988853 -0.0283908 0.0011147 0.0283908 0.0011147 0.0283908 0.9988853 -0.0283908
897 0.9987968 -0.0296801 0.0012032 0.0296801 0.0012032 0.0296801 0.9987968 -0.0296801
938 0.9987005 -0.0310277 0.0012995 0.0310277 0.0012995 0.0310277 0.9987005 -0.0310277
981 0.9985958 -0.0324359 0.0014042 0.0324359 0.0014042 0.0324359 0.9985958 -0.0324359
1026 0.9984819 -0.0339076 0.0015181 0.0339076 0.0015181 0.0339076 0.9984819 -0.0339076
1073 0.9983580 -0.0354456 0.0016420 0.0354456 0.0016420 0.0354456 0.9983580 -0.0354456
1122 0.9982233 -0.0370526 0.0017767 0.0370526 0.0017767 0.0370526 0.9982233 -0.0370526
1174 0.9980769 -0.0387318 0.0019231 0.0387318 0.0019231 0.0387318 0.9980769 -0.0387318
1227 0.9979176 -0.0404863 0.0020824 0.0404863 0.0020824 0.0404863 0.9979176 -0.0404863
1283 0.9977445 -0.0423194 0.0022555 0.0423194 0.0022555 0.0423194 0.9977445 -0.0423194
1342 0.9975562 -0.0442345 0.0024438 0.0442345 0.0024438 0.0442345 0.9975562 -0.0442345
1404 0.9973516 -0.0462352 0.0026484 0.0462352 0.0026484 0.0462352 0.9973516 -0.0462352
1468 0.9971293 -0.0483252 0.0028707 0.0483252 0.0028707 0.0483252 0.9971293 -0.0483252
1535 0.9968876 -0.0505083 0.0031124 0.0505083 0.0031124 0.0505083 0.9968876 -0.0505083
1606 0.9966249 -0.0527887 0.0033751 0.0527887 0.0033751 0.0527887 0.9966249 -0.0527887
1679 0.9963394 -0.0551704 0.0036606 0.0551704 0.0036606 0.0551704 0.9963394 -0.0551704
1756 0.9960291 -0.0576578 0.0039709 0.0576578 0.0039709 0.0576578 0.9960291 -0.0576578
1836 0.9956918 -0.0602556 0.0043082 0.0602556 0.0043082 0.0602556 0.9956918 -0.0602556
1920 0.9953252 -0.0629683 0.0046748 0.0629683 0.0046748 0.0629683 0.9953252 -0.0629683
2008 0.9949266 -0.0658009 0.0050734 0.0658009 0.0050734 0.0658009 0.9949266 -0.0658009
2100 0.9944934 -0.0687585 0.0055066 0.0687585 0.0055066 0.0687585 0.9944934 -0.0687585
2196 0.9940223 -0.0718462 0.0059777 0.0718462 0.0059777 0.0718462 0.9940223 -0.0718462
2297 0.9935100 -0.0750695 0.0064900 0.0750695 0.0064900 0.0750695 0.9935100 -0.0750695
2402 0.9929528 -0.0784340 0.0070472 0.0784340 0.0070472 0.0784340 0.9929528 -0.0784340
2512 0.9923467 -0.0819455 0.0076533 0.0819455 0.0076533 0.0819455 0.9923467 -0.0819455
2627 0.9916874 -0.0856098 0.0083126 0.0856098 0.0083126 0.0856098 0.9916874 -0.0856098
2748 0.9909700 -0.0894332 0.0090300 0.0894332 0.0090300 0.0894332 0.9909700 -0.0894332
2873 0.9901894 -0.0934217 0.0098106 0.0934217 0.0098106 0.0934217 0.9901894 -0.0934217
3005 0.9893398 -0.0975818 0.0106602 0.0975818 0.0106602 0.0975818 0.9893398 -0.0975818
3143 0.9884151 -0.1019199 0.0115849 0.1019199 0.0115849 0.1019199 0.9884151 -0.1019199
3287 0.9874086 -0.1064426 0.0125914 0.1064426 0.0125914 0.1064426 0.9874086 -0.1064426
3437 0.9863130 -0.1111565 0.0136870 0.1111565 0.0136870 0.1111565 0.9863130 -0.1111565
3594 0.9851204 -0.1160683 0.0148796 0.1160683 0.0148796 0.1160683 0.9851204 -0.1160683
3759 0.9838222 -0.1211847 0.0161778 0.1211847 0.0161778 0.1211847 0.9838222 -0.1211847
3931 0.9824092 -0.1265124 0.0175908 0.1265124 0.0175908 0.1265124 0.9824092 -0.1265124
4111 0.9808713 -0.1320579 0.0191287 0.1320579 0.0191287 0.1320579 0.9808713 -0.1320579
4299 0.9791976 -0.1378277 0.0208024 0.1378277 0.0208024 0.1378277 0.9791976 -0.1378277
4496 0.9773767 -0.1438280 0.0226233 0.1438280 0.0226233 0.1438280 0.9773767 -0.1438280
4702 0.9753958 -0.1500649 0.0246042 0.1500649 0.0246042 0.1500649 0.9753958 -0.1500649
4918 0.9732415 -0.1565441 0.0267585 0.1565441 0.0267585 0.1565441 0.9732415 -0.1565441
5143 0.9708993 -0.1632708 0.0291007 0.1632708 0.0291007 0.1632708 0.9708993 -0.1632708
5378 0.9683538 -0.1702499 0.0316462 0.1702499 0.0316462 0.1702499 0.9683538 -0.1702499
5625 0.9655883 -0.1774855 0.0344117 0.1774855 0.0344117 0.1774855 0.9655883 -0.1774855
5882 0.9625854 -0.1849811 0.0374146 0.1849811 0.0374146 0.1849811 0.9625854 -0.1849811
6151 0.9593261 -0.1927392 0.0406739 0.1927392 0.0406739 0.1927392 0.9593261 -0.1927392
6433 0.9557908 -0.2007615 0.0442092 0.2007615 0.0442092 0.2007615 0.9557908 -0.2007615
6728 0.9519583 -0.2090483 0.0480417 0.2090483 0.0480417 0.2090483 0.9519583 -0.2090483
7036 0.9478065 -0.2175988 0.0521935 0.2175988 0.0521935 0.2175988 0.9478065 -0.2175988
7358 0.9433122 -0.2264105 0.0566878 0.2264105 0.0566878 0.2264105 0.9433122 -0.2264105
7695 0.9384513 -0.2354794 0.0615487 0.2354794 0.0615487 0.2354794 0.9384513 -0.2354794
8047 0.9331983 -0.2447993 0.0668017 0.2447993 0.0668017 0.2447993 0.9331983 -0.2447993
8416 0.9275272 -0.2543623 0.0724728 0.2543623 0.0724728 0.2543623 0.9275272 -0.2543623
8801 0.9214111 -0.2641578 0.0785889 0.2641578 0.0785889 0.2641578 0.9214111 -0.2641578
9204 0.9148225 -0.2741728 0.0851775 0.2741728 0.0851775 0.2741728 0.9148225 -0.2741728
9626 0.9077334 -0.2843913 0.0922666 0.2843913 0.0922666 0.2843913 0.9077334 -0.2843913
10066 0.9001158 -0.2947947 0.0998842 0.2947947 0.0998842 0.2947947 0.9001158 -0.2947947
10527 0.8919415 -0.3053607 0.1080585 0.3053607 0.1080585 0.3053607 0.8919415 -0.3053607
11009 0.8831831 -0.3160639 0.1168169 0.3160639 0.1168169 0.3160639 0.8831831 -0.3160639
11514 0.8738136 -0.3268753 0.1261864 0.3268753 0.1261864 0.3268753 0.8738136 -0.3268753
12041 0.8638073 -0.3377619 0.1361927 0.3377619 0.1361927 0.3377619 0.8638073 -0.3377619
12592 0.8531403 -0.3486871 0.1468597 0.3486871 0.1468597 0.3486871 0.8531403 -0.3486871
13169 0.8417906 -0.3596106 0.1582094 0.3596106 0.1582094 0.3596106 0.8417906 -0.3596106
13772 0.8297391 -0.3704878 0.1702609 0.3704878 0.1702609 0.3704878 0.8297391 -0.3704878
14402 0.8169696 -0.3812706 0.1830304 0.3812706 0.1830304 0.3812706 0.8169696 -0.3812706
15062 0.8034700 -0.3919075 0.1965300 0.3919075 0.1965300 0.3919075 0.8034700 -0.3919075
15752 0.7892326 -0.4023432 0.2107674 0.4023432 0.2107674 0.4023432 0.7892326 -0.4023432
16473 0.7742546 -0.4125200 0.2257454 0.4125200 0.2257454 0.4125200 0.7742546 -0.4125200
17227 0.7585390 -0.4223771 0.2414610 0.4223771 0.2414610 0.4223771 0.7585390 -0.4223771
18016 0.7420947 -0.4318525 0.2579053 0.4318525 0.2579053 0.4318525 0.7420947 -0.4318525
18841 0.7249374 -0.4408823 0.2750626 0.4408823 0.2750626 0.4408823 0.7249374 -0.4408823
19704 0.7070898 -0.4494026 0.2929102 0.4494026 0.2929102 0.4494026 0.7070898 -0.4494026
20606 0.6885818 -0.4573498 0.3114182 0.4573498 0.3114182 0.4573498 0.6885818 -0.4573498
21550 0.6694509 -0.4646619 0.3305491 0.4646619 0.3305491 0.4646619 0.6694509 -0.4646619
22537 0.6497418 -0.4712792 0.3502582 0.4712792 0.3502582 0.4712792 0.6497418 -0.4712792
23569 0.6295069 -0.4771455 0.3704931 0.4771455 0.3704931 0.4771455 0.6295069 -0.4771455
24648 0.6088054 -0.4822094 0.3911946 0.4822094 0.3911946 0.4822094 0.6088054 -0.4822094
25777 0.5877029 -0.4864248 0.4122971 0.4864248 0.4122971 0.4864248 0.5877029 -0.4864248
26957 0.5662710 -0.4897526 0.4337290 0.4897526 0.4337290 0.4897526 0.5662710 -0.4897526
28191 0.5445862 -0.4921608 0.4554138 0.4921608 0.4554138 0.4921608 0.5445862 -0.4921608
29482 0.5227287 -0.4936258 0.4772713 0.4936258 0.4772713 0.4936258 0.5227287 -0.4936258
30832 0.5007817 -0.4941328 0.4992183 0.4941328 0.4992183 0.4941328 0.5007817 -0.4941328
32244 0.4788299 -0.4936761 0.5211701 0.4936761 0.5211701 0.4936761 0.4788299 -0.4936761
33721 0.4569582 -0.4922593 0.5430418 0.4922593 0.5430418 0.4922593 0.4569582 -0.4922593
35265 0.4352504 -0.4898953 0.5647496 0.4898953 0.5647496 0.4898953 0.4352504 -0.4898953
36880 0.4137881 -0.4866059 0.5862119 0.4866059 0.5862119 0.4866059 0.4137881 -0.4866059
38569 0.3926490 -0.4824216 0.6073510 0.4824216 0.6073510 0.4824216 0.3926490 -0.4824216
40335 0.3719066 -0.4773807 0.6280934 0.4773807 0.6280934 0.4773807 0.3719066 -0.4773807
42182 0.3516283 -0.4715283 0.6483717 0.4715283 0.6483717 0.4715283 0.3516283 -0.4715283
44113 0.3318754 -0.4649160 0.6681246 0.4649160 0.6681246 0.4649160 0.3318754 -0.4649160
46134 0.3127021 -0.4576001 0.6872979 0.4576001 0.6872979 0.4576001 0.3127021 -0.4576001
48246 0.2941550 -0.4496409 0.7058450 0.4496409 0.7058450 0.4496409 0.2941550 -0.4496409
50455 0.2762731 -0.4411015 0.7237269 0.4411015 0.7237269 0.4411015 0.2762731 -0.4411015
52766 0.2590877 -0.4320469 0.7409123 0.4320469 0.7409123 0.4320469 0.2590877 -0.4320469
55182 0.2426222 -0.4225424 0.7573778 0.4225424 0.7573778 0.4225424 0.2426222 -0.4225424
57709 0.2268929 -0.4126534 0.7731071 0.4126534 0.7731071 0.4126534 0.2268929 -0.4126534
60352 0.2119092 -0.4024437 0.7880908 0.4024437 0.7880908 0.4024437 0.2119092 -0.4024437
63115 0.1976736 -0.3919756 0.8023264 0.3919756 0.8023264 0.3919756 0.1976736 -0.3919756
66005 0.1841832 -0.3813084 0.8158168 0.3813084 0.8158168 0.3813084 0.1841832 -0.3813084
69028 0.1714295 -0.3704985 0.8285705 0.3704985 0.8285705 0.3704985 0.1714295 -0.3704985
72189 0.1593994 -0.3595988 0.8406006 0.3595988 0.8406006 0.3595988 0.1593994 -0.3595988
75495 0.1480758 -0.3486583 0.8519242 0.3486583 0.8519242 0.3486583 0.1480758 -0.3486583
78952 0.1374385 -0.3377219 0.8625615 0.3377219 0.8625615 0.3377219 0.1374385 -0.3377219
82567 0.1274641 -0.3268307 0.8725359 0.3268307 0.8725359 0.3268307 0.1274641 -0.3268307
86348 0.1181276 -0.3160215 0.8818724 0.3160215 0.8818724 0.3160215 0.1181276 -0.3160215
90302 0.1094020 -0.3053269 0.8905980 0.3053269 0.8905980 0.3053269 0.1094020 -0.3053269
94437 0.1012593 -0.2947759 0.8987407 0.2947759 0.8987407 0.2947759 0.1012593 -0.2947759
98762 0.0936710 -0.2843936 0.9063290 0.2843936 0.9063290 0.2843936 0.0936710 -0.2843936
103284 0.0866081 -0.2742014 0.9133919 0.2742014 0.9133919 0.2742014 0.0866081 -0.2742014
108014 0.0800418 -0.2642175 0.9199582 0.2642175 0.9199582 0.2642175 0.0800418 -0.2642175
112960 0.0739434 -0.2544571 0.9260566 0.2544571 0.9260566 0.2544571 0.0739434 -0.2544571
118133 0.0682851 -0.2449324 0.9317149 0.2449324 0.9317149 0.2449324 0.0682851 -0.2449324
123542 0.0630397 -0.2356529 0.9369603 0.2356529 0.9369603 0.2356529 0.0630397 -0.2356529
129199 0.0581808 -0.2266260 0.9418192 0.2266260 0.9418192 0.2266260 0.0581808 -0.2266260
135116 0.0536832 -0.2178569 0.9463168 0.2178569 0.9463168 0.2178569 0.0536832 -0.2178569
141303 0.0495227 -0.2093489 0.9504773 0.2093489 0.9504773 0.2093489 0.0495227 -0.2093489
147774 0.0456763 -0.2011037 0.9543237 0.2011037 0.9543237 0.2011037 0.0456763 -0.2011037
154540 0.0421221 -0.1931214 0.9578779 0.1931214 0.9578779 0.1931214 0.0421221 -0.1931214
161617 0.0388397 -0.1854012 0.9611603 0.1854012 0.9611603 0.1854012 0.0388397 -0.1854012
169018 0.0358095 -0.1779408 0.9641905 0.1779408 0.9641905 0.1779408 0.0358095 -0.1779408
176758 0.0330133 -0.1707373 0.9669867 0.1707373 0.9669867 0.1707373 0.0330133 -0.1707373
184852 0.0304340 -0.1637869 0.9695660 0.1637869 0.9695660 0.1637869 0.0304340 -0.1637869
193316 0.0280556 -0.1570851 0.9719444 0.1570851 0.9719444 0.1570851 0.0280556 -0.1570851
202169 0.0258633 -0.1506272 0.9741367 0.1506272 0.9741367 0.1506272 0.0258633 -0.1506272
211427 0.0238430 -0.1444076 0.9761570 0.1444076 0.9761570 0.1444076 0.0238430 -0.1444076
221108 0.0219819 -0.1384207 0.9780181 0.1384207 0.9780181 0.1384207 0.0219819 -0.1384207
231233 0.0202678 -0.1326606 0.9797322 0.1326606 0.9797322 0.1326606 0.0202678 -0.1326606
241822 0.0186897 -0.1271212 0.9813103 0.1271212 0.9813103 0.1271212 0.0186897 -0.1271212
252896 0.0172370 -0.1217961 0.9827630 0.1217961 0.9827630 0.1217961 0.0172370 -0.1217961
264476 0.0159001 -0.1166790 0.9840999 0.1166790 0.9840999 0.1166790 0.0159001 -0.1166790
276587 0.0146702 -0.1117636 0.9853298 0.1117636 0.9853298 0.1117636 0.0146702 -0.1117636
289253 0.0135388 -0.1070434 0.9864612 0.1070434 0.9864612 0.1070434 0.0135388 -0.1070434
302498 0.0124983 -0.1025122 0.9875017 0.1025122 0.9875017 0.1025122 0.0124983 -0.1025122
316350 0.0115417 -0.0981635 0.9884583 0.0981635 0.9884583 0.0981635 0.0115417 -0.0981635
330837 0.0106622 -0.0939913 0.9893378 0.0939913 0.9893378 0.0939913 0.0106622 -0.0939913
345986 0.0098538 -0.0899892 0.9901462 0.0899892 0.9901462 0.0899892 0.0098538 -0.0899892
361830 0.0091108 -0.0861513 0.9908892 0.0861513 0.9908892 0.0861513 0.0091108 -0.0861513
378399 0.0084281 -0.0824717 0.9915719 0.0824717 0.9915719 0.0824717 0.0084281 -0.0824717
395726 0.0078008 -0.0789445 0.9921992 0.0789445 0.9921992 0.0789445 0.0078008 -0.0789445
413847 0.0072243 -0.0755641 0.9927757 0.0755641 0.9927757 0.0755641 0.0072243 -0.0755641
432798 0.0066947 -0.0723249 0.9933053 0.0723249 0.9933053 0.0723249 0.0066947 -0.0723249
452617 0.0062080 -0.0692217 0.9937920 0.0692217 0.9937920 0.0692217 0.0062080 -0.0692217
473344 0.0057608 -0.0662490 0.9942392 0.0662490 0.9942392 0.0662490 0.0057608 -0.0662490
495019 0.0053498 -0.0634018 0.9946502 0.0634018 0.9946502 0.0634018 0.0053498 -0.0634018
517687 0.0049720 -0.0606752 0.9950280 0.0606752 0.9950280 0.0606752 0.0049720 -0.0606752
541393 0.0046247 -0.0580644 0.9953753 0.0580644 0.9953753 0.0580644 0.0046247 -0.0580644
566185 0.0043053 -0.0555647 0.9956947 0.0555647 0.9956947 0.0555647 0.0043053 -0.0555647
592111 0.0040115 -0.0531716 0.9959885 0.0531716 0.9959885 0.0531716 0.0040115 -0.0531716
619225 0.0037411 -0.0508808 0.9962589 0.0508808 0.9962589 0.0508808 0.0037411 -0.0508808
647581 0.0034921 -0.0486881 0.9965079 0.0486881 0.9965079 0.0486881 0.0034921 -0.0486881
677235 0.0032628 -0.0465894 0.9967372 0.0465894 0.9967372 0.0465894 0.0032628 -0.0465894
708247 0.0030515 -0.0445808 0.9969485 0.0445808 0.9969485 0.0445808 0.0030515 -0.0445808
740679 0.0028566 -0.0426585 0.9971434 0.0426585 0.9971434 0.0426585 0.0028566 -0.0426585
774597 0.0026768 -0.0408188 0.9973232 0.0408188 0.9973232 0.0408188 0.0026768 -0.0408188
810067 0.0025108 -0.0390583 0.9974892 0.0390583 0.9974892 0.0390583 0.0025108 -0.0390583
847162 0.0023573 -0.0373737 0.9976427 0.0373737 0.9976427 0.0373737 0.0023573 -0.0373737
885955 0.0022155 -0.0357616 0.9977845 0.0357616 0.9977845 0.0357616 0.0022155 -0.0357616
926525 0.0020842 -0.0342189 0.9979158 0.0342189 0.9979158 0.0342189 0.0020842 -0.0342189
968953 0.0019625 -0.0327427 0.9980375 0.0327427 0.9980375 0.0327427 0.0019625 -0.0327427
1013323 0.0018498 -0.0313301 0.9981502 0.0313301 0.9981502 0.0313301 0.0018498 -0.0313301
1059725 0.0017453 -0.0299783 0.9982547 0.0299783 0.9982547 0.0299783 0.0017453 -0.0299783
1108252 0.0016482 -0.0286847 0.9983518 0.0286847 0.9983518 0.0286847 0.0016482 -0.0286847
1159002 0.0015580 -0.0274467 0.9984420 0.0274467 0.9984420 0.0274467 0.0015580 -0.0274467
1212075 0.0014742 -0.0262620 0.9985258 0.0262620 0.9985258 0.0262620 0.0014742 -0.0262620
1267578 0.0013962 -0.0251283 0.9986038 0.0251283 0.9986038 0.0251283 0.0013962 -0.0251283
1325623 0.0013236 -0.0240432 0.9986764 0.0240432 0.9986764 0.0240432 0.0013236 -0.0240432
1386327 0.0012560 -0.0230047 0.9987440 0.0230047 0.9987440 0.0230047 0.0012560 -0.0230047
1449809 0.0011931 -0.0220109 0.9988069 0.0220109 0.9988069 0.0220109 0.0011931 -0.0220109
1516199 0.0011343 -0.0210596 0.9988657 0.0210596 0.9988657 0.0210596 0.0011343 -0.0210596
1585629 0.0010796 -0.0201491 0.9989204 0.0201491 0.9989204 0.0201491 0.0010796 -0.0201491
1658239 0.0010285 -0.0192777 0.9989715 0.0192777 0.9989715 0.0192777 0.0010285 -0.0192777
1734173 0.0009808 -0.0184435 0.9990192 0.0184435 0.9990192 0.0184435 0.0009808 -0.0184435
1813585 0.0009363 -0.0176451 0.9990637 0.0176451 0.9990637 0.0176451 0.0009363 -0.0176451
1896632 0.0008947 -0.0168808 0.9991053 0.0168808 0.9991053 0.0168808 0.0008947 -0.0168808
1983483 0.0008559 -0.0161492 0.9991441 0.0161492 0.9991441 0.0161492 0.0008559 -0.0161492
2074311 0.0008197 -0.0154489 0.9991803 0.0154489 0.9991803 0.0154489 0.0008197 -0.0154489
