!Murata Part Number: GRM033R71A272KA01
!These Parameters are Measured in Series Mode Connection
!Data Generated on Mar 30, 2021
!       o--ll--o
!Port1            Port2
!       o------o
!Operation Temp=25[degC], DC Bias Voltage=0[V]
!Freq. Start=100[Hz] Stop=6[GHz] 401[Steps]
# Hz S RI R 50
!Freq.(Hz) S11(Real) S11(Imag) S21(Real) S21(Imag) S12(Real) S12(Imag) S22(Real) S22(Imag)
100 0.9999989 -0.0001726 0.0000011 0.0001726 0.0000011 0.0001726 0.9999989 -0.0001726
105 0.9999989 -0.0001805 0.0000011 0.0001805 0.0000011 0.0001805 0.9999989 -0.0001805
109 0.9999988 -0.0001887 0.0000012 0.0001887 0.0000012 0.0001887 0.9999988 -0.0001887
114 0.9999988 -0.0001973 0.0000012 0.0001973 0.0000012 0.0001973 0.9999988 -0.0001973
120 0.9999987 -0.0002063 0.0000013 0.0002063 0.0000013 0.0002063 0.9999987 -0.0002063
125 0.9999987 -0.0002157 0.0000013 0.0002157 0.0000013 0.0002157 0.9999987 -0.0002157
131 0.9999986 -0.0002256 0.0000014 0.0002256 0.0000014 0.0002256 0.9999986 -0.0002256
137 0.9999986 -0.0002359 0.0000014 0.0002359 0.0000014 0.0002359 0.9999986 -0.0002359
143 0.9999985 -0.0002466 0.0000015 0.0002466 0.0000015 0.0002466 0.9999985 -0.0002466
150 0.9999984 -0.0002579 0.0000016 0.0002579 0.0000016 0.0002579 0.9999984 -0.0002579
156 0.9999983 -0.0002696 0.0000017 0.0002696 0.0000017 0.0002696 0.9999983 -0.0002696
164 0.9999983 -0.0002819 0.0000017 0.0002819 0.0000017 0.0002819 0.9999983 -0.0002819
171 0.9999982 -0.0002948 0.0000018 0.0002948 0.0000018 0.0002948 0.9999982 -0.0002948
179 0.9999981 -0.0003082 0.0000019 0.0003082 0.0000019 0.0003082 0.9999981 -0.0003082
187 0.9999980 -0.0003223 0.0000020 0.0003223 0.0000020 0.0003223 0.9999980 -0.0003223
196 0.9999979 -0.0003370 0.0000021 0.0003370 0.0000021 0.0003370 0.9999979 -0.0003370
205 0.9999979 -0.0003523 0.0000021 0.0003523 0.0000021 0.0003523 0.9999979 -0.0003523
214 0.9999978 -0.0003684 0.0000022 0.0003684 0.0000022 0.0003684 0.9999978 -0.0003684
224 0.9999977 -0.0003852 0.0000023 0.0003852 0.0000023 0.0003852 0.9999977 -0.0003852
234 0.9999976 -0.0004028 0.0000024 0.0004028 0.0000024 0.0004028 0.9999976 -0.0004028
245 0.9999974 -0.0004212 0.0000026 0.0004212 0.0000026 0.0004212 0.9999974 -0.0004212
256 0.9999973 -0.0004404 0.0000027 0.0004404 0.0000027 0.0004404 0.9999973 -0.0004404
268 0.9999972 -0.0004605 0.0000028 0.0004605 0.0000028 0.0004605 0.9999972 -0.0004605
280 0.9999971 -0.0004815 0.0000029 0.0004815 0.0000029 0.0004815 0.9999971 -0.0004815
293 0.9999970 -0.0005035 0.0000030 0.0005035 0.0000030 0.0005035 0.9999970 -0.0005035
306 0.9999968 -0.0005264 0.0000032 0.0005264 0.0000032 0.0005264 0.9999968 -0.0005264
320 0.9999967 -0.0005505 0.0000033 0.0005505 0.0000033 0.0005505 0.9999967 -0.0005505
335 0.9999965 -0.0005756 0.0000035 0.0005756 0.0000035 0.0005756 0.9999965 -0.0005756
350 0.9999963 -0.0006019 0.0000037 0.0006019 0.0000037 0.0006019 0.9999963 -0.0006019
366 0.9999962 -0.0006293 0.0000038 0.0006293 0.0000038 0.0006293 0.9999962 -0.0006293
383 0.9999960 -0.0006581 0.0000040 0.0006581 0.0000040 0.0006581 0.9999960 -0.0006581
401 0.9999958 -0.0006881 0.0000042 0.0006881 0.0000042 0.0006881 0.9999958 -0.0006881
419 0.9999956 -0.0007195 0.0000044 0.0007195 0.0000044 0.0007195 0.9999956 -0.0007195
438 0.9999953 -0.0007524 0.0000047 0.0007524 0.0000047 0.0007524 0.9999953 -0.0007524
458 0.9999951 -0.0007867 0.0000049 0.0007867 0.0000049 0.0007867 0.9999951 -0.0007867
479 0.9999948 -0.0008226 0.0000052 0.0008226 0.0000052 0.0008226 0.9999948 -0.0008226
501 0.9999946 -0.0008602 0.0000054 0.0008602 0.0000054 0.0008602 0.9999946 -0.0008602
524 0.9999943 -0.0008994 0.0000057 0.0008994 0.0000057 0.0008994 0.9999943 -0.0008994
548 0.9999939 -0.0009405 0.0000061 0.0009405 0.0000061 0.0009405 0.9999939 -0.0009405
573 0.9999936 -0.0009834 0.0000064 0.0009834 0.0000064 0.0009834 0.9999936 -0.0009834
600 0.9999932 -0.0010283 0.0000068 0.0010283 0.0000068 0.0010283 0.9999932 -0.0010283
627 0.9999929 -0.0010752 0.0000071 0.0010752 0.0000071 0.0010752 0.9999929 -0.0010752
656 0.9999924 -0.0011243 0.0000076 0.0011243 0.0000076 0.0011243 0.9999924 -0.0011243
686 0.9999920 -0.0011756 0.0000080 0.0011756 0.0000080 0.0011756 0.9999920 -0.0011756
717 0.9999915 -0.0012292 0.0000085 0.0012292 0.0000085 0.0012292 0.9999915 -0.0012292
750 0.9999910 -0.0012853 0.0000090 0.0012853 0.0000090 0.0012853 0.9999910 -0.0012853
784 0.9999905 -0.0013439 0.0000095 0.0013439 0.0000095 0.0013439 0.9999905 -0.0013439
820 0.9999900 -0.0014052 0.0000100 0.0014052 0.0000100 0.0014052 0.9999900 -0.0014052
858 0.9999894 -0.0014693 0.0000106 0.0014693 0.0000106 0.0014693 0.9999894 -0.0014693
897 0.9999887 -0.0015363 0.0000113 0.0015363 0.0000113 0.0015363 0.9999887 -0.0015363
938 0.9999881 -0.0016064 0.0000119 0.0016064 0.0000119 0.0016064 0.9999881 -0.0016064
981 0.9999874 -0.0016796 0.0000126 0.0016796 0.0000126 0.0016796 0.9999874 -0.0016796
1026 0.9999866 -0.0017562 0.0000134 0.0017562 0.0000134 0.0017562 0.9999866 -0.0017562
1073 0.9999859 -0.0018363 0.0000141 0.0018363 0.0000141 0.0018363 0.9999859 -0.0018363
1122 0.9999850 -0.0019200 0.0000150 0.0019200 0.0000150 0.0019200 0.9999850 -0.0019200
1174 0.9999842 -0.0020075 0.0000158 0.0020075 0.0000158 0.0020075 0.9999842 -0.0020075
1227 0.9999832 -0.0020990 0.0000168 0.0020990 0.0000168 0.0020990 0.9999832 -0.0020990
1283 0.9999823 -0.0021947 0.0000177 0.0021947 0.0000177 0.0021947 0.9999823 -0.0021947
1342 0.9999812 -0.0022948 0.0000188 0.0022948 0.0000188 0.0022948 0.9999812 -0.0022948
1404 0.9999802 -0.0023994 0.0000198 0.0023994 0.0000198 0.0023994 0.9999802 -0.0023994
1468 0.9999790 -0.0025088 0.0000210 0.0025088 0.0000210 0.0025088 0.9999790 -0.0025088
1535 0.9999778 -0.0026232 0.0000222 0.0026232 0.0000222 0.0026232 0.9999778 -0.0026232
1606 0.9999766 -0.0027428 0.0000234 0.0027428 0.0000234 0.0027428 0.9999766 -0.0027428
1679 0.9999752 -0.0028678 0.0000248 0.0028678 0.0000248 0.0028678 0.9999752 -0.0028678
1756 0.9999738 -0.0029986 0.0000262 0.0029986 0.0000262 0.0029986 0.9999738 -0.0029986
1836 0.9999723 -0.0031353 0.0000277 0.0031353 0.0000277 0.0031353 0.9999723 -0.0031353
1920 0.9999707 -0.0032783 0.0000293 0.0032783 0.0000293 0.0032783 0.9999707 -0.0032783
2008 0.9999689 -0.0034279 0.0000311 0.0034279 0.0000311 0.0034279 0.9999689 -0.0034279
2100 0.9999671 -0.0035842 0.0000329 0.0035842 0.0000329 0.0035842 0.9999671 -0.0035842
2196 0.9999651 -0.0037477 0.0000349 0.0037477 0.0000349 0.0037477 0.9999651 -0.0037477
2297 0.9999630 -0.0039187 0.0000370 0.0039187 0.0000370 0.0039187 0.9999630 -0.0039187
2402 0.9999608 -0.0040975 0.0000392 0.0040975 0.0000392 0.0040975 0.9999608 -0.0040975
2512 0.9999584 -0.0042845 0.0000416 0.0042845 0.0000416 0.0042845 0.9999584 -0.0042845
2627 0.9999558 -0.0044801 0.0000442 0.0044801 0.0000442 0.0044801 0.9999558 -0.0044801
2748 0.9999530 -0.0046846 0.0000470 0.0046846 0.0000470 0.0046846 0.9999530 -0.0046846
2873 0.9999499 -0.0048984 0.0000501 0.0048984 0.0000501 0.0048984 0.9999499 -0.0048984
3005 0.9999467 -0.0051220 0.0000533 0.0051220 0.0000533 0.0051220 0.9999467 -0.0051220
3143 0.9999431 -0.0053559 0.0000569 0.0053559 0.0000569 0.0053559 0.9999431 -0.0053559
3287 0.9999393 -0.0056004 0.0000607 0.0056004 0.0000607 0.0056004 0.9999393 -0.0056004
3437 0.9999351 -0.0058561 0.0000649 0.0058561 0.0000649 0.0058561 0.9999351 -0.0058561
3594 0.9999306 -0.0061235 0.0000694 0.0061235 0.0000694 0.0061235 0.9999306 -0.0061235
3759 0.9999258 -0.0064031 0.0000742 0.0064031 0.0000742 0.0064031 0.9999258 -0.0064031
3931 0.9999205 -0.0066955 0.0000795 0.0066955 0.0000795 0.0066955 0.9999205 -0.0066955
4111 0.9999147 -0.0070013 0.0000853 0.0070013 0.0000853 0.0070013 0.9999147 -0.0070013
4299 0.9999085 -0.0073210 0.0000915 0.0073210 0.0000915 0.0073210 0.9999085 -0.0073210
4496 0.9999017 -0.0076553 0.0000983 0.0076553 0.0000983 0.0076553 0.9999017 -0.0076553
4702 0.9998943 -0.0080048 0.0001057 0.0080048 0.0001057 0.0080048 0.9998943 -0.0080048
4918 0.9998863 -0.0083703 0.0001137 0.0083703 0.0001137 0.0083703 0.9998863 -0.0083703
5143 0.9998776 -0.0087525 0.0001224 0.0087525 0.0001224 0.0087525 0.9998776 -0.0087525
5378 0.9998681 -0.0091521 0.0001319 0.0091521 0.0001319 0.0091521 0.9998681 -0.0091521
5625 0.9998579 -0.0095699 0.0001421 0.0095699 0.0001421 0.0095699 0.9998579 -0.0095699
5882 0.9998467 -0.0100067 0.0001533 0.0100067 0.0001533 0.0100067 0.9998467 -0.0100067
6151 0.9998345 -0.0104635 0.0001655 0.0104635 0.0001655 0.0104635 0.9998345 -0.0104635
6433 0.9998214 -0.0109410 0.0001786 0.0109410 0.0001786 0.0109410 0.9998214 -0.0109410
6728 0.9998070 -0.0114403 0.0001930 0.0114403 0.0001930 0.0114403 0.9998070 -0.0114403
7036 0.9997915 -0.0119623 0.0002085 0.0119623 0.0002085 0.0119623 0.9997915 -0.0119623
7358 0.9997746 -0.0125080 0.0002254 0.0125080 0.0002254 0.0125080 0.9997746 -0.0125080
7695 0.9997563 -0.0130786 0.0002437 0.0130786 0.0002437 0.0130786 0.9997563 -0.0130786
8047 0.9997364 -0.0136751 0.0002636 0.0136751 0.0002636 0.0136751 0.9997364 -0.0136751
8416 0.9997148 -0.0142987 0.0002852 0.0142987 0.0002852 0.0142987 0.9997148 -0.0142987
8801 0.9996913 -0.0149507 0.0003087 0.0149507 0.0003087 0.0149507 0.9996913 -0.0149507
9204 0.9996659 -0.0156323 0.0003341 0.0156323 0.0003341 0.0156323 0.9996659 -0.0156323
9626 0.9996383 -0.0163449 0.0003617 0.0163449 0.0003617 0.0163449 0.9996383 -0.0163449
10066 0.9996083 -0.0170898 0.0003917 0.0170898 0.0003917 0.0170898 0.9996083 -0.0170898
10527 0.9995758 -0.0178686 0.0004242 0.0178686 0.0004242 0.0178686 0.9995758 -0.0178686
11009 0.9995405 -0.0186828 0.0004595 0.0186828 0.0004595 0.0186828 0.9995405 -0.0186828
11514 0.9995022 -0.0195340 0.0004978 0.0195340 0.0004978 0.0195340 0.9995022 -0.0195340
12041 0.9994607 -0.0204238 0.0005393 0.0204238 0.0005393 0.0204238 0.9994607 -0.0204238
12592 0.9994156 -0.0213541 0.0005844 0.0213541 0.0005844 0.0213541 0.9994156 -0.0213541
13169 0.9993666 -0.0223267 0.0006334 0.0223267 0.0006334 0.0223267 0.9993666 -0.0223267
13772 0.9993134 -0.0233434 0.0006866 0.0233434 0.0006866 0.0233434 0.9993134 -0.0233434
14402 0.9992556 -0.0244063 0.0007444 0.0244063 0.0007444 0.0244063 0.9992556 -0.0244063
15062 0.9991928 -0.0255175 0.0008072 0.0255175 0.0008072 0.0255175 0.9991928 -0.0255175
15752 0.9991245 -0.0266791 0.0008755 0.0266791 0.0008755 0.0266791 0.9991245 -0.0266791
16473 0.9990503 -0.0278935 0.0009497 0.0278935 0.0009497 0.0278935 0.9990503 -0.0278935
17227 0.9989695 -0.0291630 0.0010305 0.0291630 0.0010305 0.0291630 0.9989695 -0.0291630
18016 0.9988817 -0.0304901 0.0011183 0.0304901 0.0011183 0.0304901 0.9988817 -0.0304901
18841 0.9987861 -0.0318775 0.0012139 0.0318775 0.0012139 0.0318775 0.9987861 -0.0318775
19704 0.9986820 -0.0333277 0.0013180 0.0333277 0.0013180 0.0333277 0.9986820 -0.0333277
20606 0.9985686 -0.0348437 0.0014314 0.0348437 0.0014314 0.0348437 0.9985686 -0.0348437
21550 0.9984451 -0.0364284 0.0015549 0.0364284 0.0015549 0.0364284 0.9984451 -0.0364284
22537 0.9983105 -0.0380848 0.0016895 0.0380848 0.0016895 0.0380848 0.9983105 -0.0380848
23569 0.9981638 -0.0398161 0.0018362 0.0398161 0.0018362 0.0398161 0.9981638 -0.0398161
24648 0.9980039 -0.0416256 0.0019961 0.0416256 0.0019961 0.0416256 0.9980039 -0.0416256
25777 0.9978296 -0.0435168 0.0021704 0.0435168 0.0021704 0.0435168 0.9978296 -0.0435168
26957 0.9976394 -0.0454933 0.0023606 0.0454933 0.0023606 0.0454933 0.9976394 -0.0454933
28191 0.9974321 -0.0475587 0.0025679 0.0475587 0.0025679 0.0475587 0.9974321 -0.0475587
29482 0.9972059 -0.0497170 0.0027941 0.0497170 0.0027941 0.0497170 0.9972059 -0.0497170
30832 0.9969591 -0.0519722 0.0030409 0.0519722 0.0030409 0.0519722 0.9969591 -0.0519722
32244 0.9966899 -0.0543284 0.0033101 0.0543284 0.0033101 0.0543284 0.9966899 -0.0543284
33721 0.9963962 -0.0567899 0.0036038 0.0567899 0.0036038 0.0567899 0.9963962 -0.0567899
35265 0.9960757 -0.0593612 0.0039243 0.0593612 0.0039243 0.0593612 0.9960757 -0.0593612
36880 0.9957261 -0.0620470 0.0042739 0.0620470 0.0042739 0.0620470 0.9957261 -0.0620470
38569 0.9953447 -0.0648520 0.0046553 0.0648520 0.0046553 0.0648520 0.9953447 -0.0648520
40335 0.9949287 -0.0677812 0.0050713 0.0677812 0.0050713 0.0677812 0.9949287 -0.0677812
42182 0.9944748 -0.0708397 0.0055252 0.0708397 0.0055252 0.0708397 0.9944748 -0.0708397
44113 0.9939797 -0.0740328 0.0060203 0.0740328 0.0060203 0.0740328 0.9939797 -0.0740328
46134 0.9934398 -0.0773658 0.0065602 0.0773658 0.0065602 0.0773658 0.9934398 -0.0773658
48246 0.9928511 -0.0808443 0.0071489 0.0808443 0.0071489 0.0808443 0.9928511 -0.0808443
50455 0.9922091 -0.0844741 0.0077909 0.0844741 0.0077909 0.0844741 0.9922091 -0.0844741
52766 0.9915093 -0.0882611 0.0084907 0.0882611 0.0084907 0.0882611 0.9915093 -0.0882611
55182 0.9907465 -0.0922112 0.0092535 0.0922112 0.0092535 0.0922112 0.9907465 -0.0922112
57709 0.9899151 -0.0963305 0.0100849 0.0963305 0.0100849 0.0963305 0.9899151 -0.0963305
60352 0.9890093 -0.1006254 0.0109907 0.1006254 0.0109907 0.1006254 0.9890093 -0.1006254
63115 0.9880226 -0.1051021 0.0119774 0.1051021 0.0119774 0.1051021 0.9880226 -0.1051021
66005 0.9869478 -0.1097672 0.0130522 0.1097672 0.0130522 0.1097672 0.9869478 -0.1097672
69028 0.9857775 -0.1146270 0.0142225 0.1146270 0.0142225 0.1146270 0.9857775 -0.1146270
72189 0.9845035 -0.1196881 0.0154965 0.1196881 0.0154965 0.1196881 0.9845035 -0.1196881
75495 0.9831169 -0.1249571 0.0168831 0.1249571 0.0168831 0.1249571 0.9831169 -0.1249571
78952 0.9816080 -0.1304404 0.0183920 0.1304404 0.0183920 0.1304404 0.9816080 -0.1304404
82567 0.9799667 -0.1361444 0.0200333 0.1361444 0.0200333 0.1361444 0.9799667 -0.1361444
86348 0.9781818 -0.1420755 0.0218182 0.1420755 0.0218182 0.1420755 0.9781818 -0.1420755
90302 0.9762413 -0.1482397 0.0237587 0.1482397 0.0237587 0.1482397 0.9762413 -0.1482397
94437 0.9741322 -0.1546429 0.0258678 0.1546429 0.0258678 0.1546429 0.9741322 -0.1546429
98762 0.9718408 -0.1612907 0.0281592 0.1612907 0.0281592 0.1612907 0.9718408 -0.1612907
103284 0.9693522 -0.1681880 0.0306478 0.1681880 0.0306478 0.1681880 0.9693522 -0.1681880
108014 0.9666504 -0.1753396 0.0333496 0.1753396 0.0333496 0.1753396 0.9666504 -0.1753396
112960 0.9637185 -0.1827493 0.0362815 0.1827493 0.0362815 0.1827493 0.9637185 -0.1827493
118133 0.9605381 -0.1904204 0.0394619 0.1904204 0.0394619 0.1904204 0.9605381 -0.1904204
123542 0.9570901 -0.1983551 0.0429099 0.1983551 0.0429099 0.1983551 0.9570901 -0.1983551
129199 0.9533538 -0.2065547 0.0466462 0.2065547 0.0466462 0.2065547 0.9533538 -0.2065547
135116 0.9493076 -0.2150192 0.0506924 0.2150192 0.0506924 0.2150192 0.9493076 -0.2150192
141303 0.9449285 -0.2237472 0.0550715 0.2237472 0.0550715 0.2237472 0.9449285 -0.2237472
147774 0.9401925 -0.2327356 0.0598075 0.2327356 0.0598075 0.2327356 0.9401925 -0.2327356
154540 0.9350744 -0.2419795 0.0649256 0.2419795 0.0649256 0.2419795 0.9350744 -0.2419795
161617 0.9295480 -0.2514721 0.0704520 0.2514721 0.0704520 0.2514721 0.9295480 -0.2514721
169018 0.9235862 -0.2612041 0.0764138 0.2612041 0.0764138 0.2612041 0.9235862 -0.2612041
176758 0.9171611 -0.2711637 0.0828389 0.2711637 0.0828389 0.2711637 0.9171611 -0.2711637
184852 0.9102442 -0.2813364 0.0897558 0.2813364 0.0897558 0.2813364 0.9102442 -0.2813364
193316 0.9028067 -0.2917045 0.0971933 0.2917045 0.0971933 0.2917045 0.9028067 -0.2917045
202169 0.8948196 -0.3022471 0.1051804 0.3022471 0.1051804 0.3022471 0.8948196 -0.3022471
211427 0.8862543 -0.3129399 0.1137457 0.3129399 0.1137457 0.3129399 0.8862543 -0.3129399
221108 0.8770825 -0.3237547 0.1229175 0.3237547 0.1229175 0.3237547 0.8770825 -0.3237547
231233 0.8672772 -0.3346594 0.1327228 0.3346594 0.1327228 0.3346594 0.8672772 -0.3346594
241822 0.8568128 -0.3456182 0.1431872 0.3456182 0.1431872 0.3456182 0.8568128 -0.3456182
252896 0.8456658 -0.3565909 0.1543342 0.3565909 0.1543342 0.3565909 0.8456658 -0.3565909
264476 0.8338151 -0.3675334 0.1661849 0.3675334 0.1661849 0.3675334 0.8338151 -0.3675334
276587 0.8212429 -0.3783975 0.1787571 0.3783975 0.1787571 0.3783975 0.8212429 -0.3783975
289253 0.8079353 -0.3891312 0.1920647 0.3891312 0.1920647 0.3891312 0.8079353 -0.3891312
302498 0.7938829 -0.3996789 0.2061171 0.3996789 0.2061171 0.3996789 0.7938829 -0.3996789
316350 0.7790813 -0.4099819 0.2209187 0.4099819 0.2209187 0.4099819 0.7790813 -0.4099819
330837 0.7635319 -0.4199786 0.2364681 0.4199786 0.2364681 0.4199786 0.7635319 -0.4199786
345986 0.7472425 -0.4296055 0.2527575 0.4296055 0.2527575 0.4296055 0.7472425 -0.4296055
361830 0.7302277 -0.4387976 0.2697723 0.4387976 0.2697723 0.4387976 0.7302277 -0.4387976
378399 0.7125093 -0.4474896 0.2874907 0.4474896 0.2874907 0.4474896 0.7125093 -0.4474896
395726 0.6941167 -0.4556163 0.3058833 0.4556163 0.3058833 0.4556163 0.6941167 -0.4556163
413847 0.6750870 -0.4631143 0.3249130 0.4631143 0.3249130 0.4631143 0.6750870 -0.4631143
432798 0.6554649 -0.4699225 0.3445351 0.4699225 0.3445351 0.4699225 0.6554649 -0.4699225
452617 0.6353028 -0.4759834 0.3646972 0.4759834 0.3646972 0.4759834 0.6353028 -0.4759834
473344 0.6146601 -0.4812445 0.3853399 0.4812445 0.3853399 0.4812445 0.6146601 -0.4812445
495019 0.5936028 -0.4856588 0.4063972 0.4856588 0.4063972 0.4856588 0.5936028 -0.4856588
517687 0.5722028 -0.4891862 0.4277972 0.4891862 0.4277972 0.4891862 0.5722028 -0.4891862
541393 0.5505367 -0.4917943 0.4494633 0.4917943 0.4494633 0.4917943 0.5505367 -0.4917943
566185 0.5286854 -0.4934587 0.4713146 0.4934587 0.4713146 0.4934587 0.5286854 -0.4934587
592111 0.5067320 -0.4941643 0.4932680 0.4941643 0.4932680 0.4941643 0.5067320 -0.4941643
619225 0.4847615 -0.4939047 0.5152385 0.4939047 0.5152385 0.4939047 0.4847615 -0.4939047
647581 0.4628585 -0.4926833 0.5371415 0.4926833 0.5371415 0.4926833 0.4628585 -0.4926833
677235 0.4411071 -0.4905124 0.5588929 0.4905124 0.5588929 0.4905124 0.4411071 -0.4905124
708247 0.4195884 -0.4874132 0.5804116 0.4874132 0.5804116 0.4874132 0.4195884 -0.4874132
740679 0.3983802 -0.4834154 0.6016198 0.4834154 0.6016198 0.4834154 0.3983802 -0.4834154
774597 0.3775558 -0.4785564 0.6224442 0.4785564 0.6224442 0.4785564 0.3775558 -0.4785564
810067 0.3571827 -0.4728804 0.6428173 0.4728804 0.6428173 0.4728804 0.3571827 -0.4728804
847162 0.3373222 -0.4664377 0.6626778 0.4664377 0.6626778 0.4664377 0.3373222 -0.4664377
885955 0.3180287 -0.4592834 0.6819713 0.4592834 0.6819713 0.4592834 0.3180287 -0.4592834
926525 0.2993495 -0.4514765 0.7006505 0.4514765 0.7006505 0.4514765 0.2993495 -0.4514765
968953 0.2813241 -0.4430789 0.7186759 0.4430789 0.7186759 0.4430789 0.2813241 -0.4430789
1013323 0.2639848 -0.4341543 0.7360152 0.4341543 0.7360152 0.4341543 0.2639848 -0.4341543
1059725 0.2473562 -0.4247670 0.7526438 0.4247670 0.7526438 0.4247670 0.2473562 -0.4247670
1108252 0.2314560 -0.4149812 0.7685440 0.4149812 0.7685440 0.4149812 0.2314560 -0.4149812
1159002 0.2162949 -0.4048603 0.7837051 0.4048603 0.7837051 0.4048603 0.2162949 -0.4048603
1212075 0.2018773 -0.3944657 0.7981227 0.3944657 0.7981227 0.3944657 0.2018773 -0.3944657
1267578 0.1882017 -0.3838565 0.8117983 0.3838565 0.8117983 0.3838565 0.1882017 -0.3838565
1325623 0.1752615 -0.3730891 0.8247385 0.3730891 0.8247385 0.3730891 0.1752615 -0.3730891
1386327 0.1630452 -0.3622164 0.8369548 0.3622164 0.8369548 0.3622164 0.1630452 -0.3622164
1449809 0.1515375 -0.3512880 0.8484625 0.3512880 0.8484625 0.3512880 0.1515375 -0.3512880
1516199 0.1407195 -0.3403494 0.8592805 0.3403494 0.8592805 0.3403494 0.1407195 -0.3403494
1585629 0.1305695 -0.3294423 0.8694305 0.3294423 0.8694305 0.3294423 0.1305695 -0.3294423
1658239 0.1210636 -0.3186046 0.8789364 0.3186046 0.8789364 0.3186046 0.1210636 -0.3186046
1734173 0.1121760 -0.3078701 0.8878240 0.3078701 0.8878240 0.3078701 0.1121760 -0.3078701
1813585 0.1038797 -0.2972689 0.8961203 0.2972689 0.8961203 0.2972689 0.1038797 -0.2972689
1896632 0.0961467 -0.2868273 0.9038533 0.2868273 0.9038533 0.2868273 0.0961467 -0.2868273
1983483 0.0889488 -0.2765682 0.9110512 0.2765682 0.9110512 0.2765682 0.0889488 -0.2765682
2074311 0.0822573 -0.2665110 0.9177427 0.2665110 0.9177427 0.2665110 0.0822573 -0.2665110
