!Murata Part Number: GRM0115C1E4R2BE01
!These Parameters are Measured in Series Mode Connection
!Data Generated on Mar 30, 2021
!       o--ll--o
!Port1            Port2
!       o------o
!Operation Temp=25[degC], DC Bias Voltage=0[V]
!Freq. Start=100[MHz] Stop=9[GHz] 401[Steps]
# Hz S RI R 50
!Freq.(Hz) S11(Real) S11(Imag) S21(Real) S21(Imag) S12(Real) S12(Imag) S22(Real) S22(Imag)
100000000 0.9347779 -0.2467010 0.0652221 0.2467010 0.0652221 0.2467010 0.9347779 -0.2467010
121000000 0.9073033 -0.2897448 0.0926967 0.2897448 0.0926967 0.2897448 0.9073033 -0.2897448
142000000 0.8766327 -0.3285505 0.1233673 0.3285505 0.1233673 0.3285505 0.8766327 -0.3285505
163000000 0.8435526 -0.3629250 0.1564474 0.3629250 0.1564474 0.3629250 0.8435526 -0.3629250
184000000 0.8088159 -0.3928335 0.1911841 0.3928335 0.1911841 0.3928335 0.8088159 -0.3928335
205000000 0.7731118 -0.4183731 0.2268882 0.4183731 0.2268882 0.4183731 0.7731118 -0.4183731
226000000 0.7370463 -0.4397442 0.2629537 0.4397442 0.2629537 0.4397442 0.7370463 -0.4397442
247000000 0.7011331 -0.4572211 0.2988669 0.4572211 0.2988669 0.4572211 0.7011331 -0.4572211
268000000 0.6657918 -0.4711254 0.3342082 0.4711254 0.3342082 0.4711254 0.6657918 -0.4711254
289000000 0.6313520 -0.4818031 0.3686480 0.4818031 0.3686480 0.4818031 0.6313520 -0.4818031
310000000 0.5980616 -0.4896066 0.4019384 0.4896066 0.4019384 0.4896066 0.5980616 -0.4896066
331000000 0.5660972 -0.4948805 0.4339028 0.4948805 0.4339028 0.4948805 0.5660972 -0.4948805
352000000 0.5355748 -0.4979528 0.4644252 0.4979528 0.4644252 0.4979528 0.5355748 -0.4979528
373000000 0.5065606 -0.4991278 0.4934394 0.4991278 0.4934394 0.4991278 0.5065606 -0.4991278
394000000 0.4790810 -0.4986835 0.5209190 0.4986835 0.5209190 0.4986835 0.4790810 -0.4986835
415000000 0.4531317 -0.4968699 0.5468683 0.4968699 0.5468683 0.4968699 0.4531317 -0.4968699
436000000 0.4286848 -0.4939089 0.5713152 0.4939089 0.5713152 0.4939089 0.4286848 -0.4939089
457000000 0.4056955 -0.4899961 0.5943045 0.4899961 0.5943045 0.4899961 0.4056955 -0.4899961
478000000 0.3841070 -0.4853019 0.6158930 0.4853019 0.6158930 0.4853019 0.3841070 -0.4853019
499000000 0.3638548 -0.4799740 0.6361452 0.4799740 0.6361452 0.4799740 0.3638548 -0.4799740
520000000 0.3448698 -0.4741397 0.6551302 0.4741397 0.6551302 0.4741397 0.3448698 -0.4741397
541000000 0.3270810 -0.4679079 0.6729190 0.4679079 0.6729190 0.4679079 0.3270810 -0.4679079
562000000 0.3104168 -0.4613714 0.6895832 0.4613714 0.6895832 0.4613714 0.3104168 -0.4613714
583000000 0.2948070 -0.4546087 0.7051930 0.4546087 0.7051930 0.4546087 0.2948070 -0.4546087
604000000 0.2801834 -0.4476866 0.7198166 0.4476866 0.7198166 0.4476866 0.2801834 -0.4476866
625000000 0.2664804 -0.4406606 0.7335196 0.4406606 0.7335196 0.4406606 0.2664804 -0.4406606
646000000 0.2536358 -0.4335777 0.7463642 0.4335777 0.7463642 0.4335777 0.2536358 -0.4335777
667000000 0.2415907 -0.4264767 0.7584093 0.4264767 0.7584093 0.4264767 0.2415907 -0.4264767
688000000 0.2302896 -0.4193898 0.7697104 0.4193898 0.7697104 0.4193898 0.2302896 -0.4193898
709000000 0.2196806 -0.4123437 0.7803194 0.4123437 0.7803194 0.4123437 0.2196806 -0.4123437
730000000 0.2097153 -0.4053599 0.7902847 0.4053599 0.7902847 0.4053599 0.2097153 -0.4053599
751000000 0.2003486 -0.3984561 0.7996514 0.3984561 0.7996514 0.3984561 0.2003486 -0.3984561
772000000 0.1915386 -0.3916464 0.8084614 0.3916464 0.8084614 0.3916464 0.1915386 -0.3916464
793000000 0.1832464 -0.3849418 0.8167536 0.3849418 0.8167536 0.3849418 0.1832464 -0.3849418
814000000 0.1754359 -0.3783511 0.8245641 0.3783511 0.8245641 0.3783511 0.1754359 -0.3783511
835000000 0.1680739 -0.3718808 0.8319261 0.3718808 0.8319261 0.3718808 0.1680739 -0.3718808
856000000 0.1611294 -0.3655359 0.8388706 0.3655359 0.8388706 0.3655359 0.1611294 -0.3655359
877000000 0.1545740 -0.3593195 0.8454260 0.3593195 0.8454260 0.3593195 0.1545740 -0.3593195
898000000 0.1483812 -0.3532340 0.8516188 0.3532340 0.8516188 0.3532340 0.1483812 -0.3532340
919000000 0.1425266 -0.3472803 0.8574734 0.3472803 0.8574734 0.3472803 0.1425266 -0.3472803
940000000 0.1369878 -0.3414588 0.8630122 0.3414588 0.8630122 0.3414588 0.1369878 -0.3414588
961000000 0.1317438 -0.3357691 0.8682562 0.3357691 0.8682562 0.3357691 0.1317438 -0.3357691
982000000 0.1267754 -0.3302101 0.8732246 0.3302101 0.8732246 0.3302101 0.1267754 -0.3302101
1003000000 0.1220647 -0.3247805 0.8779353 0.3247805 0.8779353 0.3247805 0.1220647 -0.3247805
1024000000 0.1175951 -0.3194784 0.8824049 0.3194784 0.8824049 0.3194784 0.1175951 -0.3194784
1045000000 0.1133514 -0.3143017 0.8866486 0.3143017 0.8866486 0.3143017 0.1133514 -0.3143017
1066000000 0.1093195 -0.3092480 0.8906805 0.3092480 0.8906805 0.3092480 0.1093195 -0.3092480
1087000000 0.1054860 -0.3043149 0.8945140 0.3043149 0.8945140 0.3043149 0.1054860 -0.3043149
1108000000 0.1018389 -0.2994996 0.8981611 0.2994996 0.8981611 0.2994996 0.1018389 -0.2994996
1129000000 0.0983669 -0.2947993 0.9016331 0.2947993 0.9016331 0.2947993 0.0983669 -0.2947993
1150000000 0.0950593 -0.2902114 0.9049407 0.2902114 0.9049407 0.2902114 0.0950593 -0.2902114
1171000000 0.0919064 -0.2857329 0.9080936 0.2857329 0.9080936 0.2857329 0.0919064 -0.2857329
1192000000 0.0888992 -0.2813609 0.9111008 0.2813609 0.9111008 0.2813609 0.0888992 -0.2813609
1213000000 0.0860291 -0.2770925 0.9139709 0.2770925 0.9139709 0.2770925 0.0860291 -0.2770925
1234000000 0.0832884 -0.2729250 0.9167116 0.2729250 0.9167116 0.2729250 0.0832884 -0.2729250
1255000000 0.0806695 -0.2688554 0.9193305 0.2688554 0.9193305 0.2688554 0.0806695 -0.2688554
1276000000 0.0781658 -0.2648810 0.9218342 0.2648810 0.9218342 0.2648810 0.0781658 -0.2648810
1297000000 0.0757707 -0.2609990 0.9242293 0.2609990 0.9242293 0.2609990 0.0757707 -0.2609990
1318000000 0.0734784 -0.2572068 0.9265216 0.2572068 0.9265216 0.2572068 0.0734784 -0.2572068
1339000000 0.0712832 -0.2535017 0.9287168 0.2535017 0.9287168 0.2535017 0.0712832 -0.2535017
1360000000 0.0691799 -0.2498811 0.9308201 0.2498811 0.9308201 0.2498811 0.0691799 -0.2498811
1381000000 0.0671637 -0.2463426 0.9328363 0.2463426 0.9328363 0.2463426 0.0671637 -0.2463426
1402000000 0.0652299 -0.2428836 0.9347701 0.2428836 0.9347701 0.2428836 0.0652299 -0.2428836
1423000000 0.0633744 -0.2395018 0.9366256 0.2395018 0.9366256 0.2395018 0.0633744 -0.2395018
1444000000 0.0615929 -0.2361950 0.9384071 0.2361950 0.9384071 0.2361950 0.0615929 -0.2361950
1465000000 0.0598819 -0.2329608 0.9401181 0.2329608 0.9401181 0.2329608 0.0598819 -0.2329608
1486000000 0.0582377 -0.2297971 0.9417623 0.2297971 0.9417623 0.2297971 0.0582377 -0.2297971
1507000000 0.0566571 -0.2267018 0.9433429 0.2267018 0.9433429 0.2267018 0.0566571 -0.2267018
1528000000 0.0551368 -0.2236729 0.9448632 0.2236729 0.9448632 0.2236729 0.0551368 -0.2236729
1549000000 0.0536740 -0.2207083 0.9463260 0.2207083 0.9463260 0.2207083 0.0536740 -0.2207083
1570000000 0.0522659 -0.2178062 0.9477341 0.2178062 0.9477341 0.2178062 0.0522659 -0.2178062
1591000000 0.0509099 -0.2149648 0.9490901 0.2149648 0.9490901 0.2149648 0.0509099 -0.2149648
1612000000 0.0496035 -0.2121821 0.9503965 0.2121821 0.9503965 0.2121821 0.0496035 -0.2121821
1633000000 0.0483444 -0.2094566 0.9516556 0.2094566 0.9516556 0.2094566 0.0483444 -0.2094566
1654000000 0.0471304 -0.2067865 0.9528696 0.2067865 0.9528696 0.2067865 0.0471304 -0.2067865
1675000000 0.0459595 -0.2041703 0.9540405 0.2041703 0.9540405 0.2041703 0.0459595 -0.2041703
1696000000 0.0448296 -0.2016063 0.9551704 0.2016063 0.9551704 0.2016063 0.0448296 -0.2016063
1717000000 0.0437390 -0.1990930 0.9562610 0.1990930 0.9562610 0.1990930 0.0437390 -0.1990930
1738000000 0.0426860 -0.1966291 0.9573140 0.1966291 0.9573140 0.1966291 0.0426860 -0.1966291
1759000000 0.0416688 -0.1942131 0.9583312 0.1942131 0.9583312 0.1942131 0.0416688 -0.1942131
1780000000 0.0406859 -0.1918436 0.9593141 0.1918436 0.9593141 0.1918436 0.0406859 -0.1918436
1801000000 0.0397359 -0.1895193 0.9602641 0.1895193 0.9602641 0.1895193 0.0397359 -0.1895193
1822000000 0.0388172 -0.1872389 0.9611828 0.1872389 0.9611828 0.1872389 0.0388172 -0.1872389
1843000000 0.0379287 -0.1850013 0.9620713 0.1850013 0.9620713 0.1850013 0.0379287 -0.1850013
1864000000 0.0370690 -0.1828052 0.9629310 0.1828052 0.9629310 0.1828052 0.0370690 -0.1828052
1885000000 0.0362370 -0.1806496 0.9637630 0.1806496 0.9637630 0.1806496 0.0362370 -0.1806496
1906000000 0.0354314 -0.1785332 0.9645686 0.1785332 0.9645686 0.1785332 0.0354314 -0.1785332
1927000000 0.0346513 -0.1764550 0.9653487 0.1764550 0.9653487 0.1764550 0.0346513 -0.1764550
1948000000 0.0338956 -0.1744140 0.9661044 0.1744140 0.9661044 0.1744140 0.0338956 -0.1744140
1969000000 0.0331633 -0.1724092 0.9668367 0.1724092 0.9668367 0.1724092 0.0331633 -0.1724092
1990000000 0.0324535 -0.1704395 0.9675465 0.1704395 0.9675465 0.1704395 0.0324535 -0.1704395
2011000000 0.0317653 -0.1685042 0.9682347 0.1685042 0.9682347 0.1685042 0.0317653 -0.1685042
2032000000 0.0310980 -0.1666022 0.9689020 0.1666022 0.9689020 0.1666022 0.0310980 -0.1666022
2053000000 0.0304505 -0.1647328 0.9695495 0.1647328 0.9695495 0.1647328 0.0304505 -0.1647328
2074000000 0.0298223 -0.1628950 0.9701777 0.1628950 0.9701777 0.1628950 0.0298223 -0.1628950
2095000000 0.0292126 -0.1610880 0.9707874 0.1610880 0.9707874 0.1610880 0.0292126 -0.1610880
2116000000 0.0286207 -0.1593110 0.9713793 0.1593110 0.9713793 0.1593110 0.0286207 -0.1593110
2137000000 0.0280459 -0.1575634 0.9719541 0.1575634 0.9719541 0.1575634 0.0280459 -0.1575634
2158000000 0.0274876 -0.1558442 0.9725124 0.1558442 0.9725124 0.1558442 0.0274876 -0.1558442
2179000000 0.0269453 -0.1541529 0.9730547 0.1541529 0.9730547 0.1541529 0.0269453 -0.1541529
2200000000 0.0264182 -0.1524886 0.9735818 0.1524886 0.9735818 0.1524886 0.0264182 -0.1524886
2221000000 0.0259059 -0.1508508 0.9740941 0.1508508 0.9740941 0.1508508 0.0259059 -0.1508508
2242000000 0.0254078 -0.1492388 0.9745922 0.1492388 0.9745922 0.1492388 0.0254078 -0.1492388
2263000000 0.0249235 -0.1476519 0.9750765 0.1476519 0.9750765 0.1476519 0.0249235 -0.1476519
2284000000 0.0244525 -0.1460896 0.9755475 0.1460896 0.9755475 0.1460896 0.0244525 -0.1460896
2305000000 0.0239942 -0.1445512 0.9760058 0.1445512 0.9760058 0.1445512 0.0239942 -0.1445512
2326000000 0.0235483 -0.1430362 0.9764517 0.1430362 0.9764517 0.1430362 0.0235483 -0.1430362
2347000000 0.0231143 -0.1415440 0.9768857 0.1415440 0.9768857 0.1415440 0.0231143 -0.1415440
2368000000 0.0226919 -0.1400741 0.9773081 0.1400741 0.9773081 0.1400741 0.0226919 -0.1400741
2389000000 0.0222806 -0.1386258 0.9777194 0.1386258 0.9777194 0.1386258 0.0222806 -0.1386258
2410000000 0.0218801 -0.1371989 0.9781199 0.1371989 0.9781199 0.1371989 0.0218801 -0.1371989
2431000000 0.0214900 -0.1357926 0.9785100 0.1357926 0.9785100 0.1357926 0.0214900 -0.1357926
2452000000 0.0211099 -0.1344066 0.9788901 0.1344066 0.9788901 0.1344066 0.0211099 -0.1344066
2473000000 0.0207396 -0.1330404 0.9792604 0.1330404 0.9792604 0.1330404 0.0207396 -0.1330404
2494000000 0.0203788 -0.1316936 0.9796212 0.1316936 0.9796212 0.1316936 0.0203788 -0.1316936
2515000000 0.0200270 -0.1303656 0.9799730 0.1303656 0.9799730 0.1303656 0.0200270 -0.1303656
2536000000 0.0196841 -0.1290561 0.9803159 0.1290561 0.9803159 0.1290561 0.0196841 -0.1290561
2557000000 0.0193498 -0.1277647 0.9806502 0.1277647 0.9806502 0.1277647 0.0193498 -0.1277647
2578000000 0.0190237 -0.1264909 0.9809763 0.1264909 0.9809763 0.1264909 0.0190237 -0.1264909
2599000000 0.0187057 -0.1252344 0.9812943 0.1252344 0.9812943 0.1252344 0.0187057 -0.1252344
2620000000 0.0183954 -0.1239947 0.9816046 0.1239947 0.9816046 0.1239947 0.0183954 -0.1239947
2641000000 0.0180927 -0.1227716 0.9819073 0.1227716 0.9819073 0.1227716 0.0180927 -0.1227716
2662000000 0.0177973 -0.1215647 0.9822027 0.1215647 0.9822027 0.1215647 0.0177973 -0.1215647
2683000000 0.0175090 -0.1203735 0.9824910 0.1203735 0.9824910 0.1203735 0.0175090 -0.1203735
2704000000 0.0172276 -0.1191978 0.9827724 0.1191978 0.9827724 0.1191978 0.0172276 -0.1191978
2725000000 0.0169529 -0.1180373 0.9830471 0.1180373 0.9830471 0.1180373 0.0169529 -0.1180373
2746000000 0.0166846 -0.1168916 0.9833154 0.1168916 0.9833154 0.1168916 0.0166846 -0.1168916
2767000000 0.0164227 -0.1157604 0.9835773 0.1157604 0.9835773 0.1157604 0.0164227 -0.1157604
2788000000 0.0161668 -0.1146434 0.9838332 0.1146434 0.9838332 0.1146434 0.0161668 -0.1146434
2809000000 0.0159169 -0.1135403 0.9840831 0.1135403 0.9840831 0.1135403 0.0159169 -0.1135403
2830000000 0.0156727 -0.1124508 0.9843273 0.1124508 0.9843273 0.1124508 0.0156727 -0.1124508
2851000000 0.0154341 -0.1113747 0.9845659 0.1113747 0.9845659 0.1113747 0.0154341 -0.1113747
2872000000 0.0152010 -0.1103116 0.9847990 0.1103116 0.9847990 0.1103116 0.0152010 -0.1103116
2893000000 0.0149731 -0.1092614 0.9850269 0.1092614 0.9850269 0.1092614 0.0149731 -0.1092614
2914000000 0.0147504 -0.1082237 0.9852496 0.1082237 0.9852496 0.1082237 0.0147504 -0.1082237
2935000000 0.0145327 -0.1071983 0.9854673 0.1071983 0.9854673 0.1071983 0.0145327 -0.1071983
2956000000 0.0143198 -0.1061850 0.9856802 0.1061850 0.9856802 0.1061850 0.0143198 -0.1061850
2977000000 0.0141117 -0.1051834 0.9858883 0.1051834 0.9858883 0.1051834 0.0141117 -0.1051834
2998000000 0.0139081 -0.1041935 0.9860919 0.1041935 0.9860919 0.1041935 0.0139081 -0.1041935
3019000000 0.0137090 -0.1032149 0.9862910 0.1032149 0.9862910 0.1032149 0.0137090 -0.1032149
3040000000 0.0135143 -0.1022474 0.9864857 0.1022474 0.9864857 0.1022474 0.0135143 -0.1022474
3061000000 0.0133239 -0.1012909 0.9866761 0.1012909 0.9866761 0.1012909 0.0133239 -0.1012909
3082000000 0.0131375 -0.1003450 0.9868625 0.1003450 0.9868625 0.1003450 0.0131375 -0.1003450
3103000000 0.0129552 -0.0994097 0.9870448 0.0994097 0.9870448 0.0994097 0.0129552 -0.0994097
3124000000 0.0127768 -0.0984846 0.9872232 0.0984846 0.9872232 0.0984846 0.0127768 -0.0984846
3145000000 0.0126021 -0.0975697 0.9873979 0.0975697 0.9873979 0.0975697 0.0126021 -0.0975697
3166000000 0.0124313 -0.0966647 0.9875687 0.0966647 0.9875687 0.0966647 0.0124313 -0.0966647
3187000000 0.0122640 -0.0957695 0.9877360 0.0957695 0.9877360 0.0957695 0.0122640 -0.0957695
3208000000 0.0121002 -0.0948837 0.9878998 0.0948837 0.9878998 0.0948837 0.0121002 -0.0948837
3229000000 0.0119399 -0.0940074 0.9880601 0.0940074 0.9880601 0.0940074 0.0119399 -0.0940074
3250000000 0.0117830 -0.0931403 0.9882170 0.0931403 0.9882170 0.0931403 0.0117830 -0.0931403
3271000000 0.0116293 -0.0922822 0.9883707 0.0922822 0.9883707 0.0922822 0.0116293 -0.0922822
3292000000 0.0114788 -0.0914330 0.9885212 0.0914330 0.9885212 0.0914330 0.0114788 -0.0914330
3313000000 0.0113314 -0.0905925 0.9886686 0.0905925 0.9886686 0.0905925 0.0113314 -0.0905925
3334000000 0.0111871 -0.0897605 0.9888129 0.0897605 0.9888129 0.0897605 0.0111871 -0.0897605
3355000000 0.0110457 -0.0889370 0.9889543 0.0889370 0.9889543 0.0889370 0.0110457 -0.0889370
3376000000 0.0109072 -0.0881217 0.9890928 0.0881217 0.9890928 0.0881217 0.0109072 -0.0881217
3397000000 0.0107716 -0.0873145 0.9892284 0.0873145 0.9892284 0.0873145 0.0107716 -0.0873145
3418000000 0.0106387 -0.0865153 0.9893613 0.0865153 0.9893613 0.0865153 0.0106387 -0.0865153
3439000000 0.0105085 -0.0857239 0.9894915 0.0857239 0.9894915 0.0857239 0.0105085 -0.0857239
3460000000 0.0103809 -0.0849402 0.9896191 0.0849402 0.9896191 0.0849402 0.0103809 -0.0849402
3481000000 0.0102558 -0.0841641 0.9897442 0.0841641 0.9897442 0.0841641 0.0102558 -0.0841641
3502000000 0.0101333 -0.0833954 0.9898667 0.0833954 0.9898667 0.0833954 0.0101333 -0.0833954
3523000000 0.0100133 -0.0826340 0.9899867 0.0826340 0.9899867 0.0826340 0.0100133 -0.0826340
3544000000 0.0098956 -0.0818798 0.9901044 0.0818798 0.9901044 0.0818798 0.0098956 -0.0818798
3565000000 0.0097803 -0.0811326 0.9902197 0.0811326 0.9902197 0.0811326 0.0097803 -0.0811326
3586000000 0.0096672 -0.0803924 0.9903328 0.0803924 0.9903328 0.0803924 0.0096672 -0.0803924
3607000000 0.0095564 -0.0796590 0.9904436 0.0796590 0.9904436 0.0796590 0.0095564 -0.0796590
3628000000 0.0094478 -0.0789323 0.9905522 0.0789323 0.9905522 0.0789323 0.0094478 -0.0789323
3649000000 0.0093413 -0.0782122 0.9906587 0.0782122 0.9906587 0.0782122 0.0093413 -0.0782122
3670000000 0.0092369 -0.0774986 0.9907631 0.0774986 0.9907631 0.0774986 0.0092369 -0.0774986
3691000000 0.0091346 -0.0767914 0.9908654 0.0767914 0.9908654 0.0767914 0.0091346 -0.0767914
3712000000 0.0090342 -0.0760904 0.9909658 0.0760904 0.9909658 0.0760904 0.0090342 -0.0760904
3733000000 0.0089358 -0.0753956 0.9910642 0.0753956 0.9910642 0.0753956 0.0089358 -0.0753956
3754000000 0.0088394 -0.0747069 0.9911606 0.0747069 0.9911606 0.0747069 0.0088394 -0.0747069
3775000000 0.0087448 -0.0740242 0.9912552 0.0740242 0.9912552 0.0740242 0.0087448 -0.0740242
3796000000 0.0086520 -0.0733474 0.9913480 0.0733474 0.9913480 0.0733474 0.0086520 -0.0733474
3817000000 0.0085611 -0.0726763 0.9914389 0.0726763 0.9914389 0.0726763 0.0085611 -0.0726763
3838000000 0.0084718 -0.0720110 0.9915282 0.0720110 0.9915282 0.0720110 0.0084718 -0.0720110
3859000000 0.0083844 -0.0713513 0.9916156 0.0713513 0.9916156 0.0713513 0.0083844 -0.0713513
3880000000 0.0082986 -0.0706971 0.9917014 0.0706971 0.9917014 0.0706971 0.0082986 -0.0706971
3901000000 0.0082144 -0.0700483 0.9917856 0.0700483 0.9917856 0.0700483 0.0082144 -0.0700483
3922000000 0.0081319 -0.0694048 0.9918681 0.0694048 0.9918681 0.0694048 0.0081319 -0.0694048
3943000000 0.0080510 -0.0687667 0.9919490 0.0687667 0.9919490 0.0687667 0.0080510 -0.0687667
3964000000 0.0079716 -0.0681337 0.9920284 0.0681337 0.9920284 0.0681337 0.0079716 -0.0681337
3985000000 0.0078938 -0.0675059 0.9921062 0.0675059 0.9921062 0.0675059 0.0078938 -0.0675059
4006000000 0.0078174 -0.0668830 0.9921826 0.0668830 0.9921826 0.0668830 0.0078174 -0.0668830
4027000000 0.0077425 -0.0662651 0.9922575 0.0662651 0.9922575 0.0662651 0.0077425 -0.0662651
4048000000 0.0076691 -0.0656522 0.9923309 0.0656522 0.9923309 0.0656522 0.0076691 -0.0656522
4069000000 0.0075970 -0.0650440 0.9924030 0.0650440 0.9924030 0.0650440 0.0075970 -0.0650440
4090000000 0.0075264 -0.0644405 0.9924736 0.0644405 0.9924736 0.0644405 0.0075264 -0.0644405
4111000000 0.0074570 -0.0638417 0.9925430 0.0638417 0.9925430 0.0638417 0.0074570 -0.0638417
4132000000 0.0073891 -0.0632475 0.9926109 0.0632475 0.9926109 0.0632475 0.0073891 -0.0632475
4153000000 0.0073224 -0.0626579 0.9926776 0.0626579 0.9926776 0.0626579 0.0073224 -0.0626579
4174000000 0.0072570 -0.0620727 0.9927430 0.0620727 0.9927430 0.0620727 0.0072570 -0.0620727
4195000000 0.0071928 -0.0614919 0.9928072 0.0614919 0.9928072 0.0614919 0.0071928 -0.0614919
4216000000 0.0071299 -0.0609154 0.9928701 0.0609154 0.9928701 0.0609154 0.0071299 -0.0609154
4237000000 0.0070682 -0.0603432 0.9929318 0.0603432 0.9929318 0.0603432 0.0070682 -0.0603432
4258000000 0.0070077 -0.0597752 0.9929923 0.0597752 0.9929923 0.0597752 0.0070077 -0.0597752
4279000000 0.0069483 -0.0592114 0.9930517 0.0592114 0.9930517 0.0592114 0.0069483 -0.0592114
4300000000 0.0068901 -0.0586516 0.9931099 0.0586516 0.9931099 0.0586516 0.0068901 -0.0586516
4321000000 0.0068330 -0.0580959 0.9931670 0.0580959 0.9931670 0.0580959 0.0068330 -0.0580959
4342000000 0.0067770 -0.0575442 0.9932230 0.0575442 0.9932230 0.0575442 0.0067770 -0.0575442
4363000000 0.0067221 -0.0569964 0.9932779 0.0569964 0.9932779 0.0569964 0.0067221 -0.0569964
4384000000 0.0066683 -0.0564524 0.9933317 0.0564524 0.9933317 0.0564524 0.0066683 -0.0564524
4405000000 0.0066155 -0.0559123 0.9933845 0.0559123 0.9933845 0.0559123 0.0066155 -0.0559123
4426000000 0.0065637 -0.0553759 0.9934363 0.0553759 0.9934363 0.0553759 0.0065637 -0.0553759
4447000000 0.0065130 -0.0548432 0.9934870 0.0548432 0.9934870 0.0548432 0.0065130 -0.0548432
4468000000 0.0064632 -0.0543142 0.9935368 0.0543142 0.9935368 0.0543142 0.0064632 -0.0543142
4489000000 0.0064144 -0.0537888 0.9935856 0.0537888 0.9935856 0.0537888 0.0064144 -0.0537888
4510000000 0.0063666 -0.0532669 0.9936334 0.0532669 0.9936334 0.0532669 0.0063666 -0.0532669
