!Murata Part Number: GRM0115C1C5R8CE01
!These Parameters are Measured in Series Mode Connection
!Data Generated on Mar 30, 2021
!       o--ll--o
!Port1            Port2
!       o------o
!Operation Temp=25[degC], DC Bias Voltage=0[V]
!Freq. Start=100[MHz] Stop=9[GHz] 401[Steps]
# Hz S RI R 50
!Freq.(Hz) S11(Real) S11(Imag) S21(Real) S21(Imag) S12(Real) S12(Imag) S22(Real) S22(Imag)
100000000 0.8825711 -0.3216618 0.1174289 0.3216618 0.1174289 0.3216618 0.8825711 -0.3216618
121000000 0.8369329 -0.3691009 0.1630671 0.3691009 0.1630671 0.3691009 0.8369329 -0.3691009
142000000 0.7883974 -0.4080612 0.2116026 0.4080612 0.2116026 0.4080612 0.7883974 -0.4080612
163000000 0.7386946 -0.4389048 0.2613054 0.4389048 0.2613054 0.4389048 0.7386946 -0.4389048
184000000 0.6892337 -0.4623079 0.3107663 0.4623079 0.3107663 0.4623079 0.6892337 -0.4623079
205000000 0.6410842 -0.4791243 0.3589158 0.4791243 0.3589158 0.4791243 0.6410842 -0.4791243
226000000 0.5949995 -0.4902747 0.4050005 0.4902747 0.4050005 0.4902747 0.5949995 -0.4902747
247000000 0.5514627 -0.4966672 0.4485373 0.4966672 0.4485373 0.4966672 0.5514627 -0.4966672
268000000 0.5107409 -0.4991467 0.4892591 0.4991467 0.4892591 0.4991467 0.5107409 -0.4991467
289000000 0.4729376 -0.4984679 0.5270624 0.4984679 0.5270624 0.4984679 0.4729376 -0.4984679
310000000 0.4380392 -0.4952848 0.5619608 0.4952848 0.5619608 0.4952848 0.4380392 -0.4952848
331000000 0.4059525 -0.4901515 0.5940475 0.4901515 0.5940475 0.4901515 0.4059525 -0.4901515
352000000 0.3765340 -0.4835288 0.6234660 0.4835288 0.6234660 0.4835288 0.3765340 -0.4835288
373000000 0.3496117 -0.4757952 0.6503883 0.4757952 0.6503883 0.4757952 0.3496117 -0.4757952
394000000 0.3250004 -0.4672575 0.6749996 0.4672575 0.6749996 0.4672575 0.3250004 -0.4672575
415000000 0.3025123 -0.4581620 0.6974877 0.4581620 0.6974877 0.4581620 0.3025123 -0.4581620
436000000 0.2819642 -0.4487049 0.7180358 0.4487049 0.7180358 0.4487049 0.2819642 -0.4487049
457000000 0.2631816 -0.4390407 0.7368184 0.4390407 0.7368184 0.4390407 0.2631816 -0.4390407
478000000 0.2460015 -0.4292906 0.7539985 0.4292906 0.7539985 0.4292906 0.2460015 -0.4292906
499000000 0.2302731 -0.4195485 0.7697269 0.4195485 0.7697269 0.4195485 0.2302731 -0.4195485
520000000 0.2158587 -0.4098861 0.7841413 0.4098861 0.7841413 0.4098861 0.2158587 -0.4098861
541000000 0.2026328 -0.4003580 0.7973672 0.4003580 0.7973672 0.4003580 0.2026328 -0.4003580
562000000 0.1904820 -0.3910045 0.8095180 0.3910045 0.8095180 0.3910045 0.1904820 -0.3910045
583000000 0.1793040 -0.3818550 0.8206960 0.3818550 0.8206960 0.3818550 0.1793040 -0.3818550
604000000 0.1690067 -0.3729302 0.8309933 0.3729302 0.8309933 0.3729302 0.1690067 -0.3729302
625000000 0.1595073 -0.3642438 0.8404927 0.3642438 0.8404927 0.3642438 0.1595073 -0.3642438
646000000 0.1507317 -0.3558041 0.8492683 0.3558041 0.8492683 0.3558041 0.1507317 -0.3558041
667000000 0.1426131 -0.3476154 0.8573869 0.3476154 0.8573869 0.3476154 0.1426131 -0.3476154
688000000 0.1350918 -0.3396785 0.8649082 0.3396785 0.8649082 0.3396785 0.1350918 -0.3396785
709000000 0.1281142 -0.3319919 0.8718858 0.3319919 0.8718858 0.3319919 0.1281142 -0.3319919
730000000 0.1216319 -0.3245521 0.8783681 0.3245521 0.8783681 0.3245521 0.1216319 -0.3245521
751000000 0.1156018 -0.3173544 0.8843982 0.3173544 0.8843982 0.3173544 0.1156018 -0.3173544
772000000 0.1099847 -0.3103929 0.8900153 0.3103929 0.8900153 0.3103929 0.1099847 -0.3103929
793000000 0.1047457 -0.3036609 0.8952543 0.3036609 0.8952543 0.3036609 0.1047457 -0.3036609
814000000 0.0998530 -0.2971515 0.9001470 0.2971515 0.9001470 0.2971515 0.0998530 -0.2971515
835000000 0.0952781 -0.2908572 0.9047219 0.2908572 0.9047219 0.2908572 0.0952781 -0.2908572
856000000 0.0909953 -0.2847705 0.9090047 0.2847705 0.9090047 0.2847705 0.0909953 -0.2847705
877000000 0.0869810 -0.2788839 0.9130190 0.2788839 0.9130190 0.2788839 0.0869810 -0.2788839
898000000 0.0832143 -0.2731898 0.9167857 0.2731898 0.9167857 0.2731898 0.0832143 -0.2731898
919000000 0.0796758 -0.2676807 0.9203242 0.2676807 0.9203242 0.2676807 0.0796758 -0.2676807
940000000 0.0763482 -0.2623494 0.9236518 0.2623494 0.9236518 0.2623494 0.0763482 -0.2623494
961000000 0.0732156 -0.2571887 0.9267844 0.2571887 0.9267844 0.2571887 0.0732156 -0.2571887
982000000 0.0702635 -0.2521918 0.9297365 0.2521918 0.9297365 0.2521918 0.0702635 -0.2521918
1003000000 0.0674789 -0.2473520 0.9325211 0.2473520 0.9325211 0.2473520 0.0674789 -0.2473520
1024000000 0.0648495 -0.2426629 0.9351505 0.2426629 0.9351505 0.2426629 0.0648495 -0.2426629
1045000000 0.0623646 -0.2381182 0.9376354 0.2381182 0.9376354 0.2381182 0.0623646 -0.2381182
1066000000 0.0600139 -0.2337121 0.9399861 0.2337121 0.9399861 0.2337121 0.0600139 -0.2337121
1087000000 0.0577883 -0.2294389 0.9422117 0.2294389 0.9422117 0.2294389 0.0577883 -0.2294389
1108000000 0.0556792 -0.2252930 0.9443208 0.2252930 0.9443208 0.2252930 0.0556792 -0.2252930
1129000000 0.0536790 -0.2212694 0.9463210 0.2212694 0.9463210 0.2212694 0.0536790 -0.2212694
1150000000 0.0517805 -0.2173630 0.9482195 0.2173630 0.9482195 0.2173630 0.0517805 -0.2173630
1171000000 0.0499770 -0.2135691 0.9500230 0.2135691 0.9500230 0.2135691 0.0499770 -0.2135691
1192000000 0.0482625 -0.2098831 0.9517375 0.2098831 0.9517375 0.2098831 0.0482625 -0.2098831
1213000000 0.0466314 -0.2063007 0.9533686 0.2063007 0.9533686 0.2063007 0.0466314 -0.2063007
1234000000 0.0450785 -0.2028178 0.9549215 0.2028178 0.9549215 0.2028178 0.0450785 -0.2028178
1255000000 0.0435991 -0.1994304 0.9564009 0.1994304 0.9564009 0.1994304 0.0435991 -0.1994304
1276000000 0.0421886 -0.1961348 0.9578114 0.1961348 0.9578114 0.1961348 0.0421886 -0.1961348
1297000000 0.0408429 -0.1929274 0.9591571 0.1929274 0.9591571 0.1929274 0.0408429 -0.1929274
1318000000 0.0395583 -0.1898048 0.9604417 0.1898048 0.9604417 0.1898048 0.0395583 -0.1898048
1339000000 0.0383312 -0.1867637 0.9616688 0.1867637 0.9616688 0.1867637 0.0383312 -0.1867637
1360000000 0.0371583 -0.1838010 0.9628417 0.1838010 0.9628417 0.1838010 0.0371583 -0.1838010
1381000000 0.0360366 -0.1809137 0.9639634 0.1809137 0.9639634 0.1809137 0.0360366 -0.1809137
1402000000 0.0349631 -0.1780990 0.9650369 0.1780990 0.9650369 0.1780990 0.0349631 -0.1780990
1423000000 0.0339353 -0.1753543 0.9660647 0.1753543 0.9660647 0.1753543 0.0339353 -0.1753543
1444000000 0.0329506 -0.1726769 0.9670494 0.1726769 0.9670494 0.1726769 0.0329506 -0.1726769
1465000000 0.0320067 -0.1700643 0.9679933 0.1700643 0.9679933 0.1700643 0.0320067 -0.1700643
1486000000 0.0311015 -0.1675143 0.9688985 0.1675143 0.9688985 0.1675143 0.0311015 -0.1675143
1507000000 0.0302329 -0.1650246 0.9697671 0.1650246 0.9697671 0.1650246 0.0302329 -0.1650246
1528000000 0.0293990 -0.1625930 0.9706010 0.1625930 0.9706010 0.1625930 0.0293990 -0.1625930
1549000000 0.0285981 -0.1602176 0.9714019 0.1602176 0.9714019 0.1602176 0.0285981 -0.1602176
1570000000 0.0278284 -0.1578962 0.9721716 0.1578962 0.9721716 0.1578962 0.0278284 -0.1578962
1591000000 0.0270885 -0.1556271 0.9729115 0.1556271 0.9729115 0.1556271 0.0270885 -0.1556271
1612000000 0.0263768 -0.1534085 0.9736232 0.1534085 0.9736232 0.1534085 0.0263768 -0.1534085
1633000000 0.0256920 -0.1512386 0.9743080 0.1512386 0.9743080 0.1512386 0.0256920 -0.1512386
1654000000 0.0250328 -0.1491158 0.9749672 0.1491158 0.9749672 0.1491158 0.0250328 -0.1491158
1675000000 0.0243979 -0.1470386 0.9756021 0.1470386 0.9756021 0.1470386 0.0243979 -0.1470386
1696000000 0.0237863 -0.1450054 0.9762137 0.1450054 0.9762137 0.1450054 0.0237863 -0.1450054
1717000000 0.0231967 -0.1430148 0.9768033 0.1430148 0.9768033 0.1430148 0.0231967 -0.1430148
1738000000 0.0226283 -0.1410654 0.9773717 0.1410654 0.9773717 0.1410654 0.0226283 -0.1410654
1759000000 0.0220800 -0.1391559 0.9779200 0.1391559 0.9779200 0.1391559 0.0220800 -0.1391559
1780000000 0.0215509 -0.1372850 0.9784491 0.1372850 0.9784491 0.1372850 0.0215509 -0.1372850
1801000000 0.0210402 -0.1354515 0.9789598 0.1354515 0.9789598 0.1354515 0.0210402 -0.1354515
1822000000 0.0205471 -0.1336541 0.9794529 0.1336541 0.9794529 0.1336541 0.0205471 -0.1336541
1843000000 0.0200707 -0.1318919 0.9799293 0.1318919 0.9799293 0.1318919 0.0200707 -0.1318919
1864000000 0.0196104 -0.1301637 0.9803896 0.1301637 0.9803896 0.1301637 0.0196104 -0.1301637
1885000000 0.0191655 -0.1284685 0.9808345 0.1284685 0.9808345 0.1284685 0.0191655 -0.1284685
1906000000 0.0187354 -0.1268053 0.9812646 0.1268053 0.9812646 0.1268053 0.0187354 -0.1268053
1927000000 0.0183193 -0.1251730 0.9816807 0.1251730 0.9816807 0.1251730 0.0183193 -0.1251730
1948000000 0.0179167 -0.1235709 0.9820833 0.1235709 0.9820833 0.1235709 0.0179167 -0.1235709
1969000000 0.0175271 -0.1219980 0.9824729 0.1219980 0.9824729 0.1219980 0.0175271 -0.1219980
1990000000 0.0171500 -0.1204535 0.9828500 0.1204535 0.9828500 0.1204535 0.0171500 -0.1204535
2011000000 0.0167848 -0.1189365 0.9832152 0.1189365 0.9832152 0.1189365 0.0167848 -0.1189365
2032000000 0.0164310 -0.1174462 0.9835690 0.1174462 0.9835690 0.1174462 0.0164310 -0.1174462
2053000000 0.0160883 -0.1159819 0.9839117 0.1159819 0.9839117 0.1159819 0.0160883 -0.1159819
2074000000 0.0157561 -0.1145429 0.9842439 0.1145429 0.9842439 0.1145429 0.0157561 -0.1145429
2095000000 0.0154342 -0.1131284 0.9845658 0.1131284 0.9845658 0.1131284 0.0154342 -0.1131284
2116000000 0.0151220 -0.1117378 0.9848780 0.1117378 0.9848780 0.1117378 0.0151220 -0.1117378
2137000000 0.0148192 -0.1103705 0.9851808 0.1103705 0.9851808 0.1103705 0.0148192 -0.1103705
2158000000 0.0145254 -0.1090256 0.9854746 0.1090256 0.9854746 0.1090256 0.0145254 -0.1090256
2179000000 0.0142404 -0.1077028 0.9857596 0.1077028 0.9857596 0.1077028 0.0142404 -0.1077028
2200000000 0.0139638 -0.1064013 0.9860362 0.1064013 0.9860362 0.1064013 0.0139638 -0.1064013
2221000000 0.0136952 -0.1051207 0.9863048 0.1051207 0.9863048 0.1051207 0.0136952 -0.1051207
2242000000 0.0134345 -0.1038603 0.9865655 0.1038603 0.9865655 0.1038603 0.0134345 -0.1038603
2263000000 0.0131812 -0.1026196 0.9868188 0.1026196 0.9868188 0.1026196 0.0131812 -0.1026196
2284000000 0.0129352 -0.1013982 0.9870648 0.1013982 0.9870648 0.1013982 0.0129352 -0.1013982
2305000000 0.0126962 -0.1001955 0.9873038 0.1001955 0.9873038 0.1001955 0.0126962 -0.1001955
2326000000 0.0124640 -0.0990110 0.9875360 0.0990110 0.9875360 0.0990110 0.0124640 -0.0990110
2347000000 0.0122383 -0.0978443 0.9877617 0.0978443 0.9877617 0.0978443 0.0122383 -0.0978443
2368000000 0.0120188 -0.0966949 0.9879812 0.0966949 0.9879812 0.0966949 0.0120188 -0.0966949
2389000000 0.0118054 -0.0955624 0.9881946 0.0955624 0.9881946 0.0955624 0.0118054 -0.0955624
2410000000 0.0115979 -0.0944464 0.9884021 0.0944464 0.9884021 0.0944464 0.0115979 -0.0944464
2431000000 0.0113961 -0.0933465 0.9886039 0.0933465 0.9886039 0.0933465 0.0113961 -0.0933465
2452000000 0.0111998 -0.0922623 0.9888002 0.0922623 0.9888002 0.0922623 0.0111998 -0.0922623
2473000000 0.0110087 -0.0911933 0.9889913 0.0911933 0.9889913 0.0911933 0.0110087 -0.0911933
2494000000 0.0108228 -0.0901394 0.9891772 0.0901394 0.9891772 0.0901394 0.0108228 -0.0901394
2515000000 0.0106419 -0.0890999 0.9893581 0.0890999 0.9893581 0.0890999 0.0106419 -0.0890999
2536000000 0.0104658 -0.0880748 0.9895342 0.0880748 0.9895342 0.0880748 0.0104658 -0.0880748
2557000000 0.0102943 -0.0870635 0.9897057 0.0870635 0.9897057 0.0870635 0.0102943 -0.0870635
2578000000 0.0101274 -0.0860658 0.9898726 0.0860658 0.9898726 0.0860658 0.0101274 -0.0860658
2599000000 0.0099648 -0.0850813 0.9900352 0.0850813 0.9900352 0.0850813 0.0099648 -0.0850813
2620000000 0.0098064 -0.0841098 0.9901936 0.0841098 0.9901936 0.0841098 0.0098064 -0.0841098
2641000000 0.0096522 -0.0831510 0.9903478 0.0831510 0.9903478 0.0831510 0.0096522 -0.0831510
2662000000 0.0095019 -0.0822045 0.9904981 0.0822045 0.9904981 0.0822045 0.0095019 -0.0822045
2683000000 0.0093555 -0.0812702 0.9906445 0.0812702 0.9906445 0.0812702 0.0093555 -0.0812702
2704000000 0.0092128 -0.0803476 0.9907872 0.0803476 0.9907872 0.0803476 0.0092128 -0.0803476
2725000000 0.0090738 -0.0794367 0.9909262 0.0794367 0.9909262 0.0794367 0.0090738 -0.0794367
2746000000 0.0089382 -0.0785370 0.9910618 0.0785370 0.9910618 0.0785370 0.0089382 -0.0785370
2767000000 0.0088061 -0.0776484 0.9911939 0.0776484 0.9911939 0.0776484 0.0088061 -0.0776484
2788000000 0.0086774 -0.0767706 0.9913226 0.0767706 0.9913226 0.0767706 0.0086774 -0.0767706
2809000000 0.0085518 -0.0759034 0.9914482 0.0759034 0.9914482 0.0759034 0.0085518 -0.0759034
2830000000 0.0084294 -0.0750465 0.9915706 0.0750465 0.9915706 0.0750465 0.0084294 -0.0750465
2851000000 0.0083100 -0.0741998 0.9916900 0.0741998 0.9916900 0.0741998 0.0083100 -0.0741998
2872000000 0.0081936 -0.0733631 0.9918064 0.0733631 0.9918064 0.0733631 0.0081936 -0.0733631
2893000000 0.0080801 -0.0725360 0.9919199 0.0725360 0.9919199 0.0725360 0.0080801 -0.0725360
2914000000 0.0079694 -0.0717184 0.9920306 0.0717184 0.9920306 0.0717184 0.0079694 -0.0717184
2935000000 0.0078613 -0.0709102 0.9921387 0.0709102 0.9921387 0.0709102 0.0078613 -0.0709102
2956000000 0.0077560 -0.0701111 0.9922440 0.0701111 0.9922440 0.0701111 0.0077560 -0.0701111
2977000000 0.0076532 -0.0693210 0.9923468 0.0693210 0.9923468 0.0693210 0.0076532 -0.0693210
2998000000 0.0075529 -0.0685395 0.9924471 0.0685395 0.9924471 0.0685395 0.0075529 -0.0685395
3019000000 0.0074551 -0.0677667 0.9925449 0.0677667 0.9925449 0.0677667 0.0074551 -0.0677667
3040000000 0.0073596 -0.0670023 0.9926404 0.0670023 0.9926404 0.0670023 0.0073596 -0.0670023
3061000000 0.0072665 -0.0662461 0.9927335 0.0662461 0.9927335 0.0662461 0.0072665 -0.0662461
3082000000 0.0071756 -0.0654980 0.9928244 0.0654980 0.9928244 0.0654980 0.0071756 -0.0654980
3103000000 0.0070869 -0.0647579 0.9929131 0.0647579 0.9929131 0.0647579 0.0070869 -0.0647579
3124000000 0.0070003 -0.0640255 0.9929997 0.0640255 0.9929997 0.0640255 0.0070003 -0.0640255
3145000000 0.0069158 -0.0633007 0.9930842 0.0633007 0.9930842 0.0633007 0.0069158 -0.0633007
3166000000 0.0068334 -0.0625833 0.9931666 0.0625833 0.9931666 0.0625833 0.0068334 -0.0625833
3187000000 0.0067529 -0.0618733 0.9932471 0.0618733 0.9932471 0.0618733 0.0067529 -0.0618733
3208000000 0.0066744 -0.0611705 0.9933256 0.0611705 0.9933256 0.0611705 0.0066744 -0.0611705
3229000000 0.0065978 -0.0604747 0.9934022 0.0604747 0.9934022 0.0604747 0.0065978 -0.0604747
3250000000 0.0065229 -0.0597859 0.9934771 0.0597859 0.9934771 0.0597859 0.0065229 -0.0597859
3271000000 0.0064499 -0.0591038 0.9935501 0.0591038 0.9935501 0.0591038 0.0064499 -0.0591038
3292000000 0.0063787 -0.0584284 0.9936213 0.0584284 0.9936213 0.0584284 0.0063787 -0.0584284
3313000000 0.0063091 -0.0577596 0.9936909 0.0577596 0.9936909 0.0577596 0.0063091 -0.0577596
3334000000 0.0062412 -0.0570971 0.9937588 0.0570971 0.9937588 0.0570971 0.0062412 -0.0570971
3355000000 0.0061750 -0.0564410 0.9938250 0.0564410 0.9938250 0.0564410 0.0061750 -0.0564410
3376000000 0.0061103 -0.0557910 0.9938897 0.0557910 0.9938897 0.0557910 0.0061103 -0.0557910
3397000000 0.0060472 -0.0551472 0.9939528 0.0551472 0.9939528 0.0551472 0.0060472 -0.0551472
3418000000 0.0059857 -0.0545093 0.9940143 0.0545093 0.9940143 0.0545093 0.0059857 -0.0545093
3439000000 0.0059256 -0.0538772 0.9940744 0.0538772 0.9940744 0.0538772 0.0059256 -0.0538772
3460000000 0.0058669 -0.0532509 0.9941331 0.0532509 0.9941331 0.0532509 0.0058669 -0.0532509
3481000000 0.0058097 -0.0526303 0.9941903 0.0526303 0.9941903 0.0526303 0.0058097 -0.0526303
3502000000 0.0057538 -0.0520152 0.9942462 0.0520152 0.9942462 0.0520152 0.0057538 -0.0520152
3523000000 0.0056993 -0.0514056 0.9943007 0.0514056 0.9943007 0.0514056 0.0056993 -0.0514056
3544000000 0.0056462 -0.0508014 0.9943538 0.0508014 0.9943538 0.0508014 0.0056462 -0.0508014
3565000000 0.0055943 -0.0502024 0.9944057 0.0502024 0.9944057 0.0502024 0.0055943 -0.0502024
3586000000 0.0055437 -0.0496086 0.9944563 0.0496086 0.9944563 0.0496086 0.0055437 -0.0496086
3607000000 0.0054944 -0.0490199 0.9945056 0.0490199 0.9945056 0.0490199 0.0054944 -0.0490199
3628000000 0.0054462 -0.0484362 0.9945538 0.0484362 0.9945538 0.0484362 0.0054462 -0.0484362
3649000000 0.0053993 -0.0478574 0.9946007 0.0478574 0.9946007 0.0478574 0.0053993 -0.0478574
3670000000 0.0053535 -0.0472835 0.9946465 0.0472835 0.9946465 0.0472835 0.0053535 -0.0472835
3691000000 0.0053088 -0.0467144 0.9946912 0.0467144 0.9946912 0.0467144 0.0053088 -0.0467144
3712000000 0.0052653 -0.0461499 0.9947347 0.0461499 0.9947347 0.0461499 0.0052653 -0.0461499
3733000000 0.0052229 -0.0455900 0.9947771 0.0455900 0.9947771 0.0455900 0.0052229 -0.0455900
3754000000 0.0051815 -0.0450347 0.9948185 0.0450347 0.9948185 0.0450347 0.0051815 -0.0450347
3775000000 0.0051412 -0.0444838 0.9948588 0.0444838 0.9948588 0.0444838 0.0051412 -0.0444838
3796000000 0.0051019 -0.0439373 0.9948981 0.0439373 0.9948981 0.0439373 0.0051019 -0.0439373
3817000000 0.0050636 -0.0433951 0.9949364 0.0433951 0.9949364 0.0433951 0.0050636 -0.0433951
3838000000 0.0050263 -0.0428572 0.9949737 0.0428572 0.9949737 0.0428572 0.0050263 -0.0428572
3859000000 0.0049900 -0.0423235 0.9950100 0.0423235 0.9950100 0.0423235 0.0049900 -0.0423235
3880000000 0.0049546 -0.0417938 0.9950454 0.0417938 0.9950454 0.0417938 0.0049546 -0.0417938
3901000000 0.0049202 -0.0412682 0.9950798 0.0412682 0.9950798 0.0412682 0.0049202 -0.0412682
3922000000 0.0048866 -0.0407466 0.9951134 0.0407466 0.9951134 0.0407466 0.0048866 -0.0407466
3943000000 0.0048540 -0.0402289 0.9951460 0.0402289 0.9951460 0.0402289 0.0048540 -0.0402289
3964000000 0.0048223 -0.0397151 0.9951777 0.0397151 0.9951777 0.0397151 0.0048223 -0.0397151
3985000000 0.0047914 -0.0392051 0.9952086 0.0392051 0.9952086 0.0392051 0.0047914 -0.0392051
4006000000 0.0047613 -0.0386988 0.9952387 0.0386988 0.9952387 0.0386988 0.0047613 -0.0386988
4027000000 0.0047321 -0.0381962 0.9952679 0.0381962 0.9952679 0.0381962 0.0047321 -0.0381962
4048000000 0.0047037 -0.0376973 0.9952963 0.0376973 0.9952963 0.0376973 0.0047037 -0.0376973
4069000000 0.0046761 -0.0372019 0.9953239 0.0372019 0.9953239 0.0372019 0.0046761 -0.0372019
4090000000 0.0046493 -0.0367101 0.9953507 0.0367101 0.9953507 0.0367101 0.0046493 -0.0367101
4111000000 0.0046232 -0.0362217 0.9953768 0.0362217 0.9953768 0.0362217 0.0046232 -0.0362217
4132000000 0.0045979 -0.0357367 0.9954021 0.0357367 0.9954021 0.0357367 0.0045979 -0.0357367
4153000000 0.0045734 -0.0352551 0.9954266 0.0352551 0.9954266 0.0352551 0.0045734 -0.0352551
4174000000 0.0045496 -0.0347768 0.9954504 0.0347768 0.9954504 0.0347768 0.0045496 -0.0347768
4195000000 0.0045265 -0.0343018 0.9954735 0.0343018 0.9954735 0.0343018 0.0045265 -0.0343018
4216000000 0.0045041 -0.0338300 0.9954959 0.0338300 0.9954959 0.0338300 0.0045041 -0.0338300
4237000000 0.0044824 -0.0333614 0.9955176 0.0333614 0.9955176 0.0333614 0.0044824 -0.0333614
4258000000 0.0044613 -0.0328960 0.9955387 0.0328960 0.9955387 0.0328960 0.0044613 -0.0328960
4279000000 0.0044410 -0.0324336 0.9955590 0.0324336 0.9955590 0.0324336 0.0044410 -0.0324336
4300000000 0.0044213 -0.0319742 0.9955787 0.0319742 0.9955787 0.0319742 0.0044213 -0.0319742
4321000000 0.0044023 -0.0315179 0.9955977 0.0315179 0.9955977 0.0315179 0.0044023 -0.0315179
4342000000 0.0043839 -0.0310645 0.9956161 0.0310645 0.9956161 0.0310645 0.0043839 -0.0310645
4363000000 0.0043661 -0.0306140 0.9956339 0.0306140 0.9956339 0.0306140 0.0043661 -0.0306140
4384000000 0.0043489 -0.0301664 0.9956511 0.0301664 0.9956511 0.0301664 0.0043489 -0.0301664
4405000000 0.0043324 -0.0297216 0.9956676 0.0297216 0.9956676 0.0297216 0.0043324 -0.0297216
4426000000 0.0043164 -0.0292796 0.9956836 0.0292796 0.9956836 0.0292796 0.0043164 -0.0292796
4447000000 0.0043010 -0.0288404 0.9956990 0.0288404 0.9956990 0.0288404 0.0043010 -0.0288404
4468000000 0.0042862 -0.0284039 0.9957138 0.0284039 0.9957138 0.0284039 0.0042862 -0.0284039
4489000000 0.0042720 -0.0279701 0.9957280 0.0279701 0.9957280 0.0279701 0.0042720 -0.0279701
4510000000 0.0042584 -0.0275389 0.9957416 0.0275389 0.9957416 0.0275389 0.0042584 -0.0275389
