!Murata Part Number: GRM0115C1C5R5BE01
!These Parameters are Measured in Series Mode Connection
!Data Generated on Mar 30, 2021
!       o--ll--o
!Port1            Port2
!       o------o
!Operation Temp=25[degC], DC Bias Voltage=0[V]
!Freq. Start=100[MHz] Stop=9[GHz] 401[Steps]
# Hz S RI R 50
!Freq.(Hz) S11(Real) S11(Imag) S21(Real) S21(Imag) S12(Real) S12(Imag) S22(Real) S22(Imag)
100000000 0.8931346 -0.3086770 0.1068654 0.3086770 0.1068654 0.3086770 0.8931346 -0.3086770
121000000 0.8509082 -0.3558573 0.1490918 0.3558573 0.1490918 0.3558573 0.8509082 -0.3558573
142000000 0.8055658 -0.3953859 0.1944342 0.3953859 0.1944342 0.3953859 0.8055658 -0.3953859
163000000 0.7586610 -0.4274591 0.2413390 0.4274591 0.2413390 0.4274591 0.7586610 -0.4274591
184000000 0.7115033 -0.4525687 0.2884967 0.4525687 0.2884967 0.4525687 0.7115033 -0.4525687
205000000 0.6651278 -0.4713920 0.3348722 0.4713920 0.3348722 0.4713920 0.6651278 -0.4713920
226000000 0.6203021 -0.4846980 0.3796979 0.4846980 0.3796979 0.4846980 0.6203021 -0.4846980
247000000 0.5775547 -0.4932742 0.4224453 0.4932742 0.4224453 0.4932742 0.5775547 -0.4932742
268000000 0.5372148 -0.4978770 0.4627852 0.4978770 0.4627852 0.4978770 0.5372148 -0.4978770
289000000 0.4994536 -0.4992008 0.5005464 0.4992008 0.5005464 0.4992008 0.4994536 -0.4992008
310000000 0.4643242 -0.4978629 0.5356758 0.4978629 0.5356758 0.4978629 0.4643242 -0.4978629
331000000 0.4317938 -0.4943984 0.5682062 0.4943984 0.5682062 0.4943984 0.4317938 -0.4943984
352000000 0.4017722 -0.4892626 0.5982278 0.4892626 0.5982278 0.4892626 0.4017722 -0.4892626
373000000 0.3741317 -0.4828369 0.6258683 0.4828369 0.6258683 0.4828369 0.3741317 -0.4828369
394000000 0.3487238 -0.4754369 0.6512762 0.4754369 0.6512762 0.4754369 0.3487238 -0.4754369
415000000 0.3253901 -0.4673212 0.6746099 0.4673212 0.6746099 0.4673212 0.3253901 -0.4673212
436000000 0.3039705 -0.4586997 0.6960295 0.4586997 0.6960295 0.4586997 0.3039705 -0.4586997
457000000 0.2843081 -0.4497417 0.7156919 0.4497417 0.7156919 0.4497417 0.2843081 -0.4497417
478000000 0.2662535 -0.4405822 0.7337465 0.4405822 0.7337465 0.4405822 0.2662535 -0.4405822
499000000 0.2496658 -0.4313284 0.7503342 0.4313284 0.7503342 0.4313284 0.2496658 -0.4313284
520000000 0.2344144 -0.4220647 0.7655856 0.4220647 0.7655856 0.4220647 0.2344144 -0.4220647
541000000 0.2203787 -0.4128569 0.7796213 0.4128569 0.7796213 0.4128569 0.2203787 -0.4128569
562000000 0.2074487 -0.4037555 0.7925513 0.4037555 0.7925513 0.4037555 0.2074487 -0.4037555
583000000 0.1955239 -0.3947990 0.8044761 0.3947990 0.8044761 0.3947990 0.1955239 -0.3947990
604000000 0.1845131 -0.3860160 0.8154869 0.3860160 0.8154869 0.3860160 0.1845131 -0.3860160
625000000 0.1743340 -0.3774274 0.8256660 0.3774274 0.8256660 0.3774274 0.1743340 -0.3774274
646000000 0.1649119 -0.3690477 0.8350881 0.3690477 0.8350881 0.3690477 0.1649119 -0.3690477
667000000 0.1561794 -0.3608864 0.8438206 0.3608864 0.8438206 0.3608864 0.1561794 -0.3608864
688000000 0.1480758 -0.3529492 0.8519242 0.3529492 0.8519242 0.3529492 0.1480758 -0.3529492
709000000 0.1405461 -0.3452388 0.8594539 0.3452388 0.8594539 0.3452388 0.1405461 -0.3452388
730000000 0.1335410 -0.3377550 0.8664590 0.3377550 0.8664590 0.3377550 0.1335410 -0.3377550
751000000 0.1270156 -0.3304964 0.8729844 0.3304964 0.8729844 0.3304964 0.1270156 -0.3304964
772000000 0.1209297 -0.3234595 0.8790703 0.3234595 0.8790703 0.3234595 0.1209297 -0.3234595
793000000 0.1152467 -0.3166403 0.8847533 0.3166403 0.8847533 0.3166403 0.1152467 -0.3166403
814000000 0.1099336 -0.3100336 0.8900664 0.3100336 0.8900664 0.3100336 0.1099336 -0.3100336
835000000 0.1049606 -0.3036337 0.8950394 0.3036337 0.8950394 0.3036337 0.1049606 -0.3036337
856000000 0.1003005 -0.2974347 0.8996995 0.2974347 0.8996995 0.2974347 0.1003005 -0.2974347
877000000 0.0959287 -0.2914302 0.9040713 0.2914302 0.9040713 0.2914302 0.0959287 -0.2914302
898000000 0.0918230 -0.2856139 0.9081770 0.2856139 0.9081770 0.2856139 0.0918230 -0.2856139
919000000 0.0879631 -0.2799791 0.9120369 0.2799791 0.9120369 0.2799791 0.0879631 -0.2799791
940000000 0.0843304 -0.2745196 0.9156696 0.2745196 0.9156696 0.2745196 0.0843304 -0.2745196
961000000 0.0809081 -0.2692288 0.9190919 0.2692288 0.9190919 0.2692288 0.0809081 -0.2692288
982000000 0.0776809 -0.2641005 0.9223191 0.2641005 0.9223191 0.2641005 0.0776809 -0.2641005
1003000000 0.0746347 -0.2591286 0.9253653 0.2591286 0.9253653 0.2591286 0.0746347 -0.2591286
1024000000 0.0717566 -0.2543070 0.9282434 0.2543070 0.9282434 0.2543070 0.0717566 -0.2543070
1045000000 0.0690350 -0.2496300 0.9309650 0.2496300 0.9309650 0.2496300 0.0690350 -0.2496300
1066000000 0.0664589 -0.2450920 0.9335411 0.2450920 0.9335411 0.2450920 0.0664589 -0.2450920
1087000000 0.0640186 -0.2406875 0.9359814 0.2406875 0.9359814 0.2406875 0.0640186 -0.2406875
1108000000 0.0617049 -0.2364113 0.9382951 0.2364113 0.9382951 0.2364113 0.0617049 -0.2364113
1129000000 0.0595095 -0.2322585 0.9404905 0.2322585 0.9404905 0.2322585 0.0595095 -0.2322585
1150000000 0.0574247 -0.2282241 0.9425753 0.2282241 0.9425753 0.2282241 0.0574247 -0.2282241
1171000000 0.0554433 -0.2243037 0.9445567 0.2243037 0.9445567 0.2243037 0.0554433 -0.2243037
1192000000 0.0535588 -0.2204927 0.9464412 0.2204927 0.9464412 0.2204927 0.0535588 -0.2204927
1213000000 0.0517652 -0.2167869 0.9482348 0.2167869 0.9482348 0.2167869 0.0517652 -0.2167869
1234000000 0.0500568 -0.2131823 0.9499432 0.2131823 0.9499432 0.2131823 0.0500568 -0.2131823
1255000000 0.0484285 -0.2096749 0.9515715 0.2096749 0.9515715 0.2096749 0.0484285 -0.2096749
1276000000 0.0468755 -0.2062611 0.9531245 0.2062611 0.9531245 0.2062611 0.0468755 -0.2062611
1297000000 0.0453933 -0.2029374 0.9546067 0.2029374 0.9546067 0.2029374 0.0453933 -0.2029374
1318000000 0.0439778 -0.1997002 0.9560222 0.1997002 0.9560222 0.1997002 0.0439778 -0.1997002
1339000000 0.0426251 -0.1965465 0.9573749 0.1965465 0.9573749 0.1965465 0.0426251 -0.1965465
1360000000 0.0413316 -0.1934730 0.9586684 0.1934730 0.9586684 0.1934730 0.0413316 -0.1934730
1381000000 0.0400941 -0.1904768 0.9599059 0.1904768 0.9599059 0.1904768 0.0400941 -0.1904768
1402000000 0.0389094 -0.1875550 0.9610906 0.1875550 0.9610906 0.1875550 0.0389094 -0.1875550
1423000000 0.0377746 -0.1847051 0.9622254 0.1847051 0.9622254 0.1847051 0.0377746 -0.1847051
1444000000 0.0366871 -0.1819243 0.9633129 0.1819243 0.9633129 0.1819243 0.0366871 -0.1819243
1465000000 0.0356443 -0.1792101 0.9643557 0.1792101 0.9643557 0.1792101 0.0356443 -0.1792101
1486000000 0.0346438 -0.1765603 0.9653562 0.1765603 0.9653562 0.1765603 0.0346438 -0.1765603
1507000000 0.0336834 -0.1739726 0.9663166 0.1739726 0.9663166 0.1739726 0.0336834 -0.1739726
1528000000 0.0327611 -0.1714447 0.9672389 0.1714447 0.9672389 0.1714447 0.0327611 -0.1714447
1549000000 0.0318749 -0.1689747 0.9681251 0.1689747 0.9681251 0.1689747 0.0318749 -0.1689747
1570000000 0.0310231 -0.1665604 0.9689769 0.1665604 0.9689769 0.1665604 0.0310231 -0.1665604
1591000000 0.0302038 -0.1642001 0.9697962 0.1642001 0.9697962 0.1642001 0.0302038 -0.1642001
1612000000 0.0294156 -0.1618918 0.9705844 0.1618918 0.9705844 0.1618918 0.0294156 -0.1618918
1633000000 0.0286568 -0.1596340 0.9713432 0.1596340 0.9713432 0.1596340 0.0286568 -0.1596340
1654000000 0.0279262 -0.1574247 0.9720738 0.1574247 0.9720738 0.1574247 0.0279262 -0.1574247
1675000000 0.0272223 -0.1552626 0.9727777 0.1552626 0.9727777 0.1552626 0.0272223 -0.1552626
1696000000 0.0265438 -0.1531460 0.9734562 0.1531460 0.9734562 0.1531460 0.0265438 -0.1531460
1717000000 0.0258897 -0.1510735 0.9741103 0.1510735 0.9741103 0.1510735 0.0258897 -0.1510735
1738000000 0.0252588 -0.1490436 0.9747412 0.1490436 0.9747412 0.1490436 0.0252588 -0.1490436
1759000000 0.0246500 -0.1470550 0.9753500 0.1470550 0.9753500 0.1470550 0.0246500 -0.1470550
1780000000 0.0240623 -0.1451063 0.9759377 0.1451063 0.9759377 0.1451063 0.0240623 -0.1451063
1801000000 0.0234949 -0.1431965 0.9765051 0.1431965 0.9765051 0.1431965 0.0234949 -0.1431965
1822000000 0.0229467 -0.1413241 0.9770533 0.1413241 0.9770533 0.1413241 0.0229467 -0.1413241
1843000000 0.0224171 -0.1394882 0.9775829 0.1394882 0.9775829 0.1394882 0.0224171 -0.1394882
1864000000 0.0219051 -0.1376875 0.9780949 0.1376875 0.9780949 0.1376875 0.0219051 -0.1376875
1885000000 0.0214100 -0.1359211 0.9785900 0.1359211 0.9785900 0.1359211 0.0214100 -0.1359211
1906000000 0.0209312 -0.1341878 0.9790688 0.1341878 0.9790688 0.1341878 0.0209312 -0.1341878
1927000000 0.0204679 -0.1324867 0.9795321 0.1324867 0.9795321 0.1324867 0.0204679 -0.1324867
1948000000 0.0200195 -0.1308169 0.9799805 0.1308169 0.9799805 0.1308169 0.0200195 -0.1308169
1969000000 0.0195853 -0.1291774 0.9804147 0.1291774 0.9804147 0.1291774 0.0195853 -0.1291774
1990000000 0.0191649 -0.1275674 0.9808351 0.1275674 0.9808351 0.1275674 0.0191649 -0.1275674
2011000000 0.0187576 -0.1259860 0.9812424 0.1259860 0.9812424 0.1259860 0.0187576 -0.1259860
2032000000 0.0183630 -0.1244324 0.9816370 0.1244324 0.9816370 0.1244324 0.0183630 -0.1244324
2053000000 0.0179805 -0.1229059 0.9820195 0.1229059 0.9820195 0.1229059 0.0179805 -0.1229059
2074000000 0.0176096 -0.1214056 0.9823904 0.1214056 0.9823904 0.1214056 0.0176096 -0.1214056
2095000000 0.0172500 -0.1199308 0.9827500 0.1199308 0.9827500 0.1199308 0.0172500 -0.1199308
2116000000 0.0169012 -0.1184808 0.9830988 0.1184808 0.9830988 0.1184808 0.0169012 -0.1184808
2137000000 0.0165627 -0.1170550 0.9834373 0.1170550 0.9834373 0.1170550 0.0165627 -0.1170550
2158000000 0.0162343 -0.1156527 0.9837657 0.1156527 0.9837657 0.1156527 0.0162343 -0.1156527
2179000000 0.0159154 -0.1142733 0.9840846 0.1142733 0.9840846 0.1142733 0.0159154 -0.1142733
2200000000 0.0156059 -0.1129161 0.9843941 0.1129161 0.9843941 0.1129161 0.0156059 -0.1129161
2221000000 0.0153052 -0.1115806 0.9846948 0.1115806 0.9846948 0.1115806 0.0153052 -0.1115806
2242000000 0.0150132 -0.1102662 0.9849868 0.1102662 0.9849868 0.1102662 0.0150132 -0.1102662
2263000000 0.0147295 -0.1089724 0.9852705 0.1089724 0.9852705 0.1089724 0.0147295 -0.1089724
2284000000 0.0144537 -0.1076985 0.9855463 0.1076985 0.9855463 0.1076985 0.0144537 -0.1076985
2305000000 0.0141857 -0.1064442 0.9858143 0.1064442 0.9858143 0.1064442 0.0141857 -0.1064442
2326000000 0.0139252 -0.1052089 0.9860748 0.1052089 0.9860748 0.1052089 0.0139252 -0.1052089
2347000000 0.0136718 -0.1039921 0.9863282 0.1039921 0.9863282 0.1039921 0.0136718 -0.1039921
2368000000 0.0134254 -0.1027934 0.9865746 0.1027934 0.9865746 0.1027934 0.0134254 -0.1027934
2389000000 0.0131857 -0.1016123 0.9868143 0.1016123 0.9868143 0.1016123 0.0131857 -0.1016123
2410000000 0.0129525 -0.1004484 0.9870475 0.1004484 0.9870475 0.1004484 0.0129525 -0.1004484
2431000000 0.0127256 -0.0993012 0.9872744 0.0993012 0.9872744 0.0993012 0.0127256 -0.0993012
2452000000 0.0125048 -0.0981704 0.9874952 0.0981704 0.9874952 0.0981704 0.0125048 -0.0981704
2473000000 0.0122898 -0.0970556 0.9877102 0.0970556 0.9877102 0.0970556 0.0122898 -0.0970556
2494000000 0.0120805 -0.0959563 0.9879195 0.0959563 0.9879195 0.0959563 0.0120805 -0.0959563
2515000000 0.0118767 -0.0948723 0.9881233 0.0948723 0.9881233 0.0948723 0.0118767 -0.0948723
2536000000 0.0116782 -0.0938031 0.9883218 0.0938031 0.9883218 0.0938031 0.0116782 -0.0938031
2557000000 0.0114849 -0.0927484 0.9885151 0.0927484 0.9885151 0.0927484 0.0114849 -0.0927484
2578000000 0.0112966 -0.0917079 0.9887034 0.0917079 0.9887034 0.0917079 0.0112966 -0.0917079
2599000000 0.0111131 -0.0906812 0.9888869 0.0906812 0.9888869 0.0906812 0.0111131 -0.0906812
2620000000 0.0109343 -0.0896681 0.9890657 0.0896681 0.9890657 0.0896681 0.0109343 -0.0896681
2641000000 0.0107601 -0.0886681 0.9892399 0.0886681 0.9892399 0.0886681 0.0107601 -0.0886681
2662000000 0.0105902 -0.0876811 0.9894098 0.0876811 0.9894098 0.0876811 0.0105902 -0.0876811
2683000000 0.0104247 -0.0867067 0.9895753 0.0867067 0.9895753 0.0867067 0.0104247 -0.0867067
2704000000 0.0102633 -0.0857447 0.9897367 0.0857447 0.9897367 0.0857447 0.0102633 -0.0857447
2725000000 0.0101059 -0.0847947 0.9898941 0.0847947 0.9898941 0.0847947 0.0101059 -0.0847947
2746000000 0.0099524 -0.0838566 0.9900476 0.0838566 0.9900476 0.0838566 0.0099524 -0.0838566
2767000000 0.0098027 -0.0829300 0.9901973 0.0829300 0.9901973 0.0829300 0.0098027 -0.0829300
2788000000 0.0096567 -0.0820147 0.9903433 0.0820147 0.9903433 0.0820147 0.0096567 -0.0820147
2809000000 0.0095143 -0.0811104 0.9904857 0.0811104 0.9904857 0.0811104 0.0095143 -0.0811104
2830000000 0.0093754 -0.0802170 0.9906246 0.0802170 0.9906246 0.0802170 0.0093754 -0.0802170
2851000000 0.0092398 -0.0793342 0.9907602 0.0793342 0.9907602 0.0793342 0.0092398 -0.0793342
2872000000 0.0091075 -0.0784618 0.9908925 0.0784618 0.9908925 0.0784618 0.0091075 -0.0784618
2893000000 0.0089784 -0.0775995 0.9910216 0.0775995 0.9910216 0.0775995 0.0089784 -0.0775995
2914000000 0.0088525 -0.0767471 0.9911475 0.0767471 0.9911475 0.0767471 0.0088525 -0.0767471
2935000000 0.0087295 -0.0759045 0.9912705 0.0759045 0.9912705 0.0759045 0.0087295 -0.0759045
2956000000 0.0086095 -0.0750714 0.9913905 0.0750714 0.9913905 0.0750714 0.0086095 -0.0750714
2977000000 0.0084924 -0.0742477 0.9915076 0.0742477 0.9915076 0.0742477 0.0084924 -0.0742477
2998000000 0.0083781 -0.0734331 0.9916219 0.0734331 0.9916219 0.0734331 0.0083781 -0.0734331
3019000000 0.0082664 -0.0726275 0.9917336 0.0726275 0.9917336 0.0726275 0.0082664 -0.0726275
3040000000 0.0081574 -0.0718307 0.9918426 0.0718307 0.9918426 0.0718307 0.0081574 -0.0718307
3061000000 0.0080510 -0.0710425 0.9919490 0.0710425 0.9919490 0.0710425 0.0080510 -0.0710425
3082000000 0.0079471 -0.0702627 0.9920529 0.0702627 0.9920529 0.0702627 0.0079471 -0.0702627
3103000000 0.0078456 -0.0694913 0.9921544 0.0694913 0.9921544 0.0694913 0.0078456 -0.0694913
3124000000 0.0077465 -0.0687279 0.9922535 0.0687279 0.9922535 0.0687279 0.0077465 -0.0687279
3145000000 0.0076498 -0.0679725 0.9923502 0.0679725 0.9923502 0.0679725 0.0076498 -0.0679725
3166000000 0.0075553 -0.0672250 0.9924447 0.0672250 0.9924447 0.0672250 0.0075553 -0.0672250
3187000000 0.0074630 -0.0664850 0.9925370 0.0664850 0.9925370 0.0664850 0.0074630 -0.0664850
3208000000 0.0073729 -0.0657526 0.9926271 0.0657526 0.9926271 0.0657526 0.0073729 -0.0657526
3229000000 0.0072848 -0.0650276 0.9927152 0.0650276 0.9927152 0.0650276 0.0072848 -0.0650276
3250000000 0.0071989 -0.0643098 0.9928011 0.0643098 0.9928011 0.0643098 0.0071989 -0.0643098
3271000000 0.0071149 -0.0635991 0.9928851 0.0635991 0.9928851 0.0635991 0.0071149 -0.0635991
3292000000 0.0070329 -0.0628954 0.9929671 0.0628954 0.9929671 0.0628954 0.0070329 -0.0628954
3313000000 0.0069527 -0.0621985 0.9930473 0.0621985 0.9930473 0.0621985 0.0069527 -0.0621985
3334000000 0.0068745 -0.0615084 0.9931255 0.0615084 0.9931255 0.0615084 0.0068745 -0.0615084
3355000000 0.0067981 -0.0608248 0.9932019 0.0608248 0.9932019 0.0608248 0.0067981 -0.0608248
3376000000 0.0067234 -0.0601477 0.9932766 0.0601477 0.9932766 0.0601477 0.0067234 -0.0601477
3397000000 0.0066505 -0.0594769 0.9933495 0.0594769 0.9933495 0.0594769 0.0066505 -0.0594769
3418000000 0.0065793 -0.0588124 0.9934207 0.0588124 0.9934207 0.0588124 0.0065793 -0.0588124
3439000000 0.0065097 -0.0581541 0.9934903 0.0581541 0.9934903 0.0581541 0.0065097 -0.0581541
3460000000 0.0064418 -0.0575017 0.9935582 0.0575017 0.9935582 0.0575017 0.0064418 -0.0575017
3481000000 0.0063755 -0.0568553 0.9936245 0.0568553 0.9936245 0.0568553 0.0063755 -0.0568553
3502000000 0.0063107 -0.0562147 0.9936893 0.0562147 0.9936893 0.0562147 0.0063107 -0.0562147
3523000000 0.0062474 -0.0555798 0.9937526 0.0555798 0.9937526 0.0555798 0.0062474 -0.0555798
3544000000 0.0061856 -0.0549505 0.9938144 0.0549505 0.9938144 0.0549505 0.0061856 -0.0549505
3565000000 0.0061253 -0.0543267 0.9938747 0.0543267 0.9938747 0.0543267 0.0061253 -0.0543267
3586000000 0.0060664 -0.0537084 0.9939336 0.0537084 0.9939336 0.0537084 0.0060664 -0.0537084
3607000000 0.0060089 -0.0530954 0.9939911 0.0530954 0.9939911 0.0530954 0.0060089 -0.0530954
3628000000 0.0059527 -0.0524876 0.9940473 0.0524876 0.9940473 0.0524876 0.0059527 -0.0524876
3649000000 0.0058979 -0.0518850 0.9941021 0.0518850 0.9941021 0.0518850 0.0058979 -0.0518850
3670000000 0.0058444 -0.0512875 0.9941556 0.0512875 0.9941556 0.0512875 0.0058444 -0.0512875
3691000000 0.0057922 -0.0506949 0.9942078 0.0506949 0.9942078 0.0506949 0.0057922 -0.0506949
3712000000 0.0057412 -0.0501073 0.9942588 0.0501073 0.9942588 0.0501073 0.0057412 -0.0501073
3733000000 0.0056915 -0.0495245 0.9943085 0.0495245 0.9943085 0.0495245 0.0056915 -0.0495245
3754000000 0.0056430 -0.0489464 0.9943570 0.0489464 0.9943570 0.0489464 0.0056430 -0.0489464
3775000000 0.0055956 -0.0483730 0.9944044 0.0483730 0.9944044 0.0483730 0.0055956 -0.0483730
3796000000 0.0055494 -0.0478041 0.9944506 0.0478041 0.9944506 0.0478041 0.0055494 -0.0478041
3817000000 0.0055044 -0.0472398 0.9944956 0.0472398 0.9944956 0.0472398 0.0055044 -0.0472398
3838000000 0.0054605 -0.0466800 0.9945395 0.0466800 0.9945395 0.0466800 0.0054605 -0.0466800
3859000000 0.0054176 -0.0461245 0.9945824 0.0461245 0.9945824 0.0461245 0.0054176 -0.0461245
3880000000 0.0053759 -0.0455733 0.9946241 0.0455733 0.9946241 0.0455733 0.0053759 -0.0455733
3901000000 0.0053352 -0.0450263 0.9946648 0.0450263 0.9946648 0.0450263 0.0053352 -0.0450263
3922000000 0.0052955 -0.0444836 0.9947045 0.0444836 0.9947045 0.0444836 0.0052955 -0.0444836
3943000000 0.0052568 -0.0439449 0.9947432 0.0439449 0.9947432 0.0439449 0.0052568 -0.0439449
3964000000 0.0052191 -0.0434103 0.9947809 0.0434103 0.9947809 0.0434103 0.0052191 -0.0434103
3985000000 0.0051825 -0.0428797 0.9948175 0.0428797 0.9948175 0.0428797 0.0051825 -0.0428797
4006000000 0.0051467 -0.0423530 0.9948533 0.0423530 0.9948533 0.0423530 0.0051467 -0.0423530
4027000000 0.0051119 -0.0418301 0.9948881 0.0418301 0.9948881 0.0418301 0.0051119 -0.0418301
4048000000 0.0050781 -0.0413111 0.9949219 0.0413111 0.9949219 0.0413111 0.0050781 -0.0413111
4069000000 0.0050451 -0.0407958 0.9949549 0.0407958 0.9949549 0.0407958 0.0050451 -0.0407958
4090000000 0.0050131 -0.0402842 0.9949869 0.0402842 0.9949869 0.0402842 0.0050131 -0.0402842
4111000000 0.0049819 -0.0397762 0.9950181 0.0397762 0.9950181 0.0397762 0.0049819 -0.0397762
4132000000 0.0049516 -0.0392718 0.9950484 0.0392718 0.9950484 0.0392718 0.0049516 -0.0392718
4153000000 0.0049221 -0.0387709 0.9950779 0.0387709 0.9950779 0.0387709 0.0049221 -0.0387709
4174000000 0.0048935 -0.0382736 0.9951065 0.0382736 0.9951065 0.0382736 0.0048935 -0.0382736
4195000000 0.0048657 -0.0377796 0.9951343 0.0377796 0.9951343 0.0377796 0.0048657 -0.0377796
4216000000 0.0048387 -0.0372890 0.9951613 0.0372890 0.9951613 0.0372890 0.0048387 -0.0372890
4237000000 0.0048125 -0.0368018 0.9951875 0.0368018 0.9951875 0.0368018 0.0048125 -0.0368018
4258000000 0.0047871 -0.0363178 0.9952129 0.0363178 0.9952129 0.0363178 0.0047871 -0.0363178
4279000000 0.0047624 -0.0358371 0.9952376 0.0358371 0.9952376 0.0358371 0.0047624 -0.0358371
4300000000 0.0047385 -0.0353595 0.9952615 0.0353595 0.9952615 0.0353595 0.0047385 -0.0353595
4321000000 0.0047154 -0.0348851 0.9952846 0.0348851 0.9952846 0.0348851 0.0047154 -0.0348851
4342000000 0.0046929 -0.0344138 0.9953071 0.0344138 0.9953071 0.0344138 0.0046929 -0.0344138
4363000000 0.0046712 -0.0339456 0.9953288 0.0339456 0.9953288 0.0339456 0.0046712 -0.0339456
4384000000 0.0046503 -0.0334804 0.9953497 0.0334804 0.9953497 0.0334804 0.0046503 -0.0334804
4405000000 0.0046300 -0.0330181 0.9953700 0.0330181 0.9953700 0.0330181 0.0046300 -0.0330181
4426000000 0.0046104 -0.0325588 0.9953896 0.0325588 0.9953896 0.0325588 0.0046104 -0.0325588
4447000000 0.0045915 -0.0321023 0.9954085 0.0321023 0.9954085 0.0321023 0.0045915 -0.0321023
4468000000 0.0045732 -0.0316488 0.9954268 0.0316488 0.9954268 0.0316488 0.0045732 -0.0316488
4489000000 0.0045556 -0.0311980 0.9954444 0.0311980 0.9954444 0.0311980 0.0045556 -0.0311980
4510000000 0.0045387 -0.0307500 0.9954613 0.0307500 0.9954613 0.0307500 0.0045387 -0.0307500
