!Murata Part Number: GRM0115C1C330GE01
!These Parameters are Measured in Series Mode Connection
!Data Generated on Mar 30, 2021
!       o--ll--o
!Port1            Port2
!       o------o
!Operation Temp=25[degC], DC Bias Voltage=0[V]
!Freq. Start=100[MHz] Stop=9[GHz] 401[Steps]
# Hz S RI R 50
!Freq.(Hz) S11(Real) S11(Imag) S21(Real) S21(Imag) S12(Real) S12(Imag) S22(Real) S22(Imag)
100000000 0.1887509 -0.3902811 0.8112491 0.3902811 0.8112491 0.3902811 0.1887509 -0.3902811
121000000 0.1371943 -0.3428054 0.8628057 0.3428054 0.8628057 0.3428054 0.1371943 -0.3428054
142000000 0.1035722 -0.3032396 0.8964278 0.3032396 0.8964278 0.3032396 0.1035722 -0.3032396
163000000 0.0806788 -0.2706571 0.9193212 0.2706571 0.9193212 0.2706571 0.0806788 -0.2706571
184000000 0.0644906 -0.2437208 0.9355094 0.2437208 0.9355094 0.2437208 0.0644906 -0.2437208
205000000 0.0526685 -0.2212456 0.9473315 0.2212456 0.9473315 0.2212456 0.0526685 -0.2212456
226000000 0.0437945 -0.2022902 0.9562055 0.2022902 0.9562055 0.2022902 0.0437945 -0.2022902
247000000 0.0369757 -0.1861312 0.9630243 0.1861312 0.9630243 0.1861312 0.0369757 -0.1861312
268000000 0.0316296 -0.1722159 0.9683704 0.1722159 0.9683704 0.1722159 0.0316296 -0.1722159
289000000 0.0273645 -0.1601206 0.9726355 0.1601206 0.9726355 0.1601206 0.0273645 -0.1601206
310000000 0.0239098 -0.1495174 0.9760902 0.1495174 0.9760902 0.1495174 0.0239098 -0.1495174
331000000 0.0210740 -0.1401503 0.9789260 0.1401503 0.9789260 0.1401503 0.0210740 -0.1401503
352000000 0.0187187 -0.1318169 0.9812813 0.1318169 0.9812813 0.1318169 0.0187187 -0.1318169
373000000 0.0167419 -0.1243559 0.9832581 0.1243559 0.9832581 0.1243559 0.0167419 -0.1243559
394000000 0.0150672 -0.1176372 0.9849328 0.1176372 0.9849328 0.1176372 0.0150672 -0.1176372
415000000 0.0136364 -0.1115547 0.9863636 0.1115547 0.9863636 0.1115547 0.0136364 -0.1115547
436000000 0.0124047 -0.1060216 0.9875953 0.1060216 0.9875953 0.1060216 0.0124047 -0.1060216
457000000 0.0113372 -0.1009657 0.9886628 0.1009657 0.9886628 0.1009657 0.0113372 -0.1009657
478000000 0.0104060 -0.0963270 0.9895940 0.0963270 0.9895940 0.0963270 0.0104060 -0.0963270
499000000 0.0095893 -0.0920550 0.9904107 0.0920550 0.9904107 0.0920550 0.0095893 -0.0920550
520000000 0.0088691 -0.0881068 0.9911309 0.0881068 0.9911309 0.0881068 0.0088691 -0.0881068
541000000 0.0082309 -0.0844461 0.9917691 0.0844461 0.9917691 0.0844461 0.0082309 -0.0844461
562000000 0.0076631 -0.0810416 0.9923369 0.0810416 0.9923369 0.0810416 0.0076631 -0.0810416
583000000 0.0071556 -0.0778665 0.9928444 0.0778665 0.9928444 0.0778665 0.0071556 -0.0778665
604000000 0.0067005 -0.0748975 0.9932995 0.0748975 0.9932995 0.0748975 0.0067005 -0.0748975
625000000 0.0062909 -0.0721144 0.9937091 0.0721144 0.9937091 0.0721144 0.0062909 -0.0721144
646000000 0.0059210 -0.0694994 0.9940790 0.0694994 0.9940790 0.0694994 0.0059210 -0.0694994
667000000 0.0055860 -0.0670370 0.9944140 0.0670370 0.9944140 0.0670370 0.0055860 -0.0670370
688000000 0.0052818 -0.0647136 0.9947182 0.0647136 0.9947182 0.0647136 0.0052818 -0.0647136
709000000 0.0050047 -0.0625171 0.9949953 0.0625171 0.9949953 0.0625171 0.0050047 -0.0625171
730000000 0.0047519 -0.0604366 0.9952481 0.0604366 0.9952481 0.0604366 0.0047519 -0.0604366
751000000 0.0045206 -0.0584627 0.9954794 0.0584627 0.9954794 0.0584627 0.0045206 -0.0584627
772000000 0.0043086 -0.0565868 0.9956914 0.0565868 0.9956914 0.0565868 0.0043086 -0.0565868
793000000 0.0041139 -0.0548012 0.9958861 0.0548012 0.9958861 0.0548012 0.0041139 -0.0548012
814000000 0.0039347 -0.0530991 0.9960653 0.0530991 0.9960653 0.0530991 0.0039347 -0.0530991
835000000 0.0037696 -0.0514741 0.9962304 0.0514741 0.9962304 0.0514741 0.0037696 -0.0514741
856000000 0.0036172 -0.0499209 0.9963828 0.0499209 0.9963828 0.0499209 0.0036172 -0.0499209
877000000 0.0034764 -0.0484341 0.9965236 0.0484341 0.9965236 0.0484341 0.0034764 -0.0484341
898000000 0.0033460 -0.0470094 0.9966540 0.0470094 0.9966540 0.0470094 0.0033460 -0.0470094
919000000 0.0032252 -0.0456423 0.9967748 0.0456423 0.9967748 0.0456423 0.0032252 -0.0456423
940000000 0.0031131 -0.0443293 0.9968869 0.0443293 0.9968869 0.0443293 0.0031131 -0.0443293
961000000 0.0030090 -0.0430666 0.9969910 0.0430666 0.9969910 0.0430666 0.0030090 -0.0430666
982000000 0.0029123 -0.0418512 0.9970877 0.0418512 0.9970877 0.0418512 0.0029123 -0.0418512
1003000000 0.0028223 -0.0406800 0.9971777 0.0406800 0.9971777 0.0406800 0.0028223 -0.0406800
1024000000 0.0027385 -0.0395505 0.9972615 0.0395505 0.9972615 0.0395505 0.0027385 -0.0395505
1045000000 0.0026605 -0.0384601 0.9973395 0.0384601 0.9973395 0.0384601 0.0026605 -0.0384601
1066000000 0.0025878 -0.0374065 0.9974122 0.0374065 0.9974122 0.0374065 0.0025878 -0.0374065
1087000000 0.0025200 -0.0363877 0.9974800 0.0363877 0.9974800 0.0363877 0.0025200 -0.0363877
1108000000 0.0024568 -0.0354016 0.9975432 0.0354016 0.9975432 0.0354016 0.0024568 -0.0354016
1129000000 0.0023978 -0.0344464 0.9976022 0.0344464 0.9976022 0.0344464 0.0023978 -0.0344464
1150000000 0.0023427 -0.0335205 0.9976573 0.0335205 0.9976573 0.0335205 0.0023427 -0.0335205
1171000000 0.0022914 -0.0326224 0.9977086 0.0326224 0.9977086 0.0326224 0.0022914 -0.0326224
1192000000 0.0022435 -0.0317505 0.9977565 0.0317505 0.9977565 0.0317505 0.0022435 -0.0317505
1213000000 0.0021988 -0.0309035 0.9978012 0.0309035 0.9978012 0.0309035 0.0021988 -0.0309035
1234000000 0.0021571 -0.0300801 0.9978429 0.0300801 0.9978429 0.0300801 0.0021571 -0.0300801
1255000000 0.0021183 -0.0292793 0.9978817 0.0292793 0.9978817 0.0292793 0.0021183 -0.0292793
1276000000 0.0020821 -0.0284998 0.9979179 0.0284998 0.9979179 0.0284998 0.0020821 -0.0284998
1297000000 0.0020484 -0.0277406 0.9979516 0.0277406 0.9979516 0.0277406 0.0020484 -0.0277406
1318000000 0.0020171 -0.0270009 0.9979829 0.0270009 0.9979829 0.0270009 0.0020171 -0.0270009
1339000000 0.0019879 -0.0262796 0.9980121 0.0262796 0.9980121 0.0262796 0.0019879 -0.0262796
1360000000 0.0019609 -0.0255759 0.9980391 0.0255759 0.9980391 0.0255759 0.0019609 -0.0255759
1381000000 0.0019358 -0.0248891 0.9980642 0.0248891 0.9980642 0.0248891 0.0019358 -0.0248891
1402000000 0.0019126 -0.0242183 0.9980874 0.0242183 0.9980874 0.0242183 0.0019126 -0.0242183
1423000000 0.0018912 -0.0235630 0.9981088 0.0235630 0.9981088 0.0235630 0.0018912 -0.0235630
1444000000 0.0018714 -0.0229223 0.9981286 0.0229223 0.9981286 0.0229223 0.0018714 -0.0229223
1465000000 0.0018533 -0.0222958 0.9981467 0.0222958 0.9981467 0.0222958 0.0018533 -0.0222958
1486000000 0.0018366 -0.0216827 0.9981634 0.0216827 0.9981634 0.0216827 0.0018366 -0.0216827
1507000000 0.0018214 -0.0210826 0.9981786 0.0210826 0.9981786 0.0210826 0.0018214 -0.0210826
1528000000 0.0018076 -0.0204949 0.9981924 0.0204949 0.9981924 0.0204949 0.0018076 -0.0204949
1549000000 0.0017950 -0.0199191 0.9982050 0.0199191 0.9982050 0.0199191 0.0017950 -0.0199191
1570000000 0.0017838 -0.0193547 0.9982162 0.0193547 0.9982162 0.0193547 0.0017838 -0.0193547
1591000000 0.0017737 -0.0188014 0.9982263 0.0188014 0.9982263 0.0188014 0.0017737 -0.0188014
1612000000 0.0017647 -0.0182586 0.9982353 0.0182586 0.9982353 0.0182586 0.0017647 -0.0182586
1633000000 0.0017568 -0.0177259 0.9982432 0.0177259 0.9982432 0.0177259 0.0017568 -0.0177259
1654000000 0.0017500 -0.0172031 0.9982500 0.0172031 0.9982500 0.0172031 0.0017500 -0.0172031
1675000000 0.0017442 -0.0166896 0.9982558 0.0166896 0.9982558 0.0166896 0.0017442 -0.0166896
1696000000 0.0017393 -0.0161853 0.9982607 0.0161853 0.9982607 0.0161853 0.0017393 -0.0161853
1717000000 0.0017353 -0.0156897 0.9982647 0.0156897 0.9982647 0.0156897 0.0017353 -0.0156897
1738000000 0.0017322 -0.0152025 0.9982678 0.0152025 0.9982678 0.0152025 0.0017322 -0.0152025
1759000000 0.0017300 -0.0147234 0.9982700 0.0147234 0.9982700 0.0147234 0.0017300 -0.0147234
1780000000 0.0017286 -0.0142523 0.9982714 0.0142523 0.9982714 0.0142523 0.0017286 -0.0142523
1801000000 0.0017280 -0.0137886 0.9982720 0.0137886 0.9982720 0.0137886 0.0017280 -0.0137886
1822000000 0.0017281 -0.0133324 0.9982719 0.0133324 0.9982719 0.0133324 0.0017281 -0.0133324
1843000000 0.0017290 -0.0128832 0.9982710 0.0128832 0.9982710 0.0128832 0.0017290 -0.0128832
1864000000 0.0017306 -0.0124408 0.9982694 0.0124408 0.9982694 0.0124408 0.0017306 -0.0124408
1885000000 0.0017328 -0.0120050 0.9982672 0.0120050 0.9982672 0.0120050 0.0017328 -0.0120050
1906000000 0.0017357 -0.0115757 0.9982643 0.0115757 0.9982643 0.0115757 0.0017357 -0.0115757
1927000000 0.0017393 -0.0111525 0.9982607 0.0111525 0.9982607 0.0111525 0.0017393 -0.0111525
1948000000 0.0017434 -0.0107354 0.9982566 0.0107354 0.9982566 0.0107354 0.0017434 -0.0107354
1969000000 0.0017482 -0.0103241 0.9982518 0.0103241 0.9982518 0.0103241 0.0017482 -0.0103241
1990000000 0.0017535 -0.0099184 0.9982465 0.0099184 0.9982465 0.0099184 0.0017535 -0.0099184
2011000000 0.0017594 -0.0095181 0.9982406 0.0095181 0.9982406 0.0095181 0.0017594 -0.0095181
2032000000 0.0017659 -0.0091232 0.9982341 0.0091232 0.9982341 0.0091232 0.0017659 -0.0091232
2053000000 0.0017729 -0.0087334 0.9982271 0.0087334 0.9982271 0.0087334 0.0017729 -0.0087334
2074000000 0.0017804 -0.0083486 0.9982196 0.0083486 0.9982196 0.0083486 0.0017804 -0.0083486
2095000000 0.0017883 -0.0079686 0.9982117 0.0079686 0.9982117 0.0079686 0.0017883 -0.0079686
2116000000 0.0017968 -0.0075933 0.9982032 0.0075933 0.9982032 0.0075933 0.0017968 -0.0075933
2137000000 0.0018058 -0.0072226 0.9981942 0.0072226 0.9981942 0.0072226 0.0018058 -0.0072226
2158000000 0.0018152 -0.0068563 0.9981848 0.0068563 0.9981848 0.0068563 0.0018152 -0.0068563
2179000000 0.0018250 -0.0064943 0.9981750 0.0064943 0.9981750 0.0064943 0.0018250 -0.0064943
2200000000 0.0018353 -0.0061365 0.9981647 0.0061365 0.9981647 0.0061365 0.0018353 -0.0061365
2221000000 0.0018460 -0.0057827 0.9981540 0.0057827 0.9981540 0.0057827 0.0018460 -0.0057827
2242000000 0.0018572 -0.0054330 0.9981428 0.0054330 0.9981428 0.0054330 0.0018572 -0.0054330
2263000000 0.0018687 -0.0050871 0.9981313 0.0050871 0.9981313 0.0050871 0.0018687 -0.0050871
2284000000 0.0018806 -0.0047449 0.9981194 0.0047449 0.9981194 0.0047449 0.0018806 -0.0047449
2305000000 0.0018930 -0.0044064 0.9981070 0.0044064 0.9981070 0.0044064 0.0018930 -0.0044064
2326000000 0.0019057 -0.0040715 0.9980943 0.0040715 0.9980943 0.0040715 0.0019057 -0.0040715
2347000000 0.0019187 -0.0037400 0.9980813 0.0037400 0.9980813 0.0037400 0.0019187 -0.0037400
2368000000 0.0019322 -0.0034119 0.9980678 0.0034119 0.9980678 0.0034119 0.0019322 -0.0034119
2389000000 0.0019460 -0.0030871 0.9980540 0.0030871 0.9980540 0.0030871 0.0019460 -0.0030871
2410000000 0.0019601 -0.0027655 0.9980399 0.0027655 0.9980399 0.0027655 0.0019601 -0.0027655
2431000000 0.0019746 -0.0024470 0.9980254 0.0024470 0.9980254 0.0024470 0.0019746 -0.0024470
2452000000 0.0019894 -0.0021316 0.9980106 0.0021316 0.9980106 0.0021316 0.0019894 -0.0021316
2473000000 0.0020045 -0.0018191 0.9979955 0.0018191 0.9979955 0.0018191 0.0020045 -0.0018191
2494000000 0.0020199 -0.0015096 0.9979801 0.0015096 0.9979801 0.0015096 0.0020199 -0.0015096
2515000000 0.0020357 -0.0012029 0.9979643 0.0012029 0.9979643 0.0012029 0.0020357 -0.0012029
2536000000 0.0020518 -0.0008990 0.9979482 0.0008990 0.9979482 0.0008990 0.0020518 -0.0008990
2557000000 0.0020681 -0.0005977 0.9979319 0.0005977 0.9979319 0.0005977 0.0020681 -0.0005977
2578000000 0.0020848 -0.0002991 0.9979152 0.0002991 0.9979152 0.0002991 0.0020848 -0.0002991
2599000000 0.0021018 -0.0000031 0.9978982 0.0000031 0.9978982 0.0000031 0.0021018 -0.0000031
2620000000 0.0021190 0.0002904 0.9978810 -0.0002904 0.9978810 -0.0002904 0.0021190 0.0002904
2641000000 0.0021365 0.0005814 0.9978635 -0.0005814 0.9978635 -0.0005814 0.0021365 0.0005814
2662000000 0.0021544 0.0008700 0.9978456 -0.0008700 0.9978456 -0.0008700 0.0021544 0.0008700
2683000000 0.0021724 0.0011563 0.9978276 -0.0011563 0.9978276 -0.0011563 0.0021724 0.0011563
2704000000 0.0021908 0.0014402 0.9978092 -0.0014402 0.9978092 -0.0014402 0.0021908 0.0014402
2725000000 0.0022094 0.0017219 0.9977906 -0.0017219 0.9977906 -0.0017219 0.0022094 0.0017219
2746000000 0.0022282 0.0020014 0.9977718 -0.0020014 0.9977718 -0.0020014 0.0022282 0.0020014
2767000000 0.0022473 0.0022788 0.9977527 -0.0022788 0.9977527 -0.0022788 0.0022473 0.0022788
2788000000 0.0022667 0.0025540 0.9977333 -0.0025540 0.9977333 -0.0025540 0.0022667 0.0025540
2809000000 0.0022863 0.0028272 0.9977137 -0.0028272 0.9977137 -0.0028272 0.0022863 0.0028272
2830000000 0.0023062 0.0030983 0.9976938 -0.0030983 0.9976938 -0.0030983 0.0023062 0.0030983
2851000000 0.0023263 0.0033674 0.9976737 -0.0033674 0.9976737 -0.0033674 0.0023263 0.0033674
2872000000 0.0023466 0.0036347 0.9976534 -0.0036347 0.9976534 -0.0036347 0.0023466 0.0036347
2893000000 0.0023672 0.0039000 0.9976328 -0.0039000 0.9976328 -0.0039000 0.0023672 0.0039000
2914000000 0.0023880 0.0041634 0.9976120 -0.0041634 0.9976120 -0.0041634 0.0023880 0.0041634
2935000000 0.0024090 0.0044250 0.9975910 -0.0044250 0.9975910 -0.0044250 0.0024090 0.0044250
2956000000 0.0024302 0.0046848 0.9975698 -0.0046848 0.9975698 -0.0046848 0.0024302 0.0046848
2977000000 0.0024517 0.0049429 0.9975483 -0.0049429 0.9975483 -0.0049429 0.0024517 0.0049429
2998000000 0.0024734 0.0051993 0.9975266 -0.0051993 0.9975266 -0.0051993 0.0024734 0.0051993
3019000000 0.0024953 0.0054539 0.9975047 -0.0054539 0.9975047 -0.0054539 0.0024953 0.0054539
3040000000 0.0025174 0.0057069 0.9974826 -0.0057069 0.9974826 -0.0057069 0.0025174 0.0057069
3061000000 0.0025397 0.0059583 0.9974603 -0.0059583 0.9974603 -0.0059583 0.0025397 0.0059583
3082000000 0.0025622 0.0062081 0.9974378 -0.0062081 0.9974378 -0.0062081 0.0025622 0.0062081
3103000000 0.0025849 0.0064563 0.9974151 -0.0064563 0.9974151 -0.0064563 0.0025849 0.0064563
3124000000 0.0026078 0.0067029 0.9973922 -0.0067029 0.9973922 -0.0067029 0.0026078 0.0067029
3145000000 0.0026309 0.0069481 0.9973691 -0.0069481 0.9973691 -0.0069481 0.0026309 0.0069481
3166000000 0.0026542 0.0071918 0.9973458 -0.0071918 0.9973458 -0.0071918 0.0026542 0.0071918
3187000000 0.0026777 0.0074340 0.9973223 -0.0074340 0.9973223 -0.0074340 0.0026777 0.0074340
3208000000 0.0027014 0.0076748 0.9972986 -0.0076748 0.9972986 -0.0076748 0.0027014 0.0076748
3229000000 0.0027253 0.0079142 0.9972747 -0.0079142 0.9972747 -0.0079142 0.0027253 0.0079142
3250000000 0.0027494 0.0081522 0.9972506 -0.0081522 0.9972506 -0.0081522 0.0027494 0.0081522
3271000000 0.0027736 0.0083888 0.9972264 -0.0083888 0.9972264 -0.0083888 0.0027736 0.0083888
3292000000 0.0027981 0.0086241 0.9972019 -0.0086241 0.9972019 -0.0086241 0.0027981 0.0086241
3313000000 0.0028227 0.0088581 0.9971773 -0.0088581 0.9971773 -0.0088581 0.0028227 0.0088581
3334000000 0.0028475 0.0090909 0.9971525 -0.0090909 0.9971525 -0.0090909 0.0028475 0.0090909
3355000000 0.0028724 0.0093223 0.9971276 -0.0093223 0.9971276 -0.0093223 0.0028724 0.0093223
3376000000 0.0028976 0.0095525 0.9971024 -0.0095525 0.9971024 -0.0095525 0.0028976 0.0095525
3397000000 0.0029229 0.0097815 0.9970771 -0.0097815 0.9970771 -0.0097815 0.0029229 0.0097815
3418000000 0.0029484 0.0100093 0.9970516 -0.0100093 0.9970516 -0.0100093 0.0029484 0.0100093
3439000000 0.0029740 0.0102359 0.9970260 -0.0102359 0.9970260 -0.0102359 0.0029740 0.0102359
3460000000 0.0029998 0.0104613 0.9970002 -0.0104613 0.9970002 -0.0104613 0.0029998 0.0104613
3481000000 0.0030258 0.0106855 0.9969742 -0.0106855 0.9969742 -0.0106855 0.0030258 0.0106855
3502000000 0.0030519 0.0109087 0.9969481 -0.0109087 0.9969481 -0.0109087 0.0030519 0.0109087
3523000000 0.0030782 0.0111307 0.9969218 -0.0111307 0.9969218 -0.0111307 0.0030782 0.0111307
3544000000 0.0031047 0.0113516 0.9968953 -0.0113516 0.9968953 -0.0113516 0.0031047 0.0113516
3565000000 0.0031313 0.0115715 0.9968687 -0.0115715 0.9968687 -0.0115715 0.0031313 0.0115715
3586000000 0.0031581 0.0117903 0.9968419 -0.0117903 0.9968419 -0.0117903 0.0031581 0.0117903
3607000000 0.0031850 0.0120080 0.9968150 -0.0120080 0.9968150 -0.0120080 0.0031850 0.0120080
3628000000 0.0032121 0.0122247 0.9967879 -0.0122247 0.9967879 -0.0122247 0.0032121 0.0122247
3649000000 0.0032393 0.0124404 0.9967607 -0.0124404 0.9967607 -0.0124404 0.0032393 0.0124404
3670000000 0.0032667 0.0126551 0.9967333 -0.0126551 0.9967333 -0.0126551 0.0032667 0.0126551
3691000000 0.0032942 0.0128688 0.9967058 -0.0128688 0.9967058 -0.0128688 0.0032942 0.0128688
3712000000 0.0033218 0.0130816 0.9966782 -0.0130816 0.9966782 -0.0130816 0.0033218 0.0130816
3733000000 0.0033496 0.0132933 0.9966504 -0.0132933 0.9966504 -0.0132933 0.0033496 0.0132933
3754000000 0.0033776 0.0135042 0.9966224 -0.0135042 0.9966224 -0.0135042 0.0033776 0.0135042
3775000000 0.0034057 0.0137141 0.9965943 -0.0137141 0.9965943 -0.0137141 0.0034057 0.0137141
3796000000 0.0034339 0.0139231 0.9965661 -0.0139231 0.9965661 -0.0139231 0.0034339 0.0139231
3817000000 0.0034623 0.0141311 0.9965377 -0.0141311 0.9965377 -0.0141311 0.0034623 0.0141311
3838000000 0.0034908 0.0143383 0.9965092 -0.0143383 0.9965092 -0.0143383 0.0034908 0.0143383
3859000000 0.0035194 0.0145446 0.9964806 -0.0145446 0.9964806 -0.0145446 0.0035194 0.0145446
3880000000 0.0035482 0.0147501 0.9964518 -0.0147501 0.9964518 -0.0147501 0.0035482 0.0147501
3901000000 0.0035771 0.0149547 0.9964229 -0.0149547 0.9964229 -0.0149547 0.0035771 0.0149547
3922000000 0.0036062 0.0151584 0.9963938 -0.0151584 0.9963938 -0.0151584 0.0036062 0.0151584
3943000000 0.0036353 0.0153613 0.9963647 -0.0153613 0.9963647 -0.0153613 0.0036353 0.0153613
3964000000 0.0036646 0.0155634 0.9963354 -0.0155634 0.9963354 -0.0155634 0.0036646 0.0155634
3985000000 0.0036940 0.0157647 0.9963060 -0.0157647 0.9963060 -0.0157647 0.0036940 0.0157647
4006000000 0.0037236 0.0159651 0.9962764 -0.0159651 0.9962764 -0.0159651 0.0037236 0.0159651
4027000000 0.0037533 0.0161648 0.9962467 -0.0161648 0.9962467 -0.0161648 0.0037533 0.0161648
4048000000 0.0037831 0.0163637 0.9962169 -0.0163637 0.9962169 -0.0163637 0.0037831 0.0163637
4069000000 0.0038130 0.0165618 0.9961870 -0.0165618 0.9961870 -0.0165618 0.0038130 0.0165618
4090000000 0.0038430 0.0167592 0.9961570 -0.0167592 0.9961570 -0.0167592 0.0038430 0.0167592
4111000000 0.0038732 0.0169558 0.9961268 -0.0169558 0.9961268 -0.0169558 0.0038732 0.0169558
4132000000 0.0039035 0.0171517 0.9960965 -0.0171517 0.9960965 -0.0171517 0.0039035 0.0171517
4153000000 0.0039339 0.0173468 0.9960661 -0.0173468 0.9960661 -0.0173468 0.0039339 0.0173468
4174000000 0.0039644 0.0175412 0.9960356 -0.0175412 0.9960356 -0.0175412 0.0039644 0.0175412
4195000000 0.0039950 0.0177349 0.9960050 -0.0177349 0.9960050 -0.0177349 0.0039950 0.0177349
4216000000 0.0040257 0.0179279 0.9959743 -0.0179279 0.9959743 -0.0179279 0.0040257 0.0179279
4237000000 0.0040566 0.0181201 0.9959434 -0.0181201 0.9959434 -0.0181201 0.0040566 0.0181201
4258000000 0.0040876 0.0183117 0.9959124 -0.0183117 0.9959124 -0.0183117 0.0040876 0.0183117
4279000000 0.0041186 0.0185026 0.9958814 -0.0185026 0.9958814 -0.0185026 0.0041186 0.0185026
4300000000 0.0041498 0.0186929 0.9958502 -0.0186929 0.9958502 -0.0186929 0.0041498 0.0186929
4321000000 0.0041811 0.0188824 0.9958189 -0.0188824 0.9958189 -0.0188824 0.0041811 0.0188824
4342000000 0.0042125 0.0190714 0.9957875 -0.0190714 0.9957875 -0.0190714 0.0042125 0.0190714
4363000000 0.0042440 0.0192596 0.9957560 -0.0192596 0.9957560 -0.0192596 0.0042440 0.0192596
4384000000 0.0042756 0.0194472 0.9957244 -0.0194472 0.9957244 -0.0194472 0.0042756 0.0194472
4405000000 0.0043073 0.0196342 0.9956927 -0.0196342 0.9956927 -0.0196342 0.0043073 0.0196342
4426000000 0.0043391 0.0198205 0.9956609 -0.0198205 0.9956609 -0.0198205 0.0043391 0.0198205
4447000000 0.0043711 0.0200063 0.9956289 -0.0200063 0.9956289 -0.0200063 0.0043711 0.0200063
4468000000 0.0044031 0.0201914 0.9955969 -0.0201914 0.9955969 -0.0201914 0.0044031 0.0201914
4489000000 0.0044352 0.0203758 0.9955648 -0.0203758 0.9955648 -0.0203758 0.0044352 0.0203758
4510000000 0.0044674 0.0205597 0.9955326 -0.0205597 0.9955326 -0.0205597 0.0044674 0.0205597
