!Murata Part Number: GRM0115C1E7R5BE01
!These Parameters are Measured in Series Mode Connection
!Data Generated on Mar 30, 2021
!       o--ll--o
!Port1            Port2
!       o------o
!Operation Temp=25[degC], DC Bias Voltage=0[V]
!Freq. Start=100[MHz] Stop=9[GHz] 401[Steps]
# Hz S RI R 50
!Freq.(Hz) S11(Real) S11(Imag) S21(Real) S21(Imag) S12(Real) S12(Imag) S22(Real) S22(Imag)
100000000 0.8180291 -0.3855203 0.1819709 0.3855203 0.1819709 0.3855203 0.8180291 -0.3855203
121000000 0.7542848 -0.4301463 0.2457152 0.4301463 0.2457152 0.4301463 0.7542848 -0.4301463
142000000 0.6902463 -0.4619635 0.3097537 0.4619635 0.3097537 0.4619635 0.6902463 -0.4619635
163000000 0.6283473 -0.4827530 0.3716527 0.4827530 0.3716527 0.4827530 0.6283473 -0.4827530
184000000 0.5701422 -0.4944969 0.4298578 0.4944969 0.4298578 0.4944969 0.5701422 -0.4944969
205000000 0.5164727 -0.4991037 0.4835273 0.4991037 0.4835273 0.4991037 0.5164727 -0.4991037
226000000 0.4676599 -0.4982613 0.5323401 0.4982613 0.5323401 0.4982613 0.4676599 -0.4982613
247000000 0.4236786 -0.4933813 0.5763214 0.4933813 0.5763214 0.4933813 0.4236786 -0.4933813
268000000 0.3842930 -0.4855997 0.6157070 0.4855997 0.6157070 0.4855997 0.3842930 -0.4855997
289000000 0.3491544 -0.4758054 0.6508456 0.4758054 0.6508456 0.4758054 0.3491544 -0.4758054
310000000 0.3178659 -0.4646790 0.6821341 0.4646790 0.6821341 0.4646790 0.3178659 -0.4646790
331000000 0.2900237 -0.4527334 0.7099763 0.4527334 0.7099763 0.4527334 0.2900237 -0.4527334
352000000 0.2652404 -0.4403488 0.7347596 0.4403488 0.7347596 0.4403488 0.2652404 -0.4403488
373000000 0.2431578 -0.4278034 0.7568422 0.4278034 0.7568422 0.4278034 0.2431578 -0.4278034
394000000 0.2234519 -0.4152974 0.7765481 0.4152974 0.7765481 0.4152974 0.2234519 -0.4152974
415000000 0.2058344 -0.4029724 0.7941656 0.4029724 0.7941656 0.4029724 0.2058344 -0.4029724
436000000 0.1900513 -0.3909261 0.8099487 0.3909261 0.8099487 0.3909261 0.1900513 -0.3909261
457000000 0.1758798 -0.3792235 0.8241202 0.3792235 0.8241202 0.3792235 0.1758798 -0.3792235
478000000 0.1631258 -0.3679056 0.8368742 0.3679056 0.8368742 0.3679056 0.1631258 -0.3679056
499000000 0.1516203 -0.3569958 0.8483797 0.3569958 0.8483797 0.3569958 0.1516203 -0.3569958
520000000 0.1412165 -0.3465048 0.8587835 0.3465048 0.8587835 0.3465048 0.1412165 -0.3465048
541000000 0.1317865 -0.3364338 0.8682135 0.3364338 0.8682135 0.3364338 0.1317865 -0.3364338
562000000 0.1232194 -0.3267778 0.8767806 0.3267778 0.8767806 0.3267778 0.1232194 -0.3267778
583000000 0.1154183 -0.3175272 0.8845817 0.3175272 0.8845817 0.3175272 0.1154183 -0.3175272
604000000 0.1082991 -0.3086695 0.8917009 0.3086695 0.8917009 0.3086695 0.1082991 -0.3086695
625000000 0.1017880 -0.3001901 0.8982120 0.3001901 0.8982120 0.3001901 0.1017880 -0.3001901
646000000 0.0958206 -0.2920732 0.9041794 0.2920732 0.9041794 0.2920732 0.0958206 -0.2920732
667000000 0.0903404 -0.2843028 0.9096596 0.2843028 0.9096596 0.2843028 0.0903404 -0.2843028
688000000 0.0852977 -0.2768624 0.9147023 0.2768624 0.9147023 0.2768624 0.0852977 -0.2768624
709000000 0.0806488 -0.2697358 0.9193512 0.2697358 0.9193512 0.2697358 0.0806488 -0.2697358
730000000 0.0763551 -0.2629072 0.9236449 0.2629072 0.9236449 0.2629072 0.0763551 -0.2629072
751000000 0.0723825 -0.2563614 0.9276175 0.2563614 0.9276175 0.2563614 0.0723825 -0.2563614
772000000 0.0687007 -0.2500834 0.9312993 0.2500834 0.9312993 0.2500834 0.0687007 -0.2500834
793000000 0.0652829 -0.2440594 0.9347171 0.2440594 0.9347171 0.2440594 0.0652829 -0.2440594
814000000 0.0621052 -0.2382759 0.9378948 0.2382759 0.9378948 0.2382759 0.0621052 -0.2382759
835000000 0.0591461 -0.2327202 0.9408539 0.2327202 0.9408539 0.2327202 0.0591461 -0.2327202
856000000 0.0563867 -0.2273803 0.9436133 0.2273803 0.9436133 0.2273803 0.0563867 -0.2273803
877000000 0.0538098 -0.2222449 0.9461902 0.2222449 0.9461902 0.2222449 0.0538098 -0.2222449
898000000 0.0514001 -0.2173032 0.9485999 0.2173032 0.9485999 0.2173032 0.0514001 -0.2173032
919000000 0.0491438 -0.2125452 0.9508562 0.2125452 0.9508562 0.2125452 0.0491438 -0.2125452
940000000 0.0470284 -0.2079614 0.9529716 0.2079614 0.9529716 0.2079614 0.0470284 -0.2079614
961000000 0.0450428 -0.2035429 0.9549572 0.2035429 0.9549572 0.2035429 0.0450428 -0.2035429
982000000 0.0431768 -0.1992812 0.9568232 0.1992812 0.9568232 0.1992812 0.0431768 -0.1992812
1003000000 0.0414212 -0.1951686 0.9585788 0.1951686 0.9585788 0.1951686 0.0414212 -0.1951686
1024000000 0.0397677 -0.1911975 0.9602323 0.1911975 0.9602323 0.1911975 0.0397677 -0.1911975
1045000000 0.0382087 -0.1873610 0.9617913 0.1873610 0.9617913 0.1873610 0.0382087 -0.1873610
1066000000 0.0367372 -0.1836525 0.9632628 0.1836525 0.9632628 0.1836525 0.0367372 -0.1836525
1087000000 0.0353471 -0.1800658 0.9646529 0.1800658 0.9646529 0.1800658 0.0353471 -0.1800658
1108000000 0.0340325 -0.1765951 0.9659675 0.1765951 0.9659675 0.1765951 0.0340325 -0.1765951
1129000000 0.0327883 -0.1732350 0.9672117 0.1732350 0.9672117 0.1732350 0.0327883 -0.1732350
1150000000 0.0316095 -0.1699802 0.9683905 0.1699802 0.9683905 0.1699802 0.0316095 -0.1699802
1171000000 0.0304918 -0.1668260 0.9695082 0.1668260 0.9695082 0.1668260 0.0304918 -0.1668260
1192000000 0.0294312 -0.1637676 0.9705688 0.1637676 0.9705688 0.1637676 0.0294312 -0.1637676
1213000000 0.0284238 -0.1608009 0.9715762 0.1608009 0.9715762 0.1608009 0.0284238 -0.1608009
1234000000 0.0274664 -0.1579217 0.9725336 0.1579217 0.9725336 0.1579217 0.0274664 -0.1579217
1255000000 0.0265556 -0.1551262 0.9734444 0.1551262 0.9734444 0.1551262 0.0265556 -0.1551262
1276000000 0.0256887 -0.1524107 0.9743113 0.1524107 0.9743113 0.1524107 0.0256887 -0.1524107
1297000000 0.0248629 -0.1497717 0.9751371 0.1497717 0.9751371 0.1497717 0.0248629 -0.1497717
1318000000 0.0240756 -0.1472062 0.9759244 0.1472062 0.9759244 0.1472062 0.0240756 -0.1472062
1339000000 0.0233247 -0.1447108 0.9766753 0.1447108 0.9766753 0.1447108 0.0233247 -0.1447108
1360000000 0.0226079 -0.1422828 0.9773921 0.1422828 0.9773921 0.1422828 0.0226079 -0.1422828
1381000000 0.0219233 -0.1399193 0.9780767 0.1399193 0.9780767 0.1399193 0.0219233 -0.1399193
1402000000 0.0212690 -0.1376178 0.9787310 0.1376178 0.9787310 0.1376178 0.0212690 -0.1376178
1423000000 0.0206434 -0.1353757 0.9793566 0.1353757 0.9793566 0.1353757 0.0206434 -0.1353757
1444000000 0.0200447 -0.1331908 0.9799553 0.1331908 0.9799553 0.1331908 0.0200447 -0.1331908
1465000000 0.0194716 -0.1310607 0.9805284 0.1310607 0.9805284 0.1310607 0.0194716 -0.1310607
1486000000 0.0189225 -0.1289833 0.9810775 0.1289833 0.9810775 0.1289833 0.0189225 -0.1289833
1507000000 0.0183964 -0.1269567 0.9816036 0.1269567 0.9816036 0.1269567 0.0183964 -0.1269567
1528000000 0.0178918 -0.1249789 0.9821082 0.1249789 0.9821082 0.1249789 0.0178918 -0.1249789
1549000000 0.0174077 -0.1230480 0.9825923 0.1230480 0.9825923 0.1230480 0.0174077 -0.1230480
1570000000 0.0169431 -0.1211623 0.9830569 0.1211623 0.9830569 0.1211623 0.0169431 -0.1211623
1591000000 0.0164969 -0.1193202 0.9835031 0.1193202 0.9835031 0.1193202 0.0164969 -0.1193202
1612000000 0.0160682 -0.1175201 0.9839318 0.1175201 0.9839318 0.1175201 0.0160682 -0.1175201
1633000000 0.0156561 -0.1157604 0.9843439 0.1157604 0.9843439 0.1157604 0.0156561 -0.1157604
1654000000 0.0152599 -0.1140398 0.9847401 0.1140398 0.9847401 0.1140398 0.0152599 -0.1140398
1675000000 0.0148787 -0.1123569 0.9851213 0.1123569 0.9851213 0.1123569 0.0148787 -0.1123569
1696000000 0.0145118 -0.1107103 0.9854882 0.1107103 0.9854882 0.1107103 0.0145118 -0.1107103
1717000000 0.0141585 -0.1090989 0.9858415 0.1090989 0.9858415 0.1090989 0.0141585 -0.1090989
1738000000 0.0138183 -0.1075213 0.9861817 0.1075213 0.9861817 0.1075213 0.0138183 -0.1075213
1759000000 0.0134904 -0.1059765 0.9865096 0.1059765 0.9865096 0.1059765 0.0134904 -0.1059765
1780000000 0.0131744 -0.1044634 0.9868256 0.1044634 0.9868256 0.1044634 0.0131744 -0.1044634
1801000000 0.0128696 -0.1029809 0.9871304 0.1029809 0.9871304 0.1029809 0.0128696 -0.1029809
1822000000 0.0125757 -0.1015281 0.9874243 0.1015281 0.9874243 0.1015281 0.0125757 -0.1015281
1843000000 0.0122920 -0.1001039 0.9877080 0.1001039 0.9877080 0.1001039 0.0122920 -0.1001039
1864000000 0.0120181 -0.0987074 0.9879819 0.0987074 0.9879819 0.0987074 0.0120181 -0.0987074
1885000000 0.0117537 -0.0973379 0.9882463 0.0973379 0.9882463 0.0973379 0.0117537 -0.0973379
1906000000 0.0114983 -0.0959944 0.9885017 0.0959944 0.9885017 0.0959944 0.0114983 -0.0959944
1927000000 0.0112515 -0.0946760 0.9887485 0.0946760 0.9887485 0.0946760 0.0112515 -0.0946760
1948000000 0.0110130 -0.0933822 0.9889870 0.0933822 0.9889870 0.0933822 0.0110130 -0.0933822
1969000000 0.0107824 -0.0921120 0.9892176 0.0921120 0.9892176 0.0921120 0.0107824 -0.0921120
1990000000 0.0105594 -0.0908648 0.9894406 0.0908648 0.9894406 0.0908648 0.0105594 -0.0908648
2011000000 0.0103437 -0.0896398 0.9896563 0.0896398 0.9896563 0.0896398 0.0103437 -0.0896398
2032000000 0.0101350 -0.0884366 0.9898650 0.0884366 0.9898650 0.0884366 0.0101350 -0.0884366
2053000000 0.0099329 -0.0872543 0.9900671 0.0872543 0.9900671 0.0872543 0.0099329 -0.0872543
2074000000 0.0097374 -0.0860923 0.9902626 0.0860923 0.9902626 0.0860923 0.0097374 -0.0860923
2095000000 0.0095480 -0.0849502 0.9904520 0.0849502 0.9904520 0.0849502 0.0095480 -0.0849502
2116000000 0.0093645 -0.0838273 0.9906355 0.0838273 0.9906355 0.0838273 0.0093645 -0.0838273
2137000000 0.0091868 -0.0827231 0.9908132 0.0827231 0.9908132 0.0827231 0.0091868 -0.0827231
2158000000 0.0090146 -0.0816370 0.9909854 0.0816370 0.9909854 0.0816370 0.0090146 -0.0816370
2179000000 0.0088477 -0.0805686 0.9911523 0.0805686 0.9911523 0.0805686 0.0088477 -0.0805686
2200000000 0.0086859 -0.0795173 0.9913141 0.0795173 0.9913141 0.0795173 0.0086859 -0.0795173
2221000000 0.0085289 -0.0784827 0.9914711 0.0784827 0.9914711 0.0784827 0.0085289 -0.0784827
2242000000 0.0083768 -0.0774644 0.9916232 0.0774644 0.9916232 0.0774644 0.0083768 -0.0774644
2263000000 0.0082291 -0.0764619 0.9917709 0.0764619 0.9917709 0.0764619 0.0082291 -0.0764619
2284000000 0.0080859 -0.0754747 0.9919141 0.0754747 0.9919141 0.0754747 0.0080859 -0.0754747
2305000000 0.0079469 -0.0745025 0.9920531 0.0745025 0.9920531 0.0745025 0.0079469 -0.0745025
2326000000 0.0078120 -0.0735449 0.9921880 0.0735449 0.9921880 0.0735449 0.0078120 -0.0735449
2347000000 0.0076811 -0.0726015 0.9923189 0.0726015 0.9923189 0.0726015 0.0076811 -0.0726015
2368000000 0.0075539 -0.0716719 0.9924461 0.0716719 0.9924461 0.0716719 0.0075539 -0.0716719
2389000000 0.0074305 -0.0707558 0.9925695 0.0707558 0.9925695 0.0707558 0.0074305 -0.0707558
2410000000 0.0073106 -0.0698528 0.9926894 0.0698528 0.9926894 0.0698528 0.0073106 -0.0698528
2431000000 0.0071941 -0.0689627 0.9928059 0.0689627 0.9928059 0.0689627 0.0071941 -0.0689627
2452000000 0.0070809 -0.0680850 0.9929191 0.0680850 0.9929191 0.0680850 0.0070809 -0.0680850
2473000000 0.0069710 -0.0672195 0.9930290 0.0672195 0.9930290 0.0672195 0.0069710 -0.0672195
2494000000 0.0068641 -0.0663659 0.9931359 0.0663659 0.9931359 0.0663659 0.0068641 -0.0663659
2515000000 0.0067603 -0.0655238 0.9932397 0.0655238 0.9932397 0.0655238 0.0067603 -0.0655238
2536000000 0.0066594 -0.0646931 0.9933406 0.0646931 0.9933406 0.0646931 0.0066594 -0.0646931
2557000000 0.0065613 -0.0638734 0.9934387 0.0638734 0.9934387 0.0638734 0.0065613 -0.0638734
2578000000 0.0064659 -0.0630644 0.9935341 0.0630644 0.9935341 0.0630644 0.0064659 -0.0630644
2599000000 0.0063732 -0.0622660 0.9936268 0.0622660 0.9936268 0.0622660 0.0063732 -0.0622660
2620000000 0.0062830 -0.0614779 0.9937170 0.0614779 0.9937170 0.0614779 0.0062830 -0.0614779
2641000000 0.0061953 -0.0606997 0.9938047 0.0606997 0.9938047 0.0606997 0.0061953 -0.0606997
2662000000 0.0061100 -0.0599314 0.9938900 0.0599314 0.9938900 0.0599314 0.0061100 -0.0599314
2683000000 0.0060270 -0.0591726 0.9939730 0.0591726 0.9939730 0.0591726 0.0060270 -0.0591726
2704000000 0.0059464 -0.0584232 0.9940536 0.0584232 0.9940536 0.0584232 0.0059464 -0.0584232
2725000000 0.0058679 -0.0576830 0.9941321 0.0576830 0.9941321 0.0576830 0.0058679 -0.0576830
2746000000 0.0057915 -0.0569516 0.9942085 0.0569516 0.9942085 0.0569516 0.0057915 -0.0569516
2767000000 0.0057172 -0.0562290 0.9942828 0.0562290 0.9942828 0.0562290 0.0057172 -0.0562290
2788000000 0.0056449 -0.0555150 0.9943551 0.0555150 0.9943551 0.0555150 0.0056449 -0.0555150
2809000000 0.0055746 -0.0548093 0.9944254 0.0548093 0.9944254 0.0548093 0.0055746 -0.0548093
2830000000 0.0055061 -0.0541117 0.9944939 0.0541117 0.9944939 0.0541117 0.0055061 -0.0541117
2851000000 0.0054396 -0.0534222 0.9945604 0.0534222 0.9945604 0.0534222 0.0054396 -0.0534222
2872000000 0.0053748 -0.0527405 0.9946252 0.0527405 0.9946252 0.0527405 0.0053748 -0.0527405
2893000000 0.0053117 -0.0520664 0.9946883 0.0520664 0.9946883 0.0520664 0.0053117 -0.0520664
2914000000 0.0052503 -0.0513999 0.9947497 0.0513999 0.9947497 0.0513999 0.0052503 -0.0513999
2935000000 0.0051906 -0.0507406 0.9948094 0.0507406 0.9948094 0.0507406 0.0051906 -0.0507406
2956000000 0.0051325 -0.0500886 0.9948675 0.0500886 0.9948675 0.0500886 0.0051325 -0.0500886
2977000000 0.0050760 -0.0494436 0.9949240 0.0494436 0.9949240 0.0494436 0.0050760 -0.0494436
2998000000 0.0050210 -0.0488054 0.9949790 0.0488054 0.9949790 0.0488054 0.0050210 -0.0488054
3019000000 0.0049674 -0.0481740 0.9950326 0.0481740 0.9950326 0.0481740 0.0049674 -0.0481740
3040000000 0.0049153 -0.0475492 0.9950847 0.0475492 0.9950847 0.0475492 0.0049153 -0.0475492
3061000000 0.0048646 -0.0469309 0.9951354 0.0469309 0.9951354 0.0469309 0.0048646 -0.0469309
3082000000 0.0048153 -0.0463190 0.9951847 0.0463190 0.9951847 0.0463190 0.0048153 -0.0463190
3103000000 0.0047673 -0.0457132 0.9952327 0.0457132 0.9952327 0.0457132 0.0047673 -0.0457132
3124000000 0.0047206 -0.0451135 0.9952794 0.0451135 0.9952794 0.0451135 0.0047206 -0.0451135
3145000000 0.0046752 -0.0445198 0.9953248 0.0445198 0.9953248 0.0445198 0.0046752 -0.0445198
3166000000 0.0046310 -0.0439320 0.9953690 0.0439320 0.9953690 0.0439320 0.0046310 -0.0439320
3187000000 0.0045881 -0.0433499 0.9954119 0.0433499 0.9954119 0.0433499 0.0045881 -0.0433499
3208000000 0.0045463 -0.0427734 0.9954537 0.0427734 0.9954537 0.0427734 0.0045463 -0.0427734
3229000000 0.0045056 -0.0422025 0.9954944 0.0422025 0.9954944 0.0422025 0.0045056 -0.0422025
3250000000 0.0044661 -0.0416369 0.9955339 0.0416369 0.9955339 0.0416369 0.0044661 -0.0416369
3271000000 0.0044277 -0.0410767 0.9955723 0.0410767 0.9955723 0.0410767 0.0044277 -0.0410767
3292000000 0.0043903 -0.0405217 0.9956097 0.0405217 0.9956097 0.0405217 0.0043903 -0.0405217
3313000000 0.0043540 -0.0399718 0.9956460 0.0399718 0.9956460 0.0399718 0.0043540 -0.0399718
3334000000 0.0043187 -0.0394269 0.9956813 0.0394269 0.9956813 0.0394269 0.0043187 -0.0394269
3355000000 0.0042844 -0.0388869 0.9957156 0.0388869 0.9957156 0.0388869 0.0042844 -0.0388869
3376000000 0.0042511 -0.0383518 0.9957489 0.0383518 0.9957489 0.0383518 0.0042511 -0.0383518
3397000000 0.0042188 -0.0378214 0.9957812 0.0378214 0.9957812 0.0378214 0.0042188 -0.0378214
3418000000 0.0041874 -0.0372957 0.9958126 0.0372957 0.9958126 0.0372957 0.0041874 -0.0372957
3439000000 0.0041568 -0.0367746 0.9958432 0.0367746 0.9958432 0.0367746 0.0041568 -0.0367746
3460000000 0.0041272 -0.0362579 0.9958728 0.0362579 0.9958728 0.0362579 0.0041272 -0.0362579
3481000000 0.0040985 -0.0357457 0.9959015 0.0357457 0.9959015 0.0357457 0.0040985 -0.0357457
3502000000 0.0040706 -0.0352377 0.9959294 0.0352377 0.9959294 0.0352377 0.0040706 -0.0352377
3523000000 0.0040435 -0.0347341 0.9959565 0.0347341 0.9959565 0.0347341 0.0040435 -0.0347341
3544000000 0.0040173 -0.0342346 0.9959827 0.0342346 0.9959827 0.0342346 0.0040173 -0.0342346
3565000000 0.0039919 -0.0337393 0.9960081 0.0337393 0.9960081 0.0337393 0.0039919 -0.0337393
3586000000 0.0039672 -0.0332479 0.9960328 0.0332479 0.9960328 0.0332479 0.0039672 -0.0332479
3607000000 0.0039434 -0.0327606 0.9960566 0.0327606 0.9960566 0.0327606 0.0039434 -0.0327606
3628000000 0.0039202 -0.0322771 0.9960798 0.0322771 0.9960798 0.0322771 0.0039202 -0.0322771
3649000000 0.0038979 -0.0317975 0.9961021 0.0317975 0.9961021 0.0317975 0.0038979 -0.0317975
3670000000 0.0038762 -0.0313216 0.9961238 0.0313216 0.9961238 0.0313216 0.0038762 -0.0313216
3691000000 0.0038553 -0.0308494 0.9961447 0.0308494 0.9961447 0.0308494 0.0038553 -0.0308494
3712000000 0.0038350 -0.0303809 0.9961650 0.0303809 0.9961650 0.0303809 0.0038350 -0.0303809
3733000000 0.0038155 -0.0299160 0.9961845 0.0299160 0.9961845 0.0299160 0.0038155 -0.0299160
3754000000 0.0037966 -0.0294545 0.9962034 0.0294545 0.9962034 0.0294545 0.0037966 -0.0294545
3775000000 0.0037783 -0.0289966 0.9962217 0.0289966 0.9962217 0.0289966 0.0037783 -0.0289966
3796000000 0.0037607 -0.0285420 0.9962393 0.0285420 0.9962393 0.0285420 0.0037607 -0.0285420
3817000000 0.0037438 -0.0280908 0.9962562 0.0280908 0.9962562 0.0280908 0.0037438 -0.0280908
3838000000 0.0037275 -0.0276429 0.9962725 0.0276429 0.9962725 0.0276429 0.0037275 -0.0276429
3859000000 0.0037117 -0.0271982 0.9962883 0.0271982 0.9962883 0.0271982 0.0037117 -0.0271982
3880000000 0.0036966 -0.0267568 0.9963034 0.0267568 0.9963034 0.0267568 0.0036966 -0.0267568
3901000000 0.0036821 -0.0263184 0.9963179 0.0263184 0.9963179 0.0263184 0.0036821 -0.0263184
3922000000 0.0036681 -0.0258832 0.9963319 0.0258832 0.9963319 0.0258832 0.0036681 -0.0258832
3943000000 0.0036547 -0.0254510 0.9963453 0.0254510 0.9963453 0.0254510 0.0036547 -0.0254510
3964000000 0.0036419 -0.0250217 0.9963581 0.0250217 0.9963581 0.0250217 0.0036419 -0.0250217
3985000000 0.0036296 -0.0245954 0.9963704 0.0245954 0.9963704 0.0245954 0.0036296 -0.0245954
4006000000 0.0036179 -0.0241721 0.9963821 0.0241721 0.9963821 0.0241721 0.0036179 -0.0241721
4027000000 0.0036067 -0.0237515 0.9963933 0.0237515 0.9963933 0.0237515 0.0036067 -0.0237515
4048000000 0.0035960 -0.0233338 0.9964040 0.0233338 0.9964040 0.0233338 0.0035960 -0.0233338
4069000000 0.0035858 -0.0229189 0.9964142 0.0229189 0.9964142 0.0229189 0.0035858 -0.0229189
4090000000 0.0035761 -0.0225066 0.9964239 0.0225066 0.9964239 0.0225066 0.0035761 -0.0225066
4111000000 0.0035670 -0.0220971 0.9964330 0.0220971 0.9964330 0.0220971 0.0035670 -0.0220971
4132000000 0.0035583 -0.0216902 0.9964417 0.0216902 0.9964417 0.0216902 0.0035583 -0.0216902
4153000000 0.0035501 -0.0212859 0.9964499 0.0212859 0.9964499 0.0212859 0.0035501 -0.0212859
4174000000 0.0035424 -0.0208842 0.9964576 0.0208842 0.9964576 0.0208842 0.0035424 -0.0208842
4195000000 0.0035351 -0.0204849 0.9964649 0.0204849 0.9964649 0.0204849 0.0035351 -0.0204849
4216000000 0.0035283 -0.0200882 0.9964717 0.0200882 0.9964717 0.0200882 0.0035283 -0.0200882
4237000000 0.0035220 -0.0196939 0.9964780 0.0196939 0.9964780 0.0196939 0.0035220 -0.0196939
4258000000 0.0035161 -0.0193021 0.9964839 0.0193021 0.9964839 0.0193021 0.0035161 -0.0193021
4279000000 0.0035106 -0.0189126 0.9964894 0.0189126 0.9964894 0.0189126 0.0035106 -0.0189126
4300000000 0.0035056 -0.0185255 0.9964944 0.0185255 0.9964944 0.0185255 0.0035056 -0.0185255
4321000000 0.0035010 -0.0181406 0.9964990 0.0181406 0.9964990 0.0181406 0.0035010 -0.0181406
4342000000 0.0034968 -0.0177581 0.9965032 0.0177581 0.9965032 0.0177581 0.0034968 -0.0177581
4363000000 0.0034931 -0.0173778 0.9965069 0.0173778 0.9965069 0.0173778 0.0034931 -0.0173778
4384000000 0.0034897 -0.0169997 0.9965103 0.0169997 0.9965103 0.0169997 0.0034897 -0.0169997
4405000000 0.0034868 -0.0166238 0.9965132 0.0166238 0.9965132 0.0166238 0.0034868 -0.0166238
4426000000 0.0034842 -0.0162500 0.9965158 0.0162500 0.9965158 0.0162500 0.0034842 -0.0162500
4447000000 0.0034821 -0.0158784 0.9965179 0.0158784 0.9965179 0.0158784 0.0034821 -0.0158784
4468000000 0.0034803 -0.0155089 0.9965197 0.0155089 0.9965197 0.0155089 0.0034803 -0.0155089
4489000000 0.0034789 -0.0151414 0.9965211 0.0151414 0.9965211 0.0151414 0.0034789 -0.0151414
4510000000 0.0034779 -0.0147759 0.9965221 0.0147759 0.9965221 0.0147759 0.0034779 -0.0147759
