!Murata Part Number: GRM0115C1E2R0CE01
!These Parameters are Measured in Series Mode Connection
!Data Generated on Mar 30, 2021
!       o--ll--o
!Port1            Port2
!       o------o
!Operation Temp=25[degC], DC Bias Voltage=0[V]
!Freq. Start=100[MHz] Stop=20[GHz] 401[Steps]
# Hz S RI R 50
!Freq.(Hz) S11(Real) S11(Imag) S21(Real) S21(Imag) S12(Real) S12(Imag) S22(Real) S22(Imag)
100000000 0.9844084 -0.1237175 0.0155916 0.1237175 0.0155916 0.1237175 0.9844084 -0.1237175
149750000 0.9656896 -0.1817680 0.0343104 0.1817680 0.0343104 0.1817680 0.9656896 -0.1817680
199500000 0.9406575 -0.2359213 0.0593425 0.2359213 0.0593425 0.2359213 0.9406575 -0.2359213
249250000 0.9103075 -0.2853109 0.0896925 0.2853109 0.0896925 0.2853109 0.9103075 -0.2853109
299000000 0.8757430 -0.3293576 0.1242570 0.3293576 0.1242570 0.3293576 0.8757430 -0.3293576
348750000 0.8380880 -0.3677652 0.1619120 0.3677652 0.1619120 0.3677652 0.8380880 -0.3677652
398500000 0.7984142 -0.4004907 0.2015858 0.4004907 0.2015858 0.4004907 0.7984142 -0.4004907
448250000 0.7576881 -0.4276984 0.2423119 0.4276984 0.2423119 0.4276984 0.7576881 -0.4276984
498000000 0.7167393 -0.4497074 0.2832607 0.4497074 0.2832607 0.4497074 0.7167393 -0.4497074
547750000 0.6762473 -0.4669402 0.3237527 0.4669402 0.3237527 0.4669402 0.6762473 -0.4669402
597500000 0.6367432 -0.4798777 0.3632568 0.4798777 0.3632568 0.4798777 0.6367432 -0.4798777
647250000 0.5986215 -0.4890221 0.4013785 0.4890221 0.4013785 0.4890221 0.5986215 -0.4890221
697000000 0.5621572 -0.4948696 0.4378428 0.4948696 0.4378428 0.4948696 0.5621572 -0.4948696
746750000 0.5275252 -0.4978917 0.4724748 0.4978917 0.4724748 0.4978917 0.5275252 -0.4978917
796500000 0.4948199 -0.4985230 0.5051801 0.4985230 0.5051801 0.4985230 0.4948199 -0.4985230
846250000 0.4640729 -0.4971554 0.5359271 0.4971554 0.5359271 0.4971554 0.4640729 -0.4971554
896000000 0.4352687 -0.4941360 0.5647313 0.4941360 0.5647313 0.4941360 0.4352687 -0.4941360
945750000 0.4083576 -0.4897678 0.5916424 0.4897678 0.5916424 0.4897678 0.4083576 -0.4897678
995500000 0.3832664 -0.4843119 0.6167336 0.4843119 0.6167336 0.4843119 0.3832664 -0.4843119
1045250000 0.3599066 -0.4779918 0.6400934 0.4779918 0.6400934 0.4779918 0.3599066 -0.4779918
1095000000 0.3381808 -0.4709967 0.6618192 0.4709967 0.6618192 0.4709967 0.3381808 -0.4709967
1144750000 0.3179878 -0.4634856 0.6820122 0.4634856 0.6820122 0.4634856 0.3179878 -0.4634856
1194500000 0.2992253 -0.4555917 0.7007747 0.4555917 0.7007747 0.4555917 0.2992253 -0.4555917
1244250000 0.2817932 -0.4474256 0.7182068 0.4474256 0.7182068 0.4474256 0.2817932 -0.4474256
1294000000 0.2655948 -0.4390788 0.7344052 0.4390788 0.7344052 0.4390788 0.2655948 -0.4390788
1343750000 0.2505380 -0.4306263 0.7494620 0.4306263 0.7494620 0.4306263 0.2505380 -0.4306263
1393500000 0.2365359 -0.4221297 0.7634641 0.4221297 0.7634641 0.4221297 0.2365359 -0.4221297
1443250000 0.2235073 -0.4136386 0.7764927 0.4136386 0.7764927 0.4136386 0.2235073 -0.4136386
1493000000 0.2113765 -0.4051933 0.7886235 0.4051933 0.7886235 0.4051933 0.2113765 -0.4051933
1542750000 0.2000734 -0.3968259 0.7999266 0.3968259 0.7999266 0.3968259 0.2000734 -0.3968259
1592500000 0.1895332 -0.3885618 0.8104668 0.3885618 0.8104668 0.3885618 0.1895332 -0.3885618
1642250000 0.1796965 -0.3804208 0.8203035 0.3804208 0.8203035 0.3804208 0.1796965 -0.3804208
1692000000 0.1705083 -0.3724181 0.8294917 0.3724181 0.8294917 0.3724181 0.1705083 -0.3724181
1741750000 0.1619184 -0.3645651 0.8380816 0.3645651 0.8380816 0.3645651 0.1619184 -0.3645651
1791500000 0.1538808 -0.3568700 0.8461192 0.3568700 0.8461192 0.3568700 0.1538808 -0.3568700
1841250000 0.1463531 -0.3493386 0.8536469 0.3493386 0.8536469 0.3493386 0.1463531 -0.3493386
1891000000 0.1392967 -0.3419743 0.8607033 0.3419743 0.8607033 0.3419743 0.1392967 -0.3419743
1940750000 0.1326762 -0.3347792 0.8673238 0.3347792 0.8673238 0.3347792 0.1326762 -0.3347792
1990500000 0.1264590 -0.3277535 0.8735410 0.3277535 0.8735410 0.3277535 0.1264590 -0.3277535
2040250000 0.1206155 -0.3208968 0.8793845 0.3208968 0.8793845 0.3208968 0.1206155 -0.3208968
2090000000 0.1151183 -0.3142075 0.8848817 0.3142075 0.8848817 0.3142075 0.1151183 -0.3142075
2139750000 0.1099426 -0.3076832 0.8900574 0.3076832 0.8900574 0.3076832 0.1099426 -0.3076832
2189500000 0.1050654 -0.3013213 0.8949346 0.3013213 0.8949346 0.3013213 0.1050654 -0.3013213
2239250000 0.1004657 -0.2951185 0.8995343 0.2951185 0.8995343 0.2951185 0.1004657 -0.2951185
2289000000 0.0961241 -0.2890712 0.9038759 0.2890712 0.9038759 0.2890712 0.0961241 -0.2890712
2338750000 0.0920229 -0.2831757 0.9079771 0.2831757 0.9079771 0.2831757 0.0920229 -0.2831757
2388500000 0.0881457 -0.2774280 0.9118543 0.2774280 0.9118543 0.2774280 0.0881457 -0.2774280
2438250000 0.0844776 -0.2718241 0.9155224 0.2718241 0.9155224 0.2718241 0.0844776 -0.2718241
2488000000 0.0810047 -0.2663599 0.9189953 0.2663599 0.9189953 0.2663599 0.0810047 -0.2663599
2537750000 0.0777141 -0.2610312 0.9222859 0.2610312 0.9222859 0.2610312 0.0777141 -0.2610312
2587500000 0.0745942 -0.2558339 0.9254058 0.2558339 0.9254058 0.2558339 0.0745942 -0.2558339
2637250000 0.0716339 -0.2507639 0.9283661 0.2507639 0.9283661 0.2507639 0.0716339 -0.2507639
2687000000 0.0688233 -0.2458173 0.9311767 0.2458173 0.9311767 0.2458173 0.0688233 -0.2458173
2736750000 0.0661531 -0.2409899 0.9338469 0.2409899 0.9338469 0.2409899 0.0661531 -0.2409899
2786500000 0.0636145 -0.2362781 0.9363855 0.2362781 0.9363855 0.2362781 0.0636145 -0.2362781
2836250000 0.0611996 -0.2316779 0.9388004 0.2316779 0.9388004 0.2316779 0.0611996 -0.2316779
2886000000 0.0589010 -0.2271857 0.9410990 0.2271857 0.9410990 0.2271857 0.0589010 -0.2271857
2935750000 0.0567118 -0.2227979 0.9432882 0.2227979 0.9432882 0.2227979 0.0567118 -0.2227979
2985500000 0.0546256 -0.2185111 0.9453744 0.2185111 0.9453744 0.2185111 0.0546256 -0.2185111
3035250000 0.0526364 -0.2143219 0.9473636 0.2143219 0.9473636 0.2143219 0.0526364 -0.2143219
3085000000 0.0507387 -0.2102269 0.9492613 0.2102269 0.9492613 0.2102269 0.0507387 -0.2102269
3134750000 0.0489274 -0.2062232 0.9510726 0.2062232 0.9510726 0.2062232 0.0489274 -0.2062232
3184500000 0.0471976 -0.2023075 0.9528024 0.2023075 0.9528024 0.2023075 0.0471976 -0.2023075
3234250000 0.0455448 -0.1984771 0.9544552 0.1984771 0.9544552 0.1984771 0.0455448 -0.1984771
3284000000 0.0439649 -0.1947290 0.9560351 0.1947290 0.9560351 0.1947290 0.0439649 -0.1947290
3333750000 0.0424539 -0.1910606 0.9575461 0.1910606 0.9575461 0.1910606 0.0424539 -0.1910606
3383500000 0.0410082 -0.1874692 0.9589918 0.1874692 0.9589918 0.1874692 0.0410082 -0.1874692
3433250000 0.0396243 -0.1839522 0.9603757 0.1839522 0.9603757 0.1839522 0.0396243 -0.1839522
3483000000 0.0382991 -0.1805073 0.9617009 0.1805073 0.9617009 0.1805073 0.0382991 -0.1805073
3532750000 0.0370294 -0.1771321 0.9629706 0.1771321 0.9629706 0.1771321 0.0370294 -0.1771321
3582500000 0.0358126 -0.1738243 0.9641874 0.1738243 0.9641874 0.1738243 0.0358126 -0.1738243
3632250000 0.0346460 -0.1705817 0.9653540 0.1705817 0.9653540 0.1705817 0.0346460 -0.1705817
3682000000 0.0335270 -0.1674023 0.9664730 0.1674023 0.9664730 0.1674023 0.0335270 -0.1674023
3731750000 0.0324534 -0.1642840 0.9675466 0.1642840 0.9675466 0.1642840 0.0324534 -0.1642840
3781500000 0.0314229 -0.1612250 0.9685771 0.1612250 0.9685771 0.1612250 0.0314229 -0.1612250
3831250000 0.0304334 -0.1582232 0.9695666 0.1582232 0.9695666 0.1582232 0.0304334 -0.1582232
3881000000 0.0294831 -0.1552771 0.9705169 0.1552771 0.9705169 0.1552771 0.0294831 -0.1552771
3930750000 0.0285701 -0.1523847 0.9714299 0.1523847 0.9714299 0.1523847 0.0285701 -0.1523847
3980500000 0.0276927 -0.1495445 0.9723073 0.1495445 0.9723073 0.1495445 0.0276927 -0.1495445
4030250000 0.0268492 -0.1467548 0.9731508 0.1467548 0.9731508 0.1467548 0.0268492 -0.1467548
4080000000 0.0260380 -0.1440141 0.9739620 0.1440141 0.9739620 0.1440141 0.0260380 -0.1440141
4129750000 0.0252579 -0.1413209 0.9747421 0.1413209 0.9747421 0.1413209 0.0252579 -0.1413209
4179500000 0.0245072 -0.1386739 0.9754928 0.1386739 0.9754928 0.1386739 0.0245072 -0.1386739
4229250000 0.0237849 -0.1360715 0.9762151 0.1360715 0.9762151 0.1360715 0.0237849 -0.1360715
4279000000 0.0230896 -0.1335126 0.9769104 0.1335126 0.9769104 0.1335126 0.0230896 -0.1335126
4328750000 0.0224201 -0.1309957 0.9775799 0.1309957 0.9775799 0.1309957 0.0224201 -0.1309957
4378500000 0.0217755 -0.1285198 0.9782245 0.1285198 0.9782245 0.1285198 0.0217755 -0.1285198
4428250000 0.0211546 -0.1260835 0.9788454 0.1260835 0.9788454 0.1260835 0.0211546 -0.1260835
4478000000 0.0205564 -0.1236858 0.9794436 0.1236858 0.9794436 0.1236858 0.0205564 -0.1236858
4527750000 0.0199800 -0.1213255 0.9800200 0.1213255 0.9800200 0.1213255 0.0199800 -0.1213255
4577500000 0.0194245 -0.1190016 0.9805755 0.1190016 0.9805755 0.1190016 0.0194245 -0.1190016
4627250000 0.0188891 -0.1167131 0.9811109 0.1167131 0.9811109 0.1167131 0.0188891 -0.1167131
4677000000 0.0183730 -0.1144589 0.9816270 0.1144589 0.9816270 0.1144589 0.0183730 -0.1144589
4726750000 0.0178754 -0.1122382 0.9821246 0.1122382 0.9821246 0.1122382 0.0178754 -0.1122382
4776500000 0.0173956 -0.1100499 0.9826044 0.1100499 0.9826044 0.1100499 0.0173956 -0.1100499
4826250000 0.0169329 -0.1078933 0.9830671 0.1078933 0.9830671 0.1078933 0.0169329 -0.1078933
4876000000 0.0164866 -0.1057674 0.9835134 0.1057674 0.9835134 0.1057674 0.0164866 -0.1057674
4925750000 0.0160561 -0.1036714 0.9839439 0.1036714 0.9839439 0.1036714 0.0160561 -0.1036714
4975500000 0.0156408 -0.1016046 0.9843592 0.1016046 0.9843592 0.1016046 0.0156408 -0.1016046
5025250000 0.0152402 -0.0995660 0.9847598 0.0995660 0.9847598 0.0995660 0.0152402 -0.0995660
5075000000 0.0148538 -0.0975551 0.9851462 0.0975551 0.9851462 0.0975551 0.0148538 -0.0975551
5124750000 0.0144809 -0.0955711 0.9855191 0.0955711 0.9855191 0.0955711 0.0144809 -0.0955711
5174500000 0.0141211 -0.0936132 0.9858789 0.0936132 0.9858789 0.0936132 0.0141211 -0.0936132
5224250000 0.0137739 -0.0916808 0.9862261 0.0916808 0.9862261 0.0916808 0.0137739 -0.0916808
5274000000 0.0134390 -0.0897733 0.9865610 0.0897733 0.9865610 0.0897733 0.0134390 -0.0897733
5323750000 0.0131158 -0.0878900 0.9868842 0.0878900 0.9868842 0.0878900 0.0131158 -0.0878900
5373500000 0.0128040 -0.0860303 0.9871960 0.0860303 0.9871960 0.0860303 0.0128040 -0.0860303
5423250000 0.0125031 -0.0841936 0.9874969 0.0841936 0.9874969 0.0841936 0.0125031 -0.0841936
5473000000 0.0122128 -0.0823794 0.9877872 0.0823794 0.9877872 0.0823794 0.0122128 -0.0823794
5522750000 0.0119328 -0.0805870 0.9880672 0.0805870 0.9880672 0.0805870 0.0119328 -0.0805870
5572500000 0.0116627 -0.0788160 0.9883373 0.0788160 0.9883373 0.0788160 0.0116627 -0.0788160
5622250000 0.0114021 -0.0770659 0.9885979 0.0770659 0.9885979 0.0770659 0.0114021 -0.0770659
5672000000 0.0111508 -0.0753360 0.9888492 0.0753360 0.9888492 0.0753360 0.0111508 -0.0753360
5721750000 0.0109085 -0.0736260 0.9890915 0.0736260 0.9890915 0.0736260 0.0109085 -0.0736260
5771500000 0.0106748 -0.0719354 0.9893252 0.0719354 0.9893252 0.0719354 0.0106748 -0.0719354
5821250000 0.0104495 -0.0702636 0.9895505 0.0702636 0.9895505 0.0702636 0.0104495 -0.0702636
5871000000 0.0102324 -0.0686104 0.9897676 0.0686104 0.9897676 0.0686104 0.0102324 -0.0686104
5920750000 0.0100231 -0.0669752 0.9899769 0.0669752 0.9899769 0.0669752 0.0100231 -0.0669752
5970500000 0.0098215 -0.0653576 0.9901785 0.0653576 0.9901785 0.0653576 0.0098215 -0.0653576
6020250000 0.0096272 -0.0637572 0.9903728 0.0637572 0.9903728 0.0637572 0.0096272 -0.0637572
6070000000 0.0094402 -0.0621736 0.9905598 0.0621736 0.9905598 0.0621736 0.0094402 -0.0621736
6119750000 0.0092601 -0.0606065 0.9907399 0.0606065 0.9907399 0.0606065 0.0092601 -0.0606065
6169500000 0.0090868 -0.0590554 0.9909132 0.0590554 0.9909132 0.0590554 0.0090868 -0.0590554
6219250000 0.0089200 -0.0575200 0.9910800 0.0575200 0.9910800 0.0575200 0.0089200 -0.0575200
6269000000 0.0087597 -0.0560000 0.9912403 0.0560000 0.9912403 0.0560000 0.0087597 -0.0560000
6318750000 0.0086055 -0.0544951 0.9913945 0.0544951 0.9913945 0.0544951 0.0086055 -0.0544951
6368500000 0.0084573 -0.0530048 0.9915427 0.0530048 0.9915427 0.0530048 0.0084573 -0.0530048
6418250000 0.0083150 -0.0515289 0.9916850 0.0515289 0.9916850 0.0515289 0.0083150 -0.0515289
6468000000 0.0081783 -0.0500671 0.9918217 0.0500671 0.9918217 0.0500671 0.0081783 -0.0500671
6517750000 0.0080472 -0.0486190 0.9919528 0.0486190 0.9919528 0.0486190 0.0080472 -0.0486190
6567500000 0.0079214 -0.0471844 0.9920786 0.0471844 0.9920786 0.0471844 0.0079214 -0.0471844
6617250000 0.0078009 -0.0457630 0.9921991 0.0457630 0.9921991 0.0457630 0.0078009 -0.0457630
6667000000 0.0076855 -0.0443545 0.9923145 0.0443545 0.9923145 0.0443545 0.0076855 -0.0443545
6716750000 0.0075750 -0.0429586 0.9924250 0.0429586 0.9924250 0.0429586 0.0075750 -0.0429586
6766500000 0.0074694 -0.0415751 0.9925306 0.0415751 0.9925306 0.0415751 0.0074694 -0.0415751
6816250000 0.0073684 -0.0402037 0.9926316 0.0402037 0.9926316 0.0402037 0.0073684 -0.0402037
6866000000 0.0072720 -0.0388442 0.9927280 0.0388442 0.9927280 0.0388442 0.0072720 -0.0388442
6915750000 0.0071801 -0.0374964 0.9928199 0.0374964 0.9928199 0.0374964 0.0071801 -0.0374964
6965500000 0.0070926 -0.0361599 0.9929074 0.0361599 0.9929074 0.0361599 0.0070926 -0.0361599
7015250000 0.0070093 -0.0348346 0.9929907 0.0348346 0.9929907 0.0348346 0.0070093 -0.0348346
7065000000 0.0069301 -0.0335203 0.9930699 0.0335203 0.9930699 0.0335203 0.0069301 -0.0335203
7114750000 0.0068550 -0.0322166 0.9931450 0.0322166 0.9931450 0.0322166 0.0068550 -0.0322166
7164500000 0.0067838 -0.0309235 0.9932162 0.0309235 0.9932162 0.0309235 0.0067838 -0.0309235
7214250000 0.0067164 -0.0296408 0.9932836 0.0296408 0.9932836 0.0296408 0.0067164 -0.0296408
7264000000 0.0066528 -0.0283681 0.9933472 0.0283681 0.9933472 0.0283681 0.0066528 -0.0283681
7313750000 0.0065929 -0.0271053 0.9934071 0.0271053 0.9934071 0.0271053 0.0065929 -0.0271053
7363500000 0.0065366 -0.0258523 0.9934634 0.0258523 0.9934634 0.0258523 0.0065366 -0.0258523
7413250000 0.0064837 -0.0246088 0.9935163 0.0246088 0.9935163 0.0246088 0.0064837 -0.0246088
7463000000 0.0064343 -0.0233747 0.9935657 0.0233747 0.9935657 0.0233747 0.0064343 -0.0233747
7512750000 0.0063882 -0.0221498 0.9936118 0.0221498 0.9936118 0.0221498 0.0063882 -0.0221498
7562500000 0.0063454 -0.0209339 0.9936546 0.0209339 0.9936546 0.0209339 0.0063454 -0.0209339
7612250000 0.0063058 -0.0197268 0.9936942 0.0197268 0.9936942 0.0197268 0.0063058 -0.0197268
7662000000 0.0062694 -0.0185285 0.9937306 0.0185285 0.9937306 0.0185285 0.0062694 -0.0185285
7711750000 0.0062359 -0.0173386 0.9937641 0.0173386 0.9937641 0.0173386 0.0062359 -0.0173386
7761500000 0.0062055 -0.0161571 0.9937945 0.0161571 0.9937945 0.0161571 0.0062055 -0.0161571
7811250000 0.0061781 -0.0149839 0.9938219 0.0149839 0.9938219 0.0149839 0.0061781 -0.0149839
7861000000 0.0061534 -0.0138187 0.9938466 0.0138187 0.9938466 0.0138187 0.0061534 -0.0138187
7910750000 0.0061317 -0.0126615 0.9938683 0.0126615 0.9938683 0.0126615 0.0061317 -0.0126615
7960500000 0.0061126 -0.0115120 0.9938874 0.0115120 0.9938874 0.0115120 0.0061126 -0.0115120
8010250000 0.0060963 -0.0103702 0.9939037 0.0103702 0.9939037 0.0103702 0.0060963 -0.0103702
8060000000 0.0060826 -0.0092359 0.9939174 0.0092359 0.9939174 0.0092359 0.0060826 -0.0092359
8109750000 0.0060715 -0.0081090 0.9939285 0.0081090 0.9939285 0.0081090 0.0060715 -0.0081090
8159500000 0.0060630 -0.0069894 0.9939370 0.0069894 0.9939370 0.0069894 0.0060630 -0.0069894
8209250000 0.0060569 -0.0058768 0.9939431 0.0058768 0.9939431 0.0058768 0.0060569 -0.0058768
8259000000 0.0060533 -0.0047714 0.9939467 0.0047714 0.9939467 0.0047714 0.0060533 -0.0047714
8308750000 0.0060521 -0.0036727 0.9939479 0.0036727 0.9939479 0.0036727 0.0060521 -0.0036727
8358500000 0.0060533 -0.0025809 0.9939467 0.0025809 0.9939467 0.0025809 0.0060533 -0.0025809
8408250000 0.0060568 -0.0014958 0.9939432 0.0014958 0.9939432 0.0014958 0.0060568 -0.0014958
8458000000 0.0060625 -0.0004171 0.9939375 0.0004171 0.9939375 0.0004171 0.0060625 -0.0004171
8507750000 0.0060705 0.0006550 0.9939295 -0.0006550 0.9939295 -0.0006550 0.0060705 0.0006550
8557500000 0.0060807 0.0017209 0.9939193 -0.0017209 0.9939193 -0.0017209 0.0060807 0.0017209
8607250000 0.0060930 0.0027805 0.9939070 -0.0027805 0.9939070 -0.0027805 0.0060930 0.0027805
8657000000 0.0061074 0.0038339 0.9938926 -0.0038339 0.9938926 -0.0038339 0.0061074 0.0038339
8706750000 0.0061240 0.0048814 0.9938760 -0.0048814 0.9938760 -0.0048814 0.0061240 0.0048814
8756500000 0.0061425 0.0059229 0.9938575 -0.0059229 0.9938575 -0.0059229 0.0061425 0.0059229
8806250000 0.0061631 0.0069585 0.9938369 -0.0069585 0.9938369 -0.0069585 0.0061631 0.0069585
8856000000 0.0061856 0.0079884 0.9938144 -0.0079884 0.9938144 -0.0079884 0.0061856 0.0079884
8905750000 0.0062101 0.0090127 0.9937899 -0.0090127 0.9937899 -0.0090127 0.0062101 0.0090127
8955500000 0.0062365 0.0100313 0.9937635 -0.0100313 0.9937635 -0.0100313 0.0062365 0.0100313
9005250000 0.0062648 0.0110445 0.9937352 -0.0110445 0.9937352 -0.0110445 0.0062648 0.0110445
9055000000 0.0062950 0.0120523 0.9937050 -0.0120523 0.9937050 -0.0120523 0.0062950 0.0120523
9104750000 0.0063269 0.0130548 0.9936731 -0.0130548 0.9936731 -0.0130548 0.0063269 0.0130548
9154500000 0.0063607 0.0140521 0.9936393 -0.0140521 0.9936393 -0.0140521 0.0063607 0.0140521
9204250000 0.0063962 0.0150441 0.9936038 -0.0150441 0.9936038 -0.0150441 0.0063962 0.0150441
9254000000 0.0064335 0.0160312 0.9935665 -0.0160312 0.9935665 -0.0160312 0.0064335 0.0160312
9303750000 0.0064724 0.0170132 0.9935276 -0.0170132 0.9935276 -0.0170132 0.0064724 0.0170132
9353500000 0.0065131 0.0179903 0.9934869 -0.0179903 0.9934869 -0.0179903 0.0065131 0.0179903
9403250000 0.0065554 0.0189625 0.9934446 -0.0189625 0.9934446 -0.0189625 0.0065554 0.0189625
9453000000 0.0065994 0.0199300 0.9934006 -0.0199300 0.9934006 -0.0199300 0.0065994 0.0199300
9502750000 0.0066450 0.0208927 0.9933550 -0.0208927 0.9933550 -0.0208927 0.0066450 0.0208927
9552500000 0.0066922 0.0218509 0.9933078 -0.0218509 0.9933078 -0.0218509 0.0066922 0.0218509
9602250000 0.0067409 0.0228044 0.9932591 -0.0228044 0.9932591 -0.0228044 0.0067409 0.0228044
9652000000 0.0067912 0.0237534 0.9932088 -0.0237534 0.9932088 -0.0237534 0.0067912 0.0237534
9701750000 0.0068430 0.0246980 0.9931570 -0.0246980 0.9931570 -0.0246980 0.0068430 0.0246980
9751500000 0.0068964 0.0256382 0.9931036 -0.0256382 0.9931036 -0.0256382 0.0068964 0.0256382
9801250000 0.0069512 0.0265741 0.9930488 -0.0265741 0.9930488 -0.0265741 0.0069512 0.0265741
9851000000 0.0070075 0.0275058 0.9929925 -0.0275058 0.9929925 -0.0275058 0.0070075 0.0275058
9900750000 0.0070652 0.0284332 0.9929348 -0.0284332 0.9929348 -0.0284332 0.0070652 0.0284332
9950500000 0.0071244 0.0293565 0.9928756 -0.0293565 0.9928756 -0.0293565 0.0071244 0.0293565
10000250000 0.0071849 0.0302757 0.9928151 -0.0302757 0.9928151 -0.0302757 0.0071849 0.0302757
10050000000 0.0072469 0.0311909 0.9927531 -0.0311909 0.9927531 -0.0311909 0.0072469 0.0311909
10099750000 0.0073103 0.0321021 0.9926897 -0.0321021 0.9926897 -0.0321021 0.0073103 0.0321021
10149500000 0.0073750 0.0330094 0.9926250 -0.0330094 0.9926250 -0.0330094 0.0073750 0.0330094
10199250000 0.0074410 0.0339129 0.9925590 -0.0339129 0.9925590 -0.0339129 0.0074410 0.0339129
10249000000 0.0075084 0.0348125 0.9924916 -0.0348125 0.9924916 -0.0348125 0.0075084 0.0348125
10298750000 0.0075771 0.0357084 0.9924229 -0.0357084 0.9924229 -0.0357084 0.0075771 0.0357084
10348500000 0.0076471 0.0366006 0.9923529 -0.0366006 0.9923529 -0.0366006 0.0076471 0.0366006
10398250000 0.0077184 0.0374891 0.9922816 -0.0374891 0.9922816 -0.0374891 0.0077184 0.0374891
10448000000 0.0077909 0.0383739 0.9922091 -0.0383739 0.9922091 -0.0383739 0.0077909 0.0383739
10497750000 0.0078647 0.0392553 0.9921353 -0.0392553 0.9921353 -0.0392553 0.0078647 0.0392553
