!Murata Part Number: GRM0115C1C9R4CE01
!These Parameters are Measured in Series Mode Connection
!Data Generated on Mar 30, 2021
!       o--ll--o
!Port1            Port2
!       o------o
!Operation Temp=25[degC], DC Bias Voltage=0[V]
!Freq. Start=100[MHz] Stop=9[GHz] 401[Steps]
# Hz S RI R 50
!Freq.(Hz) S11(Real) S11(Imag) S21(Real) S21(Imag) S12(Real) S12(Imag) S22(Real) S22(Imag)
100000000 0.7410535 -0.4376960 0.2589465 0.4376960 0.2589465 0.4376960 0.7410535 -0.4376960
121000000 0.6614985 -0.4727636 0.3385015 0.4727636 0.3385015 0.4727636 0.6614985 -0.4727636
142000000 0.5865283 -0.4919430 0.4134717 0.4919430 0.4134717 0.4919430 0.5865283 -0.4919430
163000000 0.5183588 -0.4990729 0.4816412 0.4990729 0.4816412 0.4990729 0.5183588 -0.4990729
184000000 0.4577851 -0.4975474 0.5422149 0.4975474 0.5422149 0.4975474 0.4577851 -0.4975474
205000000 0.4047258 -0.4900936 0.5952742 0.4900936 0.5952742 0.4900936 0.4047258 -0.4900936
226000000 0.3586323 -0.4787752 0.6413677 0.4787752 0.6413677 0.4787752 0.3586323 -0.4787752
247000000 0.3187558 -0.4650913 0.6812442 0.4650913 0.6812442 0.4650913 0.3187558 -0.4650913
268000000 0.2843030 -0.4500992 0.7156970 0.4500992 0.7156970 0.4500992 0.2843030 -0.4500992
289000000 0.2545182 -0.4345270 0.7454818 0.4345270 0.7454818 0.4345270 0.2545182 -0.4345270
310000000 0.2287204 -0.4188644 0.7712796 0.4188644 0.7712796 0.4188644 0.2287204 -0.4188644
331000000 0.2063151 -0.4034329 0.7936849 0.4034329 0.7936849 0.4034329 0.2063151 -0.4034329
352000000 0.1867932 -0.3884360 0.8132068 0.3884360 0.8132068 0.3884360 0.1867932 -0.3884360
373000000 0.1697234 -0.3739963 0.8302766 0.3739963 0.8302766 0.3739963 0.1697234 -0.3739963
394000000 0.1547423 -0.3601806 0.8452577 0.3601806 0.8452577 0.3601806 0.1547423 -0.3601806
415000000 0.1415452 -0.3470189 0.8584548 0.3470189 0.8584548 0.3470189 0.1415452 -0.3470189
436000000 0.1298761 -0.3345158 0.8701239 0.3345158 0.8701239 0.3345158 0.1298761 -0.3345158
457000000 0.1195202 -0.3226603 0.8804798 0.3226603 0.8804798 0.3226603 0.1195202 -0.3226603
478000000 0.1102971 -0.3114310 0.8897029 0.3114310 0.8897029 0.3114310 0.1102971 -0.3114310
499000000 0.1020543 -0.3008005 0.8979457 0.3008005 0.8979457 0.3008005 0.1020543 -0.3008005
520000000 0.0946633 -0.2907383 0.9053367 0.2907383 0.9053367 0.2907383 0.0946633 -0.2907383
541000000 0.0880148 -0.2812123 0.9119852 0.2812123 0.9119852 0.2812123 0.0880148 -0.2812123
562000000 0.0820159 -0.2721904 0.9179841 0.2721904 0.9179841 0.2721904 0.0820159 -0.2721904
583000000 0.0765874 -0.2636412 0.9234126 0.2636412 0.9234126 0.2636412 0.0765874 -0.2636412
604000000 0.0716613 -0.2555345 0.9283387 0.2555345 0.9283387 0.2555345 0.0716613 -0.2555345
625000000 0.0671791 -0.2478416 0.9328209 0.2478416 0.9328209 0.2478416 0.0671791 -0.2478416
646000000 0.0630906 -0.2405352 0.9369094 0.2405352 0.9369094 0.2405352 0.0630906 -0.2405352
667000000 0.0593521 -0.2335900 0.9406479 0.2335900 0.9406479 0.2335900 0.0593521 -0.2335900
688000000 0.0559256 -0.2269823 0.9440744 0.2269823 0.9440744 0.2269823 0.0559256 -0.2269823
709000000 0.0527783 -0.2206899 0.9472217 0.2206899 0.9472217 0.2206899 0.0527783 -0.2206899
730000000 0.0498813 -0.2146924 0.9501187 0.2146924 0.9501187 0.2146924 0.0498813 -0.2146924
751000000 0.0472093 -0.2089707 0.9527907 0.2089707 0.9527907 0.2089707 0.0472093 -0.2089707
772000000 0.0447401 -0.2035072 0.9552599 0.2035072 0.9552599 0.2035072 0.0447401 -0.2035072
793000000 0.0424542 -0.1982856 0.9575458 0.1982856 0.9575458 0.1982856 0.0424542 -0.1982856
814000000 0.0403341 -0.1932908 0.9596659 0.1932908 0.9596659 0.1932908 0.0403341 -0.1932908
835000000 0.0383646 -0.1885089 0.9616354 0.1885089 0.9616354 0.1885089 0.0383646 -0.1885089
856000000 0.0365320 -0.1839268 0.9634680 0.1839268 0.9634680 0.1839268 0.0365320 -0.1839268
877000000 0.0348242 -0.1795326 0.9651758 0.1795326 0.9651758 0.1795326 0.0348242 -0.1795326
898000000 0.0332304 -0.1753151 0.9667696 0.1753151 0.9667696 0.1753151 0.0332304 -0.1753151
919000000 0.0317408 -0.1712640 0.9682592 0.1712640 0.9682592 0.1712640 0.0317408 -0.1712640
940000000 0.0303467 -0.1673698 0.9696533 0.1673698 0.9696533 0.1673698 0.0303467 -0.1673698
961000000 0.0290404 -0.1636236 0.9709596 0.1636236 0.9709596 0.1636236 0.0290404 -0.1636236
982000000 0.0278147 -0.1600171 0.9721853 0.1600171 0.9721853 0.1600171 0.0278147 -0.1600171
1003000000 0.0266633 -0.1565426 0.9733367 0.1565426 0.9733367 0.1565426 0.0266633 -0.1565426
1024000000 0.0255804 -0.1531930 0.9744196 0.1531930 0.9744196 0.1531930 0.0255804 -0.1531930
1045000000 0.0245609 -0.1499615 0.9754391 0.1499615 0.9754391 0.1499615 0.0245609 -0.1499615
1066000000 0.0236000 -0.1468420 0.9764000 0.1468420 0.9764000 0.1468420 0.0236000 -0.1468420
1087000000 0.0226935 -0.1438287 0.9773065 0.1438287 0.9773065 0.1438287 0.0226935 -0.1438287
1108000000 0.0218373 -0.1409161 0.9781627 0.1409161 0.9781627 0.1409161 0.0218373 -0.1409161
1129000000 0.0210279 -0.1380992 0.9789721 0.1380992 0.9789721 0.1380992 0.0210279 -0.1380992
1150000000 0.0202622 -0.1353732 0.9797378 0.1353732 0.9797378 0.1353732 0.0202622 -0.1353732
1171000000 0.0195370 -0.1327336 0.9804630 0.1327336 0.9804630 0.1327336 0.0195370 -0.1327336
1192000000 0.0188496 -0.1301763 0.9811504 0.1301763 0.9811504 0.1301763 0.0188496 -0.1301763
1213000000 0.0181976 -0.1276974 0.9818024 0.1276974 0.9818024 0.1276974 0.0181976 -0.1276974
1234000000 0.0175786 -0.1252932 0.9824214 0.1252932 0.9824214 0.1252932 0.0175786 -0.1252932
1255000000 0.0169905 -0.1229602 0.9830095 0.1229602 0.9830095 0.1229602 0.0169905 -0.1229602
1276000000 0.0164313 -0.1206952 0.9835687 0.1206952 0.9835687 0.1206952 0.0164313 -0.1206952
1297000000 0.0158993 -0.1184952 0.9841007 0.1184952 0.9841007 0.1184952 0.0158993 -0.1184952
1318000000 0.0153928 -0.1163572 0.9846072 0.1163572 0.9846072 0.1163572 0.0153928 -0.1163572
1339000000 0.0149102 -0.1142785 0.9850898 0.1142785 0.9850898 0.1142785 0.0149102 -0.1142785
1360000000 0.0144500 -0.1122566 0.9855500 0.1122566 0.9855500 0.1122566 0.0144500 -0.1122566
1381000000 0.0140111 -0.1102891 0.9859889 0.1102891 0.9859889 0.1102891 0.0140111 -0.1102891
1402000000 0.0135921 -0.1083736 0.9864079 0.1083736 0.9864079 0.1083736 0.0135921 -0.1083736
1423000000 0.0131920 -0.1065080 0.9868080 0.1065080 0.9868080 0.1065080 0.0131920 -0.1065080
1444000000 0.0128096 -0.1046903 0.9871904 0.1046903 0.9871904 0.1046903 0.0128096 -0.1046903
1465000000 0.0124439 -0.1029184 0.9875561 0.1029184 0.9875561 0.1029184 0.0124439 -0.1029184
1486000000 0.0120941 -0.1011907 0.9879059 0.1011907 0.9879059 0.1011907 0.0120941 -0.1011907
1507000000 0.0117592 -0.0995053 0.9882408 0.0995053 0.9882408 0.0995053 0.0117592 -0.0995053
1528000000 0.0114386 -0.0978605 0.9885614 0.0978605 0.9885614 0.0978605 0.0114386 -0.0978605
1549000000 0.0111314 -0.0962549 0.9888686 0.0962549 0.9888686 0.0962549 0.0111314 -0.0962549
1570000000 0.0108369 -0.0946869 0.9891631 0.0946869 0.9891631 0.0946869 0.0108369 -0.0946869
1591000000 0.0105545 -0.0931552 0.9894455 0.0931552 0.9894455 0.0931552 0.0105545 -0.0931552
1612000000 0.0102835 -0.0916582 0.9897165 0.0916582 0.9897165 0.0916582 0.0102835 -0.0916582
1633000000 0.0100234 -0.0901949 0.9899766 0.0901949 0.9899766 0.0901949 0.0100234 -0.0901949
1654000000 0.0097737 -0.0887639 0.9902263 0.0887639 0.9902263 0.0887639 0.0097737 -0.0887639
1675000000 0.0095338 -0.0873641 0.9904662 0.0873641 0.9904662 0.0873641 0.0095338 -0.0873641
1696000000 0.0093033 -0.0859944 0.9906967 0.0859944 0.9906967 0.0859944 0.0093033 -0.0859944
1717000000 0.0090817 -0.0846538 0.9909183 0.0846538 0.9909183 0.0846538 0.0090817 -0.0846538
1738000000 0.0088685 -0.0833411 0.9911315 0.0833411 0.9911315 0.0833411 0.0088685 -0.0833411
1759000000 0.0086635 -0.0820556 0.9913365 0.0820556 0.9913365 0.0820556 0.0086635 -0.0820556
1780000000 0.0084662 -0.0807961 0.9915338 0.0807961 0.9915338 0.0807961 0.0084662 -0.0807961
1801000000 0.0082762 -0.0795619 0.9917238 0.0795619 0.9917238 0.0795619 0.0082762 -0.0795619
1822000000 0.0080933 -0.0783522 0.9919067 0.0783522 0.9919067 0.0783522 0.0080933 -0.0783522
1843000000 0.0079171 -0.0771661 0.9920829 0.0771661 0.9920829 0.0771661 0.0079171 -0.0771661
1864000000 0.0077473 -0.0760028 0.9922527 0.0760028 0.9922527 0.0760028 0.0077473 -0.0760028
1885000000 0.0075836 -0.0748616 0.9924164 0.0748616 0.9924164 0.0748616 0.0075836 -0.0748616
1906000000 0.0074259 -0.0737418 0.9925741 0.0737418 0.9925741 0.0737418 0.0074259 -0.0737418
1927000000 0.0072737 -0.0726428 0.9927263 0.0726428 0.9927263 0.0726428 0.0072737 -0.0726428
1948000000 0.0071269 -0.0715638 0.9928731 0.0715638 0.9928731 0.0715638 0.0071269 -0.0715638
1969000000 0.0069853 -0.0705043 0.9930147 0.0705043 0.9930147 0.0705043 0.0069853 -0.0705043
1990000000 0.0068486 -0.0694637 0.9931514 0.0694637 0.9931514 0.0694637 0.0068486 -0.0694637
2011000000 0.0067166 -0.0684414 0.9932834 0.0684414 0.9932834 0.0684414 0.0067166 -0.0684414
2032000000 0.0065892 -0.0674368 0.9934108 0.0674368 0.9934108 0.0674368 0.0065892 -0.0674368
2053000000 0.0064661 -0.0664494 0.9935339 0.0664494 0.9935339 0.0664494 0.0064661 -0.0664494
2074000000 0.0063473 -0.0654787 0.9936527 0.0654787 0.9936527 0.0654787 0.0063473 -0.0654787
2095000000 0.0062324 -0.0645242 0.9937676 0.0645242 0.9937676 0.0645242 0.0062324 -0.0645242
2116000000 0.0061214 -0.0635855 0.9938786 0.0635855 0.9938786 0.0635855 0.0061214 -0.0635855
2137000000 0.0060142 -0.0626621 0.9939858 0.0626621 0.9939858 0.0626621 0.0060142 -0.0626621
2158000000 0.0059105 -0.0617535 0.9940895 0.0617535 0.9940895 0.0617535 0.0059105 -0.0617535
2179000000 0.0058102 -0.0608594 0.9941898 0.0608594 0.9941898 0.0608594 0.0058102 -0.0608594
2200000000 0.0057132 -0.0599793 0.9942868 0.0599793 0.9942868 0.0599793 0.0057132 -0.0599793
2221000000 0.0056194 -0.0591129 0.9943806 0.0591129 0.9943806 0.0591129 0.0056194 -0.0591129
2242000000 0.0055287 -0.0582597 0.9944713 0.0582597 0.9944713 0.0582597 0.0055287 -0.0582597
2263000000 0.0054409 -0.0574195 0.9945591 0.0574195 0.9945591 0.0574195 0.0054409 -0.0574195
2284000000 0.0053560 -0.0565918 0.9946440 0.0565918 0.9946440 0.0565918 0.0053560 -0.0565918
2305000000 0.0052738 -0.0557764 0.9947262 0.0557764 0.9947262 0.0557764 0.0052738 -0.0557764
2326000000 0.0051943 -0.0549728 0.9948057 0.0549728 0.9948057 0.0549728 0.0051943 -0.0549728
2347000000 0.0051173 -0.0541809 0.9948827 0.0541809 0.9948827 0.0541809 0.0051173 -0.0541809
2368000000 0.0050428 -0.0534003 0.9949572 0.0534003 0.9949572 0.0534003 0.0050428 -0.0534003
2389000000 0.0049706 -0.0526306 0.9950294 0.0526306 0.9950294 0.0526306 0.0049706 -0.0526306
2410000000 0.0049008 -0.0518717 0.9950992 0.0518717 0.9950992 0.0518717 0.0049008 -0.0518717
2431000000 0.0048331 -0.0511232 0.9951669 0.0511232 0.9951669 0.0511232 0.0048331 -0.0511232
2452000000 0.0047676 -0.0503849 0.9952324 0.0503849 0.9952324 0.0503849 0.0047676 -0.0503849
2473000000 0.0047042 -0.0496565 0.9952958 0.0496565 0.9952958 0.0496565 0.0047042 -0.0496565
2494000000 0.0046428 -0.0489379 0.9953572 0.0489379 0.9953572 0.0489379 0.0046428 -0.0489379
2515000000 0.0045833 -0.0482286 0.9954167 0.0482286 0.9954167 0.0482286 0.0045833 -0.0482286
2536000000 0.0045257 -0.0475286 0.9954743 0.0475286 0.9954743 0.0475286 0.0045257 -0.0475286
2557000000 0.0044699 -0.0468376 0.9955301 0.0468376 0.9955301 0.0468376 0.0044699 -0.0468376
2578000000 0.0044158 -0.0461553 0.9955842 0.0461553 0.9955842 0.0461553 0.0044158 -0.0461553
2599000000 0.0043635 -0.0454816 0.9956365 0.0454816 0.9956365 0.0454816 0.0043635 -0.0454816
2620000000 0.0043128 -0.0448163 0.9956872 0.0448163 0.9956872 0.0448163 0.0043128 -0.0448163
2641000000 0.0042637 -0.0441591 0.9957363 0.0441591 0.9957363 0.0441591 0.0042637 -0.0441591
2662000000 0.0042161 -0.0435100 0.9957839 0.0435100 0.9957839 0.0435100 0.0042161 -0.0435100
2683000000 0.0041700 -0.0428686 0.9958300 0.0428686 0.9958300 0.0428686 0.0041700 -0.0428686
2704000000 0.0041254 -0.0422348 0.9958746 0.0422348 0.9958746 0.0422348 0.0041254 -0.0422348
2725000000 0.0040822 -0.0416084 0.9959178 0.0416084 0.9959178 0.0416084 0.0040822 -0.0416084
2746000000 0.0040404 -0.0409894 0.9959596 0.0409894 0.9959596 0.0409894 0.0040404 -0.0409894
2767000000 0.0039999 -0.0403774 0.9960001 0.0403774 0.9960001 0.0403774 0.0039999 -0.0403774
2788000000 0.0039607 -0.0397724 0.9960393 0.0397724 0.9960393 0.0397724 0.0039607 -0.0397724
2809000000 0.0039228 -0.0391742 0.9960772 0.0391742 0.9960772 0.0391742 0.0039228 -0.0391742
2830000000 0.0038860 -0.0385826 0.9961140 0.0385826 0.9961140 0.0385826 0.0038860 -0.0385826
2851000000 0.0038505 -0.0379976 0.9961495 0.0379976 0.9961495 0.0379976 0.0038505 -0.0379976
2872000000 0.0038161 -0.0374189 0.9961839 0.0374189 0.9961839 0.0374189 0.0038161 -0.0374189
2893000000 0.0037828 -0.0368464 0.9962172 0.0368464 0.9962172 0.0368464 0.0037828 -0.0368464
2914000000 0.0037506 -0.0362800 0.9962494 0.0362800 0.9962494 0.0362800 0.0037506 -0.0362800
2935000000 0.0037194 -0.0357196 0.9962806 0.0357196 0.9962806 0.0357196 0.0037194 -0.0357196
2956000000 0.0036893 -0.0351650 0.9963107 0.0351650 0.9963107 0.0351650 0.0036893 -0.0351650
2977000000 0.0036602 -0.0346161 0.9963398 0.0346161 0.9963398 0.0346161 0.0036602 -0.0346161
2998000000 0.0036320 -0.0340728 0.9963680 0.0340728 0.9963680 0.0340728 0.0036320 -0.0340728
3019000000 0.0036048 -0.0335350 0.9963952 0.0335350 0.9963952 0.0335350 0.0036048 -0.0335350
3040000000 0.0035786 -0.0330025 0.9964214 0.0330025 0.9964214 0.0330025 0.0035786 -0.0330025
3061000000 0.0035532 -0.0324754 0.9964468 0.0324754 0.9964468 0.0324754 0.0035532 -0.0324754
3082000000 0.0035287 -0.0319533 0.9964713 0.0319533 0.9964713 0.0319533 0.0035287 -0.0319533
3103000000 0.0035050 -0.0314364 0.9964950 0.0314364 0.9964950 0.0314364 0.0035050 -0.0314364
3124000000 0.0034822 -0.0309243 0.9965178 0.0309243 0.9965178 0.0309243 0.0034822 -0.0309243
3145000000 0.0034602 -0.0304171 0.9965398 0.0304171 0.9965398 0.0304171 0.0034602 -0.0304171
3166000000 0.0034390 -0.0299147 0.9965610 0.0299147 0.9965610 0.0299147 0.0034390 -0.0299147
3187000000 0.0034186 -0.0294169 0.9965814 0.0294169 0.9965814 0.0294169 0.0034186 -0.0294169
3208000000 0.0033989 -0.0289237 0.9966011 0.0289237 0.9966011 0.0289237 0.0033989 -0.0289237
3229000000 0.0033800 -0.0284350 0.9966200 0.0284350 0.9966200 0.0284350 0.0033800 -0.0284350
3250000000 0.0033618 -0.0279507 0.9966382 0.0279507 0.9966382 0.0279507 0.0033618 -0.0279507
3271000000 0.0033443 -0.0274707 0.9966557 0.0274707 0.9966557 0.0274707 0.0033443 -0.0274707
3292000000 0.0033274 -0.0269949 0.9966726 0.0269949 0.9966726 0.0269949 0.0033274 -0.0269949
3313000000 0.0033113 -0.0265232 0.9966887 0.0265232 0.9966887 0.0265232 0.0033113 -0.0265232
3334000000 0.0032958 -0.0260557 0.9967042 0.0260557 0.9967042 0.0260557 0.0032958 -0.0260557
3355000000 0.0032809 -0.0255921 0.9967191 0.0255921 0.9967191 0.0255921 0.0032809 -0.0255921
3376000000 0.0032667 -0.0251324 0.9967333 0.0251324 0.9967333 0.0251324 0.0032667 -0.0251324
3397000000 0.0032531 -0.0246766 0.9967469 0.0246766 0.9967469 0.0246766 0.0032531 -0.0246766
3418000000 0.0032400 -0.0242246 0.9967600 0.0242246 0.9967600 0.0242246 0.0032400 -0.0242246
3439000000 0.0032276 -0.0237763 0.9967724 0.0237763 0.9967724 0.0237763 0.0032276 -0.0237763
3460000000 0.0032157 -0.0233317 0.9967843 0.0233317 0.9967843 0.0233317 0.0032157 -0.0233317
3481000000 0.0032045 -0.0228906 0.9967955 0.0228906 0.9967955 0.0228906 0.0032045 -0.0228906
3502000000 0.0031937 -0.0224530 0.9968063 0.0224530 0.9968063 0.0224530 0.0031937 -0.0224530
3523000000 0.0031835 -0.0220189 0.9968165 0.0220189 0.9968165 0.0220189 0.0031835 -0.0220189
3544000000 0.0031738 -0.0215882 0.9968262 0.0215882 0.9968262 0.0215882 0.0031738 -0.0215882
3565000000 0.0031647 -0.0211608 0.9968353 0.0211608 0.9968353 0.0211608 0.0031647 -0.0211608
3586000000 0.0031560 -0.0207366 0.9968440 0.0207366 0.9968440 0.0207366 0.0031560 -0.0207366
3607000000 0.0031479 -0.0203157 0.9968521 0.0203157 0.9968521 0.0203157 0.0031479 -0.0203157
3628000000 0.0031402 -0.0198980 0.9968598 0.0198980 0.9968598 0.0198980 0.0031402 -0.0198980
3649000000 0.0031330 -0.0194834 0.9968670 0.0194834 0.9968670 0.0194834 0.0031330 -0.0194834
3670000000 0.0031263 -0.0190718 0.9968737 0.0190718 0.9968737 0.0190718 0.0031263 -0.0190718
3691000000 0.0031200 -0.0186632 0.9968800 0.0186632 0.9968800 0.0186632 0.0031200 -0.0186632
3712000000 0.0031142 -0.0182576 0.9968858 0.0182576 0.9968858 0.0182576 0.0031142 -0.0182576
3733000000 0.0031089 -0.0178549 0.9968911 0.0178549 0.9968911 0.0178549 0.0031089 -0.0178549
3754000000 0.0031040 -0.0174550 0.9968960 0.0174550 0.9968960 0.0174550 0.0031040 -0.0174550
3775000000 0.0030995 -0.0170580 0.9969005 0.0170580 0.9969005 0.0170580 0.0030995 -0.0170580
3796000000 0.0030954 -0.0166637 0.9969046 0.0166637 0.9969046 0.0166637 0.0030954 -0.0166637
3817000000 0.0030918 -0.0162721 0.9969082 0.0162721 0.9969082 0.0162721 0.0030918 -0.0162721
3838000000 0.0030885 -0.0158832 0.9969115 0.0158832 0.9969115 0.0158832 0.0030885 -0.0158832
3859000000 0.0030857 -0.0154969 0.9969143 0.0154969 0.9969143 0.0154969 0.0030857 -0.0154969
3880000000 0.0030832 -0.0151132 0.9969168 0.0151132 0.9969168 0.0151132 0.0030832 -0.0151132
3901000000 0.0030811 -0.0147321 0.9969189 0.0147321 0.9969189 0.0147321 0.0030811 -0.0147321
3922000000 0.0030795 -0.0143535 0.9969205 0.0143535 0.9969205 0.0143535 0.0030795 -0.0143535
3943000000 0.0030781 -0.0139773 0.9969219 0.0139773 0.9969219 0.0139773 0.0030781 -0.0139773
3964000000 0.0030772 -0.0136036 0.9969228 0.0136036 0.9969228 0.0136036 0.0030772 -0.0136036
3985000000 0.0030766 -0.0132322 0.9969234 0.0132322 0.9969234 0.0132322 0.0030766 -0.0132322
4006000000 0.0030764 -0.0128632 0.9969236 0.0128632 0.9969236 0.0128632 0.0030764 -0.0128632
4027000000 0.0030765 -0.0124965 0.9969235 0.0124965 0.9969235 0.0124965 0.0030765 -0.0124965
4048000000 0.0030770 -0.0121321 0.9969230 0.0121321 0.9969230 0.0121321 0.0030770 -0.0121321
4069000000 0.0030778 -0.0117700 0.9969222 0.0117700 0.9969222 0.0117700 0.0030778 -0.0117700
4090000000 0.0030790 -0.0114101 0.9969210 0.0114101 0.9969210 0.0114101 0.0030790 -0.0114101
4111000000 0.0030805 -0.0110523 0.9969195 0.0110523 0.9969195 0.0110523 0.0030805 -0.0110523
4132000000 0.0030823 -0.0106967 0.9969177 0.0106967 0.9969177 0.0106967 0.0030823 -0.0106967
4153000000 0.0030844 -0.0103432 0.9969156 0.0103432 0.9969156 0.0103432 0.0030844 -0.0103432
4174000000 0.0030869 -0.0099918 0.9969131 0.0099918 0.9969131 0.0099918 0.0030869 -0.0099918
4195000000 0.0030897 -0.0096424 0.9969103 0.0096424 0.9969103 0.0096424 0.0030897 -0.0096424
4216000000 0.0030928 -0.0092951 0.9969072 0.0092951 0.9969072 0.0092951 0.0030928 -0.0092951
4237000000 0.0030962 -0.0089497 0.9969038 0.0089497 0.9969038 0.0089497 0.0030962 -0.0089497
4258000000 0.0030999 -0.0086063 0.9969001 0.0086063 0.9969001 0.0086063 0.0030999 -0.0086063
4279000000 0.0031039 -0.0082649 0.9968961 0.0082649 0.9968961 0.0082649 0.0031039 -0.0082649
4300000000 0.0031081 -0.0079254 0.9968919 0.0079254 0.9968919 0.0079254 0.0031081 -0.0079254
4321000000 0.0031127 -0.0075877 0.9968873 0.0075877 0.9968873 0.0075877 0.0031127 -0.0075877
4342000000 0.0031176 -0.0072519 0.9968824 0.0072519 0.9968824 0.0072519 0.0031176 -0.0072519
4363000000 0.0031228 -0.0069179 0.9968772 0.0069179 0.9968772 0.0069179 0.0031228 -0.0069179
4384000000 0.0031282 -0.0065858 0.9968718 0.0065858 0.9968718 0.0065858 0.0031282 -0.0065858
4405000000 0.0031339 -0.0062554 0.9968661 0.0062554 0.9968661 0.0062554 0.0031339 -0.0062554
4426000000 0.0031399 -0.0059267 0.9968601 0.0059267 0.9968601 0.0059267 0.0031399 -0.0059267
4447000000 0.0031462 -0.0055998 0.9968538 0.0055998 0.9968538 0.0055998 0.0031462 -0.0055998
4468000000 0.0031527 -0.0052746 0.9968473 0.0052746 0.9968473 0.0052746 0.0031527 -0.0052746
4489000000 0.0031595 -0.0049511 0.9968405 0.0049511 0.9968405 0.0049511 0.0031595 -0.0049511
4510000000 0.0031666 -0.0046292 0.9968334 0.0046292 0.9968334 0.0046292 0.0031666 -0.0046292
