!Murata Part Number: GRM0115C1E8R2CE01
!These Parameters are Measured in Series Mode Connection
!Data Generated on Mar 30, 2021
!       o--ll--o
!Port1            Port2
!       o------o
!Operation Temp=25[degC], DC Bias Voltage=0[V]
!Freq. Start=100[MHz] Stop=9[GHz] 401[Steps]
# Hz S RI R 50
!Freq.(Hz) S11(Real) S11(Imag) S21(Real) S21(Imag) S12(Real) S12(Imag) S22(Real) S22(Imag)
100000000 0.7899429 -0.4070240 0.2100571 0.4070240 0.2100571 0.4070240 0.7899429 -0.4070240
121000000 0.7197291 -0.4487378 0.2802709 0.4487378 0.2802709 0.4487378 0.7197291 -0.4487378
142000000 0.6508509 -0.4762384 0.3491491 0.4762384 0.3491491 0.4762384 0.6508509 -0.4762384
163000000 0.5858002 -0.4920510 0.4141998 0.4920510 0.4141998 0.4920510 0.5858002 -0.4920510
184000000 0.5259549 -0.4987236 0.4740451 0.4987236 0.4740451 0.4987236 0.5259549 -0.4987236
205000000 0.4718743 -0.4985356 0.5281257 0.4985356 0.5281257 0.4985356 0.4718743 -0.4985356
226000000 0.4235791 -0.4933816 0.5764209 0.4933816 0.5764209 0.4933816 0.4235791 -0.4933816
247000000 0.3807727 -0.4847614 0.6192273 0.4847614 0.6192273 0.4847614 0.3807727 -0.4847614
268000000 0.3429959 -0.4738225 0.6570041 0.4738225 0.6570041 0.4738225 0.3429959 -0.4738225
289000000 0.3097275 -0.4614205 0.6902725 0.4614205 0.6902725 0.4614205 0.3097275 -0.4614205
310000000 0.2804431 -0.4481813 0.7195569 0.4481813 0.7195569 0.4481813 0.2804431 -0.4481813
331000000 0.2546482 -0.4345543 0.7453518 0.4345543 0.7453518 0.4345543 0.2546482 -0.4345543
352000000 0.2318933 -0.4208568 0.7681067 0.4208568 0.7681067 0.4208568 0.2318933 -0.4208568
373000000 0.2117793 -0.4073084 0.7882207 0.4073084 0.7882207 0.4073084 0.2117793 -0.4073084
394000000 0.1939571 -0.3940575 0.8060429 0.3940575 0.8060429 0.3940575 0.1939571 -0.3940575
415000000 0.1781239 -0.3812005 0.8218761 0.3812005 0.8218761 0.3812005 0.1781239 -0.3812005
436000000 0.1640188 -0.3687967 0.8359812 0.3687967 0.8359812 0.3687967 0.1640188 -0.3687967
457000000 0.1514175 -0.3568790 0.8485825 0.3568790 0.8485825 0.3568790 0.1514175 -0.3568790
478000000 0.1401277 -0.3454614 0.8598723 0.3454614 0.8598723 0.3454614 0.1401277 -0.3454614
499000000 0.1299841 -0.3345451 0.8700159 0.3345451 0.8700159 0.3345451 0.1299841 -0.3345451
520000000 0.1208452 -0.3241223 0.8791548 0.3241223 0.8791548 0.3241223 0.1208452 -0.3241223
541000000 0.1125889 -0.3141793 0.8874111 0.3141793 0.8874111 0.3141793 0.1125889 -0.3141793
562000000 0.1051103 -0.3046986 0.8948897 0.3046986 0.8948897 0.3046986 0.1051103 -0.3046986
583000000 0.0983189 -0.2956604 0.9016811 0.2956604 0.9016811 0.2956604 0.0983189 -0.2956604
604000000 0.0921362 -0.2870438 0.9078638 0.2870438 0.9078638 0.2870438 0.0921362 -0.2870438
625000000 0.0864944 -0.2788275 0.9135056 0.2788275 0.9135056 0.2788275 0.0864944 -0.2788275
646000000 0.0813342 -0.2709901 0.9186658 0.2709901 0.9186658 0.2709901 0.0813342 -0.2709901
667000000 0.0766041 -0.2635110 0.9233959 0.2635110 0.9233959 0.2635110 0.0766041 -0.2635110
688000000 0.0722592 -0.2563701 0.9277408 0.2563701 0.9277408 0.2563701 0.0722592 -0.2563701
709000000 0.0682599 -0.2495480 0.9317401 0.2495480 0.9317401 0.2495480 0.0682599 -0.2495480
730000000 0.0645716 -0.2430266 0.9354284 0.2430266 0.9354284 0.2430266 0.0645716 -0.2430266
751000000 0.0611637 -0.2367886 0.9388363 0.2367886 0.9388363 0.2367886 0.0611637 -0.2367886
772000000 0.0580093 -0.2308176 0.9419907 0.2308176 0.9419907 0.2308176 0.0580093 -0.2308176
793000000 0.0550844 -0.2250982 0.9449156 0.2250982 0.9449156 0.2250982 0.0550844 -0.2250982
814000000 0.0523680 -0.2196162 0.9476320 0.2196162 0.9476320 0.2196162 0.0523680 -0.2196162
835000000 0.0498410 -0.2143579 0.9501590 0.2143579 0.9501590 0.2143579 0.0498410 -0.2143579
856000000 0.0474868 -0.2093108 0.9525132 0.2093108 0.9525132 0.2093108 0.0474868 -0.2093108
877000000 0.0452903 -0.2044630 0.9547097 0.2044630 0.9547097 0.2044630 0.0452903 -0.2044630
898000000 0.0432381 -0.1998035 0.9567619 0.1998035 0.9567619 0.1998035 0.0432381 -0.1998035
919000000 0.0413180 -0.1953218 0.9586820 0.1953218 0.9586820 0.1953218 0.0413180 -0.1953218
940000000 0.0395193 -0.1910085 0.9604807 0.1910085 0.9604807 0.1910085 0.0395193 -0.1910085
961000000 0.0378322 -0.1868543 0.9621678 0.1868543 0.9621678 0.1868543 0.0378322 -0.1868543
982000000 0.0362477 -0.1828509 0.9637523 0.1828509 0.9637523 0.1828509 0.0362477 -0.1828509
1003000000 0.0347581 -0.1789903 0.9652419 0.1789903 0.9652419 0.1789903 0.0347581 -0.1789903
1024000000 0.0333560 -0.1752652 0.9666440 0.1752652 0.9666440 0.1752652 0.0333560 -0.1752652
1045000000 0.0320348 -0.1716686 0.9679652 0.1716686 0.9679652 0.1716686 0.0320348 -0.1716686
1066000000 0.0307887 -0.1681941 0.9692113 0.1681941 0.9692113 0.1681941 0.0307887 -0.1681941
1087000000 0.0296121 -0.1648354 0.9703879 0.1648354 0.9703879 0.1648354 0.0296121 -0.1648354
1108000000 0.0285001 -0.1615870 0.9714999 0.1615870 0.9714999 0.1615870 0.0285001 -0.1615870
1129000000 0.0274483 -0.1584435 0.9725517 0.1584435 0.9725517 0.1584435 0.0274483 -0.1584435
1150000000 0.0264523 -0.1553997 0.9735477 0.1553997 0.9735477 0.1553997 0.0264523 -0.1553997
1171000000 0.0255086 -0.1524511 0.9744914 0.1524511 0.9744914 0.1524511 0.0255086 -0.1524511
1192000000 0.0246135 -0.1495931 0.9753865 0.1495931 0.9753865 0.1495931 0.0246135 -0.1495931
1213000000 0.0237638 -0.1468216 0.9762362 0.1468216 0.9762362 0.1468216 0.0237638 -0.1468216
1234000000 0.0229568 -0.1441326 0.9770432 0.1441326 0.9770432 0.1441326 0.0229568 -0.1441326
1255000000 0.0221895 -0.1415224 0.9778105 0.1415224 0.9778105 0.1415224 0.0221895 -0.1415224
1276000000 0.0214596 -0.1389875 0.9785404 0.1389875 0.9785404 0.1389875 0.0214596 -0.1389875
1297000000 0.0207647 -0.1365246 0.9792353 0.1365246 0.9792353 0.1365246 0.0207647 -0.1365246
1318000000 0.0201026 -0.1341305 0.9798974 0.1341305 0.9798974 0.1341305 0.0201026 -0.1341305
1339000000 0.0194715 -0.1318025 0.9805285 0.1318025 0.9805285 0.1318025 0.0194715 -0.1318025
1360000000 0.0188695 -0.1295375 0.9811305 0.1295375 0.9811305 0.1295375 0.0188695 -0.1295375
1381000000 0.0182948 -0.1273331 0.9817052 0.1273331 0.9817052 0.1273331 0.0182948 -0.1273331
1402000000 0.0177459 -0.1251867 0.9822541 0.1251867 0.9822541 0.1251867 0.0177459 -0.1251867
1423000000 0.0172214 -0.1230960 0.9827786 0.1230960 0.9827786 0.1230960 0.0172214 -0.1230960
1444000000 0.0167198 -0.1210587 0.9832802 0.1210587 0.9832802 0.1210587 0.0167198 -0.1210587
1465000000 0.0162400 -0.1190727 0.9837600 0.1190727 0.9837600 0.1190727 0.0162400 -0.1190727
1486000000 0.0157806 -0.1171359 0.9842194 0.1171359 0.9842194 0.1171359 0.0157806 -0.1171359
1507000000 0.0153407 -0.1152466 0.9846593 0.1152466 0.9846593 0.1152466 0.0153407 -0.1152466
1528000000 0.0149191 -0.1134027 0.9850809 0.1134027 0.9850809 0.1134027 0.0149191 -0.1134027
1549000000 0.0145150 -0.1116028 0.9854850 0.1116028 0.9854850 0.1116028 0.0145150 -0.1116028
1570000000 0.0141274 -0.1098450 0.9858726 0.1098450 0.9858726 0.1098450 0.0141274 -0.1098450
1591000000 0.0137554 -0.1081278 0.9862446 0.1081278 0.9862446 0.1081278 0.0137554 -0.1081278
1612000000 0.0133983 -0.1064497 0.9866017 0.1064497 0.9866017 0.1064497 0.0133983 -0.1064497
1633000000 0.0130553 -0.1048094 0.9869447 0.1048094 0.9869447 0.1048094 0.0130553 -0.1048094
1654000000 0.0127258 -0.1032054 0.9872742 0.1032054 0.9872742 0.1032054 0.0127258 -0.1032054
1675000000 0.0124090 -0.1016365 0.9875910 0.1016365 0.9875910 0.1016365 0.0124090 -0.1016365
1696000000 0.0121044 -0.1001015 0.9878956 0.1001015 0.9878956 0.1001015 0.0121044 -0.1001015
1717000000 0.0118113 -0.0985991 0.9881887 0.0985991 0.9881887 0.0985991 0.0118113 -0.0985991
1738000000 0.0115293 -0.0971283 0.9884707 0.0971283 0.9884707 0.0971283 0.0115293 -0.0971283
1759000000 0.0112578 -0.0956879 0.9887422 0.0956879 0.9887422 0.0956879 0.0112578 -0.0956879
1780000000 0.0109963 -0.0942770 0.9890037 0.0942770 0.9890037 0.0942770 0.0109963 -0.0942770
1801000000 0.0107444 -0.0928946 0.9892556 0.0928946 0.9892556 0.0928946 0.0107444 -0.0928946
1822000000 0.0105016 -0.0915398 0.9894984 0.0915398 0.9894984 0.0915398 0.0105016 -0.0915398
1843000000 0.0102676 -0.0902115 0.9897324 0.0902115 0.9897324 0.0902115 0.0102676 -0.0902115
1864000000 0.0100419 -0.0889091 0.9899581 0.0889091 0.9899581 0.0889091 0.0100419 -0.0889091
1885000000 0.0098242 -0.0876316 0.9901758 0.0876316 0.9901758 0.0876316 0.0098242 -0.0876316
1906000000 0.0096141 -0.0863783 0.9903859 0.0863783 0.9903859 0.0863783 0.0096141 -0.0863783
1927000000 0.0094113 -0.0851485 0.9905887 0.0851485 0.9905887 0.0851485 0.0094113 -0.0851485
1948000000 0.0092155 -0.0839413 0.9907845 0.0839413 0.9907845 0.0839413 0.0092155 -0.0839413
1969000000 0.0090264 -0.0827561 0.9909736 0.0827561 0.9909736 0.0827561 0.0090264 -0.0827561
1990000000 0.0088438 -0.0815923 0.9911562 0.0815923 0.9911562 0.0815923 0.0088438 -0.0815923
2011000000 0.0086673 -0.0804491 0.9913327 0.0804491 0.9913327 0.0804491 0.0086673 -0.0804491
2032000000 0.0084967 -0.0793260 0.9915033 0.0793260 0.9915033 0.0793260 0.0084967 -0.0793260
2053000000 0.0083318 -0.0782224 0.9916682 0.0782224 0.9916682 0.0782224 0.0083318 -0.0782224
2074000000 0.0081723 -0.0771377 0.9918277 0.0771377 0.9918277 0.0771377 0.0081723 -0.0771377
2095000000 0.0080181 -0.0760713 0.9919819 0.0760713 0.9919819 0.0760713 0.0080181 -0.0760713
2116000000 0.0078688 -0.0750228 0.9921312 0.0750228 0.9921312 0.0750228 0.0078688 -0.0750228
2137000000 0.0077245 -0.0739916 0.9922755 0.0739916 0.9922755 0.0739916 0.0077245 -0.0739916
2158000000 0.0075847 -0.0729773 0.9924153 0.0729773 0.9924153 0.0729773 0.0075847 -0.0729773
2179000000 0.0074495 -0.0719793 0.9925505 0.0719793 0.9925505 0.0719793 0.0074495 -0.0719793
2200000000 0.0073185 -0.0709972 0.9926815 0.0709972 0.9926815 0.0709972 0.0073185 -0.0709972
2221000000 0.0071916 -0.0700306 0.9928084 0.0700306 0.9928084 0.0700306 0.0071916 -0.0700306
2242000000 0.0070688 -0.0690790 0.9929312 0.0690790 0.9929312 0.0690790 0.0070688 -0.0690790
2263000000 0.0069498 -0.0681421 0.9930502 0.0681421 0.9930502 0.0681421 0.0069498 -0.0681421
2284000000 0.0068345 -0.0672195 0.9931655 0.0672195 0.9931655 0.0672195 0.0068345 -0.0672195
2305000000 0.0067227 -0.0663107 0.9932773 0.0663107 0.9932773 0.0663107 0.0067227 -0.0663107
2326000000 0.0066144 -0.0654154 0.9933856 0.0654154 0.9933856 0.0654154 0.0066144 -0.0654154
2347000000 0.0065095 -0.0645333 0.9934905 0.0645333 0.9934905 0.0645333 0.0065095 -0.0645333
2368000000 0.0064077 -0.0636640 0.9935923 0.0636640 0.9935923 0.0636640 0.0064077 -0.0636640
2389000000 0.0063090 -0.0628072 0.9936910 0.0628072 0.9936910 0.0628072 0.0063090 -0.0628072
2410000000 0.0062133 -0.0619626 0.9937867 0.0619626 0.9937867 0.0619626 0.0062133 -0.0619626
2431000000 0.0061205 -0.0611298 0.9938795 0.0611298 0.9938795 0.0611298 0.0061205 -0.0611298
2452000000 0.0060304 -0.0603086 0.9939696 0.0603086 0.9939696 0.0603086 0.0060304 -0.0603086
2473000000 0.0059431 -0.0594987 0.9940569 0.0594987 0.9940569 0.0594987 0.0059431 -0.0594987
2494000000 0.0058583 -0.0586997 0.9941417 0.0586997 0.9941417 0.0586997 0.0058583 -0.0586997
2515000000 0.0057761 -0.0579115 0.9942239 0.0579115 0.9942239 0.0579115 0.0057761 -0.0579115
2536000000 0.0056963 -0.0571338 0.9943037 0.0571338 0.9943037 0.0571338 0.0056963 -0.0571338
2557000000 0.0056189 -0.0563663 0.9943811 0.0563663 0.9943811 0.0563663 0.0056189 -0.0563663
2578000000 0.0055437 -0.0556087 0.9944563 0.0556087 0.9944563 0.0556087 0.0055437 -0.0556087
2599000000 0.0054708 -0.0548609 0.9945292 0.0548609 0.9945292 0.0548609 0.0054708 -0.0548609
2620000000 0.0054000 -0.0541225 0.9946000 0.0541225 0.9946000 0.0541225 0.0054000 -0.0541225
2641000000 0.0053312 -0.0533935 0.9946688 0.0533935 0.9946688 0.0533935 0.0053312 -0.0533935
2662000000 0.0052645 -0.0526735 0.9947355 0.0526735 0.9947355 0.0526735 0.0052645 -0.0526735
2683000000 0.0051997 -0.0519624 0.9948003 0.0519624 0.9948003 0.0519624 0.0051997 -0.0519624
2704000000 0.0051368 -0.0512599 0.9948632 0.0512599 0.9948632 0.0512599 0.0051368 -0.0512599
2725000000 0.0050758 -0.0505659 0.9949242 0.0505659 0.9949242 0.0505659 0.0050758 -0.0505659
2746000000 0.0050165 -0.0498802 0.9949835 0.0498802 0.9949835 0.0498802 0.0050165 -0.0498802
2767000000 0.0049589 -0.0492025 0.9950411 0.0492025 0.9950411 0.0492025 0.0049589 -0.0492025
2788000000 0.0049030 -0.0485328 0.9950970 0.0485328 0.9950970 0.0485328 0.0049030 -0.0485328
2809000000 0.0048487 -0.0478708 0.9951513 0.0478708 0.9951513 0.0478708 0.0048487 -0.0478708
2830000000 0.0047960 -0.0472163 0.9952040 0.0472163 0.9952040 0.0472163 0.0047960 -0.0472163
2851000000 0.0047449 -0.0465692 0.9952551 0.0465692 0.9952551 0.0465692 0.0047449 -0.0465692
2872000000 0.0046952 -0.0459294 0.9953048 0.0459294 0.9953048 0.0459294 0.0046952 -0.0459294
2893000000 0.0046470 -0.0452966 0.9953530 0.0452966 0.9953530 0.0452966 0.0046470 -0.0452966
2914000000 0.0046002 -0.0446707 0.9953998 0.0446707 0.9953998 0.0446707 0.0046002 -0.0446707
2935000000 0.0045547 -0.0440517 0.9954453 0.0440517 0.9954453 0.0440517 0.0045547 -0.0440517
2956000000 0.0045106 -0.0434393 0.9954894 0.0434393 0.9954894 0.0434393 0.0045106 -0.0434393
2977000000 0.0044677 -0.0428333 0.9955323 0.0428333 0.9955323 0.0428333 0.0044677 -0.0428333
2998000000 0.0044262 -0.0422338 0.9955738 0.0422338 0.9955738 0.0422338 0.0044262 -0.0422338
3019000000 0.0043858 -0.0416404 0.9956142 0.0416404 0.9956142 0.0416404 0.0043858 -0.0416404
3040000000 0.0043467 -0.0410532 0.9956533 0.0410532 0.9956533 0.0410532 0.0043467 -0.0410532
3061000000 0.0043087 -0.0404719 0.9956913 0.0404719 0.9956913 0.0404719 0.0043087 -0.0404719
3082000000 0.0042718 -0.0398966 0.9957282 0.0398966 0.9957282 0.0398966 0.0042718 -0.0398966
3103000000 0.0042361 -0.0393269 0.9957639 0.0393269 0.9957639 0.0393269 0.0042361 -0.0393269
3124000000 0.0042014 -0.0387629 0.9957986 0.0387629 0.9957986 0.0387629 0.0042014 -0.0387629
3145000000 0.0041677 -0.0382044 0.9958323 0.0382044 0.9958323 0.0382044 0.0041677 -0.0382044
3166000000 0.0041351 -0.0376513 0.9958649 0.0376513 0.9958649 0.0376513 0.0041351 -0.0376513
3187000000 0.0041035 -0.0371035 0.9958965 0.0371035 0.9958965 0.0371035 0.0041035 -0.0371035
3208000000 0.0040729 -0.0365608 0.9959271 0.0365608 0.9959271 0.0365608 0.0040729 -0.0365608
3229000000 0.0040432 -0.0360233 0.9959568 0.0360233 0.9959568 0.0360233 0.0040432 -0.0360233
3250000000 0.0040144 -0.0354908 0.9959856 0.0354908 0.9959856 0.0354908 0.0040144 -0.0354908
3271000000 0.0039865 -0.0349632 0.9960135 0.0349632 0.9960135 0.0349632 0.0039865 -0.0349632
3292000000 0.0039596 -0.0344404 0.9960404 0.0344404 0.9960404 0.0344404 0.0039596 -0.0344404
3313000000 0.0039334 -0.0339223 0.9960666 0.0339223 0.9960666 0.0339223 0.0039334 -0.0339223
3334000000 0.0039082 -0.0334088 0.9960918 0.0334088 0.9960918 0.0334088 0.0039082 -0.0334088
3355000000 0.0038837 -0.0328999 0.9961163 0.0328999 0.9961163 0.0328999 0.0038837 -0.0328999
3376000000 0.0038601 -0.0323955 0.9961399 0.0323955 0.9961399 0.0323955 0.0038601 -0.0323955
3397000000 0.0038372 -0.0318954 0.9961628 0.0318954 0.9961628 0.0318954 0.0038372 -0.0318954
3418000000 0.0038151 -0.0313996 0.9961849 0.0313996 0.9961849 0.0313996 0.0038151 -0.0313996
3439000000 0.0037937 -0.0309080 0.9962063 0.0309080 0.9962063 0.0309080 0.0037937 -0.0309080
3460000000 0.0037731 -0.0304206 0.9962269 0.0304206 0.9962269 0.0304206 0.0037731 -0.0304206
3481000000 0.0037532 -0.0299373 0.9962468 0.0299373 0.9962468 0.0299373 0.0037532 -0.0299373
3502000000 0.0037341 -0.0294579 0.9962659 0.0294579 0.9962659 0.0294579 0.0037341 -0.0294579
3523000000 0.0037156 -0.0289825 0.9962844 0.0289825 0.9962844 0.0289825 0.0037156 -0.0289825
3544000000 0.0036977 -0.0285109 0.9963023 0.0285109 0.9963023 0.0285109 0.0036977 -0.0285109
3565000000 0.0036806 -0.0280431 0.9963194 0.0280431 0.9963194 0.0280431 0.0036806 -0.0280431
3586000000 0.0036641 -0.0275790 0.9963359 0.0275790 0.9963359 0.0275790 0.0036641 -0.0275790
3607000000 0.0036482 -0.0271186 0.9963518 0.0271186 0.9963518 0.0271186 0.0036482 -0.0271186
3628000000 0.0036330 -0.0266617 0.9963670 0.0266617 0.9963670 0.0266617 0.0036330 -0.0266617
3649000000 0.0036183 -0.0262084 0.9963817 0.0262084 0.9963817 0.0262084 0.0036183 -0.0262084
3670000000 0.0036043 -0.0257586 0.9963957 0.0257586 0.9963957 0.0257586 0.0036043 -0.0257586
3691000000 0.0035908 -0.0253121 0.9964092 0.0253121 0.9964092 0.0253121 0.0035908 -0.0253121
3712000000 0.0035779 -0.0248691 0.9964221 0.0248691 0.9964221 0.0248691 0.0035779 -0.0248691
3733000000 0.0035656 -0.0244293 0.9964344 0.0244293 0.9964344 0.0244293 0.0035656 -0.0244293
3754000000 0.0035538 -0.0239927 0.9964462 0.0239927 0.9964462 0.0239927 0.0035538 -0.0239927
3775000000 0.0035426 -0.0235594 0.9964574 0.0235594 0.9964574 0.0235594 0.0035426 -0.0235594
3796000000 0.0035319 -0.0231291 0.9964681 0.0231291 0.9964681 0.0231291 0.0035319 -0.0231291
3817000000 0.0035218 -0.0227020 0.9964782 0.0227020 0.9964782 0.0227020 0.0035218 -0.0227020
3838000000 0.0035122 -0.0222779 0.9964878 0.0222779 0.9964878 0.0222779 0.0035122 -0.0222779
3859000000 0.0035030 -0.0218568 0.9964970 0.0218568 0.9964970 0.0218568 0.0035030 -0.0218568
3880000000 0.0034944 -0.0214386 0.9965056 0.0214386 0.9965056 0.0214386 0.0034944 -0.0214386
3901000000 0.0034862 -0.0210233 0.9965138 0.0210233 0.9965138 0.0210233 0.0034862 -0.0210233
3922000000 0.0034786 -0.0206108 0.9965214 0.0206108 0.9965214 0.0206108 0.0034786 -0.0206108
3943000000 0.0034714 -0.0202011 0.9965286 0.0202011 0.9965286 0.0202011 0.0034714 -0.0202011
3964000000 0.0034647 -0.0197942 0.9965353 0.0197942 0.9965353 0.0197942 0.0034647 -0.0197942
3985000000 0.0034584 -0.0193900 0.9965416 0.0193900 0.9965416 0.0193900 0.0034584 -0.0193900
4006000000 0.0034526 -0.0189885 0.9965474 0.0189885 0.9965474 0.0189885 0.0034526 -0.0189885
4027000000 0.0034472 -0.0185895 0.9965528 0.0185895 0.9965528 0.0185895 0.0034472 -0.0185895
4048000000 0.0034423 -0.0181932 0.9965577 0.0181932 0.9965577 0.0181932 0.0034423 -0.0181932
4069000000 0.0034378 -0.0177994 0.9965622 0.0177994 0.9965622 0.0177994 0.0034378 -0.0177994
4090000000 0.0034337 -0.0174081 0.9965663 0.0174081 0.9965663 0.0174081 0.0034337 -0.0174081
4111000000 0.0034300 -0.0170193 0.9965700 0.0170193 0.9965700 0.0170193 0.0034300 -0.0170193
4132000000 0.0034268 -0.0166328 0.9965732 0.0166328 0.9965732 0.0166328 0.0034268 -0.0166328
4153000000 0.0034239 -0.0162488 0.9965761 0.0162488 0.9965761 0.0162488 0.0034239 -0.0162488
4174000000 0.0034215 -0.0158672 0.9965785 0.0158672 0.9965785 0.0158672 0.0034215 -0.0158672
4195000000 0.0034195 -0.0154878 0.9965805 0.0154878 0.9965805 0.0154878 0.0034195 -0.0154878
4216000000 0.0034178 -0.0151108 0.9965822 0.0151108 0.9965822 0.0151108 0.0034178 -0.0151108
4237000000 0.0034165 -0.0147360 0.9965835 0.0147360 0.9965835 0.0147360 0.0034165 -0.0147360
4258000000 0.0034157 -0.0143634 0.9965843 0.0143634 0.9965843 0.0143634 0.0034157 -0.0143634
4279000000 0.0034151 -0.0139930 0.9965849 0.0139930 0.9965849 0.0139930 0.0034151 -0.0139930
4300000000 0.0034150 -0.0136247 0.9965850 0.0136247 0.9965850 0.0136247 0.0034150 -0.0136247
4321000000 0.0034152 -0.0132586 0.9965848 0.0132586 0.9965848 0.0132586 0.0034152 -0.0132586
4342000000 0.0034158 -0.0128946 0.9965842 0.0128946 0.9965842 0.0128946 0.0034158 -0.0128946
4363000000 0.0034168 -0.0125326 0.9965832 0.0125326 0.9965832 0.0125326 0.0034168 -0.0125326
4384000000 0.0034181 -0.0121727 0.9965819 0.0121727 0.9965819 0.0121727 0.0034181 -0.0121727
4405000000 0.0034197 -0.0118147 0.9965803 0.0118147 0.9965803 0.0118147 0.0034197 -0.0118147
4426000000 0.0034217 -0.0114588 0.9965783 0.0114588 0.9965783 0.0114588 0.0034217 -0.0114588
4447000000 0.0034240 -0.0111048 0.9965760 0.0111048 0.9965760 0.0111048 0.0034240 -0.0111048
4468000000 0.0034267 -0.0107527 0.9965733 0.0107527 0.9965733 0.0107527 0.0034267 -0.0107527
4489000000 0.0034297 -0.0104025 0.9965703 0.0104025 0.9965703 0.0104025 0.0034297 -0.0104025
4510000000 0.0034330 -0.0100541 0.9965670 0.0100541 0.9965670 0.0100541 0.0034330 -0.0100541
