!Murata Part Number: GRM0115C1E220GE01
!These Parameters are Measured in Series Mode Connection
!Data Generated on Mar 30, 2021
!       o--ll--o
!Port1            Port2
!       o------o
!Operation Temp=25[degC], DC Bias Voltage=0[V]
!Freq. Start=100[MHz] Stop=9[GHz] 401[Steps]
# Hz S RI R 50
!Freq.(Hz) S11(Real) S11(Imag) S21(Real) S21(Imag) S12(Real) S12(Imag) S22(Real) S22(Imag)
100000000 0.3433344 -0.4741095 0.6566656 0.4741095 0.6566656 0.4741095 0.3433344 -0.4741095
121000000 0.2631458 -0.4394780 0.7368542 0.4394780 0.7368542 0.4394780 0.2631458 -0.4394780
142000000 0.2059165 -0.4033560 0.7940835 0.4033560 0.7940835 0.4033560 0.2059165 -0.4033560
163000000 0.1644452 -0.3695139 0.8355548 0.3695139 0.8355548 0.3695139 0.1644452 -0.3695139
184000000 0.1337926 -0.3391122 0.8662074 0.3391122 0.8662074 0.3391122 0.1337926 -0.3391122
205000000 0.1106701 -0.3122533 0.8893299 0.3122533 0.8893299 0.3122533 0.1106701 -0.3122533
226000000 0.0928870 -0.2886507 0.9071130 0.2886507 0.9071130 0.2886507 0.0928870 -0.2886507
247000000 0.0789649 -0.2679065 0.9210351 0.2679065 0.9210351 0.2679065 0.0789649 -0.2679065
268000000 0.0678890 -0.2496226 0.9321110 0.2496226 0.9321110 0.2496226 0.0678890 -0.2496226
289000000 0.0589490 -0.2334404 0.9410510 0.2334404 0.9410510 0.2334404 0.0589490 -0.2334404
310000000 0.0516389 -0.2190507 0.9483611 0.2190507 0.9483611 0.2190507 0.0516389 -0.2190507
331000000 0.0455914 -0.2061927 0.9544086 0.2061927 0.9544086 0.2061927 0.0455914 -0.2061927
352000000 0.0405358 -0.1946479 0.9594642 0.1946479 0.9594642 0.1946479 0.0405358 -0.1946479
373000000 0.0362691 -0.1842337 0.9637309 0.1842337 0.9637309 0.1842337 0.0362691 -0.1842337
394000000 0.0326372 -0.1747976 0.9673628 0.1747976 0.9673628 0.1747976 0.0326372 -0.1747976
415000000 0.0295216 -0.1662119 0.9704784 0.1662119 0.9704784 0.1662119 0.0295216 -0.1662119
436000000 0.0268298 -0.1583691 0.9731702 0.1583691 0.9731702 0.1583691 0.0268298 -0.1583691
457000000 0.0244890 -0.1511781 0.9755110 0.1511781 0.9755110 0.1511781 0.0244890 -0.1511781
478000000 0.0224414 -0.1445619 0.9775586 0.1445619 0.9775586 0.1445619 0.0224414 -0.1445619
499000000 0.0206404 -0.1384546 0.9793596 0.1384546 0.9793596 0.1384546 0.0206404 -0.1384546
520000000 0.0190483 -0.1327999 0.9809517 0.1327999 0.9809517 0.1327999 0.0190483 -0.1327999
541000000 0.0176343 -0.1275491 0.9823657 0.1275491 0.9823657 0.1275491 0.0176343 -0.1275491
562000000 0.0163730 -0.1226602 0.9836270 0.1226602 0.9836270 0.1226602 0.0163730 -0.1226602
583000000 0.0152435 -0.1180968 0.9847565 0.1180968 0.9847565 0.1180968 0.0152435 -0.1180968
604000000 0.0142282 -0.1138270 0.9857718 0.1138270 0.9857718 0.1138270 0.0142282 -0.1138270
625000000 0.0133124 -0.1098229 0.9866876 0.1098229 0.9866876 0.1098229 0.0133124 -0.1098229
646000000 0.0124836 -0.1060599 0.9875164 0.1060599 0.9875164 0.1060599 0.0124836 -0.1060599
667000000 0.0117314 -0.1025165 0.9882686 0.1025165 0.9882686 0.1025165 0.0117314 -0.1025165
688000000 0.0110466 -0.0991735 0.9889534 0.0991735 0.9889534 0.0991735 0.0110466 -0.0991735
709000000 0.0104216 -0.0960139 0.9895784 0.0960139 0.9895784 0.0960139 0.0104216 -0.0960139
730000000 0.0098498 -0.0930225 0.9901502 0.0930225 0.9901502 0.0930225 0.0098498 -0.0930225
751000000 0.0093254 -0.0901858 0.9906746 0.0901858 0.9906746 0.0901858 0.0093254 -0.0901858
772000000 0.0088433 -0.0874916 0.9911567 0.0874916 0.9911567 0.0874916 0.0088433 -0.0874916
793000000 0.0083993 -0.0849290 0.9916007 0.0849290 0.9916007 0.0849290 0.0083993 -0.0849290
814000000 0.0079896 -0.0824881 0.9920104 0.0824881 0.9920104 0.0824881 0.0079896 -0.0824881
835000000 0.0076107 -0.0801601 0.9923893 0.0801601 0.9923893 0.0801601 0.0076107 -0.0801601
856000000 0.0072598 -0.0779369 0.9927402 0.0779369 0.9927402 0.0779369 0.0072598 -0.0779369
877000000 0.0069343 -0.0758112 0.9930657 0.0758112 0.9930657 0.0758112 0.0069343 -0.0758112
898000000 0.0066318 -0.0737763 0.9933682 0.0737763 0.9933682 0.0737763 0.0066318 -0.0737763
919000000 0.0063504 -0.0718262 0.9936496 0.0718262 0.9936496 0.0718262 0.0063504 -0.0718262
940000000 0.0060881 -0.0699553 0.9939119 0.0699553 0.9939119 0.0699553 0.0060881 -0.0699553
961000000 0.0058434 -0.0681586 0.9941566 0.0681586 0.9941566 0.0681586 0.0058434 -0.0681586
982000000 0.0056148 -0.0664315 0.9943852 0.0664315 0.9943852 0.0664315 0.0056148 -0.0664315
1003000000 0.0054010 -0.0647696 0.9945990 0.0647696 0.9945990 0.0647696 0.0054010 -0.0647696
1024000000 0.0052008 -0.0631690 0.9947992 0.0631690 0.9947992 0.0631690 0.0052008 -0.0631690
1045000000 0.0050131 -0.0616261 0.9949869 0.0616261 0.9949869 0.0616261 0.0050131 -0.0616261
1066000000 0.0048371 -0.0601376 0.9951629 0.0601376 0.9951629 0.0601376 0.0048371 -0.0601376
1087000000 0.0046717 -0.0587004 0.9953283 0.0587004 0.9953283 0.0587004 0.0046717 -0.0587004
1108000000 0.0045164 -0.0573116 0.9954836 0.0573116 0.9954836 0.0573116 0.0045164 -0.0573116
1129000000 0.0043702 -0.0559686 0.9956298 0.0559686 0.9956298 0.0559686 0.0043702 -0.0559686
1150000000 0.0042326 -0.0546688 0.9957674 0.0546688 0.9957674 0.0546688 0.0042326 -0.0546688
1171000000 0.0041030 -0.0534101 0.9958970 0.0534101 0.9958970 0.0534101 0.0041030 -0.0534101
1192000000 0.0039808 -0.0521903 0.9960192 0.0521903 0.9960192 0.0521903 0.0039808 -0.0521903
1213000000 0.0038656 -0.0510073 0.9961344 0.0510073 0.9961344 0.0510073 0.0038656 -0.0510073
1234000000 0.0037569 -0.0498594 0.9962431 0.0498594 0.9962431 0.0498594 0.0037569 -0.0498594
1255000000 0.0036542 -0.0487448 0.9963458 0.0487448 0.9963458 0.0487448 0.0036542 -0.0487448
1276000000 0.0035572 -0.0476619 0.9964428 0.0476619 0.9964428 0.0476619 0.0035572 -0.0476619
1297000000 0.0034656 -0.0466092 0.9965344 0.0466092 0.9965344 0.0466092 0.0034656 -0.0466092
1318000000 0.0033789 -0.0455852 0.9966211 0.0455852 0.9966211 0.0455852 0.0033789 -0.0455852
1339000000 0.0032970 -0.0445886 0.9967030 0.0445886 0.9967030 0.0445886 0.0032970 -0.0445886
1360000000 0.0032195 -0.0436182 0.9967805 0.0436182 0.9967805 0.0436182 0.0032195 -0.0436182
1381000000 0.0031461 -0.0426728 0.9968539 0.0426728 0.9968539 0.0426728 0.0031461 -0.0426728
1402000000 0.0030767 -0.0417513 0.9969233 0.0417513 0.9969233 0.0417513 0.0030767 -0.0417513
1423000000 0.0030110 -0.0408527 0.9969890 0.0408527 0.9969890 0.0408527 0.0030110 -0.0408527
1444000000 0.0029488 -0.0399759 0.9970512 0.0399759 0.9970512 0.0399759 0.0029488 -0.0399759
1465000000 0.0028900 -0.0391200 0.9971100 0.0391200 0.9971100 0.0391200 0.0028900 -0.0391200
1486000000 0.0028343 -0.0382842 0.9971657 0.0382842 0.9971657 0.0382842 0.0028343 -0.0382842
1507000000 0.0027815 -0.0374676 0.9972185 0.0374676 0.9972185 0.0374676 0.0027815 -0.0374676
1528000000 0.0027316 -0.0366695 0.9972684 0.0366695 0.9972684 0.0366695 0.0027316 -0.0366695
1549000000 0.0026844 -0.0358890 0.9973156 0.0358890 0.9973156 0.0358890 0.0026844 -0.0358890
1570000000 0.0026397 -0.0351256 0.9973603 0.0351256 0.9973603 0.0351256 0.0026397 -0.0351256
1591000000 0.0025974 -0.0343786 0.9974026 0.0343786 0.9974026 0.0343786 0.0025974 -0.0343786
1612000000 0.0025574 -0.0336472 0.9974426 0.0336472 0.9974426 0.0336472 0.0025574 -0.0336472
1633000000 0.0025197 -0.0329309 0.9974803 0.0329309 0.9974803 0.0329309 0.0025197 -0.0329309
1654000000 0.0024840 -0.0322292 0.9975160 0.0322292 0.9975160 0.0322292 0.0024840 -0.0322292
1675000000 0.0024503 -0.0315416 0.9975497 0.0315416 0.9975497 0.0315416 0.0024503 -0.0315416
1696000000 0.0024185 -0.0308674 0.9975815 0.0308674 0.9975815 0.0308674 0.0024185 -0.0308674
1717000000 0.0023885 -0.0302062 0.9976115 0.0302062 0.9976115 0.0302062 0.0023885 -0.0302062
1738000000 0.0023603 -0.0295575 0.9976397 0.0295575 0.9976397 0.0295575 0.0023603 -0.0295575
1759000000 0.0023337 -0.0289210 0.9976663 0.0289210 0.9976663 0.0289210 0.0023337 -0.0289210
1780000000 0.0023088 -0.0282961 0.9976912 0.0282961 0.9976912 0.0282961 0.0023088 -0.0282961
1801000000 0.0022853 -0.0276825 0.9977147 0.0276825 0.9977147 0.0276825 0.0022853 -0.0276825
1822000000 0.0022633 -0.0270798 0.9977367 0.0270798 0.9977367 0.0270798 0.0022633 -0.0270798
1843000000 0.0022427 -0.0264877 0.9977573 0.0264877 0.9977573 0.0264877 0.0022427 -0.0264877
1864000000 0.0022235 -0.0259057 0.9977765 0.0259057 0.9977765 0.0259057 0.0022235 -0.0259057
1885000000 0.0022056 -0.0253335 0.9977944 0.0253335 0.9977944 0.0253335 0.0022056 -0.0253335
1906000000 0.0021888 -0.0247709 0.9978112 0.0247709 0.9978112 0.0247709 0.0021888 -0.0247709
1927000000 0.0021733 -0.0242174 0.9978267 0.0242174 0.9978267 0.0242174 0.0021733 -0.0242174
1948000000 0.0021590 -0.0236729 0.9978410 0.0236729 0.9978410 0.0236729 0.0021590 -0.0236729
1969000000 0.0021457 -0.0231371 0.9978543 0.0231371 0.9978543 0.0231371 0.0021457 -0.0231371
1990000000 0.0021335 -0.0226096 0.9978665 0.0226096 0.9978665 0.0226096 0.0021335 -0.0226096
2011000000 0.0021223 -0.0220902 0.9978777 0.0220902 0.9978777 0.0220902 0.0021223 -0.0220902
2032000000 0.0021122 -0.0215787 0.9978878 0.0215787 0.9978878 0.0215787 0.0021122 -0.0215787
2053000000 0.0021029 -0.0210748 0.9978971 0.0210748 0.9978971 0.0210748 0.0021029 -0.0210748
2074000000 0.0020946 -0.0205784 0.9979054 0.0205784 0.9979054 0.0205784 0.0020946 -0.0205784
2095000000 0.0020872 -0.0200891 0.9979128 0.0200891 0.9979128 0.0200891 0.0020872 -0.0200891
2116000000 0.0020807 -0.0196067 0.9979193 0.0196067 0.9979193 0.0196067 0.0020807 -0.0196067
2137000000 0.0020749 -0.0191312 0.9979251 0.0191312 0.9979251 0.0191312 0.0020749 -0.0191312
2158000000 0.0020700 -0.0186622 0.9979300 0.0186622 0.9979300 0.0186622 0.0020700 -0.0186622
2179000000 0.0020659 -0.0181997 0.9979341 0.0181997 0.9979341 0.0181997 0.0020659 -0.0181997
2200000000 0.0020625 -0.0177433 0.9979375 0.0177433 0.9979375 0.0177433 0.0020625 -0.0177433
2221000000 0.0020598 -0.0172930 0.9979402 0.0172930 0.9979402 0.0172930 0.0020598 -0.0172930
2242000000 0.0020579 -0.0168486 0.9979421 0.0168486 0.9979421 0.0168486 0.0020579 -0.0168486
2263000000 0.0020566 -0.0164099 0.9979434 0.0164099 0.9979434 0.0164099 0.0020566 -0.0164099
2284000000 0.0020560 -0.0159767 0.9979440 0.0159767 0.9979440 0.0159767 0.0020560 -0.0159767
2305000000 0.0020560 -0.0155490 0.9979440 0.0155490 0.9979440 0.0155490 0.0020560 -0.0155490
2326000000 0.0020567 -0.0151265 0.9979433 0.0151265 0.9979433 0.0151265 0.0020567 -0.0151265
2347000000 0.0020579 -0.0147092 0.9979421 0.0147092 0.9979421 0.0147092 0.0020579 -0.0147092
2368000000 0.0020598 -0.0142968 0.9979402 0.0142968 0.9979402 0.0142968 0.0020598 -0.0142968
2389000000 0.0020622 -0.0138894 0.9979378 0.0138894 0.9979378 0.0138894 0.0020622 -0.0138894
2410000000 0.0020652 -0.0134866 0.9979348 0.0134866 0.9979348 0.0134866 0.0020652 -0.0134866
2431000000 0.0020688 -0.0130886 0.9979312 0.0130886 0.9979312 0.0130886 0.0020688 -0.0130886
2452000000 0.0020728 -0.0126950 0.9979272 0.0126950 0.9979272 0.0126950 0.0020728 -0.0126950
2473000000 0.0020774 -0.0123058 0.9979226 0.0123058 0.9979226 0.0123058 0.0020774 -0.0123058
2494000000 0.0020825 -0.0119209 0.9979175 0.0119209 0.9979175 0.0119209 0.0020825 -0.0119209
2515000000 0.0020881 -0.0115403 0.9979119 0.0115403 0.9979119 0.0115403 0.0020881 -0.0115403
2536000000 0.0020941 -0.0111637 0.9979059 0.0111637 0.9979059 0.0111637 0.0020941 -0.0111637
2557000000 0.0021006 -0.0107911 0.9978994 0.0107911 0.9978994 0.0107911 0.0021006 -0.0107911
2578000000 0.0021075 -0.0104223 0.9978925 0.0104223 0.9978925 0.0104223 0.0021075 -0.0104223
2599000000 0.0021149 -0.0100574 0.9978851 0.0100574 0.9978851 0.0100574 0.0021149 -0.0100574
2620000000 0.0021228 -0.0096963 0.9978772 0.0096963 0.9978772 0.0096963 0.0021228 -0.0096963
2641000000 0.0021310 -0.0093387 0.9978690 0.0093387 0.9978690 0.0093387 0.0021310 -0.0093387
2662000000 0.0021396 -0.0089847 0.9978604 0.0089847 0.9978604 0.0089847 0.0021396 -0.0089847
2683000000 0.0021487 -0.0086342 0.9978513 0.0086342 0.9978513 0.0086342 0.0021487 -0.0086342
2704000000 0.0021581 -0.0082870 0.9978419 0.0082870 0.9978419 0.0082870 0.0021581 -0.0082870
2725000000 0.0021680 -0.0079432 0.9978320 0.0079432 0.9978320 0.0079432 0.0021680 -0.0079432
2746000000 0.0021781 -0.0076026 0.9978219 0.0076026 0.9978219 0.0076026 0.0021781 -0.0076026
2767000000 0.0021887 -0.0072652 0.9978113 0.0072652 0.9978113 0.0072652 0.0021887 -0.0072652
2788000000 0.0021996 -0.0069309 0.9978004 0.0069309 0.9978004 0.0069309 0.0021996 -0.0069309
2809000000 0.0022109 -0.0065996 0.9977891 0.0065996 0.9977891 0.0065996 0.0022109 -0.0065996
2830000000 0.0022225 -0.0062714 0.9977775 0.0062714 0.9977775 0.0062714 0.0022225 -0.0062714
2851000000 0.0022344 -0.0059460 0.9977656 0.0059460 0.9977656 0.0059460 0.0022344 -0.0059460
2872000000 0.0022467 -0.0056234 0.9977533 0.0056234 0.9977533 0.0056234 0.0022467 -0.0056234
2893000000 0.0022593 -0.0053037 0.9977407 0.0053037 0.9977407 0.0053037 0.0022593 -0.0053037
2914000000 0.0022722 -0.0049867 0.9977278 0.0049867 0.9977278 0.0049867 0.0022722 -0.0049867
2935000000 0.0022854 -0.0046723 0.9977146 0.0046723 0.9977146 0.0046723 0.0022854 -0.0046723
2956000000 0.0022989 -0.0043606 0.9977011 0.0043606 0.9977011 0.0043606 0.0022989 -0.0043606
2977000000 0.0023127 -0.0040515 0.9976873 0.0040515 0.9976873 0.0040515 0.0023127 -0.0040515
2998000000 0.0023267 -0.0037448 0.9976733 0.0037448 0.9976733 0.0037448 0.0023267 -0.0037448
3019000000 0.0023411 -0.0034407 0.9976589 0.0034407 0.9976589 0.0034407 0.0023411 -0.0034407
3040000000 0.0023558 -0.0031389 0.9976442 0.0031389 0.9976442 0.0031389 0.0023558 -0.0031389
3061000000 0.0023707 -0.0028395 0.9976293 0.0028395 0.9976293 0.0028395 0.0023707 -0.0028395
3082000000 0.0023859 -0.0025425 0.9976141 0.0025425 0.9976141 0.0025425 0.0023859 -0.0025425
3103000000 0.0024013 -0.0022477 0.9975987 0.0022477 0.9975987 0.0022477 0.0024013 -0.0022477
3124000000 0.0024170 -0.0019552 0.9975830 0.0019552 0.9975830 0.0019552 0.0024170 -0.0019552
3145000000 0.0024330 -0.0016649 0.9975670 0.0016649 0.9975670 0.0016649 0.0024330 -0.0016649
3166000000 0.0024492 -0.0013767 0.9975508 0.0013767 0.9975508 0.0013767 0.0024492 -0.0013767
3187000000 0.0024656 -0.0010907 0.9975344 0.0010907 0.9975344 0.0010907 0.0024656 -0.0010907
3208000000 0.0024823 -0.0008067 0.9975177 0.0008067 0.9975177 0.0008067 0.0024823 -0.0008067
3229000000 0.0024992 -0.0005248 0.9975008 0.0005248 0.9975008 0.0005248 0.0024992 -0.0005248
3250000000 0.0025164 -0.0002448 0.9974836 0.0002448 0.9974836 0.0002448 0.0025164 -0.0002448
3271000000 0.0025338 0.0000331 0.9974662 -0.0000331 0.9974662 -0.0000331 0.0025338 0.0000331
3292000000 0.0025514 0.0003092 0.9974486 -0.0003092 0.9974486 -0.0003092 0.0025514 0.0003092
3313000000 0.0025692 0.0005833 0.9974308 -0.0005833 0.9974308 -0.0005833 0.0025692 0.0005833
3334000000 0.0025872 0.0008556 0.9974128 -0.0008556 0.9974128 -0.0008556 0.0025872 0.0008556
3355000000 0.0026055 0.0011260 0.9973945 -0.0011260 0.9973945 -0.0011260 0.0026055 0.0011260
3376000000 0.0026239 0.0013947 0.9973761 -0.0013947 0.9973761 -0.0013947 0.0026239 0.0013947
3397000000 0.0026426 0.0016616 0.9973574 -0.0016616 0.9973574 -0.0016616 0.0026426 0.0016616
3418000000 0.0026614 0.0019267 0.9973386 -0.0019267 0.9973386 -0.0019267 0.0026614 0.0019267
3439000000 0.0026805 0.0021902 0.9973195 -0.0021902 0.9973195 -0.0021902 0.0026805 0.0021902
3460000000 0.0026997 0.0024519 0.9973003 -0.0024519 0.9973003 -0.0024519 0.0026997 0.0024519
3481000000 0.0027192 0.0027120 0.9972808 -0.0027120 0.9972808 -0.0027120 0.0027192 0.0027120
3502000000 0.0027388 0.0029705 0.9972612 -0.0029705 0.9972612 -0.0029705 0.0027388 0.0029705
3523000000 0.0027586 0.0032274 0.9972414 -0.0032274 0.9972414 -0.0032274 0.0027586 0.0032274
3544000000 0.0027786 0.0034827 0.9972214 -0.0034827 0.9972214 -0.0034827 0.0027786 0.0034827
3565000000 0.0027988 0.0037365 0.9972012 -0.0037365 0.9972012 -0.0037365 0.0027988 0.0037365
3586000000 0.0028191 0.0039887 0.9971809 -0.0039887 0.9971809 -0.0039887 0.0028191 0.0039887
3607000000 0.0028397 0.0042395 0.9971603 -0.0042395 0.9971603 -0.0042395 0.0028397 0.0042395
3628000000 0.0028604 0.0044887 0.9971396 -0.0044887 0.9971396 -0.0044887 0.0028604 0.0044887
3649000000 0.0028812 0.0047366 0.9971188 -0.0047366 0.9971188 -0.0047366 0.0028812 0.0047366
3670000000 0.0029022 0.0049830 0.9970978 -0.0049830 0.9970978 -0.0049830 0.0029022 0.0049830
3691000000 0.0029234 0.0052279 0.9970766 -0.0052279 0.9970766 -0.0052279 0.0029234 0.0052279
3712000000 0.0029448 0.0054716 0.9970552 -0.0054716 0.9970552 -0.0054716 0.0029448 0.0054716
3733000000 0.0029663 0.0057138 0.9970337 -0.0057138 0.9970337 -0.0057138 0.0029663 0.0057138
3754000000 0.0029880 0.0059547 0.9970120 -0.0059547 0.9970120 -0.0059547 0.0029880 0.0059547
3775000000 0.0030098 0.0061943 0.9969902 -0.0061943 0.9969902 -0.0061943 0.0030098 0.0061943
3796000000 0.0030318 0.0064326 0.9969682 -0.0064326 0.9969682 -0.0064326 0.0030318 0.0064326
3817000000 0.0030539 0.0066696 0.9969461 -0.0066696 0.9969461 -0.0066696 0.0030539 0.0066696
3838000000 0.0030761 0.0069053 0.9969239 -0.0069053 0.9969239 -0.0069053 0.0030761 0.0069053
3859000000 0.0030986 0.0071398 0.9969014 -0.0071398 0.9969014 -0.0071398 0.0030986 0.0071398
3880000000 0.0031211 0.0073731 0.9968789 -0.0073731 0.9968789 -0.0073731 0.0031211 0.0073731
3901000000 0.0031438 0.0076051 0.9968562 -0.0076051 0.9968562 -0.0076051 0.0031438 0.0076051
3922000000 0.0031666 0.0078360 0.9968334 -0.0078360 0.9968334 -0.0078360 0.0031666 0.0078360
3943000000 0.0031896 0.0080657 0.9968104 -0.0080657 0.9968104 -0.0080657 0.0031896 0.0080657
3964000000 0.0032127 0.0082943 0.9967873 -0.0082943 0.9967873 -0.0082943 0.0032127 0.0082943
3985000000 0.0032359 0.0085217 0.9967641 -0.0085217 0.9967641 -0.0085217 0.0032359 0.0085217
4006000000 0.0032593 0.0087479 0.9967407 -0.0087479 0.9967407 -0.0087479 0.0032593 0.0087479
4027000000 0.0032828 0.0089731 0.9967172 -0.0089731 0.9967172 -0.0089731 0.0032828 0.0089731
4048000000 0.0033064 0.0091972 0.9966936 -0.0091972 0.9966936 -0.0091972 0.0033064 0.0091972
4069000000 0.0033301 0.0094201 0.9966699 -0.0094201 0.9966699 -0.0094201 0.0033301 0.0094201
4090000000 0.0033540 0.0096421 0.9966460 -0.0096421 0.9966460 -0.0096421 0.0033540 0.0096421
4111000000 0.0033780 0.0098630 0.9966220 -0.0098630 0.9966220 -0.0098630 0.0033780 0.0098630
4132000000 0.0034021 0.0100828 0.9965979 -0.0100828 0.9965979 -0.0100828 0.0034021 0.0100828
4153000000 0.0034263 0.0103016 0.9965737 -0.0103016 0.9965737 -0.0103016 0.0034263 0.0103016
4174000000 0.0034507 0.0105194 0.9965493 -0.0105194 0.9965493 -0.0105194 0.0034507 0.0105194
4195000000 0.0034751 0.0107362 0.9965249 -0.0107362 0.9965249 -0.0107362 0.0034751 0.0107362
4216000000 0.0034997 0.0109521 0.9965003 -0.0109521 0.9965003 -0.0109521 0.0034997 0.0109521
4237000000 0.0035243 0.0111669 0.9964757 -0.0111669 0.9964757 -0.0111669 0.0035243 0.0111669
4258000000 0.0035491 0.0113808 0.9964509 -0.0113808 0.9964509 -0.0113808 0.0035491 0.0113808
4279000000 0.0035740 0.0115938 0.9964260 -0.0115938 0.9964260 -0.0115938 0.0035740 0.0115938
4300000000 0.0035990 0.0118058 0.9964010 -0.0118058 0.9964010 -0.0118058 0.0035990 0.0118058
4321000000 0.0036241 0.0120170 0.9963759 -0.0120170 0.9963759 -0.0120170 0.0036241 0.0120170
4342000000 0.0036493 0.0122272 0.9963507 -0.0122272 0.9963507 -0.0122272 0.0036493 0.0122272
4363000000 0.0036746 0.0124365 0.9963254 -0.0124365 0.9963254 -0.0124365 0.0036746 0.0124365
4384000000 0.0037000 0.0126449 0.9963000 -0.0126449 0.9963000 -0.0126449 0.0037000 0.0126449
4405000000 0.0037255 0.0128524 0.9962745 -0.0128524 0.9962745 -0.0128524 0.0037255 0.0128524
4426000000 0.0037511 0.0130591 0.9962489 -0.0130591 0.9962489 -0.0130591 0.0037511 0.0130591
4447000000 0.0037768 0.0132649 0.9962232 -0.0132649 0.9962232 -0.0132649 0.0037768 0.0132649
4468000000 0.0038026 0.0134699 0.9961974 -0.0134699 0.9961974 -0.0134699 0.0038026 0.0134699
4489000000 0.0038285 0.0136741 0.9961715 -0.0136741 0.9961715 -0.0136741 0.0038285 0.0136741
4510000000 0.0038545 0.0138774 0.9961455 -0.0138774 0.9961455 -0.0138774 0.0038545 0.0138774
