!Murata Part Number: GRM0115C1E2R9BE01
!These Parameters are Measured in Series Mode Connection
!Data Generated on Mar 30, 2021
!       o--ll--o
!Port1            Port2
!       o------o
!Operation Temp=25[degC], DC Bias Voltage=0[V]
!Freq. Start=100[MHz] Stop=9[GHz] 401[Steps]
# Hz S RI R 50
!Freq.(Hz) S11(Real) S11(Imag) S21(Real) S21(Imag) S12(Real) S12(Imag) S22(Real) S22(Imag)
100000000 0.9678019 -0.1763596 0.0321981 0.1763596 0.0321981 0.1763596 0.9678019 -0.1763596
121000000 0.9535481 -0.2102601 0.0464519 0.2102601 0.0464519 0.2102601 0.9535481 -0.2102601
142000000 0.9371196 -0.2425109 0.0628804 0.2425109 0.0628804 0.2425109 0.9371196 -0.2425109
163000000 0.9187576 -0.2729346 0.0812424 0.2729346 0.0812424 0.2729346 0.9187576 -0.2729346
184000000 0.8987170 -0.3013950 0.1012830 0.3013950 0.1012830 0.3013950 0.8987170 -0.3013950
205000000 0.8772581 -0.3277966 0.1227419 0.3277966 0.1227419 0.3277966 0.8772581 -0.3277966
226000000 0.8546397 -0.3520834 0.1453603 0.3520834 0.1453603 0.3520834 0.8546397 -0.3520834
247000000 0.8311129 -0.3742354 0.1688871 0.3742354 0.1688871 0.3742354 0.8311129 -0.3742354
268000000 0.8069163 -0.3942645 0.1930837 0.3942645 0.1930837 0.3942645 0.8069163 -0.3942645
289000000 0.7822721 -0.4122107 0.2177279 0.4122107 0.2177279 0.4122107 0.7822721 -0.4122107
310000000 0.7573831 -0.4281371 0.2426169 0.4281371 0.2426169 0.4281371 0.7573831 -0.4281371
331000000 0.7324317 -0.4421251 0.2675683 0.4421251 0.2675683 0.4421251 0.7324317 -0.4421251
352000000 0.7075786 -0.4542705 0.2924214 0.4542705 0.2924214 0.4542705 0.7075786 -0.4542705
373000000 0.6829631 -0.4646789 0.3170369 0.4646789 0.3170369 0.4646789 0.6829631 -0.4646789
394000000 0.6587041 -0.4734624 0.3412959 0.4734624 0.3412959 0.4734624 0.6587041 -0.4734624
415000000 0.6349004 -0.4807364 0.3650996 0.4807364 0.3650996 0.4807364 0.6349004 -0.4807364
436000000 0.6116328 -0.4866170 0.3883672 0.4866170 0.3883672 0.4866170 0.6116328 -0.4866170
457000000 0.5889658 -0.4912191 0.4110342 0.4912191 0.4110342 0.4912191 0.5889658 -0.4912191
478000000 0.5669488 -0.4946542 0.4330512 0.4946542 0.4330512 0.4946542 0.5669488 -0.4946542
499000000 0.5456180 -0.4970297 0.4543820 0.4970297 0.4543820 0.4970297 0.5456180 -0.4970297
520000000 0.5249984 -0.4984476 0.4750016 0.4984476 0.4750016 0.4984476 0.5249984 -0.4984476
541000000 0.5051051 -0.4990041 0.4948949 0.4990041 0.4948949 0.4990041 0.5051051 -0.4990041
562000000 0.4859448 -0.4987893 0.5140552 0.4987893 0.5140552 0.4987893 0.4859448 -0.4987893
583000000 0.4675172 -0.4978868 0.5324828 0.4978868 0.5324828 0.4978868 0.4675172 -0.4978868
604000000 0.4498165 -0.4963738 0.5501835 0.4963738 0.5501835 0.4963738 0.4498165 -0.4963738
625000000 0.4328318 -0.4943214 0.5671682 0.4943214 0.5671682 0.4943214 0.4328318 -0.4943214
646000000 0.4165488 -0.4917945 0.5834512 0.4917945 0.5834512 0.4917945 0.4165488 -0.4917945
667000000 0.4009499 -0.4888524 0.5990501 0.4888524 0.5990501 0.4888524 0.4009499 -0.4888524
688000000 0.3860156 -0.4855487 0.6139844 0.4855487 0.6139844 0.4855487 0.3860156 -0.4855487
709000000 0.3717246 -0.4819322 0.6282754 0.4819322 0.6282754 0.4819322 0.3717246 -0.4819322
730000000 0.3580545 -0.4780468 0.6419455 0.4780468 0.6419455 0.4780468 0.3580545 -0.4780468
751000000 0.3449823 -0.4739321 0.6550177 0.4739321 0.6550177 0.4739321 0.3449823 -0.4739321
772000000 0.3324844 -0.4696234 0.6675156 0.4696234 0.6675156 0.4696234 0.3324844 -0.4696234
793000000 0.3205372 -0.4651527 0.6794628 0.4651527 0.6794628 0.4651527 0.3205372 -0.4651527
814000000 0.3091174 -0.4605482 0.6908826 0.4605482 0.6908826 0.4605482 0.3091174 -0.4605482
835000000 0.2982019 -0.4558354 0.7017981 0.4558354 0.7017981 0.4558354 0.2982019 -0.4558354
856000000 0.2877681 -0.4510368 0.7122319 0.4510368 0.7122319 0.4510368 0.2877681 -0.4510368
877000000 0.2777938 -0.4461724 0.7222062 0.4461724 0.7222062 0.4461724 0.2777938 -0.4461724
898000000 0.2682579 -0.4412600 0.7317421 0.4412600 0.7317421 0.4412600 0.2682579 -0.4412600
919000000 0.2591395 -0.4363152 0.7408605 0.4363152 0.7408605 0.4363152 0.2591395 -0.4363152
940000000 0.2504189 -0.4313519 0.7495811 0.4313519 0.7495811 0.4313519 0.2504189 -0.4313519
961000000 0.2420769 -0.4263823 0.7579231 0.4263823 0.7579231 0.4263823 0.2420769 -0.4263823
982000000 0.2340952 -0.4214170 0.7659048 0.4214170 0.7659048 0.4214170 0.2340952 -0.4214170
1003000000 0.2264564 -0.4164654 0.7735436 0.4164654 0.7735436 0.4164654 0.2264564 -0.4164654
1024000000 0.2191436 -0.4115357 0.7808564 0.4115357 0.7808564 0.4115357 0.2191436 -0.4115357
1045000000 0.2121410 -0.4066350 0.7878590 0.4066350 0.7878590 0.4066350 0.2121410 -0.4066350
1066000000 0.2054335 -0.4017693 0.7945665 0.4017693 0.7945665 0.4017693 0.2054335 -0.4017693
1087000000 0.1990065 -0.3969440 0.8009935 0.3969440 0.8009935 0.3969440 0.1990065 -0.3969440
1108000000 0.1928465 -0.3921637 0.8071535 0.3921637 0.8071535 0.3921637 0.1928465 -0.3921637
1129000000 0.1869403 -0.3874321 0.8130597 0.3874321 0.8130597 0.3874321 0.1869403 -0.3874321
1150000000 0.1812756 -0.3827525 0.8187244 0.3827525 0.8187244 0.3827525 0.1812756 -0.3827525
1171000000 0.1758407 -0.3781277 0.8241593 0.3781277 0.8241593 0.3781277 0.1758407 -0.3781277
1192000000 0.1706245 -0.3735600 0.8293755 0.3735600 0.8293755 0.3735600 0.1706245 -0.3735600
1213000000 0.1656164 -0.3690510 0.8343836 0.3690510 0.8343836 0.3690510 0.1656164 -0.3690510
1234000000 0.1608066 -0.3646024 0.8391934 0.3646024 0.8391934 0.3646024 0.1608066 -0.3646024
1255000000 0.1561854 -0.3602152 0.8438146 0.3602152 0.8438146 0.3602152 0.1561854 -0.3602152
1276000000 0.1517440 -0.3558903 0.8482560 0.3558903 0.8482560 0.3558903 0.1517440 -0.3558903
1297000000 0.1474738 -0.3516283 0.8525262 0.3516283 0.8525262 0.3516283 0.1474738 -0.3516283
1318000000 0.1433669 -0.3474295 0.8566331 0.3474295 0.8566331 0.3474295 0.1433669 -0.3474295
1339000000 0.1394156 -0.3432941 0.8605844 0.3432941 0.8605844 0.3432941 0.1394156 -0.3432941
1360000000 0.1356127 -0.3392221 0.8643873 0.3392221 0.8643873 0.3392221 0.1356127 -0.3392221
1381000000 0.1319513 -0.3352134 0.8680487 0.3352134 0.8680487 0.3352134 0.1319513 -0.3352134
1402000000 0.1284250 -0.3312676 0.8715750 0.3312676 0.8715750 0.3312676 0.1284250 -0.3312676
1423000000 0.1250277 -0.3273844 0.8749723 0.3273844 0.8749723 0.3273844 0.1250277 -0.3273844
1444000000 0.1217534 -0.3235632 0.8782466 0.3235632 0.8782466 0.3235632 0.1217534 -0.3235632
1465000000 0.1185967 -0.3198035 0.8814033 0.3198035 0.8814033 0.3198035 0.1185967 -0.3198035
1486000000 0.1155524 -0.3161045 0.8844476 0.3161045 0.8844476 0.3161045 0.1155524 -0.3161045
1507000000 0.1126155 -0.3124657 0.8873845 0.3124657 0.8873845 0.3124657 0.1126155 -0.3124657
1528000000 0.1097812 -0.3088862 0.8902188 0.3088862 0.8902188 0.3088862 0.1097812 -0.3088862
1549000000 0.1070451 -0.3053651 0.8929549 0.3053651 0.8929549 0.3053651 0.1070451 -0.3053651
1570000000 0.1044030 -0.3019017 0.8955970 0.3019017 0.8955970 0.3019017 0.1044030 -0.3019017
1591000000 0.1018508 -0.2984951 0.8981492 0.2984951 0.8981492 0.2984951 0.1018508 -0.2984951
1612000000 0.0993846 -0.2951443 0.9006154 0.2951443 0.9006154 0.2951443 0.0993846 -0.2951443
1633000000 0.0970010 -0.2918484 0.9029990 0.2918484 0.9029990 0.2918484 0.0970010 -0.2918484
1654000000 0.0946963 -0.2886065 0.9053037 0.2886065 0.9053037 0.2886065 0.0946963 -0.2886065
1675000000 0.0924673 -0.2854177 0.9075327 0.2854177 0.9075327 0.2854177 0.0924673 -0.2854177
1696000000 0.0903109 -0.2822809 0.9096891 0.2822809 0.9096891 0.2822809 0.0903109 -0.2822809
1717000000 0.0882241 -0.2791953 0.9117759 0.2791953 0.9117759 0.2791953 0.0882241 -0.2791953
1738000000 0.0862041 -0.2761599 0.9137959 0.2761599 0.9137959 0.2761599 0.0862041 -0.2761599
1759000000 0.0842482 -0.2731737 0.9157518 0.2731737 0.9157518 0.2731737 0.0842482 -0.2731737
1780000000 0.0823537 -0.2702358 0.9176463 0.2702358 0.9176463 0.2702358 0.0823537 -0.2702358
1801000000 0.0805184 -0.2673452 0.9194816 0.2673452 0.9194816 0.2673452 0.0805184 -0.2673452
1822000000 0.0787398 -0.2645010 0.9212602 0.2645010 0.9212602 0.2645010 0.0787398 -0.2645010
1843000000 0.0770157 -0.2617024 0.9229843 0.2617024 0.9229843 0.2617024 0.0770157 -0.2617024
1864000000 0.0753440 -0.2589483 0.9246560 0.2589483 0.9246560 0.2589483 0.0753440 -0.2589483
1885000000 0.0737227 -0.2562379 0.9262773 0.2562379 0.9262773 0.2562379 0.0737227 -0.2562379
1906000000 0.0721498 -0.2535702 0.9278502 0.2535702 0.9278502 0.2535702 0.0721498 -0.2535702
1927000000 0.0706236 -0.2509445 0.9293764 0.2509445 0.9293764 0.2509445 0.0706236 -0.2509445
1948000000 0.0691423 -0.2483599 0.9308577 0.2483599 0.9308577 0.2483599 0.0691423 -0.2483599
1969000000 0.0677041 -0.2458155 0.9322959 0.2458155 0.9322959 0.2458155 0.0677041 -0.2458155
1990000000 0.0663076 -0.2433104 0.9336924 0.2433104 0.9336924 0.2433104 0.0663076 -0.2433104
2011000000 0.0649511 -0.2408440 0.9350489 0.2408440 0.9350489 0.2408440 0.0649511 -0.2408440
2032000000 0.0636332 -0.2384153 0.9363668 0.2384153 0.9363668 0.2384153 0.0636332 -0.2384153
2053000000 0.0623525 -0.2360235 0.9376475 0.2360235 0.9376475 0.2360235 0.0623525 -0.2360235
2074000000 0.0611076 -0.2336681 0.9388924 0.2336681 0.9388924 0.2336681 0.0611076 -0.2336681
2095000000 0.0598974 -0.2313480 0.9401026 0.2313480 0.9401026 0.2313480 0.0598974 -0.2313480
2116000000 0.0587205 -0.2290627 0.9412795 0.2290627 0.9412795 0.2290627 0.0587205 -0.2290627
2137000000 0.0575758 -0.2268114 0.9424242 0.2268114 0.9424242 0.2268114 0.0575758 -0.2268114
2158000000 0.0564622 -0.2245934 0.9435378 0.2245934 0.9435378 0.2245934 0.0564622 -0.2245934
2179000000 0.0553786 -0.2224081 0.9446214 0.2224081 0.9446214 0.2224081 0.0553786 -0.2224081
2200000000 0.0543239 -0.2202546 0.9456761 0.2202546 0.9456761 0.2202546 0.0543239 -0.2202546
2221000000 0.0532972 -0.2181324 0.9467028 0.2181324 0.9467028 0.2181324 0.0532972 -0.2181324
2242000000 0.0522976 -0.2160409 0.9477024 0.2160409 0.9477024 0.2160409 0.0522976 -0.2160409
2263000000 0.0513240 -0.2139793 0.9486760 0.2139793 0.9486760 0.2139793 0.0513240 -0.2139793
2284000000 0.0503757 -0.2119471 0.9496243 0.2119471 0.9496243 0.2119471 0.0503757 -0.2119471
2305000000 0.0494519 -0.2099437 0.9505481 0.2099437 0.9505481 0.2099437 0.0494519 -0.2099437
2326000000 0.0485516 -0.2079684 0.9514484 0.2079684 0.9514484 0.2079684 0.0485516 -0.2079684
2347000000 0.0476742 -0.2060208 0.9523258 0.2060208 0.9523258 0.2060208 0.0476742 -0.2060208
2368000000 0.0468188 -0.2041002 0.9531812 0.2041002 0.9531812 0.2041002 0.0468188 -0.2041002
2389000000 0.0459849 -0.2022060 0.9540151 0.2022060 0.9540151 0.2022060 0.0459849 -0.2022060
2410000000 0.0451716 -0.2003379 0.9548284 0.2003379 0.9548284 0.2003379 0.0451716 -0.2003379
2431000000 0.0443784 -0.1984952 0.9556216 0.1984952 0.9556216 0.1984952 0.0443784 -0.1984952
2452000000 0.0436047 -0.1966773 0.9563953 0.1966773 0.9563953 0.1966773 0.0436047 -0.1966773
2473000000 0.0428497 -0.1948839 0.9571503 0.1948839 0.9571503 0.1948839 0.0428497 -0.1948839
2494000000 0.0421130 -0.1931145 0.9578870 0.1931145 0.9578870 0.1931145 0.0421130 -0.1931145
2515000000 0.0413939 -0.1913684 0.9586061 0.1913684 0.9586061 0.1913684 0.0413939 -0.1913684
2536000000 0.0406919 -0.1896454 0.9593081 0.1896454 0.9593081 0.1896454 0.0406919 -0.1896454
2557000000 0.0400066 -0.1879449 0.9599934 0.1879449 0.9599934 0.1879449 0.0400066 -0.1879449
2578000000 0.0393374 -0.1862664 0.9606626 0.1862664 0.9606626 0.1862664 0.0393374 -0.1862664
2599000000 0.0386837 -0.1846096 0.9613163 0.1846096 0.9613163 0.1846096 0.0386837 -0.1846096
2620000000 0.0380453 -0.1829741 0.9619547 0.1829741 0.9619547 0.1829741 0.0380453 -0.1829741
2641000000 0.0374215 -0.1813593 0.9625785 0.1813593 0.9625785 0.1813593 0.0374215 -0.1813593
2662000000 0.0368120 -0.1797650 0.9631880 0.1797650 0.9631880 0.1797650 0.0368120 -0.1797650
2683000000 0.0362164 -0.1781907 0.9637836 0.1781907 0.9637836 0.1781907 0.0362164 -0.1781907
2704000000 0.0356342 -0.1766360 0.9643658 0.1766360 0.9643658 0.1766360 0.0356342 -0.1766360
2725000000 0.0350651 -0.1751005 0.9649349 0.1751005 0.9649349 0.1751005 0.0350651 -0.1751005
2746000000 0.0345087 -0.1735839 0.9654913 0.1735839 0.9654913 0.1735839 0.0345087 -0.1735839
2767000000 0.0339646 -0.1720859 0.9660354 0.1720859 0.9660354 0.1720859 0.0339646 -0.1720859
2788000000 0.0334325 -0.1706060 0.9665675 0.1706060 0.9665675 0.1706060 0.0334325 -0.1706060
2809000000 0.0329120 -0.1691440 0.9670880 0.1691440 0.9670880 0.1691440 0.0329120 -0.1691440
2830000000 0.0324029 -0.1676995 0.9675971 0.1676995 0.9675971 0.1676995 0.0324029 -0.1676995
2851000000 0.0319048 -0.1662721 0.9680952 0.1662721 0.9680952 0.1662721 0.0319048 -0.1662721
2872000000 0.0314174 -0.1648616 0.9685826 0.1648616 0.9685826 0.1648616 0.0314174 -0.1648616
2893000000 0.0309404 -0.1634676 0.9690596 0.1634676 0.9690596 0.1634676 0.0309404 -0.1634676
2914000000 0.0304736 -0.1620898 0.9695264 0.1620898 0.9695264 0.1620898 0.0304736 -0.1620898
2935000000 0.0300166 -0.1607280 0.9699834 0.1607280 0.9699834 0.1607280 0.0300166 -0.1607280
2956000000 0.0295692 -0.1593818 0.9704308 0.1593818 0.9704308 0.1593818 0.0295692 -0.1593818
2977000000 0.0291312 -0.1580510 0.9708688 0.1580510 0.9708688 0.1580510 0.0291312 -0.1580510
2998000000 0.0287022 -0.1567353 0.9712978 0.1567353 0.9712978 0.1567353 0.0287022 -0.1567353
3019000000 0.0282821 -0.1554343 0.9717179 0.1554343 0.9717179 0.1554343 0.0282821 -0.1554343
3040000000 0.0278706 -0.1541479 0.9721294 0.1541479 0.9721294 0.1541479 0.0278706 -0.1541479
3061000000 0.0274676 -0.1528758 0.9725324 0.1528758 0.9725324 0.1528758 0.0274676 -0.1528758
3082000000 0.0270727 -0.1516178 0.9729273 0.1516178 0.9729273 0.1516178 0.0270727 -0.1516178
3103000000 0.0266858 -0.1503735 0.9733142 0.1503735 0.9733142 0.1503735 0.0266858 -0.1503735
3124000000 0.0263066 -0.1491427 0.9736934 0.1491427 0.9736934 0.1491427 0.0263066 -0.1491427
3145000000 0.0259351 -0.1479252 0.9740649 0.1479252 0.9740649 0.1479252 0.0259351 -0.1479252
3166000000 0.0255709 -0.1467208 0.9744291 0.1467208 0.9744291 0.1467208 0.0255709 -0.1467208
3187000000 0.0252139 -0.1455293 0.9747861 0.1455293 0.9747861 0.1455293 0.0252139 -0.1455293
3208000000 0.0248639 -0.1443504 0.9751361 0.1443504 0.9751361 0.1443504 0.0248639 -0.1443504
3229000000 0.0245208 -0.1431838 0.9754792 0.1431838 0.9754792 0.1431838 0.0245208 -0.1431838
3250000000 0.0241844 -0.1420295 0.9758156 0.1420295 0.9758156 0.1420295 0.0241844 -0.1420295
3271000000 0.0238544 -0.1408871 0.9761456 0.1408871 0.9761456 0.1408871 0.0238544 -0.1408871
3292000000 0.0235309 -0.1397565 0.9764691 0.1397565 0.9764691 0.1397565 0.0235309 -0.1397565
3313000000 0.0232135 -0.1386375 0.9767865 0.1386375 0.9767865 0.1386375 0.0232135 -0.1386375
3334000000 0.0229022 -0.1375299 0.9770978 0.1375299 0.9770978 0.1375299 0.0229022 -0.1375299
3355000000 0.0225968 -0.1364335 0.9774032 0.1364335 0.9774032 0.1364335 0.0225968 -0.1364335
3376000000 0.0222972 -0.1353480 0.9777028 0.1353480 0.9777028 0.1353480 0.0222972 -0.1353480
3397000000 0.0220032 -0.1342734 0.9779968 0.1342734 0.9779968 0.1342734 0.0220032 -0.1342734
3418000000 0.0217148 -0.1332095 0.9782852 0.1332095 0.9782852 0.1332095 0.0217148 -0.1332095
3439000000 0.0214317 -0.1321560 0.9785683 0.1321560 0.9785683 0.1321560 0.0214317 -0.1321560
3460000000 0.0211538 -0.1311128 0.9788462 0.1311128 0.9788462 0.1311128 0.0211538 -0.1311128
3481000000 0.0208811 -0.1300797 0.9791189 0.1300797 0.9791189 0.1300797 0.0208811 -0.1300797
3502000000 0.0206134 -0.1290566 0.9793866 0.1290566 0.9793866 0.1290566 0.0206134 -0.1290566
3523000000 0.0203506 -0.1280433 0.9796494 0.1280433 0.9796494 0.1280433 0.0203506 -0.1280433
3544000000 0.0200926 -0.1270397 0.9799074 0.1270397 0.9799074 0.1270397 0.0200926 -0.1270397
3565000000 0.0198393 -0.1260455 0.9801607 0.1260455 0.9801607 0.1260455 0.0198393 -0.1260455
3586000000 0.0195905 -0.1250607 0.9804095 0.1250607 0.9804095 0.1250607 0.0195905 -0.1250607
3607000000 0.0193463 -0.1240851 0.9806537 0.1240851 0.9806537 0.1240851 0.0193463 -0.1240851
3628000000 0.0191064 -0.1231185 0.9808936 0.1231185 0.9808936 0.1231185 0.0191064 -0.1231185
3649000000 0.0188707 -0.1221608 0.9811293 0.1221608 0.9811293 0.1221608 0.0188707 -0.1221608
3670000000 0.0186393 -0.1212119 0.9813607 0.1212119 0.9813607 0.1212119 0.0186393 -0.1212119
3691000000 0.0184120 -0.1202717 0.9815880 0.1202717 0.9815880 0.1202717 0.0184120 -0.1202717
3712000000 0.0181887 -0.1193399 0.9818113 0.1193399 0.9818113 0.1193399 0.0181887 -0.1193399
3733000000 0.0179693 -0.1184165 0.9820307 0.1184165 0.9820307 0.1184165 0.0179693 -0.1184165
3754000000 0.0177537 -0.1175013 0.9822463 0.1175013 0.9822463 0.1175013 0.0177537 -0.1175013
3775000000 0.0175419 -0.1165943 0.9824581 0.1165943 0.9824581 0.1165943 0.0175419 -0.1165943
3796000000 0.0173338 -0.1156952 0.9826662 0.1156952 0.9826662 0.1156952 0.0173338 -0.1156952
3817000000 0.0171293 -0.1148040 0.9828707 0.1148040 0.9828707 0.1148040 0.0171293 -0.1148040
3838000000 0.0169283 -0.1139206 0.9830717 0.1139206 0.9830717 0.1139206 0.0169283 -0.1139206
3859000000 0.0167308 -0.1130448 0.9832692 0.1130448 0.9832692 0.1130448 0.0167308 -0.1130448
3880000000 0.0165366 -0.1121765 0.9834634 0.1121765 0.9834634 0.1121765 0.0165366 -0.1121765
3901000000 0.0163458 -0.1113156 0.9836542 0.1113156 0.9836542 0.1113156 0.0163458 -0.1113156
3922000000 0.0161582 -0.1104620 0.9838418 0.1104620 0.9838418 0.1104620 0.0161582 -0.1104620
3943000000 0.0159737 -0.1096156 0.9840263 0.1096156 0.9840263 0.1096156 0.0159737 -0.1096156
3964000000 0.0157924 -0.1087763 0.9842076 0.1087763 0.9842076 0.1087763 0.0157924 -0.1087763
3985000000 0.0156142 -0.1079439 0.9843858 0.1079439 0.9843858 0.1079439 0.0156142 -0.1079439
4006000000 0.0154389 -0.1071184 0.9845611 0.1071184 0.9845611 0.1071184 0.0154389 -0.1071184
4027000000 0.0152666 -0.1062998 0.9847334 0.1062998 0.9847334 0.1062998 0.0152666 -0.1062998
4048000000 0.0150972 -0.1054878 0.9849028 0.1054878 0.9849028 0.1054878 0.0150972 -0.1054878
4069000000 0.0149305 -0.1046823 0.9850695 0.1046823 0.9850695 0.1046823 0.0149305 -0.1046823
4090000000 0.0147667 -0.1038834 0.9852333 0.1038834 0.9852333 0.1038834 0.0147667 -0.1038834
4111000000 0.0146055 -0.1030909 0.9853945 0.1030909 0.9853945 0.1030909 0.0146055 -0.1030909
4132000000 0.0144470 -0.1023047 0.9855530 0.1023047 0.9855530 0.1023047 0.0144470 -0.1023047
4153000000 0.0142911 -0.1015247 0.9857089 0.1015247 0.9857089 0.1015247 0.0142911 -0.1015247
4174000000 0.0141378 -0.1007508 0.9858622 0.1007508 0.9858622 0.1007508 0.0141378 -0.1007508
4195000000 0.0139870 -0.0999830 0.9860130 0.0999830 0.9860130 0.0999830 0.0139870 -0.0999830
4216000000 0.0138386 -0.0992211 0.9861614 0.0992211 0.9861614 0.0992211 0.0138386 -0.0992211
4237000000 0.0136927 -0.0984651 0.9863073 0.0984651 0.9863073 0.0984651 0.0136927 -0.0984651
4258000000 0.0135491 -0.0977150 0.9864509 0.0977150 0.9864509 0.0977150 0.0135491 -0.0977150
4279000000 0.0134079 -0.0969705 0.9865921 0.0969705 0.9865921 0.0969705 0.0134079 -0.0969705
4300000000 0.0132689 -0.0962317 0.9867311 0.0962317 0.9867311 0.0962317 0.0132689 -0.0962317
4321000000 0.0131322 -0.0954984 0.9868678 0.0954984 0.9868678 0.0954984 0.0131322 -0.0954984
4342000000 0.0129977 -0.0947706 0.9870023 0.0947706 0.9870023 0.0947706 0.0129977 -0.0947706
4363000000 0.0128653 -0.0940483 0.9871347 0.0940483 0.9871347 0.0940483 0.0128653 -0.0940483
4384000000 0.0127351 -0.0933313 0.9872649 0.0933313 0.9872649 0.0933313 0.0127351 -0.0933313
4405000000 0.0126069 -0.0926195 0.9873931 0.0926195 0.9873931 0.0926195 0.0126069 -0.0926195
4426000000 0.0124808 -0.0919130 0.9875192 0.0919130 0.9875192 0.0919130 0.0124808 -0.0919130
4447000000 0.0123567 -0.0912115 0.9876433 0.0912115 0.9876433 0.0912115 0.0123567 -0.0912115
4468000000 0.0122346 -0.0905152 0.9877654 0.0905152 0.9877654 0.0905152 0.0122346 -0.0905152
4489000000 0.0121144 -0.0898238 0.9878856 0.0898238 0.9878856 0.0898238 0.0121144 -0.0898238
4510000000 0.0119962 -0.0891374 0.9880038 0.0891374 0.9880038 0.0891374 0.0119962 -0.0891374
