!Murata Part Number: GRM0115C1E1R2CE11
!These Parameters are Measured in Series Mode Connection
!Data Generated on Mar 30, 2021
!       o--ll--o
!Port1            Port2
!       o------o
!Operation Temp=25[degC], DC Bias Voltage=0[V]
!Freq. Start=100[MHz] Stop=20[GHz] 401[Steps]
# Hz S RI R 50
!Freq.(Hz) S11(Real) S11(Imag) S21(Real) S21(Imag) S12(Real) S12(Imag) S22(Real) S22(Imag)
100000000 0.9943270 -0.0749757 0.0056730 0.0749757 0.0056730 0.0749757 0.9943270 -0.0749757
149750000 0.9873649 -0.1114996 0.0126351 0.1114996 0.0126351 0.1114996 0.9873649 -0.1114996
199500000 0.9777864 -0.1471189 0.0222136 0.1471189 0.0222136 0.1471189 0.9777864 -0.1471189
249250000 0.9657408 -0.1815703 0.0342592 0.1815703 0.0342592 0.1815703 0.9657408 -0.1815703
299000000 0.9514100 -0.2146200 0.0485900 0.2146200 0.0485900 0.2146200 0.9514100 -0.2146200
348750000 0.9350016 -0.2460680 0.0649984 0.2460680 0.0649984 0.2460680 0.9350016 -0.2460680
398500000 0.9167421 -0.2757503 0.0832579 0.2757503 0.0832579 0.2757503 0.9167421 -0.2757503
448250000 0.8968699 -0.3035406 0.1031301 0.3035406 0.1031301 0.3035406 0.8968699 -0.3035406
498000000 0.8756281 -0.3293498 0.1243719 0.3293498 0.1243719 0.3293498 0.8756281 -0.3293498
547750000 0.8532589 -0.3531240 0.1467411 0.3531240 0.1467411 0.3531240 0.8532589 -0.3531240
597500000 0.8299974 -0.3748426 0.1700026 0.3748426 0.1700026 0.3748426 0.8299974 -0.3748426
647250000 0.8060681 -0.3945141 0.1939319 0.3945141 0.1939319 0.3945141 0.8060681 -0.3945141
697000000 0.7816804 -0.4121729 0.2183196 0.4121729 0.2183196 0.4121729 0.7816804 -0.4121729
746750000 0.7570270 -0.4278750 0.2429730 0.4278750 0.2429730 0.4278750 0.7570270 -0.4278750
796500000 0.7322819 -0.4416935 0.2677181 0.4416935 0.2677181 0.4416935 0.7322819 -0.4416935
846250000 0.7075995 -0.4537156 0.2924005 0.4537156 0.2924005 0.4537156 0.7075995 -0.4537156
896000000 0.6831150 -0.4640380 0.3168850 0.4640380 0.3168850 0.4640380 0.6831150 -0.4640380
945750000 0.6589444 -0.4727642 0.3410556 0.4727642 0.3410556 0.4727642 0.6589444 -0.4727642
995500000 0.6351857 -0.4800014 0.3648143 0.4800014 0.3648143 0.4800014 0.6351857 -0.4800014
1045250000 0.6119199 -0.4858582 0.3880801 0.4858582 0.3880801 0.4858582 0.6119199 -0.4858582
1095000000 0.5892125 -0.4904426 0.4107875 0.4904426 0.4107875 0.4904426 0.5892125 -0.4904426
1144750000 0.5671151 -0.4938602 0.4328849 0.4938602 0.4328849 0.4938602 0.5671151 -0.4938602
1194500000 0.5456664 -0.4962132 0.4543336 0.4962132 0.4543336 0.4962132 0.5456664 -0.4962132
1244250000 0.5248943 -0.4975992 0.4751057 0.4975992 0.4751057 0.4975992 0.5248943 -0.4975992
1294000000 0.5048173 -0.4981111 0.4951827 0.4981111 0.4951827 0.4981111 0.5048173 -0.4981111
1343750000 0.4854454 -0.4978358 0.5145546 0.4978358 0.5145546 0.4978358 0.4854454 -0.4978358
1393500000 0.4667817 -0.4968548 0.5332183 0.4968548 0.5332183 0.4968548 0.4667817 -0.4968548
1443250000 0.4488236 -0.4952438 0.5511764 0.4952438 0.5511764 0.4952438 0.4488236 -0.4952438
1493000000 0.4315636 -0.4930725 0.5684364 0.4930725 0.5684364 0.4930725 0.4315636 -0.4930725
1542750000 0.4149901 -0.4904054 0.5850099 0.4904054 0.5850099 0.4904054 0.4149901 -0.4904054
1592500000 0.3990887 -0.4873013 0.6009113 0.4873013 0.6009113 0.4873013 0.3990887 -0.4873013
1642250000 0.3838423 -0.4838138 0.6161577 0.4838138 0.6161577 0.4838138 0.3838423 -0.4838138
1692000000 0.3692321 -0.4799921 0.6307679 0.4799921 0.6307679 0.4799921 0.3692321 -0.4799921
1741750000 0.3552379 -0.4758803 0.6447621 0.4758803 0.6447621 0.4758803 0.3552379 -0.4758803
1791500000 0.3418386 -0.4715186 0.6581614 0.4715186 0.6581614 0.4715186 0.3418386 -0.4715186
1841250000 0.3290124 -0.4669433 0.6709876 0.4669433 0.6709876 0.4669433 0.3290124 -0.4669433
1891000000 0.3167373 -0.4621870 0.6832627 0.4621870 0.6832627 0.4621870 0.3167373 -0.4621870
1940750000 0.3049912 -0.4572789 0.6950088 0.4572789 0.6950088 0.4572789 0.3049912 -0.4572789
1990500000 0.2937524 -0.4522453 0.7062476 0.4522453 0.7062476 0.4522453 0.2937524 -0.4522453
2040250000 0.2829992 -0.4471096 0.7170008 0.4471096 0.7170008 0.4471096 0.2829992 -0.4471096
2090000000 0.2727104 -0.4418930 0.7272896 0.4418930 0.7272896 0.4418930 0.2727104 -0.4418930
2139750000 0.2628654 -0.4366140 0.7371346 0.4366140 0.7371346 0.4366140 0.2628654 -0.4366140
2189500000 0.2534442 -0.4312893 0.7465558 0.4312893 0.7465558 0.4312893 0.2534442 -0.4312893
2239250000 0.2444275 -0.4259336 0.7555725 0.4259336 0.7555725 0.4259336 0.2444275 -0.4259336
2289000000 0.2357966 -0.4205600 0.7642034 0.4205600 0.7642034 0.4205600 0.2357966 -0.4205600
2338750000 0.2275334 -0.4151800 0.7724666 0.4151800 0.7724666 0.4151800 0.2275334 -0.4151800
2388500000 0.2196209 -0.4098038 0.7803791 0.4098038 0.7803791 0.4098038 0.2196209 -0.4098038
2438250000 0.2120424 -0.4044404 0.7879576 0.4044404 0.7879576 0.4044404 0.2120424 -0.4044404
2488000000 0.2047821 -0.3990975 0.7952179 0.3990975 0.7952179 0.3990975 0.2047821 -0.3990975
2537750000 0.1978251 -0.3937821 0.8021749 0.3937821 0.8021749 0.3937821 0.1978251 -0.3937821
2587500000 0.1911568 -0.3885000 0.8088432 0.3885000 0.8088432 0.3885000 0.1911568 -0.3885000
2637250000 0.1847636 -0.3832564 0.8152364 0.3832564 0.8152364 0.3832564 0.1847636 -0.3832564
2687000000 0.1786325 -0.3780558 0.8213675 0.3780558 0.8213675 0.3780558 0.1786325 -0.3780558
2736750000 0.1727510 -0.3729019 0.8272490 0.3729019 0.8272490 0.3729019 0.1727510 -0.3729019
2786500000 0.1671074 -0.3677981 0.8328926 0.3677981 0.8328926 0.3677981 0.1671074 -0.3677981
2836250000 0.1616903 -0.3627469 0.8383097 0.3627469 0.8383097 0.3627469 0.1616903 -0.3627469
2886000000 0.1564892 -0.3577508 0.8435108 0.3577508 0.8435108 0.3577508 0.1564892 -0.3577508
2935750000 0.1514940 -0.3528116 0.8485060 0.3528116 0.8485060 0.3528116 0.1514940 -0.3528116
2985500000 0.1466950 -0.3479308 0.8533050 0.3479308 0.8533050 0.3479308 0.1466950 -0.3479308
3035250000 0.1420832 -0.3431096 0.8579168 0.3431096 0.8579168 0.3431096 0.1420832 -0.3431096
3085000000 0.1376498 -0.3383489 0.8623502 0.3383489 0.8623502 0.3383489 0.1376498 -0.3383489
3134750000 0.1333867 -0.3336494 0.8666133 0.3336494 0.8666133 0.3336494 0.1333867 -0.3336494
3184500000 0.1292861 -0.3290116 0.8707139 0.3290116 0.8707139 0.3290116 0.1292861 -0.3290116
3234250000 0.1253406 -0.3244357 0.8746594 0.3244357 0.8746594 0.3244357 0.1253406 -0.3244357
3284000000 0.1215431 -0.3199218 0.8784569 0.3199218 0.8784569 0.3199218 0.1215431 -0.3199218
3333750000 0.1178871 -0.3154699 0.8821129 0.3154699 0.8821129 0.3154699 0.1178871 -0.3154699
3383500000 0.1143662 -0.3110797 0.8856338 0.3110797 0.8856338 0.3110797 0.1143662 -0.3110797
3433250000 0.1109745 -0.3067509 0.8890255 0.3067509 0.8890255 0.3067509 0.1109745 -0.3067509
3483000000 0.1077061 -0.3024831 0.8922939 0.3024831 0.8922939 0.3024831 0.1077061 -0.3024831
3532750000 0.1045558 -0.2982759 0.8954442 0.2982759 0.8954442 0.2982759 0.1045558 -0.2982759
3582500000 0.1015183 -0.2941286 0.8984817 0.2941286 0.8984817 0.2941286 0.1015183 -0.2941286
3632250000 0.0985889 -0.2900406 0.9014111 0.2900406 0.9014111 0.2900406 0.0985889 -0.2900406
3682000000 0.0957628 -0.2860112 0.9042372 0.2860112 0.9042372 0.2860112 0.0957628 -0.2860112
3731750000 0.0930358 -0.2820397 0.9069642 0.2820397 0.9069642 0.2820397 0.0930358 -0.2820397
3781500000 0.0904035 -0.2781252 0.9095965 0.2781252 0.9095965 0.2781252 0.0904035 -0.2781252
3831250000 0.0878620 -0.2742671 0.9121380 0.2742671 0.9121380 0.2742671 0.0878620 -0.2742671
3881000000 0.0854076 -0.2704644 0.9145924 0.2704644 0.9145924 0.2704644 0.0854076 -0.2704644
3930750000 0.0830366 -0.2667163 0.9169634 0.2667163 0.9169634 0.2667163 0.0830366 -0.2667163
3980500000 0.0807456 -0.2630218 0.9192544 0.2630218 0.9192544 0.2630218 0.0807456 -0.2630218
4030250000 0.0785314 -0.2593802 0.9214686 0.2593802 0.9214686 0.2593802 0.0785314 -0.2593802
4080000000 0.0763908 -0.2557905 0.9236092 0.2557905 0.9236092 0.2557905 0.0763908 -0.2557905
4129750000 0.0743209 -0.2522518 0.9256791 0.2522518 0.9256791 0.2522518 0.0743209 -0.2522518
4179500000 0.0723189 -0.2487633 0.9276811 0.2487633 0.9276811 0.2487633 0.0723189 -0.2487633
4229250000 0.0703821 -0.2453239 0.9296179 0.2453239 0.9296179 0.2453239 0.0703821 -0.2453239
4279000000 0.0685079 -0.2419328 0.9314921 0.2419328 0.9314921 0.2419328 0.0685079 -0.2419328
4328750000 0.0666940 -0.2385891 0.9333060 0.2385891 0.9333060 0.2385891 0.0666940 -0.2385891
4378500000 0.0649379 -0.2352919 0.9350621 0.2352919 0.9350621 0.2352919 0.0649379 -0.2352919
4428250000 0.0632375 -0.2320403 0.9367625 0.2320403 0.9367625 0.2320403 0.0632375 -0.2320403
4478000000 0.0615906 -0.2288334 0.9384094 0.2288334 0.9384094 0.2288334 0.0615906 -0.2288334
4527750000 0.0599953 -0.2256704 0.9400047 0.2256704 0.9400047 0.2256704 0.0599953 -0.2256704
4577500000 0.0584495 -0.2225505 0.9415505 0.2225505 0.9415505 0.2225505 0.0584495 -0.2225505
4627250000 0.0569515 -0.2194726 0.9430485 0.2194726 0.9430485 0.2194726 0.0569515 -0.2194726
4677000000 0.0554995 -0.2164362 0.9445005 0.2164362 0.9445005 0.2164362 0.0554995 -0.2164362
4726750000 0.0540918 -0.2134402 0.9459082 0.2134402 0.9459082 0.2134402 0.0540918 -0.2134402
4776500000 0.0527268 -0.2104839 0.9472732 0.2104839 0.9472732 0.2104839 0.0527268 -0.2104839
4826250000 0.0514030 -0.2075665 0.9485970 0.2075665 0.9485970 0.2075665 0.0514030 -0.2075665
4876000000 0.0501189 -0.2046872 0.9498811 0.2046872 0.9498811 0.2046872 0.0501189 -0.2046872
4925750000 0.0488731 -0.2018453 0.9511269 0.2018453 0.9511269 0.2018453 0.0488731 -0.2018453
4975500000 0.0476642 -0.1990399 0.9523358 0.1990399 0.9523358 0.1990399 0.0476642 -0.1990399
5025250000 0.0464909 -0.1962705 0.9535091 0.1962705 0.9535091 0.1962705 0.0464909 -0.1962705
5075000000 0.0453521 -0.1935361 0.9546479 0.1935361 0.9546479 0.1935361 0.0453521 -0.1935361
5124750000 0.0442465 -0.1908362 0.9557535 0.1908362 0.9557535 0.1908362 0.0442465 -0.1908362
5174500000 0.0431730 -0.1881700 0.9568270 0.1881700 0.9568270 0.1881700 0.0431730 -0.1881700
5224250000 0.0421305 -0.1855369 0.9578695 0.1855369 0.9578695 0.1855369 0.0421305 -0.1855369
5274000000 0.0411180 -0.1829361 0.9588820 0.1829361 0.9588820 0.1829361 0.0411180 -0.1829361
5323750000 0.0401345 -0.1803671 0.9598655 0.1803671 0.9598655 0.1803671 0.0401345 -0.1803671
5373500000 0.0391789 -0.1778292 0.9608211 0.1778292 0.9608211 0.1778292 0.0391789 -0.1778292
5423250000 0.0382505 -0.1753217 0.9617495 0.1753217 0.9617495 0.1753217 0.0382505 -0.1753217
5473000000 0.0373483 -0.1728440 0.9626517 0.1728440 0.9626517 0.1728440 0.0373483 -0.1728440
5522750000 0.0364714 -0.1703956 0.9635286 0.1703956 0.9635286 0.1703956 0.0364714 -0.1703956
5572500000 0.0356191 -0.1679759 0.9643809 0.1679759 0.9643809 0.1679759 0.0356191 -0.1679759
5622250000 0.0347905 -0.1655842 0.9652095 0.1655842 0.9652095 0.1655842 0.0347905 -0.1655842
5672000000 0.0339850 -0.1632201 0.9660150 0.1632201 0.9660150 0.1632201 0.0339850 -0.1632201
5721750000 0.0332018 -0.1608830 0.9667982 0.1608830 0.9667982 0.1608830 0.0332018 -0.1608830
5771500000 0.0324401 -0.1585723 0.9675599 0.1585723 0.9675599 0.1585723 0.0324401 -0.1585723
5821250000 0.0316994 -0.1562875 0.9683006 0.1562875 0.9683006 0.1562875 0.0316994 -0.1562875
5871000000 0.0309790 -0.1540281 0.9690210 0.1540281 0.9690210 0.1540281 0.0309790 -0.1540281
5920750000 0.0302783 -0.1517937 0.9697217 0.1517937 0.9697217 0.1517937 0.0302783 -0.1517937
5970500000 0.0295967 -0.1495836 0.9704033 0.1495836 0.9704033 0.1495836 0.0295967 -0.1495836
6020250000 0.0289335 -0.1473976 0.9710665 0.1473976 0.9710665 0.1473976 0.0289335 -0.1473976
6070000000 0.0282884 -0.1452350 0.9717116 0.1452350 0.9717116 0.1452350 0.0282884 -0.1452350
6119750000 0.0276606 -0.1430954 0.9723394 0.1430954 0.9723394 0.1430954 0.0276606 -0.1430954
6169500000 0.0270498 -0.1409784 0.9729502 0.1409784 0.9729502 0.1409784 0.0270498 -0.1409784
6219250000 0.0264554 -0.1388835 0.9735446 0.1388835 0.9735446 0.1388835 0.0264554 -0.1388835
6269000000 0.0258770 -0.1368104 0.9741230 0.1368104 0.9741230 0.1368104 0.0258770 -0.1368104
6318750000 0.0253140 -0.1347586 0.9746860 0.1347586 0.9746860 0.1347586 0.0253140 -0.1347586
6368500000 0.0247662 -0.1327276 0.9752338 0.1327276 0.9752338 0.1327276 0.0247662 -0.1327276
6418250000 0.0242329 -0.1307172 0.9757671 0.1307172 0.9757671 0.1307172 0.0242329 -0.1307172
6468000000 0.0237139 -0.1287269 0.9762861 0.1287269 0.9762861 0.1287269 0.0237139 -0.1287269
6517750000 0.0232087 -0.1267563 0.9767913 0.1267563 0.9767913 0.1267563 0.0232087 -0.1267563
6567500000 0.0227170 -0.1248051 0.9772830 0.1248051 0.9772830 0.1248051 0.0227170 -0.1248051
6617250000 0.0222383 -0.1228729 0.9777617 0.1228729 0.9777617 0.1228729 0.0222383 -0.1228729
6667000000 0.0217723 -0.1209593 0.9782277 0.1209593 0.9782277 0.1209593 0.0217723 -0.1209593
6716750000 0.0213188 -0.1190640 0.9786812 0.1190640 0.9786812 0.1190640 0.0213188 -0.1190640
6766500000 0.0208773 -0.1171868 0.9791227 0.1171868 0.9791227 0.1171868 0.0208773 -0.1171868
6816250000 0.0204475 -0.1153271 0.9795525 0.1153271 0.9795525 0.1153271 0.0204475 -0.1153271
6866000000 0.0200292 -0.1134848 0.9799708 0.1134848 0.9799708 0.1134848 0.0200292 -0.1134848
6915750000 0.0196219 -0.1116595 0.9803781 0.1116595 0.9803781 0.1116595 0.0196219 -0.1116595
6965500000 0.0192255 -0.1098508 0.9807745 0.1098508 0.9807745 0.1098508 0.0192255 -0.1098508
7015250000 0.0188397 -0.1080586 0.9811603 0.1080586 0.9811603 0.1080586 0.0188397 -0.1080586
7065000000 0.0184642 -0.1062825 0.9815358 0.1062825 0.9815358 0.1062825 0.0184642 -0.1062825
7114750000 0.0180986 -0.1045221 0.9819014 0.1045221 0.9819014 0.1045221 0.0180986 -0.1045221
7164500000 0.0177429 -0.1027773 0.9822571 0.1027773 0.9822571 0.1027773 0.0177429 -0.1027773
7214250000 0.0173967 -0.1010478 0.9826033 0.1010478 0.9826033 0.1010478 0.0173967 -0.1010478
7264000000 0.0170598 -0.0993332 0.9829402 0.0993332 0.9829402 0.0993332 0.0170598 -0.0993332
7313750000 0.0167319 -0.0976334 0.9832681 0.0976334 0.9832681 0.0976334 0.0167319 -0.0976334
7363500000 0.0164129 -0.0959481 0.9835871 0.0959481 0.9835871 0.0959481 0.0164129 -0.0959481
7413250000 0.0161025 -0.0942769 0.9838975 0.0942769 0.9838975 0.0942769 0.0161025 -0.0942769
7463000000 0.0158005 -0.0926197 0.9841995 0.0926197 0.9841995 0.0926197 0.0158005 -0.0926197
7512750000 0.0155068 -0.0909763 0.9844932 0.0909763 0.9844932 0.0909763 0.0155068 -0.0909763
7562500000 0.0152211 -0.0893463 0.9847789 0.0893463 0.9847789 0.0893463 0.0152211 -0.0893463
7612250000 0.0149432 -0.0877297 0.9850568 0.0877297 0.9850568 0.0877297 0.0149432 -0.0877297
7662000000 0.0146729 -0.0861260 0.9853271 0.0861260 0.9853271 0.0861260 0.0146729 -0.0861260
7711750000 0.0144102 -0.0845352 0.9855898 0.0845352 0.9855898 0.0845352 0.0144102 -0.0845352
7761500000 0.0141547 -0.0829570 0.9858453 0.0829570 0.9858453 0.0829570 0.0141547 -0.0829570
7811250000 0.0139064 -0.0813911 0.9860936 0.0813911 0.9860936 0.0813911 0.0139064 -0.0813911
7861000000 0.0136651 -0.0798375 0.9863349 0.0798375 0.9863349 0.0798375 0.0136651 -0.0798375
7910750000 0.0134306 -0.0782958 0.9865694 0.0782958 0.9865694 0.0782958 0.0134306 -0.0782958
7960500000 0.0132027 -0.0767659 0.9867973 0.0767659 0.9867973 0.0767659 0.0132027 -0.0767659
8010250000 0.0129814 -0.0752477 0.9870186 0.0752477 0.9870186 0.0752477 0.0129814 -0.0752477
8060000000 0.0127665 -0.0737408 0.9872335 0.0737408 0.9872335 0.0737408 0.0127665 -0.0737408
8109750000 0.0125578 -0.0722451 0.9874422 0.0722451 0.9874422 0.0722451 0.0125578 -0.0722451
8159500000 0.0123552 -0.0707605 0.9876448 0.0707605 0.9876448 0.0707605 0.0123552 -0.0707605
8209250000 0.0121586 -0.0692868 0.9878414 0.0692868 0.9878414 0.0692868 0.0121586 -0.0692868
8259000000 0.0119678 -0.0678237 0.9880322 0.0678237 0.9880322 0.0678237 0.0119678 -0.0678237
8308750000 0.0117827 -0.0663711 0.9882173 0.0663711 0.9882173 0.0663711 0.0117827 -0.0663711
8358500000 0.0116033 -0.0649289 0.9883967 0.0649289 0.9883967 0.0649289 0.0116033 -0.0649289
8408250000 0.0114293 -0.0634969 0.9885707 0.0634969 0.9885707 0.0634969 0.0114293 -0.0634969
8458000000 0.0112607 -0.0620749 0.9887393 0.0620749 0.9887393 0.0620749 0.0112607 -0.0620749
8507750000 0.0110974 -0.0606627 0.9889026 0.0606627 0.9889026 0.0606627 0.0110974 -0.0606627
8557500000 0.0109392 -0.0592603 0.9890608 0.0592603 0.9890608 0.0592603 0.0109392 -0.0592603
8607250000 0.0107861 -0.0578675 0.9892139 0.0578675 0.9892139 0.0578675 0.0107861 -0.0578675
8657000000 0.0106379 -0.0564840 0.9893621 0.0564840 0.9893621 0.0564840 0.0106379 -0.0564840
8706750000 0.0104946 -0.0551099 0.9895054 0.0551099 0.9895054 0.0551099 0.0104946 -0.0551099
8756500000 0.0103561 -0.0537448 0.9896439 0.0537448 0.9896439 0.0537448 0.0103561 -0.0537448
8806250000 0.0102222 -0.0523888 0.9897778 0.0523888 0.9897778 0.0523888 0.0102222 -0.0523888
8856000000 0.0100929 -0.0510416 0.9899071 0.0510416 0.9899071 0.0510416 0.0100929 -0.0510416
8905750000 0.0099680 -0.0497031 0.9900320 0.0497031 0.9900320 0.0497031 0.0099680 -0.0497031
8955500000 0.0098476 -0.0483733 0.9901524 0.0483733 0.9901524 0.0483733 0.0098476 -0.0483733
9005250000 0.0097315 -0.0470518 0.9902685 0.0470518 0.9902685 0.0470518 0.0097315 -0.0470518
9055000000 0.0096196 -0.0457388 0.9903804 0.0457388 0.9903804 0.0457388 0.0096196 -0.0457388
9104750000 0.0095119 -0.0444339 0.9904881 0.0444339 0.9904881 0.0444339 0.0095119 -0.0444339
9154500000 0.0094083 -0.0431372 0.9905917 0.0431372 0.9905917 0.0431372 0.0094083 -0.0431372
9204250000 0.0093087 -0.0418484 0.9906913 0.0418484 0.9906913 0.0418484 0.0093087 -0.0418484
9254000000 0.0092130 -0.0405675 0.9907870 0.0405675 0.9907870 0.0405675 0.0092130 -0.0405675
9303750000 0.0091212 -0.0392943 0.9908788 0.0392943 0.9908788 0.0392943 0.0091212 -0.0392943
9353500000 0.0090332 -0.0380287 0.9909668 0.0380287 0.9909668 0.0380287 0.0090332 -0.0380287
9403250000 0.0089489 -0.0367707 0.9910511 0.0367707 0.9910511 0.0367707 0.0089489 -0.0367707
9453000000 0.0088682 -0.0355201 0.9911318 0.0355201 0.9911318 0.0355201 0.0088682 -0.0355201
9502750000 0.0087912 -0.0342768 0.9912088 0.0342768 0.9912088 0.0342768 0.0087912 -0.0342768
9552500000 0.0087177 -0.0330408 0.9912823 0.0330408 0.9912823 0.0330408 0.0087177 -0.0330408
9602250000 0.0086477 -0.0318118 0.9913523 0.0318118 0.9913523 0.0318118 0.0086477 -0.0318118
9652000000 0.0085811 -0.0305899 0.9914189 0.0305899 0.9914189 0.0305899 0.0085811 -0.0305899
9701750000 0.0085178 -0.0293748 0.9914822 0.0293748 0.9914822 0.0293748 0.0085178 -0.0293748
9751500000 0.0084579 -0.0281666 0.9915421 0.0281666 0.9915421 0.0281666 0.0084579 -0.0281666
9801250000 0.0084012 -0.0269651 0.9915988 0.0269651 0.9915988 0.0269651 0.0084012 -0.0269651
9851000000 0.0083477 -0.0257702 0.9916523 0.0257702 0.9916523 0.0257702 0.0083477 -0.0257702
9900750000 0.0082973 -0.0245819 0.9917027 0.0245819 0.9917027 0.0245819 0.0082973 -0.0245819
9950500000 0.0082501 -0.0234000 0.9917499 0.0234000 0.9917499 0.0234000 0.0082501 -0.0234000
10000250000 0.0082059 -0.0222245 0.9917941 0.0222245 0.9917941 0.0222245 0.0082059 -0.0222245
10050000000 0.0081646 -0.0210552 0.9918354 0.0210552 0.9918354 0.0210552 0.0081646 -0.0210552
10099750000 0.0081263 -0.0198922 0.9918737 0.0198922 0.9918737 0.0198922 0.0081263 -0.0198922
10149500000 0.0080910 -0.0187352 0.9919090 0.0187352 0.9919090 0.0187352 0.0080910 -0.0187352
10199250000 0.0080584 -0.0175843 0.9919416 0.0175843 0.9919416 0.0175843 0.0080584 -0.0175843
10249000000 0.0080287 -0.0164393 0.9919713 0.0164393 0.9919713 0.0164393 0.0080287 -0.0164393
10298750000 0.0080018 -0.0153003 0.9919982 0.0153003 0.9919982 0.0153003 0.0080018 -0.0153003
10348500000 0.0079776 -0.0141670 0.9920224 0.0141670 0.9920224 0.0141670 0.0079776 -0.0141670
10398250000 0.0079561 -0.0130394 0.9920439 0.0130394 0.9920439 0.0130394 0.0079561 -0.0130394
10448000000 0.0079372 -0.0119175 0.9920628 0.0119175 0.9920628 0.0119175 0.0079372 -0.0119175
10497750000 0.0079209 -0.0108011 0.9920791 0.0108011 0.9920791 0.0108011 0.0079209 -0.0108011
