!Murata Part Number: GRM0115C1C8R0BE01
!These Parameters are Measured in Series Mode Connection
!Data Generated on Mar 30, 2021
!       o--ll--o
!Port1            Port2
!       o------o
!Operation Temp=25[degC], DC Bias Voltage=0[V]
!Freq. Start=100[MHz] Stop=9[GHz] 401[Steps]
# Hz S RI R 50
!Freq.(Hz) S11(Real) S11(Imag) S21(Real) S21(Imag) S12(Real) S12(Imag) S22(Real) S22(Imag)
100000000 0.7980208 -0.4011598 0.2019792 0.4011598 0.2019792 0.4011598 0.7980208 -0.4011598
121000000 0.7295832 -0.4437911 0.2704168 0.4437911 0.2704168 0.4437911 0.7295832 -0.4437911
142000000 0.6619898 -0.4725805 0.3380102 0.4725805 0.3380102 0.4725805 0.6619898 -0.4725805
163000000 0.5977322 -0.4898361 0.4022678 0.4898361 0.4022678 0.4898361 0.5977322 -0.4898361
184000000 0.5382527 -0.4979470 0.4617473 0.4979470 0.4617473 0.4979470 0.5382527 -0.4979470
205000000 0.4841998 -0.4990940 0.5158002 0.4990940 0.5158002 0.4990940 0.4841998 -0.4990940
226000000 0.4356845 -0.4951207 0.5643155 0.4951207 0.5643155 0.4951207 0.4356845 -0.4951207
247000000 0.3924884 -0.4875090 0.6075116 0.4875090 0.6075116 0.4875090 0.3924884 -0.4875090
268000000 0.3542150 -0.4774087 0.6457850 0.4774087 0.6457850 0.4774087 0.3542150 -0.4774087
289000000 0.3203898 -0.4656892 0.6796102 0.4656892 0.6796102 0.4656892 0.3203898 -0.4656892
310000000 0.2905223 -0.4529942 0.7094777 0.4529942 0.7094777 0.4529942 0.2905223 -0.4529942
331000000 0.2641413 -0.4397930 0.7358587 0.4397930 0.7358587 0.4397930 0.2641413 -0.4397930
352000000 0.2408128 -0.4264214 0.7591872 0.4264214 0.7591872 0.4264214 0.2408128 -0.4264214
373000000 0.2201474 -0.4131160 0.7798526 0.4131160 0.7798526 0.4131160 0.2201474 -0.4131160
394000000 0.2018018 -0.4000397 0.7981982 0.4000397 0.7981982 0.4000397 0.2018018 -0.4000397
415000000 0.1854761 -0.3873015 0.8145239 0.3873015 0.8145239 0.3873015 0.1854761 -0.3873015
436000000 0.1709103 -0.3749713 0.8290897 0.3749713 0.8290897 0.3749713 0.1709103 -0.3749713
457000000 0.1578799 -0.3630906 0.8421201 0.3630906 0.8421201 0.3630906 0.1578799 -0.3630906
478000000 0.1461916 -0.3516808 0.8538084 0.3516808 0.8538084 0.3516808 0.1461916 -0.3516808
499000000 0.1356786 -0.3407488 0.8643214 0.3407488 0.8643214 0.3407488 0.1356786 -0.3407488
520000000 0.1261976 -0.3302917 0.8738024 0.3302917 0.8738024 0.3302917 0.1261976 -0.3302917
541000000 0.1176247 -0.3202998 0.8823753 0.3202998 0.8823753 0.3202998 0.1176247 -0.3202998
562000000 0.1098531 -0.3107587 0.8901469 0.3107587 0.8901469 0.3107587 0.1098531 -0.3107587
583000000 0.1027905 -0.3016514 0.8972095 0.3016514 0.8972095 0.3016514 0.1027905 -0.3016514
604000000 0.0963567 -0.2929589 0.9036433 0.2929589 0.9036433 0.2929589 0.0963567 -0.2929589
625000000 0.0904821 -0.2846617 0.9095179 0.2846617 0.9095179 0.2846617 0.0904821 -0.2846617
646000000 0.0851060 -0.2767399 0.9148940 0.2767399 0.9148940 0.2767399 0.0851060 -0.2767399
667000000 0.0801756 -0.2691740 0.9198244 0.2691740 0.9198244 0.2691740 0.0801756 -0.2691740
688000000 0.0756444 -0.2619446 0.9243556 0.2619446 0.9243556 0.2619446 0.0756444 -0.2619446
709000000 0.0714720 -0.2550334 0.9285280 0.2550334 0.9285280 0.2550334 0.0714720 -0.2550334
730000000 0.0676224 -0.2484226 0.9323776 0.2484226 0.9323776 0.2484226 0.0676224 -0.2484226
751000000 0.0640641 -0.2420955 0.9359359 0.2420955 0.9359359 0.2420955 0.0640641 -0.2420955
772000000 0.0607694 -0.2360361 0.9392306 0.2360361 0.9392306 0.2360361 0.0607694 -0.2360361
793000000 0.0577135 -0.2302293 0.9422865 0.2302293 0.9422865 0.2302293 0.0577135 -0.2302293
814000000 0.0548744 -0.2246610 0.9451256 0.2246610 0.9451256 0.2246610 0.0548744 -0.2246610
835000000 0.0522326 -0.2193178 0.9477674 0.2193178 0.9477674 0.2193178 0.0522326 -0.2193178
856000000 0.0497708 -0.2141873 0.9502292 0.2141873 0.9502292 0.2141873 0.0497708 -0.2141873
877000000 0.0474732 -0.2092578 0.9525268 0.2092578 0.9525268 0.2092578 0.0474732 -0.2092578
898000000 0.0453261 -0.2045181 0.9546739 0.2045181 0.9546739 0.2045181 0.0453261 -0.2045181
919000000 0.0433168 -0.1999582 0.9566832 0.1999582 0.9566832 0.1999582 0.0433168 -0.1999582
940000000 0.0414341 -0.1955682 0.9585659 0.1955682 0.9585659 0.1955682 0.0414341 -0.1955682
961000000 0.0396678 -0.1913392 0.9603322 0.1913392 0.9603322 0.1913392 0.0396678 -0.1913392
982000000 0.0380087 -0.1872628 0.9619913 0.1872628 0.9619913 0.1872628 0.0380087 -0.1872628
1003000000 0.0364485 -0.1833310 0.9635515 0.1833310 0.9635515 0.1833310 0.0364485 -0.1833310
1024000000 0.0349798 -0.1795364 0.9650202 0.1795364 0.9650202 0.1795364 0.0349798 -0.1795364
1045000000 0.0335956 -0.1758720 0.9664044 0.1758720 0.9664044 0.1758720 0.0335956 -0.1758720
1066000000 0.0322898 -0.1723314 0.9677102 0.1723314 0.9677102 0.1723314 0.0322898 -0.1723314
1087000000 0.0310567 -0.1689084 0.9689433 0.1689084 0.9689433 0.1689084 0.0310567 -0.1689084
1108000000 0.0298911 -0.1655972 0.9701089 0.1655972 0.9701089 0.1655972 0.0298911 -0.1655972
1129000000 0.0287884 -0.1623924 0.9712116 0.1623924 0.9712116 0.1623924 0.0287884 -0.1623924
1150000000 0.0277441 -0.1592891 0.9722559 0.1592891 0.9722559 0.1592891 0.0277441 -0.1592891
1171000000 0.0267544 -0.1562823 0.9732456 0.1562823 0.9732456 0.1562823 0.0267544 -0.1562823
1192000000 0.0258156 -0.1533677 0.9741844 0.1533677 0.9741844 0.1533677 0.0258156 -0.1533677
1213000000 0.0249244 -0.1505410 0.9750756 0.1505410 0.9750756 0.1505410 0.0249244 -0.1505410
1234000000 0.0240777 -0.1477982 0.9759223 0.1477982 0.9759223 0.1477982 0.0240777 -0.1477982
1255000000 0.0232726 -0.1451355 0.9767274 0.1451355 0.9767274 0.1451355 0.0232726 -0.1451355
1276000000 0.0225067 -0.1425495 0.9774933 0.1425495 0.9774933 0.1425495 0.0225067 -0.1425495
1297000000 0.0217773 -0.1400367 0.9782227 0.1400367 0.9782227 0.1400367 0.0217773 -0.1400367
1318000000 0.0210824 -0.1375941 0.9789176 0.1375941 0.9789176 0.1375941 0.0210824 -0.1375941
1339000000 0.0204198 -0.1352186 0.9795802 0.1352186 0.9795802 0.1352186 0.0204198 -0.1352186
1360000000 0.0197877 -0.1329074 0.9802123 0.1329074 0.9802123 0.1329074 0.0197877 -0.1329074
1381000000 0.0191843 -0.1306578 0.9808157 0.1306578 0.9808157 0.1306578 0.0191843 -0.1306578
1402000000 0.0186079 -0.1284674 0.9813921 0.1284674 0.9813921 0.1284674 0.0186079 -0.1284674
1423000000 0.0180569 -0.1263336 0.9819431 0.1263336 0.9819431 0.1263336 0.0180569 -0.1263336
1444000000 0.0175300 -0.1242543 0.9824700 0.1242543 0.9824700 0.1242543 0.0175300 -0.1242543
1465000000 0.0170259 -0.1222273 0.9829741 0.1222273 0.9829741 0.1222273 0.0170259 -0.1222273
1486000000 0.0165432 -0.1202506 0.9834568 0.1202506 0.9834568 0.1202506 0.0165432 -0.1202506
1507000000 0.0160809 -0.1183221 0.9839191 0.1183221 0.9839191 0.1183221 0.0160809 -0.1183221
1528000000 0.0156379 -0.1164401 0.9843621 0.1164401 0.9843621 0.1164401 0.0156379 -0.1164401
1549000000 0.0152131 -0.1146028 0.9847869 0.1146028 0.9847869 0.1146028 0.0152131 -0.1146028
1570000000 0.0148055 -0.1128085 0.9851945 0.1128085 0.9851945 0.1128085 0.0148055 -0.1128085
1591000000 0.0144145 -0.1110557 0.9855855 0.1110557 0.9855855 0.1110557 0.0144145 -0.1110557
1612000000 0.0140389 -0.1093428 0.9859611 0.1093428 0.9859611 0.1093428 0.0140389 -0.1093428
1633000000 0.0136782 -0.1076683 0.9863218 0.1076683 0.9863218 0.1076683 0.0136782 -0.1076683
1654000000 0.0133316 -0.1060310 0.9866684 0.1060310 0.9866684 0.1060310 0.0133316 -0.1060310
1675000000 0.0129984 -0.1044295 0.9870016 0.1044295 0.9870016 0.1044295 0.0129984 -0.1044295
1696000000 0.0126779 -0.1028626 0.9873221 0.1028626 0.9873221 0.1028626 0.0126779 -0.1028626
1717000000 0.0123695 -0.1013290 0.9876305 0.1013290 0.9876305 0.1013290 0.0123695 -0.1013290
1738000000 0.0120727 -0.0998276 0.9879273 0.0998276 0.9879273 0.0998276 0.0120727 -0.0998276
1759000000 0.0117869 -0.0983573 0.9882131 0.0983573 0.9882131 0.0983573 0.0117869 -0.0983573
1780000000 0.0115116 -0.0969171 0.9884884 0.0969171 0.9884884 0.0969171 0.0115116 -0.0969171
1801000000 0.0112464 -0.0955060 0.9887536 0.0955060 0.9887536 0.0955060 0.0112464 -0.0955060
1822000000 0.0109908 -0.0941230 0.9890092 0.0941230 0.9890092 0.0941230 0.0109908 -0.0941230
1843000000 0.0107443 -0.0927673 0.9892557 0.0927673 0.9892557 0.0927673 0.0107443 -0.0927673
1864000000 0.0105065 -0.0914379 0.9894935 0.0914379 0.9894935 0.0914379 0.0105065 -0.0914379
1885000000 0.0102771 -0.0901340 0.9897229 0.0901340 0.9897229 0.0901340 0.0102771 -0.0901340
1906000000 0.0100558 -0.0888548 0.9899442 0.0888548 0.9899442 0.0888548 0.0100558 -0.0888548
1927000000 0.0098421 -0.0875995 0.9901579 0.0875995 0.9901579 0.0875995 0.0098421 -0.0875995
1948000000 0.0096357 -0.0863674 0.9903643 0.0863674 0.9903643 0.0863674 0.0096357 -0.0863674
1969000000 0.0094364 -0.0851578 0.9905636 0.0851578 0.9905636 0.0851578 0.0094364 -0.0851578
1990000000 0.0092438 -0.0839700 0.9907562 0.0839700 0.9907562 0.0839700 0.0092438 -0.0839700
2011000000 0.0090577 -0.0828033 0.9909423 0.0828033 0.9909423 0.0828033 0.0090577 -0.0828033
2032000000 0.0088778 -0.0816572 0.9911222 0.0816572 0.9911222 0.0816572 0.0088778 -0.0816572
2053000000 0.0087038 -0.0805309 0.9912962 0.0805309 0.9912962 0.0805309 0.0087038 -0.0805309
2074000000 0.0085355 -0.0794240 0.9914645 0.0794240 0.9914645 0.0794240 0.0085355 -0.0794240
2095000000 0.0083728 -0.0783358 0.9916272 0.0783358 0.9916272 0.0783358 0.0083728 -0.0783358
2116000000 0.0082153 -0.0772659 0.9917847 0.0772659 0.9917847 0.0772659 0.0082153 -0.0772659
2137000000 0.0080628 -0.0762137 0.9919372 0.0762137 0.9919372 0.0762137 0.0080628 -0.0762137
2158000000 0.0079153 -0.0751787 0.9920847 0.0751787 0.9920847 0.0751787 0.0079153 -0.0751787
2179000000 0.0077724 -0.0741605 0.9922276 0.0741605 0.9922276 0.0741605 0.0077724 -0.0741605
2200000000 0.0076341 -0.0731585 0.9923659 0.0731585 0.9923659 0.0731585 0.0076341 -0.0731585
2221000000 0.0075000 -0.0721723 0.9925000 0.0721723 0.9925000 0.0721723 0.0075000 -0.0721723
2242000000 0.0073702 -0.0712015 0.9926298 0.0712015 0.9926298 0.0712015 0.0073702 -0.0712015
2263000000 0.0072444 -0.0702457 0.9927556 0.0702457 0.9927556 0.0702457 0.0072444 -0.0702457
2284000000 0.0071225 -0.0693045 0.9928775 0.0693045 0.9928775 0.0693045 0.0071225 -0.0693045
2305000000 0.0070043 -0.0683775 0.9929957 0.0683775 0.9929957 0.0683775 0.0070043 -0.0683775
2326000000 0.0068898 -0.0674643 0.9931102 0.0674643 0.9931102 0.0674643 0.0068898 -0.0674643
2347000000 0.0067787 -0.0665645 0.9932213 0.0665645 0.9932213 0.0665645 0.0067787 -0.0665645
2368000000 0.0066710 -0.0656779 0.9933290 0.0656779 0.9933290 0.0656779 0.0066710 -0.0656779
2389000000 0.0065665 -0.0648040 0.9934335 0.0648040 0.9934335 0.0648040 0.0065665 -0.0648040
2410000000 0.0064652 -0.0639426 0.9935348 0.0639426 0.9935348 0.0639426 0.0064652 -0.0639426
2431000000 0.0063669 -0.0630933 0.9936331 0.0630933 0.9936331 0.0630933 0.0063669 -0.0630933
2452000000 0.0062715 -0.0622558 0.9937285 0.0622558 0.9937285 0.0622558 0.0062715 -0.0622558
2473000000 0.0061789 -0.0614299 0.9938211 0.0614299 0.9938211 0.0614299 0.0061789 -0.0614299
2494000000 0.0060891 -0.0606152 0.9939109 0.0606152 0.9939109 0.0606152 0.0060891 -0.0606152
2515000000 0.0060019 -0.0598115 0.9939981 0.0598115 0.9939981 0.0598115 0.0060019 -0.0598115
2536000000 0.0059173 -0.0590185 0.9940827 0.0590185 0.9940827 0.0590185 0.0059173 -0.0590185
2557000000 0.0058351 -0.0582360 0.9941649 0.0582360 0.9941649 0.0582360 0.0058351 -0.0582360
2578000000 0.0057553 -0.0574637 0.9942447 0.0574637 0.9942447 0.0574637 0.0057553 -0.0574637
2599000000 0.0056779 -0.0567013 0.9943221 0.0567013 0.9943221 0.0567013 0.0056779 -0.0567013
2620000000 0.0056027 -0.0559486 0.9943973 0.0559486 0.9943973 0.0559486 0.0056027 -0.0559486
2641000000 0.0055297 -0.0552055 0.9944703 0.0552055 0.9944703 0.0552055 0.0055297 -0.0552055
2662000000 0.0054588 -0.0544716 0.9945412 0.0544716 0.9945412 0.0544716 0.0054588 -0.0544716
2683000000 0.0053899 -0.0537468 0.9946101 0.0537468 0.9946101 0.0537468 0.0053899 -0.0537468
2704000000 0.0053230 -0.0530308 0.9946770 0.0530308 0.9946770 0.0530308 0.0053230 -0.0530308
2725000000 0.0052580 -0.0523235 0.9947420 0.0523235 0.9947420 0.0523235 0.0052580 -0.0523235
2746000000 0.0051949 -0.0516247 0.9948051 0.0516247 0.9948051 0.0516247 0.0051949 -0.0516247
2767000000 0.0051336 -0.0509341 0.9948664 0.0509341 0.9948664 0.0509341 0.0051336 -0.0509341
2788000000 0.0050741 -0.0502516 0.9949259 0.0502516 0.9949259 0.0502516 0.0050741 -0.0502516
2809000000 0.0050162 -0.0495771 0.9949838 0.0495771 0.9949838 0.0495771 0.0050162 -0.0495771
2830000000 0.0049601 -0.0489102 0.9950399 0.0489102 0.9950399 0.0489102 0.0049601 -0.0489102
2851000000 0.0049055 -0.0482510 0.9950945 0.0482510 0.9950945 0.0482510 0.0049055 -0.0482510
2872000000 0.0048525 -0.0475991 0.9951475 0.0475991 0.9951475 0.0475991 0.0048525 -0.0475991
2893000000 0.0048010 -0.0469545 0.9951990 0.0469545 0.9951990 0.0469545 0.0048010 -0.0469545
2914000000 0.0047510 -0.0463169 0.9952490 0.0463169 0.9952490 0.0463169 0.0047510 -0.0463169
2935000000 0.0047024 -0.0456863 0.9952976 0.0456863 0.9952976 0.0456863 0.0047024 -0.0456863
2956000000 0.0046552 -0.0450625 0.9953448 0.0450625 0.9953448 0.0450625 0.0046552 -0.0450625
2977000000 0.0046094 -0.0444454 0.9953906 0.0444454 0.9953906 0.0444454 0.0046094 -0.0444454
2998000000 0.0045648 -0.0438348 0.9954352 0.0438348 0.9954352 0.0438348 0.0045648 -0.0438348
3019000000 0.0045216 -0.0432305 0.9954784 0.0432305 0.9954784 0.0432305 0.0045216 -0.0432305
3040000000 0.0044797 -0.0426325 0.9955203 0.0426325 0.9955203 0.0426325 0.0044797 -0.0426325
3061000000 0.0044389 -0.0420406 0.9955611 0.0420406 0.9955611 0.0420406 0.0044389 -0.0420406
3082000000 0.0043993 -0.0414547 0.9956007 0.0414547 0.9956007 0.0414547 0.0043993 -0.0414547
3103000000 0.0043609 -0.0408747 0.9956391 0.0408747 0.9956391 0.0408747 0.0043609 -0.0408747
3124000000 0.0043237 -0.0403005 0.9956763 0.0403005 0.9956763 0.0403005 0.0043237 -0.0403005
3145000000 0.0042875 -0.0397319 0.9957125 0.0397319 0.9957125 0.0397319 0.0042875 -0.0397319
3166000000 0.0042524 -0.0391688 0.9957476 0.0391688 0.9957476 0.0391688 0.0042524 -0.0391688
3187000000 0.0042183 -0.0386112 0.9957817 0.0386112 0.9957817 0.0386112 0.0042183 -0.0386112
3208000000 0.0041853 -0.0380588 0.9958147 0.0380588 0.9958147 0.0380588 0.0041853 -0.0380588
3229000000 0.0041532 -0.0375117 0.9958468 0.0375117 0.9958468 0.0375117 0.0041532 -0.0375117
3250000000 0.0041222 -0.0369697 0.9958778 0.0369697 0.9958778 0.0369697 0.0041222 -0.0369697
3271000000 0.0040920 -0.0364328 0.9959080 0.0364328 0.9959080 0.0364328 0.0040920 -0.0364328
3292000000 0.0040628 -0.0359007 0.9959372 0.0359007 0.9959372 0.0359007 0.0040628 -0.0359007
3313000000 0.0040345 -0.0353735 0.9959655 0.0353735 0.9959655 0.0353735 0.0040345 -0.0353735
3334000000 0.0040071 -0.0348511 0.9959929 0.0348511 0.9959929 0.0348511 0.0040071 -0.0348511
3355000000 0.0039806 -0.0343332 0.9960194 0.0343332 0.9960194 0.0343332 0.0039806 -0.0343332
3376000000 0.0039549 -0.0338200 0.9960451 0.0338200 0.9960451 0.0338200 0.0039549 -0.0338200
3397000000 0.0039300 -0.0333112 0.9960700 0.0333112 0.9960700 0.0333112 0.0039300 -0.0333112
3418000000 0.0039059 -0.0328068 0.9960941 0.0328068 0.9960941 0.0328068 0.0039059 -0.0328068
3439000000 0.0038826 -0.0323068 0.9961174 0.0323068 0.9961174 0.0323068 0.0038826 -0.0323068
3460000000 0.0038601 -0.0318110 0.9961399 0.0318110 0.9961399 0.0318110 0.0038601 -0.0318110
3481000000 0.0038383 -0.0313193 0.9961617 0.0313193 0.9961617 0.0313193 0.0038383 -0.0313193
3502000000 0.0038173 -0.0308318 0.9961827 0.0308318 0.9961827 0.0308318 0.0038173 -0.0308318
3523000000 0.0037970 -0.0303482 0.9962030 0.0303482 0.9962030 0.0303482 0.0037970 -0.0303482
3544000000 0.0037774 -0.0298686 0.9962226 0.0298686 0.9962226 0.0298686 0.0037774 -0.0298686
3565000000 0.0037585 -0.0293929 0.9962415 0.0293929 0.9962415 0.0293929 0.0037585 -0.0293929
3586000000 0.0037402 -0.0289210 0.9962598 0.0289210 0.9962598 0.0289210 0.0037402 -0.0289210
3607000000 0.0037227 -0.0284529 0.9962773 0.0284529 0.9962773 0.0284529 0.0037227 -0.0284529
3628000000 0.0037058 -0.0279884 0.9962942 0.0279884 0.9962942 0.0279884 0.0037058 -0.0279884
3649000000 0.0036895 -0.0275275 0.9963105 0.0275275 0.9963105 0.0275275 0.0036895 -0.0275275
3670000000 0.0036739 -0.0270702 0.9963261 0.0270702 0.9963261 0.0270702 0.0036739 -0.0270702
3691000000 0.0036588 -0.0266164 0.9963412 0.0266164 0.9963412 0.0266164 0.0036588 -0.0266164
3712000000 0.0036444 -0.0261660 0.9963556 0.0261660 0.9963556 0.0261660 0.0036444 -0.0261660
3733000000 0.0036306 -0.0257190 0.9963694 0.0257190 0.9963694 0.0257190 0.0036306 -0.0257190
3754000000 0.0036173 -0.0252753 0.9963827 0.0252753 0.9963827 0.0252753 0.0036173 -0.0252753
3775000000 0.0036046 -0.0248348 0.9963954 0.0248348 0.9963954 0.0248348 0.0036046 -0.0248348
3796000000 0.0035925 -0.0243976 0.9964075 0.0243976 0.9964075 0.0243976 0.0035925 -0.0243976
3817000000 0.0035809 -0.0239635 0.9964191 0.0239635 0.9964191 0.0239635 0.0035809 -0.0239635
3838000000 0.0035699 -0.0235326 0.9964301 0.0235326 0.9964301 0.0235326 0.0035699 -0.0235326
3859000000 0.0035594 -0.0231047 0.9964406 0.0231047 0.9964406 0.0231047 0.0035594 -0.0231047
3880000000 0.0035494 -0.0226798 0.9964506 0.0226798 0.9964506 0.0226798 0.0035494 -0.0226798
3901000000 0.0035399 -0.0222578 0.9964601 0.0222578 0.9964601 0.0222578 0.0035399 -0.0222578
3922000000 0.0035309 -0.0218388 0.9964691 0.0218388 0.9964691 0.0218388 0.0035309 -0.0218388
3943000000 0.0035224 -0.0214226 0.9964776 0.0214226 0.9964776 0.0214226 0.0035224 -0.0214226
3964000000 0.0035144 -0.0210093 0.9964856 0.0210093 0.9964856 0.0210093 0.0035144 -0.0210093
3985000000 0.0035069 -0.0205987 0.9964931 0.0205987 0.9964931 0.0205987 0.0035069 -0.0205987
4006000000 0.0034999 -0.0201908 0.9965001 0.0201908 0.9965001 0.0201908 0.0034999 -0.0201908
4027000000 0.0034933 -0.0197857 0.9965067 0.0197857 0.9965067 0.0197857 0.0034933 -0.0197857
4048000000 0.0034872 -0.0193832 0.9965128 0.0193832 0.9965128 0.0193832 0.0034872 -0.0193832
4069000000 0.0034815 -0.0189832 0.9965185 0.0189832 0.9965185 0.0189832 0.0034815 -0.0189832
4090000000 0.0034762 -0.0185859 0.9965238 0.0185859 0.9965238 0.0185859 0.0034762 -0.0185859
4111000000 0.0034714 -0.0181911 0.9965286 0.0181911 0.9965286 0.0181911 0.0034714 -0.0181911
4132000000 0.0034671 -0.0177987 0.9965329 0.0177987 0.9965329 0.0177987 0.0034671 -0.0177987
4153000000 0.0034631 -0.0174089 0.9965369 0.0174089 0.9965369 0.0174089 0.0034631 -0.0174089
4174000000 0.0034596 -0.0170214 0.9965404 0.0170214 0.9965404 0.0170214 0.0034596 -0.0170214
4195000000 0.0034565 -0.0166363 0.9965435 0.0166363 0.9965435 0.0166363 0.0034565 -0.0166363
4216000000 0.0034538 -0.0162535 0.9965462 0.0162535 0.9965462 0.0162535 0.0034538 -0.0162535
4237000000 0.0034515 -0.0158731 0.9965485 0.0158731 0.9965485 0.0158731 0.0034515 -0.0158731
4258000000 0.0034496 -0.0154949 0.9965504 0.0154949 0.9965504 0.0154949 0.0034496 -0.0154949
4279000000 0.0034480 -0.0151190 0.9965520 0.0151190 0.9965520 0.0151190 0.0034480 -0.0151190
4300000000 0.0034469 -0.0147452 0.9965531 0.0147452 0.9965531 0.0147452 0.0034469 -0.0147452
4321000000 0.0034462 -0.0143737 0.9965538 0.0143737 0.9965538 0.0143737 0.0034462 -0.0143737
4342000000 0.0034458 -0.0140043 0.9965542 0.0140043 0.9965542 0.0140043 0.0034458 -0.0140043
4363000000 0.0034458 -0.0136370 0.9965542 0.0136370 0.9965542 0.0136370 0.0034458 -0.0136370
4384000000 0.0034461 -0.0132717 0.9965539 0.0132717 0.9965539 0.0132717 0.0034461 -0.0132717
4405000000 0.0034468 -0.0129086 0.9965532 0.0129086 0.9965532 0.0129086 0.0034468 -0.0129086
4426000000 0.0034479 -0.0125474 0.9965521 0.0125474 0.9965521 0.0125474 0.0034479 -0.0125474
4447000000 0.0034493 -0.0121883 0.9965507 0.0121883 0.9965507 0.0121883 0.0034493 -0.0121883
4468000000 0.0034511 -0.0118311 0.9965489 0.0118311 0.9965489 0.0118311 0.0034511 -0.0118311
4489000000 0.0034533 -0.0114758 0.9965467 0.0114758 0.9965467 0.0114758 0.0034533 -0.0114758
4510000000 0.0034557 -0.0111225 0.9965443 0.0111225 0.9965443 0.0111225 0.0034557 -0.0111225
