!Murata Part Number: GRM0115C1E8R7BE01
!These Parameters are Measured in Series Mode Connection
!Data Generated on Mar 30, 2021
!       o--ll--o
!Port1            Port2
!       o------o
!Operation Temp=25[degC], DC Bias Voltage=0[V]
!Freq. Start=100[MHz] Stop=9[GHz] 401[Steps]
# Hz S RI R 50
!Freq.(Hz) S11(Real) S11(Imag) S21(Real) S21(Imag) S12(Real) S12(Imag) S22(Real) S22(Imag)
100000000 0.7696310 -0.4207320 0.2303690 0.4207320 0.2303690 0.4207320 0.7696310 -0.4207320
121000000 0.6952468 -0.4598946 0.3047532 0.4598946 0.3047532 0.4598946 0.6952468 -0.4598946
142000000 0.6234990 -0.4840282 0.3765010 0.4840282 0.3765010 0.4840282 0.6234990 -0.4840282
163000000 0.5568218 -0.4962093 0.4431782 0.4962093 0.4431782 0.4962093 0.5568218 -0.4962093
184000000 0.4963886 -0.4993633 0.5036114 0.4993633 0.5036114 0.4993633 0.4963886 -0.4993633
205000000 0.4425096 -0.4959877 0.5574904 0.4959877 0.5574904 0.4959877 0.4425096 -0.4959877
226000000 0.3949713 -0.4880754 0.6050287 0.4880754 0.6050287 0.4880754 0.3949713 -0.4880754
247000000 0.3532830 -0.4771471 0.6467170 0.4771471 0.6467170 0.4771471 0.3532830 -0.4771471
268000000 0.3168370 -0.4643267 0.6831630 0.4643267 0.6831630 0.4643267 0.3168370 -0.4643267
289000000 0.2850039 -0.4504252 0.7149961 0.4504252 0.7149961 0.4504252 0.2850039 -0.4504252
310000000 0.2571847 -0.4360159 0.7428153 0.4360159 0.7428153 0.4360159 0.2571847 -0.4360159
331000000 0.2328353 -0.4214962 0.7671647 0.4214962 0.7671647 0.4214962 0.2328353 -0.4214962
352000000 0.2114748 -0.4071358 0.7885252 0.4071358 0.7885252 0.4071358 0.2114748 -0.4071358
373000000 0.1926858 -0.3931127 0.8073142 0.3931127 0.8073142 0.3931127 0.1926858 -0.3931127
394000000 0.1761094 -0.3795395 0.8238906 0.3795395 0.8238906 0.3795395 0.1761094 -0.3795395
415000000 0.1614392 -0.3664831 0.8385608 0.3664831 0.8385608 0.3664831 0.1614392 -0.3664831
436000000 0.1484145 -0.3539783 0.8515855 0.3539783 0.8515855 0.3539783 0.1484145 -0.3539783
457000000 0.1368135 -0.3420378 0.8631865 0.3420378 0.8631865 0.3420378 0.1368135 -0.3420378
478000000 0.1264478 -0.3306593 0.8735522 0.3306593 0.8735522 0.3306593 0.1264478 -0.3306593
499000000 0.1171570 -0.3198308 0.8828430 0.3198308 0.8828430 0.3198308 0.1171570 -0.3198308
520000000 0.1088045 -0.3095337 0.8911955 0.3095337 0.8911955 0.3095337 0.1088045 -0.3095337
541000000 0.1012733 -0.2997457 0.8987267 0.2997457 0.8987267 0.2997457 0.1012733 -0.2997457
562000000 0.0944634 -0.2904423 0.9055366 0.2904423 0.9055366 0.2904423 0.0944634 -0.2904423
583000000 0.0882891 -0.2815980 0.9117109 0.2815980 0.9117109 0.2815980 0.0882891 -0.2815980
604000000 0.0826762 -0.2731875 0.9173238 0.2731875 0.9173238 0.2731875 0.0826762 -0.2731875
625000000 0.0775610 -0.2651857 0.9224390 0.2651857 0.9224390 0.2651857 0.0775610 -0.2651857
646000000 0.0728880 -0.2575685 0.9271120 0.2575685 0.9271120 0.2575685 0.0728880 -0.2575685
667000000 0.0686091 -0.2503127 0.9313909 0.2503127 0.9313909 0.2503127 0.0686091 -0.2503127
688000000 0.0646825 -0.2433964 0.9353175 0.2433964 0.9353175 0.2433964 0.0646825 -0.2433964
709000000 0.0610715 -0.2367989 0.9389285 0.2367989 0.9389285 0.2367989 0.0610715 -0.2367989
730000000 0.0577441 -0.2305008 0.9422559 0.2305008 0.9422559 0.2305008 0.0577441 -0.2305008
751000000 0.0546720 -0.2244837 0.9453280 0.2244837 0.9453280 0.2244837 0.0546720 -0.2244837
772000000 0.0518303 -0.2187308 0.9481697 0.2187308 0.9481697 0.2187308 0.0518303 -0.2187308
793000000 0.0491971 -0.2132261 0.9508029 0.2132261 0.9508029 0.2132261 0.0491971 -0.2132261
814000000 0.0467529 -0.2079547 0.9532471 0.2079547 0.9532471 0.2079547 0.0467529 -0.2079547
835000000 0.0444805 -0.2029029 0.9555195 0.2029029 0.9555195 0.2029029 0.0444805 -0.2029029
856000000 0.0423645 -0.1980577 0.9576355 0.1980577 0.9576355 0.1980577 0.0423645 -0.1980577
877000000 0.0403912 -0.1934073 0.9596088 0.1934073 0.9596088 0.1934073 0.0403912 -0.1934073
898000000 0.0385482 -0.1889405 0.9614518 0.1889405 0.9614518 0.1889405 0.0385482 -0.1889405
919000000 0.0368247 -0.1846469 0.9631753 0.1846469 0.9631753 0.1846469 0.0368247 -0.1846469
940000000 0.0352106 -0.1805168 0.9647894 0.1805168 0.9647894 0.1805168 0.0352106 -0.1805168
961000000 0.0336972 -0.1765412 0.9663028 0.1765412 0.9663028 0.1765412 0.0336972 -0.1765412
982000000 0.0322764 -0.1727117 0.9677236 0.1727117 0.9677236 0.1727117 0.0322764 -0.1727117
1003000000 0.0309410 -0.1690204 0.9690590 0.1690204 0.9690590 0.1690204 0.0309410 -0.1690204
1024000000 0.0296844 -0.1654601 0.9703156 0.1654601 0.9703156 0.1654601 0.0296844 -0.1654601
1045000000 0.0285006 -0.1620238 0.9714994 0.1620238 0.9714994 0.1620238 0.0285006 -0.1620238
1066000000 0.0273844 -0.1587053 0.9726156 0.1587053 0.9726156 0.1587053 0.0273844 -0.1587053
1087000000 0.0263307 -0.1554984 0.9736693 0.1554984 0.9736693 0.1554984 0.0263307 -0.1554984
1108000000 0.0253351 -0.1523977 0.9746649 0.1523977 0.9746649 0.1523977 0.0253351 -0.1523977
1129000000 0.0243935 -0.1493978 0.9756065 0.1493978 0.9756065 0.1493978 0.0243935 -0.1493978
1150000000 0.0235022 -0.1464938 0.9764978 0.1464938 0.9764978 0.1464938 0.0235022 -0.1464938
1171000000 0.0226577 -0.1436811 0.9773423 0.1436811 0.9773423 0.1436811 0.0226577 -0.1436811
1192000000 0.0218570 -0.1409555 0.9781430 0.1409555 0.9781430 0.1409555 0.0218570 -0.1409555
1213000000 0.0210970 -0.1383127 0.9789030 0.1383127 0.9789030 0.1383127 0.0210970 -0.1383127
1234000000 0.0203753 -0.1357490 0.9796247 0.1357490 0.9796247 0.1357490 0.0203753 -0.1357490
1255000000 0.0196892 -0.1332608 0.9803108 0.1332608 0.9803108 0.1332608 0.0196892 -0.1332608
1276000000 0.0190367 -0.1308446 0.9809633 0.1308446 0.9809633 0.1308446 0.0190367 -0.1308446
1297000000 0.0184156 -0.1284973 0.9815844 0.1284973 0.9815844 0.1284973 0.0184156 -0.1284973
1318000000 0.0178239 -0.1262159 0.9821761 0.1262159 0.9821761 0.1262159 0.0178239 -0.1262159
1339000000 0.0172600 -0.1239974 0.9827400 0.1239974 0.9827400 0.1239974 0.0172600 -0.1239974
1360000000 0.0167222 -0.1218393 0.9832778 0.1218393 0.9832778 0.1218393 0.0167222 -0.1218393
1381000000 0.0162090 -0.1197390 0.9837910 0.1197390 0.9837910 0.1197390 0.0162090 -0.1197390
1402000000 0.0157188 -0.1176940 0.9842812 0.1176940 0.9842812 0.1176940 0.0157188 -0.1176940
1423000000 0.0152505 -0.1157021 0.9847495 0.1157021 0.9847495 0.1157021 0.0152505 -0.1157021
1444000000 0.0148028 -0.1137611 0.9851972 0.1137611 0.9851972 0.1137611 0.0148028 -0.1137611
1465000000 0.0143746 -0.1118691 0.9856254 0.1118691 0.9856254 0.1118691 0.0143746 -0.1118691
1486000000 0.0139647 -0.1100240 0.9860353 0.1100240 0.9860353 0.1100240 0.0139647 -0.1100240
1507000000 0.0135723 -0.1082240 0.9864277 0.1082240 0.9864277 0.1082240 0.0135723 -0.1082240
1528000000 0.0131963 -0.1064674 0.9868037 0.1064674 0.9868037 0.1064674 0.0131963 -0.1064674
1549000000 0.0128360 -0.1047525 0.9871640 0.1047525 0.9871640 0.1047525 0.0128360 -0.1047525
1570000000 0.0124904 -0.1030777 0.9875096 0.1030777 0.9875096 0.1030777 0.0124904 -0.1030777
1591000000 0.0121589 -0.1014416 0.9878411 0.1014416 0.9878411 0.1014416 0.0121589 -0.1014416
1612000000 0.0118408 -0.0998427 0.9881592 0.0998427 0.9881592 0.0998427 0.0118408 -0.0998427
1633000000 0.0115353 -0.0982797 0.9884647 0.0982797 0.9884647 0.0982797 0.0115353 -0.0982797
1654000000 0.0112419 -0.0967513 0.9887581 0.0967513 0.9887581 0.0967513 0.0112419 -0.0967513
1675000000 0.0109599 -0.0952562 0.9890401 0.0952562 0.9890401 0.0952562 0.0109599 -0.0952562
1696000000 0.0106889 -0.0937932 0.9893111 0.0937932 0.9893111 0.0937932 0.0106889 -0.0937932
1717000000 0.0104282 -0.0923613 0.9895718 0.0923613 0.9895718 0.0923613 0.0104282 -0.0923613
1738000000 0.0101774 -0.0909594 0.9898226 0.0909594 0.9898226 0.0909594 0.0101774 -0.0909594
1759000000 0.0099361 -0.0895865 0.9900639 0.0895865 0.9900639 0.0895865 0.0099361 -0.0895865
1780000000 0.0097038 -0.0882415 0.9902962 0.0882415 0.9902962 0.0882415 0.0097038 -0.0882415
1801000000 0.0094801 -0.0869235 0.9905199 0.0869235 0.9905199 0.0869235 0.0094801 -0.0869235
1822000000 0.0092645 -0.0856317 0.9907355 0.0856317 0.9907355 0.0856317 0.0092645 -0.0856317
1843000000 0.0090569 -0.0843652 0.9909431 0.0843652 0.9909431 0.0843652 0.0090569 -0.0843652
1864000000 0.0088567 -0.0831232 0.9911433 0.0831232 0.9911433 0.0831232 0.0088567 -0.0831232
1885000000 0.0086637 -0.0819049 0.9913363 0.0819049 0.9913363 0.0819049 0.0086637 -0.0819049
1906000000 0.0084775 -0.0807095 0.9915225 0.0807095 0.9915225 0.0807095 0.0084775 -0.0807095
1927000000 0.0082980 -0.0795363 0.9917020 0.0795363 0.9917020 0.0795363 0.0082980 -0.0795363
1948000000 0.0081247 -0.0783847 0.9918753 0.0783847 0.9918753 0.0783847 0.0081247 -0.0783847
1969000000 0.0079575 -0.0772539 0.9920425 0.0772539 0.9920425 0.0772539 0.0079575 -0.0772539
1990000000 0.0077960 -0.0761434 0.9922040 0.0761434 0.9922040 0.0761434 0.0077960 -0.0761434
2011000000 0.0076401 -0.0750524 0.9923599 0.0750524 0.9923599 0.0750524 0.0076401 -0.0750524
2032000000 0.0074895 -0.0739806 0.9925105 0.0739806 0.9925105 0.0739806 0.0074895 -0.0739806
2053000000 0.0073440 -0.0729272 0.9926560 0.0729272 0.9926560 0.0729272 0.0073440 -0.0729272
2074000000 0.0072034 -0.0718917 0.9927966 0.0718917 0.9927966 0.0718917 0.0072034 -0.0718917
2095000000 0.0070675 -0.0708737 0.9929325 0.0708737 0.9929325 0.0708737 0.0070675 -0.0708737
2116000000 0.0069361 -0.0698725 0.9930639 0.0698725 0.9930639 0.0698725 0.0069361 -0.0698725
2137000000 0.0068091 -0.0688878 0.9931909 0.0688878 0.9931909 0.0688878 0.0068091 -0.0688878
2158000000 0.0066863 -0.0679191 0.9933137 0.0679191 0.9933137 0.0679191 0.0066863 -0.0679191
2179000000 0.0065675 -0.0669659 0.9934325 0.0669659 0.9934325 0.0669659 0.0065675 -0.0669659
2200000000 0.0064526 -0.0660277 0.9935474 0.0660277 0.9935474 0.0660277 0.0064526 -0.0660277
2221000000 0.0063414 -0.0651043 0.9936586 0.0651043 0.9936586 0.0651043 0.0063414 -0.0651043
2242000000 0.0062338 -0.0641951 0.9937662 0.0641951 0.9937662 0.0641951 0.0062338 -0.0641951
2263000000 0.0061296 -0.0632998 0.9938704 0.0632998 0.9938704 0.0632998 0.0061296 -0.0632998
2284000000 0.0060289 -0.0624180 0.9939711 0.0624180 0.9939711 0.0624180 0.0060289 -0.0624180
2305000000 0.0059313 -0.0615494 0.9940687 0.0615494 0.9940687 0.0615494 0.0059313 -0.0615494
2326000000 0.0058368 -0.0606936 0.9941632 0.0606936 0.9941632 0.0606936 0.0058368 -0.0606936
2347000000 0.0057453 -0.0598502 0.9942547 0.0598502 0.9942547 0.0598502 0.0057453 -0.0598502
2368000000 0.0056567 -0.0590190 0.9943433 0.0590190 0.9943433 0.0590190 0.0056567 -0.0590190
2389000000 0.0055709 -0.0581997 0.9944291 0.0581997 0.9944291 0.0581997 0.0055709 -0.0581997
2410000000 0.0054878 -0.0573919 0.9945122 0.0573919 0.9945122 0.0573919 0.0054878 -0.0573919
2431000000 0.0054073 -0.0565953 0.9945927 0.0565953 0.9945927 0.0565953 0.0054073 -0.0565953
2452000000 0.0053293 -0.0558097 0.9946707 0.0558097 0.9946707 0.0558097 0.0053293 -0.0558097
2473000000 0.0052538 -0.0550348 0.9947462 0.0550348 0.9947462 0.0550348 0.0052538 -0.0550348
2494000000 0.0051806 -0.0542704 0.9948194 0.0542704 0.9948194 0.0542704 0.0051806 -0.0542704
2515000000 0.0051097 -0.0535161 0.9948903 0.0535161 0.9948903 0.0535161 0.0051097 -0.0535161
2536000000 0.0050409 -0.0527717 0.9949591 0.0527717 0.9949591 0.0527717 0.0050409 -0.0527717
2557000000 0.0049743 -0.0520370 0.9950257 0.0520370 0.9950257 0.0520370 0.0049743 -0.0520370
2578000000 0.0049098 -0.0513118 0.9950902 0.0513118 0.9950902 0.0513118 0.0049098 -0.0513118
2599000000 0.0048472 -0.0505958 0.9951528 0.0505958 0.9951528 0.0505958 0.0048472 -0.0505958
2620000000 0.0047866 -0.0498889 0.9952134 0.0498889 0.9952134 0.0498889 0.0047866 -0.0498889
2641000000 0.0047279 -0.0491907 0.9952721 0.0491907 0.9952721 0.0491907 0.0047279 -0.0491907
2662000000 0.0046710 -0.0485011 0.9953290 0.0485011 0.9953290 0.0485011 0.0046710 -0.0485011
2683000000 0.0046158 -0.0478200 0.9953842 0.0478200 0.9953842 0.0478200 0.0046158 -0.0478200
2704000000 0.0045623 -0.0471470 0.9954377 0.0471470 0.9954377 0.0471470 0.0045623 -0.0471470
2725000000 0.0045105 -0.0464821 0.9954895 0.0464821 0.9954895 0.0464821 0.0045105 -0.0464821
2746000000 0.0044603 -0.0458250 0.9955397 0.0458250 0.9955397 0.0458250 0.0044603 -0.0458250
2767000000 0.0044117 -0.0451756 0.9955883 0.0451756 0.9955883 0.0451756 0.0044117 -0.0451756
2788000000 0.0043646 -0.0445337 0.9956354 0.0445337 0.9956354 0.0445337 0.0043646 -0.0445337
2809000000 0.0043189 -0.0438991 0.9956811 0.0438991 0.9956811 0.0438991 0.0043189 -0.0438991
2830000000 0.0042747 -0.0432717 0.9957253 0.0432717 0.9957253 0.0432717 0.0042747 -0.0432717
2851000000 0.0042318 -0.0426513 0.9957682 0.0426513 0.9957682 0.0426513 0.0042318 -0.0426513
2872000000 0.0041903 -0.0420378 0.9958097 0.0420378 0.9958097 0.0420378 0.0041903 -0.0420378
2893000000 0.0041501 -0.0414309 0.9958499 0.0414309 0.9958499 0.0414309 0.0041501 -0.0414309
2914000000 0.0041112 -0.0408307 0.9958888 0.0408307 0.9958888 0.0408307 0.0041112 -0.0408307
2935000000 0.0040735 -0.0402369 0.9959265 0.0402369 0.9959265 0.0402369 0.0040735 -0.0402369
2956000000 0.0040370 -0.0396494 0.9959630 0.0396494 0.9959630 0.0396494 0.0040370 -0.0396494
2977000000 0.0040016 -0.0390681 0.9959984 0.0390681 0.9959984 0.0390681 0.0040016 -0.0390681
2998000000 0.0039674 -0.0384928 0.9960326 0.0384928 0.9960326 0.0384928 0.0039674 -0.0384928
3019000000 0.0039344 -0.0379234 0.9960656 0.0379234 0.9960656 0.0379234 0.0039344 -0.0379234
3040000000 0.0039024 -0.0373598 0.9960976 0.0373598 0.9960976 0.0373598 0.0039024 -0.0373598
3061000000 0.0038714 -0.0368019 0.9961286 0.0368019 0.9961286 0.0368019 0.0038714 -0.0368019
3082000000 0.0038415 -0.0362496 0.9961585 0.0362496 0.9961585 0.0362496 0.0038415 -0.0362496
3103000000 0.0038125 -0.0357027 0.9961875 0.0357027 0.9961875 0.0357027 0.0038125 -0.0357027
3124000000 0.0037846 -0.0351612 0.9962154 0.0351612 0.9962154 0.0351612 0.0037846 -0.0351612
3145000000 0.0037576 -0.0346249 0.9962424 0.0346249 0.9962424 0.0346249 0.0037576 -0.0346249
3166000000 0.0037315 -0.0340937 0.9962685 0.0340937 0.9962685 0.0340937 0.0037315 -0.0340937
3187000000 0.0037063 -0.0335676 0.9962937 0.0335676 0.9962937 0.0335676 0.0037063 -0.0335676
3208000000 0.0036820 -0.0330464 0.9963180 0.0330464 0.9963180 0.0330464 0.0036820 -0.0330464
3229000000 0.0036585 -0.0325300 0.9963415 0.0325300 0.9963415 0.0325300 0.0036585 -0.0325300
3250000000 0.0036359 -0.0320184 0.9963641 0.0320184 0.9963641 0.0320184 0.0036359 -0.0320184
3271000000 0.0036141 -0.0315115 0.9963859 0.0315115 0.9963859 0.0315115 0.0036141 -0.0315115
3292000000 0.0035930 -0.0310091 0.9964070 0.0310091 0.9964070 0.0310091 0.0035930 -0.0310091
3313000000 0.0035728 -0.0305112 0.9964272 0.0305112 0.9964272 0.0305112 0.0035728 -0.0305112
3334000000 0.0035533 -0.0300177 0.9964467 0.0300177 0.9964467 0.0300177 0.0035533 -0.0300177
3355000000 0.0035346 -0.0295285 0.9964654 0.0295285 0.9964654 0.0295285 0.0035346 -0.0295285
3376000000 0.0035166 -0.0290436 0.9964834 0.0290436 0.9964834 0.0290436 0.0035166 -0.0290436
3397000000 0.0034993 -0.0285628 0.9965007 0.0285628 0.9965007 0.0285628 0.0034993 -0.0285628
3418000000 0.0034826 -0.0280861 0.9965174 0.0280861 0.9965174 0.0280861 0.0034826 -0.0280861
3439000000 0.0034667 -0.0276134 0.9965333 0.0276134 0.9965333 0.0276134 0.0034667 -0.0276134
3460000000 0.0034514 -0.0271447 0.9965486 0.0271447 0.9965486 0.0271447 0.0034514 -0.0271447
3481000000 0.0034368 -0.0266798 0.9965632 0.0266798 0.9965632 0.0266798 0.0034368 -0.0266798
3502000000 0.0034228 -0.0262187 0.9965772 0.0262187 0.9965772 0.0262187 0.0034228 -0.0262187
3523000000 0.0034095 -0.0257614 0.9965905 0.0257614 0.9965905 0.0257614 0.0034095 -0.0257614
3544000000 0.0033967 -0.0253077 0.9966033 0.0253077 0.9966033 0.0253077 0.0033967 -0.0253077
3565000000 0.0033845 -0.0248576 0.9966155 0.0248576 0.9966155 0.0248576 0.0033845 -0.0248576
3586000000 0.0033729 -0.0244110 0.9966271 0.0244110 0.9966271 0.0244110 0.0033729 -0.0244110
3607000000 0.0033619 -0.0239680 0.9966381 0.0239680 0.9966381 0.0239680 0.0033619 -0.0239680
3628000000 0.0033515 -0.0235283 0.9966485 0.0235283 0.9966485 0.0235283 0.0033515 -0.0235283
3649000000 0.0033416 -0.0230920 0.9966584 0.0230920 0.9966584 0.0230920 0.0033416 -0.0230920
3670000000 0.0033322 -0.0226590 0.9966678 0.0226590 0.9966678 0.0226590 0.0033322 -0.0226590
3691000000 0.0033233 -0.0222292 0.9966767 0.0222292 0.9966767 0.0222292 0.0033233 -0.0222292
3712000000 0.0033150 -0.0218027 0.9966850 0.0218027 0.9966850 0.0218027 0.0033150 -0.0218027
3733000000 0.0033072 -0.0213792 0.9966928 0.0213792 0.9966928 0.0213792 0.0033072 -0.0213792
3754000000 0.0032999 -0.0209589 0.9967001 0.0209589 0.9967001 0.0209589 0.0032999 -0.0209589
3775000000 0.0032931 -0.0205416 0.9967069 0.0205416 0.9967069 0.0205416 0.0032931 -0.0205416
3796000000 0.0032867 -0.0201272 0.9967133 0.0201272 0.9967133 0.0201272 0.0032867 -0.0201272
3817000000 0.0032808 -0.0197158 0.9967192 0.0197158 0.9967192 0.0197158 0.0032808 -0.0197158
3838000000 0.0032754 -0.0193073 0.9967246 0.0193073 0.9967246 0.0193073 0.0032754 -0.0193073
3859000000 0.0032704 -0.0189016 0.9967296 0.0189016 0.9967296 0.0189016 0.0032704 -0.0189016
3880000000 0.0032659 -0.0184988 0.9967341 0.0184988 0.9967341 0.0184988 0.0032659 -0.0184988
3901000000 0.0032618 -0.0180986 0.9967382 0.0180986 0.9967382 0.0180986 0.0032618 -0.0180986
3922000000 0.0032582 -0.0177012 0.9967418 0.0177012 0.9967418 0.0177012 0.0032582 -0.0177012
3943000000 0.0032550 -0.0173064 0.9967450 0.0173064 0.9967450 0.0173064 0.0032550 -0.0173064
3964000000 0.0032522 -0.0169143 0.9967478 0.0169143 0.9967478 0.0169143 0.0032522 -0.0169143
3985000000 0.0032498 -0.0165247 0.9967502 0.0165247 0.9967502 0.0165247 0.0032498 -0.0165247
4006000000 0.0032478 -0.0161377 0.9967522 0.0161377 0.9967522 0.0161377 0.0032478 -0.0161377
4027000000 0.0032462 -0.0157531 0.9967538 0.0157531 0.9967538 0.0157531 0.0032462 -0.0157531
4048000000 0.0032450 -0.0153710 0.9967550 0.0153710 0.9967550 0.0153710 0.0032450 -0.0153710
4069000000 0.0032442 -0.0149914 0.9967558 0.0149914 0.9967558 0.0149914 0.0032442 -0.0149914
4090000000 0.0032437 -0.0146141 0.9967563 0.0146141 0.9967563 0.0146141 0.0032437 -0.0146141
4111000000 0.0032437 -0.0142392 0.9967563 0.0142392 0.9967563 0.0142392 0.0032437 -0.0142392
4132000000 0.0032440 -0.0138666 0.9967560 0.0138666 0.9967560 0.0138666 0.0032440 -0.0138666
4153000000 0.0032446 -0.0134963 0.9967554 0.0134963 0.9967554 0.0134963 0.0032446 -0.0134963
4174000000 0.0032457 -0.0131282 0.9967543 0.0131282 0.9967543 0.0131282 0.0032457 -0.0131282
4195000000 0.0032470 -0.0127623 0.9967530 0.0127623 0.9967530 0.0127623 0.0032470 -0.0127623
4216000000 0.0032488 -0.0123986 0.9967512 0.0123986 0.9967512 0.0123986 0.0032488 -0.0123986
4237000000 0.0032508 -0.0120371 0.9967492 0.0120371 0.9967492 0.0120371 0.0032508 -0.0120371
4258000000 0.0032532 -0.0116776 0.9967468 0.0116776 0.9967468 0.0116776 0.0032532 -0.0116776
4279000000 0.0032560 -0.0113203 0.9967440 0.0113203 0.9967440 0.0113203 0.0032560 -0.0113203
4300000000 0.0032591 -0.0109650 0.9967409 0.0109650 0.9967409 0.0109650 0.0032591 -0.0109650
4321000000 0.0032625 -0.0106117 0.9967375 0.0106117 0.9967375 0.0106117 0.0032625 -0.0106117
4342000000 0.0032662 -0.0102604 0.9967338 0.0102604 0.9967338 0.0102604 0.0032662 -0.0102604
4363000000 0.0032702 -0.0099111 0.9967298 0.0099111 0.9967298 0.0099111 0.0032702 -0.0099111
4384000000 0.0032746 -0.0095637 0.9967254 0.0095637 0.9967254 0.0095637 0.0032746 -0.0095637
4405000000 0.0032792 -0.0092183 0.9967208 0.0092183 0.9967208 0.0092183 0.0032792 -0.0092183
4426000000 0.0032842 -0.0088747 0.9967158 0.0088747 0.9967158 0.0088747 0.0032842 -0.0088747
4447000000 0.0032895 -0.0085329 0.9967105 0.0085329 0.9967105 0.0085329 0.0032895 -0.0085329
4468000000 0.0032951 -0.0081931 0.9967049 0.0081931 0.9967049 0.0081931 0.0032951 -0.0081931
4489000000 0.0033009 -0.0078550 0.9966991 0.0078550 0.9966991 0.0078550 0.0033009 -0.0078550
4510000000 0.0033071 -0.0075187 0.9966929 0.0075187 0.9966929 0.0075187 0.0033071 -0.0075187
