!Murata Part Number: GRM0115C1E5R1DE01
!These Parameters are Measured in Series Mode Connection
!Data Generated on Mar 30, 2021
!       o--ll--o
!Port1            Port2
!       o------o
!Operation Temp=25[degC], DC Bias Voltage=0[V]
!Freq. Start=100[MHz] Stop=9[GHz] 401[Steps]
# Hz S RI R 50
!Freq.(Hz) S11(Real) S11(Imag) S21(Real) S21(Imag) S12(Real) S12(Imag) S22(Real) S22(Imag)
100000000 0.9067162 -0.2905806 0.0932838 0.2905806 0.0932838 0.2905806 0.9067162 -0.2905806
121000000 0.8690710 -0.3370207 0.1309290 0.3370207 0.1309290 0.3370207 0.8690710 -0.3370207
142000000 0.8281383 -0.3769048 0.1718617 0.3769048 0.1718617 0.3769048 0.8281383 -0.3769048
163000000 0.7852295 -0.4102540 0.2147705 0.4102540 0.2147705 0.4102540 0.7852295 -0.4102540
184000000 0.7414973 -0.4373485 0.2585027 0.4373485 0.2585027 0.4373485 0.7414973 -0.4373485
205000000 0.6978996 -0.4586507 0.3021004 0.4586507 0.3021004 0.4586507 0.6978996 -0.4586507
226000000 0.6551903 -0.4747331 0.3448097 0.4747331 0.3448097 0.4747331 0.6551903 -0.4747331
247000000 0.6139303 -0.4862179 0.3860697 0.4862179 0.3860697 0.4862179 0.6139303 -0.4862179
268000000 0.5745092 -0.4937317 0.4254908 0.4937317 0.4254908 0.4937317 0.5745092 -0.4937317
289000000 0.5371739 -0.4978733 0.4628261 0.4978733 0.4628261 0.4978733 0.5371739 -0.4978733
310000000 0.5020568 -0.4991949 0.4979432 0.4991949 0.4979432 0.4991949 0.5020568 -0.4991949
331000000 0.4692025 -0.4981908 0.5307975 0.4981908 0.5307975 0.4981908 0.4692025 -0.4981908
352000000 0.4385914 -0.4952951 0.5614086 0.4952951 0.5614086 0.4952951 0.4385914 -0.4952951
373000000 0.4101582 -0.4908820 0.5898418 0.4908820 0.5898418 0.4908820 0.4101582 -0.4908820
394000000 0.3838071 -0.4852700 0.6161929 0.4852700 0.6161929 0.4852700 0.3838071 -0.4852700
415000000 0.3594241 -0.4787272 0.6405759 0.4787272 0.6405759 0.4787272 0.3594241 -0.4787272
436000000 0.3368849 -0.4714771 0.6631151 0.4714771 0.6631151 0.4714771 0.3368849 -0.4714771
457000000 0.3160618 -0.4637046 0.6839382 0.4637046 0.6839382 0.4637046 0.3160618 -0.4637046
478000000 0.2968280 -0.4555616 0.7031720 0.4555616 0.7031720 0.4555616 0.2968280 -0.4555616
499000000 0.2790603 -0.4471719 0.7209397 0.4471719 0.7209397 0.4471719 0.2790603 -0.4471719
520000000 0.2626416 -0.4386360 0.7373584 0.4386360 0.7373584 0.4386360 0.2626416 -0.4386360
541000000 0.2474615 -0.4300346 0.7525385 0.4300346 0.7525385 0.4300346 0.2474615 -0.4300346
562000000 0.2334170 -0.4214325 0.7665830 0.4214325 0.7665830 0.4214325 0.2334170 -0.4214325
583000000 0.2204129 -0.4128807 0.7795871 0.4128807 0.7795871 0.4128807 0.2204129 -0.4128807
604000000 0.2083614 -0.4044194 0.7916386 0.4044194 0.7916386 0.4044194 0.2083614 -0.4044194
625000000 0.1971822 -0.3960799 0.8028178 0.3960799 0.8028178 0.3960799 0.1971822 -0.3960799
646000000 0.1868017 -0.3878858 0.8131983 0.3878858 0.8131983 0.3878858 0.1868017 -0.3878858
667000000 0.1771527 -0.3798549 0.8228473 0.3798549 0.8228473 0.3798549 0.1771527 -0.3798549
688000000 0.1681741 -0.3720001 0.8318259 0.3720001 0.8318259 0.3720001 0.1681741 -0.3720001
709000000 0.1598103 -0.3643303 0.8401897 0.3643303 0.8401897 0.3643303 0.1598103 -0.3643303
730000000 0.1520107 -0.3568512 0.8479893 0.3568512 0.8479893 0.3568512 0.1520107 -0.3568512
751000000 0.1447292 -0.3495659 0.8552708 0.3495659 0.8552708 0.3495659 0.1447292 -0.3495659
772000000 0.1379242 -0.3424758 0.8620758 0.3424758 0.8620758 0.3424758 0.1379242 -0.3424758
793000000 0.1315574 -0.3355801 0.8684426 0.3355801 0.8684426 0.3355801 0.1315574 -0.3355801
814000000 0.1255944 -0.3288773 0.8744056 0.3288773 0.8744056 0.3288773 0.1255944 -0.3288773
835000000 0.1200036 -0.3223646 0.8799964 0.3223646 0.8799964 0.3223646 0.1200036 -0.3223646
856000000 0.1147563 -0.3160385 0.8852437 0.3160385 0.8852437 0.3160385 0.1147563 -0.3160385
877000000 0.1098265 -0.3098949 0.8901735 0.3098949 0.8901735 0.3098949 0.1098265 -0.3098949
898000000 0.1051903 -0.3039294 0.8948097 0.3039294 0.8948097 0.3039294 0.1051903 -0.3039294
919000000 0.1008259 -0.2981371 0.8991741 0.2981371 0.8991741 0.2981371 0.1008259 -0.2981371
940000000 0.0967135 -0.2925131 0.9032865 0.2925131 0.9032865 0.2925131 0.0967135 -0.2925131
961000000 0.0928348 -0.2870523 0.9071652 0.2870523 0.9071652 0.2870523 0.0928348 -0.2870523
982000000 0.0891733 -0.2817496 0.9108267 0.2817496 0.9108267 0.2817496 0.0891733 -0.2817496
1003000000 0.0857137 -0.2765997 0.9142863 0.2765997 0.9142863 0.2765997 0.0857137 -0.2765997
1024000000 0.0824419 -0.2715976 0.9175581 0.2715976 0.9175581 0.2715976 0.0824419 -0.2715976
1045000000 0.0793451 -0.2667382 0.9206549 0.2667382 0.9206549 0.2667382 0.0793451 -0.2667382
1066000000 0.0764116 -0.2620165 0.9235884 0.2620165 0.9235884 0.2620165 0.0764116 -0.2620165
1087000000 0.0736305 -0.2574278 0.9263695 0.2574278 0.9263695 0.2574278 0.0736305 -0.2574278
1108000000 0.0709917 -0.2529672 0.9290083 0.2529672 0.9290083 0.2529672 0.0709917 -0.2529672
1129000000 0.0684860 -0.2486303 0.9315140 0.2486303 0.9315140 0.2486303 0.0684860 -0.2486303
1150000000 0.0661050 -0.2444125 0.9338950 0.2444125 0.9338950 0.2444125 0.0661050 -0.2444125
1171000000 0.0638407 -0.2403095 0.9361593 0.2403095 0.9361593 0.2403095 0.0638407 -0.2403095
1192000000 0.0616859 -0.2363173 0.9383141 0.2363173 0.9383141 0.2363173 0.0616859 -0.2363173
1213000000 0.0596339 -0.2324317 0.9403661 0.2324317 0.9403661 0.2324317 0.0596339 -0.2324317
1234000000 0.0576785 -0.2286490 0.9423215 0.2286490 0.9423215 0.2286490 0.0576785 -0.2286490
1255000000 0.0558137 -0.2249654 0.9441863 0.2249654 0.9441863 0.2249654 0.0558137 -0.2249654
1276000000 0.0540344 -0.2213773 0.9459656 0.2213773 0.9459656 0.2213773 0.0540344 -0.2213773
1297000000 0.0523355 -0.2178814 0.9476645 0.2178814 0.9476645 0.2178814 0.0523355 -0.2178814
1318000000 0.0507123 -0.2144742 0.9492877 0.2144742 0.9492877 0.2144742 0.0507123 -0.2144742
1339000000 0.0491606 -0.2111527 0.9508394 0.2111527 0.9508394 0.2111527 0.0491606 -0.2111527
1360000000 0.0476764 -0.2079138 0.9523236 0.2079138 0.9523236 0.2079138 0.0476764 -0.2079138
1381000000 0.0462558 -0.2047546 0.9537442 0.2047546 0.9537442 0.2047546 0.0462558 -0.2047546
1402000000 0.0448955 -0.2016723 0.9551045 0.2016723 0.9551045 0.2016723 0.0448955 -0.2016723
1423000000 0.0435920 -0.1986642 0.9564080 0.1986642 0.9564080 0.1986642 0.0435920 -0.1986642
1444000000 0.0423425 -0.1957277 0.9576575 0.1957277 0.9576575 0.1957277 0.0423425 -0.1957277
1465000000 0.0411441 -0.1928603 0.9588559 0.1928603 0.9588559 0.1928603 0.0411441 -0.1928603
1486000000 0.0399940 -0.1900598 0.9600060 0.1900598 0.9600060 0.1900598 0.0399940 -0.1900598
1507000000 0.0388897 -0.1873237 0.9611103 0.1873237 0.9611103 0.1873237 0.0388897 -0.1873237
1528000000 0.0378290 -0.1846500 0.9621710 0.1846500 0.9621710 0.1846500 0.0378290 -0.1846500
1549000000 0.0368097 -0.1820366 0.9631903 0.1820366 0.9631903 0.1820366 0.0368097 -0.1820366
1570000000 0.0358296 -0.1794814 0.9641704 0.1794814 0.9641704 0.1794814 0.0358296 -0.1794814
1591000000 0.0348868 -0.1769825 0.9651132 0.1769825 0.9651132 0.1769825 0.0348868 -0.1769825
1612000000 0.0339796 -0.1745381 0.9660204 0.1745381 0.9660204 0.1745381 0.0339796 -0.1745381
1633000000 0.0331062 -0.1721463 0.9668938 0.1721463 0.9668938 0.1721463 0.0331062 -0.1721463
1654000000 0.0322649 -0.1698056 0.9677351 0.1698056 0.9677351 0.1698056 0.0322649 -0.1698056
1675000000 0.0314543 -0.1675142 0.9685457 0.1675142 0.9685457 0.1675142 0.0314543 -0.1675142
1696000000 0.0306729 -0.1652706 0.9693271 0.1652706 0.9693271 0.1652706 0.0306729 -0.1652706
1717000000 0.0299195 -0.1630733 0.9700805 0.1630733 0.9700805 0.1630733 0.0299195 -0.1630733
1738000000 0.0291926 -0.1609208 0.9708074 0.1609208 0.9708074 0.1609208 0.0291926 -0.1609208
1759000000 0.0284911 -0.1588118 0.9715089 0.1588118 0.9715089 0.1588118 0.0284911 -0.1588118
1780000000 0.0278139 -0.1567448 0.9721861 0.1567448 0.9721861 0.1567448 0.0278139 -0.1567448
1801000000 0.0271599 -0.1547187 0.9728401 0.1547187 0.9728401 0.1547187 0.0271599 -0.1547187
1822000000 0.0265280 -0.1527321 0.9734720 0.1527321 0.9734720 0.1527321 0.0265280 -0.1527321
1843000000 0.0259174 -0.1507839 0.9740826 0.1507839 0.9740826 0.1507839 0.0259174 -0.1507839
1864000000 0.0253271 -0.1488730 0.9746729 0.1488730 0.9746729 0.1488730 0.0253271 -0.1488730
1885000000 0.0247562 -0.1469982 0.9752438 0.1469982 0.9752438 0.1469982 0.0247562 -0.1469982
1906000000 0.0242039 -0.1451584 0.9757961 0.1451584 0.9757961 0.1451584 0.0242039 -0.1451584
1927000000 0.0236695 -0.1433527 0.9763305 0.1433527 0.9763305 0.1433527 0.0236695 -0.1433527
1948000000 0.0231522 -0.1415801 0.9768478 0.1415801 0.9768478 0.1415801 0.0231522 -0.1415801
1969000000 0.0226513 -0.1398396 0.9773487 0.1398396 0.9773487 0.1398396 0.0226513 -0.1398396
1990000000 0.0221661 -0.1381303 0.9778339 0.1381303 0.9778339 0.1381303 0.0221661 -0.1381303
2011000000 0.0216961 -0.1364513 0.9783039 0.1364513 0.9783039 0.1364513 0.0216961 -0.1364513
2032000000 0.0212405 -0.1348018 0.9787595 0.1348018 0.9787595 0.1348018 0.0212405 -0.1348018
2053000000 0.0207989 -0.1331809 0.9792011 0.1331809 0.9792011 0.1331809 0.0207989 -0.1331809
2074000000 0.0203707 -0.1315879 0.9796293 0.1315879 0.9796293 0.1315879 0.0203707 -0.1315879
2095000000 0.0199554 -0.1300220 0.9800446 0.1300220 0.9800446 0.1300220 0.0199554 -0.1300220
2116000000 0.0195524 -0.1284825 0.9804476 0.1284825 0.9804476 0.1284825 0.0195524 -0.1284825
2137000000 0.0191614 -0.1269686 0.9808386 0.1269686 0.9808386 0.1269686 0.0191614 -0.1269686
2158000000 0.0187819 -0.1254797 0.9812181 0.1254797 0.9812181 0.1254797 0.0187819 -0.1254797
2179000000 0.0184133 -0.1240151 0.9815867 0.1240151 0.9815867 0.1240151 0.0184133 -0.1240151
2200000000 0.0180555 -0.1225742 0.9819445 0.1225742 0.9819445 0.1225742 0.0180555 -0.1225742
2221000000 0.0177079 -0.1211563 0.9822921 0.1211563 0.9822921 0.1211563 0.0177079 -0.1211563
2242000000 0.0173701 -0.1197608 0.9826299 0.1197608 0.9826299 0.1197608 0.0173701 -0.1197608
2263000000 0.0170419 -0.1183873 0.9829581 0.1183873 0.9829581 0.1183873 0.0170419 -0.1183873
2284000000 0.0167229 -0.1170350 0.9832771 0.1170350 0.9832771 0.1170350 0.0167229 -0.1170350
2305000000 0.0164127 -0.1157035 0.9835873 0.1157035 0.9835873 0.1157035 0.0164127 -0.1157035
2326000000 0.0161110 -0.1143923 0.9838890 0.1143923 0.9838890 0.1143923 0.0161110 -0.1143923
2347000000 0.0158177 -0.1131008 0.9841823 0.1131008 0.9841823 0.1131008 0.0158177 -0.1131008
2368000000 0.0155323 -0.1118286 0.9844677 0.1118286 0.9844677 0.1118286 0.0155323 -0.1118286
2389000000 0.0152545 -0.1105751 0.9847455 0.1105751 0.9847455 0.1105751 0.0152545 -0.1105751
2410000000 0.0149843 -0.1093400 0.9850157 0.1093400 0.9850157 0.1093400 0.0149843 -0.1093400
2431000000 0.0147212 -0.1081227 0.9852788 0.1081227 0.9852788 0.1081227 0.0147212 -0.1081227
2452000000 0.0144651 -0.1069229 0.9855349 0.1069229 0.9855349 0.1069229 0.0144651 -0.1069229
2473000000 0.0142157 -0.1057402 0.9857843 0.1057402 0.9857843 0.1057402 0.0142157 -0.1057402
2494000000 0.0139727 -0.1045740 0.9860273 0.1045740 0.9860273 0.1045740 0.0139727 -0.1045740
2515000000 0.0137361 -0.1034241 0.9862639 0.1034241 0.9862639 0.1034241 0.0137361 -0.1034241
2536000000 0.0135056 -0.1022901 0.9864944 0.1022901 0.9864944 0.1022901 0.0135056 -0.1022901
2557000000 0.0132810 -0.1011715 0.9867190 0.1011715 0.9867190 0.1011715 0.0132810 -0.1011715
2578000000 0.0130621 -0.1000681 0.9869379 0.1000681 0.9869379 0.1000681 0.0130621 -0.1000681
2599000000 0.0128487 -0.0989794 0.9871513 0.0989794 0.9871513 0.0989794 0.0128487 -0.0989794
2620000000 0.0126406 -0.0979052 0.9873594 0.0979052 0.9873594 0.0979052 0.0126406 -0.0979052
2641000000 0.0124378 -0.0968451 0.9875622 0.0968451 0.9875622 0.0968451 0.0124378 -0.0968451
2662000000 0.0122400 -0.0957988 0.9877600 0.0957988 0.9877600 0.0957988 0.0122400 -0.0957988
2683000000 0.0120471 -0.0947661 0.9879529 0.0947661 0.9879529 0.0947661 0.0120471 -0.0947661
2704000000 0.0118589 -0.0937465 0.9881411 0.0937465 0.9881411 0.0937465 0.0118589 -0.0937465
2725000000 0.0116753 -0.0927398 0.9883247 0.0927398 0.9883247 0.0927398 0.0116753 -0.0927398
2746000000 0.0114961 -0.0917457 0.9885039 0.0917457 0.9885039 0.0917457 0.0114961 -0.0917457
2767000000 0.0113213 -0.0907640 0.9886787 0.0907640 0.9886787 0.0907640 0.0113213 -0.0907640
2788000000 0.0111507 -0.0897944 0.9888493 0.0897944 0.9888493 0.0897944 0.0111507 -0.0897944
2809000000 0.0109842 -0.0888366 0.9890158 0.0888366 0.9890158 0.0888366 0.0109842 -0.0888366
2830000000 0.0108216 -0.0878904 0.9891784 0.0878904 0.9891784 0.0878904 0.0108216 -0.0878904
2851000000 0.0106629 -0.0869555 0.9893371 0.0869555 0.9893371 0.0869555 0.0106629 -0.0869555
2872000000 0.0105079 -0.0860317 0.9894921 0.0860317 0.9894921 0.0860317 0.0105079 -0.0860317
2893000000 0.0103566 -0.0851188 0.9896434 0.0851188 0.9896434 0.0851188 0.0103566 -0.0851188
2914000000 0.0102087 -0.0842165 0.9897913 0.0842165 0.9897913 0.0842165 0.0102087 -0.0842165
2935000000 0.0100644 -0.0833246 0.9899356 0.0833246 0.9899356 0.0833246 0.0100644 -0.0833246
2956000000 0.0099233 -0.0824429 0.9900767 0.0824429 0.9900767 0.0824429 0.0099233 -0.0824429
2977000000 0.0097855 -0.0815712 0.9902145 0.0815712 0.9902145 0.0815712 0.0097855 -0.0815712
2998000000 0.0096509 -0.0807093 0.9903491 0.0807093 0.9903491 0.0807093 0.0096509 -0.0807093
3019000000 0.0095194 -0.0798571 0.9904806 0.0798571 0.9904806 0.0798571 0.0095194 -0.0798571
3040000000 0.0093909 -0.0790142 0.9906091 0.0790142 0.9906091 0.0790142 0.0093909 -0.0790142
3061000000 0.0092652 -0.0781805 0.9907348 0.0781805 0.9907348 0.0781805 0.0092652 -0.0781805
3082000000 0.0091425 -0.0773559 0.9908575 0.0773559 0.9908575 0.0773559 0.0091425 -0.0773559
3103000000 0.0090224 -0.0765402 0.9909776 0.0765402 0.9909776 0.0765402 0.0090224 -0.0765402
3124000000 0.0089051 -0.0757331 0.9910949 0.0757331 0.9910949 0.0757331 0.0089051 -0.0757331
3145000000 0.0087904 -0.0749345 0.9912096 0.0749345 0.9912096 0.0749345 0.0087904 -0.0749345
3166000000 0.0086783 -0.0741444 0.9913217 0.0741444 0.9913217 0.0741444 0.0086783 -0.0741444
3187000000 0.0085687 -0.0733624 0.9914313 0.0733624 0.9914313 0.0733624 0.0085687 -0.0733624
3208000000 0.0084615 -0.0725884 0.9915385 0.0725884 0.9915385 0.0725884 0.0084615 -0.0725884
3229000000 0.0083567 -0.0718224 0.9916433 0.0718224 0.9916433 0.0718224 0.0083567 -0.0718224
3250000000 0.0082542 -0.0710641 0.9917458 0.0710641 0.9917458 0.0710641 0.0082542 -0.0710641
3271000000 0.0081540 -0.0703133 0.9918460 0.0703133 0.9918460 0.0703133 0.0081540 -0.0703133
3292000000 0.0080559 -0.0695701 0.9919441 0.0695701 0.9919441 0.0695701 0.0080559 -0.0695701
3313000000 0.0079600 -0.0688342 0.9920400 0.0688342 0.9920400 0.0688342 0.0079600 -0.0688342
3334000000 0.0078663 -0.0681054 0.9921337 0.0681054 0.9921337 0.0681054 0.0078663 -0.0681054
3355000000 0.0077745 -0.0673837 0.9922255 0.0673837 0.9922255 0.0673837 0.0077745 -0.0673837
3376000000 0.0076848 -0.0666689 0.9923152 0.0666689 0.9923152 0.0666689 0.0076848 -0.0666689
3397000000 0.0075970 -0.0659610 0.9924030 0.0659610 0.9924030 0.0659610 0.0075970 -0.0659610
3418000000 0.0075112 -0.0652597 0.9924888 0.0652597 0.9924888 0.0652597 0.0075112 -0.0652597
3439000000 0.0074272 -0.0645650 0.9925728 0.0645650 0.9925728 0.0645650 0.0074272 -0.0645650
3460000000 0.0073450 -0.0638767 0.9926550 0.0638767 0.9926550 0.0638767 0.0073450 -0.0638767
3481000000 0.0072647 -0.0631947 0.9927353 0.0631947 0.9927353 0.0631947 0.0072647 -0.0631947
3502000000 0.0071860 -0.0625190 0.9928140 0.0625190 0.9928140 0.0625190 0.0071860 -0.0625190
3523000000 0.0071091 -0.0618494 0.9928909 0.0618494 0.9928909 0.0618494 0.0071091 -0.0618494
3544000000 0.0070338 -0.0611858 0.9929662 0.0611858 0.9929662 0.0611858 0.0070338 -0.0611858
3565000000 0.0069602 -0.0605281 0.9930398 0.0605281 0.9930398 0.0605281 0.0069602 -0.0605281
3586000000 0.0068882 -0.0598762 0.9931118 0.0598762 0.9931118 0.0598762 0.0068882 -0.0598762
3607000000 0.0068177 -0.0592300 0.9931823 0.0592300 0.9931823 0.0592300 0.0068177 -0.0592300
3628000000 0.0067487 -0.0585894 0.9932513 0.0585894 0.9932513 0.0585894 0.0067487 -0.0585894
3649000000 0.0066813 -0.0579544 0.9933187 0.0579544 0.9933187 0.0579544 0.0066813 -0.0579544
3670000000 0.0066153 -0.0573247 0.9933847 0.0573247 0.9933847 0.0573247 0.0066153 -0.0573247
3691000000 0.0065507 -0.0567004 0.9934493 0.0567004 0.9934493 0.0567004 0.0065507 -0.0567004
3712000000 0.0064876 -0.0560813 0.9935124 0.0560813 0.9935124 0.0560813 0.0064876 -0.0560813
3733000000 0.0064258 -0.0554674 0.9935742 0.0554674 0.9935742 0.0554674 0.0064258 -0.0554674
3754000000 0.0063654 -0.0548585 0.9936346 0.0548585 0.9936346 0.0548585 0.0063654 -0.0548585
3775000000 0.0063063 -0.0542547 0.9936937 0.0542547 0.9936937 0.0542547 0.0063063 -0.0542547
3796000000 0.0062485 -0.0536557 0.9937515 0.0536557 0.9937515 0.0536557 0.0062485 -0.0536557
3817000000 0.0061919 -0.0530616 0.9938081 0.0530616 0.9938081 0.0530616 0.0061919 -0.0530616
3838000000 0.0061366 -0.0524722 0.9938634 0.0524722 0.9938634 0.0524722 0.0061366 -0.0524722
3859000000 0.0060825 -0.0518875 0.9939175 0.0518875 0.9939175 0.0518875 0.0060825 -0.0518875
3880000000 0.0060297 -0.0513074 0.9939703 0.0513074 0.9939703 0.0513074 0.0060297 -0.0513074
3901000000 0.0059779 -0.0507318 0.9940221 0.0507318 0.9940221 0.0507318 0.0059779 -0.0507318
3922000000 0.0059274 -0.0501607 0.9940726 0.0501607 0.9940726 0.0501607 0.0059274 -0.0501607
3943000000 0.0058780 -0.0495939 0.9941220 0.0495939 0.9941220 0.0495939 0.0058780 -0.0495939
3964000000 0.0058296 -0.0490315 0.9941704 0.0490315 0.9941704 0.0490315 0.0058296 -0.0490315
3985000000 0.0057824 -0.0484734 0.9942176 0.0484734 0.9942176 0.0484734 0.0057824 -0.0484734
4006000000 0.0057362 -0.0479194 0.9942638 0.0479194 0.9942638 0.0479194 0.0057362 -0.0479194
4027000000 0.0056911 -0.0473695 0.9943089 0.0473695 0.9943089 0.0473695 0.0056911 -0.0473695
4048000000 0.0056470 -0.0468238 0.9943530 0.0468238 0.9943530 0.0468238 0.0056470 -0.0468238
4069000000 0.0056039 -0.0462820 0.9943961 0.0462820 0.9943961 0.0462820 0.0056039 -0.0462820
4090000000 0.0055618 -0.0457441 0.9944382 0.0457441 0.9944382 0.0457441 0.0055618 -0.0457441
4111000000 0.0055207 -0.0452101 0.9944793 0.0452101 0.9944793 0.0452101 0.0055207 -0.0452101
4132000000 0.0054805 -0.0446800 0.9945195 0.0446800 0.9945195 0.0446800 0.0054805 -0.0446800
4153000000 0.0054413 -0.0441536 0.9945587 0.0441536 0.9945587 0.0441536 0.0054413 -0.0441536
4174000000 0.0054030 -0.0436309 0.9945970 0.0436309 0.9945970 0.0436309 0.0054030 -0.0436309
4195000000 0.0053656 -0.0431119 0.9946344 0.0431119 0.9946344 0.0431119 0.0053656 -0.0431119
4216000000 0.0053292 -0.0425965 0.9946708 0.0425965 0.9946708 0.0425965 0.0053292 -0.0425965
4237000000 0.0052935 -0.0420846 0.9947065 0.0420846 0.9947065 0.0420846 0.0052935 -0.0420846
4258000000 0.0052588 -0.0415762 0.9947412 0.0415762 0.9947412 0.0415762 0.0052588 -0.0415762
4279000000 0.0052249 -0.0410713 0.9947751 0.0410713 0.9947751 0.0410713 0.0052249 -0.0410713
4300000000 0.0051919 -0.0405697 0.9948081 0.0405697 0.9948081 0.0405697 0.0051919 -0.0405697
4321000000 0.0051596 -0.0400716 0.9948404 0.0400716 0.9948404 0.0400716 0.0051596 -0.0400716
4342000000 0.0051282 -0.0395767 0.9948718 0.0395767 0.9948718 0.0395767 0.0051282 -0.0395767
4363000000 0.0050976 -0.0390850 0.9949024 0.0390850 0.9949024 0.0390850 0.0050976 -0.0390850
4384000000 0.0050678 -0.0385966 0.9949322 0.0385966 0.9949322 0.0385966 0.0050678 -0.0385966
4405000000 0.0050387 -0.0381114 0.9949613 0.0381114 0.9949613 0.0381114 0.0050387 -0.0381114
4426000000 0.0050104 -0.0376292 0.9949896 0.0376292 0.9949896 0.0376292 0.0050104 -0.0376292
4447000000 0.0049829 -0.0371502 0.9950171 0.0371502 0.9950171 0.0371502 0.0049829 -0.0371502
4468000000 0.0049561 -0.0366742 0.9950439 0.0366742 0.9950439 0.0366742 0.0049561 -0.0366742
4489000000 0.0049300 -0.0362011 0.9950700 0.0362011 0.9950700 0.0362011 0.0049300 -0.0362011
4510000000 0.0049047 -0.0357310 0.9950953 0.0357310 0.9950953 0.0357310 0.0049047 -0.0357310
