!Murata Part Number: GRM0115C1E180JE01
!These Parameters are Measured in Series Mode Connection
!Data Generated on Mar 30, 2021
!       o--ll--o
!Port1            Port2
!       o------o
!Operation Temp=25[degC], DC Bias Voltage=0[V]
!Freq. Start=100[MHz] Stop=9[GHz] 401[Steps]
# Hz S RI R 50
!Freq.(Hz) S11(Real) S11(Imag) S21(Real) S21(Imag) S12(Real) S12(Imag) S22(Real) S22(Imag)
100000000 0.4384837 -0.4955992 0.5615163 0.4955992 0.5615163 0.4955992 0.4384837 -0.4955992
121000000 0.3478274 -0.4755519 0.6521726 0.4755519 0.6521726 0.4755519 0.3478274 -0.4755519
142000000 0.2791408 -0.4477206 0.7208592 0.4477206 0.7208592 0.4477206 0.2791408 -0.4477206
163000000 0.2271224 -0.4179885 0.7728776 0.4179885 0.7728776 0.4179885 0.2271224 -0.4179885
184000000 0.1873888 -0.3891115 0.8126112 0.3891115 0.8126112 0.3891115 0.1873888 -0.3891115
205000000 0.1566610 -0.3622406 0.8433390 0.3622406 0.8433390 0.3622406 0.1566610 -0.3622406
226000000 0.1325718 -0.3377423 0.8674282 0.3377423 0.8674282 0.3377423 0.1325718 -0.3377423
247000000 0.1134282 -0.3156170 0.8865718 0.3156170 0.8865718 0.3156170 0.1134282 -0.3156170
268000000 0.0980158 -0.2957074 0.9019842 0.2957074 0.9019842 0.2957074 0.0980158 -0.2957074
289000000 0.0854557 -0.2777994 0.9145443 0.2777994 0.9145443 0.2777994 0.0854557 -0.2777994
310000000 0.0751046 -0.2616694 0.9248954 0.2616694 0.9248954 0.2616694 0.0751046 -0.2616694
331000000 0.0664857 -0.2471065 0.9335143 0.2471065 0.9335143 0.2471065 0.0664857 -0.2471065
352000000 0.0592411 -0.2339199 0.9407589 0.2339199 0.9407589 0.2339199 0.0592411 -0.2339199
373000000 0.0530990 -0.2219417 0.9469010 0.2219417 0.9469010 0.2219417 0.0530990 -0.2219417
394000000 0.0478503 -0.2110255 0.9521497 0.2110255 0.9521497 0.2110255 0.0478503 -0.2110255
415000000 0.0433323 -0.2010447 0.9566677 0.2010447 0.9566677 0.2010447 0.0433323 -0.2010447
436000000 0.0394174 -0.1918900 0.9605826 0.1918900 0.9605826 0.1918900 0.0394174 -0.1918900
457000000 0.0360043 -0.1834672 0.9639957 0.1834672 0.9639957 0.1834672 0.0360043 -0.1834672
478000000 0.0330117 -0.1756948 0.9669883 0.1756948 0.9669883 0.1756948 0.0330117 -0.1756948
499000000 0.0303741 -0.1685023 0.9696259 0.1685023 0.9696259 0.1685023 0.0303741 -0.1685023
520000000 0.0280381 -0.1618285 0.9719619 0.1618285 0.9719619 0.1618285 0.0280381 -0.1618285
541000000 0.0259598 -0.1556202 0.9740402 0.1556202 0.9740402 0.1556202 0.0259598 -0.1556202
562000000 0.0241032 -0.1498309 0.9758968 0.1498309 0.9758968 0.1498309 0.0241032 -0.1498309
583000000 0.0224381 -0.1444198 0.9775619 0.1444198 0.9775619 0.1444198 0.0224381 -0.1444198
604000000 0.0209393 -0.1393513 0.9790607 0.1393513 0.9790607 0.1393513 0.0209393 -0.1393513
625000000 0.0195856 -0.1345937 0.9804144 0.1345937 0.9804144 0.1345937 0.0195856 -0.1345937
646000000 0.0183591 -0.1301192 0.9816409 0.1301192 0.9816409 0.1301192 0.0183591 -0.1301192
667000000 0.0172444 -0.1259031 0.9827556 0.1259031 0.9827556 0.1259031 0.0172444 -0.1259031
688000000 0.0162286 -0.1219235 0.9837714 0.1219235 0.9837714 0.1219235 0.0162286 -0.1219235
709000000 0.0153004 -0.1181606 0.9846996 0.1181606 0.9846996 0.1181606 0.0153004 -0.1181606
730000000 0.0144501 -0.1145970 0.9855499 0.1145970 0.9855499 0.1145970 0.0144501 -0.1145970
751000000 0.0136693 -0.1112169 0.9863307 0.1112169 0.9863307 0.1112169 0.0136693 -0.1112169
772000000 0.0129509 -0.1080062 0.9870491 0.1080062 0.9870491 0.1080062 0.0129509 -0.1080062
793000000 0.0122884 -0.1049521 0.9877116 0.1049521 0.9877116 0.1049521 0.0122884 -0.1049521
814000000 0.0116762 -0.1020431 0.9883238 0.1020431 0.9883238 0.1020431 0.0116762 -0.1020431
835000000 0.0111095 -0.0992689 0.9888905 0.0992689 0.9888905 0.0992689 0.0111095 -0.0992689
856000000 0.0105839 -0.0966198 0.9894161 0.0966198 0.9894161 0.0966198 0.0105839 -0.0966198
877000000 0.0100957 -0.0940874 0.9899043 0.0940874 0.9899043 0.0940874 0.0100957 -0.0940874
898000000 0.0096414 -0.0916638 0.9903586 0.0916638 0.9903586 0.0916638 0.0096414 -0.0916638
919000000 0.0092181 -0.0893417 0.9907819 0.0893417 0.9907819 0.0893417 0.0092181 -0.0893417
940000000 0.0088230 -0.0871147 0.9911770 0.0871147 0.9911770 0.0871147 0.0088230 -0.0871147
961000000 0.0084538 -0.0849767 0.9915462 0.0849767 0.9915462 0.0849767 0.0084538 -0.0849767
982000000 0.0081083 -0.0829222 0.9918917 0.0829222 0.9918917 0.0829222 0.0081083 -0.0829222
1003000000 0.0077846 -0.0809462 0.9922154 0.0809462 0.9922154 0.0809462 0.0077846 -0.0809462
1024000000 0.0074810 -0.0790439 0.9925190 0.0790439 0.9925190 0.0790439 0.0074810 -0.0790439
1045000000 0.0071959 -0.0772111 0.9928041 0.0772111 0.9928041 0.0772111 0.0071959 -0.0772111
1066000000 0.0069278 -0.0754437 0.9930722 0.0754437 0.9930722 0.0754437 0.0069278 -0.0754437
1087000000 0.0066756 -0.0737381 0.9933244 0.0737381 0.9933244 0.0737381 0.0066756 -0.0737381
1108000000 0.0064379 -0.0720909 0.9935621 0.0720909 0.9935621 0.0720909 0.0064379 -0.0720909
1129000000 0.0062139 -0.0704988 0.9937861 0.0704988 0.9937861 0.0704988 0.0062139 -0.0704988
1150000000 0.0060025 -0.0689590 0.9939975 0.0689590 0.9939975 0.0689590 0.0060025 -0.0689590
1171000000 0.0058028 -0.0674686 0.9941972 0.0674686 0.9941972 0.0674686 0.0058028 -0.0674686
1192000000 0.0056140 -0.0660252 0.9943860 0.0660252 0.9943860 0.0660252 0.0056140 -0.0660252
1213000000 0.0054355 -0.0646264 0.9945645 0.0646264 0.9945645 0.0646264 0.0054355 -0.0646264
1234000000 0.0052664 -0.0632698 0.9947336 0.0632698 0.9947336 0.0632698 0.0052664 -0.0632698
1255000000 0.0051063 -0.0619535 0.9948937 0.0619535 0.9948937 0.0619535 0.0051063 -0.0619535
1276000000 0.0049545 -0.0606755 0.9950455 0.0606755 0.9950455 0.0606755 0.0049545 -0.0606755
1297000000 0.0048106 -0.0594340 0.9951894 0.0594340 0.9951894 0.0594340 0.0048106 -0.0594340
1318000000 0.0046739 -0.0582272 0.9953261 0.0582272 0.9953261 0.0582272 0.0046739 -0.0582272
1339000000 0.0045442 -0.0570536 0.9954558 0.0570536 0.9954558 0.0570536 0.0045442 -0.0570536
1360000000 0.0044210 -0.0559117 0.9955790 0.0559117 0.9955790 0.0559117 0.0044210 -0.0559117
1381000000 0.0043038 -0.0547999 0.9956962 0.0547999 0.9956962 0.0547999 0.0043038 -0.0547999
1402000000 0.0041924 -0.0537171 0.9958076 0.0537171 0.9958076 0.0537171 0.0041924 -0.0537171
1423000000 0.0040865 -0.0526619 0.9959135 0.0526619 0.9959135 0.0526619 0.0040865 -0.0526619
1444000000 0.0039856 -0.0516331 0.9960144 0.0516331 0.9960144 0.0516331 0.0039856 -0.0516331
1465000000 0.0038896 -0.0506297 0.9961104 0.0506297 0.9961104 0.0506297 0.0038896 -0.0506297
1486000000 0.0037982 -0.0496505 0.9962018 0.0496505 0.9962018 0.0496505 0.0037982 -0.0496505
1507000000 0.0037111 -0.0486946 0.9962889 0.0486946 0.9962889 0.0486946 0.0037111 -0.0486946
1528000000 0.0036281 -0.0477610 0.9963719 0.0477610 0.9963719 0.0477610 0.0036281 -0.0477610
1549000000 0.0035490 -0.0468489 0.9964510 0.0468489 0.9964510 0.0468489 0.0035490 -0.0468489
1570000000 0.0034736 -0.0459573 0.9965264 0.0459573 0.9965264 0.0459573 0.0034736 -0.0459573
1591000000 0.0034018 -0.0450856 0.9965982 0.0450856 0.9965982 0.0450856 0.0034018 -0.0450856
1612000000 0.0033332 -0.0442328 0.9966668 0.0442328 0.9966668 0.0442328 0.0033332 -0.0442328
1633000000 0.0032679 -0.0433983 0.9967321 0.0433983 0.9967321 0.0433983 0.0032679 -0.0433983
1654000000 0.0032055 -0.0425814 0.9967945 0.0425814 0.9967945 0.0425814 0.0032055 -0.0425814
1675000000 0.0031461 -0.0417815 0.9968539 0.0417815 0.9968539 0.0417815 0.0031461 -0.0417815
1696000000 0.0030894 -0.0409979 0.9969106 0.0409979 0.9969106 0.0409979 0.0030894 -0.0409979
1717000000 0.0030353 -0.0402300 0.9969647 0.0402300 0.9969647 0.0402300 0.0030353 -0.0402300
1738000000 0.0029837 -0.0394773 0.9970163 0.0394773 0.9970163 0.0394773 0.0029837 -0.0394773
1759000000 0.0029345 -0.0387392 0.9970655 0.0387392 0.9970655 0.0387392 0.0029345 -0.0387392
1780000000 0.0028876 -0.0380153 0.9971124 0.0380153 0.9971124 0.0380153 0.0028876 -0.0380153
1801000000 0.0028429 -0.0373050 0.9971571 0.0373050 0.9971571 0.0373050 0.0028429 -0.0373050
1822000000 0.0028003 -0.0366078 0.9971997 0.0366078 0.9971997 0.0366078 0.0028003 -0.0366078
1843000000 0.0027596 -0.0359234 0.9972404 0.0359234 0.9972404 0.0359234 0.0027596 -0.0359234
1864000000 0.0027210 -0.0352512 0.9972790 0.0352512 0.9972790 0.0352512 0.0027210 -0.0352512
1885000000 0.0026841 -0.0345910 0.9973159 0.0345910 0.9973159 0.0345910 0.0026841 -0.0345910
1906000000 0.0026491 -0.0339422 0.9973509 0.0339422 0.9973509 0.0339422 0.0026491 -0.0339422
1927000000 0.0026157 -0.0333046 0.9973843 0.0333046 0.9973843 0.0333046 0.0026157 -0.0333046
1948000000 0.0025840 -0.0326777 0.9974160 0.0326777 0.9974160 0.0326777 0.0025840 -0.0326777
1969000000 0.0025538 -0.0320613 0.9974462 0.0320613 0.9974462 0.0320613 0.0025538 -0.0320613
1990000000 0.0025251 -0.0314550 0.9974749 0.0314550 0.9974749 0.0314550 0.0025251 -0.0314550
2011000000 0.0024980 -0.0308585 0.9975020 0.0308585 0.9975020 0.0308585 0.0024980 -0.0308585
2032000000 0.0024722 -0.0302714 0.9975278 0.0302714 0.9975278 0.0302714 0.0024722 -0.0302714
2053000000 0.0024477 -0.0296936 0.9975523 0.0296936 0.9975523 0.0296936 0.0024477 -0.0296936
2074000000 0.0024246 -0.0291246 0.9975754 0.0291246 0.9975754 0.0291246 0.0024246 -0.0291246
2095000000 0.0024027 -0.0285644 0.9975973 0.0285644 0.9975973 0.0285644 0.0024027 -0.0285644
2116000000 0.0023821 -0.0280125 0.9976179 0.0280125 0.9976179 0.0280125 0.0023821 -0.0280125
2137000000 0.0023626 -0.0274688 0.9976374 0.0274688 0.9976374 0.0274688 0.0023626 -0.0274688
2158000000 0.0023443 -0.0269330 0.9976557 0.0269330 0.9976557 0.0269330 0.0023443 -0.0269330
2179000000 0.0023270 -0.0264049 0.9976730 0.0264049 0.9976730 0.0264049 0.0023270 -0.0264049
2200000000 0.0023108 -0.0258843 0.9976892 0.0258843 0.9976892 0.0258843 0.0023108 -0.0258843
2221000000 0.0022957 -0.0253709 0.9977043 0.0253709 0.9977043 0.0253709 0.0022957 -0.0253709
2242000000 0.0022815 -0.0248647 0.9977185 0.0248647 0.9977185 0.0248647 0.0022815 -0.0248647
2263000000 0.0022683 -0.0243652 0.9977317 0.0243652 0.9977317 0.0243652 0.0022683 -0.0243652
2284000000 0.0022560 -0.0238725 0.9977440 0.0238725 0.9977440 0.0238725 0.0022560 -0.0238725
2305000000 0.0022446 -0.0233863 0.9977554 0.0233863 0.9977554 0.0233863 0.0022446 -0.0233863
2326000000 0.0022341 -0.0229063 0.9977659 0.0229063 0.9977659 0.0229063 0.0022341 -0.0229063
2347000000 0.0022245 -0.0224326 0.9977755 0.0224326 0.9977755 0.0224326 0.0022245 -0.0224326
2368000000 0.0022157 -0.0219648 0.9977843 0.0219648 0.9977843 0.0219648 0.0022157 -0.0219648
2389000000 0.0022077 -0.0215029 0.9977923 0.0215029 0.9977923 0.0215029 0.0022077 -0.0215029
2410000000 0.0022005 -0.0210466 0.9977995 0.0210466 0.9977995 0.0210466 0.0022005 -0.0210466
2431000000 0.0021940 -0.0205959 0.9978060 0.0205959 0.9978060 0.0205959 0.0021940 -0.0205959
2452000000 0.0021883 -0.0201506 0.9978117 0.0201506 0.9978117 0.0201506 0.0021883 -0.0201506
2473000000 0.0021833 -0.0197106 0.9978167 0.0197106 0.9978167 0.0197106 0.0021833 -0.0197106
2494000000 0.0021790 -0.0192757 0.9978210 0.0192757 0.9978210 0.0192757 0.0021790 -0.0192757
2515000000 0.0021754 -0.0188458 0.9978246 0.0188458 0.9978246 0.0188458 0.0021754 -0.0188458
2536000000 0.0021724 -0.0184208 0.9978276 0.0184208 0.9978276 0.0184208 0.0021724 -0.0184208
2557000000 0.0021701 -0.0180005 0.9978299 0.0180005 0.9978299 0.0180005 0.0021701 -0.0180005
2578000000 0.0021684 -0.0175849 0.9978316 0.0175849 0.9978316 0.0175849 0.0021684 -0.0175849
2599000000 0.0021674 -0.0171738 0.9978326 0.0171738 0.9978326 0.0171738 0.0021674 -0.0171738
2620000000 0.0021669 -0.0167672 0.9978331 0.0167672 0.9978331 0.0167672 0.0021669 -0.0167672
2641000000 0.0021671 -0.0163649 0.9978329 0.0163649 0.9978329 0.0163649 0.0021671 -0.0163649
2662000000 0.0021678 -0.0159668 0.9978322 0.0159668 0.9978322 0.0159668 0.0021678 -0.0159668
2683000000 0.0021691 -0.0155728 0.9978309 0.0155728 0.9978309 0.0155728 0.0021691 -0.0155728
2704000000 0.0021709 -0.0151828 0.9978291 0.0151828 0.9978291 0.0151828 0.0021709 -0.0151828
2725000000 0.0021732 -0.0147968 0.9978268 0.0147968 0.9978268 0.0147968 0.0021732 -0.0147968
2746000000 0.0021761 -0.0144147 0.9978239 0.0144147 0.9978239 0.0144147 0.0021761 -0.0144147
2767000000 0.0021795 -0.0140363 0.9978205 0.0140363 0.9978205 0.0140363 0.0021795 -0.0140363
2788000000 0.0021835 -0.0136616 0.9978165 0.0136616 0.9978165 0.0136616 0.0021835 -0.0136616
2809000000 0.0021879 -0.0132904 0.9978121 0.0132904 0.9978121 0.0132904 0.0021879 -0.0132904
2830000000 0.0021928 -0.0129228 0.9978072 0.0129228 0.9978072 0.0129228 0.0021928 -0.0129228
2851000000 0.0021981 -0.0125586 0.9978019 0.0125586 0.9978019 0.0125586 0.0021981 -0.0125586
2872000000 0.0022040 -0.0121978 0.9977960 0.0121978 0.9977960 0.0121978 0.0022040 -0.0121978
2893000000 0.0022102 -0.0118403 0.9977898 0.0118403 0.9977898 0.0118403 0.0022102 -0.0118403
2914000000 0.0022170 -0.0114860 0.9977830 0.0114860 0.9977830 0.0114860 0.0022170 -0.0114860
2935000000 0.0022242 -0.0111349 0.9977758 0.0111349 0.9977758 0.0111349 0.0022242 -0.0111349
2956000000 0.0022318 -0.0107868 0.9977682 0.0107868 0.9977682 0.0107868 0.0022318 -0.0107868
2977000000 0.0022398 -0.0104418 0.9977602 0.0104418 0.9977602 0.0104418 0.0022398 -0.0104418
2998000000 0.0022483 -0.0100998 0.9977517 0.0100998 0.9977517 0.0100998 0.0022483 -0.0100998
3019000000 0.0022571 -0.0097606 0.9977429 0.0097606 0.9977429 0.0097606 0.0022571 -0.0097606
3040000000 0.0022664 -0.0094243 0.9977336 0.0094243 0.9977336 0.0094243 0.0022664 -0.0094243
3061000000 0.0022760 -0.0090907 0.9977240 0.0090907 0.9977240 0.0090907 0.0022760 -0.0090907
3082000000 0.0022861 -0.0087599 0.9977139 0.0087599 0.9977139 0.0087599 0.0022861 -0.0087599
3103000000 0.0022965 -0.0084318 0.9977035 0.0084318 0.9977035 0.0084318 0.0022965 -0.0084318
3124000000 0.0023074 -0.0081063 0.9976926 0.0081063 0.9976926 0.0081063 0.0023074 -0.0081063
3145000000 0.0023185 -0.0077833 0.9976815 0.0077833 0.9976815 0.0077833 0.0023185 -0.0077833
3166000000 0.0023301 -0.0074629 0.9976699 0.0074629 0.9976699 0.0074629 0.0023301 -0.0074629
3187000000 0.0023420 -0.0071449 0.9976580 0.0071449 0.9976580 0.0071449 0.0023420 -0.0071449
3208000000 0.0023543 -0.0068294 0.9976457 0.0068294 0.9976457 0.0068294 0.0023543 -0.0068294
3229000000 0.0023669 -0.0065162 0.9976331 0.0065162 0.9976331 0.0065162 0.0023669 -0.0065162
3250000000 0.0023799 -0.0062054 0.9976201 0.0062054 0.9976201 0.0062054 0.0023799 -0.0062054
3271000000 0.0023932 -0.0058968 0.9976068 0.0058968 0.9976068 0.0058968 0.0023932 -0.0058968
3292000000 0.0024069 -0.0055905 0.9975931 0.0055905 0.9975931 0.0055905 0.0024069 -0.0055905
3313000000 0.0024209 -0.0052864 0.9975791 0.0052864 0.9975791 0.0052864 0.0024209 -0.0052864
3334000000 0.0024352 -0.0049845 0.9975648 0.0049845 0.9975648 0.0049845 0.0024352 -0.0049845
3355000000 0.0024498 -0.0046846 0.9975502 0.0046846 0.9975502 0.0046846 0.0024498 -0.0046846
3376000000 0.0024648 -0.0043869 0.9975352 0.0043869 0.9975352 0.0043869 0.0024648 -0.0043869
3397000000 0.0024801 -0.0040912 0.9975199 0.0040912 0.9975199 0.0040912 0.0024801 -0.0040912
3418000000 0.0024957 -0.0037975 0.9975043 0.0037975 0.9975043 0.0037975 0.0024957 -0.0037975
3439000000 0.0025116 -0.0035058 0.9974884 0.0035058 0.9974884 0.0035058 0.0025116 -0.0035058
3460000000 0.0025278 -0.0032160 0.9974722 0.0032160 0.9974722 0.0032160 0.0025278 -0.0032160
3481000000 0.0025443 -0.0029281 0.9974557 0.0029281 0.9974557 0.0029281 0.0025443 -0.0029281
3502000000 0.0025612 -0.0026421 0.9974388 0.0026421 0.9974388 0.0026421 0.0025612 -0.0026421
3523000000 0.0025783 -0.0023580 0.9974217 0.0023580 0.9974217 0.0023580 0.0025783 -0.0023580
3544000000 0.0025957 -0.0020756 0.9974043 0.0020756 0.9974043 0.0020756 0.0025957 -0.0020756
3565000000 0.0026134 -0.0017950 0.9973866 0.0017950 0.9973866 0.0017950 0.0026134 -0.0017950
3586000000 0.0026314 -0.0015162 0.9973686 0.0015162 0.9973686 0.0015162 0.0026314 -0.0015162
3607000000 0.0026497 -0.0012390 0.9973503 0.0012390 0.9973503 0.0012390 0.0026497 -0.0012390
3628000000 0.0026682 -0.0009636 0.9973318 0.0009636 0.9973318 0.0009636 0.0026682 -0.0009636
3649000000 0.0026871 -0.0006898 0.9973129 0.0006898 0.9973129 0.0006898 0.0026871 -0.0006898
3670000000 0.0027062 -0.0004176 0.9972938 0.0004176 0.9972938 0.0004176 0.0027062 -0.0004176
3691000000 0.0027256 -0.0001471 0.9972744 0.0001471 0.9972744 0.0001471 0.0027256 -0.0001471
3712000000 0.0027452 0.0001219 0.9972548 -0.0001219 0.9972548 -0.0001219 0.0027452 0.0001219
3733000000 0.0027652 0.0003893 0.9972348 -0.0003893 0.9972348 -0.0003893 0.0027652 0.0003893
3754000000 0.0027854 0.0006553 0.9972146 -0.0006553 0.9972146 -0.0006553 0.0027854 0.0006553
3775000000 0.0028059 0.0009197 0.9971941 -0.0009197 0.9971941 -0.0009197 0.0028059 0.0009197
3796000000 0.0028266 0.0011826 0.9971734 -0.0011826 0.9971734 -0.0011826 0.0028266 0.0011826
3817000000 0.0028476 0.0014441 0.9971524 -0.0014441 0.9971524 -0.0014441 0.0028476 0.0014441
3838000000 0.0028689 0.0017041 0.9971311 -0.0017041 0.9971311 -0.0017041 0.0028689 0.0017041
3859000000 0.0028904 0.0019627 0.9971096 -0.0019627 0.9971096 -0.0019627 0.0028904 0.0019627
3880000000 0.0029122 0.0022200 0.9970878 -0.0022200 0.9970878 -0.0022200 0.0029122 0.0022200
3901000000 0.0029342 0.0024759 0.9970658 -0.0024759 0.9970658 -0.0024759 0.0029342 0.0024759
3922000000 0.0029565 0.0027304 0.9970435 -0.0027304 0.9970435 -0.0027304 0.0029565 0.0027304
3943000000 0.0029791 0.0029836 0.9970209 -0.0029836 0.9970209 -0.0029836 0.0029791 0.0029836
3964000000 0.0030018 0.0032355 0.9969982 -0.0032355 0.9969982 -0.0032355 0.0030018 0.0032355
3985000000 0.0030249 0.0034862 0.9969751 -0.0034862 0.9969751 -0.0034862 0.0030249 0.0034862
4006000000 0.0030482 0.0037355 0.9969518 -0.0037355 0.9969518 -0.0037355 0.0030482 0.0037355
4027000000 0.0030717 0.0039837 0.9969283 -0.0039837 0.9969283 -0.0039837 0.0030717 0.0039837
4048000000 0.0030955 0.0042306 0.9969045 -0.0042306 0.9969045 -0.0042306 0.0030955 0.0042306
4069000000 0.0031195 0.0044762 0.9968805 -0.0044762 0.9968805 -0.0044762 0.0031195 0.0044762
4090000000 0.0031438 0.0047207 0.9968562 -0.0047207 0.9968562 -0.0047207 0.0031438 0.0047207
4111000000 0.0031683 0.0049641 0.9968317 -0.0049641 0.9968317 -0.0049641 0.0031683 0.0049641
4132000000 0.0031930 0.0052062 0.9968070 -0.0052062 0.9968070 -0.0052062 0.0031930 0.0052062
4153000000 0.0032180 0.0054473 0.9967820 -0.0054473 0.9967820 -0.0054473 0.0032180 0.0054473
4174000000 0.0032432 0.0056871 0.9967568 -0.0056871 0.9967568 -0.0056871 0.0032432 0.0056871
4195000000 0.0032687 0.0059259 0.9967313 -0.0059259 0.9967313 -0.0059259 0.0032687 0.0059259
4216000000 0.0032943 0.0061636 0.9967057 -0.0061636 0.9967057 -0.0061636 0.0032943 0.0061636
4237000000 0.0033203 0.0064003 0.9966797 -0.0064003 0.9966797 -0.0064003 0.0033203 0.0064003
4258000000 0.0033464 0.0066358 0.9966536 -0.0066358 0.9966536 -0.0066358 0.0033464 0.0066358
4279000000 0.0033728 0.0068703 0.9966272 -0.0068703 0.9966272 -0.0068703 0.0033728 0.0068703
4300000000 0.0033994 0.0071038 0.9966006 -0.0071038 0.9966006 -0.0071038 0.0033994 0.0071038
4321000000 0.0034263 0.0073363 0.9965737 -0.0073363 0.9965737 -0.0073363 0.0034263 0.0073363
4342000000 0.0034533 0.0075677 0.9965467 -0.0075677 0.9965467 -0.0075677 0.0034533 0.0075677
4363000000 0.0034806 0.0077982 0.9965194 -0.0077982 0.9965194 -0.0077982 0.0034806 0.0077982
4384000000 0.0035082 0.0080276 0.9964918 -0.0080276 0.9964918 -0.0080276 0.0035082 0.0080276
4405000000 0.0035359 0.0082561 0.9964641 -0.0082561 0.9964641 -0.0082561 0.0035359 0.0082561
4426000000 0.0035639 0.0084837 0.9964361 -0.0084837 0.9964361 -0.0084837 0.0035639 0.0084837
4447000000 0.0035921 0.0087103 0.9964079 -0.0087103 0.9964079 -0.0087103 0.0035921 0.0087103
4468000000 0.0036205 0.0089360 0.9963795 -0.0089360 0.9963795 -0.0089360 0.0036205 0.0089360
4489000000 0.0036492 0.0091608 0.9963508 -0.0091608 0.9963508 -0.0091608 0.0036492 0.0091608
4510000000 0.0036780 0.0093847 0.9963220 -0.0093847 0.9963220 -0.0093847 0.0036780 0.0093847
