!Murata Part Number: GRM0115C1C2R4CE01
!These Parameters are Measured in Series Mode Connection
!Data Generated on Mar 30, 2021
!       o--ll--o
!Port1            Port2
!       o------o
!Operation Temp=25[degC], DC Bias Voltage=0[V]
!Freq. Start=100[MHz] Stop=9[GHz] 401[Steps]
# Hz S RI R 50
!Freq.(Hz) S11(Real) S11(Imag) S21(Real) S21(Imag) S12(Real) S12(Imag) S22(Real) S22(Imag)
100000000 0.9777136 -0.1474464 0.0222864 0.1474464 0.0222864 0.1474464 0.9777136 -0.1474464
121000000 0.9677016 -0.1765892 0.0322984 0.1765892 0.0322984 0.1765892 0.9677016 -0.1765892
142000000 0.9560485 -0.2047495 0.0439515 0.2047495 0.0439515 0.2047495 0.9560485 -0.2047495
163000000 0.9428779 -0.2318022 0.0571221 0.2318022 0.0571221 0.2318022 0.9428779 -0.2318022
184000000 0.9283242 -0.2576408 0.0716758 0.2576408 0.0716758 0.2576408 0.9283242 -0.2576408
205000000 0.9125292 -0.2821780 0.0874708 0.2821780 0.0874708 0.2821780 0.9125292 -0.2821780
226000000 0.8956392 -0.3053458 0.1043608 0.3053458 0.1043608 0.3053458 0.8956392 -0.3053458
247000000 0.8778020 -0.3270953 0.1221980 0.3270953 0.1221980 0.3270953 0.8778020 -0.3270953
268000000 0.8591642 -0.3473959 0.1408358 0.3473959 0.1408358 0.3473959 0.8591642 -0.3473959
289000000 0.8398690 -0.3662338 0.1601310 0.3662338 0.1601310 0.3662338 0.8398690 -0.3662338
310000000 0.8200541 -0.3836109 0.1799459 0.3836109 0.1799459 0.3836109 0.8200541 -0.3836109
331000000 0.7998499 -0.3995428 0.2001501 0.3995428 0.2001501 0.3995428 0.7998499 -0.3995428
352000000 0.7793787 -0.4140572 0.2206213 0.4140572 0.2206213 0.4140572 0.7793787 -0.4140572
373000000 0.7587534 -0.4271920 0.2412466 0.4271920 0.2412466 0.4271920 0.7587534 -0.4271920
394000000 0.7380772 -0.4389938 0.2619228 0.4389938 0.2619228 0.4389938 0.7380772 -0.4389938
415000000 0.7174433 -0.4495156 0.2825567 0.4495156 0.2825567 0.4495156 0.7174433 -0.4495156
436000000 0.6969345 -0.4588158 0.3030655 0.4588158 0.3030655 0.4588158 0.6969345 -0.4588158
457000000 0.6766241 -0.4669564 0.3233759 0.4669564 0.3233759 0.4669564 0.6766241 -0.4669564
478000000 0.6565756 -0.4740017 0.3434244 0.4740017 0.3434244 0.4740017 0.6565756 -0.4740017
499000000 0.6368436 -0.4800175 0.3631564 0.4800175 0.3631564 0.4800175 0.6368436 -0.4800175
520000000 0.6174741 -0.4850696 0.3825259 0.4850696 0.3825259 0.4850696 0.6174741 -0.4850696
541000000 0.5985054 -0.4892233 0.4014946 0.4892233 0.4014946 0.4892233 0.5985054 -0.4892233
562000000 0.5799683 -0.4925427 0.4200317 0.4925427 0.4200317 0.4925427 0.5799683 -0.4925427
583000000 0.5618875 -0.4950901 0.4381125 0.4950901 0.4381125 0.4950901 0.5618875 -0.4950901
604000000 0.5442815 -0.4969256 0.4557185 0.4969256 0.4557185 0.4969256 0.5442815 -0.4969256
625000000 0.5271638 -0.4981067 0.4728362 0.4981067 0.4728362 0.4981067 0.5271638 -0.4981067
646000000 0.5105432 -0.4986882 0.4894568 0.4986882 0.4894568 0.4986882 0.5105432 -0.4986882
667000000 0.4944245 -0.4987220 0.5055755 0.4987220 0.5055755 0.4987220 0.4944245 -0.4987220
688000000 0.4788092 -0.4982570 0.5211908 0.4982570 0.5211908 0.4982570 0.4788092 -0.4982570
709000000 0.4636956 -0.4973392 0.5363044 0.4973392 0.5363044 0.4973392 0.4636956 -0.4973392
730000000 0.4490795 -0.4960113 0.5509205 0.4960113 0.5509205 0.4960113 0.4490795 -0.4960113
751000000 0.4349546 -0.4943135 0.5650454 0.4943135 0.5650454 0.4943135 0.4349546 -0.4943135
772000000 0.4213130 -0.4922830 0.5786870 0.4922830 0.5786870 0.4922830 0.4213130 -0.4922830
793000000 0.4081451 -0.4899542 0.5918549 0.4899542 0.5918549 0.4899542 0.4081451 -0.4899542
814000000 0.3954403 -0.4873589 0.6045597 0.4873589 0.6045597 0.4873589 0.3954403 -0.4873589
835000000 0.3831870 -0.4845265 0.6168130 0.4845265 0.6168130 0.4845265 0.3831870 -0.4845265
856000000 0.3713730 -0.4814840 0.6286270 0.4814840 0.6286270 0.4814840 0.3713730 -0.4814840
877000000 0.3599856 -0.4782562 0.6400144 0.4782562 0.6400144 0.4782562 0.3599856 -0.4782562
898000000 0.3490116 -0.4748658 0.6509884 0.4748658 0.6509884 0.4748658 0.3490116 -0.4748658
919000000 0.3384379 -0.4713337 0.6615621 0.4713337 0.6615621 0.4713337 0.3384379 -0.4713337
940000000 0.3282509 -0.4676789 0.6717491 0.4676789 0.6717491 0.4676789 0.3282509 -0.4676789
961000000 0.3184373 -0.4639187 0.6815627 0.4639187 0.6815627 0.4639187 0.3184373 -0.4639187
982000000 0.3089839 -0.4600689 0.6910161 0.4600689 0.6910161 0.4600689 0.3089839 -0.4600689
1003000000 0.2998775 -0.4561438 0.7001225 0.4561438 0.7001225 0.4561438 0.2998775 -0.4561438
1024000000 0.2911052 -0.4521565 0.7088948 0.4521565 0.7088948 0.4521565 0.2911052 -0.4521565
1045000000 0.2826545 -0.4481188 0.7173455 0.4481188 0.7173455 0.4481188 0.2826545 -0.4481188
1066000000 0.2745129 -0.4440414 0.7254871 0.4440414 0.7254871 0.4440414 0.2745129 -0.4440414
1087000000 0.2666685 -0.4399339 0.7333315 0.4399339 0.7333315 0.4399339 0.2666685 -0.4399339
1108000000 0.2591096 -0.4358052 0.7408904 0.4358052 0.7408904 0.4358052 0.2591096 -0.4358052
1129000000 0.2518248 -0.4316631 0.7481752 0.4316631 0.7481752 0.4316631 0.2518248 -0.4316631
1150000000 0.2448033 -0.4275146 0.7551967 0.4275146 0.7551967 0.4275146 0.2448033 -0.4275146
1171000000 0.2380345 -0.4233661 0.7619655 0.4233661 0.7619655 0.4233661 0.2380345 -0.4233661
1192000000 0.2315081 -0.4192234 0.7684919 0.4192234 0.7684919 0.4192234 0.2315081 -0.4192234
1213000000 0.2252144 -0.4150915 0.7747856 0.4150915 0.7747856 0.4150915 0.2252144 -0.4150915
1234000000 0.2191440 -0.4109749 0.7808560 0.4109749 0.7808560 0.4109749 0.2191440 -0.4109749
1255000000 0.2132877 -0.4068778 0.7867123 0.4068778 0.7867123 0.4068778 0.2132877 -0.4068778
1276000000 0.2076369 -0.4028036 0.7923631 0.4028036 0.7923631 0.4028036 0.2076369 -0.4028036
1297000000 0.2021831 -0.3987557 0.7978169 0.3987557 0.7978169 0.3987557 0.2021831 -0.3987557
1318000000 0.1969184 -0.3947367 0.8030816 0.3947367 0.8030816 0.3947367 0.1969184 -0.3947367
1339000000 0.1918351 -0.3907492 0.8081649 0.3907492 0.8081649 0.3907492 0.1918351 -0.3907492
1360000000 0.1869258 -0.3867953 0.8130742 0.3867953 0.8130742 0.3867953 0.1869258 -0.3867953
1381000000 0.1821835 -0.3828769 0.8178165 0.3828769 0.8178165 0.3828769 0.1821835 -0.3828769
1402000000 0.1776013 -0.3789955 0.8223987 0.3789955 0.8223987 0.3789955 0.1776013 -0.3789955
1423000000 0.1731730 -0.3751526 0.8268270 0.3751526 0.8268270 0.3751526 0.1731730 -0.3751526
1444000000 0.1688922 -0.3713493 0.8311078 0.3713493 0.8311078 0.3713493 0.1688922 -0.3713493
1465000000 0.1647531 -0.3675867 0.8352469 0.3675867 0.8352469 0.3675867 0.1647531 -0.3675867
1486000000 0.1607500 -0.3638655 0.8392500 0.3638655 0.8392500 0.3638655 0.1607500 -0.3638655
1507000000 0.1568776 -0.3601863 0.8431224 0.3601863 0.8431224 0.3601863 0.1568776 -0.3601863
1528000000 0.1531305 -0.3565498 0.8468695 0.3565498 0.8468695 0.3565498 0.1531305 -0.3565498
1549000000 0.1495040 -0.3529562 0.8504960 0.3529562 0.8504960 0.3529562 0.1495040 -0.3529562
1570000000 0.1459933 -0.3494059 0.8540067 0.3494059 0.8540067 0.3494059 0.1459933 -0.3494059
1591000000 0.1425938 -0.3458991 0.8574062 0.3458991 0.8574062 0.3458991 0.1425938 -0.3458991
1612000000 0.1393013 -0.3424358 0.8606987 0.3424358 0.8606987 0.3424358 0.1393013 -0.3424358
1633000000 0.1361115 -0.3390160 0.8638885 0.3390160 0.8638885 0.3390160 0.1361115 -0.3390160
1654000000 0.1330206 -0.3356397 0.8669794 0.3356397 0.8669794 0.3356397 0.1330206 -0.3356397
1675000000 0.1300249 -0.3323067 0.8699751 0.3323067 0.8699751 0.3323067 0.1300249 -0.3323067
1696000000 0.1271205 -0.3290168 0.8728795 0.3290168 0.8728795 0.3290168 0.1271205 -0.3290168
1717000000 0.1243042 -0.3257698 0.8756958 0.3257698 0.8756958 0.3257698 0.1243042 -0.3257698
1738000000 0.1215726 -0.3225655 0.8784274 0.3225655 0.8784274 0.3225655 0.1215726 -0.3225655
1759000000 0.1189225 -0.3194034 0.8810775 0.3194034 0.8810775 0.3194034 0.1189225 -0.3194034
1780000000 0.1163510 -0.3162832 0.8836490 0.3162832 0.8836490 0.3162832 0.1163510 -0.3162832
1801000000 0.1138550 -0.3132045 0.8861450 0.3132045 0.8861450 0.3132045 0.1138550 -0.3132045
1822000000 0.1114320 -0.3101668 0.8885680 0.3101668 0.8885680 0.3101668 0.1114320 -0.3101668
1843000000 0.1090791 -0.3071698 0.8909209 0.3071698 0.8909209 0.3071698 0.1090791 -0.3071698
1864000000 0.1067938 -0.3042130 0.8932062 0.3042130 0.8932062 0.3042130 0.1067938 -0.3042130
1885000000 0.1045738 -0.3012959 0.8954262 0.3012959 0.8954262 0.3012959 0.1045738 -0.3012959
1906000000 0.1024166 -0.2984179 0.8975834 0.2984179 0.8975834 0.2984179 0.1024166 -0.2984179
1927000000 0.1003201 -0.2955786 0.8996799 0.2955786 0.8996799 0.2955786 0.1003201 -0.2955786
1948000000 0.0982821 -0.2927774 0.9017179 0.2927774 0.9017179 0.2927774 0.0982821 -0.2927774
1969000000 0.0963006 -0.2900139 0.9036994 0.2900139 0.9036994 0.2900139 0.0963006 -0.2900139
1990000000 0.0943735 -0.2872875 0.9056265 0.2872875 0.9056265 0.2872875 0.0943735 -0.2872875
2011000000 0.0924990 -0.2845975 0.9075010 0.2845975 0.9075010 0.2845975 0.0924990 -0.2845975
2032000000 0.0906753 -0.2819436 0.9093247 0.2819436 0.9093247 0.2819436 0.0906753 -0.2819436
2053000000 0.0889007 -0.2793252 0.9110993 0.2793252 0.9110993 0.2793252 0.0889007 -0.2793252
2074000000 0.0871735 -0.2767417 0.9128265 0.2767417 0.9128265 0.2767417 0.0871735 -0.2767417
2095000000 0.0854920 -0.2741925 0.9145080 0.2741925 0.9145080 0.2741925 0.0854920 -0.2741925
2116000000 0.0838548 -0.2716772 0.9161452 0.2716772 0.9161452 0.2716772 0.0838548 -0.2716772
2137000000 0.0822604 -0.2691951 0.9177396 0.2691951 0.9177396 0.2691951 0.0822604 -0.2691951
2158000000 0.0807073 -0.2667458 0.9192927 0.2667458 0.9192927 0.2667458 0.0807073 -0.2667458
2179000000 0.0791942 -0.2643287 0.9208058 0.2643287 0.9208058 0.2643287 0.0791942 -0.2643287
2200000000 0.0777199 -0.2619433 0.9222801 0.2619433 0.9222801 0.2619433 0.0777199 -0.2619433
2221000000 0.0762830 -0.2595891 0.9237170 0.2595891 0.9237170 0.2595891 0.0762830 -0.2595891
2242000000 0.0748823 -0.2572655 0.9251177 0.2572655 0.9251177 0.2572655 0.0748823 -0.2572655
2263000000 0.0735167 -0.2549720 0.9264833 0.2549720 0.9264833 0.2549720 0.0735167 -0.2549720
2284000000 0.0721851 -0.2527081 0.9278149 0.2527081 0.9278149 0.2527081 0.0721851 -0.2527081
2305000000 0.0708863 -0.2504734 0.9291137 0.2504734 0.9291137 0.2504734 0.0708863 -0.2504734
2326000000 0.0696194 -0.2482673 0.9303806 0.2482673 0.9303806 0.2482673 0.0696194 -0.2482673
2347000000 0.0683834 -0.2460893 0.9316166 0.2460893 0.9316166 0.2460893 0.0683834 -0.2460893
2368000000 0.0671773 -0.2439390 0.9328227 0.2439390 0.9328227 0.2439390 0.0671773 -0.2439390
2389000000 0.0660001 -0.2418158 0.9339999 0.2418158 0.9339999 0.2418158 0.0660001 -0.2418158
2410000000 0.0648511 -0.2397194 0.9351489 0.2397194 0.9351489 0.2397194 0.0648511 -0.2397194
2431000000 0.0637293 -0.2376492 0.9362707 0.2376492 0.9362707 0.2376492 0.0637293 -0.2376492
2452000000 0.0626340 -0.2356049 0.9373660 0.2356049 0.9373660 0.2356049 0.0626340 -0.2356049
2473000000 0.0615643 -0.2335858 0.9384357 0.2335858 0.9384357 0.2335858 0.0615643 -0.2335858
2494000000 0.0605194 -0.2315917 0.9394806 0.2315917 0.9394806 0.2315917 0.0605194 -0.2315917
2515000000 0.0594987 -0.2296221 0.9405013 0.2296221 0.9405013 0.2296221 0.0594987 -0.2296221
2536000000 0.0585014 -0.2276765 0.9414986 0.2276765 0.9414986 0.2276765 0.0585014 -0.2276765
2557000000 0.0575268 -0.2257546 0.9424732 0.2257546 0.9424732 0.2257546 0.0575268 -0.2257546
2578000000 0.0565744 -0.2238559 0.9434256 0.2238559 0.9434256 0.2238559 0.0565744 -0.2238559
2599000000 0.0556433 -0.2219801 0.9443567 0.2219801 0.9443567 0.2219801 0.0556433 -0.2219801
2620000000 0.0547331 -0.2201267 0.9452669 0.2201267 0.9452669 0.2201267 0.0547331 -0.2201267
2641000000 0.0538432 -0.2182953 0.9461568 0.2182953 0.9461568 0.2182953 0.0538432 -0.2182953
2662000000 0.0529729 -0.2164856 0.9470271 0.2164856 0.9470271 0.2164856 0.0529729 -0.2164856
2683000000 0.0521217 -0.2146973 0.9478783 0.2146973 0.9478783 0.2146973 0.0521217 -0.2146973
2704000000 0.0512891 -0.2129298 0.9487109 0.2129298 0.9487109 0.2129298 0.0512891 -0.2129298
2725000000 0.0504745 -0.2111830 0.9495255 0.2111830 0.9495255 0.2111830 0.0504745 -0.2111830
2746000000 0.0496775 -0.2094563 0.9503225 0.2094563 0.9503225 0.2094563 0.0496775 -0.2094563
2767000000 0.0488976 -0.2077496 0.9511024 0.2077496 0.9511024 0.2077496 0.0488976 -0.2077496
2788000000 0.0481343 -0.2060624 0.9518657 0.2060624 0.9518657 0.2060624 0.0481343 -0.2060624
2809000000 0.0473872 -0.2043944 0.9526128 0.2043944 0.9526128 0.2043944 0.0473872 -0.2043944
2830000000 0.0466558 -0.2027453 0.9533442 0.2027453 0.9533442 0.2027453 0.0466558 -0.2027453
2851000000 0.0459397 -0.2011147 0.9540603 0.2011147 0.9540603 0.2011147 0.0459397 -0.2011147
2872000000 0.0452385 -0.1995024 0.9547615 0.1995024 0.9547615 0.1995024 0.0452385 -0.1995024
2893000000 0.0445518 -0.1979080 0.9554482 0.1979080 0.9554482 0.1979080 0.0445518 -0.1979080
2914000000 0.0438793 -0.1963313 0.9561207 0.1963313 0.9561207 0.1963313 0.0438793 -0.1963313
2935000000 0.0432205 -0.1947719 0.9567795 0.1947719 0.9567795 0.1947719 0.0432205 -0.1947719
2956000000 0.0425751 -0.1932296 0.9574249 0.1932296 0.9574249 0.1932296 0.0425751 -0.1932296
2977000000 0.0419427 -0.1917040 0.9580573 0.1917040 0.9580573 0.1917040 0.0419427 -0.1917040
2998000000 0.0413231 -0.1901950 0.9586769 0.1901950 0.9586769 0.1901950 0.0413231 -0.1901950
3019000000 0.0407159 -0.1887021 0.9592841 0.1887021 0.9592841 0.1887021 0.0407159 -0.1887021
3040000000 0.0401207 -0.1872252 0.9598793 0.1872252 0.9598793 0.1872252 0.0401207 -0.1872252
3061000000 0.0395374 -0.1857640 0.9604626 0.1857640 0.9604626 0.1857640 0.0395374 -0.1857640
3082000000 0.0389655 -0.1843183 0.9610345 0.1843183 0.9610345 0.1843183 0.0389655 -0.1843183
3103000000 0.0384048 -0.1828877 0.9615952 0.1828877 0.9615952 0.1828877 0.0384048 -0.1828877
3124000000 0.0378551 -0.1814720 0.9621449 0.1814720 0.9621449 0.1814720 0.0378551 -0.1814720
3145000000 0.0373160 -0.1800710 0.9626840 0.1800710 0.9626840 0.1800710 0.0373160 -0.1800710
3166000000 0.0367872 -0.1786845 0.9632128 0.1786845 0.9632128 0.1786845 0.0367872 -0.1786845
3187000000 0.0362687 -0.1773122 0.9637313 0.1773122 0.9637313 0.1773122 0.0362687 -0.1773122
3208000000 0.0357600 -0.1759539 0.9642400 0.1759539 0.9642400 0.1759539 0.0357600 -0.1759539
3229000000 0.0352610 -0.1746094 0.9647390 0.1746094 0.9647390 0.1746094 0.0352610 -0.1746094
3250000000 0.0347714 -0.1732784 0.9652286 0.1732784 0.9652286 0.1732784 0.0347714 -0.1732784
3271000000 0.0342910 -0.1719607 0.9657090 0.1719607 0.9657090 0.1719607 0.0342910 -0.1719607
3292000000 0.0338196 -0.1706562 0.9661804 0.1706562 0.9661804 0.1706562 0.0338196 -0.1706562
3313000000 0.0333570 -0.1693645 0.9666430 0.1693645 0.9666430 0.1693645 0.0333570 -0.1693645
3334000000 0.0329029 -0.1680856 0.9670971 0.1680856 0.9670971 0.1680856 0.0329029 -0.1680856
3355000000 0.0324572 -0.1668192 0.9675428 0.1668192 0.9675428 0.1668192 0.0324572 -0.1668192
3376000000 0.0320197 -0.1655651 0.9679803 0.1655651 0.9679803 0.1655651 0.0320197 -0.1655651
3397000000 0.0315902 -0.1643231 0.9684098 0.1643231 0.9684098 0.1643231 0.0315902 -0.1643231
3418000000 0.0311685 -0.1630931 0.9688315 0.1630931 0.9688315 0.1630931 0.0311685 -0.1630931
3439000000 0.0307544 -0.1618748 0.9692456 0.1618748 0.9692456 0.1618748 0.0307544 -0.1618748
3460000000 0.0303478 -0.1606680 0.9696522 0.1606680 0.9696522 0.1606680 0.0303478 -0.1606680
3481000000 0.0299485 -0.1594727 0.9700515 0.1594727 0.9700515 0.1594727 0.0299485 -0.1594727
3502000000 0.0295563 -0.1582886 0.9704437 0.1582886 0.9704437 0.1582886 0.0295563 -0.1582886
3523000000 0.0291711 -0.1571155 0.9708289 0.1571155 0.9708289 0.1571155 0.0291711 -0.1571155
3544000000 0.0287927 -0.1559534 0.9712073 0.1559534 0.9712073 0.1559534 0.0287927 -0.1559534
3565000000 0.0284210 -0.1548019 0.9715790 0.1548019 0.9715790 0.1548019 0.0284210 -0.1548019
3586000000 0.0280558 -0.1536610 0.9719442 0.1536610 0.9719442 0.1536610 0.0280558 -0.1536610
3607000000 0.0276969 -0.1525305 0.9723031 0.1525305 0.9723031 0.1525305 0.0276969 -0.1525305
3628000000 0.0273444 -0.1514102 0.9726556 0.1514102 0.9726556 0.1514102 0.0273444 -0.1514102
3649000000 0.0269979 -0.1503000 0.9730021 0.1503000 0.9730021 0.1503000 0.0269979 -0.1503000
3670000000 0.0266574 -0.1491998 0.9733426 0.1491998 0.9733426 0.1491998 0.0266574 -0.1491998
3691000000 0.0263228 -0.1481094 0.9736772 0.1481094 0.9736772 0.1481094 0.0263228 -0.1481094
3712000000 0.0259939 -0.1470286 0.9740061 0.1470286 0.9740061 0.1470286 0.0259939 -0.1470286
3733000000 0.0256706 -0.1459573 0.9743294 0.1459573 0.9743294 0.1459573 0.0256706 -0.1459573
3754000000 0.0253528 -0.1448954 0.9746472 0.1448954 0.9746472 0.1448954 0.0253528 -0.1448954
3775000000 0.0250403 -0.1438427 0.9749597 0.1438427 0.9749597 0.1438427 0.0250403 -0.1438427
3796000000 0.0247332 -0.1427992 0.9752668 0.1427992 0.9752668 0.1427992 0.0247332 -0.1427992
3817000000 0.0244312 -0.1417646 0.9755688 0.1417646 0.9755688 0.1417646 0.0244312 -0.1417646
3838000000 0.0241342 -0.1407388 0.9758658 0.1407388 0.9758658 0.1407388 0.0241342 -0.1407388
3859000000 0.0238422 -0.1397218 0.9761578 0.1397218 0.9761578 0.1397218 0.0238422 -0.1397218
3880000000 0.0235551 -0.1387134 0.9764449 0.1387134 0.9764449 0.1387134 0.0235551 -0.1387134
3901000000 0.0232727 -0.1377134 0.9767273 0.1377134 0.9767273 0.1377134 0.0232727 -0.1377134
3922000000 0.0229950 -0.1367218 0.9770050 0.1367218 0.9770050 0.1367218 0.0229950 -0.1367218
3943000000 0.0227218 -0.1357384 0.9772782 0.1357384 0.9772782 0.1357384 0.0227218 -0.1357384
3964000000 0.0224531 -0.1347632 0.9775469 0.1347632 0.9775469 0.1347632 0.0224531 -0.1347632
3985000000 0.0221888 -0.1337959 0.9778112 0.1337959 0.9778112 0.1337959 0.0221888 -0.1337959
4006000000 0.0219288 -0.1328366 0.9780712 0.1328366 0.9780712 0.1328366 0.0219288 -0.1328366
4027000000 0.0216730 -0.1318850 0.9783270 0.1318850 0.9783270 0.1318850 0.0216730 -0.1318850
4048000000 0.0214214 -0.1309412 0.9785786 0.1309412 0.9785786 0.1309412 0.0214214 -0.1309412
4069000000 0.0211738 -0.1300049 0.9788262 0.1300049 0.9788262 0.1300049 0.0211738 -0.1300049
4090000000 0.0209301 -0.1290760 0.9790699 0.1290760 0.9790699 0.1290760 0.0209301 -0.1290760
4111000000 0.0206904 -0.1281546 0.9793096 0.1281546 0.9793096 0.1281546 0.0206904 -0.1281546
4132000000 0.0204546 -0.1272404 0.9795454 0.1272404 0.9795454 0.1272404 0.0204546 -0.1272404
4153000000 0.0202224 -0.1263334 0.9797776 0.1263334 0.9797776 0.1263334 0.0202224 -0.1263334
4174000000 0.0199940 -0.1254334 0.9800060 0.1254334 0.9800060 0.1254334 0.0199940 -0.1254334
4195000000 0.0197692 -0.1245405 0.9802308 0.1245405 0.9802308 0.1245405 0.0197692 -0.1245405
4216000000 0.0195479 -0.1236544 0.9804521 0.1236544 0.9804521 0.1236544 0.0195479 -0.1236544
4237000000 0.0193301 -0.1227752 0.9806699 0.1227752 0.9806699 0.1227752 0.0193301 -0.1227752
4258000000 0.0191157 -0.1219026 0.9808843 0.1219026 0.9808843 0.1219026 0.0191157 -0.1219026
4279000000 0.0189047 -0.1210367 0.9810953 0.1210367 0.9810953 0.1210367 0.0189047 -0.1210367
4300000000 0.0186970 -0.1201773 0.9813030 0.1201773 0.9813030 0.1201773 0.0186970 -0.1201773
4321000000 0.0184925 -0.1193243 0.9815075 0.1193243 0.9815075 0.1193243 0.0184925 -0.1193243
4342000000 0.0182912 -0.1184778 0.9817088 0.1184778 0.9817088 0.1184778 0.0182912 -0.1184778
4363000000 0.0180930 -0.1176375 0.9819070 0.1176375 0.9819070 0.1176375 0.0180930 -0.1176375
4384000000 0.0178979 -0.1168034 0.9821021 0.1168034 0.9821021 0.1168034 0.0178979 -0.1168034
4405000000 0.0177058 -0.1159754 0.9822942 0.1159754 0.9822942 0.1159754 0.0177058 -0.1159754
4426000000 0.0175166 -0.1151535 0.9824834 0.1151535 0.9824834 0.1151535 0.0175166 -0.1151535
4447000000 0.0173303 -0.1143375 0.9826697 0.1143375 0.9826697 0.1143375 0.0173303 -0.1143375
4468000000 0.0171469 -0.1135275 0.9828531 0.1135275 0.9828531 0.1135275 0.0171469 -0.1135275
4489000000 0.0169664 -0.1127232 0.9830336 0.1127232 0.9830336 0.1127232 0.0169664 -0.1127232
4510000000 0.0167885 -0.1119247 0.9832115 0.1119247 0.9832115 0.1119247 0.0167885 -0.1119247
