!Murata Part Number: GRM0115C1C4R5BE01
!These Parameters are Measured in Series Mode Connection
!Data Generated on Mar 30, 2021
!       o--ll--o
!Port1            Port2
!       o------o
!Operation Temp=25[degC], DC Bias Voltage=0[V]
!Freq. Start=100[MHz] Stop=9[GHz] 401[Steps]
# Hz S RI R 50
!Freq.(Hz) S11(Real) S11(Imag) S21(Real) S21(Imag) S12(Real) S12(Imag) S22(Real) S22(Imag)
100000000 0.9258434 -0.2617962 0.0741566 0.2617962 0.0741566 0.2617962 0.9258434 -0.2617962
121000000 0.8950271 -0.3062407 0.1049729 0.3062407 0.1049729 0.3062407 0.8950271 -0.3062407
142000000 0.8609162 -0.3457076 0.1390838 0.3457076 0.1390838 0.3457076 0.8609162 -0.3457076
163000000 0.8244643 -0.3800497 0.1755357 0.3800497 0.1755357 0.3800497 0.8244643 -0.3800497
184000000 0.7865598 -0.4093121 0.2134402 0.4093121 0.2134402 0.4093121 0.7865598 -0.4093121
205000000 0.7479918 -0.4336931 0.2520082 0.4336931 0.2520082 0.4336931 0.7479918 -0.4336931
226000000 0.7094311 -0.4535029 0.2905689 0.4535029 0.2905689 0.4535029 0.7094311 -0.4535029
247000000 0.6714242 -0.4691239 0.3285758 0.4691239 0.3285758 0.4691239 0.6714242 -0.4691239
268000000 0.6343975 -0.4809775 0.3656025 0.4809775 0.3656025 0.4809775 0.6343975 -0.4809775
289000000 0.5986680 -0.4894968 0.4013320 0.4894968 0.4013320 0.4894968 0.5986680 -0.4894968
310000000 0.5644571 -0.4951064 0.4355429 0.4951064 0.4355429 0.4951064 0.5644571 -0.4951064
331000000 0.5319064 -0.4982089 0.4680936 0.4982089 0.4680936 0.4982089 0.5319064 -0.4982089
352000000 0.5010925 -0.4991759 0.4989075 0.4991759 0.4989075 0.4991759 0.5010925 -0.4991759
373000000 0.4720412 -0.4983435 0.5279588 0.4983435 0.5279588 0.4983435 0.4720412 -0.4983435
394000000 0.4447397 -0.4960111 0.5552603 0.4960111 0.5552603 0.4960111 0.4447397 -0.4960111
415000000 0.4191466 -0.4924415 0.5808534 0.4924415 0.5808534 0.4924415 0.4191466 -0.4924415
436000000 0.3952008 -0.4878634 0.6047992 0.4878634 0.6047992 0.4878634 0.3952008 -0.4878634
457000000 0.3728276 -0.4824736 0.6271724 0.4824736 0.6271724 0.4824736 0.3728276 -0.4824736
478000000 0.3519445 -0.4764402 0.6480555 0.4764402 0.6480555 0.4764402 0.3519445 -0.4764402
499000000 0.3324645 -0.4699061 0.6675355 0.4699061 0.6675355 0.4699061 0.3324645 -0.4699061
520000000 0.3143000 -0.4629919 0.6857000 0.4629919 0.6857000 0.4629919 0.3143000 -0.4629919
541000000 0.2973638 -0.4557986 0.7026362 0.4557986 0.7026362 0.4557986 0.2973638 -0.4557986
562000000 0.2815715 -0.4484108 0.7184285 0.4484108 0.7184285 0.4484108 0.2815715 -0.4484108
583000000 0.2668423 -0.4408988 0.7331577 0.4408988 0.7331577 0.4408988 0.2668423 -0.4408988
604000000 0.2530991 -0.4333204 0.7469009 0.4333204 0.7469009 0.4333204 0.2530991 -0.4333204
625000000 0.2402698 -0.4257235 0.7597302 0.4257235 0.7597302 0.4257235 0.2402698 -0.4257235
646000000 0.2282865 -0.4181469 0.7717135 0.4181469 0.7717135 0.4181469 0.2282865 -0.4181469
667000000 0.2170861 -0.4106223 0.7829139 0.4106223 0.7829139 0.4106223 0.2170861 -0.4106223
688000000 0.2066100 -0.4031750 0.7933900 0.4031750 0.7933900 0.4031750 0.2066100 -0.4031750
709000000 0.1968039 -0.3958253 0.8031961 0.3958253 0.8031961 0.3958253 0.1968039 -0.3958253
730000000 0.1876179 -0.3885892 0.8123821 0.3885892 0.8123821 0.3885892 0.1876179 -0.3885892
751000000 0.1790056 -0.3814788 0.8209944 0.3814788 0.8209944 0.3814788 0.1790056 -0.3814788
772000000 0.1709245 -0.3745034 0.8290755 0.3745034 0.8290755 0.3745034 0.1709245 -0.3745034
793000000 0.1633354 -0.3676699 0.8366646 0.3676699 0.8366646 0.3676699 0.1633354 -0.3676699
814000000 0.1562024 -0.3609828 0.8437976 0.3609828 0.8437976 0.3609828 0.1562024 -0.3609828
835000000 0.1494922 -0.3544453 0.8505078 0.3544453 0.8505078 0.3544453 0.1494922 -0.3544453
856000000 0.1431745 -0.3480589 0.8568255 0.3480589 0.8568255 0.3480589 0.1431745 -0.3480589
877000000 0.1372212 -0.3418240 0.8627788 0.3418240 0.8627788 0.3418240 0.1372212 -0.3418240
898000000 0.1316067 -0.3357403 0.8683933 0.3357403 0.8683933 0.3357403 0.1316067 -0.3357403
919000000 0.1263071 -0.3298065 0.8736929 0.3298065 0.8736929 0.3298065 0.1263071 -0.3298065
940000000 0.1213008 -0.3240207 0.8786992 0.3240207 0.8786992 0.3240207 0.1213008 -0.3240207
961000000 0.1165676 -0.3183806 0.8834324 0.3183806 0.8834324 0.3183806 0.1165676 -0.3183806
982000000 0.1120892 -0.3128837 0.8879108 0.3128837 0.8879108 0.3128837 0.1120892 -0.3128837
1003000000 0.1078483 -0.3075269 0.8921517 0.3075269 0.8921517 0.3075269 0.1078483 -0.3075269
1024000000 0.1038295 -0.3023070 0.8961705 0.3023070 0.8961705 0.3023070 0.1038295 -0.3023070
1045000000 0.1000180 -0.2972207 0.8999820 0.2972207 0.8999820 0.2972207 0.1000180 -0.2972207
1066000000 0.0964006 -0.2922646 0.9035994 0.2922646 0.9035994 0.2922646 0.0964006 -0.2922646
1087000000 0.0929648 -0.2874351 0.9070352 0.2874351 0.9070352 0.2874351 0.0929648 -0.2874351
1108000000 0.0896993 -0.2827288 0.9103007 0.2827288 0.9103007 0.2827288 0.0896993 -0.2827288
1129000000 0.0865933 -0.2781421 0.9134067 0.2781421 0.9134067 0.2781421 0.0865933 -0.2781421
1150000000 0.0836371 -0.2736715 0.9163629 0.2736715 0.9163629 0.2736715 0.0836371 -0.2736715
1171000000 0.0808216 -0.2693135 0.9191784 0.2693135 0.9191784 0.2693135 0.0808216 -0.2693135
1192000000 0.0781383 -0.2650647 0.9218617 0.2650647 0.9218617 0.2650647 0.0781383 -0.2650647
1213000000 0.0755794 -0.2609216 0.9244206 0.2609216 0.9244206 0.2609216 0.0755794 -0.2609216
1234000000 0.0731376 -0.2568811 0.9268624 0.2568811 0.9268624 0.2568811 0.0731376 -0.2568811
1255000000 0.0708061 -0.2529398 0.9291939 0.2529398 0.9291939 0.2529398 0.0708061 -0.2529398
1276000000 0.0685785 -0.2490947 0.9314215 0.2490947 0.9314215 0.2490947 0.0685785 -0.2490947
1297000000 0.0664491 -0.2453427 0.9335509 0.2453427 0.9335509 0.2453427 0.0664491 -0.2453427
1318000000 0.0644122 -0.2416807 0.9355878 0.2416807 0.9355878 0.2416807 0.0644122 -0.2416807
1339000000 0.0624629 -0.2381060 0.9375371 0.2381060 0.9375371 0.2381060 0.0624629 -0.2381060
1360000000 0.0605962 -0.2346158 0.9394038 0.2346158 0.9394038 0.2346158 0.0605962 -0.2346158
1381000000 0.0588079 -0.2312073 0.9411921 0.2312073 0.9411921 0.2312073 0.0588079 -0.2312073
1402000000 0.0570936 -0.2278779 0.9429064 0.2278779 0.9429064 0.2278779 0.0570936 -0.2278779
1423000000 0.0554494 -0.2246251 0.9445506 0.2246251 0.9445506 0.2246251 0.0554494 -0.2246251
1444000000 0.0538718 -0.2214465 0.9461282 0.2214465 0.9461282 0.2214465 0.0538718 -0.2214465
1465000000 0.0523573 -0.2183397 0.9476427 0.2183397 0.9476427 0.2183397 0.0523573 -0.2183397
1486000000 0.0509027 -0.2153024 0.9490973 0.2153024 0.9490973 0.2153024 0.0509027 -0.2153024
1507000000 0.0495049 -0.2123325 0.9504951 0.2123325 0.9504951 0.2123325 0.0495049 -0.2123325
1528000000 0.0481611 -0.2094279 0.9518389 0.2094279 0.9518389 0.2094279 0.0481611 -0.2094279
1549000000 0.0468686 -0.2065864 0.9531314 0.2065864 0.9531314 0.2065864 0.0468686 -0.2065864
1570000000 0.0456251 -0.2038061 0.9543749 0.2038061 0.9543749 0.2038061 0.0456251 -0.2038061
1591000000 0.0444280 -0.2010852 0.9555720 0.2010852 0.9555720 0.2010852 0.0444280 -0.2010852
1612000000 0.0432752 -0.1984218 0.9567248 0.1984218 0.9567248 0.1984218 0.0432752 -0.1984218
1633000000 0.0421646 -0.1958142 0.9578354 0.1958142 0.9578354 0.1958142 0.0421646 -0.1958142
1654000000 0.0410942 -0.1932606 0.9589058 0.1932606 0.9589058 0.1932606 0.0410942 -0.1932606
1675000000 0.0400621 -0.1907594 0.9599379 0.1907594 0.9599379 0.1907594 0.0400621 -0.1907594
1696000000 0.0390667 -0.1883090 0.9609333 0.1883090 0.9609333 0.1883090 0.0390667 -0.1883090
1717000000 0.0381062 -0.1859080 0.9618938 0.1859080 0.9618938 0.1859080 0.0381062 -0.1859080
1738000000 0.0371791 -0.1835548 0.9628209 0.1835548 0.9628209 0.1835548 0.0371791 -0.1835548
1759000000 0.0362839 -0.1812480 0.9637161 0.1812480 0.9637161 0.1812480 0.0362839 -0.1812480
1780000000 0.0354192 -0.1789864 0.9645808 0.1789864 0.9645808 0.1789864 0.0354192 -0.1789864
1801000000 0.0345837 -0.1767685 0.9654163 0.1767685 0.9654163 0.1767685 0.0345837 -0.1767685
1822000000 0.0337760 -0.1745931 0.9662240 0.1745931 0.9662240 0.1745931 0.0337760 -0.1745931
1843000000 0.0329952 -0.1724590 0.9670048 0.1724590 0.9670048 0.1724590 0.0329952 -0.1724590
1864000000 0.0322399 -0.1703650 0.9677601 0.1703650 0.9677601 0.1703650 0.0322399 -0.1703650
1885000000 0.0315091 -0.1683099 0.9684909 0.1683099 0.9684909 0.1683099 0.0315091 -0.1683099
1906000000 0.0308019 -0.1662927 0.9691981 0.1662927 0.9691981 0.1662927 0.0308019 -0.1662927
1927000000 0.0301172 -0.1643124 0.9698828 0.1643124 0.9698828 0.1643124 0.0301172 -0.1643124
1948000000 0.0294542 -0.1623678 0.9705458 0.1623678 0.9705458 0.1623678 0.0294542 -0.1623678
1969000000 0.0288119 -0.1604580 0.9711881 0.1604580 0.9711881 0.1604580 0.0288119 -0.1604580
1990000000 0.0281896 -0.1585821 0.9718104 0.1585821 0.9718104 0.1585821 0.0281896 -0.1585821
2011000000 0.0275864 -0.1567391 0.9724136 0.1567391 0.9724136 0.1567391 0.0275864 -0.1567391
2032000000 0.0270016 -0.1549282 0.9729984 0.1549282 0.9729984 0.1549282 0.0270016 -0.1549282
2053000000 0.0264345 -0.1531484 0.9735655 0.1531484 0.9735655 0.1531484 0.0264345 -0.1531484
2074000000 0.0258844 -0.1513990 0.9741156 0.1513990 0.9741156 0.1513990 0.0258844 -0.1513990
2095000000 0.0253507 -0.1496791 0.9746493 0.1496791 0.9746493 0.1496791 0.0253507 -0.1496791
2116000000 0.0248327 -0.1479881 0.9751673 0.1479881 0.9751673 0.1479881 0.0248327 -0.1479881
2137000000 0.0243299 -0.1463250 0.9756701 0.1463250 0.9756701 0.1463250 0.0243299 -0.1463250
2158000000 0.0238417 -0.1446893 0.9761583 0.1446893 0.9761583 0.1446893 0.0238417 -0.1446893
2179000000 0.0233675 -0.1430801 0.9766325 0.1430801 0.9766325 0.1430801 0.0233675 -0.1430801
2200000000 0.0229068 -0.1414969 0.9770932 0.1414969 0.9770932 0.1414969 0.0229068 -0.1414969
2221000000 0.0224593 -0.1399390 0.9775407 0.1399390 0.9775407 0.1399390 0.0224593 -0.1399390
2242000000 0.0220243 -0.1384057 0.9779757 0.1384057 0.9779757 0.1384057 0.0220243 -0.1384057
2263000000 0.0216014 -0.1368964 0.9783986 0.1368964 0.9783986 0.1368964 0.0216014 -0.1368964
2284000000 0.0211903 -0.1354105 0.9788097 0.1354105 0.9788097 0.1354105 0.0211903 -0.1354105
2305000000 0.0207905 -0.1339475 0.9792095 0.1339475 0.9792095 0.1339475 0.0207905 -0.1339475
2326000000 0.0204015 -0.1325068 0.9795985 0.1325068 0.9795985 0.1325068 0.0204015 -0.1325068
2347000000 0.0200231 -0.1310878 0.9799769 0.1310878 0.9799769 0.1310878 0.0200231 -0.1310878
2368000000 0.0196549 -0.1296901 0.9803451 0.1296901 0.9803451 0.1296901 0.0196549 -0.1296901
2389000000 0.0192966 -0.1283130 0.9807034 0.1283130 0.9807034 0.1283130 0.0192966 -0.1283130
2410000000 0.0189477 -0.1269562 0.9810523 0.1269562 0.9810523 0.1269562 0.0189477 -0.1269562
2431000000 0.0186080 -0.1256192 0.9813920 0.1256192 0.9813920 0.1256192 0.0186080 -0.1256192
2452000000 0.0182772 -0.1243014 0.9817228 0.1243014 0.9817228 0.1243014 0.0182772 -0.1243014
2473000000 0.0179550 -0.1230024 0.9820450 0.1230024 0.9820450 0.1230024 0.0179550 -0.1230024
2494000000 0.0176411 -0.1217219 0.9823589 0.1217219 0.9823589 0.1217219 0.0176411 -0.1217219
2515000000 0.0173352 -0.1204593 0.9826648 0.1204593 0.9826648 0.1204593 0.0173352 -0.1204593
2536000000 0.0170372 -0.1192143 0.9829628 0.1192143 0.9829628 0.1192143 0.0170372 -0.1192143
2557000000 0.0167466 -0.1179865 0.9832534 0.1179865 0.9832534 0.1179865 0.0167466 -0.1179865
2578000000 0.0164634 -0.1167755 0.9835366 0.1167755 0.9835366 0.1167755 0.0164634 -0.1167755
2599000000 0.0161873 -0.1155808 0.9838127 0.1155808 0.9838127 0.1155808 0.0161873 -0.1155808
2620000000 0.0159180 -0.1144022 0.9840820 0.1144022 0.9840820 0.1144022 0.0159180 -0.1144022
2641000000 0.0156553 -0.1132393 0.9843447 0.1132393 0.9843447 0.1132393 0.0156553 -0.1132393
2662000000 0.0153991 -0.1120917 0.9846009 0.1120917 0.9846009 0.1120917 0.0153991 -0.1120917
2683000000 0.0151491 -0.1109592 0.9848509 0.1109592 0.9848509 0.1109592 0.0151491 -0.1109592
2704000000 0.0149052 -0.1098413 0.9850948 0.1098413 0.9850948 0.1098413 0.0149052 -0.1098413
2725000000 0.0146672 -0.1087378 0.9853328 0.1087378 0.9853328 0.1087378 0.0146672 -0.1087378
2746000000 0.0144348 -0.1076483 0.9855652 0.1076483 0.9855652 0.1076483 0.0144348 -0.1076483
2767000000 0.0142080 -0.1065726 0.9857920 0.1065726 0.9857920 0.1065726 0.0142080 -0.1065726
2788000000 0.0139866 -0.1055104 0.9860134 0.1055104 0.9860134 0.1055104 0.0139866 -0.1055104
2809000000 0.0137704 -0.1044614 0.9862296 0.1044614 0.9862296 0.1044614 0.0137704 -0.1044614
2830000000 0.0135593 -0.1034252 0.9864407 0.1034252 0.9864407 0.1034252 0.0135593 -0.1034252
2851000000 0.0133530 -0.1024018 0.9866470 0.1024018 0.9866470 0.1024018 0.0133530 -0.1024018
2872000000 0.0131516 -0.1013907 0.9868484 0.1013907 0.9868484 0.1013907 0.0131516 -0.1013907
2893000000 0.0129548 -0.1003917 0.9870452 0.1003917 0.9870452 0.1003917 0.0129548 -0.1003917
2914000000 0.0127625 -0.0994047 0.9872375 0.0994047 0.9872375 0.0994047 0.0127625 -0.0994047
2935000000 0.0125746 -0.0984292 0.9874254 0.0984292 0.9874254 0.0984292 0.0125746 -0.0984292
2956000000 0.0123909 -0.0974652 0.9876091 0.0974652 0.9876091 0.0974652 0.0123909 -0.0974652
2977000000 0.0122115 -0.0965124 0.9877885 0.0965124 0.9877885 0.0965124 0.0122115 -0.0965124
2998000000 0.0120360 -0.0955705 0.9879640 0.0955705 0.9879640 0.0955705 0.0120360 -0.0955705
3019000000 0.0118645 -0.0946394 0.9881355 0.0946394 0.9881355 0.0946394 0.0118645 -0.0946394
3040000000 0.0116968 -0.0937188 0.9883032 0.0937188 0.9883032 0.0937188 0.0116968 -0.0937188
3061000000 0.0115328 -0.0928085 0.9884672 0.0928085 0.9884672 0.0928085 0.0115328 -0.0928085
3082000000 0.0113725 -0.0919084 0.9886275 0.0919084 0.9886275 0.0919084 0.0113725 -0.0919084
3103000000 0.0112156 -0.0910182 0.9887844 0.0910182 0.9887844 0.0910182 0.0112156 -0.0910182
3124000000 0.0110622 -0.0901377 0.9889378 0.0901377 0.9889378 0.0901377 0.0110622 -0.0901377
3145000000 0.0109122 -0.0892668 0.9890878 0.0892668 0.9890878 0.0892668 0.0109122 -0.0892668
3166000000 0.0107654 -0.0884053 0.9892346 0.0884053 0.9892346 0.0884053 0.0107654 -0.0884053
3187000000 0.0106218 -0.0875530 0.9893782 0.0875530 0.9893782 0.0875530 0.0106218 -0.0875530
3208000000 0.0104813 -0.0867097 0.9895187 0.0867097 0.9895187 0.0867097 0.0104813 -0.0867097
3229000000 0.0103437 -0.0858753 0.9896563 0.0858753 0.9896563 0.0858753 0.0103437 -0.0858753
3250000000 0.0102092 -0.0850495 0.9897908 0.0850495 0.9897908 0.0850495 0.0102092 -0.0850495
3271000000 0.0100775 -0.0842323 0.9899225 0.0842323 0.9899225 0.0842323 0.0100775 -0.0842323
3292000000 0.0099486 -0.0834235 0.9900514 0.0834235 0.9900514 0.0834235 0.0099486 -0.0834235
3313000000 0.0098224 -0.0826229 0.9901776 0.0826229 0.9901776 0.0826229 0.0098224 -0.0826229
3334000000 0.0096989 -0.0818304 0.9903011 0.0818304 0.9903011 0.0818304 0.0096989 -0.0818304
3355000000 0.0095780 -0.0810458 0.9904220 0.0810458 0.9904220 0.0810458 0.0095780 -0.0810458
3376000000 0.0094596 -0.0802690 0.9905404 0.0802690 0.9905404 0.0802690 0.0094596 -0.0802690
3397000000 0.0093437 -0.0794999 0.9906563 0.0794999 0.9906563 0.0794999 0.0093437 -0.0794999
3418000000 0.0092301 -0.0787382 0.9907699 0.0787382 0.9907699 0.0787382 0.0092301 -0.0787382
3439000000 0.0091190 -0.0779840 0.9908810 0.0779840 0.9908810 0.0779840 0.0091190 -0.0779840
3460000000 0.0090102 -0.0772370 0.9909898 0.0772370 0.9909898 0.0772370 0.0090102 -0.0772370
3481000000 0.0089036 -0.0764972 0.9910964 0.0764972 0.9910964 0.0764972 0.0089036 -0.0764972
3502000000 0.0087992 -0.0757643 0.9912008 0.0757643 0.9912008 0.0757643 0.0087992 -0.0757643
3523000000 0.0086969 -0.0750384 0.9913031 0.0750384 0.9913031 0.0750384 0.0086969 -0.0750384
3544000000 0.0085967 -0.0743192 0.9914033 0.0743192 0.9914033 0.0743192 0.0085967 -0.0743192
3565000000 0.0084986 -0.0736066 0.9915014 0.0736066 0.9915014 0.0736066 0.0084986 -0.0736066
3586000000 0.0084025 -0.0729006 0.9915975 0.0729006 0.9915975 0.0729006 0.0084025 -0.0729006
3607000000 0.0083083 -0.0722010 0.9916917 0.0722010 0.9916917 0.0722010 0.0083083 -0.0722010
3628000000 0.0082161 -0.0715078 0.9917839 0.0715078 0.9917839 0.0715078 0.0082161 -0.0715078
3649000000 0.0081257 -0.0708207 0.9918743 0.0708207 0.9918743 0.0708207 0.0081257 -0.0708207
3670000000 0.0080372 -0.0701398 0.9919628 0.0701398 0.9919628 0.0701398 0.0080372 -0.0701398
3691000000 0.0079504 -0.0694649 0.9920496 0.0694649 0.9920496 0.0694649 0.0079504 -0.0694649
3712000000 0.0078654 -0.0687959 0.9921346 0.0687959 0.9921346 0.0687959 0.0078654 -0.0687959
3733000000 0.0077821 -0.0681327 0.9922179 0.0681327 0.9922179 0.0681327 0.0077821 -0.0681327
3754000000 0.0077005 -0.0674752 0.9922995 0.0674752 0.9922995 0.0674752 0.0077005 -0.0674752
3775000000 0.0076205 -0.0668233 0.9923795 0.0668233 0.9923795 0.0668233 0.0076205 -0.0668233
3796000000 0.0075422 -0.0661770 0.9924578 0.0661770 0.9924578 0.0661770 0.0075422 -0.0661770
3817000000 0.0074654 -0.0655362 0.9925346 0.0655362 0.9925346 0.0655362 0.0074654 -0.0655362
3838000000 0.0073901 -0.0649007 0.9926099 0.0649007 0.9926099 0.0649007 0.0073901 -0.0649007
3859000000 0.0073164 -0.0642704 0.9926836 0.0642704 0.9926836 0.0642704 0.0073164 -0.0642704
3880000000 0.0072441 -0.0636454 0.9927559 0.0636454 0.9927559 0.0636454 0.0072441 -0.0636454
3901000000 0.0071733 -0.0630255 0.9928267 0.0630255 0.9928267 0.0630255 0.0071733 -0.0630255
3922000000 0.0071039 -0.0624106 0.9928961 0.0624106 0.9928961 0.0624106 0.0071039 -0.0624106
3943000000 0.0070359 -0.0618006 0.9929641 0.0618006 0.9929641 0.0618006 0.0070359 -0.0618006
3964000000 0.0069692 -0.0611956 0.9930308 0.0611956 0.9930308 0.0611956 0.0069692 -0.0611956
3985000000 0.0069039 -0.0605953 0.9930961 0.0605953 0.9930961 0.0605953 0.0069039 -0.0605953
4006000000 0.0068399 -0.0599998 0.9931601 0.0599998 0.9931601 0.0599998 0.0068399 -0.0599998
4027000000 0.0067771 -0.0594089 0.9932229 0.0594089 0.9932229 0.0594089 0.0067771 -0.0594089
4048000000 0.0067157 -0.0588226 0.9932843 0.0588226 0.9932843 0.0588226 0.0067157 -0.0588226
4069000000 0.0066554 -0.0582408 0.9933446 0.0582408 0.9933446 0.0582408 0.0066554 -0.0582408
4090000000 0.0065964 -0.0576635 0.9934036 0.0576635 0.9934036 0.0576635 0.0065964 -0.0576635
4111000000 0.0065385 -0.0570905 0.9934615 0.0570905 0.9934615 0.0570905 0.0065385 -0.0570905
4132000000 0.0064819 -0.0565219 0.9935181 0.0565219 0.9935181 0.0565219 0.0064819 -0.0565219
4153000000 0.0064263 -0.0559575 0.9935737 0.0559575 0.9935737 0.0559575 0.0064263 -0.0559575
4174000000 0.0063719 -0.0553973 0.9936281 0.0553973 0.9936281 0.0553973 0.0063719 -0.0553973
4195000000 0.0063186 -0.0548412 0.9936814 0.0548412 0.9936814 0.0548412 0.0063186 -0.0548412
4216000000 0.0062663 -0.0542892 0.9937337 0.0542892 0.9937337 0.0542892 0.0062663 -0.0542892
4237000000 0.0062152 -0.0537412 0.9937848 0.0537412 0.9937848 0.0537412 0.0062152 -0.0537412
4258000000 0.0061650 -0.0531971 0.9938350 0.0531971 0.9938350 0.0531971 0.0061650 -0.0531971
4279000000 0.0061159 -0.0526570 0.9938841 0.0526570 0.9938841 0.0526570 0.0061159 -0.0526570
4300000000 0.0060678 -0.0521206 0.9939322 0.0521206 0.9939322 0.0521206 0.0060678 -0.0521206
4321000000 0.0060207 -0.0515881 0.9939793 0.0515881 0.9939793 0.0515881 0.0060207 -0.0515881
4342000000 0.0059745 -0.0510593 0.9940255 0.0510593 0.9940255 0.0510593 0.0059745 -0.0510593
4363000000 0.0059293 -0.0505341 0.9940707 0.0505341 0.9940707 0.0505341 0.0059293 -0.0505341
4384000000 0.0058851 -0.0500126 0.9941149 0.0500126 0.9941149 0.0500126 0.0058851 -0.0500126
4405000000 0.0058417 -0.0494946 0.9941583 0.0494946 0.9941583 0.0494946 0.0058417 -0.0494946
4426000000 0.0057993 -0.0489802 0.9942007 0.0489802 0.9942007 0.0489802 0.0057993 -0.0489802
4447000000 0.0057577 -0.0484692 0.9942423 0.0484692 0.9942423 0.0484692 0.0057577 -0.0484692
4468000000 0.0057171 -0.0479617 0.9942829 0.0479617 0.9942829 0.0479617 0.0057171 -0.0479617
4489000000 0.0056772 -0.0474575 0.9943228 0.0474575 0.9943228 0.0474575 0.0056772 -0.0474575
4510000000 0.0056383 -0.0469567 0.9943617 0.0469567 0.9943617 0.0469567 0.0056383 -0.0469567
