!Murata Part Number: GRM0115C1C4R7CE01
!These Parameters are Measured in Series Mode Connection
!Data Generated on Mar 30, 2021
!       o--ll--o
!Port1            Port2
!       o------o
!Operation Temp=25[degC], DC Bias Voltage=0[V]
!Freq. Start=100[MHz] Stop=9[GHz] 401[Steps]
# Hz S RI R 50
!Freq.(Hz) S11(Real) S11(Imag) S21(Real) S21(Imag) S12(Real) S12(Imag) S22(Real) S22(Imag)
100000000 0.9196469 -0.2716045 0.0803531 0.2716045 0.0803531 0.2716045 0.9196469 -0.2716045
121000000 0.8865697 -0.3168339 0.1134303 0.3168339 0.1134303 0.3168339 0.8865697 -0.3168339
142000000 0.8501685 -0.3565723 0.1498315 0.3565723 0.1498315 0.3565723 0.8501685 -0.3565723
163000000 0.8115134 -0.3907165 0.1884866 0.3907165 0.1884866 0.3907165 0.8115134 -0.3907165
184000000 0.7715832 -0.4193787 0.2284168 0.4193787 0.2284168 0.4193787 0.7715832 -0.4193787
205000000 0.7312289 -0.4428365 0.2687711 0.4428365 0.2687711 0.4428365 0.7312289 -0.4428365
226000000 0.6911565 -0.4614817 0.3088435 0.4614817 0.3088435 0.4614817 0.6911565 -0.4614817
247000000 0.6519252 -0.4757743 0.3480748 0.4757743 0.3480748 0.4757743 0.6519252 -0.4757743
268000000 0.6139570 -0.4862039 0.3860430 0.4862039 0.3860430 0.4862039 0.6139570 -0.4862039
289000000 0.5775516 -0.4932609 0.4224484 0.4932609 0.4224484 0.4932609 0.5775516 -0.4932609
310000000 0.5429059 -0.4974156 0.4570941 0.4974156 0.4570941 0.4974156 0.5429059 -0.4974156
331000000 0.5101325 -0.4991050 0.4898675 0.4991050 0.4898675 0.4991050 0.5101325 -0.4991050
352000000 0.4792780 -0.4987255 0.5207220 0.4987255 0.5207220 0.4987255 0.4792780 -0.4987255
373000000 0.4503390 -0.4966297 0.5496610 0.4966297 0.5496610 0.4966297 0.4503390 -0.4966297
394000000 0.4232751 -0.4931267 0.5767249 0.4931267 0.5767249 0.4931267 0.4232751 -0.4931267
415000000 0.3980203 -0.4884842 0.6019797 0.4884842 0.6019797 0.4884842 0.3980203 -0.4884842
436000000 0.3744915 -0.4829314 0.6255085 0.4829314 0.6255085 0.4829314 0.3744915 -0.4829314
457000000 0.3525952 -0.4766631 0.6474048 0.4766631 0.6474048 0.4766631 0.3525952 -0.4766631
478000000 0.3322330 -0.4698436 0.6677670 0.4698436 0.6677670 0.4698436 0.3322330 -0.4698436
499000000 0.3133045 -0.4626105 0.6866955 0.4626105 0.6866955 0.4626105 0.3133045 -0.4626105
520000000 0.2957110 -0.4550785 0.7042890 0.4550785 0.7042890 0.4550785 0.2957110 -0.4550785
541000000 0.2793564 -0.4473424 0.7206436 0.4473424 0.7206436 0.4473424 0.2793564 -0.4473424
562000000 0.2641490 -0.4394806 0.7358510 0.4394806 0.7358510 0.4394806 0.2641490 -0.4394806
583000000 0.2500022 -0.4315570 0.7499978 0.4315570 0.7499978 0.4315570 0.2500022 -0.4315570
604000000 0.2368345 -0.4236238 0.7631655 0.4236238 0.7631655 0.4236238 0.2368345 -0.4236238
625000000 0.2245702 -0.4157230 0.7754298 0.4157230 0.7754298 0.4157230 0.2245702 -0.4157230
646000000 0.2131390 -0.4078885 0.7868610 0.4078885 0.7868610 0.4078885 0.2131390 -0.4078885
667000000 0.2024757 -0.4001470 0.7975243 0.4001470 0.7975243 0.4001470 0.2024757 -0.4001470
688000000 0.1925204 -0.3925196 0.8074796 0.3925196 0.8074796 0.3925196 0.1925204 -0.3925196
709000000 0.1832180 -0.3850226 0.8167820 0.3850226 0.8167820 0.3850226 0.1832180 -0.3850226
730000000 0.1745179 -0.3776682 0.8254821 0.3776682 0.8254821 0.3776682 0.1745179 -0.3776682
751000000 0.1663736 -0.3704653 0.8336264 0.3704653 0.8336264 0.3704653 0.1663736 -0.3704653
772000000 0.1587426 -0.3634205 0.8412574 0.3634205 0.8412574 0.3634205 0.1587426 -0.3634205
793000000 0.1515859 -0.3565378 0.8484141 0.3565378 0.8484141 0.3565378 0.1515859 -0.3565378
814000000 0.1448677 -0.3498195 0.8551323 0.3498195 0.8551323 0.3498195 0.1448677 -0.3498195
835000000 0.1385553 -0.3432665 0.8614447 0.3432665 0.8614447 0.3432665 0.1385553 -0.3432665
856000000 0.1326189 -0.3368786 0.8673811 0.3368786 0.8673811 0.3368786 0.1326189 -0.3368786
877000000 0.1270308 -0.3306545 0.8729692 0.3306545 0.8729692 0.3306545 0.1270308 -0.3306545
898000000 0.1217660 -0.3245923 0.8782340 0.3245923 0.8782340 0.3245923 0.1217660 -0.3245923
919000000 0.1168013 -0.3186894 0.8831987 0.3186894 0.8831987 0.3186894 0.1168013 -0.3186894
940000000 0.1121155 -0.3129427 0.8878845 0.3129427 0.8878845 0.3129427 0.1121155 -0.3129427
961000000 0.1076892 -0.3073490 0.8923108 0.3073490 0.8923108 0.3073490 0.1076892 -0.3073490
982000000 0.1035045 -0.3019046 0.8964955 0.3019046 0.8964955 0.3019046 0.1035045 -0.3019046
1003000000 0.0995449 -0.2966056 0.9004551 0.2966056 0.9004551 0.2966056 0.0995449 -0.2966056
1024000000 0.0957953 -0.2914482 0.9042047 0.2914482 0.9042047 0.2914482 0.0957953 -0.2914482
1045000000 0.0922417 -0.2864284 0.9077583 0.2864284 0.9077583 0.2864284 0.0922417 -0.2864284
1066000000 0.0888713 -0.2815421 0.9111287 0.2815421 0.9111287 0.2815421 0.0888713 -0.2815421
1087000000 0.0856722 -0.2767853 0.9143278 0.2767853 0.9143278 0.2767853 0.0856722 -0.2767853
1108000000 0.0826334 -0.2721541 0.9173666 0.2721541 0.9173666 0.2721541 0.0826334 -0.2721541
1129000000 0.0797449 -0.2676444 0.9202551 0.2676444 0.9202551 0.2676444 0.0797449 -0.2676444
1150000000 0.0769971 -0.2632524 0.9230029 0.2632524 0.9230029 0.2632524 0.0769971 -0.2632524
1171000000 0.0743816 -0.2589743 0.9256184 0.2589743 0.9256184 0.2589743 0.0743816 -0.2589743
1192000000 0.0718902 -0.2548063 0.9281098 0.2548063 0.9281098 0.2548063 0.0718902 -0.2548063
1213000000 0.0695154 -0.2507448 0.9304846 0.2507448 0.9304846 0.2507448 0.0695154 -0.2507448
1234000000 0.0672504 -0.2467863 0.9327496 0.2467863 0.9327496 0.2467863 0.0672504 -0.2467863
1255000000 0.0650887 -0.2429274 0.9349113 0.2429274 0.9349113 0.2429274 0.0650887 -0.2429274
1276000000 0.0630243 -0.2391648 0.9369757 0.2391648 0.9369757 0.2391648 0.0630243 -0.2391648
1297000000 0.0610517 -0.2354952 0.9389483 0.2354952 0.9389483 0.2354952 0.0610517 -0.2354952
1318000000 0.0591656 -0.2319156 0.9408344 0.2319156 0.9408344 0.2319156 0.0591656 -0.2319156
1339000000 0.0573613 -0.2284228 0.9426387 0.2284228 0.9426387 0.2284228 0.0573613 -0.2284228
1360000000 0.0556343 -0.2250142 0.9443657 0.2250142 0.9443657 0.2250142 0.0556343 -0.2250142
1381000000 0.0539802 -0.2216867 0.9460198 0.2216867 0.9460198 0.2216867 0.0539802 -0.2216867
1402000000 0.0523953 -0.2184379 0.9476047 0.2184379 0.9476047 0.2184379 0.0523953 -0.2184379
1423000000 0.0508758 -0.2152649 0.9491242 0.2152649 0.9491242 0.2152649 0.0508758 -0.2152649
1444000000 0.0494182 -0.2121655 0.9505818 0.2121655 0.9505818 0.2121655 0.0494182 -0.2121655
1465000000 0.0480194 -0.2091371 0.9519806 0.2091371 0.9519806 0.2091371 0.0480194 -0.2091371
1486000000 0.0466764 -0.2061774 0.9533236 0.2061774 0.9533236 0.2061774 0.0466764 -0.2061774
1507000000 0.0453862 -0.2032843 0.9546138 0.2032843 0.9546138 0.2032843 0.0453862 -0.2032843
1528000000 0.0441463 -0.2004555 0.9558537 0.2004555 0.9558537 0.2004555 0.0441463 -0.2004555
1549000000 0.0429541 -0.1976890 0.9570459 0.1976890 0.9570459 0.1976890 0.0429541 -0.1976890
1570000000 0.0418074 -0.1949828 0.9581926 0.1949828 0.9581926 0.1949828 0.0418074 -0.1949828
1591000000 0.0407038 -0.1923350 0.9592962 0.1923350 0.9592962 0.1923350 0.0407038 -0.1923350
1612000000 0.0396414 -0.1897438 0.9603586 0.1897438 0.9603586 0.1897438 0.0396414 -0.1897438
1633000000 0.0386181 -0.1872073 0.9613819 0.1872073 0.9613819 0.1872073 0.0386181 -0.1872073
1654000000 0.0376321 -0.1847239 0.9623679 0.1847239 0.9623679 0.1847239 0.0376321 -0.1847239
1675000000 0.0366817 -0.1822920 0.9633183 0.1822920 0.9633183 0.1822920 0.0366817 -0.1822920
1696000000 0.0357653 -0.1799099 0.9642347 0.1799099 0.9642347 0.1799099 0.0357653 -0.1799099
1717000000 0.0348813 -0.1775761 0.9651187 0.1775761 0.9651187 0.1775761 0.0348813 -0.1775761
1738000000 0.0340282 -0.1752892 0.9659718 0.1752892 0.9659718 0.1752892 0.0340282 -0.1752892
1759000000 0.0332047 -0.1730478 0.9667953 0.1730478 0.9667953 0.1730478 0.0332047 -0.1730478
1780000000 0.0324094 -0.1708505 0.9675906 0.1708505 0.9675906 0.1708505 0.0324094 -0.1708505
1801000000 0.0316411 -0.1686960 0.9683589 0.1686960 0.9683589 0.1686960 0.0316411 -0.1686960
1822000000 0.0308987 -0.1665830 0.9691013 0.1665830 0.9691013 0.1665830 0.0308987 -0.1665830
1843000000 0.0301810 -0.1645104 0.9698190 0.1645104 0.9698190 0.1645104 0.0301810 -0.1645104
1864000000 0.0294871 -0.1624769 0.9705129 0.1624769 0.9705129 0.1624769 0.0294871 -0.1624769
1885000000 0.0288158 -0.1604815 0.9711842 0.1604815 0.9711842 0.1604815 0.0288158 -0.1604815
1906000000 0.0281662 -0.1585229 0.9718338 0.1585229 0.9718338 0.1585229 0.0281662 -0.1585229
1927000000 0.0275375 -0.1566003 0.9724625 0.1566003 0.9724625 0.1566003 0.0275375 -0.1566003
1948000000 0.0269289 -0.1547126 0.9730711 0.1547126 0.9730711 0.1547126 0.0269289 -0.1547126
1969000000 0.0263394 -0.1528588 0.9736606 0.1528588 0.9736606 0.1528588 0.0263394 -0.1528588
1990000000 0.0257683 -0.1510379 0.9742317 0.1510379 0.9742317 0.1510379 0.0257683 -0.1510379
2011000000 0.0252149 -0.1492492 0.9747851 0.1492492 0.9747851 0.1492492 0.0252149 -0.1492492
2032000000 0.0246785 -0.1474916 0.9753215 0.1474916 0.9753215 0.1474916 0.0246785 -0.1474916
2053000000 0.0241585 -0.1457643 0.9758415 0.1457643 0.9758415 0.1457643 0.0241585 -0.1457643
2074000000 0.0236542 -0.1440666 0.9763458 0.1440666 0.9763458 0.1440666 0.0236542 -0.1440666
2095000000 0.0231649 -0.1423976 0.9768351 0.1423976 0.9768351 0.1423976 0.0231649 -0.1423976
2116000000 0.0226902 -0.1407565 0.9773098 0.1407565 0.9773098 0.1407565 0.0226902 -0.1407565
2137000000 0.0222295 -0.1391427 0.9777705 0.1391427 0.9777705 0.1391427 0.0222295 -0.1391427
2158000000 0.0217823 -0.1375554 0.9782177 0.1375554 0.9782177 0.1375554 0.0217823 -0.1375554
2179000000 0.0213480 -0.1359940 0.9786520 0.1359940 0.9786520 0.1359940 0.0213480 -0.1359940
2200000000 0.0209262 -0.1344577 0.9790738 0.1344577 0.9790738 0.1344577 0.0209262 -0.1344577
2221000000 0.0205164 -0.1329460 0.9794836 0.1329460 0.9794836 0.1329460 0.0205164 -0.1329460
2242000000 0.0201183 -0.1314581 0.9798817 0.1314581 0.9798817 0.1314581 0.0201183 -0.1314581
2263000000 0.0197313 -0.1299936 0.9802687 0.1299936 0.9802687 0.1299936 0.0197313 -0.1299936
2284000000 0.0193552 -0.1285517 0.9806448 0.1285517 0.9806448 0.1285517 0.0193552 -0.1285517
2305000000 0.0189894 -0.1271320 0.9810106 0.1271320 0.9810106 0.1271320 0.0189894 -0.1271320
2326000000 0.0186337 -0.1257339 0.9813663 0.1257339 0.9813663 0.1257339 0.0186337 -0.1257339
2347000000 0.0182878 -0.1243569 0.9817122 0.1243569 0.9817122 0.1243569 0.0182878 -0.1243569
2368000000 0.0179512 -0.1230005 0.9820488 0.1230005 0.9820488 0.1230005 0.0179512 -0.1230005
2389000000 0.0176236 -0.1216641 0.9823764 0.1216641 0.9823764 0.1216641 0.0176236 -0.1216641
2410000000 0.0173048 -0.1203473 0.9826952 0.1203473 0.9826952 0.1203473 0.0173048 -0.1203473
2431000000 0.0169945 -0.1190496 0.9830055 0.1190496 0.9830055 0.1190496 0.0169945 -0.1190496
2452000000 0.0166924 -0.1177706 0.9833076 0.1177706 0.9833076 0.1177706 0.0166924 -0.1177706
2473000000 0.0163981 -0.1165098 0.9836019 0.1165098 0.9836019 0.1165098 0.0163981 -0.1165098
2494000000 0.0161116 -0.1152668 0.9838884 0.1152668 0.9838884 0.1152668 0.0161116 -0.1152668
2515000000 0.0158324 -0.1140412 0.9841676 0.1140412 0.9841676 0.1140412 0.0158324 -0.1140412
2536000000 0.0155604 -0.1128326 0.9844396 0.1128326 0.9844396 0.1128326 0.0155604 -0.1128326
2557000000 0.0152953 -0.1116406 0.9847047 0.1116406 0.9847047 0.1116406 0.0152953 -0.1116406
2578000000 0.0150370 -0.1104648 0.9849630 0.1104648 0.9849630 0.1104648 0.0150370 -0.1104648
2599000000 0.0147852 -0.1093048 0.9852148 0.1093048 0.9852148 0.1093048 0.0147852 -0.1093048
2620000000 0.0145397 -0.1081604 0.9854603 0.1081604 0.9854603 0.1081604 0.0145397 -0.1081604
2641000000 0.0143003 -0.1070311 0.9856997 0.1070311 0.9856997 0.1070311 0.0143003 -0.1070311
2662000000 0.0140668 -0.1059167 0.9859332 0.1059167 0.9859332 0.1059167 0.0140668 -0.1059167
2683000000 0.0138391 -0.1048167 0.9861609 0.1048167 0.9861609 0.1048167 0.0138391 -0.1048167
2704000000 0.0136170 -0.1037309 0.9863830 0.1037309 0.9863830 0.1037309 0.0136170 -0.1037309
2725000000 0.0134002 -0.1026590 0.9865998 0.1026590 0.9865998 0.1026590 0.0134002 -0.1026590
2746000000 0.0131887 -0.1016007 0.9868113 0.1016007 0.9868113 0.1016007 0.0131887 -0.1016007
2767000000 0.0129823 -0.1005557 0.9870177 0.1005557 0.9870177 0.1005557 0.0129823 -0.1005557
2788000000 0.0127809 -0.0995236 0.9872191 0.0995236 0.9872191 0.0995236 0.0127809 -0.0995236
2809000000 0.0125842 -0.0985043 0.9874158 0.0985043 0.9874158 0.0985043 0.0125842 -0.0985043
2830000000 0.0123923 -0.0974974 0.9876077 0.0974974 0.9876077 0.0974974 0.0123923 -0.0974974
2851000000 0.0122048 -0.0965028 0.9877952 0.0965028 0.9877952 0.0965028 0.0122048 -0.0965028
2872000000 0.0120217 -0.0955201 0.9879783 0.0955201 0.9879783 0.0955201 0.0120217 -0.0955201
2893000000 0.0118429 -0.0945491 0.9881571 0.0945491 0.9881571 0.0945491 0.0118429 -0.0945491
2914000000 0.0116683 -0.0935895 0.9883317 0.0935895 0.9883317 0.0935895 0.0116683 -0.0935895
2935000000 0.0114977 -0.0926412 0.9885023 0.0926412 0.9885023 0.0926412 0.0114977 -0.0926412
2956000000 0.0113311 -0.0917039 0.9886689 0.0917039 0.9886689 0.0917039 0.0113311 -0.0917039
2977000000 0.0111682 -0.0907774 0.9888318 0.0907774 0.9888318 0.0907774 0.0111682 -0.0907774
2998000000 0.0110091 -0.0898614 0.9889909 0.0898614 0.9889909 0.0898614 0.0110091 -0.0898614
3019000000 0.0108536 -0.0889558 0.9891464 0.0889558 0.9891464 0.0889558 0.0108536 -0.0889558
3040000000 0.0107016 -0.0880604 0.9892984 0.0880604 0.9892984 0.0880604 0.0107016 -0.0880604
3061000000 0.0105530 -0.0871749 0.9894470 0.0871749 0.9894470 0.0871749 0.0105530 -0.0871749
3082000000 0.0104078 -0.0862991 0.9895922 0.0862991 0.9895922 0.0862991 0.0104078 -0.0862991
3103000000 0.0102658 -0.0854330 0.9897342 0.0854330 0.9897342 0.0854330 0.0102658 -0.0854330
3124000000 0.0101270 -0.0845762 0.9898730 0.0845762 0.9898730 0.0845762 0.0101270 -0.0845762
3145000000 0.0099913 -0.0837286 0.9900087 0.0837286 0.9900087 0.0837286 0.0099913 -0.0837286
3166000000 0.0098586 -0.0828901 0.9901414 0.0828901 0.9901414 0.0828901 0.0098586 -0.0828901
3187000000 0.0097288 -0.0820604 0.9902712 0.0820604 0.9902712 0.0820604 0.0097288 -0.0820604
3208000000 0.0096018 -0.0812394 0.9903982 0.0812394 0.9903982 0.0812394 0.0096018 -0.0812394
3229000000 0.0094776 -0.0804269 0.9905224 0.0804269 0.9905224 0.0804269 0.0094776 -0.0804269
3250000000 0.0093562 -0.0796229 0.9906438 0.0796229 0.9906438 0.0796229 0.0093562 -0.0796229
3271000000 0.0092374 -0.0788270 0.9907626 0.0788270 0.9907626 0.0788270 0.0092374 -0.0788270
3292000000 0.0091211 -0.0780392 0.9908789 0.0780392 0.9908789 0.0780392 0.0091211 -0.0780392
3313000000 0.0090074 -0.0772593 0.9909926 0.0772593 0.9909926 0.0772593 0.0090074 -0.0772593
3334000000 0.0088961 -0.0764873 0.9911039 0.0764873 0.9911039 0.0764873 0.0088961 -0.0764873
3355000000 0.0087872 -0.0757228 0.9912128 0.0757228 0.9912128 0.0757228 0.0087872 -0.0757228
3376000000 0.0086807 -0.0749658 0.9913193 0.0749658 0.9913193 0.0749658 0.0086807 -0.0749658
3397000000 0.0085764 -0.0742162 0.9914236 0.0742162 0.9914236 0.0742162 0.0085764 -0.0742162
3418000000 0.0084744 -0.0734739 0.9915256 0.0734739 0.9915256 0.0734739 0.0084744 -0.0734739
3439000000 0.0083746 -0.0727386 0.9916254 0.0727386 0.9916254 0.0727386 0.0083746 -0.0727386
3460000000 0.0082768 -0.0720104 0.9917232 0.0720104 0.9917232 0.0720104 0.0082768 -0.0720104
3481000000 0.0081812 -0.0712890 0.9918188 0.0712890 0.9918188 0.0712890 0.0081812 -0.0712890
3502000000 0.0080875 -0.0705743 0.9919125 0.0705743 0.9919125 0.0705743 0.0080875 -0.0705743
3523000000 0.0079959 -0.0698663 0.9920041 0.0698663 0.9920041 0.0698663 0.0079959 -0.0698663
3544000000 0.0079062 -0.0691647 0.9920938 0.0691647 0.9920938 0.0691647 0.0079062 -0.0691647
3565000000 0.0078184 -0.0684696 0.9921816 0.0684696 0.9921816 0.0684696 0.0078184 -0.0684696
3586000000 0.0077324 -0.0677808 0.9922676 0.0677808 0.9922676 0.0677808 0.0077324 -0.0677808
3607000000 0.0076483 -0.0670981 0.9923517 0.0670981 0.9923517 0.0670981 0.0076483 -0.0670981
3628000000 0.0075659 -0.0664215 0.9924341 0.0664215 0.9924341 0.0664215 0.0075659 -0.0664215
3649000000 0.0074852 -0.0657509 0.9925148 0.0657509 0.9925148 0.0657509 0.0074852 -0.0657509
3670000000 0.0074063 -0.0650862 0.9925937 0.0650862 0.9925937 0.0650862 0.0074063 -0.0650862
3691000000 0.0073290 -0.0644273 0.9926710 0.0644273 0.9926710 0.0644273 0.0073290 -0.0644273
3712000000 0.0072533 -0.0637740 0.9927467 0.0637740 0.9927467 0.0637740 0.0072533 -0.0637740
3733000000 0.0071792 -0.0631264 0.9928208 0.0631264 0.9928208 0.0631264 0.0071792 -0.0631264
3754000000 0.0071067 -0.0624842 0.9928933 0.0624842 0.9928933 0.0624842 0.0071067 -0.0624842
3775000000 0.0070356 -0.0618475 0.9929644 0.0618475 0.9929644 0.0618475 0.0070356 -0.0618475
3796000000 0.0069661 -0.0612161 0.9930339 0.0612161 0.9930339 0.0612161 0.0069661 -0.0612161
3817000000 0.0068981 -0.0605899 0.9931019 0.0605899 0.9931019 0.0605899 0.0068981 -0.0605899
3838000000 0.0068314 -0.0599689 0.9931686 0.0599689 0.9931686 0.0599689 0.0068314 -0.0599689
3859000000 0.0067662 -0.0593530 0.9932338 0.0593530 0.9932338 0.0593530 0.0067662 -0.0593530
3880000000 0.0067023 -0.0587420 0.9932977 0.0587420 0.9932977 0.0587420 0.0067023 -0.0587420
3901000000 0.0066398 -0.0581360 0.9933602 0.0581360 0.9933602 0.0581360 0.0066398 -0.0581360
3922000000 0.0065786 -0.0575348 0.9934214 0.0575348 0.9934214 0.0575348 0.0065786 -0.0575348
3943000000 0.0065187 -0.0569384 0.9934813 0.0569384 0.9934813 0.0569384 0.0065187 -0.0569384
3964000000 0.0064600 -0.0563467 0.9935400 0.0563467 0.9935400 0.0563467 0.0064600 -0.0563467
3985000000 0.0064026 -0.0557596 0.9935974 0.0557596 0.9935974 0.0557596 0.0064026 -0.0557596
4006000000 0.0063464 -0.0551770 0.9936536 0.0551770 0.9936536 0.0551770 0.0063464 -0.0551770
4027000000 0.0062915 -0.0545990 0.9937085 0.0545990 0.9937085 0.0545990 0.0062915 -0.0545990
4048000000 0.0062376 -0.0540253 0.9937624 0.0540253 0.9937624 0.0540253 0.0062376 -0.0540253
4069000000 0.0061850 -0.0534560 0.9938150 0.0534560 0.9938150 0.0534560 0.0061850 -0.0534560
4090000000 0.0061334 -0.0528909 0.9938666 0.0528909 0.9938666 0.0528909 0.0061334 -0.0528909
4111000000 0.0060830 -0.0523301 0.9939170 0.0523301 0.9939170 0.0523301 0.0060830 -0.0523301
4132000000 0.0060336 -0.0517735 0.9939664 0.0517735 0.9939664 0.0517735 0.0060336 -0.0517735
4153000000 0.0059853 -0.0512209 0.9940147 0.0512209 0.9940147 0.0512209 0.0059853 -0.0512209
4174000000 0.0059381 -0.0506723 0.9940619 0.0506723 0.9940619 0.0506723 0.0059381 -0.0506723
4195000000 0.0058919 -0.0501277 0.9941081 0.0501277 0.9941081 0.0501277 0.0058919 -0.0501277
4216000000 0.0058467 -0.0495871 0.9941533 0.0495871 0.9941533 0.0495871 0.0058467 -0.0495871
4237000000 0.0058025 -0.0490503 0.9941975 0.0490503 0.9941975 0.0490503 0.0058025 -0.0490503
4258000000 0.0057593 -0.0485173 0.9942407 0.0485173 0.9942407 0.0485173 0.0057593 -0.0485173
4279000000 0.0057170 -0.0479880 0.9942830 0.0479880 0.9942830 0.0479880 0.0057170 -0.0479880
4300000000 0.0056757 -0.0474625 0.9943243 0.0474625 0.9943243 0.0474625 0.0056757 -0.0474625
4321000000 0.0056353 -0.0469405 0.9943647 0.0469405 0.9943647 0.0469405 0.0056353 -0.0469405
4342000000 0.0055958 -0.0464222 0.9944042 0.0464222 0.9944042 0.0464222 0.0055958 -0.0464222
4363000000 0.0055571 -0.0459074 0.9944429 0.0459074 0.9944429 0.0459074 0.0055571 -0.0459074
4384000000 0.0055194 -0.0453961 0.9944806 0.0453961 0.9944806 0.0453961 0.0055194 -0.0453961
4405000000 0.0054826 -0.0448883 0.9945174 0.0448883 0.9945174 0.0448883 0.0054826 -0.0448883
4426000000 0.0054465 -0.0443838 0.9945535 0.0443838 0.9945535 0.0443838 0.0054465 -0.0443838
4447000000 0.0054114 -0.0438827 0.9945886 0.0438827 0.9945886 0.0438827 0.0054114 -0.0438827
4468000000 0.0053770 -0.0433848 0.9946230 0.0433848 0.9946230 0.0433848 0.0053770 -0.0433848
4489000000 0.0053435 -0.0428903 0.9946565 0.0428903 0.9946565 0.0428903 0.0053435 -0.0428903
4510000000 0.0053107 -0.0423989 0.9946893 0.0423989 0.9946893 0.0423989 0.0053107 -0.0423989
