!Murata Part Number: GRM0115C1E2R0CE11
!These Parameters are Measured in Series Mode Connection
!Data Generated on Mar 30, 2021
!       o--ll--o
!Port1            Port2
!       o------o
!Operation Temp=25[degC], DC Bias Voltage=0[V]
!Freq. Start=100[MHz] Stop=20[GHz] 401[Steps]
# Hz S RI R 50
!Freq.(Hz) S11(Real) S11(Imag) S21(Real) S21(Imag) S12(Real) S12(Imag) S22(Real) S22(Imag)
100000000 0.9844089 -0.1237183 0.0155911 0.1237183 0.0155911 0.1237183 0.9844089 -0.1237183
149750000 0.9656903 -0.1817705 0.0343097 0.1817705 0.0343097 0.1817705 0.9656903 -0.1817705
199500000 0.9406575 -0.2359269 0.0593425 0.2359269 0.0593425 0.2359269 0.9406575 -0.2359269
249250000 0.9103053 -0.2853208 0.0896947 0.2853208 0.0896947 0.2853208 0.9103053 -0.2853208
299000000 0.8757366 -0.3293727 0.1242634 0.3293727 0.1242634 0.3293727 0.8757366 -0.3293727
348750000 0.8380749 -0.3677860 0.1619251 0.3677860 0.1619251 0.3677860 0.8380749 -0.3677860
398500000 0.7983918 -0.4005171 0.2016082 0.4005171 0.2016082 0.4005171 0.7983918 -0.4005171
448250000 0.7576537 -0.4277295 0.2423463 0.4277295 0.2423463 0.4277295 0.7576537 -0.4277295
498000000 0.7166904 -0.4497419 0.2833096 0.4497419 0.2833096 0.4497419 0.7166904 -0.4497419
547750000 0.6761815 -0.4669762 0.3238185 0.4669762 0.3238185 0.4669762 0.6761815 -0.4669762
597500000 0.6366587 -0.4799130 0.3633413 0.4799130 0.3633413 0.4799130 0.6366587 -0.4799130
647250000 0.5985170 -0.4890541 0.4014830 0.4890541 0.4014830 0.4890541 0.5985170 -0.4890541
697000000 0.5620318 -0.4948959 0.4379682 0.4948959 0.4379682 0.4948959 0.5620318 -0.4948959
746750000 0.5273785 -0.4979095 0.4726215 0.4979095 0.4726215 0.4979095 0.5273785 -0.4979095
796500000 0.4946518 -0.4985299 0.5053482 0.4985299 0.5053482 0.4985299 0.4946518 -0.4985299
846250000 0.4638837 -0.4971490 0.5361163 0.4971490 0.5361163 0.4971490 0.4638837 -0.4971490
896000000 0.4350588 -0.4941140 0.5649412 0.4941140 0.5649412 0.4941140 0.4350588 -0.4941140
945750000 0.4081279 -0.4897281 0.5918721 0.4897281 0.5918721 0.4897281 0.4081279 -0.4897281
995500000 0.3830178 -0.4842527 0.6169822 0.4842527 0.6169822 0.4842527 0.3830178 -0.4842527
1045250000 0.3596403 -0.4779114 0.6403597 0.4779114 0.6403597 0.4779114 0.3596403 -0.4779114
1095000000 0.3378980 -0.4708936 0.6621020 0.4708936 0.6621020 0.4708936 0.3378980 -0.4708936
1144750000 0.3176896 -0.4633587 0.6823104 0.4633587 0.6823104 0.4633587 0.3176896 -0.4633587
1194500000 0.2989131 -0.4554399 0.7010869 0.4554399 0.7010869 0.4554399 0.2989131 -0.4554399
1244250000 0.2814684 -0.4472480 0.7185316 0.4472480 0.7185316 0.4472480 0.2814684 -0.4472480
1294000000 0.2652586 -0.4388745 0.7347414 0.4388745 0.7347414 0.4388745 0.2652586 -0.4388745
1343750000 0.2501918 -0.4303948 0.7498082 0.4303948 0.7498082 0.4303948 0.2501918 -0.4303948
1393500000 0.2361809 -0.4218704 0.7638191 0.4218704 0.7638191 0.4218704 0.2361809 -0.4218704
1443250000 0.2231448 -0.4133512 0.7768552 0.4133512 0.7768552 0.4133512 0.2231448 -0.4133512
1493000000 0.2110076 -0.4048774 0.7889924 0.4048774 0.7889924 0.4048774 0.2110076 -0.4048774
1542750000 0.1996994 -0.3964814 0.8003006 0.3964814 0.8003006 0.3964814 0.1996994 -0.3964814
1592500000 0.1891553 -0.3881885 0.8108447 0.3881885 0.8108447 0.3881885 0.1891553 -0.3881885
1642250000 0.1793156 -0.3800187 0.8206844 0.3800187 0.8206844 0.3800187 0.1793156 -0.3800187
1692000000 0.1701255 -0.3719871 0.8298745 0.3719871 0.8298745 0.3719871 0.1701255 -0.3719871
1741750000 0.1615348 -0.3641053 0.8384652 0.3641053 0.8384652 0.3641053 0.1615348 -0.3641053
1791500000 0.1534973 -0.3563815 0.8465027 0.3563815 0.8465027 0.3563815 0.1534973 -0.3563815
1841250000 0.1459706 -0.3488214 0.8540294 0.3488214 0.8540294 0.3488214 0.1459706 -0.3488214
1891000000 0.1389161 -0.3414287 0.8610839 0.3414287 0.8610839 0.3414287 0.1389161 -0.3414287
1940750000 0.1322983 -0.3342053 0.8677017 0.3342053 0.8677017 0.3342053 0.1322983 -0.3342053
1990500000 0.1260847 -0.3271517 0.8739153 0.3271517 0.8739153 0.3271517 0.1260847 -0.3271517
2040250000 0.1202454 -0.3202672 0.8797546 0.3202672 0.8797546 0.3202672 0.1202454 -0.3202672
2090000000 0.1147534 -0.3135503 0.8852466 0.3135503 0.8852466 0.3135503 0.1147534 -0.3135503
2139750000 0.1095834 -0.3069988 0.8904166 0.3069988 0.8904166 0.3069988 0.1095834 -0.3069988
2189500000 0.1047126 -0.3006100 0.8952874 0.3006100 0.8952874 0.3006100 0.1047126 -0.3006100
2239250000 0.1001199 -0.2943806 0.8998801 0.2943806 0.8998801 0.2943806 0.1001199 -0.2943806
2289000000 0.0957860 -0.2883071 0.9042140 0.2883071 0.9042140 0.2883071 0.0957860 -0.2883071
2338750000 0.0916931 -0.2823857 0.9083069 0.2823857 0.9083069 0.2823857 0.0916931 -0.2823857
2388500000 0.0878247 -0.2766124 0.9121753 0.2766124 0.9121753 0.2766124 0.0878247 -0.2766124
2438250000 0.0841660 -0.2709834 0.9158340 0.2709834 0.9158340 0.2709834 0.0841660 -0.2709834
2488000000 0.0807028 -0.2654943 0.9192972 0.2654943 0.9192972 0.2654943 0.0807028 -0.2654943
2537750000 0.0774226 -0.2601412 0.9225774 0.2601412 0.9225774 0.2601412 0.0774226 -0.2601412
2587500000 0.0743134 -0.2549198 0.9256866 0.2549198 0.9256866 0.2549198 0.0743134 -0.2549198
2637250000 0.0713644 -0.2498262 0.9286356 0.2498262 0.9286356 0.2498262 0.0713644 -0.2498262
2687000000 0.0685654 -0.2448562 0.9314346 0.2448562 0.9314346 0.2448562 0.0685654 -0.2448562
2736750000 0.0659071 -0.2400060 0.9340929 0.2400060 0.9340929 0.2400060 0.0659071 -0.2400060
2786500000 0.0633809 -0.2352717 0.9366191 0.2352717 0.9366191 0.2352717 0.0633809 -0.2352717
2836250000 0.0609787 -0.2306494 0.9390213 0.2306494 0.9390213 0.2306494 0.0609787 -0.2306494
2886000000 0.0586932 -0.2261355 0.9413068 0.2261355 0.9413068 0.2261355 0.0586932 -0.2261355
2935750000 0.0565173 -0.2217265 0.9434827 0.2217265 0.9434827 0.2217265 0.0565173 -0.2217265
2985500000 0.0544448 -0.2174188 0.9455552 0.2174188 0.9455552 0.2174188 0.0544448 -0.2174188
3035250000 0.0524695 -0.2132091 0.9475305 0.2132091 0.9475305 0.2132091 0.0524695 -0.2132091
3085000000 0.0505860 -0.2090941 0.9494140 0.2090941 0.9494140 0.2090941 0.0505860 -0.2090941
3134750000 0.0487891 -0.2050707 0.9512109 0.2050707 0.9512109 0.2050707 0.0487891 -0.2050707
3184500000 0.0470740 -0.2011358 0.9529260 0.2011358 0.9529260 0.2011358 0.0470740 -0.2011358
3234250000 0.0454361 -0.1972865 0.9545639 0.1972865 0.9545639 0.1972865 0.0454361 -0.1972865
3284000000 0.0438713 -0.1935199 0.9561287 0.1935199 0.9561287 0.1935199 0.0438713 -0.1935199
3333750000 0.0423756 -0.1898334 0.9576244 0.1898334 0.9576244 0.1898334 0.0423756 -0.1898334
3383500000 0.0409453 -0.1862243 0.9590547 0.1862243 0.9590547 0.1862243 0.0409453 -0.1862243
3433250000 0.0395771 -0.1826900 0.9604229 0.1826900 0.9604229 0.1826900 0.0395771 -0.1826900
3483000000 0.0382676 -0.1792282 0.9617324 0.1792282 0.9617324 0.1792282 0.0382676 -0.1792282
3532750000 0.0370139 -0.1758364 0.9629861 0.1758364 0.9629861 0.1758364 0.0370139 -0.1758364
3582500000 0.0358131 -0.1725124 0.9641869 0.1725124 0.9641869 0.1725124 0.0358131 -0.1725124
3632250000 0.0346626 -0.1692541 0.9653374 0.1692541 0.9653374 0.1692541 0.0346626 -0.1692541
3682000000 0.0335599 -0.1660593 0.9664401 0.1660593 0.9664401 0.1660593 0.0335599 -0.1660593
3731750000 0.0325026 -0.1629259 0.9674974 0.1629259 0.9674974 0.1629259 0.0325026 -0.1629259
3781500000 0.0314885 -0.1598522 0.9685115 0.1598522 0.9685115 0.1598522 0.0314885 -0.1598522
3831250000 0.0305155 -0.1568361 0.9694845 0.1568361 0.9694845 0.1568361 0.0305155 -0.1568361
3881000000 0.0295818 -0.1538759 0.9704182 0.1538759 0.9704182 0.1538759 0.0295818 -0.1538759
3930750000 0.0286854 -0.1509699 0.9713146 0.1509699 0.9713146 0.1509699 0.0286854 -0.1509699
3980500000 0.0278246 -0.1481164 0.9721754 0.1481164 0.9721754 0.1481164 0.0278246 -0.1481164
4030250000 0.0269977 -0.1453137 0.9730023 0.1453137 0.9730023 0.1453137 0.0269977 -0.1453137
4080000000 0.0262033 -0.1425604 0.9737967 0.1425604 0.9737967 0.1425604 0.0262033 -0.1425604
4129750000 0.0254399 -0.1398550 0.9745601 0.1398550 0.9745601 0.1398550 0.0254399 -0.1398550
4179500000 0.0247060 -0.1371959 0.9752940 0.1371959 0.9752940 0.1371959 0.0247060 -0.1371959
4229250000 0.0240004 -0.1345819 0.9759996 0.1345819 0.9759996 0.1345819 0.0240004 -0.1345819
4279000000 0.0233218 -0.1320116 0.9766782 0.1320116 0.9766782 0.1320116 0.0233218 -0.1320116
4328750000 0.0226691 -0.1294837 0.9773309 0.1294837 0.9773309 0.1294837 0.0226691 -0.1294837
4378500000 0.0220412 -0.1269969 0.9779588 0.1269969 0.9779588 0.1269969 0.0220412 -0.1269969
4428250000 0.0214370 -0.1245502 0.9785630 0.1245502 0.9785630 0.1245502 0.0214370 -0.1245502
4478000000 0.0208555 -0.1221423 0.9791445 0.1221423 0.9791445 0.1221423 0.0208555 -0.1221423
4527750000 0.0202958 -0.1197721 0.9797042 0.1197721 0.9797042 0.1197721 0.0202958 -0.1197721
4577500000 0.0197570 -0.1174386 0.9802430 0.1174386 0.9802430 0.1174386 0.0197570 -0.1174386
4627250000 0.0192382 -0.1151407 0.9807618 0.1151407 0.9807618 0.1151407 0.0192382 -0.1151407
4677000000 0.0187386 -0.1128775 0.9812614 0.1128775 0.9812614 0.1128775 0.0187386 -0.1128775
4726750000 0.0182575 -0.1106479 0.9817425 0.1106479 0.9817425 0.1106479 0.0182575 -0.1106479
4776500000 0.0177941 -0.1084511 0.9822059 0.1084511 0.9822059 0.1084511 0.0177941 -0.1084511
4826250000 0.0173478 -0.1062861 0.9826522 0.1062861 0.9826522 0.1062861 0.0173478 -0.1062861
4876000000 0.0169178 -0.1041522 0.9830822 0.1041522 0.9830822 0.1041522 0.0169178 -0.1041522
4925750000 0.0165036 -0.1020484 0.9834964 0.1020484 0.9834964 0.1020484 0.0165036 -0.1020484
4975500000 0.0161045 -0.0999739 0.9838955 0.0999739 0.9838955 0.0999739 0.0161045 -0.0999739
5025250000 0.0157200 -0.0979280 0.9842800 0.0979280 0.9842800 0.0979280 0.0157200 -0.0979280
5075000000 0.0153496 -0.0959099 0.9846504 0.0959099 0.9846504 0.0959099 0.0153496 -0.0959099
5124750000 0.0149927 -0.0939189 0.9850073 0.0939189 0.9850073 0.0939189 0.0149927 -0.0939189
5174500000 0.0146488 -0.0919544 0.9853512 0.0919544 0.9853512 0.0919544 0.0146488 -0.0919544
5224250000 0.0143175 -0.0900155 0.9856825 0.0900155 0.9856825 0.0900155 0.0143175 -0.0900155
5274000000 0.0139983 -0.0881016 0.9860017 0.0881016 0.9860017 0.0881016 0.0139983 -0.0881016
5323750000 0.0136907 -0.0862122 0.9863093 0.0862122 0.9863093 0.0862122 0.0136907 -0.0862122
5373500000 0.0133945 -0.0843466 0.9866055 0.0843466 0.9866055 0.0843466 0.0133945 -0.0843466
5423250000 0.0131091 -0.0825042 0.9868909 0.0825042 0.9868909 0.0825042 0.0131091 -0.0825042
5473000000 0.0128342 -0.0806844 0.9871658 0.0806844 0.9871658 0.0806844 0.0128342 -0.0806844
5522750000 0.0125695 -0.0788866 0.9874305 0.0788866 0.9874305 0.0788866 0.0125695 -0.0788866
5572500000 0.0123145 -0.0771104 0.9876855 0.0771104 0.9876855 0.0771104 0.0123145 -0.0771104
5622250000 0.0120691 -0.0753552 0.9879309 0.0753552 0.9879309 0.0753552 0.0120691 -0.0753552
5672000000 0.0118328 -0.0736205 0.9881672 0.0736205 0.9881672 0.0736205 0.0118328 -0.0736205
5721750000 0.0116053 -0.0719058 0.9883947 0.0719058 0.9883947 0.0719058 0.0116053 -0.0719058
5771500000 0.0113865 -0.0702106 0.9886135 0.0702106 0.9886135 0.0702106 0.0113865 -0.0702106
5821250000 0.0111759 -0.0685345 0.9888241 0.0685345 0.9888241 0.0685345 0.0111759 -0.0685345
5871000000 0.0109734 -0.0668770 0.9890266 0.0668770 0.9890266 0.0668770 0.0109734 -0.0668770
5920750000 0.0107786 -0.0652376 0.9892214 0.0652376 0.9892214 0.0652376 0.0107786 -0.0652376
5970500000 0.0105914 -0.0636161 0.9894086 0.0636161 0.9894086 0.0636161 0.0105914 -0.0636161
6020250000 0.0104115 -0.0620118 0.9895885 0.0620118 0.9895885 0.0620118 0.0104115 -0.0620118
6070000000 0.0102387 -0.0604246 0.9897613 0.0604246 0.9897613 0.0604246 0.0102387 -0.0604246
6119750000 0.0100728 -0.0588539 0.9899272 0.0588539 0.9899272 0.0588539 0.0100728 -0.0588539
6169500000 0.0099135 -0.0572993 0.9900865 0.0572993 0.9900865 0.0572993 0.0099135 -0.0572993
6219250000 0.0097606 -0.0557607 0.9902394 0.0557607 0.9902394 0.0557607 0.0097606 -0.0557607
6269000000 0.0096141 -0.0542375 0.9903859 0.0542375 0.9903859 0.0542375 0.0096141 -0.0542375
6318750000 0.0094736 -0.0527294 0.9905264 0.0527294 0.9905264 0.0527294 0.0094736 -0.0527294
6368500000 0.0093390 -0.0512361 0.9906610 0.0512361 0.9906610 0.0512361 0.0093390 -0.0512361
6418250000 0.0092102 -0.0497573 0.9907898 0.0497573 0.9907898 0.0497573 0.0092102 -0.0497573
6468000000 0.0090870 -0.0482927 0.9909130 0.0482927 0.9909130 0.0482927 0.0090870 -0.0482927
6517750000 0.0089692 -0.0468420 0.9910308 0.0468420 0.9910308 0.0468420 0.0089692 -0.0468420
6567500000 0.0088566 -0.0454048 0.9911434 0.0454048 0.9911434 0.0454048 0.0088566 -0.0454048
6617250000 0.0087492 -0.0439809 0.9912508 0.0439809 0.9912508 0.0439809 0.0087492 -0.0439809
6667000000 0.0086468 -0.0425699 0.9913532 0.0425699 0.9913532 0.0425699 0.0086468 -0.0425699
6716750000 0.0085493 -0.0411718 0.9914507 0.0411718 0.9914507 0.0411718 0.0085493 -0.0411718
6766500000 0.0084565 -0.0397860 0.9915435 0.0397860 0.9915435 0.0397860 0.0084565 -0.0397860
6816250000 0.0083682 -0.0384125 0.9916318 0.0384125 0.9916318 0.0384125 0.0083682 -0.0384125
6866000000 0.0082845 -0.0370509 0.9917155 0.0370509 0.9917155 0.0370509 0.0082845 -0.0370509
6915750000 0.0082051 -0.0357011 0.9917949 0.0357011 0.9917949 0.0357011 0.0082051 -0.0357011
6965500000 0.0081300 -0.0343627 0.9918700 0.0343627 0.9918700 0.0343627 0.0081300 -0.0343627
7015250000 0.0080591 -0.0330355 0.9919409 0.0330355 0.9919409 0.0330355 0.0080591 -0.0330355
7065000000 0.0079921 -0.0317194 0.9920079 0.0317194 0.9920079 0.0317194 0.0079921 -0.0317194
7114750000 0.0079292 -0.0304141 0.9920708 0.0304141 0.9920708 0.0304141 0.0079292 -0.0304141
7164500000 0.0078700 -0.0291193 0.9921300 0.0291193 0.9921300 0.0291193 0.0078700 -0.0291193
7214250000 0.0078147 -0.0278349 0.9921853 0.0278349 0.9921853 0.0278349 0.0078147 -0.0278349
7264000000 0.0077630 -0.0265607 0.9922370 0.0265607 0.9922370 0.0265607 0.0077630 -0.0265607
7313750000 0.0077148 -0.0252965 0.9922852 0.0252965 0.9922852 0.0252965 0.0077148 -0.0252965
7363500000 0.0076702 -0.0240420 0.9923298 0.0240420 0.9923298 0.0240420 0.0076702 -0.0240420
7413250000 0.0076290 -0.0227972 0.9923710 0.0227972 0.9923710 0.0227972 0.0076290 -0.0227972
7463000000 0.0075911 -0.0215617 0.9924089 0.0215617 0.9924089 0.0215617 0.0075911 -0.0215617
7512750000 0.0075565 -0.0203355 0.9924435 0.0203355 0.9924435 0.0203355 0.0075565 -0.0203355
7562500000 0.0075250 -0.0191184 0.9924750 0.0191184 0.9924750 0.0191184 0.0075250 -0.0191184
7612250000 0.0074967 -0.0179101 0.9925033 0.0179101 0.9925033 0.0179101 0.0074967 -0.0179101
7662000000 0.0074714 -0.0167106 0.9925286 0.0167106 0.9925286 0.0167106 0.0074714 -0.0167106
7711750000 0.0074491 -0.0155196 0.9925509 0.0155196 0.9925509 0.0155196 0.0074491 -0.0155196
7761500000 0.0074297 -0.0143371 0.9925703 0.0143371 0.9925703 0.0143371 0.0074297 -0.0143371
7811250000 0.0074132 -0.0131628 0.9925868 0.0131628 0.9925868 0.0131628 0.0074132 -0.0131628
7861000000 0.0073995 -0.0119966 0.9926005 0.0119966 0.9926005 0.0119966 0.0073995 -0.0119966
7910750000 0.0073885 -0.0108384 0.9926115 0.0108384 0.9926115 0.0108384 0.0073885 -0.0108384
7960500000 0.0073802 -0.0096880 0.9926198 0.0096880 0.9926198 0.0096880 0.0073802 -0.0096880
8010250000 0.0073745 -0.0085453 0.9926255 0.0085453 0.9926255 0.0085453 0.0073745 -0.0085453
8060000000 0.0073714 -0.0074101 0.9926286 0.0074101 0.9926286 0.0074101 0.0073714 -0.0074101
8109750000 0.0073708 -0.0062823 0.9926292 0.0062823 0.9926292 0.0062823 0.0073708 -0.0062823
8159500000 0.0073726 -0.0051618 0.9926274 0.0051618 0.9926274 0.0051618 0.0073726 -0.0051618
8209250000 0.0073769 -0.0040485 0.9926231 0.0040485 0.9926231 0.0040485 0.0073769 -0.0040485
8259000000 0.0073836 -0.0029422 0.9926164 0.0029422 0.9926164 0.0029422 0.0073836 -0.0029422
8308750000 0.0073926 -0.0018428 0.9926074 0.0018428 0.9926074 0.0018428 0.0073926 -0.0018428
8358500000 0.0074039 -0.0007502 0.9925961 0.0007502 0.9925961 0.0007502 0.0074039 -0.0007502
8408250000 0.0074175 0.0003357 0.9925825 -0.0003357 0.9925825 -0.0003357 0.0074175 0.0003357
8458000000 0.0074333 0.0014150 0.9925667 -0.0014150 0.9925667 -0.0014150 0.0074333 0.0014150
8507750000 0.0074512 0.0024879 0.9925488 -0.0024879 0.9925488 -0.0024879 0.0074512 0.0024879
8557500000 0.0074712 0.0035544 0.9925288 -0.0035544 0.9925288 -0.0035544 0.0074712 0.0035544
8607250000 0.0074934 0.0046147 0.9925066 -0.0046147 0.9925066 -0.0046147 0.0074934 0.0046147
8657000000 0.0075176 0.0056688 0.9924824 -0.0056688 0.9924824 -0.0056688 0.0075176 0.0056688
8706750000 0.0075438 0.0067169 0.9924562 -0.0067169 0.9924562 -0.0067169 0.0075438 0.0067169
8756500000 0.0075720 0.0077591 0.9924280 -0.0077591 0.9924280 -0.0077591 0.0075720 0.0077591
8806250000 0.0076021 0.0087954 0.9923979 -0.0087954 0.9923979 -0.0087954 0.0076021 0.0087954
8856000000 0.0076342 0.0098259 0.9923658 -0.0098259 0.9923658 -0.0098259 0.0076342 0.0098259
8905750000 0.0076682 0.0108508 0.9923318 -0.0108508 0.9923318 -0.0108508 0.0076682 0.0108508
8955500000 0.0077040 0.0118701 0.9922960 -0.0118701 0.9922960 -0.0118701 0.0077040 0.0118701
9005250000 0.0077416 0.0128840 0.9922584 -0.0128840 0.9922584 -0.0128840 0.0077416 0.0128840
9055000000 0.0077811 0.0138924 0.9922189 -0.0138924 0.9922189 -0.0138924 0.0077811 0.0138924
9104750000 0.0078223 0.0148955 0.9921777 -0.0148955 0.9921777 -0.0148955 0.0078223 0.0148955
9154500000 0.0078652 0.0158934 0.9921348 -0.0158934 0.9921348 -0.0158934 0.0078652 0.0158934
9204250000 0.0079099 0.0168861 0.9920901 -0.0168861 0.9920901 -0.0168861 0.0079099 0.0168861
9254000000 0.0079563 0.0178738 0.9920437 -0.0178738 0.9920437 -0.0178738 0.0079563 0.0178738
9303750000 0.0080043 0.0188564 0.9919957 -0.0188564 0.9919957 -0.0188564 0.0080043 0.0188564
9353500000 0.0080540 0.0198342 0.9919460 -0.0198342 0.9919460 -0.0198342 0.0080540 0.0198342
9403250000 0.0081052 0.0208071 0.9918948 -0.0208071 0.9918948 -0.0208071 0.0081052 0.0208071
9453000000 0.0081581 0.0217752 0.9918419 -0.0217752 0.9918419 -0.0217752 0.0081581 0.0217752
9502750000 0.0082126 0.0227386 0.9917874 -0.0227386 0.9917874 -0.0227386 0.0082126 0.0227386
9552500000 0.0082686 0.0236974 0.9917314 -0.0236974 0.9917314 -0.0236974 0.0082686 0.0236974
9602250000 0.0083261 0.0246516 0.9916739 -0.0246516 0.9916739 -0.0246516 0.0083261 0.0246516
9652000000 0.0083852 0.0256013 0.9916148 -0.0256013 0.9916148 -0.0256013 0.0083852 0.0256013
9701750000 0.0084457 0.0265466 0.9915543 -0.0265466 0.9915543 -0.0265466 0.0084457 0.0265466
9751500000 0.0085077 0.0274875 0.9914923 -0.0274875 0.9914923 -0.0274875 0.0085077 0.0274875
9801250000 0.0085712 0.0284241 0.9914288 -0.0284241 0.9914288 -0.0284241 0.0085712 0.0284241
9851000000 0.0086361 0.0293565 0.9913639 -0.0293565 0.9913639 -0.0293565 0.0086361 0.0293565
9900750000 0.0087024 0.0302847 0.9912976 -0.0302847 0.9912976 -0.0302847 0.0087024 0.0302847
9950500000 0.0087701 0.0312087 0.9912299 -0.0312087 0.9912299 -0.0312087 0.0087701 0.0312087
10000250000 0.0088392 0.0321287 0.9911608 -0.0321287 0.9911608 -0.0321287 0.0088392 0.0321287
10050000000 0.0089096 0.0330447 0.9910904 -0.0330447 0.9910904 -0.0330447 0.0089096 0.0330447
10099750000 0.0089814 0.0339567 0.9910186 -0.0339567 0.9910186 -0.0339567 0.0089814 0.0339567
10149500000 0.0090546 0.0348649 0.9909454 -0.0348649 0.9909454 -0.0348649 0.0090546 0.0348649
10199250000 0.0091290 0.0357691 0.9908710 -0.0357691 0.9908710 -0.0357691 0.0091290 0.0357691
10249000000 0.0092048 0.0366696 0.9907952 -0.0366696 0.9907952 -0.0366696 0.0092048 0.0366696
10298750000 0.0092818 0.0375664 0.9907182 -0.0375664 0.9907182 -0.0375664 0.0092818 0.0375664
10348500000 0.0093601 0.0384594 0.9906399 -0.0384594 0.9906399 -0.0384594 0.0093601 0.0384594
10398250000 0.0094397 0.0393488 0.9905603 -0.0393488 0.9905603 -0.0393488 0.0094397 0.0393488
10448000000 0.0095205 0.0402346 0.9904795 -0.0402346 0.9904795 -0.0402346 0.0095205 0.0402346
10497750000 0.0096025 0.0411169 0.9903975 -0.0411169 0.9903975 -0.0411169 0.0096025 0.0411169
