!Murata Part Number: GRM0115C1C2R1WE11
!These Parameters are Measured in Series Mode Connection
!Data Generated on Mar 30, 2021
!       o--ll--o
!Port1            Port2
!       o------o
!Operation Temp=25[degC], DC Bias Voltage=0[V]
!Freq. Start=100[MHz] Stop=9[GHz] 401[Steps]
# Hz S RI R 50
!Freq.(Hz) S11(Real) S11(Imag) S21(Real) S21(Imag) S12(Real) S12(Imag) S22(Real) S22(Imag)
100000000 0.9828442 -0.1296915 0.0171558 0.1296915 0.0171558 0.1296915 0.9828442 -0.1296915
121000000 0.9750786 -0.1556915 0.0249214 0.1556915 0.0249214 0.1556915 0.9750786 -0.1556915
142000000 0.9659940 -0.1810164 0.0340060 0.1810164 0.0340060 0.1810164 0.9659940 -0.1810164
163000000 0.9556662 -0.2055732 0.0443338 0.2055732 0.0443338 0.2055732 0.9556662 -0.2055732
184000000 0.9441788 -0.2292793 0.0558212 0.2292793 0.0558212 0.2292793 0.9441788 -0.2292793
205000000 0.9316216 -0.2520626 0.0683784 0.2520626 0.0683784 0.2520626 0.9316216 -0.2520626
226000000 0.9180890 -0.2738627 0.0819110 0.2738627 0.0819110 0.2738627 0.9180890 -0.2738627
247000000 0.9036783 -0.2946303 0.0963217 0.2946303 0.0963217 0.2946303 0.9036783 -0.2946303
268000000 0.8884885 -0.3143274 0.1115115 0.3143274 0.1115115 0.3143274 0.8884885 -0.3143274
289000000 0.8726183 -0.3329270 0.1273817 0.3329270 0.1273817 0.3329270 0.8726183 -0.3329270
310000000 0.8561656 -0.3504125 0.1438344 0.3504125 0.1438344 0.3504125 0.8561656 -0.3504125
331000000 0.8392254 -0.3667771 0.1607746 0.3667771 0.1607746 0.3667771 0.8392254 -0.3667771
352000000 0.8218898 -0.3820228 0.1781102 0.3820228 0.1781102 0.3820228 0.8218898 -0.3820228
373000000 0.8042463 -0.3961598 0.1957537 0.3961598 0.1957537 0.3961598 0.8042463 -0.3961598
394000000 0.7863778 -0.4092054 0.2136222 0.4092054 0.2136222 0.4092054 0.7863778 -0.4092054
415000000 0.7683619 -0.4211832 0.2316381 0.4211832 0.2316381 0.4211832 0.7683619 -0.4211832
436000000 0.7502704 -0.4321221 0.2497296 0.4321221 0.2497296 0.4321221 0.7502704 -0.4321221
457000000 0.7321693 -0.4420554 0.2678307 0.4420554 0.2678307 0.4420554 0.7321693 -0.4420554
478000000 0.7141189 -0.4510201 0.2858811 0.4510201 0.2858811 0.4510201 0.7141189 -0.4510201
499000000 0.6961733 -0.4590558 0.3038267 0.4590558 0.3038267 0.4590558 0.6961733 -0.4590558
520000000 0.6783809 -0.4662044 0.3216191 0.4662044 0.3216191 0.4662044 0.6783809 -0.4662044
541000000 0.6607846 -0.4725088 0.3392154 0.4725088 0.3392154 0.4725088 0.6607846 -0.4725088
562000000 0.6434220 -0.4780130 0.3565780 0.4780130 0.3565780 0.4780130 0.6434220 -0.4780130
583000000 0.6263256 -0.4827612 0.3736744 0.4827612 0.3736744 0.4827612 0.6263256 -0.4827612
604000000 0.6095229 -0.4867974 0.3904771 0.4867974 0.3904771 0.4867974 0.6095229 -0.4867974
625000000 0.5930375 -0.4901650 0.4069625 0.4901650 0.4069625 0.4901650 0.5930375 -0.4901650
646000000 0.5768885 -0.4929066 0.4231115 0.4929066 0.4231115 0.4929066 0.5768885 -0.4929066
667000000 0.5610915 -0.4950638 0.4389085 0.4950638 0.4389085 0.4950638 0.5610915 -0.4950638
688000000 0.5456586 -0.4966765 0.4543414 0.4966765 0.4543414 0.4966765 0.5456586 -0.4966765
709000000 0.5305991 -0.4977835 0.4694009 0.4977835 0.4694009 0.4977835 0.5305991 -0.4977835
730000000 0.5159193 -0.4984218 0.4840807 0.4984218 0.4840807 0.4984218 0.5159193 -0.4984218
751000000 0.5016231 -0.4986268 0.4983769 0.4986268 0.4983769 0.4986268 0.5016231 -0.4986268
772000000 0.4877125 -0.4984321 0.5122875 0.4984321 0.5122875 0.4984321 0.4877125 -0.4984321
793000000 0.4741874 -0.4978695 0.5258126 0.4978695 0.5258126 0.4978695 0.4741874 -0.4978695
814000000 0.4610461 -0.4969691 0.5389539 0.4969691 0.5389539 0.4969691 0.4610461 -0.4969691
835000000 0.4482854 -0.4957594 0.5517146 0.4957594 0.5517146 0.4957594 0.4482854 -0.4957594
856000000 0.4359011 -0.4942670 0.5640989 0.4942670 0.5640989 0.4942670 0.4359011 -0.4942670
877000000 0.4238878 -0.4925169 0.5761122 0.4925169 0.5761122 0.4925169 0.4238878 -0.4925169
898000000 0.4122393 -0.4905324 0.5877607 0.4905324 0.5877607 0.4905324 0.4122393 -0.4905324
919000000 0.4009486 -0.4883355 0.5990514 0.4883355 0.5990514 0.4883355 0.4009486 -0.4883355
940000000 0.3900083 -0.4859465 0.6099917 0.4859465 0.6099917 0.4859465 0.3900083 -0.4859465
961000000 0.3794104 -0.4833844 0.6205896 0.4833844 0.6205896 0.4833844 0.3794104 -0.4833844
982000000 0.3691464 -0.4806667 0.6308536 0.4806667 0.6308536 0.4806667 0.3691464 -0.4806667
1003000000 0.3592079 -0.4778098 0.6407921 0.4778098 0.6407921 0.4778098 0.3592079 -0.4778098
1024000000 0.3495861 -0.4748288 0.6504139 0.4748288 0.6504139 0.4748288 0.3495861 -0.4748288
1045000000 0.3402719 -0.4717377 0.6597281 0.4717377 0.6597281 0.4717377 0.3402719 -0.4717377
1066000000 0.3312565 -0.4685495 0.6687435 0.4685495 0.6687435 0.4685495 0.3312565 -0.4685495
1087000000 0.3225308 -0.4652761 0.6774692 0.4652761 0.6774692 0.4652761 0.3225308 -0.4652761
1108000000 0.3140860 -0.4619285 0.6859140 0.4619285 0.6859140 0.4619285 0.3140860 -0.4619285
1129000000 0.3059132 -0.4585168 0.6940868 0.4585168 0.6940868 0.4585168 0.3059132 -0.4585168
1150000000 0.2980036 -0.4550503 0.7019964 0.4550503 0.7019964 0.4550503 0.2980036 -0.4550503
1171000000 0.2903485 -0.4515377 0.7096515 0.4515377 0.7096515 0.4515377 0.2903485 -0.4515377
1192000000 0.2829396 -0.4479867 0.7170604 0.4479867 0.7170604 0.4479867 0.2829396 -0.4479867
1213000000 0.2757686 -0.4444046 0.7242314 0.4444046 0.7242314 0.4444046 0.2757686 -0.4444046
1234000000 0.2688274 -0.4407980 0.7311726 0.4407980 0.7311726 0.4407980 0.2688274 -0.4407980
1255000000 0.2621080 -0.4371729 0.7378920 0.4371729 0.7378920 0.4371729 0.2621080 -0.4371729
1276000000 0.2556028 -0.4335347 0.7443972 0.4335347 0.7443972 0.4335347 0.2556028 -0.4335347
1297000000 0.2493043 -0.4298886 0.7506957 0.4298886 0.7506957 0.4298886 0.2493043 -0.4298886
1318000000 0.2432053 -0.4262391 0.7567947 0.4262391 0.7567947 0.4262391 0.2432053 -0.4262391
1339000000 0.2372987 -0.4225903 0.7627013 0.4225903 0.7627013 0.4225903 0.2372987 -0.4225903
1360000000 0.2315777 -0.4189461 0.7684223 0.4189461 0.7684223 0.4189461 0.2315777 -0.4189461
1381000000 0.2260358 -0.4153099 0.7739642 0.4153099 0.7739642 0.4153099 0.2260358 -0.4153099
1402000000 0.2206665 -0.4116847 0.7793335 0.4116847 0.7793335 0.4116847 0.2206665 -0.4116847
1423000000 0.2154637 -0.4080735 0.7845363 0.4080735 0.7845363 0.4080735 0.2154637 -0.4080735
1444000000 0.2104214 -0.4044786 0.7895786 0.4044786 0.7895786 0.4044786 0.2104214 -0.4044786
1465000000 0.2055339 -0.4009025 0.7944661 0.4009025 0.7944661 0.4009025 0.2055339 -0.4009025
1486000000 0.2007958 -0.3973470 0.7992042 0.3973470 0.7992042 0.3973470 0.2007958 -0.3973470
1507000000 0.1962016 -0.3938142 0.8037984 0.3938142 0.8037984 0.3938142 0.1962016 -0.3938142
1528000000 0.1917462 -0.3903055 0.8082538 0.3903055 0.8082538 0.3903055 0.1917462 -0.3903055
1549000000 0.1874247 -0.3868225 0.8125753 0.3868225 0.8125753 0.3868225 0.1874247 -0.3868225
1570000000 0.1832323 -0.3833663 0.8167677 0.3833663 0.8167677 0.3833663 0.1832323 -0.3833663
1591000000 0.1791645 -0.3799382 0.8208355 0.3799382 0.8208355 0.3799382 0.1791645 -0.3799382
1612000000 0.1752168 -0.3765392 0.8247832 0.3765392 0.8247832 0.3765392 0.1752168 -0.3765392
1633000000 0.1713849 -0.3731700 0.8286151 0.3731700 0.8286151 0.3731700 0.1713849 -0.3731700
1654000000 0.1676649 -0.3698314 0.8323351 0.3698314 0.8323351 0.3698314 0.1676649 -0.3698314
1675000000 0.1640527 -0.3665241 0.8359473 0.3665241 0.8359473 0.3665241 0.1640527 -0.3665241
1696000000 0.1605446 -0.3632486 0.8394554 0.3632486 0.8394554 0.3632486 0.1605446 -0.3632486
1717000000 0.1571370 -0.3600053 0.8428630 0.3600053 0.8428630 0.3600053 0.1571370 -0.3600053
1738000000 0.1538264 -0.3567945 0.8461736 0.3567945 0.8461736 0.3567945 0.1538264 -0.3567945
1759000000 0.1506094 -0.3536167 0.8493906 0.3536167 0.8493906 0.3536167 0.1506094 -0.3536167
1780000000 0.1474828 -0.3504719 0.8525172 0.3504719 0.8525172 0.3504719 0.1474828 -0.3504719
1801000000 0.1444435 -0.3473603 0.8555565 0.3473603 0.8555565 0.3473603 0.1444435 -0.3473603
1822000000 0.1414885 -0.3442821 0.8585115 0.3442821 0.8585115 0.3442821 0.1414885 -0.3442821
1843000000 0.1386149 -0.3412372 0.8613851 0.3412372 0.8613851 0.3412372 0.1386149 -0.3412372
1864000000 0.1358200 -0.3382257 0.8641800 0.3382257 0.8641800 0.3382257 0.1358200 -0.3382257
1885000000 0.1331012 -0.3352476 0.8668988 0.3352476 0.8668988 0.3352476 0.1331012 -0.3352476
1906000000 0.1304558 -0.3323026 0.8695442 0.3323026 0.8695442 0.3323026 0.1304558 -0.3323026
1927000000 0.1278814 -0.3293908 0.8721186 0.3293908 0.8721186 0.3293908 0.1278814 -0.3293908
1948000000 0.1253758 -0.3265119 0.8746242 0.3265119 0.8746242 0.3265119 0.1253758 -0.3265119
1969000000 0.1229365 -0.3236659 0.8770635 0.3236659 0.8770635 0.3236659 0.1229365 -0.3236659
1990000000 0.1205614 -0.3208524 0.8794386 0.3208524 0.8794386 0.3208524 0.1205614 -0.3208524
2011000000 0.1182484 -0.3180712 0.8817516 0.3180712 0.8817516 0.3180712 0.1182484 -0.3180712
2032000000 0.1159956 -0.3153221 0.8840044 0.3153221 0.8840044 0.3153221 0.1159956 -0.3153221
2053000000 0.1138009 -0.3126049 0.8861991 0.3126049 0.8861991 0.3126049 0.1138009 -0.3126049
2074000000 0.1116624 -0.3099192 0.8883376 0.3099192 0.8883376 0.3099192 0.1116624 -0.3099192
2095000000 0.1095784 -0.3072648 0.8904216 0.3072648 0.8904216 0.3072648 0.1095784 -0.3072648
2116000000 0.1075472 -0.3046413 0.8924528 0.3046413 0.8924528 0.3046413 0.1075472 -0.3046413
2137000000 0.1055671 -0.3020485 0.8944329 0.3020485 0.8944329 0.3020485 0.1055671 -0.3020485
2158000000 0.1036364 -0.2994859 0.8963636 0.2994859 0.8963636 0.2994859 0.1036364 -0.2994859
2179000000 0.1017536 -0.2969533 0.8982464 0.2969533 0.8982464 0.2969533 0.1017536 -0.2969533
2200000000 0.0999173 -0.2944503 0.9000827 0.2944503 0.9000827 0.2944503 0.0999173 -0.2944503
2221000000 0.0981259 -0.2919766 0.9018741 0.2919766 0.9018741 0.2919766 0.0981259 -0.2919766
2242000000 0.0963781 -0.2895318 0.9036219 0.2895318 0.9036219 0.2895318 0.0963781 -0.2895318
2263000000 0.0946727 -0.2871155 0.9053273 0.2871155 0.9053273 0.2871155 0.0946727 -0.2871155
2284000000 0.0930081 -0.2847275 0.9069919 0.2847275 0.9069919 0.2847275 0.0930081 -0.2847275
2305000000 0.0913834 -0.2823672 0.9086166 0.2823672 0.9086166 0.2823672 0.0913834 -0.2823672
2326000000 0.0897971 -0.2800344 0.9102029 0.2800344 0.9102029 0.2800344 0.0897971 -0.2800344
2347000000 0.0882483 -0.2777288 0.9117517 0.2777288 0.9117517 0.2777288 0.0882483 -0.2777288
2368000000 0.0867357 -0.2754498 0.9132643 0.2754498 0.9132643 0.2754498 0.0867357 -0.2754498
2389000000 0.0852584 -0.2731972 0.9147416 0.2731972 0.9147416 0.2731972 0.0852584 -0.2731972
2410000000 0.0838152 -0.2709707 0.9161848 0.2709707 0.9161848 0.2709707 0.0838152 -0.2709707
2431000000 0.0824052 -0.2687697 0.9175948 0.2687697 0.9175948 0.2687697 0.0824052 -0.2687697
2452000000 0.0810274 -0.2665941 0.9189726 0.2665941 0.9189726 0.2665941 0.0810274 -0.2665941
2473000000 0.0796809 -0.2644433 0.9203191 0.2644433 0.9203191 0.2644433 0.0796809 -0.2644433
2494000000 0.0783647 -0.2623171 0.9216353 0.2623171 0.9216353 0.2623171 0.0783647 -0.2623171
2515000000 0.0770781 -0.2602152 0.9229219 0.2602152 0.9229219 0.2602152 0.0770781 -0.2602152
2536000000 0.0758202 -0.2581371 0.9241798 0.2581371 0.9241798 0.2581371 0.0758202 -0.2581371
2557000000 0.0745901 -0.2560825 0.9254099 0.2560825 0.9254099 0.2560825 0.0745901 -0.2560825
2578000000 0.0733871 -0.2540510 0.9266129 0.2540510 0.9266129 0.2540510 0.0733871 -0.2540510
2599000000 0.0722104 -0.2520424 0.9277896 0.2520424 0.9277896 0.2520424 0.0722104 -0.2520424
2620000000 0.0710593 -0.2500563 0.9289407 0.2500563 0.9289407 0.2500563 0.0710593 -0.2500563
2641000000 0.0699332 -0.2480923 0.9300668 0.2480923 0.9300668 0.2480923 0.0699332 -0.2480923
2662000000 0.0688312 -0.2461501 0.9311688 0.2461501 0.9311688 0.2461501 0.0688312 -0.2461501
2683000000 0.0677528 -0.2442295 0.9322472 0.2442295 0.9322472 0.2442295 0.0677528 -0.2442295
2704000000 0.0666973 -0.2423300 0.9333027 0.2423300 0.9333027 0.2423300 0.0666973 -0.2423300
2725000000 0.0656640 -0.2404513 0.9343360 0.2404513 0.9343360 0.2404513 0.0656640 -0.2404513
2746000000 0.0646525 -0.2385932 0.9353475 0.2385932 0.9353475 0.2385932 0.0646525 -0.2385932
2767000000 0.0636621 -0.2367553 0.9363379 0.2367553 0.9363379 0.2367553 0.0636621 -0.2367553
2788000000 0.0626923 -0.2349374 0.9373077 0.2349374 0.9373077 0.2349374 0.0626923 -0.2349374
2809000000 0.0617425 -0.2331391 0.9382575 0.2331391 0.9382575 0.2331391 0.0617425 -0.2331391
2830000000 0.0608121 -0.2313600 0.9391879 0.2313600 0.9391879 0.2313600 0.0608121 -0.2313600
2851000000 0.0599008 -0.2296001 0.9400992 0.2296001 0.9400992 0.2296001 0.0599008 -0.2296001
2872000000 0.0590080 -0.2278589 0.9409920 0.2278589 0.9409920 0.2278589 0.0590080 -0.2278589
2893000000 0.0581331 -0.2261361 0.9418669 0.2261361 0.9418669 0.2261361 0.0581331 -0.2261361
2914000000 0.0572759 -0.2244315 0.9427241 0.2244315 0.9427241 0.2244315 0.0572759 -0.2244315
2935000000 0.0564357 -0.2227448 0.9435643 0.2227448 0.9435643 0.2227448 0.0564357 -0.2227448
2956000000 0.0556123 -0.2210758 0.9443877 0.2210758 0.9443877 0.2210758 0.0556123 -0.2210758
2977000000 0.0548050 -0.2194241 0.9451950 0.2194241 0.9451950 0.2194241 0.0548050 -0.2194241
2998000000 0.0540137 -0.2177896 0.9459863 0.2177896 0.9459863 0.2177896 0.0540137 -0.2177896
3019000000 0.0532378 -0.2161719 0.9467622 0.2161719 0.9467622 0.2161719 0.0532378 -0.2161719
3040000000 0.0524770 -0.2145707 0.9475230 0.2145707 0.9475230 0.2145707 0.0524770 -0.2145707
3061000000 0.0517308 -0.2129860 0.9482692 0.2129860 0.9482692 0.2129860 0.0517308 -0.2129860
3082000000 0.0509991 -0.2114173 0.9490009 0.2114173 0.9490009 0.2114173 0.0509991 -0.2114173
3103000000 0.0502813 -0.2098645 0.9497187 0.2098645 0.9497187 0.2098645 0.0502813 -0.2098645
3124000000 0.0495772 -0.2083273 0.9504228 0.2083273 0.9504228 0.2083273 0.0495772 -0.2083273
3145000000 0.0488864 -0.2068055 0.9511136 0.2068055 0.9511136 0.2068055 0.0488864 -0.2068055
3166000000 0.0482086 -0.2052988 0.9517914 0.2052988 0.9517914 0.2052988 0.0482086 -0.2052988
3187000000 0.0475435 -0.2038071 0.9524565 0.2038071 0.9524565 0.2038071 0.0475435 -0.2038071
3208000000 0.0468908 -0.2023301 0.9531092 0.2023301 0.9531092 0.2023301 0.0468908 -0.2023301
3229000000 0.0462503 -0.2008676 0.9537497 0.2008676 0.9537497 0.2008676 0.0462503 -0.2008676
3250000000 0.0456215 -0.1994193 0.9543785 0.1994193 0.9543785 0.1994193 0.0456215 -0.1994193
3271000000 0.0450043 -0.1979852 0.9549957 0.1979852 0.9549957 0.1979852 0.0450043 -0.1979852
3292000000 0.0443984 -0.1965648 0.9556016 0.1965648 0.9556016 0.1965648 0.0443984 -0.1965648
3313000000 0.0438036 -0.1951582 0.9561964 0.1951582 0.9561964 0.1951582 0.0438036 -0.1951582
3334000000 0.0432194 -0.1937649 0.9567806 0.1937649 0.9567806 0.1937649 0.0432194 -0.1937649
3355000000 0.0426459 -0.1923850 0.9573541 0.1923850 0.9573541 0.1923850 0.0426459 -0.1923850
3376000000 0.0420826 -0.1910181 0.9579174 0.1910181 0.9579174 0.1910181 0.0420826 -0.1910181
3397000000 0.0415293 -0.1896641 0.9584707 0.1896641 0.9584707 0.1896641 0.0415293 -0.1896641
3418000000 0.0409859 -0.1883227 0.9590141 0.1883227 0.9590141 0.1883227 0.0409859 -0.1883227
3439000000 0.0404521 -0.1869939 0.9595479 0.1869939 0.9595479 0.1869939 0.0404521 -0.1869939
3460000000 0.0399277 -0.1856773 0.9600723 0.1856773 0.9600723 0.1856773 0.0399277 -0.1856773
3481000000 0.0394125 -0.1843730 0.9605875 0.1843730 0.9605875 0.1843730 0.0394125 -0.1843730
3502000000 0.0389063 -0.1830806 0.9610937 0.1830806 0.9610937 0.1830806 0.0389063 -0.1830806
3523000000 0.0384088 -0.1817999 0.9615912 0.1817999 0.9615912 0.1817999 0.0384088 -0.1817999
3544000000 0.0379200 -0.1805310 0.9620800 0.1805310 0.9620800 0.1805310 0.0379200 -0.1805310
3565000000 0.0374396 -0.1792734 0.9625604 0.1792734 0.9625604 0.1792734 0.0374396 -0.1792734
3586000000 0.0369674 -0.1780272 0.9630326 0.1780272 0.9630326 0.1780272 0.0369674 -0.1780272
3607000000 0.0365033 -0.1767921 0.9634967 0.1767921 0.9634967 0.1767921 0.0365033 -0.1767921
3628000000 0.0360471 -0.1755680 0.9639529 0.1755680 0.9639529 0.1755680 0.0360471 -0.1755680
3649000000 0.0355986 -0.1743547 0.9644014 0.1743547 0.9644014 0.1743547 0.0355986 -0.1743547
3670000000 0.0351576 -0.1731522 0.9648424 0.1731522 0.9648424 0.1731522 0.0351576 -0.1731522
3691000000 0.0347241 -0.1719601 0.9652759 0.1719601 0.9652759 0.1719601 0.0347241 -0.1719601
3712000000 0.0342978 -0.1707784 0.9657022 0.1707784 0.9657022 0.1707784 0.0342978 -0.1707784
3733000000 0.0338786 -0.1696069 0.9661214 0.1696069 0.9661214 0.1696069 0.0338786 -0.1696069
3754000000 0.0334664 -0.1684456 0.9665336 0.1684456 0.9665336 0.1684456 0.0334664 -0.1684456
3775000000 0.0330609 -0.1672942 0.9669391 0.1672942 0.9669391 0.1672942 0.0330609 -0.1672942
3796000000 0.0326622 -0.1661526 0.9673378 0.1661526 0.9673378 0.1661526 0.0326622 -0.1661526
3817000000 0.0322699 -0.1650207 0.9677301 0.1650207 0.9677301 0.1650207 0.0322699 -0.1650207
3838000000 0.0318841 -0.1638983 0.9681159 0.1638983 0.9681159 0.1638983 0.0318841 -0.1638983
3859000000 0.0315046 -0.1627854 0.9684954 0.1627854 0.9684954 0.1627854 0.0315046 -0.1627854
3880000000 0.0311312 -0.1616818 0.9688688 0.1616818 0.9688688 0.1616818 0.0311312 -0.1616818
3901000000 0.0307638 -0.1605873 0.9692362 0.1605873 0.9692362 0.1605873 0.0307638 -0.1605873
3922000000 0.0304023 -0.1595019 0.9695977 0.1595019 0.9695977 0.1595019 0.0304023 -0.1595019
3943000000 0.0300466 -0.1584254 0.9699534 0.1584254 0.9699534 0.1584254 0.0300466 -0.1584254
3964000000 0.0296967 -0.1573577 0.9703033 0.1573577 0.9703033 0.1573577 0.0296967 -0.1573577
3985000000 0.0293522 -0.1562987 0.9706478 0.1562987 0.9706478 0.1562987 0.0293522 -0.1562987
4006000000 0.0290133 -0.1552483 0.9709867 0.1552483 0.9709867 0.1552483 0.0290133 -0.1552483
4027000000 0.0286797 -0.1542063 0.9713203 0.1542063 0.9713203 0.1542063 0.0286797 -0.1542063
4048000000 0.0283513 -0.1531727 0.9716487 0.1531727 0.9716487 0.1531727 0.0283513 -0.1531727
4069000000 0.0280281 -0.1521473 0.9719719 0.1521473 0.9719719 0.1521473 0.0280281 -0.1521473
4090000000 0.0277099 -0.1511300 0.9722901 0.1511300 0.9722901 0.1511300 0.0277099 -0.1511300
4111000000 0.0273967 -0.1501208 0.9726033 0.1501208 0.9726033 0.1501208 0.0273967 -0.1501208
4132000000 0.0270884 -0.1491194 0.9729116 0.1491194 0.9729116 0.1491194 0.0270884 -0.1491194
4153000000 0.0267848 -0.1481259 0.9732152 0.1481259 0.9732152 0.1481259 0.0267848 -0.1481259
4174000000 0.0264860 -0.1471401 0.9735140 0.1471401 0.9735140 0.1471401 0.0264860 -0.1471401
4195000000 0.0261917 -0.1461620 0.9738083 0.1461620 0.9738083 0.1461620 0.0261917 -0.1461620
4216000000 0.0259019 -0.1451913 0.9740981 0.1451913 0.9740981 0.1451913 0.0259019 -0.1451913
4237000000 0.0256166 -0.1442281 0.9743834 0.1442281 0.9743834 0.1442281 0.0256166 -0.1442281
4258000000 0.0253356 -0.1432722 0.9746644 0.1432722 0.9746644 0.1432722 0.0253356 -0.1432722
4279000000 0.0250589 -0.1423235 0.9749411 0.1423235 0.9749411 0.1423235 0.0250589 -0.1423235
4300000000 0.0247864 -0.1413820 0.9752136 0.1413820 0.9752136 0.1413820 0.0247864 -0.1413820
4321000000 0.0245180 -0.1404475 0.9754820 0.1404475 0.9754820 0.1404475 0.0245180 -0.1404475
4342000000 0.0242537 -0.1395200 0.9757463 0.1395200 0.9757463 0.1395200 0.0242537 -0.1395200
4363000000 0.0239933 -0.1385993 0.9760067 0.1385993 0.9760067 0.1385993 0.0239933 -0.1385993
4384000000 0.0237368 -0.1376855 0.9762632 0.1376855 0.9762632 0.1376855 0.0237368 -0.1376855
4405000000 0.0234842 -0.1367784 0.9765158 0.1367784 0.9765158 0.1367784 0.0234842 -0.1367784
4426000000 0.0232353 -0.1358779 0.9767647 0.1358779 0.9767647 0.1358779 0.0232353 -0.1358779
4447000000 0.0229901 -0.1349839 0.9770099 0.1349839 0.9770099 0.1349839 0.0229901 -0.1349839
4468000000 0.0227485 -0.1340964 0.9772515 0.1340964 0.9772515 0.1340964 0.0227485 -0.1340964
4489000000 0.0225106 -0.1332153 0.9774894 0.1332153 0.9774894 0.1332153 0.0225106 -0.1332153
4510000000 0.0222761 -0.1323406 0.9777239 0.1323406 0.9777239 0.1323406 0.0222761 -0.1323406
