!Murata Part Number: GRM0115C1E3R2CE01
!These Parameters are Measured in Series Mode Connection
!Data Generated on Mar 30, 2021
!       o--ll--o
!Port1            Port2
!       o------o
!Operation Temp=25[degC], DC Bias Voltage=0[V]
!Freq. Start=100[MHz] Stop=9[GHz] 401[Steps]
# Hz S RI R 50
!Freq.(Hz) S11(Real) S11(Imag) S21(Real) S21(Imag) S12(Real) S12(Imag) S22(Real) S22(Imag)
100000000 0.9610709 -0.1932509 0.0389291 0.1932509 0.0389291 0.1932509 0.9610709 -0.1932509
121000000 0.9440095 -0.2296913 0.0559905 0.2296913 0.0559905 0.2296913 0.9440095 -0.2296913
142000000 0.9244740 -0.2639889 0.0755260 0.2639889 0.0755260 0.2639889 0.9244740 -0.2639889
163000000 0.9028015 -0.2959413 0.0971985 0.2959413 0.0971985 0.2959413 0.9028015 -0.2959413
184000000 0.8793406 -0.3254069 0.1206594 0.3254069 0.1206594 0.3254069 0.8793406 -0.3254069
205000000 0.8544398 -0.3523029 0.1455602 0.3523029 0.1455602 0.3523029 0.8544398 -0.3523029
226000000 0.8284369 -0.3766005 0.1715631 0.3766005 0.1715631 0.3766005 0.8284369 -0.3766005
247000000 0.8016510 -0.3983185 0.1983490 0.3983185 0.1983490 0.3983185 0.8016510 -0.3983185
268000000 0.7743764 -0.4175160 0.2256236 0.4175160 0.2256236 0.4175160 0.7743764 -0.4175160
289000000 0.7468783 -0.4342850 0.2531217 0.4342850 0.2531217 0.4342850 0.7468783 -0.4342850
310000000 0.7193908 -0.4487428 0.2806092 0.4487428 0.2806092 0.4487428 0.7193908 -0.4487428
331000000 0.6921160 -0.4610249 0.3078840 0.4610249 0.3078840 0.4610249 0.6921160 -0.4610249
352000000 0.6652247 -0.4712787 0.3347753 0.4712787 0.3347753 0.4712787 0.6652247 -0.4712787
373000000 0.6388582 -0.4796583 0.3611418 0.4796583 0.3611418 0.4796583 0.6388582 -0.4796583
394000000 0.6131299 -0.4863198 0.3868701 0.4863198 0.3868701 0.4863198 0.6131299 -0.4863198
415000000 0.5881286 -0.4914175 0.4118714 0.4914175 0.4118714 0.4914175 0.5881286 -0.4914175
436000000 0.5639206 -0.4951014 0.4360794 0.4951014 0.4360794 0.4951014 0.5639206 -0.4951014
457000000 0.5405532 -0.4975151 0.4594468 0.4975151 0.4594468 0.4975151 0.5405532 -0.4975151
478000000 0.5180569 -0.4987940 0.4819431 0.4987940 0.4819431 0.4987940 0.5180569 -0.4987940
499000000 0.4964484 -0.4990648 0.5035516 0.4990648 0.5035516 0.4990648 0.4964484 -0.4990648
520000000 0.4757327 -0.4984450 0.5242673 0.4984450 0.5242673 0.4984450 0.4757327 -0.4984450
541000000 0.4559053 -0.4970424 0.5440947 0.4970424 0.5440947 0.4970424 0.4559053 -0.4970424
562000000 0.4369540 -0.4949556 0.5630460 0.4949556 0.5630460 0.4949556 0.4369540 -0.4949556
583000000 0.4188608 -0.4922740 0.5811392 0.4922740 0.5811392 0.4922740 0.4188608 -0.4922740
604000000 0.4016027 -0.4890785 0.5983973 0.4890785 0.5983973 0.4890785 0.4016027 -0.4890785
625000000 0.3851538 -0.4854419 0.6148462 0.4854419 0.6148462 0.4854419 0.3851538 -0.4854419
646000000 0.3694853 -0.4814291 0.6305147 0.4814291 0.6305147 0.4814291 0.3694853 -0.4814291
667000000 0.3545670 -0.4770985 0.6454330 0.4770985 0.6454330 0.4770985 0.3545670 -0.4770985
688000000 0.3403678 -0.4725017 0.6596322 0.4725017 0.6596322 0.4725017 0.3403678 -0.4725017
709000000 0.3268559 -0.4676847 0.6731441 0.4676847 0.6731441 0.4676847 0.3268559 -0.4676847
730000000 0.3140000 -0.4626880 0.6860000 0.4626880 0.6860000 0.4626880 0.3140000 -0.4626880
751000000 0.3017686 -0.4575474 0.6982314 0.4575474 0.6982314 0.4575474 0.3017686 -0.4575474
772000000 0.2901313 -0.4522945 0.7098687 0.4522945 0.7098687 0.4522945 0.2901313 -0.4522945
793000000 0.2790582 -0.4469570 0.7209418 0.4469570 0.7209418 0.4469570 0.2790582 -0.4469570
814000000 0.2685205 -0.4415591 0.7314795 0.4415591 0.7314795 0.4415591 0.2685205 -0.4415591
835000000 0.2584905 -0.4361219 0.7415095 0.4361219 0.7415095 0.4361219 0.2584905 -0.4361219
856000000 0.2489415 -0.4306638 0.7510585 0.4306638 0.7510585 0.4306638 0.2489415 -0.4306638
877000000 0.2398481 -0.4252009 0.7601519 0.4252009 0.7601519 0.4252009 0.2398481 -0.4252009
898000000 0.2311859 -0.4197470 0.7688141 0.4197470 0.7688141 0.4197470 0.2311859 -0.4197470
919000000 0.2229320 -0.4143140 0.7770680 0.4143140 0.7770680 0.4143140 0.2229320 -0.4143140
940000000 0.2150644 -0.4089121 0.7849356 0.4089121 0.7849356 0.4089121 0.2150644 -0.4089121
961000000 0.2075623 -0.4035502 0.7924377 0.4035502 0.7924377 0.4035502 0.2075623 -0.4035502
982000000 0.2004061 -0.3982356 0.7995939 0.3982356 0.7995939 0.3982356 0.2004061 -0.3982356
1003000000 0.1935771 -0.3929747 0.8064229 0.3929747 0.8064229 0.3929747 0.1935771 -0.3929747
1024000000 0.1870578 -0.3877726 0.8129422 0.3877726 0.8129422 0.3877726 0.1870578 -0.3877726
1045000000 0.1808316 -0.3826339 0.8191684 0.3826339 0.8191684 0.3826339 0.1808316 -0.3826339
1066000000 0.1748829 -0.3775620 0.8251171 0.3775620 0.8251171 0.3775620 0.1748829 -0.3775620
1087000000 0.1691969 -0.3725600 0.8308031 0.3725600 0.8308031 0.3725600 0.1691969 -0.3725600
1108000000 0.1637598 -0.3676300 0.8362402 0.3676300 0.8362402 0.3676300 0.1637598 -0.3676300
1129000000 0.1585583 -0.3627738 0.8414417 0.3627738 0.8414417 0.3627738 0.1585583 -0.3627738
1150000000 0.1535803 -0.3579929 0.8464197 0.3579929 0.8464197 0.3579929 0.1535803 -0.3579929
1171000000 0.1488140 -0.3532881 0.8511860 0.3532881 0.8511860 0.3532881 0.1488140 -0.3532881
1192000000 0.1442485 -0.3486599 0.8557515 0.3486599 0.8557515 0.3486599 0.1442485 -0.3486599
1213000000 0.1398735 -0.3441087 0.8601265 0.3441087 0.8601265 0.3441087 0.1398735 -0.3441087
1234000000 0.1356792 -0.3396344 0.8643208 0.3396344 0.8643208 0.3396344 0.1356792 -0.3396344
1255000000 0.1316566 -0.3352369 0.8683434 0.3352369 0.8683434 0.3352369 0.1316566 -0.3352369
1276000000 0.1277969 -0.3309158 0.8722031 0.3309158 0.8722031 0.3309158 0.1277969 -0.3309158
1297000000 0.1240921 -0.3266704 0.8759079 0.3266704 0.8759079 0.3266704 0.1240921 -0.3266704
1318000000 0.1205344 -0.3225000 0.8794656 0.3225000 0.8794656 0.3225000 0.1205344 -0.3225000
1339000000 0.1171167 -0.3184039 0.8828833 0.3184039 0.8828833 0.3184039 0.1171167 -0.3184039
1360000000 0.1138321 -0.3143812 0.8861679 0.3143812 0.8861679 0.3143812 0.1138321 -0.3143812
1381000000 0.1106741 -0.3104307 0.8893259 0.3104307 0.8893259 0.3104307 0.1106741 -0.3104307
1402000000 0.1076367 -0.3065514 0.8923633 0.3065514 0.8923633 0.3065514 0.1076367 -0.3065514
1423000000 0.1047142 -0.3027423 0.8952858 0.3027423 0.8952858 0.3027423 0.1047142 -0.3027423
1444000000 0.1019011 -0.2990020 0.8980989 0.2990020 0.8980989 0.2990020 0.1019011 -0.2990020
1465000000 0.0991923 -0.2953295 0.9008077 0.2953295 0.9008077 0.2953295 0.0991923 -0.2953295
1486000000 0.0965830 -0.2917234 0.9034170 0.2917234 0.9034170 0.2917234 0.0965830 -0.2917234
1507000000 0.0940686 -0.2881825 0.9059314 0.2881825 0.9059314 0.2881825 0.0940686 -0.2881825
1528000000 0.0916448 -0.2847056 0.9083552 0.2847056 0.9083552 0.2847056 0.0916448 -0.2847056
1549000000 0.0893074 -0.2812913 0.9106926 0.2812913 0.9106926 0.2812913 0.0893074 -0.2812913
1570000000 0.0870526 -0.2779384 0.9129474 0.2779384 0.9129474 0.2779384 0.0870526 -0.2779384
1591000000 0.0848767 -0.2746456 0.9151233 0.2746456 0.9151233 0.2746456 0.0848767 -0.2746456
1612000000 0.0827763 -0.2714117 0.9172237 0.2714117 0.9172237 0.2714117 0.0827763 -0.2714117
1633000000 0.0807480 -0.2682353 0.9192520 0.2682353 0.9192520 0.2682353 0.0807480 -0.2682353
1654000000 0.0787887 -0.2651153 0.9212113 0.2651153 0.9212113 0.2651153 0.0787887 -0.2651153
1675000000 0.0768954 -0.2620504 0.9231046 0.2620504 0.9231046 0.2620504 0.0768954 -0.2620504
1696000000 0.0750654 -0.2590394 0.9249346 0.2590394 0.9249346 0.2590394 0.0750654 -0.2590394
1717000000 0.0732960 -0.2560811 0.9267040 0.2560811 0.9267040 0.2560811 0.0732960 -0.2560811
1738000000 0.0715845 -0.2531743 0.9284155 0.2531743 0.9284155 0.2531743 0.0715845 -0.2531743
1759000000 0.0699287 -0.2503179 0.9300713 0.2503179 0.9300713 0.2503179 0.0699287 -0.2503179
1780000000 0.0683263 -0.2475107 0.9316737 0.2475107 0.9316737 0.2475107 0.0683263 -0.2475107
1801000000 0.0667749 -0.2447516 0.9332251 0.2447516 0.9332251 0.2447516 0.0667749 -0.2447516
1822000000 0.0652727 -0.2420395 0.9347273 0.2420395 0.9347273 0.2420395 0.0652727 -0.2420395
1843000000 0.0638175 -0.2393734 0.9361825 0.2393734 0.9361825 0.2393734 0.0638175 -0.2393734
1864000000 0.0624076 -0.2367521 0.9375924 0.2367521 0.9375924 0.2367521 0.0624076 -0.2367521
1885000000 0.0610412 -0.2341748 0.9389588 0.2341748 0.9389588 0.2341748 0.0610412 -0.2341748
1906000000 0.0597165 -0.2316403 0.9402835 0.2316403 0.9402835 0.2316403 0.0597165 -0.2316403
1927000000 0.0584319 -0.2291477 0.9415681 0.2291477 0.9415681 0.2291477 0.0584319 -0.2291477
1948000000 0.0571859 -0.2266960 0.9428141 0.2266960 0.9428141 0.2266960 0.0571859 -0.2266960
1969000000 0.0559770 -0.2242844 0.9440230 0.2242844 0.9440230 0.2242844 0.0559770 -0.2242844
1990000000 0.0548038 -0.2219118 0.9451962 0.2219118 0.9451962 0.2219118 0.0548038 -0.2219118
2011000000 0.0536649 -0.2195774 0.9463351 0.2195774 0.9463351 0.2195774 0.0536649 -0.2195774
2032000000 0.0525592 -0.2172803 0.9474408 0.2172803 0.9474408 0.2172803 0.0525592 -0.2172803
2053000000 0.0514853 -0.2150198 0.9485147 0.2150198 0.9485147 0.2150198 0.0514853 -0.2150198
2074000000 0.0504420 -0.2127949 0.9495580 0.2127949 0.9495580 0.2127949 0.0504420 -0.2127949
2095000000 0.0494284 -0.2106048 0.9505716 0.2106048 0.9505716 0.2106048 0.0494284 -0.2106048
2116000000 0.0484432 -0.2084488 0.9515568 0.2084488 0.9515568 0.2084488 0.0484432 -0.2084488
2137000000 0.0474856 -0.2063261 0.9525144 0.2063261 0.9525144 0.2063261 0.0474856 -0.2063261
2158000000 0.0465544 -0.2042360 0.9534456 0.2042360 0.9534456 0.2042360 0.0465544 -0.2042360
2179000000 0.0456488 -0.2021777 0.9543512 0.2021777 0.9543512 0.2021777 0.0456488 -0.2021777
2200000000 0.0447679 -0.2001505 0.9552321 0.2001505 0.9552321 0.2001505 0.0447679 -0.2001505
2221000000 0.0439108 -0.1981537 0.9560892 0.1981537 0.9560892 0.1981537 0.0439108 -0.1981537
2242000000 0.0430767 -0.1961868 0.9569233 0.1961868 0.9569233 0.1961868 0.0430767 -0.1961868
2263000000 0.0422649 -0.1942489 0.9577351 0.1942489 0.9577351 0.1942489 0.0422649 -0.1942489
2284000000 0.0414745 -0.1923395 0.9585255 0.1923395 0.9585255 0.1923395 0.0414745 -0.1923395
2305000000 0.0407048 -0.1904579 0.9592952 0.1904579 0.9592952 0.1904579 0.0407048 -0.1904579
2326000000 0.0399551 -0.1886036 0.9600449 0.1886036 0.9600449 0.1886036 0.0399551 -0.1886036
2347000000 0.0392249 -0.1867759 0.9607751 0.1867759 0.9607751 0.1867759 0.0392249 -0.1867759
2368000000 0.0385134 -0.1849743 0.9614866 0.1849743 0.9614866 0.1849743 0.0385134 -0.1849743
2389000000 0.0378200 -0.1831983 0.9621800 0.1831983 0.9621800 0.1831983 0.0378200 -0.1831983
2410000000 0.0371442 -0.1814472 0.9628558 0.1814472 0.9628558 0.1814472 0.0371442 -0.1814472
2431000000 0.0364853 -0.1797205 0.9635147 0.1797205 0.9635147 0.1797205 0.0364853 -0.1797205
2452000000 0.0358429 -0.1780178 0.9641571 0.1780178 0.9641571 0.1780178 0.0358429 -0.1780178
2473000000 0.0352164 -0.1763385 0.9647836 0.1763385 0.9647836 0.1763385 0.0352164 -0.1763385
2494000000 0.0346053 -0.1746821 0.9653947 0.1746821 0.9653947 0.1746821 0.0346053 -0.1746821
2515000000 0.0340091 -0.1730482 0.9659909 0.1730482 0.9659909 0.1730482 0.0340091 -0.1730482
2536000000 0.0334274 -0.1714363 0.9665726 0.1714363 0.9665726 0.1714363 0.0334274 -0.1714363
2557000000 0.0328597 -0.1698459 0.9671403 0.1698459 0.9671403 0.1698459 0.0328597 -0.1698459
2578000000 0.0323056 -0.1682765 0.9676944 0.1682765 0.9676944 0.1682765 0.0323056 -0.1682765
2599000000 0.0317647 -0.1667279 0.9682353 0.1667279 0.9682353 0.1667279 0.0317647 -0.1667279
2620000000 0.0312366 -0.1651995 0.9687634 0.1651995 0.9687634 0.1651995 0.0312366 -0.1651995
2641000000 0.0307209 -0.1636909 0.9692791 0.1636909 0.9692791 0.1636909 0.0307209 -0.1636909
2662000000 0.0302172 -0.1622017 0.9697828 0.1622017 0.9697828 0.1622017 0.0302172 -0.1622017
2683000000 0.0297252 -0.1607315 0.9702748 0.1607315 0.9702748 0.1607315 0.0297252 -0.1607315
2704000000 0.0292445 -0.1592800 0.9707555 0.1592800 0.9707555 0.1592800 0.0292445 -0.1592800
2725000000 0.0287748 -0.1578468 0.9712252 0.1578468 0.9712252 0.1578468 0.0287748 -0.1578468
2746000000 0.0283158 -0.1564315 0.9716842 0.1564315 0.9716842 0.1564315 0.0283158 -0.1564315
2767000000 0.0278672 -0.1550338 0.9721328 0.1550338 0.9721328 0.1550338 0.0278672 -0.1550338
2788000000 0.0274286 -0.1536533 0.9725714 0.1536533 0.9725714 0.1536533 0.0274286 -0.1536533
2809000000 0.0269998 -0.1522897 0.9730002 0.1522897 0.9730002 0.1522897 0.0269998 -0.1522897
2830000000 0.0265806 -0.1509427 0.9734194 0.1509427 0.9734194 0.1509427 0.0265806 -0.1509427
2851000000 0.0261706 -0.1496118 0.9738294 0.1496118 0.9738294 0.1496118 0.0261706 -0.1496118
2872000000 0.0257696 -0.1482970 0.9742304 0.1482970 0.9742304 0.1482970 0.0257696 -0.1482970
2893000000 0.0253774 -0.1469977 0.9746226 0.1469977 0.9746226 0.1469977 0.0253774 -0.1469977
2914000000 0.0249936 -0.1457138 0.9750064 0.1457138 0.9750064 0.1457138 0.0249936 -0.1457138
2935000000 0.0246182 -0.1444449 0.9753818 0.1444449 0.9753818 0.1444449 0.0246182 -0.1444449
2956000000 0.0242507 -0.1431908 0.9757493 0.1431908 0.9757493 0.1431908 0.0242507 -0.1431908
2977000000 0.0238912 -0.1419511 0.9761088 0.1419511 0.9761088 0.1419511 0.0238912 -0.1419511
2998000000 0.0235392 -0.1407257 0.9764608 0.1407257 0.9764608 0.1407257 0.0235392 -0.1407257
3019000000 0.0231947 -0.1395142 0.9768053 0.1395142 0.9768053 0.1395142 0.0231947 -0.1395142
3040000000 0.0228573 -0.1383164 0.9771427 0.1383164 0.9771427 0.1383164 0.0228573 -0.1383164
3061000000 0.0225271 -0.1371320 0.9774729 0.1371320 0.9774729 0.1371320 0.0225271 -0.1371320
3082000000 0.0222036 -0.1359608 0.9777964 0.1359608 0.9777964 0.1359608 0.0222036 -0.1359608
3103000000 0.0218869 -0.1348026 0.9781131 0.1348026 0.9781131 0.1348026 0.0218869 -0.1348026
3124000000 0.0215767 -0.1336571 0.9784233 0.1336571 0.9784233 0.1336571 0.0215767 -0.1336571
3145000000 0.0212728 -0.1325241 0.9787272 0.1325241 0.9787272 0.1325241 0.0212728 -0.1325241
3166000000 0.0209750 -0.1314033 0.9790250 0.1314033 0.9790250 0.1314033 0.0209750 -0.1314033
3187000000 0.0206833 -0.1302946 0.9793167 0.1302946 0.9793167 0.1302946 0.0206833 -0.1302946
3208000000 0.0203975 -0.1291977 0.9796025 0.1291977 0.9796025 0.1291977 0.0203975 -0.1291977
3229000000 0.0201174 -0.1281125 0.9798826 0.1281125 0.9798826 0.1281125 0.0201174 -0.1281125
3250000000 0.0198428 -0.1270387 0.9801572 0.1270387 0.9801572 0.1270387 0.0198428 -0.1270387
3271000000 0.0195737 -0.1259761 0.9804263 0.1259761 0.9804263 0.1259761 0.0195737 -0.1259761
3292000000 0.0193100 -0.1249245 0.9806900 0.1249245 0.9806900 0.1249245 0.0193100 -0.1249245
3313000000 0.0190514 -0.1238838 0.9809486 0.1238838 0.9809486 0.1238838 0.0190514 -0.1238838
3334000000 0.0187978 -0.1228537 0.9812022 0.1228537 0.9812022 0.1228537 0.0187978 -0.1228537
3355000000 0.0185492 -0.1218341 0.9814508 0.1218341 0.9814508 0.1218341 0.0185492 -0.1218341
3376000000 0.0183054 -0.1208248 0.9816946 0.1208248 0.9816946 0.1208248 0.0183054 -0.1208248
3397000000 0.0180663 -0.1198256 0.9819337 0.1198256 0.9819337 0.1198256 0.0180663 -0.1198256
3418000000 0.0178319 -0.1188364 0.9821681 0.1188364 0.9821681 0.1188364 0.0178319 -0.1188364
3439000000 0.0176018 -0.1178569 0.9823982 0.1178569 0.9823982 0.1178569 0.0176018 -0.1178569
3460000000 0.0173762 -0.1168871 0.9826238 0.1168871 0.9826238 0.1168871 0.0173762 -0.1168871
3481000000 0.0171549 -0.1159267 0.9828451 0.1159267 0.9828451 0.1159267 0.0171549 -0.1159267
3502000000 0.0169377 -0.1149756 0.9830623 0.1149756 0.9830623 0.1149756 0.0169377 -0.1149756
3523000000 0.0167246 -0.1140337 0.9832754 0.1140337 0.9832754 0.1140337 0.0167246 -0.1140337
3544000000 0.0165155 -0.1131008 0.9834845 0.1131008 0.9834845 0.1131008 0.0165155 -0.1131008
3565000000 0.0163103 -0.1121767 0.9836897 0.1121767 0.9836897 0.1121767 0.0163103 -0.1121767
3586000000 0.0161089 -0.1112613 0.9838911 0.1112613 0.9838911 0.1112613 0.0161089 -0.1112613
3607000000 0.0159112 -0.1103545 0.9840888 0.1103545 0.9840888 0.1103545 0.0159112 -0.1103545
3628000000 0.0157172 -0.1094561 0.9842828 0.1094561 0.9842828 0.1094561 0.0157172 -0.1094561
3649000000 0.0155268 -0.1085660 0.9844732 0.1085660 0.9844732 0.1085660 0.0155268 -0.1085660
3670000000 0.0153398 -0.1076841 0.9846602 0.1076841 0.9846602 0.1076841 0.0153398 -0.1076841
3691000000 0.0151563 -0.1068103 0.9848437 0.1068103 0.9848437 0.1068103 0.0151563 -0.1068103
3712000000 0.0149760 -0.1059443 0.9850240 0.1059443 0.9850240 0.1059443 0.0149760 -0.1059443
3733000000 0.0147991 -0.1050861 0.9852009 0.1050861 0.9852009 0.1050861 0.0147991 -0.1050861
3754000000 0.0146253 -0.1042356 0.9853747 0.1042356 0.9853747 0.1042356 0.0146253 -0.1042356
3775000000 0.0144546 -0.1033926 0.9855454 0.1033926 0.9855454 0.1033926 0.0144546 -0.1033926
3796000000 0.0142871 -0.1025571 0.9857129 0.1025571 0.9857129 0.1025571 0.0142871 -0.1025571
3817000000 0.0141225 -0.1017289 0.9858775 0.1017289 0.9858775 0.1017289 0.0141225 -0.1017289
3838000000 0.0139608 -0.1009079 0.9860392 0.1009079 0.9860392 0.1009079 0.0139608 -0.1009079
3859000000 0.0138020 -0.1000939 0.9861980 0.1000939 0.9861980 0.1000939 0.0138020 -0.1000939
3880000000 0.0136460 -0.0992870 0.9863540 0.0992870 0.9863540 0.0992870 0.0136460 -0.0992870
3901000000 0.0134928 -0.0984869 0.9865072 0.0984869 0.9865072 0.0984869 0.0134928 -0.0984869
3922000000 0.0133422 -0.0976936 0.9866578 0.0976936 0.9866578 0.0976936 0.0133422 -0.0976936
3943000000 0.0131943 -0.0969070 0.9868057 0.0969070 0.9868057 0.0969070 0.0131943 -0.0969070
3964000000 0.0130490 -0.0961270 0.9869510 0.0961270 0.9869510 0.0961270 0.0130490 -0.0961270
3985000000 0.0129062 -0.0953535 0.9870938 0.0953535 0.9870938 0.0953535 0.0129062 -0.0953535
4006000000 0.0127659 -0.0945863 0.9872341 0.0945863 0.9872341 0.0945863 0.0127659 -0.0945863
4027000000 0.0126281 -0.0938254 0.9873719 0.0938254 0.9873719 0.0938254 0.0126281 -0.0938254
4048000000 0.0124926 -0.0930707 0.9875074 0.0930707 0.9875074 0.0930707 0.0124926 -0.0930707
4069000000 0.0123595 -0.0923222 0.9876405 0.0923222 0.9876405 0.0923222 0.0123595 -0.0923222
4090000000 0.0122286 -0.0915796 0.9877714 0.0915796 0.9877714 0.0915796 0.0122286 -0.0915796
4111000000 0.0121000 -0.0908430 0.9879000 0.0908430 0.9879000 0.0908430 0.0121000 -0.0908430
4132000000 0.0119736 -0.0901123 0.9880264 0.0901123 0.9880264 0.0901123 0.0119736 -0.0901123
4153000000 0.0118493 -0.0893873 0.9881507 0.0893873 0.9881507 0.0893873 0.0118493 -0.0893873
4174000000 0.0117272 -0.0886679 0.9882728 0.0886679 0.9882728 0.0886679 0.0117272 -0.0886679
4195000000 0.0116072 -0.0879542 0.9883928 0.0879542 0.9883928 0.0879542 0.0116072 -0.0879542
4216000000 0.0114892 -0.0872460 0.9885108 0.0872460 0.9885108 0.0872460 0.0114892 -0.0872460
4237000000 0.0113732 -0.0865433 0.9886268 0.0865433 0.9886268 0.0865433 0.0113732 -0.0865433
4258000000 0.0112591 -0.0858459 0.9887409 0.0858459 0.9887409 0.0858459 0.0112591 -0.0858459
4279000000 0.0111470 -0.0851539 0.9888530 0.0851539 0.9888530 0.0851539 0.0111470 -0.0851539
4300000000 0.0110368 -0.0844670 0.9889632 0.0844670 0.9889632 0.0844670 0.0110368 -0.0844670
4321000000 0.0109284 -0.0837853 0.9890716 0.0837853 0.9890716 0.0837853 0.0109284 -0.0837853
4342000000 0.0108218 -0.0831087 0.9891782 0.0831087 0.9891782 0.0831087 0.0108218 -0.0831087
4363000000 0.0107171 -0.0824371 0.9892829 0.0824371 0.9892829 0.0824371 0.0107171 -0.0824371
4384000000 0.0106141 -0.0817704 0.9893859 0.0817704 0.9893859 0.0817704 0.0106141 -0.0817704
4405000000 0.0105128 -0.0811086 0.9894872 0.0811086 0.9894872 0.0811086 0.0105128 -0.0811086
4426000000 0.0104132 -0.0804517 0.9895868 0.0804517 0.9895868 0.0804517 0.0104132 -0.0804517
4447000000 0.0103152 -0.0797994 0.9896848 0.0797994 0.9896848 0.0797994 0.0103152 -0.0797994
4468000000 0.0102189 -0.0791519 0.9897811 0.0791519 0.9897811 0.0791519 0.0102189 -0.0791519
4489000000 0.0101242 -0.0785090 0.9898758 0.0785090 0.9898758 0.0785090 0.0101242 -0.0785090
4510000000 0.0100311 -0.0778706 0.9899689 0.0778706 0.9899689 0.0778706 0.0100311 -0.0778706
