!Murata Part Number: GRM0115C1C8R3BE01
!These Parameters are Measured in Series Mode Connection
!Data Generated on Mar 30, 2021
!       o--ll--o
!Port1            Port2
!       o------o
!Operation Temp=25[degC], DC Bias Voltage=0[V]
!Freq. Start=100[MHz] Stop=9[GHz] 401[Steps]
# Hz S RI R 50
!Freq.(Hz) S11(Real) S11(Imag) S21(Real) S21(Imag) S12(Real) S12(Imag) S22(Real) S22(Imag)
100000000 0.7858941 -0.4098729 0.2141059 0.4098729 0.2141059 0.4098729 0.7858941 -0.4098729
121000000 0.7148164 -0.4511048 0.2851836 0.4511048 0.2851836 0.4511048 0.7148164 -0.4511048
142000000 0.6453269 -0.4779476 0.3546731 0.4779476 0.3546731 0.4779476 0.6453269 -0.4779476
163000000 0.5799126 -0.4930363 0.4200874 0.4930363 0.4200874 0.4930363 0.5799126 -0.4930363
184000000 0.5199153 -0.4989967 0.4800847 0.4989967 0.4800847 0.4989967 0.5199153 -0.4989967
205000000 0.4658470 -0.4981552 0.5341530 0.4981552 0.5341530 0.4981552 0.4658470 -0.4981552
226000000 0.4176823 -0.4924293 0.5823177 0.4924293 0.5823177 0.4924293 0.4176823 -0.4924293
247000000 0.3750855 -0.4833256 0.6249145 0.4833256 0.6249145 0.4833256 0.3750855 -0.4833256
268000000 0.3375668 -0.4719887 0.6624332 0.4719887 0.6624332 0.4719887 0.3375668 -0.4719887
289000000 0.3045821 -0.4592665 0.6954179 0.4592665 0.6954179 0.4592665 0.3045821 -0.4592665
310000000 0.2755911 -0.4457748 0.7244089 0.4457748 0.7244089 0.4457748 0.2755911 -0.4457748
331000000 0.2500883 -0.4319532 0.7499117 0.4319532 0.7499117 0.4319532 0.2500883 -0.4319532
352000000 0.2276171 -0.4181093 0.7723829 0.4181093 0.7723829 0.4181093 0.2276171 -0.4181093
373000000 0.2077742 -0.4044544 0.7922258 0.4044544 0.7922258 0.4044544 0.2077742 -0.4044544
394000000 0.1902079 -0.3911295 0.8097921 0.3911295 0.8097921 0.3911295 0.1902079 -0.3911295
415000000 0.1746145 -0.3782248 0.8253855 0.3782248 0.8253855 0.3782248 0.1746145 -0.3782248
436000000 0.1607328 -0.3657947 0.8392672 0.3657947 0.8392672 0.3657947 0.1607328 -0.3657947
457000000 0.1483388 -0.3538676 0.8516612 0.3538676 0.8516612 0.3538676 0.1483388 -0.3538676
478000000 0.1372407 -0.3424542 0.8627593 0.3424542 0.8627593 0.3424542 0.1372407 -0.3424542
499000000 0.1272744 -0.3315529 0.8727256 0.3315529 0.8727256 0.3315529 0.1272744 -0.3315529
520000000 0.1182989 -0.3211535 0.8817011 0.3211535 0.8817011 0.3211535 0.1182989 -0.3211535
541000000 0.1101935 -0.3112405 0.8898065 0.3112405 0.8898065 0.3112405 0.1101935 -0.3112405
562000000 0.1028541 -0.3017948 0.8971459 0.3017948 0.8971459 0.3017948 0.1028541 -0.3017948
583000000 0.0961911 -0.2927955 0.9038089 0.2927955 0.9038089 0.2927955 0.0961911 -0.2927955
604000000 0.0901269 -0.2842206 0.9098731 0.2842206 0.9098731 0.2842206 0.0901269 -0.2842206
625000000 0.0845945 -0.2760479 0.9154055 0.2760479 0.9154055 0.2760479 0.0845945 -0.2760479
646000000 0.0795355 -0.2682557 0.9204645 0.2682557 0.9204645 0.2682557 0.0795355 -0.2682557
667000000 0.0748991 -0.2608225 0.9251009 0.2608225 0.9251009 0.2608225 0.0748991 -0.2608225
688000000 0.0706408 -0.2537279 0.9293592 0.2537279 0.9293592 0.2537279 0.0706408 -0.2537279
709000000 0.0667218 -0.2469523 0.9332782 0.2469523 0.9332782 0.2469523 0.0667218 -0.2469523
730000000 0.0631081 -0.2404772 0.9368919 0.2404772 0.9368919 0.2404772 0.0631081 -0.2404772
751000000 0.0597694 -0.2342851 0.9402306 0.2342851 0.9402306 0.2342851 0.0597694 -0.2342851
772000000 0.0566793 -0.2283594 0.9433207 0.2283594 0.9433207 0.2283594 0.0566793 -0.2283594
793000000 0.0538143 -0.2226848 0.9461857 0.2226848 0.9461857 0.2226848 0.0538143 -0.2226848
814000000 0.0511536 -0.2172466 0.9488464 0.2172466 0.9488464 0.2172466 0.0511536 -0.2172466
835000000 0.0486786 -0.2120314 0.9513214 0.2120314 0.9513214 0.2120314 0.0486786 -0.2120314
856000000 0.0463729 -0.2070264 0.9536271 0.2070264 0.9536271 0.2070264 0.0463729 -0.2070264
877000000 0.0442217 -0.2022198 0.9557783 0.2022198 0.9557783 0.2022198 0.0442217 -0.2022198
898000000 0.0422118 -0.1976004 0.9577882 0.1976004 0.9577882 0.1976004 0.0422118 -0.1976004
919000000 0.0403313 -0.1931580 0.9596687 0.1931580 0.9596687 0.1931580 0.0403313 -0.1931580
940000000 0.0385697 -0.1888828 0.9614303 0.1888828 0.9614303 0.1888828 0.0385697 -0.1888828
961000000 0.0369174 -0.1847658 0.9630826 0.1847658 0.9630826 0.1847658 0.0369174 -0.1847658
982000000 0.0353656 -0.1807986 0.9646344 0.1807986 0.9646344 0.1807986 0.0353656 -0.1807986
1003000000 0.0339066 -0.1769733 0.9660934 0.1769733 0.9660934 0.1769733 0.0339066 -0.1769733
1024000000 0.0325332 -0.1732824 0.9674668 0.1732824 0.9674668 0.1732824 0.0325332 -0.1732824
1045000000 0.0312392 -0.1697191 0.9687608 0.1697191 0.9687608 0.1697191 0.0312392 -0.1697191
1066000000 0.0300185 -0.1662768 0.9699815 0.1662768 0.9699815 0.1662768 0.0300185 -0.1662768
1087000000 0.0288659 -0.1629496 0.9711341 0.1629496 0.9711341 0.1629496 0.0288659 -0.1629496
1108000000 0.0277766 -0.1597317 0.9722234 0.1597317 0.9722234 0.1597317 0.0277766 -0.1597317
1129000000 0.0267461 -0.1566178 0.9732539 0.1566178 0.9732539 0.1566178 0.0267461 -0.1566178
1150000000 0.0257703 -0.1536028 0.9742297 0.1536028 0.9742297 0.1536028 0.0257703 -0.1536028
1171000000 0.0248456 -0.1506821 0.9751544 0.1506821 0.9751544 0.1506821 0.0248456 -0.1506821
1192000000 0.0239685 -0.1478513 0.9760315 0.1478513 0.9760315 0.1478513 0.0239685 -0.1478513
1213000000 0.0231359 -0.1451061 0.9768641 0.1451061 0.9768641 0.1451061 0.0231359 -0.1451061
1234000000 0.0223449 -0.1424427 0.9776551 0.1424427 0.9776551 0.1424427 0.0223449 -0.1424427
1255000000 0.0215930 -0.1398574 0.9784070 0.1398574 0.9784070 0.1398574 0.0215930 -0.1398574
1276000000 0.0208775 -0.1373466 0.9791225 0.1373466 0.9791225 0.1373466 0.0208775 -0.1373466
1297000000 0.0201963 -0.1349072 0.9798037 0.1349072 0.9798037 0.1349072 0.0201963 -0.1349072
1318000000 0.0195474 -0.1325360 0.9804526 0.1325360 0.9804526 0.1325360 0.0195474 -0.1325360
1339000000 0.0189286 -0.1302301 0.9810714 0.1302301 0.9810714 0.1302301 0.0189286 -0.1302301
1360000000 0.0183384 -0.1279866 0.9816616 0.1279866 0.9816616 0.1279866 0.0183384 -0.1279866
1381000000 0.0177749 -0.1258031 0.9822251 0.1258031 0.9822251 0.1258031 0.0177749 -0.1258031
1402000000 0.0172367 -0.1236771 0.9827633 0.1236771 0.9827633 0.1236771 0.0172367 -0.1236771
1423000000 0.0167224 -0.1216061 0.9832776 0.1216061 0.9832776 0.1216061 0.0167224 -0.1216061
1444000000 0.0162305 -0.1195880 0.9837695 0.1195880 0.9837695 0.1195880 0.0162305 -0.1195880
1465000000 0.0157599 -0.1176206 0.9842401 0.1176206 0.9842401 0.1176206 0.0157599 -0.1176206
1486000000 0.0153094 -0.1157020 0.9846906 0.1157020 0.9846906 0.1157020 0.0153094 -0.1157020
1507000000 0.0148779 -0.1138303 0.9851221 0.1138303 0.9851221 0.1138303 0.0148779 -0.1138303
1528000000 0.0144644 -0.1120037 0.9855356 0.1120037 0.9855356 0.1120037 0.0144644 -0.1120037
1549000000 0.0140680 -0.1102204 0.9859320 0.1102204 0.9859320 0.1102204 0.0140680 -0.1102204
1570000000 0.0136878 -0.1084789 0.9863122 0.1084789 0.9863122 0.1084789 0.0136878 -0.1084789
1591000000 0.0133229 -0.1067775 0.9866771 0.1067775 0.9866771 0.1067775 0.0133229 -0.1067775
1612000000 0.0129726 -0.1051149 0.9870274 0.1051149 0.9870274 0.1051149 0.0129726 -0.1051149
1633000000 0.0126361 -0.1034896 0.9873639 0.1034896 0.9873639 0.1034896 0.0126361 -0.1034896
1654000000 0.0123129 -0.1019002 0.9876871 0.1019002 0.9876871 0.1019002 0.0123129 -0.1019002
1675000000 0.0120021 -0.1003456 0.9879979 0.1003456 0.9879979 0.1003456 0.0120021 -0.1003456
1696000000 0.0117033 -0.0988244 0.9882967 0.0988244 0.9882967 0.0988244 0.0117033 -0.0988244
1717000000 0.0114158 -0.0973355 0.9885842 0.0973355 0.9885842 0.0973355 0.0114158 -0.0973355
1738000000 0.0111391 -0.0958779 0.9888609 0.0958779 0.9888609 0.0958779 0.0111391 -0.0958779
1759000000 0.0108728 -0.0944504 0.9891272 0.0944504 0.9891272 0.0944504 0.0108728 -0.0944504
1780000000 0.0106163 -0.0930520 0.9893837 0.0930520 0.9893837 0.0930520 0.0106163 -0.0930520
1801000000 0.0103692 -0.0916818 0.9896308 0.0916818 0.9896308 0.0916818 0.0103692 -0.0916818
1822000000 0.0101311 -0.0903389 0.9898689 0.0903389 0.9898689 0.0903389 0.0101311 -0.0903389
1843000000 0.0099016 -0.0890223 0.9900984 0.0890223 0.9900984 0.0890223 0.0099016 -0.0890223
1864000000 0.0096802 -0.0877312 0.9903198 0.0877312 0.9903198 0.0877312 0.0096802 -0.0877312
1885000000 0.0094667 -0.0864648 0.9905333 0.0864648 0.9905333 0.0864648 0.0094667 -0.0864648
1906000000 0.0092607 -0.0852223 0.9907393 0.0852223 0.9907393 0.0852223 0.0092607 -0.0852223
1927000000 0.0090619 -0.0840030 0.9909381 0.0840030 0.9909381 0.0840030 0.0090619 -0.0840030
1948000000 0.0088700 -0.0828061 0.9911300 0.0828061 0.9911300 0.0828061 0.0088700 -0.0828061
1969000000 0.0086846 -0.0816311 0.9913154 0.0816311 0.9913154 0.0816311 0.0086846 -0.0816311
1990000000 0.0085056 -0.0804771 0.9914944 0.0804771 0.9914944 0.0804771 0.0085056 -0.0804771
2011000000 0.0083327 -0.0793435 0.9916673 0.0793435 0.9916673 0.0793435 0.0083327 -0.0793435
2032000000 0.0081655 -0.0782299 0.9918345 0.0782299 0.9918345 0.0782299 0.0081655 -0.0782299
2053000000 0.0080039 -0.0771355 0.9919961 0.0771355 0.9919961 0.0771355 0.0080039 -0.0771355
2074000000 0.0078477 -0.0760598 0.9921523 0.0760598 0.9921523 0.0760598 0.0078477 -0.0760598
2095000000 0.0076967 -0.0750022 0.9923033 0.0750022 0.9923033 0.0750022 0.0076967 -0.0750022
2116000000 0.0075506 -0.0739624 0.9924494 0.0739624 0.9924494 0.0739624 0.0075506 -0.0739624
2137000000 0.0074092 -0.0729396 0.9925908 0.0729396 0.9925908 0.0729396 0.0074092 -0.0729396
2158000000 0.0072724 -0.0719336 0.9927276 0.0719336 0.9927276 0.0719336 0.0072724 -0.0719336
2179000000 0.0071400 -0.0709437 0.9928600 0.0709437 0.9928600 0.0709437 0.0071400 -0.0709437
2200000000 0.0070119 -0.0699696 0.9929881 0.0699696 0.9929881 0.0699696 0.0070119 -0.0699696
2221000000 0.0068878 -0.0690107 0.9931122 0.0690107 0.9931122 0.0690107 0.0068878 -0.0690107
2242000000 0.0067677 -0.0680668 0.9932323 0.0680668 0.9932323 0.0680668 0.0067677 -0.0680668
2263000000 0.0066513 -0.0671374 0.9933487 0.0671374 0.9933487 0.0671374 0.0066513 -0.0671374
2284000000 0.0065386 -0.0662221 0.9934614 0.0662221 0.9934614 0.0662221 0.0065386 -0.0662221
2305000000 0.0064294 -0.0653206 0.9935706 0.0653206 0.9935706 0.0653206 0.0064294 -0.0653206
2326000000 0.0063236 -0.0644324 0.9936764 0.0644324 0.9936764 0.0644324 0.0063236 -0.0644324
2347000000 0.0062211 -0.0635572 0.9937789 0.0635572 0.9937789 0.0635572 0.0062211 -0.0635572
2368000000 0.0061217 -0.0626947 0.9938783 0.0626947 0.9938783 0.0626947 0.0061217 -0.0626947
2389000000 0.0060254 -0.0618446 0.9939746 0.0618446 0.9939746 0.0618446 0.0060254 -0.0618446
2410000000 0.0059320 -0.0610066 0.9940680 0.0610066 0.9940680 0.0610066 0.0059320 -0.0610066
2431000000 0.0058415 -0.0601803 0.9941585 0.0601803 0.9941585 0.0601803 0.0058415 -0.0601803
2452000000 0.0057537 -0.0593654 0.9942463 0.0593654 0.9942463 0.0593654 0.0057537 -0.0593654
2473000000 0.0056686 -0.0585617 0.9943314 0.0585617 0.9943314 0.0585617 0.0056686 -0.0585617
2494000000 0.0055860 -0.0577689 0.9944140 0.0577689 0.9944140 0.0577689 0.0055860 -0.0577689
2515000000 0.0055059 -0.0569868 0.9944941 0.0569868 0.9944941 0.0569868 0.0055059 -0.0569868
2536000000 0.0054282 -0.0562150 0.9945718 0.0562150 0.9945718 0.0562150 0.0054282 -0.0562150
2557000000 0.0053529 -0.0554533 0.9946471 0.0554533 0.9946471 0.0554533 0.0053529 -0.0554533
2578000000 0.0052798 -0.0547015 0.9947202 0.0547015 0.9947202 0.0547015 0.0052798 -0.0547015
2599000000 0.0052088 -0.0539594 0.9947912 0.0539594 0.9947912 0.0539594 0.0052088 -0.0539594
2620000000 0.0051400 -0.0532267 0.9948600 0.0532267 0.9948600 0.0532267 0.0051400 -0.0532267
2641000000 0.0050732 -0.0525031 0.9949268 0.0525031 0.9949268 0.0525031 0.0050732 -0.0525031
2662000000 0.0050084 -0.0517886 0.9949916 0.0517886 0.9949916 0.0517886 0.0050084 -0.0517886
2683000000 0.0049455 -0.0510828 0.9950545 0.0510828 0.9950545 0.0510828 0.0049455 -0.0510828
2704000000 0.0048845 -0.0503856 0.9951155 0.0503856 0.9951155 0.0503856 0.0048845 -0.0503856
2725000000 0.0048253 -0.0496969 0.9951747 0.0496969 0.9951747 0.0496969 0.0048253 -0.0496969
2746000000 0.0047678 -0.0490163 0.9952322 0.0490163 0.9952322 0.0490163 0.0047678 -0.0490163
2767000000 0.0047121 -0.0483437 0.9952879 0.0483437 0.9952879 0.0483437 0.0047121 -0.0483437
2788000000 0.0046580 -0.0476789 0.9953420 0.0476789 0.9953420 0.0476789 0.0046580 -0.0476789
2809000000 0.0046054 -0.0470218 0.9953946 0.0470218 0.9953946 0.0470218 0.0046054 -0.0470218
2830000000 0.0045545 -0.0463722 0.9954455 0.0463722 0.9954455 0.0463722 0.0045545 -0.0463722
2851000000 0.0045050 -0.0457300 0.9954950 0.0457300 0.9954950 0.0457300 0.0045050 -0.0457300
2872000000 0.0044570 -0.0450949 0.9955430 0.0450949 0.9955430 0.0450949 0.0044570 -0.0450949
2893000000 0.0044105 -0.0444668 0.9955895 0.0444668 0.9955895 0.0444668 0.0044105 -0.0444668
2914000000 0.0043653 -0.0438456 0.9956347 0.0438456 0.9956347 0.0438456 0.0043653 -0.0438456
2935000000 0.0043215 -0.0432312 0.9956785 0.0432312 0.9956785 0.0432312 0.0043215 -0.0432312
2956000000 0.0042790 -0.0426233 0.9957210 0.0426233 0.9957210 0.0426233 0.0042790 -0.0426233
2977000000 0.0042377 -0.0420219 0.9957623 0.0420219 0.9957623 0.0420219 0.0042377 -0.0420219
2998000000 0.0041977 -0.0414267 0.9958023 0.0414267 0.9958023 0.0414267 0.0041977 -0.0414267
3019000000 0.0041589 -0.0408378 0.9958411 0.0408378 0.9958411 0.0408378 0.0041589 -0.0408378
3040000000 0.0041213 -0.0402549 0.9958787 0.0402549 0.9958787 0.0402549 0.0041213 -0.0402549
3061000000 0.0040848 -0.0396780 0.9959152 0.0396780 0.9959152 0.0396780 0.0040848 -0.0396780
3082000000 0.0040494 -0.0391069 0.9959506 0.0391069 0.9959506 0.0391069 0.0040494 -0.0391069
3103000000 0.0040151 -0.0385414 0.9959849 0.0385414 0.9959849 0.0385414 0.0040151 -0.0385414
3124000000 0.0039819 -0.0379816 0.9960181 0.0379816 0.9960181 0.0379816 0.0039819 -0.0379816
3145000000 0.0039497 -0.0374272 0.9960503 0.0374272 0.9960503 0.0374272 0.0039497 -0.0374272
3166000000 0.0039185 -0.0368782 0.9960815 0.0368782 0.9960815 0.0368782 0.0039185 -0.0368782
3187000000 0.0038883 -0.0363345 0.9961117 0.0363345 0.9961117 0.0363345 0.0038883 -0.0363345
3208000000 0.0038590 -0.0357959 0.9961410 0.0357959 0.9961410 0.0357959 0.0038590 -0.0357959
3229000000 0.0038307 -0.0352624 0.9961693 0.0352624 0.9961693 0.0352624 0.0038307 -0.0352624
3250000000 0.0038033 -0.0347339 0.9961967 0.0347339 0.9961967 0.0347339 0.0038033 -0.0347339
3271000000 0.0037767 -0.0342102 0.9962233 0.0342102 0.9962233 0.0342102 0.0037767 -0.0342102
3292000000 0.0037511 -0.0336913 0.9962489 0.0336913 0.9962489 0.0336913 0.0037511 -0.0336913
3313000000 0.0037263 -0.0331771 0.9962737 0.0331771 0.9962737 0.0331771 0.0037263 -0.0331771
3334000000 0.0037023 -0.0326675 0.9962977 0.0326675 0.9962977 0.0326675 0.0037023 -0.0326675
3355000000 0.0036791 -0.0321624 0.9963209 0.0321624 0.9963209 0.0321624 0.0036791 -0.0321624
3376000000 0.0036567 -0.0316617 0.9963433 0.0316617 0.9963433 0.0316617 0.0036567 -0.0316617
3397000000 0.0036350 -0.0311654 0.9963650 0.0311654 0.9963650 0.0311654 0.0036350 -0.0311654
3418000000 0.0036141 -0.0306734 0.9963859 0.0306734 0.9963859 0.0306734 0.0036141 -0.0306734
3439000000 0.0035940 -0.0301855 0.9964060 0.0301855 0.9964060 0.0301855 0.0035940 -0.0301855
3460000000 0.0035746 -0.0297018 0.9964254 0.0297018 0.9964254 0.0297018 0.0035746 -0.0297018
3481000000 0.0035558 -0.0292221 0.9964442 0.0292221 0.9964442 0.0292221 0.0035558 -0.0292221
3502000000 0.0035378 -0.0287464 0.9964622 0.0287464 0.9964622 0.0287464 0.0035378 -0.0287464
3523000000 0.0035205 -0.0282745 0.9964795 0.0282745 0.9964795 0.0282745 0.0035205 -0.0282745
3544000000 0.0035038 -0.0278065 0.9964962 0.0278065 0.9964962 0.0278065 0.0035038 -0.0278065
3565000000 0.0034877 -0.0273423 0.9965123 0.0273423 0.9965123 0.0273423 0.0034877 -0.0273423
3586000000 0.0034723 -0.0268818 0.9965277 0.0268818 0.9965277 0.0268818 0.0034723 -0.0268818
3607000000 0.0034575 -0.0264249 0.9965425 0.0264249 0.9965425 0.0264249 0.0034575 -0.0264249
3628000000 0.0034433 -0.0259716 0.9965567 0.0259716 0.9965567 0.0259716 0.0034433 -0.0259716
3649000000 0.0034297 -0.0255217 0.9965703 0.0255217 0.9965703 0.0255217 0.0034297 -0.0255217
3670000000 0.0034167 -0.0250754 0.9965833 0.0250754 0.9965833 0.0250754 0.0034167 -0.0250754
3691000000 0.0034042 -0.0246324 0.9965958 0.0246324 0.9965958 0.0246324 0.0034042 -0.0246324
3712000000 0.0033924 -0.0241928 0.9966076 0.0241928 0.9966076 0.0241928 0.0033924 -0.0241928
3733000000 0.0033810 -0.0237564 0.9966190 0.0237564 0.9966190 0.0237564 0.0033810 -0.0237564
3754000000 0.0033702 -0.0233233 0.9966298 0.0233233 0.9966298 0.0233233 0.0033702 -0.0233233
3775000000 0.0033600 -0.0228933 0.9966400 0.0228933 0.9966400 0.0228933 0.0033600 -0.0228933
3796000000 0.0033502 -0.0224665 0.9966498 0.0224665 0.9966498 0.0224665 0.0033502 -0.0224665
3817000000 0.0033410 -0.0220427 0.9966590 0.0220427 0.9966590 0.0220427 0.0033410 -0.0220427
3838000000 0.0033323 -0.0216220 0.9966677 0.0216220 0.9966677 0.0216220 0.0033323 -0.0216220
3859000000 0.0033241 -0.0212042 0.9966759 0.0212042 0.9966759 0.0212042 0.0033241 -0.0212042
3880000000 0.0033163 -0.0207893 0.9966837 0.0207893 0.9966837 0.0207893 0.0033163 -0.0207893
3901000000 0.0033090 -0.0203773 0.9966910 0.0203773 0.9966910 0.0203773 0.0033090 -0.0203773
3922000000 0.0033022 -0.0199682 0.9966978 0.0199682 0.9966978 0.0199682 0.0033022 -0.0199682
3943000000 0.0032959 -0.0195618 0.9967041 0.0195618 0.9967041 0.0195618 0.0032959 -0.0195618
3964000000 0.0032900 -0.0191582 0.9967100 0.0191582 0.9967100 0.0191582 0.0032900 -0.0191582
3985000000 0.0032846 -0.0187572 0.9967154 0.0187572 0.9967154 0.0187572 0.0032846 -0.0187572
4006000000 0.0032796 -0.0183590 0.9967204 0.0183590 0.9967204 0.0183590 0.0032796 -0.0183590
4027000000 0.0032750 -0.0179633 0.9967250 0.0179633 0.9967250 0.0179633 0.0032750 -0.0179633
4048000000 0.0032708 -0.0175702 0.9967292 0.0175702 0.9967292 0.0175702 0.0032708 -0.0175702
4069000000 0.0032671 -0.0171796 0.9967329 0.0171796 0.9967329 0.0171796 0.0032671 -0.0171796
4090000000 0.0032638 -0.0167916 0.9967362 0.0167916 0.9967362 0.0167916 0.0032638 -0.0167916
4111000000 0.0032609 -0.0164060 0.9967391 0.0164060 0.9967391 0.0164060 0.0032609 -0.0164060
4132000000 0.0032583 -0.0160228 0.9967417 0.0160228 0.9967417 0.0160228 0.0032583 -0.0160228
4153000000 0.0032562 -0.0156420 0.9967438 0.0156420 0.9967438 0.0156420 0.0032562 -0.0156420
4174000000 0.0032545 -0.0152635 0.9967455 0.0152635 0.9967455 0.0152635 0.0032545 -0.0152635
4195000000 0.0032532 -0.0148874 0.9967468 0.0148874 0.9967468 0.0148874 0.0032532 -0.0148874
4216000000 0.0032522 -0.0145135 0.9967478 0.0145135 0.9967478 0.0145135 0.0032522 -0.0145135
4237000000 0.0032516 -0.0141419 0.9967484 0.0141419 0.9967484 0.0141419 0.0032516 -0.0141419
4258000000 0.0032514 -0.0137725 0.9967486 0.0137725 0.9967486 0.0137725 0.0032514 -0.0137725
4279000000 0.0032515 -0.0134053 0.9967485 0.0134053 0.9967485 0.0134053 0.0032515 -0.0134053
4300000000 0.0032520 -0.0130403 0.9967480 0.0130403 0.9967480 0.0130403 0.0032520 -0.0130403
4321000000 0.0032528 -0.0126773 0.9967472 0.0126773 0.9967472 0.0126773 0.0032528 -0.0126773
4342000000 0.0032540 -0.0123165 0.9967460 0.0123165 0.9967460 0.0123165 0.0032540 -0.0123165
4363000000 0.0032556 -0.0119577 0.9967444 0.0119577 0.9967444 0.0119577 0.0032556 -0.0119577
4384000000 0.0032575 -0.0116009 0.9967425 0.0116009 0.9967425 0.0116009 0.0032575 -0.0116009
4405000000 0.0032597 -0.0112461 0.9967403 0.0112461 0.9967403 0.0112461 0.0032597 -0.0112461
4426000000 0.0032623 -0.0108934 0.9967377 0.0108934 0.9967377 0.0108934 0.0032623 -0.0108934
4447000000 0.0032652 -0.0105425 0.9967348 0.0105425 0.9967348 0.0105425 0.0032652 -0.0105425
4468000000 0.0032684 -0.0101936 0.9967316 0.0101936 0.9967316 0.0101936 0.0032684 -0.0101936
4489000000 0.0032719 -0.0098466 0.9967281 0.0098466 0.9967281 0.0098466 0.0032719 -0.0098466
4510000000 0.0032758 -0.0095014 0.9967242 0.0095014 0.9967242 0.0095014 0.0032758 -0.0095014
