!Murata Part Number: GRM0115C1E5R4WE01
!These Parameters are Measured in Series Mode Connection
!Data Generated on Mar 30, 2021
!       o--ll--o
!Port1            Port2
!       o------o
!Operation Temp=25[degC], DC Bias Voltage=0[V]
!Freq. Start=100[MHz] Stop=9[GHz] 401[Steps]
# Hz S RI R 50
!Freq.(Hz) S11(Real) S11(Imag) S21(Real) S21(Imag) S12(Real) S12(Imag) S22(Real) S22(Imag)
100000000 0.8965874 -0.3042368 0.1034126 0.3042368 0.1034126 0.3042368 0.8965874 -0.3042368
121000000 0.8555049 -0.3512753 0.1444951 0.3512753 0.1444951 0.3512753 0.8555049 -0.3512753
142000000 0.8112506 -0.3909377 0.1887494 0.3909377 0.1887494 0.3909377 0.8112506 -0.3909377
163000000 0.7653181 -0.4233715 0.2346819 0.4233715 0.2346819 0.4233715 0.7653181 -0.4233715
184000000 0.7189799 -0.4490116 0.2810201 0.4490116 0.2810201 0.4490116 0.7189799 -0.4490116
205000000 0.6732550 -0.4684795 0.3267450 0.4684795 0.3267450 0.4684795 0.6732550 -0.4684795
226000000 0.6289109 -0.4824938 0.3710891 0.4824938 0.3710891 0.4824938 0.6289109 -0.4824938
247000000 0.5864874 -0.4918010 0.4135126 0.4918010 0.4135126 0.4918010 0.5864874 -0.4918010
268000000 0.5463313 -0.4971260 0.4536687 0.4971260 0.4536687 0.4971260 0.5463313 -0.4971260
289000000 0.5086346 -0.4991410 0.4913654 0.4991410 0.4913654 0.4991410 0.5086346 -0.4991410
310000000 0.4734711 -0.4984487 0.5265289 0.4984487 0.5265289 0.4984487 0.4734711 -0.4984487
331000000 0.4408283 -0.4955756 0.5591717 0.4955756 0.5591717 0.4955756 0.4408283 -0.4955756
352000000 0.4106334 -0.4909731 0.5893666 0.4909731 0.5893666 0.4909731 0.4106334 -0.4909731
373000000 0.3827744 -0.4850223 0.6172256 0.4850223 0.6172256 0.4850223 0.3827744 -0.4850223
394000000 0.3571154 -0.4780403 0.6428846 0.4780403 0.6428846 0.4780403 0.3571154 -0.4780403
415000000 0.3335087 -0.4702891 0.6664913 0.4702891 0.6664913 0.4702891 0.3335087 -0.4702891
436000000 0.3118025 -0.4619825 0.6881975 0.4619825 0.6881975 0.4619825 0.3118025 -0.4619825
457000000 0.2918468 -0.4532941 0.7081532 0.4532941 0.7081532 0.4532941 0.2918468 -0.4532941
478000000 0.2734972 -0.4443634 0.7265028 0.4443634 0.7265028 0.4443634 0.2734972 -0.4443634
499000000 0.2566168 -0.4353021 0.7433832 0.4353021 0.7433832 0.4353021 0.2566168 -0.4353021
520000000 0.2410778 -0.4261986 0.7589222 0.4261986 0.7589222 0.4261986 0.2410778 -0.4261986
541000000 0.2267620 -0.4171223 0.7732380 0.4171223 0.7732380 0.4171223 0.2267620 -0.4171223
562000000 0.2135606 -0.4081275 0.7864394 0.4081275 0.7864394 0.4081275 0.2135606 -0.4081275
583000000 0.2013743 -0.3992556 0.7986257 0.3992556 0.7986257 0.3992556 0.2013743 -0.3992556
604000000 0.1901124 -0.3905381 0.8098876 0.3905381 0.8098876 0.3905381 0.1901124 -0.3905381
625000000 0.1796928 -0.3819984 0.8203072 0.3819984 0.8203072 0.3819984 0.1796928 -0.3819984
646000000 0.1700411 -0.3736531 0.8299589 0.3736531 0.8299589 0.3736531 0.1700411 -0.3736531
667000000 0.1610897 -0.3655139 0.8389103 0.3655139 0.8389103 0.3655139 0.1610897 -0.3655139
688000000 0.1527776 -0.3575880 0.8472224 0.3575880 0.8472224 0.3575880 0.1527776 -0.3575880
709000000 0.1450498 -0.3498795 0.8549502 0.3498795 0.8549502 0.3498795 0.1450498 -0.3498795
730000000 0.1378563 -0.3423898 0.8621437 0.3423898 0.8621437 0.3423898 0.1378563 -0.3423898
751000000 0.1311521 -0.3351183 0.8688479 0.3351183 0.8688479 0.3351183 0.1311521 -0.3351183
772000000 0.1248964 -0.3280628 0.8751036 0.3280628 0.8751036 0.3280628 0.1248964 -0.3280628
793000000 0.1190522 -0.3212200 0.8809478 0.3212200 0.8809478 0.3212200 0.1190522 -0.3212200
814000000 0.1135861 -0.3145854 0.8864139 0.3145854 0.8864139 0.3145854 0.1135861 -0.3145854
835000000 0.1084679 -0.3081542 0.8915321 0.3081542 0.8915321 0.3081542 0.1084679 -0.3081542
856000000 0.1036700 -0.3019209 0.8963300 0.3019209 0.8963300 0.3019209 0.1036700 -0.3019209
877000000 0.0991674 -0.2958797 0.9008326 0.2958797 0.9008326 0.2958797 0.0991674 -0.2958797
898000000 0.0949374 -0.2900245 0.9050626 0.2900245 0.9050626 0.2900245 0.0949374 -0.2900245
919000000 0.0909594 -0.2843493 0.9090406 0.2843493 0.9090406 0.2843493 0.0909594 -0.2843493
940000000 0.0872145 -0.2788480 0.9127855 0.2788480 0.9127855 0.2788480 0.0872145 -0.2788480
961000000 0.0836856 -0.2735144 0.9163144 0.2735144 0.9163144 0.2735144 0.0836856 -0.2735144
982000000 0.0803569 -0.2683424 0.9196431 0.2683424 0.9196431 0.2683424 0.0803569 -0.2683424
1003000000 0.0772141 -0.2633263 0.9227859 0.2633263 0.9227859 0.2633263 0.0772141 -0.2633263
1024000000 0.0742442 -0.2584600 0.9257558 0.2584600 0.9257558 0.2584600 0.0742442 -0.2584600
1045000000 0.0714350 -0.2537382 0.9285650 0.2537382 0.9285650 0.2537382 0.0714350 -0.2537382
1066000000 0.0687755 -0.2491551 0.9312245 0.2491551 0.9312245 0.2491551 0.0687755 -0.2491551
1087000000 0.0662557 -0.2447057 0.9337443 0.2447057 0.9337443 0.2447057 0.0662557 -0.2447057
1108000000 0.0638662 -0.2403846 0.9361338 0.2403846 0.9361338 0.2403846 0.0638662 -0.2403846
1129000000 0.0615984 -0.2361871 0.9384016 0.2361871 0.9384016 0.2361871 0.0615984 -0.2361871
1150000000 0.0594444 -0.2321084 0.9405556 0.2321084 0.9405556 0.2321084 0.0594444 -0.2321084
1171000000 0.0573970 -0.2281439 0.9426030 0.2281439 0.9426030 0.2281439 0.0573970 -0.2281439
1192000000 0.0554494 -0.2242892 0.9445506 0.2242892 0.9445506 0.2242892 0.0554494 -0.2242892
1213000000 0.0535954 -0.2205402 0.9464046 0.2205402 0.9464046 0.2205402 0.0535954 -0.2205402
1234000000 0.0518293 -0.2168929 0.9481707 0.2168929 0.9481707 0.2168929 0.0518293 -0.2168929
1255000000 0.0501458 -0.2133433 0.9498542 0.2133433 0.9498542 0.2133433 0.0501458 -0.2133433
1276000000 0.0485398 -0.2098878 0.9514602 0.2098878 0.9514602 0.2098878 0.0485398 -0.2098878
1297000000 0.0470069 -0.2065229 0.9529931 0.2065229 0.9529931 0.2065229 0.0470069 -0.2065229
1318000000 0.0455428 -0.2032452 0.9544572 0.2032452 0.9544572 0.2032452 0.0455428 -0.2032452
1339000000 0.0441434 -0.2000514 0.9558566 0.2000514 0.9558566 0.2000514 0.0441434 -0.2000514
1360000000 0.0428053 -0.1969385 0.9571947 0.1969385 0.9571947 0.1969385 0.0428053 -0.1969385
1381000000 0.0415248 -0.1939035 0.9584752 0.1939035 0.9584752 0.1939035 0.0415248 -0.1939035
1402000000 0.0402988 -0.1909436 0.9597012 0.1909436 0.9597012 0.1909436 0.0402988 -0.1909436
1423000000 0.0391244 -0.1880561 0.9608756 0.1880561 0.9608756 0.1880561 0.0391244 -0.1880561
1444000000 0.0379988 -0.1852383 0.9620012 0.1852383 0.9620012 0.1852383 0.0379988 -0.1852383
1465000000 0.0369193 -0.1824878 0.9630807 0.1824878 0.9630807 0.1824878 0.0369193 -0.1824878
1486000000 0.0358836 -0.1798022 0.9641164 0.1798022 0.9641164 0.1798022 0.0358836 -0.1798022
1507000000 0.0348893 -0.1771792 0.9651107 0.1771792 0.9651107 0.1771792 0.0348893 -0.1771792
1528000000 0.0339343 -0.1746168 0.9660657 0.1746168 0.9660657 0.1746168 0.0339343 -0.1746168
1549000000 0.0330166 -0.1721127 0.9669834 0.1721127 0.9669834 0.1721127 0.0330166 -0.1721127
1570000000 0.0321345 -0.1696650 0.9678655 0.1696650 0.9678655 0.1696650 0.0321345 -0.1696650
1591000000 0.0312860 -0.1672718 0.9687140 0.1672718 0.9687140 0.1672718 0.0312860 -0.1672718
1612000000 0.0304695 -0.1649313 0.9695305 0.1649313 0.9695305 0.1649313 0.0304695 -0.1649313
1633000000 0.0296836 -0.1626416 0.9703164 0.1626416 0.9703164 0.1626416 0.0296836 -0.1626416
1654000000 0.0289266 -0.1604012 0.9710734 0.1604012 0.9710734 0.1604012 0.0289266 -0.1604012
1675000000 0.0281973 -0.1582084 0.9718027 0.1582084 0.9718027 0.1582084 0.0281973 -0.1582084
1696000000 0.0274944 -0.1560617 0.9725056 0.1560617 0.9725056 0.1560617 0.0274944 -0.1560617
1717000000 0.0268166 -0.1539595 0.9731834 0.1539595 0.9731834 0.1539595 0.0268166 -0.1539595
1738000000 0.0261628 -0.1519005 0.9738372 0.1519005 0.9738372 0.1519005 0.0261628 -0.1519005
1759000000 0.0255319 -0.1498833 0.9744681 0.1498833 0.9744681 0.1498833 0.0255319 -0.1498833
1780000000 0.0249228 -0.1479066 0.9750772 0.1479066 0.9750772 0.1479066 0.0249228 -0.1479066
1801000000 0.0243347 -0.1459691 0.9756653 0.1459691 0.9756653 0.1459691 0.0243347 -0.1459691
1822000000 0.0237665 -0.1440696 0.9762335 0.1440696 0.9762335 0.1440696 0.0237665 -0.1440696
1843000000 0.0232174 -0.1422070 0.9767826 0.1422070 0.9767826 0.1422070 0.0232174 -0.1422070
1864000000 0.0226867 -0.1403800 0.9773133 0.1403800 0.9773133 0.1403800 0.0226867 -0.1403800
1885000000 0.0221734 -0.1385878 0.9778266 0.1385878 0.9778266 0.1385878 0.0221734 -0.1385878
1906000000 0.0216769 -0.1368292 0.9783231 0.1368292 0.9783231 0.1368292 0.0216769 -0.1368292
1927000000 0.0211965 -0.1351032 0.9788035 0.1351032 0.9788035 0.1351032 0.0211965 -0.1351032
1948000000 0.0207315 -0.1334088 0.9792685 0.1334088 0.9792685 0.1334088 0.0207315 -0.1334088
1969000000 0.0202813 -0.1317453 0.9797187 0.1317453 0.9797187 0.1317453 0.0202813 -0.1317453
1990000000 0.0198452 -0.1301115 0.9801548 0.1301115 0.9801548 0.1301115 0.0198452 -0.1301115
2011000000 0.0194228 -0.1285068 0.9805772 0.1285068 0.9805772 0.1285068 0.0194228 -0.1285068
2032000000 0.0190135 -0.1269303 0.9809865 0.1269303 0.9809865 0.1269303 0.0190135 -0.1269303
2053000000 0.0186167 -0.1253812 0.9813833 0.1253812 0.9813833 0.1253812 0.0186167 -0.1253812
2074000000 0.0182320 -0.1238587 0.9817680 0.1238587 0.9817680 0.1238587 0.0182320 -0.1238587
2095000000 0.0178589 -0.1223621 0.9821411 0.1223621 0.9821411 0.1223621 0.0178589 -0.1223621
2116000000 0.0174970 -0.1208907 0.9825030 0.1208907 0.9825030 0.1208907 0.0174970 -0.1208907
2137000000 0.0171458 -0.1194438 0.9828542 0.1194438 0.9828542 0.1194438 0.0171458 -0.1194438
2158000000 0.0168050 -0.1180207 0.9831950 0.1180207 0.9831950 0.1180207 0.0168050 -0.1180207
2179000000 0.0164741 -0.1166208 0.9835259 0.1166208 0.9835259 0.1166208 0.0164741 -0.1166208
2200000000 0.0161528 -0.1152435 0.9838472 0.1152435 0.9838472 0.1152435 0.0161528 -0.1152435
2221000000 0.0158408 -0.1138882 0.9841592 0.1138882 0.9841592 0.1138882 0.0158408 -0.1138882
2242000000 0.0155376 -0.1125543 0.9844624 0.1125543 0.9844624 0.1125543 0.0155376 -0.1125543
2263000000 0.0152431 -0.1112412 0.9847569 0.1112412 0.9847569 0.1112412 0.0152431 -0.1112412
2284000000 0.0149569 -0.1099485 0.9850431 0.1099485 0.9850431 0.1099485 0.0149569 -0.1099485
2305000000 0.0146786 -0.1086755 0.9853214 0.1086755 0.9853214 0.1086755 0.0146786 -0.1086755
2326000000 0.0144081 -0.1074219 0.9855919 0.1074219 0.9855919 0.1074219 0.0144081 -0.1074219
2347000000 0.0141450 -0.1061871 0.9858550 0.1061871 0.9858550 0.1061871 0.0141450 -0.1061871
2368000000 0.0138892 -0.1049706 0.9861108 0.1049706 0.9861108 0.1049706 0.0138892 -0.1049706
2389000000 0.0136402 -0.1037720 0.9863598 0.1037720 0.9863598 0.1037720 0.0136402 -0.1037720
2410000000 0.0133981 -0.1025908 0.9866019 0.1025908 0.9866019 0.1025908 0.0133981 -0.1025908
2431000000 0.0131624 -0.1014267 0.9868376 0.1014267 0.9868376 0.1014267 0.0131624 -0.1014267
2452000000 0.0129330 -0.1002791 0.9870670 0.1002791 0.9870670 0.1002791 0.0129330 -0.1002791
2473000000 0.0127096 -0.0991478 0.9872904 0.0991478 0.9872904 0.0991478 0.0127096 -0.0991478
2494000000 0.0124922 -0.0980323 0.9875078 0.0980323 0.9875078 0.0980323 0.0124922 -0.0980323
2515000000 0.0122805 -0.0969323 0.9877195 0.0969323 0.9877195 0.0969323 0.0122805 -0.0969323
2536000000 0.0120742 -0.0958473 0.9879258 0.0958473 0.9879258 0.0958473 0.0120742 -0.0958473
2557000000 0.0118733 -0.0947770 0.9881267 0.0947770 0.9881267 0.0947770 0.0118733 -0.0947770
2578000000 0.0116776 -0.0937212 0.9883224 0.0937212 0.9883224 0.0937212 0.0116776 -0.0937212
2599000000 0.0114869 -0.0926794 0.9885131 0.0926794 0.9885131 0.0926794 0.0114869 -0.0926794
2620000000 0.0113011 -0.0916514 0.9886989 0.0916514 0.9886989 0.0916514 0.0113011 -0.0916514
2641000000 0.0111199 -0.0906367 0.9888801 0.0906367 0.9888801 0.0906367 0.0111199 -0.0906367
2662000000 0.0109433 -0.0896352 0.9890567 0.0896352 0.9890567 0.0896352 0.0109433 -0.0896352
2683000000 0.0107712 -0.0886466 0.9892288 0.0886466 0.9892288 0.0886466 0.0107712 -0.0886466
2704000000 0.0106033 -0.0876704 0.9893967 0.0876704 0.9893967 0.0876704 0.0106033 -0.0876704
2725000000 0.0104397 -0.0867066 0.9895603 0.0867066 0.9895603 0.0867066 0.0104397 -0.0867066
2746000000 0.0102800 -0.0857547 0.9897200 0.0857547 0.9897200 0.0857547 0.0102800 -0.0857547
2767000000 0.0101243 -0.0848146 0.9898757 0.0848146 0.9898757 0.0848146 0.0101243 -0.0848146
2788000000 0.0099725 -0.0838860 0.9900275 0.0838860 0.9900275 0.0838860 0.0099725 -0.0838860
2809000000 0.0098243 -0.0829686 0.9901757 0.0829686 0.9901757 0.0829686 0.0098243 -0.0829686
2830000000 0.0096797 -0.0820622 0.9903203 0.0820622 0.9903203 0.0820622 0.0096797 -0.0820622
2851000000 0.0095386 -0.0811666 0.9904614 0.0811666 0.9904614 0.0811666 0.0095386 -0.0811666
2872000000 0.0094010 -0.0802815 0.9905990 0.0802815 0.9905990 0.0802815 0.0094010 -0.0802815
2893000000 0.0092666 -0.0794067 0.9907334 0.0794067 0.9907334 0.0794067 0.0092666 -0.0794067
2914000000 0.0091355 -0.0785421 0.9908645 0.0785421 0.9908645 0.0785421 0.0091355 -0.0785421
2935000000 0.0090075 -0.0776873 0.9909925 0.0776873 0.9909925 0.0776873 0.0090075 -0.0776873
2956000000 0.0088825 -0.0768422 0.9911175 0.0768422 0.9911175 0.0768422 0.0088825 -0.0768422
2977000000 0.0087605 -0.0760067 0.9912395 0.0760067 0.9912395 0.0760067 0.0087605 -0.0760067
2998000000 0.0086414 -0.0751804 0.9913586 0.0751804 0.9913586 0.0751804 0.0086414 -0.0751804
3019000000 0.0085251 -0.0743632 0.9914749 0.0743632 0.9914749 0.0743632 0.0085251 -0.0743632
3040000000 0.0084116 -0.0735550 0.9915884 0.0735550 0.9915884 0.0735550 0.0084116 -0.0735550
3061000000 0.0083007 -0.0727556 0.9916993 0.0727556 0.9916993 0.0727556 0.0083007 -0.0727556
3082000000 0.0081924 -0.0719647 0.9918076 0.0719647 0.9918076 0.0719647 0.0081924 -0.0719647
3103000000 0.0080866 -0.0711823 0.9919134 0.0711823 0.9919134 0.0711823 0.0080866 -0.0711823
3124000000 0.0079833 -0.0704081 0.9920167 0.0704081 0.9920167 0.0704081 0.0079833 -0.0704081
3145000000 0.0078824 -0.0696420 0.9921176 0.0696420 0.9921176 0.0696420 0.0078824 -0.0696420
3166000000 0.0077839 -0.0688839 0.9922161 0.0688839 0.9922161 0.0688839 0.0077839 -0.0688839
3187000000 0.0076876 -0.0681335 0.9923124 0.0681335 0.9923124 0.0681335 0.0076876 -0.0681335
3208000000 0.0075936 -0.0673908 0.9924064 0.0673908 0.9924064 0.0673908 0.0075936 -0.0673908
3229000000 0.0075018 -0.0666555 0.9924982 0.0666555 0.9924982 0.0666555 0.0075018 -0.0666555
3250000000 0.0074120 -0.0659277 0.9925880 0.0659277 0.9925880 0.0659277 0.0074120 -0.0659277
3271000000 0.0073244 -0.0652070 0.9926756 0.0652070 0.9926756 0.0652070 0.0073244 -0.0652070
3292000000 0.0072387 -0.0644935 0.9927613 0.0644935 0.9927613 0.0644935 0.0072387 -0.0644935
3313000000 0.0071551 -0.0637869 0.9928449 0.0637869 0.9928449 0.0637869 0.0071551 -0.0637869
3334000000 0.0070734 -0.0630871 0.9929266 0.0630871 0.9929266 0.0630871 0.0070734 -0.0630871
3355000000 0.0069935 -0.0623940 0.9930065 0.0623940 0.9930065 0.0623940 0.0069935 -0.0623940
3376000000 0.0069155 -0.0617075 0.9930845 0.0617075 0.9930845 0.0617075 0.0069155 -0.0617075
3397000000 0.0068393 -0.0610275 0.9931607 0.0610275 0.9931607 0.0610275 0.0068393 -0.0610275
3418000000 0.0067649 -0.0603538 0.9932351 0.0603538 0.9932351 0.0603538 0.0067649 -0.0603538
3439000000 0.0066921 -0.0596864 0.9933079 0.0596864 0.9933079 0.0596864 0.0066921 -0.0596864
3460000000 0.0066211 -0.0590251 0.9933789 0.0590251 0.9933789 0.0590251 0.0066211 -0.0590251
3481000000 0.0065517 -0.0583698 0.9934483 0.0583698 0.9934483 0.0583698 0.0065517 -0.0583698
3502000000 0.0064839 -0.0577204 0.9935161 0.0577204 0.9935161 0.0577204 0.0064839 -0.0577204
3523000000 0.0064177 -0.0570768 0.9935823 0.0570768 0.9935823 0.0570768 0.0064177 -0.0570768
3544000000 0.0063530 -0.0564390 0.9936470 0.0564390 0.9936470 0.0564390 0.0063530 -0.0564390
3565000000 0.0062898 -0.0558067 0.9937102 0.0558067 0.9937102 0.0558067 0.0062898 -0.0558067
3586000000 0.0062281 -0.0551800 0.9937719 0.0551800 0.9937719 0.0551800 0.0062281 -0.0551800
3607000000 0.0061678 -0.0545587 0.9938322 0.0545587 0.9938322 0.0545587 0.0061678 -0.0545587
3628000000 0.0061090 -0.0539427 0.9938910 0.0539427 0.9938910 0.0539427 0.0061090 -0.0539427
3649000000 0.0060515 -0.0533320 0.9939485 0.0533320 0.9939485 0.0533320 0.0060515 -0.0533320
3670000000 0.0059954 -0.0527265 0.9940046 0.0527265 0.9940046 0.0527265 0.0059954 -0.0527265
3691000000 0.0059406 -0.0521260 0.9940594 0.0521260 0.9940594 0.0521260 0.0059406 -0.0521260
3712000000 0.0058871 -0.0515304 0.9941129 0.0515304 0.9941129 0.0515304 0.0058871 -0.0515304
3733000000 0.0058349 -0.0509398 0.9941651 0.0509398 0.9941651 0.0509398 0.0058349 -0.0509398
3754000000 0.0057839 -0.0503541 0.9942161 0.0503541 0.9942161 0.0503541 0.0057839 -0.0503541
3775000000 0.0057342 -0.0497730 0.9942658 0.0497730 0.9942658 0.0497730 0.0057342 -0.0497730
3796000000 0.0056856 -0.0491967 0.9943144 0.0491967 0.9943144 0.0491967 0.0056856 -0.0491967
3817000000 0.0056382 -0.0486249 0.9943618 0.0486249 0.9943618 0.0486249 0.0056382 -0.0486249
3838000000 0.0055920 -0.0480577 0.9944080 0.0480577 0.9944080 0.0480577 0.0055920 -0.0480577
3859000000 0.0055469 -0.0474949 0.9944531 0.0474949 0.9944531 0.0474949 0.0055469 -0.0474949
3880000000 0.0055029 -0.0469365 0.9944971 0.0469365 0.9944971 0.0469365 0.0055029 -0.0469365
3901000000 0.0054600 -0.0463824 0.9945400 0.0463824 0.9945400 0.0463824 0.0054600 -0.0463824
3922000000 0.0054182 -0.0458325 0.9945818 0.0458325 0.9945818 0.0458325 0.0054182 -0.0458325
3943000000 0.0053774 -0.0452869 0.9946226 0.0452869 0.9946226 0.0452869 0.0053774 -0.0452869
3964000000 0.0053377 -0.0447453 0.9946623 0.0447453 0.9946623 0.0447453 0.0053377 -0.0447453
3985000000 0.0052989 -0.0442078 0.9947011 0.0442078 0.9947011 0.0442078 0.0052989 -0.0442078
4006000000 0.0052612 -0.0436743 0.9947388 0.0436743 0.9947388 0.0436743 0.0052612 -0.0436743
4027000000 0.0052244 -0.0431447 0.9947756 0.0431447 0.9947756 0.0431447 0.0052244 -0.0431447
4048000000 0.0051886 -0.0426190 0.9948114 0.0426190 0.9948114 0.0426190 0.0051886 -0.0426190
4069000000 0.0051537 -0.0420971 0.9948463 0.0420971 0.9948463 0.0420971 0.0051537 -0.0420971
4090000000 0.0051198 -0.0415789 0.9948802 0.0415789 0.9948802 0.0415789 0.0051198 -0.0415789
4111000000 0.0050867 -0.0410645 0.9949133 0.0410645 0.9949133 0.0410645 0.0050867 -0.0410645
4132000000 0.0050546 -0.0405537 0.9949454 0.0405537 0.9949454 0.0405537 0.0050546 -0.0405537
4153000000 0.0050233 -0.0400465 0.9949767 0.0400465 0.9949767 0.0400465 0.0050233 -0.0400465
4174000000 0.0049929 -0.0395428 0.9950071 0.0395428 0.9950071 0.0395428 0.0049929 -0.0395428
4195000000 0.0049633 -0.0390426 0.9950367 0.0390426 0.9950367 0.0390426 0.0049633 -0.0390426
4216000000 0.0049346 -0.0385459 0.9950654 0.0385459 0.9950654 0.0385459 0.0049346 -0.0385459
4237000000 0.0049067 -0.0380525 0.9950933 0.0380525 0.9950933 0.0380525 0.0049067 -0.0380525
4258000000 0.0048796 -0.0375625 0.9951204 0.0375625 0.9951204 0.0375625 0.0048796 -0.0375625
4279000000 0.0048533 -0.0370757 0.9951467 0.0370757 0.9951467 0.0370757 0.0048533 -0.0370757
4300000000 0.0048277 -0.0365922 0.9951723 0.0365922 0.9951723 0.0365922 0.0048277 -0.0365922
4321000000 0.0048030 -0.0361120 0.9951970 0.0361120 0.9951970 0.0361120 0.0048030 -0.0361120
4342000000 0.0047790 -0.0356348 0.9952210 0.0356348 0.9952210 0.0356348 0.0047790 -0.0356348
4363000000 0.0047557 -0.0351608 0.9952443 0.0351608 0.9952443 0.0351608 0.0047557 -0.0351608
4384000000 0.0047332 -0.0346898 0.9952668 0.0346898 0.9952668 0.0346898 0.0047332 -0.0346898
4405000000 0.0047114 -0.0342219 0.9952886 0.0342219 0.9952886 0.0342219 0.0047114 -0.0342219
4426000000 0.0046903 -0.0337570 0.9953097 0.0337570 0.9953097 0.0337570 0.0046903 -0.0337570
4447000000 0.0046699 -0.0332949 0.9953301 0.0332949 0.9953301 0.0332949 0.0046699 -0.0332949
4468000000 0.0046502 -0.0328358 0.9953498 0.0328358 0.9953498 0.0328358 0.0046502 -0.0328358
4489000000 0.0046312 -0.0323796 0.9953688 0.0323796 0.9953688 0.0323796 0.0046312 -0.0323796
4510000000 0.0046128 -0.0319262 0.9953872 0.0319262 0.9953872 0.0319262 0.0046128 -0.0319262
