!Murata Part Number: GRM0115C1E7R1CE01
!These Parameters are Measured in Series Mode Connection
!Data Generated on Mar 30, 2021
!       o--ll--o
!Port1            Port2
!       o------o
!Operation Temp=25[degC], DC Bias Voltage=0[V]
!Freq. Start=100[MHz] Stop=9[GHz] 401[Steps]
# Hz S RI R 50
!Freq.(Hz) S11(Real) S11(Imag) S21(Real) S21(Imag) S12(Real) S12(Imag) S22(Real) S22(Imag)
100000000 0.8337788 -0.3719904 0.1662212 0.3719904 0.1662212 0.3719904 0.8337788 -0.3719904
121000000 0.7740277 -0.4178707 0.2259723 0.4178707 0.2259723 0.4178707 0.7740277 -0.4178707
142000000 0.7131780 -0.4518651 0.2868220 0.4518651 0.2868220 0.4518651 0.7131780 -0.4518651
163000000 0.6535616 -0.4753593 0.3464384 0.4753593 0.3464384 0.4753593 0.6535616 -0.4753593
184000000 0.5967717 -0.4900065 0.4032283 0.4900065 0.4032283 0.4900065 0.5967717 -0.4900065
205000000 0.5437669 -0.4974767 0.4562331 0.4974767 0.4562331 0.4974767 0.5437669 -0.4974767
226000000 0.4950163 -0.4993055 0.5049837 0.4993055 0.5049837 0.4993055 0.4950163 -0.4993055
247000000 0.4506413 -0.4968214 0.5493587 0.4968214 0.5493587 0.4968214 0.4506413 -0.4968214
268000000 0.4105362 -0.4911270 0.5894638 0.4911270 0.5894638 0.4911270 0.4105362 -0.4911270
289000000 0.3744592 -0.4831099 0.6255408 0.4831099 0.6255408 0.4831099 0.3744592 -0.4831099
310000000 0.3420973 -0.4734687 0.6579027 0.4734687 0.6579027 0.4734687 0.3420973 -0.4734687
331000000 0.3131095 -0.4627436 0.6868905 0.4627436 0.6868905 0.4627436 0.3131095 -0.4627436
352000000 0.2871544 -0.4513464 0.7128456 0.4513464 0.7128456 0.4513464 0.2871544 -0.4513464
373000000 0.2639059 -0.4395868 0.7360941 0.4395868 0.7360941 0.4395868 0.2639059 -0.4395868
394000000 0.2430623 -0.4276945 0.7569377 0.4276945 0.7569377 0.4276945 0.2430623 -0.4276945
415000000 0.2243494 -0.4158379 0.7756506 0.4158379 0.7756506 0.4158379 0.2243494 -0.4158379
436000000 0.2075219 -0.4041384 0.7924781 0.4041384 0.7924781 0.4041384 0.2075219 -0.4041384
457000000 0.1923617 -0.3926812 0.8076383 0.3926812 0.8076383 0.3926812 0.1923617 -0.3926812
478000000 0.1786764 -0.3815247 0.8213236 0.3815247 0.8213236 0.3815247 0.1786764 -0.3815247
499000000 0.1662972 -0.3707072 0.8337028 0.3707072 0.8337028 0.3707072 0.1662972 -0.3707072
520000000 0.1550755 -0.3602515 0.8449245 0.3602515 0.8449245 0.3602515 0.1550755 -0.3602515
541000000 0.1448816 -0.3501694 0.8551184 0.3501694 0.8551184 0.3501694 0.1448816 -0.3501694
562000000 0.1356017 -0.3404646 0.8643983 0.3404646 0.8643983 0.3404646 0.1356017 -0.3404646
583000000 0.1271360 -0.3311346 0.8728640 0.3311346 0.8728640 0.3311346 0.1271360 -0.3311346
604000000 0.1193972 -0.3221730 0.8806028 0.3221730 0.8806028 0.3221730 0.1193972 -0.3221730
625000000 0.1123086 -0.3135701 0.8876914 0.3135701 0.8876914 0.3135701 0.1123086 -0.3135701
646000000 0.1058028 -0.3053143 0.8941972 0.3053143 0.8941972 0.3053143 0.1058028 -0.3053143
667000000 0.0998204 -0.2973931 0.9001796 0.2973931 0.9001796 0.2973931 0.0998204 -0.2973931
688000000 0.0943090 -0.2897927 0.9056910 0.2897927 0.9056910 0.2897927 0.0943090 -0.2897927
709000000 0.0892225 -0.2824994 0.9107775 0.2824994 0.9107775 0.2824994 0.0892225 -0.2824994
730000000 0.0845199 -0.2754992 0.9154801 0.2754992 0.9154801 0.2754992 0.0845199 -0.2754992
751000000 0.0801648 -0.2687785 0.9198352 0.2687785 0.9198352 0.2687785 0.0801648 -0.2687785
772000000 0.0761250 -0.2623239 0.9238750 0.2623239 0.9238750 0.2623239 0.0761250 -0.2623239
793000000 0.0723718 -0.2561223 0.9276282 0.2561223 0.9276282 0.2561223 0.0723718 -0.2561223
814000000 0.0688795 -0.2501614 0.9311205 0.2501614 0.9311205 0.2501614 0.0688795 -0.2501614
835000000 0.0656252 -0.2444290 0.9343748 0.2444290 0.9343748 0.2444290 0.0656252 -0.2444290
856000000 0.0625884 -0.2389138 0.9374116 0.2389138 0.9374116 0.2389138 0.0625884 -0.2389138
877000000 0.0597506 -0.2336049 0.9402494 0.2336049 0.9402494 0.2336049 0.0597506 -0.2336049
898000000 0.0570953 -0.2284920 0.9429047 0.2284920 0.9429047 0.2284920 0.0570953 -0.2284920
919000000 0.0546076 -0.2235652 0.9453924 0.2235652 0.9453924 0.2235652 0.0546076 -0.2235652
940000000 0.0522741 -0.2188155 0.9477259 0.2188155 0.9477259 0.2188155 0.0522741 -0.2188155
961000000 0.0500825 -0.2142339 0.9499175 0.2142339 0.9499175 0.2142339 0.0500825 -0.2142339
982000000 0.0480218 -0.2098122 0.9519782 0.2098122 0.9519782 0.2098122 0.0480218 -0.2098122
1003000000 0.0460822 -0.2055426 0.9539178 0.2055426 0.9539178 0.2055426 0.0460822 -0.2055426
1024000000 0.0442544 -0.2014178 0.9557456 0.2014178 0.9557456 0.2014178 0.0442544 -0.2014178
1045000000 0.0425303 -0.1974308 0.9574697 0.1974308 0.9574697 0.1974308 0.0425303 -0.1974308
1066000000 0.0409024 -0.1935751 0.9590976 0.1935751 0.9590976 0.1935751 0.0409024 -0.1935751
1087000000 0.0393637 -0.1898444 0.9606363 0.1898444 0.9606363 0.1898444 0.0393637 -0.1898444
1108000000 0.0379081 -0.1862329 0.9620919 0.1862329 0.9620919 0.1862329 0.0379081 -0.1862329
1129000000 0.0365297 -0.1827351 0.9634703 0.1827351 0.9634703 0.1827351 0.0365297 -0.1827351
1150000000 0.0352234 -0.1793458 0.9647766 0.1793458 0.9647766 0.1793458 0.0352234 -0.1793458
1171000000 0.0339842 -0.1760602 0.9660158 0.1760602 0.9660158 0.1760602 0.0339842 -0.1760602
1192000000 0.0328079 -0.1728734 0.9671921 0.1728734 0.9671921 0.1728734 0.0328079 -0.1728734
1213000000 0.0316902 -0.1697813 0.9683098 0.1697813 0.9683098 0.1697813 0.0316902 -0.1697813
1234000000 0.0306274 -0.1667795 0.9693726 0.1667795 0.9693726 0.1667795 0.0306274 -0.1667795
1255000000 0.0296161 -0.1638643 0.9703839 0.1638643 0.9703839 0.1638643 0.0296161 -0.1638643
1276000000 0.0286531 -0.1610318 0.9713469 0.1610318 0.9713469 0.1610318 0.0286531 -0.1610318
1297000000 0.0277354 -0.1582786 0.9722646 0.1582786 0.9722646 0.1582786 0.0277354 -0.1582786
1318000000 0.0268603 -0.1556014 0.9731397 0.1556014 0.9731397 0.1556014 0.0268603 -0.1556014
1339000000 0.0260252 -0.1529970 0.9739748 0.1529970 0.9739748 0.1529970 0.0260252 -0.1529970
1360000000 0.0252278 -0.1504624 0.9747722 0.1504624 0.9747722 0.1504624 0.0252278 -0.1504624
1381000000 0.0244659 -0.1479948 0.9755341 0.1479948 0.9755341 0.1479948 0.0244659 -0.1479948
1402000000 0.0237375 -0.1455914 0.9762625 0.1455914 0.9762625 0.1455914 0.0237375 -0.1455914
1423000000 0.0230407 -0.1432499 0.9769593 0.1432499 0.9769593 0.1432499 0.0230407 -0.1432499
1444000000 0.0223737 -0.1409676 0.9776263 0.1409676 0.9776263 0.1409676 0.0223737 -0.1409676
1465000000 0.0217349 -0.1387424 0.9782651 0.1387424 0.9782651 0.1387424 0.0217349 -0.1387424
1486000000 0.0211228 -0.1365720 0.9788772 0.1365720 0.9788772 0.1365720 0.0211228 -0.1365720
1507000000 0.0205359 -0.1344543 0.9794641 0.1344543 0.9794641 0.1344543 0.0205359 -0.1344543
1528000000 0.0199730 -0.1323874 0.9800270 0.1323874 0.9800270 0.1323874 0.0199730 -0.1323874
1549000000 0.0194327 -0.1303694 0.9805673 0.1303694 0.9805673 0.1303694 0.0194327 -0.1303694
1570000000 0.0189139 -0.1283984 0.9810861 0.1283984 0.9810861 0.1283984 0.0189139 -0.1283984
1591000000 0.0184155 -0.1264729 0.9815845 0.1264729 0.9815845 0.1264729 0.0184155 -0.1264729
1612000000 0.0179365 -0.1245910 0.9820635 0.1245910 0.9820635 0.1245910 0.0179365 -0.1245910
1633000000 0.0174759 -0.1227514 0.9825241 0.1227514 0.9825241 0.1227514 0.0174759 -0.1227514
1654000000 0.0170329 -0.1209524 0.9829671 0.1209524 0.9829671 0.1209524 0.0170329 -0.1209524
1675000000 0.0166065 -0.1191927 0.9833935 0.1191927 0.9833935 0.1191927 0.0166065 -0.1191927
1696000000 0.0161959 -0.1174710 0.9838041 0.1174710 0.9838041 0.1174710 0.0161959 -0.1174710
1717000000 0.0158005 -0.1157858 0.9841995 0.1157858 0.9841995 0.1157858 0.0158005 -0.1157858
1738000000 0.0154195 -0.1141360 0.9845805 0.1141360 0.9845805 0.1141360 0.0154195 -0.1141360
1759000000 0.0150522 -0.1125205 0.9849478 0.1125205 0.9849478 0.1125205 0.0150522 -0.1125205
1780000000 0.0146981 -0.1109380 0.9853019 0.1109380 0.9853019 0.1109380 0.0146981 -0.1109380
1801000000 0.0143565 -0.1093874 0.9856435 0.1093874 0.9856435 0.1093874 0.0143565 -0.1093874
1822000000 0.0140268 -0.1078679 0.9859732 0.1078679 0.9859732 0.1078679 0.0140268 -0.1078679
1843000000 0.0137086 -0.1063782 0.9862914 0.1063782 0.9862914 0.1063782 0.0137086 -0.1063782
1864000000 0.0134013 -0.1049176 0.9865987 0.1049176 0.9865987 0.1049176 0.0134013 -0.1049176
1885000000 0.0131045 -0.1034850 0.9868955 0.1034850 0.9868955 0.1034850 0.0131045 -0.1034850
1906000000 0.0128177 -0.1020796 0.9871823 0.1020796 0.9871823 0.1020796 0.0128177 -0.1020796
1927000000 0.0125405 -0.1007006 0.9874595 0.1007006 0.9874595 0.1007006 0.0125405 -0.1007006
1948000000 0.0122724 -0.0993472 0.9877276 0.0993472 0.9877276 0.0993472 0.0122724 -0.0993472
1969000000 0.0120132 -0.0980185 0.9879868 0.0980185 0.9879868 0.0980185 0.0120132 -0.0980185
1990000000 0.0117624 -0.0967138 0.9882376 0.0967138 0.9882376 0.0967138 0.0117624 -0.0967138
2011000000 0.0115198 -0.0954324 0.9884802 0.0954324 0.9884802 0.0954324 0.0115198 -0.0954324
2032000000 0.0112849 -0.0941737 0.9887151 0.0941737 0.9887151 0.0941737 0.0112849 -0.0941737
2053000000 0.0110575 -0.0929370 0.9889425 0.0929370 0.9889425 0.0929370 0.0110575 -0.0929370
2074000000 0.0108372 -0.0917215 0.9891628 0.0917215 0.9891628 0.0917215 0.0108372 -0.0917215
2095000000 0.0106239 -0.0905268 0.9893761 0.0905268 0.9893761 0.0905268 0.0106239 -0.0905268
2116000000 0.0104172 -0.0893522 0.9895828 0.0893522 0.9895828 0.0893522 0.0104172 -0.0893522
2137000000 0.0102168 -0.0881971 0.9897832 0.0881971 0.9897832 0.0881971 0.0102168 -0.0881971
2158000000 0.0100226 -0.0870611 0.9899774 0.0870611 0.9899774 0.0870611 0.0100226 -0.0870611
2179000000 0.0098344 -0.0859435 0.9901656 0.0859435 0.9901656 0.0859435 0.0098344 -0.0859435
2200000000 0.0096518 -0.0848439 0.9903482 0.0848439 0.9903482 0.0848439 0.0096518 -0.0848439
2221000000 0.0094747 -0.0837618 0.9905253 0.0837618 0.9905253 0.0837618 0.0094747 -0.0837618
2242000000 0.0093028 -0.0826967 0.9906972 0.0826967 0.9906972 0.0826967 0.0093028 -0.0826967
2263000000 0.0091361 -0.0816481 0.9908639 0.0816481 0.9908639 0.0816481 0.0091361 -0.0816481
2284000000 0.0089743 -0.0806157 0.9910257 0.0806157 0.9910257 0.0806157 0.0089743 -0.0806157
2305000000 0.0088172 -0.0795989 0.9911828 0.0795989 0.9911828 0.0795989 0.0088172 -0.0795989
2326000000 0.0086646 -0.0785974 0.9913354 0.0785974 0.9913354 0.0785974 0.0086646 -0.0785974
2347000000 0.0085165 -0.0776108 0.9914835 0.0776108 0.9914835 0.0776108 0.0085165 -0.0776108
2368000000 0.0083727 -0.0766387 0.9916273 0.0766387 0.9916273 0.0766387 0.0083727 -0.0766387
2389000000 0.0082329 -0.0756807 0.9917671 0.0756807 0.9917671 0.0756807 0.0082329 -0.0756807
2410000000 0.0080972 -0.0747365 0.9919028 0.0747365 0.9919028 0.0747365 0.0080972 -0.0747365
2431000000 0.0079653 -0.0738058 0.9920347 0.0738058 0.9920347 0.0738058 0.0079653 -0.0738058
2452000000 0.0078371 -0.0728881 0.9921629 0.0728881 0.9921629 0.0728881 0.0078371 -0.0728881
2473000000 0.0077125 -0.0719832 0.9922875 0.0719832 0.9922875 0.0719832 0.0077125 -0.0719832
2494000000 0.0075914 -0.0710907 0.9924086 0.0710907 0.9924086 0.0710907 0.0075914 -0.0710907
2515000000 0.0074737 -0.0702104 0.9925263 0.0702104 0.9925263 0.0702104 0.0074737 -0.0702104
2536000000 0.0073592 -0.0693420 0.9926408 0.0693420 0.9926408 0.0693420 0.0073592 -0.0693420
2557000000 0.0072479 -0.0684851 0.9927521 0.0684851 0.9927521 0.0684851 0.0072479 -0.0684851
2578000000 0.0071396 -0.0676395 0.9928604 0.0676395 0.9928604 0.0676395 0.0071396 -0.0676395
2599000000 0.0070343 -0.0668050 0.9929657 0.0668050 0.9929657 0.0668050 0.0070343 -0.0668050
2620000000 0.0069319 -0.0659812 0.9930681 0.0659812 0.9930681 0.0659812 0.0069319 -0.0659812
2641000000 0.0068322 -0.0651680 0.9931678 0.0651680 0.9931678 0.0651680 0.0068322 -0.0651680
2662000000 0.0067353 -0.0643650 0.9932647 0.0643650 0.9932647 0.0643650 0.0067353 -0.0643650
2683000000 0.0066410 -0.0635721 0.9933590 0.0635721 0.9933590 0.0635721 0.0066410 -0.0635721
2704000000 0.0065492 -0.0627890 0.9934508 0.0627890 0.9934508 0.0627890 0.0065492 -0.0627890
2725000000 0.0064599 -0.0620156 0.9935401 0.0620156 0.9935401 0.0620156 0.0064599 -0.0620156
2746000000 0.0063730 -0.0612514 0.9936270 0.0612514 0.9936270 0.0612514 0.0063730 -0.0612514
2767000000 0.0062884 -0.0604965 0.9937116 0.0604965 0.9937116 0.0604965 0.0062884 -0.0604965
2788000000 0.0062061 -0.0597506 0.9937939 0.0597506 0.9937939 0.0597506 0.0062061 -0.0597506
2809000000 0.0061260 -0.0590134 0.9938740 0.0590134 0.9938740 0.0590134 0.0061260 -0.0590134
2830000000 0.0060480 -0.0582848 0.9939520 0.0582848 0.9939520 0.0582848 0.0060480 -0.0582848
2851000000 0.0059721 -0.0575646 0.9940279 0.0575646 0.9940279 0.0575646 0.0059721 -0.0575646
2872000000 0.0058982 -0.0568526 0.9941018 0.0568526 0.9941018 0.0568526 0.0058982 -0.0568526
2893000000 0.0058263 -0.0561486 0.9941737 0.0561486 0.9941737 0.0561486 0.0058263 -0.0561486
2914000000 0.0057563 -0.0554526 0.9942437 0.0554526 0.9942437 0.0554526 0.0057563 -0.0554526
2935000000 0.0056881 -0.0547642 0.9943119 0.0547642 0.9943119 0.0547642 0.0056881 -0.0547642
2956000000 0.0056218 -0.0540834 0.9943782 0.0540834 0.9943782 0.0540834 0.0056218 -0.0540834
2977000000 0.0055572 -0.0534099 0.9944428 0.0534099 0.9944428 0.0534099 0.0055572 -0.0534099
2998000000 0.0054943 -0.0527437 0.9945057 0.0527437 0.9945057 0.0527437 0.0054943 -0.0527437
3019000000 0.0054331 -0.0520846 0.9945669 0.0520846 0.9945669 0.0520846 0.0054331 -0.0520846
3040000000 0.0053735 -0.0514325 0.9946265 0.0514325 0.9946265 0.0514325 0.0053735 -0.0514325
3061000000 0.0053155 -0.0507871 0.9946845 0.0507871 0.9946845 0.0507871 0.0053155 -0.0507871
3082000000 0.0052591 -0.0501484 0.9947409 0.0501484 0.9947409 0.0501484 0.0052591 -0.0501484
3103000000 0.0052042 -0.0495163 0.9947958 0.0495163 0.9947958 0.0495163 0.0052042 -0.0495163
3124000000 0.0051507 -0.0488905 0.9948493 0.0488905 0.9948493 0.0488905 0.0051507 -0.0488905
3145000000 0.0050987 -0.0482711 0.9949013 0.0482711 0.9949013 0.0482711 0.0050987 -0.0482711
3166000000 0.0050480 -0.0476578 0.9949520 0.0476578 0.9949520 0.0476578 0.0050480 -0.0476578
3187000000 0.0049988 -0.0470505 0.9950012 0.0470505 0.9950012 0.0470505 0.0049988 -0.0470505
3208000000 0.0049508 -0.0464491 0.9950492 0.0464491 0.9950492 0.0464491 0.0049508 -0.0464491
3229000000 0.0049042 -0.0458536 0.9950958 0.0458536 0.9950958 0.0458536 0.0049042 -0.0458536
3250000000 0.0048588 -0.0452638 0.9951412 0.0452638 0.9951412 0.0452638 0.0048588 -0.0452638
3271000000 0.0048147 -0.0446795 0.9951853 0.0446795 0.9951853 0.0446795 0.0048147 -0.0446795
3292000000 0.0047718 -0.0441007 0.9952282 0.0441007 0.9952282 0.0441007 0.0047718 -0.0441007
3313000000 0.0047300 -0.0435273 0.9952700 0.0435273 0.9952700 0.0435273 0.0047300 -0.0435273
3334000000 0.0046894 -0.0429592 0.9953106 0.0429592 0.9953106 0.0429592 0.0046894 -0.0429592
3355000000 0.0046500 -0.0423963 0.9953500 0.0423963 0.9953500 0.0423963 0.0046500 -0.0423963
3376000000 0.0046116 -0.0418384 0.9953884 0.0418384 0.9953884 0.0418384 0.0046116 -0.0418384
3397000000 0.0045744 -0.0412856 0.9954256 0.0412856 0.9954256 0.0412856 0.0045744 -0.0412856
3418000000 0.0045382 -0.0407376 0.9954618 0.0407376 0.9954618 0.0407376 0.0045382 -0.0407376
3439000000 0.0045030 -0.0401945 0.9954970 0.0401945 0.9954970 0.0401945 0.0045030 -0.0401945
3460000000 0.0044688 -0.0396561 0.9955312 0.0396561 0.9955312 0.0396561 0.0044688 -0.0396561
3481000000 0.0044356 -0.0391223 0.9955644 0.0391223 0.9955644 0.0391223 0.0044356 -0.0391223
3502000000 0.0044034 -0.0385931 0.9955966 0.0385931 0.9955966 0.0385931 0.0044034 -0.0385931
3523000000 0.0043722 -0.0380684 0.9956278 0.0380684 0.9956278 0.0380684 0.0043722 -0.0380684
3544000000 0.0043418 -0.0375481 0.9956582 0.0375481 0.9956582 0.0375481 0.0043418 -0.0375481
3565000000 0.0043124 -0.0370321 0.9956876 0.0370321 0.9956876 0.0370321 0.0043124 -0.0370321
3586000000 0.0042839 -0.0365203 0.9957161 0.0365203 0.9957161 0.0365203 0.0042839 -0.0365203
3607000000 0.0042562 -0.0360128 0.9957438 0.0360128 0.9957438 0.0360128 0.0042562 -0.0360128
3628000000 0.0042294 -0.0355093 0.9957706 0.0355093 0.9957706 0.0355093 0.0042294 -0.0355093
3649000000 0.0042034 -0.0350099 0.9957966 0.0350099 0.9957966 0.0350099 0.0042034 -0.0350099
3670000000 0.0041783 -0.0345144 0.9958217 0.0345144 0.9958217 0.0345144 0.0041783 -0.0345144
3691000000 0.0041539 -0.0340229 0.9958461 0.0340229 0.9958461 0.0340229 0.0041539 -0.0340229
3712000000 0.0041304 -0.0335352 0.9958696 0.0335352 0.9958696 0.0335352 0.0041304 -0.0335352
3733000000 0.0041076 -0.0330512 0.9958924 0.0330512 0.9958924 0.0330512 0.0041076 -0.0330512
3754000000 0.0040856 -0.0325710 0.9959144 0.0325710 0.9959144 0.0325710 0.0040856 -0.0325710
3775000000 0.0040643 -0.0320944 0.9959357 0.0320944 0.9959357 0.0320944 0.0040643 -0.0320944
3796000000 0.0040438 -0.0316214 0.9959562 0.0316214 0.9959562 0.0316214 0.0040438 -0.0316214
3817000000 0.0040239 -0.0311519 0.9959761 0.0311519 0.9959761 0.0311519 0.0040239 -0.0311519
3838000000 0.0040048 -0.0306859 0.9959952 0.0306859 0.9959952 0.0306859 0.0040048 -0.0306859
3859000000 0.0039864 -0.0302233 0.9960136 0.0302233 0.9960136 0.0302233 0.0039864 -0.0302233
3880000000 0.0039686 -0.0297641 0.9960314 0.0297641 0.9960314 0.0297641 0.0039686 -0.0297641
3901000000 0.0039516 -0.0293081 0.9960484 0.0293081 0.9960484 0.0293081 0.0039516 -0.0293081
3922000000 0.0039351 -0.0288555 0.9960649 0.0288555 0.9960649 0.0288555 0.0039351 -0.0288555
3943000000 0.0039194 -0.0284060 0.9960806 0.0284060 0.9960806 0.0284060 0.0039194 -0.0284060
3964000000 0.0039042 -0.0279597 0.9960958 0.0279597 0.9960958 0.0279597 0.0039042 -0.0279597
3985000000 0.0038897 -0.0275165 0.9961103 0.0275165 0.9961103 0.0275165 0.0038897 -0.0275165
4006000000 0.0038758 -0.0270763 0.9961242 0.0270763 0.9961242 0.0270763 0.0038758 -0.0270763
4027000000 0.0038625 -0.0266392 0.9961375 0.0266392 0.9961375 0.0266392 0.0038625 -0.0266392
4048000000 0.0038498 -0.0262050 0.9961502 0.0262050 0.9961502 0.0262050 0.0038498 -0.0262050
4069000000 0.0038376 -0.0257737 0.9961624 0.0257737 0.9961624 0.0257737 0.0038376 -0.0257737
4090000000 0.0038261 -0.0253453 0.9961739 0.0253453 0.9961739 0.0253453 0.0038261 -0.0253453
4111000000 0.0038151 -0.0249197 0.9961849 0.0249197 0.9961849 0.0249197 0.0038151 -0.0249197
4132000000 0.0038046 -0.0244970 0.9961954 0.0244970 0.9961954 0.0244970 0.0038046 -0.0244970
4153000000 0.0037947 -0.0240769 0.9962053 0.0240769 0.9962053 0.0240769 0.0037947 -0.0240769
4174000000 0.0037854 -0.0236596 0.9962146 0.0236596 0.9962146 0.0236596 0.0037854 -0.0236596
4195000000 0.0037765 -0.0232449 0.9962235 0.0232449 0.9962235 0.0232449 0.0037765 -0.0232449
4216000000 0.0037682 -0.0228329 0.9962318 0.0228329 0.9962318 0.0228329 0.0037682 -0.0228329
4237000000 0.0037604 -0.0224234 0.9962396 0.0224234 0.9962396 0.0224234 0.0037604 -0.0224234
4258000000 0.0037531 -0.0220165 0.9962469 0.0220165 0.9962469 0.0220165 0.0037531 -0.0220165
4279000000 0.0037463 -0.0216120 0.9962537 0.0216120 0.9962537 0.0216120 0.0037463 -0.0216120
4300000000 0.0037400 -0.0212101 0.9962600 0.0212101 0.9962600 0.0212101 0.0037400 -0.0212101
4321000000 0.0037342 -0.0208106 0.9962658 0.0208106 0.9962658 0.0208106 0.0037342 -0.0208106
4342000000 0.0037289 -0.0204135 0.9962711 0.0204135 0.9962711 0.0204135 0.0037289 -0.0204135
4363000000 0.0037240 -0.0200188 0.9962760 0.0200188 0.9962760 0.0200188 0.0037240 -0.0200188
4384000000 0.0037196 -0.0196264 0.9962804 0.0196264 0.9962804 0.0196264 0.0037196 -0.0196264
4405000000 0.0037156 -0.0192363 0.9962844 0.0192363 0.9962844 0.0192363 0.0037156 -0.0192363
4426000000 0.0037121 -0.0188484 0.9962879 0.0188484 0.9962879 0.0188484 0.0037121 -0.0188484
4447000000 0.0037091 -0.0184628 0.9962909 0.0184628 0.9962909 0.0184628 0.0037091 -0.0184628
4468000000 0.0037064 -0.0180794 0.9962936 0.0180794 0.9962936 0.0180794 0.0037064 -0.0180794
4489000000 0.0037042 -0.0176982 0.9962958 0.0176982 0.9962958 0.0176982 0.0037042 -0.0176982
4510000000 0.0037025 -0.0173192 0.9962975 0.0173192 0.9962975 0.0173192 0.0037025 -0.0173192
