!Murata Part Number: GRM0115C1E3R3WE01
!These Parameters are Measured in Series Mode Connection
!Data Generated on Mar 30, 2021
!       o--ll--o
!Port1            Port2
!       o------o
!Operation Temp=25[degC], DC Bias Voltage=0[V]
!Freq. Start=100[MHz] Stop=9[GHz] 401[Steps]
# Hz S RI R 50
!Freq.(Hz) S11(Real) S11(Imag) S21(Real) S21(Imag) S12(Real) S12(Imag) S22(Real) S22(Imag)
100000000 0.9587017 -0.1987987 0.0412983 0.1987987 0.0412983 0.1987987 0.9587017 -0.1987987
121000000 0.9406658 -0.2360302 0.0593342 0.2360302 0.0593342 0.2360302 0.9406658 -0.2360302
142000000 0.9200623 -0.2709396 0.0799377 0.2709396 0.0799377 0.2709396 0.9200623 -0.2709396
163000000 0.8972643 -0.3033178 0.1027357 0.3033178 0.1027357 0.3033178 0.8972643 -0.3033178
184000000 0.8726550 -0.3330248 0.1273450 0.3330248 0.1273450 0.3330248 0.8726550 -0.3330248
205000000 0.8466146 -0.3599855 0.1533854 0.3599855 0.1533854 0.3599855 0.8466146 -0.3599855
226000000 0.8195084 -0.3841842 0.1804916 0.3841842 0.1804916 0.3841842 0.8195084 -0.3841842
247000000 0.7916782 -0.4056566 0.2083218 0.4056566 0.2083218 0.4056566 0.7916782 -0.4056566
268000000 0.7634360 -0.4244811 0.2365640 0.4244811 0.2365640 0.4244811 0.7634360 -0.4244811
289000000 0.7350595 -0.4407704 0.2649405 0.4407704 0.2649405 0.4407704 0.7350595 -0.4407704
310000000 0.7067911 -0.4546620 0.2932089 0.4546620 0.2932089 0.4546620 0.7067911 -0.4546620
331000000 0.6788369 -0.4663113 0.3211631 0.4663113 0.3211631 0.4663113 0.6788369 -0.4663113
352000000 0.6513685 -0.4758841 0.3486315 0.4758841 0.3486315 0.4758841 0.6513685 -0.4758841
373000000 0.6245249 -0.4835510 0.3754751 0.4835510 0.3754751 0.4835510 0.6245249 -0.4835510
394000000 0.5984156 -0.4894827 0.4015844 0.4894827 0.4015844 0.4894827 0.5984156 -0.4894827
415000000 0.5731233 -0.4938459 0.4268767 0.4938459 0.4268767 0.4938459 0.5731233 -0.4938459
436000000 0.5487081 -0.4968011 0.4512919 0.4968011 0.4512919 0.4968011 0.5487081 -0.4968011
457000000 0.5252096 -0.4985002 0.4747904 0.4985002 0.4747904 0.4985002 0.5252096 -0.4985002
478000000 0.5026510 -0.4990855 0.4973490 0.4990855 0.4973490 0.4990855 0.5026510 -0.4990855
499000000 0.4810414 -0.4986890 0.5189586 0.4986890 0.5189586 0.4986890 0.4810414 -0.4986890
520000000 0.4603784 -0.4974316 0.5396216 0.4974316 0.5396216 0.4974316 0.4603784 -0.4974316
541000000 0.4406506 -0.4954240 0.5593494 0.4954240 0.5593494 0.4954240 0.4406506 -0.4954240
562000000 0.4218393 -0.4927663 0.5781607 0.4927663 0.5781607 0.4927663 0.4218393 -0.4927663
583000000 0.4039203 -0.4895489 0.5960797 0.4895489 0.5960797 0.4895489 0.4039203 -0.4895489
604000000 0.3868655 -0.4858527 0.6131345 0.4858527 0.6131345 0.4858527 0.3868655 -0.4858527
625000000 0.3706437 -0.4817500 0.6293563 0.4817500 0.6293563 0.4817500 0.3706437 -0.4817500
646000000 0.3552219 -0.4773054 0.6447781 0.4773054 0.6447781 0.4773054 0.3552219 -0.4773054
667000000 0.3405659 -0.4725758 0.6594341 0.4725758 0.6594341 0.4725758 0.3405659 -0.4725758
688000000 0.3266410 -0.4676118 0.6733590 0.4676118 0.6733590 0.4676118 0.3266410 -0.4676118
709000000 0.3134126 -0.4624578 0.6865874 0.4624578 0.6865874 0.4624578 0.3134126 -0.4624578
730000000 0.3008465 -0.4571528 0.6991535 0.4571528 0.6991535 0.4571528 0.3008465 -0.4571528
751000000 0.2889093 -0.4517312 0.7110907 0.4517312 0.7110907 0.4517312 0.2889093 -0.4517312
772000000 0.2775682 -0.4462228 0.7224318 0.4462228 0.7224318 0.4462228 0.2775682 -0.4462228
793000000 0.2667920 -0.4406538 0.7332080 0.4406538 0.7332080 0.4406538 0.2667920 -0.4406538
814000000 0.2565502 -0.4350469 0.7434498 0.4350469 0.7434498 0.4350469 0.2565502 -0.4350469
835000000 0.2468141 -0.4294216 0.7531859 0.4294216 0.7531859 0.4294216 0.2468141 -0.4294216
856000000 0.2375560 -0.4237949 0.7624440 0.4237949 0.7624440 0.4237949 0.2375560 -0.4237949
877000000 0.2287495 -0.4181815 0.7712505 0.4181815 0.7712505 0.4181815 0.2287495 -0.4181815
898000000 0.2203698 -0.4125938 0.7796302 0.4125938 0.7796302 0.4125938 0.2203698 -0.4125938
919000000 0.2123932 -0.4070426 0.7876068 0.4070426 0.7876068 0.4070426 0.2123932 -0.4070426
940000000 0.2047974 -0.4015369 0.7952026 0.4015369 0.7952026 0.4015369 0.2047974 -0.4015369
961000000 0.1975613 -0.3960843 0.8024387 0.3960843 0.8024387 0.3960843 0.1975613 -0.3960843
982000000 0.1906649 -0.3906914 0.8093351 0.3906914 0.8093351 0.3906914 0.1906649 -0.3906914
1003000000 0.1840895 -0.3853633 0.8159105 0.3853633 0.8159105 0.3853633 0.1840895 -0.3853633
1024000000 0.1778174 -0.3801045 0.8221826 0.3801045 0.8221826 0.3801045 0.1778174 -0.3801045
1045000000 0.1718319 -0.3749186 0.8281681 0.3749186 0.8281681 0.3749186 0.1718319 -0.3749186
1066000000 0.1661175 -0.3698082 0.8338825 0.3698082 0.8338825 0.3698082 0.1661175 -0.3698082
1087000000 0.1606593 -0.3647757 0.8393407 0.3647757 0.8393407 0.3647757 0.1606593 -0.3647757
1108000000 0.1554435 -0.3598226 0.8445565 0.3598226 0.8445565 0.3598226 0.1554435 -0.3598226
1129000000 0.1504571 -0.3549501 0.8495429 0.3549501 0.8495429 0.3549501 0.1504571 -0.3549501
1150000000 0.1456878 -0.3501590 0.8543122 0.3501590 0.8543122 0.3501590 0.1456878 -0.3501590
1171000000 0.1411241 -0.3454496 0.8588759 0.3454496 0.8588759 0.3454496 0.1411241 -0.3454496
1192000000 0.1367552 -0.3408221 0.8632448 0.3408221 0.8632448 0.3408221 0.1367552 -0.3408221
1213000000 0.1325709 -0.3362762 0.8674291 0.3362762 0.8674291 0.3362762 0.1325709 -0.3362762
1234000000 0.1285616 -0.3318116 0.8714384 0.3318116 0.8714384 0.3318116 0.1285616 -0.3318116
1255000000 0.1247183 -0.3274276 0.8752817 0.3274276 0.8752817 0.3274276 0.1247183 -0.3274276
1276000000 0.1210325 -0.3231236 0.8789675 0.3231236 0.8789675 0.3231236 0.1210325 -0.3231236
1297000000 0.1174963 -0.3188985 0.8825037 0.3188985 0.8825037 0.3188985 0.1174963 -0.3188985
1318000000 0.1141020 -0.3147515 0.8858980 0.3147515 0.8858980 0.3147515 0.1141020 -0.3147515
1339000000 0.1108426 -0.3106814 0.8891574 0.3106814 0.8891574 0.3106814 0.1108426 -0.3106814
1360000000 0.1077115 -0.3066869 0.8922885 0.3066869 0.8922885 0.3066869 0.1077115 -0.3066869
1381000000 0.1047024 -0.3027670 0.8952976 0.3027670 0.8952976 0.3027670 0.1047024 -0.3027670
1402000000 0.1018093 -0.2989203 0.8981907 0.2989203 0.8981907 0.2989203 0.1018093 -0.2989203
1423000000 0.0990266 -0.2951454 0.9009734 0.2951454 0.9009734 0.2951454 0.0990266 -0.2951454
1444000000 0.0963491 -0.2914410 0.9036509 0.2914410 0.9036509 0.2914410 0.0963491 -0.2914410
1465000000 0.0937718 -0.2878057 0.9062282 0.2878057 0.9062282 0.2878057 0.0937718 -0.2878057
1486000000 0.0912900 -0.2842381 0.9087100 0.2842381 0.9087100 0.2842381 0.0912900 -0.2842381
1507000000 0.0888992 -0.2807369 0.9111008 0.2807369 0.9111008 0.2807369 0.0888992 -0.2807369
1528000000 0.0865952 -0.2773005 0.9134048 0.2773005 0.9134048 0.2773005 0.0865952 -0.2773005
1549000000 0.0843742 -0.2739278 0.9156258 0.2739278 0.9156258 0.2739278 0.0843742 -0.2739278
1570000000 0.0822322 -0.2706171 0.9177678 0.2706171 0.9177678 0.2706171 0.0822322 -0.2706171
1591000000 0.0801658 -0.2673672 0.9198342 0.2673672 0.9198342 0.2673672 0.0801658 -0.2673672
1612000000 0.0781716 -0.2641768 0.9218284 0.2641768 0.9218284 0.2641768 0.0781716 -0.2641768
1633000000 0.0762464 -0.2610444 0.9237536 0.2610444 0.9237536 0.2610444 0.0762464 -0.2610444
1654000000 0.0743872 -0.2579687 0.9256128 0.2579687 0.9256128 0.2579687 0.0743872 -0.2579687
1675000000 0.0725911 -0.2549485 0.9274089 0.2549485 0.9274089 0.2549485 0.0725911 -0.2549485
1696000000 0.0708554 -0.2519824 0.9291446 0.2519824 0.9291446 0.2519824 0.0708554 -0.2519824
1717000000 0.0691776 -0.2490692 0.9308224 0.2490692 0.9308224 0.2490692 0.0691776 -0.2490692
1738000000 0.0675552 -0.2462077 0.9324448 0.2462077 0.9324448 0.2462077 0.0675552 -0.2462077
1759000000 0.0659858 -0.2433967 0.9340142 0.2433967 0.9340142 0.2433967 0.0659858 -0.2433967
1780000000 0.0644674 -0.2406349 0.9355326 0.2406349 0.9355326 0.2406349 0.0644674 -0.2406349
1801000000 0.0629977 -0.2379213 0.9370023 0.2379213 0.9370023 0.2379213 0.0629977 -0.2379213
1822000000 0.0615748 -0.2352546 0.9384252 0.2352546 0.9384252 0.2352546 0.0615748 -0.2352546
1843000000 0.0601969 -0.2326338 0.9398031 0.2326338 0.9398031 0.2326338 0.0601969 -0.2326338
1864000000 0.0588620 -0.2300578 0.9411380 0.2300578 0.9411380 0.2300578 0.0588620 -0.2300578
1885000000 0.0575685 -0.2275255 0.9424315 0.2275255 0.9424315 0.2275255 0.0575685 -0.2275255
1906000000 0.0563148 -0.2250360 0.9436852 0.2250360 0.9436852 0.2250360 0.0563148 -0.2250360
1927000000 0.0550992 -0.2225882 0.9449008 0.2225882 0.9449008 0.2225882 0.0550992 -0.2225882
1948000000 0.0539204 -0.2201811 0.9460796 0.2201811 0.9460796 0.2201811 0.0539204 -0.2201811
1969000000 0.0527769 -0.2178137 0.9472231 0.2178137 0.9472231 0.2178137 0.0527769 -0.2178137
1990000000 0.0516674 -0.2154852 0.9483326 0.2154852 0.9483326 0.2154852 0.0516674 -0.2154852
2011000000 0.0505905 -0.2131947 0.9494095 0.2131947 0.9494095 0.2131947 0.0505905 -0.2131947
2032000000 0.0495451 -0.2109412 0.9504549 0.2109412 0.9504549 0.2109412 0.0495451 -0.2109412
2053000000 0.0485300 -0.2087239 0.9514700 0.2087239 0.9514700 0.2087239 0.0485300 -0.2087239
2074000000 0.0475440 -0.2065420 0.9524560 0.2065420 0.9524560 0.2065420 0.0475440 -0.2065420
2095000000 0.0465861 -0.2043946 0.9534139 0.2043946 0.9534139 0.2043946 0.0465861 -0.2043946
2116000000 0.0456553 -0.2022810 0.9543447 0.2022810 0.9543447 0.2022810 0.0456553 -0.2022810
2137000000 0.0447507 -0.2002003 0.9552493 0.2002003 0.9552493 0.2002003 0.0447507 -0.2002003
2158000000 0.0438711 -0.1981519 0.9561289 0.1981519 0.9561289 0.1981519 0.0438711 -0.1981519
2179000000 0.0430159 -0.1961349 0.9569841 0.1961349 0.9569841 0.1961349 0.0430159 -0.1961349
2200000000 0.0421841 -0.1941488 0.9578159 0.1941488 0.9578159 0.1941488 0.0421841 -0.1941488
2221000000 0.0413749 -0.1921927 0.9586251 0.1921927 0.9586251 0.1921927 0.0413749 -0.1921927
2242000000 0.0405875 -0.1902660 0.9594125 0.1902660 0.9594125 0.1902660 0.0405875 -0.1902660
2263000000 0.0398212 -0.1883681 0.9601788 0.1883681 0.9601788 0.1883681 0.0398212 -0.1883681
2284000000 0.0390752 -0.1864983 0.9609248 0.1864983 0.9609248 0.1864983 0.0390752 -0.1864983
2305000000 0.0383490 -0.1846559 0.9616510 0.1846559 0.9616510 0.1846559 0.0383490 -0.1846559
2326000000 0.0376417 -0.1828405 0.9623583 0.1828405 0.9623583 0.1828405 0.0376417 -0.1828405
2347000000 0.0369528 -0.1810513 0.9630472 0.1810513 0.9630472 0.1810513 0.0369528 -0.1810513
2368000000 0.0362816 -0.1792879 0.9637184 0.1792879 0.9637184 0.1792879 0.0362816 -0.1792879
2389000000 0.0356277 -0.1775496 0.9643723 0.1775496 0.9643723 0.1775496 0.0356277 -0.1775496
2410000000 0.0349904 -0.1758359 0.9650096 0.1758359 0.9650096 0.1758359 0.0349904 -0.1758359
2431000000 0.0343691 -0.1741464 0.9656309 0.1741464 0.9656309 0.1741464 0.0343691 -0.1741464
2452000000 0.0337635 -0.1724803 0.9662365 0.1724803 0.9662365 0.1724803 0.0337635 -0.1724803
2473000000 0.0331729 -0.1708373 0.9668271 0.1708373 0.9668271 0.1708373 0.0331729 -0.1708373
2494000000 0.0325969 -0.1692169 0.9674031 0.1692169 0.9674031 0.1692169 0.0325969 -0.1692169
2515000000 0.0320350 -0.1676186 0.9679650 0.1676186 0.9679650 0.1676186 0.0320350 -0.1676186
2536000000 0.0314868 -0.1660420 0.9685132 0.1660420 0.9685132 0.1660420 0.0314868 -0.1660420
2557000000 0.0309520 -0.1644864 0.9690480 0.1644864 0.9690480 0.1644864 0.0309520 -0.1644864
2578000000 0.0304299 -0.1629517 0.9695701 0.1629517 0.9695701 0.1629517 0.0304299 -0.1629517
2599000000 0.0299204 -0.1614372 0.9700796 0.1614372 0.9700796 0.1614372 0.0299204 -0.1614372
2620000000 0.0294229 -0.1599426 0.9705771 0.1599426 0.9705771 0.1599426 0.0294229 -0.1599426
2641000000 0.0289372 -0.1584675 0.9710628 0.1584675 0.9710628 0.1584675 0.0289372 -0.1584675
2662000000 0.0284629 -0.1570115 0.9715371 0.1570115 0.9715371 0.1570115 0.0284629 -0.1570115
2683000000 0.0279996 -0.1555742 0.9720004 0.1555742 0.9720004 0.1555742 0.0279996 -0.1555742
2704000000 0.0275470 -0.1541552 0.9724530 0.1541552 0.9724530 0.1541552 0.0275470 -0.1541552
2725000000 0.0271049 -0.1527541 0.9728951 0.1527541 0.9728951 0.1527541 0.0271049 -0.1527541
2746000000 0.0266728 -0.1513706 0.9733272 0.1513706 0.9733272 0.1513706 0.0266728 -0.1513706
2767000000 0.0262506 -0.1500044 0.9737494 0.1500044 0.9737494 0.1500044 0.0262506 -0.1500044
2788000000 0.0258379 -0.1486551 0.9741621 0.1486551 0.9741621 0.1486551 0.0258379 -0.1486551
2809000000 0.0254344 -0.1473223 0.9745656 0.1473223 0.9745656 0.1473223 0.0254344 -0.1473223
2830000000 0.0250400 -0.1460058 0.9749600 0.1460058 0.9749600 0.1460058 0.0250400 -0.1460058
2851000000 0.0246543 -0.1447052 0.9753457 0.1447052 0.9753457 0.1447052 0.0246543 -0.1447052
2872000000 0.0242771 -0.1434202 0.9757229 0.1434202 0.9757229 0.1434202 0.0242771 -0.1434202
2893000000 0.0239081 -0.1421505 0.9760919 0.1421505 0.9760919 0.1421505 0.0239081 -0.1421505
2914000000 0.0235472 -0.1408959 0.9764528 0.1408959 0.9764528 0.1408959 0.0235472 -0.1408959
2935000000 0.0231941 -0.1396560 0.9768059 0.1396560 0.9768059 0.1396560 0.0231941 -0.1396560
2956000000 0.0228487 -0.1384305 0.9771513 0.1384305 0.9771513 0.1384305 0.0228487 -0.1384305
2977000000 0.0225106 -0.1372193 0.9774894 0.1372193 0.9774894 0.1372193 0.0225106 -0.1372193
2998000000 0.0221797 -0.1360219 0.9778203 0.1360219 0.9778203 0.1360219 0.0221797 -0.1360219
3019000000 0.0218559 -0.1348382 0.9781441 0.1348382 0.9781441 0.1348382 0.0218559 -0.1348382
3040000000 0.0215388 -0.1336680 0.9784612 0.1336680 0.9784612 0.1336680 0.0215388 -0.1336680
3061000000 0.0212285 -0.1325108 0.9787715 0.1325108 0.9787715 0.1325108 0.0212285 -0.1325108
3082000000 0.0209245 -0.1313666 0.9790755 0.1313666 0.9790755 0.1313666 0.0209245 -0.1313666
3103000000 0.0206269 -0.1302351 0.9793731 0.1302351 0.9793731 0.1302351 0.0206269 -0.1302351
3124000000 0.0203355 -0.1291160 0.9796645 0.1291160 0.9796645 0.1291160 0.0203355 -0.1291160
3145000000 0.0200500 -0.1280091 0.9799500 0.1280091 0.9799500 0.1280091 0.0200500 -0.1280091
3166000000 0.0197704 -0.1269143 0.9802296 0.1269143 0.9802296 0.1269143 0.0197704 -0.1269143
3187000000 0.0194964 -0.1258312 0.9805036 0.1258312 0.9805036 0.1258312 0.0194964 -0.1258312
3208000000 0.0192280 -0.1247597 0.9807720 0.1247597 0.9807720 0.1247597 0.0192280 -0.1247597
3229000000 0.0189650 -0.1236996 0.9810350 0.1236996 0.9810350 0.1236996 0.0189650 -0.1236996
3250000000 0.0187072 -0.1226506 0.9812928 0.1226506 0.9812928 0.1226506 0.0187072 -0.1226506
3271000000 0.0184546 -0.1216126 0.9815454 0.1216126 0.9815454 0.1216126 0.0184546 -0.1216126
3292000000 0.0182070 -0.1205854 0.9817930 0.1205854 0.9817930 0.1205854 0.0182070 -0.1205854
3313000000 0.0179643 -0.1195688 0.9820357 0.1195688 0.9820357 0.1195688 0.0179643 -0.1195688
3334000000 0.0177264 -0.1185627 0.9822736 0.1185627 0.9822736 0.1185627 0.0177264 -0.1185627
3355000000 0.0174931 -0.1175667 0.9825069 0.1175667 0.9825069 0.1175667 0.0174931 -0.1175667
3376000000 0.0172644 -0.1165808 0.9827356 0.1165808 0.9827356 0.1165808 0.0172644 -0.1165808
3397000000 0.0170401 -0.1156048 0.9829599 0.1156048 0.9829599 0.1156048 0.0170401 -0.1156048
3418000000 0.0168202 -0.1146385 0.9831798 0.1146385 0.9831798 0.1146385 0.0168202 -0.1146385
3439000000 0.0166045 -0.1136818 0.9833955 0.1136818 0.9833955 0.1136818 0.0166045 -0.1136818
3460000000 0.0163929 -0.1127344 0.9836071 0.1127344 0.9836071 0.1127344 0.0163929 -0.1127344
3481000000 0.0161853 -0.1117963 0.9838147 0.1117963 0.9838147 0.1117963 0.0161853 -0.1117963
3502000000 0.0159817 -0.1108673 0.9840183 0.1108673 0.9840183 0.1108673 0.0159817 -0.1108673
3523000000 0.0157820 -0.1099472 0.9842180 0.1099472 0.9842180 0.1099472 0.0157820 -0.1099472
3544000000 0.0155860 -0.1090359 0.9844140 0.1090359 0.9844140 0.1090359 0.0155860 -0.1090359
3565000000 0.0153937 -0.1081333 0.9846063 0.1081333 0.9846063 0.1081333 0.0153937 -0.1081333
3586000000 0.0152050 -0.1072392 0.9847950 0.1072392 0.9847950 0.1072392 0.0152050 -0.1072392
3607000000 0.0150198 -0.1063534 0.9849802 0.1063534 0.9849802 0.1063534 0.0150198 -0.1063534
3628000000 0.0148380 -0.1054758 0.9851620 0.1054758 0.9851620 0.1054758 0.0148380 -0.1054758
3649000000 0.0146596 -0.1046064 0.9853404 0.1046064 0.9853404 0.1046064 0.0146596 -0.1046064
3670000000 0.0144845 -0.1037449 0.9855155 0.1037449 0.9855155 0.1037449 0.0144845 -0.1037449
3691000000 0.0143126 -0.1028913 0.9856874 0.1028913 0.9856874 0.1028913 0.0143126 -0.1028913
3712000000 0.0141438 -0.1020454 0.9858562 0.1020454 0.9858562 0.1020454 0.0141438 -0.1020454
3733000000 0.0139782 -0.1012070 0.9860218 0.1012070 0.9860218 0.1012070 0.0139782 -0.1012070
3754000000 0.0138155 -0.1003762 0.9861845 0.1003762 0.9861845 0.1003762 0.0138155 -0.1003762
3775000000 0.0136558 -0.0995527 0.9863442 0.0995527 0.9863442 0.0995527 0.0136558 -0.0995527
3796000000 0.0134990 -0.0987365 0.9865010 0.0987365 0.9865010 0.0987365 0.0134990 -0.0987365
3817000000 0.0133449 -0.0979274 0.9866551 0.0979274 0.9866551 0.0979274 0.0133449 -0.0979274
3838000000 0.0131937 -0.0971253 0.9868063 0.0971253 0.9868063 0.0971253 0.0131937 -0.0971253
3859000000 0.0130452 -0.0963302 0.9869548 0.0963302 0.9869548 0.0963302 0.0130452 -0.0963302
3880000000 0.0128993 -0.0955419 0.9871007 0.0955419 0.9871007 0.0955419 0.0128993 -0.0955419
3901000000 0.0127560 -0.0947602 0.9872440 0.0947602 0.9872440 0.0947602 0.0127560 -0.0947602
3922000000 0.0126152 -0.0939852 0.9873848 0.0939852 0.9873848 0.0939852 0.0126152 -0.0939852
3943000000 0.0124769 -0.0932167 0.9875231 0.0932167 0.9875231 0.0932167 0.0124769 -0.0932167
3964000000 0.0123411 -0.0924546 0.9876589 0.0924546 0.9876589 0.0924546 0.0123411 -0.0924546
3985000000 0.0122077 -0.0916989 0.9877923 0.0916989 0.9877923 0.0916989 0.0122077 -0.0916989
4006000000 0.0120766 -0.0909493 0.9879234 0.0909493 0.9879234 0.0909493 0.0120766 -0.0909493
4027000000 0.0119478 -0.0902059 0.9880522 0.0902059 0.9880522 0.0902059 0.0119478 -0.0902059
4048000000 0.0118212 -0.0894685 0.9881788 0.0894685 0.9881788 0.0894685 0.0118212 -0.0894685
4069000000 0.0116969 -0.0887371 0.9883031 0.0887371 0.9883031 0.0887371 0.0116969 -0.0887371
4090000000 0.0115747 -0.0880116 0.9884253 0.0880116 0.9884253 0.0880116 0.0115747 -0.0880116
4111000000 0.0114546 -0.0872918 0.9885454 0.0872918 0.9885454 0.0872918 0.0114546 -0.0872918
4132000000 0.0113366 -0.0865777 0.9886634 0.0865777 0.9886634 0.0865777 0.0113366 -0.0865777
4153000000 0.0112207 -0.0858693 0.9887793 0.0858693 0.9887793 0.0858693 0.0112207 -0.0858693
4174000000 0.0111067 -0.0851664 0.9888933 0.0851664 0.9888933 0.0851664 0.0111067 -0.0851664
4195000000 0.0109947 -0.0844689 0.9890053 0.0844689 0.9890053 0.0844689 0.0109947 -0.0844689
4216000000 0.0108846 -0.0837769 0.9891154 0.0837769 0.9891154 0.0837769 0.0108846 -0.0837769
4237000000 0.0107764 -0.0830901 0.9892236 0.0830901 0.9892236 0.0830901 0.0107764 -0.0830901
4258000000 0.0106701 -0.0824086 0.9893299 0.0824086 0.9893299 0.0824086 0.0106701 -0.0824086
4279000000 0.0105656 -0.0817322 0.9894344 0.0817322 0.9894344 0.0817322 0.0105656 -0.0817322
4300000000 0.0104628 -0.0810610 0.9895372 0.0810610 0.9895372 0.0810610 0.0104628 -0.0810610
4321000000 0.0103618 -0.0803947 0.9896382 0.0803947 0.9896382 0.0803947 0.0103618 -0.0803947
4342000000 0.0102625 -0.0797334 0.9897375 0.0797334 0.9897375 0.0797334 0.0102625 -0.0797334
4363000000 0.0101650 -0.0790770 0.9898350 0.0790770 0.9898350 0.0790770 0.0101650 -0.0790770
4384000000 0.0100690 -0.0784254 0.9899310 0.0784254 0.9899310 0.0784254 0.0100690 -0.0784254
4405000000 0.0099747 -0.0777785 0.9900253 0.0777785 0.9900253 0.0777785 0.0099747 -0.0777785
4426000000 0.0098820 -0.0771363 0.9901180 0.0771363 0.9901180 0.0771363 0.0098820 -0.0771363
4447000000 0.0097908 -0.0764988 0.9902092 0.0764988 0.9902092 0.0764988 0.0097908 -0.0764988
4468000000 0.0097012 -0.0758658 0.9902988 0.0758658 0.9902988 0.0758658 0.0097012 -0.0758658
4489000000 0.0096131 -0.0752373 0.9903869 0.0752373 0.9903869 0.0752373 0.0096131 -0.0752373
4510000000 0.0095265 -0.0746133 0.9904735 0.0746133 0.9904735 0.0746133 0.0095265 -0.0746133
