!Murata Part Number: GRM0115C1C9R0BE01
!These Parameters are Measured in Series Mode Connection
!Data Generated on Mar 30, 2021
!       o--ll--o
!Port1            Port2
!       o------o
!Operation Temp=25[degC], DC Bias Voltage=0[V]
!Freq. Start=100[MHz] Stop=9[GHz] 401[Steps]
# Hz S RI R 50
!Freq.(Hz) S11(Real) S11(Imag) S21(Real) S21(Imag) S12(Real) S12(Imag) S22(Real) S22(Imag)
100000000 0.7573886 -0.4283131 0.2426114 0.4283131 0.2426114 0.4283131 0.7573886 -0.4283131
121000000 0.6806906 -0.4657864 0.3193094 0.4657864 0.3193094 0.4657864 0.6806906 -0.4657864
142000000 0.6074495 -0.4878213 0.3925505 0.4878213 0.3925505 0.4878213 0.6074495 -0.4878213
163000000 0.5400255 -0.4978242 0.4599745 0.4978242 0.4599745 0.4978242 0.5400255 -0.4978242
184000000 0.4794416 -0.4989311 0.5205584 0.4989311 0.5205584 0.4989311 0.4794416 -0.4989311
205000000 0.4258449 -0.4937492 0.5741551 0.4937492 0.5741551 0.4937492 0.4258449 -0.4937492
226000000 0.3788785 -0.4843108 0.6211215 0.4843108 0.6211215 0.4843108 0.3788785 -0.4843108
247000000 0.3379383 -0.4721341 0.6620617 0.4721341 0.6620617 0.4721341 0.3379383 -0.4721341
268000000 0.3023335 -0.4583189 0.6976665 0.4583189 0.6976665 0.4583189 0.3023335 -0.4583189
289000000 0.2713772 -0.4436426 0.7286228 0.4436426 0.7286228 0.4436426 0.2713772 -0.4436426
310000000 0.2444318 -0.4286441 0.7555682 0.4286441 0.7555682 0.4286441 0.2444318 -0.4286441
331000000 0.2209292 -0.4136883 0.7790708 0.4136883 0.7790708 0.4136883 0.2209292 -0.4136883
352000000 0.2003744 -0.3990163 0.7996256 0.3990163 0.7996256 0.3990163 0.2003744 -0.3990163
373000000 0.1823423 -0.3847816 0.8176577 0.3847816 0.8176577 0.3847816 0.1823423 -0.3847816
394000000 0.1664711 -0.3710769 0.8335289 0.3710769 0.8335289 0.3710769 0.1664711 -0.3710769
415000000 0.1524543 -0.3579524 0.8475457 0.3579524 0.8475457 0.3579524 0.1524543 -0.3579524
436000000 0.1400326 -0.3454294 0.8599674 0.3454294 0.8599674 0.3454294 0.1400326 -0.3454294
457000000 0.1289868 -0.3335097 0.8710132 0.3335097 0.8710132 0.3335097 0.1289868 -0.3335097
478000000 0.1191317 -0.3221826 0.8808683 0.3221826 0.8808683 0.3221826 0.1191317 -0.3221826
499000000 0.1103101 -0.3114288 0.8896899 0.3114288 0.8896899 0.3114288 0.1103101 -0.3114288
520000000 0.1023887 -0.3012243 0.8976113 0.3012243 0.8976113 0.3012243 0.1023887 -0.3012243
541000000 0.0952539 -0.2915422 0.9047461 0.2915422 0.9047461 0.2915422 0.0952539 -0.2915422
562000000 0.0888088 -0.2823546 0.9111912 0.2823546 0.9111912 0.2823546 0.0888088 -0.2823546
583000000 0.0829702 -0.2736333 0.9170298 0.2736333 0.9170298 0.2736333 0.0829702 -0.2736333
604000000 0.0776669 -0.2653504 0.9223331 0.2653504 0.9223331 0.2653504 0.0776669 -0.2653504
625000000 0.0728372 -0.2574793 0.9271628 0.2574793 0.9271628 0.2574793 0.0728372 -0.2574793
646000000 0.0684281 -0.2499943 0.9315719 0.2499943 0.9315719 0.2499943 0.0684281 -0.2499943
667000000 0.0643934 -0.2428712 0.9356066 0.2428712 0.9356066 0.2428712 0.0643934 -0.2428712
688000000 0.0606930 -0.2360873 0.9393070 0.2360873 0.9393070 0.2360873 0.0606930 -0.2360873
709000000 0.0572918 -0.2296211 0.9427082 0.2296211 0.9427082 0.2296211 0.0572918 -0.2296211
730000000 0.0541593 -0.2234527 0.9458407 0.2234527 0.9458407 0.2234527 0.0541593 -0.2234527
751000000 0.0512684 -0.2175634 0.9487316 0.2175634 0.9487316 0.2175634 0.0512684 -0.2175634
772000000 0.0485956 -0.2119359 0.9514044 0.2119359 0.9514044 0.2119359 0.0485956 -0.2119359
793000000 0.0461198 -0.2065541 0.9538802 0.2065541 0.9538802 0.2065541 0.0461198 -0.2065541
814000000 0.0438227 -0.2014029 0.9561773 0.2014029 0.9561773 0.2014029 0.0438227 -0.2014029
835000000 0.0416878 -0.1964686 0.9583122 0.1964686 0.9583122 0.1964686 0.0416878 -0.1964686
856000000 0.0397005 -0.1917381 0.9602995 0.1917381 0.9602995 0.1917381 0.0397005 -0.1917381
877000000 0.0378478 -0.1871994 0.9621522 0.1871994 0.9621522 0.1871994 0.0378478 -0.1871994
898000000 0.0361181 -0.1828415 0.9638819 0.1828415 0.9638819 0.1828415 0.0361181 -0.1828415
919000000 0.0345009 -0.1786538 0.9654991 0.1786538 0.9654991 0.1786538 0.0345009 -0.1786538
940000000 0.0329869 -0.1746269 0.9670131 0.1746269 0.9670131 0.1746269 0.0329869 -0.1746269
961000000 0.0315677 -0.1707517 0.9684323 0.1707517 0.9684323 0.1707517 0.0315677 -0.1707517
982000000 0.0302358 -0.1670198 0.9697642 0.1670198 0.9697642 0.1670198 0.0302358 -0.1670198
1003000000 0.0289841 -0.1634235 0.9710159 0.1634235 0.9710159 0.1634235 0.0289841 -0.1634235
1024000000 0.0278067 -0.1599555 0.9721933 0.1599555 0.9721933 0.1599555 0.0278067 -0.1599555
1045000000 0.0266978 -0.1566090 0.9733022 0.1566090 0.9733022 0.1566090 0.0266978 -0.1566090
1066000000 0.0256524 -0.1533778 0.9743476 0.1533778 0.9743476 0.1533778 0.0256524 -0.1533778
1087000000 0.0246659 -0.1502558 0.9753341 0.1502558 0.9753341 0.1502558 0.0246659 -0.1502558
1108000000 0.0237339 -0.1472376 0.9762661 0.1472376 0.9762661 0.1472376 0.0237339 -0.1472376
1129000000 0.0228527 -0.1443181 0.9771473 0.1443181 0.9771473 0.1443181 0.0228527 -0.1443181
1150000000 0.0220187 -0.1414922 0.9779813 0.1414922 0.9779813 0.1414922 0.0220187 -0.1414922
1171000000 0.0212287 -0.1387556 0.9787713 0.1387556 0.9787713 0.1387556 0.0212287 -0.1387556
1192000000 0.0204798 -0.1361039 0.9795202 0.1361039 0.9795202 0.1361039 0.0204798 -0.1361039
1213000000 0.0197692 -0.1335331 0.9802308 0.1335331 0.9802308 0.1335331 0.0197692 -0.1335331
1234000000 0.0190945 -0.1310394 0.9809055 0.1310394 0.9809055 0.1310394 0.0190945 -0.1310394
1255000000 0.0184533 -0.1286194 0.9815467 0.1286194 0.9815467 0.1286194 0.0184533 -0.1286194
1276000000 0.0178435 -0.1262697 0.9821565 0.1262697 0.9821565 0.1262697 0.0178435 -0.1262697
1297000000 0.0172633 -0.1239872 0.9827367 0.1239872 0.9827367 0.1239872 0.0172633 -0.1239872
1318000000 0.0167107 -0.1217688 0.9832893 0.1217688 0.9832893 0.1217688 0.0167107 -0.1217688
1339000000 0.0161841 -0.1196118 0.9838159 0.1196118 0.9838159 0.1196118 0.0161841 -0.1196118
1360000000 0.0156820 -0.1175136 0.9843180 0.1175136 0.9843180 0.1175136 0.0156820 -0.1175136
1381000000 0.0152028 -0.1154716 0.9847972 0.1154716 0.9847972 0.1154716 0.0152028 -0.1154716
1402000000 0.0147454 -0.1134836 0.9852546 0.1134836 0.9852546 0.1134836 0.0147454 -0.1134836
1423000000 0.0143085 -0.1115472 0.9856915 0.1115472 0.9856915 0.1115472 0.0143085 -0.1115472
1444000000 0.0138908 -0.1096605 0.9861092 0.1096605 0.9861092 0.1096605 0.0138908 -0.1096605
1465000000 0.0134914 -0.1078213 0.9865086 0.1078213 0.9865086 0.1078213 0.0134914 -0.1078213
1486000000 0.0131093 -0.1060278 0.9868907 0.1060278 0.9868907 0.1060278 0.0131093 -0.1060278
1507000000 0.0127434 -0.1042782 0.9872566 0.1042782 0.9872566 0.1042782 0.0127434 -0.1042782
1528000000 0.0123930 -0.1025709 0.9876070 0.1025709 0.9876070 0.1025709 0.0123930 -0.1025709
1549000000 0.0120572 -0.1009041 0.9879428 0.1009041 0.9879428 0.1009041 0.0120572 -0.1009041
1570000000 0.0117353 -0.0992763 0.9882647 0.0992763 0.9882647 0.0992763 0.0117353 -0.0992763
1591000000 0.0114265 -0.0976861 0.9885735 0.0976861 0.9885735 0.0976861 0.0114265 -0.0976861
1612000000 0.0111303 -0.0961321 0.9888697 0.0961321 0.9888697 0.0961321 0.0111303 -0.0961321
1633000000 0.0108459 -0.0946130 0.9891541 0.0946130 0.9891541 0.0946130 0.0108459 -0.0946130
1654000000 0.0105727 -0.0931275 0.9894273 0.0931275 0.9894273 0.0931275 0.0105727 -0.0931275
1675000000 0.0103103 -0.0916744 0.9896897 0.0916744 0.9896897 0.0916744 0.0103103 -0.0916744
1696000000 0.0100581 -0.0902525 0.9899419 0.0902525 0.9899419 0.0902525 0.0100581 -0.0902525
1717000000 0.0098156 -0.0888608 0.9901844 0.0888608 0.9901844 0.0888608 0.0098156 -0.0888608
1738000000 0.0095824 -0.0874982 0.9904176 0.0874982 0.9904176 0.0874982 0.0095824 -0.0874982
1759000000 0.0093580 -0.0861638 0.9906420 0.0861638 0.9906420 0.0861638 0.0093580 -0.0861638
1780000000 0.0091420 -0.0848565 0.9908580 0.0848565 0.9908580 0.0848565 0.0091420 -0.0848565
1801000000 0.0089341 -0.0835755 0.9910659 0.0835755 0.9910659 0.0835755 0.0089341 -0.0835755
1822000000 0.0087338 -0.0823199 0.9912662 0.0823199 0.9912662 0.0823199 0.0087338 -0.0823199
1843000000 0.0085409 -0.0810889 0.9914591 0.0810889 0.9914591 0.0810889 0.0085409 -0.0810889
1864000000 0.0083550 -0.0798816 0.9916450 0.0798816 0.9916450 0.0798816 0.0083550 -0.0798816
1885000000 0.0081758 -0.0786973 0.9918242 0.0786973 0.9918242 0.0786973 0.0081758 -0.0786973
1906000000 0.0080030 -0.0775353 0.9919970 0.0775353 0.9919970 0.0775353 0.0080030 -0.0775353
1927000000 0.0078363 -0.0763949 0.9921637 0.0763949 0.9921637 0.0763949 0.0078363 -0.0763949
1948000000 0.0076755 -0.0752754 0.9923245 0.0752754 0.9923245 0.0752754 0.0076755 -0.0752754
1969000000 0.0075203 -0.0741761 0.9924797 0.0741761 0.9924797 0.0741761 0.0075203 -0.0741761
1990000000 0.0073705 -0.0730965 0.9926295 0.0730965 0.9926295 0.0730965 0.0073705 -0.0730965
2011000000 0.0072259 -0.0720359 0.9927741 0.0720359 0.9927741 0.0720359 0.0072259 -0.0720359
2032000000 0.0070863 -0.0709938 0.9929137 0.0709938 0.9929137 0.0709938 0.0070863 -0.0709938
2053000000 0.0069514 -0.0699696 0.9930486 0.0699696 0.9930486 0.0699696 0.0069514 -0.0699696
2074000000 0.0068211 -0.0689629 0.9931789 0.0689629 0.9931789 0.0689629 0.0068211 -0.0689629
2095000000 0.0066952 -0.0679730 0.9933048 0.0679730 0.9933048 0.0679730 0.0066952 -0.0679730
2116000000 0.0065735 -0.0669995 0.9934265 0.0669995 0.9934265 0.0669995 0.0065735 -0.0669995
2137000000 0.0064559 -0.0660420 0.9935441 0.0660420 0.9935441 0.0660420 0.0064559 -0.0660420
2158000000 0.0063421 -0.0651000 0.9936579 0.0651000 0.9936579 0.0651000 0.0063421 -0.0651000
2179000000 0.0062322 -0.0641730 0.9937678 0.0641730 0.9937678 0.0641730 0.0062322 -0.0641730
2200000000 0.0061258 -0.0632606 0.9938742 0.0632606 0.9938742 0.0632606 0.0061258 -0.0632606
2221000000 0.0060229 -0.0623625 0.9939771 0.0623625 0.9939771 0.0623625 0.0060229 -0.0623625
2242000000 0.0059234 -0.0614782 0.9940766 0.0614782 0.9940766 0.0614782 0.0059234 -0.0614782
2263000000 0.0058270 -0.0606074 0.9941730 0.0606074 0.9941730 0.0606074 0.0058270 -0.0606074
2284000000 0.0057338 -0.0597497 0.9942662 0.0597497 0.9942662 0.0597497 0.0057338 -0.0597497
2305000000 0.0056436 -0.0589048 0.9943564 0.0589048 0.9943564 0.0589048 0.0056436 -0.0589048
2326000000 0.0055563 -0.0580723 0.9944437 0.0580723 0.9944437 0.0580723 0.0055563 -0.0580723
2347000000 0.0054717 -0.0572519 0.9945283 0.0572519 0.9945283 0.0572519 0.0054717 -0.0572519
2368000000 0.0053899 -0.0564432 0.9946101 0.0564432 0.9946101 0.0564432 0.0053899 -0.0564432
2389000000 0.0053106 -0.0556461 0.9946894 0.0556461 0.9946894 0.0556461 0.0053106 -0.0556461
2410000000 0.0052338 -0.0548601 0.9947662 0.0548601 0.9947662 0.0548601 0.0052338 -0.0548601
2431000000 0.0051595 -0.0540851 0.9948405 0.0540851 0.9948405 0.0540851 0.0051595 -0.0540851
2452000000 0.0050875 -0.0533206 0.9949125 0.0533206 0.9949125 0.0533206 0.0050875 -0.0533206
2473000000 0.0050178 -0.0525666 0.9949822 0.0525666 0.9949822 0.0525666 0.0050178 -0.0525666
2494000000 0.0049502 -0.0518226 0.9950498 0.0518226 0.9950498 0.0518226 0.0049502 -0.0518226
2515000000 0.0048848 -0.0510885 0.9951152 0.0510885 0.9951152 0.0510885 0.0048848 -0.0510885
2536000000 0.0048214 -0.0503641 0.9951786 0.0503641 0.9951786 0.0503641 0.0048214 -0.0503641
2557000000 0.0047599 -0.0496490 0.9952401 0.0496490 0.9952401 0.0496490 0.0047599 -0.0496490
2578000000 0.0047004 -0.0489431 0.9952996 0.0489431 0.9952996 0.0489431 0.0047004 -0.0489431
2599000000 0.0046428 -0.0482461 0.9953572 0.0482461 0.9953572 0.0482461 0.0046428 -0.0482461
2620000000 0.0045869 -0.0475579 0.9954131 0.0475579 0.9954131 0.0475579 0.0045869 -0.0475579
2641000000 0.0045328 -0.0468782 0.9954672 0.0468782 0.9954672 0.0468782 0.0045328 -0.0468782
2662000000 0.0044803 -0.0462069 0.9955197 0.0462069 0.9955197 0.0462069 0.0044803 -0.0462069
2683000000 0.0044295 -0.0455437 0.9955705 0.0455437 0.9955705 0.0455437 0.0044295 -0.0455437
2704000000 0.0043802 -0.0448884 0.9956198 0.0448884 0.9956198 0.0448884 0.0043802 -0.0448884
2725000000 0.0043325 -0.0442409 0.9956675 0.0442409 0.9956675 0.0442409 0.0043325 -0.0442409
2746000000 0.0042863 -0.0436010 0.9957137 0.0436010 0.9957137 0.0436010 0.0042863 -0.0436010
2767000000 0.0042415 -0.0429686 0.9957585 0.0429686 0.9957585 0.0429686 0.0042415 -0.0429686
2788000000 0.0041981 -0.0423434 0.9958019 0.0423434 0.9958019 0.0423434 0.0041981 -0.0423434
2809000000 0.0041561 -0.0417253 0.9958439 0.0417253 0.9958439 0.0417253 0.0041561 -0.0417253
2830000000 0.0041154 -0.0411142 0.9958846 0.0411142 0.9958846 0.0411142 0.0041154 -0.0411142
2851000000 0.0040760 -0.0405099 0.9959240 0.0405099 0.9959240 0.0405099 0.0040760 -0.0405099
2872000000 0.0040378 -0.0399122 0.9959622 0.0399122 0.9959622 0.0399122 0.0040378 -0.0399122
2893000000 0.0040009 -0.0393210 0.9959991 0.0393210 0.9959991 0.0393210 0.0040009 -0.0393210
2914000000 0.0039651 -0.0387362 0.9960349 0.0387362 0.9960349 0.0387362 0.0039651 -0.0387362
2935000000 0.0039304 -0.0381576 0.9960696 0.0381576 0.9960696 0.0381576 0.0039304 -0.0381576
2956000000 0.0038969 -0.0375852 0.9961031 0.0375852 0.9961031 0.0375852 0.0038969 -0.0375852
2977000000 0.0038644 -0.0370187 0.9961356 0.0370187 0.9961356 0.0370187 0.0038644 -0.0370187
2998000000 0.0038330 -0.0364580 0.9961670 0.0364580 0.9961670 0.0364580 0.0038330 -0.0364580
3019000000 0.0038026 -0.0359031 0.9961974 0.0359031 0.9961974 0.0359031 0.0038026 -0.0359031
3040000000 0.0037732 -0.0353538 0.9962268 0.0353538 0.9962268 0.0353538 0.0037732 -0.0353538
3061000000 0.0037448 -0.0348100 0.9962552 0.0348100 0.9962552 0.0348100 0.0037448 -0.0348100
3082000000 0.0037173 -0.0342716 0.9962827 0.0342716 0.9962827 0.0342716 0.0037173 -0.0342716
3103000000 0.0036907 -0.0337385 0.9963093 0.0337385 0.9963093 0.0337385 0.0036907 -0.0337385
3124000000 0.0036651 -0.0332106 0.9963349 0.0332106 0.9963349 0.0332106 0.0036651 -0.0332106
3145000000 0.0036403 -0.0326877 0.9963597 0.0326877 0.9963597 0.0326877 0.0036403 -0.0326877
3166000000 0.0036163 -0.0321698 0.9963837 0.0321698 0.9963837 0.0321698 0.0036163 -0.0321698
3187000000 0.0035932 -0.0316568 0.9964068 0.0316568 0.9964068 0.0316568 0.0035932 -0.0316568
3208000000 0.0035709 -0.0311485 0.9964291 0.0311485 0.9964291 0.0311485 0.0035709 -0.0311485
3229000000 0.0035494 -0.0306450 0.9964506 0.0306450 0.9964506 0.0306450 0.0035494 -0.0306450
3250000000 0.0035286 -0.0301460 0.9964714 0.0301460 0.9964714 0.0301460 0.0035286 -0.0301460
3271000000 0.0035086 -0.0296516 0.9964914 0.0296516 0.9964914 0.0296516 0.0035086 -0.0296516
3292000000 0.0034894 -0.0291616 0.9965106 0.0291616 0.9965106 0.0291616 0.0034894 -0.0291616
3313000000 0.0034708 -0.0286759 0.9965292 0.0286759 0.9965292 0.0286759 0.0034708 -0.0286759
3334000000 0.0034530 -0.0281945 0.9965470 0.0281945 0.9965470 0.0281945 0.0034530 -0.0281945
3355000000 0.0034358 -0.0277172 0.9965642 0.0277172 0.9965642 0.0277172 0.0034358 -0.0277172
3376000000 0.0034193 -0.0272441 0.9965807 0.0272441 0.9965807 0.0272441 0.0034193 -0.0272441
3397000000 0.0034034 -0.0267750 0.9965966 0.0267750 0.9965966 0.0267750 0.0034034 -0.0267750
3418000000 0.0033882 -0.0263099 0.9966118 0.0263099 0.9966118 0.0263099 0.0033882 -0.0263099
3439000000 0.0033736 -0.0258486 0.9966264 0.0258486 0.9966264 0.0258486 0.0033736 -0.0258486
3460000000 0.0033596 -0.0253912 0.9966404 0.0253912 0.9966404 0.0253912 0.0033596 -0.0253912
3481000000 0.0033463 -0.0249375 0.9966537 0.0249375 0.9966537 0.0249375 0.0033463 -0.0249375
3502000000 0.0033334 -0.0244874 0.9966666 0.0244874 0.9966666 0.0244874 0.0033334 -0.0244874
3523000000 0.0033212 -0.0240410 0.9966788 0.0240410 0.9966788 0.0240410 0.0033212 -0.0240410
3544000000 0.0033095 -0.0235982 0.9966905 0.0235982 0.9966905 0.0235982 0.0033095 -0.0235982
3565000000 0.0032984 -0.0231588 0.9967016 0.0231588 0.9967016 0.0231588 0.0032984 -0.0231588
3586000000 0.0032878 -0.0227228 0.9967122 0.0227228 0.9967122 0.0227228 0.0032878 -0.0227228
3607000000 0.0032777 -0.0222903 0.9967223 0.0222903 0.9967223 0.0222903 0.0032777 -0.0222903
3628000000 0.0032681 -0.0218610 0.9967319 0.0218610 0.9967319 0.0218610 0.0032681 -0.0218610
3649000000 0.0032591 -0.0214350 0.9967409 0.0214350 0.9967409 0.0214350 0.0032591 -0.0214350
3670000000 0.0032505 -0.0210121 0.9967495 0.0210121 0.9967495 0.0210121 0.0032505 -0.0210121
3691000000 0.0032424 -0.0205924 0.9967576 0.0205924 0.9967576 0.0205924 0.0032424 -0.0205924
3712000000 0.0032348 -0.0201759 0.9967652 0.0201759 0.9967652 0.0201759 0.0032348 -0.0201759
3733000000 0.0032277 -0.0197623 0.9967723 0.0197623 0.9967723 0.0197623 0.0032277 -0.0197623
3754000000 0.0032210 -0.0193517 0.9967790 0.0193517 0.9967790 0.0193517 0.0032210 -0.0193517
3775000000 0.0032147 -0.0189441 0.9967853 0.0189441 0.9967853 0.0189441 0.0032147 -0.0189441
3796000000 0.0032089 -0.0185394 0.9967911 0.0185394 0.9967911 0.0185394 0.0032089 -0.0185394
3817000000 0.0032035 -0.0181375 0.9967965 0.0181375 0.9967965 0.0181375 0.0032035 -0.0181375
3838000000 0.0031986 -0.0177384 0.9968014 0.0177384 0.9968014 0.0177384 0.0031986 -0.0177384
3859000000 0.0031940 -0.0173420 0.9968060 0.0173420 0.9968060 0.0173420 0.0031940 -0.0173420
3880000000 0.0031899 -0.0169484 0.9968101 0.0169484 0.9968101 0.0169484 0.0031899 -0.0169484
3901000000 0.0031862 -0.0165574 0.9968138 0.0165574 0.9968138 0.0165574 0.0031862 -0.0165574
3922000000 0.0031828 -0.0161690 0.9968172 0.0161690 0.9968172 0.0161690 0.0031828 -0.0161690
3943000000 0.0031799 -0.0157832 0.9968201 0.0157832 0.9968201 0.0157832 0.0031799 -0.0157832
3964000000 0.0031773 -0.0154000 0.9968227 0.0154000 0.9968227 0.0154000 0.0031773 -0.0154000
3985000000 0.0031751 -0.0150192 0.9968249 0.0150192 0.9968249 0.0150192 0.0031751 -0.0150192
4006000000 0.0031733 -0.0146409 0.9968267 0.0146409 0.9968267 0.0146409 0.0031733 -0.0146409
4027000000 0.0031719 -0.0142651 0.9968281 0.0142651 0.9968281 0.0142651 0.0031719 -0.0142651
4048000000 0.0031707 -0.0138916 0.9968293 0.0138916 0.9968293 0.0138916 0.0031707 -0.0138916
4069000000 0.0031700 -0.0135205 0.9968300 0.0135205 0.9968300 0.0135205 0.0031700 -0.0135205
4090000000 0.0031696 -0.0131516 0.9968304 0.0131516 0.9968304 0.0131516 0.0031696 -0.0131516
4111000000 0.0031695 -0.0127851 0.9968305 0.0127851 0.9968305 0.0127851 0.0031695 -0.0127851
4132000000 0.0031698 -0.0124208 0.9968302 0.0124208 0.9968302 0.0124208 0.0031698 -0.0124208
4153000000 0.0031704 -0.0120587 0.9968296 0.0120587 0.9968296 0.0120587 0.0031704 -0.0120587
4174000000 0.0031713 -0.0116988 0.9968287 0.0116988 0.9968287 0.0116988 0.0031713 -0.0116988
4195000000 0.0031726 -0.0113410 0.9968274 0.0113410 0.9968274 0.0113410 0.0031726 -0.0113410
4216000000 0.0031741 -0.0109854 0.9968259 0.0109854 0.9968259 0.0109854 0.0031741 -0.0109854
4237000000 0.0031760 -0.0106318 0.9968240 0.0106318 0.9968240 0.0106318 0.0031760 -0.0106318
4258000000 0.0031782 -0.0102803 0.9968218 0.0102803 0.9968218 0.0102803 0.0031782 -0.0102803
4279000000 0.0031807 -0.0099308 0.9968193 0.0099308 0.9968193 0.0099308 0.0031807 -0.0099308
4300000000 0.0031835 -0.0095832 0.9968165 0.0095832 0.9968165 0.0095832 0.0031835 -0.0095832
4321000000 0.0031865 -0.0092377 0.9968135 0.0092377 0.9968135 0.0092377 0.0031865 -0.0092377
4342000000 0.0031899 -0.0088941 0.9968101 0.0088941 0.9968101 0.0088941 0.0031899 -0.0088941
4363000000 0.0031936 -0.0085524 0.9968064 0.0085524 0.9968064 0.0085524 0.0031936 -0.0085524
4384000000 0.0031975 -0.0082126 0.9968025 0.0082126 0.9968025 0.0082126 0.0031975 -0.0082126
4405000000 0.0032017 -0.0078746 0.9967983 0.0078746 0.9967983 0.0078746 0.0032017 -0.0078746
4426000000 0.0032063 -0.0075385 0.9967937 0.0075385 0.9967937 0.0075385 0.0032063 -0.0075385
4447000000 0.0032110 -0.0072041 0.9967890 0.0072041 0.9967890 0.0072041 0.0032110 -0.0072041
4468000000 0.0032161 -0.0068716 0.9967839 0.0068716 0.9967839 0.0068716 0.0032161 -0.0068716
4489000000 0.0032214 -0.0065408 0.9967786 0.0065408 0.9967786 0.0065408 0.0032214 -0.0065408
4510000000 0.0032270 -0.0062117 0.9967730 0.0062117 0.9967730 0.0062117 0.0032270 -0.0062117
