!Murata Part Number: GRM0115C1C4R1CE01
!These Parameters are Measured in Series Mode Connection
!Data Generated on Mar 30, 2021
!       o--ll--o
!Port1            Port2
!       o------o
!Operation Temp=25[degC], DC Bias Voltage=0[V]
!Freq. Start=100[MHz] Stop=9[GHz] 401[Steps]
# Hz S RI R 50
!Freq.(Hz) S11(Real) S11(Imag) S21(Real) S21(Imag) S12(Real) S12(Imag) S22(Real) S22(Imag)
100000000 0.9376555 -0.2415689 0.0623445 0.2415689 0.0623445 0.2415689 0.9376555 -0.2415689
121000000 0.9112781 -0.2840860 0.0887219 0.2840860 0.0887219 0.2840860 0.9112781 -0.2840860
142000000 0.8817513 -0.3226017 0.1182487 0.3226017 0.1182487 0.3226017 0.8817513 -0.3226017
163000000 0.8498088 -0.3569132 0.1501912 0.3569132 0.1501912 0.3569132 0.8498088 -0.3569132
184000000 0.8161587 -0.3869641 0.1838413 0.3869641 0.1838413 0.3869641 0.8161587 -0.3869641
205000000 0.7814555 -0.4128228 0.2185445 0.4128228 0.2185445 0.4128228 0.7814555 -0.4128228
226000000 0.7462814 -0.4346569 0.2537186 0.4346569 0.2537186 0.4346569 0.7462814 -0.4346569
247000000 0.7111355 -0.4527074 0.2888645 0.4527074 0.2888645 0.4527074 0.7111355 -0.4527074
268000000 0.6764315 -0.4672640 0.3235685 0.4672640 0.3235685 0.4672640 0.6764315 -0.4672640
289000000 0.6424997 -0.4786438 0.3575003 0.4786438 0.3575003 0.4786438 0.6424997 -0.4786438
310000000 0.6095940 -0.4871745 0.3904060 0.4871745 0.3904060 0.4871745 0.6095940 -0.4871745
331000000 0.5779000 -0.4931804 0.4221000 0.4931804 0.4221000 0.4931804 0.5779000 -0.4931804
352000000 0.5475448 -0.4969729 0.4524552 0.4969729 0.4524552 0.4969729 0.5475448 -0.4969729
373000000 0.5186067 -0.4988443 0.4813933 0.4988443 0.4813933 0.4988443 0.5186067 -0.4988443
394000000 0.4911247 -0.4990635 0.5088753 0.4990635 0.5088753 0.4990635 0.4911247 -0.4990635
415000000 0.4651061 -0.4978744 0.5348939 0.4978744 0.5348939 0.4978744 0.4651061 -0.4978744
436000000 0.4405341 -0.4954954 0.5594659 0.4954954 0.5594659 0.4954954 0.4405341 -0.4954954
457000000 0.4173741 -0.4921202 0.5826259 0.4921202 0.5826259 0.4921202 0.4173741 -0.4921202
478000000 0.3955784 -0.4879188 0.6044216 0.4879188 0.6044216 0.4879188 0.3955784 -0.4879188
499000000 0.3750903 -0.4830397 0.6249097 0.4830397 0.6249097 0.4830397 0.3750903 -0.4830397
520000000 0.3558476 -0.4776116 0.6441524 0.4776116 0.6441524 0.4776116 0.3558476 -0.4776116
541000000 0.3377850 -0.4717452 0.6622150 0.4717452 0.6622150 0.4717452 0.3377850 -0.4717452
562000000 0.3208360 -0.4655359 0.6791640 0.4655359 0.6791640 0.4655359 0.3208360 -0.4655359
583000000 0.3049345 -0.4590646 0.6950655 0.4590646 0.6950655 0.4590646 0.3049345 -0.4590646
604000000 0.2900155 -0.4524006 0.7099845 0.4524006 0.7099845 0.4524006 0.2900155 -0.4524006
625000000 0.2760165 -0.4456022 0.7239835 0.4456022 0.7239835 0.4456022 0.2760165 -0.4456022
646000000 0.2628774 -0.4387187 0.7371226 0.4387187 0.7371226 0.4387187 0.2628774 -0.4387187
667000000 0.2505411 -0.4317914 0.7494589 0.4317914 0.7494589 0.4317914 0.2505411 -0.4317914
688000000 0.2389536 -0.4248550 0.7610464 0.4248550 0.7610464 0.4248550 0.2389536 -0.4248550
709000000 0.2280641 -0.4179379 0.7719359 0.4179379 0.7719359 0.4179379 0.2280641 -0.4179379
730000000 0.2178249 -0.4110640 0.7821751 0.4110640 0.7821751 0.4110640 0.2178249 -0.4110640
751000000 0.2081917 -0.4042527 0.7918083 0.4042527 0.7918083 0.4042527 0.2081917 -0.4042527
772000000 0.1991229 -0.3975198 0.8008771 0.3975198 0.8008771 0.3975198 0.1991229 -0.3975198
793000000 0.1905799 -0.3908780 0.8094201 0.3908780 0.8094201 0.3908780 0.1905799 -0.3908780
814000000 0.1825268 -0.3843373 0.8174732 0.3843373 0.8174732 0.3843373 0.1825268 -0.3843373
835000000 0.1749304 -0.3779057 0.8250696 0.3779057 0.8250696 0.3779057 0.1749304 -0.3779057
856000000 0.1677599 -0.3715891 0.8322401 0.3715891 0.8322401 0.3715891 0.1677599 -0.3715891
877000000 0.1609865 -0.3653921 0.8390135 0.3653921 0.8390135 0.3653921 0.1609865 -0.3653921
898000000 0.1545837 -0.3593177 0.8454163 0.3593177 0.8454163 0.3593177 0.1545837 -0.3593177
919000000 0.1485271 -0.3533679 0.8514729 0.3533679 0.8514729 0.3533679 0.1485271 -0.3533679
940000000 0.1427938 -0.3475438 0.8572062 0.3475438 0.8572062 0.3475438 0.1427938 -0.3475438
961000000 0.1373628 -0.3418456 0.8626372 0.3418456 0.8626372 0.3418456 0.1373628 -0.3418456
982000000 0.1322146 -0.3362731 0.8677854 0.3362731 0.8677854 0.3362731 0.1322146 -0.3362731
1003000000 0.1273310 -0.3308254 0.8726690 0.3308254 0.8726690 0.3308254 0.1273310 -0.3308254
1024000000 0.1226954 -0.3255012 0.8773046 0.3255012 0.8773046 0.3255012 0.1226954 -0.3255012
1045000000 0.1182921 -0.3202988 0.8817079 0.3202988 0.8817079 0.3202988 0.1182921 -0.3202988
1066000000 0.1141067 -0.3152163 0.8858933 0.3152163 0.8858933 0.3152163 0.1141067 -0.3152163
1087000000 0.1101258 -0.3102515 0.8898742 0.3102515 0.8898742 0.3102515 0.1101258 -0.3102515
1108000000 0.1063370 -0.3054022 0.8936630 0.3054022 0.8936630 0.3054022 0.1063370 -0.3054022
1129000000 0.1027287 -0.3006659 0.8972713 0.3006659 0.8972713 0.3006659 0.1027287 -0.3006659
1150000000 0.0992902 -0.2960401 0.9007098 0.2960401 0.9007098 0.2960401 0.0992902 -0.2960401
1171000000 0.0960115 -0.2915221 0.9039885 0.2915221 0.9039885 0.2915221 0.0960115 -0.2915221
1192000000 0.0928832 -0.2871093 0.9071168 0.2871093 0.9071168 0.2871093 0.0928832 -0.2871093
1213000000 0.0898967 -0.2827990 0.9101033 0.2827990 0.9101033 0.2827990 0.0898967 -0.2827990
1234000000 0.0870439 -0.2785885 0.9129561 0.2785885 0.9129561 0.2785885 0.0870439 -0.2785885
1255000000 0.0843173 -0.2744752 0.9156827 0.2744752 0.9156827 0.2744752 0.0843173 -0.2744752
1276000000 0.0817098 -0.2704564 0.9182902 0.2704564 0.9182902 0.2704564 0.0817098 -0.2704564
1297000000 0.0792149 -0.2665295 0.9207851 0.2665295 0.9207851 0.2665295 0.0792149 -0.2665295
1318000000 0.0768264 -0.2626919 0.9231736 0.2626919 0.9231736 0.2626919 0.0768264 -0.2626919
1339000000 0.0745385 -0.2589412 0.9254615 0.2589412 0.9254615 0.2589412 0.0745385 -0.2589412
1360000000 0.0723460 -0.2552747 0.9276540 0.2552747 0.9276540 0.2552747 0.0723460 -0.2552747
1381000000 0.0702437 -0.2516902 0.9297563 0.2516902 0.9297563 0.2516902 0.0702437 -0.2516902
1402000000 0.0682270 -0.2481852 0.9317730 0.2481852 0.9317730 0.2481852 0.0682270 -0.2481852
1423000000 0.0662915 -0.2447575 0.9337085 0.2447575 0.9337085 0.2447575 0.0662915 -0.2447575
1444000000 0.0644329 -0.2414047 0.9355671 0.2414047 0.9355671 0.2414047 0.0644329 -0.2414047
1465000000 0.0626475 -0.2381247 0.9373525 0.2381247 0.9373525 0.2381247 0.0626475 -0.2381247
1486000000 0.0609314 -0.2349154 0.9390686 0.2349154 0.9390686 0.2349154 0.0609314 -0.2349154
1507000000 0.0592814 -0.2317747 0.9407186 0.2317747 0.9407186 0.2317747 0.0592814 -0.2317747
1528000000 0.0576942 -0.2287006 0.9423058 0.2287006 0.9423058 0.2287006 0.0576942 -0.2287006
1549000000 0.0561667 -0.2256912 0.9438333 0.2256912 0.9438333 0.2256912 0.0561667 -0.2256912
1570000000 0.0546961 -0.2227445 0.9453039 0.2227445 0.9453039 0.2227445 0.0546961 -0.2227445
1591000000 0.0532796 -0.2198589 0.9467204 0.2198589 0.9467204 0.2198589 0.0532796 -0.2198589
1612000000 0.0519148 -0.2170324 0.9480852 0.2170324 0.9480852 0.2170324 0.0519148 -0.2170324
1633000000 0.0505991 -0.2142634 0.9494009 0.2142634 0.9494009 0.2142634 0.0505991 -0.2142634
1654000000 0.0493305 -0.2115502 0.9506695 0.2115502 0.9506695 0.2115502 0.0493305 -0.2115502
1675000000 0.0481067 -0.2088913 0.9518933 0.2088913 0.9518933 0.2088913 0.0481067 -0.2088913
1696000000 0.0469256 -0.2062851 0.9530744 0.2062851 0.9530744 0.2062851 0.0469256 -0.2062851
1717000000 0.0457855 -0.2037300 0.9542145 0.2037300 0.9542145 0.2037300 0.0457855 -0.2037300
1738000000 0.0446844 -0.2012248 0.9553156 0.2012248 0.9553156 0.2012248 0.0446844 -0.2012248
1759000000 0.0436207 -0.1987678 0.9563793 0.1987678 0.9563793 0.1987678 0.0436207 -0.1987678
1780000000 0.0425927 -0.1963578 0.9574073 0.1963578 0.9574073 0.1963578 0.0425927 -0.1963578
1801000000 0.0415990 -0.1939935 0.9584010 0.1939935 0.9584010 0.1939935 0.0415990 -0.1939935
1822000000 0.0406380 -0.1916737 0.9593620 0.1916737 0.9593620 0.1916737 0.0406380 -0.1916737
1843000000 0.0397084 -0.1893970 0.9602916 0.1893970 0.9602916 0.1893970 0.0397084 -0.1893970
1864000000 0.0388089 -0.1871623 0.9611911 0.1871623 0.9611911 0.1871623 0.0388089 -0.1871623
1885000000 0.0379382 -0.1849684 0.9620618 0.1849684 0.9620618 0.1849684 0.0379382 -0.1849684
1906000000 0.0370951 -0.1828143 0.9629049 0.1828143 0.9629049 0.1828143 0.0370951 -0.1828143
1927000000 0.0362786 -0.1806989 0.9637214 0.1806989 0.9637214 0.1806989 0.0362786 -0.1806989
1948000000 0.0354875 -0.1786211 0.9645125 0.1786211 0.9645125 0.1786211 0.0354875 -0.1786211
1969000000 0.0347208 -0.1765800 0.9652792 0.1765800 0.9652792 0.1765800 0.0347208 -0.1765800
1990000000 0.0339777 -0.1745745 0.9660223 0.1745745 0.9660223 0.1745745 0.0339777 -0.1745745
2011000000 0.0332571 -0.1726037 0.9667429 0.1726037 0.9667429 0.1726037 0.0332571 -0.1726037
2032000000 0.0325582 -0.1706668 0.9674418 0.1706668 0.9674418 0.1706668 0.0325582 -0.1706668
2053000000 0.0318801 -0.1687628 0.9681199 0.1687628 0.9681199 0.1687628 0.0318801 -0.1687628
2074000000 0.0312221 -0.1668909 0.9687779 0.1668909 0.9687779 0.1668909 0.0312221 -0.1668909
2095000000 0.0305835 -0.1650503 0.9694165 0.1650503 0.9694165 0.1650503 0.0305835 -0.1650503
2116000000 0.0299634 -0.1632401 0.9700366 0.1632401 0.9700366 0.1632401 0.0299634 -0.1632401
2137000000 0.0293611 -0.1614596 0.9706389 0.1614596 0.9706389 0.1614596 0.0293611 -0.1614596
2158000000 0.0287762 -0.1597081 0.9712238 0.1597081 0.9712238 0.1597081 0.0287762 -0.1597081
2179000000 0.0282078 -0.1579848 0.9717922 0.1579848 0.9717922 0.1579848 0.0282078 -0.1579848
2200000000 0.0276554 -0.1562890 0.9723446 0.1562890 0.9723446 0.1562890 0.0276554 -0.1562890
2221000000 0.0271185 -0.1546200 0.9728815 0.1546200 0.9728815 0.1546200 0.0271185 -0.1546200
2242000000 0.0265964 -0.1529773 0.9734036 0.1529773 0.9734036 0.1529773 0.0265964 -0.1529773
2263000000 0.0260887 -0.1513600 0.9739113 0.1513600 0.9739113 0.1513600 0.0260887 -0.1513600
2284000000 0.0255949 -0.1497677 0.9744051 0.1497677 0.9744051 0.1497677 0.0255949 -0.1497677
2305000000 0.0251144 -0.1481998 0.9748856 0.1481998 0.9748856 0.1481998 0.0251144 -0.1481998
2326000000 0.0246469 -0.1466555 0.9753531 0.1466555 0.9753531 0.1466555 0.0246469 -0.1466555
2347000000 0.0241918 -0.1451345 0.9758082 0.1451345 0.9758082 0.1451345 0.0241918 -0.1451345
2368000000 0.0237488 -0.1436361 0.9762512 0.1436361 0.9762512 0.1436361 0.0237488 -0.1436361
2389000000 0.0233174 -0.1421597 0.9766826 0.1421597 0.9766826 0.1421597 0.0233174 -0.1421597
2410000000 0.0228973 -0.1407050 0.9771027 0.1407050 0.9771027 0.1407050 0.0228973 -0.1407050
2431000000 0.0224881 -0.1392713 0.9775119 0.1392713 0.9775119 0.1392713 0.0224881 -0.1392713
2452000000 0.0220894 -0.1378583 0.9779106 0.1378583 0.9779106 0.1378583 0.0220894 -0.1378583
2473000000 0.0217009 -0.1364654 0.9782991 0.1364654 0.9782991 0.1364654 0.0217009 -0.1364654
2494000000 0.0213223 -0.1350921 0.9786777 0.1350921 0.9786777 0.1350921 0.0213223 -0.1350921
2515000000 0.0209532 -0.1337381 0.9790468 0.1337381 0.9790468 0.1337381 0.0209532 -0.1337381
2536000000 0.0205933 -0.1324029 0.9794067 0.1324029 0.9794067 0.1324029 0.0205933 -0.1324029
2557000000 0.0202424 -0.1310860 0.9797576 0.1310860 0.9797576 0.1310860 0.0202424 -0.1310860
2578000000 0.0199002 -0.1297871 0.9800998 0.1297871 0.9800998 0.1297871 0.0199002 -0.1297871
2599000000 0.0195664 -0.1285058 0.9804336 0.1285058 0.9804336 0.1285058 0.0195664 -0.1285058
2620000000 0.0192407 -0.1272417 0.9807593 0.1272417 0.9807593 0.1272417 0.0192407 -0.1272417
2641000000 0.0189229 -0.1259944 0.9810771 0.1259944 0.9810771 0.1259944 0.0189229 -0.1259944
2662000000 0.0186128 -0.1247635 0.9813872 0.1247635 0.9813872 0.1247635 0.0186128 -0.1247635
2683000000 0.0183100 -0.1235488 0.9816900 0.1235488 0.9816900 0.1235488 0.0183100 -0.1235488
2704000000 0.0180145 -0.1223498 0.9819855 0.1223498 0.9819855 0.1223498 0.0180145 -0.1223498
2725000000 0.0177260 -0.1211662 0.9822740 0.1211662 0.9822740 0.1211662 0.0177260 -0.1211662
2746000000 0.0174442 -0.1199977 0.9825558 0.1199977 0.9825558 0.1199977 0.0174442 -0.1199977
2767000000 0.0171691 -0.1188440 0.9828309 0.1188440 0.9828309 0.1188440 0.0171691 -0.1188440
2788000000 0.0169003 -0.1177048 0.9830997 0.1177048 0.9830997 0.1177048 0.0169003 -0.1177048
2809000000 0.0166377 -0.1165797 0.9833623 0.1165797 0.9833623 0.1165797 0.0166377 -0.1165797
2830000000 0.0163812 -0.1154685 0.9836188 0.1154685 0.9836188 0.1154685 0.0163812 -0.1154685
2851000000 0.0161305 -0.1143710 0.9838695 0.1143710 0.9838695 0.1143710 0.0161305 -0.1143710
2872000000 0.0158855 -0.1132867 0.9841145 0.1132867 0.9841145 0.1132867 0.0158855 -0.1132867
2893000000 0.0156461 -0.1122155 0.9843539 0.1122155 0.9843539 0.1122155 0.0156461 -0.1122155
2914000000 0.0154120 -0.1111571 0.9845880 0.1111571 0.9845880 0.1111571 0.0154120 -0.1111571
2935000000 0.0151831 -0.1101112 0.9848169 0.1101112 0.9848169 0.1101112 0.0151831 -0.1101112
2956000000 0.0149594 -0.1090776 0.9850406 0.1090776 0.9850406 0.1090776 0.0149594 -0.1090776
2977000000 0.0147406 -0.1080561 0.9852594 0.1080561 0.9852594 0.1080561 0.0147406 -0.1080561
2998000000 0.0145266 -0.1070463 0.9854734 0.1070463 0.9854734 0.1070463 0.0145266 -0.1070463
3019000000 0.0143172 -0.1060482 0.9856828 0.1060482 0.9856828 0.1060482 0.0143172 -0.1060482
3040000000 0.0141125 -0.1050614 0.9858875 0.1050614 0.9858875 0.1050614 0.0141125 -0.1050614
3061000000 0.0139122 -0.1040857 0.9860878 0.1040857 0.9860878 0.1040857 0.0139122 -0.1040857
3082000000 0.0137162 -0.1031210 0.9862838 0.1031210 0.9862838 0.1031210 0.0137162 -0.1031210
3103000000 0.0135244 -0.1021669 0.9864756 0.1021669 0.9864756 0.1021669 0.0135244 -0.1021669
3124000000 0.0133367 -0.1012234 0.9866633 0.1012234 0.9866633 0.1012234 0.0133367 -0.1012234
3145000000 0.0131530 -0.1002902 0.9868470 0.1002902 0.9868470 0.1002902 0.0131530 -0.1002902
3166000000 0.0129732 -0.0993671 0.9870268 0.0993671 0.9870268 0.0993671 0.0129732 -0.0993671
3187000000 0.0127971 -0.0984539 0.9872029 0.0984539 0.9872029 0.0984539 0.0127971 -0.0984539
3208000000 0.0126248 -0.0975505 0.9873752 0.0975505 0.9873752 0.0975505 0.0126248 -0.0975505
3229000000 0.0124561 -0.0966567 0.9875439 0.0966567 0.9875439 0.0966567 0.0124561 -0.0966567
3250000000 0.0122909 -0.0957722 0.9877091 0.0957722 0.9877091 0.0957722 0.0122909 -0.0957722
3271000000 0.0121291 -0.0948970 0.9878709 0.0948970 0.9878709 0.0948970 0.0121291 -0.0948970
3292000000 0.0119707 -0.0940308 0.9880293 0.0940308 0.9880293 0.0940308 0.0119707 -0.0940308
3313000000 0.0118155 -0.0931735 0.9881845 0.0931735 0.9881845 0.0931735 0.0118155 -0.0931735
3334000000 0.0116635 -0.0923250 0.9883365 0.0923250 0.9883365 0.0923250 0.0116635 -0.0923250
3355000000 0.0115146 -0.0914850 0.9884854 0.0914850 0.9884854 0.0914850 0.0115146 -0.0914850
3376000000 0.0113687 -0.0906534 0.9886313 0.0906534 0.9886313 0.0906534 0.0113687 -0.0906534
3397000000 0.0112258 -0.0898302 0.9887742 0.0898302 0.9887742 0.0898302 0.0112258 -0.0898302
3418000000 0.0110858 -0.0890150 0.9889142 0.0890150 0.9889142 0.0890150 0.0110858 -0.0890150
3439000000 0.0109486 -0.0882079 0.9890514 0.0882079 0.9890514 0.0882079 0.0109486 -0.0882079
3460000000 0.0108141 -0.0874086 0.9891859 0.0874086 0.9891859 0.0874086 0.0108141 -0.0874086
3481000000 0.0106824 -0.0866170 0.9893176 0.0866170 0.9893176 0.0866170 0.0106824 -0.0866170
3502000000 0.0105532 -0.0858330 0.9894468 0.0858330 0.9894468 0.0858330 0.0105532 -0.0858330
3523000000 0.0104267 -0.0850565 0.9895733 0.0850565 0.9895733 0.0850565 0.0104267 -0.0850565
3544000000 0.0103026 -0.0842873 0.9896974 0.0842873 0.9896974 0.0842873 0.0103026 -0.0842873
3565000000 0.0101810 -0.0835253 0.9898190 0.0835253 0.9898190 0.0835253 0.0101810 -0.0835253
3586000000 0.0100618 -0.0827704 0.9899382 0.0827704 0.9899382 0.0827704 0.0100618 -0.0827704
3607000000 0.0099449 -0.0820224 0.9900551 0.0820224 0.9900551 0.0820224 0.0099449 -0.0820224
3628000000 0.0098303 -0.0812813 0.9901697 0.0812813 0.9901697 0.0812813 0.0098303 -0.0812813
3649000000 0.0097180 -0.0805470 0.9902820 0.0805470 0.9902820 0.0805470 0.0097180 -0.0805470
3670000000 0.0096078 -0.0798192 0.9903922 0.0798192 0.9903922 0.0798192 0.0096078 -0.0798192
3691000000 0.0094998 -0.0790980 0.9905002 0.0790980 0.9905002 0.0790980 0.0094998 -0.0790980
3712000000 0.0093939 -0.0783832 0.9906061 0.0783832 0.9906061 0.0783832 0.0093939 -0.0783832
3733000000 0.0092900 -0.0776747 0.9907100 0.0776747 0.9907100 0.0776747 0.0092900 -0.0776747
3754000000 0.0091882 -0.0769725 0.9908118 0.0769725 0.9908118 0.0769725 0.0091882 -0.0769725
3775000000 0.0090883 -0.0762763 0.9909117 0.0762763 0.9909117 0.0762763 0.0090883 -0.0762763
3796000000 0.0089903 -0.0755861 0.9910097 0.0755861 0.9910097 0.0755861 0.0089903 -0.0755861
3817000000 0.0088942 -0.0749019 0.9911058 0.0749019 0.9911058 0.0749019 0.0088942 -0.0749019
3838000000 0.0088000 -0.0742234 0.9912000 0.0742234 0.9912000 0.0742234 0.0088000 -0.0742234
3859000000 0.0087076 -0.0735507 0.9912924 0.0735507 0.9912924 0.0735507 0.0087076 -0.0735507
3880000000 0.0086169 -0.0728837 0.9913831 0.0728837 0.9913831 0.0728837 0.0086169 -0.0728837
3901000000 0.0085280 -0.0722222 0.9914720 0.0722222 0.9914720 0.0722222 0.0085280 -0.0722222
3922000000 0.0084407 -0.0715661 0.9915593 0.0715661 0.9915593 0.0715661 0.0084407 -0.0715661
3943000000 0.0083551 -0.0709155 0.9916449 0.0709155 0.9916449 0.0709155 0.0083551 -0.0709155
3964000000 0.0082712 -0.0702701 0.9917288 0.0702701 0.9917288 0.0702701 0.0082712 -0.0702701
3985000000 0.0081888 -0.0696300 0.9918112 0.0696300 0.9918112 0.0696300 0.0081888 -0.0696300
4006000000 0.0081081 -0.0689950 0.9918919 0.0689950 0.9918919 0.0689950 0.0081081 -0.0689950
4027000000 0.0080288 -0.0683651 0.9919712 0.0683651 0.9919712 0.0683651 0.0080288 -0.0683651
4048000000 0.0079511 -0.0677401 0.9920489 0.0677401 0.9920489 0.0677401 0.0079511 -0.0677401
4069000000 0.0078748 -0.0671201 0.9921252 0.0671201 0.9921252 0.0671201 0.0078748 -0.0671201
4090000000 0.0078000 -0.0665049 0.9922000 0.0665049 0.9922000 0.0665049 0.0078000 -0.0665049
4111000000 0.0077266 -0.0658945 0.9922734 0.0658945 0.9922734 0.0658945 0.0077266 -0.0658945
4132000000 0.0076545 -0.0652888 0.9923455 0.0652888 0.9923455 0.0652888 0.0076545 -0.0652888
4153000000 0.0075839 -0.0646877 0.9924161 0.0646877 0.9924161 0.0646877 0.0075839 -0.0646877
4174000000 0.0075146 -0.0640911 0.9924854 0.0640911 0.9924854 0.0640911 0.0075146 -0.0640911
4195000000 0.0074466 -0.0634991 0.9925534 0.0634991 0.9925534 0.0634991 0.0074466 -0.0634991
4216000000 0.0073799 -0.0629115 0.9926201 0.0629115 0.9926201 0.0629115 0.0073799 -0.0629115
4237000000 0.0073144 -0.0623283 0.9926856 0.0623283 0.9926856 0.0623283 0.0073144 -0.0623283
4258000000 0.0072502 -0.0617493 0.9927498 0.0617493 0.9927498 0.0617493 0.0072502 -0.0617493
4279000000 0.0071872 -0.0611746 0.9928128 0.0611746 0.9928128 0.0611746 0.0071872 -0.0611746
4300000000 0.0071255 -0.0606041 0.9928745 0.0606041 0.9928745 0.0606041 0.0071255 -0.0606041
4321000000 0.0070648 -0.0600377 0.9929352 0.0600377 0.9929352 0.0600377 0.0070648 -0.0600377
4342000000 0.0070054 -0.0594754 0.9929946 0.0594754 0.9929946 0.0594754 0.0070054 -0.0594754
4363000000 0.0069471 -0.0589171 0.9930529 0.0589171 0.9930529 0.0589171 0.0069471 -0.0589171
4384000000 0.0068899 -0.0583627 0.9931101 0.0583627 0.9931101 0.0583627 0.0068899 -0.0583627
4405000000 0.0068337 -0.0578122 0.9931663 0.0578122 0.9931663 0.0578122 0.0068337 -0.0578122
4426000000 0.0067787 -0.0572656 0.9932213 0.0572656 0.9932213 0.0572656 0.0067787 -0.0572656
4447000000 0.0067247 -0.0567228 0.9932753 0.0567228 0.9932753 0.0567228 0.0067247 -0.0567228
4468000000 0.0066718 -0.0561837 0.9933282 0.0561837 0.9933282 0.0561837 0.0066718 -0.0561837
4489000000 0.0066199 -0.0556483 0.9933801 0.0556483 0.9933801 0.0556483 0.0066199 -0.0556483
4510000000 0.0065689 -0.0551165 0.9934311 0.0551165 0.9934311 0.0551165 0.0065689 -0.0551165
