!Murata Part Number: GRM0115C1C8R4CE01
!These Parameters are Measured in Series Mode Connection
!Data Generated on Mar 30, 2021
!       o--ll--o
!Port1            Port2
!       o------o
!Operation Temp=25[degC], DC Bias Voltage=0[V]
!Freq. Start=100[MHz] Stop=9[GHz] 401[Steps]
# Hz S RI R 50
!Freq.(Hz) S11(Real) S11(Imag) S21(Real) S21(Imag) S12(Real) S12(Imag) S22(Real) S22(Imag)
100000000 0.7818359 -0.4126677 0.2181641 0.4126677 0.2181641 0.4126677 0.7818359 -0.4126677
121000000 0.7099081 -0.4534027 0.2900919 0.4534027 0.2900919 0.4534027 0.7099081 -0.4534027
142000000 0.6398251 -0.4795788 0.3601749 0.4795788 0.3601749 0.4795788 0.6398251 -0.4795788
163000000 0.5740656 -0.4939410 0.4259344 0.4939410 0.4259344 0.4939410 0.5740656 -0.4939410
184000000 0.5139329 -0.4991920 0.4860671 0.4991920 0.4860671 0.4991920 0.5139329 -0.4991920
205000000 0.4598905 -0.4977034 0.5401095 0.4977034 0.5401095 0.4977034 0.4598905 -0.4977034
226000000 0.4118665 -0.4914142 0.5881335 0.4914142 0.5881335 0.4914142 0.4118665 -0.4914142
247000000 0.3694862 -0.4818364 0.6305138 0.4818364 0.6305138 0.4818364 0.3694862 -0.4818364
268000000 0.3322295 -0.4701108 0.6677705 0.4701108 0.6677705 0.4701108 0.3322295 -0.4701108
289000000 0.2995303 -0.4570769 0.7004697 0.4570769 0.7004697 0.4570769 0.2995303 -0.4570769
310000000 0.2708326 -0.4433405 0.7291674 0.4433405 0.7291674 0.4433405 0.2708326 -0.4433405
331000000 0.2456205 -0.4293306 0.7543795 0.4293306 0.7543795 0.4293306 0.2456205 -0.4293306
352000000 0.2234309 -0.4153457 0.7765691 0.4153457 0.7765691 0.4153457 0.2234309 -0.4153457
373000000 0.2038564 -0.4015884 0.7961436 0.4015884 0.7961436 0.4015884 0.2038564 -0.4015884
394000000 0.1865432 -0.3881926 0.8134568 0.3881926 0.8134568 0.3881926 0.1865432 -0.3881926
415000000 0.1711865 -0.3752426 0.8288135 0.3752426 0.8288135 0.3752426 0.1711865 -0.3752426
436000000 0.1575251 -0.3627875 0.8424749 0.3627875 0.8424749 0.3627875 0.1575251 -0.3627875
457000000 0.1453355 -0.3508519 0.8546645 0.3508519 0.8546645 0.3508519 0.1453355 -0.3508519
478000000 0.1344265 -0.3394430 0.8655735 0.3394430 0.8655735 0.3394430 0.1344265 -0.3394430
499000000 0.1246349 -0.3285564 0.8753651 0.3285564 0.8753651 0.3285564 0.1246349 -0.3285564
520000000 0.1158208 -0.3181798 0.8841792 0.3181798 0.8841792 0.3181798 0.1158208 -0.3181798
541000000 0.1078643 -0.3082958 0.8921357 0.3082958 0.8921357 0.3082958 0.1078643 -0.3082958
562000000 0.1006625 -0.2988839 0.8993375 0.2988839 0.8993375 0.2988839 0.1006625 -0.2988839
583000000 0.0941265 -0.2899220 0.9058735 0.2899220 0.9058735 0.2899220 0.0941265 -0.2899220
604000000 0.0881798 -0.2813873 0.9118202 0.2813873 0.9118202 0.2813873 0.0881798 -0.2813873
625000000 0.0827561 -0.2732567 0.9172439 0.2732567 0.9172439 0.2732567 0.0827561 -0.2732567
646000000 0.0777977 -0.2655078 0.9222023 0.2655078 0.9222023 0.2655078 0.0777977 -0.2655078
667000000 0.0732546 -0.2581187 0.9267454 0.2581187 0.9267454 0.2581187 0.0732546 -0.2581187
688000000 0.0690829 -0.2510687 0.9309171 0.2510687 0.9309171 0.2510687 0.0690829 -0.2510687
709000000 0.0652444 -0.2443377 0.9347556 0.2443377 0.9347556 0.2443377 0.0652444 -0.2443377
730000000 0.0617055 -0.2379072 0.9382945 0.2379072 0.9382945 0.2379072 0.0617055 -0.2379072
751000000 0.0584365 -0.2317592 0.9415635 0.2317592 0.9415635 0.2317592 0.0584365 -0.2317592
772000000 0.0554114 -0.2258772 0.9445886 0.2258772 0.9445886 0.2258772 0.0554114 -0.2258772
793000000 0.0526071 -0.2202455 0.9473929 0.2202455 0.9473929 0.2202455 0.0526071 -0.2202455
814000000 0.0500031 -0.2148497 0.9499969 0.2148497 0.9499969 0.2148497 0.0500031 -0.2148497
835000000 0.0475812 -0.2096759 0.9524188 0.2096759 0.9524188 0.2096759 0.0475812 -0.2096759
856000000 0.0453252 -0.2047116 0.9546748 0.2047116 0.9546748 0.2047116 0.0453252 -0.2047116
877000000 0.0432206 -0.1999447 0.9567794 0.1999447 0.9567794 0.1999447 0.0432206 -0.1999447
898000000 0.0412545 -0.1953643 0.9587455 0.1953643 0.9587455 0.1953643 0.0412545 -0.1953643
919000000 0.0394152 -0.1909598 0.9605848 0.1909598 0.9605848 0.1909598 0.0394152 -0.1909598
940000000 0.0376924 -0.1867217 0.9623076 0.1867217 0.9623076 0.1867217 0.0376924 -0.1867217
961000000 0.0360765 -0.1826408 0.9639235 0.1826408 0.9639235 0.1826408 0.0360765 -0.1826408
982000000 0.0345591 -0.1787088 0.9654409 0.1787088 0.9654409 0.1787088 0.0345591 -0.1787088
1003000000 0.0331325 -0.1749178 0.9668675 0.1749178 0.9668675 0.1749178 0.0331325 -0.1749178
1024000000 0.0317899 -0.1712604 0.9682101 0.1712604 0.9682101 0.1712604 0.0317899 -0.1712604
1045000000 0.0305248 -0.1677296 0.9694752 0.1677296 0.9694752 0.1677296 0.0305248 -0.1677296
1066000000 0.0293316 -0.1643191 0.9706684 0.1643191 0.9706684 0.1643191 0.0293316 -0.1643191
1087000000 0.0282050 -0.1610228 0.9717950 0.1610228 0.9717950 0.1610228 0.0282050 -0.1610228
1108000000 0.0271403 -0.1578350 0.9728597 0.1578350 0.9728597 0.1578350 0.0271403 -0.1578350
1129000000 0.0261331 -0.1547503 0.9738669 0.1547503 0.9738669 0.1547503 0.0261331 -0.1547503
1150000000 0.0251796 -0.1517639 0.9748204 0.1517639 0.9748204 0.1517639 0.0251796 -0.1517639
1171000000 0.0242760 -0.1488710 0.9757240 0.1488710 0.9757240 0.1488710 0.0242760 -0.1488710
1192000000 0.0234189 -0.1460672 0.9765811 0.1460672 0.9765811 0.1460672 0.0234189 -0.1460672
1213000000 0.0226055 -0.1433484 0.9773945 0.1433484 0.9773945 0.1433484 0.0226055 -0.1433484
1234000000 0.0218327 -0.1407107 0.9781673 0.1407107 0.9781673 0.1407107 0.0218327 -0.1407107
1255000000 0.0210981 -0.1381504 0.9789019 0.1381504 0.9789019 0.1381504 0.0210981 -0.1381504
1276000000 0.0203992 -0.1356641 0.9796008 0.1356641 0.9796008 0.1356641 0.0203992 -0.1356641
1297000000 0.0197338 -0.1332484 0.9802662 0.1332484 0.9802662 0.1332484 0.0197338 -0.1332484
1318000000 0.0190999 -0.1309003 0.9809001 0.1309003 0.9809001 0.1309003 0.0190999 -0.1309003
1339000000 0.0184956 -0.1286170 0.9815044 0.1286170 0.9815044 0.1286170 0.0184956 -0.1286170
1360000000 0.0179191 -0.1263956 0.9820809 0.1263956 0.9820809 0.1263956 0.0179191 -0.1263956
1381000000 0.0173689 -0.1242336 0.9826311 0.1242336 0.9826311 0.1242336 0.0173689 -0.1242336
1402000000 0.0168433 -0.1221284 0.9831567 0.1221284 0.9831567 0.1221284 0.0168433 -0.1221284
1423000000 0.0163411 -0.1200779 0.9836589 0.1200779 0.9836589 0.1200779 0.0163411 -0.1200779
1444000000 0.0158608 -0.1180797 0.9841392 0.1180797 0.9841392 0.1180797 0.0158608 -0.1180797
1465000000 0.0154013 -0.1161319 0.9845987 0.1161319 0.9845987 0.1161319 0.0154013 -0.1161319
1486000000 0.0149615 -0.1142323 0.9850385 0.1142323 0.9850385 0.1142323 0.0149615 -0.1142323
1507000000 0.0145403 -0.1123792 0.9854597 0.1123792 0.9854597 0.1123792 0.0145403 -0.1123792
1528000000 0.0141367 -0.1105707 0.9858633 0.1105707 0.9858633 0.1105707 0.0141367 -0.1105707
1549000000 0.0137497 -0.1088051 0.9862503 0.1088051 0.9862503 0.1088051 0.0137497 -0.1088051
1570000000 0.0133786 -0.1070809 0.9866214 0.1070809 0.9866214 0.1070809 0.0133786 -0.1070809
1591000000 0.0130225 -0.1053964 0.9869775 0.1053964 0.9869775 0.1053964 0.0130225 -0.1053964
1612000000 0.0126806 -0.1037503 0.9873194 0.1037503 0.9873194 0.1037503 0.0126806 -0.1037503
1633000000 0.0123523 -0.1021412 0.9876477 0.1021412 0.9876477 0.1021412 0.0123523 -0.1021412
1654000000 0.0120368 -0.1005676 0.9879632 0.1005676 0.9879632 0.1005676 0.0120368 -0.1005676
1675000000 0.0117336 -0.0990284 0.9882664 0.0990284 0.9882664 0.0990284 0.0117336 -0.0990284
1696000000 0.0114421 -0.0975224 0.9885579 0.0975224 0.9885579 0.0975224 0.0114421 -0.0975224
1717000000 0.0111616 -0.0960483 0.9888384 0.0960483 0.9888384 0.0960483 0.0111616 -0.0960483
1738000000 0.0108917 -0.0946051 0.9891083 0.0946051 0.9891083 0.0946051 0.0108917 -0.0946051
1759000000 0.0106319 -0.0931918 0.9893681 0.0931918 0.9893681 0.0931918 0.0106319 -0.0931918
1780000000 0.0103817 -0.0918073 0.9896183 0.0918073 0.9896183 0.0918073 0.0103817 -0.0918073
1801000000 0.0101408 -0.0904507 0.9898592 0.0904507 0.9898592 0.0904507 0.0101408 -0.0904507
1822000000 0.0099085 -0.0891210 0.9900915 0.0891210 0.9900915 0.0891210 0.0099085 -0.0891210
1843000000 0.0096847 -0.0878175 0.9903153 0.0878175 0.9903153 0.0878175 0.0096847 -0.0878175
1864000000 0.0094689 -0.0865392 0.9905311 0.0865392 0.9905311 0.0865392 0.0094689 -0.0865392
1885000000 0.0092607 -0.0852853 0.9907393 0.0852853 0.9907393 0.0852853 0.0092607 -0.0852853
1906000000 0.0090599 -0.0840551 0.9909401 0.0840551 0.9909401 0.0840551 0.0090599 -0.0840551
1927000000 0.0088660 -0.0828478 0.9911340 0.0828478 0.9911340 0.0828478 0.0088660 -0.0828478
1948000000 0.0086789 -0.0816627 0.9913211 0.0816627 0.9913211 0.0816627 0.0086789 -0.0816627
1969000000 0.0084983 -0.0804991 0.9915017 0.0804991 0.9915017 0.0804991 0.0084983 -0.0804991
1990000000 0.0083238 -0.0793565 0.9916762 0.0793565 0.9916762 0.0793565 0.0083238 -0.0793565
2011000000 0.0081553 -0.0782341 0.9918447 0.0782341 0.9918447 0.0782341 0.0081553 -0.0782341
2032000000 0.0079924 -0.0771313 0.9920076 0.0771313 0.9920076 0.0771313 0.0079924 -0.0771313
2053000000 0.0078350 -0.0760476 0.9921650 0.0760476 0.9921650 0.0760476 0.0078350 -0.0760476
2074000000 0.0076828 -0.0749824 0.9923172 0.0749824 0.9923172 0.0749824 0.0076828 -0.0749824
2095000000 0.0075356 -0.0739352 0.9924644 0.0739352 0.9924644 0.0739352 0.0075356 -0.0739352
2116000000 0.0073933 -0.0729054 0.9926067 0.0729054 0.9926067 0.0729054 0.0073933 -0.0729054
2137000000 0.0072556 -0.0718926 0.9927444 0.0718926 0.9927444 0.0718926 0.0072556 -0.0718926
2158000000 0.0071224 -0.0708963 0.9928776 0.0708963 0.9928776 0.0708963 0.0071224 -0.0708963
2179000000 0.0069935 -0.0699160 0.9930065 0.0699160 0.9930065 0.0699160 0.0069935 -0.0699160
2200000000 0.0068688 -0.0689513 0.9931312 0.0689513 0.9931312 0.0689513 0.0068688 -0.0689513
2221000000 0.0067480 -0.0680017 0.9932520 0.0680017 0.9932520 0.0680017 0.0067480 -0.0680017
2242000000 0.0066310 -0.0670669 0.9933690 0.0670669 0.9933690 0.0670669 0.0066310 -0.0670669
2263000000 0.0065178 -0.0661464 0.9934822 0.0661464 0.9934822 0.0661464 0.0065178 -0.0661464
2284000000 0.0064081 -0.0652399 0.9935919 0.0652399 0.9935919 0.0652399 0.0064081 -0.0652399
2305000000 0.0063018 -0.0643469 0.9936982 0.0643469 0.9936982 0.0643469 0.0063018 -0.0643469
2326000000 0.0061989 -0.0634672 0.9938011 0.0634672 0.9938011 0.0634672 0.0061989 -0.0634672
2347000000 0.0060992 -0.0626004 0.9939008 0.0626004 0.9939008 0.0626004 0.0060992 -0.0626004
2368000000 0.0060025 -0.0617461 0.9939975 0.0617461 0.9939975 0.0617461 0.0060025 -0.0617461
2389000000 0.0059088 -0.0609041 0.9940912 0.0609041 0.9940912 0.0609041 0.0059088 -0.0609041
2410000000 0.0058180 -0.0600739 0.9941820 0.0600739 0.9941820 0.0600739 0.0058180 -0.0600739
2431000000 0.0057300 -0.0592554 0.9942700 0.0592554 0.9942700 0.0592554 0.0057300 -0.0592554
2452000000 0.0056446 -0.0584482 0.9943554 0.0584482 0.9943554 0.0584482 0.0056446 -0.0584482
2473000000 0.0055619 -0.0576521 0.9944381 0.0576521 0.9944381 0.0576521 0.0055619 -0.0576521
2494000000 0.0054816 -0.0568667 0.9945184 0.0568667 0.9945184 0.0568667 0.0054816 -0.0568667
2515000000 0.0054038 -0.0560919 0.9945962 0.0560919 0.9945962 0.0560919 0.0054038 -0.0560919
2536000000 0.0053284 -0.0553273 0.9946716 0.0553273 0.9946716 0.0553273 0.0053284 -0.0553273
2557000000 0.0052552 -0.0545727 0.9947448 0.0545727 0.9947448 0.0545727 0.0052552 -0.0545727
2578000000 0.0051842 -0.0538279 0.9948158 0.0538279 0.9948158 0.0538279 0.0051842 -0.0538279
2599000000 0.0051153 -0.0530926 0.9948847 0.0530926 0.9948847 0.0530926 0.0051153 -0.0530926
2620000000 0.0050485 -0.0523667 0.9949515 0.0523667 0.9949515 0.0523667 0.0050485 -0.0523667
2641000000 0.0049836 -0.0516498 0.9950164 0.0516498 0.9950164 0.0516498 0.0049836 -0.0516498
2662000000 0.0049208 -0.0509418 0.9950792 0.0509418 0.9950792 0.0509418 0.0049208 -0.0509418
2683000000 0.0048597 -0.0502425 0.9951403 0.0502425 0.9951403 0.0502425 0.0048597 -0.0502425
2704000000 0.0048006 -0.0495517 0.9951994 0.0495517 0.9951994 0.0495517 0.0048006 -0.0495517
2725000000 0.0047431 -0.0488692 0.9952569 0.0488692 0.9952569 0.0488692 0.0047431 -0.0488692
2746000000 0.0046874 -0.0481947 0.9953126 0.0481947 0.9953126 0.0481947 0.0046874 -0.0481947
2767000000 0.0046333 -0.0475283 0.9953667 0.0475283 0.9953667 0.0475283 0.0046333 -0.0475283
2788000000 0.0045809 -0.0468695 0.9954191 0.0468695 0.9954191 0.0468695 0.0045809 -0.0468695
2809000000 0.0045300 -0.0462183 0.9954700 0.0462183 0.9954700 0.0462183 0.0045300 -0.0462183
2830000000 0.0044806 -0.0455746 0.9955194 0.0455746 0.9955194 0.0455746 0.0044806 -0.0455746
2851000000 0.0044328 -0.0449381 0.9955672 0.0449381 0.9955672 0.0449381 0.0044328 -0.0449381
2872000000 0.0043863 -0.0443087 0.9956137 0.0443087 0.9956137 0.0443087 0.0043863 -0.0443087
2893000000 0.0043412 -0.0436862 0.9956588 0.0436862 0.9956588 0.0436862 0.0043412 -0.0436862
2914000000 0.0042975 -0.0430705 0.9957025 0.0430705 0.9957025 0.0430705 0.0042975 -0.0430705
2935000000 0.0042551 -0.0424615 0.9957449 0.0424615 0.9957449 0.0424615 0.0042551 -0.0424615
2956000000 0.0042140 -0.0418590 0.9957860 0.0418590 0.9957860 0.0418590 0.0042140 -0.0418590
2977000000 0.0041741 -0.0412628 0.9958259 0.0412628 0.9958259 0.0412628 0.0041741 -0.0412628
2998000000 0.0041354 -0.0406729 0.9958646 0.0406729 0.9958646 0.0406729 0.0041354 -0.0406729
3019000000 0.0040980 -0.0400891 0.9959020 0.0400891 0.9959020 0.0400891 0.0040980 -0.0400891
3040000000 0.0040616 -0.0395113 0.9959384 0.0395113 0.9959384 0.0395113 0.0040616 -0.0395113
3061000000 0.0040264 -0.0389394 0.9959736 0.0389394 0.9959736 0.0389394 0.0040264 -0.0389394
3082000000 0.0039923 -0.0383732 0.9960077 0.0383732 0.9960077 0.0383732 0.0039923 -0.0383732
3103000000 0.0039592 -0.0378127 0.9960408 0.0378127 0.9960408 0.0378127 0.0039592 -0.0378127
3124000000 0.0039271 -0.0372577 0.9960729 0.0372577 0.9960729 0.0372577 0.0039271 -0.0372577
3145000000 0.0038961 -0.0367081 0.9961039 0.0367081 0.9961039 0.0367081 0.0038961 -0.0367081
3166000000 0.0038660 -0.0361638 0.9961340 0.0361638 0.9961340 0.0361638 0.0038660 -0.0361638
3187000000 0.0038369 -0.0356247 0.9961631 0.0356247 0.9961631 0.0356247 0.0038369 -0.0356247
3208000000 0.0038088 -0.0350907 0.9961912 0.0350907 0.9961912 0.0350907 0.0038088 -0.0350907
3229000000 0.0037815 -0.0345617 0.9962185 0.0345617 0.9962185 0.0345617 0.0037815 -0.0345617
3250000000 0.0037552 -0.0340376 0.9962448 0.0340376 0.9962448 0.0340376 0.0037552 -0.0340376
3271000000 0.0037297 -0.0335184 0.9962703 0.0335184 0.9962703 0.0335184 0.0037297 -0.0335184
3292000000 0.0037050 -0.0330038 0.9962950 0.0330038 0.9962950 0.0330038 0.0037050 -0.0330038
3313000000 0.0036812 -0.0324939 0.9963188 0.0324939 0.9963188 0.0324939 0.0036812 -0.0324939
3334000000 0.0036581 -0.0319885 0.9963419 0.0319885 0.9963419 0.0319885 0.0036581 -0.0319885
3355000000 0.0036359 -0.0314876 0.9963641 0.0314876 0.9963641 0.0314876 0.0036359 -0.0314876
3376000000 0.0036144 -0.0309911 0.9963856 0.0309911 0.9963856 0.0309911 0.0036144 -0.0309911
3397000000 0.0035937 -0.0304989 0.9964063 0.0304989 0.9964063 0.0304989 0.0035937 -0.0304989
3418000000 0.0035738 -0.0300109 0.9964262 0.0300109 0.9964262 0.0300109 0.0035738 -0.0300109
3439000000 0.0035545 -0.0295270 0.9964455 0.0295270 0.9964455 0.0295270 0.0035545 -0.0295270
3460000000 0.0035359 -0.0290473 0.9964641 0.0290473 0.9964641 0.0290473 0.0035359 -0.0290473
3481000000 0.0035181 -0.0285715 0.9964819 0.0285715 0.9964819 0.0285715 0.0035181 -0.0285715
3502000000 0.0035009 -0.0280996 0.9964991 0.0280996 0.9964991 0.0280996 0.0035009 -0.0280996
3523000000 0.0034844 -0.0276316 0.9965156 0.0276316 0.9965156 0.0276316 0.0034844 -0.0276316
3544000000 0.0034685 -0.0271674 0.9965315 0.0271674 0.9965315 0.0271674 0.0034685 -0.0271674
3565000000 0.0034532 -0.0267069 0.9965468 0.0267069 0.9965468 0.0267069 0.0034532 -0.0267069
3586000000 0.0034386 -0.0262500 0.9965614 0.0262500 0.9965614 0.0262500 0.0034386 -0.0262500
3607000000 0.0034245 -0.0257968 0.9965755 0.0257968 0.9965755 0.0257968 0.0034245 -0.0257968
3628000000 0.0034111 -0.0253471 0.9965889 0.0253471 0.9965889 0.0253471 0.0034111 -0.0253471
3649000000 0.0033983 -0.0249008 0.9966017 0.0249008 0.9966017 0.0249008 0.0033983 -0.0249008
3670000000 0.0033860 -0.0244580 0.9966140 0.0244580 0.9966140 0.0244580 0.0033860 -0.0244580
3691000000 0.0033743 -0.0240185 0.9966257 0.0240185 0.9966257 0.0240185 0.0033743 -0.0240185
3712000000 0.0033631 -0.0235823 0.9966369 0.0235823 0.9966369 0.0235823 0.0033631 -0.0235823
3733000000 0.0033524 -0.0231494 0.9966476 0.0231494 0.9966476 0.0231494 0.0033524 -0.0231494
3754000000 0.0033423 -0.0227196 0.9966577 0.0227196 0.9966577 0.0227196 0.0033423 -0.0227196
3775000000 0.0033327 -0.0222930 0.9966673 0.0222930 0.9966673 0.0222930 0.0033327 -0.0222930
3796000000 0.0033237 -0.0218694 0.9966763 0.0218694 0.9966763 0.0218694 0.0033237 -0.0218694
3817000000 0.0033151 -0.0214489 0.9966849 0.0214489 0.9966849 0.0214489 0.0033151 -0.0214489
3838000000 0.0033070 -0.0210314 0.9966930 0.0210314 0.9966930 0.0210314 0.0033070 -0.0210314
3859000000 0.0032994 -0.0206168 0.9967006 0.0206168 0.9967006 0.0206168 0.0032994 -0.0206168
3880000000 0.0032923 -0.0202051 0.9967077 0.0202051 0.9967077 0.0202051 0.0032923 -0.0202051
3901000000 0.0032856 -0.0197963 0.9967144 0.0197963 0.9967144 0.0197963 0.0032856 -0.0197963
3922000000 0.0032794 -0.0193902 0.9967206 0.0193902 0.9967206 0.0193902 0.0032794 -0.0193902
3943000000 0.0032736 -0.0189869 0.9967264 0.0189869 0.9967264 0.0189869 0.0032736 -0.0189869
3964000000 0.0032683 -0.0185863 0.9967317 0.0185863 0.9967317 0.0185863 0.0032683 -0.0185863
3985000000 0.0032635 -0.0181883 0.9967365 0.0181883 0.9967365 0.0181883 0.0032635 -0.0181883
4006000000 0.0032590 -0.0177930 0.9967410 0.0177930 0.9967410 0.0177930 0.0032590 -0.0177930
4027000000 0.0032550 -0.0174003 0.9967450 0.0174003 0.9967450 0.0174003 0.0032550 -0.0174003
4048000000 0.0032514 -0.0170101 0.9967486 0.0170101 0.9967486 0.0170101 0.0032514 -0.0170101
4069000000 0.0032482 -0.0166224 0.9967518 0.0166224 0.9967518 0.0166224 0.0032482 -0.0166224
4090000000 0.0032454 -0.0162372 0.9967546 0.0162372 0.9967546 0.0162372 0.0032454 -0.0162372
4111000000 0.0032430 -0.0158544 0.9967570 0.0158544 0.9967570 0.0158544 0.0032430 -0.0158544
4132000000 0.0032410 -0.0154740 0.9967590 0.0154740 0.9967590 0.0154740 0.0032410 -0.0154740
4153000000 0.0032394 -0.0150960 0.9967606 0.0150960 0.9967606 0.0150960 0.0032394 -0.0150960
4174000000 0.0032382 -0.0147203 0.9967618 0.0147203 0.9967618 0.0147203 0.0032382 -0.0147203
4195000000 0.0032373 -0.0143469 0.9967627 0.0143469 0.9967627 0.0143469 0.0032373 -0.0143469
4216000000 0.0032368 -0.0139757 0.9967632 0.0139757 0.9967632 0.0139757 0.0032368 -0.0139757
4237000000 0.0032367 -0.0136068 0.9967633 0.0136068 0.9967633 0.0136068 0.0032367 -0.0136068
4258000000 0.0032369 -0.0132400 0.9967631 0.0132400 0.9967631 0.0132400 0.0032369 -0.0132400
4279000000 0.0032375 -0.0128754 0.9967625 0.0128754 0.9967625 0.0128754 0.0032375 -0.0128754
4300000000 0.0032385 -0.0125129 0.9967615 0.0125129 0.9967615 0.0125129 0.0032385 -0.0125129
4321000000 0.0032398 -0.0121525 0.9967602 0.0121525 0.9967602 0.0121525 0.0032398 -0.0121525
4342000000 0.0032414 -0.0117942 0.9967586 0.0117942 0.9967586 0.0117942 0.0032414 -0.0117942
4363000000 0.0032434 -0.0114379 0.9967566 0.0114379 0.9967566 0.0114379 0.0032434 -0.0114379
4384000000 0.0032457 -0.0110836 0.9967543 0.0110836 0.9967543 0.0110836 0.0032457 -0.0110836
4405000000 0.0032484 -0.0107313 0.9967516 0.0107313 0.9967516 0.0107313 0.0032484 -0.0107313
4426000000 0.0032513 -0.0103810 0.9967487 0.0103810 0.9967487 0.0103810 0.0032513 -0.0103810
4447000000 0.0032546 -0.0100326 0.9967454 0.0100326 0.9967454 0.0100326 0.0032546 -0.0100326
4468000000 0.0032582 -0.0096861 0.9967418 0.0096861 0.9967418 0.0096861 0.0032582 -0.0096861
4489000000 0.0032622 -0.0093414 0.9967378 0.0093414 0.9967378 0.0093414 0.0032622 -0.0093414
4510000000 0.0032664 -0.0089986 0.9967336 0.0089986 0.9967336 0.0089986 0.0032664 -0.0089986
