!Murata Part Number: GRM0115C1C680GE01
!These Parameters are Measured in Series Mode Connection
!Data Generated on Mar 30, 2021
!       o--ll--o
!Port1            Port2
!       o------o
!Operation Temp=25[degC], DC Bias Voltage=0[V]
!Freq. Start=100[MHz] Stop=9[GHz] 401[Steps]
# Hz S RI R 50
!Freq.(Hz) S11(Real) S11(Imag) S21(Real) S21(Imag) S12(Real) S12(Imag) S22(Real) S22(Imag)
100000000 0.0523837 -0.2208781 0.9476163 0.2208781 0.9476163 0.2208781 0.0523837 -0.2208781
121000000 0.0365457 -0.1853165 0.9634543 0.1853165 0.9634543 0.1853165 0.0365457 -0.1853165
142000000 0.0269484 -0.1591984 0.9730516 0.1591984 0.9730516 0.1591984 0.0269484 -0.1591984
163000000 0.0207152 -0.1392868 0.9792848 0.1392868 0.9792848 0.1392868 0.0207152 -0.1392868
184000000 0.0164470 -0.1236343 0.9835530 0.1236343 0.9835530 0.1236343 0.0164470 -0.1236343
205000000 0.0134002 -0.1110170 0.9865998 0.1110170 0.9865998 0.1110170 0.0134002 -0.1110170
226000000 0.0111515 -0.1006325 0.9888485 0.1006325 0.9888485 0.1006325 0.0111515 -0.1006325
247000000 0.0094458 -0.0919356 0.9905542 0.0919356 0.9905542 0.0919356 0.0094458 -0.0919356
268000000 0.0081220 -0.0845435 0.9918780 0.0845435 0.9918780 0.0845435 0.0081220 -0.0845435
289000000 0.0070747 -0.0781804 0.9929253 0.0781804 0.9929253 0.0781804 0.0070747 -0.0781804
310000000 0.0062323 -0.0726426 0.9937677 0.0726426 0.9937677 0.0726426 0.0062323 -0.0726426
331000000 0.0055450 -0.0677765 0.9944550 0.0677765 0.9944550 0.0677765 0.0055450 -0.0677765
352000000 0.0049774 -0.0634643 0.9950226 0.0634643 0.9950226 0.0634643 0.0049774 -0.0634643
373000000 0.0045034 -0.0596139 0.9954966 0.0596139 0.9954966 0.0596139 0.0045034 -0.0596139
394000000 0.0041038 -0.0561529 0.9958962 0.0561529 0.9958962 0.0561529 0.0041038 -0.0561529
415000000 0.0037642 -0.0530228 0.9962358 0.0530228 0.9962358 0.0530228 0.0037642 -0.0530228
436000000 0.0034732 -0.0501764 0.9965268 0.0501764 0.9965268 0.0501764 0.0034732 -0.0501764
457000000 0.0032224 -0.0475751 0.9967776 0.0475751 0.9967776 0.0475751 0.0032224 -0.0475751
478000000 0.0030048 -0.0451870 0.9969952 0.0451870 0.9969952 0.0451870 0.0030048 -0.0451870
499000000 0.0028151 -0.0429853 0.9971849 0.0429853 0.9971849 0.0429853 0.0028151 -0.0429853
520000000 0.0026489 -0.0409477 0.9973511 0.0409477 0.9973511 0.0409477 0.0026489 -0.0409477
541000000 0.0025027 -0.0390553 0.9974973 0.0390553 0.9974973 0.0390553 0.0025027 -0.0390553
562000000 0.0023736 -0.0372918 0.9976264 0.0372918 0.9976264 0.0372918 0.0023736 -0.0372918
583000000 0.0022592 -0.0356435 0.9977408 0.0356435 0.9977408 0.0356435 0.0022592 -0.0356435
604000000 0.0021575 -0.0340985 0.9978425 0.0340985 0.9978425 0.0340985 0.0021575 -0.0340985
625000000 0.0020670 -0.0326463 0.9979330 0.0326463 0.9979330 0.0326463 0.0020670 -0.0326463
646000000 0.0019862 -0.0312780 0.9980138 0.0312780 0.9980138 0.0312780 0.0019862 -0.0312780
667000000 0.0019140 -0.0299858 0.9980860 0.0299858 0.9980860 0.0299858 0.0019140 -0.0299858
688000000 0.0018493 -0.0287626 0.9981507 0.0287626 0.9981507 0.0287626 0.0018493 -0.0287626
709000000 0.0017913 -0.0276024 0.9982087 0.0276024 0.9982087 0.0276024 0.0017913 -0.0276024
730000000 0.0017394 -0.0264998 0.9982606 0.0264998 0.9982606 0.0264998 0.0017394 -0.0264998
751000000 0.0016927 -0.0254500 0.9983073 0.0254500 0.9983073 0.0254500 0.0016927 -0.0254500
772000000 0.0016509 -0.0244487 0.9983491 0.0244487 0.9983491 0.0244487 0.0016509 -0.0244487
793000000 0.0016134 -0.0234921 0.9983866 0.0234921 0.9983866 0.0234921 0.0016134 -0.0234921
814000000 0.0015799 -0.0225767 0.9984201 0.0225767 0.9984201 0.0225767 0.0015799 -0.0225767
835000000 0.0015499 -0.0216994 0.9984501 0.0216994 0.9984501 0.0216994 0.0015499 -0.0216994
856000000 0.0015231 -0.0208575 0.9984769 0.0208575 0.9984769 0.0208575 0.0015231 -0.0208575
877000000 0.0014993 -0.0200484 0.9985007 0.0200484 0.9985007 0.0200484 0.0014993 -0.0200484
898000000 0.0014782 -0.0192698 0.9985218 0.0192698 0.9985218 0.0192698 0.0014782 -0.0192698
919000000 0.0014596 -0.0185197 0.9985404 0.0185197 0.9985404 0.0185197 0.0014596 -0.0185197
940000000 0.0014433 -0.0177962 0.9985567 0.0177962 0.9985567 0.0177962 0.0014433 -0.0177962
961000000 0.0014291 -0.0170974 0.9985709 0.0170974 0.9985709 0.0170974 0.0014291 -0.0170974
982000000 0.0014169 -0.0164219 0.9985831 0.0164219 0.9985831 0.0164219 0.0014169 -0.0164219
1003000000 0.0014065 -0.0157682 0.9985935 0.0157682 0.9985935 0.0157682 0.0014065 -0.0157682
1024000000 0.0013977 -0.0151350 0.9986023 0.0151350 0.9986023 0.0151350 0.0013977 -0.0151350
1045000000 0.0013906 -0.0145210 0.9986094 0.0145210 0.9986094 0.0145210 0.0013906 -0.0145210
1066000000 0.0013849 -0.0139252 0.9986151 0.0139252 0.9986151 0.0139252 0.0013849 -0.0139252
1087000000 0.0013806 -0.0133464 0.9986194 0.0133464 0.9986194 0.0133464 0.0013806 -0.0133464
1108000000 0.0013776 -0.0127837 0.9986224 0.0127837 0.9986224 0.0127837 0.0013776 -0.0127837
1129000000 0.0013758 -0.0122362 0.9986242 0.0122362 0.9986242 0.0122362 0.0013758 -0.0122362
1150000000 0.0013751 -0.0117031 0.9986249 0.0117031 0.9986249 0.0117031 0.0013751 -0.0117031
1171000000 0.0013755 -0.0111837 0.9986245 0.0111837 0.9986245 0.0111837 0.0013755 -0.0111837
1192000000 0.0013770 -0.0106771 0.9986230 0.0106771 0.9986230 0.0106771 0.0013770 -0.0106771
1213000000 0.0013794 -0.0101829 0.9986206 0.0101829 0.9986206 0.0101829 0.0013794 -0.0101829
1234000000 0.0013827 -0.0097002 0.9986173 0.0097002 0.9986173 0.0097002 0.0013827 -0.0097002
1255000000 0.0013870 -0.0092287 0.9986130 0.0092287 0.9986130 0.0092287 0.0013870 -0.0092287
1276000000 0.0013920 -0.0087676 0.9986080 0.0087676 0.9986080 0.0087676 0.0013920 -0.0087676
1297000000 0.0013978 -0.0083166 0.9986022 0.0083166 0.9986022 0.0083166 0.0013978 -0.0083166
1318000000 0.0014044 -0.0078751 0.9985956 0.0078751 0.9985956 0.0078751 0.0014044 -0.0078751
1339000000 0.0014118 -0.0074427 0.9985882 0.0074427 0.9985882 0.0074427 0.0014118 -0.0074427
1360000000 0.0014198 -0.0070190 0.9985802 0.0070190 0.9985802 0.0070190 0.0014198 -0.0070190
1381000000 0.0014285 -0.0066036 0.9985715 0.0066036 0.9985715 0.0066036 0.0014285 -0.0066036
1402000000 0.0014378 -0.0061961 0.9985622 0.0061961 0.9985622 0.0061961 0.0014378 -0.0061961
1423000000 0.0014478 -0.0057962 0.9985522 0.0057962 0.9985522 0.0057962 0.0014478 -0.0057962
1444000000 0.0014583 -0.0054036 0.9985417 0.0054036 0.9985417 0.0054036 0.0014583 -0.0054036
1465000000 0.0014694 -0.0050180 0.9985306 0.0050180 0.9985306 0.0050180 0.0014694 -0.0050180
1486000000 0.0014811 -0.0046390 0.9985189 0.0046390 0.9985189 0.0046390 0.0014811 -0.0046390
1507000000 0.0014933 -0.0042664 0.9985067 0.0042664 0.9985067 0.0042664 0.0014933 -0.0042664
1528000000 0.0015060 -0.0039000 0.9984940 0.0039000 0.9984940 0.0039000 0.0015060 -0.0039000
1549000000 0.0015192 -0.0035395 0.9984808 0.0035395 0.9984808 0.0035395 0.0015192 -0.0035395
1570000000 0.0015329 -0.0031846 0.9984671 0.0031846 0.9984671 0.0031846 0.0015329 -0.0031846
1591000000 0.0015471 -0.0028352 0.9984529 0.0028352 0.9984529 0.0028352 0.0015471 -0.0028352
1612000000 0.0015618 -0.0024911 0.9984382 0.0024911 0.9984382 0.0024911 0.0015618 -0.0024911
1633000000 0.0015768 -0.0021520 0.9984232 0.0021520 0.9984232 0.0021520 0.0015768 -0.0021520
1654000000 0.0015923 -0.0018177 0.9984077 0.0018177 0.9984077 0.0018177 0.0015923 -0.0018177
1675000000 0.0016083 -0.0014882 0.9983917 0.0014882 0.9983917 0.0014882 0.0016083 -0.0014882
1696000000 0.0016246 -0.0011632 0.9983754 0.0011632 0.9983754 0.0011632 0.0016246 -0.0011632
1717000000 0.0016414 -0.0008425 0.9983586 0.0008425 0.9983586 0.0008425 0.0016414 -0.0008425
1738000000 0.0016585 -0.0005261 0.9983415 0.0005261 0.9983415 0.0005261 0.0016585 -0.0005261
1759000000 0.0016760 -0.0002137 0.9983240 0.0002137 0.9983240 0.0002137 0.0016760 -0.0002137
1780000000 0.0016939 0.0000948 0.9983061 -0.0000948 0.9983061 -0.0000948 0.0016939 0.0000948
1801000000 0.0017122 0.0003995 0.9982878 -0.0003995 0.9982878 -0.0003995 0.0017122 0.0003995
1822000000 0.0017308 0.0007004 0.9982692 -0.0007004 0.9982692 -0.0007004 0.0017308 0.0007004
1843000000 0.0017498 0.0009979 0.9982502 -0.0009979 0.9982502 -0.0009979 0.0017498 0.0009979
1864000000 0.0017691 0.0012919 0.9982309 -0.0012919 0.9982309 -0.0012919 0.0017691 0.0012919
1885000000 0.0017887 0.0015825 0.9982113 -0.0015825 0.9982113 -0.0015825 0.0017887 0.0015825
1906000000 0.0018087 0.0018700 0.9981913 -0.0018700 0.9981913 -0.0018700 0.0018087 0.0018700
1927000000 0.0018289 0.0021543 0.9981711 -0.0021543 0.9981711 -0.0021543 0.0018289 0.0021543
1948000000 0.0018496 0.0024356 0.9981504 -0.0024356 0.9981504 -0.0024356 0.0018496 0.0024356
1969000000 0.0018705 0.0027139 0.9981295 -0.0027139 0.9981295 -0.0027139 0.0018705 0.0027139
1990000000 0.0018917 0.0029894 0.9981083 -0.0029894 0.9981083 -0.0029894 0.0018917 0.0029894
2011000000 0.0019132 0.0032621 0.9980868 -0.0032621 0.9980868 -0.0032621 0.0019132 0.0032621
2032000000 0.0019350 0.0035321 0.9980650 -0.0035321 0.9980650 -0.0035321 0.0019350 0.0035321
2053000000 0.0019571 0.0037995 0.9980429 -0.0037995 0.9980429 -0.0037995 0.0019571 0.0037995
2074000000 0.0019795 0.0040644 0.9980205 -0.0040644 0.9980205 -0.0040644 0.0019795 0.0040644
2095000000 0.0020022 0.0043268 0.9979978 -0.0043268 0.9979978 -0.0043268 0.0020022 0.0043268
2116000000 0.0020251 0.0045868 0.9979749 -0.0045868 0.9979749 -0.0045868 0.0020251 0.0045868
2137000000 0.0020483 0.0048444 0.9979517 -0.0048444 0.9979517 -0.0048444 0.0020483 0.0048444
2158000000 0.0020718 0.0050998 0.9979282 -0.0050998 0.9979282 -0.0050998 0.0020718 0.0050998
2179000000 0.0020955 0.0053530 0.9979045 -0.0053530 0.9979045 -0.0053530 0.0020955 0.0053530
2200000000 0.0021195 0.0056040 0.9978805 -0.0056040 0.9978805 -0.0056040 0.0021195 0.0056040
2221000000 0.0021438 0.0058529 0.9978562 -0.0058529 0.9978562 -0.0058529 0.0021438 0.0058529
2242000000 0.0021683 0.0060998 0.9978317 -0.0060998 0.9978317 -0.0060998 0.0021683 0.0060998
2263000000 0.0021930 0.0063446 0.9978070 -0.0063446 0.9978070 -0.0063446 0.0021930 0.0063446
2284000000 0.0022180 0.0065875 0.9977820 -0.0065875 0.9977820 -0.0065875 0.0022180 0.0065875
2305000000 0.0022432 0.0068285 0.9977568 -0.0068285 0.9977568 -0.0068285 0.0022432 0.0068285
2326000000 0.0022687 0.0070677 0.9977313 -0.0070677 0.9977313 -0.0070677 0.0022687 0.0070677
2347000000 0.0022944 0.0073051 0.9977056 -0.0073051 0.9977056 -0.0073051 0.0022944 0.0073051
2368000000 0.0023203 0.0075406 0.9976797 -0.0075406 0.9976797 -0.0075406 0.0023203 0.0075406
2389000000 0.0023465 0.0077745 0.9976535 -0.0077745 0.9976535 -0.0077745 0.0023465 0.0077745
2410000000 0.0023729 0.0080067 0.9976271 -0.0080067 0.9976271 -0.0080067 0.0023729 0.0080067
2431000000 0.0023995 0.0082372 0.9976005 -0.0082372 0.9976005 -0.0082372 0.0023995 0.0082372
2452000000 0.0024263 0.0084661 0.9975737 -0.0084661 0.9975737 -0.0084661 0.0024263 0.0084661
2473000000 0.0024533 0.0086934 0.9975467 -0.0086934 0.9975467 -0.0086934 0.0024533 0.0086934
2494000000 0.0024806 0.0089192 0.9975194 -0.0089192 0.9975194 -0.0089192 0.0024806 0.0089192
2515000000 0.0025080 0.0091435 0.9974920 -0.0091435 0.9974920 -0.0091435 0.0025080 0.0091435
2536000000 0.0025357 0.0093664 0.9974643 -0.0093664 0.9974643 -0.0093664 0.0025357 0.0093664
2557000000 0.0025635 0.0095877 0.9974365 -0.0095877 0.9974365 -0.0095877 0.0025635 0.0095877
2578000000 0.0025916 0.0098077 0.9974084 -0.0098077 0.9974084 -0.0098077 0.0025916 0.0098077
2599000000 0.0026198 0.0100263 0.9973802 -0.0100263 0.9973802 -0.0100263 0.0026198 0.0100263
2620000000 0.0026483 0.0102435 0.9973517 -0.0102435 0.9973517 -0.0102435 0.0026483 0.0102435
2641000000 0.0026770 0.0104594 0.9973230 -0.0104594 0.9973230 -0.0104594 0.0026770 0.0104594
2662000000 0.0027058 0.0106740 0.9972942 -0.0106740 0.9972942 -0.0106740 0.0027058 0.0106740
2683000000 0.0027348 0.0108873 0.9972652 -0.0108873 0.9972652 -0.0108873 0.0027348 0.0108873
2704000000 0.0027640 0.0110994 0.9972360 -0.0110994 0.9972360 -0.0110994 0.0027640 0.0110994
2725000000 0.0027934 0.0113102 0.9972066 -0.0113102 0.9972066 -0.0113102 0.0027934 0.0113102
2746000000 0.0028230 0.0115198 0.9971770 -0.0115198 0.9971770 -0.0115198 0.0028230 0.0115198
2767000000 0.0028528 0.0117283 0.9971472 -0.0117283 0.9971472 -0.0117283 0.0028528 0.0117283
2788000000 0.0028827 0.0119356 0.9971173 -0.0119356 0.9971173 -0.0119356 0.0028827 0.0119356
2809000000 0.0029128 0.0121418 0.9970872 -0.0121418 0.9970872 -0.0121418 0.0029128 0.0121418
2830000000 0.0029431 0.0123468 0.9970569 -0.0123468 0.9970569 -0.0123468 0.0029431 0.0123468
2851000000 0.0029735 0.0125507 0.9970265 -0.0125507 0.9970265 -0.0125507 0.0029735 0.0125507
2872000000 0.0030041 0.0127536 0.9969959 -0.0127536 0.9969959 -0.0127536 0.0030041 0.0127536
2893000000 0.0030349 0.0129554 0.9969651 -0.0129554 0.9969651 -0.0129554 0.0030349 0.0129554
2914000000 0.0030659 0.0131562 0.9969341 -0.0131562 0.9969341 -0.0131562 0.0030659 0.0131562
2935000000 0.0030970 0.0133559 0.9969030 -0.0133559 0.9969030 -0.0133559 0.0030970 0.0133559
2956000000 0.0031282 0.0135547 0.9968718 -0.0135547 0.9968718 -0.0135547 0.0031282 0.0135547
2977000000 0.0031596 0.0137524 0.9968404 -0.0137524 0.9968404 -0.0137524 0.0031596 0.0137524
2998000000 0.0031912 0.0139492 0.9968088 -0.0139492 0.9968088 -0.0139492 0.0031912 0.0139492
3019000000 0.0032229 0.0141450 0.9967771 -0.0141450 0.9967771 -0.0141450 0.0032229 0.0141450
3040000000 0.0032548 0.0143399 0.9967452 -0.0143399 0.9967452 -0.0143399 0.0032548 0.0143399
3061000000 0.0032868 0.0145339 0.9967132 -0.0145339 0.9967132 -0.0145339 0.0032868 0.0145339
3082000000 0.0033190 0.0147269 0.9966810 -0.0147269 0.9966810 -0.0147269 0.0033190 0.0147269
3103000000 0.0033513 0.0149191 0.9966487 -0.0149191 0.9966487 -0.0149191 0.0033513 0.0149191
3124000000 0.0033838 0.0151103 0.9966162 -0.0151103 0.9966162 -0.0151103 0.0033838 0.0151103
3145000000 0.0034164 0.0153007 0.9965836 -0.0153007 0.9965836 -0.0153007 0.0034164 0.0153007
3166000000 0.0034491 0.0154903 0.9965509 -0.0154903 0.9965509 -0.0154903 0.0034491 0.0154903
3187000000 0.0034820 0.0156790 0.9965180 -0.0156790 0.9965180 -0.0156790 0.0034820 0.0156790
3208000000 0.0035150 0.0158669 0.9964850 -0.0158669 0.9964850 -0.0158669 0.0035150 0.0158669
3229000000 0.0035481 0.0160539 0.9964519 -0.0160539 0.9964519 -0.0160539 0.0035481 0.0160539
3250000000 0.0035814 0.0162402 0.9964186 -0.0162402 0.9964186 -0.0162402 0.0035814 0.0162402
3271000000 0.0036148 0.0164256 0.9963852 -0.0164256 0.9963852 -0.0164256 0.0036148 0.0164256
3292000000 0.0036484 0.0166103 0.9963516 -0.0166103 0.9963516 -0.0166103 0.0036484 0.0166103
3313000000 0.0036820 0.0167942 0.9963180 -0.0167942 0.9963180 -0.0167942 0.0036820 0.0167942
3334000000 0.0037158 0.0169773 0.9962842 -0.0169773 0.9962842 -0.0169773 0.0037158 0.0169773
3355000000 0.0037497 0.0171597 0.9962503 -0.0171597 0.9962503 -0.0171597 0.0037497 0.0171597
3376000000 0.0037837 0.0173414 0.9962163 -0.0173414 0.9962163 -0.0173414 0.0037837 0.0173414
3397000000 0.0038179 0.0175223 0.9961821 -0.0175223 0.9961821 -0.0175223 0.0038179 0.0175223
3418000000 0.0038521 0.0177025 0.9961479 -0.0177025 0.9961479 -0.0177025 0.0038521 0.0177025
3439000000 0.0038865 0.0178820 0.9961135 -0.0178820 0.9961135 -0.0178820 0.0038865 0.0178820
3460000000 0.0039210 0.0180608 0.9960790 -0.0180608 0.9960790 -0.0180608 0.0039210 0.0180608
3481000000 0.0039556 0.0182389 0.9960444 -0.0182389 0.9960444 -0.0182389 0.0039556 0.0182389
3502000000 0.0039903 0.0184163 0.9960097 -0.0184163 0.9960097 -0.0184163 0.0039903 0.0184163
3523000000 0.0040251 0.0185930 0.9959749 -0.0185930 0.9959749 -0.0185930 0.0040251 0.0185930
3544000000 0.0040600 0.0187691 0.9959400 -0.0187691 0.9959400 -0.0187691 0.0040600 0.0187691
3565000000 0.0040951 0.0189445 0.9959049 -0.0189445 0.9959049 -0.0189445 0.0040951 0.0189445
3586000000 0.0041302 0.0191192 0.9958698 -0.0191192 0.9958698 -0.0191192 0.0041302 0.0191192
3607000000 0.0041654 0.0192933 0.9958346 -0.0192933 0.9958346 -0.0192933 0.0041654 0.0192933
3628000000 0.0042008 0.0194668 0.9957992 -0.0194668 0.9957992 -0.0194668 0.0042008 0.0194668
3649000000 0.0042362 0.0196397 0.9957638 -0.0196397 0.9957638 -0.0196397 0.0042362 0.0196397
3670000000 0.0042717 0.0198119 0.9957283 -0.0198119 0.9957283 -0.0198119 0.0042717 0.0198119
3691000000 0.0043074 0.0199835 0.9956926 -0.0199835 0.9956926 -0.0199835 0.0043074 0.0199835
3712000000 0.0043431 0.0201545 0.9956569 -0.0201545 0.9956569 -0.0201545 0.0043431 0.0201545
3733000000 0.0043789 0.0203250 0.9956211 -0.0203250 0.9956211 -0.0203250 0.0043789 0.0203250
3754000000 0.0044148 0.0204948 0.9955852 -0.0204948 0.9955852 -0.0204948 0.0044148 0.0204948
3775000000 0.0044508 0.0206640 0.9955492 -0.0206640 0.9955492 -0.0206640 0.0044508 0.0206640
3796000000 0.0044869 0.0208327 0.9955131 -0.0208327 0.9955131 -0.0208327 0.0044869 0.0208327
3817000000 0.0045230 0.0210008 0.9954770 -0.0210008 0.9954770 -0.0210008 0.0045230 0.0210008
3838000000 0.0045593 0.0211683 0.9954407 -0.0211683 0.9954407 -0.0211683 0.0045593 0.0211683
3859000000 0.0045956 0.0213353 0.9954044 -0.0213353 0.9954044 -0.0213353 0.0045956 0.0213353
3880000000 0.0046320 0.0215017 0.9953680 -0.0215017 0.9953680 -0.0215017 0.0046320 0.0215017
3901000000 0.0046685 0.0216676 0.9953315 -0.0216676 0.9953315 -0.0216676 0.0046685 0.0216676
3922000000 0.0047051 0.0218329 0.9952949 -0.0218329 0.9952949 -0.0218329 0.0047051 0.0218329
3943000000 0.0047417 0.0219977 0.9952583 -0.0219977 0.9952583 -0.0219977 0.0047417 0.0219977
3964000000 0.0047784 0.0221620 0.9952216 -0.0221620 0.9952216 -0.0221620 0.0047784 0.0221620
3985000000 0.0048152 0.0223257 0.9951848 -0.0223257 0.9951848 -0.0223257 0.0048152 0.0223257
4006000000 0.0048521 0.0224889 0.9951479 -0.0224889 0.9951479 -0.0224889 0.0048521 0.0224889
4027000000 0.0048890 0.0226516 0.9951110 -0.0226516 0.9951110 -0.0226516 0.0048890 0.0226516
4048000000 0.0049261 0.0228138 0.9950739 -0.0228138 0.9950739 -0.0228138 0.0049261 0.0228138
4069000000 0.0049631 0.0229755 0.9950369 -0.0229755 0.9950369 -0.0229755 0.0049631 0.0229755
4090000000 0.0050003 0.0231367 0.9949997 -0.0231367 0.9949997 -0.0231367 0.0050003 0.0231367
4111000000 0.0050375 0.0232974 0.9949625 -0.0232974 0.9949625 -0.0232974 0.0050375 0.0232974
4132000000 0.0050748 0.0234577 0.9949252 -0.0234577 0.9949252 -0.0234577 0.0050748 0.0234577
4153000000 0.0051121 0.0236174 0.9948879 -0.0236174 0.9948879 -0.0236174 0.0051121 0.0236174
4174000000 0.0051495 0.0237767 0.9948505 -0.0237767 0.9948505 -0.0237767 0.0051495 0.0237767
4195000000 0.0051870 0.0239355 0.9948130 -0.0239355 0.9948130 -0.0239355 0.0051870 0.0239355
4216000000 0.0052245 0.0240938 0.9947755 -0.0240938 0.9947755 -0.0240938 0.0052245 0.0240938
4237000000 0.0052620 0.0242516 0.9947380 -0.0242516 0.9947380 -0.0242516 0.0052620 0.0242516
4258000000 0.0052997 0.0244090 0.9947003 -0.0244090 0.9947003 -0.0244090 0.0052997 0.0244090
4279000000 0.0053374 0.0245659 0.9946626 -0.0245659 0.9946626 -0.0245659 0.0053374 0.0245659
4300000000 0.0053751 0.0247224 0.9946249 -0.0247224 0.9946249 -0.0247224 0.0053751 0.0247224
4321000000 0.0054129 0.0248785 0.9945871 -0.0248785 0.9945871 -0.0248785 0.0054129 0.0248785
4342000000 0.0054507 0.0250341 0.9945493 -0.0250341 0.9945493 -0.0250341 0.0054507 0.0250341
4363000000 0.0054886 0.0251892 0.9945114 -0.0251892 0.9945114 -0.0251892 0.0054886 0.0251892
4384000000 0.0055266 0.0253439 0.9944734 -0.0253439 0.9944734 -0.0253439 0.0055266 0.0253439
4405000000 0.0055645 0.0254982 0.9944355 -0.0254982 0.9944355 -0.0254982 0.0055645 0.0254982
4426000000 0.0056026 0.0256521 0.9943974 -0.0256521 0.9943974 -0.0256521 0.0056026 0.0256521
4447000000 0.0056406 0.0258055 0.9943594 -0.0258055 0.9943594 -0.0258055 0.0056406 0.0258055
4468000000 0.0056788 0.0259585 0.9943212 -0.0259585 0.9943212 -0.0259585 0.0056788 0.0259585
4489000000 0.0057169 0.0261111 0.9942831 -0.0261111 0.9942831 -0.0261111 0.0057169 0.0261111
4510000000 0.0057551 0.0262633 0.9942449 -0.0262633 0.9942449 -0.0262633 0.0057551 0.0262633
