!Murata Part Number: GRM0115C1E6R4DE01
!These Parameters are Measured in Series Mode Connection
!Data Generated on Mar 30, 2021
!       o--ll--o
!Port1            Port2
!       o------o
!Operation Temp=25[degC], DC Bias Voltage=0[V]
!Freq. Start=100[MHz] Stop=9[GHz] 401[Steps]
# Hz S RI R 50
!Freq.(Hz) S11(Real) S11(Imag) S21(Real) S21(Imag) S12(Real) S12(Imag) S22(Real) S22(Imag)
100000000 0.8605876 -0.3460943 0.1394124 0.3460943 0.1394124 0.3460943 0.8605876 -0.3460943
121000000 0.8082603 -0.3933272 0.1917397 0.3933272 0.1917397 0.3933272 0.8082603 -0.3933272
142000000 0.7537000 -0.4304525 0.2463000 0.4304525 0.2463000 0.4304525 0.7537000 -0.4304525
163000000 0.6989566 -0.4582475 0.3010434 0.4582475 0.3010434 0.4582475 0.6989566 -0.4582475
184000000 0.6455797 -0.4778114 0.3544203 0.4778114 0.3544203 0.4778114 0.6455797 -0.4778114
205000000 0.5946410 -0.4903729 0.4053590 0.4903729 0.4053590 0.4903729 0.5946410 -0.4903729
226000000 0.5468049 -0.4971527 0.4531951 0.4971527 0.4531951 0.4971527 0.5468049 -0.4971527
247000000 0.5024161 -0.4992781 0.4975839 0.4992781 0.4975839 0.4992781 0.5024161 -0.4992781
268000000 0.4615852 -0.4977408 0.5384148 0.4977408 0.5384148 0.4977408 0.4615852 -0.4977408
289000000 0.4242617 -0.4933829 0.5757383 0.4933829 0.5757383 0.4933829 0.4242617 -0.4933829
310000000 0.3902920 -0.4869009 0.6097080 0.4869009 0.6097080 0.4869009 0.3902920 -0.4869009
331000000 0.3594627 -0.4788598 0.6405373 0.4788598 0.6405373 0.4788598 0.3594627 -0.4788598
352000000 0.3315305 -0.4697105 0.6684695 0.4697105 0.6684695 0.4697105 0.3315305 -0.4697105
373000000 0.3062433 -0.4598086 0.6937567 0.4598086 0.6937567 0.4598086 0.3062433 -0.4598086
394000000 0.2833534 -0.4494310 0.7166466 0.4494310 0.7166466 0.4494310 0.2833534 -0.4494310
415000000 0.2626248 -0.4387915 0.7373752 0.4387915 0.7373752 0.4387915 0.2626248 -0.4387915
436000000 0.2438384 -0.4280530 0.7561616 0.4280530 0.7561616 0.4280530 0.2438384 -0.4280530
457000000 0.2267934 -0.4173385 0.7732066 0.4173385 0.7732066 0.4173385 0.2267934 -0.4173385
478000000 0.2113081 -0.4067398 0.7886919 0.4067398 0.7886919 0.4067398 0.2113081 -0.4067398
499000000 0.1972190 -0.3963236 0.8027810 0.3963236 0.8027810 0.3963236 0.1972190 -0.3963236
520000000 0.1843799 -0.3861380 0.8156201 0.3861380 0.8156201 0.3861380 0.1843799 -0.3861380
541000000 0.1726604 -0.3762161 0.8273396 0.3762161 0.8273396 0.3762161 0.1726604 -0.3762161
562000000 0.1619447 -0.3665797 0.8380553 0.3665797 0.8380553 0.3665797 0.1619447 -0.3665797
583000000 0.1521300 -0.3572419 0.8478700 0.3572419 0.8478700 0.3572419 0.1521300 -0.3572419
604000000 0.1431250 -0.3482093 0.8568750 0.3482093 0.8568750 0.3482093 0.1431250 -0.3482093
625000000 0.1348486 -0.3394833 0.8651514 0.3394833 0.8651514 0.3394833 0.1348486 -0.3394833
646000000 0.1272290 -0.3310619 0.8727710 0.3310619 0.8727710 0.3310619 0.1272290 -0.3310619
667000000 0.1202022 -0.3229401 0.8797978 0.3229401 0.8797978 0.3229401 0.1202022 -0.3229401
688000000 0.1137117 -0.3151111 0.8862883 0.3151111 0.8862883 0.3151111 0.1137117 -0.3151111
709000000 0.1077067 -0.3075666 0.8922933 0.3075666 0.8922933 0.3075666 0.1077067 -0.3075666
730000000 0.1021422 -0.3002974 0.8978578 0.3002974 0.8978578 0.3002974 0.1021422 -0.3002974
751000000 0.0969781 -0.2932939 0.9030219 0.2932939 0.9030219 0.2932939 0.0969781 -0.2932939
772000000 0.0921784 -0.2865460 0.9078216 0.2865460 0.9078216 0.2865460 0.0921784 -0.2865460
793000000 0.0877110 -0.2800434 0.9122890 0.2800434 0.9122890 0.2800434 0.0877110 -0.2800434
814000000 0.0835470 -0.2737760 0.9164530 0.2737760 0.9164530 0.2737760 0.0835470 -0.2737760
835000000 0.0796606 -0.2677339 0.9203394 0.2677339 0.9203394 0.2677339 0.0796606 -0.2677339
856000000 0.0760284 -0.2619072 0.9239716 0.2619072 0.9239716 0.2619072 0.0760284 -0.2619072
877000000 0.0726295 -0.2562864 0.9273705 0.2562864 0.9273705 0.2562864 0.0726295 -0.2562864
898000000 0.0694450 -0.2508624 0.9305550 0.2508624 0.9305550 0.2508624 0.0694450 -0.2508624
919000000 0.0664577 -0.2456263 0.9335423 0.2456263 0.9335423 0.2456263 0.0664577 -0.2456263
940000000 0.0636522 -0.2405696 0.9363478 0.2405696 0.9363478 0.2405696 0.0636522 -0.2405696
961000000 0.0610145 -0.2356843 0.9389855 0.2356843 0.9389855 0.2356843 0.0610145 -0.2356843
982000000 0.0585318 -0.2309625 0.9414682 0.2309625 0.9414682 0.2309625 0.0585318 -0.2309625
1003000000 0.0561924 -0.2263968 0.9438076 0.2263968 0.9438076 0.2263968 0.0561924 -0.2263968
1024000000 0.0539860 -0.2219803 0.9460140 0.2219803 0.9460140 0.2219803 0.0539860 -0.2219803
1045000000 0.0519029 -0.2177062 0.9480971 0.2177062 0.9480971 0.2177062 0.0519029 -0.2177062
1066000000 0.0499342 -0.2135682 0.9500658 0.2135682 0.9500658 0.2135682 0.0499342 -0.2135682
1087000000 0.0480719 -0.2095603 0.9519281 0.2095603 0.9519281 0.2095603 0.0480719 -0.2095603
1108000000 0.0463088 -0.2056767 0.9536912 0.2056767 0.9536912 0.2056767 0.0463088 -0.2056767
1129000000 0.0446380 -0.2019119 0.9553620 0.2019119 0.9553620 0.2019119 0.0446380 -0.2019119
1150000000 0.0430535 -0.1982608 0.9569465 0.1982608 0.9569465 0.1982608 0.0430535 -0.1982608
1171000000 0.0415493 -0.1947184 0.9584507 0.1947184 0.9584507 0.1947184 0.0415493 -0.1947184
1192000000 0.0401205 -0.1912802 0.9598795 0.1912802 0.9598795 0.1912802 0.0401205 -0.1912802
1213000000 0.0387621 -0.1879417 0.9612379 0.1879417 0.9612379 0.1879417 0.0387621 -0.1879417
1234000000 0.0374696 -0.1846988 0.9625304 0.1846988 0.9625304 0.1846988 0.0374696 -0.1846988
1255000000 0.0362390 -0.1815473 0.9637610 0.1815473 0.9637610 0.1815473 0.0362390 -0.1815473
1276000000 0.0350665 -0.1784837 0.9649335 0.1784837 0.9649335 0.1784837 0.0350665 -0.1784837
1297000000 0.0339486 -0.1755042 0.9660514 0.1755042 0.9660514 0.1755042 0.0339486 -0.1755042
1318000000 0.0328819 -0.1726054 0.9671181 0.1726054 0.9671181 0.1726054 0.0328819 -0.1726054
1339000000 0.0318635 -0.1697842 0.9681365 0.1697842 0.9681365 0.1697842 0.0318635 -0.1697842
1360000000 0.0308906 -0.1670374 0.9691094 0.1670374 0.9691094 0.1670374 0.0308906 -0.1670374
1381000000 0.0299606 -0.1643622 0.9700394 0.1643622 0.9700394 0.1643622 0.0299606 -0.1643622
1402000000 0.0290710 -0.1617556 0.9709290 0.1617556 0.9709290 0.1617556 0.0290710 -0.1617556
1423000000 0.0282195 -0.1592152 0.9717805 0.1592152 0.9717805 0.1592152 0.0282195 -0.1592152
1444000000 0.0274042 -0.1567383 0.9725958 0.1567383 0.9725958 0.1567383 0.0274042 -0.1567383
1465000000 0.0266230 -0.1543226 0.9733770 0.1543226 0.9733770 0.1543226 0.0266230 -0.1543226
1486000000 0.0258740 -0.1519657 0.9741260 0.1519657 0.9741260 0.1519657 0.0258740 -0.1519657
1507000000 0.0251557 -0.1496655 0.9748443 0.1496655 0.9748443 0.1496655 0.0251557 -0.1496655
1528000000 0.0244662 -0.1474199 0.9755338 0.1474199 0.9755338 0.1474199 0.0244662 -0.1474199
1549000000 0.0238043 -0.1452270 0.9761957 0.1452270 0.9761957 0.1452270 0.0238043 -0.1452270
1570000000 0.0231684 -0.1430848 0.9768316 0.1430848 0.9768316 0.1430848 0.0231684 -0.1430848
1591000000 0.0225573 -0.1409915 0.9774427 0.1409915 0.9774427 0.1409915 0.0225573 -0.1409915
1612000000 0.0219697 -0.1389454 0.9780303 0.1389454 0.9780303 0.1389454 0.0219697 -0.1389454
1633000000 0.0214044 -0.1369449 0.9785956 0.1369449 0.9785956 0.1369449 0.0214044 -0.1369449
1654000000 0.0208604 -0.1349884 0.9791396 0.1349884 0.9791396 0.1349884 0.0208604 -0.1349884
1675000000 0.0203366 -0.1330743 0.9796634 0.1330743 0.9796634 0.1330743 0.0203366 -0.1330743
1696000000 0.0198322 -0.1312013 0.9801678 0.1312013 0.9801678 0.1312013 0.0198322 -0.1312013
1717000000 0.0193460 -0.1293679 0.9806540 0.1293679 0.9806540 0.1293679 0.0193460 -0.1293679
1738000000 0.0188774 -0.1275729 0.9811226 0.1275729 0.9811226 0.1275729 0.0188774 -0.1275729
1759000000 0.0184255 -0.1258150 0.9815745 0.1258150 0.9815745 0.1258150 0.0184255 -0.1258150
1780000000 0.0179896 -0.1240929 0.9820104 0.1240929 0.9820104 0.1240929 0.0179896 -0.1240929
1801000000 0.0175689 -0.1224055 0.9824311 0.1224055 0.9824311 0.1224055 0.0175689 -0.1224055
1822000000 0.0171627 -0.1207518 0.9828373 0.1207518 0.9828373 0.1207518 0.0171627 -0.1207518
1843000000 0.0167704 -0.1191306 0.9832296 0.1191306 0.9832296 0.1191306 0.0167704 -0.1191306
1864000000 0.0163915 -0.1175409 0.9836085 0.1175409 0.9836085 0.1175409 0.0163915 -0.1175409
1885000000 0.0160252 -0.1159817 0.9839748 0.1159817 0.9839748 0.1159817 0.0160252 -0.1159817
1906000000 0.0156712 -0.1144521 0.9843288 0.1144521 0.9843288 0.1144521 0.0156712 -0.1144521
1927000000 0.0153288 -0.1129513 0.9846712 0.1129513 0.9846712 0.1129513 0.0153288 -0.1129513
1948000000 0.0149976 -0.1114782 0.9850024 0.1114782 0.9850024 0.1114782 0.0149976 -0.1114782
1969000000 0.0146772 -0.1100321 0.9853228 0.1100321 0.9853228 0.1100321 0.0146772 -0.1100321
1990000000 0.0143670 -0.1086122 0.9856330 0.1086122 0.9856330 0.1086122 0.0143670 -0.1086122
2011000000 0.0140667 -0.1072178 0.9859333 0.1072178 0.9859333 0.1072178 0.0140667 -0.1072178
2032000000 0.0137758 -0.1058480 0.9862242 0.1058480 0.9862242 0.1058480 0.0137758 -0.1058480
2053000000 0.0134941 -0.1045021 0.9865059 0.1045021 0.9865059 0.1045021 0.0134941 -0.1045021
2074000000 0.0132211 -0.1031795 0.9867789 0.1031795 0.9867789 0.1031795 0.0132211 -0.1031795
2095000000 0.0129564 -0.1018796 0.9870436 0.1018796 0.9870436 0.1018796 0.0129564 -0.1018796
2116000000 0.0126999 -0.1006016 0.9873001 0.1006016 0.9873001 0.1006016 0.0126999 -0.1006016
2137000000 0.0124511 -0.0993449 0.9875489 0.0993449 0.9875489 0.0993449 0.0124511 -0.0993449
2158000000 0.0122098 -0.0981091 0.9877902 0.0981091 0.9877902 0.0981091 0.0122098 -0.0981091
2179000000 0.0119757 -0.0968934 0.9880243 0.0968934 0.9880243 0.0968934 0.0119757 -0.0968934
2200000000 0.0117486 -0.0956974 0.9882514 0.0956974 0.9882514 0.0956974 0.0117486 -0.0956974
2221000000 0.0115280 -0.0945204 0.9884720 0.0945204 0.9884720 0.0945204 0.0115280 -0.0945204
2242000000 0.0113140 -0.0933621 0.9886860 0.0933621 0.9886860 0.0933621 0.0113140 -0.0933621
2263000000 0.0111061 -0.0922219 0.9888939 0.0922219 0.9888939 0.0922219 0.0111061 -0.0922219
2284000000 0.0109042 -0.0910993 0.9890958 0.0910993 0.9890958 0.0910993 0.0109042 -0.0910993
2305000000 0.0107080 -0.0899939 0.9892920 0.0899939 0.9892920 0.0899939 0.0107080 -0.0899939
2326000000 0.0105175 -0.0889052 0.9894825 0.0889052 0.9894825 0.0889052 0.0105175 -0.0889052
2347000000 0.0103323 -0.0878328 0.9896677 0.0878328 0.9896677 0.0878328 0.0103323 -0.0878328
2368000000 0.0101522 -0.0867762 0.9898478 0.0867762 0.9898478 0.0867762 0.0101522 -0.0867762
2389000000 0.0099772 -0.0857352 0.9900228 0.0857352 0.9900228 0.0857352 0.0099772 -0.0857352
2410000000 0.0098070 -0.0847092 0.9901930 0.0847092 0.9901930 0.0847092 0.0098070 -0.0847092
2431000000 0.0096415 -0.0836979 0.9903585 0.0836979 0.9903585 0.0836979 0.0096415 -0.0836979
2452000000 0.0094806 -0.0827010 0.9905194 0.0827010 0.9905194 0.0827010 0.0094806 -0.0827010
2473000000 0.0093240 -0.0817181 0.9906760 0.0817181 0.9906760 0.0817181 0.0093240 -0.0817181
2494000000 0.0091716 -0.0807488 0.9908284 0.0807488 0.9908284 0.0807488 0.0091716 -0.0807488
2515000000 0.0090233 -0.0797928 0.9909767 0.0797928 0.9909767 0.0797928 0.0090233 -0.0797928
2536000000 0.0088790 -0.0788499 0.9911210 0.0788499 0.9911210 0.0788499 0.0088790 -0.0788499
2557000000 0.0087385 -0.0779196 0.9912615 0.0779196 0.9912615 0.0779196 0.0087385 -0.0779196
2578000000 0.0086018 -0.0770017 0.9913982 0.0770017 0.9913982 0.0770017 0.0086018 -0.0770017
2599000000 0.0084686 -0.0760959 0.9915314 0.0760959 0.9915314 0.0760959 0.0084686 -0.0760959
2620000000 0.0083390 -0.0752019 0.9916610 0.0752019 0.9916610 0.0752019 0.0083390 -0.0752019
2641000000 0.0082127 -0.0743195 0.9917873 0.0743195 0.9917873 0.0743195 0.0082127 -0.0743195
2662000000 0.0080897 -0.0734483 0.9919103 0.0734483 0.9919103 0.0734483 0.0080897 -0.0734483
2683000000 0.0079698 -0.0725882 0.9920302 0.0725882 0.9920302 0.0725882 0.0079698 -0.0725882
2704000000 0.0078531 -0.0717389 0.9921469 0.0717389 0.9921469 0.0717389 0.0078531 -0.0717389
2725000000 0.0077394 -0.0709000 0.9922606 0.0709000 0.9922606 0.0709000 0.0077394 -0.0709000
2746000000 0.0076285 -0.0700715 0.9923715 0.0700715 0.9923715 0.0700715 0.0076285 -0.0700715
2767000000 0.0075205 -0.0692530 0.9924795 0.0692530 0.9924795 0.0692530 0.0075205 -0.0692530
2788000000 0.0074152 -0.0684444 0.9925848 0.0684444 0.9925848 0.0684444 0.0074152 -0.0684444
2809000000 0.0073126 -0.0676454 0.9926874 0.0676454 0.9926874 0.0676454 0.0073126 -0.0676454
2830000000 0.0072126 -0.0668558 0.9927874 0.0668558 0.9927874 0.0668558 0.0072126 -0.0668558
2851000000 0.0071151 -0.0660754 0.9928849 0.0660754 0.9928849 0.0660754 0.0071151 -0.0660754
2872000000 0.0070200 -0.0653041 0.9929800 0.0653041 0.9929800 0.0653041 0.0070200 -0.0653041
2893000000 0.0069273 -0.0645415 0.9930727 0.0645415 0.9930727 0.0645415 0.0069273 -0.0645415
2914000000 0.0068369 -0.0637876 0.9931631 0.0637876 0.9931631 0.0637876 0.0068369 -0.0637876
2935000000 0.0067488 -0.0630422 0.9932512 0.0630422 0.9932512 0.0630422 0.0067488 -0.0630422
2956000000 0.0066629 -0.0623051 0.9933371 0.0623051 0.9933371 0.0623051 0.0066629 -0.0623051
2977000000 0.0065790 -0.0615760 0.9934210 0.0615760 0.9934210 0.0615760 0.0065790 -0.0615760
2998000000 0.0064973 -0.0608549 0.9935027 0.0608549 0.9935027 0.0608549 0.0064973 -0.0608549
3019000000 0.0064176 -0.0601416 0.9935824 0.0601416 0.9935824 0.0601416 0.0064176 -0.0601416
3040000000 0.0063398 -0.0594359 0.9936602 0.0594359 0.9936602 0.0594359 0.0063398 -0.0594359
3061000000 0.0062640 -0.0587377 0.9937360 0.0587377 0.9937360 0.0587377 0.0062640 -0.0587377
3082000000 0.0061900 -0.0580467 0.9938100 0.0580467 0.9938100 0.0580467 0.0061900 -0.0580467
3103000000 0.0061178 -0.0573630 0.9938822 0.0573630 0.9938822 0.0573630 0.0061178 -0.0573630
3124000000 0.0060474 -0.0566863 0.9939526 0.0566863 0.9939526 0.0566863 0.0060474 -0.0566863
3145000000 0.0059788 -0.0560164 0.9940212 0.0560164 0.9940212 0.0560164 0.0059788 -0.0560164
3166000000 0.0059118 -0.0553534 0.9940882 0.0553534 0.9940882 0.0553534 0.0059118 -0.0553534
3187000000 0.0058465 -0.0546969 0.9941535 0.0546969 0.9941535 0.0546969 0.0058465 -0.0546969
3208000000 0.0057827 -0.0540469 0.9942173 0.0540469 0.9942173 0.0540469 0.0057827 -0.0540469
3229000000 0.0057206 -0.0534033 0.9942794 0.0534033 0.9942794 0.0534033 0.0057206 -0.0534033
3250000000 0.0056599 -0.0527660 0.9943401 0.0527660 0.9943401 0.0527660 0.0056599 -0.0527660
3271000000 0.0056008 -0.0521348 0.9943992 0.0521348 0.9943992 0.0521348 0.0056008 -0.0521348
3292000000 0.0055431 -0.0515096 0.9944569 0.0515096 0.9944569 0.0515096 0.0055431 -0.0515096
3313000000 0.0054868 -0.0508903 0.9945132 0.0508903 0.9945132 0.0508903 0.0054868 -0.0508903
3334000000 0.0054319 -0.0502768 0.9945681 0.0502768 0.9945681 0.0502768 0.0054319 -0.0502768
3355000000 0.0053784 -0.0496689 0.9946216 0.0496689 0.9946216 0.0496689 0.0053784 -0.0496689
3376000000 0.0053262 -0.0490667 0.9946738 0.0490667 0.9946738 0.0490667 0.0053262 -0.0490667
3397000000 0.0052753 -0.0484699 0.9947247 0.0484699 0.9947247 0.0484699 0.0052753 -0.0484699
3418000000 0.0052256 -0.0478785 0.9947744 0.0478785 0.9947744 0.0478785 0.0052256 -0.0478785
3439000000 0.0051772 -0.0472923 0.9948228 0.0472923 0.9948228 0.0472923 0.0051772 -0.0472923
3460000000 0.0051301 -0.0467114 0.9948699 0.0467114 0.9948699 0.0467114 0.0051301 -0.0467114
3481000000 0.0050840 -0.0461355 0.9949160 0.0461355 0.9949160 0.0461355 0.0050840 -0.0461355
3502000000 0.0050392 -0.0455646 0.9949608 0.0455646 0.9949608 0.0455646 0.0050392 -0.0455646
3523000000 0.0049955 -0.0449987 0.9950045 0.0449987 0.9950045 0.0449987 0.0049955 -0.0449987
3544000000 0.0049529 -0.0444375 0.9950471 0.0444375 0.9950471 0.0444375 0.0049529 -0.0444375
3565000000 0.0049114 -0.0438811 0.9950886 0.0438811 0.9950886 0.0438811 0.0049114 -0.0438811
3586000000 0.0048709 -0.0433294 0.9951291 0.0433294 0.9951291 0.0433294 0.0048709 -0.0433294
3607000000 0.0048315 -0.0427822 0.9951685 0.0427822 0.9951685 0.0427822 0.0048315 -0.0427822
3628000000 0.0047931 -0.0422395 0.9952069 0.0422395 0.9952069 0.0422395 0.0047931 -0.0422395
3649000000 0.0047558 -0.0417012 0.9952442 0.0417012 0.9952442 0.0417012 0.0047558 -0.0417012
3670000000 0.0047194 -0.0411673 0.9952806 0.0411673 0.9952806 0.0411673 0.0047194 -0.0411673
3691000000 0.0046839 -0.0406376 0.9953161 0.0406376 0.9953161 0.0406376 0.0046839 -0.0406376
3712000000 0.0046494 -0.0401122 0.9953506 0.0401122 0.9953506 0.0401122 0.0046494 -0.0401122
3733000000 0.0046158 -0.0395908 0.9953842 0.0395908 0.9953842 0.0395908 0.0046158 -0.0395908
3754000000 0.0045831 -0.0390735 0.9954169 0.0390735 0.9954169 0.0390735 0.0045831 -0.0390735
3775000000 0.0045514 -0.0385602 0.9954486 0.0385602 0.9954486 0.0385602 0.0045514 -0.0385602
3796000000 0.0045204 -0.0380508 0.9954796 0.0380508 0.9954796 0.0380508 0.0045204 -0.0380508
3817000000 0.0044904 -0.0375453 0.9955096 0.0375453 0.9955096 0.0375453 0.0044904 -0.0375453
3838000000 0.0044612 -0.0370435 0.9955388 0.0370435 0.9955388 0.0370435 0.0044612 -0.0370435
3859000000 0.0044328 -0.0365455 0.9955672 0.0365455 0.9955672 0.0365455 0.0044328 -0.0365455
3880000000 0.0044052 -0.0360512 0.9955948 0.0360512 0.9955948 0.0360512 0.0044052 -0.0360512
3901000000 0.0043784 -0.0355604 0.9956216 0.0355604 0.9956216 0.0355604 0.0043784 -0.0355604
3922000000 0.0043523 -0.0350733 0.9956477 0.0350733 0.9956477 0.0350733 0.0043523 -0.0350733
3943000000 0.0043271 -0.0345896 0.9956729 0.0345896 0.9956729 0.0345896 0.0043271 -0.0345896
3964000000 0.0043026 -0.0341093 0.9956974 0.0341093 0.9956974 0.0341093 0.0043026 -0.0341093
3985000000 0.0042788 -0.0336324 0.9957212 0.0336324 0.9957212 0.0336324 0.0042788 -0.0336324
4006000000 0.0042558 -0.0331589 0.9957442 0.0331589 0.9957442 0.0331589 0.0042558 -0.0331589
4027000000 0.0042334 -0.0326886 0.9957666 0.0326886 0.9957666 0.0326886 0.0042334 -0.0326886
4048000000 0.0042118 -0.0322216 0.9957882 0.0322216 0.9957882 0.0322216 0.0042118 -0.0322216
4069000000 0.0041909 -0.0317577 0.9958091 0.0317577 0.9958091 0.0317577 0.0041909 -0.0317577
4090000000 0.0041706 -0.0312970 0.9958294 0.0312970 0.9958294 0.0312970 0.0041706 -0.0312970
4111000000 0.0041510 -0.0308393 0.9958490 0.0308393 0.9958490 0.0308393 0.0041510 -0.0308393
4132000000 0.0041321 -0.0303847 0.9958679 0.0303847 0.9958679 0.0303847 0.0041321 -0.0303847
4153000000 0.0041138 -0.0299330 0.9958862 0.0299330 0.9958862 0.0299330 0.0041138 -0.0299330
4174000000 0.0040961 -0.0294843 0.9959039 0.0294843 0.9959039 0.0294843 0.0040961 -0.0294843
4195000000 0.0040791 -0.0290385 0.9959209 0.0290385 0.9959209 0.0290385 0.0040791 -0.0290385
4216000000 0.0040627 -0.0285955 0.9959373 0.0285955 0.9959373 0.0285955 0.0040627 -0.0285955
4237000000 0.0040468 -0.0281554 0.9959532 0.0281554 0.9959532 0.0281554 0.0040468 -0.0281554
4258000000 0.0040316 -0.0277180 0.9959684 0.0277180 0.9959684 0.0277180 0.0040316 -0.0277180
4279000000 0.0040170 -0.0272833 0.9959830 0.0272833 0.9959830 0.0272833 0.0040170 -0.0272833
4300000000 0.0040029 -0.0268513 0.9959971 0.0268513 0.9959971 0.0268513 0.0040029 -0.0268513
4321000000 0.0039895 -0.0264220 0.9960105 0.0264220 0.9960105 0.0264220 0.0039895 -0.0264220
4342000000 0.0039765 -0.0259952 0.9960235 0.0259952 0.9960235 0.0259952 0.0039765 -0.0259952
4363000000 0.0039642 -0.0255710 0.9960358 0.0255710 0.9960358 0.0255710 0.0039642 -0.0255710
4384000000 0.0039524 -0.0251494 0.9960476 0.0251494 0.9960476 0.0251494 0.0039524 -0.0251494
4405000000 0.0039411 -0.0247302 0.9960589 0.0247302 0.9960589 0.0247302 0.0039411 -0.0247302
4426000000 0.0039303 -0.0243135 0.9960697 0.0243135 0.9960697 0.0243135 0.0039303 -0.0243135
4447000000 0.0039201 -0.0238992 0.9960799 0.0238992 0.9960799 0.0238992 0.0039201 -0.0238992
4468000000 0.0039104 -0.0234873 0.9960896 0.0234873 0.9960896 0.0234873 0.0039104 -0.0234873
4489000000 0.0039012 -0.0230778 0.9960988 0.0230778 0.9960988 0.0230778 0.0039012 -0.0230778
4510000000 0.0038925 -0.0226705 0.9961075 0.0226705 0.9961075 0.0226705 0.0038925 -0.0226705
