!Murata Part Number: GRM0115C1C1R3BE01
!These Parameters are Measured in Series Mode Connection
!Data Generated on Mar 30, 2021
!       o--ll--o
!Port1            Port2
!       o------o
!Operation Temp=25[degC], DC Bias Voltage=0[V]
!Freq. Start=100[MHz] Stop=20[GHz] 401[Steps]
# Hz S RI R 50
!Freq.(Hz) S11(Real) S11(Imag) S21(Real) S21(Imag) S12(Real) S12(Imag) S22(Real) S22(Imag)
100000000 0.9933444 -0.0811437 0.0066556 0.0811437 0.0066556 0.0811437 0.9933444 -0.0811437
149750000 0.9851940 -0.1205267 0.0148060 0.1205267 0.0148060 0.1205267 0.9851940 -0.1205267
199500000 0.9740124 -0.1587659 0.0259876 0.1587659 0.0259876 0.1587659 0.9740124 -0.1587659
249250000 0.9600028 -0.1955369 0.0399972 0.1955369 0.0399972 0.1955369 0.9600028 -0.1955369
299000000 0.9434102 -0.2305576 0.0565898 0.2305576 0.0565898 0.2305576 0.9434102 -0.2305576
348750000 0.9245112 -0.2635944 0.0754888 0.2635944 0.0754888 0.2635944 0.9245112 -0.2635944
398500000 0.9036036 -0.2944650 0.0963964 0.2944650 0.0963964 0.2944650 0.9036036 -0.2944650
448250000 0.8809958 -0.3230386 0.1190042 0.3230386 0.1190042 0.3230386 0.8809958 -0.3230386
498000000 0.8569970 -0.3492345 0.1430030 0.3492345 0.1430030 0.3492345 0.8569970 -0.3492345
547750000 0.8319091 -0.3730182 0.1680909 0.3730182 0.1680909 0.3730182 0.8319091 -0.3730182
597500000 0.8060193 -0.3943968 0.1939807 0.3943968 0.1939807 0.3943968 0.8060193 -0.3943968
647250000 0.7795953 -0.4134132 0.2204047 0.4134132 0.2204047 0.4134132 0.7795953 -0.4134132
697000000 0.7528807 -0.4301399 0.2471193 0.4301399 0.2471193 0.4301399 0.7528807 -0.4301399
746750000 0.7260938 -0.4446731 0.2739062 0.4446731 0.2739062 0.4446731 0.7260938 -0.4446731
796500000 0.6994256 -0.4571267 0.3005744 0.4571267 0.3005744 0.4571267 0.6994256 -0.4571267
846250000 0.6730406 -0.4676271 0.3269594 0.4676271 0.3269594 0.4676271 0.6730406 -0.4676271
896000000 0.6470772 -0.4763084 0.3529228 0.4763084 0.3529228 0.4763084 0.6470772 -0.4763084
945750000 0.6216496 -0.4833083 0.3783504 0.4833083 0.3783504 0.4833083 0.6216496 -0.4833083
995500000 0.5968497 -0.4887648 0.4031503 0.4887648 0.4031503 0.4887648 0.5968497 -0.4887648
1045250000 0.5727490 -0.4928138 0.4272510 0.4928138 0.4272510 0.4928138 0.5727490 -0.4928138
1095000000 0.5494010 -0.4955867 0.4505990 0.4955867 0.4505990 0.4955867 0.5494010 -0.4955867
1144750000 0.5268437 -0.4972090 0.4731563 0.4972090 0.4731563 0.4972090 0.5268437 -0.4972090
1194500000 0.5051016 -0.4977994 0.4948984 0.4977994 0.4948984 0.4977994 0.5051016 -0.4977994
1244250000 0.4841875 -0.4974689 0.5158125 0.4974689 0.5158125 0.4974689 0.4841875 -0.4974689
1294000000 0.4641050 -0.4963206 0.5358950 0.4963206 0.5358950 0.4963206 0.4641050 -0.4963206
1343750000 0.4448494 -0.4944498 0.5551506 0.4944498 0.5551506 0.4944498 0.4448494 -0.4944498
1393500000 0.4264100 -0.4919437 0.5735900 0.4919437 0.5735900 0.4919437 0.4264100 -0.4919437
1443250000 0.4087707 -0.4888818 0.5912293 0.4888818 0.5912293 0.4888818 0.4087707 -0.4888818
1493000000 0.3919116 -0.4853365 0.6080884 0.4853365 0.6080884 0.4853365 0.3919116 -0.4853365
1542750000 0.3758097 -0.4813730 0.6241903 0.4813730 0.6241903 0.4813730 0.3758097 -0.4813730
1592500000 0.3604400 -0.4770502 0.6395600 0.4770502 0.6395600 0.4770502 0.3604400 -0.4770502
1642250000 0.3457760 -0.4724211 0.6542240 0.4724211 0.6542240 0.4724211 0.3457760 -0.4724211
1692000000 0.3317899 -0.4675328 0.6682101 0.4675328 0.6682101 0.4675328 0.3317899 -0.4675328
1741750000 0.3184539 -0.4624277 0.6815461 0.4624277 0.6815461 0.4624277 0.3184539 -0.4624277
1791500000 0.3057399 -0.4571433 0.6942601 0.4571433 0.6942601 0.4571433 0.3057399 -0.4571433
1841250000 0.2936199 -0.4517132 0.7063801 0.4517132 0.7063801 0.4517132 0.2936199 -0.4517132
1891000000 0.2820665 -0.4461669 0.7179335 0.4461669 0.7179335 0.4461669 0.2820665 -0.4461669
1940750000 0.2710529 -0.4405305 0.7289471 0.4405305 0.7289471 0.4405305 0.2710529 -0.4405305
1990500000 0.2605530 -0.4348272 0.7394470 0.4348272 0.7394470 0.4348272 0.2605530 -0.4348272
2040250000 0.2505415 -0.4290773 0.7494585 0.4290773 0.7494585 0.4290773 0.2505415 -0.4290773
2090000000 0.2409942 -0.4232985 0.7590058 0.4232985 0.7590058 0.4232985 0.2409942 -0.4232985
2139750000 0.2318878 -0.4175066 0.7681122 0.4175066 0.7681122 0.4175066 0.2318878 -0.4175066
2189500000 0.2231998 -0.4117151 0.7768002 0.4117151 0.7768002 0.4117151 0.2231998 -0.4117151
2239250000 0.2149091 -0.4059359 0.7850909 0.4059359 0.7850909 0.4059359 0.2149091 -0.4059359
2289000000 0.2069951 -0.4001792 0.7930049 0.4001792 0.7930049 0.4001792 0.2069951 -0.4001792
2338750000 0.1994387 -0.3944540 0.8005613 0.3944540 0.8005613 0.3944540 0.1994387 -0.3944540
2388500000 0.1922215 -0.3887678 0.8077785 0.3887678 0.8077785 0.3887678 0.1922215 -0.3887678
2438250000 0.1853259 -0.3831272 0.8146741 0.3831272 0.8146741 0.3831272 0.1853259 -0.3831272
2488000000 0.1787354 -0.3775377 0.8212646 0.3775377 0.8212646 0.3775377 0.1787354 -0.3775377
2537750000 0.1724345 -0.3720041 0.8275655 0.3720041 0.8275655 0.3720041 0.1724345 -0.3720041
2587500000 0.1664083 -0.3665302 0.8335917 0.3665302 0.8335917 0.3665302 0.1664083 -0.3665302
2637250000 0.1606427 -0.3611194 0.8393573 0.3611194 0.8393573 0.3611194 0.1606427 -0.3611194
2687000000 0.1551245 -0.3557742 0.8448755 0.3557742 0.8448755 0.3557742 0.1551245 -0.3557742
2736750000 0.1498412 -0.3504969 0.8501588 0.3504969 0.8501588 0.3504969 0.1498412 -0.3504969
2786500000 0.1447809 -0.3452890 0.8552191 0.3452890 0.8552191 0.3452890 0.1447809 -0.3452890
2836250000 0.1399325 -0.3401519 0.8600675 0.3401519 0.8600675 0.3401519 0.1399325 -0.3401519
2886000000 0.1352853 -0.3350864 0.8647147 0.3350864 0.8647147 0.3350864 0.1352853 -0.3350864
2935750000 0.1308294 -0.3300931 0.8691706 0.3300931 0.8691706 0.3300931 0.1308294 -0.3300931
2985500000 0.1265554 -0.3251725 0.8734446 0.3251725 0.8734446 0.3251725 0.1265554 -0.3251725
3035250000 0.1224544 -0.3203245 0.8775456 0.3203245 0.8775456 0.3203245 0.1224544 -0.3203245
3085000000 0.1185179 -0.3155491 0.8814821 0.3155491 0.8814821 0.3155491 0.1185179 -0.3155491
3134750000 0.1147380 -0.3108460 0.8852620 0.3108460 0.8852620 0.3108460 0.1147380 -0.3108460
3184500000 0.1111071 -0.3062148 0.8888929 0.3062148 0.8888929 0.3062148 0.1111071 -0.3062148
3234250000 0.1076183 -0.3016547 0.8923817 0.3016547 0.8923817 0.3016547 0.1076183 -0.3016547
3284000000 0.1042647 -0.2971653 0.8957353 0.2971653 0.8957353 0.2971653 0.1042647 -0.2971653
3333750000 0.1010400 -0.2927457 0.8989600 0.2927457 0.8989600 0.2927457 0.1010400 -0.2927457
3383500000 0.0979382 -0.2883949 0.9020618 0.2883949 0.9020618 0.2883949 0.0979382 -0.2883949
3433250000 0.0949536 -0.2841122 0.9050464 0.2841122 0.9050464 0.2841122 0.0949536 -0.2841122
3483000000 0.0920809 -0.2798965 0.9079191 0.2798965 0.9079191 0.2798965 0.0920809 -0.2798965
3532750000 0.0893149 -0.2757467 0.9106851 0.2757467 0.9106851 0.2757467 0.0893149 -0.2757467
3582500000 0.0866509 -0.2716619 0.9133491 0.2716619 0.9133491 0.2716619 0.0866509 -0.2716619
3632250000 0.0840842 -0.2676408 0.9159158 0.2676408 0.9159158 0.2676408 0.0840842 -0.2676408
3682000000 0.0816106 -0.2636825 0.9183894 0.2636825 0.9183894 0.2636825 0.0816106 -0.2636825
3731750000 0.0792260 -0.2597856 0.9207740 0.2597856 0.9207740 0.2597856 0.0792260 -0.2597856
3781500000 0.0769264 -0.2559492 0.9230736 0.2559492 0.9230736 0.2559492 0.0769264 -0.2559492
3831250000 0.0747082 -0.2521720 0.9252918 0.2521720 0.9252918 0.2521720 0.0747082 -0.2521720
3881000000 0.0725679 -0.2484529 0.9274321 0.2484529 0.9274321 0.2484529 0.0725679 -0.2484529
3930750000 0.0705022 -0.2447906 0.9294978 0.2447906 0.9294978 0.2447906 0.0705022 -0.2447906
3980500000 0.0685079 -0.2411842 0.9314921 0.2411842 0.9314921 0.2411842 0.0685079 -0.2411842
4030250000 0.0665821 -0.2376324 0.9334179 0.2376324 0.9334179 0.2376324 0.0665821 -0.2376324
4080000000 0.0647218 -0.2341341 0.9352782 0.2341341 0.9352782 0.2341341 0.0647218 -0.2341341
4129750000 0.0629244 -0.2306882 0.9370756 0.2306882 0.9370756 0.2306882 0.0629244 -0.2306882
4179500000 0.0611873 -0.2272936 0.9388127 0.2272936 0.9388127 0.2272936 0.0611873 -0.2272936
4229250000 0.0595081 -0.2239492 0.9404919 0.2239492 0.9404919 0.2239492 0.0595081 -0.2239492
4279000000 0.0578844 -0.2206538 0.9421156 0.2206538 0.9421156 0.2206538 0.0578844 -0.2206538
4328750000 0.0563141 -0.2174066 0.9436859 0.2174066 0.9436859 0.2174066 0.0563141 -0.2174066
4378500000 0.0547950 -0.2142063 0.9452050 0.2142063 0.9452050 0.2142063 0.0547950 -0.2142063
4428250000 0.0533252 -0.2110520 0.9466748 0.2110520 0.9466748 0.2110520 0.0533252 -0.2110520
4478000000 0.0519027 -0.2079427 0.9480973 0.2079427 0.9480973 0.2079427 0.0519027 -0.2079427
4527750000 0.0505256 -0.2048775 0.9494744 0.2048775 0.9494744 0.2048775 0.0505256 -0.2048775
4577500000 0.0491923 -0.2018552 0.9508077 0.2018552 0.9508077 0.2018552 0.0491923 -0.2018552
4627250000 0.0479012 -0.1988751 0.9520988 0.1988751 0.9520988 0.1988751 0.0479012 -0.1988751
4677000000 0.0466505 -0.1959361 0.9533495 0.1959361 0.9533495 0.1959361 0.0466505 -0.1959361
4726750000 0.0454389 -0.1930374 0.9545611 0.1930374 0.9545611 0.1930374 0.0454389 -0.1930374
4776500000 0.0442648 -0.1901781 0.9557352 0.1901781 0.9557352 0.1901781 0.0442648 -0.1901781
4826250000 0.0431270 -0.1873573 0.9568730 0.1873573 0.9568730 0.1873573 0.0431270 -0.1873573
4876000000 0.0420240 -0.1845741 0.9579760 0.1845741 0.9579760 0.1845741 0.0420240 -0.1845741
4925750000 0.0409547 -0.1818278 0.9590453 0.1818278 0.9590453 0.1818278 0.0409547 -0.1818278
4975500000 0.0399178 -0.1791176 0.9600822 0.1791176 0.9600822 0.1791176 0.0399178 -0.1791176
5025250000 0.0389122 -0.1764426 0.9610878 0.1764426 0.9610878 0.1764426 0.0389122 -0.1764426
5075000000 0.0379367 -0.1738021 0.9620633 0.1738021 0.9620633 0.1738021 0.0379367 -0.1738021
5124750000 0.0369905 -0.1711954 0.9630095 0.1711954 0.9630095 0.1711954 0.0369905 -0.1711954
5174500000 0.0360723 -0.1686216 0.9639277 0.1686216 0.9639277 0.1686216 0.0360723 -0.1686216
5224250000 0.0351813 -0.1660801 0.9648187 0.1660801 0.9648187 0.1660801 0.0351813 -0.1660801
5274000000 0.0343166 -0.1635703 0.9656834 0.1635703 0.9656834 0.1635703 0.0343166 -0.1635703
5323750000 0.0334772 -0.1610913 0.9665228 0.1610913 0.9665228 0.1610913 0.0334772 -0.1610913
5373500000 0.0326624 -0.1586426 0.9673376 0.1586426 0.9673376 0.1586426 0.0326624 -0.1586426
5423250000 0.0318712 -0.1562235 0.9681288 0.1562235 0.9681288 0.1562235 0.0318712 -0.1562235
5473000000 0.0311030 -0.1538333 0.9688970 0.1538333 0.9688970 0.1538333 0.0311030 -0.1538333
5522750000 0.0303570 -0.1514715 0.9696430 0.1514715 0.9696430 0.1514715 0.0303570 -0.1514715
5572500000 0.0296324 -0.1491375 0.9703676 0.1491375 0.9703676 0.1491375 0.0296324 -0.1491375
5622250000 0.0289287 -0.1468306 0.9710713 0.1468306 0.9710713 0.1468306 0.0289287 -0.1468306
5672000000 0.0282450 -0.1445504 0.9717550 0.1445504 0.9717550 0.1445504 0.0282450 -0.1445504
5721750000 0.0275808 -0.1422962 0.9724192 0.1422962 0.9724192 0.1422962 0.0275808 -0.1422962
5771500000 0.0269355 -0.1400674 0.9730645 0.1400674 0.9730645 0.1400674 0.0269355 -0.1400674
5821250000 0.0263085 -0.1378637 0.9736915 0.1378637 0.9736915 0.1378637 0.0263085 -0.1378637
5871000000 0.0256993 -0.1356844 0.9743007 0.1356844 0.9743007 0.1356844 0.0256993 -0.1356844
5920750000 0.0251072 -0.1335291 0.9748928 0.1335291 0.9748928 0.1335291 0.0251072 -0.1335291
5970500000 0.0245318 -0.1313972 0.9754682 0.1313972 0.9754682 0.1313972 0.0245318 -0.1313972
6020250000 0.0239725 -0.1292884 0.9760275 0.1292884 0.9760275 0.1292884 0.0239725 -0.1292884
6070000000 0.0234290 -0.1272020 0.9765710 0.1272020 0.9765710 0.1272020 0.0234290 -0.1272020
6119750000 0.0229007 -0.1251377 0.9770993 0.1251377 0.9770993 0.1251377 0.0229007 -0.1251377
6169500000 0.0223871 -0.1230950 0.9776129 0.1230950 0.9776129 0.1230950 0.0223871 -0.1230950
6219250000 0.0218880 -0.1210736 0.9781120 0.1210736 0.9781120 0.1210736 0.0218880 -0.1210736
6269000000 0.0214027 -0.1190729 0.9785973 0.1190729 0.9785973 0.1190729 0.0214027 -0.1190729
6318750000 0.0209310 -0.1170925 0.9790690 0.1170925 0.9790690 0.1170925 0.0209310 -0.1170925
6368500000 0.0204725 -0.1151321 0.9795275 0.1151321 0.9795275 0.1151321 0.0204725 -0.1151321
6418250000 0.0200267 -0.1131913 0.9799733 0.1131913 0.9799733 0.1131913 0.0200267 -0.1131913
6468000000 0.0195934 -0.1112696 0.9804066 0.1112696 0.9804066 0.1112696 0.0195934 -0.1112696
6517750000 0.0191721 -0.1093668 0.9808279 0.1093668 0.9808279 0.1093668 0.0191721 -0.1093668
6567500000 0.0187626 -0.1074824 0.9812374 0.1074824 0.9812374 0.1074824 0.0187626 -0.1074824
6617250000 0.0183646 -0.1056161 0.9816354 0.1056161 0.9816354 0.1056161 0.0183646 -0.1056161
6667000000 0.0179777 -0.1037675 0.9820223 0.1037675 0.9820223 0.1037675 0.0179777 -0.1037675
6716750000 0.0176016 -0.1019364 0.9823984 0.1019364 0.9823984 0.1019364 0.0176016 -0.1019364
6766500000 0.0172360 -0.1001223 0.9827640 0.1001223 0.9827640 0.1001223 0.0172360 -0.1001223
6816250000 0.0168808 -0.0983250 0.9831192 0.0983250 0.9831192 0.0983250 0.0168808 -0.0983250
6866000000 0.0165355 -0.0965441 0.9834645 0.0965441 0.9834645 0.0965441 0.0165355 -0.0965441
6915750000 0.0161999 -0.0947794 0.9838001 0.0947794 0.9838001 0.0947794 0.0161999 -0.0947794
6965500000 0.0158739 -0.0930305 0.9841261 0.0930305 0.9841261 0.0930305 0.0158739 -0.0930305
7015250000 0.0155571 -0.0912971 0.9844429 0.0912971 0.9844429 0.0912971 0.0155571 -0.0912971
7065000000 0.0152493 -0.0895790 0.9847507 0.0895790 0.9847507 0.0895790 0.0152493 -0.0895790
7114750000 0.0149503 -0.0878759 0.9850497 0.0878759 0.9850497 0.0878759 0.0149503 -0.0878759
7164500000 0.0146598 -0.0861874 0.9853402 0.0861874 0.9853402 0.0861874 0.0146598 -0.0861874
7214250000 0.0143777 -0.0845134 0.9856223 0.0845134 0.9856223 0.0845134 0.0143777 -0.0845134
7264000000 0.0141038 -0.0828536 0.9858962 0.0828536 0.9858962 0.0828536 0.0141038 -0.0828536
7313750000 0.0138378 -0.0812078 0.9861622 0.0812078 0.9861622 0.0812078 0.0138378 -0.0812078
7363500000 0.0135796 -0.0795756 0.9864204 0.0795756 0.9864204 0.0795756 0.0135796 -0.0795756
7413250000 0.0133289 -0.0779568 0.9866711 0.0779568 0.9866711 0.0779568 0.0133289 -0.0779568
7463000000 0.0130857 -0.0763513 0.9869143 0.0763513 0.9869143 0.0763513 0.0130857 -0.0763513
7512750000 0.0128497 -0.0747587 0.9871503 0.0747587 0.9871503 0.0747587 0.0128497 -0.0747587
7562500000 0.0126207 -0.0731788 0.9873793 0.0731788 0.9873793 0.0731788 0.0126207 -0.0731788
7612250000 0.0123986 -0.0716115 0.9876014 0.0716115 0.9876014 0.0716115 0.0123986 -0.0716115
7662000000 0.0121833 -0.0700565 0.9878167 0.0700565 0.9878167 0.0700565 0.0121833 -0.0700565
7711750000 0.0119745 -0.0685136 0.9880255 0.0685136 0.9880255 0.0685136 0.0119745 -0.0685136
7761500000 0.0117721 -0.0669826 0.9882279 0.0669826 0.9882279 0.0669826 0.0117721 -0.0669826
7811250000 0.0115761 -0.0654632 0.9884239 0.0654632 0.9884239 0.0654632 0.0115761 -0.0654632
7861000000 0.0113862 -0.0639554 0.9886138 0.0639554 0.9886138 0.0639554 0.0113862 -0.0639554
7910750000 0.0112023 -0.0624588 0.9887977 0.0624588 0.9887977 0.0624588 0.0112023 -0.0624588
7960500000 0.0110243 -0.0609734 0.9889757 0.0609734 0.9889757 0.0609734 0.0110243 -0.0609734
8010250000 0.0108520 -0.0594989 0.9891480 0.0594989 0.9891480 0.0594989 0.0108520 -0.0594989
8060000000 0.0106854 -0.0580351 0.9893146 0.0580351 0.9893146 0.0580351 0.0106854 -0.0580351
8109750000 0.0105243 -0.0565819 0.9894757 0.0565819 0.9894757 0.0565819 0.0105243 -0.0565819
8159500000 0.0103685 -0.0551391 0.9896315 0.0551391 0.9896315 0.0551391 0.0103685 -0.0551391
8209250000 0.0102181 -0.0537065 0.9897819 0.0537065 0.9897819 0.0537065 0.0102181 -0.0537065
8259000000 0.0100728 -0.0522839 0.9899272 0.0522839 0.9899272 0.0522839 0.0100728 -0.0522839
8308750000 0.0099326 -0.0508713 0.9900674 0.0508713 0.9900674 0.0508713 0.0099326 -0.0508713
8358500000 0.0097973 -0.0494684 0.9902027 0.0494684 0.9902027 0.0494684 0.0097973 -0.0494684
8408250000 0.0096669 -0.0480751 0.9903331 0.0480751 0.9903331 0.0480751 0.0096669 -0.0480751
8458000000 0.0095413 -0.0466912 0.9904587 0.0466912 0.9904587 0.0466912 0.0095413 -0.0466912
8507750000 0.0094203 -0.0453166 0.9905797 0.0453166 0.9905797 0.0453166 0.0094203 -0.0453166
8557500000 0.0093039 -0.0439511 0.9906961 0.0439511 0.9906961 0.0439511 0.0093039 -0.0439511
8607250000 0.0091920 -0.0425947 0.9908080 0.0425947 0.9908080 0.0425947 0.0091920 -0.0425947
8657000000 0.0090845 -0.0412471 0.9909155 0.0412471 0.9909155 0.0412471 0.0090845 -0.0412471
8706750000 0.0089813 -0.0399082 0.9910187 0.0399082 0.9910187 0.0399082 0.0089813 -0.0399082
8756500000 0.0088823 -0.0385779 0.9911177 0.0385779 0.9911177 0.0385779 0.0088823 -0.0385779
8806250000 0.0087875 -0.0372560 0.9912125 0.0372560 0.9912125 0.0372560 0.0087875 -0.0372560
8856000000 0.0086967 -0.0359425 0.9913033 0.0359425 0.9913033 0.0359425 0.0086967 -0.0359425
8905750000 0.0086099 -0.0346372 0.9913901 0.0346372 0.9913901 0.0346372 0.0086099 -0.0346372
8955500000 0.0085271 -0.0333399 0.9914729 0.0333399 0.9914729 0.0333399 0.0085271 -0.0333399
9005250000 0.0084481 -0.0320506 0.9915519 0.0320506 0.9915519 0.0320506 0.0084481 -0.0320506
9055000000 0.0083728 -0.0307692 0.9916272 0.0307692 0.9916272 0.0307692 0.0083728 -0.0307692
9104750000 0.0083013 -0.0294954 0.9916987 0.0294954 0.9916987 0.0294954 0.0083013 -0.0294954
9154500000 0.0082334 -0.0282293 0.9917666 0.0282293 0.9917666 0.0282293 0.0082334 -0.0282293
9204250000 0.0081691 -0.0269707 0.9918309 0.0269707 0.9918309 0.0269707 0.0081691 -0.0269707
9254000000 0.0081084 -0.0257194 0.9918916 0.0257194 0.9918916 0.0257194 0.0081084 -0.0257194
9303750000 0.0080510 -0.0244755 0.9919490 0.0244755 0.9919490 0.0244755 0.0080510 -0.0244755
9353500000 0.0079971 -0.0232387 0.9920029 0.0232387 0.9920029 0.0232387 0.0079971 -0.0232387
9403250000 0.0079465 -0.0220090 0.9920535 0.0220090 0.9920535 0.0220090 0.0079465 -0.0220090
9453000000 0.0078992 -0.0207863 0.9921008 0.0207863 0.9921008 0.0207863 0.0078992 -0.0207863
9502750000 0.0078551 -0.0195704 0.9921449 0.0195704 0.9921449 0.0195704 0.0078551 -0.0195704
9552500000 0.0078142 -0.0183613 0.9921858 0.0183613 0.9921858 0.0183613 0.0078142 -0.0183613
9602250000 0.0077763 -0.0171589 0.9922237 0.0171589 0.9922237 0.0171589 0.0077763 -0.0171589
9652000000 0.0077416 -0.0159631 0.9922584 0.0159631 0.9922584 0.0159631 0.0077416 -0.0159631
9701750000 0.0077099 -0.0147737 0.9922901 0.0147737 0.9922901 0.0147737 0.0077099 -0.0147737
9751500000 0.0076811 -0.0135908 0.9923189 0.0135908 0.9923189 0.0135908 0.0076811 -0.0135908
9801250000 0.0076552 -0.0124142 0.9923448 0.0124142 0.9923448 0.0124142 0.0076552 -0.0124142
9851000000 0.0076323 -0.0112438 0.9923677 0.0112438 0.9923677 0.0112438 0.0076323 -0.0112438
9900750000 0.0076121 -0.0100796 0.9923879 0.0100796 0.9923879 0.0100796 0.0076121 -0.0100796
9950500000 0.0075947 -0.0089215 0.9924053 0.0089215 0.9924053 0.0089215 0.0075947 -0.0089215
10000250000 0.0075801 -0.0077693 0.9924199 0.0077693 0.9924199 0.0077693 0.0075801 -0.0077693
10050000000 0.0075682 -0.0066230 0.9924318 0.0066230 0.9924318 0.0066230 0.0075682 -0.0066230
10099750000 0.0075589 -0.0054825 0.9924411 0.0054825 0.9924411 0.0054825 0.0075589 -0.0054825
10149500000 0.0075523 -0.0043478 0.9924477 0.0043478 0.9924477 0.0043478 0.0075523 -0.0043478
10199250000 0.0075482 -0.0032188 0.9924518 0.0032188 0.9924518 0.0032188 0.0075482 -0.0032188
10249000000 0.0075466 -0.0020954 0.9924534 0.0020954 0.9924534 0.0020954 0.0075466 -0.0020954
10298750000 0.0075476 -0.0009774 0.9924524 0.0009774 0.9924524 0.0009774 0.0075476 -0.0009774
10348500000 0.0075510 0.0001350 0.9924490 -0.0001350 0.9924490 -0.0001350 0.0075510 0.0001350
10398250000 0.0075568 0.0012421 0.9924432 -0.0012421 0.9924432 -0.0012421 0.0075568 0.0012421
10448000000 0.0075651 0.0023439 0.9924349 -0.0023439 0.9924349 -0.0023439 0.0075651 0.0023439
10497750000 0.0075757 0.0034404 0.9924243 -0.0034404 0.9924243 -0.0034404 0.0075757 0.0034404
