!Murata Part Number: GRM0115C1E7R4WE01
!These Parameters are Measured in Series Mode Connection
!Data Generated on Mar 30, 2021
!       o--ll--o
!Port1            Port2
!       o------o
!Operation Temp=25[degC], DC Bias Voltage=0[V]
!Freq. Start=100[MHz] Stop=9[GHz] 401[Steps]
# Hz S RI R 50
!Freq.(Hz) S11(Real) S11(Imag) S21(Real) S21(Imag) S12(Real) S12(Imag) S22(Real) S22(Imag)
100000000 0.8219916 -0.3822236 0.1780084 0.3822236 0.1780084 0.3822236 0.8219916 -0.3822236
121000000 0.7592271 -0.4271935 0.2407729 0.4271935 0.2407729 0.4271935 0.7592271 -0.4271935
142000000 0.6959577 -0.4595779 0.3040423 0.4595779 0.3040423 0.4595779 0.6959577 -0.4595779
163000000 0.6345960 -0.4810566 0.3654040 0.4810566 0.3654040 0.4810566 0.6345960 -0.4810566
184000000 0.5767107 -0.4935292 0.4232893 0.4935292 0.4232893 0.4935292 0.5767107 -0.4935292
205000000 0.5231758 -0.4988461 0.4768242 0.4988461 0.4768242 0.4988461 0.5231758 -0.4988461
226000000 0.4743515 -0.4986592 0.5256485 0.4986592 0.5256485 0.4986592 0.4743515 -0.4986592
247000000 0.4302500 -0.4943618 0.5697500 0.4943618 0.5697500 0.4943618 0.4302500 -0.4943618
268000000 0.3906681 -0.4870832 0.6093319 0.4870832 0.6093319 0.4870832 0.3906681 -0.4870832
289000000 0.3552834 -0.4777136 0.6447166 0.4777136 0.6447166 0.4777136 0.3552834 -0.4777136
310000000 0.3237194 -0.4669393 0.6762806 0.4669393 0.6762806 0.4669393 0.3237194 -0.4669393
331000000 0.2955871 -0.4552805 0.7044129 0.4552805 0.7044129 0.4552805 0.2955871 -0.4552805
352000000 0.2705099 -0.4431258 0.7294901 0.4431258 0.7294901 0.4431258 0.2705099 -0.4431258
373000000 0.2481371 -0.4307615 0.7518629 0.4307615 0.7518629 0.4307615 0.2481371 -0.4307615
394000000 0.2281497 -0.4183952 0.7718503 0.4183952 0.7718503 0.4183952 0.2281497 -0.4183952
415000000 0.2102625 -0.4061752 0.7897375 0.4061752 0.7897375 0.4061752 0.2102625 -0.4061752
436000000 0.1942231 -0.3942050 0.8057769 0.3942050 0.8057769 0.3942050 0.1942231 -0.3942050
457000000 0.1798098 -0.3825546 0.8201902 0.3825546 0.8201902 0.3825546 0.1798098 -0.3825546
478000000 0.1668288 -0.3712692 0.8331712 0.3712692 0.8331712 0.3712692 0.1668288 -0.3712692
499000000 0.1551107 -0.3603757 0.8448893 0.3603757 0.8448893 0.3603757 0.1551107 -0.3603757
520000000 0.1445083 -0.3498877 0.8554917 0.3498877 0.8554917 0.3498877 0.1445083 -0.3498877
541000000 0.1348931 -0.3398091 0.8651069 0.3398091 0.8651069 0.3398091 0.1348931 -0.3398091
562000000 0.1261534 -0.3301368 0.8738466 0.3301368 0.8738466 0.3301368 0.1261534 -0.3301368
583000000 0.1181917 -0.3208629 0.8818083 0.3208629 0.8818083 0.3208629 0.1181917 -0.3208629
604000000 0.1109228 -0.3119763 0.8890772 0.3119763 0.8890772 0.3119763 0.1109228 -0.3119763
625000000 0.1042724 -0.3034636 0.8957276 0.3034636 0.8957276 0.3034636 0.1042724 -0.3034636
646000000 0.0981751 -0.2953100 0.9018249 0.2953100 0.9018249 0.2953100 0.0981751 -0.2953100
667000000 0.0925739 -0.2875003 0.9074261 0.2875003 0.9074261 0.2875003 0.0925739 -0.2875003
688000000 0.0874184 -0.2800185 0.9125816 0.2800185 0.9125816 0.2800185 0.0874184 -0.2800185
709000000 0.0826641 -0.2728492 0.9173359 0.2728492 0.9173359 0.2728492 0.0826641 -0.2728492
730000000 0.0782721 -0.2659769 0.9217279 0.2659769 0.9217279 0.2659769 0.0782721 -0.2659769
751000000 0.0742075 -0.2593867 0.9257925 0.2593867 0.9257925 0.2593867 0.0742075 -0.2593867
772000000 0.0704397 -0.2530641 0.9295603 0.2530641 0.9295603 0.2530641 0.0704397 -0.2530641
793000000 0.0669413 -0.2469953 0.9330587 0.2469953 0.9330587 0.2469953 0.0669413 -0.2469953
814000000 0.0636880 -0.2411671 0.9363120 0.2411671 0.9363120 0.2411671 0.0636880 -0.2411671
835000000 0.0606581 -0.2355671 0.9393419 0.2355671 0.9393419 0.2355671 0.0606581 -0.2355671
856000000 0.0578320 -0.2301833 0.9421680 0.2301833 0.9421680 0.2301833 0.0578320 -0.2301833
877000000 0.0551926 -0.2250045 0.9448074 0.2250045 0.9448074 0.2250045 0.0551926 -0.2250045
898000000 0.0527239 -0.2200200 0.9472761 0.2200200 0.9472761 0.2200200 0.0527239 -0.2200200
919000000 0.0504121 -0.2152199 0.9495879 0.2152199 0.9495879 0.2152199 0.0504121 -0.2152199
940000000 0.0482445 -0.2105948 0.9517555 0.2105948 0.9517555 0.2105948 0.0482445 -0.2105948
961000000 0.0462095 -0.2061356 0.9537905 0.2061356 0.9537905 0.2061356 0.0462095 -0.2061356
982000000 0.0442969 -0.2018341 0.9557031 0.2018341 0.9557031 0.2018341 0.0442969 -0.2018341
1003000000 0.0424973 -0.1976825 0.9575027 0.1976825 0.9575027 0.1976825 0.0424973 -0.1976825
1024000000 0.0408021 -0.1936732 0.9591979 0.1936732 0.9591979 0.1936732 0.0408021 -0.1936732
1045000000 0.0392036 -0.1897992 0.9607964 0.1897992 0.9607964 0.1897992 0.0392036 -0.1897992
1066000000 0.0376948 -0.1860542 0.9623052 0.1860542 0.9623052 0.1860542 0.0376948 -0.1860542
1087000000 0.0362692 -0.1824317 0.9637308 0.1824317 0.9637308 0.1824317 0.0362692 -0.1824317
1108000000 0.0349210 -0.1789261 0.9650790 0.1789261 0.9650790 0.1789261 0.0349210 -0.1789261
1129000000 0.0336447 -0.1755318 0.9663553 0.1755318 0.9663553 0.1755318 0.0336447 -0.1755318
1150000000 0.0324356 -0.1722437 0.9675644 0.1722437 0.9675644 0.1722437 0.0324356 -0.1722437
1171000000 0.0312890 -0.1690568 0.9687110 0.1690568 0.9687110 0.1690568 0.0312890 -0.1690568
1192000000 0.0302008 -0.1659667 0.9697992 0.1659667 0.9697992 0.1659667 0.0302008 -0.1659667
1213000000 0.0291672 -0.1629689 0.9708328 0.1629689 0.9708328 0.1629689 0.0291672 -0.1629689
1234000000 0.0281848 -0.1600593 0.9718152 0.1600593 0.9718152 0.1600593 0.0281848 -0.1600593
1255000000 0.0272502 -0.1572341 0.9727498 0.1572341 0.9727498 0.1572341 0.0272502 -0.1572341
1276000000 0.0263605 -0.1544897 0.9736395 0.1544897 0.9736395 0.1544897 0.0263605 -0.1544897
1297000000 0.0255129 -0.1518225 0.9744871 0.1518225 0.9744871 0.1518225 0.0255129 -0.1518225
1318000000 0.0247049 -0.1492293 0.9752951 0.1492293 0.9752951 0.1492293 0.0247049 -0.1492293
1339000000 0.0239341 -0.1467070 0.9760659 0.1467070 0.9760659 0.1467070 0.0239341 -0.1467070
1360000000 0.0231983 -0.1442526 0.9768017 0.1442526 0.9768017 0.1442526 0.0231983 -0.1442526
1381000000 0.0224954 -0.1418634 0.9775046 0.1418634 0.9775046 0.1418634 0.0224954 -0.1418634
1402000000 0.0218237 -0.1395367 0.9781763 0.1395367 0.9781763 0.1395367 0.0218237 -0.1395367
1423000000 0.0211813 -0.1372701 0.9788187 0.1372701 0.9788187 0.1372701 0.0211813 -0.1372701
1444000000 0.0205666 -0.1350611 0.9794334 0.1350611 0.9794334 0.1350611 0.0205666 -0.1350611
1465000000 0.0199781 -0.1329076 0.9800219 0.1329076 0.9800219 0.1329076 0.0199781 -0.1329076
1486000000 0.0194143 -0.1308073 0.9805857 0.1308073 0.9805857 0.1308073 0.0194143 -0.1308073
1507000000 0.0188739 -0.1287582 0.9811261 0.1287582 0.9811261 0.1287582 0.0188739 -0.1287582
1528000000 0.0183557 -0.1267585 0.9816443 0.1267585 0.9816443 0.1267585 0.0183557 -0.1267585
1549000000 0.0178585 -0.1248061 0.9821415 0.1248061 0.9821415 0.1248061 0.0178585 -0.1248061
1570000000 0.0173812 -0.1228995 0.9826188 0.1228995 0.9826188 0.1228995 0.0173812 -0.1228995
1591000000 0.0169229 -0.1210369 0.9830771 0.1210369 0.9830771 0.1210369 0.0169229 -0.1210369
1612000000 0.0164825 -0.1192167 0.9835175 0.1192167 0.9835175 0.1192167 0.0164825 -0.1192167
1633000000 0.0160592 -0.1174374 0.9839408 0.1174374 0.9839408 0.1174374 0.0160592 -0.1174374
1654000000 0.0156520 -0.1156976 0.9843480 0.1156976 0.9843480 0.1156976 0.0156520 -0.1156976
1675000000 0.0152604 -0.1139958 0.9847396 0.1139958 0.9847396 0.1139958 0.0152604 -0.1139958
1696000000 0.0148834 -0.1123308 0.9851166 0.1123308 0.9851166 0.1123308 0.0148834 -0.1123308
1717000000 0.0145204 -0.1107013 0.9854796 0.1107013 0.9854796 0.1107013 0.0145204 -0.1107013
1738000000 0.0141707 -0.1091061 0.9858293 0.1091061 0.9858293 0.1091061 0.0141707 -0.1091061
1759000000 0.0138338 -0.1075440 0.9861662 0.1075440 0.9861662 0.1075440 0.0138338 -0.1075440
1780000000 0.0135090 -0.1060139 0.9864910 0.1060139 0.9864910 0.1060139 0.0135090 -0.1060139
1801000000 0.0131957 -0.1045148 0.9868043 0.1045148 0.9868043 0.1045148 0.0131957 -0.1045148
1822000000 0.0128935 -0.1030457 0.9871065 0.1030457 0.9871065 0.1030457 0.0128935 -0.1030457
1843000000 0.0126019 -0.1016055 0.9873981 0.1016055 0.9873981 0.1016055 0.0126019 -0.1016055
1864000000 0.0123204 -0.1001935 0.9876796 0.1001935 0.9876796 0.1001935 0.0123204 -0.1001935
1885000000 0.0120486 -0.0988086 0.9879514 0.0988086 0.9879514 0.0988086 0.0120486 -0.0988086
1906000000 0.0117860 -0.0974500 0.9882140 0.0974500 0.9882140 0.0974500 0.0117860 -0.0974500
1927000000 0.0115322 -0.0961169 0.9884678 0.0961169 0.9884678 0.0961169 0.0115322 -0.0961169
1948000000 0.0112870 -0.0948086 0.9887130 0.0948086 0.9887130 0.0948086 0.0112870 -0.0948086
1969000000 0.0110498 -0.0935242 0.9889502 0.0935242 0.9889502 0.0935242 0.0110498 -0.0935242
1990000000 0.0108205 -0.0922631 0.9891795 0.0922631 0.9891795 0.0922631 0.0108205 -0.0922631
2011000000 0.0105986 -0.0910245 0.9894014 0.0910245 0.9894014 0.0910245 0.0105986 -0.0910245
2032000000 0.0103839 -0.0898078 0.9896161 0.0898078 0.9896161 0.0898078 0.0103839 -0.0898078
2053000000 0.0101761 -0.0886123 0.9898239 0.0886123 0.9898239 0.0886123 0.0101761 -0.0886123
2074000000 0.0099749 -0.0874375 0.9900251 0.0874375 0.9900251 0.0874375 0.0099749 -0.0874375
2095000000 0.0097801 -0.0862827 0.9902199 0.0862827 0.9902199 0.0862827 0.0097801 -0.0862827
2116000000 0.0095914 -0.0851473 0.9904086 0.0851473 0.9904086 0.0851473 0.0095914 -0.0851473
2137000000 0.0094085 -0.0840308 0.9905915 0.0840308 0.9905915 0.0840308 0.0094085 -0.0840308
2158000000 0.0092313 -0.0829327 0.9907687 0.0829327 0.9907687 0.0829327 0.0092313 -0.0829327
2179000000 0.0090595 -0.0818525 0.9909405 0.0818525 0.9909405 0.0818525 0.0090595 -0.0818525
2200000000 0.0088930 -0.0807896 0.9911070 0.0807896 0.9911070 0.0807896 0.0088930 -0.0807896
2221000000 0.0087315 -0.0797436 0.9912685 0.0797436 0.9912685 0.0797436 0.0087315 -0.0797436
2242000000 0.0085748 -0.0787141 0.9914252 0.0787141 0.9914252 0.0787141 0.0085748 -0.0787141
2263000000 0.0084229 -0.0777005 0.9915771 0.0777005 0.9915771 0.0777005 0.0084229 -0.0777005
2284000000 0.0082754 -0.0767025 0.9917246 0.0767025 0.9917246 0.0767025 0.0082754 -0.0767025
2305000000 0.0081323 -0.0757197 0.9918677 0.0757197 0.9918677 0.0757197 0.0081323 -0.0757197
2326000000 0.0079934 -0.0747516 0.9920066 0.0747516 0.9920066 0.0747516 0.0079934 -0.0747516
2347000000 0.0078586 -0.0737979 0.9921414 0.0737979 0.9921414 0.0737979 0.0078586 -0.0737979
2368000000 0.0077276 -0.0728582 0.9922724 0.0728582 0.9922724 0.0728582 0.0077276 -0.0728582
2389000000 0.0076005 -0.0719321 0.9923995 0.0719321 0.9923995 0.0719321 0.0076005 -0.0719321
2410000000 0.0074769 -0.0710193 0.9925231 0.0710193 0.9925231 0.0710193 0.0074769 -0.0710193
2431000000 0.0073569 -0.0701195 0.9926431 0.0701195 0.9926431 0.0701195 0.0073569 -0.0701195
2452000000 0.0072404 -0.0692323 0.9927596 0.0692323 0.9927596 0.0692323 0.0072404 -0.0692323
2473000000 0.0071271 -0.0683575 0.9928729 0.0683575 0.9928729 0.0683575 0.0071271 -0.0683575
2494000000 0.0070170 -0.0674946 0.9929830 0.0674946 0.9929830 0.0674946 0.0070170 -0.0674946
2515000000 0.0069100 -0.0666435 0.9930900 0.0666435 0.9930900 0.0666435 0.0069100 -0.0666435
2536000000 0.0068060 -0.0658039 0.9931940 0.0658039 0.9931940 0.0658039 0.0068060 -0.0658039
2557000000 0.0067048 -0.0649754 0.9932952 0.0649754 0.9932952 0.0649754 0.0067048 -0.0649754
2578000000 0.0066065 -0.0641578 0.9933935 0.0641578 0.9933935 0.0641578 0.0066065 -0.0641578
2599000000 0.0065109 -0.0633509 0.9934891 0.0633509 0.9934891 0.0633509 0.0065109 -0.0633509
2620000000 0.0064179 -0.0625543 0.9935821 0.0625543 0.9935821 0.0625543 0.0064179 -0.0625543
2641000000 0.0063274 -0.0617679 0.9936726 0.0617679 0.9936726 0.0617679 0.0063274 -0.0617679
2662000000 0.0062395 -0.0609915 0.9937605 0.0609915 0.9937605 0.0609915 0.0062395 -0.0609915
2683000000 0.0061539 -0.0602247 0.9938461 0.0602247 0.9938461 0.0602247 0.0061539 -0.0602247
2704000000 0.0060706 -0.0594674 0.9939294 0.0594674 0.9939294 0.0594674 0.0060706 -0.0594674
2725000000 0.0059896 -0.0587193 0.9940104 0.0587193 0.9940104 0.0587193 0.0059896 -0.0587193
2746000000 0.0059108 -0.0579803 0.9940892 0.0579803 0.9940892 0.0579803 0.0059108 -0.0579803
2767000000 0.0058341 -0.0572501 0.9941659 0.0572501 0.9941659 0.0572501 0.0058341 -0.0572501
2788000000 0.0057595 -0.0565286 0.9942405 0.0565286 0.9942405 0.0565286 0.0057595 -0.0565286
2809000000 0.0056869 -0.0558156 0.9943131 0.0558156 0.9943131 0.0558156 0.0056869 -0.0558156
2830000000 0.0056162 -0.0551108 0.9943838 0.0551108 0.9943838 0.0551108 0.0056162 -0.0551108
2851000000 0.0055474 -0.0544141 0.9944526 0.0544141 0.9944526 0.0544141 0.0055474 -0.0544141
2872000000 0.0054805 -0.0537253 0.9945195 0.0537253 0.9945195 0.0537253 0.0054805 -0.0537253
2893000000 0.0054153 -0.0530443 0.9945847 0.0530443 0.9945847 0.0530443 0.0054153 -0.0530443
2914000000 0.0053519 -0.0523709 0.9946481 0.0523709 0.9946481 0.0523709 0.0053519 -0.0523709
2935000000 0.0052902 -0.0517049 0.9947098 0.0517049 0.9947098 0.0517049 0.0052902 -0.0517049
2956000000 0.0052301 -0.0510462 0.9947699 0.0510462 0.9947699 0.0510462 0.0052301 -0.0510462
2977000000 0.0051717 -0.0503946 0.9948283 0.0503946 0.9948283 0.0503946 0.0051717 -0.0503946
2998000000 0.0051148 -0.0497500 0.9948852 0.0497500 0.9948852 0.0497500 0.0051148 -0.0497500
3019000000 0.0050594 -0.0491122 0.9949406 0.0491122 0.9949406 0.0491122 0.0050594 -0.0491122
3040000000 0.0050055 -0.0484810 0.9949945 0.0484810 0.9949945 0.0484810 0.0050055 -0.0484810
3061000000 0.0049530 -0.0478565 0.9950470 0.0478565 0.9950470 0.0478565 0.0049530 -0.0478565
3082000000 0.0049019 -0.0472384 0.9950981 0.0472384 0.9950981 0.0472384 0.0049019 -0.0472384
3103000000 0.0048522 -0.0466265 0.9951478 0.0466265 0.9951478 0.0466265 0.0048522 -0.0466265
3124000000 0.0048039 -0.0460208 0.9951961 0.0460208 0.9951961 0.0460208 0.0048039 -0.0460208
3145000000 0.0047568 -0.0454212 0.9952432 0.0454212 0.9952432 0.0454212 0.0047568 -0.0454212
3166000000 0.0047111 -0.0448275 0.9952889 0.0448275 0.9952889 0.0448275 0.0047111 -0.0448275
3187000000 0.0046665 -0.0442397 0.9953335 0.0442397 0.9953335 0.0442397 0.0046665 -0.0442397
3208000000 0.0046232 -0.0436575 0.9953768 0.0436575 0.9953768 0.0436575 0.0046232 -0.0436575
3229000000 0.0045810 -0.0430809 0.9954190 0.0430809 0.9954190 0.0430809 0.0045810 -0.0430809
3250000000 0.0045400 -0.0425098 0.9954600 0.0425098 0.9954600 0.0425098 0.0045400 -0.0425098
3271000000 0.0045001 -0.0419441 0.9954999 0.0419441 0.9954999 0.0419441 0.0045001 -0.0419441
3292000000 0.0044614 -0.0413836 0.9955386 0.0413836 0.9955386 0.0413836 0.0044614 -0.0413836
3313000000 0.0044237 -0.0408284 0.9955763 0.0408284 0.9955763 0.0408284 0.0044237 -0.0408284
3334000000 0.0043870 -0.0402782 0.9956130 0.0402782 0.9956130 0.0402782 0.0043870 -0.0402782
3355000000 0.0043514 -0.0397330 0.9956486 0.0397330 0.9956486 0.0397330 0.0043514 -0.0397330
3376000000 0.0043167 -0.0391927 0.9956833 0.0391927 0.9956833 0.0391927 0.0043167 -0.0391927
3397000000 0.0042831 -0.0386572 0.9957169 0.0386572 0.9957169 0.0386572 0.0042831 -0.0386572
3418000000 0.0042504 -0.0381264 0.9957496 0.0381264 0.9957496 0.0381264 0.0042504 -0.0381264
3439000000 0.0042186 -0.0376003 0.9957814 0.0376003 0.9957814 0.0376003 0.0042186 -0.0376003
3460000000 0.0041878 -0.0370787 0.9958122 0.0370787 0.9958122 0.0370787 0.0041878 -0.0370787
3481000000 0.0041578 -0.0365616 0.9958422 0.0365616 0.9958422 0.0365616 0.0041578 -0.0365616
3502000000 0.0041287 -0.0360489 0.9958713 0.0360489 0.9958713 0.0360489 0.0041287 -0.0360489
3523000000 0.0041005 -0.0355405 0.9958995 0.0355405 0.9958995 0.0355405 0.0041005 -0.0355405
3544000000 0.0040731 -0.0350363 0.9959269 0.0350363 0.9959269 0.0350363 0.0040731 -0.0350363
3565000000 0.0040466 -0.0345363 0.9959534 0.0345363 0.9959534 0.0345363 0.0040466 -0.0345363
3586000000 0.0040208 -0.0340403 0.9959792 0.0340403 0.9959792 0.0340403 0.0040208 -0.0340403
3607000000 0.0039959 -0.0335484 0.9960041 0.0335484 0.9960041 0.0335484 0.0039959 -0.0335484
3628000000 0.0039717 -0.0330604 0.9960283 0.0330604 0.9960283 0.0330604 0.0039717 -0.0330604
3649000000 0.0039483 -0.0325764 0.9960517 0.0325764 0.9960517 0.0325764 0.0039483 -0.0325764
3670000000 0.0039256 -0.0320961 0.9960744 0.0320961 0.9960744 0.0320961 0.0039256 -0.0320961
3691000000 0.0039036 -0.0316196 0.9960964 0.0316196 0.9960964 0.0316196 0.0039036 -0.0316196
3712000000 0.0038824 -0.0311468 0.9961176 0.0311468 0.9961176 0.0311468 0.0038824 -0.0311468
3733000000 0.0038618 -0.0306776 0.9961382 0.0306776 0.9961382 0.0306776 0.0038618 -0.0306776
3754000000 0.0038420 -0.0302119 0.9961580 0.0302119 0.9961580 0.0302119 0.0038420 -0.0302119
3775000000 0.0038228 -0.0297498 0.9961772 0.0297498 0.9961772 0.0297498 0.0038228 -0.0297498
3796000000 0.0038043 -0.0292911 0.9961957 0.0292911 0.9961957 0.0292911 0.0038043 -0.0292911
3817000000 0.0037864 -0.0288359 0.9962136 0.0288359 0.9962136 0.0288359 0.0037864 -0.0288359
3838000000 0.0037692 -0.0283839 0.9962308 0.0283839 0.9962308 0.0283839 0.0037692 -0.0283839
3859000000 0.0037525 -0.0279353 0.9962475 0.0279353 0.9962475 0.0279353 0.0037525 -0.0279353
3880000000 0.0037365 -0.0274898 0.9962635 0.0274898 0.9962635 0.0274898 0.0037365 -0.0274898
3901000000 0.0037212 -0.0270476 0.9962788 0.0270476 0.9962788 0.0270476 0.0037212 -0.0270476
3922000000 0.0037064 -0.0266085 0.9962936 0.0266085 0.9962936 0.0266085 0.0037064 -0.0266085
3943000000 0.0036921 -0.0261724 0.9963079 0.0261724 0.9963079 0.0261724 0.0036921 -0.0261724
3964000000 0.0036785 -0.0257394 0.9963215 0.0257394 0.9963215 0.0257394 0.0036785 -0.0257394
3985000000 0.0036654 -0.0253094 0.9963346 0.0253094 0.9963346 0.0253094 0.0036654 -0.0253094
4006000000 0.0036529 -0.0248823 0.9963471 0.0248823 0.9963471 0.0248823 0.0036529 -0.0248823
4027000000 0.0036409 -0.0244581 0.9963591 0.0244581 0.9963591 0.0244581 0.0036409 -0.0244581
4048000000 0.0036294 -0.0240367 0.9963706 0.0240367 0.9963706 0.0240367 0.0036294 -0.0240367
4069000000 0.0036185 -0.0236182 0.9963815 0.0236182 0.9963815 0.0236182 0.0036185 -0.0236182
4090000000 0.0036081 -0.0232024 0.9963919 0.0232024 0.9963919 0.0232024 0.0036081 -0.0232024
4111000000 0.0035982 -0.0227893 0.9964018 0.0227893 0.9964018 0.0227893 0.0035982 -0.0227893
4132000000 0.0035888 -0.0223789 0.9964112 0.0223789 0.9964112 0.0223789 0.0035888 -0.0223789
4153000000 0.0035799 -0.0219712 0.9964201 0.0219712 0.9964201 0.0219712 0.0035799 -0.0219712
4174000000 0.0035714 -0.0215660 0.9964286 0.0215660 0.9964286 0.0215660 0.0035714 -0.0215660
4195000000 0.0035635 -0.0211634 0.9964365 0.0211634 0.9964365 0.0211634 0.0035635 -0.0211634
4216000000 0.0035560 -0.0207633 0.9964440 0.0207633 0.9964440 0.0207633 0.0035560 -0.0207633
4237000000 0.0035490 -0.0203657 0.9964510 0.0203657 0.9964510 0.0203657 0.0035490 -0.0203657
4258000000 0.0035424 -0.0199706 0.9964576 0.0199706 0.9964576 0.0199706 0.0035424 -0.0199706
4279000000 0.0035363 -0.0195778 0.9964637 0.0195778 0.9964637 0.0195778 0.0035363 -0.0195778
4300000000 0.0035307 -0.0191874 0.9964693 0.0191874 0.9964693 0.0191874 0.0035307 -0.0191874
4321000000 0.0035254 -0.0187994 0.9964746 0.0187994 0.9964746 0.0187994 0.0035254 -0.0187994
4342000000 0.0035206 -0.0184137 0.9964794 0.0184137 0.9964794 0.0184137 0.0035206 -0.0184137
4363000000 0.0035162 -0.0180303 0.9964838 0.0180303 0.9964838 0.0180303 0.0035162 -0.0180303
4384000000 0.0035123 -0.0176490 0.9964877 0.0176490 0.9964877 0.0176490 0.0035123 -0.0176490
4405000000 0.0035087 -0.0172701 0.9964913 0.0172701 0.9964913 0.0172701 0.0035087 -0.0172701
4426000000 0.0035056 -0.0168932 0.9964944 0.0168932 0.9964944 0.0168932 0.0035056 -0.0168932
4447000000 0.0035029 -0.0165186 0.9964971 0.0165186 0.9964971 0.0165186 0.0035029 -0.0165186
4468000000 0.0035005 -0.0161460 0.9964995 0.0161460 0.9964995 0.0161460 0.0035005 -0.0161460
4489000000 0.0034986 -0.0157756 0.9965014 0.0157756 0.9965014 0.0157756 0.0034986 -0.0157756
4510000000 0.0034970 -0.0154072 0.9965030 0.0154072 0.9965030 0.0154072 0.0034970 -0.0154072
