!Murata Part Number: GRM0115C1C5R3CE01
!These Parameters are Measured in Series Mode Connection
!Data Generated on Mar 30, 2021
!       o--ll--o
!Port1            Port2
!       o------o
!Operation Temp=25[degC], DC Bias Voltage=0[V]
!Freq. Start=100[MHz] Stop=9[GHz] 401[Steps]
# Hz S RI R 50
!Freq.(Hz) S11(Real) S11(Imag) S21(Real) S21(Imag) S12(Real) S12(Imag) S22(Real) S22(Imag)
100000000 0.9000030 -0.2997407 0.0999970 0.2997407 0.0999970 0.2997407 0.9000030 -0.2997407
121000000 0.8600658 -0.3466089 0.1399342 0.3466089 0.1399342 0.3466089 0.8600658 -0.3466089
142000000 0.8169097 -0.3863757 0.1830903 0.3863757 0.1830903 0.3863757 0.8169097 -0.3863757
163000000 0.7719677 -0.4191431 0.2280323 0.4191431 0.2280323 0.4191431 0.7719677 -0.4191431
184000000 0.7264737 -0.4452920 0.2735263 0.4452920 0.2735263 0.4452920 0.7264737 -0.4452920
205000000 0.6814284 -0.4653889 0.3185716 0.4653889 0.3185716 0.4653889 0.6814284 -0.4653889
226000000 0.6375973 -0.4801030 0.3624027 0.4801030 0.3624027 0.4801030 0.6375973 -0.4801030
247000000 0.5955290 -0.4901395 0.4044710 0.4901395 0.4044710 0.4901395 0.5955290 -0.4901395
268000000 0.5555865 -0.4961912 0.4444135 0.4961912 0.4444135 0.4961912 0.5555865 -0.4961912
289000000 0.5179813 -0.4989067 0.4820187 0.4989067 0.4820187 0.4989067 0.5179813 -0.4989067
310000000 0.4828076 -0.4988730 0.5171924 0.4988730 0.5171924 0.4988730 0.4828076 -0.4988730
331000000 0.4500723 -0.4966071 0.5499277 0.4966071 0.5499277 0.4966071 0.4500723 -0.4966071
352000000 0.4197205 -0.4925556 0.5802795 0.4925556 0.5802795 0.4925556 0.4197205 -0.4925556
373000000 0.3916557 -0.4870980 0.6083443 0.4870980 0.6083443 0.4870980 0.3916557 -0.4870980
394000000 0.3657552 -0.4805530 0.6342448 0.4805530 0.6342448 0.4805530 0.3657552 -0.4805530
415000000 0.3418820 -0.4731848 0.6581180 0.4731848 0.6581180 0.4731848 0.3418820 -0.4731848
436000000 0.3198934 -0.4652111 0.6801066 0.4652111 0.6801066 0.4652111 0.3198934 -0.4652111
457000000 0.2996463 -0.4568094 0.7003537 0.4568094 0.7003537 0.4568094 0.2996463 -0.4568094
478000000 0.2810017 -0.4481238 0.7189983 0.4481238 0.7189983 0.4481238 0.2810017 -0.4481238
499000000 0.2638272 -0.4392699 0.7361728 0.4392699 0.7361728 0.4392699 0.2638272 -0.4392699
520000000 0.2479980 -0.4303404 0.7520020 0.4303404 0.7520020 0.4303404 0.2479980 -0.4303404
541000000 0.2333984 -0.4214086 0.7666016 0.4214086 0.7666016 0.4214086 0.2333984 -0.4214086
562000000 0.2199211 -0.4125319 0.7800789 0.4125319 0.7800789 0.4125319 0.2199211 -0.4125319
583000000 0.2074682 -0.4037552 0.7925318 0.4037552 0.7925318 0.4037552 0.2074682 -0.4037552
604000000 0.1959497 -0.3951129 0.8040503 0.3951129 0.8040503 0.3951129 0.1959497 -0.3951129
625000000 0.1852838 -0.3866307 0.8147162 0.3866307 0.8147162 0.3866307 0.1852838 -0.3866307
646000000 0.1753964 -0.3783277 0.8246036 0.3783277 0.8246036 0.3783277 0.1753964 -0.3783277
667000000 0.1662199 -0.3702173 0.8337801 0.3702173 0.8337801 0.3702173 0.1662199 -0.3702173
688000000 0.1576932 -0.3623089 0.8423068 0.3623089 0.8423068 0.3623089 0.1576932 -0.3623089
709000000 0.1497610 -0.3546078 0.8502390 0.3546078 0.8502390 0.3546078 0.1497610 -0.3546078
730000000 0.1423730 -0.3471170 0.8576270 0.3471170 0.8576270 0.3471170 0.1423730 -0.3471170
751000000 0.1354838 -0.3398369 0.8645162 0.3398369 0.8645162 0.3398369 0.1354838 -0.3398369
772000000 0.1290522 -0.3327666 0.8709478 0.3327666 0.8709478 0.3327666 0.1290522 -0.3327666
793000000 0.1230409 -0.3259034 0.8769591 0.3259034 0.8769591 0.3259034 0.1230409 -0.3259034
814000000 0.1174162 -0.3192440 0.8825838 0.3192440 0.8825838 0.3192440 0.1174162 -0.3192440
835000000 0.1121471 -0.3127839 0.8878529 0.3127839 0.8878529 0.3127839 0.1121471 -0.3127839
856000000 0.1072060 -0.3065184 0.8927940 0.3065184 0.8927940 0.3065184 0.1072060 -0.3065184
877000000 0.1025672 -0.3004422 0.8974328 0.3004422 0.8974328 0.3004422 0.1025672 -0.3004422
898000000 0.0982079 -0.2945498 0.9017921 0.2945498 0.9017921 0.2945498 0.0982079 -0.2945498
919000000 0.0941069 -0.2888354 0.9058931 0.2888354 0.9058931 0.2888354 0.0941069 -0.2888354
940000000 0.0902451 -0.2832933 0.9097549 0.2832933 0.9097549 0.2832933 0.0902451 -0.2832933
961000000 0.0866048 -0.2779177 0.9133952 0.2779177 0.9133952 0.2779177 0.0866048 -0.2779177
982000000 0.0831703 -0.2727027 0.9168297 0.2727027 0.9168297 0.2727027 0.0831703 -0.2727027
1003000000 0.0799267 -0.2676428 0.9200733 0.2676428 0.9200733 0.2676428 0.0799267 -0.2676428
1024000000 0.0768608 -0.2627323 0.9231392 0.2627323 0.9231392 0.2627323 0.0768608 -0.2627323
1045000000 0.0739601 -0.2579657 0.9260399 0.2579657 0.9260399 0.2579657 0.0739601 -0.2579657
1066000000 0.0712134 -0.2533378 0.9287866 0.2533378 0.9287866 0.2533378 0.0712134 -0.2533378
1087000000 0.0686104 -0.2488433 0.9313896 0.2488433 0.9313896 0.2488433 0.0686104 -0.2488433
1108000000 0.0661415 -0.2444773 0.9338585 0.2444773 0.9338585 0.2444773 0.0661415 -0.2444773
1129000000 0.0637979 -0.2402349 0.9362021 0.2402349 0.9362021 0.2402349 0.0637979 -0.2402349
1150000000 0.0615716 -0.2361115 0.9384284 0.2361115 0.9384284 0.2361115 0.0615716 -0.2361115
1171000000 0.0594550 -0.2321026 0.9405450 0.2321026 0.9405450 0.2321026 0.0594550 -0.2321026
1192000000 0.0574413 -0.2282039 0.9425587 0.2282039 0.9425587 0.2282039 0.0574413 -0.2282039
1213000000 0.0555240 -0.2244112 0.9444760 0.2244112 0.9444760 0.2244112 0.0555240 -0.2244112
1234000000 0.0536974 -0.2207206 0.9463026 0.2207206 0.9463026 0.2207206 0.0536974 -0.2207206
1255000000 0.0519559 -0.2171282 0.9480441 0.2171282 0.9480441 0.2171282 0.0519559 -0.2171282
1276000000 0.0502944 -0.2136304 0.9497056 0.2136304 0.9497056 0.2136304 0.0502944 -0.2136304
1297000000 0.0487082 -0.2102238 0.9512918 0.2102238 0.9512918 0.2102238 0.0487082 -0.2102238
1318000000 0.0471931 -0.2069048 0.9528069 0.2069048 0.9528069 0.2069048 0.0471931 -0.2069048
1339000000 0.0457448 -0.2036704 0.9542552 0.2036704 0.9542552 0.2036704 0.0457448 -0.2036704
1360000000 0.0443596 -0.2005174 0.9556404 0.2005174 0.9556404 0.2005174 0.0443596 -0.2005174
1381000000 0.0430340 -0.1974428 0.9569660 0.1974428 0.9569660 0.1974428 0.0430340 -0.1974428
1402000000 0.0417647 -0.1944440 0.9582353 0.1944440 0.9582353 0.1944440 0.0417647 -0.1944440
1423000000 0.0405487 -0.1915181 0.9594513 0.1915181 0.9594513 0.1915181 0.0405487 -0.1915181
1444000000 0.0393830 -0.1886625 0.9606170 0.1886625 0.9606170 0.1886625 0.0393830 -0.1886625
1465000000 0.0382650 -0.1858749 0.9617350 0.1858749 0.9617350 0.1858749 0.0382650 -0.1858749
1486000000 0.0371922 -0.1831527 0.9628078 0.1831527 0.9628078 0.1831527 0.0371922 -0.1831527
1507000000 0.0361622 -0.1804938 0.9638378 0.1804938 0.9638378 0.1804938 0.0361622 -0.1804938
1528000000 0.0351729 -0.1778959 0.9648271 0.1778959 0.9648271 0.1778959 0.0351729 -0.1778959
1549000000 0.0342221 -0.1753570 0.9657779 0.1753570 0.9657779 0.1753570 0.0342221 -0.1753570
1570000000 0.0333081 -0.1728751 0.9666919 0.1728751 0.9666919 0.1728751 0.0333081 -0.1728751
1591000000 0.0324288 -0.1704483 0.9675712 0.1704483 0.9675712 0.1704483 0.0324288 -0.1704483
1612000000 0.0315827 -0.1680746 0.9684173 0.1680746 0.9684173 0.1680746 0.0315827 -0.1680746
1633000000 0.0307681 -0.1657525 0.9692319 0.1657525 0.9692319 0.1657525 0.0307681 -0.1657525
1654000000 0.0299835 -0.1634800 0.9700165 0.1634800 0.9700165 0.1634800 0.0299835 -0.1634800
1675000000 0.0292275 -0.1612558 0.9707725 0.1612558 0.9707725 0.1612558 0.0292275 -0.1612558
1696000000 0.0284988 -0.1590781 0.9715012 0.1590781 0.9715012 0.1590781 0.0284988 -0.1590781
1717000000 0.0277961 -0.1569456 0.9722039 0.1569456 0.9722039 0.1569456 0.0277961 -0.1569456
1738000000 0.0271182 -0.1548567 0.9728818 0.1548567 0.9728818 0.1548567 0.0271182 -0.1548567
1759000000 0.0264640 -0.1528101 0.9735360 0.1528101 0.9735360 0.1528101 0.0264640 -0.1528101
1780000000 0.0258324 -0.1508045 0.9741676 0.1508045 0.9741676 0.1508045 0.0258324 -0.1508045
1801000000 0.0252224 -0.1488386 0.9747776 0.1488386 0.9747776 0.1488386 0.0252224 -0.1488386
1822000000 0.0246331 -0.1469112 0.9753669 0.1469112 0.9753669 0.1469112 0.0246331 -0.1469112
1843000000 0.0240636 -0.1450211 0.9759364 0.1450211 0.9759364 0.1450211 0.0240636 -0.1450211
1864000000 0.0235131 -0.1431672 0.9764869 0.1431672 0.9764869 0.1431672 0.0235131 -0.1431672
1885000000 0.0229806 -0.1413484 0.9770194 0.1413484 0.9770194 0.1413484 0.0229806 -0.1413484
1906000000 0.0224655 -0.1395637 0.9775345 0.1395637 0.9775345 0.1395637 0.0224655 -0.1395637
1927000000 0.0219671 -0.1378120 0.9780329 0.1378120 0.9780329 0.1378120 0.0219671 -0.1378120
1948000000 0.0214846 -0.1360925 0.9785154 0.1360925 0.9785154 0.1360925 0.0214846 -0.1360925
1969000000 0.0210174 -0.1344041 0.9789826 0.1344041 0.9789826 0.1344041 0.0210174 -0.1344041
1990000000 0.0205650 -0.1327459 0.9794350 0.1327459 0.9794350 0.1327459 0.0205650 -0.1327459
2011000000 0.0201266 -0.1311172 0.9798734 0.1311172 0.9798734 0.1311172 0.0201266 -0.1311172
2032000000 0.0197017 -0.1295171 0.9802983 0.1295171 0.9802983 0.1295171 0.0197017 -0.1295171
2053000000 0.0192899 -0.1279447 0.9807101 0.1279447 0.9807101 0.1279447 0.0192899 -0.1279447
2074000000 0.0188906 -0.1263994 0.9811094 0.1263994 0.9811094 0.1263994 0.0188906 -0.1263994
2095000000 0.0185033 -0.1248803 0.9814967 0.1248803 0.9814967 0.1248803 0.0185033 -0.1248803
2116000000 0.0181275 -0.1233868 0.9818725 0.1233868 0.9818725 0.1233868 0.0181275 -0.1233868
2137000000 0.0177629 -0.1219181 0.9822371 0.1219181 0.9822371 0.1219181 0.0177629 -0.1219181
2158000000 0.0174090 -0.1204735 0.9825910 0.1204735 0.9825910 0.1204735 0.0174090 -0.1204735
2179000000 0.0170655 -0.1190526 0.9829345 0.1190526 0.9829345 0.1190526 0.0170655 -0.1190526
2200000000 0.0167318 -0.1176545 0.9832682 0.1176545 0.9832682 0.1176545 0.0167318 -0.1176545
2221000000 0.0164078 -0.1162787 0.9835922 0.1162787 0.9835922 0.1162787 0.0164078 -0.1162787
2242000000 0.0160929 -0.1149247 0.9839071 0.1149247 0.9839071 0.1149247 0.0160929 -0.1149247
2263000000 0.0157870 -0.1135918 0.9842130 0.1135918 0.9842130 0.1135918 0.0157870 -0.1135918
2284000000 0.0154897 -0.1122796 0.9845103 0.1122796 0.9845103 0.1122796 0.0154897 -0.1122796
2305000000 0.0152007 -0.1109875 0.9847993 0.1109875 0.9847993 0.1109875 0.0152007 -0.1109875
2326000000 0.0149196 -0.1097149 0.9850804 0.1097149 0.9850804 0.1097149 0.0149196 -0.1097149
2347000000 0.0146463 -0.1084614 0.9853537 0.1084614 0.9853537 0.1084614 0.0146463 -0.1084614
2368000000 0.0143804 -0.1072266 0.9856196 0.1072266 0.9856196 0.1072266 0.0143804 -0.1072266
2389000000 0.0141218 -0.1060099 0.9858782 0.1060099 0.9858782 0.1060099 0.0141218 -0.1060099
2410000000 0.0138701 -0.1048110 0.9861299 0.1048110 0.9861299 0.1048110 0.0138701 -0.1048110
2431000000 0.0136252 -0.1036293 0.9863748 0.1036293 0.9863748 0.1036293 0.0136252 -0.1036293
2452000000 0.0133867 -0.1024645 0.9866133 0.1024645 0.9866133 0.1024645 0.0133867 -0.1024645
2473000000 0.0131546 -0.1013161 0.9868454 0.1013161 0.9868454 0.1013161 0.0131546 -0.1013161
2494000000 0.0129286 -0.1001838 0.9870714 0.1001838 0.9870714 0.1001838 0.0129286 -0.1001838
2515000000 0.0127084 -0.0990672 0.9872916 0.0990672 0.9872916 0.0990672 0.0127084 -0.0990672
2536000000 0.0124940 -0.0979660 0.9875060 0.0979660 0.9875060 0.0979660 0.0124940 -0.0979660
2557000000 0.0122851 -0.0968797 0.9877149 0.0968797 0.9877149 0.0968797 0.0122851 -0.0968797
2578000000 0.0120816 -0.0958080 0.9879184 0.0958080 0.9879184 0.0958080 0.0120816 -0.0958080
2599000000 0.0118833 -0.0947506 0.9881167 0.0947506 0.9881167 0.0947506 0.0118833 -0.0947506
2620000000 0.0116900 -0.0937071 0.9883100 0.0937071 0.9883100 0.0937071 0.0116900 -0.0937071
2641000000 0.0115015 -0.0926773 0.9884985 0.0926773 0.9884985 0.0926773 0.0115015 -0.0926773
2662000000 0.0113179 -0.0916609 0.9886821 0.0916609 0.9886821 0.0916609 0.0113179 -0.0916609
2683000000 0.0111388 -0.0906574 0.9888612 0.0906574 0.9888612 0.0906574 0.0111388 -0.0906574
2704000000 0.0109641 -0.0896667 0.9890359 0.0896667 0.9890359 0.0896667 0.0109641 -0.0896667
2725000000 0.0107938 -0.0886885 0.9892062 0.0886885 0.9892062 0.0886885 0.0107938 -0.0886885
2746000000 0.0106277 -0.0877225 0.9893723 0.0877225 0.9893723 0.0877225 0.0106277 -0.0877225
2767000000 0.0104656 -0.0867684 0.9895344 0.0867684 0.9895344 0.0867684 0.0104656 -0.0867684
2788000000 0.0103075 -0.0858260 0.9896925 0.0858260 0.9896925 0.0858260 0.0103075 -0.0858260
2809000000 0.0101533 -0.0848950 0.9898467 0.0848950 0.9898467 0.0848950 0.0101533 -0.0848950
2830000000 0.0100028 -0.0839752 0.9899972 0.0839752 0.9899972 0.0839752 0.0100028 -0.0839752
2851000000 0.0098559 -0.0830663 0.9901441 0.0830663 0.9901441 0.0830663 0.0098559 -0.0830663
2872000000 0.0097125 -0.0821682 0.9902875 0.0821682 0.9902875 0.0821682 0.0097125 -0.0821682
2893000000 0.0095726 -0.0812805 0.9904274 0.0812805 0.9904274 0.0812805 0.0095726 -0.0812805
2914000000 0.0094360 -0.0804031 0.9905640 0.0804031 0.9905640 0.0804031 0.0094360 -0.0804031
2935000000 0.0093026 -0.0795358 0.9906974 0.0795358 0.9906974 0.0795358 0.0093026 -0.0795358
2956000000 0.0091725 -0.0786783 0.9908275 0.0786783 0.9908275 0.0786783 0.0091725 -0.0786783
2977000000 0.0090453 -0.0778305 0.9909547 0.0778305 0.9909547 0.0778305 0.0090453 -0.0778305
2998000000 0.0089212 -0.0769921 0.9910788 0.0769921 0.9910788 0.0769921 0.0089212 -0.0769921
3019000000 0.0088000 -0.0761630 0.9912000 0.0761630 0.9912000 0.0761630 0.0088000 -0.0761630
3040000000 0.0086816 -0.0753430 0.9913184 0.0753430 0.9913184 0.0753430 0.0086816 -0.0753430
3061000000 0.0085660 -0.0745319 0.9914340 0.0745319 0.9914340 0.0745319 0.0085660 -0.0745319
3082000000 0.0084531 -0.0737296 0.9915469 0.0737296 0.9915469 0.0737296 0.0084531 -0.0737296
3103000000 0.0083428 -0.0729358 0.9916572 0.0729358 0.9916572 0.0729358 0.0083428 -0.0729358
3124000000 0.0082350 -0.0721504 0.9917650 0.0721504 0.9917650 0.0721504 0.0082350 -0.0721504
3145000000 0.0081298 -0.0713732 0.9918702 0.0713732 0.9918702 0.0713732 0.0081298 -0.0713732
3166000000 0.0080270 -0.0706041 0.9919730 0.0706041 0.9919730 0.0706041 0.0080270 -0.0706041
3187000000 0.0079265 -0.0698429 0.9920735 0.0698429 0.9920735 0.0698429 0.0079265 -0.0698429
3208000000 0.0078284 -0.0690895 0.9921716 0.0690895 0.9921716 0.0690895 0.0078284 -0.0690895
3229000000 0.0077325 -0.0683438 0.9922675 0.0683438 0.9922675 0.0683438 0.0077325 -0.0683438
3250000000 0.0076388 -0.0676055 0.9923612 0.0676055 0.9923612 0.0676055 0.0076388 -0.0676055
3271000000 0.0075473 -0.0668745 0.9924527 0.0668745 0.9924527 0.0668745 0.0075473 -0.0668745
3292000000 0.0074578 -0.0661508 0.9925422 0.0661508 0.9925422 0.0661508 0.0074578 -0.0661508
3313000000 0.0073704 -0.0654341 0.9926296 0.0654341 0.9926296 0.0654341 0.0073704 -0.0654341
3334000000 0.0072850 -0.0647244 0.9927150 0.0647244 0.9927150 0.0647244 0.0072850 -0.0647244
3355000000 0.0072016 -0.0640215 0.9927984 0.0640215 0.9927984 0.0640215 0.0072016 -0.0640215
3376000000 0.0071200 -0.0633253 0.9928800 0.0633253 0.9928800 0.0633253 0.0071200 -0.0633253
3397000000 0.0070403 -0.0626356 0.9929597 0.0626356 0.9929597 0.0626356 0.0070403 -0.0626356
3418000000 0.0069625 -0.0619524 0.9930375 0.0619524 0.9930375 0.0619524 0.0069625 -0.0619524
3439000000 0.0068864 -0.0612756 0.9931136 0.0612756 0.9931136 0.0612756 0.0068864 -0.0612756
3460000000 0.0068121 -0.0606050 0.9931879 0.0606050 0.9931879 0.0606050 0.0068121 -0.0606050
3481000000 0.0067394 -0.0599405 0.9932606 0.0599405 0.9932606 0.0599405 0.0067394 -0.0599405
3502000000 0.0066685 -0.0592821 0.9933315 0.0592821 0.9933315 0.0592821 0.0066685 -0.0592821
3523000000 0.0065991 -0.0586295 0.9934009 0.0586295 0.9934009 0.0586295 0.0065991 -0.0586295
3544000000 0.0065314 -0.0579828 0.9934686 0.0579828 0.9934686 0.0579828 0.0065314 -0.0579828
3565000000 0.0064652 -0.0573418 0.9935348 0.0573418 0.9935348 0.0573418 0.0064652 -0.0573418
3586000000 0.0064005 -0.0567064 0.9935995 0.0567064 0.9935995 0.0567064 0.0064005 -0.0567064
3607000000 0.0063373 -0.0560765 0.9936627 0.0560765 0.9936627 0.0560765 0.0063373 -0.0560765
3628000000 0.0062756 -0.0554520 0.9937244 0.0554520 0.9937244 0.0554520 0.0062756 -0.0554520
3649000000 0.0062153 -0.0548329 0.9937847 0.0548329 0.9937847 0.0548329 0.0062153 -0.0548329
3670000000 0.0061565 -0.0542190 0.9938435 0.0542190 0.9938435 0.0542190 0.0061565 -0.0542190
3691000000 0.0060989 -0.0536103 0.9939011 0.0536103 0.9939011 0.0536103 0.0060989 -0.0536103
3712000000 0.0060428 -0.0530066 0.9939572 0.0530066 0.9939572 0.0530066 0.0060428 -0.0530066
3733000000 0.0059879 -0.0524080 0.9940121 0.0524080 0.9940121 0.0524080 0.0059879 -0.0524080
3754000000 0.0059344 -0.0518142 0.9940656 0.0518142 0.9940656 0.0518142 0.0059344 -0.0518142
3775000000 0.0058821 -0.0512253 0.9941179 0.0512253 0.9941179 0.0512253 0.0058821 -0.0512253
3796000000 0.0058310 -0.0506412 0.9941690 0.0506412 0.9941690 0.0506412 0.0058310 -0.0506412
3817000000 0.0057812 -0.0500617 0.9942188 0.0500617 0.9942188 0.0500617 0.0057812 -0.0500617
3838000000 0.0057325 -0.0494868 0.9942675 0.0494868 0.9942675 0.0494868 0.0057325 -0.0494868
3859000000 0.0056851 -0.0489164 0.9943149 0.0489164 0.9943149 0.0489164 0.0056851 -0.0489164
3880000000 0.0056387 -0.0483505 0.9943613 0.0483505 0.9943613 0.0483505 0.0056387 -0.0483505
3901000000 0.0055935 -0.0477890 0.9944065 0.0477890 0.9944065 0.0477890 0.0055935 -0.0477890
3922000000 0.0055494 -0.0472318 0.9944506 0.0472318 0.9944506 0.0472318 0.0055494 -0.0472318
3943000000 0.0055064 -0.0466789 0.9944936 0.0466789 0.9944936 0.0466789 0.0055064 -0.0466789
3964000000 0.0054645 -0.0461302 0.9945355 0.0461302 0.9945355 0.0461302 0.0054645 -0.0461302
3985000000 0.0054236 -0.0455855 0.9945764 0.0455855 0.9945764 0.0455855 0.0054236 -0.0455855
4006000000 0.0053837 -0.0450450 0.9946163 0.0450450 0.9946163 0.0450450 0.0053837 -0.0450450
4027000000 0.0053448 -0.0445084 0.9946552 0.0445084 0.9946552 0.0445084 0.0053448 -0.0445084
4048000000 0.0053069 -0.0439758 0.9946931 0.0439758 0.9946931 0.0439758 0.0053069 -0.0439758
4069000000 0.0052700 -0.0434470 0.9947300 0.0434470 0.9947300 0.0434470 0.0052700 -0.0434470
4090000000 0.0052341 -0.0429221 0.9947659 0.0429221 0.9947659 0.0429221 0.0052341 -0.0429221
4111000000 0.0051991 -0.0424010 0.9948009 0.0424010 0.9948009 0.0424010 0.0051991 -0.0424010
4132000000 0.0051650 -0.0418835 0.9948350 0.0418835 0.9948350 0.0418835 0.0051650 -0.0418835
4153000000 0.0051318 -0.0413697 0.9948682 0.0413697 0.9948682 0.0413697 0.0051318 -0.0413697
4174000000 0.0050995 -0.0408595 0.9949005 0.0408595 0.9949005 0.0408595 0.0050995 -0.0408595
4195000000 0.0050681 -0.0403529 0.9949319 0.0403529 0.9949319 0.0403529 0.0050681 -0.0403529
4216000000 0.0050375 -0.0398497 0.9949625 0.0398497 0.9949625 0.0398497 0.0050375 -0.0398497
4237000000 0.0050078 -0.0393500 0.9949922 0.0393500 0.9949922 0.0393500 0.0050078 -0.0393500
4258000000 0.0049789 -0.0388537 0.9950211 0.0388537 0.9950211 0.0388537 0.0049789 -0.0388537
4279000000 0.0049508 -0.0383608 0.9950492 0.0383608 0.9950492 0.0383608 0.0049508 -0.0383608
4300000000 0.0049236 -0.0378711 0.9950764 0.0378711 0.9950764 0.0378711 0.0049236 -0.0378711
4321000000 0.0048971 -0.0373847 0.9951029 0.0373847 0.9951029 0.0373847 0.0048971 -0.0373847
4342000000 0.0048714 -0.0369015 0.9951286 0.0369015 0.9951286 0.0369015 0.0048714 -0.0369015
4363000000 0.0048465 -0.0364215 0.9951535 0.0364215 0.9951535 0.0364215 0.0048465 -0.0364215
4384000000 0.0048224 -0.0359446 0.9951776 0.0359446 0.9951776 0.0359446 0.0048224 -0.0359446
4405000000 0.0047990 -0.0354708 0.9952010 0.0354708 0.9952010 0.0354708 0.0047990 -0.0354708
4426000000 0.0047763 -0.0350000 0.9952237 0.0350000 0.9952237 0.0350000 0.0047763 -0.0350000
4447000000 0.0047543 -0.0345323 0.9952457 0.0345323 0.9952457 0.0345323 0.0047543 -0.0345323
4468000000 0.0047331 -0.0340674 0.9952669 0.0340674 0.9952669 0.0340674 0.0047331 -0.0340674
4489000000 0.0047125 -0.0336055 0.9952875 0.0336055 0.9952875 0.0336055 0.0047125 -0.0336055
4510000000 0.0046927 -0.0331465 0.9953073 0.0331465 0.9953073 0.0331465 0.0046927 -0.0331465
