!Murata Part Number: GRM0115C1C9R9CE01
!These Parameters are Measured in Series Mode Connection
!Data Generated on Mar 30, 2021
!       o--ll--o
!Port1            Port2
!       o------o
!Operation Temp=25[degC], DC Bias Voltage=0[V]
!Freq. Start=100[MHz] Stop=9[GHz] 401[Steps]
# Hz S RI R 50
!Freq.(Hz) S11(Real) S11(Imag) S21(Real) S21(Imag) S12(Real) S12(Imag) S22(Real) S22(Imag)
100000000 0.7206799 -0.4482971 0.2793201 0.4482971 0.2793201 0.4482971 0.7206799 -0.4482971
121000000 0.6379238 -0.4801548 0.3620762 0.4801548 0.3620762 0.4801548 0.6379238 -0.4801548
142000000 0.5611957 -0.4957169 0.4388043 0.4957169 0.4388043 0.4957169 0.5611957 -0.4957169
163000000 0.4924636 -0.4993406 0.5075364 0.4993406 0.5075364 0.4993406 0.4924636 -0.4993406
184000000 0.4322004 -0.4947003 0.5677996 0.4947003 0.5677996 0.4947003 0.4322004 -0.4947003
205000000 0.3800279 -0.4846323 0.6199721 0.4846323 0.6199721 0.4846323 0.3800279 -0.4846323
226000000 0.3351633 -0.4712065 0.6648367 0.4712065 0.6648367 0.4712065 0.3351633 -0.4712065
247000000 0.2966890 -0.4558767 0.7033110 0.4558767 0.7033110 0.4558767 0.2966890 -0.4558767
268000000 0.2636979 -0.4396346 0.7363021 0.4396346 0.7363021 0.4396346 0.2636979 -0.4396346
289000000 0.2353617 -0.4231399 0.7646383 0.4231399 0.7646383 0.4231399 0.2353617 -0.4231399
310000000 0.2109559 -0.4068197 0.7890441 0.4068197 0.7890441 0.4068197 0.2109559 -0.4068197
331000000 0.1898622 -0.3909411 0.8101378 0.3909411 0.8101378 0.3909411 0.1898622 -0.3909411
352000000 0.1715604 -0.3756627 0.8284396 0.3756627 0.8284396 0.3756627 0.1715604 -0.3756627
373000000 0.1556160 -0.3610705 0.8443840 0.3610705 0.8443840 0.3610705 0.1556160 -0.3610705
394000000 0.1416676 -0.3472022 0.8583324 0.3472022 0.8583324 0.3472022 0.1416676 -0.3472022
415000000 0.1294146 -0.3340644 0.8705854 0.3340644 0.8705854 0.3340644 0.1294146 -0.3340644
436000000 0.1186071 -0.3216436 0.8813929 0.3216436 0.8813929 0.3216436 0.1186071 -0.3216436
457000000 0.1090371 -0.3099143 0.8909629 0.3099143 0.8909629 0.3099143 0.1090371 -0.3099143
478000000 0.1005304 -0.2988440 0.8994696 0.2988440 0.8994696 0.2988440 0.1005304 -0.2988440
499000000 0.0929411 -0.2883964 0.9070589 0.2883964 0.9070589 0.2883964 0.0929411 -0.2883964
520000000 0.0861466 -0.2785340 0.9138534 0.2785340 0.9138534 0.2785340 0.0861466 -0.2785340
541000000 0.0800432 -0.2692195 0.9199568 0.2692195 0.9199568 0.2692195 0.0800432 -0.2692195
562000000 0.0745432 -0.2604167 0.9254568 0.2604167 0.9254568 0.2604167 0.0745432 -0.2604167
583000000 0.0695717 -0.2520908 0.9304283 0.2520908 0.9304283 0.2520908 0.0695717 -0.2520908
604000000 0.0650649 -0.2442091 0.9349351 0.2442091 0.9349351 0.2442091 0.0650649 -0.2442091
625000000 0.0609682 -0.2367410 0.9390318 0.2367410 0.9390318 0.2367410 0.0609682 -0.2367410
646000000 0.0572345 -0.2296579 0.9427655 0.2296579 0.9427655 0.2296579 0.0572345 -0.2296579
667000000 0.0538230 -0.2229331 0.9461770 0.2229331 0.9461770 0.2229331 0.0538230 -0.2229331
688000000 0.0506986 -0.2165422 0.9493014 0.2165422 0.9493014 0.2165422 0.0506986 -0.2165422
709000000 0.0478305 -0.2104624 0.9521695 0.2104624 0.9521695 0.2104624 0.0478305 -0.2104624
730000000 0.0451922 -0.2046728 0.9548078 0.2046728 0.9548078 0.2046728 0.0451922 -0.2046728
751000000 0.0427602 -0.1991541 0.9572398 0.1991541 0.9572398 0.1991541 0.0427602 -0.1991541
772000000 0.0405139 -0.1938885 0.9594861 0.1938885 0.9594861 0.1938885 0.0405139 -0.1938885
793000000 0.0384353 -0.1888594 0.9615647 0.1888594 0.9615647 0.1888594 0.0384353 -0.1888594
814000000 0.0365085 -0.1840519 0.9634915 0.1840519 0.9634915 0.1840519 0.0365085 -0.1840519
835000000 0.0347192 -0.1794518 0.9652808 0.1794518 0.9652808 0.1794518 0.0347192 -0.1794518
856000000 0.0330550 -0.1750464 0.9669450 0.1750464 0.9669450 0.1750464 0.0330550 -0.1750464
877000000 0.0315048 -0.1708236 0.9684952 0.1708236 0.9684952 0.1708236 0.0315048 -0.1708236
898000000 0.0300584 -0.1667725 0.9699416 0.1667725 0.9699416 0.1667725 0.0300584 -0.1667725
919000000 0.0287072 -0.1628829 0.9712928 0.1628829 0.9712928 0.1628829 0.0287072 -0.1628829
940000000 0.0274429 -0.1591453 0.9725571 0.1591453 0.9725571 0.1591453 0.0274429 -0.1591453
961000000 0.0262586 -0.1555509 0.9737414 0.1555509 0.9737414 0.1555509 0.0262586 -0.1555509
982000000 0.0251478 -0.1520918 0.9748522 0.1520918 0.9748522 0.1520918 0.0251478 -0.1520918
1003000000 0.0241045 -0.1487602 0.9758955 0.1487602 0.9758955 0.1487602 0.0241045 -0.1487602
1024000000 0.0231237 -0.1455492 0.9768763 0.1455492 0.9768763 0.1455492 0.0231237 -0.1455492
1045000000 0.0222005 -0.1424522 0.9777995 0.1424522 0.9777995 0.1424522 0.0222005 -0.1424522
1066000000 0.0213306 -0.1394632 0.9786694 0.1394632 0.9786694 0.1394632 0.0213306 -0.1394632
1087000000 0.0205100 -0.1365766 0.9794900 0.1365766 0.9794900 0.1365766 0.0205100 -0.1365766
1108000000 0.0197353 -0.1337870 0.9802647 0.1337870 0.9802647 0.1337870 0.0197353 -0.1337870
1129000000 0.0190031 -0.1310894 0.9809969 0.1310894 0.9809969 0.1310894 0.0190031 -0.1310894
1150000000 0.0183105 -0.1284794 0.9816895 0.1284794 0.9816895 0.1284794 0.0183105 -0.1284794
1171000000 0.0176548 -0.1259525 0.9823452 0.1259525 0.9823452 0.1259525 0.0176548 -0.1259525
1192000000 0.0170334 -0.1235046 0.9829666 0.1235046 0.9829666 0.1235046 0.0170334 -0.1235046
1213000000 0.0164441 -0.1211321 0.9835559 0.1211321 0.9835559 0.1211321 0.0164441 -0.1211321
1234000000 0.0158848 -0.1188313 0.9841152 0.1188313 0.9841152 0.1188313 0.0158848 -0.1188313
1255000000 0.0153536 -0.1165989 0.9846464 0.1165989 0.9846464 0.1165989 0.0153536 -0.1165989
1276000000 0.0148486 -0.1144317 0.9851514 0.1144317 0.9851514 0.1144317 0.0148486 -0.1144317
1297000000 0.0143682 -0.1123269 0.9856318 0.1123269 0.9856318 0.1123269 0.0143682 -0.1123269
1318000000 0.0139110 -0.1102815 0.9860890 0.1102815 0.9860890 0.1102815 0.0139110 -0.1102815
1339000000 0.0134755 -0.1082930 0.9865245 0.1082930 0.9865245 0.1082930 0.0134755 -0.1082930
1360000000 0.0130603 -0.1063589 0.9869397 0.1063589 0.9869397 0.1063589 0.0130603 -0.1063589
1381000000 0.0126644 -0.1044769 0.9873356 0.1044769 0.9873356 0.1044769 0.0126644 -0.1044769
1402000000 0.0122867 -0.1026448 0.9877133 0.1026448 0.9877133 0.1026448 0.0122867 -0.1026448
1423000000 0.0119259 -0.1008604 0.9880741 0.1008604 0.9880741 0.1008604 0.0119259 -0.1008604
1444000000 0.0115813 -0.0991219 0.9884187 0.0991219 0.9884187 0.0991219 0.0115813 -0.0991219
1465000000 0.0112518 -0.0974273 0.9887482 0.0974273 0.9887482 0.0974273 0.0112518 -0.0974273
1486000000 0.0109368 -0.0957748 0.9890632 0.0957748 0.9890632 0.0957748 0.0109368 -0.0957748
1507000000 0.0106353 -0.0941629 0.9893647 0.0941629 0.9893647 0.0941629 0.0106353 -0.0941629
1528000000 0.0103466 -0.0925899 0.9896534 0.0925899 0.9896534 0.0925899 0.0103466 -0.0925899
1549000000 0.0100702 -0.0910543 0.9899298 0.0910543 0.9899298 0.0910543 0.0100702 -0.0910543
1570000000 0.0098053 -0.0895546 0.9901947 0.0895546 0.9901947 0.0895546 0.0098053 -0.0895546
1591000000 0.0095513 -0.0880896 0.9904487 0.0880896 0.9904487 0.0880896 0.0095513 -0.0880896
1612000000 0.0093078 -0.0866579 0.9906922 0.0866579 0.9906922 0.0866579 0.0093078 -0.0866579
1633000000 0.0090741 -0.0852583 0.9909259 0.0852583 0.9909259 0.0852583 0.0090741 -0.0852583
1654000000 0.0088498 -0.0838896 0.9911502 0.0838896 0.9911502 0.0838896 0.0088498 -0.0838896
1675000000 0.0086344 -0.0825507 0.9913656 0.0825507 0.9913656 0.0825507 0.0086344 -0.0825507
1696000000 0.0084275 -0.0812406 0.9915725 0.0812406 0.9915725 0.0812406 0.0084275 -0.0812406
1717000000 0.0082286 -0.0799582 0.9917714 0.0799582 0.9917714 0.0799582 0.0082286 -0.0799582
1738000000 0.0080375 -0.0787026 0.9919625 0.0787026 0.9919625 0.0787026 0.0080375 -0.0787026
1759000000 0.0078537 -0.0774728 0.9921463 0.0774728 0.9921463 0.0774728 0.0078537 -0.0774728
1780000000 0.0076769 -0.0762679 0.9923231 0.0762679 0.9923231 0.0762679 0.0076769 -0.0762679
1801000000 0.0075068 -0.0750872 0.9924932 0.0750872 0.9924932 0.0750872 0.0075068 -0.0750872
1822000000 0.0073431 -0.0739298 0.9926569 0.0739298 0.9926569 0.0739298 0.0073431 -0.0739298
1843000000 0.0071854 -0.0727949 0.9928146 0.0727949 0.9928146 0.0727949 0.0071854 -0.0727949
1864000000 0.0070336 -0.0716819 0.9929664 0.0716819 0.9929664 0.0716819 0.0070336 -0.0716819
1885000000 0.0068873 -0.0705900 0.9931127 0.0705900 0.9931127 0.0705900 0.0068873 -0.0705900
1906000000 0.0067464 -0.0695184 0.9932536 0.0695184 0.9932536 0.0695184 0.0067464 -0.0695184
1927000000 0.0066105 -0.0684667 0.9933895 0.0684667 0.9933895 0.0684667 0.0066105 -0.0684667
1948000000 0.0064795 -0.0674341 0.9935205 0.0674341 0.9935205 0.0674341 0.0064795 -0.0674341
1969000000 0.0063532 -0.0664201 0.9936468 0.0664201 0.9936468 0.0664201 0.0063532 -0.0664201
1990000000 0.0062314 -0.0654241 0.9937686 0.0654241 0.9937686 0.0654241 0.0062314 -0.0654241
2011000000 0.0061139 -0.0644456 0.9938861 0.0644456 0.9938861 0.0644456 0.0061139 -0.0644456
2032000000 0.0060004 -0.0634839 0.9939996 0.0634839 0.9939996 0.0634839 0.0060004 -0.0634839
2053000000 0.0058910 -0.0625387 0.9941090 0.0625387 0.9941090 0.0625387 0.0058910 -0.0625387
2074000000 0.0057853 -0.0616095 0.9942147 0.0616095 0.9942147 0.0616095 0.0057853 -0.0616095
2095000000 0.0056833 -0.0606957 0.9943167 0.0606957 0.9943167 0.0606957 0.0056833 -0.0606957
2116000000 0.0055848 -0.0597969 0.9944152 0.0597969 0.9944152 0.0597969 0.0055848 -0.0597969
2137000000 0.0054896 -0.0589127 0.9945104 0.0589127 0.9945104 0.0589127 0.0054896 -0.0589127
2158000000 0.0053977 -0.0580426 0.9946023 0.0580426 0.9946023 0.0580426 0.0053977 -0.0580426
2179000000 0.0053088 -0.0571864 0.9946912 0.0571864 0.9946912 0.0571864 0.0053088 -0.0571864
2200000000 0.0052230 -0.0563435 0.9947770 0.0563435 0.9947770 0.0563435 0.0052230 -0.0563435
2221000000 0.0051401 -0.0555137 0.9948599 0.0555137 0.9948599 0.0555137 0.0051401 -0.0555137
2242000000 0.0050599 -0.0546965 0.9949401 0.0546965 0.9949401 0.0546965 0.0050599 -0.0546965
2263000000 0.0049824 -0.0538916 0.9950176 0.0538916 0.9950176 0.0538916 0.0049824 -0.0538916
2284000000 0.0049075 -0.0530987 0.9950925 0.0530987 0.9950925 0.0530987 0.0049075 -0.0530987
2305000000 0.0048351 -0.0523175 0.9951649 0.0523175 0.9951649 0.0523175 0.0048351 -0.0523175
2326000000 0.0047650 -0.0515476 0.9952350 0.0515476 0.9952350 0.0515476 0.0047650 -0.0515476
2347000000 0.0046973 -0.0507888 0.9953027 0.0507888 0.9953027 0.0507888 0.0046973 -0.0507888
2368000000 0.0046318 -0.0500407 0.9953682 0.0500407 0.9953682 0.0500407 0.0046318 -0.0500407
2389000000 0.0045685 -0.0493031 0.9954315 0.0493031 0.9954315 0.0493031 0.0045685 -0.0493031
2410000000 0.0045072 -0.0485758 0.9954928 0.0485758 0.9954928 0.0485758 0.0045072 -0.0485758
2431000000 0.0044479 -0.0478584 0.9955521 0.0478584 0.9955521 0.0478584 0.0044479 -0.0478584
2452000000 0.0043906 -0.0471507 0.9956094 0.0471507 0.9956094 0.0471507 0.0043906 -0.0471507
2473000000 0.0043351 -0.0464525 0.9956649 0.0464525 0.9956649 0.0464525 0.0043351 -0.0464525
2494000000 0.0042815 -0.0457635 0.9957185 0.0457635 0.9957185 0.0457635 0.0042815 -0.0457635
2515000000 0.0042296 -0.0450835 0.9957704 0.0450835 0.9957704 0.0450835 0.0042296 -0.0450835
2536000000 0.0041794 -0.0444123 0.9958206 0.0444123 0.9958206 0.0444123 0.0041794 -0.0444123
2557000000 0.0041309 -0.0437496 0.9958691 0.0437496 0.9958691 0.0437496 0.0041309 -0.0437496
2578000000 0.0040839 -0.0430954 0.9959161 0.0430954 0.9959161 0.0430954 0.0040839 -0.0430954
2599000000 0.0040384 -0.0424493 0.9959616 0.0424493 0.9959616 0.0424493 0.0040384 -0.0424493
2620000000 0.0039945 -0.0418111 0.9960055 0.0418111 0.9960055 0.0418111 0.0039945 -0.0418111
2641000000 0.0039520 -0.0411808 0.9960480 0.0411808 0.9960480 0.0411808 0.0039520 -0.0411808
2662000000 0.0039109 -0.0405580 0.9960891 0.0405580 0.9960891 0.0405580 0.0039109 -0.0405580
2683000000 0.0038711 -0.0399427 0.9961289 0.0399427 0.9961289 0.0399427 0.0038711 -0.0399427
2704000000 0.0038327 -0.0393346 0.9961673 0.0393346 0.9961673 0.0393346 0.0038327 -0.0393346
2725000000 0.0037955 -0.0387336 0.9962045 0.0387336 0.9962045 0.0387336 0.0037955 -0.0387336
2746000000 0.0037596 -0.0381396 0.9962404 0.0381396 0.9962404 0.0381396 0.0037596 -0.0381396
2767000000 0.0037248 -0.0375523 0.9962752 0.0375523 0.9962752 0.0375523 0.0037248 -0.0375523
2788000000 0.0036913 -0.0369716 0.9963087 0.0369716 0.9963087 0.0369716 0.0036913 -0.0369716
2809000000 0.0036588 -0.0363974 0.9963412 0.0363974 0.9963412 0.0363974 0.0036588 -0.0363974
2830000000 0.0036275 -0.0358295 0.9963725 0.0358295 0.9963725 0.0358295 0.0036275 -0.0358295
2851000000 0.0035972 -0.0352679 0.9964028 0.0352679 0.9964028 0.0352679 0.0035972 -0.0352679
2872000000 0.0035679 -0.0347123 0.9964321 0.0347123 0.9964321 0.0347123 0.0035679 -0.0347123
2893000000 0.0035397 -0.0341626 0.9964603 0.0341626 0.9964603 0.0341626 0.0035397 -0.0341626
2914000000 0.0035124 -0.0336187 0.9964876 0.0336187 0.9964876 0.0336187 0.0035124 -0.0336187
2935000000 0.0034861 -0.0330805 0.9965139 0.0330805 0.9965139 0.0330805 0.0034861 -0.0330805
2956000000 0.0034607 -0.0325479 0.9965393 0.0325479 0.9965393 0.0325479 0.0034607 -0.0325479
2977000000 0.0034363 -0.0320207 0.9965637 0.0320207 0.9965637 0.0320207 0.0034363 -0.0320207
2998000000 0.0034126 -0.0314988 0.9965874 0.0314988 0.9965874 0.0314988 0.0034126 -0.0314988
3019000000 0.0033899 -0.0309821 0.9966101 0.0309821 0.9966101 0.0309821 0.0033899 -0.0309821
3040000000 0.0033680 -0.0304706 0.9966320 0.0304706 0.9966320 0.0304706 0.0033680 -0.0304706
3061000000 0.0033468 -0.0299640 0.9966532 0.0299640 0.9966532 0.0299640 0.0033468 -0.0299640
3082000000 0.0033265 -0.0294624 0.9966735 0.0294624 0.9966735 0.0294624 0.0033265 -0.0294624
3103000000 0.0033070 -0.0289655 0.9966930 0.0289655 0.9966930 0.0289655 0.0033070 -0.0289655
3124000000 0.0032881 -0.0284734 0.9967119 0.0284734 0.9967119 0.0284734 0.0032881 -0.0284734
3145000000 0.0032701 -0.0279859 0.9967299 0.0279859 0.9967299 0.0279859 0.0032701 -0.0279859
3166000000 0.0032527 -0.0275029 0.9967473 0.0275029 0.9967473 0.0275029 0.0032527 -0.0275029
3187000000 0.0032360 -0.0270244 0.9967640 0.0270244 0.9967640 0.0270244 0.0032360 -0.0270244
3208000000 0.0032200 -0.0265502 0.9967800 0.0265502 0.9967800 0.0265502 0.0032200 -0.0265502
3229000000 0.0032047 -0.0260802 0.9967953 0.0260802 0.9967953 0.0260802 0.0032047 -0.0260802
3250000000 0.0031900 -0.0256145 0.9968100 0.0256145 0.9968100 0.0256145 0.0031900 -0.0256145
3271000000 0.0031759 -0.0251528 0.9968241 0.0251528 0.9968241 0.0251528 0.0031759 -0.0251528
3292000000 0.0031625 -0.0246952 0.9968375 0.0246952 0.9968375 0.0246952 0.0031625 -0.0246952
3313000000 0.0031496 -0.0242415 0.9968504 0.0242415 0.9968504 0.0242415 0.0031496 -0.0242415
3334000000 0.0031374 -0.0237916 0.9968626 0.0237916 0.9968626 0.0237916 0.0031374 -0.0237916
3355000000 0.0031257 -0.0233456 0.9968743 0.0233456 0.9968743 0.0233456 0.0031257 -0.0233456
3376000000 0.0031146 -0.0229033 0.9968854 0.0229033 0.9968854 0.0229033 0.0031146 -0.0229033
3397000000 0.0031040 -0.0224647 0.9968960 0.0224647 0.9968960 0.0224647 0.0031040 -0.0224647
3418000000 0.0030940 -0.0220297 0.9969060 0.0220297 0.9969060 0.0220297 0.0030940 -0.0220297
3439000000 0.0030845 -0.0215982 0.9969155 0.0215982 0.9969155 0.0215982 0.0030845 -0.0215982
3460000000 0.0030755 -0.0211701 0.9969245 0.0211701 0.9969245 0.0211701 0.0030755 -0.0211701
3481000000 0.0030670 -0.0207455 0.9969330 0.0207455 0.9969330 0.0207455 0.0030670 -0.0207455
3502000000 0.0030590 -0.0203242 0.9969410 0.0203242 0.9969410 0.0203242 0.0030590 -0.0203242
3523000000 0.0030515 -0.0199061 0.9969485 0.0199061 0.9969485 0.0199061 0.0030515 -0.0199061
3544000000 0.0030445 -0.0194913 0.9969555 0.0194913 0.9969555 0.0194913 0.0030445 -0.0194913
3565000000 0.0030379 -0.0190797 0.9969621 0.0190797 0.9969621 0.0190797 0.0030379 -0.0190797
3586000000 0.0030318 -0.0186712 0.9969682 0.0186712 0.9969682 0.0186712 0.0030318 -0.0186712
3607000000 0.0030261 -0.0182657 0.9969739 0.0182657 0.9969739 0.0182657 0.0030261 -0.0182657
3628000000 0.0030209 -0.0178632 0.9969791 0.0178632 0.9969791 0.0178632 0.0030209 -0.0178632
3649000000 0.0030161 -0.0174637 0.9969839 0.0174637 0.9969839 0.0174637 0.0030161 -0.0174637
3670000000 0.0030117 -0.0170671 0.9969883 0.0170671 0.9969883 0.0170671 0.0030117 -0.0170671
3691000000 0.0030077 -0.0166733 0.9969923 0.0166733 0.9969923 0.0166733 0.0030077 -0.0166733
3712000000 0.0030042 -0.0162823 0.9969958 0.0162823 0.9969958 0.0162823 0.0030042 -0.0162823
3733000000 0.0030010 -0.0158941 0.9969990 0.0158941 0.9969990 0.0158941 0.0030010 -0.0158941
3754000000 0.0029982 -0.0155086 0.9970018 0.0155086 0.9970018 0.0155086 0.0029982 -0.0155086
3775000000 0.0029958 -0.0151258 0.9970042 0.0151258 0.9970042 0.0151258 0.0029958 -0.0151258
3796000000 0.0029938 -0.0147455 0.9970062 0.0147455 0.9970062 0.0147455 0.0029938 -0.0147455
3817000000 0.0029922 -0.0143679 0.9970078 0.0143679 0.9970078 0.0143679 0.0029922 -0.0143679
3838000000 0.0029909 -0.0139928 0.9970091 0.0139928 0.9970091 0.0139928 0.0029909 -0.0139928
3859000000 0.0029900 -0.0136201 0.9970100 0.0136201 0.9970100 0.0136201 0.0029900 -0.0136201
3880000000 0.0029895 -0.0132500 0.9970105 0.0132500 0.9970105 0.0132500 0.0029895 -0.0132500
3901000000 0.0029892 -0.0128822 0.9970108 0.0128822 0.9970108 0.0128822 0.0029892 -0.0128822
3922000000 0.0029894 -0.0125168 0.9970106 0.0125168 0.9970106 0.0125168 0.0029894 -0.0125168
3943000000 0.0029898 -0.0121538 0.9970102 0.0121538 0.9970102 0.0121538 0.0029898 -0.0121538
3964000000 0.0029906 -0.0117930 0.9970094 0.0117930 0.9970094 0.0117930 0.0029906 -0.0117930
3985000000 0.0029918 -0.0114345 0.9970082 0.0114345 0.9970082 0.0114345 0.0029918 -0.0114345
4006000000 0.0029932 -0.0110782 0.9970068 0.0110782 0.9970068 0.0110782 0.0029932 -0.0110782
4027000000 0.0029950 -0.0107242 0.9970050 0.0107242 0.9970050 0.0107242 0.0029950 -0.0107242
4048000000 0.0029971 -0.0103722 0.9970029 0.0103722 0.9970029 0.0103722 0.0029971 -0.0103722
4069000000 0.0029995 -0.0100225 0.9970005 0.0100225 0.9970005 0.0100225 0.0029995 -0.0100225
4090000000 0.0030022 -0.0096748 0.9969978 0.0096748 0.9969978 0.0096748 0.0030022 -0.0096748
4111000000 0.0030051 -0.0093291 0.9969949 0.0093291 0.9969949 0.0093291 0.0030051 -0.0093291
4132000000 0.0030084 -0.0089855 0.9969916 0.0089855 0.9969916 0.0089855 0.0030084 -0.0089855
4153000000 0.0030120 -0.0086439 0.9969880 0.0086439 0.9969880 0.0086439 0.0030120 -0.0086439
4174000000 0.0030159 -0.0083042 0.9969841 0.0083042 0.9969841 0.0083042 0.0030159 -0.0083042
4195000000 0.0030201 -0.0079665 0.9969799 0.0079665 0.9969799 0.0079665 0.0030201 -0.0079665
4216000000 0.0030245 -0.0076307 0.9969755 0.0076307 0.9969755 0.0076307 0.0030245 -0.0076307
4237000000 0.0030292 -0.0072968 0.9969708 0.0072968 0.9969708 0.0072968 0.0030292 -0.0072968
4258000000 0.0030342 -0.0069647 0.9969658 0.0069647 0.9969658 0.0069647 0.0030342 -0.0069647
4279000000 0.0030395 -0.0066345 0.9969605 0.0066345 0.9969605 0.0066345 0.0030395 -0.0066345
4300000000 0.0030450 -0.0063060 0.9969550 0.0063060 0.9969550 0.0063060 0.0030450 -0.0063060
4321000000 0.0030508 -0.0059794 0.9969492 0.0059794 0.9969492 0.0059794 0.0030508 -0.0059794
4342000000 0.0030569 -0.0056545 0.9969431 0.0056545 0.9969431 0.0056545 0.0030569 -0.0056545
4363000000 0.0030632 -0.0053313 0.9969368 0.0053313 0.9969368 0.0053313 0.0030632 -0.0053313
4384000000 0.0030698 -0.0050098 0.9969302 0.0050098 0.9969302 0.0050098 0.0030698 -0.0050098
4405000000 0.0030766 -0.0046899 0.9969234 0.0046899 0.9969234 0.0046899 0.0030766 -0.0046899
4426000000 0.0030837 -0.0043717 0.9969163 0.0043717 0.9969163 0.0043717 0.0030837 -0.0043717
4447000000 0.0030911 -0.0040552 0.9969089 0.0040552 0.9969089 0.0040552 0.0030911 -0.0040552
4468000000 0.0030987 -0.0037402 0.9969013 0.0037402 0.9969013 0.0037402 0.0030987 -0.0037402
4489000000 0.0031065 -0.0034269 0.9968935 0.0034269 0.9968935 0.0034269 0.0031065 -0.0034269
4510000000 0.0031146 -0.0031151 0.9968854 0.0031151 0.9968854 0.0031151 0.0031146 -0.0031151
