!Murata Part Number: GRM0115C1E1R8WE01
!These Parameters are Measured in Series Mode Connection
!Data Generated on Mar 30, 2021
!       o--ll--o
!Port1            Port2
!       o------o
!Operation Temp=25[degC], DC Bias Voltage=0[V]
!Freq. Start=100[MHz] Stop=20[GHz] 401[Steps]
# Hz S RI R 50
!Freq.(Hz) S11(Real) S11(Imag) S21(Real) S21(Imag) S12(Real) S12(Imag) S22(Real) S22(Imag)
100000000 0.9873296 -0.1116750 0.0126704 0.1116750 0.0126704 0.1116750 0.9873296 -0.1116750
149750000 0.9720190 -0.1646596 0.0279810 0.1646596 0.0279810 0.1646596 0.9720190 -0.1646596
199500000 0.9513741 -0.2147394 0.0486259 0.2147394 0.0486259 0.2147394 0.9513741 -0.2147394
249250000 0.9260779 -0.2612116 0.0739221 0.2612116 0.0739221 0.2612116 0.9260779 -0.2612116
299000000 0.8969085 -0.3035579 0.1030915 0.3035579 0.1030915 0.3035579 0.8969085 -0.3035579
348750000 0.8646854 -0.3414500 0.1353146 0.3414500 0.1353146 0.3414500 0.8646854 -0.3414500
398500000 0.8302212 -0.3747392 0.1697788 0.3747392 0.1697788 0.3747392 0.8302212 -0.3747392
448250000 0.7942819 -0.4034351 0.2057181 0.4034351 0.2057181 0.4034351 0.7942819 -0.4034351
498000000 0.7575593 -0.4276768 0.2424407 0.4276768 0.2424407 0.4276768 0.7575593 -0.4276768
547750000 0.7206537 -0.4477016 0.2793463 0.4477016 0.2793463 0.4477016 0.7206537 -0.4477016
597500000 0.6840666 -0.4638147 0.3159334 0.4638147 0.3159334 0.4638147 0.6840666 -0.4638147
647250000 0.6482021 -0.4763625 0.3517979 0.4763625 0.3517979 0.4763625 0.6482021 -0.4763625
697000000 0.6133722 -0.4857095 0.3866278 0.4857095 0.3866278 0.4857095 0.6133722 -0.4857095
746750000 0.5798068 -0.4922214 0.4201932 0.4922214 0.4201932 0.4922214 0.5798068 -0.4922214
796500000 0.5476650 -0.4962517 0.4523350 0.4962517 0.4523350 0.4962517 0.5476650 -0.4962517
846250000 0.5170466 -0.4981333 0.4829534 0.4981333 0.4829534 0.4981333 0.5170466 -0.4981333
896000000 0.4880034 -0.4981729 0.5119966 0.4981729 0.5119966 0.4981729 0.4880034 -0.4981729
945750000 0.4605490 -0.4966487 0.5394510 0.4966487 0.5394510 0.4966487 0.4605490 -0.4966487
995500000 0.4346681 -0.4938091 0.5653319 0.4938091 0.5653319 0.4938091 0.4346681 -0.4938091
1045250000 0.4103234 -0.4898739 0.5896766 0.4898739 0.5896766 0.4898739 0.4103234 -0.4898739
1095000000 0.3874625 -0.4850355 0.6125375 0.4850355 0.6125375 0.4850355 0.3874625 -0.4850355
1144750000 0.3660221 -0.4794610 0.6339779 0.4794610 0.6339779 0.4794610 0.3660221 -0.4794610
1194500000 0.3459326 -0.4732947 0.6540674 0.4732947 0.6540674 0.4732947 0.3459326 -0.4732947
1244250000 0.3271206 -0.4666603 0.6728794 0.4666603 0.6728794 0.4666603 0.3271206 -0.4666603
1294000000 0.3095116 -0.4596633 0.6904884 0.4596633 0.6904884 0.4596633 0.3095116 -0.4596633
1343750000 0.2930315 -0.4523935 0.7069685 0.4523935 0.7069685 0.4523935 0.2930315 -0.4523935
1393500000 0.2776079 -0.4449264 0.7223921 0.4449264 0.7223921 0.4449264 0.2776079 -0.4449264
1443250000 0.2631710 -0.4373258 0.7368290 0.4373258 0.7368290 0.4373258 0.2631710 -0.4373258
1493000000 0.2496541 -0.4296450 0.7503459 0.4296450 0.7503459 0.4296450 0.2496541 -0.4296450
1542750000 0.2369938 -0.4219286 0.7630062 0.4219286 0.7630062 0.4219286 0.2369938 -0.4219286
1592500000 0.2251306 -0.4142134 0.7748694 0.4142134 0.7748694 0.4142134 0.2251306 -0.4142134
1642250000 0.2140085 -0.4065298 0.7859915 0.4065298 0.7859915 0.4065298 0.2140085 -0.4065298
1692000000 0.2035753 -0.3989027 0.7964247 0.3989027 0.7964247 0.3989027 0.2035753 -0.3989027
1741750000 0.1937824 -0.3913522 0.8062176 0.3913522 0.8062176 0.3913522 0.1937824 -0.3913522
1791500000 0.1845844 -0.3838946 0.8154156 0.3838946 0.8154156 0.3838946 0.1845844 -0.3838946
1841250000 0.1759394 -0.3765428 0.8240606 0.3765428 0.8240606 0.3765428 0.1759394 -0.3765428
1891000000 0.1678085 -0.3693069 0.8321915 0.3693069 0.8321915 0.3693069 0.1678085 -0.3693069
1940750000 0.1601558 -0.3621947 0.8398442 0.3621947 0.8398442 0.3621947 0.1601558 -0.3621947
1990500000 0.1529478 -0.3552118 0.8470522 0.3552118 0.8470522 0.3552118 0.1529478 -0.3552118
2040250000 0.1461539 -0.3483623 0.8538461 0.3483623 0.8538461 0.3483623 0.1461539 -0.3483623
2090000000 0.1397456 -0.3416489 0.8602544 0.3416489 0.8602544 0.3416489 0.1397456 -0.3416489
2139750000 0.1336967 -0.3350731 0.8663033 0.3350731 0.8663033 0.3350731 0.1336967 -0.3350731
2189500000 0.1279829 -0.3286355 0.8720171 0.3286355 0.8720171 0.3286355 0.1279829 -0.3286355
2239250000 0.1225817 -0.3223359 0.8774183 0.3223359 0.8774183 0.3223359 0.1225817 -0.3223359
2289000000 0.1174723 -0.3161734 0.8825277 0.3161734 0.8825277 0.3161734 0.1174723 -0.3161734
2338750000 0.1126358 -0.3101466 0.8873642 0.3101466 0.8873642 0.3101466 0.1126358 -0.3101466
2388500000 0.1080542 -0.3042538 0.8919458 0.3042538 0.8919458 0.3042538 0.1080542 -0.3042538
2438250000 0.1037112 -0.2984926 0.8962888 0.2984926 0.8962888 0.2984926 0.1037112 -0.2984926
2488000000 0.0995916 -0.2928609 0.9004084 0.2928609 0.9004084 0.2928609 0.0995916 -0.2928609
2537750000 0.0956813 -0.2873558 0.9043187 0.2873558 0.9043187 0.2873558 0.0956813 -0.2873558
2587500000 0.0919673 -0.2819747 0.9080327 0.2819747 0.9080327 0.2819747 0.0919673 -0.2819747
2637250000 0.0884375 -0.2767147 0.9115625 0.2767147 0.9115625 0.2767147 0.0884375 -0.2767147
2687000000 0.0850806 -0.2715727 0.9149194 0.2715727 0.9149194 0.2715727 0.0850806 -0.2715727
2736750000 0.0818862 -0.2665457 0.9181138 0.2665457 0.9181138 0.2665457 0.0818862 -0.2665457
2786500000 0.0788447 -0.2616308 0.9211553 0.2616308 0.9211553 0.2616308 0.0788447 -0.2616308
2836250000 0.0759470 -0.2568248 0.9240530 0.2568248 0.9240530 0.2568248 0.0759470 -0.2568248
2886000000 0.0731847 -0.2521248 0.9268153 0.2521248 0.9268153 0.2521248 0.0731847 -0.2521248
2935750000 0.0705500 -0.2475278 0.9294500 0.2475278 0.9294500 0.2475278 0.0705500 -0.2475278
2985500000 0.0680357 -0.2430307 0.9319643 0.2430307 0.9319643 0.2430307 0.0680357 -0.2430307
3035250000 0.0656350 -0.2386307 0.9343650 0.2386307 0.9343650 0.2386307 0.0656350 -0.2386307
3085000000 0.0633416 -0.2343250 0.9366584 0.2343250 0.9366584 0.2343250 0.0633416 -0.2343250
3134750000 0.0611495 -0.2301106 0.9388505 0.2301106 0.9388505 0.2301106 0.0611495 -0.2301106
3184500000 0.0590532 -0.2259850 0.9409468 0.2259850 0.9409468 0.2259850 0.0590532 -0.2259850
3234250000 0.0570475 -0.2219454 0.9429525 0.2219454 0.9429525 0.2219454 0.0570475 -0.2219454
3284000000 0.0551277 -0.2179892 0.9448723 0.2179892 0.9448723 0.2179892 0.0551277 -0.2179892
3333750000 0.0532892 -0.2141139 0.9467108 0.2141139 0.9467108 0.2141139 0.0532892 -0.2141139
3383500000 0.0515278 -0.2103171 0.9484722 0.2103171 0.9484722 0.2103171 0.0515278 -0.2103171
3433250000 0.0498396 -0.2065964 0.9501604 0.2065964 0.9501604 0.2065964 0.0498396 -0.2065964
3483000000 0.0482207 -0.2029495 0.9517793 0.2029495 0.9517793 0.2029495 0.0482207 -0.2029495
3532750000 0.0466677 -0.1993741 0.9533323 0.1993741 0.9533323 0.1993741 0.0466677 -0.1993741
3582500000 0.0451773 -0.1958682 0.9548227 0.1958682 0.9548227 0.1958682 0.0451773 -0.1958682
3632250000 0.0437464 -0.1924295 0.9562536 0.1924295 0.9562536 0.1924295 0.0437464 -0.1924295
3682000000 0.0423722 -0.1890561 0.9576278 0.1890561 0.9576278 0.1890561 0.0423722 -0.1890561
3731750000 0.0410518 -0.1857460 0.9589482 0.1857460 0.9589482 0.1857460 0.0410518 -0.1857460
3781500000 0.0397828 -0.1824974 0.9602172 0.1824974 0.9602172 0.1824974 0.0397828 -0.1824974
3831250000 0.0385627 -0.1793083 0.9614373 0.1793083 0.9614373 0.1793083 0.0385627 -0.1793083
3881000000 0.0373892 -0.1761770 0.9626108 0.1761770 0.9626108 0.1761770 0.0373892 -0.1761770
3930750000 0.0362602 -0.1731019 0.9637398 0.1731019 0.9637398 0.1731019 0.0362602 -0.1731019
3980500000 0.0351736 -0.1700812 0.9648264 0.1700812 0.9648264 0.1700812 0.0351736 -0.1700812
4030250000 0.0341275 -0.1671135 0.9658725 0.1671135 0.9658725 0.1671135 0.0341275 -0.1671135
4080000000 0.0331202 -0.1641970 0.9668798 0.1641970 0.9668798 0.1641970 0.0331202 -0.1641970
4129750000 0.0321498 -0.1613304 0.9678502 0.1613304 0.9678502 0.1613304 0.0321498 -0.1613304
4179500000 0.0312149 -0.1585122 0.9687851 0.1585122 0.9687851 0.1585122 0.0312149 -0.1585122
4229250000 0.0303137 -0.1557410 0.9696863 0.1557410 0.9696863 0.1557410 0.0303137 -0.1557410
4279000000 0.0294450 -0.1530155 0.9705550 0.1530155 0.9705550 0.1530155 0.0294450 -0.1530155
4328750000 0.0286073 -0.1503344 0.9713927 0.1503344 0.9713927 0.1503344 0.0286073 -0.1503344
4378500000 0.0277993 -0.1476964 0.9722007 0.1476964 0.9722007 0.1476964 0.0277993 -0.1476964
4428250000 0.0270197 -0.1451004 0.9729803 0.1451004 0.9729803 0.1451004 0.0270197 -0.1451004
4478000000 0.0262675 -0.1425451 0.9737325 0.1425451 0.9737325 0.1425451 0.0262675 -0.1425451
4527750000 0.0255415 -0.1400295 0.9744585 0.1400295 0.9744585 0.1400295 0.0255415 -0.1400295
4577500000 0.0248406 -0.1375524 0.9751594 0.1375524 0.9751594 0.1375524 0.0248406 -0.1375524
4627250000 0.0241639 -0.1351128 0.9758361 0.1351128 0.9758361 0.1351128 0.0241639 -0.1351128
4677000000 0.0235103 -0.1327097 0.9764897 0.1327097 0.9764897 0.1327097 0.0235103 -0.1327097
4726750000 0.0228790 -0.1303421 0.9771210 0.1303421 0.9771210 0.1303421 0.0228790 -0.1303421
4776500000 0.0222691 -0.1280091 0.9777309 0.1280091 0.9777309 0.1280091 0.0222691 -0.1280091
4826250000 0.0216798 -0.1257097 0.9783202 0.1257097 0.9783202 0.1257097 0.0216798 -0.1257097
4876000000 0.0211104 -0.1234430 0.9788896 0.1234430 0.9788896 0.1234430 0.0211104 -0.1234430
4925750000 0.0205600 -0.1212082 0.9794400 0.1212082 0.9794400 0.1212082 0.0205600 -0.1212082
4975500000 0.0200279 -0.1190045 0.9799721 0.1190045 0.9799721 0.1190045 0.0200279 -0.1190045
5025250000 0.0195136 -0.1168310 0.9804864 0.1168310 0.9804864 0.1168310 0.0195136 -0.1168310
5075000000 0.0190162 -0.1146870 0.9809838 0.1146870 0.9809838 0.1146870 0.0190162 -0.1146870
5124750000 0.0185353 -0.1125717 0.9814647 0.1125717 0.9814647 0.1125717 0.0185353 -0.1125717
5174500000 0.0180702 -0.1104844 0.9819298 0.1104844 0.9819298 0.1104844 0.0180702 -0.1104844
5224250000 0.0176204 -0.1084244 0.9823796 0.1084244 0.9823796 0.1084244 0.0176204 -0.1084244
5274000000 0.0171854 -0.1063910 0.9828146 0.1063910 0.9828146 0.1063910 0.0171854 -0.1063910
5323750000 0.0167645 -0.1043835 0.9832355 0.1043835 0.9832355 0.1043835 0.0167645 -0.1043835
5373500000 0.0163574 -0.1024014 0.9836426 0.1024014 0.9836426 0.1024014 0.0163574 -0.1024014
5423250000 0.0159636 -0.1004439 0.9840364 0.1004439 0.9840364 0.1004439 0.0159636 -0.1004439
5473000000 0.0155826 -0.0985105 0.9844174 0.0985105 0.9844174 0.0985105 0.0155826 -0.0985105
5522750000 0.0152140 -0.0966006 0.9847860 0.0966006 0.9847860 0.0966006 0.0152140 -0.0966006
5572500000 0.0148573 -0.0947137 0.9851427 0.0947137 0.9851427 0.0947137 0.0148573 -0.0947137
5622250000 0.0145123 -0.0928491 0.9854877 0.0928491 0.9854877 0.0928491 0.0145123 -0.0928491
5672000000 0.0141785 -0.0910064 0.9858215 0.0910064 0.9858215 0.0910064 0.0141785 -0.0910064
5721750000 0.0138555 -0.0891851 0.9861445 0.0891851 0.9861445 0.0891851 0.0138555 -0.0891851
5771500000 0.0135430 -0.0873846 0.9864570 0.0873846 0.9864570 0.0873846 0.0135430 -0.0873846
5821250000 0.0132407 -0.0856044 0.9867593 0.0856044 0.9867593 0.0856044 0.0132407 -0.0856044
5871000000 0.0129483 -0.0838442 0.9870517 0.0838442 0.9870517 0.0838442 0.0129483 -0.0838442
5920750000 0.0126654 -0.0821034 0.9873346 0.0821034 0.9873346 0.0821034 0.0126654 -0.0821034
5970500000 0.0123918 -0.0803816 0.9876082 0.0803816 0.9876082 0.0803816 0.0123918 -0.0803816
6020250000 0.0121272 -0.0786783 0.9878728 0.0786783 0.9878728 0.0786783 0.0121272 -0.0786783
6070000000 0.0118713 -0.0769932 0.9881287 0.0769932 0.9881287 0.0769932 0.0118713 -0.0769932
6119750000 0.0116238 -0.0753259 0.9883762 0.0753259 0.9883762 0.0753259 0.0116238 -0.0753259
6169500000 0.0113845 -0.0736759 0.9886155 0.0736759 0.9886155 0.0736759 0.0113845 -0.0736759
6219250000 0.0111532 -0.0720429 0.9888468 0.0720429 0.9888468 0.0720429 0.0111532 -0.0720429
6269000000 0.0109297 -0.0704265 0.9890703 0.0704265 0.9890703 0.0704265 0.0109297 -0.0704265
6318750000 0.0107136 -0.0688264 0.9892864 0.0688264 0.9892864 0.0688264 0.0107136 -0.0688264
6368500000 0.0105049 -0.0672421 0.9894951 0.0672421 0.9894951 0.0672421 0.0105049 -0.0672421
6418250000 0.0103032 -0.0656734 0.9896968 0.0656734 0.9896968 0.0656734 0.0103032 -0.0656734
6468000000 0.0101084 -0.0641199 0.9898916 0.0641199 0.9898916 0.0641199 0.0101084 -0.0641199
6517750000 0.0099204 -0.0625813 0.9900796 0.0625813 0.9900796 0.0625813 0.0099204 -0.0625813
6567500000 0.0097388 -0.0610573 0.9902612 0.0610573 0.9902612 0.0610573 0.0097388 -0.0610573
6617250000 0.0095636 -0.0595476 0.9904364 0.0595476 0.9904364 0.0595476 0.0095636 -0.0595476
6667000000 0.0093946 -0.0580519 0.9906054 0.0580519 0.9906054 0.0580519 0.0093946 -0.0580519
6716750000 0.0092316 -0.0565699 0.9907684 0.0565699 0.9907684 0.0565699 0.0092316 -0.0565699
6766500000 0.0090745 -0.0551013 0.9909255 0.0551013 0.9909255 0.0551013 0.0090745 -0.0551013
6816250000 0.0089231 -0.0536458 0.9910769 0.0536458 0.9910769 0.0536458 0.0089231 -0.0536458
6866000000 0.0087772 -0.0522033 0.9912228 0.0522033 0.9912228 0.0522033 0.0087772 -0.0522033
6915750000 0.0086367 -0.0507733 0.9913633 0.0507733 0.9913633 0.0507733 0.0086367 -0.0507733
6965500000 0.0085015 -0.0493558 0.9914985 0.0493558 0.9914985 0.0493558 0.0085015 -0.0493558
7015250000 0.0083715 -0.0479504 0.9916285 0.0479504 0.9916285 0.0479504 0.0083715 -0.0479504
7065000000 0.0082464 -0.0465568 0.9917536 0.0465568 0.9917536 0.0465568 0.0082464 -0.0465568
7114750000 0.0081263 -0.0451749 0.9918737 0.0451749 0.9918737 0.0451749 0.0081263 -0.0451749
7164500000 0.0080110 -0.0438045 0.9919890 0.0438045 0.9919890 0.0438045 0.0080110 -0.0438045
7214250000 0.0079003 -0.0424453 0.9920997 0.0424453 0.9920997 0.0424453 0.0079003 -0.0424453
7264000000 0.0077941 -0.0410971 0.9922059 0.0410971 0.9922059 0.0410971 0.0077941 -0.0410971
7313750000 0.0076924 -0.0397596 0.9923076 0.0397596 0.9923076 0.0397596 0.0076924 -0.0397596
7363500000 0.0075950 -0.0384328 0.9924050 0.0384328 0.9924050 0.0384328 0.0075950 -0.0384328
7413250000 0.0075019 -0.0371163 0.9924981 0.0371163 0.9924981 0.0371163 0.0075019 -0.0371163
7463000000 0.0074129 -0.0358101 0.9925871 0.0358101 0.9925871 0.0358101 0.0074129 -0.0358101
7512750000 0.0073280 -0.0345138 0.9926720 0.0345138 0.9926720 0.0345138 0.0073280 -0.0345138
7562500000 0.0072470 -0.0332274 0.9927530 0.0332274 0.9927530 0.0332274 0.0072470 -0.0332274
7612250000 0.0071699 -0.0319505 0.9928301 0.0319505 0.9928301 0.0319505 0.0071699 -0.0319505
7662000000 0.0070966 -0.0306832 0.9929034 0.0306832 0.9929034 0.0306832 0.0070966 -0.0306832
7711750000 0.0070269 -0.0294252 0.9929731 0.0294252 0.9929731 0.0294252 0.0070269 -0.0294252
7761500000 0.0069609 -0.0281762 0.9930391 0.0281762 0.9930391 0.0281762 0.0069609 -0.0281762
7811250000 0.0068984 -0.0269363 0.9931016 0.0269363 0.9931016 0.0269363 0.0068984 -0.0269363
7861000000 0.0068394 -0.0257051 0.9931606 0.0257051 0.9931606 0.0257051 0.0068394 -0.0257051
7910750000 0.0067838 -0.0244826 0.9932162 0.0244826 0.9932162 0.0244826 0.0067838 -0.0244826
7960500000 0.0067315 -0.0232686 0.9932685 0.0232686 0.9932685 0.0232686 0.0067315 -0.0232686
8010250000 0.0066825 -0.0220630 0.9933175 0.0220630 0.9933175 0.0220630 0.0066825 -0.0220630
8060000000 0.0066367 -0.0208655 0.9933633 0.0208655 0.9933633 0.0208655 0.0066367 -0.0208655
8109750000 0.0065939 -0.0196761 0.9934061 0.0196761 0.9934061 0.0196761 0.0065939 -0.0196761
8159500000 0.0065543 -0.0184946 0.9934457 0.0184946 0.9934457 0.0184946 0.0065543 -0.0184946
8209250000 0.0065176 -0.0173210 0.9934824 0.0173210 0.9934824 0.0173210 0.0065176 -0.0173210
8259000000 0.0064839 -0.0161549 0.9935161 0.0161549 0.9935161 0.0161549 0.0064839 -0.0161549
8308750000 0.0064531 -0.0149964 0.9935469 0.0149964 0.9935469 0.0149964 0.0064531 -0.0149964
8358500000 0.0064251 -0.0138453 0.9935749 0.0138453 0.9935749 0.0138453 0.0064251 -0.0138453
8408250000 0.0063999 -0.0127015 0.9936001 0.0127015 0.9936001 0.0127015 0.0063999 -0.0127015
8458000000 0.0063774 -0.0115649 0.9936226 0.0115649 0.9936226 0.0115649 0.0063774 -0.0115649
8507750000 0.0063576 -0.0104353 0.9936424 0.0104353 0.9936424 0.0104353 0.0063576 -0.0104353
8557500000 0.0063404 -0.0093126 0.9936596 0.0093126 0.9936596 0.0093126 0.0063404 -0.0093126
8607250000 0.0063258 -0.0081967 0.9936742 0.0081967 0.9936742 0.0081967 0.0063258 -0.0081967
8657000000 0.0063137 -0.0070876 0.9936863 0.0070876 0.9936863 0.0070876 0.0063137 -0.0070876
8706750000 0.0063041 -0.0059850 0.9936959 0.0059850 0.9936959 0.0059850 0.0063041 -0.0059850
8756500000 0.0062970 -0.0048889 0.9937030 0.0048889 0.9937030 0.0048889 0.0062970 -0.0048889
8806250000 0.0062922 -0.0037993 0.9937078 0.0037993 0.9937078 0.0037993 0.0062922 -0.0037993
8856000000 0.0062898 -0.0027159 0.9937102 0.0027159 0.9937102 0.0027159 0.0062898 -0.0027159
8905750000 0.0062898 -0.0016387 0.9937102 0.0016387 0.9937102 0.0016387 0.0062898 -0.0016387
8955500000 0.0062920 -0.0005676 0.9937080 0.0005676 0.9937080 0.0005676 0.0062920 -0.0005676
9005250000 0.0062964 0.0004975 0.9937036 -0.0004975 0.9937036 -0.0004975 0.0062964 0.0004975
9055000000 0.0063031 0.0015567 0.9936969 -0.0015567 0.9936969 -0.0015567 0.0063031 0.0015567
9104750000 0.0063119 0.0026101 0.9936881 -0.0026101 0.9936881 -0.0026101 0.0063119 0.0026101
9154500000 0.0063228 0.0036578 0.9936772 -0.0036578 0.9936772 -0.0036578 0.0063228 0.0036578
9204250000 0.0063358 0.0046998 0.9936642 -0.0046998 0.9936642 -0.0046998 0.0063358 0.0046998
9254000000 0.0063509 0.0057362 0.9936491 -0.0057362 0.9936491 -0.0057362 0.0063509 0.0057362
9303750000 0.0063681 0.0067672 0.9936319 -0.0067672 0.9936319 -0.0067672 0.0063681 0.0067672
9353500000 0.0063872 0.0077928 0.9936128 -0.0077928 0.9936128 -0.0077928 0.0063872 0.0077928
9403250000 0.0064083 0.0088130 0.9935917 -0.0088130 0.9935917 -0.0088130 0.0064083 0.0088130
9453000000 0.0064314 0.0098280 0.9935686 -0.0098280 0.9935686 -0.0098280 0.0064314 0.0098280
9502750000 0.0064563 0.0108379 0.9935437 -0.0108379 0.9935437 -0.0108379 0.0064563 0.0108379
9552500000 0.0064831 0.0118427 0.9935169 -0.0118427 0.9935169 -0.0118427 0.0064831 0.0118427
9602250000 0.0065118 0.0128425 0.9934882 -0.0128425 0.9934882 -0.0128425 0.0065118 0.0128425
9652000000 0.0065423 0.0138373 0.9934577 -0.0138373 0.9934577 -0.0138373 0.0065423 0.0138373
9701750000 0.0065746 0.0148273 0.9934254 -0.0148273 0.9934254 -0.0148273 0.0065746 0.0148273
9751500000 0.0066087 0.0158124 0.9933913 -0.0158124 0.9933913 -0.0158124 0.0066087 0.0158124
9801250000 0.0066446 0.0167929 0.9933554 -0.0167929 0.9933554 -0.0167929 0.0066446 0.0167929
9851000000 0.0066821 0.0177686 0.9933179 -0.0177686 0.9933179 -0.0177686 0.0066821 0.0177686
9900750000 0.0067214 0.0187398 0.9932786 -0.0187398 0.9932786 -0.0187398 0.0067214 0.0187398
9950500000 0.0067623 0.0197064 0.9932377 -0.0197064 0.9932377 -0.0197064 0.0067623 0.0197064
10000250000 0.0068049 0.0206686 0.9931951 -0.0206686 0.9931951 -0.0206686 0.0068049 0.0206686
10050000000 0.0068491 0.0216263 0.9931509 -0.0216263 0.9931509 -0.0216263 0.0068491 0.0216263
10099750000 0.0068949 0.0225797 0.9931051 -0.0225797 0.9931051 -0.0225797 0.0068949 0.0225797
10149500000 0.0069424 0.0235288 0.9930576 -0.0235288 0.9930576 -0.0235288 0.0069424 0.0235288
10199250000 0.0069914 0.0244736 0.9930086 -0.0244736 0.9930086 -0.0244736 0.0069914 0.0244736
10249000000 0.0070419 0.0254143 0.9929581 -0.0254143 0.9929581 -0.0254143 0.0070419 0.0254143
10298750000 0.0070940 0.0263509 0.9929060 -0.0263509 0.9929060 -0.0263509 0.0070940 0.0263509
10348500000 0.0071475 0.0272833 0.9928525 -0.0272833 0.9928525 -0.0272833 0.0071475 0.0272833
10398250000 0.0072026 0.0282118 0.9927974 -0.0282118 0.9927974 -0.0282118 0.0072026 0.0282118
10448000000 0.0072591 0.0291363 0.9927409 -0.0291363 0.9927409 -0.0291363 0.0072591 0.0291363
10497750000 0.0073171 0.0300569 0.9926829 -0.0300569 0.9926829 -0.0300569 0.0073171 0.0300569
