!Murata Part Number: GRM0115C1E620JE01
!These Parameters are Measured in Series Mode Connection
!Data Generated on Mar 30, 2021
!       o--ll--o
!Port1            Port2
!       o------o
!Operation Temp=25[degC], DC Bias Voltage=0[V]
!Freq. Start=100[MHz] Stop=9[GHz] 401[Steps]
# Hz S RI R 50
!Freq.(Hz) S11(Real) S11(Imag) S21(Real) S21(Imag) S12(Real) S12(Imag) S22(Real) S22(Imag)
100000000 0.0622263 -0.2397950 0.9377737 0.2397950 0.9377737 0.2397950 0.0622263 -0.2397950
121000000 0.0435085 -0.2018536 0.9564915 0.2018536 0.9564915 0.2018536 0.0435085 -0.2018536
142000000 0.0321076 -0.1737653 0.9678924 0.1737653 0.9678924 0.1737653 0.0321076 -0.1737653
163000000 0.0246791 -0.1522481 0.9753209 0.1522481 0.9753209 0.1522481 0.0246791 -0.1522481
184000000 0.0195813 -0.1352810 0.9804187 0.1352810 0.9804187 0.1352810 0.0195813 -0.1352810
205000000 0.0159367 -0.1215755 0.9840633 0.1215755 0.9840633 0.1215755 0.0159367 -0.1215755
226000000 0.0132437 -0.1102793 0.9867563 0.1102793 0.9867563 0.1102793 0.0132437 -0.1102793
247000000 0.0111990 -0.1008095 0.9888010 0.1008095 0.9888010 0.1008095 0.0111990 -0.1008095
268000000 0.0096109 -0.0927549 0.9903891 0.0927549 0.9903891 0.0927549 0.0096109 -0.0927549
289000000 0.0083535 -0.0858184 0.9916465 0.0858184 0.9916465 0.0858184 0.0083535 -0.0858184
310000000 0.0073416 -0.0797797 0.9926584 0.0797797 0.9926584 0.0797797 0.0073416 -0.0797797
331000000 0.0065155 -0.0744726 0.9934845 0.0744726 0.9934845 0.0744726 0.0065155 -0.0744726
352000000 0.0058326 -0.0697692 0.9941674 0.0697692 0.9941674 0.0697692 0.0058326 -0.0697692
373000000 0.0052621 -0.0655697 0.9947379 0.0655697 0.9947379 0.0655697 0.0052621 -0.0655697
394000000 0.0047808 -0.0617951 0.9952192 0.0617951 0.9952192 0.0617951 0.0047808 -0.0617951
415000000 0.0043713 -0.0583819 0.9956287 0.0583819 0.9956287 0.0583819 0.0043713 -0.0583819
436000000 0.0040202 -0.0552787 0.9959798 0.0552787 0.9959798 0.0552787 0.0040202 -0.0552787
457000000 0.0037172 -0.0524434 0.9962828 0.0524434 0.9962828 0.0524434 0.0037172 -0.0524434
478000000 0.0034540 -0.0498411 0.9965460 0.0498411 0.9965460 0.0498411 0.0034540 -0.0498411
499000000 0.0032243 -0.0474426 0.9967757 0.0474426 0.9967757 0.0474426 0.0032243 -0.0474426
520000000 0.0030227 -0.0452237 0.9969773 0.0452237 0.9969773 0.0452237 0.0030227 -0.0452237
541000000 0.0028450 -0.0431635 0.9971550 0.0431635 0.9971550 0.0431635 0.0028450 -0.0431635
562000000 0.0026878 -0.0412445 0.9973122 0.0412445 0.9973122 0.0412445 0.0026878 -0.0412445
583000000 0.0025482 -0.0394515 0.9974518 0.0394515 0.9974518 0.0394515 0.0025482 -0.0394515
604000000 0.0024239 -0.0377715 0.9975761 0.0377715 0.9975761 0.0377715 0.0024239 -0.0377715
625000000 0.0023129 -0.0361931 0.9976871 0.0361931 0.9976871 0.0361931 0.0023129 -0.0361931
646000000 0.0022135 -0.0347067 0.9977865 0.0347067 0.9977865 0.0347067 0.0022135 -0.0347067
667000000 0.0021243 -0.0333034 0.9978757 0.0333034 0.9978757 0.0333034 0.0021243 -0.0333034
688000000 0.0020441 -0.0319758 0.9979559 0.0319758 0.9979559 0.0319758 0.0020441 -0.0319758
709000000 0.0019719 -0.0307171 0.9980281 0.0307171 0.9980281 0.0307171 0.0019719 -0.0307171
730000000 0.0019069 -0.0295215 0.9980931 0.0295215 0.9980931 0.0295215 0.0019069 -0.0295215
751000000 0.0018482 -0.0283837 0.9981518 0.0283837 0.9981518 0.0283837 0.0018482 -0.0283837
772000000 0.0017952 -0.0272990 0.9982048 0.0272990 0.9982048 0.0272990 0.0017952 -0.0272990
793000000 0.0017474 -0.0262633 0.9982526 0.0262633 0.9982526 0.0262633 0.0017474 -0.0262633
814000000 0.0017042 -0.0252726 0.9982958 0.0252726 0.9982958 0.0252726 0.0017042 -0.0252726
835000000 0.0016652 -0.0243238 0.9983348 0.0243238 0.9983348 0.0243238 0.0016652 -0.0243238
856000000 0.0016301 -0.0234136 0.9983699 0.0234136 0.9983699 0.0234136 0.0016301 -0.0234136
877000000 0.0015984 -0.0225394 0.9984016 0.0225394 0.9984016 0.0225394 0.0015984 -0.0225394
898000000 0.0015700 -0.0216986 0.9984300 0.0216986 0.9984300 0.0216986 0.0015700 -0.0216986
919000000 0.0015444 -0.0208890 0.9984556 0.0208890 0.9984556 0.0208890 0.0015444 -0.0208890
940000000 0.0015216 -0.0201084 0.9984784 0.0201084 0.9984784 0.0201084 0.0015216 -0.0201084
961000000 0.0015012 -0.0193551 0.9984988 0.0193551 0.9984988 0.0193551 0.0015012 -0.0193551
982000000 0.0014831 -0.0186271 0.9985169 0.0186271 0.9985169 0.0186271 0.0014831 -0.0186271
1003000000 0.0014672 -0.0179231 0.9985328 0.0179231 0.9985328 0.0179231 0.0014672 -0.0179231
1024000000 0.0014532 -0.0172414 0.9985468 0.0172414 0.9985468 0.0172414 0.0014532 -0.0172414
1045000000 0.0014410 -0.0165808 0.9985590 0.0165808 0.9985590 0.0165808 0.0014410 -0.0165808
1066000000 0.0014306 -0.0159400 0.9985694 0.0159400 0.9985694 0.0159400 0.0014306 -0.0159400
1087000000 0.0014217 -0.0153180 0.9985783 0.0153180 0.9985783 0.0153180 0.0014217 -0.0153180
1108000000 0.0014143 -0.0147135 0.9985857 0.0147135 0.9985857 0.0147135 0.0014143 -0.0147135
1129000000 0.0014084 -0.0141257 0.9985916 0.0141257 0.9985916 0.0141257 0.0014084 -0.0141257
1150000000 0.0014037 -0.0135536 0.9985963 0.0135536 0.9985963 0.0135536 0.0014037 -0.0135536
1171000000 0.0014003 -0.0129965 0.9985997 0.0129965 0.9985997 0.0129965 0.0014003 -0.0129965
1192000000 0.0013981 -0.0124534 0.9986019 0.0124534 0.9986019 0.0124534 0.0013981 -0.0124534
1213000000 0.0013969 -0.0119238 0.9986031 0.0119238 0.9986031 0.0119238 0.0013969 -0.0119238
1234000000 0.0013969 -0.0114069 0.9986031 0.0114069 0.9986031 0.0114069 0.0013969 -0.0114069
1255000000 0.0013978 -0.0109021 0.9986022 0.0109021 0.9986022 0.0109021 0.0013978 -0.0109021
1276000000 0.0013996 -0.0104087 0.9986004 0.0104087 0.9986004 0.0104087 0.0013996 -0.0104087
1297000000 0.0014024 -0.0099264 0.9985976 0.0099264 0.9985976 0.0099264 0.0014024 -0.0099264
1318000000 0.0014060 -0.0094544 0.9985940 0.0094544 0.9985940 0.0094544 0.0014060 -0.0094544
1339000000 0.0014104 -0.0089924 0.9985896 0.0089924 0.9985896 0.0089924 0.0014104 -0.0089924
1360000000 0.0014156 -0.0085399 0.9985844 0.0085399 0.9985844 0.0085399 0.0014156 -0.0085399
1381000000 0.0014216 -0.0080965 0.9985784 0.0080965 0.9985784 0.0080965 0.0014216 -0.0080965
1402000000 0.0014283 -0.0076617 0.9985717 0.0076617 0.9985717 0.0076617 0.0014283 -0.0076617
1423000000 0.0014357 -0.0072352 0.9985643 0.0072352 0.9985643 0.0072352 0.0014357 -0.0072352
1444000000 0.0014437 -0.0068166 0.9985563 0.0068166 0.9985563 0.0068166 0.0014437 -0.0068166
1465000000 0.0014524 -0.0064057 0.9985476 0.0064057 0.9985476 0.0064057 0.0014524 -0.0064057
1486000000 0.0014617 -0.0060020 0.9985383 0.0060020 0.9985383 0.0060020 0.0014617 -0.0060020
1507000000 0.0014715 -0.0056053 0.9985285 0.0056053 0.9985285 0.0056053 0.0014715 -0.0056053
1528000000 0.0014820 -0.0052152 0.9985180 0.0052152 0.9985180 0.0052152 0.0014820 -0.0052152
1549000000 0.0014930 -0.0048317 0.9985070 0.0048317 0.9985070 0.0048317 0.0014930 -0.0048317
1570000000 0.0015046 -0.0044542 0.9984954 0.0044542 0.9984954 0.0044542 0.0015046 -0.0044542
1591000000 0.0015166 -0.0040828 0.9984834 0.0040828 0.9984834 0.0040828 0.0015166 -0.0040828
1612000000 0.0015292 -0.0037170 0.9984708 0.0037170 0.9984708 0.0037170 0.0015292 -0.0037170
1633000000 0.0015423 -0.0033568 0.9984577 0.0033568 0.9984577 0.0033568 0.0015423 -0.0033568
1654000000 0.0015558 -0.0030018 0.9984442 0.0030018 0.9984442 0.0030018 0.0015558 -0.0030018
1675000000 0.0015698 -0.0026519 0.9984302 0.0026519 0.9984302 0.0026519 0.0015698 -0.0026519
1696000000 0.0015842 -0.0023070 0.9984158 0.0023070 0.9984158 0.0023070 0.0015842 -0.0023070
1717000000 0.0015991 -0.0019668 0.9984009 0.0019668 0.9984009 0.0019668 0.0015991 -0.0019668
1738000000 0.0016144 -0.0016311 0.9983856 0.0016311 0.9983856 0.0016311 0.0016144 -0.0016311
1759000000 0.0016302 -0.0012999 0.9983698 0.0012999 0.9983698 0.0012999 0.0016302 -0.0012999
1780000000 0.0016463 -0.0009729 0.9983537 0.0009729 0.9983537 0.0009729 0.0016463 -0.0009729
1801000000 0.0016629 -0.0006501 0.9983371 0.0006501 0.9983371 0.0006501 0.0016629 -0.0006501
1822000000 0.0016798 -0.0003312 0.9983202 0.0003312 0.9983202 0.0003312 0.0016798 -0.0003312
1843000000 0.0016971 -0.0000162 0.9983029 0.0000162 0.9983029 0.0000162 0.0016971 -0.0000162
1864000000 0.0017148 0.0002950 0.9982852 -0.0002950 0.9982852 -0.0002950 0.0017148 0.0002950
1885000000 0.0017329 0.0006027 0.9982671 -0.0006027 0.9982671 -0.0006027 0.0017329 0.0006027
1906000000 0.0017513 0.0009069 0.9982487 -0.0009069 0.9982487 -0.0009069 0.0017513 0.0009069
1927000000 0.0017700 0.0012077 0.9982300 -0.0012077 0.9982300 -0.0012077 0.0017700 0.0012077
1948000000 0.0017892 0.0015052 0.9982108 -0.0015052 0.9982108 -0.0015052 0.0017892 0.0015052
1969000000 0.0018086 0.0017995 0.9981914 -0.0017995 0.9981914 -0.0017995 0.0018086 0.0017995
1990000000 0.0018284 0.0020908 0.9981716 -0.0020908 0.9981716 -0.0020908 0.0018284 0.0020908
2011000000 0.0018485 0.0023790 0.9981515 -0.0023790 0.9981515 -0.0023790 0.0018485 0.0023790
2032000000 0.0018689 0.0026643 0.9981311 -0.0026643 0.9981311 -0.0026643 0.0018689 0.0026643
2053000000 0.0018897 0.0029469 0.9981103 -0.0029469 0.9981103 -0.0029469 0.0018897 0.0029469
2074000000 0.0019108 0.0032267 0.9980892 -0.0032267 0.9980892 -0.0032267 0.0019108 0.0032267
2095000000 0.0019321 0.0035038 0.9980679 -0.0035038 0.9980679 -0.0035038 0.0019321 0.0035038
2116000000 0.0019538 0.0037783 0.9980462 -0.0037783 0.9980462 -0.0037783 0.0019538 0.0037783
2137000000 0.0019758 0.0040503 0.9980242 -0.0040503 0.9980242 -0.0040503 0.0019758 0.0040503
2158000000 0.0019980 0.0043199 0.9980020 -0.0043199 0.9980020 -0.0043199 0.0019980 0.0043199
2179000000 0.0020206 0.0045871 0.9979794 -0.0045871 0.9979794 -0.0045871 0.0020206 0.0045871
2200000000 0.0020434 0.0048519 0.9979566 -0.0048519 0.9979566 -0.0048519 0.0020434 0.0048519
2221000000 0.0020666 0.0051145 0.9979334 -0.0051145 0.9979334 -0.0051145 0.0020666 0.0051145
2242000000 0.0020900 0.0053749 0.9979100 -0.0053749 0.9979100 -0.0053749 0.0020900 0.0053749
2263000000 0.0021136 0.0056332 0.9978864 -0.0056332 0.9978864 -0.0056332 0.0021136 0.0056332
2284000000 0.0021376 0.0058894 0.9978624 -0.0058894 0.9978624 -0.0058894 0.0021376 0.0058894
2305000000 0.0021618 0.0061435 0.9978382 -0.0061435 0.9978382 -0.0061435 0.0021618 0.0061435
2326000000 0.0021863 0.0063956 0.9978137 -0.0063956 0.9978137 -0.0063956 0.0021863 0.0063956
2347000000 0.0022110 0.0066458 0.9977890 -0.0066458 0.9977890 -0.0066458 0.0022110 0.0066458
2368000000 0.0022360 0.0068942 0.9977640 -0.0068942 0.9977640 -0.0068942 0.0022360 0.0068942
2389000000 0.0022613 0.0071406 0.9977387 -0.0071406 0.9977387 -0.0071406 0.0022613 0.0071406
2410000000 0.0022868 0.0073853 0.9977132 -0.0073853 0.9977132 -0.0073853 0.0022868 0.0073853
2431000000 0.0023125 0.0076282 0.9976875 -0.0076282 0.9976875 -0.0076282 0.0023125 0.0076282
2452000000 0.0023385 0.0078694 0.9976615 -0.0078694 0.9976615 -0.0078694 0.0023385 0.0078694
2473000000 0.0023648 0.0081089 0.9976352 -0.0081089 0.9976352 -0.0081089 0.0023648 0.0081089
2494000000 0.0023913 0.0083468 0.9976087 -0.0083468 0.9976087 -0.0083468 0.0023913 0.0083468
2515000000 0.0024180 0.0085830 0.9975820 -0.0085830 0.9975820 -0.0085830 0.0024180 0.0085830
2536000000 0.0024449 0.0088177 0.9975551 -0.0088177 0.9975551 -0.0088177 0.0024449 0.0088177
2557000000 0.0024721 0.0090508 0.9975279 -0.0090508 0.9975279 -0.0090508 0.0024721 0.0090508
2578000000 0.0024996 0.0092825 0.9975004 -0.0092825 0.9975004 -0.0092825 0.0024996 0.0092825
2599000000 0.0025272 0.0095127 0.9974728 -0.0095127 0.9974728 -0.0095127 0.0025272 0.0095127
2620000000 0.0025551 0.0097414 0.9974449 -0.0097414 0.9974449 -0.0097414 0.0025551 0.0097414
2641000000 0.0025832 0.0099687 0.9974168 -0.0099687 0.9974168 -0.0099687 0.0025832 0.0099687
2662000000 0.0026115 0.0101947 0.9973885 -0.0101947 0.9973885 -0.0101947 0.0026115 0.0101947
2683000000 0.0026400 0.0104192 0.9973600 -0.0104192 0.9973600 -0.0104192 0.0026400 0.0104192
2704000000 0.0026688 0.0106425 0.9973312 -0.0106425 0.9973312 -0.0106425 0.0026688 0.0106425
2725000000 0.0026978 0.0108645 0.9973022 -0.0108645 0.9973022 -0.0108645 0.0026978 0.0108645
2746000000 0.0027270 0.0110851 0.9972730 -0.0110851 0.9972730 -0.0110851 0.0027270 0.0110851
2767000000 0.0027564 0.0113046 0.9972436 -0.0113046 0.9972436 -0.0113046 0.0027564 0.0113046
2788000000 0.0027860 0.0115228 0.9972140 -0.0115228 0.9972140 -0.0115228 0.0027860 0.0115228
2809000000 0.0028158 0.0117398 0.9971842 -0.0117398 0.9971842 -0.0117398 0.0028158 0.0117398
2830000000 0.0028458 0.0119556 0.9971542 -0.0119556 0.9971542 -0.0119556 0.0028458 0.0119556
2851000000 0.0028760 0.0121702 0.9971240 -0.0121702 0.9971240 -0.0121702 0.0028760 0.0121702
2872000000 0.0029065 0.0123838 0.9970935 -0.0123838 0.9970935 -0.0123838 0.0029065 0.0123838
2893000000 0.0029371 0.0125962 0.9970629 -0.0125962 0.9970629 -0.0125962 0.0029371 0.0125962
2914000000 0.0029679 0.0128075 0.9970321 -0.0128075 0.9970321 -0.0128075 0.0029679 0.0128075
2935000000 0.0029989 0.0130177 0.9970011 -0.0130177 0.9970011 -0.0130177 0.0029989 0.0130177
2956000000 0.0030301 0.0132269 0.9969699 -0.0132269 0.9969699 -0.0132269 0.0030301 0.0132269
2977000000 0.0030615 0.0134350 0.9969385 -0.0134350 0.9969385 -0.0134350 0.0030615 0.0134350
2998000000 0.0030931 0.0136421 0.9969069 -0.0136421 0.9969069 -0.0136421 0.0030931 0.0136421
3019000000 0.0031249 0.0138482 0.9968751 -0.0138482 0.9968751 -0.0138482 0.0031249 0.0138482
3040000000 0.0031569 0.0140533 0.9968431 -0.0140533 0.9968431 -0.0140533 0.0031569 0.0140533
3061000000 0.0031890 0.0142574 0.9968110 -0.0142574 0.9968110 -0.0142574 0.0031890 0.0142574
3082000000 0.0032214 0.0144606 0.9967786 -0.0144606 0.9967786 -0.0144606 0.0032214 0.0144606
3103000000 0.0032539 0.0146629 0.9967461 -0.0146629 0.9967461 -0.0146629 0.0032539 0.0146629
3124000000 0.0032866 0.0148642 0.9967134 -0.0148642 0.9967134 -0.0148642 0.0032866 0.0148642
3145000000 0.0033194 0.0150646 0.9966806 -0.0150646 0.9966806 -0.0150646 0.0033194 0.0150646
3166000000 0.0033525 0.0152640 0.9966475 -0.0152640 0.9966475 -0.0152640 0.0033525 0.0152640
3187000000 0.0033857 0.0154627 0.9966143 -0.0154627 0.9966143 -0.0154627 0.0033857 0.0154627
3208000000 0.0034191 0.0156604 0.9965809 -0.0156604 0.9965809 -0.0156604 0.0034191 0.0156604
3229000000 0.0034527 0.0158573 0.9965473 -0.0158573 0.9965473 -0.0158573 0.0034527 0.0158573
3250000000 0.0034864 0.0160533 0.9965136 -0.0160533 0.9965136 -0.0160533 0.0034864 0.0160533
3271000000 0.0035204 0.0162485 0.9964796 -0.0162485 0.9964796 -0.0162485 0.0035204 0.0162485
3292000000 0.0035544 0.0164429 0.9964456 -0.0164429 0.9964456 -0.0164429 0.0035544 0.0164429
3313000000 0.0035887 0.0166365 0.9964113 -0.0166365 0.9964113 -0.0166365 0.0035887 0.0166365
3334000000 0.0036231 0.0168292 0.9963769 -0.0168292 0.9963769 -0.0168292 0.0036231 0.0168292
3355000000 0.0036577 0.0170212 0.9963423 -0.0170212 0.9963423 -0.0170212 0.0036577 0.0170212
3376000000 0.0036924 0.0172124 0.9963076 -0.0172124 0.9963076 -0.0172124 0.0036924 0.0172124
3397000000 0.0037273 0.0174029 0.9962727 -0.0174029 0.9962727 -0.0174029 0.0037273 0.0174029
3418000000 0.0037623 0.0175926 0.9962377 -0.0175926 0.9962377 -0.0175926 0.0037623 0.0175926
3439000000 0.0037975 0.0177815 0.9962025 -0.0177815 0.9962025 -0.0177815 0.0037975 0.0177815
3460000000 0.0038329 0.0179697 0.9961671 -0.0179697 0.9961671 -0.0179697 0.0038329 0.0179697
3481000000 0.0038684 0.0181572 0.9961316 -0.0181572 0.9961316 -0.0181572 0.0038684 0.0181572
3502000000 0.0039041 0.0183440 0.9960959 -0.0183440 0.9960959 -0.0183440 0.0039041 0.0183440
3523000000 0.0039399 0.0185301 0.9960601 -0.0185301 0.9960601 -0.0185301 0.0039399 0.0185301
3544000000 0.0039759 0.0187154 0.9960241 -0.0187154 0.9960241 -0.0187154 0.0039759 0.0187154
3565000000 0.0040120 0.0189001 0.9959880 -0.0189001 0.9959880 -0.0189001 0.0040120 0.0189001
3586000000 0.0040482 0.0190841 0.9959518 -0.0190841 0.9959518 -0.0190841 0.0040482 0.0190841
3607000000 0.0040846 0.0192674 0.9959154 -0.0192674 0.9959154 -0.0192674 0.0040846 0.0192674
3628000000 0.0041212 0.0194501 0.9958788 -0.0194501 0.9958788 -0.0194501 0.0041212 0.0194501
3649000000 0.0041579 0.0196321 0.9958421 -0.0196321 0.9958421 -0.0196321 0.0041579 0.0196321
3670000000 0.0041947 0.0198135 0.9958053 -0.0198135 0.9958053 -0.0198135 0.0041947 0.0198135
3691000000 0.0042317 0.0199942 0.9957683 -0.0199942 0.9957683 -0.0199942 0.0042317 0.0199942
3712000000 0.0042688 0.0201743 0.9957312 -0.0201743 0.9957312 -0.0201743 0.0042688 0.0201743
3733000000 0.0043060 0.0203537 0.9956940 -0.0203537 0.9956940 -0.0203537 0.0043060 0.0203537
3754000000 0.0043434 0.0205326 0.9956566 -0.0205326 0.9956566 -0.0205326 0.0043434 0.0205326
3775000000 0.0043809 0.0207108 0.9956191 -0.0207108 0.9956191 -0.0207108 0.0043809 0.0207108
3796000000 0.0044186 0.0208884 0.9955814 -0.0208884 0.9955814 -0.0208884 0.0044186 0.0208884
3817000000 0.0044563 0.0210654 0.9955437 -0.0210654 0.9955437 -0.0210654 0.0044563 0.0210654
3838000000 0.0044942 0.0212419 0.9955058 -0.0212419 0.9955058 -0.0212419 0.0044942 0.0212419
3859000000 0.0045323 0.0214177 0.9954677 -0.0214177 0.9954677 -0.0214177 0.0045323 0.0214177
3880000000 0.0045704 0.0215930 0.9954296 -0.0215930 0.9954296 -0.0215930 0.0045704 0.0215930
3901000000 0.0046087 0.0217677 0.9953913 -0.0217677 0.9953913 -0.0217677 0.0046087 0.0217677
3922000000 0.0046471 0.0219418 0.9953529 -0.0219418 0.9953529 -0.0219418 0.0046471 0.0219418
3943000000 0.0046857 0.0221153 0.9953143 -0.0221153 0.9953143 -0.0221153 0.0046857 0.0221153
3964000000 0.0047243 0.0222883 0.9952757 -0.0222883 0.9952757 -0.0222883 0.0047243 0.0222883
3985000000 0.0047631 0.0224608 0.9952369 -0.0224608 0.9952369 -0.0224608 0.0047631 0.0224608
4006000000 0.0048020 0.0226327 0.9951980 -0.0226327 0.9951980 -0.0226327 0.0048020 0.0226327
4027000000 0.0048410 0.0228041 0.9951590 -0.0228041 0.9951590 -0.0228041 0.0048410 0.0228041
4048000000 0.0048801 0.0229749 0.9951199 -0.0229749 0.9951199 -0.0229749 0.0048801 0.0229749
4069000000 0.0049194 0.0231452 0.9950806 -0.0231452 0.9950806 -0.0231452 0.0049194 0.0231452
4090000000 0.0049587 0.0233150 0.9950413 -0.0233150 0.9950413 -0.0233150 0.0049587 0.0233150
4111000000 0.0049982 0.0234843 0.9950018 -0.0234843 0.9950018 -0.0234843 0.0049982 0.0234843
4132000000 0.0050378 0.0236530 0.9949622 -0.0236530 0.9949622 -0.0236530 0.0050378 0.0236530
4153000000 0.0050775 0.0238213 0.9949225 -0.0238213 0.9949225 -0.0238213 0.0050775 0.0238213
4174000000 0.0051173 0.0239890 0.9948827 -0.0239890 0.9948827 -0.0239890 0.0051173 0.0239890
4195000000 0.0051572 0.0241562 0.9948428 -0.0241562 0.9948428 -0.0241562 0.0051572 0.0241562
4216000000 0.0051972 0.0243230 0.9948028 -0.0243230 0.9948028 -0.0243230 0.0051972 0.0243230
4237000000 0.0052373 0.0244892 0.9947627 -0.0244892 0.9947627 -0.0244892 0.0052373 0.0244892
4258000000 0.0052775 0.0246550 0.9947225 -0.0246550 0.9947225 -0.0246550 0.0052775 0.0246550
4279000000 0.0053178 0.0248203 0.9946822 -0.0248203 0.9946822 -0.0248203 0.0053178 0.0248203
4300000000 0.0053582 0.0249851 0.9946418 -0.0249851 0.9946418 -0.0249851 0.0053582 0.0249851
4321000000 0.0053987 0.0251494 0.9946013 -0.0251494 0.9946013 -0.0251494 0.0053987 0.0251494
4342000000 0.0054394 0.0253132 0.9945606 -0.0253132 0.9945606 -0.0253132 0.0054394 0.0253132
4363000000 0.0054801 0.0254766 0.9945199 -0.0254766 0.9945199 -0.0254766 0.0054801 0.0254766
4384000000 0.0055209 0.0256395 0.9944791 -0.0256395 0.9944791 -0.0256395 0.0055209 0.0256395
4405000000 0.0055618 0.0258020 0.9944382 -0.0258020 0.9944382 -0.0258020 0.0055618 0.0258020
4426000000 0.0056028 0.0259640 0.9943972 -0.0259640 0.9943972 -0.0259640 0.0056028 0.0259640
4447000000 0.0056439 0.0261256 0.9943561 -0.0261256 0.9943561 -0.0261256 0.0056439 0.0261256
4468000000 0.0056850 0.0262867 0.9943150 -0.0262867 0.9943150 -0.0262867 0.0056850 0.0262867
4489000000 0.0057263 0.0264474 0.9942737 -0.0264474 0.9942737 -0.0264474 0.0057263 0.0264474
4510000000 0.0057677 0.0266076 0.9942323 -0.0266076 0.9942323 -0.0266076 0.0057677 0.0266076
