!Murata Part Number: GRM32A7U3D101JW31
!These Parameters are Measured in Series Mode Connection
!Data Generated on Mar 30, 2021
!       o--ll--o
!Port1            Port2
!       o------o
!Operation Temp=25[degC], DC Bias Voltage=0[V]
!Freq. Start=100[MHz] Stop=3[GHz] 401[Steps]
# Hz S RI R 50
!Freq.(Hz) S11(Real) S11(Imag) S21(Real) S21(Imag) S12(Real) S12(Imag) S22(Real) S22(Imag)
100000000 0.0243491 -0.1517924 0.9756509 0.1517924 0.9756509 0.1517924 0.0243491 -0.1517924
107250000 0.0211942 -0.1415145 0.9788058 0.1415145 0.9788058 0.1415145 0.0211942 -0.1415145
114500000 0.0186049 -0.1324277 0.9813951 0.1324277 0.9813951 0.1324277 0.0186049 -0.1324277
121750000 0.0164546 -0.1243358 0.9835454 0.1243358 0.9835454 0.1243358 0.0164546 -0.1243358
129000000 0.0146500 -0.1170826 0.9853500 0.1170826 0.9853500 0.1170826 0.0146500 -0.1170826
136250000 0.0131213 -0.1105422 0.9868787 0.1105422 0.9868787 0.1105422 0.0131213 -0.1105422
143500000 0.0118153 -0.1046126 0.9881847 0.1046126 0.9881847 0.1046126 0.0118153 -0.1046126
150750000 0.0106912 -0.0992099 0.9893088 0.0992099 0.9893088 0.0992099 0.0106912 -0.0992099
158000000 0.0097168 -0.0942648 0.9902832 0.0942648 0.9902832 0.0942648 0.0097168 -0.0942648
165250000 0.0088671 -0.0897195 0.9911329 0.0897195 0.9911329 0.0897195 0.0088671 -0.0897195
172500000 0.0081217 -0.0855254 0.9918783 0.0855254 0.9918783 0.0855254 0.0081217 -0.0855254
179750000 0.0074645 -0.0816414 0.9925355 0.0816414 0.9925355 0.0816414 0.0074645 -0.0816414
187000000 0.0068823 -0.0780327 0.9931177 0.0780327 0.9931177 0.0780327 0.0068823 -0.0780327
194250000 0.0063642 -0.0746692 0.9936358 0.0746692 0.9936358 0.0746692 0.0063642 -0.0746692
201500000 0.0059012 -0.0715252 0.9940988 0.0715252 0.9940988 0.0715252 0.0059012 -0.0715252
208750000 0.0054861 -0.0685784 0.9945139 0.0685784 0.9945139 0.0685784 0.0054861 -0.0685784
216000000 0.0051125 -0.0658093 0.9948875 0.0658093 0.9948875 0.0658093 0.0051125 -0.0658093
223250000 0.0047752 -0.0632010 0.9952248 0.0632010 0.9952248 0.0632010 0.0047752 -0.0632010
230500000 0.0044698 -0.0607387 0.9955302 0.0607387 0.9955302 0.0607387 0.0044698 -0.0607387
237750000 0.0041925 -0.0584092 0.9958075 0.0584092 0.9958075 0.0584092 0.0041925 -0.0584092
245000000 0.0039401 -0.0562009 0.9960599 0.0562009 0.9960599 0.0562009 0.0039401 -0.0562009
252250000 0.0037097 -0.0541035 0.9962903 0.0541035 0.9962903 0.0541035 0.0037097 -0.0541035
259500000 0.0034991 -0.0521079 0.9965009 0.0521079 0.9965009 0.0521079 0.0034991 -0.0521079
266750000 0.0033061 -0.0502059 0.9966939 0.0502059 0.9966939 0.0502059 0.0033061 -0.0502059
274000000 0.0031289 -0.0483901 0.9968711 0.0483901 0.9968711 0.0483901 0.0031289 -0.0483901
281250000 0.0029659 -0.0466540 0.9970341 0.0466540 0.9970341 0.0466540 0.0029659 -0.0466540
288500000 0.0028158 -0.0449916 0.9971842 0.0449916 0.9971842 0.0449916 0.0028158 -0.0449916
295750000 0.0026774 -0.0433975 0.9973226 0.0433975 0.9973226 0.0433975 0.0026774 -0.0433975
303000000 0.0025494 -0.0418670 0.9974506 0.0418670 0.9974506 0.0418670 0.0025494 -0.0418670
310250000 0.0024311 -0.0403955 0.9975689 0.0403955 0.9975689 0.0403955 0.0024311 -0.0403955
317500000 0.0023216 -0.0389791 0.9976784 0.0389791 0.9976784 0.0389791 0.0023216 -0.0389791
324750000 0.0022201 -0.0376140 0.9977799 0.0376140 0.9977799 0.0376140 0.0022201 -0.0376140
332000000 0.0021259 -0.0362970 0.9978741 0.0362970 0.9978741 0.0362970 0.0021259 -0.0362970
339250000 0.0020384 -0.0350250 0.9979616 0.0350250 0.9979616 0.0350250 0.0020384 -0.0350250
346500000 0.0019572 -0.0337952 0.9980428 0.0337952 0.9980428 0.0337952 0.0019572 -0.0337952
353750000 0.0018817 -0.0326050 0.9981183 0.0326050 0.9981183 0.0326050 0.0018817 -0.0326050
361000000 0.0018114 -0.0314520 0.9981886 0.0314520 0.9981886 0.0314520 0.0018114 -0.0314520
368250000 0.0017461 -0.0303339 0.9982539 0.0303339 0.9982539 0.0303339 0.0017461 -0.0303339
375500000 0.0016852 -0.0292489 0.9983148 0.0292489 0.9983148 0.0292489 0.0016852 -0.0292489
382750000 0.0016286 -0.0281950 0.9983714 0.0281950 0.9983714 0.0281950 0.0016286 -0.0281950
390000000 0.0015759 -0.0271705 0.9984241 0.0271705 0.9984241 0.0271705 0.0015759 -0.0271705
397250000 0.0015269 -0.0261738 0.9984731 0.0261738 0.9984731 0.0261738 0.0015269 -0.0261738
404500000 0.0014813 -0.0252033 0.9985187 0.0252033 0.9985187 0.0252033 0.0014813 -0.0252033
411750000 0.0014388 -0.0242578 0.9985612 0.0242578 0.9985612 0.0242578 0.0014388 -0.0242578
419000000 0.0013994 -0.0233358 0.9986006 0.0233358 0.9986006 0.0233358 0.0013994 -0.0233358
426250000 0.0013627 -0.0224362 0.9986373 0.0224362 0.9986373 0.0224362 0.0013627 -0.0224362
433500000 0.0013287 -0.0215578 0.9986713 0.0215578 0.9986713 0.0215578 0.0013287 -0.0215578
440750000 0.0012971 -0.0206996 0.9987029 0.0206996 0.9987029 0.0206996 0.0012971 -0.0206996
448000000 0.0012679 -0.0198607 0.9987321 0.0198607 0.9987321 0.0198607 0.0012679 -0.0198607
455250000 0.0012409 -0.0190400 0.9987591 0.0190400 0.9987591 0.0190400 0.0012409 -0.0190400
462500000 0.0012159 -0.0182368 0.9987841 0.0182368 0.9987841 0.0182368 0.0012159 -0.0182368
469750000 0.0011929 -0.0174501 0.9988071 0.0174501 0.9988071 0.0174501 0.0011929 -0.0174501
477000000 0.0011718 -0.0166793 0.9988282 0.0166793 0.9988282 0.0166793 0.0011718 -0.0166793
484250000 0.0011524 -0.0159236 0.9988476 0.0159236 0.9988476 0.0159236 0.0011524 -0.0159236
491500000 0.0011347 -0.0151823 0.9988653 0.0151823 0.9988653 0.0151823 0.0011347 -0.0151823
498750000 0.0011186 -0.0144548 0.9988814 0.0144548 0.9988814 0.0144548 0.0011186 -0.0144548
506000000 0.0011041 -0.0137405 0.9988959 0.0137405 0.9988959 0.0137405 0.0011041 -0.0137405
513250000 0.0010909 -0.0130388 0.9989091 0.0130388 0.9989091 0.0130388 0.0010909 -0.0130388
520500000 0.0010792 -0.0123492 0.9989208 0.0123492 0.9989208 0.0123492 0.0010792 -0.0123492
527750000 0.0010687 -0.0116712 0.9989313 0.0116712 0.9989313 0.0116712 0.0010687 -0.0116712
535000000 0.0010596 -0.0110043 0.9989404 0.0110043 0.9989404 0.0110043 0.0010596 -0.0110043
542250000 0.0010516 -0.0103480 0.9989484 0.0103480 0.9989484 0.0103480 0.0010516 -0.0103480
549500000 0.0010448 -0.0097019 0.9989552 0.0097019 0.9989552 0.0097019 0.0010448 -0.0097019
556750000 0.0010391 -0.0090656 0.9989609 0.0090656 0.9989609 0.0090656 0.0010391 -0.0090656
564000000 0.0010345 -0.0084387 0.9989655 0.0084387 0.9989655 0.0084387 0.0010345 -0.0084387
571250000 0.0010309 -0.0078209 0.9989691 0.0078209 0.9989691 0.0078209 0.0010309 -0.0078209
578500000 0.0010282 -0.0072117 0.9989718 0.0072117 0.9989718 0.0072117 0.0010282 -0.0072117
585750000 0.0010266 -0.0066109 0.9989734 0.0066109 0.9989734 0.0066109 0.0010266 -0.0066109
593000000 0.0010258 -0.0060181 0.9989742 0.0060181 0.9989742 0.0060181 0.0010258 -0.0060181
600250000 0.0010260 -0.0054330 0.9989740 0.0054330 0.9989740 0.0054330 0.0010260 -0.0054330
607500000 0.0010270 -0.0048554 0.9989730 0.0048554 0.9989730 0.0048554 0.0010270 -0.0048554
614750000 0.0010288 -0.0042849 0.9989712 0.0042849 0.9989712 0.0042849 0.0010288 -0.0042849
622000000 0.0010315 -0.0037213 0.9989685 0.0037213 0.9989685 0.0037213 0.0010315 -0.0037213
629250000 0.0010349 -0.0031644 0.9989651 0.0031644 0.9989651 0.0031644 0.0010349 -0.0031644
636500000 0.0010391 -0.0026138 0.9989609 0.0026138 0.9989609 0.0026138 0.0010391 -0.0026138
643750000 0.0010441 -0.0020695 0.9989559 0.0020695 0.9989559 0.0020695 0.0010441 -0.0020695
651000000 0.0010497 -0.0015311 0.9989503 0.0015311 0.9989503 0.0015311 0.0010497 -0.0015311
658250000 0.0010561 -0.0009984 0.9989439 0.0009984 0.9989439 0.0009984 0.0010561 -0.0009984
665500000 0.0010631 -0.0004713 0.9989369 0.0004713 0.9989369 0.0004713 0.0010631 -0.0004713
672750000 0.0010708 0.0000505 0.9989292 -0.0000505 0.9989292 -0.0000505 0.0010708 0.0000505
680000000 0.0010792 0.0005671 0.9989208 -0.0005671 0.9989208 -0.0005671 0.0010792 0.0005671
687250000 0.0010882 0.0010787 0.9989118 -0.0010787 0.9989118 -0.0010787 0.0010882 0.0010787
694500000 0.0010978 0.0015855 0.9989022 -0.0015855 0.9989022 -0.0015855 0.0010978 0.0015855
701750000 0.0011080 0.0020876 0.9988920 -0.0020876 0.9988920 -0.0020876 0.0011080 0.0020876
709000000 0.0011188 0.0025852 0.9988812 -0.0025852 0.9988812 -0.0025852 0.0011188 0.0025852
716250000 0.0011303 0.0030785 0.9988697 -0.0030785 0.9988697 -0.0030785 0.0011303 0.0030785
723500000 0.0011422 0.0035676 0.9988578 -0.0035676 0.9988578 -0.0035676 0.0011422 0.0035676
730750000 0.0011548 0.0040526 0.9988452 -0.0040526 0.9988452 -0.0040526 0.0011548 0.0040526
738000000 0.0011679 0.0045337 0.9988321 -0.0045337 0.9988321 -0.0045337 0.0011679 0.0045337
745250000 0.0011816 0.0050110 0.9988184 -0.0050110 0.9988184 -0.0050110 0.0011816 0.0050110
752500000 0.0011958 0.0054846 0.9988042 -0.0054846 0.9988042 -0.0054846 0.0011958 0.0054846
759750000 0.0012105 0.0059546 0.9987895 -0.0059546 0.9987895 -0.0059546 0.0012105 0.0059546
767000000 0.0012258 0.0064213 0.9987742 -0.0064213 0.9987742 -0.0064213 0.0012258 0.0064213
774250000 0.0012415 0.0068845 0.9987585 -0.0068845 0.9987585 -0.0068845 0.0012415 0.0068845
781500000 0.0012578 0.0073446 0.9987422 -0.0073446 0.9987422 -0.0073446 0.0012578 0.0073446
788750000 0.0012746 0.0078015 0.9987254 -0.0078015 0.9987254 -0.0078015 0.0012746 0.0078015
796000000 0.0012919 0.0082554 0.9987081 -0.0082554 0.9987081 -0.0082554 0.0012919 0.0082554
803250000 0.0013097 0.0087064 0.9986903 -0.0087064 0.9986903 -0.0087064 0.0013097 0.0087064
810500000 0.0013280 0.0091546 0.9986720 -0.0091546 0.9986720 -0.0091546 0.0013280 0.0091546
817750000 0.0013467 0.0096000 0.9986533 -0.0096000 0.9986533 -0.0096000 0.0013467 0.0096000
825000000 0.0013660 0.0100428 0.9986340 -0.0100428 0.9986340 -0.0100428 0.0013660 0.0100428
832250000 0.0013857 0.0104830 0.9986143 -0.0104830 0.9986143 -0.0104830 0.0013857 0.0104830
839500000 0.0014059 0.0109208 0.9985941 -0.0109208 0.9985941 -0.0109208 0.0014059 0.0109208
846750000 0.0014266 0.0113561 0.9985734 -0.0113561 0.9985734 -0.0113561 0.0014266 0.0113561
854000000 0.0014477 0.0117891 0.9985523 -0.0117891 0.9985523 -0.0117891 0.0014477 0.0117891
861250000 0.0014693 0.0122199 0.9985307 -0.0122199 0.9985307 -0.0122199 0.0014693 0.0122199
868500000 0.0014914 0.0126484 0.9985086 -0.0126484 0.9985086 -0.0126484 0.0014914 0.0126484
875750000 0.0015139 0.0130749 0.9984861 -0.0130749 0.9984861 -0.0130749 0.0015139 0.0130749
883000000 0.0015370 0.0134993 0.9984630 -0.0134993 0.9984630 -0.0134993 0.0015370 0.0134993
890250000 0.0015604 0.0139218 0.9984396 -0.0139218 0.9984396 -0.0139218 0.0015604 0.0139218
897500000 0.0015843 0.0143423 0.9984157 -0.0143423 0.9984157 -0.0143423 0.0015843 0.0143423
904750000 0.0016087 0.0147610 0.9983913 -0.0147610 0.9983913 -0.0147610 0.0016087 0.0147610
912000000 0.0016336 0.0151779 0.9983664 -0.0151779 0.9983664 -0.0151779 0.0016336 0.0151779
919250000 0.0016589 0.0155931 0.9983411 -0.0155931 0.9983411 -0.0155931 0.0016589 0.0155931
926500000 0.0016846 0.0160066 0.9983154 -0.0160066 0.9983154 -0.0160066 0.0016846 0.0160066
933750000 0.0017108 0.0164185 0.9982892 -0.0164185 0.9982892 -0.0164185 0.0017108 0.0164185
941000000 0.0017375 0.0168288 0.9982625 -0.0168288 0.9982625 -0.0168288 0.0017375 0.0168288
948250000 0.0017646 0.0172376 0.9982354 -0.0172376 0.9982354 -0.0172376 0.0017646 0.0172376
955500000 0.0017922 0.0176450 0.9982078 -0.0176450 0.9982078 -0.0176450 0.0017922 0.0176450
962750000 0.0018202 0.0180509 0.9981798 -0.0180509 0.9981798 -0.0180509 0.0018202 0.0180509
970000000 0.0018488 0.0184555 0.9981512 -0.0184555 0.9981512 -0.0184555 0.0018488 0.0184555
977250000 0.0018777 0.0188588 0.9981223 -0.0188588 0.9981223 -0.0188588 0.0018777 0.0188588
984500000 0.0019072 0.0192608 0.9980928 -0.0192608 0.9980928 -0.0192608 0.0019072 0.0192608
991750000 0.0019370 0.0196617 0.9980630 -0.0196617 0.9980630 -0.0196617 0.0019370 0.0196617
999000000 0.0019674 0.0200613 0.9980326 -0.0200613 0.9980326 -0.0200613 0.0019674 0.0200613
1006250000 0.0019982 0.0204598 0.9980018 -0.0204598 0.9980018 -0.0204598 0.0019982 0.0204598
1013500000 0.0020295 0.0208572 0.9979705 -0.0208572 0.9979705 -0.0208572 0.0020295 0.0208572
1020750000 0.0020613 0.0212536 0.9979387 -0.0212536 0.9979387 -0.0212536 0.0020613 0.0212536
1028000000 0.0020936 0.0216490 0.9979064 -0.0216490 0.9979064 -0.0216490 0.0020936 0.0216490
1035250000 0.0021263 0.0220434 0.9978737 -0.0220434 0.9978737 -0.0220434 0.0021263 0.0220434
1042500000 0.0021595 0.0224369 0.9978405 -0.0224369 0.9978405 -0.0224369 0.0021595 0.0224369
1049750000 0.0021932 0.0228296 0.9978068 -0.0228296 0.9978068 -0.0228296 0.0021932 0.0228296
1057000000 0.0022274 0.0232213 0.9977726 -0.0232213 0.9977726 -0.0232213 0.0022274 0.0232213
1064250000 0.0022620 0.0236123 0.9977380 -0.0236123 0.9977380 -0.0236123 0.0022620 0.0236123
1071500000 0.0022972 0.0240025 0.9977028 -0.0240025 0.9977028 -0.0240025 0.0022972 0.0240025
1078750000 0.0023329 0.0243919 0.9976671 -0.0243919 0.9976671 -0.0243919 0.0023329 0.0243919
1086000000 0.0023690 0.0247807 0.9976310 -0.0247807 0.9976310 -0.0247807 0.0023690 0.0247807
1093250000 0.0024057 0.0251687 0.9975943 -0.0251687 0.9975943 -0.0251687 0.0024057 0.0251687
1100500000 0.0024429 0.0255562 0.9975571 -0.0255562 0.9975571 -0.0255562 0.0024429 0.0255562
1107750000 0.0024806 0.0259430 0.9975194 -0.0259430 0.9975194 -0.0259430 0.0024806 0.0259430
1115000000 0.0025188 0.0263293 0.9974812 -0.0263293 0.9974812 -0.0263293 0.0025188 0.0263293
1122250000 0.0025576 0.0267150 0.9974424 -0.0267150 0.9974424 -0.0267150 0.0025576 0.0267150
1129500000 0.0025969 0.0271002 0.9974031 -0.0271002 0.9974031 -0.0271002 0.0025969 0.0271002
1136750000 0.0026367 0.0274850 0.9973633 -0.0274850 0.9973633 -0.0274850 0.0026367 0.0274850
1144000000 0.0026770 0.0278693 0.9973230 -0.0278693 0.9973230 -0.0278693 0.0026770 0.0278693
1151250000 0.0027179 0.0282531 0.9972821 -0.0282531 0.9972821 -0.0282531 0.0027179 0.0282531
1158500000 0.0027594 0.0286367 0.9972406 -0.0286367 0.9972406 -0.0286367 0.0027594 0.0286367
1165750000 0.0028014 0.0290198 0.9971986 -0.0290198 0.9971986 -0.0290198 0.0028014 0.0290198
1173000000 0.0028440 0.0294026 0.9971560 -0.0294026 0.9971560 -0.0294026 0.0028440 0.0294026
1180250000 0.0028872 0.0297851 0.9971128 -0.0297851 0.9971128 -0.0297851 0.0028872 0.0297851
1187500000 0.0029309 0.0301674 0.9970691 -0.0301674 0.9970691 -0.0301674 0.0029309 0.0301674
1194750000 0.0029752 0.0305494 0.9970248 -0.0305494 0.9970248 -0.0305494 0.0029752 0.0305494
1202000000 0.0030202 0.0309312 0.9969798 -0.0309312 0.9969798 -0.0309312 0.0030202 0.0309312
1209250000 0.0030657 0.0313129 0.9969343 -0.0313129 0.9969343 -0.0313129 0.0030657 0.0313129
1216500000 0.0031118 0.0316943 0.9968882 -0.0316943 0.9968882 -0.0316943 0.0031118 0.0316943
1223750000 0.0031586 0.0320756 0.9968414 -0.0320756 0.9968414 -0.0320756 0.0031586 0.0320756
1231000000 0.0032060 0.0324569 0.9967940 -0.0324569 0.9967940 -0.0324569 0.0032060 0.0324569
1238250000 0.0032540 0.0328380 0.9967460 -0.0328380 0.9967460 -0.0328380 0.0032540 0.0328380
1245500000 0.0033027 0.0332191 0.9966973 -0.0332191 0.9966973 -0.0332191 0.0033027 0.0332191
1252750000 0.0033521 0.0336002 0.9966479 -0.0336002 0.9966479 -0.0336002 0.0033521 0.0336002
1260000000 0.0034021 0.0339813 0.9965979 -0.0339813 0.9965979 -0.0339813 0.0034021 0.0339813
1267250000 0.0034528 0.0343624 0.9965472 -0.0343624 0.9965472 -0.0343624 0.0034528 0.0343624
1274500000 0.0035042 0.0347436 0.9964958 -0.0347436 0.9964958 -0.0347436 0.0035042 0.0347436
1281750000 0.0035562 0.0351248 0.9964438 -0.0351248 0.9964438 -0.0351248 0.0035562 0.0351248
1289000000 0.0036090 0.0355062 0.9963910 -0.0355062 0.9963910 -0.0355062 0.0036090 0.0355062
1296250000 0.0036625 0.0358876 0.9963375 -0.0358876 0.9963375 -0.0358876 0.0036625 0.0358876
1303500000 0.0037168 0.0362693 0.9962832 -0.0362693 0.9962832 -0.0362693 0.0037168 0.0362693
1310750000 0.0037718 0.0366511 0.9962282 -0.0366511 0.9962282 -0.0366511 0.0037718 0.0366511
1318000000 0.0038276 0.0370331 0.9961724 -0.0370331 0.9961724 -0.0370331 0.0038276 0.0370331
1325250000 0.0038841 0.0374154 0.9961159 -0.0374154 0.9961159 -0.0374154 0.0038841 0.0374154
1332500000 0.0039415 0.0377979 0.9960585 -0.0377979 0.9960585 -0.0377979 0.0039415 0.0377979
1339750000 0.0039996 0.0381807 0.9960004 -0.0381807 0.9960004 -0.0381807 0.0039996 0.0381807
1347000000 0.0040586 0.0385638 0.9959414 -0.0385638 0.9959414 -0.0385638 0.0040586 0.0385638
1354250000 0.0041184 0.0389472 0.9958816 -0.0389472 0.9958816 -0.0389472 0.0041184 0.0389472
1361500000 0.0041790 0.0393310 0.9958210 -0.0393310 0.9958210 -0.0393310 0.0041790 0.0393310
1368750000 0.0042406 0.0397152 0.9957594 -0.0397152 0.9957594 -0.0397152 0.0042406 0.0397152
1376000000 0.0043030 0.0400998 0.9956970 -0.0400998 0.9956970 -0.0400998 0.0043030 0.0400998
1383250000 0.0043663 0.0404848 0.9956337 -0.0404848 0.9956337 -0.0404848 0.0043663 0.0404848
1390500000 0.0044305 0.0408703 0.9955695 -0.0408703 0.9955695 -0.0408703 0.0044305 0.0408703
1397750000 0.0044957 0.0412562 0.9955043 -0.0412562 0.9955043 -0.0412562 0.0044957 0.0412562
1405000000 0.0045619 0.0416427 0.9954381 -0.0416427 0.9954381 -0.0416427 0.0045619 0.0416427
1412250000 0.0046290 0.0420297 0.9953710 -0.0420297 0.9953710 -0.0420297 0.0046290 0.0420297
1419500000 0.0046972 0.0424173 0.9953028 -0.0424173 0.9953028 -0.0424173 0.0046972 0.0424173
1426750000 0.0047664 0.0428054 0.9952336 -0.0428054 0.9952336 -0.0428054 0.0047664 0.0428054
1434000000 0.0048366 0.0431942 0.9951634 -0.0431942 0.9951634 -0.0431942 0.0048366 0.0431942
1441250000 0.0049079 0.0435836 0.9950921 -0.0435836 0.9950921 -0.0435836 0.0049079 0.0435836
1448500000 0.0049804 0.0439736 0.9950196 -0.0439736 0.9950196 -0.0439736 0.0049804 0.0439736
1455750000 0.0050539 0.0443644 0.9949461 -0.0443644 0.9949461 -0.0443644 0.0050539 0.0443644
1463000000 0.0051287 0.0447559 0.9948713 -0.0447559 0.9948713 -0.0447559 0.0051287 0.0447559
1470250000 0.0052046 0.0451481 0.9947954 -0.0451481 0.9947954 -0.0451481 0.0052046 0.0451481
1477500000 0.0052817 0.0455411 0.9947183 -0.0455411 0.9947183 -0.0455411 0.0052817 0.0455411
1484750000 0.0053601 0.0459349 0.9946399 -0.0459349 0.9946399 -0.0459349 0.0053601 0.0459349
1492000000 0.0054397 0.0463295 0.9945603 -0.0463295 0.9945603 -0.0463295 0.0054397 0.0463295
1499250000 0.0055207 0.0467249 0.9944793 -0.0467249 0.9944793 -0.0467249 0.0055207 0.0467249
1506500000 0.0056030 0.0471213 0.9943970 -0.0471213 0.9943970 -0.0471213 0.0056030 0.0471213
1513750000 0.0056867 0.0475185 0.9943133 -0.0475185 0.9943133 -0.0475185 0.0056867 0.0475185
1521000000 0.0057719 0.0479167 0.9942281 -0.0479167 0.9942281 -0.0479167 0.0057719 0.0479167
1528250000 0.0058584 0.0483158 0.9941416 -0.0483158 0.9941416 -0.0483158 0.0058584 0.0483158
1535500000 0.0059465 0.0487159 0.9940535 -0.0487159 0.9940535 -0.0487159 0.0059465 0.0487159
1542750000 0.0060362 0.0491171 0.9939638 -0.0491171 0.9939638 -0.0491171 0.0060362 0.0491171
1550000000 0.0061274 0.0495192 0.9938726 -0.0495192 0.9938726 -0.0495192 0.0061274 0.0495192
1557250000 0.0062203 0.0499225 0.9937797 -0.0499225 0.9937797 -0.0499225 0.0062203 0.0499225
1564500000 0.0063149 0.0503268 0.9936851 -0.0503268 0.9936851 -0.0503268 0.0063149 0.0503268
1571750000 0.0064112 0.0507323 0.9935888 -0.0507323 0.9935888 -0.0507323 0.0064112 0.0507323
1579000000 0.0065093 0.0511390 0.9934907 -0.0511390 0.9934907 -0.0511390 0.0065093 0.0511390
1586250000 0.0066092 0.0515468 0.9933908 -0.0515468 0.9933908 -0.0515468 0.0066092 0.0515468
1593500000 0.0067110 0.0519558 0.9932890 -0.0519558 0.9932890 -0.0519558 0.0067110 0.0519558
1600750000 0.0068148 0.0523661 0.9931852 -0.0523661 0.9931852 -0.0523661 0.0068148 0.0523661
1608000000 0.0069207 0.0527776 0.9930793 -0.0527776 0.9930793 -0.0527776 0.0069207 0.0527776
1615250000 0.0070286 0.0531905 0.9929714 -0.0531905 0.9929714 -0.0531905 0.0070286 0.0531905
1622500000 0.0071387 0.0536047 0.9928613 -0.0536047 0.9928613 -0.0536047 0.0071387 0.0536047
1629750000 0.0072510 0.0540202 0.9927490 -0.0540202 0.9927490 -0.0540202 0.0072510 0.0540202
