!Murata Part Number: GRM32B7U3D181JW31
!These Parameters are Measured in Series Mode Connection
!Data Generated on Mar 30, 2021
!       o--ll--o
!Port1            Port2
!       o------o
!Operation Temp=25[degC], DC Bias Voltage=0[V]
!Freq. Start=100[MHz] Stop=3[GHz] 401[Steps]
# Hz S RI R 50
!Freq.(Hz) S11(Real) S11(Imag) S21(Real) S21(Imag) S12(Real) S12(Imag) S22(Real) S22(Imag)
100000000 0.0077088 -0.0839856 0.9922912 0.0839856 0.9922912 0.0839856 0.0077088 -0.0839856
107250000 0.0067066 -0.0778678 0.9932934 0.0778678 0.9932934 0.0778678 0.0067066 -0.0778678
114500000 0.0058881 -0.0724762 0.9941119 0.0724762 0.9941119 0.0724762 0.0058881 -0.0724762
121750000 0.0052114 -0.0676840 0.9947886 0.0676840 0.9947886 0.0676840 0.0052114 -0.0676840
129000000 0.0046458 -0.0633923 0.9953542 0.0633923 0.9953542 0.0633923 0.0046458 -0.0633923
136250000 0.0041686 -0.0595225 0.9958314 0.0595225 0.9958314 0.0595225 0.0041686 -0.0595225
143500000 0.0037625 -0.0560118 0.9962375 0.0560118 0.9962375 0.0560118 0.0037625 -0.0560118
150750000 0.0034143 -0.0528091 0.9965857 0.0528091 0.9965857 0.0528091 0.0034143 -0.0528091
158000000 0.0031137 -0.0498726 0.9968863 0.0498726 0.9968863 0.0498726 0.0031137 -0.0498726
165250000 0.0028527 -0.0471676 0.9971473 0.0471676 0.9971473 0.0471676 0.0028527 -0.0471676
172500000 0.0026249 -0.0446653 0.9973751 0.0446653 0.9973751 0.0446653 0.0026249 -0.0446653
179750000 0.0024249 -0.0423413 0.9975751 0.0423413 0.9975751 0.0423413 0.0024249 -0.0423413
187000000 0.0022488 -0.0401751 0.9977512 0.0401751 0.9977512 0.0401751 0.0022488 -0.0401751
194250000 0.0020929 -0.0381491 0.9979071 0.0381491 0.9979071 0.0381491 0.0020929 -0.0381491
201500000 0.0019546 -0.0362483 0.9980454 0.0362483 0.9980454 0.0362483 0.0019546 -0.0362483
208750000 0.0018315 -0.0344596 0.9981685 0.0344596 0.9981685 0.0344596 0.0018315 -0.0344596
216000000 0.0017216 -0.0327720 0.9982784 0.0327720 0.9982784 0.0327720 0.0017216 -0.0327720
223250000 0.0016233 -0.0311755 0.9983767 0.0311755 0.9983767 0.0311755 0.0016233 -0.0311755
230500000 0.0015351 -0.0296616 0.9984649 0.0296616 0.9984649 0.0296616 0.0015351 -0.0296616
237750000 0.0014560 -0.0282228 0.9985440 0.0282228 0.9985440 0.0282228 0.0014560 -0.0282228
245000000 0.0013848 -0.0268523 0.9986152 0.0268523 0.9986152 0.0268523 0.0013848 -0.0268523
252250000 0.0013208 -0.0255443 0.9986792 0.0255443 0.9986792 0.0255443 0.0013208 -0.0255443
259500000 0.0012632 -0.0242935 0.9987368 0.0242935 0.9987368 0.0242935 0.0012632 -0.0242935
266750000 0.0012112 -0.0230954 0.9987888 0.0230954 0.9987888 0.0230954 0.0012112 -0.0230954
274000000 0.0011645 -0.0219455 0.9988355 0.0219455 0.9988355 0.0219455 0.0011645 -0.0219455
281250000 0.0011224 -0.0208404 0.9988776 0.0208404 0.9988776 0.0208404 0.0011224 -0.0208404
288500000 0.0010846 -0.0197764 0.9989154 0.0197764 0.9989154 0.0197764 0.0010846 -0.0197764
295750000 0.0010506 -0.0187506 0.9989494 0.0187506 0.9989494 0.0187506 0.0010506 -0.0187506
303000000 0.0010202 -0.0177603 0.9989798 0.0177603 0.9989798 0.0177603 0.0010202 -0.0177603
310250000 0.0009930 -0.0168028 0.9990070 0.0168028 0.9990070 0.0168028 0.0009930 -0.0168028
317500000 0.0009689 -0.0158760 0.9990311 0.0158760 0.9990311 0.0158760 0.0009689 -0.0158760
324750000 0.0009474 -0.0149777 0.9990526 0.0149777 0.9990526 0.0149777 0.0009474 -0.0149777
332000000 0.0009286 -0.0141060 0.9990714 0.0141060 0.9990714 0.0141060 0.0009286 -0.0141060
339250000 0.0009121 -0.0132593 0.9990879 0.0132593 0.9990879 0.0132593 0.0009121 -0.0132593
346500000 0.0008978 -0.0124359 0.9991022 0.0124359 0.9991022 0.0124359 0.0008978 -0.0124359
353750000 0.0008855 -0.0116343 0.9991145 0.0116343 0.9991145 0.0116343 0.0008855 -0.0116343
361000000 0.0008752 -0.0108532 0.9991248 0.0108532 0.9991248 0.0108532 0.0008752 -0.0108532
368250000 0.0008667 -0.0100914 0.9991333 0.0100914 0.9991333 0.0100914 0.0008667 -0.0100914
375500000 0.0008599 -0.0093477 0.9991401 0.0093477 0.9991401 0.0093477 0.0008599 -0.0093477
382750000 0.0008547 -0.0086210 0.9991453 0.0086210 0.9991453 0.0086210 0.0008547 -0.0086210
390000000 0.0008511 -0.0079104 0.9991489 0.0079104 0.9991489 0.0079104 0.0008511 -0.0079104
397250000 0.0008488 -0.0072149 0.9991512 0.0072149 0.9991512 0.0072149 0.0008488 -0.0072149
404500000 0.0008480 -0.0065336 0.9991520 0.0065336 0.9991520 0.0065336 0.0008480 -0.0065336
411750000 0.0008485 -0.0058659 0.9991515 0.0058659 0.9991515 0.0058659 0.0008485 -0.0058659
419000000 0.0008502 -0.0052109 0.9991498 0.0052109 0.9991498 0.0052109 0.0008502 -0.0052109
426250000 0.0008531 -0.0045680 0.9991469 0.0045680 0.9991469 0.0045680 0.0008531 -0.0045680
433500000 0.0008572 -0.0039365 0.9991428 0.0039365 0.9991428 0.0039365 0.0008572 -0.0039365
440750000 0.0008624 -0.0033158 0.9991376 0.0033158 0.9991376 0.0033158 0.0008624 -0.0033158
448000000 0.0008687 -0.0027054 0.9991313 0.0027054 0.9991313 0.0027054 0.0008687 -0.0027054
455250000 0.0008761 -0.0021047 0.9991239 0.0021047 0.9991239 0.0021047 0.0008761 -0.0021047
462500000 0.0008844 -0.0015131 0.9991156 0.0015131 0.9991156 0.0015131 0.0008844 -0.0015131
469750000 0.0008938 -0.0009304 0.9991062 0.0009304 0.9991062 0.0009304 0.0008938 -0.0009304
477000000 0.0009041 -0.0003559 0.9990959 0.0003559 0.9990959 0.0003559 0.0009041 -0.0003559
484250000 0.0009153 0.0002107 0.9990847 -0.0002107 0.9990847 -0.0002107 0.0009153 0.0002107
491500000 0.0009275 0.0007698 0.9990725 -0.0007698 0.9990725 -0.0007698 0.0009275 0.0007698
498750000 0.0009406 0.0013219 0.9990594 -0.0013219 0.9990594 -0.0013219 0.0009406 0.0013219
506000000 0.0009546 0.0018671 0.9990454 -0.0018671 0.9990454 -0.0018671 0.0009546 0.0018671
513250000 0.0009695 0.0024059 0.9990305 -0.0024059 0.9990305 -0.0024059 0.0009695 0.0024059
520500000 0.0009852 0.0029387 0.9990148 -0.0029387 0.9990148 -0.0029387 0.0009852 0.0029387
527750000 0.0010018 0.0034656 0.9989982 -0.0034656 0.9989982 -0.0034656 0.0010018 0.0034656
535000000 0.0010193 0.0039870 0.9989807 -0.0039870 0.9989807 -0.0039870 0.0010193 0.0039870
542250000 0.0010376 0.0045032 0.9989624 -0.0045032 0.9989624 -0.0045032 0.0010376 0.0045032
549500000 0.0010568 0.0050143 0.9989432 -0.0050143 0.9989432 -0.0050143 0.0010568 0.0050143
556750000 0.0010769 0.0055208 0.9989231 -0.0055208 0.9989231 -0.0055208 0.0010769 0.0055208
564000000 0.0010978 0.0060228 0.9989022 -0.0060228 0.9989022 -0.0060228 0.0010978 0.0060228
571250000 0.0011195 0.0065205 0.9988805 -0.0065205 0.9988805 -0.0065205 0.0011195 0.0065205
578500000 0.0011421 0.0070141 0.9988579 -0.0070141 0.9988579 -0.0070141 0.0011421 0.0070141
585750000 0.0011656 0.0075039 0.9988344 -0.0075039 0.9988344 -0.0075039 0.0011656 0.0075039
593000000 0.0011900 0.0079901 0.9988100 -0.0079901 0.9988100 -0.0079901 0.0011900 0.0079901
600250000 0.0012152 0.0084729 0.9987848 -0.0084729 0.9987848 -0.0084729 0.0012152 0.0084729
607500000 0.0012414 0.0089523 0.9987586 -0.0089523 0.9987586 -0.0089523 0.0012414 0.0089523
614750000 0.0012684 0.0094288 0.9987316 -0.0094288 0.9987316 -0.0094288 0.0012684 0.0094288
622000000 0.0012963 0.0099023 0.9987037 -0.0099023 0.9987037 -0.0099023 0.0012963 0.0099023
629250000 0.0013252 0.0103730 0.9986748 -0.0103730 0.9986748 -0.0103730 0.0013252 0.0103730
636500000 0.0013551 0.0108412 0.9986449 -0.0108412 0.9986449 -0.0108412 0.0013551 0.0108412
643750000 0.0013858 0.0113070 0.9986142 -0.0113070 0.9986142 -0.0113070 0.0013858 0.0113070
651000000 0.0014176 0.0117705 0.9985824 -0.0117705 0.9985824 -0.0117705 0.0014176 0.0117705
658250000 0.0014504 0.0122319 0.9985496 -0.0122319 0.9985496 -0.0122319 0.0014504 0.0122319
665500000 0.0014842 0.0126914 0.9985158 -0.0126914 0.9985158 -0.0126914 0.0014842 0.0126914
672750000 0.0015191 0.0131490 0.9984809 -0.0131490 0.9984809 -0.0131490 0.0015191 0.0131490
680000000 0.0015550 0.0136049 0.9984450 -0.0136049 0.9984450 -0.0136049 0.0015550 0.0136049
687250000 0.0015920 0.0140593 0.9984080 -0.0140593 0.9984080 -0.0140593 0.0015920 0.0140593
694500000 0.0016302 0.0145122 0.9983698 -0.0145122 0.9983698 -0.0145122 0.0016302 0.0145122
701750000 0.0016696 0.0149639 0.9983304 -0.0149639 0.9983304 -0.0149639 0.0016696 0.0149639
709000000 0.0017101 0.0154144 0.9982899 -0.0154144 0.9982899 -0.0154144 0.0017101 0.0154144
716250000 0.0017519 0.0158638 0.9982481 -0.0158638 0.9982481 -0.0158638 0.0017519 0.0158638
723500000 0.0017950 0.0163124 0.9982050 -0.0163124 0.9982050 -0.0163124 0.0017950 0.0163124
730750000 0.0018395 0.0167601 0.9981605 -0.0167601 0.9981605 -0.0167601 0.0018395 0.0167601
738000000 0.0018853 0.0172072 0.9981147 -0.0172072 0.9981147 -0.0172072 0.0018853 0.0172072
745250000 0.0019325 0.0176537 0.9980675 -0.0176537 0.9980675 -0.0176537 0.0019325 0.0176537
752500000 0.0019812 0.0180998 0.9980188 -0.0180998 0.9980188 -0.0180998 0.0019812 0.0180998
759750000 0.0020314 0.0185456 0.9979686 -0.0185456 0.9979686 -0.0185456 0.0020314 0.0185456
767000000 0.0020832 0.0189912 0.9979168 -0.0189912 0.9979168 -0.0189912 0.0020832 0.0189912
774250000 0.0021367 0.0194367 0.9978633 -0.0194367 0.9978633 -0.0194367 0.0021367 0.0194367
781500000 0.0021919 0.0198823 0.9978081 -0.0198823 0.9978081 -0.0198823 0.0021919 0.0198823
788750000 0.0022490 0.0203280 0.9977510 -0.0203280 0.9977510 -0.0203280 0.0022490 0.0203280
796000000 0.0023079 0.0207741 0.9976921 -0.0207741 0.9976921 -0.0207741 0.0023079 0.0207741
803250000 0.0023687 0.0212205 0.9976313 -0.0212205 0.9976313 -0.0212205 0.0023687 0.0212205
810500000 0.0024317 0.0216674 0.9975683 -0.0216674 0.9975683 -0.0216674 0.0024317 0.0216674
817750000 0.0024968 0.0221150 0.9975032 -0.0221150 0.9975032 -0.0221150 0.0024968 0.0221150
825000000 0.0025641 0.0225634 0.9974359 -0.0225634 0.9974359 -0.0225634 0.0025641 0.0225634
832250000 0.0026338 0.0230126 0.9973662 -0.0230126 0.9973662 -0.0230126 0.0026338 0.0230126
839500000 0.0027060 0.0234629 0.9972940 -0.0234629 0.9972940 -0.0234629 0.0027060 0.0234629
846750000 0.0027808 0.0239143 0.9972192 -0.0239143 0.9972192 -0.0239143 0.0027808 0.0239143
854000000 0.0028584 0.0243669 0.9971416 -0.0243669 0.9971416 -0.0243669 0.0028584 0.0243669
861250000 0.0029389 0.0248210 0.9970611 -0.0248210 0.9970611 -0.0248210 0.0029389 0.0248210
868500000 0.0030224 0.0252766 0.9969776 -0.0252766 0.9969776 -0.0252766 0.0030224 0.0252766
875750000 0.0031092 0.0257338 0.9968908 -0.0257338 0.9968908 -0.0257338 0.0031092 0.0257338
883000000 0.0031993 0.0261928 0.9968007 -0.0261928 0.9968007 -0.0261928 0.0031993 0.0261928
890250000 0.0032931 0.0266538 0.9967069 -0.0266538 0.9967069 -0.0266538 0.0032931 0.0266538
897500000 0.0033908 0.0271168 0.9966092 -0.0271168 0.9966092 -0.0271168 0.0033908 0.0271168
904750000 0.0034924 0.0275820 0.9965076 -0.0275820 0.9965076 -0.0275820 0.0034924 0.0275820
912000000 0.0035984 0.0280495 0.9964016 -0.0280495 0.9964016 -0.0280495 0.0035984 0.0280495
919250000 0.0037090 0.0285195 0.9962910 -0.0285195 0.9962910 -0.0285195 0.0037090 0.0285195
926500000 0.0038244 0.0289921 0.9961756 -0.0289921 0.9961756 -0.0289921 0.0038244 0.0289921
933750000 0.0039451 0.0294675 0.9960549 -0.0294675 0.9960549 -0.0294675 0.0039451 0.0294675
941000000 0.0040712 0.0299457 0.9959288 -0.0299457 0.9959288 -0.0299457 0.0040712 0.0299457
948250000 0.0042033 0.0304270 0.9957967 -0.0304270 0.9957967 -0.0304270 0.0042033 0.0304270
955500000 0.0043416 0.0309115 0.9956584 -0.0309115 0.9956584 -0.0309115 0.0043416 0.0309115
962750000 0.0044868 0.0313992 0.9955132 -0.0313992 0.9955132 -0.0313992 0.0044868 0.0313992
970000000 0.0046391 0.0318903 0.9953609 -0.0318903 0.9953609 -0.0318903 0.0046391 0.0318903
977250000 0.0047992 0.0323850 0.9952008 -0.0323850 0.9952008 -0.0323850 0.0047992 0.0323850
984500000 0.0049676 0.0328833 0.9950324 -0.0328833 0.9950324 -0.0328833 0.0049676 0.0328833
991750000 0.0051449 0.0333853 0.9948551 -0.0333853 0.9948551 -0.0333853 0.0051449 0.0333853
999000000 0.0053318 0.0338911 0.9946682 -0.0338911 0.9946682 -0.0338911 0.0053318 0.0338911
1006250000 0.0055291 0.0344008 0.9944709 -0.0344008 0.9944709 -0.0344008 0.0055291 0.0344008
1013500000 0.0057374 0.0349144 0.9942626 -0.0349144 0.9942626 -0.0349144 0.0057374 0.0349144
1020750000 0.0059578 0.0354318 0.9940422 -0.0354318 0.9940422 -0.0354318 0.0059578 0.0354318
1028000000 0.0061912 0.0359530 0.9938088 -0.0359530 0.9938088 -0.0359530 0.0061912 0.0359530
1035250000 0.0064385 0.0364780 0.9935615 -0.0364780 0.9935615 -0.0364780 0.0064385 0.0364780
1042500000 0.0067010 0.0370066 0.9932990 -0.0370066 0.9932990 -0.0370066 0.0067010 0.0370066
1049750000 0.0069799 0.0375384 0.9930201 -0.0375384 0.9930201 -0.0375384 0.0069799 0.0375384
1057000000 0.0072765 0.0380733 0.9927235 -0.0380733 0.9927235 -0.0380733 0.0072765 0.0380733
1064250000 0.0075923 0.0386108 0.9924077 -0.0386108 0.9924077 -0.0386108 0.0075923 0.0386108
1071500000 0.0079289 0.0391503 0.9920711 -0.0391503 0.9920711 -0.0391503 0.0079289 0.0391503
1078750000 0.0082880 0.0396911 0.9917120 -0.0396911 0.9917120 -0.0396911 0.0082880 0.0396911
1086000000 0.0086715 0.0402323 0.9913285 -0.0402323 0.9913285 -0.0402323 0.0086715 0.0402323
1093250000 0.0090813 0.0407727 0.9909187 -0.0407727 0.9909187 -0.0407727 0.0090813 0.0407727
1100500000 0.0095198 0.0413109 0.9904802 -0.0413109 0.9904802 -0.0413109 0.0095198 0.0413109
1107750000 0.0099890 0.0418452 0.9900110 -0.0418452 0.9900110 -0.0418452 0.0099890 0.0418452
1115000000 0.0104916 0.0423734 0.9895084 -0.0423734 0.9895084 -0.0423734 0.0104916 0.0423734
1122250000 0.0110298 0.0428930 0.9889702 -0.0428930 0.9889702 -0.0428930 0.0110298 0.0428930
1129500000 0.0116064 0.0434008 0.9883936 -0.0434008 0.9883936 -0.0434008 0.0116064 0.0434008
1136750000 0.0122239 0.0438931 0.9877761 -0.0438931 0.9877761 -0.0438931 0.0122239 0.0438931
1144000000 0.0128848 0.0443653 0.9871152 -0.0443653 0.9871152 -0.0443653 0.0128848 0.0443653
1151250000 0.0135914 0.0448124 0.9864086 -0.0448124 0.9864086 -0.0448124 0.0135914 0.0448124
1158500000 0.0143458 0.0452279 0.9856542 -0.0452279 0.9856542 -0.0452279 0.0143458 0.0452279
1165750000 0.0151494 0.0456047 0.9848506 -0.0456047 0.9848506 -0.0456047 0.0151494 0.0456047
1173000000 0.0160030 0.0459345 0.9839970 -0.0459345 0.9839970 -0.0459345 0.0160030 0.0459345
1180250000 0.0169063 0.0462079 0.9830937 -0.0462079 0.9830937 -0.0462079 0.0169063 0.0462079
1187500000 0.0178574 0.0464144 0.9821426 -0.0464144 0.9821426 -0.0464144 0.0178574 0.0464144
1194750000 0.0188528 0.0465424 0.9811472 -0.0465424 0.9811472 -0.0465424 0.0188528 0.0465424
1202000000 0.0198867 0.0465798 0.9801133 -0.0465798 0.9801133 -0.0465798 0.0198867 0.0465798
1209250000 0.0209502 0.0465139 0.9790498 -0.0465139 0.9790498 -0.0465139 0.0209502 0.0465139
1216500000 0.0220313 0.0463324 0.9779687 -0.0463324 0.9779687 -0.0463324 0.0220313 0.0463324
1223750000 0.0231146 0.0460242 0.9768854 -0.0460242 0.9768854 -0.0460242 0.0231146 0.0460242
1231000000 0.0241806 0.0455801 0.9758194 -0.0455801 0.9758194 -0.0455801 0.0241806 0.0455801
1238250000 0.0252064 0.0449945 0.9747936 -0.0449945 0.9747936 -0.0449945 0.0252064 0.0449945
1245500000 0.0261662 0.0442663 0.9738338 -0.0442663 0.9738338 -0.0442663 0.0261662 0.0442663
1252750000 0.0270323 0.0434004 0.9729677 -0.0434004 0.9729677 -0.0434004 0.0270323 0.0434004
1260000000 0.0277767 0.0424084 0.9722233 -0.0424084 0.9722233 -0.0424084 0.0277767 0.0424084
1267250000 0.0283733 0.0413091 0.9716267 -0.0413091 0.9716267 -0.0413091 0.0283733 0.0413091
1274500000 0.0288000 0.0401282 0.9712000 -0.0401282 0.9712000 -0.0401282 0.0288000 0.0401282
1281750000 0.0290409 0.0388968 0.9709591 -0.0388968 0.9709591 -0.0388968 0.0290409 0.0388968
1289000000 0.0290880 0.0376496 0.9709120 -0.0376496 0.9709120 -0.0376496 0.0290880 0.0376496
1296250000 0.0289419 0.0364228 0.9710581 -0.0364228 0.9710581 -0.0364228 0.0289419 0.0364228
1303500000 0.0286118 0.0352506 0.9713882 -0.0352506 0.9713882 -0.0352506 0.0286118 0.0352506
1310750000 0.0281146 0.0341635 0.9718854 -0.0341635 0.9718854 -0.0341635 0.0281146 0.0341635
1318000000 0.0274729 0.0331861 0.9725271 -0.0331861 0.9725271 -0.0331861 0.0274729 0.0331861
1325250000 0.0267133 0.0323361 0.9732867 -0.0323361 0.9732867 -0.0323361 0.0267133 0.0323361
1332500000 0.0258633 0.0316242 0.9741367 -0.0316242 0.9741367 -0.0316242 0.0258633 0.0316242
1339750000 0.0249506 0.0310544 0.9750494 -0.0310544 0.9750494 -0.0310544 0.0249506 0.0310544
1347000000 0.0240003 0.0306250 0.9759997 -0.0306250 0.9759997 -0.0306250 0.0240003 0.0306250
1354250000 0.0230347 0.0303299 0.9769653 -0.0303299 0.9769653 -0.0303299 0.0230347 0.0303299
1361500000 0.0220726 0.0301599 0.9779274 -0.0301599 0.9779274 -0.0301599 0.0220726 0.0301599
1368750000 0.0211289 0.0301037 0.9788711 -0.0301037 0.9788711 -0.0301037 0.0211289 0.0301037
1376000000 0.0202152 0.0301492 0.9797848 -0.0301492 0.9797848 -0.0301492 0.0202152 0.0301492
1383250000 0.0193398 0.0302840 0.9806602 -0.0302840 0.9806602 -0.0302840 0.0193398 0.0302840
1390500000 0.0185083 0.0304961 0.9814917 -0.0304961 0.9814917 -0.0304961 0.0185083 0.0304961
1397750000 0.0177241 0.0307744 0.9822759 -0.0307744 0.9822759 -0.0307744 0.0177241 0.0307744
1405000000 0.0169889 0.0311085 0.9830111 -0.0311085 0.9830111 -0.0311085 0.0169889 0.0311085
1412250000 0.0163029 0.0314894 0.9836971 -0.0314894 0.9836971 -0.0314894 0.0163029 0.0314894
1419500000 0.0156655 0.0319089 0.9843345 -0.0319089 0.9843345 -0.0319089 0.0156655 0.0319089
1426750000 0.0150751 0.0323601 0.9849249 -0.0323601 0.9849249 -0.0323601 0.0150751 0.0323601
1434000000 0.0145298 0.0328369 0.9854702 -0.0328369 0.9854702 -0.0328369 0.0145298 0.0328369
1441250000 0.0140275 0.0333342 0.9859725 -0.0333342 0.9859725 -0.0333342 0.0140275 0.0333342
1448500000 0.0135656 0.0338477 0.9864344 -0.0338477 0.9864344 -0.0338477 0.0135656 0.0338477
1455750000 0.0131418 0.0343736 0.9868582 -0.0343736 0.9868582 -0.0343736 0.0131418 0.0343736
1463000000 0.0127535 0.0349089 0.9872465 -0.0349089 0.9872465 -0.0349089 0.0127535 0.0349089
1470250000 0.0123983 0.0354512 0.9876017 -0.0354512 0.9876017 -0.0354512 0.0123983 0.0354512
1477500000 0.0120741 0.0359982 0.9879259 -0.0359982 0.9879259 -0.0359982 0.0120741 0.0359982
1484750000 0.0117785 0.0365483 0.9882215 -0.0365483 0.9882215 -0.0365483 0.0117785 0.0365483
1492000000 0.0115094 0.0371001 0.9884906 -0.0371001 0.9884906 -0.0371001 0.0115094 0.0371001
1499250000 0.0112651 0.0376524 0.9887349 -0.0376524 0.9887349 -0.0376524 0.0112651 0.0376524
1506500000 0.0110437 0.0382044 0.9889563 -0.0382044 0.9889563 -0.0382044 0.0110437 0.0382044
1513750000 0.0108436 0.0387553 0.9891564 -0.0387553 0.9891564 -0.0387553 0.0108436 0.0387553
1521000000 0.0106632 0.0393045 0.9893368 -0.0393045 0.9893368 -0.0393045 0.0106632 0.0393045
1528250000 0.0105012 0.0398515 0.9894988 -0.0398515 0.9894988 -0.0398515 0.0105012 0.0398515
1535500000 0.0103562 0.0403962 0.9896438 -0.0403962 0.9896438 -0.0403962 0.0103562 0.0403962
1542750000 0.0102271 0.0409381 0.9897729 -0.0409381 0.9897729 -0.0409381 0.0102271 0.0409381
1550000000 0.0101129 0.0414772 0.9898871 -0.0414772 0.9898871 -0.0414772 0.0101129 0.0414772
1557250000 0.0100125 0.0420133 0.9899875 -0.0420133 0.9899875 -0.0420133 0.0100125 0.0420133
1564500000 0.0099251 0.0425463 0.9900749 -0.0425463 0.9900749 -0.0425463 0.0099251 0.0425463
1571750000 0.0098499 0.0430763 0.9901501 -0.0430763 0.9901501 -0.0430763 0.0098499 0.0430763
1579000000 0.0097860 0.0436032 0.9902140 -0.0436032 0.9902140 -0.0436032 0.0097860 0.0436032
1586250000 0.0097329 0.0441270 0.9902671 -0.0441270 0.9902671 -0.0441270 0.0097329 0.0441270
1593500000 0.0096899 0.0446479 0.9903101 -0.0446479 0.9903101 -0.0446479 0.0096899 0.0446479
1600750000 0.0096565 0.0451658 0.9903435 -0.0451658 0.9903435 -0.0451658 0.0096565 0.0451658
1608000000 0.0096322 0.0456810 0.9903678 -0.0456810 0.9903678 -0.0456810 0.0096322 0.0456810
1615250000 0.0096164 0.0461934 0.9903836 -0.0461934 0.9903836 -0.0461934 0.0096164 0.0461934
1622500000 0.0096088 0.0467031 0.9903912 -0.0467031 0.9903912 -0.0467031 0.0096088 0.0467031
1629750000 0.0096091 0.0472103 0.9903909 -0.0472103 0.9903909 -0.0472103 0.0096091 0.0472103
