!Murata Part Number: GRM32E7U2J153JW32
!These Parameters are Measured in Series Mode Connection
!Data Generated on Mar 30, 2021
!       o--ll--o
!Port1            Port2
!       o------o
!Operation Temp=25[degC], DC Bias Voltage=0[V]
!Freq. Start=1000[kHz] Stop=3[GHz] 401[Steps]
# Hz S RI R 50
!Freq.(Hz) S11(Real) S11(Imag) S21(Real) S21(Imag) S12(Real) S12(Imag) S22(Real) S22(Imag)
1000000 0.0115622 -0.1066555 0.9884378 0.1066555 0.9884378 0.1066555 0.0115622 -0.1066555
1020218 0.0111142 -0.1045873 0.9888858 0.1045873 0.9888858 0.1045873 0.0111142 -0.1045873
1040844 0.0106834 -0.1025572 0.9893166 0.1025572 0.9893166 0.1025572 0.0106834 -0.1025572
1061887 0.0102692 -0.1005648 0.9897308 0.1005648 0.9897308 0.1005648 0.0102692 -0.1005648
1083356 0.0098709 -0.0986093 0.9901291 0.0986093 0.9901291 0.0986093 0.0098709 -0.0986093
1105259 0.0094879 -0.0966903 0.9905121 0.0966903 0.9905121 0.0966903 0.0094879 -0.0966903
1127605 0.0091197 -0.0948071 0.9908803 0.0948071 0.9908803 0.0948071 0.0091197 -0.0948071
1150402 0.0087656 -0.0929592 0.9912344 0.0929592 0.9912344 0.0929592 0.0087656 -0.0929592
1173660 0.0084252 -0.0911459 0.9915748 0.0911459 0.9915748 0.0911459 0.0084252 -0.0911459
1197389 0.0080980 -0.0893666 0.9919020 0.0893666 0.9919020 0.0893666 0.0080980 -0.0893666
1221597 0.0077834 -0.0876209 0.9922166 0.0876209 0.9922166 0.0876209 0.0077834 -0.0876209
1246295 0.0074809 -0.0859081 0.9925191 0.0859081 0.9925191 0.0859081 0.0074809 -0.0859081
1271492 0.0071902 -0.0842277 0.9928098 0.0842277 0.9928098 0.0842277 0.0071902 -0.0842277
1297199 0.0069107 -0.0825791 0.9930893 0.0825791 0.9930893 0.0825791 0.0069107 -0.0825791
1323425 0.0066420 -0.0809618 0.9933580 0.0809618 0.9933580 0.0809618 0.0066420 -0.0809618
1350181 0.0063837 -0.0793751 0.9936163 0.0793751 0.9936163 0.0793751 0.0063837 -0.0793751
1377479 0.0061355 -0.0778187 0.9938645 0.0778187 0.9938645 0.0778187 0.0061355 -0.0778187
1405328 0.0058968 -0.0762919 0.9941032 0.0762919 0.9941032 0.0762919 0.0058968 -0.0762919
1433740 0.0056674 -0.0747943 0.9943326 0.0747943 0.9943326 0.0747943 0.0056674 -0.0747943
1462727 0.0054470 -0.0733253 0.9945530 0.0733253 0.9945530 0.0733253 0.0054470 -0.0733253
1492300 0.0052351 -0.0718843 0.9947649 0.0718843 0.9947649 0.0718843 0.0052351 -0.0718843
1522470 0.0050314 -0.0704710 0.9949686 0.0704710 0.9949686 0.0704710 0.0050314 -0.0704710
1553251 0.0048356 -0.0690848 0.9951644 0.0690848 0.9951644 0.0690848 0.0048356 -0.0690848
1584654 0.0046475 -0.0677252 0.9953525 0.0677252 0.9953525 0.0677252 0.0046475 -0.0677252
1616692 0.0044666 -0.0663917 0.9955334 0.0663917 0.9955334 0.0663917 0.0044666 -0.0663917
1649378 0.0042928 -0.0650839 0.9957072 0.0650839 0.9957072 0.0650839 0.0042928 -0.0650839
1682724 0.0041258 -0.0638013 0.9958742 0.0638013 0.9958742 0.0638013 0.0041258 -0.0638013
1716745 0.0039653 -0.0625434 0.9960347 0.0625434 0.9960347 0.0625434 0.0039653 -0.0625434
1751453 0.0038110 -0.0613097 0.9961890 0.0613097 0.9961890 0.0613097 0.0038110 -0.0613097
1786863 0.0036627 -0.0600999 0.9963373 0.0600999 0.9963373 0.0600999 0.0036627 -0.0600999
1822989 0.0035203 -0.0589134 0.9964797 0.0589134 0.9964797 0.0589134 0.0035203 -0.0589134
1859846 0.0033833 -0.0577499 0.9966167 0.0577499 0.9966167 0.0577499 0.0033833 -0.0577499
1897447 0.0032517 -0.0566089 0.9967483 0.0566089 0.9967483 0.0566089 0.0032517 -0.0566089
1935809 0.0031253 -0.0554900 0.9968747 0.0554900 0.9968747 0.0554900 0.0031253 -0.0554900
1974946 0.0030038 -0.0543928 0.9969962 0.0543928 0.9969962 0.0543928 0.0030038 -0.0543928
2014875 0.0028870 -0.0533168 0.9971130 0.0533168 0.9971130 0.0533168 0.0028870 -0.0533168
2055611 0.0027748 -0.0522618 0.9972252 0.0522618 0.9972252 0.0522618 0.0027748 -0.0522618
2097170 0.0026670 -0.0512272 0.9973330 0.0512272 0.9973330 0.0512272 0.0026670 -0.0512272
2139570 0.0025634 -0.0502126 0.9974366 0.0502126 0.9974366 0.0502126 0.0025634 -0.0502126
2182827 0.0024638 -0.0492178 0.9975362 0.0492178 0.9975362 0.0492178 0.0024638 -0.0492178
2226959 0.0023681 -0.0482424 0.9976319 0.0482424 0.9976319 0.0482424 0.0023681 -0.0482424
2271982 0.0022762 -0.0472859 0.9977238 0.0472859 0.9977238 0.0472859 0.0022762 -0.0472859
2317916 0.0021879 -0.0463480 0.9978121 0.0463480 0.9978121 0.0463480 0.0021879 -0.0463480
2364779 0.0021030 -0.0454283 0.9978970 0.0454283 0.9978970 0.0454283 0.0021030 -0.0454283
2412589 0.0020215 -0.0445265 0.9979785 0.0445265 0.9979785 0.0445265 0.0020215 -0.0445265
2461366 0.0019431 -0.0436423 0.9980569 0.0436423 0.9980569 0.0436423 0.0019431 -0.0436423
2511129 0.0018678 -0.0427753 0.9981322 0.0427753 0.9981322 0.0427753 0.0018678 -0.0427753
2561897 0.0017955 -0.0419252 0.9982045 0.0419252 0.9982045 0.0419252 0.0017955 -0.0419252
2613693 0.0017260 -0.0410917 0.9982740 0.0410917 0.9982740 0.0410917 0.0017260 -0.0410917
2666535 0.0016592 -0.0402744 0.9983408 0.0402744 0.9983408 0.0402744 0.0016592 -0.0402744
2720446 0.0015951 -0.0394730 0.9984049 0.0394730 0.9984049 0.0394730 0.0015951 -0.0394730
2775447 0.0015334 -0.0386872 0.9984666 0.0386872 0.9984666 0.0386872 0.0015334 -0.0386872
2831560 0.0014742 -0.0379168 0.9985258 0.0379168 0.9985258 0.0379168 0.0014742 -0.0379168
2888807 0.0014173 -0.0371613 0.9985827 0.0371613 0.9985827 0.0371613 0.0014173 -0.0371613
2947212 0.0013626 -0.0364206 0.9986374 0.0364206 0.9986374 0.0364206 0.0013626 -0.0364206
3006797 0.0013101 -0.0356943 0.9986899 0.0356943 0.9986899 0.0356943 0.0013101 -0.0356943
3067588 0.0012597 -0.0349822 0.9987403 0.0349822 0.9987403 0.0349822 0.0012597 -0.0349822
3129607 0.0012112 -0.0342839 0.9987888 0.0342839 0.9987888 0.0342839 0.0012112 -0.0342839
3192880 0.0011647 -0.0335993 0.9988353 0.0335993 0.9988353 0.0335993 0.0011647 -0.0335993
3257432 0.0011199 -0.0329280 0.9988801 0.0329280 0.9988801 0.0329280 0.0011199 -0.0329280
3323290 0.0010770 -0.0322698 0.9989230 0.0322698 0.9989230 0.0322698 0.0010770 -0.0322698
3390478 0.0010357 -0.0316244 0.9989643 0.0316244 0.9989643 0.0316244 0.0010357 -0.0316244
3459026 0.0009961 -0.0309915 0.9990039 0.0309915 0.9990039 0.0309915 0.0009961 -0.0309915
3528959 0.0009580 -0.0303710 0.9990420 0.0303710 0.9990420 0.0303710 0.0009580 -0.0303710
3600306 0.0009214 -0.0297626 0.9990786 0.0297626 0.9990786 0.0297626 0.0009214 -0.0297626
3673095 0.0008863 -0.0291660 0.9991137 0.0291660 0.9991137 0.0291660 0.0008863 -0.0291660
3747356 0.0008525 -0.0285810 0.9991475 0.0285810 0.9991475 0.0285810 0.0008525 -0.0285810
3823119 0.0008201 -0.0280074 0.9991799 0.0280074 0.9991799 0.0280074 0.0008201 -0.0280074
3900413 0.0007890 -0.0274449 0.9992110 0.0274449 0.9992110 0.0274449 0.0007890 -0.0274449
3979270 0.0007591 -0.0268934 0.9992409 0.0268934 0.9992409 0.0268934 0.0007591 -0.0268934
4059721 0.0007304 -0.0263526 0.9992696 0.0263526 0.9992696 0.0263526 0.0007304 -0.0263526
4141799 0.0007028 -0.0258223 0.9992972 0.0258223 0.9992972 0.0258223 0.0007028 -0.0258223
4225536 0.0006763 -0.0253023 0.9993237 0.0253023 0.9993237 0.0253023 0.0006763 -0.0253023
4310966 0.0006509 -0.0247924 0.9993491 0.0247924 0.9993491 0.0247924 0.0006509 -0.0247924
4398124 0.0006265 -0.0242923 0.9993735 0.0242923 0.9993735 0.0242923 0.0006265 -0.0242923
4487043 0.0006031 -0.0238020 0.9993969 0.0238020 0.9993969 0.0238020 0.0006031 -0.0238020
4577760 0.0005806 -0.0233211 0.9994194 0.0233211 0.9994194 0.0233211 0.0005806 -0.0233211
4670311 0.0005590 -0.0228496 0.9994410 0.0228496 0.9994410 0.0228496 0.0005590 -0.0228496
4764734 0.0005382 -0.0223872 0.9994618 0.0223872 0.9994618 0.0223872 0.0005382 -0.0223872
4861065 0.0005183 -0.0219337 0.9994817 0.0219337 0.9994817 0.0219337 0.0005183 -0.0219337
4959344 0.0004992 -0.0214889 0.9995008 0.0214889 0.9995008 0.0214889 0.0004992 -0.0214889
5059610 0.0004809 -0.0210528 0.9995191 0.0210528 0.9995191 0.0210528 0.0004809 -0.0210528
5161903 0.0004633 -0.0206251 0.9995367 0.0206251 0.9995367 0.0206251 0.0004633 -0.0206251
5266264 0.0004464 -0.0202056 0.9995536 0.0202056 0.9995536 0.0202056 0.0004464 -0.0202056
5372736 0.0004302 -0.0197941 0.9995698 0.0197941 0.9995698 0.0197941 0.0004302 -0.0197941
5481359 0.0004146 -0.0193906 0.9995854 0.0193906 0.9995854 0.0193906 0.0004146 -0.0193906
5592179 0.0003997 -0.0189949 0.9996003 0.0189949 0.9996003 0.0189949 0.0003997 -0.0189949
5705239 0.0003854 -0.0186067 0.9996146 0.0186067 0.9996146 0.0186067 0.0003854 -0.0186067
5820586 0.0003716 -0.0182260 0.9996284 0.0182260 0.9996284 0.0182260 0.0003716 -0.0182260
5938264 0.0003585 -0.0178526 0.9996415 0.0178526 0.9996415 0.0178526 0.0003585 -0.0178526
6058321 0.0003458 -0.0174863 0.9996542 0.0174863 0.9996542 0.0174863 0.0003458 -0.0174863
6180806 0.0003337 -0.0171270 0.9996663 0.0171270 0.9996663 0.0171270 0.0003337 -0.0171270
6305767 0.0003221 -0.0167746 0.9996779 0.0167746 0.9996779 0.0167746 0.0003221 -0.0167746
6433254 0.0003109 -0.0164288 0.9996891 0.0164288 0.9996891 0.0164288 0.0003109 -0.0164288
6563319 0.0003003 -0.0160897 0.9996997 0.0160897 0.9996997 0.0160897 0.0003003 -0.0160897
6696013 0.0002900 -0.0157570 0.9997100 0.0157570 0.9997100 0.0157570 0.0002900 -0.0157570
6831390 0.0002802 -0.0154306 0.9997198 0.0154306 0.9997198 0.0154306 0.0002802 -0.0154306
6969505 0.0002708 -0.0151104 0.9997292 0.0151104 0.9997292 0.0151104 0.0002708 -0.0151104
7110411 0.0002618 -0.0147962 0.9997382 0.0147962 0.9997382 0.0147962 0.0002618 -0.0147962
7254166 0.0002532 -0.0144880 0.9997468 0.0144880 0.9997468 0.0144880 0.0002532 -0.0144880
7400828 0.0002449 -0.0141856 0.9997551 0.0141856 0.9997551 0.0141856 0.0002449 -0.0141856
7550455 0.0002370 -0.0138889 0.9997630 0.0138889 0.9997630 0.0138889 0.0002370 -0.0138889
7703107 0.0002294 -0.0135977 0.9997706 0.0135977 0.9997706 0.0135977 0.0002294 -0.0135977
7858845 0.0002222 -0.0133120 0.9997778 0.0133120 0.9997778 0.0133120 0.0002222 -0.0133120
8017732 0.0002152 -0.0130316 0.9997848 0.0130316 0.9997848 0.0130316 0.0002152 -0.0130316
8179831 0.0002086 -0.0127564 0.9997914 0.0127564 0.9997914 0.0127564 0.0002086 -0.0127564
8345207 0.0002022 -0.0124864 0.9997978 0.0124864 0.9997978 0.0124864 0.0002022 -0.0124864
8513927 0.0001962 -0.0122214 0.9998038 0.0122214 0.9998038 0.0122214 0.0001962 -0.0122214
8686058 0.0001904 -0.0119613 0.9998096 0.0119613 0.9998096 0.0119613 0.0001904 -0.0119613
8861669 0.0001848 -0.0117059 0.9998152 0.0117059 0.9998152 0.0117059 0.0001848 -0.0117059
9040831 0.0001795 -0.0114553 0.9998205 0.0114553 0.9998205 0.0114553 0.0001795 -0.0114553
9223615 0.0001744 -0.0112093 0.9998256 0.0112093 0.9998256 0.0112093 0.0001744 -0.0112093
9410094 0.0001696 -0.0109678 0.9998304 0.0109678 0.9998304 0.0109678 0.0001696 -0.0109678
9600343 0.0001649 -0.0107306 0.9998351 0.0107306 0.9998351 0.0107306 0.0001649 -0.0107306
9794439 0.0001605 -0.0104978 0.9998395 0.0104978 0.9998395 0.0104978 0.0001605 -0.0104978
9992459 0.0001563 -0.0102692 0.9998437 0.0102692 0.9998437 0.0102692 0.0001563 -0.0102692
10194482 0.0001523 -0.0100447 0.9998477 0.0100447 0.9998477 0.0100447 0.0001523 -0.0100447
10400590 0.0001484 -0.0098243 0.9998516 0.0098243 0.9998516 0.0098243 0.0001484 -0.0098243
10610865 0.0001447 -0.0096078 0.9998553 0.0096078 0.9998553 0.0096078 0.0001447 -0.0096078
10825391 0.0001412 -0.0093951 0.9998588 0.0093951 0.9998588 0.0093951 0.0001412 -0.0093951
11044254 0.0001379 -0.0091862 0.9998621 0.0091862 0.9998621 0.0091862 0.0001379 -0.0091862
11267542 0.0001347 -0.0089810 0.9998653 0.0089810 0.9998653 0.0089810 0.0001347 -0.0089810
11495344 0.0001317 -0.0087795 0.9998683 0.0087795 0.9998683 0.0087795 0.0001317 -0.0087795
11727752 0.0001288 -0.0085814 0.9998712 0.0085814 0.9998712 0.0085814 0.0001288 -0.0085814
11964859 0.0001261 -0.0083868 0.9998739 0.0083868 0.9998739 0.0083868 0.0001261 -0.0083868
12206760 0.0001235 -0.0081955 0.9998765 0.0081955 0.9998765 0.0081955 0.0001235 -0.0081955
12453551 0.0001210 -0.0080076 0.9998790 0.0080076 0.9998790 0.0080076 0.0001210 -0.0080076
12705331 0.0001186 -0.0078228 0.9998814 0.0078228 0.9998814 0.0078228 0.0001186 -0.0078228
12962202 0.0001164 -0.0076412 0.9998836 0.0076412 0.9998836 0.0076412 0.0001164 -0.0076412
13224267 0.0001143 -0.0074626 0.9998857 0.0074626 0.9998857 0.0074626 0.0001143 -0.0074626
13491630 0.0001123 -0.0072870 0.9998877 0.0072870 0.9998877 0.0072870 0.0001123 -0.0072870
13764398 0.0001104 -0.0071144 0.9998896 0.0071144 0.9998896 0.0071144 0.0001104 -0.0071144
14042680 0.0001085 -0.0069446 0.9998915 0.0069446 0.9998915 0.0069446 0.0001085 -0.0069446
14326589 0.0001068 -0.0067775 0.9998932 0.0067775 0.9998932 0.0067775 0.0001068 -0.0067775
14616238 0.0001052 -0.0066132 0.9998948 0.0066132 0.9998948 0.0066132 0.0001052 -0.0066132
14911743 0.0001037 -0.0064515 0.9998963 0.0064515 0.9998963 0.0064515 0.0001037 -0.0064515
15213223 0.0001022 -0.0062924 0.9998978 0.0062924 0.9998978 0.0062924 0.0001022 -0.0062924
15520797 0.0001009 -0.0061358 0.9998991 0.0061358 0.9998991 0.0061358 0.0001009 -0.0061358
15834590 0.0000996 -0.0059817 0.9999004 0.0059817 0.9999004 0.0059817 0.0000996 -0.0059817
16154727 0.0000984 -0.0058299 0.9999016 0.0058299 0.9999016 0.0058299 0.0000984 -0.0058299
16481337 0.0000973 -0.0056804 0.9999027 0.0056804 0.9999027 0.0056804 0.0000973 -0.0056804
16814550 0.0000962 -0.0055332 0.9999038 0.0055332 0.9999038 0.0055332 0.0000962 -0.0055332
17154499 0.0000953 -0.0053882 0.9999047 0.0053882 0.9999047 0.0053882 0.0000953 -0.0053882
17501322 0.0000944 -0.0052453 0.9999056 0.0052453 0.9999056 0.0052453 0.0000944 -0.0052453
17855156 0.0000935 -0.0051044 0.9999065 0.0051044 0.9999065 0.0051044 0.0000935 -0.0051044
18216144 0.0000928 -0.0049656 0.9999072 0.0049656 0.9999072 0.0049656 0.0000928 -0.0049656
18584431 0.0000921 -0.0048288 0.9999079 0.0048288 0.9999079 0.0048288 0.0000921 -0.0048288
18960163 0.0000915 -0.0046938 0.9999085 0.0046938 0.9999085 0.0046938 0.0000915 -0.0046938
19343491 0.0000909 -0.0045606 0.9999091 0.0045606 0.9999091 0.0045606 0.0000909 -0.0045606
19734570 0.0000904 -0.0044293 0.9999096 0.0044293 0.9999096 0.0044293 0.0000904 -0.0044293
20133555 0.0000900 -0.0042996 0.9999100 0.0042996 0.9999100 0.0042996 0.0000900 -0.0042996
20540607 0.0000896 -0.0041717 0.9999104 0.0041717 0.9999104 0.0041717 0.0000896 -0.0041717
20955888 0.0000893 -0.0040453 0.9999107 0.0040453 0.9999107 0.0040453 0.0000893 -0.0040453
21379566 0.0000891 -0.0039205 0.9999109 0.0039205 0.9999109 0.0039205 0.0000891 -0.0039205
21811809 0.0000889 -0.0037972 0.9999111 0.0037972 0.9999111 0.0037972 0.0000889 -0.0037972
22252791 0.0000888 -0.0036753 0.9999112 0.0036753 0.9999112 0.0036753 0.0000888 -0.0036753
22702688 0.0000887 -0.0035548 0.9999113 0.0035548 0.9999113 0.0035548 0.0000887 -0.0035548
23161682 0.0000888 -0.0034357 0.9999112 0.0034357 0.9999112 0.0034357 0.0000888 -0.0034357
23629955 0.0000889 -0.0033178 0.9999111 0.0033178 0.9999111 0.0033178 0.0000889 -0.0033178
24107696 0.0000891 -0.0032012 0.9999109 0.0032012 0.9999109 0.0032012 0.0000891 -0.0032012
24595095 0.0000893 -0.0030857 0.9999107 0.0030857 0.9999107 0.0030857 0.0000893 -0.0030857
25092348 0.0000896 -0.0029714 0.9999104 0.0029714 0.9999104 0.0029714 0.0000896 -0.0029714
25599655 0.0000900 -0.0028581 0.9999100 0.0028581 0.9999100 0.0028581 0.0000900 -0.0028581
26117218 0.0000905 -0.0027459 0.9999095 0.0027459 0.9999095 0.0027459 0.0000905 -0.0027459
26645245 0.0000911 -0.0026346 0.9999089 0.0026346 0.9999089 0.0026346 0.0000911 -0.0026346
27183947 0.0000918 -0.0025242 0.9999082 0.0025242 0.9999082 0.0025242 0.0000918 -0.0025242
27733541 0.0000925 -0.0024146 0.9999075 0.0024146 0.9999075 0.0024146 0.0000925 -0.0024146
28294246 0.0000933 -0.0023058 0.9999067 0.0023058 0.9999067 0.0023058 0.0000933 -0.0023058
28866287 0.0000943 -0.0021978 0.9999057 0.0021978 0.9999057 0.0021978 0.0000943 -0.0021978
29449894 0.0000953 -0.0020905 0.9999047 0.0020905 0.9999047 0.0020905 0.0000953 -0.0020905
30045299 0.0000964 -0.0019838 0.9999036 0.0019838 0.9999036 0.0019838 0.0000964 -0.0019838
30652742 0.0000977 -0.0018776 0.9999023 0.0018776 0.9999023 0.0018776 0.0000977 -0.0018776
31272467 0.0000990 -0.0017720 0.9999010 0.0017720 0.9999010 0.0017720 0.0000990 -0.0017720
31904720 0.0001005 -0.0016668 0.9998995 0.0016668 0.9998995 0.0016668 0.0001005 -0.0016668
32549757 0.0001021 -0.0015620 0.9998979 0.0015620 0.9998979 0.0015620 0.0001021 -0.0015620
33207834 0.0001039 -0.0014575 0.9998961 0.0014575 0.9998961 0.0014575 0.0001039 -0.0014575
33879216 0.0001057 -0.0013532 0.9998943 0.0013532 0.9998943 0.0013532 0.0001057 -0.0013532
34564172 0.0001078 -0.0012492 0.9998922 0.0012492 0.9998922 0.0012492 0.0001078 -0.0012492
35262976 0.0001099 -0.0011452 0.9998901 0.0011452 0.9998901 0.0011452 0.0001099 -0.0011452
35975908 0.0001123 -0.0010413 0.9998877 0.0010413 0.9998877 0.0010413 0.0001123 -0.0010413
36703254 0.0001148 -0.0009373 0.9998852 0.0009373 0.9998852 0.0009373 0.0001148 -0.0009373
37445305 0.0001175 -0.0008333 0.9998825 0.0008333 0.9998825 0.0008333 0.0001175 -0.0008333
38202358 0.0001204 -0.0007290 0.9998796 0.0007290 0.9998796 0.0007290 0.0001204 -0.0007290
38974717 0.0001235 -0.0006245 0.9998765 0.0006245 0.9998765 0.0006245 0.0001235 -0.0006245
39762692 0.0001268 -0.0005195 0.9998732 0.0005195 0.9998732 0.0005195 0.0001268 -0.0005195
40566597 0.0001304 -0.0004141 0.9998696 0.0004141 0.9998696 0.0004141 0.0001304 -0.0004141
41386756 0.0001342 -0.0003081 0.9998658 0.0003081 0.9998658 0.0003081 0.0001342 -0.0003081
42223496 0.0001383 -0.0002013 0.9998617 0.0002013 0.9998617 0.0002013 0.0001383 -0.0002013
43077153 0.0001427 -0.0000938 0.9998573 0.0000938 0.9998573 0.0000938 0.0001427 -0.0000938
43948069 0.0001474 0.0000148 0.9998526 -0.0000148 0.9998526 -0.0000148 0.0001474 0.0000148
44836592 0.0001525 0.0001245 0.9998475 -0.0001245 0.9998475 -0.0001245 0.0001525 0.0001245
45743080 0.0001579 0.0002354 0.9998421 -0.0002354 0.9998421 -0.0002354 0.0001579 0.0002354
46667894 0.0001638 0.0003479 0.9998362 -0.0003479 0.9998362 -0.0003479 0.0001638 0.0003479
47611406 0.0001701 0.0004619 0.9998299 -0.0004619 0.9998299 -0.0004619 0.0001701 0.0004619
48573993 0.0001770 0.0005779 0.9998230 -0.0005779 0.9998230 -0.0005779 0.0001770 0.0005779
49556042 0.0001844 0.0006961 0.9998156 -0.0006961 0.9998156 -0.0006961 0.0001844 0.0006961
50557945 0.0001925 0.0008166 0.9998075 -0.0008166 0.9998075 -0.0008166 0.0001925 0.0008166
51580105 0.0002013 0.0009399 0.9997987 -0.0009399 0.9997987 -0.0009399 0.0002013 0.0009399
52622929 0.0002109 0.0010663 0.9997891 -0.0010663 0.9997891 -0.0010663 0.0002109 0.0010663
53686838 0.0002215 0.0011963 0.9997785 -0.0011963 0.9997785 -0.0011963 0.0002215 0.0011963
54772256 0.0002332 0.0013303 0.9997668 -0.0013303 0.9997668 -0.0013303 0.0002332 0.0013303
55879618 0.0002461 0.0014689 0.9997539 -0.0014689 0.9997539 -0.0014689 0.0002461 0.0014689
57009369 0.0002606 0.0016129 0.9997394 -0.0016129 0.9997394 -0.0016129 0.0002606 0.0016129
58161960 0.0002769 0.0017629 0.9997231 -0.0017629 0.9997231 -0.0017629 0.0002769 0.0017629
59337855 0.0002953 0.0019202 0.9997047 -0.0019202 0.9997047 -0.0019202 0.0002953 0.0019202
60537522 0.0003164 0.0020858 0.9996836 -0.0020858 0.9996836 -0.0020858 0.0003164 0.0020858
61761445 0.0003407 0.0022612 0.9996593 -0.0022612 0.9996593 -0.0022612 0.0003407 0.0022612
63010112 0.0003692 0.0024484 0.9996308 -0.0024484 0.9996308 -0.0024484 0.0003692 0.0024484
64284024 0.0004030 0.0026497 0.9995970 -0.0026497 0.9995970 -0.0026497 0.0004030 0.0026497
65583691 0.0004437 0.0028682 0.9995563 -0.0028682 0.9995563 -0.0028682 0.0004437 0.0028682
66909635 0.0004937 0.0031079 0.9995063 -0.0031079 0.9995063 -0.0031079 0.0004937 0.0031079
68262386 0.0005563 0.0033742 0.9994437 -0.0033742 0.9994437 -0.0033742 0.0005563 0.0033742
69642486 0.0006369 0.0036743 0.9993631 -0.0036743 0.9993631 -0.0036743 0.0006369 0.0036743
71050488 0.0007437 0.0040182 0.9992563 -0.0040182 0.9992563 -0.0040182 0.0007437 0.0040182
72486957 0.0008904 0.0044203 0.9991096 -0.0044203 0.9991096 -0.0044203 0.0008904 0.0044203
73952468 0.0011009 0.0049008 0.9988991 -0.0049008 0.9988991 -0.0049008 0.0011009 0.0049008
