! This data is being provided by Wuerth Elektronik eiSos GmbH & Co. KG to the industry for analysis.
!
! Document information:
! Version:rev19a Date: 16/12/2019
!
! Component information:
! Match Code: WE-CNSW P/N: 744230181 Size: 0603
!------------------------------------------------------------------------------------------------------------------
! Disclaimer:  While Würth Elektronik eiSos has made every reasonable effort to ensure the accuracy
! of the information provided, Würth Elektronik eiSos does not guarantee the exemption of error on the
! data collection measurements, nor does Würth Elektronik eiSos guarantee that the information is current.
! Würth Elektronik eiSos reserves the right to make any adjustments at any time without notice.
! Würth Elektronik eiSos expressly disclaims all implied warranties regarding this measurement data collection.
!
! Note 1 – This data measurement is representative according to the product implementation into the fixture.
! Component behavior is sensitive to implementation into the fixture, which includes board
! materials, trace geometry information, connector pin out, layer connection, use of de-embedding
! techniques, etc.
!
! Note 2 - The fixture was designed specifically to match the 50 Ohm line impedance, as well as the connector impedance,
! in order to accomplish a reliable measurement without reflections in the trace. Any other implementation of the fixture will change the obtained
! measurement performance. The used fixture behavior was de-embedded to accomplish reliable measurement results.
!
!------------------------------------------------------------------------------------------------------------------
!
! The test setup consisted of the following:
!   - Agilent VNA E5071C or E5071B
!   - Calibrations are SOLT (short open load thru)
!   - De-embedding of the SMA's or line cards were included
!   - Equipment Settings -
!            - Sampling - 501 points
!            - IF BW – 70 kHz
!            - Averaging – Not used
!
!
!
!             Port 1----->|1|        |2| -----> Port 3
!                            |   DUT  |
!             Port 2----->|3|        |4| -----> Port 4
!
!
!*VNA Port --> |Port in Datasheet|
! |Port in Datasheet| --> VNA Port
!
!
! For further information regarding this testing, please contact
! Wuerth Elektronik eiSos
! Contact: EDA team in QDC
! Email: libraries@we-online.com or libraries@we-online.de
!
!
# Hz S dB R 50
300000	-3.429656e+001	7.706042e+001	-5.875496e-002	-1.096917e+000	-3.527814e+001	8.794531e+001	-3.564044e+001	-9.312460e+001
	-5.677883e-002	-8.579194e-001	-3.518547e+001	7.482252e+001	-3.587788e+001	-9.198212e+001	-3.594887e+001	9.245531e+001
	-3.636551e+001	8.695950e+001	-3.608401e+001	-9.238173e+001	-3.454662e+001	8.937345e+001	-5.288985e-002	-1.098784e+000
	-3.633294e+001	-9.608341e+001	-3.667284e+001	8.806707e+001	-4.349112e-002	-1.017381e+000	-3.457759e+001	7.432550e+001
307335	-3.311584e+001	8.294412e+001	-2.243178e-002	-1.006663e+000	-3.644150e+001	9.209496e+001	-3.596814e+001	-9.322021e+001
	-1.676534e-002	-9.749295e-001	-3.668426e+001	9.126357e+001	-3.601294e+001	-9.536553e+001	-3.642004e+001	8.837433e+001
	-3.603680e+001	8.465848e+001	-3.506938e+001	-9.110894e+001	-3.463624e+001	8.553589e+001	-4.348039e-002	-8.911344e-001
	-3.554296e+001	-9.242937e+001	-3.593262e+001	8.530092e+001	-4.244266e-002	-1.068365e+000	-3.572960e+001	1.021720e+002
314670	-3.479549e+001	8.037822e+001	-3.047568e-002	-8.459297e-001	-3.528352e+001	9.103936e+001	-3.538289e+001	-9.510814e+001
	-4.389320e-002	-1.167245e+000	-3.777819e+001	7.451103e+001	-3.527657e+001	-9.392357e+001	-3.549268e+001	8.468093e+001
	-3.498082e+001	8.660566e+001	-3.583873e+001	-9.444784e+001	-3.577873e+001	8.419282e+001	-6.101150e-002	-9.933453e-001
	-3.537514e+001	-9.246480e+001	-3.573621e+001	8.902378e+001	-5.722386e-002	-9.557630e-001	-3.549026e+001	6.669297e+001
322004	-3.473057e+001	7.872879e+001	-4.942528e-002	-1.004919e+000	-3.576888e+001	8.996671e+001	-3.503427e+001	-9.548126e+001
	-4.581142e-002	-9.019299e-001	-3.605464e+001	7.255766e+001	-3.570504e+001	-8.955461e+001	-3.521631e+001	8.314069e+001
	-3.523016e+001	8.592478e+001	-3.518879e+001	-9.186804e+001	-3.442327e+001	7.766182e+001	-7.416342e-002	-9.956854e-001
	-3.499422e+001	-9.216102e+001	-3.513304e+001	8.818500e+001	-4.173496e-002	-9.575451e-001	-3.558248e+001	7.759681e+001
329339	-3.464098e+001	7.472408e+001	-3.283428e-002	-8.843542e-001	-3.562630e+001	8.678964e+001	-3.470260e+001	-9.275350e+001
	-5.985756e-002	-1.068248e+000	-3.662765e+001	6.771452e+001	-3.499666e+001	-8.916975e+001	-3.501398e+001	8.150906e+001
	-3.495302e+001	8.614548e+001	-3.457386e+001	-9.385113e+001	-3.464653e+001	8.326103e+001	-3.531900e-002	-9.347463e-001
	-3.448970e+001	-9.573046e+001	-3.503212e+001	8.474983e+001	-3.801254e-002	-1.047176e+000	-3.435159e+001	8.323263e+001
336674	-3.541789e+001	7.885170e+001	-3.335709e-002	-9.701096e-001	-3.498464e+001	8.556398e+001	-3.503308e+001	-9.821533e+001
	-1.478666e-002	-9.634159e-001	-3.625695e+001	7.710751e+001	-3.488699e+001	-1.008966e+002	-3.431671e+001	8.640925e+001
	-3.482327e+001	8.801482e+001	-3.473432e+001	-9.309688e+001	-3.442099e+001	8.379844e+001	-8.871510e-002	-1.136637e+000
	-3.520543e+001	-9.977586e+001	-3.502920e+001	8.424872e+001	-3.938036e-002	-1.074271e+000	-3.409741e+001	6.860077e+001
344009	-3.539515e+001	7.696676e+001	-1.400981e-002	-1.002639e+000	-3.452826e+001	8.687341e+001	-3.485313e+001	-9.488951e+001
	-5.710876e-002	-9.038382e-001	-3.516334e+001	6.857313e+001	-3.500077e+001	-9.032345e+001	-3.487199e+001	8.157892e+001
	-3.454990e+001	8.241980e+001	-3.482611e+001	-9.075491e+001	-3.396668e+001	8.737994e+001	-4.891287e-002	-1.022548e+000
	-3.555228e+001	-9.682543e+001	-3.474889e+001	8.972833e+001	-4.509671e-002	-1.178305e+000	-3.536817e+001	8.357628e+001
351344	-3.470186e+001	8.628639e+001	-3.196152e-002	-1.063982e+000	-3.453912e+001	8.477915e+001	-3.417502e+001	-9.165541e+001
	-1.663612e-002	-1.090166e+000	-3.488663e+001	8.168426e+001	-3.421756e+001	-9.381218e+001	-3.463252e+001	8.408603e+001
	-3.441584e+001	8.683128e+001	-3.492015e+001	-9.359071e+001	-3.470400e+001	8.701845e+001	-5.848522e-002	-9.525849e-001
	-3.446352e+001	-9.136142e+001	-3.472567e+001	8.544785e+001	-2.781674e-002	-1.053668e+000	-3.433227e+001	7.704013e+001
358679	-3.333246e+001	8.175614e+001	-3.924743e-002	-1.204200e+000	-3.430956e+001	8.354840e+001	-3.408204e+001	-9.726405e+001
	-3.505567e-002	-1.090046e+000	-3.510277e+001	8.567494e+001	-3.445547e+001	-9.411063e+001	-3.450943e+001	8.702853e+001
	-3.437616e+001	8.678002e+001	-3.435691e+001	-9.357037e+001	-3.368640e+001	8.179553e+001	-3.360140e-002	-9.832810e-001
	-3.447995e+001	-9.636479e+001	-3.430378e+001	8.845480e+001	-3.310357e-002	-1.104237e+000	-3.528926e+001	8.637306e+001
366013	-3.348088e+001	7.990613e+001	-2.539468e-002	-1.195889e+000	-3.422493e+001	8.699824e+001	-3.447831e+001	-9.243272e+001
	-4.474671e-002	-1.162563e+000	-3.491174e+001	7.646401e+001	-3.435948e+001	-9.480437e+001	-3.417257e+001	8.589298e+001
	-3.398490e+001	8.470181e+001	-3.433814e+001	-9.831327e+001	-3.372920e+001	8.257724e+001	-5.193384e-002	-1.147160e+000
	-3.412183e+001	-9.347544e+001	-3.404474e+001	8.390338e+001	-5.845233e-002	-1.135505e+000	-3.491816e+001	8.250483e+001
373348	-3.410280e+001	8.420392e+001	-2.473413e-002	-1.059962e+000	-3.375957e+001	8.318847e+001	-3.445958e+001	-9.500681e+001
	-4.612478e-002	-1.157390e+000	-3.464266e+001	8.509771e+001	-3.365651e+001	-9.272796e+001	-3.377590e+001	8.487662e+001
	-3.417429e+001	8.104153e+001	-3.402416e+001	-9.429608e+001	-3.398559e+001	9.189755e+001	-2.287325e-002	-1.158087e+000
	-3.420947e+001	-9.943488e+001	-3.403779e+001	8.651090e+001	-3.721168e-002	-9.923108e-001	-3.387459e+001	8.508622e+001
380683	-3.394200e+001	8.425135e+001	-2.542756e-002	-1.184208e+000	-3.381652e+001	8.908828e+001	-3.384775e+001	-9.507313e+001
	-3.488935e-002	-1.237723e+000	-3.449682e+001	8.444503e+001	-3.378632e+001	-9.252050e+001	-3.366656e+001	8.665898e+001
	-3.362156e+001	8.641862e+001	-3.365701e+001	-9.354856e+001	-3.317560e+001	8.093773e+001	-3.684240e-002	-1.192603e+000
	-3.411836e+001	-9.462117e+001	-3.382310e+001	8.710233e+001	-3.644350e-002	-1.097948e+000	-3.546023e+001	8.438443e+001
388018	-3.411916e+001	7.816095e+001	-3.607090e-002	-1.172003e+000	-3.373755e+001	8.468097e+001	-3.377237e+001	-9.220940e+001
	-3.952272e-002	-1.153856e+000	-3.429595e+001	8.505100e+001	-3.303356e+001	-9.995261e+001	-3.424569e+001	8.601893e+001
	-3.368548e+001	8.752366e+001	-3.342057e+001	-9.550684e+001	-3.398514e+001	9.096256e+001	-3.785724e-002	-1.080522e+000
	-3.372299e+001	-9.541179e+001	-3.370827e+001	8.238257e+001	-1.374183e-002	-1.290263e+000	-3.434061e+001	8.110153e+001
395353	-3.236572e+001	8.455491e+001	-4.065034e-002	-1.169452e+000	-3.355973e+001	8.596162e+001	-3.317554e+001	-9.322312e+001
	-9.628884e-003	-1.228054e+000	-3.472228e+001	7.721707e+001	-3.372685e+001	-9.502183e+001	-3.379203e+001	8.514408e+001
	-3.369359e+001	8.649088e+001	-3.404216e+001	-9.414513e+001	-3.340562e+001	8.343215e+001	-6.230820e-002	-1.236194e+000
	-3.390577e+001	-9.601624e+001	-3.361967e+001	8.592031e+001	-2.838140e-002	-1.211923e+000	-3.368508e+001	8.029279e+001
402688	-3.407344e+001	8.211764e+001	-3.294509e-002	-1.210308e+000	-3.313687e+001	8.621020e+001	-3.322287e+001	-9.715261e+001
	-1.788687e-002	-1.249478e+000	-3.341355e+001	7.984891e+001	-3.335230e+001	-9.452186e+001	-3.342341e+001	8.832934e+001
	-3.343757e+001	8.560089e+001	-3.288606e+001	-9.455730e+001	-3.391864e+001	7.871420e+001	-4.786613e-002	-1.155751e+000
	-3.336595e+001	-9.415035e+001	-3.380574e+001	8.659870e+001	-6.979965e-002	-1.160372e+000	-3.391339e+001	8.146089e+001
410022	-3.258376e+001	7.941011e+001	-3.863693e-002	-1.196087e+000	-3.284794e+001	8.366245e+001	-3.354209e+001	-9.523014e+001
	-4.844213e-002	-1.288300e+000	-3.301694e+001	7.999932e+001	-3.348506e+001	-9.762659e+001	-3.305508e+001	8.318014e+001
	-3.327015e+001	8.645793e+001	-3.347719e+001	-9.433994e+001	-3.265884e+001	8.189519e+001	-3.885187e-002	-1.269559e+000
	-3.286658e+001	-9.316643e+001	-3.317490e+001	8.272654e+001	-5.073426e-002	-1.174623e+000	-3.298475e+001	8.366646e+001
418652	-3.292045e+001	8.420353e+001	-2.939060e-002	-1.131342e+000	-3.287034e+001	8.828900e+001	-3.291856e+001	-9.682918e+001
	-4.406807e-002	-1.445271e+000	-3.356122e+001	7.920711e+001	-3.280984e+001	-9.694930e+001	-3.317325e+001	8.528262e+001
	-3.282812e+001	8.267114e+001	-3.296748e+001	-9.393391e+001	-3.274291e+001	8.198119e+001	-6.012089e-002	-1.301874e+000
	-3.341831e+001	-9.652643e+001	-3.253969e+001	8.571386e+001	-4.342549e-002	-1.238505e+000	-3.390328e+001	7.543645e+001
428777	-3.379032e+001	7.603899e+001	-5.270514e-002	-1.333153e+000	-3.291943e+001	8.225302e+001	-3.260905e+001	-9.753701e+001
	-4.183523e-002	-1.175399e+000	-3.365854e+001	7.481700e+001	-3.284684e+001	-9.656560e+001	-3.314429e+001	8.533342e+001
	-3.303929e+001	8.450667e+001	-3.308321e+001	-9.468211e+001	-3.241553e+001	8.229867e+001	-2.559251e-002	-1.348639e+000
	-3.312006e+001	-9.315719e+001	-3.291571e+001	8.649316e+001	-5.869949e-002	-1.283364e+000	-3.243877e+001	8.544349e+001
438901	-3.360492e+001	7.530015e+001	-2.663119e-002	-1.369769e+000	-3.284354e+001	8.834459e+001	-3.221123e+001	-9.513812e+001
	-3.564756e-002	-1.182404e+000	-3.267367e+001	7.765973e+001	-3.243523e+001	-9.242139e+001	-3.209188e+001	8.582866e+001
	-3.248151e+001	8.799044e+001	-3.254106e+001	-9.279301e+001	-3.219615e+001	8.272235e+001	-5.209852e-002	-1.337725e+000
	-3.301623e+001	-9.288787e+001	-3.287900e+001	8.486712e+001	-4.104634e-002	-1.420457e+000	-3.364786e+001	8.241889e+001
449026	-3.285002e+001	7.375787e+001	-3.953958e-002	-1.330281e+000	-3.254754e+001	8.492610e+001	-3.233520e+001	-9.584841e+001
	-3.636792e-002	-1.258627e+000	-3.289022e+001	8.318907e+001	-3.253884e+001	-9.556779e+001	-3.246545e+001	8.384440e+001
	-3.222272e+001	8.352169e+001	-3.260695e+001	-9.600357e+001	-3.172662e+001	7.669423e+001	-3.502414e-002	-1.531880e+000
	-3.263570e+001	-9.523530e+001	-3.226808e+001	8.457660e+001	-5.698531e-002	-1.359954e+000	-3.189843e+001	7.923276e+001
459150	-3.188924e+001	8.247372e+001	-4.609654e-002	-1.381479e+000	-3.195457e+001	8.353186e+001	-3.243478e+001	-9.423618e+001
	-2.119185e-002	-1.366572e+000	-3.321350e+001	7.787488e+001	-3.254865e+001	-9.227835e+001	-3.188199e+001	8.578856e+001
	-3.200490e+001	8.588314e+001	-3.262663e+001	-9.312894e+001	-3.167857e+001	7.825482e+001	-3.832691e-002	-1.407990e+000
	-3.233570e+001	-9.297484e+001	-3.223496e+001	8.583477e+001	-5.776223e-002	-1.395917e+000	-3.259787e+001	8.357386e+001
469275	-3.226046e+001	7.502332e+001	-3.173873e-002	-1.361399e+000	-3.202926e+001	8.691288e+001	-3.194048e+001	-9.845643e+001
	-4.820286e-002	-1.390516e+000	-3.340403e+001	7.519807e+001	-3.187678e+001	-9.589111e+001	-3.225611e+001	8.669761e+001
	-3.191883e+001	8.614522e+001	-3.215968e+001	-9.310993e+001	-3.209809e+001	7.977003e+001	-6.078339e-002	-1.384709e+000
	-3.197329e+001	-9.886426e+001	-3.183373e+001	8.957292e+001	-2.911182e-002	-1.441103e+000	-3.259673e+001	8.000983e+001
479399	-3.169202e+001	7.571983e+001	-6.420425e-002	-1.421293e+000	-3.194929e+001	8.296555e+001	-3.203027e+001	-9.191363e+001
	-3.999690e-002	-1.333045e+000	-3.272305e+001	7.518389e+001	-3.156444e+001	-9.427908e+001	-3.219433e+001	8.563871e+001
	-3.193456e+001	8.592196e+001	-3.182758e+001	-9.527959e+001	-3.227597e+001	7.980309e+001	-3.471059e-002	-1.519817e+000
	-3.227704e+001	-9.532153e+001	-3.191683e+001	8.515929e+001	-2.897637e-002	-1.442604e+000	-3.289723e+001	8.111498e+001
489523	-3.221081e+001	8.003323e+001	-2.724498e-002	-1.566256e+000	-3.155006e+001	8.731462e+001	-3.166041e+001	-9.599637e+001
	-1.767408e-002	-1.714029e+000	-3.220630e+001	7.254316e+001	-3.176535e+001	-9.622404e+001	-3.183304e+001	8.746346e+001
	-3.129271e+001	8.600511e+001	-3.165745e+001	-9.417752e+001	-3.164433e+001	7.813181e+001	-4.124723e-002	-1.393208e+000
	-3.176489e+001	-9.606400e+001	-3.147397e+001	8.447807e+001	-3.397947e-002	-1.552700e+000	-3.195531e+001	7.822940e+001
499648	-3.145732e+001	7.789436e+001	-5.485078e-002	-1.364492e+000	-3.160004e+001	8.436086e+001	-3.186128e+001	-9.205757e+001
	-5.184447e-002	-1.592928e+000	-3.220487e+001	7.733673e+001	-3.168757e+001	-9.639637e+001	-3.130552e+001	8.253004e+001
	-3.159537e+001	8.527971e+001	-3.145225e+001	-9.657045e+001	-3.125292e+001	7.768312e+001	-5.931813e-002	-1.546649e+000
	-3.176489e+001	-9.684507e+001	-3.123896e+001	8.519609e+001	-4.306551e-002	-1.533131e+000	-3.249839e+001	7.943334e+001
509772	-3.178048e+001	7.961292e+001	-4.772011e-002	-1.385544e+000	-3.128774e+001	8.540328e+001	-3.135382e+001	-9.536324e+001
	-4.806911e-002	-1.491569e+000	-3.166062e+001	7.764793e+001	-3.132133e+001	-9.718973e+001	-3.151223e+001	8.489763e+001
	-3.122044e+001	8.503005e+001	-3.129235e+001	-9.565439e+001	-3.185939e+001	7.570562e+001	-4.156079e-002	-1.494495e+000
	-3.146273e+001	-9.463948e+001	-3.139122e+001	8.423839e+001	-5.231014e-002	-1.521459e+000	-3.190596e+001	8.238006e+001
519897	-3.086182e+001	7.446103e+001	-4.880998e-002	-1.433899e+000	-3.138979e+001	8.354181e+001	-3.089749e+001	-9.594307e+001
	-3.535415e-002	-1.471403e+000	-3.117870e+001	8.053528e+001	-3.107235e+001	-9.595004e+001	-3.125130e+001	8.394115e+001
	-3.095811e+001	8.509342e+001	-3.091665e+001	-9.414380e+001	-3.109089e+001	7.918817e+001	-5.587993e-002	-1.618629e+000
	-3.140828e+001	-9.352617e+001	-3.091939e+001	8.516594e+001	-4.421653e-002	-1.475638e+000	-3.151055e+001	7.920706e+001
530021	-3.108304e+001	7.358247e+001	-1.900758e-002	-1.636135e+000	-3.115593e+001	8.405458e+001	-3.098436e+001	-9.694673e+001
	-5.511795e-002	-1.500379e+000	-3.139395e+001	8.049273e+001	-3.131409e+001	-9.514971e+001	-3.102521e+001	8.699341e+001
	-3.106662e+001	8.284437e+001	-3.088289e+001	-9.547039e+001	-3.077694e+001	7.745753e+001	-5.459912e-002	-1.689565e+000
	-3.130997e+001	-9.426612e+001	-3.111102e+001	8.764214e+001	-4.535084e-002	-1.622595e+000	-3.113280e+001	7.783050e+001
540146	-3.151139e+001	7.487339e+001	-6.248017e-002	-1.700303e+000	-3.093632e+001	8.232787e+001	-3.090575e+001	-9.766910e+001
	-5.474526e-002	-1.513892e+000	-3.100118e+001	7.594481e+001	-3.108462e+001	-9.345379e+001	-3.063537e+001	8.258518e+001
	-3.082851e+001	8.441846e+001	-3.109638e+001	-9.518863e+001	-3.123529e+001	7.655267e+001	-4.494726e-002	-1.692321e+000
	-3.099190e+001	-9.604273e+001	-3.109905e+001	8.421179e+001	-5.639948e-002	-1.650911e+000	-3.129540e+001	7.703352e+001
550270	-3.025194e+001	7.708397e+001	-4.493228e-002	-1.618963e+000	-3.088994e+001	8.507226e+001	-3.049626e+001	-9.434778e+001
	-4.099700e-002	-1.836522e+000	-3.080196e+001	7.656850e+001	-3.042981e+001	-9.763573e+001	-3.093612e+001	8.330026e+001
	-3.043269e+001	8.327669e+001	-3.080870e+001	-9.462624e+001	-3.131856e+001	8.019726e+001	-5.229160e-002	-1.702109e+000
	-3.050086e+001	-9.625957e+001	-3.084006e+001	8.277006e+001	-4.615283e-002	-1.688477e+000	-3.076742e+001	7.448514e+001
560395	-3.053980e+001	7.272795e+001	-5.172792e-002	-1.818266e+000	-3.033892e+001	8.443638e+001	-3.043732e+001	-9.696057e+001
	-5.672583e-002	-1.823299e+000	-2.991474e+001	7.580133e+001	-3.061065e+001	-9.679711e+001	-3.059099e+001	8.606149e+001
	-3.065443e+001	8.335666e+001	-3.044638e+001	-9.340830e+001	-3.066477e+001	7.858917e+001	-4.381205e-002	-1.678469e+000
	-3.082081e+001	-9.630923e+001	-3.052377e+001	8.411019e+001	-7.642327e-002	-1.652391e+000	-3.053359e+001	8.073797e+001
572189	-3.161302e+001	7.915328e+001	-6.121688e-002	-1.737582e+000	-3.032366e+001	8.494906e+001	-3.046891e+001	-9.555968e+001
	-4.172185e-002	-1.655203e+000	-3.028091e+001	7.795804e+001	-3.073149e+001	-9.458257e+001	-3.023771e+001	8.432543e+001
	-3.021043e+001	8.541567e+001	-3.014922e+001	-9.488917e+001	-3.091266e+001	7.995257e+001	-6.524295e-002	-1.815215e+000
	-3.010870e+001	-9.492998e+001	-3.027076e+001	8.424577e+001	-6.757723e-002	-1.761140e+000	-3.009369e+001	7.847889e+001
586179	-3.077589e+001	7.585691e+001	-4.632721e-002	-1.781444e+000	-3.011764e+001	8.331102e+001	-3.018019e+001	-9.423213e+001
	-3.663017e-002	-1.744398e+000	-3.054150e+001	7.787147e+001	-3.026470e+001	-9.301677e+001	-3.001114e+001	8.274392e+001
	-3.009458e+001	8.439518e+001	-3.018374e+001	-9.479275e+001	-3.022830e+001	7.777991e+001	-5.915166e-002	-1.828212e+000
	-3.009885e+001	-9.564469e+001	-3.012567e+001	8.501588e+001	-4.687687e-002	-1.843090e+000	-3.046312e+001	7.933365e+001
600169	-3.063568e+001	7.845243e+001	-4.279221e-002	-1.790421e+000	-3.000234e+001	8.382571e+001	-3.020317e+001	-9.682646e+001
	-5.521235e-002	-1.855970e+000	-2.991199e+001	7.824541e+001	-3.010019e+001	-9.601742e+001	-2.996362e+001	8.493768e+001
	-2.982407e+001	8.396439e+001	-3.004334e+001	-9.726662e+001	-3.012937e+001	7.979899e+001	-5.706564e-002	-1.750898e+000
	-3.004884e+001	-9.601483e+001	-2.977063e+001	8.454112e+001	-6.302157e-002	-1.902398e+000	-2.999974e+001	8.024985e+001
614158	-2.988251e+001	7.758306e+001	-6.916420e-002	-1.827742e+000	-2.959746e+001	8.410746e+001	-2.957716e+001	-9.726284e+001
	-5.014199e-002	-1.878603e+000	-2.998430e+001	7.696645e+001	-2.978649e+001	-9.636526e+001	-2.949140e+001	8.400350e+001
	-2.999980e+001	8.357122e+001	-2.989999e+001	-9.721433e+001	-2.961142e+001	8.040569e+001	-4.636326e-002	-1.885000e+000
	-3.001389e+001	-9.480448e+001	-2.966990e+001	8.317432e+001	-5.963260e-002	-1.896855e+000	-2.969917e+001	8.200815e+001
628148	-2.985933e+001	7.536054e+001	-5.516127e-002	-2.063751e+000	-2.922698e+001	8.144319e+001	-2.954964e+001	-9.626742e+001
	-4.772202e-002	-1.812520e+000	-2.979217e+001	7.341433e+001	-2.996220e+001	-9.583192e+001	-2.943468e+001	8.200545e+001
	-2.931017e+001	8.223525e+001	-2.955628e+001	-9.560710e+001	-2.958013e+001	7.827214e+001	-3.956152e-002	-1.877006e+000
	-2.965360e+001	-9.545292e+001	-2.968331e+001	8.270795e+001	-5.181218e-002	-1.866215e+000	-3.015935e+001	8.469735e+001
642138	-2.996876e+001	7.774594e+001	-5.642344e-002	-1.961251e+000	-2.915330e+001	8.571636e+001	-2.940725e+001	-9.537083e+001
