! This data is being provided by Wuerth Elektronik eiSos GmbH & Co. KG to the industry for analysis.
!
! Document information:
! Version:rev19a Date: 16/12/2019
!
! Component information:
! Match Code: WE-CNSW P/N: 744230450 Size: 0603
!------------------------------------------------------------------------------------------------------------------
! Disclaimer:  While Würth Elektronik eiSos has made every reasonable effort to ensure the accuracy
! of the information provided, Würth Elektronik eiSos does not guarantee the exemption of error on the
! data collection measurements, nor does Würth Elektronik eiSos guarantee that the information is current.
! Würth Elektronik eiSos reserves the right to make any adjustments at any time without notice.
! Würth Elektronik eiSos expressly disclaims all implied warranties regarding this measurement data collection.
!
! Note 1 – This data measurement is representative according to the product implementation into the fixture.
! Component behavior is sensitive to implementation into the fixture, which includes board
! materials, trace geometry information, connector pin out, layer connection, use of de-embedding
! techniques, etc.
!
! Note 2 - The fixture was designed specifically to match the 50 Ohm line impedance, as well as the connector impedance,
! in order to accomplish a reliable measurement without reflections in the trace. Any other implementation of the fixture will change the obtained
! measurement performance. The used fixture behavior was de-embedded to accomplish reliable measurement results.
!
!------------------------------------------------------------------------------------------------------------------
!
! The test setup consisted of the following:
!   - Agilent VNA E5071C or E5071B
!   - Calibrations are SOLT (short open load thru)
!   - De-embedding of the SMA's or line cards were included
!   - Equipment Settings -
!            - Sampling - 501 points
!            - IF BW – 70 kHz
!            - Averaging – Not used
!
!
!
!             Port 1----->|1|        |2| -----> Port 3
!                            |   DUT  |
!             Port 2----->|3|        |4| -----> Port 4
!
!
!*VNA Port --> |Port in Datasheet|
! |Port in Datasheet| --> VNA Port
!
!
! For further information regarding this testing, please contact
! Wuerth Elektronik eiSos
! Contact: EDA team in QDC
! Email: libraries@we-online.com or libraries@we-online.de
!
!
# Hz S dB R 50
300000	-3.890660e+001	3.720922e+001	-6.565328e-002	-4.152998e-001	-4.875690e+001	9.881230e+001	-4.654201e+001	-8.286158e+001
	-7.113073e-002	-2.257525e-001	-4.082396e+001	3.171204e+001	-4.500995e+001	-9.521995e+001	-4.804746e+001	9.389604e+001
	-4.739324e+001	8.565836e+001	-4.593974e+001	-1.022687e+002	-4.190684e+001	1.020538e+002	-8.129941e-003	-2.283954e-001
	-4.785142e+001	-7.989213e+001	-5.149811e+001	7.430076e+001	-1.440059e-002	-3.676884e-001	-4.281331e+001	7.490235e+001
307335	-3.976231e+001	5.544218e+001	-4.183089e-002	-1.234972e-001	-5.086139e+001	9.454044e+001	-4.645809e+001	-9.183562e+001
	-4.458662e-002	-1.547200e-001	-5.071594e+001	5.319352e+001	-5.026228e+001	-9.558910e+001	-4.680376e+001	8.654376e+001
	-4.891523e+001	9.111144e+001	-5.071306e+001	-9.376008e+001	-4.489845e+001	1.081896e+002	-3.680593e-004	-1.896540e-001
	-4.644845e+001	-9.376874e+001	-4.723280e+001	9.163196e+001	-1.422176e-002	-2.223886e-001	-4.299350e+001	1.484766e+002
314670	-4.204704e+001	3.536304e+001	-3.796053e-002	4.569289e-002	-4.687303e+001	8.820126e+001	-4.778247e+001	-9.100641e+001
	-4.662868e-002	-4.121508e-001	-4.521851e+001	-2.300774e+000	-4.923396e+001	-9.045133e+001	-4.806489e+001	9.393676e+001
	-4.676217e+001	9.782410e+001	-4.610125e+001	-9.219607e+001	-4.653013e+001	1.046663e+002	-2.521585e-002	-2.215106e-001
	-4.903916e+001	-1.025210e+002	-4.980624e+001	9.832657e+001	3.666907e-003	-1.991411e-001	-4.513781e+001	4.683699e+001
322004	-4.101153e+001	3.325965e+001	-6.379541e-002	-2.187025e-001	-4.712150e+001	7.739310e+001	-4.904292e+001	-1.027202e+002
	-6.364808e-002	-1.168355e-001	-4.106942e+001	1.455565e+001	-4.947722e+001	-1.044534e+002	-5.062806e+001	8.441716e+001
	-5.099009e+001	7.934270e+001	-4.875215e+001	-9.829573e+001	-4.577089e+001	7.935998e+001	-3.239686e-002	-1.225887e-001
	-4.711820e+001	-7.811308e+001	-4.764546e+001	1.023622e+002	-9.144289e-003	-1.732330e-001	-4.859328e+001	6.437566e+001
329339	-4.102880e+001	2.063398e+001	-5.500022e-002	-2.686191e-003	-4.643315e+001	9.913609e+001	-4.654054e+001	-7.595960e+001
	-7.731922e-002	-2.323466e-001	-4.177733e+001	-6.511266e+000	-4.920098e+001	-8.423002e+001	-4.725496e+001	9.019696e+001
	-4.951652e+001	8.209944e+001	-4.864179e+001	-1.067013e+002	-4.752543e+001	9.819569e+001	-2.009976e-002	-1.486105e-001
	-4.719758e+001	-8.861757e+001	-4.552082e+001	9.271894e+001	1.054319e-003	-1.615288e-001	-4.582565e+001	1.037038e+002
336674	-4.177998e+001	2.039176e+001	-5.559018e-002	-1.065533e-001	-4.555792e+001	8.357178e+001	-4.670630e+001	-8.907839e+001
	-5.308337e-002	-2.563503e-001	-4.347878e+001	8.616964e+000	-4.977481e+001	-1.028830e+002	-4.470710e+001	8.668743e+001
	-4.653597e+001	9.031292e+001	-4.592211e+001	-1.033053e+002	-4.624968e+001	9.545078e+001	-5.465871e-002	-1.935983e-001
	-4.921935e+001	-1.030725e+002	-4.609529e+001	8.058967e+001	-5.843825e-003	-2.330365e-001	-4.630081e+001	4.793154e+001
344009	-4.244268e+001	8.600920e+000	-4.858452e-002	-1.543418e-001	-4.582283e+001	8.913242e+001	-4.615954e+001	-1.058552e+002
	-7.259056e-002	-1.898596e-001	-4.038038e+001	1.504697e+001	-4.772239e+001	-8.535311e+001	-4.740176e+001	8.988530e+001
	-4.574892e+001	8.703210e+001	-5.059816e+001	-9.535335e+001	-4.435910e+001	1.093715e+002	-9.894831e-003	-1.840548e-001
	-4.729358e+001	-9.345580e+001	-4.773278e+001	9.558916e+001	-6.133110e-003	-2.506797e-001	-5.105747e+001	9.165774e+001
351344	-4.615703e+001	3.796466e+001	-6.438647e-002	-2.464566e-001	-4.627398e+001	8.428243e+001	-4.557936e+001	-9.786442e+001
	-3.719373e-002	-3.267896e-001	-4.298794e+001	3.297586e+001	-4.752765e+001	-9.082020e+001	-4.746921e+001	1.053644e+002
	-4.632508e+001	8.295772e+001	-4.844815e+001	-9.459667e+001	-4.624046e+001	1.094654e+002	-2.674156e-002	-2.746996e-001
	-4.857776e+001	-8.447500e+001	-4.946076e+001	8.551828e+001	-3.326600e-003	-1.955943e-001	-4.556931e+001	7.286692e+001
358679	-4.074501e+001	4.507727e+001	-4.245002e-002	-2.128311e-001	-4.924148e+001	1.036190e+002	-4.591663e+001	-8.255814e+001
	-5.412018e-002	-3.415511e-001	-4.380027e+001	4.936632e+001	-4.828766e+001	-9.763158e+001	-4.634257e+001	8.660202e+001
	-4.703771e+001	1.028057e+002	-4.811615e+001	-9.891056e+001	-4.486070e+001	9.772310e+001	-1.697904e-002	-1.144446e-001
	-4.638216e+001	-8.513653e+001	-4.690406e+001	9.485788e+001	1.325611e-002	-1.971147e-001	-5.150975e+001	1.443492e+002
366013	-4.107625e+001	4.378109e+001	-4.747205e-002	-3.446827e-001	-4.767706e+001	8.329073e+001	-4.629886e+001	-9.136226e+001
	-6.667355e-002	-3.792513e-001	-4.140081e+001	2.820491e+001	-4.705891e+001	-9.855565e+001	-4.547596e+001	8.336711e+001
	-4.716774e+001	9.929662e+001	-4.658764e+001	-9.109668e+001	-4.447543e+001	9.039721e+001	-1.556658e-002	-2.275342e-001
	-4.642185e+001	-9.214739e+001	-4.591005e+001	9.848601e+001	-6.825458e-003	-2.644395e-001	-4.958180e+001	1.138971e+002
373348	-4.459735e+001	3.224726e+001	-6.255120e-002	-6.792405e-002	-4.629600e+001	8.513547e+001	-4.708355e+001	-8.249314e+001
	-4.919506e-002	-2.983403e-001	-4.542003e+001	3.710622e+001	-4.566001e+001	-7.627051e+001	-4.758048e+001	9.310977e+001
	-4.647540e+001	9.594530e+001	-4.817137e+001	-6.631559e+001	-4.303979e+001	1.261198e+002	7.893893e-003	-1.474189e-001
	-4.738146e+001	-9.585008e+001	-4.805336e+001	8.962436e+001	4.883654e-003	-8.425182e-002	-4.405497e+001	1.185982e+002
380683	-4.501996e+001	3.115757e+001	-3.328247e-002	-2.065132e-001	-4.520751e+001	1.022530e+002	-4.628138e+001	-9.028243e+001
	-4.094470e-002	-2.941085e-001	-4.381272e+001	3.593906e+001	-4.694725e+001	-9.642027e+001	-4.752339e+001	1.145623e+002
	-4.703031e+001	7.880544e+001	-4.648914e+001	-7.394138e+001	-4.352959e+001	8.705936e+001	-1.487012e-002	-2.470462e-001
	-4.665088e+001	-9.149589e+001	-4.772738e+001	9.524154e+001	-1.020208e-003	-1.290631e-001	-5.719487e+001	1.408794e+002
388018	-4.213504e+001	1.844179e+001	-5.102319e-002	-2.796864e-001	-4.956143e+001	9.034383e+001	-4.775949e+001	-7.779755e+001
	-5.824510e-002	-2.284406e-001	-4.483207e+001	3.069200e+001	-4.715468e+001	-1.026573e+002	-4.817392e+001	7.855786e+001
	-4.589431e+001	8.945959e+001	-4.727563e+001	-9.745248e+001	-4.417166e+001	1.207128e+002	-2.972151e-003	-1.821988e-001
	-4.694111e+001	-8.364841e+001	-4.745649e+001	8.129318e+001	1.776829e-002	-3.601367e-001	-5.256411e+001	1.006848e+002
395353	-4.162682e+001	5.821045e+001	-5.545408e-002	-2.486725e-001	-4.821477e+001	8.963783e+001	-4.630168e+001	-8.070066e+001
	-3.802698e-002	-3.387053e-001	-4.252435e+001	1.806479e+001	-4.782417e+001	-8.834416e+001	-4.633718e+001	9.638932e+001
	-4.549613e+001	9.634896e+001	-4.669736e+001	-9.200892e+001	-4.645804e+001	1.037326e+002	-3.542780e-002	-2.889282e-001
	-4.470469e+001	-8.967202e+001	-4.598118e+001	9.064929e+001	5.898898e-003	-2.219049e-001	-4.837383e+001	8.750447e+001
402688	-4.357956e+001	3.043195e+001	-3.741971e-002	-3.774760e-001	-4.439423e+001	8.699843e+001	-4.786408e+001	-8.307610e+001
	-4.431783e-002	-2.224117e-001	-4.060023e+001	3.148509e+001	-4.819230e+001	-7.885882e+001	-4.568203e+001	7.934305e+001
	-4.580897e+001	9.895751e+001	-4.595536e+001	-8.933941e+001	-4.677748e+001	8.256069e+001	-2.261227e-003	-1.667712e-001
	-4.729271e+001	-9.869262e+001	-4.532819e+001	7.526818e+001	-1.638634e-002	-2.217697e-001	-4.648944e+001	1.010306e+002
410022	-4.163768e+001	4.061402e+001	-5.627338e-002	-1.153250e-001	-4.570299e+001	7.825465e+001	-4.378439e+001	-9.648147e+001
	-6.352498e-002	-3.538021e-001	-4.335032e+001	4.118430e+001	-4.546097e+001	-1.000358e+002	-4.623471e+001	8.527886e+001
	-4.575675e+001	7.725220e+001	-4.590795e+001	-9.924172e+001	-4.420748e+001	9.515783e+001	1.358548e-002	-2.355323e-001
	-4.558244e+001	-9.881828e+001	-4.551880e+001	9.469297e+001	-1.610690e-002	-2.062562e-001	-4.601674e+001	9.621060e+001
418652	-4.291334e+001	3.770579e+001	-5.398785e-002	-1.433405e-001	-4.674045e+001	7.139573e+001	-4.726902e+001	-8.954226e+001
	-5.182592e-002	-4.193495e-001	-4.381427e+001	2.856768e+001	-4.563307e+001	-9.050232e+001	-4.623983e+001	8.549226e+001
	-4.717477e+001	8.690768e+001	-4.499514e+001	-9.191974e+001	-4.565050e+001	9.273474e+001	-2.488664e-002	-2.938583e-001
	-4.630794e+001	-9.636415e+001	-4.661218e+001	7.608340e+001	-1.230080e-002	-1.950240e-001	-5.280129e+001	7.605935e+001
428777	-4.172854e+001	1.671110e+001	-7.322405e-002	-2.461456e-001	-4.516568e+001	9.355366e+001	-4.674476e+001	-1.009401e+002
	-5.264104e-002	-1.320760e-001	-4.146761e+001	1.995112e+001	-4.588253e+001	-1.057680e+002	-4.595006e+001	8.935514e+001
	-4.627132e+001	8.582952e+001	-4.544602e+001	-8.457759e+001	-4.429510e+001	8.946374e+001	2.055673e-002	-3.831517e-001
	-4.687190e+001	-9.297869e+001	-4.454391e+001	8.456319e+001	-1.263221e-002	-1.906501e-001	-4.432452e+001	1.053755e+002
438901	-4.190498e+001	2.185024e+001	-3.676839e-002	-2.293780e-001	-4.536130e+001	8.269220e+001	-4.501017e+001	-9.241537e+001
	-4.052426e-002	-2.125338e-001	-4.243426e+001	3.587048e+001	-4.652737e+001	-9.256471e+001	-4.408991e+001	9.687621e+001
	-4.501820e+001	7.925614e+001	-4.675255e+001	-1.020494e+002	-4.411151e+001	8.867176e+001	-1.941946e-002	-3.095232e-001
	-4.543095e+001	-8.645239e+001	-4.556440e+001	8.393705e+001	-1.044579e-002	-3.694610e-001	-5.133066e+001	1.121863e+002
449026	-4.098989e+001	2.852707e+001	-4.805720e-002	-2.480975e-001	-4.745032e+001	9.190323e+001	-4.515355e+001	-9.347001e+001
	-4.595576e-002	-1.427885e-001	-4.375688e+001	4.427290e+001	-4.422229e+001	-8.874145e+001	-4.523241e+001	7.474516e+001
	-4.576972e+001	9.225224e+001	-4.521438e+001	-9.817627e+001	-4.264039e+001	7.704806e+001	-4.532468e-003	-4.488792e-001
	-4.616890e+001	-8.991016e+001	-4.494741e+001	9.520420e+001	-2.637441e-003	-2.811154e-001	-4.337644e+001	8.874092e+001
459150	-4.229462e+001	5.049138e+001	-5.703805e-002	-2.922896e-001	-4.410036e+001	8.346019e+001	-4.689805e+001	-8.856550e+001
	-4.358586e-002	-3.643026e-001	-4.364021e+001	1.568316e+001	-4.551572e+001	-8.478426e+001	-4.558468e+001	9.049799e+001
	-4.572894e+001	9.648058e+001	-4.463007e+001	-9.623343e+001	-4.367159e+001	8.145598e+001	-6.330885e-003	-2.639168e-001
	-4.514262e+001	-8.268892e+001	-4.525469e+001	8.315615e+001	-2.359572e-002	-3.155479e-001	-4.894636e+001	9.584284e+001
469275	-4.152663e+001	2.073911e+001	-5.740548e-002	-1.498467e-001	-4.559244e+001	1.025680e+002	-4.330486e+001	-9.423208e+001
	-6.463251e-002	-3.154149e-001	-4.214102e+001	8.390305e+000	-4.380619e+001	-9.439935e+001	-4.674964e+001	1.008181e+002
	-4.352511e+001	9.051967e+001	-4.371779e+001	-9.180972e+001	-4.617409e+001	8.331240e+001	-1.045832e-002	-3.364810e-001
	-4.446894e+001	-9.754038e+001	-4.322440e+001	8.954885e+001	1.638279e-002	-3.554037e-001	-4.679633e+001	8.880632e+001
479399	-4.020079e+001	3.562952e+001	-5.098898e-002	-2.093798e-001	-4.467449e+001	7.956949e+001	-4.471066e+001	-9.158873e+001
	-5.625277e-002	-2.214584e-001	-4.255250e+001	1.830011e+001	-4.447022e+001	-8.114423e+001	-4.357195e+001	8.735898e+001
	-4.511106e+001	8.982968e+001	-4.416525e+001	-9.916980e+001	-4.592166e+001	8.895747e+001	1.118145e-002	-3.344592e-001
	-4.554915e+001	-8.756756e+001	-4.582736e+001	8.187945e+001	2.612732e-003	-1.990421e-001	-5.017465e+001	1.200699e+002
489523	-4.303056e+001	3.055234e+001	-3.732451e-002	-3.976231e-001	-4.423931e+001	8.861249e+001	-4.588797e+001	-8.710684e+001
	-4.242145e-002	-4.783406e-001	-3.980692e+001	1.826642e+001	-4.504866e+001	-1.022575e+002	-4.243485e+001	9.145162e+001
	-4.342575e+001	8.345750e+001	-4.658591e+001	-8.612408e+001	-4.595160e+001	7.815862e+001	-1.938810e-002	-2.322880e-001
	-4.454546e+001	-8.673957e+001	-4.428226e+001	9.326150e+001	1.073068e-002	-2.940081e-001	-4.927772e+001	8.699692e+001
499648	-4.052377e+001	3.665952e+001	-7.228506e-002	-1.917233e-001	-4.469940e+001	7.748792e+001	-4.394632e+001	-8.609186e+001
	-4.445001e-002	-3.335867e-001	-4.245623e+001	2.883537e+001	-4.436222e+001	-8.840330e+001	-4.421515e+001	8.422714e+001
	-4.381288e+001	8.842695e+001	-4.600102e+001	-8.627104e+001	-4.411151e+001	8.587989e+001	-2.894444e-002	-3.686357e-001
	-4.583149e+001	-9.185981e+001	-4.434487e+001	9.202213e+001	-4.116262e-003	-2.913111e-001	-5.104274e+001	1.018082e+002
509772	-4.415598e+001	3.686245e+001	-5.897133e-002	-1.533913e-001	-4.313300e+001	9.217897e+001	-4.403812e+001	-8.818765e+001
	-6.606784e-002	-3.261888e-001	-4.101492e+001	3.360389e+001	-4.399605e+001	-8.975549e+001	-4.458646e+001	8.627678e+001
	-4.441966e+001	8.652706e+001	-4.344072e+001	-9.340371e+001	-4.678760e+001	7.333426e+001	3.351822e-003	-2.838627e-001
	-4.316448e+001	-8.762276e+001	-4.366160e+001	7.972596e+001	-1.368863e-002	-3.925928e-001	-4.777327e+001	1.112327e+002
519897	-3.958689e+001	3.904672e+001	-5.720034e-002	-1.997826e-001	-4.373405e+001	8.151011e+001	-4.489440e+001	-8.299298e+001
	-5.713993e-002	-2.523107e-001	-4.183595e+001	4.520707e+001	-4.417908e+001	-8.604020e+001	-4.373955e+001	8.603410e+001
	-4.420521e+001	9.389991e+001	-4.556947e+001	-8.822582e+001	-4.386956e+001	8.814266e+001	-2.115007e-002	-4.042164e-001
	-4.305300e+001	-9.692392e+001	-4.502284e+001	9.385227e+001	-5.286462e-003	-2.946488e-001	-4.780480e+001	8.222894e+001
530021	-4.011484e+001	3.056272e+001	-2.786974e-002	-3.788223e-001	-4.222552e+001	8.736218e+001	-4.372541e+001	-9.960397e+001
	-7.345124e-002	-2.541378e-001	-4.239129e+001	3.739664e+001	-4.503019e+001	-8.845547e+001	-4.446820e+001	6.964382e+001
	-4.374805e+001	9.723168e+001	-4.362978e+001	-8.532416e+001	-4.308000e+001	8.081881e+001	1.394341e-003	-4.131694e-001
	-4.410607e+001	-9.360321e+001	-4.428893e+001	9.637529e+001	-3.522303e-003	-3.558441e-001	-4.532505e+001	7.287519e+001
540146	-4.068329e+001	1.626717e+001	-7.104524e-002	-3.975037e-001	-4.342359e+001	7.774296e+001	-4.354340e+001	-8.818330e+001
	-6.705101e-002	-3.132816e-001	-3.983650e+001	2.899224e+001	-4.494144e+001	-9.445915e+001	-4.485449e+001	1.004877e+002
	-4.425040e+001	8.601780e+001	-4.291644e+001	-9.786449e+001	-4.473358e+001	6.262925e+001	-5.803573e-003	-4.209419e-001
	-4.426588e+001	-9.209528e+001	-4.458062e+001	8.319598e+001	-9.418792e-003	-4.032472e-001	-4.769613e+001	6.780160e+001
550270	-3.988242e+001	4.612775e+001	-5.402241e-002	-2.812565e-001	-4.597624e+001	8.939661e+001	-4.472211e+001	-9.119615e+001
	-5.878830e-002	-4.611613e-001	-4.093970e+001	3.854210e+001	-4.232485e+001	-9.272757e+001	-4.147719e+001	8.260550e+001
	-4.323483e+001	8.787233e+001	-4.319882e+001	-9.497960e+001	-4.732644e+001	8.964492e+001	-1.780123e-002	-4.075388e-001
	-4.458248e+001	-9.705183e+001	-4.318208e+001	8.171877e+001	3.751201e-003	-3.286021e-001	-4.345916e+001	6.747078e+001
560395	-3.908507e+001	3.076106e+001	-6.241980e-002	-4.497045e-001	-4.228359e+001	9.429261e+001	-4.200774e+001	-8.156807e+001
	-5.734296e-002	-4.786468e-001	-3.805070e+001	4.310979e+001	-4.376335e+001	-9.774028e+001	-4.275954e+001	8.112327e+001
	-4.346523e+001	8.915157e+001	-4.332217e+001	-8.710807e+001	-4.604186e+001	7.194682e+001	-4.990404e-003	-3.559079e-001
	-4.531051e+001	-9.194157e+001	-4.330682e+001	8.241479e+001	-2.907768e-002	-3.114332e-001	-4.522521e+001	8.587313e+001
572189	-4.319039e+001	2.780015e+001	-6.898973e-002	-4.093051e-001	-4.277720e+001	8.471709e+001	-4.322686e+001	-9.276229e+001
	-5.388450e-002	-2.356335e-001	-4.015852e+001	4.632707e+001	-4.357329e+001	-8.023400e+001	-4.267038e+001	7.172504e+001
	-4.284427e+001	8.930498e+001	-4.385346e+001	-8.335729e+001	-4.673363e+001	8.279539e+001	-1.627161e-002	-4.071758e-001
	-4.471587e+001	-9.101161e+001	-4.342089e+001	8.377160e+001	-1.323774e-002	-4.287183e-001	-4.234436e+001	8.169914e+001
586179	-4.025098e+001	2.891283e+001	-4.857658e-002	-4.367034e-001	-4.326400e+001	9.421158e+001	-4.228530e+001	-9.444861e+001
	-5.059199e-002	-3.874632e-001	-4.074254e+001	3.440224e+001	-4.236200e+001	-9.774046e+001	-4.378396e+001	8.578785e+001
	-4.338586e+001	8.509202e+001	-4.248247e+001	-9.575179e+001	-4.459365e+001	7.994610e+001	-2.127000e-002	-4.566324e-001
	-4.314553e+001	-9.274799e+001	-4.442313e+001	8.921873e+001	-8.966203e-003	-3.547777e-001	-4.529627e+001	8.623077e+001
600169	-4.114473e+001	3.096363e+001	-3.912333e-002	-4.055283e-001	-4.306633e+001	8.828094e+001	-4.290156e+001	-8.728360e+001
	-5.468713e-002	-3.940309e-001	-4.022619e+001	4.479806e+001	-4.273862e+001	-1.047046e+002	-4.382560e+001	8.262923e+001
	-4.228977e+001	8.105372e+001	-4.240639e+001	-9.239368e+001	-4.438963e+001	8.228427e+001	-5.409640e-004	-4.346798e-001
	-4.364385e+001	-8.995860e+001	-4.183093e+001	8.473391e+001	-1.096387e-002	-3.890228e-001	-4.445654e+001	9.481276e+001
614158	-4.049180e+001	4.355778e+001	-6.177931e-002	-3.736420e-001	-4.128796e+001	8.797170e+001	-4.302728e+001	-8.913389e+001
	-4.680656e-002	-4.907362e-001	-3.979236e+001	3.970471e+001	-4.267631e+001	-8.966264e+001	-4.307719e+001	8.758077e+001
	-4.168390e+001	8.906717e+001	-4.278717e+001	-8.859517e+001	-4.290551e+001	8.874509e+001	-4.743121e-003	-4.849124e-001
	-4.351481e+001	-8.724584e+001	-4.267583e+001	9.189509e+001	-1.947860e-002	-4.761014e-001	-4.355062e+001	9.915654e+001
628148	-3.973501e+001	3.230547e+001	-6.368356e-002	-5.066838e-001	-4.225944e+001	9.079937e+001	-4.316413e+001	-8.692410e+001
	-4.564964e-002	-3.352803e-001	-3.940384e+001	2.576786e+001	-4.194069e+001	-9.467459e+001	-4.193306e+001	8.706157e+001
	-4.141093e+001	8.754740e+001	-4.285955e+001	-9.497037e+001	-4.373033e+001	9.253803e+001	1.446650e-002	-2.975166e-001
	-4.173655e+001	-9.395815e+001	-4.233716e+001	8.704223e+001	1.210370e-002	-3.698010e-001	-4.580513e+001	1.217336e+002
642138	-4.150864e+001	3.234004e+001	-5.548556e-002	-3.739993e-001	-4.138413e+001	8.568922e+001	-4.127280e+001	-9.007051e+001
