!Murata Part Number: GRM219R71C474KA01
!These Parameters are Measured in Series Mode Connection
!Data Generated on Mar 30, 2021
!       o--ll--o
!Port1            Port2
!       o------o
!Operation Temp=25[degC], DC Bias Voltage=0[V]
!Freq. Start=100[Hz] Stop=6[GHz] 401[Steps]
# Hz S RI R 50
!Freq.(Hz) S11(Real) S11(Imag) S21(Real) S21(Imag) S12(Real) S12(Imag) S22(Real) S22(Imag)
100 0.9990715 -0.0282134 0.0009285 0.0282134 0.0009285 0.0282134 0.9990715 -0.0282134
105 0.9989915 -0.0294990 0.0010085 0.0294990 0.0010085 0.0294990 0.9989915 -0.0294990
109 0.9989044 -0.0308430 0.0010956 0.0308430 0.0010956 0.0308430 0.9989044 -0.0308430
114 0.9988093 -0.0322480 0.0011907 0.0322480 0.0011907 0.0322480 0.9988093 -0.0322480
120 0.9987057 -0.0337167 0.0012943 0.0337167 0.0012943 0.0337167 0.9987057 -0.0337167
125 0.9985926 -0.0352520 0.0014074 0.0352520 0.0014074 0.0352520 0.9985926 -0.0352520
131 0.9984693 -0.0368568 0.0015307 0.0368568 0.0015307 0.0368568 0.9984693 -0.0368568
137 0.9983347 -0.0385342 0.0016653 0.0385342 0.0016653 0.0385342 0.9983347 -0.0385342
143 0.9981880 -0.0402874 0.0018120 0.0402874 0.0018120 0.0402874 0.9981880 -0.0402874
150 0.9980279 -0.0421198 0.0019721 0.0421198 0.0019721 0.0421198 0.9980279 -0.0421198
156 0.9978533 -0.0440349 0.0021467 0.0440349 0.0021467 0.0440349 0.9978533 -0.0440349
164 0.9976629 -0.0460362 0.0023371 0.0460362 0.0023371 0.0460362 0.9976629 -0.0460362
171 0.9974552 -0.0481275 0.0025448 0.0481275 0.0025448 0.0481275 0.9974552 -0.0481275
179 0.9972286 -0.0503128 0.0027714 0.0503128 0.0027714 0.0503128 0.9972286 -0.0503128
187 0.9969814 -0.0525961 0.0030186 0.0525961 0.0030186 0.0525961 0.9969814 -0.0525961
196 0.9967119 -0.0549818 0.0032881 0.0549818 0.0032881 0.0549818 0.9967119 -0.0549818
205 0.9964179 -0.0574741 0.0035821 0.0574741 0.0035821 0.0574741 0.9964179 -0.0574741
214 0.9960973 -0.0600776 0.0039027 0.0600776 0.0039027 0.0600776 0.9960973 -0.0600776
224 0.9957476 -0.0627972 0.0042524 0.0627972 0.0042524 0.0627972 0.9957476 -0.0627972
234 0.9953663 -0.0656377 0.0046337 0.0656377 0.0046337 0.0656377 0.9953663 -0.0656377
245 0.9949504 -0.0686042 0.0050496 0.0686042 0.0050496 0.0686042 0.9949504 -0.0686042
256 0.9944969 -0.0717019 0.0055031 0.0717019 0.0055031 0.0717019 0.9944969 -0.0717019
268 0.9940023 -0.0749364 0.0059977 0.0749364 0.0059977 0.0749364 0.9940023 -0.0749364
280 0.9934629 -0.0783132 0.0065371 0.0783132 0.0065371 0.0783132 0.9934629 -0.0783132
293 0.9928748 -0.0818382 0.0071252 0.0818382 0.0071252 0.0818382 0.9928748 -0.0818382
306 0.9922335 -0.0855172 0.0077665 0.0855172 0.0077665 0.0855172 0.9922335 -0.0855172
320 0.9915342 -0.0893564 0.0084658 0.0893564 0.0084658 0.0893564 0.9915342 -0.0893564
335 0.9907717 -0.0933620 0.0092283 0.0933620 0.0092283 0.0933620 0.9907717 -0.0933620
350 0.9899403 -0.0975404 0.0100597 0.0975404 0.0100597 0.0975404 0.9899403 -0.0975404
366 0.9890339 -0.1018981 0.0109661 0.1018981 0.0109661 0.1018981 0.9890339 -0.1018981
383 0.9880458 -0.1064418 0.0119542 0.1064418 0.0119542 0.1064418 0.9880458 -0.1064418
401 0.9869687 -0.1111781 0.0130313 0.1111781 0.0130313 0.1111781 0.9869687 -0.1111781
419 0.9857947 -0.1161138 0.0142053 0.1161138 0.0142053 0.1161138 0.9857947 -0.1161138
438 0.9845152 -0.1212556 0.0154848 0.1212556 0.0154848 0.1212556 0.9845152 -0.1212556
458 0.9831211 -0.1266104 0.0168789 0.1266104 0.0168789 0.1266104 0.9831211 -0.1266104
479 0.9816023 -0.1321847 0.0183977 0.1321847 0.0183977 0.1321847 0.9816023 -0.1321847
501 0.9799480 -0.1379852 0.0200520 0.1379852 0.0200520 0.1379852 0.9799480 -0.1379852
524 0.9781465 -0.1440183 0.0218535 0.1440183 0.0218535 0.1440183 0.9781465 -0.1440183
548 0.9761853 -0.1502901 0.0238147 0.1502901 0.0238147 0.1502901 0.9761853 -0.1502901
573 0.9740509 -0.1568067 0.0259491 0.1568067 0.0259491 0.1568067 0.9740509 -0.1568067
600 0.9717288 -0.1635734 0.0282712 0.1635734 0.0282712 0.1635734 0.9717288 -0.1635734
627 0.9692034 -0.1705954 0.0307966 0.1705954 0.0307966 0.1705954 0.9692034 -0.1705954
656 0.9664582 -0.1778769 0.0335418 0.1778769 0.0335418 0.1778769 0.9664582 -0.1778769
686 0.9634754 -0.1854218 0.0365246 0.1854218 0.0365246 0.1854218 0.9634754 -0.1854218
717 0.9602361 -0.1932330 0.0397639 0.1932330 0.0397639 0.1932330 0.9602361 -0.1932330
750 0.9567202 -0.2013122 0.0432798 0.2013122 0.0432798 0.2013122 0.9567202 -0.2013122
784 0.9529066 -0.2096604 0.0470934 0.2096604 0.0470934 0.2096604 0.9529066 -0.2096604
820 0.9487728 -0.2182769 0.0512272 0.2182769 0.0512272 0.2182769 0.9487728 -0.2182769
858 0.9442953 -0.2271596 0.0557047 0.2271596 0.0557047 0.2271596 0.9442953 -0.2271596
897 0.9394493 -0.2363049 0.0605507 0.2363049 0.0605507 0.2363049 0.9394493 -0.2363049
938 0.9342092 -0.2457070 0.0657908 0.2457070 0.0657908 0.2457070 0.9342092 -0.2457070
981 0.9285483 -0.2553580 0.0714517 0.2553580 0.0714517 0.2553580 0.9285483 -0.2553580
1026 0.9224388 -0.2652479 0.0775612 0.2652479 0.0775612 0.2652479 0.9224388 -0.2652479
1073 0.9158527 -0.2753637 0.0841473 0.2753637 0.0841473 0.2753637 0.9158527 -0.2753637
1122 0.9087612 -0.2856899 0.0912388 0.2856899 0.0912388 0.2856899 0.9087612 -0.2856899
1174 0.9011351 -0.2962075 0.0988649 0.2962075 0.0988649 0.2962075 0.9011351 -0.2962075
1227 0.8929454 -0.3068945 0.1070546 0.3068945 0.1070546 0.3068945 0.8929454 -0.3068945
1283 0.8841634 -0.3177253 0.1158366 0.3177253 0.1158366 0.3177253 0.8841634 -0.3177253
1342 0.8747611 -0.3286703 0.1252389 0.3286703 0.1252389 0.3286703 0.8747611 -0.3286703
1404 0.8647115 -0.3396964 0.1352885 0.3396964 0.1352885 0.3396964 0.8647115 -0.3396964
1468 0.8539894 -0.3507661 0.1460106 0.3507661 0.1460106 0.3507661 0.8539894 -0.3507661
1535 0.8425716 -0.3618379 0.1574284 0.3618379 0.1574284 0.3618379 0.8425716 -0.3618379
1606 0.8304378 -0.3728664 0.1695622 0.3728664 0.1695622 0.3728664 0.8304378 -0.3728664
1679 0.8175707 -0.3838019 0.1824293 0.3838019 0.1824293 0.3838019 0.8175707 -0.3838019
1756 0.8039573 -0.3945912 0.1960427 0.3945912 0.1960427 0.3945912 0.8039573 -0.3945912
1836 0.7895891 -0.4051773 0.2104109 0.4051773 0.2104109 0.4051773 0.7895891 -0.4051773
1920 0.7744628 -0.4154999 0.2255372 0.4154999 0.2255372 0.4154999 0.7744628 -0.4154999
2008 0.7585811 -0.4254964 0.2414189 0.4254964 0.2414189 0.4254964 0.7585811 -0.4254964
2100 0.7419532 -0.4351019 0.2580468 0.4351019 0.2580468 0.4351019 0.7419532 -0.4351019
2196 0.7245952 -0.4442502 0.2754048 0.4442502 0.2754048 0.4442502 0.7245952 -0.4442502
2297 0.7065307 -0.4528748 0.2934693 0.4528748 0.2934693 0.4528748 0.7065307 -0.4528748
2402 0.6877912 -0.4609096 0.3122088 0.4609096 0.3122088 0.4609096 0.6877912 -0.4609096
2512 0.6684158 -0.4682903 0.3315842 0.4682903 0.3315842 0.4682903 0.6684158 -0.4682903
2627 0.6484517 -0.4749550 0.3515483 0.4749550 0.3515483 0.4749550 0.6484517 -0.4749550
2748 0.6279538 -0.4808460 0.3720462 0.4808460 0.3720462 0.4808460 0.6279538 -0.4808460
2873 0.6069843 -0.4859104 0.3930157 0.4859104 0.3930157 0.4859104 0.6069843 -0.4859104
3005 0.5856120 -0.4901014 0.4143880 0.4901014 0.4143880 0.4901014 0.5856120 -0.4901014
3143 0.5639118 -0.4933793 0.4360882 0.4933793 0.4360882 0.4933793 0.5639118 -0.4933793
3287 0.5419634 -0.4957127 0.4580366 0.4957127 0.4580366 0.4957127 0.5419634 -0.4957127
3437 0.5198506 -0.4970785 0.4801494 0.4970785 0.4801494 0.4970785 0.5198506 -0.4970785
3594 0.4976595 -0.4974634 0.5023405 0.4974634 0.5023405 0.4974634 0.4976595 -0.4974634
3759 0.4754777 -0.4968633 0.5245223 0.4968633 0.5245223 0.4968633 0.4754777 -0.4968633
3931 0.4533925 -0.4952841 0.5466075 0.4952841 0.5466075 0.4952841 0.4533925 -0.4952841
4111 0.4314899 -0.4927412 0.5685101 0.4927412 0.5685101 0.4927412 0.4314899 -0.4927412
4299 0.4098529 -0.4892592 0.5901471 0.4892592 0.5901471 0.4892592 0.4098529 -0.4892592
4496 0.3885605 -0.4848715 0.6114395 0.4848715 0.6114395 0.4848715 0.3885605 -0.4848715
4702 0.3676865 -0.4796193 0.6323135 0.4796193 0.6323135 0.4796193 0.3676865 -0.4796193
4918 0.3472986 -0.4735507 0.6527014 0.4735507 0.6527014 0.4735507 0.3472986 -0.4735507
5143 0.3274577 -0.4667199 0.6725423 0.4667199 0.6725423 0.4667199 0.3274577 -0.4667199
5378 0.3082172 -0.4591858 0.6917828 0.4591858 0.6917828 0.4591858 0.3082172 -0.4591858
5625 0.2896227 -0.4510109 0.7103773 0.4510109 0.7103773 0.4510109 0.2896227 -0.4510109
5882 0.2717118 -0.4422604 0.7282882 0.4422604 0.7282882 0.4422604 0.2717118 -0.4422604
6151 0.2545142 -0.4330006 0.7454858 0.4330006 0.7454858 0.4330006 0.2545142 -0.4330006
6433 0.2380520 -0.4232984 0.7619480 0.4232984 0.7619480 0.4232984 0.2380520 -0.4232984
6728 0.2223396 -0.4132200 0.7776604 0.4132200 0.7776604 0.4132200 0.2223396 -0.4132200
7036 0.2073847 -0.4028299 0.7926153 0.4028299 0.7926153 0.4028299 0.2073847 -0.4028299
7358 0.1931885 -0.3921906 0.8068115 0.3921906 0.8068115 0.3921906 0.1931885 -0.3921906
7695 0.1797464 -0.3813618 0.8202536 0.3813618 0.8202536 0.3813618 0.1797464 -0.3813618
8047 0.1670486 -0.3703998 0.8329514 0.3703998 0.8329514 0.3703998 0.1670486 -0.3703998
8416 0.1550809 -0.3593572 0.8449191 0.3593572 0.8449191 0.3593572 0.1550809 -0.3593572
8801 0.1438252 -0.3482826 0.8561748 0.3482826 0.8561748 0.3482826 0.1438252 -0.3482826
9204 0.1332602 -0.3372208 0.8667398 0.3372208 0.8667398 0.3372208 0.1332602 -0.3372208
9626 0.1233620 -0.3262121 0.8766380 0.3262121 0.8766380 0.3262121 0.1233620 -0.3262121
10066 0.1141049 -0.3152931 0.8858951 0.3152931 0.8858951 0.3152931 0.1141049 -0.3152931
10527 0.1054616 -0.3044961 0.8945384 0.3044961 0.8945384 0.3044961 0.1054616 -0.3044961
11009 0.0974036 -0.2938495 0.9025964 0.2938495 0.9025964 0.2938495 0.0974036 -0.2938495
11514 0.0899022 -0.2833780 0.9100978 0.2833780 0.9100978 0.2833780 0.0899022 -0.2833780
12041 0.0829281 -0.2731030 0.9170719 0.2731030 0.9170719 0.2731030 0.0829281 -0.2731030
12592 0.0764523 -0.2630423 0.9235477 0.2630423 0.9235477 0.2630423 0.0764523 -0.2630423
13169 0.0704461 -0.2532109 0.9295539 0.2532109 0.9295539 0.2532109 0.0704461 -0.2532109
13772 0.0648815 -0.2436209 0.9351185 0.2436209 0.9351185 0.2436209 0.0648815 -0.2436209
14402 0.0597310 -0.2342819 0.9402690 0.2342819 0.9402690 0.2342819 0.0597310 -0.2342819
15062 0.0549682 -0.2252010 0.9450318 0.2252010 0.9450318 0.2252010 0.0549682 -0.2252010
15752 0.0505677 -0.2163835 0.9494323 0.2163835 0.9494323 0.2163835 0.0505677 -0.2163835
16473 0.0465049 -0.2078327 0.9534951 0.2078327 0.9534951 0.2078327 0.0465049 -0.2078327
17227 0.0427568 -0.1995502 0.9572432 0.1995502 0.9572432 0.1995502 0.0427568 -0.1995502
18016 0.0393011 -0.1915363 0.9606989 0.1915363 0.9606989 0.1915363 0.0393011 -0.1915363
18841 0.0361171 -0.1837898 0.9638829 0.1837898 0.9638829 0.1837898 0.0361171 -0.1837898
19704 0.0331848 -0.1763088 0.9668152 0.1763088 0.9668152 0.1763088 0.0331848 -0.1763088
20606 0.0304858 -0.1690899 0.9695142 0.1690899 0.9695142 0.1690899 0.0304858 -0.1690899
21550 0.0280026 -0.1621295 0.9719974 0.1621295 0.9719974 0.1621295 0.0280026 -0.1621295
22537 0.0257189 -0.1554228 0.9742811 0.1554228 0.9742811 0.1554228 0.0257189 -0.1554228
23569 0.0236193 -0.1489648 0.9763807 0.1489648 0.9763807 0.1489648 0.0236193 -0.1489648
24648 0.0216898 -0.1427499 0.9783102 0.1427499 0.9783102 0.1427499 0.0216898 -0.1427499
25777 0.0199169 -0.1367722 0.9800831 0.1367722 0.9800831 0.1367722 0.0199169 -0.1367722
26957 0.0182884 -0.1310253 0.9817116 0.1310253 0.9817116 0.1310253 0.0182884 -0.1310253
28191 0.0167929 -0.1255028 0.9832071 0.1255028 0.9832071 0.1255028 0.0167929 -0.1255028
29482 0.0154196 -0.1201981 0.9845804 0.1201981 0.9845804 0.1201981 0.0154196 -0.1201981
30832 0.0141589 -0.1151046 0.9858411 0.1151046 0.9858411 0.1151046 0.0141589 -0.1151046
32244 0.0130016 -0.1102154 0.9869984 0.1102154 0.9869984 0.1102154 0.0130016 -0.1102154
33721 0.0119394 -0.1055238 0.9880606 0.1055238 0.9880606 0.1055238 0.0119394 -0.1055238
35265 0.0109645 -0.1010231 0.9890355 0.1010231 0.9890355 0.1010231 0.0109645 -0.1010231
36880 0.0100697 -0.0967065 0.9899303 0.0967065 0.9899303 0.0967065 0.0100697 -0.0967065
38569 0.0092486 -0.0925676 0.9907514 0.0925676 0.9907514 0.0925676 0.0092486 -0.0925676
40335 0.0084951 -0.0885999 0.9915049 0.0885999 0.9915049 0.0885999 0.0084951 -0.0885999
42182 0.0078036 -0.0847968 0.9921964 0.0847968 0.9921964 0.0847968 0.0078036 -0.0847968
44113 0.0071691 -0.0811524 0.9928309 0.0811524 0.9928309 0.0811524 0.0071691 -0.0811524
46134 0.0065868 -0.0776604 0.9934132 0.0776604 0.9934132 0.0776604 0.0065868 -0.0776604
48246 0.0060524 -0.0743150 0.9939476 0.0743150 0.9939476 0.0743150 0.0060524 -0.0743150
50455 0.0055620 -0.0711105 0.9944380 0.0711105 0.9944380 0.0711105 0.0055620 -0.0711105
52766 0.0051120 -0.0680412 0.9948880 0.0680412 0.9948880 0.0680412 0.0051120 -0.0680412
55182 0.0046991 -0.0651018 0.9953009 0.0651018 0.9953009 0.0651018 0.0046991 -0.0651018
57709 0.0043201 -0.0622871 0.9956799 0.0622871 0.9956799 0.0622871 0.0043201 -0.0622871
60352 0.0039724 -0.0595920 0.9960276 0.0595920 0.9960276 0.0595920 0.0039724 -0.0595920
63115 0.0036533 -0.0570117 0.9963467 0.0570117 0.9963467 0.0570117 0.0036533 -0.0570117
66005 0.0033605 -0.0545414 0.9966395 0.0545414 0.9966395 0.0545414 0.0033605 -0.0545414
69028 0.0030919 -0.0521766 0.9969081 0.0521766 0.9969081 0.0521766 0.0030919 -0.0521766
72189 0.0028454 -0.0499131 0.9971546 0.0499131 0.9971546 0.0499131 0.0028454 -0.0499131
75495 0.0026193 -0.0477465 0.9973807 0.0477465 0.9973807 0.0477465 0.0026193 -0.0477465
78952 0.0024118 -0.0456729 0.9975882 0.0456729 0.9975882 0.0456729 0.0024118 -0.0456729
82567 0.0022215 -0.0436884 0.9977785 0.0436884 0.9977785 0.0436884 0.0022215 -0.0436884
86348 0.0020469 -0.0417893 0.9979531 0.0417893 0.9979531 0.0417893 0.0020469 -0.0417893
90302 0.0018868 -0.0399720 0.9981132 0.0399720 0.9981132 0.0399720 0.0018868 -0.0399720
94437 0.0017400 -0.0382330 0.9982600 0.0382330 0.9982600 0.0382330 0.0017400 -0.0382330
98762 0.0016053 -0.0365690 0.9983947 0.0365690 0.9983947 0.0365690 0.0016053 -0.0365690
103284 0.0014818 -0.0349770 0.9985182 0.0349770 0.9985182 0.0349770 0.0014818 -0.0349770
108014 0.0013685 -0.0334537 0.9986315 0.0334537 0.9986315 0.0334537 0.0013685 -0.0334537
112960 0.0012647 -0.0319965 0.9987353 0.0319965 0.9987353 0.0319965 0.0012647 -0.0319965
118133 0.0011695 -0.0306023 0.9988305 0.0306023 0.9988305 0.0306023 0.0011695 -0.0306023
123542 0.0010822 -0.0292686 0.9989178 0.0292686 0.9989178 0.0292686 0.0010822 -0.0292686
129199 0.0010021 -0.0279927 0.9989979 0.0279927 0.9989979 0.0279927 0.0010021 -0.0279927
135116 0.0009287 -0.0267722 0.9990713 0.0267722 0.9990713 0.0267722 0.0009287 -0.0267722
141303 0.0008614 -0.0256048 0.9991386 0.0256048 0.9991386 0.0256048 0.0008614 -0.0256048
147774 0.0007996 -0.0244881 0.9992004 0.0244881 0.9992004 0.0244881 0.0007996 -0.0244881
154540 0.0007430 -0.0234199 0.9992570 0.0234199 0.9992570 0.0234199 0.0007430 -0.0234199
161617 0.0006910 -0.0223983 0.9993090 0.0223983 0.9993090 0.0223983 0.0006910 -0.0223983
169018 0.0006433 -0.0214211 0.9993567 0.0214211 0.9993567 0.0214211 0.0006433 -0.0214211
176758 0.0005995 -0.0204865 0.9994005 0.0204865 0.9994005 0.0204865 0.0005995 -0.0204865
184852 0.0005594 -0.0195926 0.9994406 0.0195926 0.9994406 0.0195926 0.0005594 -0.0195926
193316 0.0005224 -0.0187377 0.9994776 0.0187377 0.9994776 0.0187377 0.0005224 -0.0187377
202169 0.0004885 -0.0179201 0.9995115 0.0179201 0.9995115 0.0179201 0.0004885 -0.0179201
211427 0.0004573 -0.0171381 0.9995427 0.0171381 0.9995427 0.0171381 0.0004573 -0.0171381
221108 0.0004286 -0.0163902 0.9995714 0.0163902 0.9995714 0.0163902 0.0004286 -0.0163902
231233 0.0004022 -0.0156749 0.9995978 0.0156749 0.9995978 0.0156749 0.0004022 -0.0156749
241822 0.0003779 -0.0149908 0.9996221 0.0149908 0.9996221 0.0149908 0.0003779 -0.0149908
252896 0.0003555 -0.0143366 0.9996445 0.0143366 0.9996445 0.0143366 0.0003555 -0.0143366
264476 0.0003348 -0.0137109 0.9996652 0.0137109 0.9996652 0.0137109 0.0003348 -0.0137109
276587 0.0003157 -0.0131125 0.9996843 0.0131125 0.9996843 0.0131125 0.0003157 -0.0131125
289253 0.0002980 -0.0125402 0.9997020 0.0125402 0.9997020 0.0125402 0.0002980 -0.0125402
302498 0.0002817 -0.0119928 0.9997183 0.0119928 0.9997183 0.0119928 0.0002817 -0.0119928
316350 0.0002665 -0.0114693 0.9997335 0.0114693 0.9997335 0.0114693 0.0002665 -0.0114693
330837 0.0002525 -0.0109686 0.9997475 0.0109686 0.9997475 0.0109686 0.0002525 -0.0109686
345986 0.0002395 -0.0104897 0.9997605 0.0104897 0.9997605 0.0104897 0.0002395 -0.0104897
361830 0.0002274 -0.0100317 0.9997726 0.0100317 0.9997726 0.0100317 0.0002274 -0.0100317
378399 0.0002162 -0.0095935 0.9997838 0.0095935 0.9997838 0.0095935 0.0002162 -0.0095935
395726 0.0002057 -0.0091744 0.9997943 0.0091744 0.9997943 0.0091744 0.0002057 -0.0091744
413847 0.0001960 -0.0087735 0.9998040 0.0087735 0.9998040 0.0087735 0.0001960 -0.0087735
432798 0.0001869 -0.0083900 0.9998131 0.0083900 0.9998131 0.0083900 0.0001869 -0.0083900
452617 0.0001785 -0.0080232 0.9998215 0.0080232 0.9998215 0.0080232 0.0001785 -0.0080232
473344 0.0001706 -0.0076723 0.9998294 0.0076723 0.9998294 0.0076723 0.0001706 -0.0076723
495019 0.0001632 -0.0073365 0.9998368 0.0073365 0.9998368 0.0073365 0.0001632 -0.0073365
517687 0.0001563 -0.0070153 0.9998437 0.0070153 0.9998437 0.0070153 0.0001563 -0.0070153
541393 0.0001499 -0.0067080 0.9998501 0.0067080 0.9998501 0.0067080 0.0001499 -0.0067080
566185 0.0001439 -0.0064140 0.9998561 0.0064140 0.9998561 0.0064140 0.0001439 -0.0064140
592111 0.0001383 -0.0061326 0.9998617 0.0061326 0.9998617 0.0061326 0.0001383 -0.0061326
619225 0.0001331 -0.0058634 0.9998669 0.0058634 0.9998669 0.0058634 0.0001331 -0.0058634
647581 0.0001282 -0.0056058 0.9998718 0.0056058 0.9998718 0.0056058 0.0001282 -0.0056058
677235 0.0001237 -0.0053593 0.9998763 0.0053593 0.9998763 0.0053593 0.0001237 -0.0053593
708247 0.0001194 -0.0051235 0.9998806 0.0051235 0.9998806 0.0051235 0.0001194 -0.0051235
740679 0.0001155 -0.0048977 0.9998845 0.0048977 0.9998845 0.0048977 0.0001155 -0.0048977
774597 0.0001118 -0.0046817 0.9998882 0.0046817 0.9998882 0.0046817 0.0001118 -0.0046817
810067 0.0001084 -0.0044749 0.9998916 0.0044749 0.9998916 0.0044749 0.0001084 -0.0044749
847162 0.0001052 -0.0042770 0.9998948 0.0042770 0.9998948 0.0042770 0.0001052 -0.0042770
885955 0.0001022 -0.0040876 0.9998978 0.0040876 0.9998978 0.0040876 0.0001022 -0.0040876
926525 0.0000995 -0.0039063 0.9999005 0.0039063 0.9999005 0.0039063 0.0000995 -0.0039063
968953 0.0000970 -0.0037327 0.9999030 0.0037327 0.9999030 0.0037327 0.0000970 -0.0037327
1013323 0.0000946 -0.0035666 0.9999054 0.0035666 0.9999054 0.0035666 0.0000946 -0.0035666
1059725 0.0000924 -0.0034075 0.9999076 0.0034075 0.9999076 0.0034075 0.0000924 -0.0034075
1108252 0.0000904 -0.0032552 0.9999096 0.0032552 0.9999096 0.0032552 0.0000904 -0.0032552
1159002 0.0000886 -0.0031093 0.9999114 0.0031093 0.9999114 0.0031093 0.0000886 -0.0031093
1212075 0.0000869 -0.0029697 0.9999131 0.0029697 0.9999131 0.0029697 0.0000869 -0.0029697
1267578 0.0000853 -0.0028359 0.9999147 0.0028359 0.9999147 0.0028359 0.0000853 -0.0028359
1325623 0.0000838 -0.0027078 0.9999162 0.0027078 0.9999162 0.0027078 0.0000838 -0.0027078
1386327 0.0000825 -0.0025851 0.9999175 0.0025851 0.9999175 0.0025851 0.0000825 -0.0025851
1449809 0.0000813 -0.0024676 0.9999187 0.0024676 0.9999187 0.0024676 0.0000813 -0.0024676
1516199 0.0000802 -0.0023549 0.9999198 0.0023549 0.9999198 0.0023549 0.0000802 -0.0023549
1585629 0.0000792 -0.0022469 0.9999208 0.0022469 0.9999208 0.0022469 0.0000792 -0.0022469
1658239 0.0000782 -0.0021435 0.9999218 0.0021435 0.9999218 0.0021435 0.0000782 -0.0021435
1734173 0.0000774 -0.0020443 0.9999226 0.0020443 0.9999226 0.0020443 0.0000774 -0.0020443
1813585 0.0000766 -0.0019492 0.9999234 0.0019492 0.9999234 0.0019492 0.0000766 -0.0019492
1896632 0.0000760 -0.0018579 0.9999240 0.0018579 0.9999240 0.0018579 0.0000760 -0.0018579
1983483 0.0000753 -0.0017704 0.9999247 0.0017704 0.9999247 0.0017704 0.0000753 -0.0017704
2074311 0.0000748 -0.0016864 0.9999252 0.0016864 0.9999252 0.0016864 0.0000748 -0.0016864
