!Murata Part Number: GRM21BR71E334KA01
!These Parameters are Measured in Series Mode Connection
!Data Generated on Mar 30, 2021
!       o--ll--o
!Port1            Port2
!       o------o
!Operation Temp=25[degC], DC Bias Voltage=0[V]
!Freq. Start=100[Hz] Stop=6[GHz] 401[Steps]
# Hz S RI R 50
!Freq.(Hz) S11(Real) S11(Imag) S21(Real) S21(Imag) S12(Real) S12(Imag) S22(Real) S22(Imag)
100 0.9995107 -0.0198880 0.0004893 0.0198880 0.0004893 0.0198880 0.9995107 -0.0198880
105 0.9994698 -0.0207949 0.0005302 0.0207949 0.0005302 0.0207949 0.9994698 -0.0207949
109 0.9994252 -0.0217431 0.0005748 0.0217431 0.0005748 0.0217431 0.9994252 -0.0217431
114 0.9993767 -0.0227345 0.0006233 0.0227345 0.0006233 0.0227345 0.9993767 -0.0227345
120 0.9993238 -0.0237711 0.0006762 0.0237711 0.0006762 0.0237711 0.9993238 -0.0237711
125 0.9992662 -0.0248547 0.0007338 0.0248547 0.0007338 0.0248547 0.9992662 -0.0248547
131 0.9992035 -0.0259877 0.0007965 0.0259877 0.0007965 0.0259877 0.9992035 -0.0259877
137 0.9991352 -0.0271721 0.0008648 0.0271721 0.0008648 0.0271721 0.9991352 -0.0271721
143 0.9990607 -0.0284104 0.0009393 0.0284104 0.0009393 0.0284104 0.9990607 -0.0284104
150 0.9989795 -0.0297048 0.0010205 0.0297048 0.0010205 0.0297048 0.9989795 -0.0297048
156 0.9988911 -0.0310580 0.0011089 0.0310580 0.0011089 0.0310580 0.9988911 -0.0310580
164 0.9987947 -0.0324726 0.0012053 0.0324726 0.0012053 0.0324726 0.9987947 -0.0324726
171 0.9986897 -0.0339513 0.0013103 0.0339513 0.0013103 0.0339513 0.9986897 -0.0339513
179 0.9985751 -0.0354969 0.0014249 0.0354969 0.0014249 0.0354969 0.9985751 -0.0354969
187 0.9984503 -0.0371126 0.0015497 0.0371126 0.0015497 0.0371126 0.9984503 -0.0371126
196 0.9983143 -0.0388013 0.0016857 0.0388013 0.0016857 0.0388013 0.9983143 -0.0388013
205 0.9981660 -0.0405664 0.0018340 0.0405664 0.0018340 0.0405664 0.9981660 -0.0405664
214 0.9980042 -0.0424112 0.0019958 0.0424112 0.0019958 0.0424112 0.9980042 -0.0424112
224 0.9978279 -0.0443392 0.0021721 0.0443392 0.0021721 0.0443392 0.9978279 -0.0443392
234 0.9976356 -0.0463542 0.0023644 0.0463542 0.0023644 0.0463542 0.9976356 -0.0463542
245 0.9974260 -0.0484599 0.0025740 0.0484599 0.0025740 0.0484599 0.9974260 -0.0484599
256 0.9971973 -0.0506603 0.0028027 0.0506603 0.0028027 0.0506603 0.9971973 -0.0506603
268 0.9969478 -0.0529596 0.0030522 0.0529596 0.0030522 0.0529596 0.9969478 -0.0529596
280 0.9966758 -0.0553620 0.0033242 0.0553620 0.0033242 0.0553620 0.9966758 -0.0553620
293 0.9963790 -0.0578720 0.0036210 0.0578720 0.0036210 0.0578720 0.9963790 -0.0578720
306 0.9960552 -0.0604943 0.0039448 0.0604943 0.0039448 0.0604943 0.9960552 -0.0604943
320 0.9957019 -0.0632335 0.0042981 0.0632335 0.0042981 0.0632335 0.9957019 -0.0632335
335 0.9953165 -0.0660947 0.0046835 0.0660947 0.0046835 0.0660947 0.9953165 -0.0660947
350 0.9948959 -0.0690829 0.0051041 0.0690829 0.0051041 0.0690829 0.9948959 -0.0690829
366 0.9944371 -0.0722035 0.0055629 0.0722035 0.0055629 0.0722035 0.9944371 -0.0722035
383 0.9939364 -0.0754619 0.0060636 0.0754619 0.0060636 0.0754619 0.9939364 -0.0754619
401 0.9933901 -0.0788638 0.0066099 0.0788638 0.0066099 0.0788638 0.9933901 -0.0788638
419 0.9927941 -0.0824149 0.0072059 0.0824149 0.0072059 0.0824149 0.9927941 -0.0824149
438 0.9921438 -0.0861211 0.0078562 0.0861211 0.0078562 0.0861211 0.9921438 -0.0861211
458 0.9914344 -0.0899886 0.0085656 0.0899886 0.0085656 0.0899886 0.9914344 -0.0899886
479 0.9906605 -0.0940235 0.0093395 0.0940235 0.0093395 0.0940235 0.9906605 -0.0940235
501 0.9898164 -0.0982322 0.0101836 0.0982322 0.0101836 0.0982322 0.9898164 -0.0982322
524 0.9888958 -0.1026211 0.0111042 0.1026211 0.0111042 0.1026211 0.9888958 -0.1026211
548 0.9878919 -0.1071968 0.0121081 0.1071968 0.0121081 0.1071968 0.9878919 -0.1071968
573 0.9867973 -0.1119660 0.0132027 0.1119660 0.0132027 0.1119660 0.9867973 -0.1119660
600 0.9856042 -0.1169352 0.0143958 0.1169352 0.0143958 0.1169352 0.9856042 -0.1169352
627 0.9843039 -0.1221112 0.0156961 0.1221112 0.0156961 0.1221112 0.9843039 -0.1221112
656 0.9828870 -0.1275006 0.0171130 0.1275006 0.0171130 0.1275006 0.9828870 -0.1275006
686 0.9813436 -0.1331099 0.0186564 0.1331099 0.0186564 0.1331099 0.9813436 -0.1331099
717 0.9796627 -0.1389458 0.0203373 0.1389458 0.0203373 0.1389458 0.9796627 -0.1389458
750 0.9778327 -0.1450145 0.0221673 0.1450145 0.0221673 0.1450145 0.9778327 -0.1450145
784 0.9758411 -0.1513221 0.0241589 0.1513221 0.0241589 0.1513221 0.9758411 -0.1513221
820 0.9736743 -0.1578745 0.0263257 0.1578745 0.0263257 0.1578745 0.9736743 -0.1578745
858 0.9713178 -0.1646770 0.0286822 0.1646770 0.0286822 0.1646770 0.9713178 -0.1646770
897 0.9687561 -0.1717345 0.0312439 0.1717345 0.0312439 0.1717345 0.9687561 -0.1717345
938 0.9659725 -0.1790516 0.0340275 0.1790516 0.0340275 0.1790516 0.9659725 -0.1790516
981 0.9629494 -0.1866317 0.0370506 0.1866317 0.0370506 0.1866317 0.9629494 -0.1866317
1026 0.9596678 -0.1944779 0.0403322 0.1944779 0.0403322 0.1944779 0.9596678 -0.1944779
1073 0.9561078 -0.2025919 0.0438922 0.2025919 0.0438922 0.2025919 0.9561078 -0.2025919
1122 0.9522479 -0.2109746 0.0477521 0.2109746 0.0477521 0.2109746 0.9522479 -0.2109746
1174 0.9480658 -0.2196253 0.0519342 0.2196253 0.0519342 0.2196253 0.9480658 -0.2196253
1227 0.9435378 -0.2285420 0.0564622 0.2285420 0.0564622 0.2285420 0.9435378 -0.2285420
1283 0.9386392 -0.2377209 0.0613608 0.2377209 0.0613608 0.2377209 0.9386392 -0.2377209
1342 0.9333440 -0.2471564 0.0666560 0.2471564 0.0666560 0.2471564 0.9333440 -0.2471564
1404 0.9276254 -0.2568407 0.0723746 0.2568407 0.0723746 0.2568407 0.9276254 -0.2568407
1468 0.9214556 -0.2667633 0.0785444 0.2667633 0.0785444 0.2667633 0.9214556 -0.2667633
1535 0.9148061 -0.2769116 0.0851939 0.2769116 0.0851939 0.2769116 0.9148061 -0.2769116
1606 0.9076477 -0.2872695 0.0923523 0.2872695 0.0923523 0.2872695 0.9076477 -0.2872695
1679 0.8999511 -0.2978183 0.1000489 0.2978183 0.1000489 0.2978183 0.8999511 -0.2978183
1756 0.8916870 -0.3085354 0.1083130 0.3085354 0.1083130 0.3085354 0.8916870 -0.3085354
1836 0.8828261 -0.3193949 0.1171739 0.3193949 0.1171739 0.3193949 0.8828261 -0.3193949
1920 0.8733403 -0.3303668 0.1266597 0.3303668 0.1266597 0.3303668 0.8733403 -0.3303668
2008 0.8632021 -0.3414174 0.1367979 0.3414174 0.1367979 0.3414174 0.8632021 -0.3414174
2100 0.8523861 -0.3525085 0.1476139 0.3525085 0.1476139 0.3525085 0.8523861 -0.3525085
2196 0.8408690 -0.3635978 0.1591310 0.3635978 0.1591310 0.3635978 0.8408690 -0.3635978
2297 0.8286301 -0.3746391 0.1713699 0.3746391 0.1713699 0.3746391 0.8286301 -0.3746391
2402 0.8156525 -0.3855818 0.1843475 0.3855818 0.1843475 0.3855818 0.8156525 -0.3855818
2512 0.8019232 -0.3963713 0.1980768 0.3963713 0.1980768 0.3963713 0.8019232 -0.3963713
2627 0.7874340 -0.4069497 0.2125660 0.4069497 0.2125660 0.4069497 0.7874340 -0.4069497
2748 0.7721822 -0.4172557 0.2278178 0.4172557 0.2278178 0.4172557 0.7721822 -0.4172557
2873 0.7561714 -0.4272254 0.2438286 0.4272254 0.2438286 0.4272254 0.7561714 -0.4272254
3005 0.7394118 -0.4367929 0.2605882 0.4367929 0.2605882 0.4367929 0.7394118 -0.4367929
3143 0.7219206 -0.4458910 0.2780794 0.4458910 0.2780794 0.4458910 0.7219206 -0.4458910
3287 0.7037230 -0.4544526 0.2962770 0.4544526 0.2962770 0.4544526 0.7037230 -0.4544526
3437 0.6848520 -0.4624109 0.3151480 0.4624109 0.3151480 0.4624109 0.6848520 -0.4624109
3594 0.6653485 -0.4697012 0.3346515 0.4697012 0.3346515 0.4697012 0.6653485 -0.4697012
3759 0.6452617 -0.4762618 0.3547383 0.4762618 0.3547383 0.4762618 0.6452617 -0.4762618
3931 0.6246484 -0.4820350 0.3753516 0.4820350 0.3753516 0.4820350 0.6246484 -0.4820350
4111 0.6035726 -0.4869685 0.3964274 0.4869685 0.3964274 0.4869685 0.6035726 -0.4869685
4299 0.5821052 -0.4910166 0.4178948 0.4910166 0.4178948 0.4910166 0.5821052 -0.4910166
4496 0.5603226 -0.4941408 0.4396774 0.4941408 0.4396774 0.4941408 0.5603226 -0.4941408
4702 0.5383063 -0.4963110 0.4616937 0.4963110 0.4616937 0.4963110 0.5383063 -0.4963110
4918 0.5161412 -0.4975062 0.4838588 0.4975062 0.4838588 0.4975062 0.5161412 -0.4975062
5143 0.4939144 -0.4977149 0.5060856 0.4977149 0.5060856 0.4977149 0.4939144 -0.4977149
5378 0.4717143 -0.4969351 0.5282857 0.4969351 0.5282857 0.4969351 0.4717143 -0.4969351
5625 0.4496285 -0.4951750 0.5503715 0.4951750 0.5503715 0.4951750 0.4496285 -0.4951750
5882 0.4277429 -0.4924522 0.5722571 0.4924522 0.5722571 0.4924522 0.4277429 -0.4924522
6151 0.4061402 -0.4887934 0.5938598 0.4887934 0.5938598 0.4887934 0.4061402 -0.4887934
6433 0.3848986 -0.4842341 0.6151014 0.4842341 0.6151014 0.4842341 0.3848986 -0.4842341
6728 0.3640910 -0.4788173 0.6359090 0.4788173 0.6359090 0.4788173 0.3640910 -0.4788173
7036 0.3437839 -0.4725929 0.6562161 0.4725929 0.6562161 0.4725929 0.3437839 -0.4725929
7358 0.3240366 -0.4656163 0.6759634 0.4656163 0.6759634 0.4656163 0.3240366 -0.4656163
7695 0.3049011 -0.4579477 0.6950989 0.4579477 0.6950989 0.4579477 0.3049011 -0.4579477
8047 0.2864213 -0.4496504 0.7135787 0.4496504 0.7135787 0.4496504 0.2864213 -0.4496504
8416 0.2686331 -0.4407903 0.7313669 0.4407903 0.7313669 0.4407903 0.2686331 -0.4407903
8801 0.2515645 -0.4314340 0.7484355 0.4314340 0.7484355 0.4314340 0.2515645 -0.4314340
9204 0.2352358 -0.4216485 0.7647642 0.4216485 0.7647642 0.4216485 0.2352358 -0.4216485
9626 0.2196601 -0.4114999 0.7803399 0.4114999 0.7803399 0.4114999 0.2196601 -0.4114999
10066 0.2048436 -0.4010525 0.7951564 0.4010525 0.7951564 0.4010525 0.2048436 -0.4010525
10527 0.1907859 -0.3903684 0.8092141 0.3903684 0.8092141 0.3903684 0.1907859 -0.3903684
11009 0.1774814 -0.3795064 0.8225186 0.3795064 0.8225186 0.3795064 0.1774814 -0.3795064
11514 0.1649191 -0.3685224 0.8350809 0.3685224 0.8350809 0.3685224 0.1649191 -0.3685224
12041 0.1530838 -0.3574682 0.8469162 0.3574682 0.8469162 0.3574682 0.1530838 -0.3574682
12592 0.1419568 -0.3463916 0.8580432 0.3463916 0.8580432 0.3463916 0.1419568 -0.3463916
13169 0.1315160 -0.3353365 0.8684840 0.3353365 0.8684840 0.3353365 0.1315160 -0.3353365
13772 0.1217370 -0.3243425 0.8782630 0.3243425 0.8782630 0.3243425 0.1217370 -0.3243425
14402 0.1125936 -0.3134451 0.8874064 0.3134451 0.8874064 0.3134451 0.1125936 -0.3134451
15062 0.1040582 -0.3026759 0.8959418 0.3026759 0.8959418 0.3026759 0.1040582 -0.3026759
15752 0.0961021 -0.2920624 0.9038979 0.2920624 0.9038979 0.2920624 0.0961021 -0.2920624
16473 0.0886964 -0.2816286 0.9113036 0.2816286 0.9113036 0.2816286 0.0886964 -0.2816286
17227 0.0818118 -0.2713950 0.9181882 0.2713950 0.9181882 0.2713950 0.0818118 -0.2713950
18016 0.0754194 -0.2613788 0.9245806 0.2613788 0.9245806 0.2613788 0.0754194 -0.2613788
18841 0.0694905 -0.2515942 0.9305095 0.2515942 0.9305095 0.2515942 0.0694905 -0.2515942
19704 0.0639973 -0.2420527 0.9360027 0.2420527 0.9360027 0.2420527 0.0639973 -0.2420527
20606 0.0589124 -0.2327633 0.9410876 0.2327633 0.9410876 0.2327633 0.0589124 -0.2327633
21550 0.0542097 -0.2237326 0.9457903 0.2237326 0.9457903 0.2237326 0.0542097 -0.2237326
22537 0.0498641 -0.2149654 0.9501359 0.2149654 0.9501359 0.2149654 0.0498641 -0.2149654
23569 0.0458513 -0.2064646 0.9541487 0.2064646 0.9541487 0.2064646 0.0458513 -0.2064646
24648 0.0421486 -0.1982314 0.9578514 0.1982314 0.9578514 0.1982314 0.0421486 -0.1982314
25777 0.0387342 -0.1902658 0.9612658 0.1902658 0.9612658 0.1902658 0.0387342 -0.1902658
26957 0.0355874 -0.1825664 0.9644126 0.1825664 0.9644126 0.1825664 0.0355874 -0.1825664
28191 0.0326890 -0.1751309 0.9673110 0.1751309 0.9673110 0.1751309 0.0326890 -0.1751309
29482 0.0300206 -0.1679561 0.9699794 0.1679561 0.9699794 0.1679561 0.0300206 -0.1679561
30832 0.0275652 -0.1610379 0.9724348 0.1610379 0.9724348 0.1610379 0.0275652 -0.1610379
32244 0.0253068 -0.1543716 0.9746932 0.1543716 0.9746932 0.1543716 0.0253068 -0.1543716
33721 0.0232305 -0.1479522 0.9767695 0.1479522 0.9767695 0.1479522 0.0232305 -0.1479522
35265 0.0213222 -0.1417740 0.9786778 0.1417740 0.9786778 0.1417740 0.0213222 -0.1417740
36880 0.0195690 -0.1358311 0.9804310 0.1358311 0.9804310 0.1358311 0.0195690 -0.1358311
38569 0.0179588 -0.1301174 0.9820412 0.1301174 0.9820412 0.1301174 0.0179588 -0.1301174
40335 0.0164804 -0.1246263 0.9835196 0.1246263 0.9835196 0.1246263 0.0164804 -0.1246263
42182 0.0151234 -0.1193515 0.9848766 0.1193515 0.9848766 0.1193515 0.0151234 -0.1193515
44113 0.0138781 -0.1142863 0.9861219 0.1142863 0.9861219 0.1142863 0.0138781 -0.1142863
46134 0.0127356 -0.1094241 0.9872644 0.1094241 0.9872644 0.1094241 0.0127356 -0.1094241
48246 0.0116877 -0.1047582 0.9883123 0.1047582 0.9883123 0.1047582 0.0116877 -0.1047582
50455 0.0107268 -0.1002821 0.9892732 0.1002821 0.9892732 0.1002821 0.0107268 -0.1002821
52766 0.0098456 -0.0959891 0.9901544 0.0959891 0.9901544 0.0959891 0.0098456 -0.0959891
55182 0.0090379 -0.0918728 0.9909621 0.0918728 0.9909621 0.0918728 0.0090379 -0.0918728
57709 0.0082975 -0.0879269 0.9917025 0.0879269 0.9917025 0.0879269 0.0082975 -0.0879269
60352 0.0076189 -0.0841451 0.9923811 0.0841451 0.9923811 0.0841451 0.0076189 -0.0841451
63115 0.0069971 -0.0805213 0.9930029 0.0805213 0.9930029 0.0805213 0.0069971 -0.0805213
66005 0.0064273 -0.0770495 0.9935727 0.0770495 0.9935727 0.0770495 0.0064273 -0.0770495
69028 0.0059052 -0.0737239 0.9940948 0.0737239 0.9940948 0.0737239 0.0059052 -0.0737239
72189 0.0054269 -0.0705387 0.9945731 0.0705387 0.9945731 0.0705387 0.0054269 -0.0705387
75495 0.0049886 -0.0674886 0.9950114 0.0674886 0.9950114 0.0674886 0.0049886 -0.0674886
78952 0.0045871 -0.0645681 0.9954129 0.0645681 0.9954129 0.0645681 0.0045871 -0.0645681
82567 0.0042192 -0.0617720 0.9957808 0.0617720 0.9957808 0.0617720 0.0042192 -0.0617720
86348 0.0038821 -0.0590954 0.9961179 0.0590954 0.9961179 0.0590954 0.0038821 -0.0590954
90302 0.0035733 -0.0565334 0.9964267 0.0565334 0.9964267 0.0565334 0.0035733 -0.0565334
94437 0.0032902 -0.0540813 0.9967098 0.0540813 0.9967098 0.0540813 0.0032902 -0.0540813
98762 0.0030308 -0.0517345 0.9969692 0.0517345 0.9969692 0.0517345 0.0030308 -0.0517345
103284 0.0027930 -0.0494888 0.9972070 0.0494888 0.9972070 0.0494888 0.0027930 -0.0494888
108014 0.0025749 -0.0473399 0.9974251 0.0473399 0.9974251 0.0473399 0.0025749 -0.0473399
112960 0.0023750 -0.0452837 0.9976250 0.0452837 0.9976250 0.0452837 0.0023750 -0.0452837
118133 0.0021915 -0.0433164 0.9978085 0.0433164 0.9978085 0.0433164 0.0021915 -0.0433164
123542 0.0020232 -0.0414341 0.9979768 0.0414341 0.9979768 0.0414341 0.0020232 -0.0414341
129199 0.0018687 -0.0396334 0.9981313 0.0396334 0.9981313 0.0396334 0.0018687 -0.0396334
135116 0.0017269 -0.0379106 0.9982731 0.0379106 0.9982731 0.0379106 0.0017269 -0.0379106
141303 0.0015965 -0.0362626 0.9984035 0.0362626 0.9984035 0.0362626 0.0015965 -0.0362626
147774 0.0014768 -0.0346860 0.9985232 0.0346860 0.9985232 0.0346860 0.0014768 -0.0346860
154540 0.0013667 -0.0331778 0.9986333 0.0331778 0.9986333 0.0331778 0.0013667 -0.0331778
161617 0.0012654 -0.0317351 0.9987346 0.0317351 0.9987346 0.0317351 0.0012654 -0.0317351
169018 0.0011722 -0.0303550 0.9988278 0.0303550 0.9988278 0.0303550 0.0011722 -0.0303550
176758 0.0010863 -0.0290348 0.9989137 0.0290348 0.9989137 0.0290348 0.0010863 -0.0290348
184852 0.0010073 -0.0277719 0.9989927 0.0277719 0.9989927 0.0277719 0.0010073 -0.0277719
193316 0.0009344 -0.0265638 0.9990656 0.0265638 0.9990656 0.0265638 0.0009344 -0.0265638
202169 0.0008672 -0.0254082 0.9991328 0.0254082 0.9991328 0.0254082 0.0008672 -0.0254082
211427 0.0008051 -0.0243027 0.9991949 0.0243027 0.9991949 0.0243027 0.0008051 -0.0243027
221108 0.0007479 -0.0232452 0.9992521 0.0232452 0.9992521 0.0232452 0.0007479 -0.0232452
231233 0.0006950 -0.0222336 0.9993050 0.0222336 0.9993050 0.0222336 0.0006950 -0.0222336
241822 0.0006462 -0.0212658 0.9993538 0.0212658 0.9993538 0.0212658 0.0006462 -0.0212658
252896 0.0006010 -0.0203400 0.9993990 0.0203400 0.9993990 0.0203400 0.0006010 -0.0203400
264476 0.0005593 -0.0194542 0.9994407 0.0194542 0.9994407 0.0194542 0.0005593 -0.0194542
276587 0.0005207 -0.0186069 0.9994793 0.0186069 0.9994793 0.0186069 0.0005207 -0.0186069
289253 0.0004851 -0.0177963 0.9995149 0.0177963 0.9995149 0.0177963 0.0004851 -0.0177963
302498 0.0004521 -0.0170207 0.9995479 0.0170207 0.9995479 0.0170207 0.0004521 -0.0170207
316350 0.0004216 -0.0162788 0.9995784 0.0162788 0.9995784 0.0162788 0.0004216 -0.0162788
330837 0.0003933 -0.0155689 0.9996067 0.0155689 0.9996067 0.0155689 0.0003933 -0.0155689
345986 0.0003673 -0.0148898 0.9996327 0.0148898 0.9996327 0.0148898 0.0003673 -0.0148898
361830 0.0003431 -0.0142401 0.9996569 0.0142401 0.9996569 0.0142401 0.0003431 -0.0142401
378399 0.0003208 -0.0136184 0.9996792 0.0136184 0.9996792 0.0136184 0.0003208 -0.0136184
395726 0.0003002 -0.0130237 0.9996998 0.0130237 0.9996998 0.0130237 0.0003002 -0.0130237
413847 0.0002812 -0.0124547 0.9997188 0.0124547 0.9997188 0.0124547 0.0002812 -0.0124547
432798 0.0002636 -0.0119103 0.9997364 0.0119103 0.9997364 0.0119103 0.0002636 -0.0119103
452617 0.0002474 -0.0113894 0.9997526 0.0113894 0.9997526 0.0113894 0.0002474 -0.0113894
473344 0.0002324 -0.0108911 0.9997676 0.0108911 0.9997676 0.0108911 0.0002324 -0.0108911
495019 0.0002186 -0.0104144 0.9997814 0.0104144 0.9997814 0.0104144 0.0002186 -0.0104144
517687 0.0002059 -0.0099582 0.9997941 0.0099582 0.9997941 0.0099582 0.0002059 -0.0099582
541393 0.0001942 -0.0095218 0.9998058 0.0095218 0.9998058 0.0095218 0.0001942 -0.0095218
566185 0.0001833 -0.0091043 0.9998167 0.0091043 0.9998167 0.0091043 0.0001833 -0.0091043
592111 0.0001734 -0.0087048 0.9998266 0.0087048 0.9998266 0.0087048 0.0001734 -0.0087048
619225 0.0001642 -0.0083227 0.9998358 0.0083227 0.9998358 0.0083227 0.0001642 -0.0083227
647581 0.0001558 -0.0079570 0.9998442 0.0079570 0.9998442 0.0079570 0.0001558 -0.0079570
677235 0.0001480 -0.0076072 0.9998520 0.0076072 0.9998520 0.0076072 0.0001480 -0.0076072
708247 0.0001409 -0.0072725 0.9998591 0.0072725 0.9998591 0.0072725 0.0001409 -0.0072725
740679 0.0001344 -0.0069522 0.9998656 0.0069522 0.9998656 0.0069522 0.0001344 -0.0069522
774597 0.0001284 -0.0066458 0.9998716 0.0066458 0.9998716 0.0066458 0.0001284 -0.0066458
810067 0.0001228 -0.0063526 0.9998772 0.0063526 0.9998772 0.0063526 0.0001228 -0.0063526
847162 0.0001178 -0.0060721 0.9998822 0.0060721 0.9998822 0.0060721 0.0001178 -0.0060721
885955 0.0001131 -0.0058037 0.9998869 0.0058037 0.9998869 0.0058037 0.0001131 -0.0058037
926525 0.0001089 -0.0055468 0.9998911 0.0055468 0.9998911 0.0055468 0.0001089 -0.0055468
968953 0.0001050 -0.0053010 0.9998950 0.0053010 0.9998950 0.0053010 0.0001050 -0.0053010
1013323 0.0001014 -0.0050658 0.9998986 0.0050658 0.9998986 0.0050658 0.0001014 -0.0050658
1059725 0.0000981 -0.0048407 0.9999019 0.0048407 0.9999019 0.0048407 0.0000981 -0.0048407
1108252 0.0000951 -0.0046253 0.9999049 0.0046253 0.9999049 0.0046253 0.0000951 -0.0046253
1159002 0.0000924 -0.0044191 0.9999076 0.0044191 0.9999076 0.0044191 0.0000924 -0.0044191
1212075 0.0000899 -0.0042217 0.9999101 0.0042217 0.9999101 0.0042217 0.0000899 -0.0042217
1267578 0.0000876 -0.0040328 0.9999124 0.0040328 0.9999124 0.0040328 0.0000876 -0.0040328
1325623 0.0000855 -0.0038519 0.9999145 0.0038519 0.9999145 0.0038519 0.0000855 -0.0038519
1386327 0.0000836 -0.0036788 0.9999164 0.0036788 0.9999164 0.0036788 0.0000836 -0.0036788
1449809 0.0000819 -0.0035130 0.9999181 0.0035130 0.9999181 0.0035130 0.0000819 -0.0035130
1516199 0.0000803 -0.0033542 0.9999197 0.0033542 0.9999197 0.0033542 0.0000803 -0.0033542
1585629 0.0000788 -0.0032021 0.9999212 0.0032021 0.9999212 0.0032021 0.0000788 -0.0032021
1658239 0.0000775 -0.0030564 0.9999225 0.0030564 0.9999225 0.0030564 0.0000775 -0.0030564
1734173 0.0000764 -0.0029169 0.9999236 0.0029169 0.9999236 0.0029169 0.0000764 -0.0029169
1813585 0.0000753 -0.0027832 0.9999247 0.0027832 0.9999247 0.0027832 0.0000753 -0.0027832
1896632 0.0000743 -0.0026550 0.9999257 0.0026550 0.9999257 0.0026550 0.0000743 -0.0026550
1983483 0.0000735 -0.0025322 0.9999265 0.0025322 0.9999265 0.0025322 0.0000735 -0.0025322
2074311 0.0000727 -0.0024145 0.9999273 0.0024145 0.9999273 0.0024145 0.0000727 -0.0024145
