!Murata Part Number: GRM219R61C226ME15
!These Parameters are Measured in Series Mode Connection
!Data Generated on Mar 30, 2021
!       o--ll--o
!Port1            Port2
!       o------o
!Operation Temp=25[degC], DC Bias Voltage=0[V]
!Freq. Start=100[Hz] Stop=6[GHz] 401[Steps]
# Hz S RI R 50
!Freq.(Hz) S11(Real) S11(Imag) S21(Real) S21(Imag) S12(Real) S12(Imag) S22(Real) S22(Imag)
100 0.5358154 -0.4900910 0.4641846 0.4900910 0.4641846 0.4900910 0.5358154 -0.4900910
105 0.5141309 -0.4911691 0.4858691 0.4911691 0.4858691 0.4911691 0.5141309 -0.4911691
109 0.4923943 -0.4913086 0.5076057 0.4913086 0.5076057 0.4913086 0.4923943 -0.4913086
114 0.4706870 -0.4905086 0.5293130 0.4905086 0.5293130 0.4905086 0.4706870 -0.4905086
120 0.4490900 -0.4887764 0.5509100 0.4887764 0.5509100 0.4887764 0.4490900 -0.4887764
125 0.4276829 -0.4861283 0.5723171 0.4861283 0.5723171 0.4861283 0.4276829 -0.4861283
131 0.4065424 -0.4825884 0.5934576 0.4825884 0.5934576 0.4825884 0.4065424 -0.4825884
137 0.3857413 -0.4781887 0.6142587 0.4781887 0.6142587 0.4781887 0.3857413 -0.4781887
143 0.3653481 -0.4729681 0.6346519 0.4729681 0.6346519 0.4729681 0.3653481 -0.4729681
150 0.3454253 -0.4669718 0.6545747 0.4669718 0.6545747 0.4669718 0.3454253 -0.4669718
156 0.3260297 -0.4602502 0.6739703 0.4602502 0.6739703 0.4602502 0.3260297 -0.4602502
164 0.3072112 -0.4528581 0.6927888 0.4528581 0.6927888 0.4528581 0.3072112 -0.4528581
171 0.2890127 -0.4448539 0.7109873 0.4448539 0.7109873 0.4448539 0.2890127 -0.4448539
179 0.2714700 -0.4362981 0.7285300 0.4362981 0.7285300 0.4362981 0.2714700 -0.4362981
187 0.2546118 -0.4272530 0.7453882 0.4272530 0.7453882 0.4272530 0.2546118 -0.4272530
196 0.2384596 -0.4177809 0.7615404 0.4177809 0.7615404 0.4177809 0.2384596 -0.4177809
205 0.2230281 -0.4079443 0.7769719 0.4079443 0.7769719 0.4079443 0.2230281 -0.4079443
214 0.2083256 -0.3978041 0.7916744 0.3978041 0.7916744 0.3978041 0.2083256 -0.3978041
224 0.1943544 -0.3874196 0.8056456 0.3874196 0.8056456 0.3874196 0.1943544 -0.3874196
234 0.1811112 -0.3768477 0.8188888 0.3768477 0.8188888 0.3768477 0.1811112 -0.3768477
245 0.1685879 -0.3661422 0.8314121 0.3661422 0.8314121 0.3661422 0.1685879 -0.3661422
256 0.1567718 -0.3553538 0.8432282 0.3553538 0.8432282 0.3553538 0.1567718 -0.3553538
268 0.1456466 -0.3445297 0.8543534 0.3445297 0.8543534 0.3445297 0.1456466 -0.3445297
280 0.1351927 -0.3337131 0.8648073 0.3337131 0.8648073 0.3337131 0.1351927 -0.3337131
293 0.1253880 -0.3229438 0.8746120 0.3229438 0.8746120 0.3229438 0.1253880 -0.3229438
306 0.1162081 -0.3122572 0.8837919 0.3122572 0.8837919 0.3122572 0.1162081 -0.3122572
320 0.1076274 -0.3016854 0.8923726 0.3016854 0.8923726 0.3016854 0.1076274 -0.3016854
335 0.0996186 -0.2912564 0.9003814 0.2912564 0.9003814 0.2912564 0.0996186 -0.2912564
350 0.0921543 -0.2809948 0.9078457 0.2809948 0.9078457 0.2809948 0.0921543 -0.2809948
366 0.0852062 -0.2709217 0.9147938 0.2709217 0.9147938 0.2709217 0.0852062 -0.2709217
383 0.0787463 -0.2610550 0.9212537 0.2610550 0.9212537 0.2610550 0.0787463 -0.2610550
401 0.0727469 -0.2514097 0.9272531 0.2514097 0.9272531 0.2514097 0.0727469 -0.2514097
419 0.0671806 -0.2419979 0.9328194 0.2419979 0.9328194 0.2419979 0.0671806 -0.2419979
438 0.0620206 -0.2328293 0.9379794 0.2328293 0.9379794 0.2328293 0.0620206 -0.2328293
458 0.0572412 -0.2239111 0.9427588 0.2239111 0.9427588 0.2239111 0.0572412 -0.2239111
479 0.0528175 -0.2152485 0.9471825 0.2152485 0.9471825 0.2152485 0.0528175 -0.2152485
501 0.0487256 -0.2068449 0.9512744 0.2068449 0.9512744 0.2068449 0.0487256 -0.2068449
524 0.0449428 -0.1987021 0.9550572 0.1987021 0.9550572 0.1987021 0.0449428 -0.1987021
548 0.0414474 -0.1908202 0.9585526 0.1908202 0.9585526 0.1908202 0.0414474 -0.1908202
573 0.0382192 -0.1831982 0.9617808 0.1831982 0.9617808 0.1831982 0.0382192 -0.1831982
600 0.0352386 -0.1758341 0.9647614 0.1758341 0.9647614 0.1758341 0.0352386 -0.1758341
627 0.0324878 -0.1687247 0.9675122 0.1687247 0.9675122 0.1687247 0.0324878 -0.1687247
656 0.0299497 -0.1618663 0.9700503 0.1618663 0.9700503 0.1618663 0.0299497 -0.1618663
686 0.0276084 -0.1552544 0.9723916 0.1552544 0.9723916 0.1552544 0.0276084 -0.1552544
717 0.0254491 -0.1488838 0.9745509 0.1488838 0.9745509 0.1488838 0.0254491 -0.1488838
750 0.0234582 -0.1427492 0.9765418 0.1427492 0.9765418 0.1427492 0.0234582 -0.1427492
784 0.0216227 -0.1368447 0.9783773 0.1368447 0.9783773 0.1368447 0.0216227 -0.1368447
820 0.0199308 -0.1311643 0.9800692 0.1311643 0.9800692 0.1311643 0.0199308 -0.1311643
858 0.0183714 -0.1257018 0.9816286 0.1257018 0.9816286 0.1257018 0.0183714 -0.1257018
897 0.0169345 -0.1204507 0.9830655 0.1204507 0.9830655 0.1204507 0.0169345 -0.1204507
938 0.0156106 -0.1154047 0.9843894 0.1154047 0.9843894 0.1154047 0.0156106 -0.1154047
981 0.0143908 -0.1105573 0.9856092 0.1105573 0.9856092 0.1105573 0.0143908 -0.1105573
1026 0.0132673 -0.1059020 0.9867327 0.1059020 0.9867327 0.1059020 0.0132673 -0.1059020
1073 0.0122326 -0.1014326 0.9877674 0.1014326 0.9877674 0.1014326 0.0122326 -0.1014326
1122 0.0112797 -0.0971426 0.9887203 0.0971426 0.9887203 0.0971426 0.0112797 -0.0971426
1174 0.0104023 -0.0930259 0.9895977 0.0930259 0.9895977 0.0930259 0.0104023 -0.0930259
1227 0.0095945 -0.0890763 0.9904055 0.0890763 0.9904055 0.0890763 0.0095945 -0.0890763
1283 0.0088510 -0.0852879 0.9911490 0.0852879 0.9911490 0.0852879 0.0088510 -0.0852879
1342 0.0081667 -0.0816548 0.9918333 0.0816548 0.9918333 0.0816548 0.0081667 -0.0816548
1404 0.0075370 -0.0781714 0.9924630 0.0781714 0.9924630 0.0781714 0.0075370 -0.0781714
1468 0.0069576 -0.0748320 0.9930424 0.0748320 0.9930424 0.0748320 0.0069576 -0.0748320
1535 0.0064244 -0.0716312 0.9935756 0.0716312 0.9935756 0.0716312 0.0064244 -0.0716312
1606 0.0059340 -0.0685639 0.9940660 0.0685639 0.9940660 0.0685639 0.0059340 -0.0685639
1679 0.0054828 -0.0656248 0.9945172 0.0656248 0.9945172 0.0656248 0.0054828 -0.0656248
1756 0.0050678 -0.0628090 0.9949322 0.0628090 0.9949322 0.0628090 0.0050678 -0.0628090
1836 0.0046860 -0.0601117 0.9953140 0.0601117 0.9953140 0.0601117 0.0046860 -0.0601117
1920 0.0043349 -0.0575282 0.9956651 0.0575282 0.9956651 0.0575282 0.0043349 -0.0575282
2008 0.0040118 -0.0550541 0.9959882 0.0550541 0.9959882 0.0550541 0.0040118 -0.0550541
2100 0.0037145 -0.0526849 0.9962855 0.0526849 0.9962855 0.0526849 0.0037145 -0.0526849
2196 0.0034410 -0.0504164 0.9965590 0.0504164 0.9965590 0.0504164 0.0034410 -0.0504164
2297 0.0031892 -0.0482447 0.9968108 0.0482447 0.9968108 0.0482447 0.0031892 -0.0482447
2402 0.0029574 -0.0461656 0.9970426 0.0461656 0.9970426 0.0461656 0.0029574 -0.0461656
2512 0.0027439 -0.0441754 0.9972561 0.0441754 0.9972561 0.0441754 0.0027439 -0.0441754
2627 0.0025473 -0.0422705 0.9974527 0.0422705 0.9974527 0.0422705 0.0025473 -0.0422705
2748 0.0023660 -0.0404473 0.9976340 0.0404473 0.9976340 0.0404473 0.0023660 -0.0404473
2873 0.0021988 -0.0387024 0.9978012 0.0387024 0.9978012 0.0387024 0.0021988 -0.0387024
3005 0.0020446 -0.0370325 0.9979554 0.0370325 0.9979554 0.0370325 0.0020446 -0.0370325
3143 0.0019023 -0.0354345 0.9980977 0.0354345 0.9980977 0.0354345 0.0019023 -0.0354345
3287 0.0017708 -0.0339052 0.9982292 0.0339052 0.9982292 0.0339052 0.0017708 -0.0339052
3437 0.0016493 -0.0324418 0.9983507 0.0324418 0.9983507 0.0324418 0.0016493 -0.0324418
3594 0.0015369 -0.0310414 0.9984631 0.0310414 0.9984631 0.0310414 0.0015369 -0.0310414
3759 0.0014329 -0.0297014 0.9985671 0.0297014 0.9985671 0.0297014 0.0014329 -0.0297014
3931 0.0013366 -0.0284191 0.9986634 0.0284191 0.9986634 0.0284191 0.0013366 -0.0284191
4111 0.0012473 -0.0271921 0.9987527 0.0271921 0.9987527 0.0271921 0.0012473 -0.0271921
4299 0.0011645 -0.0260180 0.9988355 0.0260180 0.9988355 0.0260180 0.0011645 -0.0260180
4496 0.0010878 -0.0248945 0.9989122 0.0248945 0.9989122 0.0248945 0.0010878 -0.0248945
4702 0.0010165 -0.0238193 0.9989835 0.0238193 0.9989835 0.0238193 0.0010165 -0.0238193
4918 0.0009503 -0.0227905 0.9990497 0.0227905 0.9990497 0.0227905 0.0009503 -0.0227905
5143 0.0008888 -0.0218060 0.9991112 0.0218060 0.9991112 0.0218060 0.0008888 -0.0218060
5378 0.0008316 -0.0208639 0.9991684 0.0208639 0.9991684 0.0208639 0.0008316 -0.0208639
5625 0.0007785 -0.0199623 0.9992215 0.0199623 0.9992215 0.0199623 0.0007785 -0.0199623
5882 0.0007291 -0.0190995 0.9992709 0.0190995 0.9992709 0.0190995 0.0007291 -0.0190995
6151 0.0006831 -0.0182739 0.9993169 0.0182739 0.9993169 0.0182739 0.0006831 -0.0182739
6433 0.0006404 -0.0174837 0.9993596 0.0174837 0.9993596 0.0174837 0.0006404 -0.0174837
6728 0.0006007 -0.0167276 0.9993993 0.0167276 0.9993993 0.0167276 0.0006007 -0.0167276
7036 0.0005637 -0.0160040 0.9994363 0.0160040 0.9994363 0.0160040 0.0005637 -0.0160040
7358 0.0005293 -0.0153116 0.9994707 0.0153116 0.9994707 0.0153116 0.0005293 -0.0153116
7695 0.0004974 -0.0146489 0.9995026 0.0146489 0.9995026 0.0146489 0.0004974 -0.0146489
8047 0.0004676 -0.0140149 0.9995324 0.0140149 0.9995324 0.0140149 0.0004676 -0.0140149
8416 0.0004400 -0.0134081 0.9995600 0.0134081 0.9995600 0.0134081 0.0004400 -0.0134081
8801 0.0004144 -0.0128275 0.9995856 0.0128275 0.9995856 0.0128275 0.0004144 -0.0128275
9204 0.0003905 -0.0122719 0.9996095 0.0122719 0.9996095 0.0122719 0.0003905 -0.0122719
9626 0.0003683 -0.0117404 0.9996317 0.0117404 0.9996317 0.0117404 0.0003683 -0.0117404
10066 0.0003477 -0.0112317 0.9996523 0.0112317 0.9996523 0.0112317 0.0003477 -0.0112317
10527 0.0003286 -0.0107451 0.9996714 0.0107451 0.9996714 0.0107451 0.0003286 -0.0107451
11009 0.0003108 -0.0102795 0.9996892 0.0102795 0.9996892 0.0102795 0.0003108 -0.0102795
11514 0.0002942 -0.0098341 0.9997058 0.0098341 0.9997058 0.0098341 0.0002942 -0.0098341
12041 0.0002788 -0.0094079 0.9997212 0.0094079 0.9997212 0.0094079 0.0002788 -0.0094079
12592 0.0002645 -0.0090002 0.9997355 0.0090002 0.9997355 0.0090002 0.0002645 -0.0090002
13169 0.0002512 -0.0086102 0.9997488 0.0086102 0.9997488 0.0086102 0.0002512 -0.0086102
13772 0.0002388 -0.0082372 0.9997612 0.0082372 0.9997612 0.0082372 0.0002388 -0.0082372
14402 0.0002272 -0.0078803 0.9997728 0.0078803 0.9997728 0.0078803 0.0002272 -0.0078803
15062 0.0002164 -0.0075389 0.9997836 0.0075389 0.9997836 0.0075389 0.0002164 -0.0075389
15752 0.0002063 -0.0072124 0.9997937 0.0072124 0.9997937 0.0072124 0.0002063 -0.0072124
16473 0.0001968 -0.0069000 0.9998032 0.0069000 0.9998032 0.0069000 0.0001968 -0.0069000
17227 0.0001879 -0.0066012 0.9998121 0.0066012 0.9998121 0.0066012 0.0001879 -0.0066012
18016 0.0001796 -0.0063155 0.9998204 0.0063155 0.9998204 0.0063155 0.0001796 -0.0063155
18841 0.0001718 -0.0060421 0.9998282 0.0060421 0.9998282 0.0060421 0.0001718 -0.0060421
19704 0.0001644 -0.0057806 0.9998356 0.0057806 0.9998356 0.0057806 0.0001644 -0.0057806
20606 0.0001575 -0.0055305 0.9998425 0.0055305 0.9998425 0.0055305 0.0001575 -0.0055305
21550 0.0001509 -0.0052913 0.9998491 0.0052913 0.9998491 0.0052913 0.0001509 -0.0052913
22537 0.0001447 -0.0050625 0.9998553 0.0050625 0.9998553 0.0050625 0.0001447 -0.0050625
23569 0.0001388 -0.0048435 0.9998612 0.0048435 0.9998612 0.0048435 0.0001388 -0.0048435
24648 0.0001332 -0.0046341 0.9998668 0.0046341 0.9998668 0.0046341 0.0001332 -0.0046341
25777 0.0001278 -0.0044338 0.9998722 0.0044338 0.9998722 0.0044338 0.0001278 -0.0044338
26957 0.0001228 -0.0042422 0.9998772 0.0042422 0.9998772 0.0042422 0.0001228 -0.0042422
28191 0.0001179 -0.0040588 0.9998821 0.0040588 0.9998821 0.0040588 0.0001179 -0.0040588
29482 0.0001133 -0.0038834 0.9998867 0.0038834 0.9998867 0.0038834 0.0001133 -0.0038834
30832 0.0001089 -0.0037156 0.9998911 0.0037156 0.9998911 0.0037156 0.0001089 -0.0037156
32244 0.0001047 -0.0035550 0.9998953 0.0035550 0.9998953 0.0035550 0.0001047 -0.0035550
33721 0.0001007 -0.0034013 0.9998993 0.0034013 0.9998993 0.0034013 0.0001007 -0.0034013
35265 0.0000969 -0.0032543 0.9999031 0.0032543 0.9999031 0.0032543 0.0000969 -0.0032543
36880 0.0000932 -0.0031136 0.9999068 0.0031136 0.9999068 0.0031136 0.0000932 -0.0031136
38569 0.0000898 -0.0029790 0.9999102 0.0029790 0.9999102 0.0029790 0.0000898 -0.0029790
40335 0.0000864 -0.0028501 0.9999136 0.0028501 0.9999136 0.0028501 0.0000864 -0.0028501
42182 0.0000833 -0.0027269 0.9999167 0.0027269 0.9999167 0.0027269 0.0000833 -0.0027269
44113 0.0000802 -0.0026089 0.9999198 0.0026089 0.9999198 0.0026089 0.0000802 -0.0026089
46134 0.0000774 -0.0024960 0.9999226 0.0024960 0.9999226 0.0024960 0.0000774 -0.0024960
48246 0.0000746 -0.0023879 0.9999254 0.0023879 0.9999254 0.0023879 0.0000746 -0.0023879
50455 0.0000720 -0.0022845 0.9999280 0.0022845 0.9999280 0.0022845 0.0000720 -0.0022845
52766 0.0000696 -0.0021855 0.9999304 0.0021855 0.9999304 0.0021855 0.0000696 -0.0021855
55182 0.0000672 -0.0020908 0.9999328 0.0020908 0.9999328 0.0020908 0.0000672 -0.0020908
57709 0.0000650 -0.0020001 0.9999350 0.0020001 0.9999350 0.0020001 0.0000650 -0.0020001
60352 0.0000629 -0.0019134 0.9999371 0.0019134 0.9999371 0.0019134 0.0000629 -0.0019134
63115 0.0000610 -0.0018304 0.9999390 0.0018304 0.9999390 0.0018304 0.0000610 -0.0018304
66005 0.0000591 -0.0017509 0.9999409 0.0017509 0.9999409 0.0017509 0.0000591 -0.0017509
69028 0.0000573 -0.0016749 0.9999427 0.0016749 0.9999427 0.0016749 0.0000573 -0.0016749
72189 0.0000556 -0.0016021 0.9999444 0.0016021 0.9999444 0.0016021 0.0000556 -0.0016021
75495 0.0000540 -0.0015325 0.9999460 0.0015325 0.9999460 0.0015325 0.0000540 -0.0015325
78952 0.0000525 -0.0014659 0.9999475 0.0014659 0.9999475 0.0014659 0.0000525 -0.0014659
82567 0.0000511 -0.0014021 0.9999489 0.0014021 0.9999489 0.0014021 0.0000511 -0.0014021
86348 0.0000498 -0.0013411 0.9999502 0.0013411 0.9999502 0.0013411 0.0000498 -0.0013411
90302 0.0000485 -0.0012827 0.9999515 0.0012827 0.9999515 0.0012827 0.0000485 -0.0012827
94437 0.0000473 -0.0012268 0.9999527 0.0012268 0.9999527 0.0012268 0.0000473 -0.0012268
98762 0.0000461 -0.0011733 0.9999539 0.0011733 0.9999539 0.0011733 0.0000461 -0.0011733
103284 0.0000450 -0.0011222 0.9999550 0.0011222 0.9999550 0.0011222 0.0000450 -0.0011222
108014 0.0000440 -0.0010732 0.9999560 0.0010732 0.9999560 0.0010732 0.0000440 -0.0010732
112960 0.0000430 -0.0010263 0.9999570 0.0010263 0.9999570 0.0010263 0.0000430 -0.0010263
118133 0.0000421 -0.0009814 0.9999579 0.0009814 0.9999579 0.0009814 0.0000421 -0.0009814
123542 0.0000412 -0.0009385 0.9999588 0.0009385 0.9999588 0.0009385 0.0000412 -0.0009385
129199 0.0000403 -0.0008974 0.9999597 0.0008974 0.9999597 0.0008974 0.0000403 -0.0008974
135116 0.0000395 -0.0008580 0.9999605 0.0008580 0.9999605 0.0008580 0.0000395 -0.0008580
141303 0.0000387 -0.0008203 0.9999613 0.0008203 0.9999613 0.0008203 0.0000387 -0.0008203
147774 0.0000380 -0.0007843 0.9999620 0.0007843 0.9999620 0.0007843 0.0000380 -0.0007843
154540 0.0000372 -0.0007497 0.9999628 0.0007497 0.9999628 0.0007497 0.0000372 -0.0007497
161617 0.0000366 -0.0007166 0.9999634 0.0007166 0.9999634 0.0007166 0.0000366 -0.0007166
169018 0.0000359 -0.0006850 0.9999641 0.0006850 0.9999641 0.0006850 0.0000359 -0.0006850
176758 0.0000353 -0.0006546 0.9999647 0.0006546 0.9999647 0.0006546 0.0000353 -0.0006546
184852 0.0000347 -0.0006256 0.9999653 0.0006256 0.9999653 0.0006256 0.0000347 -0.0006256
193316 0.0000342 -0.0005977 0.9999658 0.0005977 0.9999658 0.0005977 0.0000342 -0.0005977
202169 0.0000336 -0.0005710 0.9999664 0.0005710 0.9999664 0.0005710 0.0000336 -0.0005710
211427 0.0000331 -0.0005455 0.9999669 0.0005455 0.9999669 0.0005455 0.0000331 -0.0005455
221108 0.0000326 -0.0005210 0.9999674 0.0005210 0.9999674 0.0005210 0.0000326 -0.0005210
231233 0.0000322 -0.0004975 0.9999678 0.0004975 0.9999678 0.0004975 0.0000322 -0.0004975
241822 0.0000318 -0.0004750 0.9999682 0.0004750 0.9999682 0.0004750 0.0000318 -0.0004750
252896 0.0000314 -0.0004534 0.9999686 0.0004534 0.9999686 0.0004534 0.0000314 -0.0004534
264476 0.0000310 -0.0004327 0.9999690 0.0004327 0.9999690 0.0004327 0.0000310 -0.0004327
276587 0.0000306 -0.0004129 0.9999694 0.0004129 0.9999694 0.0004129 0.0000306 -0.0004129
289253 0.0000303 -0.0003938 0.9999697 0.0003938 0.9999697 0.0003938 0.0000303 -0.0003938
302498 0.0000300 -0.0003755 0.9999700 0.0003755 0.9999700 0.0003755 0.0000300 -0.0003755
316350 0.0000297 -0.0003580 0.9999703 0.0003580 0.9999703 0.0003580 0.0000297 -0.0003580
330837 0.0000294 -0.0003412 0.9999706 0.0003412 0.9999706 0.0003412 0.0000294 -0.0003412
345986 0.0000292 -0.0003250 0.9999708 0.0003250 0.9999708 0.0003250 0.0000292 -0.0003250
361830 0.0000290 -0.0003095 0.9999710 0.0003095 0.9999710 0.0003095 0.0000290 -0.0003095
378399 0.0000288 -0.0002945 0.9999712 0.0002945 0.9999712 0.0002945 0.0000288 -0.0002945
395726 0.0000286 -0.0002802 0.9999714 0.0002802 0.9999714 0.0002802 0.0000286 -0.0002802
413847 0.0000284 -0.0002664 0.9999716 0.0002664 0.9999716 0.0002664 0.0000284 -0.0002664
432798 0.0000283 -0.0002531 0.9999717 0.0002531 0.9999717 0.0002531 0.0000283 -0.0002531
452617 0.0000282 -0.0002404 0.9999718 0.0002404 0.9999718 0.0002404 0.0000282 -0.0002404
473344 0.0000281 -0.0002281 0.9999719 0.0002281 0.9999719 0.0002281 0.0000281 -0.0002281
495019 0.0000280 -0.0002162 0.9999720 0.0002162 0.9999720 0.0002162 0.0000280 -0.0002162
517687 0.0000279 -0.0002048 0.9999721 0.0002048 0.9999721 0.0002048 0.0000279 -0.0002048
541393 0.0000279 -0.0001938 0.9999721 0.0001938 0.9999721 0.0001938 0.0000279 -0.0001938
566185 0.0000278 -0.0001832 0.9999722 0.0001832 0.9999722 0.0001832 0.0000278 -0.0001832
592111 0.0000278 -0.0001729 0.9999722 0.0001729 0.9999722 0.0001729 0.0000278 -0.0001729
619225 0.0000278 -0.0001630 0.9999722 0.0001630 0.9999722 0.0001630 0.0000278 -0.0001630
647581 0.0000279 -0.0001534 0.9999721 0.0001534 0.9999721 0.0001534 0.0000279 -0.0001534
677235 0.0000279 -0.0001441 0.9999721 0.0001441 0.9999721 0.0001441 0.0000279 -0.0001441
708247 0.0000280 -0.0001350 0.9999720 0.0001350 0.9999720 0.0001350 0.0000280 -0.0001350
740679 0.0000281 -0.0001263 0.9999719 0.0001263 0.9999719 0.0001263 0.0000281 -0.0001263
774597 0.0000282 -0.0001178 0.9999718 0.0001178 0.9999718 0.0001178 0.0000282 -0.0001178
810067 0.0000283 -0.0001095 0.9999717 0.0001095 0.9999717 0.0001095 0.0000283 -0.0001095
847162 0.0000284 -0.0001015 0.9999716 0.0001015 0.9999716 0.0001015 0.0000284 -0.0001015
885955 0.0000286 -0.0000936 0.9999714 0.0000936 0.9999714 0.0000936 0.0000286 -0.0000936
926525 0.0000288 -0.0000859 0.9999712 0.0000859 0.9999712 0.0000859 0.0000288 -0.0000859
968953 0.0000291 -0.0000784 0.9999709 0.0000784 0.9999709 0.0000784 0.0000291 -0.0000784
1013323 0.0000294 -0.0000711 0.9999706 0.0000711 0.9999706 0.0000711 0.0000294 -0.0000711
1059725 0.0000297 -0.0000638 0.9999703 0.0000638 0.9999703 0.0000638 0.0000297 -0.0000638
1108252 0.0000300 -0.0000567 0.9999700 0.0000567 0.9999700 0.0000567 0.0000300 -0.0000567
1159002 0.0000304 -0.0000497 0.9999696 0.0000497 0.9999696 0.0000497 0.0000304 -0.0000497
1212075 0.0000309 -0.0000428 0.9999691 0.0000428 0.9999691 0.0000428 0.0000309 -0.0000428
1267578 0.0000314 -0.0000360 0.9999686 0.0000360 0.9999686 0.0000360 0.0000314 -0.0000360
1325623 0.0000319 -0.0000292 0.9999681 0.0000292 0.9999681 0.0000292 0.0000319 -0.0000292
1386327 0.0000326 -0.0000225 0.9999674 0.0000225 0.9999674 0.0000225 0.0000326 -0.0000225
1449809 0.0000333 -0.0000158 0.9999667 0.0000158 0.9999667 0.0000158 0.0000333 -0.0000158
1516199 0.0000341 -0.0000091 0.9999659 0.0000091 0.9999659 0.0000091 0.0000341 -0.0000091
1585629 0.0000351 -0.0000024 0.9999649 0.0000024 0.9999649 0.0000024 0.0000351 -0.0000024
1658239 0.0000362 0.0000044 0.9999638 -0.0000044 0.9999638 -0.0000044 0.0000362 0.0000044
1734173 0.0000374 0.0000111 0.9999626 -0.0000111 0.9999626 -0.0000111 0.0000374 0.0000111
1813585 0.0000389 0.0000179 0.9999611 -0.0000179 0.9999611 -0.0000179 0.0000389 0.0000179
1896632 0.0000405 0.0000248 0.9999595 -0.0000248 0.9999595 -0.0000248 0.0000405 0.0000248
1983483 0.0000425 0.0000317 0.9999575 -0.0000317 0.9999575 -0.0000317 0.0000425 0.0000317
2074311 0.0000448 0.0000387 0.9999552 -0.0000387 0.9999552 -0.0000387 0.0000448 0.0000387
