!Murata Part Number: GRM21BZ71H475ME15
!These Parameters are Measured in Series Mode Connection
!Data Generated on Mar 30, 2021
!       o--ll--o
!Port1            Port2
!       o------o
!Operation Temp=25[degC], DC Bias Voltage=0[V]
!Freq. Start=100[Hz] Stop=6[GHz] 401[Steps]
# Hz S RI R 50
!Freq.(Hz) S11(Real) S11(Imag) S21(Real) S21(Imag) S12(Real) S12(Imag) S22(Real) S22(Imag)
100 0.9488737 -0.2124652 0.0511263 0.2124652 0.0511263 0.2124652 0.9488737 -0.2124652
105 0.9445745 -0.2210787 0.0554255 0.2210787 0.0554255 0.2210787 0.9445745 -0.2210787
109 0.9399244 -0.2299503 0.0600756 0.2299503 0.0600756 0.2299503 0.9399244 -0.2299503
114 0.9348987 -0.2390752 0.0651013 0.2390752 0.0651013 0.2390752 0.9348987 -0.2390752
120 0.9294719 -0.2484462 0.0705281 0.2484462 0.0705281 0.2484462 0.9294719 -0.2484462
125 0.9236179 -0.2580543 0.0763821 0.2580543 0.0763821 0.2580543 0.9236179 -0.2580543
131 0.9173096 -0.2678878 0.0826904 0.2678878 0.0826904 0.2678878 0.9173096 -0.2678878
137 0.9105196 -0.2779324 0.0894804 0.2779324 0.0894804 0.2779324 0.9105196 -0.2779324
143 0.9032201 -0.2881710 0.0967799 0.2881710 0.0967799 0.2881710 0.9032201 -0.2881710
150 0.8953835 -0.2985835 0.1046165 0.2985835 0.1046165 0.2985835 0.8953835 -0.2985835
156 0.8869821 -0.3091462 0.1130179 0.3091462 0.1130179 0.3091462 0.8869821 -0.3091462
164 0.8779890 -0.3198324 0.1220110 0.3198324 0.1220110 0.3198324 0.8779890 -0.3198324
171 0.8683784 -0.3306114 0.1316216 0.3306114 0.1316216 0.3306114 0.8683784 -0.3306114
179 0.8581256 -0.3414491 0.1418744 0.3414491 0.1418744 0.3414491 0.8581256 -0.3414491
187 0.8472079 -0.3523075 0.1527921 0.3523075 0.1527921 0.3523075 0.8472079 -0.3523075
196 0.8356050 -0.3631449 0.1643950 0.3631449 0.1643950 0.3631449 0.8356050 -0.3631449
205 0.8232994 -0.3739156 0.1767006 0.3739156 0.1767006 0.3739156 0.8232994 -0.3739156
214 0.8102773 -0.3845708 0.1897227 0.3845708 0.1897227 0.3845708 0.8102773 -0.3845708
224 0.7965286 -0.3950579 0.2034714 0.3950579 0.2034714 0.3950579 0.7965286 -0.3950579
234 0.7820479 -0.4053214 0.2179521 0.4053214 0.2179521 0.4053214 0.7820479 -0.4053214
245 0.7668353 -0.4153033 0.2331647 0.4153033 0.2331647 0.4153033 0.7668353 -0.4153033
256 0.7508961 -0.4249431 0.2491039 0.4249431 0.2491039 0.4249431 0.7508961 -0.4249431
268 0.7342421 -0.4341791 0.2657579 0.4341791 0.2657579 0.4341791 0.7342421 -0.4341791
280 0.7168918 -0.4429486 0.2831082 0.4429486 0.2831082 0.4429486 0.7168918 -0.4429486
293 0.6988703 -0.4511888 0.3011297 0.4511888 0.3011297 0.4511888 0.6988703 -0.4511888
306 0.6802103 -0.4588379 0.3197897 0.4588379 0.3197897 0.4588379 0.6802103 -0.4588379
320 0.6609514 -0.4658359 0.3390486 0.4658359 0.3390486 0.4658359 0.6609514 -0.4658359
335 0.6411406 -0.4721257 0.3588594 0.4721257 0.3588594 0.4721257 0.6411406 -0.4721257
350 0.6208319 -0.4776537 0.3791681 0.4776537 0.3791681 0.4776537 0.6208319 -0.4776537
366 0.6000859 -0.4823715 0.3999141 0.4823715 0.3999141 0.4823715 0.6000859 -0.4823715
383 0.5789691 -0.4862363 0.4210309 0.4862363 0.4210309 0.4862363 0.5789691 -0.4862363
401 0.5575536 -0.4892122 0.4424464 0.4892122 0.4424464 0.4892122 0.5575536 -0.4892122
419 0.5359159 -0.4912708 0.4640841 0.4912708 0.4640841 0.4912708 0.5359159 -0.4912708
438 0.5141357 -0.4923916 0.4858643 0.4923916 0.4858643 0.4923916 0.5141357 -0.4923916
458 0.4922953 -0.4925631 0.5077047 0.4925631 0.5077047 0.4925631 0.4922953 -0.4925631
479 0.4704781 -0.4917827 0.5295219 0.4917827 0.5295219 0.4917827 0.4704781 -0.4917827
501 0.4487672 -0.4900566 0.5512328 0.4900566 0.5512328 0.4900566 0.4487672 -0.4900566
524 0.4272443 -0.4874004 0.5727557 0.4874004 0.5727557 0.4874004 0.4272443 -0.4874004
548 0.4059886 -0.4838380 0.5940114 0.4838380 0.5940114 0.4838380 0.4059886 -0.4838380
573 0.3850755 -0.4794016 0.6149245 0.4794016 0.6149245 0.4794016 0.3850755 -0.4794016
600 0.3645755 -0.4741307 0.6354245 0.4741307 0.6354245 0.4741307 0.3645755 -0.4741307
627 0.3445533 -0.4680718 0.6554467 0.4680718 0.6554467 0.4680718 0.3445533 -0.4680718
656 0.3250676 -0.4612767 0.6749324 0.4612767 0.6749324 0.4612767 0.3250676 -0.4612767
686 0.3061695 -0.4538020 0.6938305 0.4538020 0.6938305 0.4538020 0.3061695 -0.4538020
717 0.2879032 -0.4457079 0.7120968 0.4457079 0.7120968 0.4457079 0.2879032 -0.4457079
750 0.2703052 -0.4370571 0.7296948 0.4370571 0.7296948 0.4370571 0.2703052 -0.4370571
784 0.2534043 -0.4279137 0.7465957 0.4279137 0.7465957 0.4279137 0.2534043 -0.4279137
820 0.2372220 -0.4183423 0.7627780 0.4183423 0.7627780 0.4183423 0.2372220 -0.4183423
858 0.2217725 -0.4084070 0.7782275 0.4084070 0.7782275 0.4084070 0.2217725 -0.4084070
897 0.2070636 -0.3981705 0.7929364 0.3981705 0.7929364 0.3981705 0.2070636 -0.3981705
938 0.1930965 -0.3876934 0.8069035 0.3876934 0.8069035 0.3876934 0.1930965 -0.3876934
981 0.1798669 -0.3770340 0.8201331 0.3770340 0.8201331 0.3770340 0.1798669 -0.3770340
1026 0.1673653 -0.3662469 0.8326347 0.3662469 0.8326347 0.3662469 0.1673653 -0.3662469
1073 0.1555779 -0.3553836 0.8444221 0.3553836 0.8444221 0.3553836 0.1555779 -0.3553836
1122 0.1444871 -0.3444917 0.8555129 0.3444917 0.8555129 0.3444917 0.1444871 -0.3444917
1174 0.1340720 -0.3336148 0.8659280 0.3336148 0.8659280 0.3336148 0.1340720 -0.3336148
1227 0.1243092 -0.3227923 0.8756908 0.3227923 0.8756908 0.3227923 0.1243092 -0.3227923
1283 0.1151734 -0.3120599 0.8848266 0.3120599 0.8848266 0.3120599 0.1151734 -0.3120599
1342 0.1066377 -0.3014492 0.8933623 0.3014492 0.8933623 0.3014492 0.1066377 -0.3014492
1404 0.0986742 -0.2909877 0.9013258 0.2909877 0.9013258 0.2909877 0.0986742 -0.2909877
1468 0.0912545 -0.2806997 0.9087455 0.2806997 0.9087455 0.2806997 0.0912545 -0.2806997
1535 0.0843498 -0.2706055 0.9156502 0.2706055 0.9156502 0.2706055 0.0843498 -0.2706055
1606 0.0779316 -0.2607227 0.9220684 0.2607227 0.9220684 0.2607227 0.0779316 -0.2607227
1679 0.0719717 -0.2510653 0.9280283 0.2510653 0.9280283 0.2510653 0.0719717 -0.2510653
1756 0.0664425 -0.2416450 0.9335575 0.2416450 0.9335575 0.2416450 0.0664425 -0.2416450
1836 0.0613172 -0.2324708 0.9386828 0.2324708 0.9386828 0.2324708 0.0613172 -0.2324708
1920 0.0565699 -0.2235493 0.9434301 0.2235493 0.9434301 0.2235493 0.0565699 -0.2235493
2008 0.0521757 -0.2148854 0.9478243 0.2148854 0.9478243 0.2148854 0.0521757 -0.2148854
2100 0.0481109 -0.2064817 0.9518891 0.2064817 0.9518891 0.2064817 0.0481109 -0.2064817
2196 0.0443529 -0.1983397 0.9556471 0.1983397 0.9556471 0.1983397 0.0443529 -0.1983397
2297 0.0408803 -0.1904592 0.9591197 0.1904592 0.9591197 0.1904592 0.0408803 -0.1904592
2402 0.0376728 -0.1828389 0.9623272 0.1828389 0.9623272 0.1828389 0.0376728 -0.1828389
2512 0.0347115 -0.1754764 0.9652885 0.1754764 0.9652885 0.1754764 0.0347115 -0.1754764
2627 0.0319786 -0.1683686 0.9680214 0.1683686 0.9680214 0.1683686 0.0319786 -0.1683686
2748 0.0294572 -0.1615114 0.9705428 0.1615114 0.9705428 0.1615114 0.0294572 -0.1615114
2873 0.0271318 -0.1549004 0.9728682 0.1549004 0.9728682 0.1549004 0.0271318 -0.1549004
3005 0.0249878 -0.1485304 0.9750122 0.1485304 0.9750122 0.1485304 0.0249878 -0.1485304
3143 0.0230116 -0.1423960 0.9769884 0.1423960 0.9769884 0.1423960 0.0230116 -0.1423960
3287 0.0211907 -0.1364915 0.9788093 0.1364915 0.9788093 0.1364915 0.0211907 -0.1364915
3437 0.0195132 -0.1308109 0.9804868 0.1308109 0.9804868 0.1308109 0.0195132 -0.1308109
3594 0.0179682 -0.1253480 0.9820318 0.1253480 0.9820318 0.1253480 0.0179682 -0.1253480
3759 0.0165458 -0.1200965 0.9834542 0.1200965 0.9834542 0.1200965 0.0165458 -0.1200965
3931 0.0152364 -0.1150502 0.9847636 0.1150502 0.9847636 0.1150502 0.0152364 -0.1150502
4111 0.0140314 -0.1102026 0.9859686 0.1102026 0.9859686 0.1102026 0.0140314 -0.1102026
4299 0.0129228 -0.1055475 0.9870772 0.1055475 0.9870772 0.1055475 0.0129228 -0.1055475
4496 0.0119030 -0.1010785 0.9880970 0.1010785 0.9880970 0.1010785 0.0119030 -0.1010785
4702 0.0109651 -0.0967895 0.9890349 0.0967895 0.9890349 0.0967895 0.0109651 -0.0967895
4918 0.0101029 -0.0926741 0.9898971 0.0926741 0.9898971 0.0926741 0.0101029 -0.0926741
5143 0.0093102 -0.0887264 0.9906898 0.0887264 0.9906898 0.0887264 0.0093102 -0.0887264
5378 0.0085817 -0.0849404 0.9914183 0.0849404 0.9914183 0.0849404 0.0085817 -0.0849404
5625 0.0079123 -0.0813103 0.9920877 0.0813103 0.9920877 0.0813103 0.0079123 -0.0813103
5882 0.0072973 -0.0778304 0.9927027 0.0778304 0.9927027 0.0778304 0.0072973 -0.0778304
6151 0.0067323 -0.0744950 0.9932677 0.0744950 0.9932677 0.0744950 0.0067323 -0.0744950
6433 0.0062133 -0.0712988 0.9937867 0.0712988 0.9937867 0.0712988 0.0062133 -0.0712988
6728 0.0057367 -0.0682365 0.9942633 0.0682365 0.9942633 0.0682365 0.0057367 -0.0682365
7036 0.0052989 -0.0653029 0.9947011 0.0653029 0.9947011 0.0653029 0.0052989 -0.0653029
7358 0.0048968 -0.0624931 0.9951032 0.0624931 0.9951032 0.0624931 0.0048968 -0.0624931
7695 0.0045276 -0.0598021 0.9954724 0.0598021 0.9954724 0.0598021 0.0045276 -0.0598021
8047 0.0041884 -0.0572253 0.9958116 0.0572253 0.9958116 0.0572253 0.0041884 -0.0572253
8416 0.0038769 -0.0547581 0.9961231 0.0547581 0.9961231 0.0547581 0.0038769 -0.0547581
8801 0.0035906 -0.0523961 0.9964094 0.0523961 0.9964094 0.0523961 0.0035906 -0.0523961
9204 0.0033276 -0.0501351 0.9966724 0.0501351 0.9966724 0.0501351 0.0033276 -0.0501351
9626 0.0030858 -0.0479709 0.9969142 0.0479709 0.9969142 0.0479709 0.0030858 -0.0479709
10066 0.0028635 -0.0458996 0.9971365 0.0458996 0.9971365 0.0458996 0.0028635 -0.0458996
10527 0.0026591 -0.0439173 0.9973409 0.0439173 0.9973409 0.0439173 0.0026591 -0.0439173
11009 0.0024709 -0.0420203 0.9975291 0.0420203 0.9975291 0.0420203 0.0024709 -0.0420203
11514 0.0022976 -0.0402051 0.9977024 0.0402051 0.9977024 0.0402051 0.0022976 -0.0402051
12041 0.0021380 -0.0384682 0.9978620 0.0384682 0.9978620 0.0384682 0.0021380 -0.0384682
12592 0.0019909 -0.0368063 0.9980091 0.0368063 0.9980091 0.0368063 0.0019909 -0.0368063
13169 0.0018552 -0.0352161 0.9981448 0.0352161 0.9981448 0.0352161 0.0018552 -0.0352161
13772 0.0017299 -0.0336948 0.9982701 0.0336948 0.9982701 0.0336948 0.0017299 -0.0336948
14402 0.0016142 -0.0322392 0.9983858 0.0322392 0.9983858 0.0322392 0.0016142 -0.0322392
15062 0.0015071 -0.0308466 0.9984929 0.0308466 0.9984929 0.0308466 0.0015071 -0.0308466
15752 0.0014081 -0.0295143 0.9985919 0.0295143 0.9985919 0.0295143 0.0014081 -0.0295143
16473 0.0013163 -0.0282396 0.9986837 0.0282396 0.9986837 0.0282396 0.0013163 -0.0282396
17227 0.0012313 -0.0270201 0.9987687 0.0270201 0.9987687 0.0270201 0.0012313 -0.0270201
18016 0.0011523 -0.0258532 0.9988477 0.0258532 0.9988477 0.0258532 0.0011523 -0.0258532
18841 0.0010791 -0.0247369 0.9989209 0.0247369 0.9989209 0.0247369 0.0010791 -0.0247369
19704 0.0010109 -0.0236687 0.9989891 0.0236687 0.9989891 0.0236687 0.0010109 -0.0236687
20606 0.0009476 -0.0226467 0.9990524 0.0226467 0.9990524 0.0226467 0.0009476 -0.0226467
21550 0.0008886 -0.0216688 0.9991114 0.0216688 0.9991114 0.0216688 0.0008886 -0.0216688
22537 0.0008337 -0.0207331 0.9991663 0.0207331 0.9991663 0.0207331 0.0008337 -0.0207331
23569 0.0007825 -0.0198378 0.9992175 0.0198378 0.9992175 0.0198378 0.0007825 -0.0198378
24648 0.0007348 -0.0189810 0.9992652 0.0189810 0.9992652 0.0189810 0.0007348 -0.0189810
25777 0.0006903 -0.0181611 0.9993097 0.0181611 0.9993097 0.0181611 0.0006903 -0.0181611
26957 0.0006488 -0.0173765 0.9993512 0.0173765 0.9993512 0.0173765 0.0006488 -0.0173765
28191 0.0006101 -0.0166257 0.9993899 0.0166257 0.9993899 0.0166257 0.0006101 -0.0166257
29482 0.0005740 -0.0159072 0.9994260 0.0159072 0.9994260 0.0159072 0.0005740 -0.0159072
30832 0.0005403 -0.0152196 0.9994597 0.0152196 0.9994597 0.0152196 0.0005403 -0.0152196
32244 0.0005089 -0.0145616 0.9994911 0.0145616 0.9994911 0.0145616 0.0005089 -0.0145616
33721 0.0004796 -0.0139319 0.9995204 0.0139319 0.9995204 0.0139319 0.0004796 -0.0139319
35265 0.0004522 -0.0133293 0.9995478 0.0133293 0.9995478 0.0133293 0.0004522 -0.0133293
36880 0.0004268 -0.0127526 0.9995732 0.0127526 0.9995732 0.0127526 0.0004268 -0.0127526
38569 0.0004030 -0.0122007 0.9995970 0.0122007 0.9995970 0.0122007 0.0004030 -0.0122007
40335 0.0003809 -0.0116726 0.9996191 0.0116726 0.9996191 0.0116726 0.0003809 -0.0116726
42182 0.0003603 -0.0111673 0.9996397 0.0111673 0.9996397 0.0111673 0.0003603 -0.0111673
44113 0.0003411 -0.0106837 0.9996589 0.0106837 0.9996589 0.0106837 0.0003411 -0.0106837
46134 0.0003232 -0.0102210 0.9996768 0.0102210 0.9996768 0.0102210 0.0003232 -0.0102210
48246 0.0003066 -0.0097783 0.9996934 0.0097783 0.9996934 0.0097783 0.0003066 -0.0097783
50455 0.0002911 -0.0093547 0.9997089 0.0093547 0.9997089 0.0093547 0.0002911 -0.0093547
52766 0.0002766 -0.0089494 0.9997234 0.0089494 0.9997234 0.0089494 0.0002766 -0.0089494
55182 0.0002632 -0.0085616 0.9997368 0.0085616 0.9997368 0.0085616 0.0002632 -0.0085616
57709 0.0002507 -0.0081907 0.9997493 0.0081907 0.9997493 0.0081907 0.0002507 -0.0081907
60352 0.0002390 -0.0078358 0.9997610 0.0078358 0.9997610 0.0078358 0.0002390 -0.0078358
63115 0.0002281 -0.0074962 0.9997719 0.0074962 0.9997719 0.0074962 0.0002281 -0.0074962
66005 0.0002179 -0.0071714 0.9997821 0.0071714 0.9997821 0.0071714 0.0002179 -0.0071714
69028 0.0002084 -0.0068607 0.9997916 0.0068607 0.9997916 0.0068607 0.0002084 -0.0068607
72189 0.0001995 -0.0065635 0.9998005 0.0065635 0.9998005 0.0065635 0.0001995 -0.0065635
75495 0.0001911 -0.0062792 0.9998089 0.0062792 0.9998089 0.0062792 0.0001911 -0.0062792
78952 0.0001833 -0.0060072 0.9998167 0.0060072 0.9998167 0.0060072 0.0001833 -0.0060072
82567 0.0001759 -0.0057471 0.9998241 0.0057471 0.9998241 0.0057471 0.0001759 -0.0057471
86348 0.0001690 -0.0054982 0.9998310 0.0054982 0.9998310 0.0054982 0.0001690 -0.0054982
90302 0.0001624 -0.0052602 0.9998376 0.0052602 0.9998376 0.0052602 0.0001624 -0.0052602
94437 0.0001563 -0.0050325 0.9998437 0.0050325 0.9998437 0.0050325 0.0001563 -0.0050325
98762 0.0001504 -0.0048146 0.9998496 0.0048146 0.9998496 0.0048146 0.0001504 -0.0048146
103284 0.0001449 -0.0046063 0.9998551 0.0046063 0.9998551 0.0046063 0.0001449 -0.0046063
108014 0.0001396 -0.0044070 0.9998604 0.0044070 0.9998604 0.0044070 0.0001396 -0.0044070
112960 0.0001346 -0.0042163 0.9998654 0.0042163 0.9998654 0.0042163 0.0001346 -0.0042163
118133 0.0001298 -0.0040338 0.9998702 0.0040338 0.9998702 0.0040338 0.0001298 -0.0040338
123542 0.0001252 -0.0038593 0.9998748 0.0038593 0.9998748 0.0038593 0.0001252 -0.0038593
129199 0.0001208 -0.0036923 0.9998792 0.0036923 0.9998792 0.0036923 0.0001208 -0.0036923
135116 0.0001166 -0.0035325 0.9998834 0.0035325 0.9998834 0.0035325 0.0001166 -0.0035325
141303 0.0001126 -0.0033796 0.9998874 0.0033796 0.9998874 0.0033796 0.0001126 -0.0033796
147774 0.0001088 -0.0032333 0.9998912 0.0032333 0.9998912 0.0032333 0.0001088 -0.0032333
154540 0.0001051 -0.0030933 0.9998949 0.0030933 0.9998949 0.0030933 0.0001051 -0.0030933
161617 0.0001016 -0.0029593 0.9998984 0.0029593 0.9998984 0.0029593 0.0001016 -0.0029593
169018 0.0000982 -0.0028311 0.9999018 0.0028311 0.9999018 0.0028311 0.0000982 -0.0028311
176758 0.0000949 -0.0027084 0.9999051 0.0027084 0.9999051 0.0027084 0.0000949 -0.0027084
184852 0.0000918 -0.0025909 0.9999082 0.0025909 0.9999082 0.0025909 0.0000918 -0.0025909
193316 0.0000888 -0.0024784 0.9999112 0.0024784 0.9999112 0.0024784 0.0000888 -0.0024784
202169 0.0000860 -0.0023708 0.9999140 0.0023708 0.9999140 0.0023708 0.0000860 -0.0023708
211427 0.0000832 -0.0022677 0.9999168 0.0022677 0.9999168 0.0022677 0.0000832 -0.0022677
221108 0.0000806 -0.0021690 0.9999194 0.0021690 0.9999194 0.0021690 0.0000806 -0.0021690
231233 0.0000781 -0.0020745 0.9999219 0.0020745 0.9999219 0.0020745 0.0000781 -0.0020745
241822 0.0000758 -0.0019841 0.9999242 0.0019841 0.9999242 0.0019841 0.0000758 -0.0019841
252896 0.0000735 -0.0018975 0.9999265 0.0018975 0.9999265 0.0018975 0.0000735 -0.0018975
264476 0.0000714 -0.0018145 0.9999286 0.0018145 0.9999286 0.0018145 0.0000714 -0.0018145
276587 0.0000693 -0.0017351 0.9999307 0.0017351 0.9999307 0.0017351 0.0000693 -0.0017351
289253 0.0000674 -0.0016591 0.9999326 0.0016591 0.9999326 0.0016591 0.0000674 -0.0016591
302498 0.0000656 -0.0015863 0.9999344 0.0015863 0.9999344 0.0015863 0.0000656 -0.0015863
316350 0.0000638 -0.0015165 0.9999362 0.0015165 0.9999362 0.0015165 0.0000638 -0.0015165
330837 0.0000622 -0.0014497 0.9999378 0.0014497 0.9999378 0.0014497 0.0000622 -0.0014497
345986 0.0000607 -0.0013857 0.9999393 0.0013857 0.9999393 0.0013857 0.0000607 -0.0013857
361830 0.0000592 -0.0013244 0.9999408 0.0013244 0.9999408 0.0013244 0.0000592 -0.0013244
378399 0.0000578 -0.0012657 0.9999422 0.0012657 0.9999422 0.0012657 0.0000578 -0.0012657
395726 0.0000565 -0.0012095 0.9999435 0.0012095 0.9999435 0.0012095 0.0000565 -0.0012095
413847 0.0000553 -0.0011556 0.9999447 0.0011556 0.9999447 0.0011556 0.0000553 -0.0011556
432798 0.0000541 -0.0011040 0.9999459 0.0011040 0.9999459 0.0011040 0.0000541 -0.0011040
452617 0.0000531 -0.0010545 0.9999469 0.0010545 0.9999469 0.0010545 0.0000531 -0.0010545
473344 0.0000520 -0.0010071 0.9999480 0.0010071 0.9999480 0.0010071 0.0000520 -0.0010071
495019 0.0000511 -0.0009616 0.9999489 0.0009616 0.9999489 0.0009616 0.0000511 -0.0009616
517687 0.0000502 -0.0009181 0.9999498 0.0009181 0.9999498 0.0009181 0.0000502 -0.0009181
541393 0.0000494 -0.0008763 0.9999506 0.0008763 0.9999506 0.0008763 0.0000494 -0.0008763
566185 0.0000486 -0.0008362 0.9999514 0.0008362 0.9999514 0.0008362 0.0000486 -0.0008362
592111 0.0000479 -0.0007978 0.9999521 0.0007978 0.9999521 0.0007978 0.0000479 -0.0007978
619225 0.0000472 -0.0007610 0.9999528 0.0007610 0.9999528 0.0007610 0.0000472 -0.0007610
647581 0.0000466 -0.0007256 0.9999534 0.0007256 0.9999534 0.0007256 0.0000466 -0.0007256
677235 0.0000460 -0.0006917 0.9999540 0.0006917 0.9999540 0.0006917 0.0000460 -0.0006917
708247 0.0000455 -0.0006591 0.9999545 0.0006591 0.9999545 0.0006591 0.0000455 -0.0006591
740679 0.0000450 -0.0006278 0.9999550 0.0006278 0.9999550 0.0006278 0.0000450 -0.0006278
774597 0.0000445 -0.0005977 0.9999555 0.0005977 0.9999555 0.0005977 0.0000445 -0.0005977
810067 0.0000441 -0.0005689 0.9999559 0.0005689 0.9999559 0.0005689 0.0000441 -0.0005689
847162 0.0000438 -0.0005411 0.9999562 0.0005411 0.9999562 0.0005411 0.0000438 -0.0005411
885955 0.0000434 -0.0005144 0.9999566 0.0005144 0.9999566 0.0005144 0.0000434 -0.0005144
926525 0.0000432 -0.0004887 0.9999568 0.0004887 0.9999568 0.0004887 0.0000432 -0.0004887
968953 0.0000429 -0.0004640 0.9999571 0.0004640 0.9999571 0.0004640 0.0000429 -0.0004640
1013323 0.0000427 -0.0004402 0.9999573 0.0004402 0.9999573 0.0004402 0.0000427 -0.0004402
1059725 0.0000425 -0.0004173 0.9999575 0.0004173 0.9999575 0.0004173 0.0000425 -0.0004173
1108252 0.0000424 -0.0003952 0.9999576 0.0003952 0.9999576 0.0003952 0.0000424 -0.0003952
1159002 0.0000422 -0.0003738 0.9999578 0.0003738 0.9999578 0.0003738 0.0000422 -0.0003738
1212075 0.0000422 -0.0003532 0.9999578 0.0003532 0.9999578 0.0003532 0.0000422 -0.0003532
1267578 0.0000421 -0.0003333 0.9999579 0.0003333 0.9999579 0.0003333 0.0000421 -0.0003333
1325623 0.0000421 -0.0003141 0.9999579 0.0003141 0.9999579 0.0003141 0.0000421 -0.0003141
1386327 0.0000421 -0.0002955 0.9999579 0.0002955 0.9999579 0.0002955 0.0000421 -0.0002955
1449809 0.0000422 -0.0002774 0.9999578 0.0002774 0.9999578 0.0002774 0.0000422 -0.0002774
1516199 0.0000423 -0.0002599 0.9999577 0.0002599 0.9999577 0.0002599 0.0000423 -0.0002599
1585629 0.0000424 -0.0002430 0.9999576 0.0002430 0.9999576 0.0002430 0.0000424 -0.0002430
1658239 0.0000426 -0.0002265 0.9999574 0.0002265 0.9999574 0.0002265 0.0000426 -0.0002265
1734173 0.0000428 -0.0002104 0.9999572 0.0002104 0.9999572 0.0002104 0.0000428 -0.0002104
1813585 0.0000431 -0.0001947 0.9999569 0.0001947 0.9999569 0.0001947 0.0000431 -0.0001947
1896632 0.0000434 -0.0001794 0.9999566 0.0001794 0.9999566 0.0001794 0.0000434 -0.0001794
1983483 0.0000438 -0.0001645 0.9999562 0.0001645 0.9999562 0.0001645 0.0000438 -0.0001645
2074311 0.0000442 -0.0001499 0.9999558 0.0001499 0.9999558 0.0001499 0.0000442 -0.0001499
