!Murata Part Number: GRM21BC80G106KE01
!These Parameters are Measured in Series Mode Connection
!Data Generated on Mar 30, 2021
!       o--ll--o
!Port1            Port2
!       o------o
!Operation Temp=25[degC], DC Bias Voltage=0[V]
!Freq. Start=100[Hz] Stop=6[GHz] 401[Steps]
# Hz S RI R 50
!Freq.(Hz) S11(Real) S11(Imag) S21(Real) S21(Imag) S12(Real) S12(Imag) S22(Real) S22(Imag)
100 0.7519628 -0.4289306 0.2480372 0.4289306 0.2480372 0.4289306 0.7519628 -0.4289306
105 0.7350740 -0.4383544 0.2649260 0.4383544 0.2649260 0.4383544 0.7350740 -0.4383544
109 0.7174633 -0.4472969 0.2825367 0.4472969 0.2825367 0.4472969 0.7174633 -0.4472969
114 0.6991571 -0.4556914 0.3008429 0.4556914 0.3008429 0.4556914 0.6991571 -0.4556914
120 0.6801899 -0.4634722 0.3198101 0.4634722 0.3198101 0.4634722 0.6801899 -0.4634722
125 0.6606041 -0.4705754 0.3393959 0.4705754 0.3393959 0.4705754 0.6606041 -0.4705754
131 0.6404499 -0.4769407 0.3595501 0.4769407 0.3595501 0.4769407 0.6404499 -0.4769407
137 0.6197853 -0.4825118 0.3802147 0.4825118 0.3802147 0.4825118 0.6197853 -0.4825118
143 0.5986752 -0.4872382 0.4013248 0.4872382 0.4013248 0.4872382 0.5986752 -0.4872382
150 0.5771912 -0.4910757 0.4228088 0.4910757 0.4228088 0.4910757 0.5771912 -0.4910757
156 0.5554104 -0.4939879 0.4445896 0.4939879 0.4445896 0.4939879 0.5554104 -0.4939879
164 0.5334141 -0.4959466 0.4665859 0.4959466 0.4665859 0.4959466 0.5334141 -0.4959466
171 0.5112873 -0.4969329 0.4887127 0.4969329 0.4887127 0.4969329 0.5112873 -0.4969329
179 0.4891169 -0.4969372 0.5108831 0.4969372 0.5108831 0.4969372 0.4891169 -0.4969372
187 0.4669903 -0.4959595 0.5330097 0.4959595 0.5330097 0.4959595 0.4669903 -0.4959595
196 0.4449943 -0.4940098 0.5550057 0.4940098 0.5550057 0.4940098 0.4449943 -0.4940098
205 0.4232136 -0.4911073 0.5767864 0.4911073 0.5767864 0.4911073 0.4232136 -0.4911073
214 0.4017295 -0.4872803 0.5982705 0.4872803 0.5982705 0.4872803 0.4017295 -0.4872803
224 0.3806187 -0.4825652 0.6193813 0.4825652 0.6193813 0.4825652 0.3806187 -0.4825652
234 0.3599523 -0.4770062 0.6400477 0.4770062 0.6400477 0.4770062 0.3599523 -0.4770062
245 0.3397951 -0.4706538 0.6602049 0.4706538 0.6602049 0.4706538 0.3397951 -0.4706538
256 0.3202046 -0.4635639 0.6797954 0.4635639 0.6797954 0.4635639 0.3202046 -0.4635639
268 0.3012309 -0.4557968 0.6987691 0.4557968 0.6987691 0.4557968 0.3012309 -0.4557968
280 0.2829163 -0.4474157 0.7170837 0.4474157 0.7170837 0.4474157 0.2829163 -0.4474157
293 0.2652951 -0.4384861 0.7347049 0.4384861 0.7347049 0.4384861 0.2652951 -0.4384861
306 0.2483937 -0.4290742 0.7516063 0.4290742 0.7516063 0.4290742 0.2483937 -0.4290742
320 0.2322312 -0.4192463 0.7677688 0.4192463 0.7677688 0.4192463 0.2322312 -0.4192463
335 0.2168193 -0.4090677 0.7831807 0.4090677 0.7831807 0.4090677 0.2168193 -0.4090677
350 0.2021633 -0.3986017 0.7978367 0.3986017 0.7978367 0.3986017 0.2021633 -0.3986017
366 0.1882621 -0.3879096 0.8117379 0.3879096 0.8117379 0.3879096 0.1882621 -0.3879096
383 0.1751092 -0.3770492 0.8248908 0.3770492 0.8248908 0.3770492 0.1751092 -0.3770492
401 0.1626933 -0.3660754 0.8373067 0.3660754 0.8373067 0.3660754 0.1626933 -0.3660754
419 0.1509988 -0.3550390 0.8490012 0.3550390 0.8490012 0.3550390 0.1509988 -0.3550390
438 0.1400067 -0.3439870 0.8599933 0.3439870 0.8599933 0.3439870 0.1400067 -0.3439870
458 0.1296949 -0.3329624 0.8703051 0.3329624 0.8703051 0.3329624 0.1296949 -0.3329624
479 0.1200389 -0.3220039 0.8799611 0.3220039 0.8799611 0.3220039 0.1200389 -0.3220039
501 0.1110125 -0.3111465 0.8889875 0.3111465 0.8889875 0.3111465 0.1110125 -0.3111465
524 0.1025883 -0.3004209 0.8974117 0.3004209 0.8974117 0.3004209 0.1025883 -0.3004209
548 0.0947377 -0.2898543 0.9052623 0.2898543 0.9052623 0.2898543 0.0947377 -0.2898543
573 0.0874320 -0.2794700 0.9125680 0.2794700 0.9125680 0.2794700 0.0874320 -0.2794700
600 0.0806421 -0.2692882 0.9193579 0.2692882 0.9193579 0.2692882 0.0806421 -0.2692882
627 0.0743392 -0.2593257 0.9256608 0.2593257 0.9256608 0.2593257 0.0743392 -0.2593257
656 0.0684949 -0.2495963 0.9315051 0.2495963 0.9315051 0.2495963 0.0684949 -0.2495963
686 0.0630815 -0.2401113 0.9369185 0.2401113 0.9369185 0.2401113 0.0630815 -0.2401113
717 0.0580719 -0.2308794 0.9419281 0.2308794 0.9419281 0.2308794 0.0580719 -0.2308794
750 0.0534400 -0.2219070 0.9465600 0.2219070 0.9465600 0.2219070 0.0534400 -0.2219070
784 0.0491609 -0.2131988 0.9508391 0.2131988 0.9508391 0.2131988 0.0491609 -0.2131988
820 0.0452105 -0.2047572 0.9547895 0.2047572 0.9547895 0.2047572 0.0452105 -0.2047572
858 0.0415661 -0.1965836 0.9584339 0.1965836 0.9584339 0.1965836 0.0415661 -0.1965836
897 0.0382060 -0.1886776 0.9617940 0.1886776 0.9617940 0.1886776 0.0382060 -0.1886776
938 0.0351098 -0.1810378 0.9648902 0.1810378 0.9648902 0.1810378 0.0351098 -0.1810378
981 0.0322581 -0.1736616 0.9677419 0.1736616 0.9677419 0.1736616 0.0322581 -0.1736616
1026 0.0296328 -0.1665457 0.9703672 0.1665457 0.9703672 0.1665457 0.0296328 -0.1665457
1073 0.0272170 -0.1596858 0.9727830 0.1596858 0.9727830 0.1596858 0.0272170 -0.1596858
1122 0.0249948 -0.1530771 0.9750052 0.1530771 0.9750052 0.1530771 0.0249948 -0.1530771
1174 0.0229512 -0.1467144 0.9770488 0.1467144 0.9770488 0.1467144 0.0229512 -0.1467144
1227 0.0210725 -0.1405919 0.9789275 0.1405919 0.9789275 0.1405919 0.0210725 -0.1405919
1283 0.0193458 -0.1347035 0.9806542 0.1347035 0.9806542 0.1347035 0.0193458 -0.1347035
1342 0.0177591 -0.1290429 0.9822409 0.1290429 0.9822409 0.1290429 0.0177591 -0.1290429
1404 0.0163015 -0.1236035 0.9836985 0.1236035 0.9836985 0.1236035 0.0163015 -0.1236035
1468 0.0149626 -0.1183788 0.9850374 0.1183788 0.9850374 0.1183788 0.0149626 -0.1183788
1535 0.0137330 -0.1133620 0.9862670 0.1133620 0.9862670 0.1133620 0.0137330 -0.1133620
1606 0.0126040 -0.1085465 0.9873960 0.1085465 0.9873960 0.1085465 0.0126040 -0.1085465
1679 0.0115673 -0.1039254 0.9884327 0.1039254 0.9884327 0.1039254 0.0115673 -0.1039254
1756 0.0106157 -0.0994922 0.9893843 0.0994922 0.9893843 0.0994922 0.0106157 -0.0994922
1836 0.0097421 -0.0952402 0.9902579 0.0952402 0.9902579 0.0952402 0.0097421 -0.0952402
1920 0.0089404 -0.0911630 0.9910596 0.0911630 0.9910596 0.0911630 0.0089404 -0.0911630
2008 0.0082046 -0.0872541 0.9917954 0.0872541 0.9917954 0.0872541 0.0082046 -0.0872541
2100 0.0075294 -0.0835074 0.9924706 0.0835074 0.9924706 0.0835074 0.0075294 -0.0835074
2196 0.0069099 -0.0799167 0.9930901 0.0799167 0.9930901 0.0799167 0.0069099 -0.0799167
2297 0.0063416 -0.0764761 0.9936584 0.0764761 0.9936584 0.0764761 0.0063416 -0.0764761
2402 0.0058202 -0.0731798 0.9941798 0.0731798 0.9941798 0.0731798 0.0058202 -0.0731798
2512 0.0053419 -0.0700222 0.9946581 0.0700222 0.9946581 0.0700222 0.0053419 -0.0700222
2627 0.0049032 -0.0669978 0.9950968 0.0669978 0.9950968 0.0669978 0.0049032 -0.0669978
2748 0.0045009 -0.0641014 0.9954991 0.0641014 0.9954991 0.0641014 0.0045009 -0.0641014
2873 0.0041319 -0.0613279 0.9958681 0.0613279 0.9958681 0.0613279 0.0041319 -0.0613279
3005 0.0037936 -0.0586723 0.9962064 0.0586723 0.9962064 0.0586723 0.0037936 -0.0586723
3143 0.0034834 -0.0561299 0.9965166 0.0561299 0.9965166 0.0561299 0.0034834 -0.0561299
3287 0.0031990 -0.0536960 0.9968010 0.0536960 0.9968010 0.0536960 0.0031990 -0.0536960
3437 0.0029382 -0.0513663 0.9970618 0.0513663 0.9970618 0.0513663 0.0029382 -0.0513663
3594 0.0026992 -0.0491364 0.9973008 0.0491364 0.9973008 0.0491364 0.0026992 -0.0491364
3759 0.0024801 -0.0470022 0.9975199 0.0470022 0.9975199 0.0470022 0.0024801 -0.0470022
3931 0.0022792 -0.0449597 0.9977208 0.0449597 0.9977208 0.0449597 0.0022792 -0.0449597
4111 0.0020951 -0.0430052 0.9979049 0.0430052 0.9979049 0.0430052 0.0020951 -0.0430052
4299 0.0019263 -0.0411349 0.9980737 0.0411349 0.9980737 0.0411349 0.0019263 -0.0411349
4496 0.0017715 -0.0393454 0.9982285 0.0393454 0.9982285 0.0393454 0.0017715 -0.0393454
4702 0.0016297 -0.0376331 0.9983703 0.0376331 0.9983703 0.0376331 0.0016297 -0.0376331
4918 0.0014996 -0.0359950 0.9985004 0.0359950 0.9985004 0.0359950 0.0014996 -0.0359950
5143 0.0013804 -0.0344277 0.9986196 0.0344277 0.9986196 0.0344277 0.0013804 -0.0344277
5378 0.0012710 -0.0329283 0.9987290 0.0329283 0.9987290 0.0329283 0.0012710 -0.0329283
5625 0.0011708 -0.0314940 0.9988292 0.0314940 0.9988292 0.0314940 0.0011708 -0.0314940
5882 0.0010788 -0.0301219 0.9989212 0.0301219 0.9989212 0.0301219 0.0010788 -0.0301219
6151 0.0009944 -0.0288093 0.9990056 0.0288093 0.9990056 0.0288093 0.0009944 -0.0288093
6433 0.0009170 -0.0275538 0.9990830 0.0275538 0.9990830 0.0275538 0.0009170 -0.0275538
6728 0.0008459 -0.0263528 0.9991541 0.0263528 0.9991541 0.0263528 0.0008459 -0.0263528
7036 0.0007807 -0.0252041 0.9992193 0.0252041 0.9992193 0.0252041 0.0007807 -0.0252041
7358 0.0007208 -0.0241053 0.9992792 0.0241053 0.9992792 0.0241053 0.0007208 -0.0241053
7695 0.0006658 -0.0230543 0.9993342 0.0230543 0.9993342 0.0230543 0.0006658 -0.0230543
8047 0.0006153 -0.0220491 0.9993847 0.0220491 0.9993847 0.0220491 0.0006153 -0.0220491
8416 0.0005688 -0.0210876 0.9994312 0.0210876 0.9994312 0.0210876 0.0005688 -0.0210876
8801 0.0005262 -0.0201680 0.9994738 0.0201680 0.9994738 0.0201680 0.0005262 -0.0201680
9204 0.0004869 -0.0192884 0.9995131 0.0192884 0.9995131 0.0192884 0.0004869 -0.0192884
9626 0.0004508 -0.0184471 0.9995492 0.0184471 0.9995492 0.0184471 0.0004508 -0.0184471
10066 0.0004176 -0.0176425 0.9995824 0.0176425 0.9995824 0.0176425 0.0004176 -0.0176425
10527 0.0003871 -0.0168729 0.9996129 0.0168729 0.9996129 0.0168729 0.0003871 -0.0168729
11009 0.0003590 -0.0161368 0.9996410 0.0161368 0.9996410 0.0161368 0.0003590 -0.0161368
11514 0.0003331 -0.0154328 0.9996669 0.0154328 0.9996669 0.0154328 0.0003331 -0.0154328
12041 0.0003093 -0.0147595 0.9996907 0.0147595 0.9996907 0.0147595 0.0003093 -0.0147595
12592 0.0002874 -0.0141154 0.9997126 0.0141154 0.9997126 0.0141154 0.0002874 -0.0141154
13169 0.0002672 -0.0134995 0.9997328 0.0134995 0.9997328 0.0134995 0.0002672 -0.0134995
13772 0.0002486 -0.0129104 0.9997514 0.0129104 0.9997514 0.0129104 0.0002486 -0.0129104
14402 0.0002315 -0.0123469 0.9997685 0.0123469 0.9997685 0.0123469 0.0002315 -0.0123469
15062 0.0002157 -0.0118080 0.9997843 0.0118080 0.9997843 0.0118080 0.0002157 -0.0118080
15752 0.0002012 -0.0112926 0.9997988 0.0112926 0.9997988 0.0112926 0.0002012 -0.0112926
16473 0.0001878 -0.0107997 0.9998122 0.0107997 0.9998122 0.0107997 0.0001878 -0.0107997
17227 0.0001755 -0.0103282 0.9998245 0.0103282 0.9998245 0.0103282 0.0001755 -0.0103282
18016 0.0001641 -0.0098773 0.9998359 0.0098773 0.9998359 0.0098773 0.0001641 -0.0098773
18841 0.0001536 -0.0094461 0.9998464 0.0094461 0.9998464 0.0094461 0.0001536 -0.0094461
19704 0.0001440 -0.0090336 0.9998560 0.0090336 0.9998560 0.0090336 0.0001440 -0.0090336
20606 0.0001350 -0.0086392 0.9998650 0.0086392 0.9998650 0.0086392 0.0001350 -0.0086392
21550 0.0001268 -0.0082620 0.9998732 0.0082620 0.9998732 0.0082620 0.0001268 -0.0082620
22537 0.0001193 -0.0079012 0.9998807 0.0079012 0.9998807 0.0079012 0.0001193 -0.0079012
23569 0.0001123 -0.0075562 0.9998877 0.0075562 0.9998877 0.0075562 0.0001123 -0.0075562
24648 0.0001058 -0.0072262 0.9998942 0.0072262 0.9998942 0.0072262 0.0001058 -0.0072262
25777 0.0000999 -0.0069106 0.9999001 0.0069106 0.9999001 0.0069106 0.0000999 -0.0069106
26957 0.0000944 -0.0066088 0.9999056 0.0066088 0.9999056 0.0066088 0.0000944 -0.0066088
28191 0.0000893 -0.0063202 0.9999107 0.0063202 0.9999107 0.0063202 0.0000893 -0.0063202
29482 0.0000846 -0.0060441 0.9999154 0.0060441 0.9999154 0.0060441 0.0000846 -0.0060441
30832 0.0000802 -0.0057802 0.9999198 0.0057802 0.9999198 0.0057802 0.0000802 -0.0057802
32244 0.0000762 -0.0055277 0.9999238 0.0055277 0.9999238 0.0055277 0.0000762 -0.0055277
33721 0.0000724 -0.0052863 0.9999276 0.0052863 0.9999276 0.0052863 0.0000724 -0.0052863
35265 0.0000690 -0.0050554 0.9999310 0.0050554 0.9999310 0.0050554 0.0000690 -0.0050554
36880 0.0000657 -0.0048346 0.9999343 0.0048346 0.9999343 0.0048346 0.0000657 -0.0048346
38569 0.0000627 -0.0046234 0.9999373 0.0046234 0.9999373 0.0046234 0.0000627 -0.0046234
40335 0.0000599 -0.0044214 0.9999401 0.0044214 0.9999401 0.0044214 0.0000599 -0.0044214
42182 0.0000573 -0.0042283 0.9999427 0.0042283 0.9999427 0.0042283 0.0000573 -0.0042283
44113 0.0000549 -0.0040435 0.9999451 0.0040435 0.9999451 0.0040435 0.0000549 -0.0040435
46134 0.0000526 -0.0038669 0.9999474 0.0038669 0.9999474 0.0038669 0.0000526 -0.0038669
48246 0.0000505 -0.0036979 0.9999495 0.0036979 0.9999495 0.0036979 0.0000505 -0.0036979
50455 0.0000485 -0.0035363 0.9999515 0.0035363 0.9999515 0.0035363 0.0000485 -0.0035363
52766 0.0000467 -0.0033817 0.9999533 0.0033817 0.9999533 0.0033817 0.0000467 -0.0033817
55182 0.0000450 -0.0032339 0.9999550 0.0032339 0.9999550 0.0032339 0.0000450 -0.0032339
57709 0.0000434 -0.0030925 0.9999566 0.0030925 0.9999566 0.0030925 0.0000434 -0.0030925
60352 0.0000418 -0.0029572 0.9999582 0.0029572 0.9999582 0.0029572 0.0000418 -0.0029572
63115 0.0000404 -0.0028278 0.9999596 0.0028278 0.9999596 0.0028278 0.0000404 -0.0028278
66005 0.0000391 -0.0027041 0.9999609 0.0027041 0.9999609 0.0027041 0.0000391 -0.0027041
69028 0.0000378 -0.0025858 0.9999622 0.0025858 0.9999622 0.0025858 0.0000378 -0.0025858
72189 0.0000367 -0.0024725 0.9999633 0.0024725 0.9999633 0.0024725 0.0000367 -0.0024725
75495 0.0000356 -0.0023642 0.9999644 0.0023642 0.9999644 0.0023642 0.0000356 -0.0023642
78952 0.0000346 -0.0022607 0.9999654 0.0022607 0.9999654 0.0022607 0.0000346 -0.0022607
82567 0.0000336 -0.0021616 0.9999664 0.0021616 0.9999664 0.0021616 0.0000336 -0.0021616
86348 0.0000327 -0.0020668 0.9999673 0.0020668 0.9999673 0.0020668 0.0000327 -0.0020668
90302 0.0000319 -0.0019761 0.9999681 0.0019761 0.9999681 0.0019761 0.0000319 -0.0019761
94437 0.0000311 -0.0018894 0.9999689 0.0018894 0.9999689 0.0018894 0.0000311 -0.0018894
98762 0.0000304 -0.0018064 0.9999696 0.0018064 0.9999696 0.0018064 0.0000304 -0.0018064
103284 0.0000298 -0.0017270 0.9999702 0.0017270 0.9999702 0.0017270 0.0000298 -0.0017270
108014 0.0000291 -0.0016511 0.9999709 0.0016511 0.9999709 0.0016511 0.0000291 -0.0016511
112960 0.0000286 -0.0015784 0.9999714 0.0015784 0.9999714 0.0015784 0.0000286 -0.0015784
118133 0.0000280 -0.0015089 0.9999720 0.0015089 0.9999720 0.0015089 0.0000280 -0.0015089
123542 0.0000275 -0.0014424 0.9999725 0.0014424 0.9999725 0.0014424 0.0000275 -0.0014424
129199 0.0000271 -0.0013788 0.9999729 0.0013788 0.9999729 0.0013788 0.0000271 -0.0013788
135116 0.0000266 -0.0013179 0.9999734 0.0013179 0.9999734 0.0013179 0.0000266 -0.0013179
141303 0.0000263 -0.0012597 0.9999737 0.0012597 0.9999737 0.0012597 0.0000263 -0.0012597
147774 0.0000259 -0.0012039 0.9999741 0.0012039 0.9999741 0.0012039 0.0000259 -0.0012039
154540 0.0000256 -0.0011506 0.9999744 0.0011506 0.9999744 0.0011506 0.0000256 -0.0011506
161617 0.0000253 -0.0010996 0.9999747 0.0010996 0.9999747 0.0010996 0.0000253 -0.0010996
169018 0.0000250 -0.0010507 0.9999750 0.0010507 0.9999750 0.0010507 0.0000250 -0.0010507
176758 0.0000247 -0.0010040 0.9999753 0.0010040 0.9999753 0.0010040 0.0000247 -0.0010040
184852 0.0000245 -0.0009593 0.9999755 0.0009593 0.9999755 0.0009593 0.0000245 -0.0009593
193316 0.0000243 -0.0009165 0.9999757 0.0009165 0.9999757 0.0009165 0.0000243 -0.0009165
202169 0.0000241 -0.0008755 0.9999759 0.0008755 0.9999759 0.0008755 0.0000241 -0.0008755
211427 0.0000239 -0.0008363 0.9999761 0.0008363 0.9999761 0.0008363 0.0000239 -0.0008363
221108 0.0000238 -0.0007987 0.9999762 0.0007987 0.9999762 0.0007987 0.0000238 -0.0007987
231233 0.0000236 -0.0007628 0.9999764 0.0007628 0.9999764 0.0007628 0.0000236 -0.0007628
241822 0.0000235 -0.0007283 0.9999765 0.0007283 0.9999765 0.0007283 0.0000235 -0.0007283
252896 0.0000234 -0.0006954 0.9999766 0.0006954 0.9999766 0.0006954 0.0000234 -0.0006954
264476 0.0000233 -0.0006638 0.9999767 0.0006638 0.9999767 0.0006638 0.0000233 -0.0006638
276587 0.0000232 -0.0006335 0.9999768 0.0006335 0.9999768 0.0006335 0.0000232 -0.0006335
289253 0.0000231 -0.0006045 0.9999769 0.0006045 0.9999769 0.0006045 0.0000231 -0.0006045
302498 0.0000230 -0.0005768 0.9999770 0.0005768 0.9999770 0.0005768 0.0000230 -0.0005768
316350 0.0000230 -0.0005501 0.9999770 0.0005501 0.9999770 0.0005501 0.0000230 -0.0005501
330837 0.0000230 -0.0005246 0.9999770 0.0005246 0.9999770 0.0005246 0.0000230 -0.0005246
345986 0.0000229 -0.0005001 0.9999771 0.0005001 0.9999771 0.0005001 0.0000229 -0.0005001
361830 0.0000229 -0.0004767 0.9999771 0.0004767 0.9999771 0.0004767 0.0000229 -0.0004767
378399 0.0000229 -0.0004542 0.9999771 0.0004542 0.9999771 0.0004542 0.0000229 -0.0004542
395726 0.0000229 -0.0004326 0.9999771 0.0004326 0.9999771 0.0004326 0.0000229 -0.0004326
413847 0.0000229 -0.0004118 0.9999771 0.0004118 0.9999771 0.0004118 0.0000229 -0.0004118
432798 0.0000229 -0.0003919 0.9999771 0.0003919 0.9999771 0.0003919 0.0000229 -0.0003919
452617 0.0000230 -0.0003728 0.9999770 0.0003728 0.9999770 0.0003728 0.0000230 -0.0003728
473344 0.0000230 -0.0003544 0.9999770 0.0003544 0.9999770 0.0003544 0.0000230 -0.0003544
495019 0.0000231 -0.0003368 0.9999769 0.0003368 0.9999769 0.0003368 0.0000231 -0.0003368
517687 0.0000232 -0.0003198 0.9999768 0.0003198 0.9999768 0.0003198 0.0000232 -0.0003198
541393 0.0000232 -0.0003034 0.9999768 0.0003034 0.9999768 0.0003034 0.0000232 -0.0003034
566185 0.0000233 -0.0002877 0.9999767 0.0002877 0.9999767 0.0002877 0.0000233 -0.0002877
592111 0.0000234 -0.0002725 0.9999766 0.0002725 0.9999766 0.0002725 0.0000234 -0.0002725
619225 0.0000236 -0.0002579 0.9999764 0.0002579 0.9999764 0.0002579 0.0000236 -0.0002579
647581 0.0000237 -0.0002438 0.9999763 0.0002438 0.9999763 0.0002438 0.0000237 -0.0002438
677235 0.0000239 -0.0002302 0.9999761 0.0002302 0.9999761 0.0002302 0.0000239 -0.0002302
708247 0.0000240 -0.0002171 0.9999760 0.0002171 0.9999760 0.0002171 0.0000240 -0.0002171
740679 0.0000242 -0.0002044 0.9999758 0.0002044 0.9999758 0.0002044 0.0000242 -0.0002044
774597 0.0000245 -0.0001921 0.9999755 0.0001921 0.9999755 0.0001921 0.0000245 -0.0001921
810067 0.0000247 -0.0001801 0.9999753 0.0001801 0.9999753 0.0001801 0.0000247 -0.0001801
847162 0.0000250 -0.0001686 0.9999750 0.0001686 0.9999750 0.0001686 0.0000250 -0.0001686
885955 0.0000253 -0.0001574 0.9999747 0.0001574 0.9999747 0.0001574 0.0000253 -0.0001574
926525 0.0000256 -0.0001465 0.9999744 0.0001465 0.9999744 0.0001465 0.0000256 -0.0001465
968953 0.0000259 -0.0001359 0.9999741 0.0001359 0.9999741 0.0001359 0.0000259 -0.0001359
1013323 0.0000263 -0.0001256 0.9999737 0.0001256 0.9999737 0.0001256 0.0000263 -0.0001256
1059725 0.0000268 -0.0001155 0.9999732 0.0001155 0.9999732 0.0001155 0.0000268 -0.0001155
1108252 0.0000272 -0.0001057 0.9999728 0.0001057 0.9999728 0.0001057 0.0000272 -0.0001057
1159002 0.0000277 -0.0000961 0.9999723 0.0000961 0.9999723 0.0000961 0.0000277 -0.0000961
1212075 0.0000283 -0.0000867 0.9999717 0.0000867 0.9999717 0.0000867 0.0000283 -0.0000867
1267578 0.0000289 -0.0000774 0.9999711 0.0000774 0.9999711 0.0000774 0.0000289 -0.0000774
1325623 0.0000296 -0.0000683 0.9999704 0.0000683 0.9999704 0.0000683 0.0000296 -0.0000683
1386327 0.0000304 -0.0000594 0.9999696 0.0000594 0.9999696 0.0000594 0.0000304 -0.0000594
1449809 0.0000312 -0.0000506 0.9999688 0.0000506 0.9999688 0.0000506 0.0000312 -0.0000506
1516199 0.0000321 -0.0000418 0.9999679 0.0000418 0.9999679 0.0000418 0.0000321 -0.0000418
1585629 0.0000331 -0.0000332 0.9999669 0.0000332 0.9999669 0.0000332 0.0000331 -0.0000332
1658239 0.0000342 -0.0000247 0.9999658 0.0000247 0.9999658 0.0000247 0.0000342 -0.0000247
1734173 0.0000355 -0.0000161 0.9999645 0.0000161 0.9999645 0.0000161 0.0000355 -0.0000161
1813585 0.0000368 -0.0000077 0.9999632 0.0000077 0.9999632 0.0000077 0.0000368 -0.0000077
1896632 0.0000384 0.0000008 0.9999616 -0.0000008 0.9999616 -0.0000008 0.0000384 0.0000008
1983483 0.0000401 0.0000093 0.9999599 -0.0000093 0.9999599 -0.0000093 0.0000401 0.0000093
2074311 0.0000420 0.0000178 0.9999580 -0.0000178 0.9999580 -0.0000178 0.0000420 0.0000178
