!Murata Part Number: GRM21AR72E682KW01
!These Parameters are Measured in Series Mode Connection
!Data Generated on Mar 30, 2021
!       o--ll--o
!Port1            Port2
!       o------o
!Operation Temp=25[degC], DC Bias Voltage=0[V]
!Freq. Start=100[kHz] Stop=6[GHz] 401[Steps]
# Hz S RI R 50
!Freq.(Hz) S11(Real) S11(Imag) S21(Real) S21(Imag) S12(Real) S12(Imag) S22(Real) S22(Imag)
100000 0.8605516 -0.3408946 0.1394484 0.3408946 0.1394484 0.3408946 0.8605516 -0.3408946
102789 0.8539877 -0.3476160 0.1460123 0.3476160 0.1460123 0.3476160 0.8539877 -0.3476160
105655 0.8471662 -0.3543421 0.1528338 0.3543421 0.1528338 0.3543421 0.8471662 -0.3543421
108602 0.8400819 -0.3610628 0.1599181 0.3610628 0.1599181 0.3610628 0.8400819 -0.3610628
111630 0.8327303 -0.3677675 0.1672697 0.3677675 0.1672697 0.3677675 0.8327303 -0.3677675
114743 0.8251071 -0.3744449 0.1748929 0.3744449 0.1748929 0.3744449 0.8251071 -0.3744449
117943 0.8172086 -0.3810832 0.1827914 0.3810832 0.1827914 0.3810832 0.8172086 -0.3810832
121232 0.8090318 -0.3876702 0.1909682 0.3876702 0.1909682 0.3876702 0.8090318 -0.3876702
124613 0.8005743 -0.3941929 0.1994257 0.3941929 0.1994257 0.3941929 0.8005743 -0.3941929
128088 0.7918342 -0.4006379 0.2081658 0.4006379 0.2081658 0.4006379 0.7918342 -0.4006379
131660 0.7828107 -0.4069915 0.2171893 0.4069915 0.2171893 0.4069915 0.7828107 -0.4069915
135332 0.7735036 -0.4132393 0.2264964 0.4132393 0.2264964 0.4132393 0.7735036 -0.4132393
139106 0.7639137 -0.4193669 0.2360863 0.4193669 0.2360863 0.4193669 0.7639137 -0.4193669
142985 0.7540426 -0.4253592 0.2459574 0.4253592 0.2459574 0.4253592 0.7540426 -0.4253592
146972 0.7438930 -0.4312011 0.2561070 0.4312011 0.2561070 0.4312011 0.7438930 -0.4312011
151071 0.7334684 -0.4368774 0.2665316 0.4368774 0.2665316 0.4368774 0.7334684 -0.4368774
155284 0.7227738 -0.4423725 0.2772262 0.4423725 0.2772262 0.4423725 0.7227738 -0.4423725
159614 0.7118148 -0.4476712 0.2881852 0.4476712 0.2881852 0.4476712 0.7118148 -0.4476712
164065 0.7005984 -0.4527580 0.2994016 0.4527580 0.2994016 0.4527580 0.7005984 -0.4527580
168641 0.6891326 -0.4576179 0.3108674 0.4576179 0.3108674 0.4576179 0.6891326 -0.4576179
173344 0.6774267 -0.4622358 0.3225733 0.4622358 0.3225733 0.4622358 0.6774267 -0.4622358
178178 0.6654909 -0.4665974 0.3345091 0.4665974 0.3345091 0.4665974 0.6654909 -0.4665974
183146 0.6533368 -0.4706886 0.3466632 0.4706886 0.3466632 0.4706886 0.6533368 -0.4706886
188254 0.6409769 -0.4744959 0.3590231 0.4744959 0.3590231 0.4744959 0.6409769 -0.4744959
193504 0.6284247 -0.4780065 0.3715753 0.4780065 0.3715753 0.4780065 0.6284247 -0.4780065
198900 0.6156950 -0.4812085 0.3843050 0.4812085 0.3843050 0.4812085 0.6156950 -0.4812085
204447 0.6028032 -0.4840907 0.3971968 0.4840907 0.3971968 0.4840907 0.6028032 -0.4840907
210148 0.5897659 -0.4866430 0.4102341 0.4866430 0.4102341 0.4866430 0.5897659 -0.4866430
216008 0.5766004 -0.4888562 0.4233996 0.4888562 0.4233996 0.4888562 0.5766004 -0.4888562
222032 0.5633247 -0.4907223 0.4366753 0.4907223 0.4366753 0.4907223 0.5633247 -0.4907223
228224 0.5499574 -0.4922346 0.4500426 0.4922346 0.4500426 0.4922346 0.5499574 -0.4922346
234589 0.5365178 -0.4933875 0.4634822 0.4933875 0.4634822 0.4933875 0.5365178 -0.4933875
241130 0.5230254 -0.4941768 0.4769746 0.4941768 0.4769746 0.4941768 0.5230254 -0.4941768
247855 0.5095002 -0.4945997 0.4904998 0.4945997 0.4904998 0.4945997 0.5095002 -0.4945997
254767 0.4959624 -0.4946546 0.5040376 0.4946546 0.5040376 0.4946546 0.4959624 -0.4946546
261871 0.4824320 -0.4943413 0.5175680 0.4943413 0.5175680 0.4943413 0.4824320 -0.4943413
269174 0.4689291 -0.4936612 0.5310709 0.4936612 0.5310709 0.4936612 0.4689291 -0.4936612
276681 0.4554738 -0.4926168 0.5445262 0.4926168 0.5445262 0.4926168 0.4554738 -0.4926168
284397 0.4420857 -0.4912122 0.5579143 0.4912122 0.5579143 0.4912122 0.4420857 -0.4912122
292328 0.4287841 -0.4894526 0.5712159 0.4894526 0.5712159 0.4894526 0.4287841 -0.4894526
300480 0.4155875 -0.4873445 0.5844125 0.4873445 0.5844125 0.4873445 0.4155875 -0.4873445
308859 0.4025142 -0.4848957 0.5974858 0.4848957 0.5974858 0.4848957 0.4025142 -0.4848957
317472 0.3895816 -0.4821150 0.6104184 0.4821150 0.6104184 0.4821150 0.3895816 -0.4821150
326326 0.3768061 -0.4790124 0.6231939 0.4790124 0.6231939 0.4790124 0.3768061 -0.4790124
335426 0.3642036 -0.4755987 0.6357964 0.4755987 0.6357964 0.4755987 0.3642036 -0.4755987
344780 0.3517887 -0.4718857 0.6482113 0.4718857 0.6482113 0.4718857 0.3517887 -0.4718857
354395 0.3395753 -0.4678859 0.6604247 0.4678859 0.6604247 0.4678859 0.3395753 -0.4678859
364278 0.3275759 -0.4636126 0.6724241 0.4636126 0.6724241 0.4636126 0.3275759 -0.4636126
374436 0.3158023 -0.4590796 0.6841977 0.4590796 0.6841977 0.4590796 0.3158023 -0.4590796
384878 0.3042650 -0.4543012 0.6957350 0.4543012 0.6957350 0.4543012 0.3042650 -0.4543012
395611 0.2929733 -0.4492920 0.7070267 0.4492920 0.7070267 0.4492920 0.2929733 -0.4492920
406644 0.2819355 -0.4440670 0.7180645 0.4440670 0.7180645 0.4440670 0.2819355 -0.4440670
417984 0.2711588 -0.4386414 0.7288412 0.4386414 0.7288412 0.4386414 0.2711588 -0.4386414
429640 0.2606493 -0.4330304 0.7393507 0.4330304 0.7393507 0.4330304 0.2606493 -0.4330304
441622 0.2504118 -0.4272492 0.7495882 0.4272492 0.7495882 0.4272492 0.2504118 -0.4272492
453937 0.2404504 -0.4213129 0.7595496 0.4213129 0.7595496 0.4213129 0.2404504 -0.4213129
466596 0.2307680 -0.4152368 0.7692320 0.4152368 0.7692320 0.4152368 0.2307680 -0.4152368
479608 0.2213666 -0.4090354 0.7786334 0.4090354 0.7786334 0.4090354 0.2213666 -0.4090354
492983 0.2122471 -0.4027234 0.7877529 0.4027234 0.7877529 0.4027234 0.2122471 -0.4027234
506731 0.2034097 -0.3963148 0.7965903 0.3963148 0.7965903 0.3963148 0.2034097 -0.3963148
520862 0.1948539 -0.3898236 0.8051461 0.3898236 0.8051461 0.3898236 0.1948539 -0.3898236
535387 0.1865781 -0.3832630 0.8134219 0.3832630 0.8134219 0.3832630 0.1865781 -0.3832630
550318 0.1785803 -0.3766459 0.8214197 0.3766459 0.8214197 0.3766459 0.1785803 -0.3766459
565664 0.1708577 -0.3699847 0.8291423 0.3699847 0.8291423 0.3699847 0.1708577 -0.3699847
581439 0.1634070 -0.3632912 0.8365930 0.3632912 0.8365930 0.3632912 0.1634070 -0.3632912
597654 0.1562243 -0.3565767 0.8437757 0.3565767 0.8437757 0.3565767 0.1562243 -0.3565767
614320 0.1493052 -0.3498519 0.8506948 0.3498519 0.8506948 0.3498519 0.1493052 -0.3498519
631452 0.1426450 -0.3431270 0.8573550 0.3431270 0.8573550 0.3431270 0.1426450 -0.3431270
649061 0.1362385 -0.3364117 0.8637615 0.3364117 0.8637615 0.3364117 0.1362385 -0.3364117
667162 0.1300802 -0.3297148 0.8699198 0.3297148 0.8699198 0.3297148 0.1300802 -0.3297148
685767 0.1241645 -0.3230449 0.8758355 0.3230449 0.8758355 0.3230449 0.1241645 -0.3230449
704891 0.1184852 -0.3164099 0.8815148 0.3164099 0.8815148 0.3164099 0.1184852 -0.3164099
724548 0.1130362 -0.3098171 0.8869638 0.3098171 0.8869638 0.3098171 0.1130362 -0.3098171
744754 0.1078114 -0.3032732 0.8921886 0.3032732 0.8921886 0.3032732 0.1078114 -0.3032732
765523 0.1028041 -0.2967846 0.8971959 0.2967846 0.8971959 0.2967846 0.1028041 -0.2967846
786871 0.0980079 -0.2903570 0.9019921 0.2903570 0.9019921 0.2903570 0.0980079 -0.2903570
808814 0.0934163 -0.2839956 0.9065837 0.2839956 0.9065837 0.2839956 0.0934163 -0.2839956
831370 0.0890227 -0.2777054 0.9109773 0.2777054 0.9109773 0.2777054 0.0890227 -0.2777054
854554 0.0848206 -0.2714905 0.9151794 0.2714905 0.9151794 0.2714905 0.0848206 -0.2714905
878385 0.0808034 -0.2653549 0.9191966 0.2653549 0.9191966 0.2653549 0.0808034 -0.2653549
902880 0.0769646 -0.2593021 0.9230354 0.2593021 0.9230354 0.2593021 0.0769646 -0.2593021
928059 0.0732978 -0.2533351 0.9267022 0.2533351 0.9267022 0.2533351 0.0732978 -0.2533351
953940 0.0697967 -0.2474568 0.9302033 0.2474568 0.9302033 0.2474568 0.0697967 -0.2474568
980542 0.0664551 -0.2416694 0.9335449 0.2416694 0.9335449 0.2416694 0.0664551 -0.2416694
1007887 0.0632669 -0.2359750 0.9367331 0.2359750 0.9367331 0.2359750 0.0632669 -0.2359750
1035994 0.0602260 -0.2303752 0.9397740 0.2303752 0.9397740 0.2303752 0.0602260 -0.2303752
1064885 0.0573266 -0.2248716 0.9426734 0.2248716 0.9426734 0.2248716 0.0573266 -0.2248716
1094581 0.0545631 -0.2194653 0.9454369 0.2194653 0.9454369 0.2194653 0.0545631 -0.2194653
1125106 0.0519298 -0.2141571 0.9480702 0.2141571 0.9480702 0.2141571 0.0519298 -0.2141571
1156481 0.0494212 -0.2089477 0.9505788 0.2089477 0.9505788 0.2089477 0.0494212 -0.2089477
1188732 0.0470322 -0.2038375 0.9529678 0.2038375 0.9529678 0.2038375 0.0470322 -0.2038375
1221882 0.0447576 -0.1988268 0.9552424 0.1988268 0.9552424 0.1988268 0.0447576 -0.1988268
1255957 0.0425924 -0.1939156 0.9574076 0.1939156 0.9574076 0.1939156 0.0425924 -0.1939156
1290982 0.0405319 -0.1891037 0.9594681 0.1891037 0.9594681 0.1891037 0.0405319 -0.1891037
1326984 0.0385715 -0.1843908 0.9614285 0.1843908 0.9614285 0.1843908 0.0385715 -0.1843908
1363989 0.0367066 -0.1797765 0.9632934 0.1797765 0.9632934 0.1797765 0.0367066 -0.1797765
1402027 0.0349329 -0.1752601 0.9650671 0.1752601 0.9650671 0.1752601 0.0349329 -0.1752601
1441125 0.0332462 -0.1708410 0.9667538 0.1708410 0.9667538 0.1708410 0.0332462 -0.1708410
1481314 0.0316426 -0.1665184 0.9683574 0.1665184 0.9683574 0.1665184 0.0316426 -0.1665184
1522623 0.0301183 -0.1622912 0.9698817 0.1622912 0.9698817 0.1622912 0.0301183 -0.1622912
1565085 0.0286694 -0.1581586 0.9713306 0.1581586 0.9713306 0.1581586 0.0286694 -0.1581586
1608730 0.0272925 -0.1541193 0.9727075 0.1541193 0.9727075 0.1541193 0.0272925 -0.1541193
1653593 0.0259840 -0.1501722 0.9740160 0.1501722 0.9740160 0.1501722 0.0259840 -0.1501722
1699707 0.0247409 -0.1463161 0.9752591 0.1463161 0.9752591 0.1463161 0.0247409 -0.1463161
1747106 0.0235598 -0.1425496 0.9764402 0.1425496 0.9764402 0.1425496 0.0235598 -0.1425496
1795828 0.0224379 -0.1388715 0.9775621 0.1388715 0.9775621 0.1388715 0.0224379 -0.1388715
1845908 0.0213722 -0.1352803 0.9786278 0.1352803 0.9786278 0.1352803 0.0213722 -0.1352803
1897385 0.0203600 -0.1317746 0.9796400 0.1317746 0.9796400 0.1317746 0.0203600 -0.1317746
1950297 0.0193987 -0.1283530 0.9806013 0.1283530 0.9806013 0.1283530 0.0193987 -0.1283530
2004685 0.0184857 -0.1250139 0.9815143 0.1250139 0.9815143 0.1250139 0.0184857 -0.1250139
2060590 0.0176186 -0.1217559 0.9823814 0.1217559 0.9823814 0.1217559 0.0176186 -0.1217559
2118054 0.0167953 -0.1185775 0.9832047 0.1185775 0.9832047 0.1185775 0.0167953 -0.1185775
2177120 0.0160134 -0.1154771 0.9839866 0.1154771 0.9839866 0.1154771 0.0160134 -0.1154771
2237833 0.0152709 -0.1124532 0.9847291 0.1124532 0.9847291 0.1124532 0.0152709 -0.1124532
2300240 0.0145658 -0.1095043 0.9854342 0.1095043 0.9854342 0.1095043 0.0145658 -0.1095043
2364387 0.0138963 -0.1066288 0.9861037 0.1066288 0.9861037 0.1066288 0.0138963 -0.1066288
2430322 0.0132606 -0.1038251 0.9867394 0.1038251 0.9867394 0.1038251 0.0132606 -0.1038251
2498097 0.0126568 -0.1010919 0.9873432 0.1010919 0.9873432 0.1010919 0.0126568 -0.1010919
2567761 0.0120835 -0.0984275 0.9879165 0.0984275 0.9879165 0.0984275 0.0120835 -0.0984275
2639368 0.0115391 -0.0958304 0.9884609 0.0958304 0.9884609 0.0958304 0.0115391 -0.0958304
2712972 0.0110220 -0.0932991 0.9889780 0.0932991 0.9889780 0.0932991 0.0110220 -0.0932991
2788629 0.0105310 -0.0908322 0.9894690 0.0908322 0.9894690 0.0908322 0.0105310 -0.0908322
2866396 0.0100646 -0.0884282 0.9899354 0.0884282 0.9899354 0.0884282 0.0100646 -0.0884282
2946331 0.0096217 -0.0860857 0.9903783 0.0860857 0.9903783 0.0860857 0.0096217 -0.0860857
3028495 0.0092009 -0.0838031 0.9907991 0.0838031 0.9907991 0.0838031 0.0092009 -0.0838031
3112951 0.0088013 -0.0815791 0.9911987 0.0815791 0.9911987 0.0815791 0.0088013 -0.0815791
3199762 0.0084217 -0.0794124 0.9915783 0.0794124 0.9915783 0.0794124 0.0084217 -0.0794124
3288994 0.0080611 -0.0773015 0.9919389 0.0773015 0.9919389 0.0773015 0.0080611 -0.0773015
3380714 0.0077185 -0.0752451 0.9922815 0.0752451 0.9922815 0.0752451 0.0077185 -0.0752451
3474992 0.0073930 -0.0732418 0.9926070 0.0732418 0.9926070 0.0732418 0.0073930 -0.0732418
3571899 0.0070838 -0.0712905 0.9929162 0.0712905 0.9929162 0.0712905 0.0070838 -0.0712905
3671508 0.0067899 -0.0693897 0.9932101 0.0693897 0.9932101 0.0693897 0.0067899 -0.0693897
3773896 0.0065108 -0.0675384 0.9934892 0.0675384 0.9934892 0.0675384 0.0065108 -0.0675384
3879139 0.0062455 -0.0657351 0.9937545 0.0657351 0.9937545 0.0657351 0.0062455 -0.0657351
3987316 0.0059933 -0.0639788 0.9940067 0.0639788 0.9940067 0.0639788 0.0059933 -0.0639788
4098510 0.0057537 -0.0622683 0.9942463 0.0622683 0.9942463 0.0622683 0.0057537 -0.0622683
4212806 0.0055260 -0.0606024 0.9944740 0.0606024 0.9944740 0.0606024 0.0055260 -0.0606024
4330288 0.0053096 -0.0589800 0.9946904 0.0589800 0.9946904 0.0589800 0.0053096 -0.0589800
4451047 0.0051039 -0.0573999 0.9948961 0.0573999 0.9948961 0.0573999 0.0051039 -0.0573999
4575173 0.0049083 -0.0558612 0.9950917 0.0558612 0.9950917 0.0558612 0.0049083 -0.0558612
4702761 0.0047225 -0.0543628 0.9952775 0.0543628 0.9952775 0.0543628 0.0047225 -0.0543628
4833907 0.0045457 -0.0529036 0.9954543 0.0529036 0.9954543 0.0529036 0.0045457 -0.0529036
4968711 0.0043777 -0.0514827 0.9956223 0.0514827 0.9956223 0.0514827 0.0043777 -0.0514827
5107273 0.0042180 -0.0500990 0.9957820 0.0500990 0.9957820 0.0500990 0.0042180 -0.0500990
5249700 0.0040662 -0.0487516 0.9959338 0.0487516 0.9959338 0.0487516 0.0040662 -0.0487516
5396098 0.0039217 -0.0474396 0.9960783 0.0474396 0.9960783 0.0474396 0.0039217 -0.0474396
5546579 0.0037844 -0.0461621 0.9962156 0.0461621 0.9962156 0.0461621 0.0037844 -0.0461621
5701257 0.0036538 -0.0449181 0.9963462 0.0449181 0.9963462 0.0449181 0.0036538 -0.0449181
5860248 0.0035296 -0.0437068 0.9964704 0.0437068 0.9964704 0.0437068 0.0035296 -0.0437068
6023672 0.0034114 -0.0425273 0.9965886 0.0425273 0.9965886 0.0425273 0.0034114 -0.0425273
6191655 0.0032990 -0.0413789 0.9967010 0.0413789 0.9967010 0.0413789 0.0032990 -0.0413789
6364321 0.0031921 -0.0402607 0.9968079 0.0402607 0.9968079 0.0402607 0.0031921 -0.0402607
6541803 0.0030903 -0.0391718 0.9969097 0.0391718 0.9969097 0.0391718 0.0030903 -0.0391718
6724235 0.0029935 -0.0381116 0.9970065 0.0381116 0.9970065 0.0381116 0.0029935 -0.0381116
6911753 0.0029013 -0.0370793 0.9970987 0.0370793 0.9970987 0.0370793 0.0029013 -0.0370793
7104501 0.0028136 -0.0360742 0.9971864 0.0360742 0.9971864 0.0360742 0.0028136 -0.0360742
7302625 0.0027300 -0.0350954 0.9972700 0.0350954 0.9972700 0.0350954 0.0027300 -0.0350954
7506273 0.0026505 -0.0341424 0.9973495 0.0341424 0.9973495 0.0341424 0.0026505 -0.0341424
7715601 0.0025747 -0.0332145 0.9974253 0.0332145 0.9974253 0.0332145 0.0025747 -0.0332145
7930766 0.0025025 -0.0323109 0.9974975 0.0323109 0.9974975 0.0323109 0.0025025 -0.0323109
8151931 0.0024336 -0.0314310 0.9975664 0.0314310 0.9975664 0.0314310 0.0024336 -0.0314310
8379264 0.0023680 -0.0305743 0.9976320 0.0305743 0.9976320 0.0305743 0.0023680 -0.0305743
8612937 0.0023055 -0.0297400 0.9976945 0.0297400 0.9976945 0.0297400 0.0023055 -0.0297400
8853126 0.0022458 -0.0289275 0.9977542 0.0289275 0.9977542 0.0289275 0.0022458 -0.0289275
9100013 0.0021889 -0.0281363 0.9978111 0.0281363 0.9978111 0.0281363 0.0021889 -0.0281363
9353785 0.0021346 -0.0273658 0.9978654 0.0273658 0.9978654 0.0273658 0.0021346 -0.0273658
9614634 0.0020827 -0.0266154 0.9979173 0.0266154 0.9979173 0.0266154 0.0020827 -0.0266154
9882758 0.0020332 -0.0258846 0.9979668 0.0258846 0.9979668 0.0258846 0.0020332 -0.0258846
10158358 0.0019858 -0.0251728 0.9980142 0.0251728 0.9980142 0.0251728 0.0019858 -0.0251728
10441645 0.0019406 -0.0244795 0.9980594 0.0244795 0.9980594 0.0244795 0.0019406 -0.0244795
10732831 0.0018973 -0.0238042 0.9981027 0.0238042 0.9981027 0.0238042 0.0018973 -0.0238042
11032137 0.0018559 -0.0231464 0.9981441 0.0231464 0.9981441 0.0231464 0.0018559 -0.0231464
11339791 0.0018163 -0.0225056 0.9981837 0.0225056 0.9981837 0.0225056 0.0018163 -0.0225056
11656024 0.0017784 -0.0218814 0.9982216 0.0218814 0.9982216 0.0218814 0.0017784 -0.0218814
11981075 0.0017421 -0.0212732 0.9982579 0.0212732 0.9982579 0.0212732 0.0017421 -0.0212732
12315192 0.0017073 -0.0206806 0.9982927 0.0206806 0.9982927 0.0206806 0.0017073 -0.0206806
12658625 0.0016740 -0.0201031 0.9983260 0.0201031 0.9983260 0.0201031 0.0016740 -0.0201031
13011637 0.0016420 -0.0195404 0.9983580 0.0195404 0.9983580 0.0195404 0.0016420 -0.0195404
13374492 0.0016113 -0.0189921 0.9983887 0.0189921 0.9983887 0.0189921 0.0016113 -0.0189921
13747467 0.0015819 -0.0184576 0.9984181 0.0184576 0.9984181 0.0184576 0.0015819 -0.0184576
14130843 0.0015536 -0.0179366 0.9984464 0.0179366 0.9984464 0.0179366 0.0015536 -0.0179366
14524910 0.0015265 -0.0174288 0.9984735 0.0174288 0.9984735 0.0174288 0.0015265 -0.0174288
14929966 0.0015004 -0.0169337 0.9984996 0.0169337 0.9984996 0.0169337 0.0015004 -0.0169337
15346318 0.0014754 -0.0164509 0.9985246 0.0164509 0.9985246 0.0164509 0.0014754 -0.0164509
15774281 0.0014514 -0.0159802 0.9985486 0.0159802 0.9985486 0.0159802 0.0014514 -0.0159802
16214179 0.0014282 -0.0155211 0.9985718 0.0155211 0.9985718 0.0155211 0.0014282 -0.0155211
16666344 0.0014060 -0.0150733 0.9985940 0.0150733 0.9985940 0.0150733 0.0014060 -0.0150733
17131118 0.0013847 -0.0146366 0.9986153 0.0146366 0.9986153 0.0146366 0.0013847 -0.0146366
17608854 0.0013641 -0.0142104 0.9986359 0.0142104 0.9986359 0.0142104 0.0013641 -0.0142104
18099912 0.0013444 -0.0137946 0.9986556 0.0137946 0.9986556 0.0137946 0.0013444 -0.0137946
18604665 0.0013254 -0.0133889 0.9986746 0.0133889 0.9986746 0.0133889 0.0013254 -0.0133889
19123493 0.0013072 -0.0129928 0.9986928 0.0129928 0.9986928 0.0129928 0.0013072 -0.0129928
19656790 0.0012897 -0.0126062 0.9987103 0.0126062 0.9987103 0.0126062 0.0012897 -0.0126062
20204959 0.0012728 -0.0122288 0.9987272 0.0122288 0.9987272 0.0122288 0.0012728 -0.0122288
20768415 0.0012567 -0.0118602 0.9987433 0.0118602 0.9987433 0.0118602 0.0012567 -0.0118602
21347584 0.0012411 -0.0115003 0.9987589 0.0115003 0.9987589 0.0115003 0.0012411 -0.0115003
21942904 0.0012262 -0.0111487 0.9987738 0.0111487 0.9987738 0.0111487 0.0012262 -0.0111487
22554827 0.0012119 -0.0108051 0.9987881 0.0108051 0.9987881 0.0108051 0.0012119 -0.0108051
23183813 0.0011982 -0.0104694 0.9988018 0.0104694 0.9988018 0.0104694 0.0011982 -0.0104694
23830340 0.0011851 -0.0101413 0.9988149 0.0101413 0.9988149 0.0101413 0.0011851 -0.0101413
24494897 0.0011725 -0.0098206 0.9988275 0.0098206 0.9988275 0.0098206 0.0011725 -0.0098206
25177987 0.0011604 -0.0095070 0.9988396 0.0095070 0.9988396 0.0095070 0.0011604 -0.0095070
25880126 0.0011488 -0.0092002 0.9988512 0.0092002 0.9988512 0.0092002 0.0011488 -0.0092002
26601845 0.0011378 -0.0089002 0.9988622 0.0089002 0.9988622 0.0089002 0.0011378 -0.0089002
27343691 0.0011273 -0.0086065 0.9988727 0.0086065 0.9988727 0.0086065 0.0011273 -0.0086065
28106225 0.0011172 -0.0083192 0.9988828 0.0083192 0.9988828 0.0083192 0.0011172 -0.0083192
28890023 0.0011076 -0.0080379 0.9988924 0.0080379 0.9988924 0.0080379 0.0011076 -0.0080379
29695680 0.0010985 -0.0077624 0.9989015 0.0077624 0.9989015 0.0077624 0.0010985 -0.0077624
30523804 0.0010898 -0.0074925 0.9989102 0.0074925 0.9989102 0.0074925 0.0010898 -0.0074925
31375021 0.0010816 -0.0072281 0.9989184 0.0072281 0.9989184 0.0072281 0.0010816 -0.0072281
32249977 0.0010738 -0.0069690 0.9989262 0.0069690 0.9989262 0.0069690 0.0010738 -0.0069690
33149332 0.0010664 -0.0067149 0.9989336 0.0067149 0.9989336 0.0067149 0.0010664 -0.0067149
34073768 0.0010594 -0.0064657 0.9989406 0.0064657 0.9989406 0.0064657 0.0010594 -0.0064657
35023984 0.0010528 -0.0062212 0.9989472 0.0062212 0.9989472 0.0062212 0.0010528 -0.0062212
36000698 0.0010466 -0.0059813 0.9989534 0.0059813 0.9989534 0.0059813 0.0010466 -0.0059813
37004650 0.0010408 -0.0057457 0.9989592 0.0057457 0.9989592 0.0057457 0.0010408 -0.0057457
38036599 0.0010353 -0.0055143 0.9989647 0.0055143 0.9989647 0.0055143 0.0010353 -0.0055143
39097326 0.0010302 -0.0052869 0.9989698 0.0052869 0.9989698 0.0052869 0.0010302 -0.0052869
