!Murata Part Number: GRM21BD71C475MA12
!These Parameters are Measured in Series Mode Connection
!Data Generated on Mar 30, 2021
!       o--ll--o
!Port1            Port2
!       o------o
!Operation Temp=25[degC], DC Bias Voltage=0[V]
!Freq. Start=100[Hz] Stop=6[GHz] 401[Steps]
# Hz S RI R 50
!Freq.(Hz) S11(Real) S11(Imag) S21(Real) S21(Imag) S12(Real) S12(Imag) S22(Real) S22(Imag)
100 0.9571594 -0.1927651 0.0428406 0.1927651 0.0428406 0.1927651 0.9571594 -0.1927651
105 0.9535703 -0.2007098 0.0464297 0.2007098 0.0464297 0.2007098 0.9535703 -0.2007098
109 0.9496841 -0.2089127 0.0503159 0.2089127 0.0503159 0.2089127 0.9496841 -0.2089127
114 0.9454790 -0.2173723 0.0545210 0.2173723 0.0545210 0.2173723 0.9454790 -0.2173723
120 0.9409323 -0.2260857 0.0590677 0.2260857 0.0590677 0.2260857 0.9409323 -0.2260857
125 0.9360202 -0.2350481 0.0639798 0.2350481 0.0639798 0.2350481 0.9360202 -0.2350481
131 0.9307182 -0.2442528 0.0692818 0.2442528 0.0692818 0.2442528 0.9307182 -0.2442528
137 0.9250008 -0.2536912 0.0749992 0.2536912 0.0749992 0.2536912 0.9250008 -0.2536912
143 0.9188421 -0.2633521 0.0811579 0.2633521 0.0811579 0.2633521 0.9188421 -0.2633521
150 0.9122158 -0.2732220 0.0877842 0.2732220 0.0877842 0.2732220 0.9122158 -0.2732220
156 0.9050950 -0.2832846 0.0949050 0.2832846 0.0949050 0.2832846 0.9050950 -0.2832846
164 0.8974531 -0.2935208 0.1025469 0.2935208 0.1025469 0.2935208 0.8974531 -0.2935208
171 0.8892636 -0.3039083 0.1107364 0.3039083 0.1107364 0.3039083 0.8892636 -0.3039083
179 0.8805006 -0.3144216 0.1194994 0.3144216 0.1194994 0.3144216 0.8805006 -0.3144216
187 0.8711392 -0.3250318 0.1288608 0.3250318 0.1288608 0.3250318 0.8711392 -0.3250318
196 0.8611554 -0.3357066 0.1388446 0.3357066 0.1388446 0.3357066 0.8611554 -0.3357066
205 0.8505275 -0.3464102 0.1494725 0.3464102 0.1494725 0.3464102 0.8505275 -0.3464102
214 0.8392354 -0.3571032 0.1607646 0.3571032 0.1607646 0.3571032 0.8392354 -0.3571032
224 0.8272621 -0.3677427 0.1727379 0.3677427 0.1727379 0.3677427 0.8272621 -0.3677427
234 0.8145936 -0.3782825 0.1854064 0.3782825 0.1854064 0.3782825 0.8145936 -0.3782825
245 0.8012194 -0.3886732 0.1987806 0.3886732 0.1987806 0.3886732 0.8012194 -0.3886732
256 0.7871334 -0.3988625 0.2128666 0.3988625 0.2128666 0.3988625 0.7871334 -0.3988625
268 0.7723342 -0.4087955 0.2276658 0.4087955 0.2276658 0.4087955 0.7723342 -0.4087955
280 0.7568256 -0.4184152 0.2431744 0.4184152 0.2431744 0.4184152 0.7568256 -0.4184152
293 0.7406168 -0.4276630 0.2593832 0.4276630 0.2593832 0.4276630 0.7406168 -0.4276630
306 0.7237234 -0.4364792 0.2762766 0.4364792 0.2762766 0.4364792 0.7237234 -0.4364792
320 0.7061672 -0.4448039 0.2938328 0.4448039 0.2938328 0.4448039 0.7061672 -0.4448039
335 0.6879766 -0.4525778 0.3120234 0.4525778 0.3120234 0.4525778 0.6879766 -0.4525778
350 0.6691868 -0.4597426 0.3308132 0.4597426 0.3308132 0.4597426 0.6691868 -0.4597426
366 0.6498398 -0.4662425 0.3501602 0.4662425 0.3501602 0.4662425 0.6498398 -0.4662425
383 0.6299842 -0.4720248 0.3700158 0.4720248 0.3700158 0.4720248 0.6299842 -0.4720248
401 0.6096750 -0.4770406 0.3903250 0.4770406 0.3903250 0.4770406 0.6096750 -0.4770406
419 0.5889732 -0.4812462 0.4110268 0.4812462 0.4110268 0.4812462 0.5889732 -0.4812462
438 0.5679451 -0.4846038 0.4320549 0.4846038 0.4320549 0.4846038 0.5679451 -0.4846038
458 0.5466619 -0.4870820 0.4533381 0.4870820 0.4533381 0.4870820 0.5466619 -0.4870820
479 0.5251985 -0.4886568 0.4748015 0.4886568 0.4748015 0.4886568 0.5251985 -0.4886568
501 0.5036327 -0.4893123 0.4963673 0.4893123 0.4963673 0.4893123 0.5036327 -0.4893123
524 0.4820441 -0.4890406 0.5179559 0.4890406 0.5179559 0.4890406 0.4820441 -0.4890406
548 0.4605129 -0.4878426 0.5394871 0.4878426 0.5394871 0.4878426 0.4605129 -0.4878426
573 0.4391189 -0.4857276 0.5608811 0.4857276 0.5608811 0.4857276 0.4391189 -0.4857276
600 0.4179401 -0.4827133 0.5820599 0.4827133 0.5820599 0.4827133 0.4179401 -0.4827133
627 0.3970518 -0.4788256 0.6029482 0.4788256 0.6029482 0.4788256 0.3970518 -0.4788256
656 0.3765255 -0.4740981 0.6234745 0.4740981 0.6234745 0.4740981 0.3765255 -0.4740981
686 0.3564276 -0.4685711 0.6435724 0.4685711 0.6435724 0.4685711 0.3564276 -0.4685711
717 0.3368191 -0.4622912 0.6631809 0.4622912 0.6631809 0.4622912 0.3368191 -0.4622912
750 0.3177546 -0.4553100 0.6822454 0.4553100 0.6822454 0.4553100 0.3177546 -0.4553100
784 0.2992820 -0.4476837 0.7007180 0.4476837 0.7007180 0.4476837 0.2992820 -0.4476837
820 0.2814420 -0.4394712 0.7185580 0.4394712 0.7185580 0.4394712 0.2814420 -0.4394712
858 0.2642679 -0.4307341 0.7357321 0.4307341 0.7357321 0.4307341 0.2642679 -0.4307341
897 0.2477861 -0.4215348 0.7522139 0.4215348 0.7522139 0.4215348 0.2477861 -0.4215348
938 0.2320155 -0.4119361 0.7679845 0.4119361 0.7679845 0.4119361 0.2320155 -0.4119361
981 0.2169684 -0.4020001 0.7830316 0.4020001 0.7830316 0.4020001 0.2169684 -0.4020001
1026 0.2026507 -0.3917876 0.7973493 0.3917876 0.7973493 0.3917876 0.2026507 -0.3917876
1073 0.1890620 -0.3813573 0.8109380 0.3813573 0.8109380 0.3813573 0.1890620 -0.3813573
1122 0.1761971 -0.3707650 0.8238029 0.3707650 0.8238029 0.3707650 0.1761971 -0.3707650
1174 0.1640455 -0.3600636 0.8359545 0.3600636 0.8359545 0.3600636 0.1640455 -0.3600636
1227 0.1525927 -0.3493025 0.8474073 0.3493025 0.8474073 0.3493025 0.1525927 -0.3493025
1283 0.1418207 -0.3385273 0.8581793 0.3385273 0.8581793 0.3385273 0.1418207 -0.3385273
1342 0.1317084 -0.3277799 0.8682916 0.3277799 0.8682916 0.3277799 0.1317084 -0.3277799
1404 0.1222322 -0.3170981 0.8777678 0.3170981 0.8777678 0.3170981 0.1222322 -0.3170981
1468 0.1133669 -0.3065158 0.8866331 0.3065158 0.8866331 0.3065158 0.1133669 -0.3065158
1535 0.1050858 -0.2960632 0.8949142 0.2960632 0.8949142 0.2960632 0.1050858 -0.2960632
1606 0.0973611 -0.2857665 0.9026389 0.2857665 0.9026389 0.2857665 0.0973611 -0.2857665
1679 0.0901648 -0.2756487 0.9098352 0.2756487 0.9098352 0.2756487 0.0901648 -0.2756487
1756 0.0834685 -0.2657291 0.9165315 0.2657291 0.9165315 0.2657291 0.0834685 -0.2657291
1836 0.0772441 -0.2560241 0.9227559 0.2560241 0.9227559 0.2560241 0.0772441 -0.2560241
1920 0.0714637 -0.2465469 0.9285363 0.2465469 0.9285363 0.2465469 0.0714637 -0.2465469
2008 0.0661002 -0.2373084 0.9338998 0.2373084 0.9338998 0.2373084 0.0661002 -0.2373084
2100 0.0611272 -0.2283166 0.9388728 0.2283166 0.9388728 0.2283166 0.0611272 -0.2283166
2196 0.0565192 -0.2195776 0.9434808 0.2195776 0.9434808 0.2195776 0.0565192 -0.2195776
2297 0.0522519 -0.2110954 0.9477481 0.2110954 0.9477481 0.2110954 0.0522519 -0.2110954
2402 0.0483019 -0.2028724 0.9516981 0.2028724 0.9516981 0.2028724 0.0483019 -0.2028724
2512 0.0446470 -0.1949091 0.9553530 0.1949091 0.9553530 0.1949091 0.0446470 -0.1949091
2627 0.0412664 -0.1872049 0.9587336 0.1872049 0.9587336 0.1872049 0.0412664 -0.1872049
2748 0.0381402 -0.1797581 0.9618598 0.1797581 0.9618598 0.1797581 0.0381402 -0.1797581
2873 0.0352499 -0.1725657 0.9647501 0.1725657 0.9647501 0.1725657 0.0352499 -0.1725657
3005 0.0325780 -0.1656241 0.9674220 0.1656241 0.9674220 0.1656241 0.0325780 -0.1656241
3143 0.0301084 -0.1589289 0.9698916 0.1589289 0.9698916 0.1589289 0.0301084 -0.1589289
3287 0.0278260 -0.1524752 0.9721740 0.1524752 0.9721740 0.1524752 0.0278260 -0.1524752
3437 0.0257166 -0.1462575 0.9742834 0.1462575 0.9742834 0.1462575 0.0257166 -0.1462575
3594 0.0237672 -0.1402701 0.9762328 0.1402701 0.9762328 0.1402701 0.0237672 -0.1402701
3759 0.0219658 -0.1345068 0.9780342 0.1345068 0.9780342 0.1345068 0.0219658 -0.1345068
3931 0.0203012 -0.1289616 0.9796988 0.1289616 0.9796988 0.1289616 0.0203012 -0.1289616
4111 0.0187630 -0.1236279 0.9812370 0.1236279 0.9812370 0.1236279 0.0187630 -0.1236279
4299 0.0173418 -0.1184995 0.9826582 0.1184995 0.9826582 0.1184995 0.0173418 -0.1184995
4496 0.0160286 -0.1135698 0.9839714 0.1135698 0.9839714 0.1135698 0.0160286 -0.1135698
4702 0.0148155 -0.1088325 0.9851845 0.1088325 0.9851845 0.1088325 0.0148155 -0.1088325
4918 0.0136949 -0.1042812 0.9863051 0.1042812 0.9863051 0.1042812 0.0136949 -0.1042812
5143 0.0126599 -0.0999096 0.9873401 0.0999096 0.9873401 0.0999096 0.0126599 -0.0999096
5378 0.0117041 -0.0957117 0.9882959 0.0957117 0.9882959 0.0957117 0.0117041 -0.0957117
5625 0.0108216 -0.0916813 0.9891784 0.0916813 0.9891784 0.0916813 0.0108216 -0.0916813
5882 0.0100070 -0.0878127 0.9899930 0.0878127 0.9899930 0.0878127 0.0100070 -0.0878127
6151 0.0092552 -0.0841000 0.9907448 0.0841000 0.9907448 0.0841000 0.0092552 -0.0841000
6433 0.0085615 -0.0805376 0.9914385 0.0805376 0.9914385 0.0805376 0.0085615 -0.0805376
6728 0.0079217 -0.0771201 0.9920783 0.0771201 0.9920783 0.0771201 0.0079217 -0.0771201
7036 0.0073316 -0.0738422 0.9926684 0.0738422 0.9926684 0.0738422 0.0073316 -0.0738422
7358 0.0067876 -0.0706988 0.9932124 0.0706988 0.9932124 0.0706988 0.0067876 -0.0706988
7695 0.0062862 -0.0676848 0.9937138 0.0676848 0.9937138 0.0676848 0.0062862 -0.0676848
8047 0.0058242 -0.0647954 0.9941758 0.0647954 0.9941758 0.0647954 0.0058242 -0.0647954
8416 0.0053985 -0.0620259 0.9946015 0.0620259 0.9946015 0.0620259 0.0053985 -0.0620259
8801 0.0050065 -0.0593717 0.9949935 0.0593717 0.9949935 0.0593717 0.0050065 -0.0593717
9204 0.0046455 -0.0568284 0.9953545 0.0568284 0.9953545 0.0568284 0.0046455 -0.0568284
9626 0.0043131 -0.0543918 0.9956869 0.0543918 0.9956869 0.0543918 0.0043131 -0.0543918
10066 0.0040071 -0.0520577 0.9959929 0.0520577 0.9959929 0.0520577 0.0040071 -0.0520577
10527 0.0037255 -0.0498220 0.9962745 0.0498220 0.9962745 0.0498220 0.0037255 -0.0498220
11009 0.0034663 -0.0476810 0.9965337 0.0476810 0.9965337 0.0476810 0.0034663 -0.0476810
11514 0.0032276 -0.0456309 0.9967724 0.0456309 0.9967724 0.0456309 0.0032276 -0.0456309
12041 0.0030080 -0.0436680 0.9969920 0.0436680 0.9969920 0.0436680 0.0030080 -0.0436680
12592 0.0028058 -0.0417888 0.9971942 0.0417888 0.9971942 0.0417888 0.0028058 -0.0417888
13169 0.0026195 -0.0399900 0.9973805 0.0399900 0.9973805 0.0399900 0.0026195 -0.0399900
13772 0.0024480 -0.0382682 0.9975520 0.0382682 0.9975520 0.0382682 0.0024480 -0.0382682
14402 0.0022899 -0.0366204 0.9977101 0.0366204 0.9977101 0.0366204 0.0022899 -0.0366204
15062 0.0021442 -0.0350434 0.9978558 0.0350434 0.9978558 0.0350434 0.0021442 -0.0350434
15752 0.0020098 -0.0335344 0.9979902 0.0335344 0.9979902 0.0335344 0.0020098 -0.0335344
16473 0.0018857 -0.0320906 0.9981143 0.0320906 0.9981143 0.0320906 0.0018857 -0.0320906
17227 0.0017711 -0.0307091 0.9982289 0.0307091 0.9982289 0.0307091 0.0017711 -0.0307091
18016 0.0016650 -0.0293874 0.9983350 0.0293874 0.9983350 0.0293874 0.0016650 -0.0293874
18841 0.0015669 -0.0281229 0.9984331 0.0281229 0.9984331 0.0281229 0.0015669 -0.0281229
19704 0.0014759 -0.0269132 0.9985241 0.0269132 0.9985241 0.0269132 0.0014759 -0.0269132
20606 0.0013915 -0.0257560 0.9986085 0.0257560 0.9986085 0.0257560 0.0013915 -0.0257560
21550 0.0013131 -0.0246489 0.9986869 0.0246489 0.9986869 0.0246489 0.0013131 -0.0246489
22537 0.0012401 -0.0235899 0.9987599 0.0235899 0.9987599 0.0235899 0.0012401 -0.0235899
23569 0.0011721 -0.0225769 0.9988279 0.0225769 0.9988279 0.0225769 0.0011721 -0.0225769
24648 0.0011086 -0.0216078 0.9988914 0.0216078 0.9988914 0.0216078 0.0011086 -0.0216078
25777 0.0010492 -0.0206807 0.9989508 0.0206807 0.9989508 0.0206807 0.0010492 -0.0206807
26957 0.0009936 -0.0197937 0.9990064 0.0197937 0.9990064 0.0197937 0.0009936 -0.0197937
28191 0.0009414 -0.0189452 0.9990586 0.0189452 0.9990586 0.0189452 0.0009414 -0.0189452
29482 0.0008924 -0.0181333 0.9991076 0.0181333 0.9991076 0.0181333 0.0008924 -0.0181333
30832 0.0008462 -0.0173566 0.9991538 0.0173566 0.9991538 0.0173566 0.0008462 -0.0173566
32244 0.0008027 -0.0166133 0.9991973 0.0166133 0.9991973 0.0166133 0.0008027 -0.0166133
33721 0.0007617 -0.0159021 0.9992383 0.0159021 0.9992383 0.0159021 0.0007617 -0.0159021
35265 0.0007229 -0.0152214 0.9992771 0.0152214 0.9992771 0.0152214 0.0007229 -0.0152214
36880 0.0006862 -0.0145701 0.9993138 0.0145701 0.9993138 0.0145701 0.0006862 -0.0145701
38569 0.0006515 -0.0139466 0.9993485 0.0139466 0.9993485 0.0139466 0.0006515 -0.0139466
40335 0.0006186 -0.0133499 0.9993814 0.0133499 0.9993814 0.0133499 0.0006186 -0.0133499
42182 0.0005875 -0.0127786 0.9994125 0.0127786 0.9994125 0.0127786 0.0005875 -0.0127786
44113 0.0005579 -0.0122318 0.9994421 0.0122318 0.9994421 0.0122318 0.0005579 -0.0122318
46134 0.0005300 -0.0117083 0.9994700 0.0117083 0.9994700 0.0117083 0.0005300 -0.0117083
48246 0.0005034 -0.0112071 0.9994966 0.0112071 0.9994966 0.0112071 0.0005034 -0.0112071
50455 0.0004783 -0.0107273 0.9995217 0.0107273 0.9995217 0.0107273 0.0004783 -0.0107273
52766 0.0004545 -0.0102678 0.9995455 0.0102678 0.9995455 0.0102678 0.0004545 -0.0102678
55182 0.0004320 -0.0098279 0.9995680 0.0098279 0.9995680 0.0098279 0.0004320 -0.0098279
57709 0.0004107 -0.0094067 0.9995893 0.0094067 0.9995893 0.0094067 0.0004107 -0.0094067
60352 0.0003906 -0.0090034 0.9996094 0.0090034 0.9996094 0.0090034 0.0003906 -0.0090034
63115 0.0003716 -0.0086172 0.9996284 0.0086172 0.9996284 0.0086172 0.0003716 -0.0086172
66005 0.0003537 -0.0082474 0.9996463 0.0082474 0.9996463 0.0082474 0.0003537 -0.0082474
69028 0.0003368 -0.0078933 0.9996632 0.0078933 0.9996632 0.0078933 0.0003368 -0.0078933
72189 0.0003209 -0.0075544 0.9996791 0.0075544 0.9996791 0.0075544 0.0003209 -0.0075544
75495 0.0003059 -0.0072298 0.9996941 0.0072298 0.9996941 0.0072298 0.0003059 -0.0072298
78952 0.0002917 -0.0069191 0.9997083 0.0069191 0.9997083 0.0069191 0.0002917 -0.0069191
82567 0.0002785 -0.0066216 0.9997215 0.0066216 0.9997215 0.0066216 0.0002785 -0.0066216
86348 0.0002660 -0.0063368 0.9997340 0.0063368 0.9997340 0.0063368 0.0002660 -0.0063368
90302 0.0002543 -0.0060642 0.9997457 0.0060642 0.9997457 0.0060642 0.0002543 -0.0060642
94437 0.0002432 -0.0058032 0.9997568 0.0058032 0.9997568 0.0058032 0.0002432 -0.0058032
98762 0.0002329 -0.0055534 0.9997671 0.0055534 0.9997671 0.0055534 0.0002329 -0.0055534
103284 0.0002231 -0.0053144 0.9997769 0.0053144 0.9997769 0.0053144 0.0002231 -0.0053144
108014 0.0002139 -0.0050855 0.9997861 0.0050855 0.9997861 0.0050855 0.0002139 -0.0050855
112960 0.0002053 -0.0048665 0.9997947 0.0048665 0.9997947 0.0048665 0.0002053 -0.0048665
118133 0.0001972 -0.0046569 0.9998028 0.0046569 0.9998028 0.0046569 0.0001972 -0.0046569
123542 0.0001896 -0.0044563 0.9998104 0.0044563 0.9998104 0.0044563 0.0001896 -0.0044563
129199 0.0001823 -0.0042644 0.9998177 0.0042644 0.9998177 0.0042644 0.0001823 -0.0042644
135116 0.0001755 -0.0040807 0.9998245 0.0040807 0.9998245 0.0040807 0.0001755 -0.0040807
141303 0.0001691 -0.0039049 0.9998309 0.0039049 0.9998309 0.0039049 0.0001691 -0.0039049
147774 0.0001630 -0.0037367 0.9998370 0.0037367 0.9998370 0.0037367 0.0001630 -0.0037367
154540 0.0001572 -0.0035757 0.9998428 0.0035757 0.9998428 0.0035757 0.0001572 -0.0035757
161617 0.0001517 -0.0034217 0.9998483 0.0034217 0.9998483 0.0034217 0.0001517 -0.0034217
169018 0.0001465 -0.0032743 0.9998535 0.0032743 0.9998535 0.0032743 0.0001465 -0.0032743
176758 0.0001415 -0.0031332 0.9998585 0.0031332 0.9998585 0.0031332 0.0001415 -0.0031332
184852 0.0001368 -0.0029982 0.9998632 0.0029982 0.9998632 0.0029982 0.0001368 -0.0029982
193316 0.0001323 -0.0028690 0.9998677 0.0028690 0.9998677 0.0028690 0.0001323 -0.0028690
202169 0.0001279 -0.0027454 0.9998721 0.0027454 0.9998721 0.0027454 0.0001279 -0.0027454
211427 0.0001238 -0.0026270 0.9998762 0.0026270 0.9998762 0.0026270 0.0001238 -0.0026270
221108 0.0001198 -0.0025137 0.9998802 0.0025137 0.9998802 0.0025137 0.0001198 -0.0025137
231233 0.0001160 -0.0024053 0.9998840 0.0024053 0.9998840 0.0024053 0.0001160 -0.0024053
241822 0.0001124 -0.0023015 0.9998876 0.0023015 0.9998876 0.0023015 0.0001124 -0.0023015
252896 0.0001089 -0.0022021 0.9998911 0.0022021 0.9998911 0.0022021 0.0001089 -0.0022021
264476 0.0001055 -0.0021070 0.9998945 0.0021070 0.9998945 0.0021070 0.0001055 -0.0021070
276587 0.0001022 -0.0020159 0.9998978 0.0020159 0.9998978 0.0020159 0.0001022 -0.0020159
289253 0.0000991 -0.0019286 0.9999009 0.0019286 0.9999009 0.0019286 0.0000991 -0.0019286
302498 0.0000961 -0.0018451 0.9999039 0.0018451 0.9999039 0.0018451 0.0000961 -0.0018451
316350 0.0000932 -0.0017651 0.9999068 0.0017651 0.9999068 0.0017651 0.0000932 -0.0017651
330837 0.0000904 -0.0016885 0.9999096 0.0016885 0.9999096 0.0016885 0.0000904 -0.0016885
345986 0.0000878 -0.0016151 0.9999122 0.0016151 0.9999122 0.0016151 0.0000878 -0.0016151
361830 0.0000852 -0.0015448 0.9999148 0.0015448 0.9999148 0.0015448 0.0000852 -0.0015448
378399 0.0000827 -0.0014774 0.9999173 0.0014774 0.9999173 0.0014774 0.0000827 -0.0014774
395726 0.0000803 -0.0014128 0.9999197 0.0014128 0.9999197 0.0014128 0.0000803 -0.0014128
413847 0.0000780 -0.0013510 0.9999220 0.0013510 0.9999220 0.0013510 0.0000780 -0.0013510
432798 0.0000758 -0.0012917 0.9999242 0.0012917 0.9999242 0.0012917 0.0000758 -0.0012917
452617 0.0000737 -0.0012348 0.9999263 0.0012348 0.9999263 0.0012348 0.0000737 -0.0012348
473344 0.0000717 -0.0011803 0.9999283 0.0011803 0.9999283 0.0011803 0.0000717 -0.0011803
495019 0.0000697 -0.0011281 0.9999303 0.0011281 0.9999303 0.0011281 0.0000697 -0.0011281
517687 0.0000679 -0.0010779 0.9999321 0.0010779 0.9999321 0.0010779 0.0000679 -0.0010779
541393 0.0000661 -0.0010299 0.9999339 0.0010299 0.9999339 0.0010299 0.0000661 -0.0010299
566185 0.0000645 -0.0009838 0.9999355 0.0009838 0.9999355 0.0009838 0.0000645 -0.0009838
592111 0.0000629 -0.0009395 0.9999371 0.0009395 0.9999371 0.0009395 0.0000629 -0.0009395
619225 0.0000613 -0.0008970 0.9999387 0.0008970 0.9999387 0.0008970 0.0000613 -0.0008970
647581 0.0000599 -0.0008563 0.9999401 0.0008563 0.9999401 0.0008563 0.0000599 -0.0008563
677235 0.0000585 -0.0008172 0.9999415 0.0008172 0.9999415 0.0008172 0.0000585 -0.0008172
708247 0.0000573 -0.0007796 0.9999427 0.0007796 0.9999427 0.0007796 0.0000573 -0.0007796
740679 0.0000561 -0.0007435 0.9999439 0.0007435 0.9999439 0.0007435 0.0000561 -0.0007435
774597 0.0000549 -0.0007088 0.9999451 0.0007088 0.9999451 0.0007088 0.0000549 -0.0007088
810067 0.0000539 -0.0006755 0.9999461 0.0006755 0.9999461 0.0006755 0.0000539 -0.0006755
847162 0.0000529 -0.0006435 0.9999471 0.0006435 0.9999471 0.0006435 0.0000529 -0.0006435
885955 0.0000520 -0.0006127 0.9999480 0.0006127 0.9999480 0.0006127 0.0000520 -0.0006127
926525 0.0000512 -0.0005830 0.9999488 0.0005830 0.9999488 0.0005830 0.0000512 -0.0005830
968953 0.0000504 -0.0005545 0.9999496 0.0005545 0.9999496 0.0005545 0.0000504 -0.0005545
1013323 0.0000497 -0.0005271 0.9999503 0.0005271 0.9999503 0.0005271 0.0000497 -0.0005271
1059725 0.0000490 -0.0005007 0.9999510 0.0005007 0.9999510 0.0005007 0.0000490 -0.0005007
1108252 0.0000485 -0.0004752 0.9999515 0.0004752 0.9999515 0.0004752 0.0000485 -0.0004752
1159002 0.0000480 -0.0004507 0.9999520 0.0004507 0.9999520 0.0004507 0.0000480 -0.0004507
1212075 0.0000475 -0.0004270 0.9999525 0.0004270 0.9999525 0.0004270 0.0000475 -0.0004270
1267578 0.0000471 -0.0004042 0.9999529 0.0004042 0.9999529 0.0004042 0.0000471 -0.0004042
1325623 0.0000468 -0.0003821 0.9999532 0.0003821 0.9999532 0.0003821 0.0000468 -0.0003821
1386327 0.0000465 -0.0003608 0.9999535 0.0003608 0.9999535 0.0003608 0.0000465 -0.0003608
1449809 0.0000463 -0.0003402 0.9999537 0.0003402 0.9999537 0.0003402 0.0000463 -0.0003402
1516199 0.0000461 -0.0003203 0.9999539 0.0003203 0.9999539 0.0003203 0.0000461 -0.0003203
1585629 0.0000460 -0.0003010 0.9999540 0.0003010 0.9999540 0.0003010 0.0000460 -0.0003010
1658239 0.0000459 -0.0002822 0.9999541 0.0002822 0.9999541 0.0002822 0.0000459 -0.0002822
1734173 0.0000460 -0.0002641 0.9999540 0.0002641 0.9999540 0.0002641 0.0000460 -0.0002641
1813585 0.0000460 -0.0002464 0.9999540 0.0002464 0.9999540 0.0002464 0.0000460 -0.0002464
1896632 0.0000461 -0.0002292 0.9999539 0.0002292 0.9999539 0.0002292 0.0000461 -0.0002292
1983483 0.0000463 -0.0002125 0.9999537 0.0002125 0.9999537 0.0002125 0.0000463 -0.0002125
2074311 0.0000466 -0.0001962 0.9999534 0.0001962 0.9999534 0.0001962 0.0000466 -0.0001962
