!Murata Part Number: GRM219B31E106MA12
!These Parameters are Measured in Series Mode Connection
!Data Generated on Mar 30, 2021
!       o--ll--o
!Port1            Port2
!       o------o
!Operation Temp=25[degC], DC Bias Voltage=0[V]
!Freq. Start=100[Hz] Stop=6[GHz] 401[Steps]
# Hz S RI R 50
!Freq.(Hz) S11(Real) S11(Imag) S21(Real) S21(Imag) S12(Real) S12(Imag) S22(Real) S22(Imag)
100 0.8740237 -0.3214511 0.1259763 0.3214511 0.1259763 0.3214511 0.8740237 -0.3214511
105 0.8643037 -0.3321313 0.1356963 0.3321313 0.1356963 0.3321313 0.8643037 -0.3321313
109 0.8539414 -0.3428647 0.1460586 0.3428647 0.1460586 0.3428647 0.8539414 -0.3428647
114 0.8429137 -0.3536123 0.1570863 0.3536123 0.1570863 0.3536123 0.8429137 -0.3536123
120 0.8312004 -0.3643310 0.1687996 0.3643310 0.1687996 0.3643310 0.8312004 -0.3643310
125 0.8187842 -0.3749741 0.1812158 0.3749741 0.1812158 0.3749741 0.8187842 -0.3749741
131 0.8056515 -0.3854911 0.1943485 0.3854911 0.1943485 0.3854911 0.8056515 -0.3854911
137 0.7917934 -0.3958279 0.2082066 0.3958279 0.2082066 0.3958279 0.7917934 -0.3958279
143 0.7772058 -0.4059275 0.2227942 0.4059275 0.2227942 0.4059275 0.7772058 -0.4059275
150 0.7618902 -0.4157304 0.2381098 0.4157304 0.2381098 0.4157304 0.7618902 -0.4157304
156 0.7458543 -0.4251749 0.2541457 0.4251749 0.2541457 0.4251749 0.7458543 -0.4251749
164 0.7291125 -0.4341983 0.2708875 0.4341983 0.2708875 0.4341983 0.7291125 -0.4341983
171 0.7116861 -0.4427375 0.2883139 0.4427375 0.2883139 0.4427375 0.7116861 -0.4427375
179 0.6936037 -0.4507296 0.3063963 0.4507296 0.3063963 0.4507296 0.6936037 -0.4507296
187 0.6749013 -0.4581137 0.3250987 0.4581137 0.3250987 0.4581137 0.6749013 -0.4581137
196 0.6556222 -0.4648309 0.3443778 0.4648309 0.3443778 0.4648309 0.6556222 -0.4648309
205 0.6358170 -0.4708263 0.3641830 0.4708263 0.3641830 0.4708263 0.6358170 -0.4708263
214 0.6155428 -0.4760494 0.3844572 0.4760494 0.3844572 0.4760494 0.6155428 -0.4760494
224 0.5948631 -0.4804553 0.4051369 0.4804553 0.4051369 0.4804553 0.5948631 -0.4804553
234 0.5738468 -0.4840057 0.4261532 0.4840057 0.4261532 0.4840057 0.5738468 -0.4840057
245 0.5525675 -0.4866695 0.4474325 0.4866695 0.4474325 0.4866695 0.5525675 -0.4866695
256 0.5311021 -0.4884236 0.4688979 0.4884236 0.4688979 0.4884236 0.5311021 -0.4884236
268 0.5095302 -0.4892533 0.4904698 0.4892533 0.4904698 0.4892533 0.5095302 -0.4892533
280 0.4879325 -0.4891524 0.5120675 0.4891524 0.5120675 0.4891524 0.4879325 -0.4891524
293 0.4663899 -0.4881235 0.5336101 0.4881235 0.5336101 0.4881235 0.4663899 -0.4881235
306 0.4449819 -0.4861781 0.5550181 0.4861781 0.5550181 0.4861781 0.4449819 -0.4861781
320 0.4237861 -0.4833356 0.5762139 0.4833356 0.5762139 0.4833356 0.4237861 -0.4833356
335 0.4028764 -0.4796233 0.5971236 0.4796233 0.5971236 0.4796233 0.4028764 -0.4796233
350 0.3823225 -0.4750759 0.6176775 0.4750759 0.6176775 0.4750759 0.3823225 -0.4750759
366 0.3621891 -0.4697343 0.6378109 0.4697343 0.6378109 0.4697343 0.3621891 -0.4697343
383 0.3425349 -0.4636448 0.6574651 0.4636448 0.6574651 0.4636448 0.3425349 -0.4636448
401 0.3234125 -0.4568587 0.6765875 0.4568587 0.6765875 0.4568587 0.3234125 -0.4568587
419 0.3048676 -0.4494305 0.6951324 0.4494305 0.6951324 0.4494305 0.3048676 -0.4494305
438 0.2869394 -0.4414179 0.7130606 0.4414179 0.7130606 0.4414179 0.2869394 -0.4414179
458 0.2696600 -0.4328799 0.7303400 0.4328799 0.7303400 0.4328799 0.2696600 -0.4328799
479 0.2530547 -0.4238767 0.7469453 0.4238767 0.7469453 0.4238767 0.2530547 -0.4238767
501 0.2371423 -0.4144684 0.7628577 0.4144684 0.7628577 0.4144684 0.2371423 -0.4144684
524 0.2219354 -0.4047146 0.7780646 0.4047146 0.7780646 0.4047146 0.2219354 -0.4047146
548 0.2074404 -0.3946732 0.7925596 0.3946732 0.7925596 0.3946732 0.2074404 -0.3946732
573 0.1936586 -0.3844005 0.8063414 0.3844005 0.8063414 0.3844005 0.1936586 -0.3844005
600 0.1805862 -0.3739504 0.8194138 0.3739504 0.8194138 0.3739504 0.1805862 -0.3739504
627 0.1682148 -0.3633738 0.8317852 0.3633738 0.8317852 0.3633738 0.1682148 -0.3633738
656 0.1565322 -0.3527187 0.8434678 0.3527187 0.8434678 0.3527187 0.1565322 -0.3527187
686 0.1455228 -0.3420297 0.8544772 0.3420297 0.8544772 0.3420297 0.1455228 -0.3420297
717 0.1351681 -0.3313480 0.8648319 0.3313480 0.8648319 0.3313480 0.1351681 -0.3313480
750 0.1254471 -0.3207113 0.8745529 0.3207113 0.8745529 0.3207113 0.1254471 -0.3207113
784 0.1163371 -0.3101537 0.8836629 0.3101537 0.8836629 0.3101537 0.1163371 -0.3101537
820 0.1078136 -0.2997059 0.8921864 0.2997059 0.8921864 0.2997059 0.1078136 -0.2997059
858 0.0998513 -0.2893951 0.9001487 0.2893951 0.9001487 0.2893951 0.0998513 -0.2893951
897 0.0924239 -0.2792453 0.9075761 0.2792453 0.9075761 0.2792453 0.0924239 -0.2792453
938 0.0855049 -0.2692771 0.9144951 0.2692771 0.9144951 0.2692771 0.0855049 -0.2692771
981 0.0790676 -0.2595084 0.9209324 0.2595084 0.9209324 0.2595084 0.0790676 -0.2595084
1026 0.0730855 -0.2499541 0.9269145 0.2499541 0.9269145 0.2499541 0.0730855 -0.2499541
1073 0.0675324 -0.2406267 0.9324676 0.2406267 0.9324676 0.2406267 0.0675324 -0.2406267
1122 0.0623826 -0.2315361 0.9376174 0.2315361 0.9376174 0.2315361 0.0623826 -0.2315361
1174 0.0576112 -0.2226899 0.9423888 0.2226899 0.9423888 0.2226899 0.0576112 -0.2226899
1227 0.0531941 -0.2140941 0.9468059 0.2140941 0.9468059 0.2140941 0.0531941 -0.2140941
1283 0.0491080 -0.2057523 0.9508920 0.2057523 0.9508920 0.2057523 0.0491080 -0.2057523
1342 0.0453305 -0.1976671 0.9546695 0.1976671 0.9546695 0.1976671 0.0453305 -0.1976671
1404 0.0418405 -0.1898391 0.9581595 0.1898391 0.9581595 0.1898391 0.0418405 -0.1898391
1468 0.0386177 -0.1822679 0.9613823 0.1822679 0.9613823 0.1822679 0.0386177 -0.1822679
1535 0.0356429 -0.1749520 0.9643571 0.1749520 0.9643571 0.1749520 0.0356429 -0.1749520
1606 0.0328981 -0.1678888 0.9671019 0.1678888 0.9671019 0.1678888 0.0328981 -0.1678888
1679 0.0303663 -0.1610748 0.9696337 0.1610748 0.9696337 0.1610748 0.0303663 -0.1610748
1756 0.0280314 -0.1545060 0.9719686 0.1545060 0.9719686 0.1545060 0.0280314 -0.1545060
1836 0.0258786 -0.1481776 0.9741214 0.1481776 0.9741214 0.1481776 0.0258786 -0.1481776
1920 0.0238939 -0.1420845 0.9761061 0.1420845 0.9761061 0.1420845 0.0238939 -0.1420845
2008 0.0220641 -0.1362210 0.9779359 0.1362210 0.9779359 0.1362210 0.0220641 -0.1362210
2100 0.0203773 -0.1305811 0.9796227 0.1305811 0.9796227 0.1305811 0.0203773 -0.1305811
2196 0.0188222 -0.1251586 0.9811778 0.1251586 0.9811778 0.1251586 0.0188222 -0.1251586
2297 0.0173884 -0.1199473 0.9826116 0.1199473 0.9826116 0.1199473 0.0173884 -0.1199473
2402 0.0160662 -0.1149406 0.9839338 0.1149406 0.9839338 0.1149406 0.0160662 -0.1149406
2512 0.0148469 -0.1101319 0.9851531 0.1101319 0.9851531 0.1101319 0.0148469 -0.1101319
2627 0.0137222 -0.1055147 0.9862778 0.1055147 0.9862778 0.1055147 0.0137222 -0.1055147
2748 0.0126845 -0.1010825 0.9873155 0.1010825 0.9873155 0.1010825 0.0126845 -0.1010825
2873 0.0117271 -0.0968288 0.9882729 0.0968288 0.9882729 0.0968288 0.0117271 -0.0968288
3005 0.0108434 -0.0927471 0.9891566 0.0927471 0.9891566 0.0927471 0.0108434 -0.0927471
3143 0.0100278 -0.0888313 0.9899722 0.0888313 0.9899722 0.0888313 0.0100278 -0.0888313
3287 0.0092748 -0.0850750 0.9907252 0.0850750 0.9907252 0.0850750 0.0092748 -0.0850750
3437 0.0085795 -0.0814724 0.9914205 0.0814724 0.9914205 0.0814724 0.0085795 -0.0814724
3594 0.0079374 -0.0780176 0.9920626 0.0780176 0.9920626 0.0780176 0.0079374 -0.0780176
3759 0.0073445 -0.0747048 0.9926555 0.0747048 0.9926555 0.0747048 0.0073445 -0.0747048
3931 0.0067969 -0.0715287 0.9932031 0.0715287 0.9932031 0.0715287 0.0067969 -0.0715287
4111 0.0062911 -0.0684839 0.9937089 0.0684839 0.9937089 0.0684839 0.0062911 -0.0684839
4299 0.0058240 -0.0655652 0.9941760 0.0655652 0.9941760 0.0655652 0.0058240 -0.0655652
4496 0.0053927 -0.0627677 0.9946073 0.0627677 0.9946073 0.0627677 0.0053927 -0.0627677
4702 0.0049944 -0.0600866 0.9950056 0.0600866 0.9950056 0.0600866 0.0049944 -0.0600866
4918 0.0046267 -0.0575172 0.9953733 0.0575172 0.9953733 0.0575172 0.0046267 -0.0575172
5143 0.0042872 -0.0550553 0.9957128 0.0550553 0.9957128 0.0550553 0.0042872 -0.0550553
5378 0.0039739 -0.0526964 0.9960261 0.0526964 0.9960261 0.0526964 0.0039739 -0.0526964
5625 0.0036847 -0.0504365 0.9963153 0.0504365 0.9963153 0.0504365 0.0036847 -0.0504365
5882 0.0034179 -0.0482717 0.9965821 0.0482717 0.9965821 0.0482717 0.0034179 -0.0482717
6151 0.0031718 -0.0461980 0.9968282 0.0461980 0.9968282 0.0461980 0.0031718 -0.0461980
6433 0.0029449 -0.0442119 0.9970551 0.0442119 0.9970551 0.0442119 0.0029449 -0.0442119
6728 0.0027356 -0.0423099 0.9972644 0.0423099 0.9972644 0.0423099 0.0027356 -0.0423099
7036 0.0025426 -0.0404885 0.9974574 0.0404885 0.9974574 0.0404885 0.0025426 -0.0404885
7358 0.0023647 -0.0387445 0.9976353 0.0387445 0.9976353 0.0387445 0.0023647 -0.0387445
7695 0.0022007 -0.0370747 0.9977993 0.0370747 0.9977993 0.0370747 0.0022007 -0.0370747
8047 0.0020496 -0.0354762 0.9979504 0.0354762 0.9979504 0.0354762 0.0020496 -0.0354762
8416 0.0019102 -0.0339460 0.9980898 0.0339460 0.9980898 0.0339460 0.0019102 -0.0339460
8801 0.0017818 -0.0324812 0.9982182 0.0324812 0.9982182 0.0324812 0.0017818 -0.0324812
9204 0.0016634 -0.0310793 0.9983366 0.0310793 0.9983366 0.0310793 0.0016634 -0.0310793
9626 0.0015542 -0.0297376 0.9984458 0.0297376 0.9984458 0.0297376 0.0015542 -0.0297376
10066 0.0014535 -0.0284537 0.9985465 0.0284537 0.9985465 0.0284537 0.0014535 -0.0284537
10527 0.0013605 -0.0272250 0.9986395 0.0272250 0.9986395 0.0272250 0.0013605 -0.0272250
11009 0.0012747 -0.0260494 0.9987253 0.0260494 0.9987253 0.0260494 0.0012747 -0.0260494
11514 0.0011955 -0.0249245 0.9988045 0.0249245 0.9988045 0.0249245 0.0011955 -0.0249245
12041 0.0011222 -0.0238483 0.9988778 0.0238483 0.9988778 0.0238483 0.0011222 -0.0238483
12592 0.0010544 -0.0228186 0.9989456 0.0228186 0.9989456 0.0228186 0.0010544 -0.0228186
13169 0.0009917 -0.0218335 0.9990083 0.0218335 0.9990083 0.0218335 0.0009917 -0.0218335
13772 0.0009335 -0.0208912 0.9990665 0.0208912 0.9990665 0.0208912 0.0009335 -0.0208912
14402 0.0008796 -0.0199897 0.9991204 0.0199897 0.9991204 0.0199897 0.0008796 -0.0199897
15062 0.0008294 -0.0191273 0.9991706 0.0191273 0.9991706 0.0191273 0.0008294 -0.0191273
15752 0.0007828 -0.0183023 0.9992172 0.0183023 0.9992172 0.0183023 0.0007828 -0.0183023
16473 0.0007393 -0.0175131 0.9992607 0.0175131 0.9992607 0.0175131 0.0007393 -0.0175131
17227 0.0006988 -0.0167582 0.9993012 0.0167582 0.9993012 0.0167582 0.0006988 -0.0167582
18016 0.0006609 -0.0160360 0.9993391 0.0160360 0.9993391 0.0160360 0.0006609 -0.0160360
18841 0.0006255 -0.0153451 0.9993745 0.0153451 0.9993745 0.0153451 0.0006255 -0.0153451
19704 0.0005923 -0.0146842 0.9994077 0.0146842 0.9994077 0.0146842 0.0005923 -0.0146842
20606 0.0005611 -0.0140518 0.9994389 0.0140518 0.9994389 0.0140518 0.0005611 -0.0140518
21550 0.0005318 -0.0134469 0.9994682 0.0134469 0.9994682 0.0134469 0.0005318 -0.0134469
22537 0.0005043 -0.0128680 0.9994957 0.0128680 0.9994957 0.0128680 0.0005043 -0.0128680
23569 0.0004784 -0.0123142 0.9995216 0.0123142 0.9995216 0.0123142 0.0004784 -0.0123142
24648 0.0004539 -0.0117843 0.9995461 0.0117843 0.9995461 0.0117843 0.0004539 -0.0117843
25777 0.0004308 -0.0112772 0.9995692 0.0112772 0.9995692 0.0112772 0.0004308 -0.0112772
26957 0.0004090 -0.0107919 0.9995910 0.0107919 0.9995910 0.0107919 0.0004090 -0.0107919
28191 0.0003884 -0.0103275 0.9996116 0.0103275 0.9996116 0.0103275 0.0003884 -0.0103275
29482 0.0003689 -0.0098831 0.9996311 0.0098831 0.9996311 0.0098831 0.0003689 -0.0098831
30832 0.0003505 -0.0094577 0.9996495 0.0094577 0.9996495 0.0094577 0.0003505 -0.0094577
32244 0.0003331 -0.0090506 0.9996669 0.0090506 0.9996669 0.0090506 0.0003331 -0.0090506
33721 0.0003167 -0.0086609 0.9996833 0.0086609 0.9996833 0.0086609 0.0003167 -0.0086609
35265 0.0003011 -0.0082879 0.9996989 0.0082879 0.9996989 0.0082879 0.0003011 -0.0082879
36880 0.0002865 -0.0079308 0.9997135 0.0079308 0.9997135 0.0079308 0.0002865 -0.0079308
38569 0.0002726 -0.0075891 0.9997274 0.0075891 0.9997274 0.0075891 0.0002726 -0.0075891
40335 0.0002596 -0.0072619 0.9997404 0.0072619 0.9997404 0.0072619 0.0002596 -0.0072619
42182 0.0002473 -0.0069488 0.9997527 0.0069488 0.9997527 0.0069488 0.0002473 -0.0069488
44113 0.0002357 -0.0066491 0.9997643 0.0066491 0.9997643 0.0066491 0.0002357 -0.0066491
46134 0.0002248 -0.0063621 0.9997752 0.0063621 0.9997752 0.0063621 0.0002248 -0.0063621
48246 0.0002145 -0.0060875 0.9997855 0.0060875 0.9997855 0.0060875 0.0002145 -0.0060875
50455 0.0002049 -0.0058246 0.9997951 0.0058246 0.9997951 0.0058246 0.0002049 -0.0058246
52766 0.0001959 -0.0055730 0.9998041 0.0055730 0.9998041 0.0055730 0.0001959 -0.0055730
55182 0.0001874 -0.0053322 0.9998126 0.0053322 0.9998126 0.0053322 0.0001874 -0.0053322
57709 0.0001795 -0.0051017 0.9998205 0.0051017 0.9998205 0.0051017 0.0001795 -0.0051017
60352 0.0001720 -0.0048811 0.9998280 0.0048811 0.9998280 0.0048811 0.0001720 -0.0048811
63115 0.0001651 -0.0046701 0.9998349 0.0046701 0.9998349 0.0046701 0.0001651 -0.0046701
66005 0.0001586 -0.0044681 0.9998414 0.0044681 0.9998414 0.0044681 0.0001586 -0.0044681
69028 0.0001524 -0.0042748 0.9998476 0.0042748 0.9998476 0.0042748 0.0001524 -0.0042748
72189 0.0001467 -0.0040898 0.9998533 0.0040898 0.9998533 0.0040898 0.0001467 -0.0040898
75495 0.0001414 -0.0039128 0.9998586 0.0039128 0.9998586 0.0039128 0.0001414 -0.0039128
78952 0.0001363 -0.0037435 0.9998637 0.0037435 0.9998637 0.0037435 0.0001363 -0.0037435
82567 0.0001316 -0.0035815 0.9998684 0.0035815 0.9998684 0.0035815 0.0001316 -0.0035815
86348 0.0001272 -0.0034265 0.9998728 0.0034265 0.9998728 0.0034265 0.0001272 -0.0034265
90302 0.0001231 -0.0032782 0.9998769 0.0032782 0.9998769 0.0032782 0.0001231 -0.0032782
94437 0.0001191 -0.0031364 0.9998809 0.0031364 0.9998809 0.0031364 0.0001191 -0.0031364
98762 0.0001155 -0.0030007 0.9998845 0.0030007 0.9998845 0.0030007 0.0001155 -0.0030007
103284 0.0001120 -0.0028709 0.9998880 0.0028709 0.9998880 0.0028709 0.0001120 -0.0028709
108014 0.0001087 -0.0027467 0.9998913 0.0027467 0.9998913 0.0027467 0.0001087 -0.0027467
112960 0.0001055 -0.0026279 0.9998945 0.0026279 0.9998945 0.0026279 0.0001055 -0.0026279
118133 0.0001025 -0.0025143 0.9998975 0.0025143 0.9998975 0.0025143 0.0001025 -0.0025143
123542 0.0000997 -0.0024056 0.9999003 0.0024056 0.9999003 0.0024056 0.0000997 -0.0024056
129199 0.0000970 -0.0023016 0.9999030 0.0023016 0.9999030 0.0023016 0.0000970 -0.0023016
135116 0.0000944 -0.0022021 0.9999056 0.0022021 0.9999056 0.0022021 0.0000944 -0.0022021
141303 0.0000919 -0.0021069 0.9999081 0.0021069 0.9999081 0.0021069 0.0000919 -0.0021069
147774 0.0000894 -0.0020158 0.9999106 0.0020158 0.9999106 0.0020158 0.0000894 -0.0020158
154540 0.0000871 -0.0019287 0.9999129 0.0019287 0.9999129 0.0019287 0.0000871 -0.0019287
161617 0.0000848 -0.0018453 0.9999152 0.0018453 0.9999152 0.0018453 0.0000848 -0.0018453
169018 0.0000826 -0.0017655 0.9999174 0.0017655 0.9999174 0.0017655 0.0000826 -0.0017655
176758 0.0000805 -0.0016891 0.9999195 0.0016891 0.9999195 0.0016891 0.0000805 -0.0016891
184852 0.0000784 -0.0016161 0.9999216 0.0016161 0.9999216 0.0016161 0.0000784 -0.0016161
193316 0.0000764 -0.0015461 0.9999236 0.0015461 0.9999236 0.0015461 0.0000764 -0.0015461
202169 0.0000744 -0.0014791 0.9999256 0.0014791 0.9999256 0.0014791 0.0000744 -0.0014791
211427 0.0000725 -0.0014150 0.9999275 0.0014150 0.9999275 0.0014150 0.0000725 -0.0014150
221108 0.0000706 -0.0013535 0.9999294 0.0013535 0.9999294 0.0013535 0.0000706 -0.0013535
231233 0.0000688 -0.0012947 0.9999312 0.0012947 0.9999312 0.0012947 0.0000688 -0.0012947
241822 0.0000670 -0.0012384 0.9999330 0.0012384 0.9999330 0.0012384 0.0000670 -0.0012384
252896 0.0000653 -0.0011844 0.9999347 0.0011844 0.9999347 0.0011844 0.0000653 -0.0011844
264476 0.0000636 -0.0011327 0.9999364 0.0011327 0.9999364 0.0011327 0.0000636 -0.0011327
276587 0.0000620 -0.0010831 0.9999380 0.0010831 0.9999380 0.0010831 0.0000620 -0.0010831
289253 0.0000605 -0.0010356 0.9999395 0.0010356 0.9999395 0.0010356 0.0000605 -0.0010356
302498 0.0000590 -0.0009901 0.9999410 0.0009901 0.9999410 0.0009901 0.0000590 -0.0009901
316350 0.0000575 -0.0009465 0.9999425 0.0009465 0.9999425 0.0009465 0.0000575 -0.0009465
330837 0.0000561 -0.0009046 0.9999439 0.0009046 0.9999439 0.0009046 0.0000561 -0.0009046
345986 0.0000548 -0.0008645 0.9999452 0.0008645 0.9999452 0.0008645 0.0000548 -0.0008645
361830 0.0000535 -0.0008260 0.9999465 0.0008260 0.9999465 0.0008260 0.0000535 -0.0008260
378399 0.0000523 -0.0007891 0.9999477 0.0007891 0.9999477 0.0007891 0.0000523 -0.0007891
395726 0.0000512 -0.0007537 0.9999488 0.0007537 0.9999488 0.0007537 0.0000512 -0.0007537
413847 0.0000501 -0.0007197 0.9999499 0.0007197 0.9999499 0.0007197 0.0000501 -0.0007197
432798 0.0000490 -0.0006871 0.9999510 0.0006871 0.9999510 0.0006871 0.0000490 -0.0006871
452617 0.0000481 -0.0006558 0.9999519 0.0006558 0.9999519 0.0006558 0.0000481 -0.0006558
473344 0.0000471 -0.0006257 0.9999529 0.0006257 0.9999529 0.0006257 0.0000471 -0.0006257
495019 0.0000463 -0.0005969 0.9999537 0.0005969 0.9999537 0.0005969 0.0000463 -0.0005969
517687 0.0000455 -0.0005692 0.9999545 0.0005692 0.9999545 0.0005692 0.0000455 -0.0005692
541393 0.0000448 -0.0005426 0.9999552 0.0005426 0.9999552 0.0005426 0.0000448 -0.0005426
566185 0.0000441 -0.0005170 0.9999559 0.0005170 0.9999559 0.0005170 0.0000441 -0.0005170
592111 0.0000434 -0.0004924 0.9999566 0.0004924 0.9999566 0.0004924 0.0000434 -0.0004924
619225 0.0000428 -0.0004688 0.9999572 0.0004688 0.9999572 0.0004688 0.0000428 -0.0004688
647581 0.0000423 -0.0004461 0.9999577 0.0004461 0.9999577 0.0004461 0.0000423 -0.0004461
677235 0.0000418 -0.0004242 0.9999582 0.0004242 0.9999582 0.0004242 0.0000418 -0.0004242
708247 0.0000414 -0.0004032 0.9999586 0.0004032 0.9999586 0.0004032 0.0000414 -0.0004032
740679 0.0000410 -0.0003830 0.9999590 0.0003830 0.9999590 0.0003830 0.0000410 -0.0003830
774597 0.0000406 -0.0003635 0.9999594 0.0003635 0.9999594 0.0003635 0.0000406 -0.0003635
810067 0.0000403 -0.0003447 0.9999597 0.0003447 0.9999597 0.0003447 0.0000403 -0.0003447
847162 0.0000401 -0.0003266 0.9999599 0.0003266 0.9999599 0.0003266 0.0000401 -0.0003266
885955 0.0000398 -0.0003091 0.9999602 0.0003091 0.9999602 0.0003091 0.0000398 -0.0003091
926525 0.0000396 -0.0002923 0.9999604 0.0002923 0.9999604 0.0002923 0.0000396 -0.0002923
968953 0.0000395 -0.0002760 0.9999605 0.0002760 0.9999605 0.0002760 0.0000395 -0.0002760
1013323 0.0000394 -0.0002602 0.9999606 0.0002602 0.9999606 0.0002602 0.0000394 -0.0002602
1059725 0.0000393 -0.0002450 0.9999607 0.0002450 0.9999607 0.0002450 0.0000393 -0.0002450
1108252 0.0000393 -0.0002302 0.9999607 0.0002302 0.9999607 0.0002302 0.0000393 -0.0002302
1159002 0.0000393 -0.0002159 0.9999607 0.0002159 0.9999607 0.0002159 0.0000393 -0.0002159
1212075 0.0000393 -0.0002021 0.9999607 0.0002021 0.9999607 0.0002021 0.0000393 -0.0002021
1267578 0.0000394 -0.0001886 0.9999606 0.0001886 0.9999606 0.0001886 0.0000394 -0.0001886
1325623 0.0000395 -0.0001755 0.9999605 0.0001755 0.9999605 0.0001755 0.0000395 -0.0001755
1386327 0.0000397 -0.0001627 0.9999603 0.0001627 0.9999603 0.0001627 0.0000397 -0.0001627
1449809 0.0000399 -0.0001503 0.9999601 0.0001503 0.9999601 0.0001503 0.0000399 -0.0001503
1516199 0.0000402 -0.0001381 0.9999598 0.0001381 0.9999598 0.0001381 0.0000402 -0.0001381
1585629 0.0000405 -0.0001263 0.9999595 0.0001263 0.9999595 0.0001263 0.0000405 -0.0001263
1658239 0.0000409 -0.0001146 0.9999591 0.0001146 0.9999591 0.0001146 0.0000409 -0.0001146
1734173 0.0000413 -0.0001033 0.9999587 0.0001033 0.9999587 0.0001033 0.0000413 -0.0001033
1813585 0.0000418 -0.0000921 0.9999582 0.0000921 0.9999582 0.0000921 0.0000418 -0.0000921
1896632 0.0000423 -0.0000810 0.9999577 0.0000810 0.9999577 0.0000810 0.0000423 -0.0000810
1983483 0.0000430 -0.0000702 0.9999570 0.0000702 0.9999570 0.0000702 0.0000430 -0.0000702
2074311 0.0000437 -0.0000595 0.9999563 0.0000595 0.9999563 0.0000595 0.0000437 -0.0000595
