!Murata Part Number: GRM21BB31H474MA87
!These Parameters are Measured in Series Mode Connection
!Data Generated on Mar 30, 2021
!       o--ll--o
!Port1            Port2
!       o------o
!Operation Temp=25[degC], DC Bias Voltage=0[V]
!Freq. Start=100[Hz] Stop=6[GHz] 401[Steps]
# Hz S RI R 50
!Freq.(Hz) S11(Real) S11(Imag) S21(Real) S21(Imag) S12(Real) S12(Imag) S22(Real) S22(Imag)
100 0.9989694 -0.0295014 0.0010306 0.0295014 0.0010306 0.0295014 0.9989694 -0.0295014
105 0.9988804 -0.0308446 0.0011196 0.0308446 0.0011196 0.0308446 0.9988804 -0.0308446
109 0.9987835 -0.0322486 0.0012165 0.0322486 0.0012165 0.0322486 0.9987835 -0.0322486
114 0.9986780 -0.0337162 0.0013220 0.0337162 0.0013220 0.0337162 0.9986780 -0.0337162
120 0.9985629 -0.0352501 0.0014371 0.0352501 0.0014371 0.0352501 0.9985629 -0.0352501
125 0.9984376 -0.0368535 0.0015624 0.0368535 0.0015624 0.0368535 0.9984376 -0.0368535
131 0.9983010 -0.0385292 0.0016990 0.0385292 0.0016990 0.0385292 0.9983010 -0.0385292
137 0.9981522 -0.0402806 0.0018478 0.0402806 0.0018478 0.0402806 0.9981522 -0.0402806
143 0.9979900 -0.0421109 0.0020100 0.0421109 0.0020100 0.0421109 0.9979900 -0.0421109
150 0.9978133 -0.0440237 0.0021867 0.0440237 0.0021867 0.0440237 0.9978133 -0.0440237
156 0.9976207 -0.0460226 0.0023793 0.0460226 0.0023793 0.0460226 0.9976207 -0.0460226
164 0.9974108 -0.0481112 0.0025892 0.0481112 0.0025892 0.0481112 0.9974108 -0.0481112
171 0.9971820 -0.0502937 0.0028180 0.0502937 0.0028180 0.0502937 0.9971820 -0.0502937
179 0.9969327 -0.0525740 0.0030673 0.0525740 0.0030673 0.0525740 0.9969327 -0.0525740
187 0.9966610 -0.0549564 0.0033390 0.0549564 0.0033390 0.0549564 0.9966610 -0.0549564
196 0.9963649 -0.0574453 0.0036351 0.0574453 0.0036351 0.0574453 0.9963649 -0.0574453
205 0.9960420 -0.0600453 0.0039580 0.0600453 0.0039580 0.0600453 0.9960420 -0.0600453
214 0.9956901 -0.0627610 0.0043099 0.0627610 0.0043099 0.0627610 0.9956901 -0.0627610
224 0.9953065 -0.0655975 0.0046935 0.0655975 0.0046935 0.0655975 0.9953065 -0.0655975
234 0.9948883 -0.0685598 0.0051117 0.0685598 0.0051117 0.0685598 0.9948883 -0.0685598
245 0.9944323 -0.0716532 0.0055677 0.0716532 0.0055677 0.0716532 0.9944323 -0.0716532
256 0.9939352 -0.0748830 0.0060648 0.0748830 0.0060648 0.0748830 0.9939352 -0.0748830
268 0.9933932 -0.0782549 0.0066068 0.0782549 0.0066068 0.0782549 0.9933932 -0.0782549
280 0.9928023 -0.0817746 0.0071977 0.0817746 0.0071977 0.0817746 0.9928023 -0.0817746
293 0.9921580 -0.0854480 0.0078420 0.0854480 0.0078420 0.0854480 0.9921580 -0.0854480
306 0.9914555 -0.0892812 0.0085445 0.0892812 0.0085445 0.0892812 0.9914555 -0.0892812
320 0.9906896 -0.0932803 0.0093104 0.0932803 0.0093104 0.0932803 0.9906896 -0.0932803
335 0.9898546 -0.0974517 0.0101454 0.0974517 0.0101454 0.0974517 0.9898546 -0.0974517
350 0.9889444 -0.1018019 0.0110556 0.1018019 0.0110556 0.1018019 0.9889444 -0.1018019
366 0.9879523 -0.1063373 0.0120477 0.1063373 0.0120477 0.1063373 0.9879523 -0.1063373
383 0.9868709 -0.1110645 0.0131291 0.1110645 0.0131291 0.1110645 0.9868709 -0.1110645
401 0.9856926 -0.1159902 0.0143074 0.1159902 0.0143074 0.1159902 0.9856926 -0.1159902
419 0.9844087 -0.1211210 0.0155913 0.1211210 0.0155913 0.1211210 0.9844087 -0.1211210
438 0.9830101 -0.1264636 0.0169899 0.1264636 0.0169899 0.1264636 0.9830101 -0.1264636
458 0.9814868 -0.1320246 0.0185132 0.1320246 0.0185132 0.1320246 0.9814868 -0.1320246
479 0.9798283 -0.1378105 0.0201717 0.1378105 0.0201717 0.1378105 0.9798283 -0.1378105
501 0.9780229 -0.1438275 0.0219771 0.1438275 0.0219771 0.1438275 0.9780229 -0.1438275
524 0.9760583 -0.1500819 0.0239417 0.1500819 0.0239417 0.1500819 0.9760583 -0.1500819
548 0.9739212 -0.1565793 0.0260788 0.1565793 0.0260788 0.1565793 0.9739212 -0.1565793
573 0.9715972 -0.1633252 0.0284028 0.1633252 0.0284028 0.1633252 0.9715972 -0.1633252
600 0.9690710 -0.1703247 0.0309290 0.1703247 0.0309290 0.1703247 0.9690710 -0.1703247
627 0.9663264 -0.1775822 0.0336736 0.1775822 0.0336736 0.1775822 0.9663264 -0.1775822
656 0.9633457 -0.1851013 0.0366543 0.1851013 0.0366543 0.1851013 0.9633457 -0.1851013
686 0.9601105 -0.1928851 0.0398895 0.1928851 0.0398895 0.1928851 0.9601105 -0.1928851
717 0.9566009 -0.2009356 0.0433991 0.2009356 0.0433991 0.2009356 0.9566009 -0.2009356
750 0.9527960 -0.2092537 0.0472040 0.2092537 0.0472040 0.2092537 0.9527960 -0.2092537
784 0.9486737 -0.2178390 0.0513263 0.2178390 0.0513263 0.2178390 0.9486737 -0.2178390
820 0.9442107 -0.2266898 0.0557893 0.2266898 0.0557893 0.2266898 0.9442107 -0.2266898
858 0.9393825 -0.2358026 0.0606175 0.2358026 0.0606175 0.2358026 0.9393825 -0.2358026
897 0.9341637 -0.2451720 0.0658363 0.2451720 0.0658363 0.2451720 0.9341637 -0.2451720
938 0.9285276 -0.2547908 0.0714724 0.2547908 0.0714724 0.2547908 0.9285276 -0.2547908
981 0.9224469 -0.2646490 0.0775531 0.2646490 0.0775531 0.2646490 0.9224469 -0.2646490
1026 0.9158932 -0.2747345 0.0841068 0.2747345 0.0841068 0.2747345 0.9158932 -0.2747345
1073 0.9088379 -0.2850321 0.0911621 0.2850321 0.0911621 0.2850321 0.9088379 -0.2850321
1122 0.9012517 -0.2955235 0.0987483 0.2955235 0.0987483 0.2955235 0.9012517 -0.2955235
1174 0.8931053 -0.3061872 0.1068947 0.3061872 0.1068947 0.3061872 0.8931053 -0.3061872
1227 0.8843698 -0.3169980 0.1156302 0.3169980 0.1156302 0.3169980 0.8843698 -0.3169980
1283 0.8750168 -0.3279269 0.1249832 0.3279269 0.1249832 0.3279269 0.8750168 -0.3279269
1342 0.8650187 -0.3389412 0.1349813 0.3389412 0.1349813 0.3389412 0.8650187 -0.3389412
1404 0.8543499 -0.3500038 0.1456501 0.3500038 0.1456501 0.3500038 0.8543499 -0.3500038
1468 0.8429866 -0.3610735 0.1570134 0.3610735 0.1570134 0.3610735 0.8429866 -0.3610735
1535 0.8309076 -0.3721050 0.1690924 0.3721050 0.1690924 0.3721050 0.8309076 -0.3721050
1606 0.8180951 -0.3830488 0.1819049 0.3830488 0.1819049 0.3830488 0.8180951 -0.3830488
1679 0.8045352 -0.3938515 0.1954648 0.3938515 0.1954648 0.3938515 0.8045352 -0.3938515
1756 0.7902188 -0.4044560 0.2097812 0.4044560 0.2097812 0.4044560 0.7902188 -0.4044560
1836 0.7751419 -0.4148018 0.2248581 0.4148018 0.2248581 0.4148018 0.7751419 -0.4148018
1920 0.7593066 -0.4248258 0.2406934 0.4248258 0.2406934 0.4248258 0.7593066 -0.4248258
2008 0.7427214 -0.4344625 0.2572786 0.4344625 0.2572786 0.4344625 0.7427214 -0.4344625
2100 0.7254021 -0.4436453 0.2745979 0.4436453 0.2745979 0.4436453 0.7254021 -0.4436453
2196 0.7073720 -0.4523068 0.2926280 0.4523068 0.2926280 0.4523068 0.7073720 -0.4523068
2297 0.6886622 -0.4603804 0.3113378 0.4603804 0.3113378 0.4603804 0.6886622 -0.4603804
2402 0.6693120 -0.4678009 0.3306880 0.4678009 0.3306880 0.4678009 0.6693120 -0.4678009
2512 0.6493684 -0.4745059 0.3506316 0.4745059 0.3506316 0.4745059 0.6493684 -0.4745059
2627 0.6288867 -0.4804368 0.3711133 0.4804368 0.3711133 0.4804368 0.6288867 -0.4804368
2748 0.6079293 -0.4855401 0.3920707 0.4855401 0.3920707 0.4855401 0.6079293 -0.4855401
2873 0.5865654 -0.4897686 0.4134346 0.4897686 0.4134346 0.4897686 0.5865654 -0.4897686
3005 0.5648705 -0.4930823 0.4351295 0.4930823 0.4351295 0.4930823 0.5648705 -0.4930823
3143 0.5429247 -0.4954492 0.4570753 0.4954492 0.4570753 0.4954492 0.5429247 -0.4954492
3287 0.5208125 -0.4968463 0.4791875 0.4968463 0.4791875 0.4968463 0.5208125 -0.4968463
3437 0.4986205 -0.4972600 0.5013795 0.4972600 0.5013795 0.4972600 0.4986205 -0.4972600
3594 0.4764368 -0.4966865 0.5235632 0.4966865 0.5235632 0.4966865 0.4764368 -0.4966865
3759 0.4543494 -0.4951317 0.5456506 0.4951317 0.5456506 0.4951317 0.4543494 -0.4951317
3931 0.4324444 -0.4926114 0.5675556 0.4926114 0.5675556 0.4926114 0.4324444 -0.4926114
4111 0.4108054 -0.4891505 0.5891946 0.4891505 0.5891946 0.4891505 0.4108054 -0.4891505
4299 0.3895115 -0.4847828 0.6104885 0.4847828 0.6104885 0.4847828 0.3895115 -0.4847828
4496 0.3686367 -0.4795498 0.6313633 0.4795498 0.6313633 0.4795498 0.3686367 -0.4795498
4702 0.3482488 -0.4735001 0.6517512 0.4735001 0.6517512 0.4735001 0.3482488 -0.4735001
4918 0.3284085 -0.4666882 0.6715915 0.4666882 0.6715915 0.4666882 0.3284085 -0.4666882
5143 0.3091691 -0.4591735 0.6908309 0.4591735 0.6908309 0.4591735 0.3091691 -0.4591735
5378 0.2905760 -0.4510187 0.7094240 0.4510187 0.7094240 0.4510187 0.2905760 -0.4510187
5625 0.2726666 -0.4422893 0.7273334 0.4422893 0.7273334 0.4422893 0.2726666 -0.4422893
5882 0.2554702 -0.4330518 0.7445298 0.4330518 0.7445298 0.4330518 0.2554702 -0.4330518
6151 0.2390086 -0.4233732 0.7609914 0.4233732 0.7609914 0.4233732 0.2390086 -0.4233732
6433 0.2232959 -0.4133195 0.7767041 0.4133195 0.7767041 0.4133195 0.2232959 -0.4133195
6728 0.2083394 -0.4029555 0.7916606 0.4029555 0.7916606 0.4029555 0.2083394 -0.4029555
7036 0.1941400 -0.3923433 0.8058600 0.3923433 0.8058600 0.3923433 0.1941400 -0.3923433
7358 0.1806928 -0.3815425 0.8193072 0.3815425 0.8193072 0.3815425 0.1806928 -0.3815425
7695 0.1679877 -0.3706092 0.8320123 0.3706092 0.8320123 0.3706092 0.1679877 -0.3706092
8047 0.1560104 -0.3595956 0.8439896 0.3595956 0.8439896 0.3595956 0.1560104 -0.3595956
8416 0.1447426 -0.3485501 0.8552574 0.3485501 0.8552574 0.3485501 0.1447426 -0.3485501
8801 0.1341629 -0.3375171 0.8658371 0.3375171 0.8658371 0.3375171 0.1341629 -0.3375171
9204 0.1242476 -0.3265367 0.8757524 0.3265367 0.8757524 0.3265367 0.1242476 -0.3265367
9626 0.1149708 -0.3156449 0.8850292 0.3156449 0.8850292 0.3156449 0.1149708 -0.3156449
10066 0.1063053 -0.3048738 0.8936947 0.3048738 0.8936947 0.3048738 0.1063053 -0.3048738
10527 0.0982230 -0.2942515 0.9017770 0.2942515 0.9017770 0.2942515 0.0982230 -0.2942515
11009 0.0906951 -0.2838026 0.9093049 0.2838026 0.9093049 0.2838026 0.0906951 -0.2838026
11514 0.0836928 -0.2735479 0.9163072 0.2735479 0.9163072 0.2735479 0.0836928 -0.2735479
12041 0.0771872 -0.2635054 0.9228128 0.2635054 0.9228128 0.2635054 0.0771872 -0.2635054
12592 0.0711500 -0.2536897 0.9288500 0.2536897 0.9288500 0.2536897 0.0711500 -0.2536897
13169 0.0655534 -0.2441128 0.9344466 0.2441128 0.9344466 0.2441128 0.0655534 -0.2441128
13772 0.0603703 -0.2347843 0.9396297 0.2347843 0.9396297 0.2347843 0.0603703 -0.2347843
14402 0.0555744 -0.2257114 0.9444256 0.2257114 0.9444256 0.2257114 0.0555744 -0.2257114
15062 0.0511408 -0.2168993 0.9488592 0.2168993 0.9488592 0.2168993 0.0511408 -0.2168993
15752 0.0470451 -0.2083514 0.9529549 0.2083514 0.9529549 0.2083514 0.0470451 -0.2083514
16473 0.0432645 -0.2000694 0.9567355 0.2000694 0.9567355 0.2000694 0.0432645 -0.2000694
17227 0.0397771 -0.1920537 0.9602229 0.1920537 0.9602229 0.1920537 0.0397771 -0.1920537
18016 0.0365622 -0.1843033 0.9634378 0.1843033 0.9634378 0.1843033 0.0365622 -0.1843033
18841 0.0336002 -0.1768164 0.9663998 0.1768164 0.9663998 0.1768164 0.0336002 -0.1768164
19704 0.0308726 -0.1695900 0.9691274 0.1695900 0.9691274 0.1695900 0.0308726 -0.1695900
20606 0.0283623 -0.1626203 0.9716377 0.1626203 0.9716377 0.1626203 0.0283623 -0.1626203
21550 0.0260528 -0.1559030 0.9739472 0.1559030 0.9739472 0.1559030 0.0260528 -0.1559030
22537 0.0239291 -0.1494332 0.9760709 0.1494332 0.9760709 0.1494332 0.0239291 -0.1494332
23569 0.0219769 -0.1432055 0.9780231 0.1432055 0.9780231 0.1432055 0.0219769 -0.1432055
24648 0.0201830 -0.1372141 0.9798170 0.1372141 0.9798170 0.1372141 0.0201830 -0.1372141
25777 0.0185351 -0.1314529 0.9814649 0.1314529 0.9814649 0.1314529 0.0185351 -0.1314529
26957 0.0170218 -0.1259157 0.9829782 0.1259157 0.9829782 0.1259157 0.0170218 -0.1259157
28191 0.0156323 -0.1205960 0.9843677 0.1205960 0.9843677 0.1205960 0.0156323 -0.1205960
29482 0.0143568 -0.1154873 0.9856432 0.1154873 0.9856432 0.1154873 0.0143568 -0.1154873
30832 0.0131862 -0.1105829 0.9868138 0.1105829 0.9868138 0.1105829 0.0131862 -0.1105829
32244 0.0121121 -0.1058763 0.9878879 0.1058763 0.9878879 0.1058763 0.0121121 -0.1058763
33721 0.0111265 -0.1013607 0.9888735 0.1013607 0.9888735 0.1013607 0.0111265 -0.1013607
35265 0.0102224 -0.0970297 0.9897776 0.0970297 0.9897776 0.0970297 0.0102224 -0.0970297
36880 0.0093930 -0.0928766 0.9906070 0.0928766 0.9906070 0.0928766 0.0093930 -0.0928766
38569 0.0086323 -0.0888952 0.9913677 0.0888952 0.9913677 0.0888952 0.0086323 -0.0888952
40335 0.0079345 -0.0850791 0.9920655 0.0850791 0.9920655 0.0850791 0.0079345 -0.0850791
42182 0.0072944 -0.0814222 0.9927056 0.0814222 0.9927056 0.0814222 0.0072944 -0.0814222
44113 0.0067074 -0.0779183 0.9932926 0.0779183 0.9932926 0.0779183 0.0067074 -0.0779183
46134 0.0061690 -0.0745617 0.9938310 0.0745617 0.9938310 0.0745617 0.0061690 -0.0745617
48246 0.0056751 -0.0713465 0.9943249 0.0713465 0.9943249 0.0713465 0.0056751 -0.0713465
50455 0.0052220 -0.0682672 0.9947780 0.0682672 0.9947780 0.0682672 0.0052220 -0.0682672
52766 0.0048064 -0.0653185 0.9951936 0.0653185 0.9951936 0.0653185 0.0048064 -0.0653185
55182 0.0044252 -0.0624950 0.9955748 0.0624950 0.9955748 0.0624950 0.0044252 -0.0624950
57709 0.0040754 -0.0597918 0.9959246 0.0597918 0.9959246 0.0597918 0.0040754 -0.0597918
60352 0.0037545 -0.0572039 0.9962455 0.0572039 0.9962455 0.0572039 0.0037545 -0.0572039
63115 0.0034600 -0.0547265 0.9965400 0.0547265 0.9965400 0.0547265 0.0034600 -0.0547265
66005 0.0031897 -0.0523553 0.9968103 0.0523553 0.9968103 0.0523553 0.0031897 -0.0523553
69028 0.0029417 -0.0500856 0.9970583 0.0500856 0.9970583 0.0500856 0.0029417 -0.0500856
72189 0.0027141 -0.0479134 0.9972859 0.0479134 0.9972859 0.0479134 0.0027141 -0.0479134
75495 0.0025052 -0.0458346 0.9974948 0.0458346 0.9974948 0.0458346 0.0025052 -0.0458346
78952 0.0023134 -0.0438452 0.9976866 0.0438452 0.9976866 0.0438452 0.0023134 -0.0438452
82567 0.0021373 -0.0419415 0.9978627 0.0419415 0.9978627 0.0419415 0.0021373 -0.0419415
86348 0.0019757 -0.0401199 0.9980243 0.0401199 0.9980243 0.0401199 0.0019757 -0.0401199
90302 0.0018272 -0.0383770 0.9981728 0.0383770 0.9981728 0.0383770 0.0018272 -0.0383770
94437 0.0016909 -0.0367093 0.9983091 0.0367093 0.9983091 0.0367093 0.0016909 -0.0367093
98762 0.0015657 -0.0351137 0.9984343 0.0351137 0.9984343 0.0351137 0.0015657 -0.0351137
103284 0.0014508 -0.0335872 0.9985492 0.0335872 0.9985492 0.0335872 0.0014508 -0.0335872
108014 0.0013451 -0.0321268 0.9986549 0.0321268 0.9986549 0.0321268 0.0013451 -0.0321268
112960 0.0012480 -0.0307296 0.9987520 0.0307296 0.9987520 0.0307296 0.0012480 -0.0307296
118133 0.0011588 -0.0293931 0.9988412 0.0293931 0.9988412 0.0293931 0.0011588 -0.0293931
123542 0.0010768 -0.0281145 0.9989232 0.0281145 0.9989232 0.0281145 0.0010768 -0.0281145
129199 0.0010013 -0.0268914 0.9989987 0.0268914 0.9989987 0.0268914 0.0010013 -0.0268914
135116 0.0009319 -0.0257215 0.9990681 0.0257215 0.9990681 0.0257215 0.0009319 -0.0257215
141303 0.0008681 -0.0246023 0.9991319 0.0246023 0.9991319 0.0246023 0.0008681 -0.0246023
147774 0.0008093 -0.0235319 0.9991907 0.0235319 0.9991907 0.0235319 0.0008093 -0.0235319
154540 0.0007551 -0.0225079 0.9992449 0.0225079 0.9992449 0.0225079 0.0007551 -0.0225079
161617 0.0007052 -0.0215285 0.9992948 0.0215285 0.9992948 0.0215285 0.0007052 -0.0215285
169018 0.0006591 -0.0205917 0.9993409 0.0205917 0.9993409 0.0205917 0.0006591 -0.0205917
176758 0.0006166 -0.0196956 0.9993834 0.0196956 0.9993834 0.0196956 0.0006166 -0.0196956
184852 0.0005774 -0.0188385 0.9994226 0.0188385 0.9994226 0.0188385 0.0005774 -0.0188385
193316 0.0005411 -0.0180187 0.9994589 0.0180187 0.9994589 0.0180187 0.0005411 -0.0180187
202169 0.0005076 -0.0172346 0.9994924 0.0172346 0.9994924 0.0172346 0.0005076 -0.0172346
211427 0.0004766 -0.0164845 0.9995234 0.0164845 0.9995234 0.0164845 0.0004766 -0.0164845
221108 0.0004478 -0.0157671 0.9995522 0.0157671 0.9995522 0.0157671 0.0004478 -0.0157671
231233 0.0004212 -0.0150808 0.9995788 0.0150808 0.9995788 0.0150808 0.0004212 -0.0150808
241822 0.0003964 -0.0144244 0.9996036 0.0144244 0.9996036 0.0144244 0.0003964 -0.0144244
252896 0.0003735 -0.0137965 0.9996265 0.0137965 0.9996265 0.0137965 0.0003735 -0.0137965
264476 0.0003521 -0.0131958 0.9996479 0.0131958 0.9996479 0.0131958 0.0003521 -0.0131958
276587 0.0003323 -0.0126212 0.9996677 0.0126212 0.9996677 0.0126212 0.0003323 -0.0126212
289253 0.0003139 -0.0120715 0.9996861 0.0120715 0.9996861 0.0120715 0.0003139 -0.0120715
302498 0.0002967 -0.0115456 0.9997033 0.0115456 0.9997033 0.0115456 0.0002967 -0.0115456
316350 0.0002807 -0.0110425 0.9997193 0.0110425 0.9997193 0.0110425 0.0002807 -0.0110425
330837 0.0002658 -0.0105612 0.9997342 0.0105612 0.9997342 0.0105612 0.0002658 -0.0105612
345986 0.0002520 -0.0101008 0.9997480 0.0101008 0.9997480 0.0101008 0.0002520 -0.0101008
361830 0.0002390 -0.0096602 0.9997610 0.0096602 0.9997610 0.0096602 0.0002390 -0.0096602
378399 0.0002270 -0.0092387 0.9997730 0.0092387 0.9997730 0.0092387 0.0002270 -0.0092387
395726 0.0002158 -0.0088354 0.9997842 0.0088354 0.9997842 0.0088354 0.0002158 -0.0088354
413847 0.0002054 -0.0084496 0.9997946 0.0084496 0.9997946 0.0084496 0.0002054 -0.0084496
432798 0.0001956 -0.0080804 0.9998044 0.0080804 0.9998044 0.0080804 0.0001956 -0.0080804
452617 0.0001866 -0.0077271 0.9998134 0.0077271 0.9998134 0.0077271 0.0001866 -0.0077271
473344 0.0001782 -0.0073891 0.9998218 0.0073891 0.9998218 0.0073891 0.0001782 -0.0073891
495019 0.0001703 -0.0070657 0.9998297 0.0070657 0.9998297 0.0070657 0.0001703 -0.0070657
517687 0.0001631 -0.0067562 0.9998369 0.0067562 0.9998369 0.0067562 0.0001631 -0.0067562
541393 0.0001563 -0.0064600 0.9998437 0.0064600 0.9998437 0.0064600 0.0001563 -0.0064600
566185 0.0001500 -0.0061766 0.9998500 0.0061766 0.9998500 0.0061766 0.0001500 -0.0061766
592111 0.0001442 -0.0059055 0.9998558 0.0059055 0.9998558 0.0059055 0.0001442 -0.0059055
619225 0.0001388 -0.0056460 0.9998612 0.0056460 0.9998612 0.0056460 0.0001388 -0.0056460
647581 0.0001337 -0.0053977 0.9998663 0.0053977 0.9998663 0.0053977 0.0001337 -0.0053977
677235 0.0001291 -0.0051600 0.9998709 0.0051600 0.9998709 0.0051600 0.0001291 -0.0051600
708247 0.0001248 -0.0049326 0.9998752 0.0049326 0.9998752 0.0049326 0.0001248 -0.0049326
740679 0.0001208 -0.0047150 0.9998792 0.0047150 0.9998792 0.0047150 0.0001208 -0.0047150
774597 0.0001171 -0.0045067 0.9998829 0.0045067 0.9998829 0.0045067 0.0001171 -0.0045067
810067 0.0001136 -0.0043073 0.9998864 0.0043073 0.9998864 0.0043073 0.0001136 -0.0043073
847162 0.0001105 -0.0041165 0.9998895 0.0041165 0.9998895 0.0041165 0.0001105 -0.0041165
885955 0.0001075 -0.0039339 0.9998925 0.0039339 0.9998925 0.0039339 0.0001075 -0.0039339
926525 0.0001048 -0.0037591 0.9998952 0.0037591 0.9998952 0.0037591 0.0001048 -0.0037591
968953 0.0001023 -0.0035918 0.9998977 0.0035918 0.9998977 0.0035918 0.0001023 -0.0035918
1013323 0.0001000 -0.0034316 0.9999000 0.0034316 0.9999000 0.0034316 0.0001000 -0.0034316
1059725 0.0000978 -0.0032782 0.9999022 0.0032782 0.9999022 0.0032782 0.0000978 -0.0032782
1108252 0.0000958 -0.0031313 0.9999042 0.0031313 0.9999042 0.0031313 0.0000958 -0.0031313
1159002 0.0000940 -0.0029907 0.9999060 0.0029907 0.9999060 0.0029907 0.0000940 -0.0029907
1212075 0.0000923 -0.0028560 0.9999077 0.0028560 0.9999077 0.0028560 0.0000923 -0.0028560
1267578 0.0000907 -0.0027270 0.9999093 0.0027270 0.9999093 0.0027270 0.0000907 -0.0027270
1325623 0.0000893 -0.0026035 0.9999107 0.0026035 0.9999107 0.0026035 0.0000893 -0.0026035
1386327 0.0000879 -0.0024851 0.9999121 0.0024851 0.9999121 0.0024851 0.0000879 -0.0024851
1449809 0.0000867 -0.0023716 0.9999133 0.0023716 0.9999133 0.0023716 0.0000867 -0.0023716
1516199 0.0000855 -0.0022629 0.9999145 0.0022629 0.9999145 0.0022629 0.0000855 -0.0022629
1585629 0.0000845 -0.0021587 0.9999155 0.0021587 0.9999155 0.0021587 0.0000845 -0.0021587
1658239 0.0000835 -0.0020588 0.9999165 0.0020588 0.9999165 0.0020588 0.0000835 -0.0020588
1734173 0.0000826 -0.0019630 0.9999174 0.0019630 0.9999174 0.0019630 0.0000826 -0.0019630
1813585 0.0000817 -0.0018711 0.9999183 0.0018711 0.9999183 0.0018711 0.0000817 -0.0018711
1896632 0.0000810 -0.0017829 0.9999190 0.0017829 0.9999190 0.0017829 0.0000810 -0.0017829
1983483 0.0000803 -0.0016983 0.9999197 0.0016983 0.9999197 0.0016983 0.0000803 -0.0016983
2074311 0.0000796 -0.0016171 0.9999204 0.0016171 0.9999204 0.0016171 0.0000796 -0.0016171
