!Murata Part Number: GRM21BR72A473MA01
!These Parameters are Measured in Series Mode Connection
!Data Generated on Mar 30, 2021
!       o--ll--o
!Port1            Port2
!       o------o
!Operation Temp=25[degC], DC Bias Voltage=0[V]
!Freq. Start=100[Hz] Stop=6[GHz] 401[Steps]
# Hz S RI R 50
!Freq.(Hz) S11(Real) S11(Imag) S21(Real) S21(Imag) S12(Real) S12(Imag) S22(Real) S22(Imag)
100 0.9999782 -0.0029822 0.0000218 0.0029822 0.0000218 0.0029822 0.9999782 -0.0029822
105 0.9999769 -0.0031184 0.0000231 0.0031184 0.0000231 0.0031184 0.9999769 -0.0031184
109 0.9999754 -0.0032608 0.0000246 0.0032608 0.0000246 0.0032608 0.9999754 -0.0032608
114 0.9999738 -0.0034097 0.0000262 0.0034097 0.0000262 0.0034097 0.9999738 -0.0034097
120 0.9999721 -0.0035655 0.0000279 0.0035655 0.0000279 0.0035655 0.9999721 -0.0035655
125 0.9999702 -0.0037283 0.0000298 0.0037283 0.0000298 0.0037283 0.9999702 -0.0037283
131 0.9999682 -0.0038986 0.0000318 0.0038986 0.0000318 0.0038986 0.9999682 -0.0038986
137 0.9999661 -0.0040766 0.0000339 0.0040766 0.0000339 0.0040766 0.9999661 -0.0040766
143 0.9999638 -0.0042628 0.0000362 0.0042628 0.0000362 0.0042628 0.9999638 -0.0042628
150 0.9999612 -0.0044575 0.0000388 0.0044575 0.0000388 0.0044575 0.9999612 -0.0044575
156 0.9999585 -0.0046611 0.0000415 0.0046611 0.0000415 0.0046611 0.9999585 -0.0046611
164 0.9999556 -0.0048740 0.0000444 0.0048740 0.0000444 0.0048740 0.9999556 -0.0048740
171 0.9999524 -0.0050966 0.0000476 0.0050966 0.0000476 0.0050966 0.9999524 -0.0050966
179 0.9999489 -0.0053293 0.0000511 0.0053293 0.0000511 0.0053293 0.9999489 -0.0053293
187 0.9999452 -0.0055727 0.0000548 0.0055727 0.0000548 0.0055727 0.9999452 -0.0055727
196 0.9999411 -0.0058272 0.0000589 0.0058272 0.0000589 0.0058272 0.9999411 -0.0058272
205 0.9999368 -0.0060933 0.0000632 0.0060933 0.0000632 0.0060933 0.9999368 -0.0060933
214 0.9999320 -0.0063715 0.0000680 0.0063715 0.0000680 0.0063715 0.9999320 -0.0063715
224 0.9999269 -0.0066624 0.0000731 0.0066624 0.0000731 0.0066624 0.9999269 -0.0066624
234 0.9999214 -0.0069666 0.0000786 0.0069666 0.0000786 0.0069666 0.9999214 -0.0069666
245 0.9999154 -0.0072846 0.0000846 0.0072846 0.0000846 0.0072846 0.9999154 -0.0072846
256 0.9999089 -0.0076172 0.0000911 0.0076172 0.0000911 0.0076172 0.9999089 -0.0076172
268 0.9999020 -0.0079649 0.0000980 0.0079649 0.0000980 0.0079649 0.9999020 -0.0079649
280 0.9998944 -0.0083284 0.0001056 0.0083284 0.0001056 0.0083284 0.9998944 -0.0083284
293 0.9998862 -0.0087086 0.0001138 0.0087086 0.0001138 0.0087086 0.9998862 -0.0087086
306 0.9998774 -0.0091061 0.0001226 0.0091061 0.0001226 0.0091061 0.9998774 -0.0091061
320 0.9998678 -0.0095217 0.0001322 0.0095217 0.0001322 0.0095217 0.9998678 -0.0095217
335 0.9998574 -0.0099563 0.0001426 0.0099563 0.0001426 0.0099563 0.9998574 -0.0099563
350 0.9998462 -0.0104107 0.0001538 0.0104107 0.0001538 0.0104107 0.9998462 -0.0104107
366 0.9998340 -0.0108858 0.0001660 0.0108858 0.0001660 0.0108858 0.9998340 -0.0108858
383 0.9998208 -0.0113827 0.0001792 0.0113827 0.0001792 0.0113827 0.9998208 -0.0113827
401 0.9998066 -0.0119022 0.0001934 0.0119022 0.0001934 0.0119022 0.9998066 -0.0119022
419 0.9997911 -0.0124454 0.0002089 0.0124454 0.0002089 0.0124454 0.9997911 -0.0124454
438 0.9997742 -0.0130133 0.0002258 0.0130133 0.0002258 0.0130133 0.9997742 -0.0130133
458 0.9997560 -0.0136073 0.0002440 0.0136073 0.0002440 0.0136073 0.9997560 -0.0136073
479 0.9997361 -0.0142283 0.0002639 0.0142283 0.0002639 0.0142283 0.9997361 -0.0142283
501 0.9997146 -0.0148777 0.0002854 0.0148777 0.0002854 0.0148777 0.9997146 -0.0148777
524 0.9996911 -0.0155567 0.0003089 0.0155567 0.0003089 0.0155567 0.9996911 -0.0155567
548 0.9996657 -0.0162667 0.0003343 0.0162667 0.0003343 0.0162667 0.9996657 -0.0162667
573 0.9996379 -0.0170091 0.0003621 0.0170091 0.0003621 0.0170091 0.9996379 -0.0170091
600 0.9996077 -0.0177854 0.0003923 0.0177854 0.0003923 0.0177854 0.9996077 -0.0177854
627 0.9995748 -0.0185971 0.0004252 0.0185971 0.0004252 0.0185971 0.9995748 -0.0185971
656 0.9995390 -0.0194458 0.0004610 0.0194458 0.0004610 0.0194458 0.9995390 -0.0194458
686 0.9995000 -0.0203331 0.0005000 0.0203331 0.0005000 0.0203331 0.9995000 -0.0203331
717 0.9994575 -0.0212610 0.0005425 0.0212610 0.0005425 0.0212610 0.9994575 -0.0212610
750 0.9994111 -0.0222311 0.0005889 0.0222311 0.0005889 0.0222311 0.9994111 -0.0222311
784 0.9993606 -0.0232454 0.0006394 0.0232454 0.0006394 0.0232454 0.9993606 -0.0232454
820 0.9993055 -0.0243058 0.0006945 0.0243058 0.0006945 0.0243058 0.9993055 -0.0243058
858 0.9992453 -0.0254146 0.0007547 0.0254146 0.0007547 0.0254146 0.9992453 -0.0254146
897 0.9991798 -0.0265737 0.0008202 0.0265737 0.0008202 0.0265737 0.9991798 -0.0265737
938 0.9991083 -0.0277855 0.0008917 0.0277855 0.0008917 0.0277855 0.9991083 -0.0277855
981 0.9990302 -0.0290523 0.0009698 0.0290523 0.0009698 0.0290523 0.9990302 -0.0290523
1026 0.9989451 -0.0303767 0.0010549 0.0303767 0.0010549 0.0303767 0.9989451 -0.0303767
1073 0.9988523 -0.0317611 0.0011477 0.0317611 0.0011477 0.0317611 0.9988523 -0.0317611
1122 0.9987510 -0.0332082 0.0012490 0.0332082 0.0012490 0.0332082 0.9987510 -0.0332082
1174 0.9986405 -0.0347209 0.0013595 0.0347209 0.0013595 0.0347209 0.9986405 -0.0347209
1227 0.9985200 -0.0363020 0.0014800 0.0363020 0.0014800 0.0363020 0.9985200 -0.0363020
1283 0.9983885 -0.0379546 0.0016115 0.0379546 0.0016115 0.0379546 0.9983885 -0.0379546
1342 0.9982451 -0.0396818 0.0017549 0.0396818 0.0017549 0.0396818 0.9982451 -0.0396818
1404 0.9980887 -0.0414870 0.0019113 0.0414870 0.0019113 0.0414870 0.9980887 -0.0414870
1468 0.9979181 -0.0433735 0.0020819 0.0433735 0.0020819 0.0433735 0.9979181 -0.0433735
1535 0.9977321 -0.0453449 0.0022679 0.0453449 0.0022679 0.0453449 0.9977321 -0.0453449
1606 0.9975292 -0.0474050 0.0024708 0.0474050 0.0024708 0.0474050 0.9975292 -0.0474050
1679 0.9973080 -0.0495575 0.0026920 0.0495575 0.0026920 0.0495575 0.9973080 -0.0495575
1756 0.9970667 -0.0518066 0.0029333 0.0518066 0.0029333 0.0518066 0.9970667 -0.0518066
1836 0.9968036 -0.0541564 0.0031964 0.0541564 0.0031964 0.0541564 0.9968036 -0.0541564
1920 0.9965168 -0.0566112 0.0034832 0.0566112 0.0034832 0.0566112 0.9965168 -0.0566112
2008 0.9962040 -0.0591756 0.0037960 0.0591756 0.0037960 0.0591756 0.9962040 -0.0591756
2100 0.9958630 -0.0618543 0.0041370 0.0618543 0.0041370 0.0618543 0.9958630 -0.0618543
2196 0.9954913 -0.0646520 0.0045087 0.0646520 0.0045087 0.0646520 0.9954913 -0.0646520
2297 0.9950859 -0.0675739 0.0049141 0.0675739 0.0049141 0.0675739 0.9950859 -0.0675739
2402 0.9946439 -0.0706251 0.0053561 0.0706251 0.0053561 0.0706251 0.9946439 -0.0706251
2512 0.9941621 -0.0738111 0.0058379 0.0738111 0.0058379 0.0738111 0.9941621 -0.0738111
2627 0.9936368 -0.0771373 0.0063632 0.0771373 0.0063632 0.0771373 0.9936368 -0.0771373
2748 0.9930640 -0.0806095 0.0069360 0.0806095 0.0069360 0.0806095 0.9930640 -0.0806095
2873 0.9924395 -0.0842336 0.0075605 0.0842336 0.0075605 0.0842336 0.9924395 -0.0842336
3005 0.9917587 -0.0880156 0.0082413 0.0880156 0.0082413 0.0880156 0.9917587 -0.0880156
3143 0.9910165 -0.0919617 0.0089835 0.0919617 0.0089835 0.0919617 0.9910165 -0.0919617
3287 0.9902073 -0.0960783 0.0097927 0.0960783 0.0097927 0.0960783 0.9902073 -0.0960783
3437 0.9893252 -0.1003718 0.0106748 0.1003718 0.0106748 0.1003718 0.9893252 -0.1003718
3594 0.9883636 -0.1048488 0.0116364 0.1048488 0.0116364 0.1048488 0.9883636 -0.1048488
3759 0.9873154 -0.1095160 0.0126846 0.1095160 0.0126846 0.1095160 0.9873154 -0.1095160
3931 0.9861731 -0.1143800 0.0138269 0.1143800 0.0138269 0.1143800 0.9861731 -0.1143800
4111 0.9849282 -0.1194476 0.0150718 0.1194476 0.0150718 0.1194476 0.9849282 -0.1194476
4299 0.9835717 -0.1247255 0.0164283 0.1247255 0.0164283 0.1247255 0.9835717 -0.1247255
4496 0.9820940 -0.1302204 0.0179060 0.1302204 0.0179060 0.1302204 0.9820940 -0.1302204
4702 0.9804844 -0.1359389 0.0195156 0.1359389 0.0195156 0.1359389 0.9804844 -0.1359389
4918 0.9787316 -0.1418875 0.0212684 0.1418875 0.0212684 0.1418875 0.9787316 -0.1418875
5143 0.9768234 -0.1480724 0.0231766 0.1480724 0.0231766 0.1480724 0.9768234 -0.1480724
5378 0.9747466 -0.1544996 0.0252534 0.1544996 0.0252534 0.1544996 0.9747466 -0.1544996
5625 0.9724871 -0.1611746 0.0275129 0.1611746 0.0275129 0.1611746 0.9724871 -0.1611746
5882 0.9700298 -0.1681026 0.0299702 0.1681026 0.0299702 0.1681026 0.9700298 -0.1681026
6151 0.9673583 -0.1752882 0.0326417 0.1752882 0.0326417 0.1752882 0.9673583 -0.1752882
6433 0.9644554 -0.1827353 0.0355446 0.1827353 0.0355446 0.1827353 0.9644554 -0.1827353
6728 0.9613026 -0.1904470 0.0386974 0.1904470 0.0386974 0.1904470 0.9613026 -0.1904470
7036 0.9578804 -0.1984257 0.0421196 0.1984257 0.0421196 0.1984257 0.9578804 -0.1984257
7358 0.9541680 -0.2066723 0.0458320 0.2066723 0.0458320 0.2066723 0.9541680 -0.2066723
7695 0.9501435 -0.2151867 0.0498565 0.2151867 0.0498565 0.2151867 0.9501435 -0.2151867
8047 0.9457837 -0.2239674 0.0542163 0.2239674 0.0542163 0.2239674 0.9457837 -0.2239674
8416 0.9410644 -0.2330111 0.0589356 0.2330111 0.0589356 0.2330111 0.9410644 -0.2330111
8801 0.9359605 -0.2423129 0.0640395 0.2423129 0.0640395 0.2423129 0.9359605 -0.2423129
9204 0.9304455 -0.2518657 0.0695545 0.2518657 0.0695545 0.2518657 0.9304455 -0.2518657
9626 0.9244924 -0.2616600 0.0755076 0.2616600 0.0755076 0.2616600 0.9244924 -0.2616600
10066 0.9180732 -0.2716841 0.0819268 0.2716841 0.0819268 0.2716841 0.9180732 -0.2716841
10527 0.9111595 -0.2819232 0.0888405 0.2819232 0.0888405 0.2819232 0.9111595 -0.2819232
11009 0.9037225 -0.2923598 0.0962775 0.2923598 0.0962775 0.2923598 0.9037225 -0.2923598
11514 0.8957331 -0.3029729 0.1042669 0.3029729 0.1042669 0.3029729 0.8957331 -0.3029729
12041 0.8871626 -0.3137382 0.1128374 0.3137382 0.1128374 0.3137382 0.8871626 -0.3137382
12592 0.8779830 -0.3246278 0.1220170 0.3246278 0.1220170 0.3246278 0.8779830 -0.3246278
13169 0.8681669 -0.3356098 0.1318331 0.3356098 0.1318331 0.3356098 0.8681669 -0.3356098
13772 0.8576886 -0.3466484 0.1423114 0.3466484 0.1423114 0.3466484 0.8576886 -0.3466484
14402 0.8465243 -0.3577039 0.1534757 0.3577039 0.1534757 0.3577039 0.8465243 -0.3577039
15062 0.8346526 -0.3687322 0.1653474 0.3687322 0.1653474 0.3687322 0.8346526 -0.3687322
15752 0.8220552 -0.3796855 0.1779448 0.3796855 0.1779448 0.3796855 0.8220552 -0.3796855
16473 0.8087175 -0.3905119 0.1912825 0.3905119 0.1912825 0.3905119 0.8087175 -0.3905119
17227 0.7946294 -0.4011559 0.2053706 0.4011559 0.2053706 0.4011559 0.7946294 -0.4011559
18016 0.7797857 -0.4115587 0.2202143 0.4115587 0.2202143 0.4115587 0.7797857 -0.4115587
18841 0.7641867 -0.4216587 0.2358133 0.4216587 0.2358133 0.4216587 0.7641867 -0.4216587
19704 0.7478392 -0.4313917 0.2521608 0.4313917 0.2521608 0.4313917 0.7478392 -0.4313917
20606 0.7307567 -0.4406923 0.2692433 0.4406923 0.2692433 0.4406923 0.7307567 -0.4406923
21550 0.7129600 -0.4494941 0.2870400 0.4494941 0.2870400 0.4494941 0.7129600 -0.4494941
22537 0.6944774 -0.4577310 0.3055226 0.4577310 0.3055226 0.4577310 0.6944774 -0.4577310
23569 0.6753453 -0.4653379 0.3246547 0.4653379 0.3246547 0.4653379 0.6753453 -0.4653379
24648 0.6556077 -0.4722520 0.3443923 0.4722520 0.3443923 0.4722520 0.6556077 -0.4722520
25777 0.6353166 -0.4784141 0.3646834 0.4784141 0.3646834 0.4784141 0.6353166 -0.4784141
26957 0.6145313 -0.4837694 0.3854687 0.4837694 0.3854687 0.4837694 0.6145313 -0.4837694
28191 0.5933184 -0.4882688 0.4066816 0.4882688 0.4066816 0.4882688 0.5933184 -0.4882688
29482 0.5717503 -0.4918700 0.4282497 0.4918700 0.4282497 0.4918700 0.5717503 -0.4918700
30832 0.5499051 -0.4945382 0.4500949 0.4945382 0.4500949 0.4945382 0.5499051 -0.4945382
32244 0.5278651 -0.4962474 0.4721349 0.4962474 0.4721349 0.4962474 0.5278651 -0.4962474
33721 0.5057156 -0.4969805 0.4942844 0.4969805 0.4942844 0.4969805 0.5057156 -0.4969805
35265 0.4835439 -0.4967300 0.5164561 0.4967300 0.5164561 0.4967300 0.4835439 -0.4967300
36880 0.4614374 -0.4954980 0.5385626 0.4954980 0.5385626 0.4954980 0.4614374 -0.4954980
38569 0.4394829 -0.4932966 0.5605171 0.4932966 0.5605171 0.4932966 0.4394829 -0.4932966
40335 0.4177645 -0.4901471 0.5822355 0.4901471 0.5822355 0.4901471 0.4177645 -0.4901471
42182 0.3963628 -0.4860796 0.6036372 0.4860796 0.6036372 0.4860796 0.3963628 -0.4860796
44113 0.3753539 -0.4811327 0.6246461 0.4811327 0.6246461 0.4811327 0.3753539 -0.4811327
46134 0.3548076 -0.4753522 0.6451924 0.4753522 0.6451924 0.4753522 0.3548076 -0.4753522
48246 0.3347875 -0.4687902 0.6652125 0.4687902 0.6652125 0.4687902 0.3347875 -0.4687902
50455 0.3153498 -0.4615041 0.6846502 0.4615041 0.6846502 0.4615041 0.3153498 -0.4615041
52766 0.2965428 -0.4535554 0.7034572 0.4535554 0.7034572 0.4535554 0.2965428 -0.4535554
55182 0.2784071 -0.4450086 0.7215929 0.4450086 0.7215929 0.4450086 0.2784071 -0.4450086
57709 0.2609751 -0.4359298 0.7390249 0.4359298 0.7390249 0.4359298 0.2609751 -0.4359298
60352 0.2442716 -0.4263861 0.7557284 0.4263861 0.7557284 0.4263861 0.2442716 -0.4263861
63115 0.2283136 -0.4164439 0.7716864 0.4164439 0.7716864 0.4164439 0.2283136 -0.4164439
66005 0.2131110 -0.4061688 0.7868890 0.4061688 0.7868890 0.4061688 0.2131110 -0.4061688
69028 0.1986670 -0.3956241 0.8013330 0.3956241 0.8013330 0.3956241 0.1986670 -0.3956241
72189 0.1849788 -0.3848705 0.8150212 0.3848705 0.8150212 0.3848705 0.1849788 -0.3848705
75495 0.1720382 -0.3739657 0.8279618 0.3739657 0.8279618 0.3739657 0.1720382 -0.3739657
78952 0.1598323 -0.3629636 0.8401677 0.3629636 0.8401677 0.3629636 0.1598323 -0.3629636
82567 0.1483441 -0.3519142 0.8516559 0.3519142 0.8516559 0.3519142 0.1483441 -0.3519142
86348 0.1375530 -0.3408637 0.8624470 0.3408637 0.8624470 0.3408637 0.1375530 -0.3408637
90302 0.1274359 -0.3298537 0.8725641 0.3298537 0.8725641 0.3298537 0.1274359 -0.3298537
94437 0.1179675 -0.3189220 0.8820325 0.3189220 0.8820325 0.3189220 0.1179675 -0.3189220
98762 0.1091206 -0.3081022 0.8908794 0.3081022 0.8908794 0.3081022 0.1091206 -0.3081022
103284 0.1008672 -0.2974238 0.8991328 0.2974238 0.8991328 0.2974238 0.1008672 -0.2974238
108014 0.0931785 -0.2869126 0.9068215 0.2869126 0.9068215 0.2869126 0.0931785 -0.2869126
112960 0.0860252 -0.2765909 0.9139748 0.2765909 0.9139748 0.2765909 0.0860252 -0.2765909
118133 0.0793784 -0.2664774 0.9206216 0.2664774 0.9206216 0.2664774 0.0793784 -0.2664774
123542 0.0732091 -0.2565879 0.9267909 0.2565879 0.9267909 0.2565879 0.0732091 -0.2565879
129199 0.0674892 -0.2469353 0.9325108 0.2469353 0.9325108 0.2469353 0.0674892 -0.2469353
135116 0.0621911 -0.2375297 0.9378089 0.2375297 0.9378089 0.2375297 0.0621911 -0.2375297
141303 0.0572881 -0.2283789 0.9427119 0.2283789 0.9427119 0.2283789 0.0572881 -0.2283789
147774 0.0527546 -0.2194887 0.9472454 0.2194887 0.9472454 0.2194887 0.0527546 -0.2194887
154540 0.0485659 -0.2108630 0.9514341 0.2108630 0.9514341 0.2108630 0.0485659 -0.2108630
161617 0.0446987 -0.2025037 0.9553013 0.2025037 0.9553013 0.2025037 0.0446987 -0.2025037
169018 0.0411306 -0.1944115 0.9588694 0.1944115 0.9588694 0.1944115 0.0411306 -0.1944115
176758 0.0378404 -0.1865858 0.9621596 0.1865858 0.9621596 0.1865858 0.0378404 -0.1865858
184852 0.0348083 -0.1790248 0.9651917 0.1790248 0.9651917 0.1790248 0.0348083 -0.1790248
193316 0.0320154 -0.1717257 0.9679846 0.1717257 0.9679846 0.1717257 0.0320154 -0.1717257
202169 0.0294440 -0.1646849 0.9705560 0.1646849 0.9705560 0.1646849 0.0294440 -0.1646849
211427 0.0270776 -0.1578981 0.9729224 0.1578981 0.9729224 0.1578981 0.0270776 -0.1578981
221108 0.0249007 -0.1513605 0.9750993 0.1513605 0.9750993 0.1513605 0.0249007 -0.1513605
231233 0.0228989 -0.1450668 0.9771011 0.1450668 0.9771011 0.1450668 0.0228989 -0.1450668
241822 0.0210586 -0.1390111 0.9789414 0.1390111 0.9789414 0.1390111 0.0210586 -0.1390111
252896 0.0193672 -0.1331874 0.9806328 0.1331874 0.9806328 0.1331874 0.0193672 -0.1331874
264476 0.0178131 -0.1275894 0.9821869 0.1275894 0.9821869 0.1275894 0.0178131 -0.1275894
276587 0.0163855 -0.1222108 0.9836145 0.1222108 0.9836145 0.1222108 0.0163855 -0.1222108
289253 0.0150742 -0.1170449 0.9849258 0.1170449 0.9849258 0.1170449 0.0150742 -0.1170449
302498 0.0138700 -0.1120850 0.9861300 0.1120850 0.9861300 0.1120850 0.0138700 -0.1120850
316350 0.0127643 -0.1073246 0.9872357 0.1073246 0.9872357 0.1073246 0.0127643 -0.1073246
330837 0.0117491 -0.1027569 0.9882509 0.1027569 0.9882509 0.1027569 0.0117491 -0.1027569
345986 0.0108170 -0.0983754 0.9891830 0.0983754 0.9891830 0.0983754 0.0108170 -0.0983754
361830 0.0099613 -0.0941735 0.9900387 0.0941735 0.9900387 0.0941735 0.0099613 -0.0941735
378399 0.0091757 -0.0901447 0.9908243 0.0901447 0.9908243 0.0901447 0.0091757 -0.0901447
395726 0.0084545 -0.0862828 0.9915455 0.0862828 0.9915455 0.0862828 0.0084545 -0.0862828
413847 0.0077924 -0.0825814 0.9922076 0.0825814 0.9922076 0.0825814 0.0077924 -0.0825814
432798 0.0071845 -0.0790344 0.9928155 0.0790344 0.9928155 0.0790344 0.0071845 -0.0790344
452617 0.0066264 -0.0756361 0.9933736 0.0756361 0.9933736 0.0756361 0.0066264 -0.0756361
473344 0.0061138 -0.0723805 0.9938862 0.0723805 0.9938862 0.0723805 0.0061138 -0.0723805
495019 0.0056432 -0.0692620 0.9943568 0.0692620 0.9943568 0.0692620 0.0056432 -0.0692620
517687 0.0052109 -0.0662753 0.9947891 0.0662753 0.9947891 0.0662753 0.0052109 -0.0662753
541393 0.0048139 -0.0634150 0.9951861 0.0634150 0.9951861 0.0634150 0.0048139 -0.0634150
566185 0.0044493 -0.0606760 0.9955507 0.0606760 0.9955507 0.0606760 0.0044493 -0.0606760
592111 0.0041143 -0.0580534 0.9958857 0.0580534 0.9958857 0.0580534 0.0041143 -0.0580534
619225 0.0038066 -0.0555425 0.9961934 0.0555425 0.9961934 0.0555425 0.0038066 -0.0555425
647581 0.0035238 -0.0531386 0.9964762 0.0531386 0.9964762 0.0531386 0.0035238 -0.0531386
677235 0.0032641 -0.0508373 0.9967359 0.0508373 0.9967359 0.0508373 0.0032641 -0.0508373
708247 0.0030254 -0.0486344 0.9969746 0.0486344 0.9969746 0.0486344 0.0030254 -0.0486344
740679 0.0028061 -0.0465258 0.9971939 0.0465258 0.9971939 0.0465258 0.0028061 -0.0465258
774597 0.0026046 -0.0445075 0.9973954 0.0445075 0.9973954 0.0445075 0.0026046 -0.0445075
810067 0.0024194 -0.0425758 0.9975806 0.0425758 0.9975806 0.0425758 0.0024194 -0.0425758
847162 0.0022492 -0.0407271 0.9977508 0.0407271 0.9977508 0.0407271 0.0022492 -0.0407271
885955 0.0020928 -0.0389578 0.9979072 0.0389578 0.9979072 0.0389578 0.0020928 -0.0389578
926525 0.0019490 -0.0372646 0.9980510 0.0372646 0.9980510 0.0372646 0.0019490 -0.0372646
968953 0.0018169 -0.0356443 0.9981831 0.0356443 0.9981831 0.0356443 0.0018169 -0.0356443
1013323 0.0016955 -0.0340938 0.9983045 0.0340938 0.9983045 0.0340938 0.0016955 -0.0340938
1059725 0.0015839 -0.0326102 0.9984161 0.0326102 0.9984161 0.0326102 0.0015839 -0.0326102
1108252 0.0014812 -0.0311905 0.9985188 0.0311905 0.9985188 0.0311905 0.0014812 -0.0311905
1159002 0.0013869 -0.0298322 0.9986131 0.0298322 0.9986131 0.0298322 0.0013869 -0.0298322
1212075 0.0013001 -0.0285325 0.9986999 0.0285325 0.9986999 0.0285325 0.0013001 -0.0285325
1267578 0.0012203 -0.0272890 0.9987797 0.0272890 0.9987797 0.0272890 0.0012203 -0.0272890
1325623 0.0011468 -0.0260993 0.9988532 0.0260993 0.9988532 0.0260993 0.0011468 -0.0260993
1386327 0.0010792 -0.0249611 0.9989208 0.0249611 0.9989208 0.0249611 0.0010792 -0.0249611
1449809 0.0010170 -0.0238721 0.9989830 0.0238721 0.9989830 0.0238721 0.0010170 -0.0238721
1516199 0.0009597 -0.0228302 0.9990403 0.0228302 0.9990403 0.0228302 0.0009597 -0.0228302
1585629 0.0009068 -0.0218334 0.9990932 0.0218334 0.9990932 0.0218334 0.0009068 -0.0218334
1658239 0.0008581 -0.0208797 0.9991419 0.0208797 0.9991419 0.0208797 0.0008581 -0.0208797
1734173 0.0008131 -0.0199673 0.9991869 0.0199673 0.9991869 0.0199673 0.0008131 -0.0199673
1813585 0.0007716 -0.0190944 0.9992284 0.0190944 0.9992284 0.0190944 0.0007716 -0.0190944
1896632 0.0007332 -0.0182593 0.9992668 0.0182593 0.9992668 0.0182593 0.0007332 -0.0182593
1983483 0.0006977 -0.0174602 0.9993023 0.0174602 0.9993023 0.0174602 0.0006977 -0.0174602
2074311 0.0006648 -0.0166956 0.9993352 0.0166956 0.9993352 0.0166956 0.0006648 -0.0166956
