!Murata Part Number: GRM219R61E225MA12
!These Parameters are Measured in Series Mode Connection
!Data Generated on Mar 30, 2021
!       o--ll--o
!Port1            Port2
!       o------o
!Operation Temp=25[degC], DC Bias Voltage=0[V]
!Freq. Start=100[Hz] Stop=6[GHz] 401[Steps]
# Hz S RI R 50
!Freq.(Hz) S11(Real) S11(Imag) S21(Real) S21(Imag) S12(Real) S12(Imag) S22(Real) S22(Imag)
100 0.9888822 -0.0950181 0.0111178 0.0950181 0.0111178 0.0950181 0.9888822 -0.0950181
105 0.9879571 -0.0991888 0.0120429 0.0991888 0.0120429 0.0991888 0.9879571 -0.0991888
109 0.9869555 -0.1035350 0.0130445 0.1035350 0.0130445 0.1035350 0.9869555 -0.1035350
114 0.9858708 -0.1080631 0.0141292 0.1080631 0.0141292 0.1080631 0.9858708 -0.1080631
120 0.9846959 -0.1127800 0.0153041 0.1127800 0.0153041 0.1127800 0.9846959 -0.1127800
125 0.9834228 -0.1176921 0.0165772 0.1176921 0.0165772 0.1176921 0.9834228 -0.1176921
131 0.9820430 -0.1228063 0.0179570 0.1228063 0.0179570 0.1228063 0.9820430 -0.1228063
137 0.9805472 -0.1281292 0.0194528 0.1281292 0.0194528 0.1281292 0.9805472 -0.1281292
143 0.9789254 -0.1336673 0.0210746 0.1336673 0.0210746 0.1336673 0.9789254 -0.1336673
150 0.9771666 -0.1394271 0.0228334 0.1394271 0.0228334 0.1394271 0.9771666 -0.1394271
156 0.9752591 -0.1454148 0.0247409 0.1454148 0.0247409 0.1454148 0.9752591 -0.1454148
164 0.9731901 -0.1516364 0.0268099 0.1516364 0.0268099 0.1516364 0.9731901 -0.1516364
171 0.9709462 -0.1580973 0.0290538 0.1580973 0.0290538 0.1580973 0.9709462 -0.1580973
179 0.9685125 -0.1648028 0.0314875 0.1648028 0.0314875 0.1648028 0.9685125 -0.1648028
187 0.9658735 -0.1717574 0.0341265 0.1717574 0.0341265 0.1717574 0.9658735 -0.1717574
196 0.9630124 -0.1789650 0.0369876 0.1789650 0.0369876 0.1789650 0.9630124 -0.1789650
205 0.9599114 -0.1864287 0.0400886 0.1864287 0.0400886 0.1864287 0.9599114 -0.1864287
214 0.9565516 -0.1941507 0.0434484 0.1941507 0.0434484 0.1941507 0.9565516 -0.1941507
224 0.9529128 -0.2021321 0.0470872 0.2021321 0.0470872 0.2021321 0.9529128 -0.2021321
234 0.9489740 -0.2103727 0.0510260 0.2103727 0.0510260 0.2103727 0.9489740 -0.2103727
245 0.9447128 -0.2188710 0.0552872 0.2188710 0.0552872 0.2188710 0.9447128 -0.2188710
256 0.9401062 -0.2276239 0.0598938 0.2276239 0.0598938 0.2276239 0.9401062 -0.2276239
268 0.9351297 -0.2366263 0.0648703 0.2366263 0.0648703 0.2366263 0.9351297 -0.2366263
280 0.9297583 -0.2458714 0.0702417 0.2458714 0.0702417 0.2458714 0.9297583 -0.2458714
293 0.9239661 -0.2553500 0.0760339 0.2553500 0.0760339 0.2553500 0.9239661 -0.2553500
306 0.9177265 -0.2650505 0.0822735 0.2650505 0.0822735 0.2650505 0.9177265 -0.2650505
320 0.9110125 -0.2749588 0.0889875 0.2749588 0.0889875 0.2749588 0.9110125 -0.2749588
335 0.9037969 -0.2850577 0.0962031 0.2850577 0.0962031 0.2850577 0.9037969 -0.2850577
350 0.8960525 -0.2953272 0.1039475 0.2953272 0.1039475 0.2953272 0.8960525 -0.2953272
366 0.8877525 -0.3057440 0.1122475 0.3057440 0.1122475 0.3057440 0.8877525 -0.3057440
383 0.8788707 -0.3162812 0.1211293 0.3162812 0.1211293 0.3162812 0.8788707 -0.3162812
401 0.8693818 -0.3269088 0.1306182 0.3269088 0.1306182 0.3269088 0.8693818 -0.3269088
419 0.8592624 -0.3375927 0.1407376 0.3375927 0.1407376 0.3375927 0.8592624 -0.3375927
438 0.8484905 -0.3482955 0.1515095 0.3482955 0.1515095 0.3482955 0.8484905 -0.3482955
458 0.8370471 -0.3589762 0.1629529 0.3589762 0.1629529 0.3589762 0.8370471 -0.3589762
479 0.8249157 -0.3695900 0.1750843 0.3695900 0.1750843 0.3695900 0.8249157 -0.3695900
501 0.8120837 -0.3800890 0.1879163 0.3800890 0.1879163 0.3800890 0.8120837 -0.3800890
524 0.7985421 -0.3904221 0.2014579 0.3904221 0.2014579 0.3904221 0.7985421 -0.3904221
548 0.7842869 -0.4005354 0.2157131 0.4005354 0.2157131 0.4005354 0.7842869 -0.4005354
573 0.7693190 -0.4103727 0.2306810 0.4103727 0.2306810 0.4103727 0.7693190 -0.4103727
600 0.7536448 -0.4198760 0.2463552 0.4198760 0.2463552 0.4198760 0.7536448 -0.4198760
627 0.7372767 -0.4289860 0.2627233 0.4289860 0.2627233 0.4289860 0.7372767 -0.4289860
656 0.7202334 -0.4376432 0.2797666 0.4376432 0.2797666 0.4376432 0.7202334 -0.4376432
686 0.7025403 -0.4457882 0.2974597 0.4457882 0.2974597 0.4457882 0.7025403 -0.4457882
717 0.6842290 -0.4533625 0.3157710 0.4533625 0.3157710 0.4533625 0.6842290 -0.4533625
750 0.6653383 -0.4603098 0.3346617 0.4603098 0.3346617 0.4603098 0.6653383 -0.4603098
784 0.6459132 -0.4665768 0.3540868 0.4665768 0.3540868 0.4665768 0.6459132 -0.4665768
820 0.6260051 -0.4721135 0.3739949 0.4721135 0.3739949 0.4721135 0.6260051 -0.4721135
858 0.6056712 -0.4768751 0.3943288 0.4768751 0.3943288 0.4768751 0.6056712 -0.4768751
897 0.5849740 -0.4808216 0.4150260 0.4808216 0.4150260 0.4808216 0.5849740 -0.4808216
938 0.5639809 -0.4839196 0.4360191 0.4839196 0.4360191 0.4839196 0.5639809 -0.4839196
981 0.5427630 -0.4861424 0.4572370 0.4861424 0.4572370 0.4861424 0.5427630 -0.4861424
1026 0.5213945 -0.4874704 0.4786055 0.4874704 0.4786055 0.4874704 0.5213945 -0.4874704
1073 0.4999515 -0.4878920 0.5000485 0.4878920 0.5000485 0.4878920 0.4999515 -0.4878920
1122 0.4785112 -0.4874033 0.5214888 0.4874033 0.5214888 0.4874033 0.4785112 -0.4874033
1174 0.4571510 -0.4860086 0.5428490 0.4860086 0.5428490 0.4860086 0.4571510 -0.4860086
1227 0.4359470 -0.4837199 0.5640530 0.4837199 0.5640530 0.4837199 0.4359470 -0.4837199
1283 0.4149734 -0.4805573 0.5850266 0.4805573 0.5850266 0.4805573 0.4149734 -0.4805573
1342 0.3943012 -0.4765478 0.6056988 0.4765478 0.6056988 0.4765478 0.3943012 -0.4765478
1404 0.3739976 -0.4717255 0.6260024 0.4717255 0.6260024 0.4717255 0.3739976 -0.4717255
1468 0.3541251 -0.4661306 0.6458749 0.4661306 0.6458749 0.4661306 0.3541251 -0.4661306
1535 0.3347406 -0.4598087 0.6652594 0.4598087 0.6652594 0.4598087 0.3347406 -0.4598087
1606 0.3158954 -0.4528100 0.6841046 0.4528100 0.6841046 0.4528100 0.3158954 -0.4528100
1679 0.2976342 -0.4451885 0.7023658 0.4451885 0.7023658 0.4451885 0.2976342 -0.4451885
1756 0.2799951 -0.4370010 0.7200049 0.4370010 0.7200049 0.4370010 0.2799951 -0.4370010
1836 0.2630096 -0.4283063 0.7369904 0.4283063 0.7369904 0.4283063 0.2630096 -0.4283063
1920 0.2467024 -0.4191641 0.7532976 0.4191641 0.7532976 0.4191641 0.2467024 -0.4191641
2008 0.2310917 -0.4096344 0.7689083 0.4096344 0.7689083 0.4096344 0.2310917 -0.4096344
2100 0.2161892 -0.3997768 0.7838108 0.3997768 0.7838108 0.3997768 0.2161892 -0.3997768
2196 0.2020009 -0.3896492 0.7979991 0.3896492 0.7979991 0.3896492 0.2020009 -0.3896492
2297 0.1885268 -0.3793081 0.8114732 0.3793081 0.8114732 0.3793081 0.1885268 -0.3793081
2402 0.1757623 -0.3688073 0.8242377 0.3688073 0.8242377 0.3688073 0.1757623 -0.3688073
2512 0.1636979 -0.3581978 0.8363021 0.3581978 0.8363021 0.3581978 0.1636979 -0.3581978
2627 0.1523202 -0.3475274 0.8476798 0.3475274 0.8476798 0.3475274 0.1523202 -0.3475274
2748 0.1416122 -0.3368406 0.8583878 0.3368406 0.8583878 0.3368406 0.1416122 -0.3368406
2873 0.1315542 -0.3261782 0.8684458 0.3261782 0.8684458 0.3261782 0.1315542 -0.3261782
3005 0.1221241 -0.3155774 0.8778759 0.3155774 0.8778759 0.3155774 0.1221241 -0.3155774
3143 0.1132975 -0.3050715 0.8867025 0.3050715 0.8867025 0.3050715 0.1132975 -0.3050715
3287 0.1050492 -0.2946905 0.8949508 0.2946905 0.8949508 0.2946905 0.1050492 -0.2946905
3437 0.0973524 -0.2844606 0.9026476 0.2844606 0.9026476 0.2844606 0.0973524 -0.2844606
3594 0.0901801 -0.2744046 0.9098199 0.2744046 0.9098199 0.2744046 0.0901801 -0.2744046
3759 0.0835049 -0.2645423 0.9164951 0.2645423 0.9164951 0.2645423 0.0835049 -0.2645423
3931 0.0772993 -0.2548901 0.9227007 0.2548901 0.9227007 0.2548901 0.0772993 -0.2548901
4111 0.0715363 -0.2454619 0.9284637 0.2454619 0.9284637 0.2454619 0.0715363 -0.2454619
4299 0.0661893 -0.2362686 0.9338107 0.2362686 0.9338107 0.2362686 0.0661893 -0.2362686
4496 0.0612323 -0.2273189 0.9387677 0.2273189 0.9387677 0.2273189 0.0612323 -0.2273189
4702 0.0566402 -0.2186194 0.9433598 0.2186194 0.9433598 0.2186194 0.0566402 -0.2186194
4918 0.0523888 -0.2101745 0.9476112 0.2101745 0.9476112 0.2101745 0.0523888 -0.2101745
5143 0.0484550 -0.2019870 0.9515450 0.2019870 0.9515450 0.2019870 0.0484550 -0.2019870
5378 0.0448166 -0.1940579 0.9551834 0.1940579 0.9551834 0.1940579 0.0448166 -0.1940579
5625 0.0414527 -0.1863870 0.9585473 0.1863870 0.9585473 0.1863870 0.0414527 -0.1863870
5882 0.0383435 -0.1789728 0.9616565 0.1789728 0.9616565 0.1789728 0.0383435 -0.1789728
6151 0.0354703 -0.1718129 0.9645297 0.1718129 0.9645297 0.1718129 0.0354703 -0.1718129
6433 0.0328154 -0.1649038 0.9671846 0.1649038 0.9671846 0.1649038 0.0328154 -0.1649038
6728 0.0303626 -0.1582413 0.9696374 0.1582413 0.9696374 0.1582413 0.0303626 -0.1582413
7036 0.0280963 -0.1518206 0.9719037 0.1518206 0.9719037 0.1518206 0.0280963 -0.1518206
7358 0.0260023 -0.1456363 0.9739977 0.1456363 0.9739977 0.1456363 0.0260023 -0.1456363
7695 0.0240674 -0.1396828 0.9759326 0.1396828 0.9759326 0.1396828 0.0240674 -0.1396828
8047 0.0222792 -0.1339538 0.9777208 0.1339538 0.9777208 0.1339538 0.0222792 -0.1339538
8416 0.0206263 -0.1284432 0.9793737 0.1284432 0.9793737 0.1284432 0.0206263 -0.1284432
8801 0.0190983 -0.1231445 0.9809017 0.1231445 0.9809017 0.1231445 0.0190983 -0.1231445
9204 0.0176854 -0.1180510 0.9823146 0.1180510 0.9823146 0.1180510 0.0176854 -0.1180510
9626 0.0163787 -0.1131562 0.9836213 0.1131562 0.9836213 0.1131562 0.0163787 -0.1131562
10066 0.0151701 -0.1084534 0.9848299 0.1084534 0.9848299 0.1084534 0.0151701 -0.1084534
10527 0.0140520 -0.1039362 0.9859480 0.1039362 0.9859480 0.1039362 0.0140520 -0.1039362
11009 0.0130175 -0.0995980 0.9869825 0.0995980 0.9869825 0.0995980 0.0130175 -0.0995980
11514 0.0120603 -0.0954324 0.9879397 0.0954324 0.9879397 0.0954324 0.0120603 -0.0954324
12041 0.0111745 -0.0914334 0.9888255 0.0914334 0.9888255 0.0914334 0.0111745 -0.0914334
12592 0.0103548 -0.0875947 0.9896452 0.0875947 0.9896452 0.0875947 0.0103548 -0.0875947
13169 0.0095962 -0.0839105 0.9904038 0.0839105 0.9904038 0.0839105 0.0095962 -0.0839105
13772 0.0088943 -0.0803751 0.9911057 0.0803751 0.9911057 0.0803751 0.0088943 -0.0803751
14402 0.0082450 -0.0769828 0.9917550 0.0769828 0.9917550 0.0769828 0.0082450 -0.0769828
15062 0.0076443 -0.0737284 0.9923557 0.0737284 0.9923557 0.0737284 0.0076443 -0.0737284
15752 0.0070887 -0.0706066 0.9929113 0.0706066 0.9929113 0.0706066 0.0070887 -0.0706066
16473 0.0065750 -0.0676123 0.9934250 0.0676123 0.9934250 0.0676123 0.0065750 -0.0676123
17227 0.0061001 -0.0647408 0.9938999 0.0647408 0.9938999 0.0647408 0.0061001 -0.0647408
18016 0.0056612 -0.0619874 0.9943388 0.0619874 0.9943388 0.0619874 0.0056612 -0.0619874
18841 0.0052556 -0.0593475 0.9947444 0.0593475 0.9947444 0.0593475 0.0052556 -0.0593475
19704 0.0048811 -0.0568169 0.9951189 0.0568169 0.9951189 0.0568169 0.0048811 -0.0568169
20606 0.0045353 -0.0543912 0.9954647 0.0543912 0.9954647 0.0543912 0.0045353 -0.0543912
21550 0.0042160 -0.0520665 0.9957840 0.0520665 0.9957840 0.0520665 0.0042160 -0.0520665
22537 0.0039214 -0.0498388 0.9960786 0.0498388 0.9960786 0.0498388 0.0039214 -0.0498388
23569 0.0036497 -0.0477044 0.9963503 0.0477044 0.9963503 0.0477044 0.0036497 -0.0477044
24648 0.0033990 -0.0456596 0.9966010 0.0456596 0.9966010 0.0456596 0.0033990 -0.0456596
25777 0.0031678 -0.0437009 0.9968322 0.0437009 0.9968322 0.0437009 0.0031678 -0.0437009
26957 0.0029547 -0.0418249 0.9970453 0.0418249 0.9970453 0.0418249 0.0029547 -0.0418249
28191 0.0027582 -0.0400284 0.9972418 0.0400284 0.9972418 0.0400284 0.0027582 -0.0400284
29482 0.0025770 -0.0383081 0.9974230 0.0383081 0.9974230 0.0383081 0.0025770 -0.0383081
30832 0.0024100 -0.0366610 0.9975900 0.0366610 0.9975900 0.0366610 0.0024100 -0.0366610
32244 0.0022561 -0.0350841 0.9977439 0.0350841 0.9977439 0.0350841 0.0022561 -0.0350841
33721 0.0021141 -0.0335747 0.9978859 0.0335747 0.9978859 0.0335747 0.0021141 -0.0335747
35265 0.0019832 -0.0321300 0.9980168 0.0321300 0.9980168 0.0321300 0.0019832 -0.0321300
36880 0.0018624 -0.0307473 0.9981376 0.0307473 0.9981376 0.0307473 0.0018624 -0.0307473
38569 0.0017508 -0.0294240 0.9982492 0.0294240 0.9982492 0.0294240 0.0017508 -0.0294240
40335 0.0016478 -0.0281578 0.9983522 0.0281578 0.9983522 0.0281578 0.0016478 -0.0281578
42182 0.0015526 -0.0269462 0.9984474 0.0269462 0.9984474 0.0269462 0.0015526 -0.0269462
44113 0.0014644 -0.0257870 0.9985356 0.0257870 0.9985356 0.0257870 0.0014644 -0.0257870
46134 0.0013828 -0.0246780 0.9986172 0.0246780 0.9986172 0.0246780 0.0013828 -0.0246780
48246 0.0013072 -0.0236170 0.9986928 0.0236170 0.9986928 0.0236170 0.0013072 -0.0236170
50455 0.0012370 -0.0226020 0.9987630 0.0226020 0.9987630 0.0226020 0.0012370 -0.0226020
52766 0.0011717 -0.0216311 0.9988283 0.0216311 0.9988283 0.0216311 0.0011717 -0.0216311
55182 0.0011109 -0.0207023 0.9988891 0.0207023 0.9988891 0.0207023 0.0011109 -0.0207023
57709 0.0010542 -0.0198139 0.9989458 0.0198139 0.9989458 0.0198139 0.0010542 -0.0198139
60352 0.0010012 -0.0189640 0.9989988 0.0189640 0.9989988 0.0189640 0.0010012 -0.0189640
63115 0.0009516 -0.0181511 0.9990484 0.0181511 0.9990484 0.0181511 0.0009516 -0.0181511
66005 0.0009051 -0.0173734 0.9990949 0.0173734 0.9990949 0.0173734 0.0009051 -0.0173734
69028 0.0008614 -0.0166295 0.9991386 0.0166295 0.9991386 0.0166295 0.0008614 -0.0166295
72189 0.0008202 -0.0159178 0.9991798 0.0159178 0.9991798 0.0159178 0.0008202 -0.0159178
75495 0.0007814 -0.0152370 0.9992186 0.0152370 0.9992186 0.0152370 0.0007814 -0.0152370
78952 0.0007446 -0.0145855 0.9992554 0.0145855 0.9992554 0.0145855 0.0007446 -0.0145855
82567 0.0007099 -0.0139623 0.9992901 0.0139623 0.9992901 0.0139623 0.0007099 -0.0139623
86348 0.0006769 -0.0133659 0.9993231 0.0133659 0.9993231 0.0133659 0.0006769 -0.0133659
90302 0.0006455 -0.0127952 0.9993545 0.0127952 0.9993545 0.0127952 0.0006455 -0.0127952
94437 0.0006157 -0.0122490 0.9993843 0.0122490 0.9993843 0.0122490 0.0006157 -0.0122490
98762 0.0005873 -0.0117262 0.9994127 0.0117262 0.9994127 0.0117262 0.0005873 -0.0117262
103284 0.0005602 -0.0112258 0.9994398 0.0112258 0.9994398 0.0112258 0.0005602 -0.0112258
108014 0.0005344 -0.0107468 0.9994656 0.0107468 0.9994656 0.0107468 0.0005344 -0.0107468
112960 0.0005097 -0.0102881 0.9994903 0.0102881 0.9994903 0.0102881 0.0005097 -0.0102881
118133 0.0004862 -0.0098490 0.9995138 0.0098490 0.9995138 0.0098490 0.0004862 -0.0098490
123542 0.0004638 -0.0094286 0.9995362 0.0094286 0.9995362 0.0094286 0.0004638 -0.0094286
129199 0.0004424 -0.0090260 0.9995576 0.0090260 0.9995576 0.0090260 0.0004424 -0.0090260
135116 0.0004221 -0.0086404 0.9995779 0.0086404 0.9995779 0.0086404 0.0004221 -0.0086404
141303 0.0004027 -0.0082712 0.9995973 0.0082712 0.9995973 0.0082712 0.0004027 -0.0082712
147774 0.0003842 -0.0079175 0.9996158 0.0079175 0.9996158 0.0079175 0.0003842 -0.0079175
154540 0.0003666 -0.0075787 0.9996334 0.0075787 0.9996334 0.0075787 0.0003666 -0.0075787
161617 0.0003500 -0.0072543 0.9996500 0.0072543 0.9996500 0.0072543 0.0003500 -0.0072543
169018 0.0003342 -0.0069435 0.9996658 0.0069435 0.9996658 0.0069435 0.0003342 -0.0069435
176758 0.0003192 -0.0066459 0.9996808 0.0066459 0.9996808 0.0066459 0.0003192 -0.0066459
184852 0.0003051 -0.0063607 0.9996949 0.0063607 0.9996949 0.0063607 0.0003051 -0.0063607
193316 0.0002917 -0.0060877 0.9997083 0.0060877 0.9997083 0.0060877 0.0002917 -0.0060877
202169 0.0002791 -0.0058261 0.9997209 0.0058261 0.9997209 0.0058261 0.0002791 -0.0058261
211427 0.0002672 -0.0055756 0.9997328 0.0055756 0.9997328 0.0055756 0.0002672 -0.0055756
221108 0.0002560 -0.0053357 0.9997440 0.0053357 0.9997440 0.0053357 0.0002560 -0.0053357
231233 0.0002455 -0.0051059 0.9997545 0.0051059 0.9997545 0.0051059 0.0002455 -0.0051059
241822 0.0002357 -0.0048859 0.9997643 0.0048859 0.9997643 0.0048859 0.0002357 -0.0048859
252896 0.0002264 -0.0046752 0.9997736 0.0046752 0.9997736 0.0046752 0.0002264 -0.0046752
264476 0.0002177 -0.0044734 0.9997823 0.0044734 0.9997823 0.0044734 0.0002177 -0.0044734
276587 0.0002096 -0.0042803 0.9997904 0.0042803 0.9997904 0.0042803 0.0002096 -0.0042803
289253 0.0002019 -0.0040954 0.9997981 0.0040954 0.9997981 0.0040954 0.0002019 -0.0040954
302498 0.0001948 -0.0039183 0.9998052 0.0039183 0.9998052 0.0039183 0.0001948 -0.0039183
316350 0.0001881 -0.0037488 0.9998119 0.0037488 0.9998119 0.0037488 0.0001881 -0.0037488
330837 0.0001818 -0.0035866 0.9998182 0.0035866 0.9998182 0.0035866 0.0001818 -0.0035866
345986 0.0001759 -0.0034313 0.9998241 0.0034313 0.9998241 0.0034313 0.0001759 -0.0034313
361830 0.0001704 -0.0032826 0.9998296 0.0032826 0.9998296 0.0032826 0.0001704 -0.0032826
378399 0.0001652 -0.0031403 0.9998348 0.0031403 0.9998348 0.0031403 0.0001652 -0.0031403
395726 0.0001604 -0.0030042 0.9998396 0.0030042 0.9998396 0.0030042 0.0001604 -0.0030042
413847 0.0001558 -0.0028738 0.9998442 0.0028738 0.9998442 0.0028738 0.0001558 -0.0028738
432798 0.0001514 -0.0027491 0.9998486 0.0027491 0.9998486 0.0027491 0.0001514 -0.0027491
452617 0.0001474 -0.0026297 0.9998526 0.0026297 0.9998526 0.0026297 0.0001474 -0.0026297
473344 0.0001435 -0.0025154 0.9998565 0.0025154 0.9998565 0.0025154 0.0001435 -0.0025154
495019 0.0001398 -0.0024060 0.9998602 0.0024060 0.9998602 0.0024060 0.0001398 -0.0024060
517687 0.0001363 -0.0023013 0.9998637 0.0023013 0.9998637 0.0023013 0.0001363 -0.0023013
541393 0.0001330 -0.0022011 0.9998670 0.0022011 0.9998670 0.0022011 0.0001330 -0.0022011
566185 0.0001298 -0.0021052 0.9998702 0.0021052 0.9998702 0.0021052 0.0001298 -0.0021052
592111 0.0001267 -0.0020133 0.9998733 0.0020133 0.9998733 0.0020133 0.0001267 -0.0020133
619225 0.0001237 -0.0019254 0.9998763 0.0019254 0.9998763 0.0019254 0.0001237 -0.0019254
647581 0.0001209 -0.0018412 0.9998791 0.0018412 0.9998791 0.0018412 0.0001209 -0.0018412
677235 0.0001181 -0.0017605 0.9998819 0.0017605 0.9998819 0.0017605 0.0001181 -0.0017605
708247 0.0001155 -0.0016833 0.9998845 0.0016833 0.9998845 0.0016833 0.0001155 -0.0016833
740679 0.0001129 -0.0016093 0.9998871 0.0016093 0.9998871 0.0016093 0.0001129 -0.0016093
774597 0.0001103 -0.0015384 0.9998897 0.0015384 0.9998897 0.0015384 0.0001103 -0.0015384
810067 0.0001079 -0.0014704 0.9998921 0.0014704 0.9998921 0.0014704 0.0001079 -0.0014704
847162 0.0001055 -0.0014052 0.9998945 0.0014052 0.9998945 0.0014052 0.0001055 -0.0014052
885955 0.0001032 -0.0013427 0.9998968 0.0013427 0.9998968 0.0013427 0.0001032 -0.0013427
926525 0.0001009 -0.0012828 0.9998991 0.0012828 0.9998991 0.0012828 0.0001009 -0.0012828
968953 0.0000987 -0.0012253 0.9999013 0.0012253 0.9999013 0.0012253 0.0000987 -0.0012253
1013323 0.0000965 -0.0011700 0.9999035 0.0011700 0.9999035 0.0011700 0.0000965 -0.0011700
1059725 0.0000944 -0.0011170 0.9999056 0.0011170 0.9999056 0.0011170 0.0000944 -0.0011170
1108252 0.0000924 -0.0010661 0.9999076 0.0010661 0.9999076 0.0010661 0.0000924 -0.0010661
1159002 0.0000905 -0.0010172 0.9999095 0.0010172 0.9999095 0.0010172 0.0000905 -0.0010172
1212075 0.0000886 -0.0009702 0.9999114 0.0009702 0.9999114 0.0009702 0.0000886 -0.0009702
1267578 0.0000867 -0.0009250 0.9999133 0.0009250 0.9999133 0.0009250 0.0000867 -0.0009250
1325623 0.0000850 -0.0008815 0.9999150 0.0008815 0.9999150 0.0008815 0.0000850 -0.0008815
1386327 0.0000833 -0.0008397 0.9999167 0.0008397 0.9999167 0.0008397 0.0000833 -0.0008397
1449809 0.0000817 -0.0007994 0.9999183 0.0007994 0.9999183 0.0007994 0.0000817 -0.0007994
1516199 0.0000801 -0.0007606 0.9999199 0.0007606 0.9999199 0.0007606 0.0000801 -0.0007606
1585629 0.0000787 -0.0007232 0.9999213 0.0007232 0.9999213 0.0007232 0.0000787 -0.0007232
1658239 0.0000773 -0.0006872 0.9999227 0.0006872 0.9999227 0.0006872 0.0000773 -0.0006872
1734173 0.0000760 -0.0006524 0.9999240 0.0006524 0.9999240 0.0006524 0.0000760 -0.0006524
1813585 0.0000748 -0.0006188 0.9999252 0.0006188 0.9999252 0.0006188 0.0000748 -0.0006188
1896632 0.0000737 -0.0005864 0.9999263 0.0005864 0.9999263 0.0005864 0.0000737 -0.0005864
1983483 0.0000727 -0.0005551 0.9999273 0.0005551 0.9999273 0.0005551 0.0000727 -0.0005551
2074311 0.0000718 -0.0005248 0.9999282 0.0005248 0.9999282 0.0005248 0.0000718 -0.0005248
