!Murata Part Number: GRM219B31A106KE44
!These Parameters are Measured in Series Mode Connection
!Data Generated on Mar 30, 2021
!       o--ll--o
!Port1            Port2
!       o------o
!Operation Temp=25[degC], DC Bias Voltage=0[V]
!Freq. Start=100[Hz] Stop=6[GHz] 401[Steps]
# Hz S RI R 50
!Freq.(Hz) S11(Real) S11(Imag) S21(Real) S21(Imag) S12(Real) S12(Imag) S22(Real) S22(Imag)
100 0.8315402 -0.3615218 0.1684598 0.3615218 0.1684598 0.3615218 0.8315402 -0.3615218
105 0.8192887 -0.3721224 0.1807113 0.3721224 0.1807113 0.3721224 0.8192887 -0.3721224
109 0.8063248 -0.3826074 0.1936752 0.3826074 0.1936752 0.3826074 0.8063248 -0.3826074
114 0.7926386 -0.3929232 0.2073614 0.3929232 0.2073614 0.3929232 0.7926386 -0.3929232
120 0.7782248 -0.4030131 0.2217752 0.4030131 0.2217752 0.4030131 0.7782248 -0.4030131
125 0.7630841 -0.4128177 0.2369159 0.4128177 0.2369159 0.4128177 0.7630841 -0.4128177
131 0.7472229 -0.4222755 0.2527771 0.4222755 0.2527771 0.4222755 0.7472229 -0.4222755
137 0.7306545 -0.4313236 0.2693455 0.4313236 0.2693455 0.4313236 0.7306545 -0.4313236
143 0.7133991 -0.4398987 0.2866009 0.4398987 0.2866009 0.4398987 0.7133991 -0.4398987
150 0.6954844 -0.4479376 0.3045156 0.4479376 0.3045156 0.4479376 0.6954844 -0.4479376
156 0.6769452 -0.4553786 0.3230548 0.4553786 0.3230548 0.4553786 0.6769452 -0.4553786
164 0.6578242 -0.4621625 0.3421758 0.4621625 0.3421758 0.4621625 0.6578242 -0.4621625
171 0.6381712 -0.4682334 0.3618288 0.4682334 0.3618288 0.4682334 0.6381712 -0.4682334
179 0.6180428 -0.4735401 0.3819572 0.4735401 0.3819572 0.4735401 0.6180428 -0.4735401
187 0.5975021 -0.4780368 0.4024979 0.4780368 0.4024979 0.4780368 0.5975021 -0.4780368
196 0.5766179 -0.4816844 0.4233821 0.4816844 0.4233821 0.4816844 0.5766179 -0.4816844
205 0.5554635 -0.4844511 0.4445365 0.4844511 0.4445365 0.4844511 0.5554635 -0.4844511
214 0.5341160 -0.4863132 0.4658840 0.4863132 0.4658840 0.4863132 0.5341160 -0.4863132
224 0.5126553 -0.4872553 0.4873447 0.4872553 0.4873447 0.4872553 0.5126553 -0.4872553
234 0.4911622 -0.4872710 0.5088378 0.4872710 0.5088378 0.4872710 0.4911622 -0.4872710
245 0.4697178 -0.4863627 0.5302822 0.4863627 0.5302822 0.4863627 0.4697178 -0.4863627
256 0.4484019 -0.4845417 0.5515981 0.4845417 0.5515981 0.4845417 0.4484019 -0.4845417
268 0.4272921 -0.4818276 0.5727079 0.4818276 0.5727079 0.4818276 0.4272921 -0.4818276
280 0.4064624 -0.4782479 0.5935376 0.4782479 0.5935376 0.4782479 0.4064624 -0.4782479
293 0.3859822 -0.4738373 0.6140178 0.4738373 0.6140178 0.4738373 0.3859822 -0.4738373
306 0.3659158 -0.4686371 0.6340842 0.4686371 0.6340842 0.4686371 0.3659158 -0.4686371
320 0.3463216 -0.4626938 0.6536784 0.4626938 0.6536784 0.4626938 0.3463216 -0.4626938
335 0.3272512 -0.4560587 0.6727488 0.4560587 0.6727488 0.4560587 0.3272512 -0.4560587
350 0.3087497 -0.4487863 0.6912503 0.4487863 0.6912503 0.4487863 0.3087497 -0.4487863
366 0.2908552 -0.4409338 0.7091448 0.4409338 0.7091448 0.4409338 0.2908552 -0.4409338
383 0.2735989 -0.4325600 0.7264011 0.4325600 0.7264011 0.4325600 0.2735989 -0.4325600
401 0.2570053 -0.4237241 0.7429947 0.4237241 0.7429947 0.4237241 0.2570053 -0.4237241
419 0.2410921 -0.4144854 0.7589079 0.4144854 0.7589079 0.4144854 0.2410921 -0.4144854
438 0.2258714 -0.4049022 0.7741286 0.4049022 0.7741286 0.4049022 0.2258714 -0.4049022
458 0.2113490 -0.3950311 0.7886510 0.3950311 0.7886510 0.3950311 0.2113490 -0.3950311
479 0.1975258 -0.3849268 0.8024742 0.3849268 0.8024742 0.3849268 0.1975258 -0.3849268
501 0.1843981 -0.3746417 0.8156019 0.3746417 0.8156019 0.3746417 0.1843981 -0.3746417
524 0.1719577 -0.3642250 0.8280423 0.3642250 0.8280423 0.3642250 0.1719577 -0.3642250
548 0.1601930 -0.3537232 0.8398070 0.3537232 0.8398070 0.3537232 0.1601930 -0.3537232
573 0.1490890 -0.3431794 0.8509110 0.3431794 0.8509110 0.3431794 0.1490890 -0.3431794
600 0.1386283 -0.3326335 0.8613717 0.3326335 0.8613717 0.3326335 0.1386283 -0.3326335
627 0.1287911 -0.3221218 0.8712089 0.3221218 0.8712089 0.3221218 0.1287911 -0.3221218
656 0.1195559 -0.3116777 0.8804441 0.3116777 0.8804441 0.3116777 0.1195559 -0.3116777
686 0.1108999 -0.3013309 0.8891001 0.3013309 0.8891001 0.3013309 0.1108999 -0.3013309
717 0.1027991 -0.2911082 0.8972009 0.2911082 0.8972009 0.2911082 0.1027991 -0.2911082
750 0.0952290 -0.2810332 0.9047710 0.2810332 0.9047710 0.2810332 0.0952290 -0.2810332
784 0.0881644 -0.2711266 0.9118356 0.2711266 0.9118356 0.2711266 0.0881644 -0.2711266
820 0.0815803 -0.2614064 0.9184197 0.2614064 0.9184197 0.2614064 0.0815803 -0.2614064
858 0.0754515 -0.2518877 0.9245485 0.2518877 0.9245485 0.2518877 0.0754515 -0.2518877
897 0.0697532 -0.2425835 0.9302468 0.2425835 0.9302468 0.2425835 0.0697532 -0.2425835
938 0.0644609 -0.2335045 0.9355391 0.2335045 0.9355391 0.2335045 0.0644609 -0.2335045
981 0.0595507 -0.2246589 0.9404493 0.2246589 0.9404493 0.2246589 0.0595507 -0.2246589
1026 0.0549994 -0.2160535 0.9450006 0.2160535 0.9450006 0.2160535 0.0549994 -0.2160535
1073 0.0507844 -0.2076931 0.9492156 0.2076931 0.9492156 0.2076931 0.0507844 -0.2076931
1122 0.0468843 -0.1995808 0.9531157 0.1995808 0.9531157 0.1995808 0.0468843 -0.1995808
1174 0.0432782 -0.1917185 0.9567218 0.1917185 0.9567218 0.1917185 0.0432782 -0.1917185
1227 0.0399463 -0.1841067 0.9600537 0.1841067 0.9600537 0.1841067 0.0399463 -0.1841067
1283 0.0368696 -0.1767447 0.9631304 0.1767447 0.9631304 0.1767447 0.0368696 -0.1767447
1342 0.0340303 -0.1696310 0.9659697 0.1696310 0.9659697 0.1696310 0.0340303 -0.1696310
1404 0.0314115 -0.1627630 0.9685885 0.1627630 0.9685885 0.1627630 0.0314115 -0.1627630
1468 0.0289969 -0.1561376 0.9710031 0.1561376 0.9710031 0.1561376 0.0289969 -0.1561376
1535 0.0267717 -0.1497507 0.9732283 0.1497507 0.9732283 0.1497507 0.0267717 -0.1497507
1606 0.0247215 -0.1435979 0.9752785 0.1435979 0.9752785 0.1435979 0.0247215 -0.1435979
1679 0.0228332 -0.1376743 0.9771668 0.1376743 0.9771668 0.1376743 0.0228332 -0.1376743
1756 0.0210942 -0.1319746 0.9789058 0.1319746 0.9789058 0.1319746 0.0210942 -0.1319746
1836 0.0194930 -0.1264932 0.9805070 0.1264932 0.9805070 0.1264932 0.0194930 -0.1264932
1920 0.0180187 -0.1212242 0.9819813 0.1212242 0.9819813 0.1212242 0.0180187 -0.1212242
2008 0.0166613 -0.1161616 0.9833387 0.1161616 0.9833387 0.1161616 0.0166613 -0.1161616
2100 0.0154115 -0.1112992 0.9845885 0.1112992 0.9845885 0.1112992 0.0154115 -0.1112992
2196 0.0142606 -0.1066308 0.9857394 0.1066308 0.9857394 0.1066308 0.0142606 -0.1066308
2297 0.0132005 -0.1021499 0.9867995 0.1021499 0.9867995 0.1021499 0.0132005 -0.1021499
2402 0.0122239 -0.0978504 0.9877761 0.0978504 0.9877761 0.0978504 0.0122239 -0.0978504
2512 0.0113239 -0.0937260 0.9886761 0.0937260 0.9886761 0.0937260 0.0113239 -0.0937260
2627 0.0104942 -0.0897704 0.9895058 0.0897704 0.9895058 0.0897704 0.0104942 -0.0897704
2748 0.0097290 -0.0859774 0.9902710 0.0859774 0.9902710 0.0859774 0.0097290 -0.0859774
2873 0.0090229 -0.0823410 0.9909771 0.0823410 0.9909771 0.0823410 0.0090229 -0.0823410
3005 0.0083712 -0.0788552 0.9916288 0.0788552 0.9916288 0.0788552 0.0083712 -0.0788552
3143 0.0077692 -0.0755143 0.9922308 0.0755143 0.9922308 0.0755143 0.0077692 -0.0755143
3287 0.0072129 -0.0723124 0.9927871 0.0723124 0.9927871 0.0723124 0.0072129 -0.0723124
3437 0.0066985 -0.0692441 0.9933015 0.0692441 0.9933015 0.0692441 0.0066985 -0.0692441
3594 0.0062227 -0.0663041 0.9937773 0.0663041 0.9937773 0.0663041 0.0062227 -0.0663041
3759 0.0057824 -0.0634871 0.9942176 0.0634871 0.9942176 0.0634871 0.0057824 -0.0634871
3931 0.0053746 -0.0607880 0.9946254 0.0607880 0.9946254 0.0607880 0.0053746 -0.0607880
4111 0.0049967 -0.0582021 0.9950033 0.0582021 0.9950033 0.0582021 0.0049967 -0.0582021
4299 0.0046466 -0.0557246 0.9953534 0.0557246 0.9953534 0.0557246 0.0046466 -0.0557246
4496 0.0043219 -0.0533510 0.9956781 0.0533510 0.9956781 0.0533510 0.0043219 -0.0533510
4702 0.0040208 -0.0510771 0.9959792 0.0510771 0.9959792 0.0510771 0.0040208 -0.0510771
4918 0.0037415 -0.0488986 0.9962585 0.0488986 0.9962585 0.0488986 0.0037415 -0.0488986
5143 0.0034824 -0.0468117 0.9965176 0.0468117 0.9965176 0.0468117 0.0034824 -0.0468117
5378 0.0032419 -0.0448123 0.9967581 0.0448123 0.9967581 0.0448123 0.0032419 -0.0448123
5625 0.0030188 -0.0428971 0.9969812 0.0428971 0.9969812 0.0428971 0.0030188 -0.0428971
5882 0.0028118 -0.0410623 0.9971882 0.0410623 0.9971882 0.0410623 0.0028118 -0.0410623
6151 0.0026197 -0.0393048 0.9973803 0.0393048 0.9973803 0.0393048 0.0026197 -0.0393048
6433 0.0024415 -0.0376212 0.9975585 0.0376212 0.9975585 0.0376212 0.0024415 -0.0376212
6728 0.0022763 -0.0360086 0.9977237 0.0360086 0.9977237 0.0360086 0.0022763 -0.0360086
7036 0.0021231 -0.0344640 0.9978769 0.0344640 0.9978769 0.0344640 0.0021231 -0.0344640
7358 0.0019811 -0.0329847 0.9980189 0.0329847 0.9980189 0.0329847 0.0019811 -0.0329847
7695 0.0018496 -0.0315679 0.9981504 0.0315679 0.9981504 0.0315679 0.0018496 -0.0315679
8047 0.0017277 -0.0302111 0.9982723 0.0302111 0.9982723 0.0302111 0.0017277 -0.0302111
8416 0.0016149 -0.0289118 0.9983851 0.0289118 0.9983851 0.0289118 0.0016149 -0.0289118
8801 0.0015104 -0.0276676 0.9984896 0.0276676 0.9984896 0.0276676 0.0015104 -0.0276676
9204 0.0014137 -0.0264764 0.9985863 0.0264764 0.9985863 0.0264764 0.0014137 -0.0264764
9626 0.0013243 -0.0253359 0.9986757 0.0253359 0.9986757 0.0253359 0.0013243 -0.0253359
10066 0.0012416 -0.0242441 0.9987584 0.0242441 0.9987584 0.0242441 0.0012416 -0.0242441
10527 0.0011651 -0.0231989 0.9988349 0.0231989 0.9988349 0.0231989 0.0011651 -0.0231989
11009 0.0010944 -0.0221985 0.9989056 0.0221985 0.9989056 0.0221985 0.0010944 -0.0221985
11514 0.0010290 -0.0212410 0.9989710 0.0212410 0.9989710 0.0212410 0.0010290 -0.0212410
12041 0.0009685 -0.0203246 0.9990315 0.0203246 0.9990315 0.0203246 0.0009685 -0.0203246
12592 0.0009125 -0.0194476 0.9990875 0.0194476 0.9990875 0.0194476 0.0009125 -0.0194476
13169 0.0008608 -0.0186084 0.9991392 0.0186084 0.9991392 0.0186084 0.0008608 -0.0186084
13772 0.0008129 -0.0178054 0.9991871 0.0178054 0.9991871 0.0178054 0.0008129 -0.0178054
14402 0.0007686 -0.0170371 0.9992314 0.0170371 0.9992314 0.0170371 0.0007686 -0.0170371
15062 0.0007275 -0.0163020 0.9992725 0.0163020 0.9992725 0.0163020 0.0007275 -0.0163020
15752 0.0006894 -0.0155988 0.9993106 0.0155988 0.9993106 0.0155988 0.0006894 -0.0155988
16473 0.0006540 -0.0149261 0.9993460 0.0149261 0.9993460 0.0149261 0.0006540 -0.0149261
17227 0.0006212 -0.0142825 0.9993788 0.0142825 0.9993788 0.0142825 0.0006212 -0.0142825
18016 0.0005906 -0.0136670 0.9994094 0.0136670 0.9994094 0.0136670 0.0005906 -0.0136670
18841 0.0005621 -0.0130782 0.9994379 0.0130782 0.9994379 0.0130782 0.0005621 -0.0130782
19704 0.0005355 -0.0125150 0.9994645 0.0125150 0.9994645 0.0125150 0.0005355 -0.0125150
20606 0.0005106 -0.0119763 0.9994894 0.0119763 0.9994894 0.0119763 0.0005106 -0.0119763
21550 0.0004873 -0.0114610 0.9995127 0.0114610 0.9995127 0.0114610 0.0004873 -0.0114610
22537 0.0004655 -0.0109682 0.9995345 0.0109682 0.9995345 0.0109682 0.0004655 -0.0109682
23569 0.0004449 -0.0104969 0.9995551 0.0104969 0.9995551 0.0104969 0.0004449 -0.0104969
24648 0.0004254 -0.0100461 0.9995746 0.0100461 0.9995746 0.0100461 0.0004254 -0.0100461
25777 0.0004071 -0.0096148 0.9995929 0.0096148 0.9995929 0.0096148 0.0004071 -0.0096148
26957 0.0003897 -0.0092024 0.9996103 0.0092024 0.9996103 0.0092024 0.0003897 -0.0092024
28191 0.0003731 -0.0088078 0.9996269 0.0088078 0.9996269 0.0088078 0.0003731 -0.0088078
29482 0.0003574 -0.0084304 0.9996426 0.0084304 0.9996426 0.0084304 0.0003574 -0.0084304
30832 0.0003424 -0.0080693 0.9996576 0.0080693 0.9996576 0.0080693 0.0003424 -0.0080693
32244 0.0003280 -0.0077238 0.9996720 0.0077238 0.9996720 0.0077238 0.0003280 -0.0077238
33721 0.0003143 -0.0073933 0.9996857 0.0073933 0.9996857 0.0073933 0.0003143 -0.0073933
35265 0.0003012 -0.0070770 0.9996988 0.0070770 0.9996988 0.0070770 0.0003012 -0.0070770
36880 0.0002885 -0.0067743 0.9997115 0.0067743 0.9997115 0.0067743 0.0002885 -0.0067743
38569 0.0002764 -0.0064847 0.9997236 0.0064847 0.9997236 0.0064847 0.0002764 -0.0064847
40335 0.0002647 -0.0062075 0.9997353 0.0062075 0.9997353 0.0062075 0.0002647 -0.0062075
42182 0.0002535 -0.0059421 0.9997465 0.0059421 0.9997465 0.0059421 0.0002535 -0.0059421
44113 0.0002427 -0.0056881 0.9997573 0.0056881 0.9997573 0.0056881 0.0002427 -0.0056881
46134 0.0002324 -0.0054449 0.9997676 0.0054449 0.9997676 0.0054449 0.0002324 -0.0054449
48246 0.0002224 -0.0052121 0.9997776 0.0052121 0.9997776 0.0052121 0.0002224 -0.0052121
50455 0.0002129 -0.0049892 0.9997871 0.0049892 0.9997871 0.0049892 0.0002129 -0.0049892
52766 0.0002037 -0.0047758 0.9997963 0.0047758 0.9997963 0.0047758 0.0002037 -0.0047758
55182 0.0001949 -0.0045714 0.9998051 0.0045714 0.9998051 0.0045714 0.0001949 -0.0045714
57709 0.0001865 -0.0043757 0.9998135 0.0043757 0.9998135 0.0043757 0.0001865 -0.0043757
60352 0.0001785 -0.0041882 0.9998215 0.0041882 0.9998215 0.0041882 0.0001785 -0.0041882
63115 0.0001709 -0.0040087 0.9998291 0.0040087 0.9998291 0.0040087 0.0001709 -0.0040087
66005 0.0001636 -0.0038368 0.9998364 0.0038368 0.9998364 0.0038368 0.0001636 -0.0038368
69028 0.0001566 -0.0036722 0.9998434 0.0036722 0.9998434 0.0036722 0.0001566 -0.0036722
72189 0.0001500 -0.0035145 0.9998500 0.0035145 0.9998500 0.0035145 0.0001500 -0.0035145
75495 0.0001438 -0.0033636 0.9998562 0.0033636 0.9998562 0.0033636 0.0001438 -0.0033636
78952 0.0001379 -0.0032190 0.9998621 0.0032190 0.9998621 0.0032190 0.0001379 -0.0032190
82567 0.0001322 -0.0030805 0.9998678 0.0030805 0.9998678 0.0030805 0.0001322 -0.0030805
86348 0.0001269 -0.0029479 0.9998731 0.0029479 0.9998731 0.0029479 0.0001269 -0.0029479
90302 0.0001219 -0.0028209 0.9998781 0.0028209 0.9998781 0.0028209 0.0001219 -0.0028209
94437 0.0001172 -0.0026994 0.9998828 0.0026994 0.9998828 0.0026994 0.0001172 -0.0026994
98762 0.0001128 -0.0025830 0.9998872 0.0025830 0.9998872 0.0025830 0.0001128 -0.0025830
103284 0.0001086 -0.0024716 0.9998914 0.0024716 0.9998914 0.0024716 0.0001086 -0.0024716
108014 0.0001046 -0.0023649 0.9998954 0.0023649 0.9998954 0.0023649 0.0001046 -0.0023649
112960 0.0001009 -0.0022627 0.9998991 0.0022627 0.9998991 0.0022627 0.0001009 -0.0022627
118133 0.0000974 -0.0021650 0.9999026 0.0021650 0.9999026 0.0021650 0.0000974 -0.0021650
123542 0.0000941 -0.0020714 0.9999059 0.0020714 0.9999059 0.0020714 0.0000941 -0.0020714
129199 0.0000910 -0.0019818 0.9999090 0.0019818 0.9999090 0.0019818 0.0000910 -0.0019818
135116 0.0000881 -0.0018961 0.9999119 0.0018961 0.9999119 0.0018961 0.0000881 -0.0018961
141303 0.0000853 -0.0018140 0.9999147 0.0018140 0.9999147 0.0018140 0.0000853 -0.0018140
147774 0.0000827 -0.0017354 0.9999173 0.0017354 0.9999173 0.0017354 0.0000827 -0.0017354
154540 0.0000803 -0.0016602 0.9999197 0.0016602 0.9999197 0.0016602 0.0000803 -0.0016602
161617 0.0000779 -0.0015883 0.9999221 0.0015883 0.9999221 0.0015883 0.0000779 -0.0015883
169018 0.0000757 -0.0015194 0.9999243 0.0015194 0.9999243 0.0015194 0.0000757 -0.0015194
176758 0.0000736 -0.0014534 0.9999264 0.0014534 0.9999264 0.0014534 0.0000736 -0.0014534
184852 0.0000716 -0.0013903 0.9999284 0.0013903 0.9999284 0.0013903 0.0000716 -0.0013903
193316 0.0000697 -0.0013299 0.9999303 0.0013299 0.9999303 0.0013299 0.0000697 -0.0013299
202169 0.0000679 -0.0012721 0.9999321 0.0012721 0.9999321 0.0012721 0.0000679 -0.0012721
211427 0.0000661 -0.0012167 0.9999339 0.0012167 0.9999339 0.0012167 0.0000661 -0.0012167
221108 0.0000645 -0.0011637 0.9999355 0.0011637 0.9999355 0.0011637 0.0000645 -0.0011637
231233 0.0000628 -0.0011129 0.9999372 0.0011129 0.9999372 0.0011129 0.0000628 -0.0011129
241822 0.0000613 -0.0010643 0.9999387 0.0010643 0.9999387 0.0010643 0.0000613 -0.0010643
252896 0.0000598 -0.0010177 0.9999402 0.0010177 0.9999402 0.0010177 0.0000598 -0.0010177
264476 0.0000584 -0.0009731 0.9999416 0.0009731 0.9999416 0.0009731 0.0000584 -0.0009731
276587 0.0000570 -0.0009304 0.9999430 0.0009304 0.9999430 0.0009304 0.0000570 -0.0009304
289253 0.0000557 -0.0008895 0.9999443 0.0008895 0.9999443 0.0008895 0.0000557 -0.0008895
302498 0.0000545 -0.0008502 0.9999455 0.0008502 0.9999455 0.0008502 0.0000545 -0.0008502
316350 0.0000533 -0.0008126 0.9999467 0.0008126 0.9999467 0.0008126 0.0000533 -0.0008126
330837 0.0000521 -0.0007766 0.9999479 0.0007766 0.9999479 0.0007766 0.0000521 -0.0007766
345986 0.0000510 -0.0007420 0.9999490 0.0007420 0.9999490 0.0007420 0.0000510 -0.0007420
361830 0.0000499 -0.0007089 0.9999501 0.0007089 0.9999501 0.0007089 0.0000499 -0.0007089
378399 0.0000489 -0.0006771 0.9999511 0.0006771 0.9999511 0.0006771 0.0000489 -0.0006771
395726 0.0000479 -0.0006466 0.9999521 0.0006466 0.9999521 0.0006466 0.0000479 -0.0006466
413847 0.0000470 -0.0006174 0.9999530 0.0006174 0.9999530 0.0006174 0.0000470 -0.0006174
432798 0.0000461 -0.0005893 0.9999539 0.0005893 0.9999539 0.0005893 0.0000461 -0.0005893
452617 0.0000453 -0.0005624 0.9999547 0.0005624 0.9999547 0.0005624 0.0000453 -0.0005624
473344 0.0000445 -0.0005365 0.9999555 0.0005365 0.9999555 0.0005365 0.0000445 -0.0005365
495019 0.0000438 -0.0005117 0.9999562 0.0005117 0.9999562 0.0005117 0.0000438 -0.0005117
517687 0.0000431 -0.0004878 0.9999569 0.0004878 0.9999569 0.0004878 0.0000431 -0.0004878
541393 0.0000425 -0.0004649 0.9999575 0.0004649 0.9999575 0.0004649 0.0000425 -0.0004649
566185 0.0000419 -0.0004428 0.9999581 0.0004428 0.9999581 0.0004428 0.0000419 -0.0004428
592111 0.0000413 -0.0004216 0.9999587 0.0004216 0.9999587 0.0004216 0.0000413 -0.0004216
619225 0.0000408 -0.0004013 0.9999592 0.0004013 0.9999592 0.0004013 0.0000408 -0.0004013
647581 0.0000403 -0.0003816 0.9999597 0.0003816 0.9999597 0.0003816 0.0000403 -0.0003816
677235 0.0000399 -0.0003628 0.9999601 0.0003628 0.9999601 0.0003628 0.0000399 -0.0003628
708247 0.0000395 -0.0003446 0.9999605 0.0003446 0.9999605 0.0003446 0.0000395 -0.0003446
740679 0.0000392 -0.0003271 0.9999608 0.0003271 0.9999608 0.0003271 0.0000392 -0.0003271
774597 0.0000389 -0.0003102 0.9999611 0.0003102 0.9999611 0.0003102 0.0000389 -0.0003102
810067 0.0000386 -0.0002940 0.9999614 0.0002940 0.9999614 0.0002940 0.0000386 -0.0002940
847162 0.0000384 -0.0002783 0.9999616 0.0002783 0.9999616 0.0002783 0.0000384 -0.0002783
885955 0.0000382 -0.0002631 0.9999618 0.0002631 0.9999618 0.0002631 0.0000382 -0.0002631
926525 0.0000381 -0.0002485 0.9999619 0.0002485 0.9999619 0.0002485 0.0000381 -0.0002485
968953 0.0000379 -0.0002344 0.9999621 0.0002344 0.9999621 0.0002344 0.0000379 -0.0002344
1013323 0.0000379 -0.0002207 0.9999621 0.0002207 0.9999621 0.0002207 0.0000379 -0.0002207
1059725 0.0000378 -0.0002074 0.9999622 0.0002074 0.9999622 0.0002074 0.0000378 -0.0002074
1108252 0.0000378 -0.0001945 0.9999622 0.0001945 0.9999622 0.0001945 0.0000378 -0.0001945
1159002 0.0000379 -0.0001821 0.9999621 0.0001821 0.9999621 0.0001821 0.0000379 -0.0001821
1212075 0.0000380 -0.0001700 0.9999620 0.0001700 0.9999620 0.0001700 0.0000380 -0.0001700
1267578 0.0000381 -0.0001582 0.9999619 0.0001582 0.9999619 0.0001582 0.0000381 -0.0001582
1325623 0.0000383 -0.0001467 0.9999617 0.0001467 0.9999617 0.0001467 0.0000383 -0.0001467
1386327 0.0000385 -0.0001355 0.9999615 0.0001355 0.9999615 0.0001355 0.0000385 -0.0001355
1449809 0.0000388 -0.0001246 0.9999612 0.0001246 0.9999612 0.0001246 0.0000388 -0.0001246
1516199 0.0000391 -0.0001139 0.9999609 0.0001139 0.9999609 0.0001139 0.0000391 -0.0001139
1585629 0.0000395 -0.0001035 0.9999605 0.0001035 0.9999605 0.0001035 0.0000395 -0.0001035
1658239 0.0000399 -0.0000933 0.9999601 0.0000933 0.9999601 0.0000933 0.0000399 -0.0000933
1734173 0.0000404 -0.0000832 0.9999596 0.0000832 0.9999596 0.0000832 0.0000404 -0.0000832
1813585 0.0000410 -0.0000733 0.9999590 0.0000733 0.9999590 0.0000733 0.0000410 -0.0000733
1896632 0.0000416 -0.0000636 0.9999584 0.0000636 0.9999584 0.0000636 0.0000416 -0.0000636
1983483 0.0000423 -0.0000539 0.9999577 0.0000539 0.9999577 0.0000539 0.0000423 -0.0000539
2074311 0.0000431 -0.0000444 0.9999569 0.0000444 0.9999569 0.0000444 0.0000431 -0.0000444
