!Murata Part Number: GRM219B30J226MEA0
!These Parameters are Measured in Series Mode Connection
!Data Generated on Mar 30, 2021
!       o--ll--o
!Port1            Port2
!       o------o
!Operation Temp=25[degC], DC Bias Voltage=0[V]
!Freq. Start=100[Hz] Stop=6[GHz] 401[Steps]
# Hz S RI R 50
!Freq.(Hz) S11(Real) S11(Imag) S21(Real) S21(Imag) S12(Real) S12(Imag) S22(Real) S22(Imag)
100 0.5028160 -0.4926943 0.4971840 0.4926943 0.4971840 0.4926943 0.5028160 -0.4926943
105 0.4809576 -0.4923515 0.5190424 0.4923515 0.5190424 0.4923515 0.4809576 -0.4923515
109 0.4591718 -0.4910534 0.5408282 0.4910534 0.5408282 0.4910534 0.4591718 -0.4910534
114 0.4375424 -0.4888126 0.5624576 0.4888126 0.5624576 0.4888126 0.4375424 -0.4888126
120 0.4161510 -0.4856510 0.5838490 0.4856510 0.5838490 0.4856510 0.4161510 -0.4856510
125 0.3950751 -0.4815991 0.6049249 0.4815991 0.6049249 0.4815991 0.3950751 -0.4815991
131 0.3743875 -0.4766951 0.6256125 0.4766951 0.6256125 0.4766951 0.3743875 -0.4766951
137 0.3541554 -0.4709842 0.6458446 0.4709842 0.6458446 0.4709842 0.3541554 -0.4709842
143 0.3344393 -0.4645176 0.6655607 0.4645176 0.6655607 0.4645176 0.3344393 -0.4645176
150 0.3152925 -0.4573511 0.6847075 0.4573511 0.6847075 0.4573511 0.3152925 -0.4573511
156 0.2967609 -0.4495446 0.7032391 0.4495446 0.7032391 0.4495446 0.2967609 -0.4495446
164 0.2788828 -0.4411603 0.7211172 0.4411603 0.7211172 0.4411603 0.2788828 -0.4411603
171 0.2616888 -0.4322621 0.7383112 0.4322621 0.7383112 0.4322621 0.2616888 -0.4322621
179 0.2452018 -0.4229143 0.7547982 0.4229143 0.7547982 0.4229143 0.2452018 -0.4229143
187 0.2294378 -0.4131809 0.7705622 0.4131809 0.7705622 0.4131809 0.2294378 -0.4131809
196 0.2144058 -0.4031243 0.7855942 0.4031243 0.7855942 0.4031243 0.2144058 -0.4031243
205 0.2001086 -0.3928051 0.7998914 0.3928051 0.7998914 0.3928051 0.2001086 -0.3928051
214 0.1865434 -0.3822813 0.8134566 0.3822813 0.8134566 0.3822813 0.1865434 -0.3822813
224 0.1737024 -0.3716076 0.8262976 0.3716076 0.8262976 0.3716076 0.1737024 -0.3716076
234 0.1615732 -0.3608356 0.8384268 0.3608356 0.8384268 0.3608356 0.1615732 -0.3608356
245 0.1501399 -0.3500128 0.8498601 0.3500128 0.8498601 0.3500128 0.1501399 -0.3500128
256 0.1393832 -0.3391832 0.8606168 0.3391832 0.8606168 0.3391832 0.1393832 -0.3391832
268 0.1292815 -0.3283867 0.8707185 0.3283867 0.8707185 0.3283867 0.1292815 -0.3283867
280 0.1198109 -0.3176594 0.8801891 0.3176594 0.8801891 0.3176594 0.1198109 -0.3176594
293 0.1109463 -0.3070334 0.8890537 0.3070334 0.8890537 0.3070334 0.1109463 -0.3070334
306 0.1026613 -0.2965375 0.8973387 0.2965375 0.8973387 0.2965375 0.1026613 -0.2965375
320 0.0949289 -0.2861965 0.9050711 0.2861965 0.9050711 0.2861965 0.0949289 -0.2861965
335 0.0877217 -0.2760323 0.9122783 0.2760323 0.9122783 0.2760323 0.0877217 -0.2760323
350 0.0810125 -0.2660634 0.9189875 0.2660634 0.9189875 0.2660634 0.0810125 -0.2660634
366 0.0747741 -0.2563055 0.9252259 0.2563055 0.9252259 0.2563055 0.0747741 -0.2563055
383 0.0689798 -0.2467716 0.9310202 0.2467716 0.9310202 0.2467716 0.0689798 -0.2467716
401 0.0636036 -0.2374723 0.9363964 0.2374723 0.9363964 0.2374723 0.0636036 -0.2374723
419 0.0586202 -0.2284158 0.9413798 0.2284158 0.9413798 0.2284158 0.0586202 -0.2284158
438 0.0540049 -0.2196084 0.9459951 0.2196084 0.9459951 0.2196084 0.0540049 -0.2196084
458 0.0497343 -0.2110546 0.9502657 0.2110546 0.9502657 0.2110546 0.0497343 -0.2110546
479 0.0457859 -0.2027573 0.9542141 0.2027573 0.9542141 0.2027573 0.0457859 -0.2027573
501 0.0421379 -0.1947178 0.9578621 0.1947178 0.9578621 0.1947178 0.0421379 -0.1947178
524 0.0387699 -0.1869362 0.9612301 0.1869362 0.9612301 0.1869362 0.0387699 -0.1869362
548 0.0356626 -0.1794115 0.9643374 0.1794115 0.9643374 0.1794115 0.0356626 -0.1794115
573 0.0327973 -0.1721417 0.9672027 0.1721417 0.9672027 0.1721417 0.0327973 -0.1721417
600 0.0301569 -0.1651240 0.9698431 0.1651240 0.9698431 0.1651240 0.0301569 -0.1651240
627 0.0277248 -0.1583547 0.9722752 0.1583547 0.9722752 0.1583547 0.0277248 -0.1583547
656 0.0254859 -0.1518296 0.9745141 0.1518296 0.9745141 0.1518296 0.0254859 -0.1518296
686 0.0234255 -0.1455441 0.9765745 0.1455441 0.9765745 0.1455441 0.0234255 -0.1455441
717 0.0215303 -0.1394929 0.9784697 0.1394929 0.9784697 0.1394929 0.0215303 -0.1394929
750 0.0197877 -0.1336705 0.9802123 0.1336705 0.9802123 0.1336705 0.0197877 -0.1336705
784 0.0181859 -0.1280712 0.9818141 0.1280712 0.9818141 0.1280712 0.0181859 -0.1280712
820 0.0167139 -0.1226888 0.9832861 0.1226888 0.9832861 0.1226888 0.0167139 -0.1226888
858 0.0153616 -0.1175174 0.9846384 0.1175174 0.9846384 0.1175174 0.0153616 -0.1175174
897 0.0141196 -0.1125505 0.9858804 0.1125505 0.9858804 0.1125505 0.0141196 -0.1125505
938 0.0129789 -0.1077818 0.9870211 0.1077818 0.9870211 0.1077818 0.0129789 -0.1077818
981 0.0119316 -0.1032049 0.9880684 0.1032049 0.9880684 0.1032049 0.0119316 -0.1032049
1026 0.0109700 -0.0988136 0.9890300 0.0988136 0.9890300 0.0988136 0.0109700 -0.0988136
1073 0.0100873 -0.0946014 0.9899127 0.0946014 0.9899127 0.0946014 0.0100873 -0.0946014
1122 0.0092769 -0.0905621 0.9907231 0.0905621 0.9907231 0.0905621 0.0092769 -0.0905621
1174 0.0085330 -0.0866895 0.9914670 0.0866895 0.9914670 0.0866895 0.0085330 -0.0866895
1227 0.0078501 -0.0829775 0.9921499 0.0829775 0.9921499 0.0829775 0.0078501 -0.0829775
1283 0.0072231 -0.0794201 0.9927769 0.0794201 0.9927769 0.0794201 0.0072231 -0.0794201
1342 0.0066474 -0.0760115 0.9933526 0.0760115 0.9933526 0.0760115 0.0066474 -0.0760115
1404 0.0061188 -0.0727460 0.9938812 0.0727460 0.9938812 0.0727460 0.0061188 -0.0727460
1468 0.0056332 -0.0696180 0.9943668 0.0696180 0.9943668 0.0696180 0.0056332 -0.0696180
1535 0.0051872 -0.0666220 0.9948128 0.0666220 0.9948128 0.0666220 0.0051872 -0.0666220
1606 0.0047773 -0.0637529 0.9952227 0.0637529 0.9952227 0.0637529 0.0047773 -0.0637529
1679 0.0044006 -0.0610056 0.9955994 0.0610056 0.9955994 0.0610056 0.0044006 -0.0610056
1756 0.0040544 -0.0583750 0.9959456 0.0583750 0.9959456 0.0583750 0.0040544 -0.0583750
1836 0.0037360 -0.0558564 0.9962640 0.0558564 0.9962640 0.0558564 0.0037360 -0.0558564
1920 0.0034431 -0.0534452 0.9965569 0.0534452 0.9965569 0.0534452 0.0034431 -0.0534452
2008 0.0031737 -0.0511370 0.9968263 0.0511370 0.9968263 0.0511370 0.0031737 -0.0511370
2100 0.0029257 -0.0489274 0.9970743 0.0489274 0.9970743 0.0489274 0.0029257 -0.0489274
2196 0.0026975 -0.0468124 0.9973025 0.0468124 0.9973025 0.0468124 0.0026975 -0.0468124
2297 0.0024873 -0.0447879 0.9975127 0.0447879 0.9975127 0.0447879 0.0024873 -0.0447879
2402 0.0022938 -0.0428501 0.9977062 0.0428501 0.9977062 0.0428501 0.0022938 -0.0428501
2512 0.0021156 -0.0409955 0.9978844 0.0409955 0.9978844 0.0409955 0.0021156 -0.0409955
2627 0.0019514 -0.0392203 0.9980486 0.0392203 0.9980486 0.0392203 0.0019514 -0.0392203
2748 0.0018001 -0.0375214 0.9981999 0.0375214 0.9981999 0.0375214 0.0018001 -0.0375214
2873 0.0016607 -0.0358954 0.9983393 0.0358954 0.9983393 0.0358954 0.0016607 -0.0358954
3005 0.0015322 -0.0343393 0.9984678 0.0343393 0.9984678 0.0343393 0.0015322 -0.0343393
3143 0.0014138 -0.0328500 0.9985862 0.0328500 0.9985862 0.0328500 0.0014138 -0.0328500
3287 0.0013048 -0.0314247 0.9986952 0.0314247 0.9986952 0.0314247 0.0013048 -0.0314247
3437 0.0012043 -0.0300608 0.9987957 0.0300608 0.9987957 0.0300608 0.0012043 -0.0300608
3594 0.0011117 -0.0287556 0.9988883 0.0287556 0.9988883 0.0287556 0.0011117 -0.0287556
3759 0.0010264 -0.0275066 0.9989736 0.0275066 0.9989736 0.0275066 0.0010264 -0.0275066
3931 0.0009478 -0.0263113 0.9990522 0.0263113 0.9990522 0.0263113 0.0009478 -0.0263113
4111 0.0008754 -0.0251677 0.9991246 0.0251677 0.9991246 0.0251677 0.0008754 -0.0251677
4299 0.0008088 -0.0240733 0.9991912 0.0240733 0.9991912 0.0240733 0.0008088 -0.0240733
4496 0.0007475 -0.0230262 0.9992525 0.0230262 0.9992525 0.0230262 0.0007475 -0.0230262
4702 0.0006911 -0.0220243 0.9993089 0.0220243 0.9993089 0.0220243 0.0006911 -0.0220243
4918 0.0006391 -0.0210657 0.9993609 0.0210657 0.9993609 0.0210657 0.0006391 -0.0210657
5143 0.0005914 -0.0201485 0.9994086 0.0201485 0.9994086 0.0201485 0.0005914 -0.0201485
5378 0.0005474 -0.0192711 0.9994526 0.0192711 0.9994526 0.0192711 0.0005474 -0.0192711
5625 0.0005070 -0.0184316 0.9994930 0.0184316 0.9994930 0.0184316 0.0005070 -0.0184316
5882 0.0004699 -0.0176285 0.9995301 0.0176285 0.9995301 0.0176285 0.0004699 -0.0176285
6151 0.0004358 -0.0168603 0.9995642 0.0168603 0.9995642 0.0168603 0.0004358 -0.0168603
6433 0.0004044 -0.0161254 0.9995956 0.0161254 0.9995956 0.0161254 0.0004044 -0.0161254
6728 0.0003756 -0.0154223 0.9996244 0.0154223 0.9996244 0.0154223 0.0003756 -0.0154223
7036 0.0003491 -0.0147499 0.9996509 0.0147499 0.9996509 0.0147499 0.0003491 -0.0147499
7358 0.0003247 -0.0141066 0.9996753 0.0141066 0.9996753 0.0141066 0.0003247 -0.0141066
7695 0.0003024 -0.0134914 0.9996976 0.0134914 0.9996976 0.0134914 0.0003024 -0.0134914
8047 0.0002819 -0.0129029 0.9997181 0.0129029 0.9997181 0.0129029 0.0002819 -0.0129029
8416 0.0002630 -0.0123400 0.9997370 0.0123400 0.9997370 0.0123400 0.0002630 -0.0123400
8801 0.0002457 -0.0118017 0.9997543 0.0118017 0.9997543 0.0118017 0.0002457 -0.0118017
9204 0.0002297 -0.0112868 0.9997703 0.0112868 0.9997703 0.0112868 0.0002297 -0.0112868
9626 0.0002151 -0.0107944 0.9997849 0.0107944 0.9997849 0.0107944 0.0002151 -0.0107944
10066 0.0002016 -0.0103234 0.9997984 0.0103234 0.9997984 0.0103234 0.0002016 -0.0103234
10527 0.0001893 -0.0098730 0.9998107 0.0098730 0.9998107 0.0098730 0.0001893 -0.0098730
11009 0.0001779 -0.0094423 0.9998221 0.0094423 0.9998221 0.0094423 0.0001779 -0.0094423
11514 0.0001674 -0.0090304 0.9998326 0.0090304 0.9998326 0.0090304 0.0001674 -0.0090304
12041 0.0001577 -0.0086365 0.9998423 0.0086365 0.9998423 0.0086365 0.0001577 -0.0086365
12592 0.0001488 -0.0082598 0.9998512 0.0082598 0.9998512 0.0082598 0.0001488 -0.0082598
13169 0.0001406 -0.0078995 0.9998594 0.0078995 0.9998594 0.0078995 0.0001406 -0.0078995
13772 0.0001330 -0.0075550 0.9998670 0.0075550 0.9998670 0.0075550 0.0001330 -0.0075550
14402 0.0001260 -0.0072256 0.9998740 0.0072256 0.9998740 0.0072256 0.0001260 -0.0072256
15062 0.0001195 -0.0069106 0.9998805 0.0069106 0.9998805 0.0069106 0.0001195 -0.0069106
15752 0.0001134 -0.0066093 0.9998866 0.0066093 0.9998866 0.0066093 0.0001134 -0.0066093
16473 0.0001078 -0.0063212 0.9998922 0.0063212 0.9998922 0.0063212 0.0001078 -0.0063212
17227 0.0001026 -0.0060458 0.9998974 0.0060458 0.9998974 0.0060458 0.0001026 -0.0060458
18016 0.0000977 -0.0057823 0.9999023 0.0057823 0.9999023 0.0057823 0.0000977 -0.0057823
18841 0.0000932 -0.0055304 0.9999068 0.0055304 0.9999068 0.0055304 0.0000932 -0.0055304
19704 0.0000889 -0.0052895 0.9999111 0.0052895 0.9999111 0.0052895 0.0000889 -0.0052895
20606 0.0000850 -0.0050591 0.9999150 0.0050591 0.9999150 0.0050591 0.0000850 -0.0050591
21550 0.0000812 -0.0048388 0.9999188 0.0048388 0.9999188 0.0048388 0.0000812 -0.0048388
22537 0.0000777 -0.0046280 0.9999223 0.0046280 0.9999223 0.0046280 0.0000777 -0.0046280
23569 0.0000744 -0.0044265 0.9999256 0.0044265 0.9999256 0.0044265 0.0000744 -0.0044265
24648 0.0000713 -0.0042338 0.9999287 0.0042338 0.9999287 0.0042338 0.0000713 -0.0042338
25777 0.0000683 -0.0040495 0.9999317 0.0040495 0.9999317 0.0040495 0.0000683 -0.0040495
26957 0.0000655 -0.0038732 0.9999345 0.0038732 0.9999345 0.0038732 0.0000655 -0.0038732
28191 0.0000629 -0.0037046 0.9999371 0.0037046 0.9999371 0.0037046 0.0000629 -0.0037046
29482 0.0000604 -0.0035433 0.9999396 0.0035433 0.9999396 0.0035433 0.0000604 -0.0035433
30832 0.0000580 -0.0033890 0.9999420 0.0033890 0.9999420 0.0033890 0.0000580 -0.0033890
32244 0.0000557 -0.0032415 0.9999443 0.0032415 0.9999443 0.0032415 0.0000557 -0.0032415
33721 0.0000536 -0.0031003 0.9999464 0.0031003 0.9999464 0.0031003 0.0000536 -0.0031003
35265 0.0000515 -0.0029653 0.9999485 0.0029653 0.9999485 0.0029653 0.0000515 -0.0029653
36880 0.0000496 -0.0028362 0.9999504 0.0028362 0.9999504 0.0028362 0.0000496 -0.0028362
38569 0.0000477 -0.0027126 0.9999523 0.0027126 0.9999523 0.0027126 0.0000477 -0.0027126
40335 0.0000460 -0.0025944 0.9999540 0.0025944 0.9999540 0.0025944 0.0000460 -0.0025944
42182 0.0000443 -0.0024813 0.9999557 0.0024813 0.9999557 0.0024813 0.0000443 -0.0024813
44113 0.0000427 -0.0023731 0.9999573 0.0023731 0.9999573 0.0023731 0.0000427 -0.0023731
46134 0.0000412 -0.0022696 0.9999588 0.0022696 0.9999588 0.0022696 0.0000412 -0.0022696
48246 0.0000398 -0.0021706 0.9999602 0.0021706 0.9999602 0.0021706 0.0000398 -0.0021706
50455 0.0000385 -0.0020758 0.9999615 0.0020758 0.9999615 0.0020758 0.0000385 -0.0020758
52766 0.0000372 -0.0019852 0.9999628 0.0019852 0.9999628 0.0019852 0.0000372 -0.0019852
55182 0.0000361 -0.0018985 0.9999639 0.0018985 0.9999639 0.0018985 0.0000361 -0.0018985
57709 0.0000350 -0.0018155 0.9999650 0.0018155 0.9999650 0.0018155 0.0000350 -0.0018155
60352 0.0000339 -0.0017361 0.9999661 0.0017361 0.9999661 0.0017361 0.0000339 -0.0017361
63115 0.0000329 -0.0016602 0.9999671 0.0016602 0.9999671 0.0016602 0.0000329 -0.0016602
66005 0.0000320 -0.0015875 0.9999680 0.0015875 0.9999680 0.0015875 0.0000320 -0.0015875
69028 0.0000312 -0.0015180 0.9999688 0.0015180 0.9999688 0.0015180 0.0000312 -0.0015180
72189 0.0000304 -0.0014514 0.9999696 0.0014514 0.9999696 0.0014514 0.0000304 -0.0014514
75495 0.0000296 -0.0013878 0.9999704 0.0013878 0.9999704 0.0013878 0.0000296 -0.0013878
78952 0.0000289 -0.0013269 0.9999711 0.0013269 0.9999711 0.0013269 0.0000289 -0.0013269
82567 0.0000283 -0.0012686 0.9999717 0.0012686 0.9999717 0.0012686 0.0000283 -0.0012686
86348 0.0000277 -0.0012129 0.9999723 0.0012129 0.9999723 0.0012129 0.0000277 -0.0012129
90302 0.0000271 -0.0011595 0.9999729 0.0011595 0.9999729 0.0011595 0.0000271 -0.0011595
94437 0.0000266 -0.0011085 0.9999734 0.0011085 0.9999734 0.0011085 0.0000266 -0.0011085
98762 0.0000261 -0.0010596 0.9999739 0.0010596 0.9999739 0.0010596 0.0000261 -0.0010596
103284 0.0000257 -0.0010129 0.9999743 0.0010129 0.9999743 0.0010129 0.0000257 -0.0010129
108014 0.0000253 -0.0009682 0.9999747 0.0009682 0.9999747 0.0009682 0.0000253 -0.0009682
112960 0.0000249 -0.0009254 0.9999751 0.0009254 0.9999751 0.0009254 0.0000249 -0.0009254
118133 0.0000246 -0.0008845 0.9999754 0.0008845 0.9999754 0.0008845 0.0000246 -0.0008845
123542 0.0000243 -0.0008453 0.9999757 0.0008453 0.9999757 0.0008453 0.0000243 -0.0008453
129199 0.0000240 -0.0008078 0.9999760 0.0008078 0.9999760 0.0008078 0.0000240 -0.0008078
135116 0.0000237 -0.0007719 0.9999763 0.0007719 0.9999763 0.0007719 0.0000237 -0.0007719
141303 0.0000234 -0.0007376 0.9999766 0.0007376 0.9999766 0.0007376 0.0000234 -0.0007376
147774 0.0000232 -0.0007047 0.9999768 0.0007047 0.9999768 0.0007047 0.0000232 -0.0007047
154540 0.0000230 -0.0006732 0.9999770 0.0006732 0.9999770 0.0006732 0.0000230 -0.0006732
161617 0.0000228 -0.0006431 0.9999772 0.0006431 0.9999772 0.0006431 0.0000228 -0.0006431
169018 0.0000227 -0.0006143 0.9999773 0.0006143 0.9999773 0.0006143 0.0000227 -0.0006143
176758 0.0000225 -0.0005867 0.9999775 0.0005867 0.9999775 0.0005867 0.0000225 -0.0005867
184852 0.0000224 -0.0005602 0.9999776 0.0005602 0.9999776 0.0005602 0.0000224 -0.0005602
193316 0.0000223 -0.0005349 0.9999777 0.0005349 0.9999777 0.0005349 0.0000223 -0.0005349
202169 0.0000221 -0.0005107 0.9999779 0.0005107 0.9999779 0.0005107 0.0000221 -0.0005107
211427 0.0000220 -0.0004874 0.9999780 0.0004874 0.9999780 0.0004874 0.0000220 -0.0004874
221108 0.0000220 -0.0004652 0.9999780 0.0004652 0.9999780 0.0004652 0.0000220 -0.0004652
231233 0.0000219 -0.0004439 0.9999781 0.0004439 0.9999781 0.0004439 0.0000219 -0.0004439
241822 0.0000218 -0.0004234 0.9999782 0.0004234 0.9999782 0.0004234 0.0000218 -0.0004234
252896 0.0000218 -0.0004039 0.9999782 0.0004039 0.9999782 0.0004039 0.0000218 -0.0004039
264476 0.0000217 -0.0003851 0.9999783 0.0003851 0.9999783 0.0003851 0.0000217 -0.0003851
276587 0.0000217 -0.0003671 0.9999783 0.0003671 0.9999783 0.0003671 0.0000217 -0.0003671
289253 0.0000216 -0.0003498 0.9999784 0.0003498 0.9999784 0.0003498 0.0000216 -0.0003498
302498 0.0000216 -0.0003332 0.9999784 0.0003332 0.9999784 0.0003332 0.0000216 -0.0003332
316350 0.0000216 -0.0003173 0.9999784 0.0003173 0.9999784 0.0003173 0.0000216 -0.0003173
330837 0.0000216 -0.0003021 0.9999784 0.0003021 0.9999784 0.0003021 0.0000216 -0.0003021
345986 0.0000216 -0.0002874 0.9999784 0.0002874 0.9999784 0.0002874 0.0000216 -0.0002874
361830 0.0000216 -0.0002733 0.9999784 0.0002733 0.9999784 0.0002733 0.0000216 -0.0002733
378399 0.0000216 -0.0002598 0.9999784 0.0002598 0.9999784 0.0002598 0.0000216 -0.0002598
395726 0.0000217 -0.0002468 0.9999783 0.0002468 0.9999783 0.0002468 0.0000217 -0.0002468
413847 0.0000217 -0.0002343 0.9999783 0.0002343 0.9999783 0.0002343 0.0000217 -0.0002343
432798 0.0000218 -0.0002222 0.9999782 0.0002222 0.9999782 0.0002222 0.0000218 -0.0002222
452617 0.0000218 -0.0002106 0.9999782 0.0002106 0.9999782 0.0002106 0.0000218 -0.0002106
473344 0.0000219 -0.0001994 0.9999781 0.0001994 0.9999781 0.0001994 0.0000219 -0.0001994
495019 0.0000220 -0.0001887 0.9999780 0.0001887 0.9999780 0.0001887 0.0000220 -0.0001887
517687 0.0000220 -0.0001782 0.9999780 0.0001782 0.9999780 0.0001782 0.0000220 -0.0001782
541393 0.0000221 -0.0001682 0.9999779 0.0001682 0.9999779 0.0001682 0.0000221 -0.0001682
566185 0.0000223 -0.0001585 0.9999777 0.0001585 0.9999777 0.0001585 0.0000223 -0.0001585
592111 0.0000224 -0.0001491 0.9999776 0.0001491 0.9999776 0.0001491 0.0000224 -0.0001491
619225 0.0000225 -0.0001400 0.9999775 0.0001400 0.9999775 0.0001400 0.0000225 -0.0001400
647581 0.0000227 -0.0001312 0.9999773 0.0001312 0.9999773 0.0001312 0.0000227 -0.0001312
677235 0.0000229 -0.0001227 0.9999771 0.0001227 0.9999771 0.0001227 0.0000229 -0.0001227
708247 0.0000231 -0.0001144 0.9999769 0.0001144 0.9999769 0.0001144 0.0000231 -0.0001144
740679 0.0000233 -0.0001063 0.9999767 0.0001063 0.9999767 0.0001063 0.0000233 -0.0001063
774597 0.0000235 -0.0000984 0.9999765 0.0000984 0.9999765 0.0000984 0.0000235 -0.0000984
810067 0.0000238 -0.0000908 0.9999762 0.0000908 0.9999762 0.0000908 0.0000238 -0.0000908
847162 0.0000241 -0.0000833 0.9999759 0.0000833 0.9999759 0.0000833 0.0000241 -0.0000833
885955 0.0000244 -0.0000760 0.9999756 0.0000760 0.9999756 0.0000760 0.0000244 -0.0000760
926525 0.0000247 -0.0000688 0.9999753 0.0000688 0.9999753 0.0000688 0.0000247 -0.0000688
968953 0.0000251 -0.0000618 0.9999749 0.0000618 0.9999749 0.0000618 0.0000251 -0.0000618
1013323 0.0000256 -0.0000549 0.9999744 0.0000549 0.9999744 0.0000549 0.0000256 -0.0000549
1059725 0.0000260 -0.0000481 0.9999740 0.0000481 0.9999740 0.0000481 0.0000260 -0.0000481
1108252 0.0000265 -0.0000414 0.9999735 0.0000414 0.9999735 0.0000414 0.0000265 -0.0000414
1159002 0.0000271 -0.0000348 0.9999729 0.0000348 0.9999729 0.0000348 0.0000271 -0.0000348
1212075 0.0000277 -0.0000283 0.9999723 0.0000283 0.9999723 0.0000283 0.0000277 -0.0000283
1267578 0.0000284 -0.0000218 0.9999716 0.0000218 0.9999716 0.0000218 0.0000284 -0.0000218
1325623 0.0000292 -0.0000154 0.9999708 0.0000154 0.9999708 0.0000154 0.0000292 -0.0000154
1386327 0.0000300 -0.0000089 0.9999700 0.0000089 0.9999700 0.0000089 0.0000300 -0.0000089
1449809 0.0000310 -0.0000025 0.9999690 0.0000025 0.9999690 0.0000025 0.0000310 -0.0000025
1516199 0.0000320 0.0000039 0.9999680 -0.0000039 0.9999680 -0.0000039 0.0000320 0.0000039
1585629 0.0000332 0.0000103 0.9999668 -0.0000103 0.9999668 -0.0000103 0.0000332 0.0000103
1658239 0.0000345 0.0000168 0.9999655 -0.0000168 0.9999655 -0.0000168 0.0000345 0.0000168
1734173 0.0000360 0.0000233 0.9999640 -0.0000233 0.9999640 -0.0000233 0.0000360 0.0000233
1813585 0.0000378 0.0000299 0.9999622 -0.0000299 0.9999622 -0.0000299 0.0000378 0.0000299
1896632 0.0000398 0.0000366 0.9999602 -0.0000366 0.9999602 -0.0000366 0.0000398 0.0000366
1983483 0.0000421 0.0000434 0.9999579 -0.0000434 0.9999579 -0.0000434 0.0000421 0.0000434
2074311 0.0000450 0.0000502 0.9999550 -0.0000502 0.9999550 -0.0000502 0.0000450 0.0000502
