!Murata Part Number: GRM21BR72A103KA01
!These Parameters are Measured in Series Mode Connection
!Data Generated on Mar 30, 2021
!       o--ll--o
!Port1            Port2
!       o------o
!Operation Temp=25[degC], DC Bias Voltage=0[V]
!Freq. Start=100[Hz] Stop=6[GHz] 401[Steps]
# Hz S RI R 50
!Freq.(Hz) S11(Real) S11(Imag) S21(Real) S21(Imag) S12(Real) S12(Imag) S22(Real) S22(Imag)
100 0.9999967 -0.0006308 0.0000033 0.0006308 0.0000033 0.0006308 0.9999967 -0.0006308
105 0.9999965 -0.0006596 0.0000035 0.0006596 0.0000035 0.0006596 0.9999965 -0.0006596
109 0.9999964 -0.0006897 0.0000036 0.0006897 0.0000036 0.0006897 0.9999964 -0.0006897
114 0.9999962 -0.0007212 0.0000038 0.0007212 0.0000038 0.0007212 0.9999962 -0.0007212
120 0.9999960 -0.0007541 0.0000040 0.0007541 0.0000040 0.0007541 0.9999960 -0.0007541
125 0.9999958 -0.0007886 0.0000042 0.0007886 0.0000042 0.0007886 0.9999958 -0.0007886
131 0.9999956 -0.0008246 0.0000044 0.0008246 0.0000044 0.0008246 0.9999956 -0.0008246
137 0.9999954 -0.0008623 0.0000046 0.0008623 0.0000046 0.0008623 0.9999954 -0.0008623
143 0.9999952 -0.0009017 0.0000048 0.0009017 0.0000048 0.0009017 0.9999952 -0.0009017
150 0.9999949 -0.0009428 0.0000051 0.0009428 0.0000051 0.0009428 0.9999949 -0.0009428
156 0.9999947 -0.0009859 0.0000053 0.0009859 0.0000053 0.0009859 0.9999947 -0.0009859
164 0.9999944 -0.0010309 0.0000056 0.0010309 0.0000056 0.0010309 0.9999944 -0.0010309
171 0.9999941 -0.0010780 0.0000059 0.0010780 0.0000059 0.0010780 0.9999941 -0.0010780
179 0.9999938 -0.0011273 0.0000062 0.0011273 0.0000062 0.0011273 0.9999938 -0.0011273
187 0.9999934 -0.0011788 0.0000066 0.0011788 0.0000066 0.0011788 0.9999934 -0.0011788
196 0.9999931 -0.0012326 0.0000069 0.0012326 0.0000069 0.0012326 0.9999931 -0.0012326
205 0.9999927 -0.0012889 0.0000073 0.0012889 0.0000073 0.0012889 0.9999927 -0.0012889
214 0.9999922 -0.0013478 0.0000078 0.0013478 0.0000078 0.0013478 0.9999922 -0.0013478
224 0.9999918 -0.0014093 0.0000082 0.0014093 0.0000082 0.0014093 0.9999918 -0.0014093
234 0.9999913 -0.0014737 0.0000087 0.0014737 0.0000087 0.0014737 0.9999913 -0.0014737
245 0.9999908 -0.0015410 0.0000092 0.0015410 0.0000092 0.0015410 0.9999908 -0.0015410
256 0.9999902 -0.0016114 0.0000098 0.0016114 0.0000098 0.0016114 0.9999902 -0.0016114
268 0.9999896 -0.0016850 0.0000104 0.0016850 0.0000104 0.0016850 0.9999896 -0.0016850
280 0.9999890 -0.0017619 0.0000110 0.0017619 0.0000110 0.0017619 0.9999890 -0.0017619
293 0.9999883 -0.0018423 0.0000117 0.0018423 0.0000117 0.0018423 0.9999883 -0.0018423
306 0.9999876 -0.0019265 0.0000124 0.0019265 0.0000124 0.0019265 0.9999876 -0.0019265
320 0.9999868 -0.0020144 0.0000132 0.0020144 0.0000132 0.0020144 0.9999868 -0.0020144
335 0.9999860 -0.0021064 0.0000140 0.0021064 0.0000140 0.0021064 0.9999860 -0.0021064
350 0.9999851 -0.0022025 0.0000149 0.0022025 0.0000149 0.0022025 0.9999851 -0.0022025
366 0.9999842 -0.0023031 0.0000158 0.0023031 0.0000158 0.0023031 0.9999842 -0.0023031
383 0.9999832 -0.0024082 0.0000168 0.0024082 0.0000168 0.0024082 0.9999832 -0.0024082
401 0.9999821 -0.0025182 0.0000179 0.0025182 0.0000179 0.0025182 0.9999821 -0.0025182
419 0.9999810 -0.0026331 0.0000190 0.0026331 0.0000190 0.0026331 0.9999810 -0.0026331
438 0.9999798 -0.0027533 0.0000202 0.0027533 0.0000202 0.0027533 0.9999798 -0.0027533
458 0.9999785 -0.0028790 0.0000215 0.0028790 0.0000215 0.0028790 0.9999785 -0.0028790
479 0.9999771 -0.0030104 0.0000229 0.0030104 0.0000229 0.0030104 0.9999771 -0.0030104
501 0.9999757 -0.0031479 0.0000243 0.0031479 0.0000243 0.0031479 0.9999757 -0.0031479
524 0.9999741 -0.0032916 0.0000259 0.0032916 0.0000259 0.0032916 0.9999741 -0.0032916
548 0.9999724 -0.0034418 0.0000276 0.0034418 0.0000276 0.0034418 0.9999724 -0.0034418
573 0.9999705 -0.0035990 0.0000295 0.0035990 0.0000295 0.0035990 0.9999705 -0.0035990
600 0.9999686 -0.0037633 0.0000314 0.0037633 0.0000314 0.0037633 0.9999686 -0.0037633
627 0.9999665 -0.0039351 0.0000335 0.0039351 0.0000335 0.0039351 0.9999665 -0.0039351
656 0.9999642 -0.0041148 0.0000358 0.0041148 0.0000358 0.0041148 0.9999642 -0.0041148
686 0.9999618 -0.0043026 0.0000382 0.0043026 0.0000382 0.0043026 0.9999618 -0.0043026
717 0.9999591 -0.0044991 0.0000409 0.0044991 0.0000409 0.0044991 0.9999591 -0.0044991
750 0.9999563 -0.0047045 0.0000437 0.0047045 0.0000437 0.0047045 0.9999563 -0.0047045
784 0.9999532 -0.0049193 0.0000468 0.0049193 0.0000468 0.0049193 0.9999532 -0.0049193
820 0.9999499 -0.0051440 0.0000501 0.0051440 0.0000501 0.0051440 0.9999499 -0.0051440
858 0.9999463 -0.0053788 0.0000537 0.0053788 0.0000537 0.0053788 0.9999463 -0.0053788
897 0.9999424 -0.0056244 0.0000576 0.0056244 0.0000576 0.0056244 0.9999424 -0.0056244
938 0.9999382 -0.0058813 0.0000618 0.0058813 0.0000618 0.0058813 0.9999382 -0.0058813
981 0.9999336 -0.0061498 0.0000664 0.0061498 0.0000664 0.0061498 0.9999336 -0.0061498
1026 0.9999286 -0.0064306 0.0000714 0.0064306 0.0000714 0.0064306 0.9999286 -0.0064306
1073 0.9999233 -0.0067242 0.0000767 0.0067242 0.0000767 0.0067242 0.9999233 -0.0067242
1122 0.9999175 -0.0070312 0.0000825 0.0070312 0.0000825 0.0070312 0.9999175 -0.0070312
1174 0.9999112 -0.0073521 0.0000888 0.0073521 0.0000888 0.0073521 0.9999112 -0.0073521
1227 0.9999044 -0.0076878 0.0000956 0.0076878 0.0000956 0.0076878 0.9999044 -0.0076878
1283 0.9998970 -0.0080387 0.0001030 0.0080387 0.0001030 0.0080387 0.9998970 -0.0080387
1342 0.9998890 -0.0084056 0.0001110 0.0084056 0.0001110 0.0084056 0.9998890 -0.0084056
1404 0.9998803 -0.0087892 0.0001197 0.0087892 0.0001197 0.0087892 0.9998803 -0.0087892
1468 0.9998709 -0.0091903 0.0001291 0.0091903 0.0001291 0.0091903 0.9998709 -0.0091903
1535 0.9998607 -0.0096097 0.0001393 0.0096097 0.0001393 0.0096097 0.9998607 -0.0096097
1606 0.9998497 -0.0100482 0.0001503 0.0100482 0.0001503 0.0100482 0.9998497 -0.0100482
1679 0.9998377 -0.0105066 0.0001623 0.0105066 0.0001623 0.0105066 0.9998377 -0.0105066
1756 0.9998248 -0.0109859 0.0001752 0.0109859 0.0001752 0.0109859 0.9998248 -0.0109859
1836 0.9998107 -0.0114870 0.0001893 0.0114870 0.0001893 0.0114870 0.9998107 -0.0114870
1920 0.9997955 -0.0120110 0.0002045 0.0120110 0.0002045 0.0120110 0.9997955 -0.0120110
2008 0.9997790 -0.0125588 0.0002210 0.0125588 0.0002210 0.0125588 0.9997790 -0.0125588
2100 0.9997612 -0.0131315 0.0002388 0.0131315 0.0002388 0.0131315 0.9997612 -0.0131315
2196 0.9997419 -0.0137303 0.0002581 0.0137303 0.0002581 0.0137303 0.9997419 -0.0137303
2297 0.9997209 -0.0143564 0.0002791 0.0143564 0.0002791 0.0143564 0.9997209 -0.0143564
2402 0.9996982 -0.0150109 0.0003018 0.0150109 0.0003018 0.0150109 0.9996982 -0.0150109
2512 0.9996736 -0.0156953 0.0003264 0.0156953 0.0003264 0.0156953 0.9996736 -0.0156953
2627 0.9996469 -0.0164108 0.0003531 0.0164108 0.0003531 0.0164108 0.9996469 -0.0164108
2748 0.9996179 -0.0171589 0.0003821 0.0171589 0.0003821 0.0171589 0.9996179 -0.0171589
2873 0.9995865 -0.0179411 0.0004135 0.0179411 0.0004135 0.0179411 0.9995865 -0.0179411
3005 0.9995524 -0.0187589 0.0004476 0.0187589 0.0004476 0.0187589 0.9995524 -0.0187589
3143 0.9995153 -0.0196140 0.0004847 0.0196140 0.0004847 0.0196140 0.9995153 -0.0196140
3287 0.9994750 -0.0205080 0.0005250 0.0205080 0.0005250 0.0205080 0.9994750 -0.0205080
3437 0.9994313 -0.0214427 0.0005687 0.0214427 0.0005687 0.0214427 0.9994313 -0.0214427
3594 0.9993837 -0.0224200 0.0006163 0.0224200 0.0006163 0.0224200 0.9993837 -0.0224200
3759 0.9993320 -0.0234417 0.0006680 0.0234417 0.0006680 0.0234417 0.9993320 -0.0234417
3931 0.9992757 -0.0245100 0.0007243 0.0245100 0.0007243 0.0245100 0.9992757 -0.0245100
4111 0.9992145 -0.0256269 0.0007855 0.0256269 0.0007855 0.0256269 0.9992145 -0.0256269
4299 0.9991478 -0.0267947 0.0008522 0.0267947 0.0008522 0.0267947 0.9991478 -0.0267947
4496 0.9990752 -0.0280155 0.0009248 0.0280155 0.0009248 0.0280155 0.9990752 -0.0280155
4702 0.9989960 -0.0292918 0.0010040 0.0292918 0.0010040 0.0292918 0.9989960 -0.0292918
4918 0.9989098 -0.0306262 0.0010902 0.0306262 0.0010902 0.0306262 0.9989098 -0.0306262
5143 0.9988159 -0.0320211 0.0011841 0.0320211 0.0011841 0.0320211 0.9988159 -0.0320211
5378 0.9987134 -0.0334794 0.0012866 0.0334794 0.0012866 0.0334794 0.9987134 -0.0334794
5625 0.9986017 -0.0350038 0.0013983 0.0350038 0.0013983 0.0350038 0.9986017 -0.0350038
5882 0.9984799 -0.0365973 0.0015201 0.0365973 0.0015201 0.0365973 0.9984799 -0.0365973
6151 0.9983470 -0.0382630 0.0016530 0.0382630 0.0016530 0.0382630 0.9983470 -0.0382630
6433 0.9982021 -0.0400041 0.0017979 0.0400041 0.0017979 0.0400041 0.9982021 -0.0400041
6728 0.9980439 -0.0418238 0.0019561 0.0418238 0.0019561 0.0418238 0.9980439 -0.0418238
7036 0.9978714 -0.0437257 0.0021286 0.0437257 0.0021286 0.0437257 0.9978714 -0.0437257
7358 0.9976832 -0.0457134 0.0023168 0.0457134 0.0023168 0.0457134 0.9976832 -0.0457134
7695 0.9974779 -0.0477906 0.0025221 0.0477906 0.0025221 0.0477906 0.9974779 -0.0477906
8047 0.9972538 -0.0499612 0.0027462 0.0499612 0.0027462 0.0499612 0.9972538 -0.0499612
8416 0.9970094 -0.0522293 0.0029906 0.0522293 0.0029906 0.0522293 0.9970094 -0.0522293
8801 0.9967426 -0.0545992 0.0032574 0.0545992 0.0032574 0.0545992 0.9967426 -0.0545992
9204 0.9964515 -0.0570750 0.0035485 0.0570750 0.0035485 0.0570750 0.9964515 -0.0570750
9626 0.9961340 -0.0596616 0.0038660 0.0596616 0.0038660 0.0596616 0.9961340 -0.0596616
10066 0.9957875 -0.0623634 0.0042125 0.0623634 0.0042125 0.0623634 0.9957875 -0.0623634
10527 0.9954094 -0.0651854 0.0045906 0.0651854 0.0045906 0.0651854 0.9954094 -0.0651854
11009 0.9949969 -0.0681327 0.0050031 0.0681327 0.0050031 0.0681327 0.9949969 -0.0681327
11514 0.9945470 -0.0712104 0.0054530 0.0712104 0.0054530 0.0712104 0.9945470 -0.0712104
12041 0.9940560 -0.0744239 0.0059440 0.0744239 0.0059440 0.0744239 0.9940560 -0.0744239
12592 0.9935205 -0.0777788 0.0064795 0.0777788 0.0064795 0.0777788 0.9935205 -0.0777788
13169 0.9929363 -0.0812809 0.0070637 0.0812809 0.0070637 0.0812809 0.9929363 -0.0812809
13772 0.9922991 -0.0849359 0.0077009 0.0849359 0.0077009 0.0849359 0.9922991 -0.0849359
14402 0.9916041 -0.0887499 0.0083959 0.0887499 0.0083959 0.0887499 0.9916041 -0.0887499
15062 0.9908462 -0.0927291 0.0091538 0.0927291 0.0091538 0.0927291 0.9908462 -0.0927291
15752 0.9900196 -0.0968797 0.0099804 0.0968797 0.0099804 0.0968797 0.9900196 -0.0968797
16473 0.9891183 -0.1012082 0.0108817 0.1012082 0.0108817 0.1012082 0.9891183 -0.1012082
17227 0.9881356 -0.1057212 0.0118644 0.1057212 0.0118644 0.1057212 0.9881356 -0.1057212
18016 0.9870644 -0.1104251 0.0129356 0.1104251 0.0129356 0.1104251 0.9870644 -0.1104251
18841 0.9858968 -0.1153266 0.0141032 0.1153266 0.0141032 0.1153266 0.9858968 -0.1153266
19704 0.9846244 -0.1204324 0.0153756 0.1204324 0.0153756 0.1204324 0.9846244 -0.1204324
20606 0.9832381 -0.1257492 0.0167619 0.1257492 0.0167619 0.1257492 0.9832381 -0.1257492
21550 0.9817279 -0.1312834 0.0182721 0.1312834 0.0182721 0.1312834 0.9817279 -0.1312834
22537 0.9800833 -0.1370415 0.0199167 0.1370415 0.0199167 0.1370415 0.9800833 -0.1370415
23569 0.9782926 -0.1430300 0.0217074 0.1430300 0.0217074 0.1430300 0.9782926 -0.1430300
24648 0.9763437 -0.1492548 0.0236563 0.1492548 0.0236563 0.1492548 0.9763437 -0.1492548
25777 0.9742231 -0.1557217 0.0257769 0.1557217 0.0257769 0.1557217 0.9742231 -0.1557217
26957 0.9719168 -0.1624362 0.0280832 0.1624362 0.0280832 0.1624362 0.9719168 -0.1624362
28191 0.9694093 -0.1694031 0.0305907 0.1694031 0.0305907 0.1694031 0.9694093 -0.1694031
29482 0.9666844 -0.1766269 0.0333156 0.1766269 0.0333156 0.1766269 0.9666844 -0.1766269
30832 0.9637246 -0.1841112 0.0362754 0.1841112 0.0362754 0.1841112 0.9637246 -0.1841112
32244 0.9605116 -0.1918590 0.0394884 0.1918590 0.0394884 0.1918590 0.9605116 -0.1918590
33721 0.9570256 -0.1998721 0.0429744 0.1998721 0.0429744 0.1998721 0.9570256 -0.1998721
35265 0.9532459 -0.2081513 0.0467541 0.2081513 0.0467541 0.2081513 0.9532459 -0.2081513
36880 0.9491504 -0.2166963 0.0508496 0.2166963 0.0508496 0.2166963 0.9491504 -0.2166963
38569 0.9447162 -0.2255051 0.0552838 0.2255051 0.0552838 0.2255051 0.9447162 -0.2255051
40335 0.9399190 -0.2345743 0.0600810 0.2345743 0.0600810 0.2345743 0.9399190 -0.2345743
42182 0.9347336 -0.2438984 0.0652664 0.2438984 0.0652664 0.2438984 0.9347336 -0.2438984
44113 0.9291338 -0.2534700 0.0708662 0.2534700 0.0708662 0.2534700 0.9291338 -0.2534700
46134 0.9230926 -0.2632795 0.0769074 0.2632795 0.0769074 0.2632795 0.9230926 -0.2632795
48246 0.9165821 -0.2733146 0.0834179 0.2733146 0.0834179 0.2733146 0.9165821 -0.2733146
50455 0.9095741 -0.2835603 0.0904259 0.2835603 0.0904259 0.2835603 0.9095741 -0.2835603
52766 0.9020398 -0.2939986 0.0979602 0.2939986 0.0979602 0.2939986 0.9020398 -0.2939986
55182 0.8939506 -0.3046082 0.1060494 0.3046082 0.1060494 0.3046082 0.8939506 -0.3046082
57709 0.8852779 -0.3153644 0.1147221 0.3153644 0.1147221 0.3153644 0.8852779 -0.3153644
60352 0.8759937 -0.3262389 0.1240063 0.3262389 0.1240063 0.3262389 0.8759937 -0.3262389
63115 0.8660713 -0.3371994 0.1339287 0.3371994 0.1339287 0.3371994 0.8660713 -0.3371994
66005 0.8554850 -0.3482098 0.1445150 0.3482098 0.1445150 0.3482098 0.8554850 -0.3482098
69028 0.8442115 -0.3592296 0.1557885 0.3592296 0.1557885 0.3592296 0.8442115 -0.3592296
72189 0.8322298 -0.3702147 0.1677702 0.3702147 0.1677702 0.3702147 0.8322298 -0.3702147
75495 0.8195222 -0.3811166 0.1804778 0.3811166 0.1804778 0.3811166 0.8195222 -0.3811166
78952 0.8060747 -0.3918830 0.1939253 0.3918830 0.1939253 0.3918830 0.8060747 -0.3918830
82567 0.7918777 -0.4024580 0.2081223 0.4024580 0.2081223 0.4024580 0.7918777 -0.4024580
86348 0.7769268 -0.4127824 0.2230732 0.4127824 0.2230732 0.4127824 0.7769268 -0.4127824
90302 0.7612234 -0.4227941 0.2387766 0.4227941 0.2387766 0.4227941 0.7612234 -0.4227941
94437 0.7447751 -0.4324289 0.2552249 0.4324289 0.2552249 0.4324289 0.7447751 -0.4324289
98762 0.7275965 -0.4416211 0.2724035 0.4416211 0.2724035 0.4416211 0.7275965 -0.4416211
103284 0.7097096 -0.4503043 0.2902904 0.4503043 0.2902904 0.4503043 0.7097096 -0.4503043
108014 0.6911442 -0.4584124 0.3088558 0.4584124 0.3088558 0.4584124 0.6911442 -0.4584124
112960 0.6719376 -0.4658807 0.3280624 0.4658807 0.3280624 0.4658807 0.6719376 -0.4658807
118133 0.6521356 -0.4726469 0.3478644 0.4726469 0.3478644 0.4726469 0.6521356 -0.4726469
123542 0.6317912 -0.4786526 0.3682088 0.4786526 0.3682088 0.4786526 0.6317912 -0.4786526
129199 0.6109654 -0.4838438 0.3890346 0.4838438 0.3890346 0.4838438 0.6109654 -0.4838438
135116 0.5897255 -0.4881727 0.4102745 0.4881727 0.4102745 0.4881727 0.5897255 -0.4881727
141303 0.5681454 -0.4915983 0.4318546 0.4915983 0.4318546 0.4915983 0.5681454 -0.4915983
147774 0.5463039 -0.4940875 0.4536961 0.4940875 0.4536961 0.4940875 0.5463039 -0.4940875
154540 0.5242839 -0.4956161 0.4757161 0.4956161 0.4757161 0.4956161 0.5242839 -0.4956161
161617 0.5021712 -0.4961689 0.4978288 0.4961689 0.4978288 0.4961689 0.5021712 -0.4961689
169018 0.4800531 -0.4957402 0.5199469 0.4957402 0.5199469 0.4957402 0.4800531 -0.4957402
176758 0.4580169 -0.4943344 0.5419831 0.4943344 0.5419831 0.4943344 0.4580169 -0.4943344
184852 0.4361488 -0.4919654 0.5638512 0.4919654 0.5638512 0.4919654 0.4361488 -0.4919654
193316 0.4145320 -0.4886563 0.5854680 0.4886563 0.5854680 0.4886563 0.4145320 -0.4886563
202169 0.3932463 -0.4844392 0.6067537 0.4844392 0.6067537 0.4844392 0.3932463 -0.4844392
211427 0.3723661 -0.4793540 0.6276339 0.4793540 0.6276339 0.4793540 0.3723661 -0.4793540
221108 0.3519600 -0.4734479 0.6480400 0.4734479 0.6480400 0.4734479 0.3519600 -0.4734479
231233 0.3320896 -0.4667743 0.6679104 0.4667743 0.6679104 0.4667743 0.3320896 -0.4667743
241822 0.3128093 -0.4593911 0.6871907 0.4593911 0.6871907 0.4593911 0.3128093 -0.4593911
252896 0.2941657 -0.4513606 0.7058343 0.4513606 0.7058343 0.4513606 0.2941657 -0.4513606
264476 0.2761973 -0.4427473 0.7238027 0.4427473 0.7238027 0.4427473 0.2761973 -0.4427473
276587 0.2589349 -0.4336175 0.7410651 0.4336175 0.7410651 0.4336175 0.2589349 -0.4336175
289253 0.2424012 -0.4240377 0.7575988 0.4240377 0.7575988 0.4240377 0.2424012 -0.4240377
302498 0.2266116 -0.4140741 0.7733884 0.4140741 0.7733884 0.4140741 0.2266116 -0.4140741
316350 0.2115744 -0.4037913 0.7884256 0.4037913 0.7884256 0.4037913 0.2115744 -0.4037913
330837 0.1972916 -0.3932519 0.8027084 0.3932519 0.8027084 0.3932519 0.1972916 -0.3932519
345986 0.1837592 -0.3825156 0.8162408 0.3825156 0.8162408 0.3825156 0.1837592 -0.3825156
361830 0.1709679 -0.3716389 0.8290321 0.3716389 0.8290321 0.3716389 0.1709679 -0.3716389
378399 0.1589039 -0.3606744 0.8410961 0.3606744 0.8410961 0.3606744 0.1589039 -0.3606744
395726 0.1475497 -0.3496711 0.8524503 0.3496711 0.8524503 0.3496711 0.1475497 -0.3496711
413847 0.1368842 -0.3386737 0.8631158 0.3386737 0.8631158 0.3386737 0.1368842 -0.3386737
432798 0.1268842 -0.3277229 0.8731158 0.3277229 0.8731158 0.3277229 0.1268842 -0.3277229
452617 0.1175240 -0.3168551 0.8824760 0.3168551 0.8824760 0.3168551 0.1175240 -0.3168551
473344 0.1087768 -0.3061029 0.8912232 0.3061029 0.8912232 0.3061029 0.1087768 -0.3061029
495019 0.1006145 -0.2954947 0.8993855 0.2954947 0.8993855 0.2954947 0.1006145 -0.2954947
517687 0.0930085 -0.2850556 0.9069915 0.2850556 0.9069915 0.2850556 0.0930085 -0.2850556
541393 0.0859301 -0.2748067 0.9140699 0.2748067 0.9140699 0.2748067 0.0859301 -0.2748067
566185 0.0793506 -0.2647663 0.9206494 0.2647663 0.9206494 0.2647663 0.0793506 -0.2647663
592111 0.0732416 -0.2549493 0.9267584 0.2549493 0.9267584 0.2549493 0.0732416 -0.2549493
619225 0.0675753 -0.2453680 0.9324247 0.2453680 0.9324247 0.2453680 0.0675753 -0.2453680
647581 0.0623248 -0.2360323 0.9376752 0.2360323 0.9376752 0.2360323 0.0623248 -0.2360323
677235 0.0574640 -0.2269495 0.9425360 0.2269495 0.9425360 0.2269495 0.0574640 -0.2269495
708247 0.0529676 -0.2181250 0.9470324 0.2181250 0.9470324 0.2181250 0.0529676 -0.2181250
740679 0.0488115 -0.2095626 0.9511885 0.2095626 0.9511885 0.2095626 0.0488115 -0.2095626
774597 0.0449729 -0.2012640 0.9550271 0.2012640 0.9550271 0.2012640 0.0449729 -0.2012640
810067 0.0414299 -0.1932300 0.9585701 0.1932300 0.9585701 0.1932300 0.0414299 -0.1932300
847162 0.0381617 -0.1854597 0.9618383 0.1854597 0.9618383 0.1854597 0.0381617 -0.1854597
885955 0.0351488 -0.1779513 0.9648512 0.1779513 0.9648512 0.1779513 0.0351488 -0.1779513
926525 0.0323728 -0.1707022 0.9676272 0.1707022 0.9676272 0.1707022 0.0323728 -0.1707022
968953 0.0298163 -0.1637089 0.9701837 0.1637089 0.9701837 0.1637089 0.0298163 -0.1637089
1013323 0.0274631 -0.1569670 0.9725369 0.1569670 0.9725369 0.1569670 0.0274631 -0.1569670
1059725 0.0252980 -0.1504720 0.9747020 0.1504720 0.9747020 0.1504720 0.0252980 -0.1504720
1108252 0.0233067 -0.1442184 0.9766933 0.1442184 0.9766933 0.1442184 0.0233067 -0.1442184
1159002 0.0214759 -0.1382008 0.9785241 0.1382008 0.9785241 0.1382008 0.0214759 -0.1382008
1212075 0.0197932 -0.1324132 0.9802068 0.1324132 0.9802068 0.1324132 0.0197932 -0.1324132
1267578 0.0182472 -0.1268495 0.9817528 0.1268495 0.9817528 0.1268495 0.0182472 -0.1268495
1325623 0.0168271 -0.1215034 0.9831729 0.1215034 0.9831729 0.1215034 0.0168271 -0.1215034
1386327 0.0155228 -0.1163685 0.9844772 0.1163685 0.9844772 0.1163685 0.0155228 -0.1163685
1449809 0.0143253 -0.1114382 0.9856747 0.1114382 0.9856747 0.1114382 0.0143253 -0.1114382
1516199 0.0132260 -0.1067060 0.9867740 0.1067060 0.9867740 0.1067060 0.0132260 -0.1067060
1585629 0.0122168 -0.1021654 0.9877832 0.1021654 0.9877832 0.1021654 0.0122168 -0.1021654
1658239 0.0112906 -0.0978099 0.9887094 0.0978099 0.9887094 0.0978099 0.0112906 -0.0978099
1734173 0.0104405 -0.0936331 0.9895595 0.0936331 0.9895595 0.0936331 0.0104405 -0.0936331
1813585 0.0096603 -0.0896286 0.9903397 0.0896286 0.9903397 0.0896286 0.0096603 -0.0896286
1896632 0.0089442 -0.0857901 0.9910558 0.0857901 0.9910558 0.0857901 0.0089442 -0.0857901
1983483 0.0082869 -0.0821116 0.9917131 0.0821116 0.9917131 0.0821116 0.0082869 -0.0821116
2074311 0.0076834 -0.0785870 0.9923166 0.0785870 0.9923166 0.0785870 0.0076834 -0.0785870
