!Murata Part Number: GRM21BB11H473MA01
!These Parameters are Measured in Series Mode Connection
!Data Generated on Mar 30, 2021
!       o--ll--o
!Port1            Port2
!       o------o
!Operation Temp=25[degC], DC Bias Voltage=0[V]
!Freq. Start=100[Hz] Stop=6[GHz] 401[Steps]
# Hz S RI R 50
!Freq.(Hz) S11(Real) S11(Imag) S21(Real) S21(Imag) S12(Real) S12(Imag) S22(Real) S22(Imag)
100 0.9999775 -0.0029287 0.0000225 0.0029287 0.0000225 0.0029287 0.9999775 -0.0029287
105 0.9999760 -0.0030623 0.0000240 0.0030623 0.0000240 0.0030623 0.9999760 -0.0030623
109 0.9999745 -0.0032021 0.0000255 0.0032021 0.0000255 0.0032021 0.9999745 -0.0032021
114 0.9999729 -0.0033483 0.0000271 0.0033483 0.0000271 0.0033483 0.9999729 -0.0033483
120 0.9999711 -0.0035012 0.0000289 0.0035012 0.0000289 0.0035012 0.9999711 -0.0035012
125 0.9999692 -0.0036610 0.0000308 0.0036610 0.0000308 0.0036610 0.9999692 -0.0036610
131 0.9999672 -0.0038281 0.0000328 0.0038281 0.0000328 0.0038281 0.9999672 -0.0038281
137 0.9999650 -0.0040029 0.0000350 0.0040029 0.0000350 0.0040029 0.9999650 -0.0040029
143 0.9999626 -0.0041856 0.0000374 0.0041856 0.0000374 0.0041856 0.9999626 -0.0041856
150 0.9999600 -0.0043767 0.0000400 0.0043767 0.0000400 0.0043767 0.9999600 -0.0043767
156 0.9999572 -0.0045765 0.0000428 0.0045765 0.0000428 0.0045765 0.9999572 -0.0045765
164 0.9999542 -0.0047854 0.0000458 0.0047854 0.0000458 0.0047854 0.9999542 -0.0047854
171 0.9999510 -0.0050038 0.0000490 0.0050038 0.0000490 0.0050038 0.9999510 -0.0050038
179 0.9999475 -0.0052322 0.0000525 0.0052322 0.0000525 0.0052322 0.9999475 -0.0052322
187 0.9999438 -0.0054710 0.0000562 0.0054710 0.0000562 0.0054710 0.9999438 -0.0054710
196 0.9999397 -0.0057207 0.0000603 0.0057207 0.0000603 0.0057207 0.9999397 -0.0057207
205 0.9999353 -0.0059818 0.0000647 0.0059818 0.0000647 0.0059818 0.9999353 -0.0059818
214 0.9999306 -0.0062548 0.0000694 0.0062548 0.0000694 0.0062548 0.9999306 -0.0062548
224 0.9999255 -0.0065402 0.0000745 0.0065402 0.0000745 0.0065402 0.9999255 -0.0065402
234 0.9999200 -0.0068387 0.0000800 0.0068387 0.0000800 0.0068387 0.9999200 -0.0068387
245 0.9999141 -0.0071507 0.0000859 0.0071507 0.0000859 0.0071507 0.9999141 -0.0071507
256 0.9999077 -0.0074770 0.0000923 0.0074770 0.0000923 0.0074770 0.9999077 -0.0074770
268 0.9999008 -0.0078181 0.0000992 0.0078181 0.0000992 0.0078181 0.9999008 -0.0078181
280 0.9998933 -0.0081748 0.0001067 0.0081748 0.0001067 0.0081748 0.9998933 -0.0081748
293 0.9998852 -0.0085477 0.0001148 0.0085477 0.0001148 0.0085477 0.9998852 -0.0085477
306 0.9998765 -0.0089377 0.0001235 0.0089377 0.0001235 0.0089377 0.9998765 -0.0089377
320 0.9998672 -0.0093454 0.0001328 0.0093454 0.0001328 0.0093454 0.9998672 -0.0093454
335 0.9998570 -0.0097718 0.0001430 0.0097718 0.0001430 0.0097718 0.9998570 -0.0097718
350 0.9998460 -0.0102175 0.0001540 0.0102175 0.0001540 0.0102175 0.9998460 -0.0102175
366 0.9998342 -0.0106837 0.0001658 0.0106837 0.0001658 0.0106837 0.9998342 -0.0106837
383 0.9998213 -0.0111711 0.0001787 0.0111711 0.0001787 0.0111711 0.9998213 -0.0111711
401 0.9998074 -0.0116807 0.0001926 0.0116807 0.0001926 0.0116807 0.9998074 -0.0116807
419 0.9997924 -0.0122136 0.0002076 0.0122136 0.0002076 0.0122136 0.9997924 -0.0122136
438 0.9997760 -0.0127708 0.0002240 0.0127708 0.0002240 0.0127708 0.9997760 -0.0127708
458 0.9997583 -0.0133535 0.0002417 0.0133535 0.0002417 0.0133535 0.9997583 -0.0133535
479 0.9997391 -0.0139628 0.0002609 0.0139628 0.0002609 0.0139628 0.9997391 -0.0139628
501 0.9997182 -0.0145999 0.0002818 0.0145999 0.0002818 0.0145999 0.9997182 -0.0145999
524 0.9996955 -0.0152660 0.0003045 0.0152660 0.0003045 0.0152660 0.9996955 -0.0152660
548 0.9996708 -0.0159626 0.0003292 0.0159626 0.0003292 0.0159626 0.9996708 -0.0159626
573 0.9996440 -0.0166910 0.0003560 0.0166910 0.0003560 0.0166910 0.9996440 -0.0166910
600 0.9996148 -0.0174526 0.0003852 0.0174526 0.0003852 0.0174526 0.9996148 -0.0174526
627 0.9995830 -0.0182490 0.0004170 0.0182490 0.0004170 0.0182490 0.9995830 -0.0182490
656 0.9995484 -0.0190817 0.0004516 0.0190817 0.0004516 0.0190817 0.9995484 -0.0190817
686 0.9995107 -0.0199524 0.0004893 0.0199524 0.0004893 0.0199524 0.9995107 -0.0199524
717 0.9994696 -0.0208628 0.0005304 0.0208628 0.0005304 0.0208628 0.9994696 -0.0208628
750 0.9994248 -0.0218147 0.0005752 0.0218147 0.0005752 0.0218147 0.9994248 -0.0218147
784 0.9993760 -0.0228099 0.0006240 0.0228099 0.0006240 0.0228099 0.9993760 -0.0228099
820 0.9993227 -0.0238504 0.0006773 0.0238504 0.0006773 0.0238504 0.9993227 -0.0238504
858 0.9992647 -0.0249384 0.0007353 0.0249384 0.0007353 0.0249384 0.9992647 -0.0249384
897 0.9992013 -0.0260757 0.0007987 0.0260757 0.0007987 0.0260757 0.9992013 -0.0260757
938 0.9991322 -0.0272648 0.0008678 0.0272648 0.0008678 0.0272648 0.9991322 -0.0272648
981 0.9990569 -0.0285080 0.0009431 0.0285080 0.0009431 0.0285080 0.9990569 -0.0285080
1026 0.9989746 -0.0298075 0.0010254 0.0298075 0.0010254 0.0298075 0.9989746 -0.0298075
1073 0.9988849 -0.0311661 0.0011151 0.0311661 0.0011151 0.0311661 0.9988849 -0.0311661
1122 0.9987870 -0.0325862 0.0012130 0.0325862 0.0012130 0.0325862 0.9987870 -0.0325862
1174 0.9986803 -0.0340706 0.0013197 0.0340706 0.0013197 0.0340706 0.9986803 -0.0340706
1227 0.9985638 -0.0356222 0.0014362 0.0356222 0.0014362 0.0356222 0.9985638 -0.0356222
1283 0.9984367 -0.0372439 0.0015633 0.0372439 0.0015633 0.0372439 0.9984367 -0.0372439
1342 0.9982981 -0.0389389 0.0017019 0.0389389 0.0017019 0.0389389 0.9982981 -0.0389389
1404 0.9981469 -0.0407104 0.0018531 0.0407104 0.0018531 0.0407104 0.9981469 -0.0407104
1468 0.9979820 -0.0425617 0.0020180 0.0425617 0.0020180 0.0425617 0.9979820 -0.0425617
1535 0.9978022 -0.0444964 0.0021978 0.0444964 0.0021978 0.0444964 0.9978022 -0.0444964
1606 0.9976060 -0.0465181 0.0023940 0.0465181 0.0023940 0.0465181 0.9976060 -0.0465181
1679 0.9973922 -0.0486305 0.0026078 0.0486305 0.0026078 0.0486305 0.9973922 -0.0486305
1756 0.9971589 -0.0508377 0.0028411 0.0508377 0.0028411 0.0508377 0.9971589 -0.0508377
1836 0.9969047 -0.0531437 0.0030953 0.0531437 0.0030953 0.0531437 0.9969047 -0.0531437
1920 0.9966274 -0.0555528 0.0033726 0.0555528 0.0033726 0.0555528 0.9966274 -0.0555528
2008 0.9963252 -0.0580694 0.0036748 0.0580694 0.0036748 0.0580694 0.9963252 -0.0580694
2100 0.9959957 -0.0606982 0.0040043 0.0606982 0.0040043 0.0606982 0.9959957 -0.0606982
2196 0.9956365 -0.0634438 0.0043635 0.0634438 0.0043635 0.0634438 0.9956365 -0.0634438
2297 0.9952449 -0.0663113 0.0047551 0.0663113 0.0047551 0.0663113 0.9952449 -0.0663113
2402 0.9948180 -0.0693058 0.0051820 0.0693058 0.0051820 0.0693058 0.9948180 -0.0693058
2512 0.9943528 -0.0724325 0.0056472 0.0724325 0.0056472 0.0724325 0.9943528 -0.0724325
2627 0.9938456 -0.0756969 0.0061544 0.0756969 0.0061544 0.0756969 0.9938456 -0.0756969
2748 0.9932928 -0.0791048 0.0067072 0.0791048 0.0067072 0.0791048 0.9932928 -0.0791048
2873 0.9926902 -0.0826618 0.0073098 0.0826618 0.0073098 0.0826618 0.9926902 -0.0826618
3005 0.9920333 -0.0863740 0.0079667 0.0863740 0.0079667 0.0863740 0.9920333 -0.0863740
3143 0.9913174 -0.0902475 0.0086826 0.0902475 0.0086826 0.0902475 0.9913174 -0.0902475
3287 0.9905371 -0.0942886 0.0094629 0.0942886 0.0094629 0.0942886 0.9905371 -0.0942886
3437 0.9896866 -0.0985038 0.0103134 0.0985038 0.0103134 0.0985038 0.9896866 -0.0985038
3594 0.9887597 -0.1028994 0.0112403 0.1028994 0.0112403 0.1028994 0.9887597 -0.1028994
3759 0.9877495 -0.1074823 0.0122505 0.1074823 0.0122505 0.1074823 0.9877495 -0.1074823
3931 0.9866486 -0.1122590 0.0133514 0.1122590 0.0133514 0.1122590 0.9866486 -0.1122590
4111 0.9854491 -0.1172364 0.0145509 0.1172364 0.0145509 0.1172364 0.9854491 -0.1172364
4299 0.9841422 -0.1224212 0.0158578 0.1224212 0.0158578 0.1224212 0.9841422 -0.1224212
4496 0.9827186 -0.1278201 0.0172814 0.1278201 0.0172814 0.1278201 0.9827186 -0.1278201
4702 0.9811679 -0.1334399 0.0188321 0.1334399 0.0188321 0.1334399 0.9811679 -0.1334399
4918 0.9794794 -0.1392870 0.0205206 0.1392870 0.0205206 0.1392870 0.9794794 -0.1392870
5143 0.9776410 -0.1453679 0.0223590 0.1453679 0.0223590 0.1453679 0.9776410 -0.1453679
5378 0.9756401 -0.1516887 0.0243599 0.1516887 0.0243599 0.1516887 0.9756401 -0.1516887
5625 0.9734629 -0.1582551 0.0265371 0.1582551 0.0265371 0.1582551 0.9734629 -0.1582551
5882 0.9710947 -0.1650727 0.0289053 0.1650727 0.0289053 0.1650727 0.9710947 -0.1650727
6151 0.9685196 -0.1721462 0.0314804 0.1721462 0.0314804 0.1721462 0.9685196 -0.1721462
6433 0.9657210 -0.1794800 0.0342790 0.1794800 0.0342790 0.1794800 0.9657210 -0.1794800
6728 0.9626807 -0.1870775 0.0373193 0.1870775 0.0373193 0.1870775 0.9626807 -0.1870775
7036 0.9593796 -0.1949414 0.0406204 0.1949414 0.0406204 0.1949414 0.9593796 -0.1949414
7358 0.9557974 -0.2030734 0.0442026 0.2030734 0.0442026 0.2030734 0.9557974 -0.2030734
7695 0.9519126 -0.2114740 0.0480874 0.2114740 0.0480874 0.2114740 0.9519126 -0.2114740
8047 0.9477025 -0.2201421 0.0522975 0.2201421 0.0522975 0.2201421 0.9477025 -0.2201421
8416 0.9431433 -0.2290754 0.0568567 0.2290754 0.0568567 0.2290754 0.9431433 -0.2290754
8801 0.9382102 -0.2382697 0.0617898 0.2382697 0.0617898 0.2382697 0.9382102 -0.2382697
9204 0.9328771 -0.2477187 0.0671229 0.2477187 0.0671229 0.2477187 0.9328771 -0.2477187
9626 0.9271172 -0.2574141 0.0728828 0.2574141 0.0728828 0.2574141 0.9271172 -0.2574141
10066 0.9209027 -0.2673451 0.0790973 0.2673451 0.0790973 0.2673451 0.9209027 -0.2673451
10527 0.9142053 -0.2774981 0.0857947 0.2774981 0.0857947 0.2774981 0.9142053 -0.2774981
11009 0.9069962 -0.2878568 0.0930038 0.2878568 0.0930038 0.2878568 0.9069962 -0.2878568
11514 0.8992464 -0.2984016 0.1007536 0.2984016 0.1007536 0.2984016 0.8992464 -0.2984016
12041 0.8909269 -0.3091096 0.1090731 0.3091096 0.1090731 0.3091096 0.8909269 -0.3091096
12592 0.8820092 -0.3199542 0.1179908 0.3199542 0.1179908 0.3199542 0.8820092 -0.3199542
13169 0.8724655 -0.3309051 0.1275345 0.3309051 0.1275345 0.3309051 0.8724655 -0.3309051
13772 0.8622695 -0.3419281 0.1377305 0.3419281 0.1377305 0.3419281 0.8622695 -0.3419281
14402 0.8513963 -0.3529848 0.1486037 0.3529848 0.1486037 0.3529848 0.8513963 -0.3529848
15062 0.8398236 -0.3640329 0.1601764 0.3640329 0.1601764 0.3640329 0.8398236 -0.3640329
15752 0.8275317 -0.3750259 0.1724683 0.3750259 0.1724683 0.3750259 0.8275317 -0.3750259
16473 0.8145045 -0.3859134 0.1854955 0.3859134 0.1854955 0.3859134 0.8145045 -0.3859134
17227 0.8007301 -0.3966413 0.1992699 0.3966413 0.1992699 0.3966413 0.8007301 -0.3966413
18016 0.7862013 -0.4071520 0.2137987 0.4071520 0.2137987 0.4071520 0.7862013 -0.4071520
18841 0.7709163 -0.4173848 0.2290837 0.4173848 0.2290837 0.4173848 0.7709163 -0.4173848
19704 0.7548792 -0.4272765 0.2451208 0.4272765 0.2451208 0.4272765 0.7548792 -0.4272765
20606 0.7381011 -0.4367621 0.2618989 0.4367621 0.2618989 0.4367621 0.7381011 -0.4367621
21550 0.7205998 -0.4457756 0.2794002 0.4457756 0.2794002 0.4457756 0.7205998 -0.4457756
22537 0.7024008 -0.4542505 0.2975992 0.4542505 0.2975992 0.4542505 0.7024008 -0.4542505
23569 0.6835373 -0.4621215 0.3164627 0.4621215 0.3164627 0.4621215 0.6835373 -0.4621215
24648 0.6640504 -0.4693249 0.3359496 0.4693249 0.3359496 0.4693249 0.6640504 -0.4693249
25777 0.6439890 -0.4758000 0.3560110 0.4758000 0.3560110 0.4758000 0.6439890 -0.4758000
26957 0.6234096 -0.4814905 0.3765904 0.4814905 0.3765904 0.4814905 0.6234096 -0.4814905
28191 0.6023759 -0.4863449 0.3976241 0.4863449 0.3976241 0.4863449 0.6023759 -0.4863449
29482 0.5809580 -0.4903184 0.4190420 0.4903184 0.4190420 0.4903184 0.5809580 -0.4903184
30832 0.5592318 -0.4933734 0.4407682 0.4933734 0.4407682 0.4933734 0.5592318 -0.4933734
32244 0.5372778 -0.4954806 0.4627222 0.4954806 0.4627222 0.4954806 0.5372778 -0.4954806
33721 0.5151800 -0.4966193 0.4848200 0.4966193 0.4848200 0.4966193 0.5151800 -0.4966193
35265 0.4930250 -0.4967784 0.5069750 0.4967784 0.5069750 0.4967784 0.4930250 -0.4967784
36880 0.4708997 -0.4959564 0.5291003 0.4959564 0.5291003 0.4959564 0.4708997 -0.4959564
38569 0.4488912 -0.4941613 0.5511088 0.4941613 0.5511088 0.4941613 0.4488912 -0.4941613
40335 0.4270843 -0.4914108 0.5729157 0.4914108 0.5729157 0.4914108 0.4270843 -0.4914108
42182 0.4055609 -0.4877317 0.5944391 0.4877317 0.5944391 0.4877317 0.4055609 -0.4877317
44113 0.3843984 -0.4831590 0.6156016 0.4831590 0.6156016 0.4831590 0.3843984 -0.4831590
46134 0.3636692 -0.4777355 0.6363308 0.4777355 0.6363308 0.4777355 0.3636692 -0.4777355
48246 0.3434389 -0.4715108 0.6565611 0.4715108 0.6565611 0.4715108 0.3434389 -0.4715108
50455 0.3237663 -0.4645399 0.6762337 0.4645399 0.6762337 0.4645399 0.3237663 -0.4645399
52766 0.3047030 -0.4568824 0.6952970 0.4568824 0.6952970 0.4568824 0.3047030 -0.4568824
55182 0.2862922 -0.4486015 0.7137078 0.4486015 0.7137078 0.4486015 0.2862922 -0.4486015
57709 0.2685697 -0.4397621 0.7314303 0.4397621 0.7314303 0.4397621 0.2685697 -0.4397621
60352 0.2515630 -0.4304308 0.7484370 0.4304308 0.7484370 0.4304308 0.2515630 -0.4304308
63115 0.2352924 -0.4206737 0.7647076 0.4206737 0.7647076 0.4206737 0.2352924 -0.4206737
66005 0.2197706 -0.4105565 0.7802294 0.4105565 0.7802294 0.4105565 0.2197706 -0.4105565
69028 0.2050037 -0.4001430 0.7949963 0.4001430 0.7949963 0.4001430 0.2050037 -0.4001430
72189 0.1909913 -0.3894947 0.8090087 0.3894947 0.8090087 0.3894947 0.1909913 -0.3894947
75495 0.1777277 -0.3786702 0.8222723 0.3786702 0.8222723 0.3786702 0.1777277 -0.3786702
78952 0.1652021 -0.3677245 0.8347979 0.3677245 0.8347979 0.3677245 0.1652021 -0.3677245
82567 0.1533993 -0.3567090 0.8466007 0.3567090 0.8466007 0.3567090 0.1533993 -0.3567090
86348 0.1423008 -0.3456713 0.8576992 0.3456713 0.8576992 0.3456713 0.1423008 -0.3456713
90302 0.1318846 -0.3346546 0.8681154 0.3346546 0.8681154 0.3346546 0.1318846 -0.3346546
94437 0.1221267 -0.3236984 0.8778733 0.3236984 0.8778733 0.3236984 0.1221267 -0.3236984
98762 0.1130011 -0.3128378 0.8869989 0.3128378 0.8869989 0.3128378 0.1130011 -0.3128378
103284 0.1044805 -0.3021040 0.8955195 0.3021040 0.8955195 0.3021040 0.1044805 -0.3021040
108014 0.0965366 -0.2915245 0.9034634 0.2915245 0.9034634 0.2915245 0.0965366 -0.2915245
112960 0.0891408 -0.2811230 0.9108592 0.2811230 0.9108592 0.2811230 0.0891408 -0.2811230
118133 0.0822641 -0.2709200 0.9177359 0.2709200 0.9177359 0.2709200 0.0822641 -0.2709200
123542 0.0758778 -0.2609326 0.9241222 0.2609326 0.9241222 0.2609326 0.0758778 -0.2609326
129199 0.0699538 -0.2511750 0.9300462 0.2511750 0.9300462 0.2511750 0.0699538 -0.2511750
135116 0.0644643 -0.2416588 0.9355357 0.2416588 0.9355357 0.2416588 0.0644643 -0.2416588
141303 0.0593824 -0.2323931 0.9406176 0.2323931 0.9406176 0.2323931 0.0593824 -0.2323931
147774 0.0546821 -0.2233845 0.9453179 0.2233845 0.9453179 0.2233845 0.0546821 -0.2233845
154540 0.0503384 -0.2146381 0.9496616 0.2146381 0.9496616 0.2146381 0.0503384 -0.2146381
161617 0.0463273 -0.2061567 0.9536727 0.2061567 0.9536727 0.2061567 0.0463273 -0.2061567
169018 0.0426262 -0.1979419 0.9573738 0.1979419 0.9573738 0.1979419 0.0426262 -0.1979419
176758 0.0392132 -0.1899937 0.9607868 0.1899937 0.9607868 0.1899937 0.0392132 -0.1899937
184852 0.0360680 -0.1823109 0.9639320 0.1823109 0.9639320 0.1823109 0.0360680 -0.1823109
193316 0.0331710 -0.1748914 0.9668290 0.1748914 0.9668290 0.1748914 0.0331710 -0.1748914
202169 0.0305041 -0.1677320 0.9694959 0.1677320 0.9694959 0.1677320 0.0305041 -0.1677320
211427 0.0280503 -0.1608288 0.9719497 0.1608288 0.9719497 0.1608288 0.0280503 -0.1608288
221108 0.0257933 -0.1541773 0.9742067 0.1541773 0.9742067 0.1541773 0.0257933 -0.1541773
231233 0.0237183 -0.1477724 0.9762817 0.1477724 0.9762817 0.1477724 0.0237183 -0.1477724
241822 0.0218112 -0.1416085 0.9781888 0.1416085 0.9781888 0.1416085 0.0218112 -0.1416085
252896 0.0200590 -0.1356799 0.9799410 0.1356799 0.9799410 0.1356799 0.0200590 -0.1356799
264476 0.0184495 -0.1299803 0.9815505 0.1299803 0.9815505 0.1299803 0.0184495 -0.1299803
276587 0.0169714 -0.1245033 0.9830286 0.1245033 0.9830286 0.1245033 0.0169714 -0.1245033
289253 0.0156143 -0.1192425 0.9843857 0.1192425 0.9843857 0.1192425 0.0156143 -0.1192425
302498 0.0143685 -0.1141913 0.9856315 0.1141913 0.9856315 0.1141913 0.0143685 -0.1141913
316350 0.0132249 -0.1093429 0.9867751 0.1093429 0.9867751 0.1093429 0.0132249 -0.1093429
330837 0.0121754 -0.1046907 0.9878246 0.1046907 0.9878246 0.1046907 0.0121754 -0.1046907
345986 0.0112121 -0.1002281 0.9887879 0.1002281 0.9887879 0.1002281 0.0112121 -0.1002281
361830 0.0103281 -0.0959484 0.9896719 0.0959484 0.9896719 0.0959484 0.0103281 -0.0959484
378399 0.0095167 -0.0918452 0.9904833 0.0918452 0.9904833 0.0918452 0.0095167 -0.0918452
395726 0.0087721 -0.0879119 0.9912279 0.0879119 0.9912279 0.0879119 0.0087721 -0.0879119
413847 0.0080886 -0.0841424 0.9919114 0.0841424 0.9919114 0.0841424 0.0080886 -0.0841424
432798 0.0074611 -0.0805304 0.9925389 0.0805304 0.9925389 0.0805304 0.0074611 -0.0805304
452617 0.0068851 -0.0770699 0.9931149 0.0770699 0.9931149 0.0770699 0.0068851 -0.0770699
473344 0.0063561 -0.0737549 0.9936439 0.0737549 0.9936439 0.0737549 0.0063561 -0.0737549
495019 0.0058704 -0.0705798 0.9941296 0.0705798 0.9941296 0.0705798 0.0058704 -0.0705798
517687 0.0054241 -0.0675391 0.9945759 0.0675391 0.9945759 0.0675391 0.0054241 -0.0675391
541393 0.0050141 -0.0646272 0.9949859 0.0646272 0.9949859 0.0646272 0.0050141 -0.0646272
566185 0.0046373 -0.0618390 0.9953627 0.0618390 0.9953627 0.0618390 0.0046373 -0.0618390
592111 0.0042909 -0.0591695 0.9957091 0.0591695 0.9957091 0.0591695 0.0042909 -0.0591695
619225 0.0039725 -0.0566136 0.9960275 0.0566136 0.9960275 0.0566136 0.0039725 -0.0566136
647581 0.0036796 -0.0541669 0.9963204 0.0541669 0.9963204 0.0541669 0.0036796 -0.0541669
677235 0.0034102 -0.0518246 0.9965898 0.0518246 0.9965898 0.0518246 0.0034102 -0.0518246
708247 0.0031623 -0.0495825 0.9968377 0.0495825 0.9968377 0.0495825 0.0031623 -0.0495825
740679 0.0029342 -0.0474363 0.9970658 0.0474363 0.9970658 0.0474363 0.0029342 -0.0474363
774597 0.0027242 -0.0453820 0.9972758 0.0453820 0.9972758 0.0453820 0.0027242 -0.0453820
810067 0.0025310 -0.0434157 0.9974690 0.0434157 0.9974690 0.0434157 0.0025310 -0.0434157
847162 0.0023530 -0.0415337 0.9976470 0.0415337 0.9976470 0.0415337 0.0023530 -0.0415337
885955 0.0021891 -0.0397324 0.9978109 0.0397324 0.9978109 0.0397324 0.0021891 -0.0397324
926525 0.0020382 -0.0380085 0.9979618 0.0380085 0.9979618 0.0380085 0.0020382 -0.0380085
968953 0.0018992 -0.0363586 0.9981008 0.0363586 0.9981008 0.0363586 0.0018992 -0.0363586
1013323 0.0017712 -0.0347795 0.9982288 0.0347795 0.9982288 0.0347795 0.0017712 -0.0347795
1059725 0.0016533 -0.0332684 0.9983467 0.0332684 0.9983467 0.0332684 0.0016533 -0.0332684
1108252 0.0015447 -0.0318222 0.9984553 0.0318222 0.9984553 0.0318222 0.0015447 -0.0318222
1159002 0.0014446 -0.0304382 0.9985554 0.0304382 0.9985554 0.0304382 0.0014446 -0.0304382
1212075 0.0013525 -0.0291138 0.9986475 0.0291138 0.9986475 0.0291138 0.0013525 -0.0291138
1267578 0.0012676 -0.0278464 0.9987324 0.0278464 0.9987324 0.0278464 0.0012676 -0.0278464
1325623 0.0011894 -0.0266336 0.9988106 0.0266336 0.9988106 0.0266336 0.0011894 -0.0266336
1386327 0.0011174 -0.0254730 0.9988826 0.0254730 0.9988826 0.0254730 0.0011174 -0.0254730
1449809 0.0010510 -0.0243625 0.9989490 0.0243625 0.9989490 0.0243625 0.0010510 -0.0243625
1516199 0.0009899 -0.0232999 0.9990101 0.0232999 0.9990101 0.0232999 0.0009899 -0.0232999
1585629 0.0009336 -0.0222831 0.9990664 0.0222831 0.9990664 0.0222831 0.0009336 -0.0222831
1658239 0.0008816 -0.0213102 0.9991184 0.0213102 0.9991184 0.0213102 0.0008816 -0.0213102
1734173 0.0008337 -0.0203793 0.9991663 0.0203793 0.9991663 0.0203793 0.0008337 -0.0203793
1813585 0.0007896 -0.0194885 0.9992104 0.0194885 0.9992104 0.0194885 0.0007896 -0.0194885
1896632 0.0007489 -0.0186362 0.9992511 0.0186362 0.9992511 0.0186362 0.0007489 -0.0186362
1983483 0.0007113 -0.0178207 0.9992887 0.0178207 0.9992887 0.0178207 0.0007113 -0.0178207
2074311 0.0006765 -0.0170403 0.9993235 0.0170403 0.9993235 0.0170403 0.0006765 -0.0170403
