!Murata Part Number: GRM21BB31E105KA98
!These Parameters are Measured in Series Mode Connection
!Data Generated on Mar 30, 2021
!       o--ll--o
!Port1            Port2
!       o------o
!Operation Temp=25[degC], DC Bias Voltage=0[V]
!Freq. Start=100[Hz] Stop=6[GHz] 401[Steps]
# Hz S RI R 50
!Freq.(Hz) S11(Real) S11(Imag) S21(Real) S21(Imag) S12(Real) S12(Imag) S22(Real) S22(Imag)
100 0.9955368 -0.0614498 0.0044632 0.0614498 0.0044632 0.0614498 0.9955368 -0.0614498
105 0.9951717 -0.0642271 0.0048283 0.0642271 0.0048283 0.0642271 0.9951717 -0.0642271
109 0.9947731 -0.0671283 0.0052269 0.0671283 0.0052269 0.0671283 0.9947731 -0.0671283
114 0.9943380 -0.0701584 0.0056620 0.0701584 0.0056620 0.0701584 0.9943380 -0.0701584
120 0.9938632 -0.0733228 0.0061368 0.0733228 0.0061368 0.0733228 0.9938632 -0.0733228
125 0.9933449 -0.0766269 0.0066551 0.0766269 0.0066551 0.0766269 0.9933449 -0.0766269
131 0.9927793 -0.0800764 0.0072207 0.0800764 0.0072207 0.0800764 0.9927793 -0.0800764
137 0.9921620 -0.0836771 0.0078380 0.0836771 0.0078380 0.0836771 0.9921620 -0.0836771
143 0.9914883 -0.0874348 0.0085117 0.0874348 0.0085117 0.0874348 0.9914883 -0.0874348
150 0.9907533 -0.0913557 0.0092467 0.0913557 0.0092467 0.0913557 0.9907533 -0.0913557
156 0.9899514 -0.0954459 0.0100486 0.0954459 0.0100486 0.0954459 0.9899514 -0.0954459
164 0.9890767 -0.0997117 0.0109233 0.0997117 0.0109233 0.0997117 0.9890767 -0.0997117
171 0.9881226 -0.1041596 0.0118774 0.1041596 0.0118774 0.1041596 0.9881226 -0.1041596
179 0.9870824 -0.1087961 0.0129176 0.1087961 0.0129176 0.1087961 0.9870824 -0.1087961
187 0.9859483 -0.1136276 0.0140517 0.1136276 0.0140517 0.1136276 0.9859483 -0.1136276
196 0.9847122 -0.1186607 0.0152878 0.1186607 0.0152878 0.1186607 0.9847122 -0.1186607
205 0.9833653 -0.1239021 0.0166347 0.1239021 0.0166347 0.1239021 0.9833653 -0.1239021
214 0.9818980 -0.1293583 0.0181020 0.1293583 0.0181020 0.1293583 0.9818980 -0.1293583
224 0.9803000 -0.1350357 0.0197000 0.1350357 0.0197000 0.1350357 0.9803000 -0.1350357
234 0.9785604 -0.1409406 0.0214396 0.1409406 0.0214396 0.1409406 0.9785604 -0.1409406
245 0.9766671 -0.1470791 0.0233329 0.1470791 0.0233329 0.1470791 0.9766671 -0.1470791
256 0.9746073 -0.1534572 0.0253927 0.1534572 0.0253927 0.1534572 0.9746073 -0.1534572
268 0.9723674 -0.1600804 0.0276326 0.1600804 0.0276326 0.1600804 0.9723674 -0.1600804
280 0.9699325 -0.1669537 0.0300675 0.1669537 0.0300675 0.1669537 0.9699325 -0.1669537
293 0.9672869 -0.1740820 0.0327131 0.1740820 0.0327131 0.1740820 0.9672869 -0.1740820
306 0.9644138 -0.1814691 0.0355862 0.1814691 0.0355862 0.1814691 0.9644138 -0.1814691
320 0.9612953 -0.1891185 0.0387047 0.1891185 0.0387047 0.1891185 0.9612953 -0.1891185
335 0.9579122 -0.1970325 0.0420878 0.1970325 0.0420878 0.1970325 0.9579122 -0.1970325
350 0.9542444 -0.2052125 0.0457556 0.2052125 0.0457556 0.2052125 0.9542444 -0.2052125
366 0.9502705 -0.2136589 0.0497295 0.2136589 0.0497295 0.2136589 0.9502705 -0.2136589
383 0.9459677 -0.2223705 0.0540323 0.2223705 0.0540323 0.2223705 0.9459677 -0.2223705
401 0.9413125 -0.2313448 0.0586875 0.2313448 0.0586875 0.2313448 0.9413125 -0.2313448
419 0.9362800 -0.2405775 0.0637200 0.2405775 0.0637200 0.2405775 0.9362800 -0.2405775
438 0.9308442 -0.2500621 0.0691558 0.2500621 0.0691558 0.2500621 0.9308442 -0.2500621
458 0.9249783 -0.2597903 0.0750217 0.2597903 0.0750217 0.2597903 0.9249783 -0.2597903
479 0.9186545 -0.2697510 0.0813455 0.2697510 0.0813455 0.2697510 0.9186545 -0.2697510
501 0.9118445 -0.2799307 0.0881555 0.2799307 0.0881555 0.2799307 0.9118445 -0.2799307
524 0.9045194 -0.2903127 0.0954806 0.2903127 0.0954806 0.2903127 0.9045194 -0.2903127
548 0.8966500 -0.3008774 0.1033500 0.3008774 0.1033500 0.3008774 0.8966500 -0.3008774
573 0.8882072 -0.3116014 0.1117928 0.3116014 0.1117928 0.3116014 0.8882072 -0.3116014
600 0.8791624 -0.3224579 0.1208376 0.3224579 0.1208376 0.3224579 0.8791624 -0.3224579
627 0.8694876 -0.3334162 0.1305124 0.3334162 0.1305124 0.3334162 0.8694876 -0.3334162
656 0.8591563 -0.3444415 0.1408437 0.3444415 0.1408437 0.3444415 0.8591563 -0.3444415
686 0.8481437 -0.3554948 0.1518563 0.3554948 0.1518563 0.3554948 0.8481437 -0.3554948
717 0.8364271 -0.3665332 0.1635729 0.3665332 0.1635729 0.3665332 0.8364271 -0.3665332
750 0.8239871 -0.3775093 0.1760129 0.3775093 0.1760129 0.3775093 0.8239871 -0.3775093
784 0.8108077 -0.3883719 0.1891923 0.3883719 0.1891923 0.3883719 0.8108077 -0.3883719
820 0.7968773 -0.3990657 0.2031227 0.3990657 0.2031227 0.3990657 0.7968773 -0.3990657
858 0.7821891 -0.4095321 0.2178109 0.4095321 0.2178109 0.4095321 0.7821891 -0.4095321
897 0.7667420 -0.4197093 0.2332580 0.4197093 0.2332580 0.4197093 0.7667420 -0.4197093
938 0.7505411 -0.4295332 0.2494589 0.4295332 0.2494589 0.4295332 0.7505411 -0.4295332
981 0.7335984 -0.4389377 0.2664016 0.4389377 0.2664016 0.4389377 0.7335984 -0.4389377
1026 0.7159333 -0.4478558 0.2840667 0.4478558 0.2840667 0.4478558 0.7159333 -0.4478558
1073 0.6975727 -0.4562204 0.3024273 0.4562204 0.3024273 0.4562204 0.6975727 -0.4562204
1122 0.6785517 -0.4639655 0.3214483 0.4639655 0.3214483 0.4639655 0.6785517 -0.4639655
1174 0.6589134 -0.4710273 0.3410866 0.4710273 0.3410866 0.4710273 0.6589134 -0.4710273
1227 0.6387086 -0.4773450 0.3612914 0.4773450 0.3612914 0.4773450 0.6387086 -0.4773450
1283 0.6179962 -0.4828626 0.3820038 0.4828626 0.3820038 0.4828626 0.6179962 -0.4828626
1342 0.5968418 -0.4875294 0.4031582 0.4875294 0.4031582 0.4875294 0.5968418 -0.4875294
1404 0.5753178 -0.4913016 0.4246822 0.4913016 0.4246822 0.4913016 0.5753178 -0.4913016
1468 0.5535021 -0.4941432 0.4464979 0.4941432 0.4464979 0.4941432 0.5535021 -0.4941432
1535 0.5314768 -0.4960263 0.4685232 0.4960263 0.4685232 0.4960263 0.5314768 -0.4960263
1606 0.5093276 -0.4969326 0.4906724 0.4969326 0.4906724 0.4969326 0.5093276 -0.4969326
1679 0.4871421 -0.4968532 0.5128579 0.4968532 0.5128579 0.4968532 0.4871421 -0.4968532
1756 0.4650082 -0.4957890 0.5349918 0.4957890 0.5349918 0.4957890 0.4650082 -0.4957890
1836 0.4430133 -0.4937507 0.5569867 0.4937507 0.5569867 0.4937507 0.4430133 -0.4937507
1920 0.4212424 -0.4907587 0.5787576 0.4907587 0.5787576 0.4907587 0.4212424 -0.4907587
2008 0.3997769 -0.4868422 0.6002231 0.4868422 0.6002231 0.4868422 0.3997769 -0.4868422
2100 0.3786935 -0.4820389 0.6213065 0.4820389 0.6213065 0.4820389 0.3786935 -0.4820389
2196 0.3580634 -0.4763939 0.6419366 0.4763939 0.6419366 0.4763939 0.3580634 -0.4763939
2297 0.3379509 -0.4699588 0.6620491 0.4699588 0.6620491 0.4699588 0.3379509 -0.4699588
2402 0.3184131 -0.4627906 0.6815869 0.4627906 0.6815869 0.4627906 0.3184131 -0.4627906
2512 0.2994996 -0.4549505 0.7005004 0.4549505 0.7005004 0.4549505 0.2994996 -0.4549505
2627 0.2812516 -0.4465027 0.7187484 0.4465027 0.7187484 0.4465027 0.2812516 -0.4465027
2748 0.2637028 -0.4375132 0.7362972 0.4375132 0.7362972 0.4375132 0.2637028 -0.4375132
2873 0.2468787 -0.4280490 0.7531213 0.4280490 0.7531213 0.4280490 0.2468787 -0.4280490
3005 0.2307971 -0.4181768 0.7692029 0.4181768 0.7692029 0.4181768 0.2307971 -0.4181768
3143 0.2154689 -0.4079620 0.7845311 0.4079620 0.7845311 0.4079620 0.2154689 -0.4079620
3287 0.2008980 -0.3974682 0.7991020 0.3974682 0.7991020 0.3974682 0.2008980 -0.3974682
3437 0.1870824 -0.3867564 0.8129176 0.3867564 0.8129176 0.3867564 0.1870824 -0.3867564
3594 0.1740145 -0.3758844 0.8259855 0.3758844 0.8259855 0.3758844 0.1740145 -0.3758844
3759 0.1616822 -0.3649065 0.8383178 0.3649065 0.8383178 0.3649065 0.1616822 -0.3649065
3931 0.1500689 -0.3538731 0.8499311 0.3538731 0.8499311 0.3538731 0.1500689 -0.3538731
4111 0.1391547 -0.3428307 0.8608453 0.3428307 0.8608453 0.3428307 0.1391547 -0.3428307
4299 0.1289171 -0.3318213 0.8710829 0.3318213 0.8710829 0.3318213 0.1289171 -0.3318213
4496 0.1193311 -0.3208833 0.8806689 0.3208833 0.8806689 0.3208833 0.1193311 -0.3208833
4702 0.1103700 -0.3100505 0.8896300 0.3100505 0.8896300 0.3100505 0.1103700 -0.3100505
4918 0.1020062 -0.2993532 0.8979938 0.2993532 0.8979938 0.2993532 0.1020062 -0.2993532
5143 0.0942110 -0.2888174 0.9057890 0.2888174 0.9057890 0.2888174 0.0942110 -0.2888174
5378 0.0869557 -0.2784661 0.9130443 0.2784661 0.9130443 0.2784661 0.0869557 -0.2784661
5625 0.0802114 -0.2683184 0.9197886 0.2683184 0.9197886 0.2683184 0.0802114 -0.2683184
5882 0.0739494 -0.2583907 0.9260506 0.2583907 0.9260506 0.2583907 0.0739494 -0.2583907
6151 0.0681415 -0.2486962 0.9318585 0.2486962 0.9318585 0.2486962 0.0681415 -0.2486962
6433 0.0627604 -0.2392457 0.9372396 0.2392457 0.9372396 0.2392457 0.0627604 -0.2392457
6728 0.0577793 -0.2300475 0.9422207 0.2300475 0.9422207 0.2300475 0.0577793 -0.2300475
7036 0.0531726 -0.2211077 0.9468274 0.2211077 0.9468274 0.2211077 0.0531726 -0.2211077
7358 0.0489157 -0.2124306 0.9510843 0.2124306 0.9510843 0.2124306 0.0489157 -0.2124306
7695 0.0449850 -0.2040186 0.9550150 0.2040186 0.9550150 0.2040186 0.0449850 -0.2040186
8047 0.0413581 -0.1958729 0.9586419 0.1958729 0.9586419 0.1958729 0.0413581 -0.1958729
8416 0.0380137 -0.1879931 0.9619863 0.1879931 0.9619863 0.1879931 0.0380137 -0.1879931
8801 0.0349317 -0.1803778 0.9650683 0.1803778 0.9650683 0.1803778 0.0349317 -0.1803778
9204 0.0320931 -0.1730244 0.9679069 0.1730244 0.9679069 0.1730244 0.0320931 -0.1730244
9626 0.0294801 -0.1659296 0.9705199 0.1659296 0.9705199 0.1659296 0.0294801 -0.1659296
10066 0.0270760 -0.1590894 0.9729240 0.1590894 0.9729240 0.1590894 0.0270760 -0.1590894
10527 0.0248650 -0.1524991 0.9751350 0.1524991 0.9751350 0.1524991 0.0248650 -0.1524991
11009 0.0228324 -0.1461535 0.9771676 0.1461535 0.9771676 0.1461535 0.0228324 -0.1461535
11514 0.0209647 -0.1400471 0.9790353 0.1400471 0.9790353 0.1400471 0.0209647 -0.1400471
12041 0.0192489 -0.1341740 0.9807511 0.1341740 0.9807511 0.1341740 0.0192489 -0.1341740
12592 0.0176733 -0.1285279 0.9823267 0.1285279 0.9823267 0.1285279 0.0176733 -0.1285279
13169 0.0162268 -0.1231025 0.9837732 0.1231025 0.9837732 0.1231025 0.0162268 -0.1231025
13772 0.0148992 -0.1178914 0.9851008 0.1178914 0.9851008 0.1178914 0.0148992 -0.1178914
14402 0.0136810 -0.1128879 0.9863190 0.1128879 0.9863190 0.1128879 0.0136810 -0.1128879
15062 0.0125634 -0.1080855 0.9874366 0.1080855 0.9874366 0.1080855 0.0125634 -0.1080855
15752 0.0115382 -0.1034776 0.9884618 0.1034776 0.9884618 0.1034776 0.0115382 -0.1034776
16473 0.0105980 -0.0990575 0.9894020 0.0990575 0.9894020 0.0990575 0.0105980 -0.0990575
17227 0.0097359 -0.0948187 0.9902641 0.0948187 0.9902641 0.0948187 0.0097359 -0.0948187
18016 0.0089453 -0.0907549 0.9910547 0.0907549 0.9910547 0.0907549 0.0089453 -0.0907549
18841 0.0082205 -0.0868596 0.9917795 0.0868596 0.9917795 0.0868596 0.0082205 -0.0868596
19704 0.0075559 -0.0831266 0.9924441 0.0831266 0.9924441 0.0831266 0.0075559 -0.0831266
20606 0.0069467 -0.0795499 0.9930533 0.0795499 0.9930533 0.0795499 0.0069467 -0.0795499
21550 0.0063880 -0.0761235 0.9936120 0.0761235 0.9936120 0.0761235 0.0063880 -0.0761235
22537 0.0058759 -0.0728416 0.9941241 0.0728416 0.9941241 0.0728416 0.0058759 -0.0728416
23569 0.0054062 -0.0696985 0.9945938 0.0696985 0.9945938 0.0696985 0.0054062 -0.0696985
24648 0.0049755 -0.0666887 0.9950245 0.0666887 0.9950245 0.0666887 0.0049755 -0.0666887
25777 0.0045805 -0.0638070 0.9954195 0.0638070 0.9954195 0.0638070 0.0045805 -0.0638070
26957 0.0042181 -0.0610481 0.9957819 0.0610481 0.9957819 0.0610481 0.0042181 -0.0610481
28191 0.0038856 -0.0584071 0.9961144 0.0584071 0.9961144 0.0584071 0.0038856 -0.0584071
29482 0.0035805 -0.0558791 0.9964195 0.0558791 0.9964195 0.0558791 0.0035805 -0.0558791
30832 0.0033005 -0.0534595 0.9966995 0.0534595 0.9966995 0.0534595 0.0033005 -0.0534595
32244 0.0030433 -0.0511438 0.9969567 0.0511438 0.9969567 0.0511438 0.0030433 -0.0511438
33721 0.0028072 -0.0489276 0.9971928 0.0489276 0.9971928 0.0489276 0.0028072 -0.0489276
35265 0.0025902 -0.0468068 0.9974098 0.0468068 0.9974098 0.0468068 0.0025902 -0.0468068
36880 0.0023909 -0.0447772 0.9976091 0.0447772 0.9976091 0.0447772 0.0023909 -0.0447772
38569 0.0022076 -0.0428352 0.9977924 0.0428352 0.9977924 0.0428352 0.0022076 -0.0428352
40335 0.0020391 -0.0409769 0.9979609 0.0409769 0.9979609 0.0409769 0.0020391 -0.0409769
42182 0.0018842 -0.0391988 0.9981158 0.0391988 0.9981158 0.0391988 0.0018842 -0.0391988
44113 0.0017416 -0.0374975 0.9982584 0.0374975 0.9982584 0.0374975 0.0017416 -0.0374975
46134 0.0016104 -0.0358696 0.9983896 0.0358696 0.9983896 0.0358696 0.0016104 -0.0358696
48246 0.0014896 -0.0343120 0.9985104 0.0343120 0.9985104 0.0343120 0.0014896 -0.0343120
50455 0.0013784 -0.0328217 0.9986216 0.0328217 0.9986216 0.0328217 0.0013784 -0.0328217
52766 0.0012759 -0.0313959 0.9987241 0.0313959 0.9987241 0.0313959 0.0012759 -0.0313959
55182 0.0011816 -0.0300316 0.9988184 0.0300316 0.9988184 0.0300316 0.0011816 -0.0300316
57709 0.0010947 -0.0287263 0.9989053 0.0287263 0.9989053 0.0287263 0.0010947 -0.0287263
60352 0.0010147 -0.0274775 0.9989853 0.0274775 0.9989853 0.0274775 0.0010147 -0.0274775
63115 0.0009409 -0.0262827 0.9990591 0.0262827 0.9990591 0.0262827 0.0009409 -0.0262827
66005 0.0008729 -0.0251396 0.9991271 0.0251396 0.9991271 0.0251396 0.0008729 -0.0251396
69028 0.0008103 -0.0240459 0.9991897 0.0240459 0.9991897 0.0240459 0.0008103 -0.0240459
72189 0.0007526 -0.0229996 0.9992474 0.0229996 0.9992474 0.0229996 0.0007526 -0.0229996
75495 0.0006995 -0.0219985 0.9993005 0.0219985 0.9993005 0.0219985 0.0006995 -0.0219985
78952 0.0006505 -0.0210408 0.9993495 0.0210408 0.9993495 0.0210408 0.0006505 -0.0210408
82567 0.0006054 -0.0201246 0.9993946 0.0201246 0.9993946 0.0201246 0.0006054 -0.0201246
86348 0.0005639 -0.0192481 0.9994361 0.0192481 0.9994361 0.0192481 0.0005639 -0.0192481
90302 0.0005256 -0.0184096 0.9994744 0.0184096 0.9994744 0.0184096 0.0005256 -0.0184096
94437 0.0004904 -0.0176075 0.9995096 0.0176075 0.9995096 0.0176075 0.0004904 -0.0176075
98762 0.0004580 -0.0168402 0.9995420 0.0168402 0.9995420 0.0168402 0.0004580 -0.0168402
103284 0.0004281 -0.0161061 0.9995719 0.0161061 0.9995719 0.0161061 0.0004281 -0.0161061
108014 0.0004007 -0.0154040 0.9995993 0.0154040 0.9995993 0.0154040 0.0004007 -0.0154040
112960 0.0003754 -0.0147323 0.9996246 0.0147323 0.9996246 0.0147323 0.0003754 -0.0147323
118133 0.0003521 -0.0140899 0.9996479 0.0140899 0.9996479 0.0140899 0.0003521 -0.0140899
123542 0.0003306 -0.0134754 0.9996694 0.0134754 0.9996694 0.0134754 0.0003306 -0.0134754
129199 0.0003109 -0.0128876 0.9996891 0.0128876 0.9996891 0.0128876 0.0003109 -0.0128876
135116 0.0002927 -0.0123253 0.9997073 0.0123253 0.9997073 0.0123253 0.0002927 -0.0123253
141303 0.0002760 -0.0117876 0.9997240 0.0117876 0.9997240 0.0117876 0.0002760 -0.0117876
147774 0.0002606 -0.0112733 0.9997394 0.0112733 0.9997394 0.0112733 0.0002606 -0.0112733
154540 0.0002464 -0.0107814 0.9997536 0.0107814 0.9997536 0.0107814 0.0002464 -0.0107814
161617 0.0002333 -0.0103109 0.9997667 0.0103109 0.9997667 0.0103109 0.0002333 -0.0103109
169018 0.0002212 -0.0098609 0.9997788 0.0098609 0.9997788 0.0098609 0.0002212 -0.0098609
176758 0.0002100 -0.0094305 0.9997900 0.0094305 0.9997900 0.0094305 0.0002100 -0.0094305
184852 0.0001997 -0.0090189 0.9998003 0.0090189 0.9998003 0.0090189 0.0001997 -0.0090189
193316 0.0001902 -0.0086253 0.9998098 0.0086253 0.9998098 0.0086253 0.0001902 -0.0086253
202169 0.0001813 -0.0082488 0.9998187 0.0082488 0.9998187 0.0082488 0.0001813 -0.0082488
211427 0.0001731 -0.0078887 0.9998269 0.0078887 0.9998269 0.0078887 0.0001731 -0.0078887
221108 0.0001656 -0.0075444 0.9998344 0.0075444 0.9998344 0.0075444 0.0001656 -0.0075444
231233 0.0001585 -0.0072150 0.9998415 0.0072150 0.9998415 0.0072150 0.0001585 -0.0072150
241822 0.0001519 -0.0069000 0.9998481 0.0069000 0.9998481 0.0069000 0.0001519 -0.0069000
252896 0.0001458 -0.0065987 0.9998542 0.0065987 0.9998542 0.0065987 0.0001458 -0.0065987
264476 0.0001401 -0.0063106 0.9998599 0.0063106 0.9998599 0.0063106 0.0001401 -0.0063106
276587 0.0001347 -0.0060350 0.9998653 0.0060350 0.9998653 0.0060350 0.0001347 -0.0060350
289253 0.0001297 -0.0057714 0.9998703 0.0057714 0.9998703 0.0057714 0.0001297 -0.0057714
302498 0.0001250 -0.0055192 0.9998750 0.0055192 0.9998750 0.0055192 0.0001250 -0.0055192
316350 0.0001206 -0.0052780 0.9998794 0.0052780 0.9998794 0.0052780 0.0001206 -0.0052780
330837 0.0001164 -0.0050473 0.9998836 0.0050473 0.9998836 0.0050473 0.0001164 -0.0050473
345986 0.0001125 -0.0048265 0.9998875 0.0048265 0.9998875 0.0048265 0.0001125 -0.0048265
361830 0.0001087 -0.0046154 0.9998913 0.0046154 0.9998913 0.0046154 0.0001087 -0.0046154
378399 0.0001052 -0.0044134 0.9998948 0.0044134 0.9998948 0.0044134 0.0001052 -0.0044134
395726 0.0001019 -0.0042201 0.9998981 0.0042201 0.9998981 0.0042201 0.0001019 -0.0042201
413847 0.0000987 -0.0040351 0.9999013 0.0040351 0.9999013 0.0040351 0.0000987 -0.0040351
432798 0.0000957 -0.0038582 0.9999043 0.0038582 0.9999043 0.0038582 0.0000957 -0.0038582
452617 0.0000929 -0.0036888 0.9999071 0.0036888 0.9999071 0.0036888 0.0000929 -0.0036888
473344 0.0000902 -0.0035268 0.9999098 0.0035268 0.9999098 0.0035268 0.0000902 -0.0035268
495019 0.0000876 -0.0033717 0.9999124 0.0033717 0.9999124 0.0033717 0.0000876 -0.0033717
517687 0.0000852 -0.0032232 0.9999148 0.0032232 0.9999148 0.0032232 0.0000852 -0.0032232
541393 0.0000829 -0.0030811 0.9999171 0.0030811 0.9999171 0.0030811 0.0000829 -0.0030811
566185 0.0000807 -0.0029451 0.9999193 0.0029451 0.9999193 0.0029451 0.0000807 -0.0029451
592111 0.0000786 -0.0028149 0.9999214 0.0028149 0.9999214 0.0028149 0.0000786 -0.0028149
619225 0.0000767 -0.0026902 0.9999233 0.0026902 0.9999233 0.0026902 0.0000767 -0.0026902
647581 0.0000748 -0.0025708 0.9999252 0.0025708 0.9999252 0.0025708 0.0000748 -0.0025708
677235 0.0000731 -0.0024565 0.9999269 0.0024565 0.9999269 0.0024565 0.0000731 -0.0024565
708247 0.0000714 -0.0023470 0.9999286 0.0023470 0.9999286 0.0023470 0.0000714 -0.0023470
740679 0.0000699 -0.0022422 0.9999301 0.0022422 0.9999301 0.0022422 0.0000699 -0.0022422
774597 0.0000684 -0.0021418 0.9999316 0.0021418 0.9999316 0.0021418 0.0000684 -0.0021418
810067 0.0000671 -0.0020456 0.9999329 0.0020456 0.9999329 0.0020456 0.0000671 -0.0020456
847162 0.0000658 -0.0019534 0.9999342 0.0019534 0.9999342 0.0019534 0.0000658 -0.0019534
885955 0.0000646 -0.0018651 0.9999354 0.0018651 0.9999354 0.0018651 0.0000646 -0.0018651
926525 0.0000635 -0.0017805 0.9999365 0.0017805 0.9999365 0.0017805 0.0000635 -0.0017805
968953 0.0000625 -0.0016993 0.9999375 0.0016993 0.9999375 0.0016993 0.0000625 -0.0016993
1013323 0.0000616 -0.0016216 0.9999384 0.0016216 0.9999384 0.0016216 0.0000616 -0.0016216
1059725 0.0000607 -0.0015471 0.9999393 0.0015471 0.9999393 0.0015471 0.0000607 -0.0015471
1108252 0.0000599 -0.0014756 0.9999401 0.0014756 0.9999401 0.0014756 0.0000599 -0.0014756
1159002 0.0000591 -0.0014070 0.9999409 0.0014070 0.9999409 0.0014070 0.0000591 -0.0014070
1212075 0.0000585 -0.0013412 0.9999415 0.0013412 0.9999415 0.0013412 0.0000585 -0.0013412
1267578 0.0000579 -0.0012781 0.9999421 0.0012781 0.9999421 0.0012781 0.0000579 -0.0012781
1325623 0.0000573 -0.0012176 0.9999427 0.0012176 0.9999427 0.0012176 0.0000573 -0.0012176
1386327 0.0000568 -0.0011594 0.9999432 0.0011594 0.9999432 0.0011594 0.0000568 -0.0011594
1449809 0.0000564 -0.0011036 0.9999436 0.0011036 0.9999436 0.0011036 0.0000564 -0.0011036
1516199 0.0000560 -0.0010499 0.9999440 0.0010499 0.9999440 0.0010499 0.0000560 -0.0010499
1585629 0.0000556 -0.0009983 0.9999444 0.0009983 0.9999444 0.0009983 0.0000556 -0.0009983
1658239 0.0000553 -0.0009487 0.9999447 0.0009487 0.9999447 0.0009487 0.0000553 -0.0009487
1734173 0.0000551 -0.0009010 0.9999449 0.0009010 0.9999449 0.0009010 0.0000551 -0.0009010
1813585 0.0000549 -0.0008551 0.9999451 0.0008551 0.9999451 0.0008551 0.0000549 -0.0008551
1896632 0.0000547 -0.0008109 0.9999453 0.0008109 0.9999453 0.0008109 0.0000547 -0.0008109
1983483 0.0000546 -0.0007683 0.9999454 0.0007683 0.9999454 0.0007683 0.0000546 -0.0007683
2074311 0.0000546 -0.0007272 0.9999454 0.0007272 0.9999454 0.0007272 0.0000546 -0.0007272
