!Murata Part Number: GRM21BB11H683KA01
!These Parameters are Measured in Series Mode Connection
!Data Generated on Mar 30, 2021
!       o--ll--o
!Port1            Port2
!       o------o
!Operation Temp=25[degC], DC Bias Voltage=0[V]
!Freq. Start=100[Hz] Stop=6[GHz] 401[Steps]
# Hz S RI R 50
!Freq.(Hz) S11(Real) S11(Imag) S21(Real) S21(Imag) S12(Real) S12(Imag) S22(Real) S22(Imag)
100 0.9999622 -0.0042466 0.0000378 0.0042466 0.0000378 0.0042466 0.9999622 -0.0042466
105 0.9999597 -0.0044405 0.0000403 0.0044405 0.0000403 0.0044405 0.9999597 -0.0044405
109 0.9999569 -0.0046432 0.0000431 0.0046432 0.0000431 0.0046432 0.9999569 -0.0046432
114 0.9999540 -0.0048552 0.0000460 0.0048552 0.0000460 0.0048552 0.9999540 -0.0048552
120 0.9999508 -0.0050769 0.0000492 0.0050769 0.0000492 0.0050769 0.9999508 -0.0050769
125 0.9999474 -0.0053086 0.0000526 0.0053086 0.0000526 0.0053086 0.9999474 -0.0053086
131 0.9999436 -0.0055510 0.0000564 0.0055510 0.0000564 0.0055510 0.9999436 -0.0055510
137 0.9999396 -0.0058044 0.0000604 0.0058044 0.0000604 0.0058044 0.9999396 -0.0058044
143 0.9999352 -0.0060694 0.0000648 0.0060694 0.0000648 0.0060694 0.9999352 -0.0060694
150 0.9999305 -0.0063465 0.0000695 0.0063465 0.0000695 0.0063465 0.9999305 -0.0063465
156 0.9999254 -0.0066363 0.0000746 0.0066363 0.0000746 0.0066363 0.9999254 -0.0066363
164 0.9999199 -0.0069392 0.0000801 0.0069392 0.0000801 0.0069392 0.9999199 -0.0069392
171 0.9999139 -0.0072560 0.0000861 0.0072560 0.0000861 0.0072560 0.9999139 -0.0072560
179 0.9999074 -0.0075872 0.0000926 0.0075872 0.0000926 0.0075872 0.9999074 -0.0075872
187 0.9999004 -0.0079335 0.0000996 0.0079335 0.0000996 0.0079335 0.9999004 -0.0079335
196 0.9998928 -0.0082956 0.0001072 0.0082956 0.0001072 0.0082956 0.9998928 -0.0082956
205 0.9998846 -0.0086743 0.0001154 0.0086743 0.0001154 0.0086743 0.9998846 -0.0086743
214 0.9998757 -0.0090702 0.0001243 0.0090702 0.0001243 0.0090702 0.9998757 -0.0090702
224 0.9998660 -0.0094841 0.0001340 0.0094841 0.0001340 0.0094841 0.9998660 -0.0094841
234 0.9998556 -0.0099170 0.0001444 0.0099170 0.0001444 0.0099170 0.9998556 -0.0099170
245 0.9998443 -0.0103695 0.0001557 0.0103695 0.0001557 0.0103695 0.9998443 -0.0103695
256 0.9998320 -0.0108427 0.0001680 0.0108427 0.0001680 0.0108427 0.9998320 -0.0108427
268 0.9998187 -0.0113375 0.0001813 0.0113375 0.0001813 0.0113375 0.9998187 -0.0113375
280 0.9998043 -0.0118549 0.0001957 0.0118549 0.0001957 0.0118549 0.9998043 -0.0118549
293 0.9997887 -0.0123958 0.0002113 0.0123958 0.0002113 0.0123958 0.9997887 -0.0123958
306 0.9997718 -0.0129614 0.0002282 0.0129614 0.0002282 0.0129614 0.9997718 -0.0129614
320 0.9997534 -0.0135528 0.0002466 0.0135528 0.0002466 0.0135528 0.9997534 -0.0135528
335 0.9997334 -0.0141712 0.0002666 0.0141712 0.0002666 0.0141712 0.9997334 -0.0141712
350 0.9997118 -0.0148178 0.0002882 0.0148178 0.0002882 0.0148178 0.9997118 -0.0148178
366 0.9996882 -0.0154939 0.0003118 0.0154939 0.0003118 0.0154939 0.9996882 -0.0154939
383 0.9996626 -0.0162008 0.0003374 0.0162008 0.0003374 0.0162008 0.9996626 -0.0162008
401 0.9996348 -0.0169400 0.0003652 0.0169400 0.0003652 0.0169400 0.9996348 -0.0169400
419 0.9996045 -0.0177128 0.0003955 0.0177128 0.0003955 0.0177128 0.9996045 -0.0177128
438 0.9995716 -0.0185209 0.0004284 0.0185209 0.0004284 0.0185209 0.9995716 -0.0185209
458 0.9995358 -0.0193658 0.0004642 0.0193658 0.0004642 0.0193658 0.9995358 -0.0193658
479 0.9994968 -0.0202492 0.0005032 0.0202492 0.0005032 0.0202492 0.9994968 -0.0202492
501 0.9994543 -0.0211729 0.0005457 0.0211729 0.0005457 0.0211729 0.9994543 -0.0211729
524 0.9994080 -0.0221387 0.0005920 0.0221387 0.0005920 0.0221387 0.9994080 -0.0221387
548 0.9993576 -0.0231484 0.0006424 0.0231484 0.0006424 0.0231484 0.9993576 -0.0231484
573 0.9993026 -0.0242040 0.0006974 0.0242040 0.0006974 0.0242040 0.9993026 -0.0242040
600 0.9992428 -0.0253077 0.0007572 0.0253077 0.0007572 0.0253077 0.9992428 -0.0253077
627 0.9991775 -0.0264616 0.0008225 0.0264616 0.0008225 0.0264616 0.9991775 -0.0264616
656 0.9991063 -0.0276678 0.0008937 0.0276678 0.0008937 0.0276678 0.9991063 -0.0276678
686 0.9990287 -0.0289289 0.0009713 0.0289289 0.0009713 0.0289289 0.9990287 -0.0289289
717 0.9989441 -0.0302472 0.0010559 0.0302472 0.0010559 0.0302472 0.9989441 -0.0302472
750 0.9988518 -0.0316253 0.0011482 0.0316253 0.0011482 0.0316253 0.9988518 -0.0316253
784 0.9987512 -0.0330658 0.0012488 0.0330658 0.0012488 0.0330658 0.9987512 -0.0330658
820 0.9986415 -0.0345716 0.0013585 0.0345716 0.0013585 0.0345716 0.9986415 -0.0345716
858 0.9985218 -0.0361455 0.0014782 0.0361455 0.0014782 0.0361455 0.9985218 -0.0361455
897 0.9983913 -0.0377905 0.0016087 0.0377905 0.0016087 0.0377905 0.9983913 -0.0377905
938 0.9982491 -0.0395098 0.0017509 0.0395098 0.0017509 0.0395098 0.9982491 -0.0395098
981 0.9980939 -0.0413067 0.0019061 0.0413067 0.0019061 0.0413067 0.9980939 -0.0413067
1026 0.9979248 -0.0431846 0.0020752 0.0431846 0.0020752 0.0431846 0.9979248 -0.0431846
1073 0.9977403 -0.0451471 0.0022597 0.0451471 0.0022597 0.0451471 0.9977403 -0.0451471
1122 0.9975392 -0.0471978 0.0024608 0.0471978 0.0024608 0.0471978 0.9975392 -0.0471978
1174 0.9973199 -0.0493406 0.0026801 0.0493406 0.0026801 0.0493406 0.9973199 -0.0493406
1227 0.9970809 -0.0515795 0.0029191 0.0515795 0.0029191 0.0515795 0.9970809 -0.0515795
1283 0.9968203 -0.0539187 0.0031797 0.0539187 0.0031797 0.0539187 0.9968203 -0.0539187
1342 0.9965361 -0.0563626 0.0034639 0.0563626 0.0034639 0.0563626 0.9965361 -0.0563626
1404 0.9962263 -0.0589155 0.0037737 0.0589155 0.0037737 0.0589155 0.9962263 -0.0589155
1468 0.9958886 -0.0615823 0.0041114 0.0615823 0.0041114 0.0615823 0.9958886 -0.0615823
1535 0.9955204 -0.0643676 0.0044796 0.0643676 0.0044796 0.0643676 0.9955204 -0.0643676
1606 0.9951190 -0.0672767 0.0048810 0.0672767 0.0048810 0.0672767 0.9951190 -0.0672767
1679 0.9946814 -0.0703146 0.0053186 0.0703146 0.0053186 0.0703146 0.9946814 -0.0703146
1756 0.9942043 -0.0734867 0.0057957 0.0734867 0.0057957 0.0734867 0.9942043 -0.0734867
1836 0.9936841 -0.0767986 0.0063159 0.0767986 0.0063159 0.0767986 0.9936841 -0.0767986
1920 0.9931170 -0.0802559 0.0068830 0.0802559 0.0068830 0.0802559 0.9931170 -0.0802559
2008 0.9924986 -0.0838646 0.0075014 0.0838646 0.0075014 0.0838646 0.9924986 -0.0838646
2100 0.9918245 -0.0876307 0.0081755 0.0876307 0.0081755 0.0876307 0.9918245 -0.0876307
2196 0.9910894 -0.0915604 0.0089106 0.0915604 0.0089106 0.0915604 0.9910894 -0.0915604
2297 0.9902881 -0.0956600 0.0097119 0.0956600 0.0097119 0.0956600 0.9902881 -0.0956600
2402 0.9894145 -0.0999360 0.0105855 0.0999360 0.0105855 0.0999360 0.9894145 -0.0999360
2512 0.9884621 -0.1043949 0.0115379 0.1043949 0.0115379 0.1043949 0.9884621 -0.1043949
2627 0.9874239 -0.1090434 0.0125761 0.1090434 0.0125761 0.1090434 0.9874239 -0.1090434
2748 0.9862924 -0.1138882 0.0137076 0.1138882 0.0137076 0.1138882 0.9862924 -0.1138882
2873 0.9850591 -0.1189361 0.0149409 0.1189361 0.0149409 0.1189361 0.9850591 -0.1189361
3005 0.9837153 -0.1241937 0.0162847 0.1241937 0.0162847 0.1241937 0.9837153 -0.1241937
3143 0.9822511 -0.1296679 0.0177489 0.1296679 0.0177489 0.1296679 0.9822511 -0.1296679
3287 0.9806562 -0.1353652 0.0193438 0.1353652 0.0193438 0.1353652 0.9806562 -0.1353652
3437 0.9789193 -0.1412920 0.0210807 0.1412920 0.0210807 0.1412920 0.9789193 -0.1412920
3594 0.9770281 -0.1474547 0.0229719 0.1474547 0.0229719 0.1474547 0.9770281 -0.1474547
3759 0.9749697 -0.1538593 0.0250303 0.1538593 0.0250303 0.1538593 0.9749697 -0.1538593
3931 0.9727299 -0.1605114 0.0272701 0.1605114 0.0272701 0.1605114 0.9727299 -0.1605114
4111 0.9702937 -0.1674162 0.0297063 0.1674162 0.0297063 0.1674162 0.9702937 -0.1674162
4299 0.9676449 -0.1745783 0.0323551 0.1745783 0.0323551 0.1745783 0.9676449 -0.1745783
4496 0.9647664 -0.1820018 0.0352336 0.1820018 0.0352336 0.1820018 0.9647664 -0.1820018
4702 0.9616398 -0.1896899 0.0383602 0.1896899 0.0383602 0.1896899 0.9616398 -0.1896899
4918 0.9582455 -0.1976448 0.0417545 0.1976448 0.0417545 0.1976448 0.9582455 -0.1976448
5143 0.9545629 -0.2058678 0.0454371 0.2058678 0.0454371 0.2058678 0.9545629 -0.2058678
5378 0.9505701 -0.2143590 0.0494299 0.2143590 0.0494299 0.2143590 0.9505701 -0.2143590
5625 0.9462441 -0.2231168 0.0537559 0.2231168 0.0537559 0.2231168 0.9462441 -0.2231168
5882 0.9415609 -0.2321382 0.0584391 0.2321382 0.0584391 0.2321382 0.9415609 -0.2321382
6151 0.9364951 -0.2414183 0.0635049 0.2414183 0.0635049 0.2414183 0.9364951 -0.2414183
6433 0.9310206 -0.2509503 0.0689794 0.2509503 0.0689794 0.2509503 0.9310206 -0.2509503
6728 0.9251102 -0.2607250 0.0748898 0.2607250 0.0748898 0.2607250 0.9251102 -0.2607250
7036 0.9187361 -0.2707307 0.0812639 0.2707307 0.0812639 0.2707307 0.9187361 -0.2707307
7358 0.9118699 -0.2809529 0.0881301 0.2809529 0.0881301 0.2809529 0.9118699 -0.2809529
7695 0.9044826 -0.2913743 0.0955174 0.2913743 0.0955174 0.2913743 0.9044826 -0.2913743
8047 0.8965454 -0.3019743 0.1034546 0.3019743 0.1034546 0.3019743 0.8965454 -0.3019743
8416 0.8880295 -0.3127289 0.1119705 0.3127289 0.1119705 0.3127289 0.8880295 -0.3127289
8801 0.8789067 -0.3236102 0.1210933 0.3236102 0.1210933 0.3236102 0.8789067 -0.3236102
9204 0.8691496 -0.3345868 0.1308504 0.3345868 0.1308504 0.3345868 0.8691496 -0.3345868
9626 0.8587324 -0.3456232 0.1412676 0.3456232 0.1412676 0.3456232 0.8587324 -0.3456232
10066 0.8476312 -0.3566800 0.1523688 0.3566800 0.1523688 0.3566800 0.8476312 -0.3566800
10527 0.8358242 -0.3677134 0.1641758 0.3677134 0.1641758 0.3677134 0.8358242 -0.3677134
11009 0.8232931 -0.3786760 0.1767069 0.3786760 0.1767069 0.3786760 0.8232931 -0.3786760
11514 0.8100231 -0.3895162 0.1899769 0.3895162 0.1899769 0.3895162 0.8100231 -0.3895162
12041 0.7960035 -0.4001788 0.2039965 0.4001788 0.2039965 0.4001788 0.7960035 -0.4001788
12592 0.7812287 -0.4106054 0.2187713 0.4106054 0.2187713 0.4106054 0.7812287 -0.4106054
13169 0.7656989 -0.4207345 0.2343011 0.4207345 0.2343011 0.4207345 0.7656989 -0.4207345
13772 0.7494202 -0.4305024 0.2505798 0.4305024 0.2505798 0.4305024 0.7494202 -0.4305024
14402 0.7324054 -0.4398438 0.2675946 0.4398438 0.2675946 0.4398438 0.7324054 -0.4398438
15062 0.7146749 -0.4486925 0.2853251 0.4486925 0.2853251 0.4486925 0.7146749 -0.4486925
15752 0.6962563 -0.4569823 0.3037437 0.4569823 0.3037437 0.4569823 0.6962563 -0.4569823
16473 0.6771852 -0.4646482 0.3228148 0.4646482 0.3228148 0.4646482 0.6771852 -0.4646482
17227 0.6575049 -0.4716275 0.3424951 0.4716275 0.3424951 0.4716275 0.6575049 -0.4716275
18016 0.6372666 -0.4778606 0.3627334 0.4778606 0.3627334 0.4778606 0.6372666 -0.4778606
18841 0.6165290 -0.4832923 0.3834710 0.4832923 0.3834710 0.4832923 0.6165290 -0.4832923
19704 0.5953578 -0.4878732 0.4046422 0.4878732 0.4046422 0.4878732 0.5953578 -0.4878732
20606 0.5738248 -0.4915603 0.4261752 0.4915603 0.4261752 0.4915603 0.5738248 -0.4915603
21550 0.5520075 -0.4943184 0.4479925 0.4943184 0.4479925 0.4943184 0.5520075 -0.4943184
22537 0.5299877 -0.4961205 0.4700123 0.4961205 0.4700123 0.4961205 0.5299877 -0.4961205
23569 0.5078502 -0.4969488 0.4921498 0.4969488 0.4921498 0.4969488 0.5078502 -0.4969488
24648 0.4856820 -0.4967948 0.5143180 0.4967948 0.5143180 0.4967948 0.4856820 -0.4967948
25777 0.4635705 -0.4956597 0.5364295 0.4956597 0.5364295 0.4956597 0.4635705 -0.4956597
26957 0.4416023 -0.4935546 0.5583977 0.4935546 0.5583977 0.4935546 0.4416023 -0.4935546
28191 0.4198617 -0.4904999 0.5801383 0.4904999 0.5801383 0.4904999 0.4198617 -0.4904999
29482 0.3984297 -0.4865247 0.6015703 0.4865247 0.6015703 0.4865247 0.3984297 -0.4865247
30832 0.3773824 -0.4816667 0.6226176 0.4816667 0.6226176 0.4816667 0.3773824 -0.4816667
32244 0.3567906 -0.4759709 0.6432094 0.4759709 0.6432094 0.4759709 0.3567906 -0.4759709
33721 0.3367182 -0.4694888 0.6632818 0.4694888 0.6632818 0.4694888 0.3367182 -0.4694888
35265 0.3172220 -0.4622771 0.6827780 0.4622771 0.6827780 0.4622771 0.3172220 -0.4622771
36880 0.2983514 -0.4543969 0.7016486 0.4543969 0.7016486 0.4543969 0.2983514 -0.4543969
38569 0.2801474 -0.4459122 0.7198526 0.4459122 0.7198526 0.4459122 0.2801474 -0.4459122
40335 0.2626436 -0.4368890 0.7373564 0.4368890 0.7373564 0.4368890 0.2626436 -0.4368890
42182 0.2458652 -0.4273940 0.7541348 0.4273940 0.7541348 0.4273940 0.2458652 -0.4273940
44113 0.2298302 -0.4174939 0.7701698 0.4174939 0.7701698 0.4174939 0.2298302 -0.4174939
46134 0.2145491 -0.4072541 0.7854509 0.4072541 0.7854509 0.4072541 0.2145491 -0.4072541
48246 0.2000260 -0.3967381 0.7999740 0.3967381 0.7999740 0.3967381 0.2000260 -0.3967381
50455 0.1862586 -0.3860069 0.8137414 0.3860069 0.8137414 0.3860069 0.1862586 -0.3860069
52766 0.1732394 -0.3751185 0.8267606 0.3751185 0.8267606 0.3751185 0.1732394 -0.3751185
55182 0.1609558 -0.3641269 0.8390442 0.3641269 0.8390442 0.3641269 0.1609558 -0.3641269
57709 0.1493913 -0.3530828 0.8506087 0.3530828 0.8506087 0.3530828 0.1493913 -0.3530828
60352 0.1385260 -0.3420324 0.8614740 0.3420324 0.8614740 0.3420324 0.1385260 -0.3420324
63115 0.1283368 -0.3310180 0.8716632 0.3310180 0.8716632 0.3310180 0.1283368 -0.3310180
66005 0.1187987 -0.3200777 0.8812013 0.3200777 0.8812013 0.3200777 0.1187987 -0.3200777
69028 0.1098849 -0.3092454 0.8901151 0.3092454 0.8901151 0.3092454 0.1098849 -0.3092454
72189 0.1015674 -0.2985512 0.8984326 0.2985512 0.8984326 0.2985512 0.1015674 -0.2985512
75495 0.0938174 -0.2880212 0.9061826 0.2880212 0.9061826 0.2880212 0.0938174 -0.2880212
78952 0.0866060 -0.2776780 0.9133940 0.2776780 0.9133940 0.2776780 0.0866060 -0.2776780
82567 0.0799040 -0.2675408 0.9200960 0.2675408 0.9200960 0.2675408 0.0799040 -0.2675408
86348 0.0736827 -0.2576255 0.9263173 0.2576255 0.9263173 0.2576255 0.0736827 -0.2576255
90302 0.0679138 -0.2479454 0.9320862 0.2479454 0.9320862 0.2479454 0.0679138 -0.2479454
94437 0.0625697 -0.2385110 0.9374303 0.2385110 0.9374303 0.2385110 0.0625697 -0.2385110
98762 0.0576237 -0.2293303 0.9423763 0.2293303 0.9423763 0.2293303 0.0576237 -0.2293303
103284 0.0530501 -0.2204092 0.9469499 0.2204092 0.9469499 0.2204092 0.0530501 -0.2204092
108014 0.0488241 -0.2117519 0.9511759 0.2117519 0.9511759 0.2117519 0.0488241 -0.2117519
112960 0.0449223 -0.2033606 0.9550777 0.2033606 0.9550777 0.2033606 0.0449223 -0.2033606
118133 0.0413223 -0.1952361 0.9586777 0.1952361 0.9586777 0.1952361 0.0413223 -0.1952361
123542 0.0380028 -0.1873780 0.9619972 0.1873780 0.9619972 0.1873780 0.0380028 -0.1873780
129199 0.0349437 -0.1797846 0.9650563 0.1797846 0.9650563 0.1797846 0.0349437 -0.1797846
135116 0.0321262 -0.1724532 0.9678738 0.1724532 0.9678738 0.1724532 0.0321262 -0.1724532
141303 0.0295325 -0.1653804 0.9704675 0.1653804 0.9704675 0.1653804 0.0295325 -0.1653804
147774 0.0271459 -0.1585621 0.9728541 0.1585621 0.9728541 0.1585621 0.0271459 -0.1585621
154540 0.0249508 -0.1519934 0.9750492 0.1519934 0.9750492 0.1519934 0.0249508 -0.1519934
161617 0.0229328 -0.1456690 0.9770672 0.1456690 0.9770672 0.1456690 0.0229328 -0.1456690
169018 0.0210780 -0.1395834 0.9789220 0.1395834 0.9789220 0.1395834 0.0210780 -0.1395834
176758 0.0193740 -0.1337305 0.9806260 0.1337305 0.9806260 0.1337305 0.0193740 -0.1337305
184852 0.0178089 -0.1281042 0.9821911 0.1281042 0.9821911 0.1281042 0.0178089 -0.1281042
193316 0.0163718 -0.1226980 0.9836282 0.1226980 0.9836282 0.1226980 0.0163718 -0.1226980
202169 0.0150526 -0.1175054 0.9849474 0.1175054 0.9849474 0.1175054 0.0150526 -0.1175054
211427 0.0138418 -0.1125199 0.9861582 0.1125199 0.9861582 0.1125199 0.0138418 -0.1125199
221108 0.0127307 -0.1077347 0.9872693 0.1077347 0.9872693 0.1077347 0.0127307 -0.1077347
231233 0.0117113 -0.1031434 0.9882887 0.1031434 0.9882887 0.1031434 0.0117113 -0.1031434
241822 0.0107761 -0.0987392 0.9892239 0.0987392 0.9892239 0.0987392 0.0107761 -0.0987392
252896 0.0099182 -0.0945158 0.9900818 0.0945158 0.9900818 0.0945158 0.0099182 -0.0945158
264476 0.0091314 -0.0904665 0.9908686 0.0904665 0.9908686 0.0904665 0.0091314 -0.0904665
276587 0.0084098 -0.0865852 0.9915902 0.0865852 0.9915902 0.0865852 0.0084098 -0.0865852
289253 0.0077479 -0.0828656 0.9922521 0.0828656 0.9922521 0.0828656 0.0077479 -0.0828656
302498 0.0071408 -0.0793016 0.9928592 0.0793016 0.9928592 0.0793016 0.0071408 -0.0793016
316350 0.0065840 -0.0758872 0.9934160 0.0758872 0.9934160 0.0758872 0.0065840 -0.0758872
330837 0.0060732 -0.0726167 0.9939268 0.0726167 0.9939268 0.0726167 0.0060732 -0.0726167
345986 0.0056047 -0.0694844 0.9943953 0.0694844 0.9943953 0.0694844 0.0056047 -0.0694844
361830 0.0051748 -0.0664849 0.9948252 0.0664849 0.9948252 0.0664849 0.0051748 -0.0664849
378399 0.0047803 -0.0636128 0.9952197 0.0636128 0.9952197 0.0636128 0.0047803 -0.0636128
395726 0.0044183 -0.0608630 0.9955817 0.0608630 0.9955817 0.0608630 0.0044183 -0.0608630
413847 0.0040859 -0.0582306 0.9959141 0.0582306 0.9959141 0.0582306 0.0040859 -0.0582306
432798 0.0037808 -0.0557106 0.9962192 0.0557106 0.9962192 0.0557106 0.0037808 -0.0557106
452617 0.0035006 -0.0532985 0.9964994 0.0532985 0.9964994 0.0532985 0.0035006 -0.0532985
473344 0.0032432 -0.0509897 0.9967568 0.0509897 0.9967568 0.0509897 0.0032432 -0.0509897
495019 0.0030067 -0.0487800 0.9969933 0.0487800 0.9969933 0.0487800 0.0030067 -0.0487800
517687 0.0027894 -0.0466652 0.9972106 0.0466652 0.9972106 0.0466652 0.0027894 -0.0466652
541393 0.0025896 -0.0446413 0.9974104 0.0446413 0.9974104 0.0446413 0.0025896 -0.0446413
566185 0.0024059 -0.0427045 0.9975941 0.0427045 0.9975941 0.0427045 0.0024059 -0.0427045
592111 0.0022369 -0.0408510 0.9977631 0.0408510 0.9977631 0.0408510 0.0022369 -0.0408510
619225 0.0020815 -0.0390773 0.9979185 0.0390773 0.9979185 0.0390773 0.0020815 -0.0390773
647581 0.0019385 -0.0373800 0.9980615 0.0373800 0.9980615 0.0373800 0.0019385 -0.0373800
677235 0.0018070 -0.0357559 0.9981930 0.0357559 0.9981930 0.0357559 0.0018070 -0.0357559
708247 0.0016859 -0.0342018 0.9983141 0.0342018 0.9983141 0.0342018 0.0016859 -0.0342018
740679 0.0015744 -0.0327147 0.9984256 0.0327147 0.9984256 0.0327147 0.0015744 -0.0327147
774597 0.0014717 -0.0312918 0.9985283 0.0312918 0.9985283 0.0312918 0.0014717 -0.0312918
810067 0.0013772 -0.0299302 0.9986228 0.0299302 0.9986228 0.0299302 0.0013772 -0.0299302
847162 0.0012902 -0.0286274 0.9987098 0.0286274 0.9987098 0.0286274 0.0012902 -0.0286274
885955 0.0012101 -0.0273809 0.9987899 0.0273809 0.9987899 0.0273809 0.0012101 -0.0273809
926525 0.0011363 -0.0261882 0.9988637 0.0261882 0.9988637 0.0261882 0.0011363 -0.0261882
968953 0.0010683 -0.0250470 0.9989317 0.0250470 0.9989317 0.0250470 0.0010683 -0.0250470
1013323 0.0010057 -0.0239551 0.9989943 0.0239551 0.9989943 0.0239551 0.0010057 -0.0239551
1059725 0.0009480 -0.0229104 0.9990520 0.0229104 0.9990520 0.0229104 0.0009480 -0.0229104
1108252 0.0008948 -0.0219108 0.9991052 0.0219108 0.9991052 0.0219108 0.0008948 -0.0219108
1159002 0.0008459 -0.0209544 0.9991541 0.0209544 0.9991541 0.0209544 0.0008459 -0.0209544
1212075 0.0008008 -0.0200394 0.9991992 0.0200394 0.9991992 0.0200394 0.0008008 -0.0200394
1267578 0.0007592 -0.0191640 0.9992408 0.0191640 0.9992408 0.0191640 0.0007592 -0.0191640
1325623 0.0007208 -0.0183264 0.9992792 0.0183264 0.9992792 0.0183264 0.0007208 -0.0183264
1386327 0.0006855 -0.0175250 0.9993145 0.0175250 0.9993145 0.0175250 0.0006855 -0.0175250
1449809 0.0006529 -0.0167583 0.9993471 0.0167583 0.9993471 0.0167583 0.0006529 -0.0167583
1516199 0.0006228 -0.0160248 0.9993772 0.0160248 0.9993772 0.0160248 0.0006228 -0.0160248
1585629 0.0005950 -0.0153229 0.9994050 0.0153229 0.9994050 0.0153229 0.0005950 -0.0153229
1658239 0.0005693 -0.0146514 0.9994307 0.0146514 0.9994307 0.0146514 0.0005693 -0.0146514
1734173 0.0005455 -0.0140089 0.9994545 0.0140089 0.9994545 0.0140089 0.0005455 -0.0140089
1813585 0.0005235 -0.0133942 0.9994765 0.0133942 0.9994765 0.0133942 0.0005235 -0.0133942
1896632 0.0005032 -0.0128060 0.9994968 0.0128060 0.9994968 0.0128060 0.0005032 -0.0128060
1983483 0.0004843 -0.0122432 0.9995157 0.0122432 0.9995157 0.0122432 0.0004843 -0.0122432
2074311 0.0004667 -0.0117046 0.9995333 0.0117046 0.9995333 0.0117046 0.0004667 -0.0117046
