!Murata Part Number: GRM21BR71A106ME51
!These Parameters are Measured in Series Mode Connection
!Data Generated on Mar 30, 2021
!       o--ll--o
!Port1            Port2
!       o------o
!Operation Temp=25[degC], DC Bias Voltage=0[V]
!Freq. Start=100[Hz] Stop=6[GHz] 401[Steps]
# Hz S RI R 50
!Freq.(Hz) S11(Real) S11(Imag) S21(Real) S21(Imag) S12(Real) S12(Imag) S22(Real) S22(Imag)
100 0.8420211 -0.3545323 0.1579789 0.3545323 0.1579789 0.3545323 0.8420211 -0.3545323
105 0.8302153 -0.3652552 0.1697847 0.3652552 0.1697847 0.3652552 0.8302153 -0.3652552
109 0.8177032 -0.3758922 0.1822968 0.3758922 0.1822968 0.3758922 0.8177032 -0.3758922
114 0.8044725 -0.3863918 0.1955275 0.3863918 0.1955275 0.3863918 0.8044725 -0.3863918
120 0.7905155 -0.3966997 0.2094845 0.3966997 0.2094845 0.3966997 0.7905155 -0.3966997
125 0.7758298 -0.4067582 0.2241702 0.4067582 0.2241702 0.4067582 0.7758298 -0.4067582
131 0.7604185 -0.4165077 0.2395815 0.4165077 0.2395815 0.4165077 0.7604185 -0.4165077
137 0.7442911 -0.4258866 0.2557089 0.4258866 0.2557089 0.4258866 0.7442911 -0.4258866
143 0.7274635 -0.4348324 0.2725365 0.4348324 0.2725365 0.4348324 0.7274635 -0.4348324
150 0.7099589 -0.4432826 0.2900411 0.4432826 0.2900411 0.4432826 0.7099589 -0.4432826
156 0.6918075 -0.4511753 0.3081925 0.4511753 0.3081925 0.4511753 0.6918075 -0.4511753
164 0.6730470 -0.4584504 0.3269530 0.4584504 0.3269530 0.4584504 0.6730470 -0.4584504
171 0.6537220 -0.4650508 0.3462780 0.4650508 0.3462780 0.4650508 0.6537220 -0.4650508
179 0.6338843 -0.4709229 0.3661157 0.4709229 0.3661157 0.4709229 0.6338843 -0.4709229
187 0.6135921 -0.4760182 0.3864079 0.4760182 0.3864079 0.4760182 0.6135921 -0.4760182
196 0.5929095 -0.4802938 0.4070905 0.4802938 0.4070905 0.4802938 0.5929095 -0.4802938
205 0.5719057 -0.4837134 0.4280943 0.4837134 0.4280943 0.4837134 0.5719057 -0.4837134
214 0.5506542 -0.4862483 0.4493458 0.4862483 0.4493458 0.4862483 0.5506542 -0.4862483
224 0.5292318 -0.4878773 0.4707682 0.4878773 0.4707682 0.4878773 0.5292318 -0.4878773
234 0.5077171 -0.4885880 0.4922829 0.4885880 0.4922829 0.4885880 0.5077171 -0.4885880
245 0.4861900 -0.4883760 0.5138100 0.4883760 0.5138100 0.4883760 0.4861900 -0.4883760
256 0.4647297 -0.4872459 0.5352703 0.4872459 0.5352703 0.4872459 0.4647297 -0.4872459
268 0.4434145 -0.4852103 0.5565855 0.4852103 0.5565855 0.4852103 0.4434145 -0.4852103
280 0.4223198 -0.4822900 0.5776802 0.4822900 0.5776802 0.4822900 0.4223198 -0.4822900
293 0.4015178 -0.4785131 0.5984822 0.4785131 0.5984822 0.4785131 0.4015178 -0.4785131
306 0.3810760 -0.4739148 0.6189240 0.4739148 0.6189240 0.4739148 0.3810760 -0.4739148
320 0.3610571 -0.4685360 0.6389429 0.4685360 0.6389429 0.4685360 0.3610571 -0.4685360
335 0.3415177 -0.4624230 0.6584823 0.4624230 0.6584823 0.4624230 0.3415177 -0.4624230
350 0.3225087 -0.4556265 0.6774913 0.4556265 0.6774913 0.4556265 0.3225087 -0.4556265
366 0.3040740 -0.4482004 0.6959260 0.4482004 0.6959260 0.4482004 0.3040740 -0.4482004
383 0.2862512 -0.4402010 0.7137488 0.4402010 0.7137488 0.4402010 0.2862512 -0.4402010
401 0.2690711 -0.4316865 0.7309289 0.4316865 0.7309289 0.4316865 0.2690711 -0.4316865
419 0.2525582 -0.4227155 0.7474418 0.4227155 0.7474418 0.4227155 0.2525582 -0.4227155
438 0.2367303 -0.4133469 0.7632697 0.4133469 0.7632697 0.4133469 0.2367303 -0.4133469
458 0.2215996 -0.4036386 0.7784004 0.4036386 0.7784004 0.4036386 0.2215996 -0.4036386
479 0.2071722 -0.3936474 0.7928278 0.3936474 0.7928278 0.3936474 0.2071722 -0.3936474
501 0.1934494 -0.3834281 0.8065506 0.3834281 0.8065506 0.3834281 0.1934494 -0.3834281
524 0.1804274 -0.3730332 0.8195726 0.3730332 0.8195726 0.3730332 0.1804274 -0.3730332
548 0.1680983 -0.3625125 0.8319017 0.3625125 0.8319017 0.3625125 0.1680983 -0.3625125
573 0.1564503 -0.3519130 0.8435497 0.3519130 0.8435497 0.3519130 0.1564503 -0.3519130
600 0.1454684 -0.3412784 0.8545316 0.3412784 0.8545316 0.3412784 0.1454684 -0.3412784
627 0.1351347 -0.3306491 0.8648653 0.3306491 0.8648653 0.3306491 0.1351347 -0.3306491
656 0.1254290 -0.3200622 0.8745710 0.3200622 0.8745710 0.3200622 0.1254290 -0.3200622
686 0.1163292 -0.3095514 0.8836708 0.3095514 0.8836708 0.3095514 0.1163292 -0.3095514
717 0.1078116 -0.2991469 0.8921884 0.2991469 0.8921884 0.2991469 0.1078116 -0.2991469
750 0.0998515 -0.2888757 0.9001485 0.2888757 0.9001485 0.2888757 0.0998515 -0.2888757
784 0.0924235 -0.2787616 0.9075765 0.2787616 0.9075765 0.2787616 0.0924235 -0.2787616
820 0.0855017 -0.2688255 0.9144983 0.2688255 0.9144983 0.2688255 0.0855017 -0.2688255
858 0.0790599 -0.2590850 0.9209401 0.2590850 0.9209401 0.2590850 0.0790599 -0.2590850
897 0.0730721 -0.2495553 0.9269279 0.2495553 0.9269279 0.2495553 0.0730721 -0.2495553
938 0.0675128 -0.2402491 0.9324872 0.2402491 0.9324872 0.2402491 0.0675128 -0.2402491
981 0.0623567 -0.2311763 0.9376433 0.2311763 0.9376433 0.2311763 0.0623567 -0.2311763
1026 0.0575792 -0.2223450 0.9424208 0.2223450 0.9424208 0.2223450 0.0575792 -0.2223450
1073 0.0531565 -0.2137613 0.9468435 0.2137613 0.9468435 0.2137613 0.0531565 -0.2137613
1122 0.0490656 -0.2054293 0.9509344 0.2054293 0.9509344 0.2054293 0.0490656 -0.2054293
1174 0.0452844 -0.1973516 0.9547156 0.1973516 0.9547156 0.1973516 0.0452844 -0.1973516
1227 0.0417919 -0.1895294 0.9582081 0.1895294 0.9582081 0.1895294 0.0417919 -0.1895294
1283 0.0385680 -0.1819625 0.9614320 0.1819625 0.9614320 0.1819625 0.0385680 -0.1819625
1342 0.0355935 -0.1746497 0.9644065 0.1746497 0.9644065 0.1746497 0.0355935 -0.1746497
1404 0.0328505 -0.1675886 0.9671495 0.1675886 0.9671495 0.1675886 0.0328505 -0.1675886
1468 0.0303219 -0.1607762 0.9696781 0.1607762 0.9696781 0.1607762 0.0303219 -0.1607762
1535 0.0279917 -0.1542086 0.9720083 0.1542086 0.9720083 0.1542086 0.0279917 -0.1542086
1606 0.0258450 -0.1478814 0.9741550 0.1478814 0.9741550 0.1478814 0.0258450 -0.1478814
1679 0.0238676 -0.1417896 0.9761324 0.1417896 0.9761324 0.1417896 0.0238676 -0.1417896
1756 0.0220465 -0.1359278 0.9779535 0.1359278 0.9779535 0.1359278 0.0220465 -0.1359278
1836 0.0203693 -0.1302902 0.9796307 0.1302902 0.9796307 0.1302902 0.0203693 -0.1302902
1920 0.0188247 -0.1248707 0.9811753 0.1248707 0.9811753 0.1248707 0.0188247 -0.1248707
2008 0.0174022 -0.1196633 0.9825978 0.1196633 0.9825978 0.1196633 0.0174022 -0.1196633
2100 0.0160918 -0.1146615 0.9839082 0.1146615 0.9839082 0.1146615 0.0160918 -0.1146615
2196 0.0148846 -0.1098588 0.9851154 0.1098588 0.9851154 0.1098588 0.0148846 -0.1098588
2297 0.0137722 -0.1052488 0.9862278 0.1052488 0.9862278 0.1052488 0.0137722 -0.1052488
2402 0.0127467 -0.1008248 0.9872533 0.1008248 0.9872533 0.1008248 0.0127467 -0.1008248
2512 0.0118012 -0.0965805 0.9881988 0.0965805 0.9881988 0.0965805 0.0118012 -0.0965805
2627 0.0109290 -0.0925093 0.9890710 0.0925093 0.9890710 0.0925093 0.0109290 -0.0925093
2748 0.0101241 -0.0886050 0.9898759 0.0886050 0.9898759 0.0886050 0.0101241 -0.0886050
2873 0.0093811 -0.0848612 0.9906189 0.0848612 0.9906189 0.0848612 0.0093811 -0.0848612
3005 0.0086948 -0.0812719 0.9913052 0.0812719 0.9913052 0.0812719 0.0086948 -0.0812719
3143 0.0080607 -0.0778311 0.9919393 0.0778311 0.9919393 0.0778311 0.0080607 -0.0778311
3287 0.0074745 -0.0745328 0.9925255 0.0745328 0.9925255 0.0745328 0.0074745 -0.0745328
3437 0.0069323 -0.0713715 0.9930677 0.0713715 0.9930677 0.0713715 0.0069323 -0.0713715
3594 0.0064308 -0.0683417 0.9935692 0.0683417 0.9935692 0.0683417 0.0064308 -0.0683417
3759 0.0059666 -0.0654381 0.9940334 0.0654381 0.9940334 0.0654381 0.0059666 -0.0654381
3931 0.0055368 -0.0626555 0.9944632 0.0626555 0.9944632 0.0626555 0.0055368 -0.0626555
4111 0.0051388 -0.0599890 0.9948612 0.0599890 0.9948612 0.0599890 0.0051388 -0.0599890
4299 0.0047702 -0.0574339 0.9952298 0.0574339 0.9952298 0.0574339 0.0047702 -0.0574339
4496 0.0044287 -0.0549856 0.9955713 0.0549856 0.9955713 0.0549856 0.0044287 -0.0549856
4702 0.0041123 -0.0526396 0.9958877 0.0526396 0.9958877 0.0526396 0.0041123 -0.0526396
4918 0.0038192 -0.0503918 0.9961808 0.0503918 0.9961808 0.0503918 0.0038192 -0.0503918
5143 0.0035476 -0.0482382 0.9964524 0.0482382 0.9964524 0.0482382 0.0035476 -0.0482382
5378 0.0032961 -0.0461749 0.9967039 0.0461749 0.9967039 0.0461749 0.0032961 -0.0461749
5625 0.0030630 -0.0441982 0.9969370 0.0441982 0.9969370 0.0441982 0.0030630 -0.0441982
5882 0.0028472 -0.0423045 0.9971528 0.0423045 0.9971528 0.0423045 0.0028472 -0.0423045
6151 0.0026474 -0.0404904 0.9973526 0.0404904 0.9973526 0.0404904 0.0026474 -0.0404904
6433 0.0024625 -0.0387528 0.9975375 0.0387528 0.9975375 0.0387528 0.0024625 -0.0387528
6728 0.0022914 -0.0370884 0.9977086 0.0370884 0.9977086 0.0370884 0.0022914 -0.0370884
7036 0.0021331 -0.0354944 0.9978669 0.0354944 0.9978669 0.0354944 0.0021331 -0.0354944
7358 0.0019867 -0.0339677 0.9980133 0.0339677 0.9980133 0.0339677 0.0019867 -0.0339677
7695 0.0018514 -0.0325058 0.9981486 0.0325058 0.9981486 0.0325058 0.0018514 -0.0325058
8047 0.0017263 -0.0311058 0.9982737 0.0311058 0.9982737 0.0311058 0.0017263 -0.0311058
8416 0.0016107 -0.0297654 0.9983893 0.0297654 0.9983893 0.0297654 0.0016107 -0.0297654
8801 0.0015040 -0.0284821 0.9984960 0.0284821 0.9984960 0.0284821 0.0015040 -0.0284821
9204 0.0014055 -0.0272535 0.9985945 0.0272535 0.9985945 0.0272535 0.0014055 -0.0272535
9626 0.0013145 -0.0260774 0.9986855 0.0260774 0.9986855 0.0260774 0.0013145 -0.0260774
10066 0.0012305 -0.0249516 0.9987695 0.0249516 0.9987695 0.0249516 0.0012305 -0.0249516
10527 0.0011529 -0.0238741 0.9988471 0.0238741 0.9988471 0.0238741 0.0011529 -0.0238741
11009 0.0010813 -0.0228429 0.9989187 0.0228429 0.9989187 0.0228429 0.0010813 -0.0228429
11514 0.0010153 -0.0218560 0.9989847 0.0218560 0.9989847 0.0218560 0.0010153 -0.0218560
12041 0.0009543 -0.0209116 0.9990457 0.0209116 0.9990457 0.0209116 0.0009543 -0.0209116
12592 0.0008979 -0.0200080 0.9991021 0.0200080 0.9991021 0.0200080 0.0008979 -0.0200080
13169 0.0008458 -0.0191434 0.9991542 0.0191434 0.9991542 0.0191434 0.0008458 -0.0191434
13772 0.0007977 -0.0183162 0.9992023 0.0183162 0.9992023 0.0183162 0.0007977 -0.0183162
14402 0.0007531 -0.0175249 0.9992469 0.0175249 0.9992469 0.0175249 0.0007531 -0.0175249
15062 0.0007119 -0.0167678 0.9992881 0.0167678 0.9992881 0.0167678 0.0007119 -0.0167678
15752 0.0006737 -0.0160436 0.9993263 0.0160436 0.9993263 0.0160436 0.0006737 -0.0160436
16473 0.0006382 -0.0153509 0.9993618 0.0153509 0.9993618 0.0153509 0.0006382 -0.0153509
17227 0.0006053 -0.0146883 0.9993947 0.0146883 0.9993947 0.0146883 0.0006053 -0.0146883
18016 0.0005746 -0.0140545 0.9994254 0.0140545 0.9994254 0.0140545 0.0005746 -0.0140545
18841 0.0005461 -0.0134483 0.9994539 0.0134483 0.9994539 0.0134483 0.0005461 -0.0134483
19704 0.0005194 -0.0128685 0.9994806 0.0128685 0.9994806 0.0128685 0.0005194 -0.0128685
20606 0.0004945 -0.0123139 0.9995055 0.0123139 0.9995055 0.0123139 0.0004945 -0.0123139
21550 0.0004711 -0.0117835 0.9995289 0.0117835 0.9995289 0.0117835 0.0004711 -0.0117835
22537 0.0004492 -0.0112762 0.9995508 0.0112762 0.9995508 0.0112762 0.0004492 -0.0112762
23569 0.0004285 -0.0107909 0.9995715 0.0107909 0.9995715 0.0107909 0.0004285 -0.0107909
24648 0.0004090 -0.0103268 0.9995910 0.0103268 0.9995910 0.0103268 0.0004090 -0.0103268
25777 0.0003906 -0.0098829 0.9996094 0.0098829 0.9996094 0.0098829 0.0003906 -0.0098829
26957 0.0003732 -0.0094582 0.9996268 0.0094582 0.9996268 0.0094582 0.0003732 -0.0094582
28191 0.0003567 -0.0090519 0.9996433 0.0090519 0.9996433 0.0090519 0.0003567 -0.0090519
29482 0.0003409 -0.0086633 0.9996591 0.0086633 0.9996591 0.0086633 0.0003409 -0.0086633
30832 0.0003259 -0.0082915 0.9996741 0.0082915 0.9996741 0.0082915 0.0003259 -0.0082915
32244 0.0003116 -0.0079357 0.9996884 0.0079357 0.9996884 0.0079357 0.0003116 -0.0079357
33721 0.0002980 -0.0075953 0.9997020 0.0075953 0.9997020 0.0075953 0.0002980 -0.0075953
35265 0.0002849 -0.0072696 0.9997151 0.0072696 0.9997151 0.0072696 0.0002849 -0.0072696
36880 0.0002724 -0.0069579 0.9997276 0.0069579 0.9997276 0.0069579 0.0002724 -0.0069579
38569 0.0002604 -0.0066595 0.9997396 0.0066595 0.9997396 0.0066595 0.0002604 -0.0066595
40335 0.0002489 -0.0063740 0.9997511 0.0063740 0.9997511 0.0063740 0.0002489 -0.0063740
42182 0.0002380 -0.0061007 0.9997620 0.0061007 0.9997620 0.0061007 0.0002380 -0.0061007
44113 0.0002274 -0.0058390 0.9997726 0.0058390 0.9997726 0.0058390 0.0002274 -0.0058390
46134 0.0002174 -0.0055886 0.9997826 0.0055886 0.9997826 0.0055886 0.0002174 -0.0055886
48246 0.0002077 -0.0053488 0.9997923 0.0053488 0.9997923 0.0053488 0.0002077 -0.0053488
50455 0.0001985 -0.0051192 0.9998015 0.0051192 0.9998015 0.0051192 0.0001985 -0.0051192
52766 0.0001898 -0.0048993 0.9998102 0.0048993 0.9998102 0.0048993 0.0001898 -0.0048993
55182 0.0001814 -0.0046889 0.9998186 0.0046889 0.9998186 0.0046889 0.0001814 -0.0046889
57709 0.0001734 -0.0044873 0.9998266 0.0044873 0.9998266 0.0044873 0.0001734 -0.0044873
60352 0.0001658 -0.0042943 0.9998342 0.0042943 0.9998342 0.0042943 0.0001658 -0.0042943
63115 0.0001586 -0.0041096 0.9998414 0.0041096 0.9998414 0.0041096 0.0001586 -0.0041096
66005 0.0001518 -0.0039326 0.9998482 0.0039326 0.9998482 0.0039326 0.0001518 -0.0039326
69028 0.0001454 -0.0037632 0.9998546 0.0037632 0.9998546 0.0037632 0.0001454 -0.0037632
72189 0.0001392 -0.0036010 0.9998608 0.0036010 0.9998608 0.0036010 0.0001392 -0.0036010
75495 0.0001335 -0.0034456 0.9998665 0.0034456 0.9998665 0.0034456 0.0001335 -0.0034456
78952 0.0001281 -0.0032969 0.9998719 0.0032969 0.9998719 0.0032969 0.0001281 -0.0032969
82567 0.0001229 -0.0031545 0.9998771 0.0031545 0.9998771 0.0031545 0.0001229 -0.0031545
86348 0.0001181 -0.0030182 0.9998819 0.0030182 0.9998819 0.0030182 0.0001181 -0.0030182
90302 0.0001136 -0.0028877 0.9998864 0.0028877 0.9998864 0.0028877 0.0001136 -0.0028877
94437 0.0001094 -0.0027627 0.9998906 0.0027627 0.9998906 0.0027627 0.0001094 -0.0027627
98762 0.0001054 -0.0026431 0.9998946 0.0026431 0.9998946 0.0026431 0.0001054 -0.0026431
103284 0.0001016 -0.0025286 0.9998984 0.0025286 0.9998984 0.0025286 0.0001016 -0.0025286
108014 0.0000981 -0.0024191 0.9999019 0.0024191 0.9999019 0.0024191 0.0000981 -0.0024191
112960 0.0000949 -0.0023142 0.9999051 0.0023142 0.9999051 0.0023142 0.0000949 -0.0023142
118133 0.0000918 -0.0022138 0.9999082 0.0022138 0.9999082 0.0022138 0.0000918 -0.0022138
123542 0.0000889 -0.0021177 0.9999111 0.0021177 0.9999111 0.0021177 0.0000889 -0.0021177
129199 0.0000862 -0.0020258 0.9999138 0.0020258 0.9999138 0.0020258 0.0000862 -0.0020258
135116 0.0000837 -0.0019378 0.9999163 0.0019378 0.9999163 0.0019378 0.0000837 -0.0019378
141303 0.0000813 -0.0018536 0.9999187 0.0018536 0.9999187 0.0018536 0.0000813 -0.0018536
147774 0.0000790 -0.0017730 0.9999210 0.0017730 0.9999210 0.0017730 0.0000790 -0.0017730
154540 0.0000769 -0.0016959 0.9999231 0.0016959 0.9999231 0.0016959 0.0000769 -0.0016959
161617 0.0000749 -0.0016221 0.9999251 0.0016221 0.9999251 0.0016221 0.0000749 -0.0016221
169018 0.0000730 -0.0015515 0.9999270 0.0015515 0.9999270 0.0015515 0.0000730 -0.0015515
176758 0.0000713 -0.0014839 0.9999287 0.0014839 0.9999287 0.0014839 0.0000713 -0.0014839
184852 0.0000695 -0.0014193 0.9999305 0.0014193 0.9999305 0.0014193 0.0000695 -0.0014193
193316 0.0000679 -0.0013574 0.9999321 0.0013574 0.9999321 0.0013574 0.0000679 -0.0013574
202169 0.0000664 -0.0012981 0.9999336 0.0012981 0.9999336 0.0012981 0.0000664 -0.0012981
211427 0.0000649 -0.0012414 0.9999351 0.0012414 0.9999351 0.0012414 0.0000649 -0.0012414
221108 0.0000635 -0.0011872 0.9999365 0.0011872 0.9999365 0.0011872 0.0000635 -0.0011872
231233 0.0000621 -0.0011352 0.9999379 0.0011352 0.9999379 0.0011352 0.0000621 -0.0011352
241822 0.0000608 -0.0010855 0.9999392 0.0010855 0.9999392 0.0010855 0.0000608 -0.0010855
252896 0.0000595 -0.0010379 0.9999405 0.0010379 0.9999405 0.0010379 0.0000595 -0.0010379
264476 0.0000583 -0.0009923 0.9999417 0.0009923 0.9999417 0.0009923 0.0000583 -0.0009923
276587 0.0000571 -0.0009486 0.9999429 0.0009486 0.9999429 0.0009486 0.0000571 -0.0009486
289253 0.0000559 -0.0009067 0.9999441 0.0009067 0.9999441 0.0009067 0.0000559 -0.0009067
302498 0.0000548 -0.0008666 0.9999452 0.0008666 0.9999452 0.0008666 0.0000548 -0.0008666
316350 0.0000537 -0.0008282 0.9999463 0.0008282 0.9999463 0.0008282 0.0000537 -0.0008282
330837 0.0000526 -0.0007914 0.9999474 0.0007914 0.9999474 0.0007914 0.0000526 -0.0007914
345986 0.0000516 -0.0007561 0.9999484 0.0007561 0.9999484 0.0007561 0.0000516 -0.0007561
361830 0.0000506 -0.0007222 0.9999494 0.0007222 0.9999494 0.0007222 0.0000506 -0.0007222
378399 0.0000496 -0.0006897 0.9999504 0.0006897 0.9999504 0.0006897 0.0000496 -0.0006897
395726 0.0000486 -0.0006585 0.9999514 0.0006585 0.9999514 0.0006585 0.0000486 -0.0006585
413847 0.0000477 -0.0006286 0.9999523 0.0006286 0.9999523 0.0006286 0.0000477 -0.0006286
432798 0.0000469 -0.0005999 0.9999531 0.0005999 0.9999531 0.0005999 0.0000469 -0.0005999
452617 0.0000460 -0.0005724 0.9999540 0.0005724 0.9999540 0.0005724 0.0000460 -0.0005724
473344 0.0000452 -0.0005459 0.9999548 0.0005459 0.9999548 0.0005459 0.0000452 -0.0005459
495019 0.0000444 -0.0005204 0.9999556 0.0005204 0.9999556 0.0005204 0.0000444 -0.0005204
517687 0.0000437 -0.0004959 0.9999563 0.0004959 0.9999563 0.0004959 0.0000437 -0.0004959
541393 0.0000430 -0.0004724 0.9999570 0.0004724 0.9999570 0.0004724 0.0000430 -0.0004724
566185 0.0000424 -0.0004498 0.9999576 0.0004498 0.9999576 0.0004498 0.0000424 -0.0004498
592111 0.0000418 -0.0004280 0.9999582 0.0004280 0.9999582 0.0004280 0.0000418 -0.0004280
619225 0.0000412 -0.0004070 0.9999588 0.0004070 0.9999588 0.0004070 0.0000412 -0.0004070
647581 0.0000407 -0.0003868 0.9999593 0.0003868 0.9999593 0.0003868 0.0000407 -0.0003868
677235 0.0000402 -0.0003674 0.9999598 0.0003674 0.9999598 0.0003674 0.0000402 -0.0003674
708247 0.0000398 -0.0003486 0.9999602 0.0003486 0.9999602 0.0003486 0.0000398 -0.0003486
740679 0.0000394 -0.0003305 0.9999606 0.0003305 0.9999606 0.0003305 0.0000394 -0.0003305
774597 0.0000390 -0.0003130 0.9999610 0.0003130 0.9999610 0.0003130 0.0000390 -0.0003130
810067 0.0000387 -0.0002962 0.9999613 0.0002962 0.9999613 0.0002962 0.0000387 -0.0002962
847162 0.0000385 -0.0002799 0.9999615 0.0002799 0.9999615 0.0002799 0.0000385 -0.0002799
885955 0.0000383 -0.0002641 0.9999617 0.0002641 0.9999617 0.0002641 0.0000383 -0.0002641
926525 0.0000381 -0.0002488 0.9999619 0.0002488 0.9999619 0.0002488 0.0000381 -0.0002488
968953 0.0000380 -0.0002341 0.9999620 0.0002341 0.9999620 0.0002341 0.0000380 -0.0002341
1013323 0.0000380 -0.0002197 0.9999620 0.0002197 0.9999620 0.0002197 0.0000380 -0.0002197
1059725 0.0000380 -0.0002058 0.9999620 0.0002058 0.9999620 0.0002058 0.0000380 -0.0002058
1108252 0.0000381 -0.0001923 0.9999619 0.0001923 0.9999619 0.0001923 0.0000381 -0.0001923
1159002 0.0000382 -0.0001792 0.9999618 0.0001792 0.9999618 0.0001792 0.0000382 -0.0001792
1212075 0.0000384 -0.0001664 0.9999616 0.0001664 0.9999616 0.0001664 0.0000384 -0.0001664
1267578 0.0000386 -0.0001540 0.9999614 0.0001540 0.9999614 0.0001540 0.0000386 -0.0001540
1325623 0.0000389 -0.0001418 0.9999611 0.0001418 0.9999611 0.0001418 0.0000389 -0.0001418
1386327 0.0000393 -0.0001300 0.9999607 0.0001300 0.9999607 0.0001300 0.0000393 -0.0001300
1449809 0.0000397 -0.0001184 0.9999603 0.0001184 0.9999603 0.0001184 0.0000397 -0.0001184
1516199 0.0000402 -0.0001070 0.9999598 0.0001070 0.9999598 0.0001070 0.0000402 -0.0001070
1585629 0.0000408 -0.0000958 0.9999592 0.0000958 0.9999592 0.0000958 0.0000408 -0.0000958
1658239 0.0000415 -0.0000849 0.9999585 0.0000849 0.9999585 0.0000849 0.0000415 -0.0000849
1734173 0.0000422 -0.0000741 0.9999578 0.0000741 0.9999578 0.0000741 0.0000422 -0.0000741
1813585 0.0000431 -0.0000635 0.9999569 0.0000635 0.9999569 0.0000635 0.0000431 -0.0000635
1896632 0.0000441 -0.0000530 0.9999559 0.0000530 0.9999559 0.0000530 0.0000441 -0.0000530
1983483 0.0000451 -0.0000426 0.9999549 0.0000426 0.9999549 0.0000426 0.0000451 -0.0000426
2074311 0.0000464 -0.0000323 0.9999536 0.0000323 0.9999536 0.0000323 0.0000464 -0.0000323
