!Murata Part Number: GRM216R71H682KA01
!These Parameters are Measured in Series Mode Connection
!Data Generated on Mar 30, 2021
!       o--ll--o
!Port1            Port2
!       o------o
!Operation Temp=25[degC], DC Bias Voltage=0[V]
!Freq. Start=100[Hz] Stop=6[GHz] 401[Steps]
# Hz S RI R 50
!Freq.(Hz) S11(Real) S11(Imag) S21(Real) S21(Imag) S12(Real) S12(Imag) S22(Real) S22(Imag)
100 0.9999980 -0.0004215 0.0000020 0.0004215 0.0000020 0.0004215 0.9999980 -0.0004215
105 0.9999979 -0.0004408 0.0000021 0.0004408 0.0000021 0.0004408 0.9999979 -0.0004408
109 0.9999978 -0.0004609 0.0000022 0.0004609 0.0000022 0.0004609 0.9999978 -0.0004609
114 0.9999977 -0.0004819 0.0000023 0.0004819 0.0000023 0.0004819 0.9999977 -0.0004819
120 0.9999976 -0.0005039 0.0000024 0.0005039 0.0000024 0.0005039 0.9999976 -0.0005039
125 0.9999975 -0.0005269 0.0000025 0.0005269 0.0000025 0.0005269 0.9999975 -0.0005269
131 0.9999974 -0.0005510 0.0000026 0.0005510 0.0000026 0.0005510 0.9999974 -0.0005510
137 0.9999972 -0.0005761 0.0000028 0.0005761 0.0000028 0.0005761 0.9999972 -0.0005761
143 0.9999971 -0.0006024 0.0000029 0.0006024 0.0000029 0.0006024 0.9999971 -0.0006024
150 0.9999970 -0.0006300 0.0000030 0.0006300 0.0000030 0.0006300 0.9999970 -0.0006300
156 0.9999968 -0.0006587 0.0000032 0.0006587 0.0000032 0.0006587 0.9999968 -0.0006587
164 0.9999967 -0.0006888 0.0000033 0.0006888 0.0000033 0.0006888 0.9999967 -0.0006888
171 0.9999965 -0.0007203 0.0000035 0.0007203 0.0000035 0.0007203 0.9999965 -0.0007203
179 0.9999964 -0.0007532 0.0000036 0.0007532 0.0000036 0.0007532 0.9999964 -0.0007532
187 0.9999962 -0.0007876 0.0000038 0.0007876 0.0000038 0.0007876 0.9999962 -0.0007876
196 0.9999960 -0.0008236 0.0000040 0.0008236 0.0000040 0.0008236 0.9999960 -0.0008236
205 0.9999958 -0.0008612 0.0000042 0.0008612 0.0000042 0.0008612 0.9999958 -0.0008612
214 0.9999956 -0.0009005 0.0000044 0.0009005 0.0000044 0.0009005 0.9999956 -0.0009005
224 0.9999953 -0.0009417 0.0000047 0.0009417 0.0000047 0.0009417 0.9999953 -0.0009417
234 0.9999951 -0.0009847 0.0000049 0.0009847 0.0000049 0.0009847 0.9999951 -0.0009847
245 0.9999948 -0.0010297 0.0000052 0.0010297 0.0000052 0.0010297 0.9999948 -0.0010297
256 0.9999945 -0.0010767 0.0000055 0.0010767 0.0000055 0.0010767 0.9999945 -0.0010767
268 0.9999942 -0.0011259 0.0000058 0.0011259 0.0000058 0.0011259 0.9999942 -0.0011259
280 0.9999938 -0.0011774 0.0000062 0.0011774 0.0000062 0.0011774 0.9999938 -0.0011774
293 0.9999935 -0.0012312 0.0000065 0.0012312 0.0000065 0.0012312 0.9999935 -0.0012312
306 0.9999931 -0.0012874 0.0000069 0.0012874 0.0000069 0.0012874 0.9999931 -0.0012874
320 0.9999927 -0.0013463 0.0000073 0.0013463 0.0000073 0.0013463 0.9999927 -0.0013463
335 0.9999922 -0.0014078 0.0000078 0.0014078 0.0000078 0.0014078 0.9999922 -0.0014078
350 0.9999917 -0.0014721 0.0000083 0.0014721 0.0000083 0.0014721 0.9999917 -0.0014721
366 0.9999912 -0.0015393 0.0000088 0.0015393 0.0000088 0.0015393 0.9999912 -0.0015393
383 0.9999906 -0.0016096 0.0000094 0.0016096 0.0000094 0.0016096 0.9999906 -0.0016096
401 0.9999900 -0.0016831 0.0000100 0.0016831 0.0000100 0.0016831 0.9999900 -0.0016831
419 0.9999894 -0.0017600 0.0000106 0.0017600 0.0000106 0.0017600 0.9999894 -0.0017600
438 0.9999887 -0.0018404 0.0000113 0.0018404 0.0000113 0.0018404 0.9999887 -0.0018404
458 0.9999879 -0.0019244 0.0000121 0.0019244 0.0000121 0.0019244 0.9999879 -0.0019244
479 0.9999871 -0.0020123 0.0000129 0.0020123 0.0000129 0.0020123 0.9999871 -0.0020123
501 0.9999863 -0.0021041 0.0000137 0.0021041 0.0000137 0.0021041 0.9999863 -0.0021041
524 0.9999854 -0.0022002 0.0000146 0.0022002 0.0000146 0.0022002 0.9999854 -0.0022002
548 0.9999844 -0.0023006 0.0000156 0.0023006 0.0000156 0.0023006 0.9999844 -0.0023006
573 0.9999834 -0.0024056 0.0000166 0.0024056 0.0000166 0.0024056 0.9999834 -0.0024056
600 0.9999823 -0.0025154 0.0000177 0.0025154 0.0000177 0.0025154 0.9999823 -0.0025154
627 0.9999811 -0.0026302 0.0000189 0.0026302 0.0000189 0.0026302 0.9999811 -0.0026302
656 0.9999799 -0.0027503 0.0000201 0.0027503 0.0000201 0.0027503 0.9999799 -0.0027503
686 0.9999786 -0.0028758 0.0000214 0.0028758 0.0000214 0.0028758 0.9999786 -0.0028758
717 0.9999772 -0.0030070 0.0000228 0.0030070 0.0000228 0.0030070 0.9999772 -0.0030070
750 0.9999757 -0.0031442 0.0000243 0.0031442 0.0000243 0.0031442 0.9999757 -0.0031442
784 0.9999741 -0.0032877 0.0000259 0.0032877 0.0000259 0.0032877 0.9999741 -0.0032877
820 0.9999724 -0.0034377 0.0000276 0.0034377 0.0000276 0.0034377 0.9999724 -0.0034377
858 0.9999705 -0.0035946 0.0000295 0.0035946 0.0000295 0.0035946 0.9999705 -0.0035946
897 0.9999686 -0.0037586 0.0000314 0.0037586 0.0000314 0.0037586 0.9999686 -0.0037586
938 0.9999665 -0.0039301 0.0000335 0.0039301 0.0000335 0.0039301 0.9999665 -0.0039301
981 0.9999643 -0.0041095 0.0000357 0.0041095 0.0000357 0.0041095 0.9999643 -0.0041095
1026 0.9999619 -0.0042970 0.0000381 0.0042970 0.0000381 0.0042970 0.9999619 -0.0042970
1073 0.9999594 -0.0044931 0.0000406 0.0044931 0.0000406 0.0044931 0.9999594 -0.0044931
1122 0.9999566 -0.0046982 0.0000434 0.0046982 0.0000434 0.0046982 0.9999566 -0.0046982
1174 0.9999537 -0.0049127 0.0000463 0.0049127 0.0000463 0.0049127 0.9999537 -0.0049127
1227 0.9999505 -0.0051369 0.0000495 0.0051369 0.0000495 0.0051369 0.9999505 -0.0051369
1283 0.9999471 -0.0053714 0.0000529 0.0053714 0.0000529 0.0053714 0.9999471 -0.0053714
1342 0.9999434 -0.0056167 0.0000566 0.0056167 0.0000566 0.0056167 0.9999434 -0.0056167
1404 0.9999395 -0.0058731 0.0000605 0.0058731 0.0000605 0.0058731 0.9999395 -0.0058731
1468 0.9999352 -0.0061413 0.0000648 0.0061413 0.0000648 0.0061413 0.9999352 -0.0061413
1535 0.9999305 -0.0064217 0.0000695 0.0064217 0.0000695 0.0064217 0.9999305 -0.0064217
1606 0.9999255 -0.0067150 0.0000745 0.0067150 0.0000745 0.0067150 0.9999255 -0.0067150
1679 0.9999200 -0.0070217 0.0000800 0.0070217 0.0000800 0.0070217 0.9999200 -0.0070217
1756 0.9999141 -0.0073424 0.0000859 0.0073424 0.0000859 0.0073424 0.9999141 -0.0073424
1836 0.9999077 -0.0076777 0.0000923 0.0076777 0.0000923 0.0076777 0.9999077 -0.0076777
1920 0.9999007 -0.0080284 0.0000993 0.0080284 0.0000993 0.0080284 0.9999007 -0.0080284
2008 0.9998931 -0.0083951 0.0001069 0.0083951 0.0001069 0.0083951 0.9998931 -0.0083951
2100 0.9998849 -0.0087785 0.0001151 0.0087785 0.0001151 0.0087785 0.9998849 -0.0087785
2196 0.9998759 -0.0091795 0.0001241 0.0091795 0.0001241 0.0091795 0.9998759 -0.0091795
2297 0.9998661 -0.0095988 0.0001339 0.0095988 0.0001339 0.0095988 0.9998661 -0.0095988
2402 0.9998555 -0.0100372 0.0001445 0.0100372 0.0001445 0.0100372 0.9998555 -0.0100372
2512 0.9998440 -0.0104956 0.0001560 0.0104956 0.0001560 0.0104956 0.9998440 -0.0104956
2627 0.9998314 -0.0109750 0.0001686 0.0109750 0.0001686 0.0109750 0.9998314 -0.0109750
2748 0.9998177 -0.0114762 0.0001823 0.0114762 0.0001823 0.0114762 0.9998177 -0.0114762
2873 0.9998028 -0.0120003 0.0001972 0.0120003 0.0001972 0.0120003 0.9998028 -0.0120003
3005 0.9997865 -0.0125482 0.0002135 0.0125482 0.0002135 0.0125482 0.9997865 -0.0125482
3143 0.9997689 -0.0131211 0.0002311 0.0131211 0.0002311 0.0131211 0.9997689 -0.0131211
3287 0.9997496 -0.0137202 0.0002504 0.0137202 0.0002504 0.0137202 0.9997496 -0.0137202
3437 0.9997287 -0.0143465 0.0002713 0.0143465 0.0002713 0.0143465 0.9997287 -0.0143465
3594 0.9997059 -0.0150013 0.0002941 0.0150013 0.0002941 0.0150013 0.9997059 -0.0150013
3759 0.9996811 -0.0156859 0.0003189 0.0156859 0.0003189 0.0156859 0.9996811 -0.0156859
3931 0.9996541 -0.0164016 0.0003459 0.0164016 0.0003459 0.0164016 0.9996541 -0.0164016
4111 0.9996247 -0.0171499 0.0003753 0.0171499 0.0003753 0.0171499 0.9996247 -0.0171499
4299 0.9995928 -0.0179322 0.0004072 0.0179322 0.0004072 0.0179322 0.9995928 -0.0179322
4496 0.9995580 -0.0187500 0.0004420 0.0187500 0.0004420 0.0187500 0.9995580 -0.0187500
4702 0.9995202 -0.0196050 0.0004798 0.0196050 0.0004798 0.0196050 0.9995202 -0.0196050
4918 0.9994791 -0.0204989 0.0005209 0.0204989 0.0005209 0.0204989 0.9994791 -0.0204989
5143 0.9994344 -0.0214333 0.0005656 0.0214333 0.0005656 0.0214333 0.9994344 -0.0214333
5378 0.9993857 -0.0224101 0.0006143 0.0224101 0.0006143 0.0224101 0.9993857 -0.0224101
5625 0.9993329 -0.0234312 0.0006671 0.0234312 0.0006671 0.0234312 0.9993329 -0.0234312
5882 0.9992754 -0.0244987 0.0007246 0.0244987 0.0007246 0.0244987 0.9992754 -0.0244987
6151 0.9992129 -0.0256146 0.0007871 0.0256146 0.0007871 0.0256146 0.9992129 -0.0256146
6433 0.9991450 -0.0267811 0.0008550 0.0267811 0.0008550 0.0267811 0.9991450 -0.0267811
6728 0.9990711 -0.0280005 0.0009289 0.0280005 0.0009289 0.0280005 0.9990711 -0.0280005
7036 0.9989907 -0.0292752 0.0010093 0.0292752 0.0010093 0.0292752 0.9989907 -0.0292752
7358 0.9989033 -0.0306076 0.0010967 0.0306076 0.0010967 0.0306076 0.9989033 -0.0306076
7695 0.9988082 -0.0320004 0.0011918 0.0320004 0.0011918 0.0320004 0.9988082 -0.0320004
8047 0.9987048 -0.0334563 0.0012952 0.0334563 0.0012952 0.0334563 0.9987048 -0.0334563
8416 0.9985922 -0.0349781 0.0014078 0.0349781 0.0014078 0.0349781 0.9985922 -0.0349781
8801 0.9984697 -0.0365688 0.0015303 0.0365688 0.0015303 0.0365688 0.9984697 -0.0365688
9204 0.9983363 -0.0382314 0.0016637 0.0382314 0.0016637 0.0382314 0.9983363 -0.0382314
9626 0.9981910 -0.0399693 0.0018090 0.0399693 0.0018090 0.0399693 0.9981910 -0.0399693
10066 0.9980329 -0.0417857 0.0019671 0.0417857 0.0019671 0.0417857 0.9980329 -0.0417857
10527 0.9978605 -0.0436842 0.0021395 0.0436842 0.0021395 0.0436842 0.9978605 -0.0436842
11009 0.9976727 -0.0456683 0.0023273 0.0456683 0.0023273 0.0456683 0.9976727 -0.0456683
11514 0.9974681 -0.0477419 0.0025319 0.0477419 0.0025319 0.0477419 0.9974681 -0.0477419
12041 0.9972449 -0.0499089 0.0027551 0.0499089 0.0027551 0.0499089 0.9972449 -0.0499089
12592 0.9970017 -0.0521733 0.0029983 0.0521733 0.0029983 0.0521733 0.9970017 -0.0521733
13169 0.9967364 -0.0545395 0.0032636 0.0545395 0.0032636 0.0545395 0.9967364 -0.0545395
13772 0.9964470 -0.0570119 0.0035530 0.0570119 0.0035530 0.0570119 0.9964470 -0.0570119
14402 0.9961314 -0.0595949 0.0038686 0.0595949 0.0038686 0.0595949 0.9961314 -0.0595949
15062 0.9957870 -0.0622934 0.0042130 0.0622934 0.0042130 0.0622934 0.9957870 -0.0622934
15752 0.9954112 -0.0651122 0.0045888 0.0651122 0.0045888 0.0651122 0.9954112 -0.0651122
16473 0.9950012 -0.0680564 0.0049988 0.0680564 0.0049988 0.0680564 0.9950012 -0.0680564
17227 0.9945537 -0.0711312 0.0054463 0.0711312 0.0054463 0.0711312 0.9945537 -0.0711312
18016 0.9940654 -0.0743420 0.0059346 0.0743420 0.0059346 0.0743420 0.9940654 -0.0743420
18841 0.9935325 -0.0776944 0.0064675 0.0776944 0.0064675 0.0776944 0.9935325 -0.0776944
19704 0.9929510 -0.0811941 0.0070490 0.0811941 0.0070490 0.0811941 0.9929510 -0.0811941
20606 0.9923163 -0.0848469 0.0076837 0.0848469 0.0076837 0.0848469 0.9923163 -0.0848469
21550 0.9916238 -0.0886589 0.0083762 0.0886589 0.0083762 0.0886589 0.9916238 -0.0886589
22537 0.9908682 -0.0926362 0.0091318 0.0926362 0.0091318 0.0926362 0.9908682 -0.0926362
23569 0.9900438 -0.0967850 0.0099562 0.0967850 0.0099562 0.0967850 0.9900438 -0.0967850
24648 0.9891444 -0.1011118 0.0108556 0.1011118 0.0108556 0.1011118 0.9891444 -0.1011118
25777 0.9881635 -0.1056230 0.0118365 0.1056230 0.0118365 0.1056230 0.9881635 -0.1056230
26957 0.9870937 -0.1103251 0.0129063 0.1103251 0.0129063 0.1103251 0.9870937 -0.1103251
28191 0.9859273 -0.1152247 0.0140727 0.1152247 0.0140727 0.1152247 0.9859273 -0.1152247
29482 0.9846558 -0.1203285 0.0153442 0.1203285 0.0153442 0.1203285 0.9846558 -0.1203285
30832 0.9832700 -0.1256429 0.0167300 0.1256429 0.0167300 0.1256429 0.9832700 -0.1256429
32244 0.9817602 -0.1311746 0.0182398 0.1311746 0.0182398 0.1311746 0.9817602 -0.1311746
33721 0.9801156 -0.1369298 0.0198844 0.1369298 0.0198844 0.1369298 0.9801156 -0.1369298
35265 0.9783248 -0.1429149 0.0216752 0.1429149 0.0216752 0.1429149 0.9783248 -0.1429149
36880 0.9763755 -0.1491358 0.0236245 0.1491358 0.0236245 0.1491358 0.9763755 -0.1491358
38569 0.9742545 -0.1555983 0.0257455 0.1555983 0.0257455 0.1555983 0.9742545 -0.1555983
40335 0.9719475 -0.1623076 0.0280525 0.1623076 0.0280525 0.1623076 0.9719475 -0.1623076
42182 0.9694395 -0.1692688 0.0305605 0.1692688 0.0305605 0.1692688 0.9694395 -0.1692688
44113 0.9667141 -0.1764861 0.0332859 0.1764861 0.0332859 0.1764861 0.9667141 -0.1764861
46134 0.9637541 -0.1839632 0.0362459 0.1839632 0.0362459 0.1839632 0.9637541 -0.1839632
48246 0.9605411 -0.1917029 0.0394589 0.1917029 0.0394589 0.1917029 0.9605411 -0.1917029
50455 0.9570556 -0.1997071 0.0429444 0.1997071 0.0429444 0.1997071 0.9570556 -0.1997071
52766 0.9532768 -0.2079767 0.0467232 0.2079767 0.0467232 0.2079767 0.9532768 -0.2079767
55182 0.9491830 -0.2165113 0.0508170 0.2165113 0.0508170 0.2165113 0.9491830 -0.2165113
57709 0.9447511 -0.2253090 0.0552489 0.2253090 0.0552489 0.2253090 0.9447511 -0.2253090
60352 0.9399573 -0.2343663 0.0600427 0.2343663 0.0600427 0.2343663 0.9399573 -0.2343663
63115 0.9347762 -0.2436781 0.0652238 0.2436781 0.0652238 0.2436781 0.9347762 -0.2436781
66005 0.9291819 -0.2532370 0.0708181 0.2532370 0.0708181 0.2532370 0.9291819 -0.2532370
69028 0.9231474 -0.2630334 0.0768526 0.2630334 0.0768526 0.2630334 0.9231474 -0.2630334
72189 0.9166449 -0.2730553 0.0833551 0.2730553 0.0833551 0.2730553 0.9166449 -0.2730553
75495 0.9096462 -0.2832877 0.0903538 0.2832877 0.0903538 0.2832877 0.9096462 -0.2832877
78952 0.9021227 -0.2937129 0.0978773 0.2937129 0.0978773 0.2937129 0.9021227 -0.2937129
82567 0.8940455 -0.3043098 0.1059545 0.3043098 0.1059545 0.3043098 0.8940455 -0.3043098
86348 0.8853861 -0.3150539 0.1146139 0.3150539 0.1146139 0.3150539 0.8853861 -0.3150539
90302 0.8761166 -0.3259169 0.1238834 0.3259169 0.1238834 0.3259169 0.8761166 -0.3259169
94437 0.8662099 -0.3368668 0.1337901 0.3368668 0.1337901 0.3368668 0.8662099 -0.3368668
98762 0.8556404 -0.3478675 0.1443596 0.3478675 0.1443596 0.3478675 0.8556404 -0.3478675
103284 0.8443846 -0.3588790 0.1556154 0.3588790 0.1556154 0.3588790 0.8443846 -0.3588790
108014 0.8324213 -0.3698568 0.1675787 0.3698568 0.1675787 0.3698568 0.8324213 -0.3698568
112960 0.8197326 -0.3807528 0.1802674 0.3807528 0.1802674 0.3807528 0.8197326 -0.3807528
118133 0.8063044 -0.3915147 0.1936956 0.3915147 0.1936956 0.3915147 0.8063044 -0.3915147
123542 0.7921268 -0.4020865 0.2078732 0.4020865 0.2078732 0.4020865 0.7921268 -0.4020865
129199 0.7771953 -0.4124089 0.2228047 0.4124089 0.2228047 0.4124089 0.7771953 -0.4124089
135116 0.7615111 -0.4224200 0.2384889 0.4224200 0.2384889 0.4224200 0.7615111 -0.4224200
141303 0.7450817 -0.4320553 0.2549183 0.4320553 0.2549183 0.4320553 0.7450817 -0.4320553
147774 0.7279216 -0.4412490 0.2720784 0.4412490 0.2720784 0.4412490 0.7279216 -0.4412490
154540 0.7100526 -0.4499346 0.2899474 0.4499346 0.2899474 0.4499346 0.7100526 -0.4499346
161617 0.6915045 -0.4580458 0.3084955 0.4580458 0.3084955 0.4580458 0.6915045 -0.4580458
169018 0.6723146 -0.4655179 0.3276854 0.4655179 0.3276854 0.4655179 0.6723146 -0.4655179
176758 0.6525285 -0.4722885 0.3474715 0.4722885 0.3474715 0.4722885 0.6525285 -0.4722885
184852 0.6321995 -0.4782988 0.3678005 0.4782988 0.3678005 0.4782988 0.6321995 -0.4782988
193316 0.6113884 -0.4834948 0.3886116 0.4834948 0.3886116 0.4834948 0.6113884 -0.4834948
202169 0.5901629 -0.4878287 0.4098371 0.4878287 0.4098371 0.4878287 0.5901629 -0.4878287
211427 0.5685967 -0.4912595 0.4314033 0.4912595 0.4314033 0.4912595 0.5685967 -0.4912595
221108 0.5467688 -0.4937539 0.4532312 0.4937539 0.4532312 0.4937539 0.5467688 -0.4937539
231233 0.5247622 -0.4952877 0.4752378 0.4952877 0.4752378 0.4952877 0.5247622 -0.4952877
241822 0.5026628 -0.4958457 0.4973372 0.4958457 0.4973372 0.4958457 0.5026628 -0.4958457
252896 0.4805579 -0.4954223 0.5194421 0.4954223 0.5194421 0.4954223 0.4805579 -0.4954223
264476 0.4585350 -0.4940220 0.5414650 0.4940220 0.5414650 0.4940220 0.4585350 -0.4940220
276587 0.4366802 -0.4916586 0.5633198 0.4916586 0.5633198 0.4916586 0.4366802 -0.4916586
289253 0.4150770 -0.4883555 0.5849230 0.4883555 0.5849230 0.4883555 0.4150770 -0.4883555
302498 0.3938050 -0.4841448 0.6061950 0.4841448 0.6061950 0.4841448 0.3938050 -0.4841448
316350 0.3729387 -0.4790665 0.6270613 0.4790665 0.6270613 0.4790665 0.3729387 -0.4790665
330837 0.3525465 -0.4731680 0.6474535 0.4731680 0.6474535 0.4731680 0.3525465 -0.4731680
345986 0.3326902 -0.4665025 0.6673098 0.4665025 0.6673098 0.4665025 0.3326902 -0.4665025
361830 0.3134240 -0.4591285 0.6865760 0.4591285 0.6865760 0.4591285 0.3134240 -0.4591285
378399 0.2947944 -0.4511079 0.7052056 0.4511079 0.7052056 0.4511079 0.2947944 -0.4511079
395726 0.2768398 -0.4425055 0.7231602 0.4425055 0.7231602 0.4425055 0.2768398 -0.4425055
413847 0.2595909 -0.4333876 0.7404091 0.4333876 0.7404091 0.4333876 0.2595909 -0.4333876
432798 0.2430702 -0.4238207 0.7569298 0.4238207 0.7569298 0.4238207 0.2430702 -0.4238207
452617 0.2272931 -0.4138711 0.7727069 0.4138711 0.7727069 0.4138711 0.2272931 -0.4138711
473344 0.2122677 -0.4036034 0.7877323 0.4036034 0.7877323 0.4036034 0.2122677 -0.4036034
495019 0.1979958 -0.3930800 0.8020042 0.3930800 0.8020042 0.3930800 0.1979958 -0.3930800
517687 0.1844732 -0.3823606 0.8155268 0.3823606 0.8155268 0.3823606 0.1844732 -0.3823606
541393 0.1716906 -0.3715017 0.8283094 0.3715017 0.8283094 0.3715017 0.1716906 -0.3715017
566185 0.1596341 -0.3605558 0.8403659 0.3605558 0.8403659 0.3605558 0.1596341 -0.3605558
592111 0.1482859 -0.3495718 0.8517141 0.3495718 0.8517141 0.3495718 0.1482859 -0.3495718
619225 0.1376251 -0.3385942 0.8623749 0.3385942 0.8623749 0.3385942 0.1376251 -0.3385942
647581 0.1276282 -0.3276636 0.8723718 0.3276636 0.8723718 0.3276636 0.1276282 -0.3276636
677235 0.1182695 -0.3168162 0.8817305 0.3168162 0.8817305 0.3168162 0.1182695 -0.3168162
708247 0.1095220 -0.3060845 0.8904780 0.3060845 0.8904780 0.3060845 0.1095220 -0.3060845
740679 0.1013578 -0.2954968 0.8986422 0.2954968 0.8986422 0.2954968 0.1013578 -0.2954968
774597 0.0937483 -0.2850777 0.9062517 0.2850777 0.9062517 0.2850777 0.0937483 -0.2850777
810067 0.0866647 -0.2748486 0.9133353 0.2748486 0.9133353 0.2748486 0.0866647 -0.2748486
847162 0.0800784 -0.2648272 0.9199216 0.2648272 0.9199216 0.2648272 0.0800784 -0.2648272
885955 0.0739611 -0.2550285 0.9260389 0.2550285 0.9260389 0.2550285 0.0739611 -0.2550285
926525 0.0682851 -0.2454646 0.9317149 0.2454646 0.9317149 0.2454646 0.0682851 -0.2454646
968953 0.0630236 -0.2361451 0.9369764 0.2361451 0.9369764 0.2361451 0.0630236 -0.2361451
1013323 0.0581505 -0.2270774 0.9418495 0.2270774 0.9418495 0.2270774 0.0581505 -0.2270774
1059725 0.0536408 -0.2182668 0.9463592 0.2182668 0.9463592 0.2182668 0.0536408 -0.2182668
1108252 0.0494706 -0.2097168 0.9505294 0.2097168 0.9505294 0.2097168 0.0494706 -0.2097168
1159002 0.0456170 -0.2014293 0.9543830 0.2014293 0.9543830 0.2014293 0.0456170 -0.2014293
1212075 0.0420584 -0.1934049 0.9579416 0.1934049 0.9579416 0.1934049 0.0420584 -0.1934049
1267578 0.0387743 -0.1856427 0.9612257 0.1856427 0.9612257 0.1856427 0.0387743 -0.1856427
1325623 0.0357452 -0.1781410 0.9642548 0.1781410 0.9642548 0.1781410 0.0357452 -0.1781410
1386327 0.0329528 -0.1708972 0.9670472 0.1708972 0.9670472 0.1708972 0.0329528 -0.1708972
1449809 0.0303800 -0.1639076 0.9696200 0.1639076 0.9696200 0.1639076 0.0303800 -0.1639076
1516199 0.0280106 -0.1571682 0.9719894 0.1571682 0.9719894 0.1571682 0.0280106 -0.1571682
1585629 0.0258296 -0.1506743 0.9741704 0.1506743 0.9741704 0.1506743 0.0258296 -0.1506743
1658239 0.0238227 -0.1444207 0.9761773 0.1444207 0.9761773 0.1444207 0.0238227 -0.1444207
1734173 0.0219768 -0.1384018 0.9780232 0.1384018 0.9780232 0.1384018 0.0219768 -0.1384018
1813585 0.0202796 -0.1326120 0.9797204 0.1326120 0.9797204 0.1326120 0.0202796 -0.1326120
1896632 0.0187196 -0.1270451 0.9812804 0.1270451 0.9812804 0.1270451 0.0187196 -0.1270451
1983483 0.0172861 -0.1216949 0.9827139 0.1216949 0.9827139 0.1216949 0.0172861 -0.1216949
2074311 0.0159693 -0.1165550 0.9840307 0.1165550 0.9840307 0.1165550 0.0159693 -0.1165550
