!Murata Part Number: GRM21BC70G106KE45
!These Parameters are Measured in Series Mode Connection
!Data Generated on Mar 30, 2021
!       o--ll--o
!Port1            Port2
!       o------o
!Operation Temp=25[degC], DC Bias Voltage=0[V]
!Freq. Start=100[Hz] Stop=6[GHz] 401[Steps]
# Hz S RI R 50
!Freq.(Hz) S11(Real) S11(Imag) S21(Real) S21(Imag) S12(Real) S12(Imag) S22(Real) S22(Imag)
100 0.8305253 -0.3650888 0.1694747 0.3650888 0.1694747 0.3650888 0.8305253 -0.3650888
105 0.8180278 -0.3757144 0.1819722 0.3757144 0.1819722 0.3757144 0.8180278 -0.3757144
109 0.8048133 -0.3862044 0.1951867 0.3862044 0.1951867 0.3862044 0.8048133 -0.3862044
114 0.7908739 -0.3965045 0.2091261 0.3965045 0.2091261 0.3965045 0.7908739 -0.3965045
120 0.7762067 -0.4065574 0.2237933 0.4065574 0.2237933 0.4065574 0.7762067 -0.4065574
125 0.7608147 -0.4163034 0.2391853 0.4163034 0.2391853 0.4163034 0.7608147 -0.4163034
131 0.7447070 -0.4256813 0.2552930 0.4256813 0.2552930 0.4256813 0.7447070 -0.4256813
137 0.7278993 -0.4346284 0.2721007 0.4346284 0.2721007 0.4346284 0.7278993 -0.4346284
143 0.7104143 -0.4430824 0.2895857 0.4430824 0.2895857 0.4430824 0.7104143 -0.4430824
150 0.6922820 -0.4509812 0.3077180 0.4509812 0.3077180 0.4509812 0.6922820 -0.4509812
156 0.6735396 -0.4582647 0.3264604 0.4582647 0.3264604 0.4582647 0.6735396 -0.4582647
164 0.6542316 -0.4648755 0.3457684 0.4648755 0.3457684 0.4648755 0.6542316 -0.4648755
171 0.6344093 -0.4707601 0.3655907 0.4707601 0.3655907 0.4707601 0.6344093 -0.4707601
179 0.6141307 -0.4758694 0.3858693 0.4758694 0.3858693 0.4758694 0.6141307 -0.4758694
187 0.5934597 -0.4801604 0.4065403 0.4801604 0.4065403 0.4801604 0.5934597 -0.4801604
196 0.5724653 -0.4835966 0.4275347 0.4835966 0.4275347 0.4835966 0.5724653 -0.4835966
205 0.5512209 -0.4861486 0.4487791 0.4861486 0.4487791 0.4861486 0.5512209 -0.4861486
214 0.5298032 -0.4877952 0.4701968 0.4877952 0.4701968 0.4877952 0.5298032 -0.4877952
224 0.5082908 -0.4885233 0.4917092 0.4885233 0.4917092 0.4885233 0.5082908 -0.4885233
234 0.4867637 -0.4883284 0.5132363 0.4883284 0.5132363 0.4883284 0.4867637 -0.4883284
245 0.4653014 -0.4872145 0.5346986 0.4872145 0.5346986 0.4872145 0.4653014 -0.4872145
256 0.4439821 -0.4851941 0.5560179 0.4851941 0.5560179 0.4851941 0.4439821 -0.4851941
268 0.4228816 -0.4822875 0.5771184 0.4822875 0.5771184 0.4822875 0.4228816 -0.4822875
280 0.4020724 -0.4785228 0.5979276 0.4785228 0.5979276 0.4785228 0.4020724 -0.4785228
293 0.3816223 -0.4739348 0.6183777 0.4739348 0.6183777 0.4739348 0.3816223 -0.4739348
306 0.3615944 -0.4685644 0.6384056 0.4685644 0.6384056 0.4685644 0.3615944 -0.4685644
320 0.3420457 -0.4624580 0.6579543 0.4624580 0.6579543 0.4624580 0.3420457 -0.4624580
335 0.3230272 -0.4556662 0.6769728 0.4556662 0.6769728 0.4556662 0.3230272 -0.4556662
350 0.3045834 -0.4482428 0.6954166 0.4482428 0.6954166 0.4482428 0.3045834 -0.4482428
366 0.2867522 -0.4402447 0.7132478 0.4402447 0.7132478 0.4402447 0.2867522 -0.4402447
383 0.2695646 -0.4317299 0.7304354 0.4317299 0.7304354 0.4317299 0.2695646 -0.4317299
401 0.2530453 -0.4227575 0.7469547 0.4227575 0.7469547 0.4227575 0.2530453 -0.4227575
419 0.2372123 -0.4133865 0.7627877 0.4133865 0.7627877 0.4133865 0.2372123 -0.4133865
438 0.2220778 -0.4036751 0.7779222 0.4036751 0.7779222 0.4036751 0.2220778 -0.4036751
458 0.2076482 -0.3936805 0.7923518 0.3936805 0.7923518 0.3936805 0.2076482 -0.3936805
479 0.1939246 -0.3834577 0.8060754 0.3834577 0.8060754 0.3834577 0.1939246 -0.3834577
501 0.1809033 -0.3730596 0.8190967 0.3730596 0.8190967 0.3730596 0.1809033 -0.3730596
524 0.1685761 -0.3625362 0.8314239 0.3625362 0.8314239 0.3625362 0.1685761 -0.3625362
548 0.1569314 -0.3519346 0.8430686 0.3519346 0.8430686 0.3519346 0.1569314 -0.3519346
573 0.1459537 -0.3412989 0.8540463 0.3412989 0.8540463 0.3412989 0.1459537 -0.3412989
600 0.1356251 -0.3306695 0.8643749 0.3306695 0.8643749 0.3306695 0.1356251 -0.3306695
627 0.1259252 -0.3200838 0.8740748 0.3200838 0.8740748 0.3200838 0.1259252 -0.3200838
656 0.1168316 -0.3095754 0.8831684 0.3095754 0.8831684 0.3095754 0.1168316 -0.3095754
686 0.1083204 -0.2991748 0.8916796 0.2991748 0.8916796 0.2991748 0.1083204 -0.2991748
717 0.1003668 -0.2889088 0.8996332 0.2889088 0.8996332 0.2889088 0.1003668 -0.2889088
750 0.0929451 -0.2788014 0.9070549 0.2788014 0.9070549 0.2788014 0.0929451 -0.2788014
784 0.0860291 -0.2688732 0.9139709 0.2688732 0.9139709 0.2688732 0.0860291 -0.2688732
820 0.0795926 -0.2591420 0.9204074 0.2591420 0.9204074 0.2591420 0.0795926 -0.2591420
858 0.0736094 -0.2496229 0.9263906 0.2496229 0.9263906 0.2496229 0.0736094 -0.2496229
897 0.0680538 -0.2403282 0.9319462 0.2403282 0.9319462 0.2403282 0.0680538 -0.2403282
938 0.0629002 -0.2312680 0.9370998 0.2312680 0.9370998 0.2312680 0.0629002 -0.2312680
981 0.0581242 -0.2224502 0.9418758 0.2224502 0.9418758 0.2224502 0.0581242 -0.2224502
1026 0.0537016 -0.2138806 0.9462984 0.2138806 0.9462984 0.2138806 0.0537016 -0.2138806
1073 0.0496095 -0.2055634 0.9503905 0.2055634 0.9503905 0.2055634 0.0496095 -0.2055634
1122 0.0458257 -0.1975008 0.9541743 0.1975008 0.9541743 0.1975008 0.0458257 -0.1975008
1174 0.0423291 -0.1896940 0.9576709 0.1896940 0.9576709 0.1896940 0.0423291 -0.1896940
1227 0.0390996 -0.1821426 0.9609004 0.1821426 0.9609004 0.1821426 0.0390996 -0.1821426
1283 0.0361180 -0.1748452 0.9638820 0.1748452 0.9638820 0.1748452 0.0361180 -0.1748452
1342 0.0333664 -0.1677994 0.9666336 0.1677994 0.9666336 0.1677994 0.0333664 -0.1677994
1404 0.0308278 -0.1610018 0.9691722 0.1610018 0.9691722 0.1610018 0.0308278 -0.1610018
1468 0.0284862 -0.1544485 0.9715138 0.1544485 0.9715138 0.1544485 0.0284862 -0.1544485
1535 0.0263266 -0.1481348 0.9736734 0.1481348 0.9736734 0.1481348 0.0263266 -0.1481348
1606 0.0243351 -0.1420557 0.9756649 0.1420557 0.9756649 0.1420557 0.0243351 -0.1420557
1679 0.0224986 -0.1362055 0.9775014 0.1362055 0.9775014 0.1362055 0.0224986 -0.1362055
1756 0.0208050 -0.1305785 0.9791950 0.1305785 0.9791950 0.1305785 0.0208050 -0.1305785
1836 0.0192431 -0.1251685 0.9807569 0.1251685 0.9807569 0.1251685 0.0192431 -0.1251685
1920 0.0178023 -0.1199690 0.9821977 0.1199690 0.9821977 0.1199690 0.0178023 -0.1199690
2008 0.0164731 -0.1149738 0.9835269 0.1149738 0.9835269 0.1149738 0.0164731 -0.1149738
2100 0.0152465 -0.1101763 0.9847535 0.1101763 0.9847535 0.1101763 0.0152465 -0.1101763
2196 0.0141144 -0.1055698 0.9858856 0.1055698 0.9858856 0.1055698 0.0141144 -0.1055698
2297 0.0130691 -0.1011479 0.9869309 0.1011479 0.9869309 0.1011479 0.0130691 -0.1011479
2402 0.0121037 -0.0969041 0.9878963 0.0969041 0.9878963 0.0969041 0.0121037 -0.0969041
2512 0.0112119 -0.0928320 0.9887881 0.0928320 0.9887881 0.0928320 0.0112119 -0.0928320
2627 0.0103877 -0.0889251 0.9896123 0.0889251 0.9896123 0.0889251 0.0103877 -0.0889251
2748 0.0096259 -0.0851775 0.9903741 0.0851775 0.9903741 0.0851775 0.0096259 -0.0851775
2873 0.0089215 -0.0815829 0.9910785 0.0815829 0.9910785 0.0815829 0.0089215 -0.0815829
3005 0.0082701 -0.0781356 0.9917299 0.0781356 0.9917299 0.0781356 0.0082701 -0.0781356
3143 0.0076676 -0.0748298 0.9923324 0.0748298 0.9923324 0.0748298 0.0076676 -0.0748298
3287 0.0071102 -0.0716601 0.9928898 0.0716601 0.9928898 0.0716601 0.0071102 -0.0716601
3437 0.0065945 -0.0686210 0.9934055 0.0686210 0.9934055 0.0686210 0.0065945 -0.0686210
3594 0.0061173 -0.0657075 0.9938827 0.0657075 0.9938827 0.0657075 0.0061173 -0.0657075
3759 0.0056758 -0.0629145 0.9943242 0.0629145 0.9943242 0.0629145 0.0056758 -0.0629145
3931 0.0052672 -0.0602373 0.9947328 0.0602373 0.9947328 0.0602373 0.0052672 -0.0602373
4111 0.0048892 -0.0576712 0.9951108 0.0576712 0.9951108 0.0576712 0.0048892 -0.0576712
4299 0.0045396 -0.0552118 0.9954604 0.0552118 0.9954604 0.0552118 0.0045396 -0.0552118
4496 0.0042162 -0.0528550 0.9957838 0.0528550 0.9957838 0.0528550 0.0042162 -0.0528550
4702 0.0039171 -0.0505965 0.9960829 0.0505965 0.9960829 0.0505965 0.0039171 -0.0505965
4918 0.0036405 -0.0484325 0.9963595 0.0484325 0.9963595 0.0484325 0.0036405 -0.0484325
5143 0.0033849 -0.0463591 0.9966151 0.0463591 0.9966151 0.0463591 0.0033849 -0.0463591
5378 0.0031486 -0.0443729 0.9968514 0.0443729 0.9968514 0.0443729 0.0031486 -0.0443729
5625 0.0029303 -0.0424702 0.9970697 0.0424702 0.9970697 0.0424702 0.0029303 -0.0424702
5882 0.0027287 -0.0406477 0.9972713 0.0406477 0.9972713 0.0406477 0.0027287 -0.0406477
6151 0.0025425 -0.0389023 0.9974575 0.0389023 0.9974575 0.0389023 0.0025425 -0.0389023
6433 0.0023705 -0.0372308 0.9976295 0.0372308 0.9976295 0.0372308 0.0023705 -0.0372308
6728 0.0022117 -0.0356301 0.9977883 0.0356301 0.9977883 0.0356301 0.0022117 -0.0356301
7036 0.0020651 -0.0340976 0.9979349 0.0340976 0.9979349 0.0340976 0.0020651 -0.0340976
7358 0.0019297 -0.0326303 0.9980703 0.0326303 0.9980703 0.0326303 0.0019297 -0.0326303
7695 0.0018048 -0.0312257 0.9981952 0.0312257 0.9981952 0.0312257 0.0018048 -0.0312257
8047 0.0016894 -0.0298811 0.9983106 0.0298811 0.9983106 0.0298811 0.0016894 -0.0298811
8416 0.0015828 -0.0285942 0.9984172 0.0285942 0.9984172 0.0285942 0.0015828 -0.0285942
8801 0.0014844 -0.0273625 0.9985156 0.0273625 0.9985156 0.0273625 0.0014844 -0.0273625
9204 0.0013934 -0.0261837 0.9986066 0.0261837 0.9986066 0.0261837 0.0013934 -0.0261837
9626 0.0013093 -0.0250557 0.9986907 0.0250557 0.9986907 0.0250557 0.0013093 -0.0250557
10066 0.0012315 -0.0239764 0.9987685 0.0239764 0.9987685 0.0239764 0.0012315 -0.0239764
10527 0.0011595 -0.0229436 0.9988405 0.0229436 0.9988405 0.0229436 0.0011595 -0.0229436
11009 0.0010927 -0.0219555 0.9989073 0.0219555 0.9989073 0.0219555 0.0010927 -0.0219555
11514 0.0010308 -0.0210101 0.9989692 0.0210101 0.9989692 0.0210101 0.0010308 -0.0210101
12041 0.0009732 -0.0201057 0.9990268 0.0201057 0.9990268 0.0201057 0.0009732 -0.0201057
12592 0.0009198 -0.0192404 0.9990802 0.0192404 0.9990802 0.0192404 0.0009198 -0.0192404
13169 0.0008700 -0.0184127 0.9991300 0.0184127 0.9991300 0.0184127 0.0008700 -0.0184127
13772 0.0008235 -0.0176208 0.9991765 0.0176208 0.9991765 0.0176208 0.0008235 -0.0176208
14402 0.0007802 -0.0168633 0.9992198 0.0168633 0.9992198 0.0168633 0.0007802 -0.0168633
15062 0.0007396 -0.0161386 0.9992604 0.0161386 0.9992604 0.0161386 0.0007396 -0.0161386
15752 0.0007016 -0.0154453 0.9992984 0.0154453 0.9992984 0.0154453 0.0007016 -0.0154453
16473 0.0006659 -0.0147821 0.9993341 0.0147821 0.9993341 0.0147821 0.0006659 -0.0147821
17227 0.0006324 -0.0141476 0.9993676 0.0141476 0.9993676 0.0141476 0.0006324 -0.0141476
18016 0.0006008 -0.0135405 0.9993992 0.0135405 0.9993992 0.0135405 0.0006008 -0.0135405
18841 0.0005710 -0.0129597 0.9994290 0.0129597 0.9994290 0.0129597 0.0005710 -0.0129597
19704 0.0005428 -0.0124039 0.9994572 0.0124039 0.9994572 0.0124039 0.0005428 -0.0124039
20606 0.0005162 -0.0118721 0.9994838 0.0118721 0.9994838 0.0118721 0.0005162 -0.0118721
21550 0.0004910 -0.0113633 0.9995090 0.0113633 0.9995090 0.0113633 0.0004910 -0.0113633
22537 0.0004670 -0.0108763 0.9995330 0.0108763 0.9995330 0.0108763 0.0004670 -0.0108763
23569 0.0004444 -0.0104102 0.9995556 0.0104102 0.9995556 0.0104102 0.0004444 -0.0104102
24648 0.0004228 -0.0099641 0.9995772 0.0099641 0.9995772 0.0099641 0.0004228 -0.0099641
25777 0.0004024 -0.0095371 0.9995976 0.0095371 0.9995976 0.0095371 0.0004024 -0.0095371
26957 0.0003829 -0.0091284 0.9996171 0.0091284 0.9996171 0.0091284 0.0003829 -0.0091284
28191 0.0003645 -0.0087372 0.9996355 0.0087372 0.9996355 0.0087372 0.0003645 -0.0087372
29482 0.0003469 -0.0083626 0.9996531 0.0083626 0.9996531 0.0083626 0.0003469 -0.0083626
30832 0.0003303 -0.0080040 0.9996697 0.0080040 0.9996697 0.0080040 0.0003303 -0.0080040
32244 0.0003145 -0.0076607 0.9996855 0.0076607 0.9996855 0.0076607 0.0003145 -0.0076607
33721 0.0002995 -0.0073320 0.9997005 0.0073320 0.9997005 0.0073320 0.0002995 -0.0073320
35265 0.0002853 -0.0070173 0.9997147 0.0070173 0.9997147 0.0070173 0.0002853 -0.0070173
36880 0.0002719 -0.0067160 0.9997281 0.0067160 0.9997281 0.0067160 0.0002719 -0.0067160
38569 0.0002592 -0.0064275 0.9997408 0.0064275 0.9997408 0.0064275 0.0002592 -0.0064275
40335 0.0002472 -0.0061513 0.9997528 0.0061513 0.9997528 0.0061513 0.0002472 -0.0061513
42182 0.0002359 -0.0058868 0.9997641 0.0058868 0.9997641 0.0058868 0.0002359 -0.0058868
44113 0.0002252 -0.0056336 0.9997748 0.0056336 0.9997748 0.0056336 0.0002252 -0.0056336
46134 0.0002152 -0.0053912 0.9997848 0.0053912 0.9997848 0.0053912 0.0002152 -0.0053912
48246 0.0002057 -0.0051591 0.9997943 0.0051591 0.9997943 0.0051591 0.0002057 -0.0051591
50455 0.0001968 -0.0049370 0.9998032 0.0049370 0.9998032 0.0049370 0.0001968 -0.0049370
52766 0.0001885 -0.0047243 0.9998115 0.0047243 0.9998115 0.0047243 0.0001885 -0.0047243
55182 0.0001806 -0.0045207 0.9998194 0.0045207 0.9998194 0.0045207 0.0001806 -0.0045207
57709 0.0001732 -0.0043259 0.9998268 0.0043259 0.9998268 0.0043259 0.0001732 -0.0043259
60352 0.0001663 -0.0041394 0.9998337 0.0041394 0.9998337 0.0041394 0.0001663 -0.0041394
63115 0.0001598 -0.0039609 0.9998402 0.0039609 0.9998402 0.0039609 0.0001598 -0.0039609
66005 0.0001537 -0.0037901 0.9998463 0.0037901 0.9998463 0.0037901 0.0001537 -0.0037901
69028 0.0001480 -0.0036267 0.9998520 0.0036267 0.9998520 0.0036267 0.0001480 -0.0036267
72189 0.0001427 -0.0034703 0.9998573 0.0034703 0.9998573 0.0034703 0.0001427 -0.0034703
75495 0.0001376 -0.0033206 0.9998624 0.0033206 0.9998624 0.0033206 0.0001376 -0.0033206
78952 0.0001328 -0.0031774 0.9998672 0.0031774 0.9998672 0.0031774 0.0001328 -0.0031774
82567 0.0001284 -0.0030404 0.9998716 0.0030404 0.9998716 0.0030404 0.0001284 -0.0030404
86348 0.0001241 -0.0029093 0.9998759 0.0029093 0.9998759 0.0029093 0.0001241 -0.0029093
90302 0.0001201 -0.0027839 0.9998799 0.0027839 0.9998799 0.0027839 0.0001201 -0.0027839
94437 0.0001163 -0.0026639 0.9998837 0.0026639 0.9998837 0.0026639 0.0001163 -0.0026639
98762 0.0001127 -0.0025491 0.9998873 0.0025491 0.9998873 0.0025491 0.0001127 -0.0025491
103284 0.0001093 -0.0024393 0.9998907 0.0024393 0.9998907 0.0024393 0.0001093 -0.0024393
108014 0.0001060 -0.0023343 0.9998940 0.0023343 0.9998940 0.0023343 0.0001060 -0.0023343
112960 0.0001029 -0.0022338 0.9998971 0.0022338 0.9998971 0.0022338 0.0001029 -0.0022338
118133 0.0000999 -0.0021376 0.9999001 0.0021376 0.9999001 0.0021376 0.0000999 -0.0021376
123542 0.0000970 -0.0020456 0.9999030 0.0020456 0.9999030 0.0020456 0.0000970 -0.0020456
129199 0.0000942 -0.0019576 0.9999058 0.0019576 0.9999058 0.0019576 0.0000942 -0.0019576
135116 0.0000915 -0.0018734 0.9999085 0.0018734 0.9999085 0.0018734 0.0000915 -0.0018734
141303 0.0000889 -0.0017928 0.9999111 0.0017928 0.9999111 0.0017928 0.0000889 -0.0017928
147774 0.0000863 -0.0017156 0.9999137 0.0017156 0.9999137 0.0017156 0.0000863 -0.0017156
154540 0.0000839 -0.0016418 0.9999161 0.0016418 0.9999161 0.0016418 0.0000839 -0.0016418
161617 0.0000814 -0.0015711 0.9999186 0.0015711 0.9999186 0.0015711 0.0000814 -0.0015711
169018 0.0000791 -0.0015035 0.9999209 0.0015035 0.9999209 0.0015035 0.0000791 -0.0015035
176758 0.0000768 -0.0014387 0.9999232 0.0014387 0.9999232 0.0014387 0.0000768 -0.0014387
184852 0.0000746 -0.0013766 0.9999254 0.0013766 0.9999254 0.0013766 0.0000746 -0.0013766
193316 0.0000724 -0.0013172 0.9999276 0.0013172 0.9999276 0.0013172 0.0000724 -0.0013172
202169 0.0000703 -0.0012603 0.9999297 0.0012603 0.9999297 0.0012603 0.0000703 -0.0012603
211427 0.0000682 -0.0012058 0.9999318 0.0012058 0.9999318 0.0012058 0.0000682 -0.0012058
221108 0.0000662 -0.0011536 0.9999338 0.0011536 0.9999338 0.0011536 0.0000662 -0.0011536
231233 0.0000642 -0.0011035 0.9999358 0.0011035 0.9999358 0.0011035 0.0000642 -0.0011035
241822 0.0000623 -0.0010555 0.9999377 0.0010555 0.9999377 0.0010555 0.0000623 -0.0010555
252896 0.0000605 -0.0010095 0.9999395 0.0010095 0.9999395 0.0010095 0.0000605 -0.0010095
264476 0.0000587 -0.0009654 0.9999413 0.0009654 0.9999413 0.0009654 0.0000587 -0.0009654
276587 0.0000570 -0.0009231 0.9999430 0.0009231 0.9999430 0.0009231 0.0000570 -0.0009231
289253 0.0000554 -0.0008826 0.9999446 0.0008826 0.9999446 0.0008826 0.0000554 -0.0008826
302498 0.0000538 -0.0008437 0.9999462 0.0008437 0.9999462 0.0008437 0.0000538 -0.0008437
316350 0.0000523 -0.0008063 0.9999477 0.0008063 0.9999477 0.0008063 0.0000523 -0.0008063
330837 0.0000508 -0.0007705 0.9999492 0.0007705 0.9999492 0.0007705 0.0000508 -0.0007705
345986 0.0000494 -0.0007362 0.9999506 0.0007362 0.9999506 0.0007362 0.0000494 -0.0007362
361830 0.0000481 -0.0007032 0.9999519 0.0007032 0.9999519 0.0007032 0.0000481 -0.0007032
378399 0.0000469 -0.0006715 0.9999531 0.0006715 0.9999531 0.0006715 0.0000469 -0.0006715
395726 0.0000457 -0.0006411 0.9999543 0.0006411 0.9999543 0.0006411 0.0000457 -0.0006411
413847 0.0000446 -0.0006119 0.9999554 0.0006119 0.9999554 0.0006119 0.0000446 -0.0006119
432798 0.0000436 -0.0005839 0.9999564 0.0005839 0.9999564 0.0005839 0.0000436 -0.0005839
452617 0.0000426 -0.0005570 0.9999574 0.0005570 0.9999574 0.0005570 0.0000426 -0.0005570
473344 0.0000417 -0.0005311 0.9999583 0.0005311 0.9999583 0.0005311 0.0000417 -0.0005311
495019 0.0000409 -0.0005063 0.9999591 0.0005063 0.9999591 0.0005063 0.0000409 -0.0005063
517687 0.0000401 -0.0004824 0.9999599 0.0004824 0.9999599 0.0004824 0.0000401 -0.0004824
541393 0.0000394 -0.0004595 0.9999606 0.0004595 0.9999606 0.0004595 0.0000394 -0.0004595
566185 0.0000387 -0.0004374 0.9999613 0.0004374 0.9999613 0.0004374 0.0000387 -0.0004374
592111 0.0000381 -0.0004161 0.9999619 0.0004161 0.9999619 0.0004161 0.0000381 -0.0004161
619225 0.0000376 -0.0003957 0.9999624 0.0003957 0.9999624 0.0003957 0.0000376 -0.0003957
647581 0.0000371 -0.0003760 0.9999629 0.0003760 0.9999629 0.0003760 0.0000371 -0.0003760
677235 0.0000366 -0.0003571 0.9999634 0.0003571 0.9999634 0.0003571 0.0000366 -0.0003571
708247 0.0000363 -0.0003388 0.9999637 0.0003388 0.9999637 0.0003388 0.0000363 -0.0003388
740679 0.0000359 -0.0003212 0.9999641 0.0003212 0.9999641 0.0003212 0.0000359 -0.0003212
774597 0.0000356 -0.0003042 0.9999644 0.0003042 0.9999644 0.0003042 0.0000356 -0.0003042
810067 0.0000354 -0.0002878 0.9999646 0.0002878 0.9999646 0.0002878 0.0000354 -0.0002878
847162 0.0000352 -0.0002720 0.9999648 0.0002720 0.9999648 0.0002720 0.0000352 -0.0002720
885955 0.0000350 -0.0002567 0.9999650 0.0002567 0.9999650 0.0002567 0.0000350 -0.0002567
926525 0.0000349 -0.0002420 0.9999651 0.0002420 0.9999651 0.0002420 0.0000349 -0.0002420
968953 0.0000348 -0.0002276 0.9999652 0.0002276 0.9999652 0.0002276 0.0000348 -0.0002276
1013323 0.0000348 -0.0002138 0.9999652 0.0002138 0.9999652 0.0002138 0.0000348 -0.0002138
1059725 0.0000348 -0.0002003 0.9999652 0.0002003 0.9999652 0.0002003 0.0000348 -0.0002003
1108252 0.0000348 -0.0001873 0.9999652 0.0001873 0.9999652 0.0001873 0.0000348 -0.0001873
1159002 0.0000349 -0.0001746 0.9999651 0.0001746 0.9999651 0.0001746 0.0000349 -0.0001746
1212075 0.0000351 -0.0001623 0.9999649 0.0001623 0.9999649 0.0001623 0.0000351 -0.0001623
1267578 0.0000353 -0.0001502 0.9999647 0.0001502 0.9999647 0.0001502 0.0000353 -0.0001502
1325623 0.0000356 -0.0001385 0.9999644 0.0001385 0.9999644 0.0001385 0.0000356 -0.0001385
1386327 0.0000359 -0.0001271 0.9999641 0.0001271 0.9999641 0.0001271 0.0000359 -0.0001271
1449809 0.0000362 -0.0001159 0.9999638 0.0001159 0.9999638 0.0001159 0.0000362 -0.0001159
1516199 0.0000366 -0.0001049 0.9999634 0.0001049 0.9999634 0.0001049 0.0000366 -0.0001049
1585629 0.0000371 -0.0000941 0.9999629 0.0000941 0.9999629 0.0000941 0.0000371 -0.0000941
1658239 0.0000377 -0.0000835 0.9999623 0.0000835 0.9999623 0.0000835 0.0000377 -0.0000835
1734173 0.0000383 -0.0000731 0.9999617 0.0000731 0.9999617 0.0000731 0.0000383 -0.0000731
1813585 0.0000390 -0.0000628 0.9999610 0.0000628 0.9999610 0.0000628 0.0000390 -0.0000628
1896632 0.0000398 -0.0000526 0.9999602 0.0000526 0.9999602 0.0000526 0.0000398 -0.0000526
1983483 0.0000407 -0.0000426 0.9999593 0.0000426 0.9999593 0.0000426 0.0000407 -0.0000426
2074311 0.0000417 -0.0000325 0.9999583 0.0000325 0.9999583 0.0000325 0.0000417 -0.0000325
