!Murata Part Number: GRM216R71H223KA01
!These Parameters are Measured in Series Mode Connection
!Data Generated on Mar 30, 2021
!       o--ll--o
!Port1            Port2
!       o------o
!Operation Temp=25[degC], DC Bias Voltage=0[V]
!Freq. Start=100[Hz] Stop=6[GHz] 401[Steps]
# Hz S RI R 50
!Freq.(Hz) S11(Real) S11(Imag) S21(Real) S21(Imag) S12(Real) S12(Imag) S22(Real) S22(Imag)
100 0.9999925 -0.0013658 0.0000075 0.0013658 0.0000075 0.0013658 0.9999925 -0.0013658
105 0.9999920 -0.0014281 0.0000080 0.0014281 0.0000080 0.0014281 0.9999920 -0.0014281
109 0.9999916 -0.0014934 0.0000084 0.0014934 0.0000084 0.0014934 0.9999916 -0.0014934
114 0.9999911 -0.0015616 0.0000089 0.0015616 0.0000089 0.0015616 0.9999911 -0.0015616
120 0.9999906 -0.0016329 0.0000094 0.0016329 0.0000094 0.0016329 0.9999906 -0.0016329
125 0.9999901 -0.0017075 0.0000099 0.0017075 0.0000099 0.0017075 0.9999901 -0.0017075
131 0.9999895 -0.0017855 0.0000105 0.0017855 0.0000105 0.0017855 0.9999895 -0.0017855
137 0.9999889 -0.0018671 0.0000111 0.0018671 0.0000111 0.0018671 0.9999889 -0.0018671
143 0.9999882 -0.0019523 0.0000118 0.0019523 0.0000118 0.0019523 0.9999882 -0.0019523
150 0.9999875 -0.0020415 0.0000125 0.0020415 0.0000125 0.0020415 0.9999875 -0.0020415
156 0.9999867 -0.0021348 0.0000133 0.0021348 0.0000133 0.0021348 0.9999867 -0.0021348
164 0.9999858 -0.0022323 0.0000142 0.0022323 0.0000142 0.0022323 0.9999858 -0.0022323
171 0.9999849 -0.0023342 0.0000151 0.0023342 0.0000151 0.0023342 0.9999849 -0.0023342
179 0.9999840 -0.0024408 0.0000160 0.0024408 0.0000160 0.0024408 0.9999840 -0.0024408
187 0.9999829 -0.0025523 0.0000171 0.0025523 0.0000171 0.0025523 0.9999829 -0.0025523
196 0.9999818 -0.0026689 0.0000182 0.0026689 0.0000182 0.0026689 0.9999818 -0.0026689
205 0.9999806 -0.0027907 0.0000194 0.0027907 0.0000194 0.0027907 0.9999806 -0.0027907
214 0.9999794 -0.0029182 0.0000206 0.0029182 0.0000206 0.0029182 0.9999794 -0.0029182
224 0.9999780 -0.0030514 0.0000220 0.0030514 0.0000220 0.0030514 0.9999780 -0.0030514
234 0.9999765 -0.0031908 0.0000235 0.0031908 0.0000235 0.0031908 0.9999765 -0.0031908
245 0.9999749 -0.0033365 0.0000251 0.0033365 0.0000251 0.0033365 0.9999749 -0.0033365
256 0.9999732 -0.0034888 0.0000268 0.0034888 0.0000268 0.0034888 0.9999732 -0.0034888
268 0.9999714 -0.0036481 0.0000286 0.0036481 0.0000286 0.0036481 0.9999714 -0.0036481
280 0.9999695 -0.0038147 0.0000305 0.0038147 0.0000305 0.0038147 0.9999695 -0.0038147
293 0.9999674 -0.0039888 0.0000326 0.0039888 0.0000326 0.0039888 0.9999674 -0.0039888
306 0.9999652 -0.0041710 0.0000348 0.0041710 0.0000348 0.0041710 0.9999652 -0.0041710
320 0.9999628 -0.0043614 0.0000372 0.0043614 0.0000372 0.0043614 0.9999628 -0.0043614
335 0.9999602 -0.0045605 0.0000398 0.0045605 0.0000398 0.0045605 0.9999602 -0.0045605
350 0.9999574 -0.0047688 0.0000426 0.0047688 0.0000426 0.0047688 0.9999574 -0.0047688
366 0.9999544 -0.0049865 0.0000456 0.0049865 0.0000456 0.0049865 0.9999544 -0.0049865
383 0.9999512 -0.0052142 0.0000488 0.0052142 0.0000488 0.0052142 0.9999512 -0.0052142
401 0.9999477 -0.0054523 0.0000523 0.0054523 0.0000523 0.0054523 0.9999477 -0.0054523
419 0.9999439 -0.0057013 0.0000561 0.0057013 0.0000561 0.0057013 0.9999439 -0.0057013
438 0.9999399 -0.0059616 0.0000601 0.0059616 0.0000601 0.0059616 0.9999399 -0.0059616
458 0.9999355 -0.0062339 0.0000645 0.0062339 0.0000645 0.0062339 0.9999355 -0.0062339
479 0.9999307 -0.0065186 0.0000693 0.0065186 0.0000693 0.0065186 0.9999307 -0.0065186
501 0.9999256 -0.0068163 0.0000744 0.0068163 0.0000744 0.0068163 0.9999256 -0.0068163
524 0.9999200 -0.0071276 0.0000800 0.0071276 0.0000800 0.0071276 0.9999200 -0.0071276
548 0.9999140 -0.0074531 0.0000860 0.0074531 0.0000860 0.0074531 0.9999140 -0.0074531
573 0.9999075 -0.0077935 0.0000925 0.0077935 0.0000925 0.0077935 0.9999075 -0.0077935
600 0.9999004 -0.0081495 0.0000996 0.0081495 0.0000996 0.0081495 0.9999004 -0.0081495
627 0.9998926 -0.0085217 0.0001074 0.0085217 0.0001074 0.0085217 0.9998926 -0.0085217
656 0.9998843 -0.0089110 0.0001157 0.0089110 0.0001157 0.0089110 0.9998843 -0.0089110
686 0.9998751 -0.0093180 0.0001249 0.0093180 0.0001249 0.0093180 0.9998751 -0.0093180
717 0.9998652 -0.0097436 0.0001348 0.0097436 0.0001348 0.0097436 0.9998652 -0.0097436
750 0.9998545 -0.0101886 0.0001455 0.0101886 0.0001455 0.0101886 0.9998545 -0.0101886
784 0.9998427 -0.0106540 0.0001573 0.0106540 0.0001573 0.0106540 0.9998427 -0.0106540
820 0.9998300 -0.0111406 0.0001700 0.0111406 0.0001700 0.0111406 0.9998300 -0.0111406
858 0.9998161 -0.0116493 0.0001839 0.0116493 0.0001839 0.0116493 0.9998161 -0.0116493
897 0.9998010 -0.0121813 0.0001990 0.0121813 0.0001990 0.0121813 0.9998010 -0.0121813
938 0.9997845 -0.0127376 0.0002155 0.0127376 0.0002155 0.0127376 0.9997845 -0.0127376
981 0.9997666 -0.0133192 0.0002334 0.0133192 0.0002334 0.0133192 0.9997666 -0.0133192
1026 0.9997471 -0.0139273 0.0002529 0.0139273 0.0002529 0.0139273 0.9997471 -0.0139273
1073 0.9997259 -0.0145631 0.0002741 0.0145631 0.0002741 0.0145631 0.9997259 -0.0145631
1122 0.9997028 -0.0152278 0.0002972 0.0152278 0.0002972 0.0152278 0.9997028 -0.0152278
1174 0.9996777 -0.0159228 0.0003223 0.0159228 0.0003223 0.0159228 0.9996777 -0.0159228
1227 0.9996504 -0.0166495 0.0003496 0.0166495 0.0003496 0.0166495 0.9996504 -0.0166495
1283 0.9996206 -0.0174092 0.0003794 0.0174092 0.0003794 0.0174092 0.9996206 -0.0174092
1342 0.9995882 -0.0182034 0.0004118 0.0182034 0.0004118 0.0182034 0.9995882 -0.0182034
1404 0.9995530 -0.0190338 0.0004470 0.0190338 0.0004470 0.0190338 0.9995530 -0.0190338
1468 0.9995147 -0.0199020 0.0004853 0.0199020 0.0004853 0.0199020 0.9995147 -0.0199020
1535 0.9994730 -0.0208095 0.0005270 0.0208095 0.0005270 0.0208095 0.9994730 -0.0208095
1606 0.9994276 -0.0217584 0.0005724 0.0217584 0.0005724 0.0217584 0.9994276 -0.0217584
1679 0.9993783 -0.0227503 0.0006217 0.0227503 0.0006217 0.0227503 0.9993783 -0.0227503
1756 0.9993246 -0.0237872 0.0006754 0.0237872 0.0006754 0.0237872 0.9993246 -0.0237872
1836 0.9992662 -0.0248713 0.0007338 0.0248713 0.0007338 0.0248713 0.9992662 -0.0248713
1920 0.9992027 -0.0260045 0.0007973 0.0260045 0.0007973 0.0260045 0.9992027 -0.0260045
2008 0.9991335 -0.0271892 0.0008665 0.0271892 0.0008665 0.0271892 0.9991335 -0.0271892
2100 0.9990583 -0.0284277 0.0009417 0.0284277 0.0009417 0.0284277 0.9990583 -0.0284277
2196 0.9989765 -0.0297223 0.0010235 0.0297223 0.0010235 0.0297223 0.9989765 -0.0297223
2297 0.9988874 -0.0310756 0.0011126 0.0310756 0.0011126 0.0310756 0.9988874 -0.0310756
2402 0.9987904 -0.0324903 0.0012096 0.0324903 0.0012096 0.0324903 0.9987904 -0.0324903
2512 0.9986849 -0.0339692 0.0013151 0.0339692 0.0013151 0.0339692 0.9986849 -0.0339692
2627 0.9985699 -0.0355150 0.0014301 0.0355150 0.0014301 0.0355150 0.9985699 -0.0355150
2748 0.9984447 -0.0371308 0.0015553 0.0371308 0.0015553 0.0371308 0.9984447 -0.0371308
2873 0.9983083 -0.0388198 0.0016917 0.0388198 0.0016917 0.0388198 0.9983083 -0.0388198
3005 0.9981597 -0.0405851 0.0018403 0.0405851 0.0018403 0.0405851 0.9981597 -0.0405851
3143 0.9979977 -0.0424303 0.0020023 0.0424303 0.0020023 0.0424303 0.9979977 -0.0424303
3287 0.9978212 -0.0443588 0.0021788 0.0443588 0.0021788 0.0443588 0.9978212 -0.0443588
3437 0.9976287 -0.0463743 0.0023713 0.0463743 0.0023713 0.0463743 0.9976287 -0.0463743
3594 0.9974188 -0.0484807 0.0025812 0.0484807 0.0025812 0.0484807 0.9974188 -0.0484807
3759 0.9971899 -0.0506820 0.0028101 0.0506820 0.0028101 0.0506820 0.9971899 -0.0506820
3931 0.9969402 -0.0529822 0.0030598 0.0529822 0.0030598 0.0529822 0.9969402 -0.0529822
4111 0.9966678 -0.0553857 0.0033322 0.0553857 0.0033322 0.0553857 0.9966678 -0.0553857
4299 0.9963706 -0.0578970 0.0036294 0.0578970 0.0036294 0.0578970 0.9963706 -0.0578970
4496 0.9960462 -0.0605207 0.0039538 0.0605207 0.0039538 0.0605207 0.9960462 -0.0605207
4702 0.9956923 -0.0632614 0.0043077 0.0632614 0.0043077 0.0632614 0.9956923 -0.0632614
4918 0.9953060 -0.0661243 0.0046940 0.0661243 0.0046940 0.0661243 0.9953060 -0.0661243
5143 0.9948845 -0.0691144 0.0051155 0.0691144 0.0051155 0.0691144 0.9948845 -0.0691144
5378 0.9944243 -0.0722370 0.0055757 0.0722370 0.0055757 0.0722370 0.9944243 -0.0722370
5625 0.9939222 -0.0754976 0.0060778 0.0754976 0.0060778 0.0754976 0.9939222 -0.0754976
5882 0.9933741 -0.0789017 0.0066259 0.0789017 0.0066259 0.0789017 0.9933741 -0.0789017
6151 0.9927759 -0.0824551 0.0072241 0.0824551 0.0072241 0.0824551 0.9927759 -0.0824551
6433 0.9921231 -0.0861637 0.0078769 0.0861637 0.0078769 0.0861637 0.9921231 -0.0861637
6728 0.9914108 -0.0900337 0.0085892 0.0900337 0.0085892 0.0900337 0.9914108 -0.0900337
7036 0.9906336 -0.0940710 0.0093664 0.0940710 0.0093664 0.0940710 0.9906336 -0.0940710
7358 0.9897857 -0.0982822 0.0102143 0.0982822 0.0102143 0.0982822 0.9897857 -0.0982822
7695 0.9888609 -0.1026736 0.0111391 0.1026736 0.0111391 0.1026736 0.9888609 -0.1026736
8047 0.9878522 -0.1072517 0.0121478 0.1072517 0.0121478 0.1072517 0.9878522 -0.1072517
8416 0.9867523 -0.1120231 0.0132477 0.1120231 0.0132477 0.1120231 0.9867523 -0.1120231
8801 0.9855532 -0.1169943 0.0144468 0.1169943 0.0144468 0.1169943 0.9855532 -0.1169943
9204 0.9842462 -0.1221721 0.0157538 0.1221721 0.0157538 0.1221721 0.9842462 -0.1221721
9626 0.9828221 -0.1275629 0.0171779 0.1275629 0.0171779 0.1275629 0.9828221 -0.1275629
10066 0.9812706 -0.1331734 0.0187294 0.1331734 0.0187294 0.1331734 0.9812706 -0.1331734
10527 0.9795811 -0.1390098 0.0204189 0.1390098 0.0204189 0.1390098 0.9795811 -0.1390098
11009 0.9777416 -0.1450785 0.0222584 0.1450785 0.0222584 0.1450785 0.9777416 -0.1450785
11514 0.9757398 -0.1513854 0.0242602 0.1513854 0.0242602 0.1513854 0.9757398 -0.1513854
12041 0.9735620 -0.1579362 0.0264380 0.1579362 0.0264380 0.1579362 0.9735620 -0.1579362
12592 0.9711939 -0.1647361 0.0288061 0.1647361 0.0288061 0.1647361 0.9711939 -0.1647361
13169 0.9686198 -0.1717901 0.0313802 0.1717901 0.0313802 0.1717901 0.9686198 -0.1717901
13772 0.9658232 -0.1791024 0.0341768 0.1791024 0.0341768 0.1791024 0.9658232 -0.1791024
14402 0.9627865 -0.1866764 0.0372135 0.1866764 0.0372135 0.1866764 0.9627865 -0.1866764
15062 0.9594908 -0.1945149 0.0405092 0.1945149 0.0405092 0.1945149 0.9594908 -0.1945149
15752 0.9559162 -0.2026195 0.0440838 0.2026195 0.0440838 0.2026195 0.9559162 -0.2026195
16473 0.9520416 -0.2109910 0.0479584 0.2109910 0.0479584 0.2109910 0.9520416 -0.2109910
17227 0.9478448 -0.2196286 0.0521552 0.2196286 0.0521552 0.2196286 0.9478448 -0.2196286
18016 0.9433021 -0.2285301 0.0566979 0.2285301 0.0566979 0.2285301 0.9433021 -0.2285301
18841 0.9383892 -0.2376917 0.0616108 0.2376917 0.0616108 0.2376917 0.9383892 -0.2376917
19704 0.9330803 -0.2471077 0.0669197 0.2471077 0.0669197 0.2471077 0.9330803 -0.2471077
20606 0.9273488 -0.2567700 0.0726512 0.2567700 0.0726512 0.2567700 0.9273488 -0.2567700
21550 0.9211672 -0.2666686 0.0788328 0.2666686 0.0788328 0.2666686 0.9211672 -0.2666686
22537 0.9145073 -0.2767904 0.0854927 0.2767904 0.0854927 0.2767904 0.9145073 -0.2767904
23569 0.9073403 -0.2871198 0.0926597 0.2871198 0.0926597 0.2871198 0.9073403 -0.2871198
24648 0.8996372 -0.2976378 0.1003628 0.2976378 0.1003628 0.2976378 0.8996372 -0.2976378
25777 0.8913688 -0.3083224 0.1086312 0.3083224 0.1086312 0.3083224 0.8913688 -0.3083224
26957 0.8825064 -0.3191475 0.1174936 0.3191475 0.1174936 0.3191475 0.8825064 -0.3191475
28191 0.8730217 -0.3300837 0.1269783 0.3300837 0.1269783 0.3300837 0.8730217 -0.3300837
29482 0.8628879 -0.3410972 0.1371121 0.3410972 0.1371121 0.3410972 0.8628879 -0.3410972
30832 0.8520795 -0.3521505 0.1479205 0.3521505 0.1479205 0.3521505 0.8520795 -0.3521505
32244 0.8405734 -0.3632016 0.1594266 0.3632016 0.1594266 0.3632016 0.8405734 -0.3632016
33721 0.8283491 -0.3742045 0.1716509 0.3742045 0.1716509 0.3742045 0.8283491 -0.3742045
35265 0.8153896 -0.3851090 0.1846104 0.3851090 0.1846104 0.3851090 0.8153896 -0.3851090
36880 0.8016818 -0.3958611 0.1983182 0.3958611 0.1983182 0.3958611 0.8016818 -0.3958611
38569 0.7872177 -0.4064032 0.2127823 0.4064032 0.2127823 0.4064032 0.7872177 -0.4064032
40335 0.7719944 -0.4166744 0.2280056 0.4166744 0.2280056 0.4166744 0.7719944 -0.4166744
42182 0.7560151 -0.4266111 0.2439849 0.4266111 0.2439849 0.4266111 0.7560151 -0.4266111
44113 0.7392898 -0.4361478 0.2607102 0.4361478 0.2607102 0.4361478 0.7392898 -0.4361478
46134 0.7218356 -0.4452176 0.2781644 0.4452176 0.2781644 0.4452176 0.7218356 -0.4452176
48246 0.7036772 -0.4537536 0.2963228 0.4537536 0.2963228 0.4537536 0.7036772 -0.4537536
50455 0.6848473 -0.4616892 0.3151527 0.4616892 0.3151527 0.4616892 0.6848473 -0.4616892
52766 0.6653866 -0.4689598 0.3346134 0.4689598 0.3346134 0.4689598 0.6653866 -0.4689598
55182 0.6453437 -0.4755038 0.3546563 0.4755038 0.3546563 0.4755038 0.6453437 -0.4755038
57709 0.6247751 -0.4812634 0.3752249 0.4812634 0.3752249 0.4812634 0.6247751 -0.4812634
60352 0.6037445 -0.4861865 0.3962555 0.4861865 0.3962555 0.4861865 0.6037445 -0.4861865
63115 0.5823225 -0.4902270 0.4176775 0.4902270 0.4176775 0.4902270 0.5823225 -0.4902270
66005 0.5605852 -0.4933465 0.4394148 0.4933465 0.4394148 0.4933465 0.5605852 -0.4933465
69028 0.5386139 -0.4955147 0.4613861 0.4955147 0.4613861 0.4955147 0.5386139 -0.4955147
72189 0.5164932 -0.4967104 0.4835068 0.4967104 0.4835068 0.4967104 0.5164932 -0.4967104
75495 0.4943104 -0.4969218 0.5056896 0.4969218 0.5056896 0.4969218 0.4943104 -0.4969218
78952 0.4721535 -0.4961469 0.5278465 0.4961469 0.5278465 0.4961469 0.4721535 -0.4961469
82567 0.4501102 -0.4943937 0.5498898 0.4943937 0.5498898 0.4943937 0.4501102 -0.4943937
86348 0.4282663 -0.4916796 0.5717337 0.4916796 0.5717337 0.4916796 0.4282663 -0.4916796
90302 0.4067045 -0.4880314 0.5932955 0.4880314 0.5932955 0.4880314 0.4067045 -0.4880314
94437 0.3855032 -0.4834844 0.6144968 0.4834844 0.6144968 0.4834844 0.3855032 -0.4834844
98762 0.3647351 -0.4780817 0.6352649 0.4780817 0.6352649 0.4780817 0.3647351 -0.4780817
103284 0.3444667 -0.4718730 0.6555333 0.4718730 0.6555333 0.4718730 0.3444667 -0.4718730
108014 0.3247575 -0.4649140 0.6752425 0.4649140 0.6752425 0.4649140 0.3247575 -0.4649140
112960 0.3056591 -0.4572649 0.6943409 0.4572649 0.6943409 0.4572649 0.3056591 -0.4572649
118133 0.2872154 -0.4489890 0.7127846 0.4489890 0.7127846 0.4489890 0.2872154 -0.4489890
123542 0.2694623 -0.4401523 0.7305377 0.4401523 0.7305377 0.4401523 0.2694623 -0.4401523
129199 0.2524275 -0.4308214 0.7475725 0.4308214 0.7475725 0.4308214 0.2524275 -0.4308214
135116 0.2361311 -0.4210634 0.7638689 0.4210634 0.7638689 0.4210634 0.2361311 -0.4210634
141303 0.2205859 -0.4109442 0.7794141 0.4109442 0.7794141 0.4109442 0.2205859 -0.4109442
147774 0.2057979 -0.4005282 0.7942021 0.4005282 0.7942021 0.4005282 0.2057979 -0.4005282
154540 0.1917665 -0.3898771 0.8082335 0.3898771 0.8082335 0.3898771 0.1917665 -0.3898771
161617 0.1784857 -0.3790500 0.8215143 0.3790500 0.8215143 0.3790500 0.1784857 -0.3790500
169018 0.1659445 -0.3681021 0.8340555 0.3681021 0.8340555 0.3681021 0.1659445 -0.3681021
176758 0.1541274 -0.3570850 0.8458726 0.3570850 0.8458726 0.3570850 0.1541274 -0.3570850
184852 0.1430156 -0.3460465 0.8569844 0.3460465 0.8569844 0.3460465 0.1430156 -0.3460465
193316 0.1325868 -0.3350298 0.8674132 0.3350298 0.8674132 0.3350298 0.1325868 -0.3350298
202169 0.1228167 -0.3240744 0.8771833 0.3240744 0.8771833 0.3240744 0.1228167 -0.3240744
211427 0.1136791 -0.3132154 0.8863209 0.3132154 0.8863209 0.3132154 0.1136791 -0.3132154
221108 0.1051463 -0.3024840 0.8948537 0.3024840 0.8948537 0.3024840 0.1051463 -0.3024840
231233 0.0971900 -0.2919075 0.9028100 0.2919075 0.9028100 0.2919075 0.0971900 -0.2919075
241822 0.0897813 -0.2815095 0.9102187 0.2815095 0.9102187 0.2815095 0.0897813 -0.2815095
252896 0.0828912 -0.2713103 0.9171088 0.2713103 0.9171088 0.2713103 0.0828912 -0.2713103
264476 0.0764910 -0.2613268 0.9235090 0.2613268 0.9235090 0.2613268 0.0764910 -0.2613268
276587 0.0705522 -0.2515733 0.9294478 0.2515733 0.9294478 0.2515733 0.0705522 -0.2515733
289253 0.0650473 -0.2420609 0.9349527 0.2420609 0.9349527 0.2420609 0.0650473 -0.2420609
302498 0.0599493 -0.2327986 0.9400507 0.2327986 0.9400507 0.2327986 0.0599493 -0.2327986
316350 0.0552322 -0.2237932 0.9447678 0.2237932 0.9447678 0.2237932 0.0552322 -0.2237932
330837 0.0508711 -0.2150492 0.9491289 0.2150492 0.9491289 0.2150492 0.0508711 -0.2150492
345986 0.0468422 -0.2065696 0.9531578 0.2065696 0.9531578 0.2065696 0.0468422 -0.2065696
361830 0.0431227 -0.1983558 0.9568773 0.1983558 0.9568773 0.1983558 0.0431227 -0.1983558
378399 0.0396911 -0.1904078 0.9603089 0.1904078 0.9603089 0.1904078 0.0396911 -0.1904078
395726 0.0365269 -0.1827244 0.9634731 0.1827244 0.9634731 0.1827244 0.0365269 -0.1827244
413847 0.0336110 -0.1753033 0.9663890 0.1753033 0.9663890 0.1753033 0.0336110 -0.1753033
432798 0.0309251 -0.1681413 0.9690749 0.1681413 0.9690749 0.1681413 0.0309251 -0.1681413
452617 0.0284523 -0.1612347 0.9715477 0.1612347 0.9715477 0.1612347 0.0284523 -0.1612347
473344 0.0261766 -0.1545788 0.9738234 0.1545788 0.9738234 0.1545788 0.0261766 -0.1545788
495019 0.0240831 -0.1481686 0.9759169 0.1481686 0.9759169 0.1481686 0.0240831 -0.1481686
517687 0.0221578 -0.1419987 0.9778422 0.1419987 0.9778422 0.1419987 0.0221578 -0.1419987
541393 0.0203878 -0.1360630 0.9796122 0.1360630 0.9796122 0.1360630 0.0203878 -0.1360630
566185 0.0187610 -0.1303557 0.9812390 0.1303557 0.9812390 0.1303557 0.0187610 -0.1303557
592111 0.0172662 -0.1248702 0.9827338 0.1248702 0.9827338 0.1248702 0.0172662 -0.1248702
619225 0.0158930 -0.1196002 0.9841070 0.1196002 0.9841070 0.1196002 0.0158930 -0.1196002
647581 0.0146316 -0.1145390 0.9853684 0.1145390 0.9853684 0.1145390 0.0146316 -0.1145390
677235 0.0134732 -0.1096801 0.9865268 0.1096801 0.9865268 0.1096801 0.0134732 -0.1096801
708247 0.0124096 -0.1050169 0.9875904 0.1050169 0.9875904 0.1050169 0.0124096 -0.1050169
740679 0.0114330 -0.1005427 0.9885670 0.1005427 0.9885670 0.1005427 0.0114330 -0.1005427
774597 0.0105364 -0.0962510 0.9894636 0.0962510 0.9894636 0.0962510 0.0105364 -0.0962510
810067 0.0097133 -0.0921354 0.9902867 0.0921354 0.9902867 0.0921354 0.0097133 -0.0921354
847162 0.0089578 -0.0881895 0.9910422 0.0881895 0.9910422 0.0881895 0.0089578 -0.0881895
885955 0.0082644 -0.0844070 0.9917356 0.0844070 0.9917356 0.0844070 0.0082644 -0.0844070
926525 0.0076279 -0.0807818 0.9923721 0.0807818 0.9923721 0.0807818 0.0076279 -0.0807818
968953 0.0070436 -0.0773079 0.9929564 0.0773079 0.9929564 0.0773079 0.0070436 -0.0773079
1013323 0.0065074 -0.0739796 0.9934926 0.0739796 0.9934926 0.0739796 0.0065074 -0.0739796
1059725 0.0060152 -0.0707912 0.9939848 0.0707912 0.9939848 0.0707912 0.0060152 -0.0707912
1108252 0.0055635 -0.0677372 0.9944365 0.0677372 0.9944365 0.0677372 0.0055635 -0.0677372
1159002 0.0051489 -0.0648122 0.9948511 0.0648122 0.9948511 0.0648122 0.0051489 -0.0648122
1212075 0.0047683 -0.0620112 0.9952317 0.0620112 0.9952317 0.0620112 0.0047683 -0.0620112
1267578 0.0044190 -0.0593291 0.9955810 0.0593291 0.9955810 0.0593291 0.0044190 -0.0593291
1325623 0.0040984 -0.0567610 0.9959016 0.0567610 0.9959016 0.0567610 0.0040984 -0.0567610
1386327 0.0038041 -0.0543024 0.9961959 0.0543024 0.9961959 0.0543024 0.0038041 -0.0543024
1449809 0.0035339 -0.0519488 0.9964661 0.0519488 0.9964661 0.0519488 0.0035339 -0.0519488
1516199 0.0032859 -0.0496959 0.9967141 0.0496959 0.9967141 0.0496959 0.0032859 -0.0496959
1585629 0.0030582 -0.0475394 0.9969418 0.0475394 0.9969418 0.0475394 0.0030582 -0.0475394
1658239 0.0028491 -0.0454754 0.9971509 0.0454754 0.9971509 0.0454754 0.0028491 -0.0454754
1734173 0.0026571 -0.0435000 0.9973429 0.0435000 0.9973429 0.0435000 0.0026571 -0.0435000
1813585 0.0024807 -0.0416095 0.9975193 0.0416095 0.9975193 0.0416095 0.0024807 -0.0416095
1896632 0.0023187 -0.0398004 0.9976813 0.0398004 0.9976813 0.0398004 0.0023187 -0.0398004
1983483 0.0021698 -0.0380691 0.9978302 0.0380691 0.9978302 0.0380691 0.0021698 -0.0380691
2074311 0.0020330 -0.0364125 0.9979670 0.0364125 0.9979670 0.0364125 0.0020330 -0.0364125
