!Murata Part Number: GRM219B31C106MA73
!These Parameters are Measured in Series Mode Connection
!Data Generated on Mar 30, 2021
!       o--ll--o
!Port1            Port2
!       o------o
!Operation Temp=25[degC], DC Bias Voltage=0[V]
!Freq. Start=100[Hz] Stop=6[GHz] 401[Steps]
# Hz S RI R 50
!Freq.(Hz) S11(Real) S11(Imag) S21(Real) S21(Imag) S12(Real) S12(Imag) S22(Real) S22(Imag)
100 0.8859612 -0.3039889 0.1140388 0.3039889 0.1140388 0.3039889 0.8859612 -0.3039889
105 0.8772243 -0.3144489 0.1227757 0.3144489 0.1227757 0.3144489 0.8772243 -0.3144489
109 0.8678869 -0.3250135 0.1321131 0.3250135 0.1321131 0.3250135 0.8678869 -0.3250135
114 0.8579238 -0.3356496 0.1420762 0.3356496 0.1420762 0.3356496 0.8579238 -0.3356496
120 0.8473111 -0.3463204 0.1526889 0.3463204 0.1526889 0.3463204 0.8473111 -0.3463204
125 0.8360277 -0.3569850 0.1639723 0.3569850 0.1639723 0.3569850 0.8360277 -0.3569850
131 0.8240552 -0.3675987 0.1759448 0.3675987 0.1759448 0.3675987 0.8240552 -0.3675987
137 0.8113785 -0.3781134 0.1886215 0.3781134 0.1886215 0.3781134 0.8113785 -0.3781134
143 0.7979868 -0.3884770 0.2020132 0.3884770 0.2020132 0.3884770 0.7979868 -0.3884770
150 0.7838740 -0.3986348 0.2161260 0.3986348 0.2161260 0.3986348 0.7838740 -0.3986348
156 0.7690390 -0.4085291 0.2309610 0.4085291 0.2309610 0.4085291 0.7690390 -0.4085291
164 0.7534867 -0.4181002 0.2465133 0.4181002 0.2465133 0.4181002 0.7534867 -0.4181002
171 0.7372282 -0.4272869 0.2627718 0.4272869 0.2627718 0.4272869 0.7372282 -0.4272869
179 0.7202815 -0.4360271 0.2797185 0.4360271 0.2797185 0.4360271 0.7202815 -0.4360271
187 0.7026712 -0.4442590 0.2973288 0.4442590 0.2973288 0.4442590 0.7026712 -0.4442590
196 0.6844293 -0.4519220 0.3155707 0.4519220 0.3155707 0.4519220 0.6844293 -0.4519220
205 0.6655949 -0.4589572 0.3344051 0.4589572 0.3344051 0.4589572 0.6655949 -0.4589572
214 0.6462142 -0.4653090 0.3537858 0.4653090 0.3537858 0.4653090 0.6462142 -0.4653090
224 0.6263399 -0.4709256 0.3736601 0.4709256 0.3736601 0.4709256 0.6263399 -0.4709256
234 0.6060314 -0.4757605 0.3939686 0.4757605 0.3939686 0.4757605 0.6060314 -0.4757605
245 0.5853532 -0.4797728 0.4146468 0.4797728 0.4146468 0.4797728 0.5853532 -0.4797728
256 0.5643749 -0.4829285 0.4356251 0.4829285 0.4356251 0.4829285 0.5643749 -0.4829285
268 0.5431702 -0.4852010 0.4568298 0.4852010 0.4568298 0.4852010 0.5431702 -0.4852010
280 0.5218152 -0.4865713 0.4781848 0.4865713 0.4781848 0.4865713 0.5218152 -0.4865713
293 0.5003882 -0.4870291 0.4996118 0.4870291 0.4996118 0.4870291 0.5003882 -0.4870291
306 0.4789681 -0.4865719 0.5210319 0.4865719 0.5210319 0.4865719 0.4789681 -0.4865719
320 0.4576331 -0.4852060 0.5423669 0.4852060 0.5423669 0.4852060 0.4576331 -0.4852060
335 0.4364600 -0.4829457 0.5635400 0.4829457 0.5635400 0.4829457 0.4364600 -0.4829457
350 0.4155228 -0.4798131 0.5844772 0.4798131 0.5844772 0.4798131 0.4155228 -0.4798131
366 0.3948922 -0.4758374 0.6051078 0.4758374 0.6051078 0.4758374 0.3948922 -0.4758374
383 0.3746341 -0.4710544 0.6253659 0.4710544 0.6253659 0.4710544 0.3746341 -0.4710544
401 0.3548094 -0.4655060 0.6451906 0.4655060 0.6451906 0.4655060 0.3548094 -0.4655060
419 0.3354733 -0.4592388 0.6645267 0.4592388 0.6645267 0.4592388 0.3354733 -0.4592388
438 0.3166749 -0.4523035 0.6833251 0.4523035 0.6833251 0.4523035 0.3166749 -0.4523035
458 0.2984567 -0.4447541 0.7015433 0.4447541 0.7015433 0.4447541 0.2984567 -0.4447541
479 0.2808549 -0.4366471 0.7191451 0.4366471 0.7191451 0.4366471 0.2808549 -0.4366471
501 0.2638990 -0.4280401 0.7361010 0.4280401 0.7361010 0.4280401 0.2638990 -0.4280401
524 0.2476121 -0.4189917 0.7523879 0.4189917 0.7523879 0.4189917 0.2476121 -0.4189917
548 0.2320110 -0.4095601 0.7679890 0.4095601 0.7679890 0.4095601 0.2320110 -0.4095601
573 0.2171066 -0.3998031 0.7828934 0.3998031 0.7828934 0.3998031 0.2171066 -0.3998031
600 0.2029044 -0.3897767 0.7970956 0.3897767 0.7970956 0.3897767 0.2029044 -0.3897767
627 0.1894045 -0.3795353 0.8105955 0.3795353 0.8105955 0.3795353 0.1894045 -0.3795353
656 0.1766023 -0.3691309 0.8233977 0.3691309 0.8233977 0.3691309 0.1766023 -0.3691309
686 0.1644891 -0.3586125 0.8355109 0.3586125 0.8355109 0.3586125 0.1644891 -0.3586125
717 0.1530525 -0.3480266 0.8469475 0.3480266 0.8469475 0.3480266 0.1530525 -0.3480266
750 0.1422768 -0.3374161 0.8577232 0.3374161 0.8577232 0.3374161 0.1422768 -0.3374161
784 0.1321435 -0.3268208 0.8678565 0.3268208 0.8678565 0.3268208 0.1321435 -0.3268208
820 0.1226318 -0.3162771 0.8773682 0.3162771 0.8773682 0.3162771 0.1226318 -0.3162771
858 0.1137193 -0.3058178 0.8862807 0.3058178 0.8862807 0.3058178 0.1137193 -0.3058178
897 0.1053820 -0.2954725 0.8946180 0.2954725 0.8946180 0.2954725 0.1053820 -0.2954725
938 0.0975947 -0.2852674 0.9024053 0.2852674 0.9024053 0.2852674 0.0975947 -0.2852674
981 0.0903318 -0.2752257 0.9096682 0.2752257 0.9096682 0.2752257 0.0903318 -0.2752257
1026 0.0835673 -0.2653673 0.9164327 0.2653673 0.9164327 0.2653673 0.0835673 -0.2653673
1073 0.0772749 -0.2557093 0.9227251 0.2557093 0.9227251 0.2557093 0.0772749 -0.2557093
1122 0.0714286 -0.2462661 0.9285714 0.2462661 0.9285714 0.2462661 0.0714286 -0.2462661
1174 0.0660027 -0.2370496 0.9339973 0.2370496 0.9339973 0.2370496 0.0660027 -0.2370496
1227 0.0609721 -0.2280693 0.9390279 0.2280693 0.9390279 0.2280693 0.0609721 -0.2280693
1283 0.0563123 -0.2193326 0.9436877 0.2193326 0.9436877 0.2193326 0.0563123 -0.2193326
1342 0.0519996 -0.2108449 0.9480004 0.2108449 0.9480004 0.2108449 0.0519996 -0.2108449
1404 0.0480112 -0.2026099 0.9519888 0.2026099 0.9519888 0.2026099 0.0480112 -0.2026099
1468 0.0443254 -0.1946296 0.9556746 0.1946296 0.9556746 0.1946296 0.0443254 -0.1946296
1535 0.0409211 -0.1869048 0.9590789 0.1869048 0.9590789 0.1869048 0.0409211 -0.1869048
1606 0.0377787 -0.1794349 0.9622213 0.1794349 0.9622213 0.1794349 0.0377787 -0.1794349
1679 0.0348793 -0.1722181 0.9651207 0.1722181 0.9651207 0.1722181 0.0348793 -0.1722181
1756 0.0322051 -0.1652520 0.9677949 0.1652520 0.9677949 0.1652520 0.0322051 -0.1652520
1836 0.0297395 -0.1585331 0.9702605 0.1585331 0.9702605 0.1585331 0.0297395 -0.1585331
1920 0.0274667 -0.1520572 0.9725333 0.1520572 0.9725333 0.1520572 0.0274667 -0.1520572
2008 0.0253721 -0.1458196 0.9746279 0.1458196 0.9746279 0.1458196 0.0253721 -0.1458196
2100 0.0234418 -0.1398152 0.9765582 0.1398152 0.9765582 0.1398152 0.0234418 -0.1398152
2196 0.0216632 -0.1340383 0.9783368 0.1340383 0.9783368 0.1340383 0.0216632 -0.1340383
2297 0.0200241 -0.1284831 0.9799759 0.1284831 0.9799759 0.1284831 0.0200241 -0.1284831
2402 0.0185137 -0.1231434 0.9814863 0.1231434 0.9814863 0.1231434 0.0185137 -0.1231434
2512 0.0171216 -0.1180129 0.9828784 0.1180129 0.9828784 0.1180129 0.0171216 -0.1180129
2627 0.0158382 -0.1130851 0.9841618 0.1130851 0.9841618 0.1130851 0.0158382 -0.1130851
2748 0.0146549 -0.1083534 0.9853451 0.1083534 0.9853451 0.1083534 0.0146549 -0.1083534
2873 0.0135635 -0.1038114 0.9864365 0.1038114 0.9864365 0.1038114 0.0135635 -0.1038114
3005 0.0125566 -0.0994525 0.9874434 0.0994525 0.9874434 0.0994525 0.0125566 -0.0994525
3143 0.0116273 -0.0952703 0.9883727 0.0952703 0.9883727 0.0952703 0.0116273 -0.0952703
3287 0.0107693 -0.0912582 0.9892307 0.0912582 0.9892307 0.0912582 0.0107693 -0.0912582
3437 0.0099769 -0.0874100 0.9900231 0.0874100 0.9900231 0.0874100 0.0099769 -0.0874100
3594 0.0092448 -0.0837196 0.9907552 0.0837196 0.9907552 0.0837196 0.0092448 -0.0837196
3759 0.0085682 -0.0801808 0.9914318 0.0801808 0.9914318 0.0801808 0.0085682 -0.0801808
3931 0.0079426 -0.0767878 0.9920574 0.0767878 0.9920574 0.0767878 0.0079426 -0.0767878
4111 0.0073641 -0.0735349 0.9926359 0.0735349 0.9926359 0.0735349 0.0073641 -0.0735349
4299 0.0068289 -0.0704166 0.9931711 0.0704166 0.9931711 0.0704166 0.0068289 -0.0704166
4496 0.0063337 -0.0674274 0.9936663 0.0674274 0.9936663 0.0674274 0.0063337 -0.0674274
4702 0.0058754 -0.0645622 0.9941246 0.0645622 0.9941246 0.0645622 0.0058754 -0.0645622
4918 0.0054512 -0.0618160 0.9945488 0.0618160 0.9945488 0.0618160 0.0054512 -0.0618160
5143 0.0050586 -0.0591840 0.9949414 0.0591840 0.9949414 0.0591840 0.0050586 -0.0591840
5378 0.0046951 -0.0566616 0.9953049 0.0566616 0.9953049 0.0566616 0.0046951 -0.0566616
5625 0.0043587 -0.0542444 0.9956413 0.0542444 0.9956413 0.0542444 0.0043587 -0.0542444
5882 0.0040472 -0.0519281 0.9959528 0.0519281 0.9959528 0.0519281 0.0040472 -0.0519281
6151 0.0037591 -0.0497087 0.9962409 0.0497087 0.9962409 0.0497087 0.0037591 -0.0497087
6433 0.0034924 -0.0475821 0.9965076 0.0475821 0.9965076 0.0475821 0.0034924 -0.0475821
6728 0.0032457 -0.0455448 0.9967543 0.0455448 0.9967543 0.0455448 0.0032457 -0.0455448
7036 0.0030175 -0.0435929 0.9969825 0.0435929 0.9969825 0.0435929 0.0030175 -0.0435929
7358 0.0028065 -0.0417232 0.9971935 0.0417232 0.9971935 0.0417232 0.0028065 -0.0417232
7695 0.0026115 -0.0399322 0.9973885 0.0399322 0.9973885 0.0399322 0.0026115 -0.0399322
8047 0.0024312 -0.0382169 0.9975688 0.0382169 0.9975688 0.0382169 0.0024312 -0.0382169
8416 0.0022647 -0.0365741 0.9977353 0.0365741 0.9977353 0.0365741 0.0022647 -0.0365741
8801 0.0021109 -0.0350008 0.9978891 0.0350008 0.9978891 0.0350008 0.0021109 -0.0350008
9204 0.0019688 -0.0334943 0.9980312 0.0334943 0.9980312 0.0334943 0.0019688 -0.0334943
9626 0.0018376 -0.0320519 0.9981624 0.0320519 0.9981624 0.0320519 0.0018376 -0.0320519
10066 0.0017166 -0.0306710 0.9982834 0.0306710 0.9982834 0.0306710 0.0017166 -0.0306710
10527 0.0016048 -0.0293490 0.9983952 0.0293490 0.9983952 0.0293490 0.0016048 -0.0293490
11009 0.0015016 -0.0280835 0.9984984 0.0280835 0.9984984 0.0280835 0.0015016 -0.0280835
11514 0.0014064 -0.0268722 0.9985936 0.0268722 0.9985936 0.0268722 0.0014064 -0.0268722
12041 0.0013185 -0.0257129 0.9986815 0.0257129 0.9986815 0.0257129 0.0013185 -0.0257129
12592 0.0012374 -0.0246034 0.9987626 0.0246034 0.9987626 0.0246034 0.0012374 -0.0246034
13169 0.0011625 -0.0235417 0.9988375 0.0235417 0.9988375 0.0235417 0.0011625 -0.0235417
13772 0.0010932 -0.0225258 0.9989068 0.0225258 0.9989068 0.0225258 0.0010932 -0.0225258
14402 0.0010292 -0.0215538 0.9989708 0.0215538 0.9989708 0.0215538 0.0010292 -0.0215538
15062 0.0009701 -0.0206238 0.9990299 0.0206238 0.9990299 0.0206238 0.0009701 -0.0206238
15752 0.0009153 -0.0197340 0.9990847 0.0197340 0.9990847 0.0197340 0.0009153 -0.0197340
16473 0.0008645 -0.0188828 0.9991355 0.0188828 0.9991355 0.0188828 0.0008645 -0.0188828
17227 0.0008174 -0.0180685 0.9991826 0.0180685 0.9991826 0.0180685 0.0008174 -0.0180685
18016 0.0007737 -0.0172896 0.9992263 0.0172896 0.9992263 0.0172896 0.0007737 -0.0172896
18841 0.0007331 -0.0165446 0.9992669 0.0165446 0.9992669 0.0165446 0.0007331 -0.0165446
19704 0.0006952 -0.0158319 0.9993048 0.0158319 0.9993048 0.0158319 0.0006952 -0.0158319
20606 0.0006599 -0.0151502 0.9993401 0.0151502 0.9993401 0.0151502 0.0006599 -0.0151502
21550 0.0006269 -0.0144981 0.9993731 0.0144981 0.9993731 0.0144981 0.0006269 -0.0144981
22537 0.0005960 -0.0138745 0.9994040 0.0138745 0.9994040 0.0138745 0.0005960 -0.0138745
23569 0.0005670 -0.0132779 0.9994330 0.0132779 0.9994330 0.0132779 0.0005670 -0.0132779
24648 0.0005398 -0.0127073 0.9994602 0.0127073 0.9994602 0.0127073 0.0005398 -0.0127073
25777 0.0005141 -0.0121614 0.9994859 0.0121614 0.9994859 0.0121614 0.0005141 -0.0121614
26957 0.0004898 -0.0116393 0.9995102 0.0116393 0.9995102 0.0116393 0.0004898 -0.0116393
28191 0.0004669 -0.0111398 0.9995331 0.0111398 0.9995331 0.0111398 0.0004669 -0.0111398
29482 0.0004452 -0.0106620 0.9995548 0.0106620 0.9995548 0.0106620 0.0004452 -0.0106620
30832 0.0004246 -0.0102048 0.9995754 0.0102048 0.9995754 0.0102048 0.0004246 -0.0102048
32244 0.0004050 -0.0097674 0.9995950 0.0097674 0.9995950 0.0097674 0.0004050 -0.0097674
33721 0.0003863 -0.0093488 0.9996137 0.0093488 0.9996137 0.0093488 0.0003863 -0.0093488
35265 0.0003685 -0.0089483 0.9996315 0.0089483 0.9996315 0.0089483 0.0003685 -0.0089483
36880 0.0003515 -0.0085651 0.9996485 0.0085651 0.9996485 0.0085651 0.0003515 -0.0085651
38569 0.0003352 -0.0081982 0.9996648 0.0081982 0.9996648 0.0081982 0.0003352 -0.0081982
40335 0.0003197 -0.0078471 0.9996803 0.0078471 0.9996803 0.0078471 0.0003197 -0.0078471
42182 0.0003049 -0.0075110 0.9996951 0.0075110 0.9996951 0.0075110 0.0003049 -0.0075110
44113 0.0002907 -0.0071893 0.9997093 0.0071893 0.9997093 0.0071893 0.0002907 -0.0071893
46134 0.0002772 -0.0068813 0.9997228 0.0068813 0.9997228 0.0068813 0.0002772 -0.0068813
48246 0.0002642 -0.0065864 0.9997358 0.0065864 0.9997358 0.0065864 0.0002642 -0.0065864
50455 0.0002519 -0.0063041 0.9997481 0.0063041 0.9997481 0.0063041 0.0002519 -0.0063041
52766 0.0002401 -0.0060337 0.9997599 0.0060337 0.9997599 0.0060337 0.0002401 -0.0060337
55182 0.0002289 -0.0057749 0.9997711 0.0057749 0.9997711 0.0057749 0.0002289 -0.0057749
57709 0.0002182 -0.0055270 0.9997818 0.0055270 0.9997818 0.0055270 0.0002182 -0.0055270
60352 0.0002080 -0.0052896 0.9997920 0.0052896 0.9997920 0.0052896 0.0002080 -0.0052896
63115 0.0001984 -0.0050623 0.9998016 0.0050623 0.9998016 0.0050623 0.0001984 -0.0050623
66005 0.0001893 -0.0048446 0.9998107 0.0048446 0.9998107 0.0048446 0.0001893 -0.0048446
69028 0.0001807 -0.0046361 0.9998193 0.0046361 0.9998193 0.0046361 0.0001807 -0.0046361
72189 0.0001725 -0.0044365 0.9998275 0.0044365 0.9998275 0.0044365 0.0001725 -0.0044365
75495 0.0001648 -0.0042454 0.9998352 0.0042454 0.9998352 0.0042454 0.0001648 -0.0042454
78952 0.0001575 -0.0040624 0.9998425 0.0040624 0.9998425 0.0040624 0.0001575 -0.0040624
82567 0.0001507 -0.0038871 0.9998493 0.0038871 0.9998493 0.0038871 0.0001507 -0.0038871
86348 0.0001443 -0.0037193 0.9998557 0.0037193 0.9998557 0.0037193 0.0001443 -0.0037193
90302 0.0001383 -0.0035587 0.9998617 0.0035587 0.9998617 0.0035587 0.0001383 -0.0035587
94437 0.0001326 -0.0034049 0.9998674 0.0034049 0.9998674 0.0034049 0.0001326 -0.0034049
98762 0.0001273 -0.0032576 0.9998727 0.0032576 0.9998727 0.0032576 0.0001273 -0.0032576
103284 0.0001224 -0.0031167 0.9998776 0.0031167 0.9998776 0.0031167 0.0001224 -0.0031167
108014 0.0001177 -0.0029817 0.9998823 0.0029817 0.9998823 0.0029817 0.0001177 -0.0029817
112960 0.0001134 -0.0028526 0.9998866 0.0028526 0.9998866 0.0028526 0.0001134 -0.0028526
118133 0.0001093 -0.0027290 0.9998907 0.0027290 0.9998907 0.0027290 0.0001093 -0.0027290
123542 0.0001055 -0.0026107 0.9998945 0.0026107 0.9998945 0.0026107 0.0001055 -0.0026107
129199 0.0001020 -0.0024975 0.9998980 0.0024975 0.9998980 0.0024975 0.0001020 -0.0024975
135116 0.0000986 -0.0023891 0.9999014 0.0023891 0.9999014 0.0023891 0.0000986 -0.0023891
141303 0.0000955 -0.0022854 0.9999045 0.0022854 0.9999045 0.0022854 0.0000955 -0.0022854
147774 0.0000926 -0.0021862 0.9999074 0.0021862 0.9999074 0.0021862 0.0000926 -0.0021862
154540 0.0000899 -0.0020912 0.9999101 0.0020912 0.9999101 0.0020912 0.0000899 -0.0020912
161617 0.0000873 -0.0020004 0.9999127 0.0020004 0.9999127 0.0020004 0.0000873 -0.0020004
169018 0.0000849 -0.0019134 0.9999151 0.0019134 0.9999151 0.0019134 0.0000849 -0.0019134
176758 0.0000826 -0.0018302 0.9999174 0.0018302 0.9999174 0.0018302 0.0000826 -0.0018302
184852 0.0000804 -0.0017506 0.9999196 0.0017506 0.9999196 0.0017506 0.0000804 -0.0017506
193316 0.0000784 -0.0016744 0.9999216 0.0016744 0.9999216 0.0016744 0.0000784 -0.0016744
202169 0.0000765 -0.0016015 0.9999235 0.0016015 0.9999235 0.0016015 0.0000765 -0.0016015
211427 0.0000746 -0.0015318 0.9999254 0.0015318 0.9999254 0.0015318 0.0000746 -0.0015318
221108 0.0000729 -0.0014650 0.9999271 0.0014650 0.9999271 0.0014650 0.0000729 -0.0014650
231233 0.0000712 -0.0014011 0.9999288 0.0014011 0.9999288 0.0014011 0.0000712 -0.0014011
241822 0.0000696 -0.0013400 0.9999304 0.0013400 0.9999304 0.0013400 0.0000696 -0.0013400
252896 0.0000680 -0.0012815 0.9999320 0.0012815 0.9999320 0.0012815 0.0000680 -0.0012815
264476 0.0000665 -0.0012254 0.9999335 0.0012254 0.9999335 0.0012254 0.0000665 -0.0012254
276587 0.0000651 -0.0011718 0.9999349 0.0011718 0.9999349 0.0011718 0.0000651 -0.0011718
289253 0.0000637 -0.0011204 0.9999363 0.0011204 0.9999363 0.0011204 0.0000637 -0.0011204
302498 0.0000623 -0.0010712 0.9999377 0.0010712 0.9999377 0.0010712 0.0000623 -0.0010712
316350 0.0000610 -0.0010241 0.9999390 0.0010241 0.9999390 0.0010241 0.0000610 -0.0010241
330837 0.0000598 -0.0009790 0.9999402 0.0009790 0.9999402 0.0009790 0.0000598 -0.0009790
345986 0.0000585 -0.0009358 0.9999415 0.0009358 0.9999415 0.0009358 0.0000585 -0.0009358
361830 0.0000574 -0.0008943 0.9999426 0.0008943 0.9999426 0.0008943 0.0000574 -0.0008943
378399 0.0000562 -0.0008546 0.9999438 0.0008546 0.9999438 0.0008546 0.0000562 -0.0008546
395726 0.0000551 -0.0008165 0.9999449 0.0008165 0.9999449 0.0008165 0.0000551 -0.0008165
413847 0.0000540 -0.0007800 0.9999460 0.0007800 0.9999460 0.0007800 0.0000540 -0.0007800
432798 0.0000529 -0.0007450 0.9999471 0.0007450 0.9999471 0.0007450 0.0000529 -0.0007450
452617 0.0000519 -0.0007114 0.9999481 0.0007114 0.9999481 0.0007114 0.0000519 -0.0007114
473344 0.0000509 -0.0006792 0.9999491 0.0006792 0.9999491 0.0006792 0.0000509 -0.0006792
495019 0.0000500 -0.0006483 0.9999500 0.0006483 0.9999500 0.0006483 0.0000500 -0.0006483
517687 0.0000491 -0.0006185 0.9999509 0.0006185 0.9999509 0.0006185 0.0000491 -0.0006185
541393 0.0000482 -0.0005900 0.9999518 0.0005900 0.9999518 0.0005900 0.0000482 -0.0005900
566185 0.0000474 -0.0005626 0.9999526 0.0005626 0.9999526 0.0005626 0.0000474 -0.0005626
592111 0.0000466 -0.0005363 0.9999534 0.0005363 0.9999534 0.0005363 0.0000466 -0.0005363
619225 0.0000459 -0.0005110 0.9999541 0.0005110 0.9999541 0.0005110 0.0000459 -0.0005110
647581 0.0000452 -0.0004866 0.9999548 0.0004866 0.9999548 0.0004866 0.0000452 -0.0004866
677235 0.0000445 -0.0004632 0.9999555 0.0004632 0.9999555 0.0004632 0.0000445 -0.0004632
708247 0.0000439 -0.0004406 0.9999561 0.0004406 0.9999561 0.0004406 0.0000439 -0.0004406
740679 0.0000433 -0.0004189 0.9999567 0.0004189 0.9999567 0.0004189 0.0000433 -0.0004189
774597 0.0000428 -0.0003980 0.9999572 0.0003980 0.9999572 0.0003980 0.0000428 -0.0003980
810067 0.0000423 -0.0003779 0.9999577 0.0003779 0.9999577 0.0003779 0.0000423 -0.0003779
847162 0.0000419 -0.0003585 0.9999581 0.0003585 0.9999581 0.0003585 0.0000419 -0.0003585
885955 0.0000415 -0.0003397 0.9999585 0.0003397 0.9999585 0.0003397 0.0000415 -0.0003397
926525 0.0000412 -0.0003217 0.9999588 0.0003217 0.9999588 0.0003217 0.0000412 -0.0003217
968953 0.0000409 -0.0003042 0.9999591 0.0003042 0.9999591 0.0003042 0.0000409 -0.0003042
1013323 0.0000406 -0.0002873 0.9999594 0.0002873 0.9999594 0.0002873 0.0000406 -0.0002873
1059725 0.0000404 -0.0002710 0.9999596 0.0002710 0.9999596 0.0002710 0.0000404 -0.0002710
1108252 0.0000402 -0.0002552 0.9999598 0.0002552 0.9999598 0.0002552 0.0000402 -0.0002552
1159002 0.0000401 -0.0002399 0.9999599 0.0002399 0.9999599 0.0002399 0.0000401 -0.0002399
1212075 0.0000400 -0.0002250 0.9999600 0.0002250 0.9999600 0.0002250 0.0000400 -0.0002250
1267578 0.0000400 -0.0002106 0.9999600 0.0002106 0.9999600 0.0002106 0.0000400 -0.0002106
1325623 0.0000400 -0.0001966 0.9999600 0.0001966 0.9999600 0.0001966 0.0000400 -0.0001966
1386327 0.0000401 -0.0001830 0.9999599 0.0001830 0.9999599 0.0001830 0.0000401 -0.0001830
1449809 0.0000402 -0.0001698 0.9999598 0.0001698 0.9999598 0.0001698 0.0000402 -0.0001698
1516199 0.0000404 -0.0001568 0.9999596 0.0001568 0.9999596 0.0001568 0.0000404 -0.0001568
1585629 0.0000406 -0.0001442 0.9999594 0.0001442 0.9999594 0.0001442 0.0000406 -0.0001442
1658239 0.0000409 -0.0001318 0.9999591 0.0001318 0.9999591 0.0001318 0.0000409 -0.0001318
1734173 0.0000412 -0.0001197 0.9999588 0.0001197 0.9999588 0.0001197 0.0000412 -0.0001197
1813585 0.0000417 -0.0001079 0.9999583 0.0001079 0.9999583 0.0001079 0.0000417 -0.0001079
1896632 0.0000421 -0.0000962 0.9999579 0.0000962 0.9999579 0.0000962 0.0000421 -0.0000962
1983483 0.0000427 -0.0000847 0.9999573 0.0000847 0.9999573 0.0000847 0.0000427 -0.0000847
2074311 0.0000433 -0.0000734 0.9999567 0.0000734 0.9999567 0.0000734 0.0000433 -0.0000734
