!Murata Part Number: GRM21BR70J106MA73
!These Parameters are Measured in Series Mode Connection
!Data Generated on Mar 30, 2021
!       o--ll--o
!Port1            Port2
!       o------o
!Operation Temp=25[degC], DC Bias Voltage=0[V]
!Freq. Start=100[Hz] Stop=6[GHz] 401[Steps]
# Hz S RI R 50
!Freq.(Hz) S11(Real) S11(Imag) S21(Real) S21(Imag) S12(Real) S12(Imag) S22(Real) S22(Imag)
100 0.8642368 -0.3319061 0.1357632 0.3319061 0.1357632 0.3319061 0.8642368 -0.3319061
105 0.8538964 -0.3427040 0.1461036 0.3427040 0.1461036 0.3427040 0.8538964 -0.3427040
109 0.8428837 -0.3535185 0.1571163 0.3535185 0.1571163 0.3535185 0.8428837 -0.3535185
114 0.8311780 -0.3643060 0.1688220 0.3643060 0.1688220 0.3643060 0.8311780 -0.3643060
120 0.8187618 -0.3750190 0.1812382 0.3750190 0.1812382 0.3750190 0.8187618 -0.3750190
125 0.8056213 -0.3856060 0.1943787 0.3856060 0.1943787 0.3856060 0.8056213 -0.3856060
131 0.7917472 -0.3960123 0.2082528 0.3960123 0.2082528 0.3960123 0.7917472 -0.3960123
137 0.7771355 -0.4061799 0.2228645 0.4061799 0.2228645 0.4061799 0.7771355 -0.4061799
143 0.7617877 -0.4160482 0.2382123 0.4160482 0.2382123 0.4160482 0.7617877 -0.4160482
150 0.7457116 -0.4255546 0.2542884 0.4255546 0.2542884 0.4255546 0.7457116 -0.4255546
156 0.7289219 -0.4346352 0.2710781 0.4346352 0.2710781 0.4346352 0.7289219 -0.4346352
164 0.7114402 -0.4432259 0.2885598 0.4432259 0.2885598 0.4432259 0.7114402 -0.4432259
171 0.6932959 -0.4512629 0.3067041 0.4512629 0.3067041 0.4512629 0.6932959 -0.4512629
179 0.6745256 -0.4586839 0.3254744 0.4586839 0.3254744 0.4586839 0.6745256 -0.4586839
187 0.6551738 -0.4654293 0.3448262 0.4654293 0.3448262 0.4654293 0.6551738 -0.4654293
196 0.6352921 -0.4714433 0.3647079 0.4714433 0.3647079 0.4714433 0.6352921 -0.4714433
205 0.6149390 -0.4766748 0.3850610 0.4766748 0.3850610 0.4766748 0.6149390 -0.4766748
214 0.5941795 -0.4810784 0.4058205 0.4810784 0.4058205 0.4810784 0.5941795 -0.4810784
224 0.5730841 -0.4846154 0.4269159 0.4846154 0.4269159 0.4846154 0.5730841 -0.4846154
234 0.5517281 -0.4872551 0.4482719 0.4872551 0.4482719 0.4872551 0.5517281 -0.4872551
245 0.5301900 -0.4889744 0.4698100 0.4889744 0.4698100 0.4889744 0.5301900 -0.4889744
256 0.5085513 -0.4897594 0.4914487 0.4897594 0.4914487 0.4897594 0.5085513 -0.4897594
268 0.4868940 -0.4896050 0.5131060 0.4896050 0.5131060 0.4896050 0.4868940 -0.4896050
280 0.4653005 -0.4885149 0.5346995 0.4885149 0.5346995 0.4885149 0.4653005 -0.4885149
293 0.4438516 -0.4865021 0.5561484 0.4865021 0.5561484 0.4865021 0.4438516 -0.4865021
306 0.4226255 -0.4835878 0.5773745 0.4835878 0.5773745 0.4835878 0.4226255 -0.4835878
320 0.4016969 -0.4798012 0.5983031 0.4798012 0.5983031 0.4798012 0.4016969 -0.4798012
335 0.3811355 -0.4751788 0.6188645 0.4751788 0.6188645 0.4751788 0.3811355 -0.4751788
350 0.3610059 -0.4697635 0.6389941 0.4697635 0.6389941 0.4697635 0.3610059 -0.4697635
366 0.3413662 -0.4636037 0.6586338 0.4636037 0.6586338 0.4636037 0.3413662 -0.4636037
383 0.3222680 -0.4567521 0.6777320 0.4567521 0.6777320 0.4567521 0.3222680 -0.4567521
401 0.3037561 -0.4492650 0.6962439 0.4492650 0.6962439 0.4492650 0.3037561 -0.4492650
419 0.2858679 -0.4412009 0.7141321 0.4412009 0.7141321 0.4412009 0.2858679 -0.4412009
438 0.2686340 -0.4326201 0.7313660 0.4326201 0.7313660 0.4326201 0.2686340 -0.4326201
458 0.2520781 -0.4235832 0.7479219 0.4235832 0.7479219 0.4235832 0.2520781 -0.4235832
479 0.2362171 -0.4141505 0.7637829 0.4141505 0.7637829 0.4141505 0.2362171 -0.4141505
501 0.2210619 -0.4043814 0.7789381 0.4043814 0.7789381 0.4043814 0.2210619 -0.4043814
524 0.2066174 -0.3943334 0.7933826 0.3943334 0.7933826 0.3943334 0.2066174 -0.3943334
548 0.1928833 -0.3840622 0.8071167 0.3840622 0.8071167 0.3840622 0.1928833 -0.3840622
573 0.1798547 -0.3736206 0.8201453 0.3736206 0.8201453 0.3736206 0.1798547 -0.3736206
600 0.1675222 -0.3630585 0.8324778 0.3630585 0.8324778 0.3630585 0.1675222 -0.3630585
627 0.1558730 -0.3524225 0.8441270 0.3524225 0.8441270 0.3524225 0.1558730 -0.3524225
656 0.1448908 -0.3417562 0.8551092 0.3417562 0.8551092 0.3417562 0.1448908 -0.3417562
686 0.1345570 -0.3310994 0.8654430 0.3310994 0.8654430 0.3310994 0.1345570 -0.3310994
717 0.1248507 -0.3204886 0.8751493 0.3204886 0.8751493 0.3204886 0.1248507 -0.3204886
750 0.1157492 -0.3099568 0.8842508 0.3099568 0.8842508 0.3099568 0.1157492 -0.3099568
784 0.1072286 -0.2995335 0.8927714 0.2995335 0.8927714 0.2995335 0.1072286 -0.2995335
820 0.0992639 -0.2892452 0.9007361 0.2892452 0.9007361 0.2892452 0.0992639 -0.2892452
858 0.0918298 -0.2791150 0.9081702 0.2791150 0.9081702 0.2791150 0.0918298 -0.2791150
897 0.0849002 -0.2691630 0.9150998 0.2691630 0.9150998 0.2691630 0.0849002 -0.2691630
938 0.0784494 -0.2594067 0.9215506 0.2594067 0.9215506 0.2594067 0.0784494 -0.2594067
981 0.0724515 -0.2498606 0.9275485 0.2498606 0.9275485 0.2498606 0.0724515 -0.2498606
1026 0.0668812 -0.2405371 0.9331188 0.2405371 0.9331188 0.2405371 0.0668812 -0.2405371
1073 0.0617136 -0.2314460 0.9382864 0.2314460 0.9382864 0.2314460 0.0617136 -0.2314460
1122 0.0569244 -0.2225951 0.9430756 0.2225951 0.9430756 0.2225951 0.0569244 -0.2225951
1174 0.0524901 -0.2139903 0.9475099 0.2139903 0.9475099 0.2139903 0.0524901 -0.2139903
1227 0.0483880 -0.2056359 0.9516120 0.2056359 0.9516120 0.2056359 0.0483880 -0.2056359
1283 0.0445965 -0.1975344 0.9554035 0.1975344 0.9554035 0.1975344 0.0445965 -0.1975344
1342 0.0410946 -0.1896869 0.9589054 0.1896869 0.9589054 0.1896869 0.0410946 -0.1896869
1404 0.0378626 -0.1820936 0.9621374 0.1820936 0.9621374 0.1820936 0.0378626 -0.1820936
1468 0.0348816 -0.1747531 0.9651184 0.1747531 0.9651184 0.1747531 0.0348816 -0.1747531
1535 0.0321338 -0.1676635 0.9678662 0.1676635 0.9678662 0.1676635 0.0321338 -0.1676635
1606 0.0296024 -0.1608218 0.9703976 0.1608218 0.9703976 0.1608218 0.0296024 -0.1608218
1679 0.0272714 -0.1542243 0.9727286 0.1542243 0.9727286 0.1542243 0.0272714 -0.1542243
1756 0.0251259 -0.1478668 0.9748741 0.1478668 0.9748741 0.1478668 0.0251259 -0.1478668
1836 0.0231521 -0.1417446 0.9768479 0.1417446 0.9768479 0.1417446 0.0231521 -0.1417446
1920 0.0213367 -0.1358524 0.9786633 0.1358524 0.9786633 0.1358524 0.0213367 -0.1358524
2008 0.0196677 -0.1301847 0.9803323 0.1301847 0.9803323 0.1301847 0.0196677 -0.1301847
2100 0.0181335 -0.1247358 0.9818665 0.1247358 0.9818665 0.1247358 0.0181335 -0.1247358
2196 0.0167236 -0.1194997 0.9832764 0.1194997 0.9832764 0.1194997 0.0167236 -0.1194997
2297 0.0154281 -0.1144701 0.9845719 0.1144701 0.9845719 0.1144701 0.0154281 -0.1144701
2402 0.0142378 -0.1096409 0.9857622 0.1096409 0.9857622 0.1096409 0.0142378 -0.1096409
2512 0.0131443 -0.1050057 0.9868557 0.1050057 0.9868557 0.1050057 0.0131443 -0.1050057
2627 0.0121398 -0.1005583 0.9878602 0.1005583 0.9878602 0.1005583 0.0121398 -0.1005583
2748 0.0112168 -0.0962923 0.9887832 0.0962923 0.9887832 0.0962923 0.0112168 -0.0962923
2873 0.0103687 -0.0922013 0.9896313 0.0922013 0.9896313 0.0922013 0.0103687 -0.0922013
3005 0.0095893 -0.0882794 0.9904107 0.0882794 0.9904107 0.0882794 0.0095893 -0.0882794
3143 0.0088729 -0.0845201 0.9911271 0.0845201 0.9911271 0.0845201 0.0088729 -0.0845201
3287 0.0082141 -0.0809177 0.9917859 0.0809177 0.9917859 0.0809177 0.0082141 -0.0809177
3437 0.0076082 -0.0774661 0.9923918 0.0774661 0.9923918 0.0774661 0.0076082 -0.0774661
3594 0.0070506 -0.0741595 0.9929494 0.0741595 0.9929494 0.0741595 0.0070506 -0.0741595
3759 0.0065373 -0.0709924 0.9934627 0.0709924 0.9934627 0.0709924 0.0065373 -0.0709924
3931 0.0060644 -0.0679592 0.9939356 0.0679592 0.9939356 0.0679592 0.0060644 -0.0679592
4111 0.0056286 -0.0650545 0.9943714 0.0650545 0.9943714 0.0650545 0.0056286 -0.0650545
4299 0.0052266 -0.0622731 0.9947734 0.0622731 0.9947734 0.0622731 0.0052266 -0.0622731
4496 0.0048557 -0.0596101 0.9951443 0.0596101 0.9951443 0.0596101 0.0048557 -0.0596101
4702 0.0045130 -0.0570604 0.9954870 0.0570604 0.9954870 0.0570604 0.0045130 -0.0570604
4918 0.0041963 -0.0546194 0.9958037 0.0546194 0.9958037 0.0546194 0.0041963 -0.0546194
5143 0.0039033 -0.0522824 0.9960967 0.0522824 0.9960967 0.0522824 0.0039033 -0.0522824
5378 0.0036321 -0.0500452 0.9963679 0.0500452 0.9963679 0.0500452 0.0036321 -0.0500452
5625 0.0033808 -0.0479035 0.9966192 0.0479035 0.9966192 0.0479035 0.0033808 -0.0479035
5882 0.0031478 -0.0458531 0.9968522 0.0458531 0.9968522 0.0458531 0.0031478 -0.0458531
6151 0.0029315 -0.0438901 0.9970685 0.0438901 0.9970685 0.0438901 0.0029315 -0.0438901
6433 0.0027308 -0.0420108 0.9972692 0.0420108 0.9972692 0.0420108 0.0027308 -0.0420108
6728 0.0025442 -0.0402116 0.9974558 0.0402116 0.9974558 0.0402116 0.0025442 -0.0402116
7036 0.0023708 -0.0384891 0.9976292 0.0384891 0.9976292 0.0384891 0.0023708 -0.0384891
7358 0.0022095 -0.0368398 0.9977905 0.0368398 0.9977905 0.0368398 0.0022095 -0.0368398
7695 0.0020594 -0.0352607 0.9979406 0.0352607 0.9979406 0.0352607 0.0020594 -0.0352607
8047 0.0019197 -0.0337486 0.9980803 0.0337486 0.9980803 0.0337486 0.0019197 -0.0337486
8416 0.0017896 -0.0323008 0.9982104 0.0323008 0.9982104 0.0323008 0.0017896 -0.0323008
8801 0.0016685 -0.0309145 0.9983315 0.0309145 0.9983315 0.0309145 0.0016685 -0.0309145
9204 0.0015558 -0.0295870 0.9984442 0.0295870 0.9984442 0.0295870 0.0015558 -0.0295870
9626 0.0014509 -0.0283159 0.9985491 0.0283159 0.9985491 0.0283159 0.0014509 -0.0283159
10066 0.0013532 -0.0270987 0.9986468 0.0270987 0.9986468 0.0270987 0.0013532 -0.0270987
10527 0.0012624 -0.0259331 0.9987376 0.0259331 0.9987376 0.0259331 0.0012624 -0.0259331
11009 0.0011778 -0.0248170 0.9988222 0.0248170 0.9988222 0.0248170 0.0011778 -0.0248170
11514 0.0010992 -0.0237483 0.9989008 0.0237483 0.9989008 0.0237483 0.0010992 -0.0237483
12041 0.0010262 -0.0227250 0.9989738 0.0227250 0.9989738 0.0227250 0.0010262 -0.0227250
12592 0.0009584 -0.0217452 0.9990416 0.0217452 0.9990416 0.0217452 0.0009584 -0.0217452
13169 0.0008954 -0.0208071 0.9991046 0.0208071 0.9991046 0.0208071 0.0008954 -0.0208071
13772 0.0008369 -0.0199090 0.9991631 0.0199090 0.9991631 0.0199090 0.0008369 -0.0199090
14402 0.0007827 -0.0190491 0.9992173 0.0190491 0.9992173 0.0190491 0.0007827 -0.0190491
15062 0.0007325 -0.0182259 0.9992675 0.0182259 0.9992675 0.0182259 0.0007325 -0.0182259
15752 0.0006859 -0.0174379 0.9993141 0.0174379 0.9993141 0.0174379 0.0006859 -0.0174379
16473 0.0006429 -0.0166836 0.9993571 0.0166836 0.9993571 0.0166836 0.0006429 -0.0166836
17227 0.0006030 -0.0159616 0.9993970 0.0159616 0.9993970 0.0159616 0.0006030 -0.0159616
18016 0.0005661 -0.0152706 0.9994339 0.0152706 0.9994339 0.0152706 0.0005661 -0.0152706
18841 0.0005320 -0.0146092 0.9994680 0.0146092 0.9994680 0.0146092 0.0005320 -0.0146092
19704 0.0005004 -0.0139763 0.9994996 0.0139763 0.9994996 0.0139763 0.0005004 -0.0139763
20606 0.0004713 -0.0133706 0.9995287 0.0133706 0.9995287 0.0133706 0.0004713 -0.0133706
21550 0.0004444 -0.0127911 0.9995556 0.0127911 0.9995556 0.0127911 0.0004444 -0.0127911
22537 0.0004195 -0.0122365 0.9995805 0.0122365 0.9995805 0.0122365 0.0004195 -0.0122365
23569 0.0003965 -0.0117060 0.9996035 0.0117060 0.9996035 0.0117060 0.0003965 -0.0117060
24648 0.0003752 -0.0111984 0.9996248 0.0111984 0.9996248 0.0111984 0.0003752 -0.0111984
25777 0.0003556 -0.0107128 0.9996444 0.0107128 0.9996444 0.0107128 0.0003556 -0.0107128
26957 0.0003375 -0.0102482 0.9996625 0.0102482 0.9996625 0.0102482 0.0003375 -0.0102482
28191 0.0003207 -0.0098038 0.9996793 0.0098038 0.9996793 0.0098038 0.0003207 -0.0098038
29482 0.0003051 -0.0093788 0.9996949 0.0093788 0.9996949 0.0093788 0.0003051 -0.0093788
30832 0.0002907 -0.0089722 0.9997093 0.0089722 0.9997093 0.0089722 0.0002907 -0.0089722
32244 0.0002773 -0.0085833 0.9997227 0.0085833 0.9997227 0.0085833 0.0002773 -0.0085833
33721 0.0002649 -0.0082114 0.9997351 0.0082114 0.9997351 0.0082114 0.0002649 -0.0082114
35265 0.0002534 -0.0078557 0.9997466 0.0078557 0.9997466 0.0078557 0.0002534 -0.0078557
36880 0.0002426 -0.0075155 0.9997574 0.0075155 0.9997574 0.0075155 0.0002426 -0.0075155
38569 0.0002326 -0.0071902 0.9997674 0.0071902 0.9997674 0.0071902 0.0002326 -0.0071902
40335 0.0002232 -0.0068791 0.9997768 0.0068791 0.9997768 0.0068791 0.0002232 -0.0068791
42182 0.0002144 -0.0065815 0.9997856 0.0065815 0.9997856 0.0065815 0.0002144 -0.0065815
44113 0.0002061 -0.0062970 0.9997939 0.0062970 0.9997939 0.0062970 0.0002061 -0.0062970
46134 0.0001983 -0.0060249 0.9998017 0.0060249 0.9998017 0.0060249 0.0001983 -0.0060249
48246 0.0001909 -0.0057647 0.9998091 0.0057647 0.9998091 0.0057647 0.0001909 -0.0057647
50455 0.0001840 -0.0055159 0.9998160 0.0055159 0.9998160 0.0055159 0.0001840 -0.0055159
52766 0.0001773 -0.0052779 0.9998227 0.0052779 0.9998227 0.0052779 0.0001773 -0.0052779
55182 0.0001710 -0.0050503 0.9998290 0.0050503 0.9998290 0.0050503 0.0001710 -0.0050503
57709 0.0001649 -0.0048327 0.9998351 0.0048327 0.9998351 0.0048327 0.0001649 -0.0048327
60352 0.0001591 -0.0046245 0.9998409 0.0046245 0.9998409 0.0046245 0.0001591 -0.0046245
63115 0.0001536 -0.0044254 0.9998464 0.0044254 0.9998464 0.0044254 0.0001536 -0.0044254
66005 0.0001482 -0.0042349 0.9998518 0.0042349 0.9998518 0.0042349 0.0001482 -0.0042349
69028 0.0001430 -0.0040527 0.9998570 0.0040527 0.9998570 0.0040527 0.0001430 -0.0040527
72189 0.0001380 -0.0038784 0.9998620 0.0038784 0.9998620 0.0038784 0.0001380 -0.0038784
75495 0.0001331 -0.0037117 0.9998669 0.0037117 0.9998669 0.0037117 0.0001331 -0.0037117
78952 0.0001284 -0.0035521 0.9998716 0.0035521 0.9998716 0.0035521 0.0001284 -0.0035521
82567 0.0001238 -0.0033995 0.9998762 0.0033995 0.9998762 0.0033995 0.0001238 -0.0033995
86348 0.0001193 -0.0032534 0.9998807 0.0032534 0.9998807 0.0032534 0.0001193 -0.0032534
90302 0.0001150 -0.0031135 0.9998850 0.0031135 0.9998850 0.0031135 0.0001150 -0.0031135
94437 0.0001107 -0.0029797 0.9998893 0.0029797 0.9998893 0.0029797 0.0001107 -0.0029797
98762 0.0001066 -0.0028516 0.9998934 0.0028516 0.9998934 0.0028516 0.0001066 -0.0028516
103284 0.0001027 -0.0027289 0.9998973 0.0027289 0.9998973 0.0027289 0.0001027 -0.0027289
108014 0.0000988 -0.0026115 0.9999012 0.0026115 0.9999012 0.0026115 0.0000988 -0.0026115
112960 0.0000951 -0.0024990 0.9999049 0.0024990 0.9999049 0.0024990 0.0000951 -0.0024990
118133 0.0000915 -0.0023914 0.9999085 0.0023914 0.9999085 0.0023914 0.0000915 -0.0023914
123542 0.0000880 -0.0022883 0.9999120 0.0022883 0.9999120 0.0022883 0.0000880 -0.0022883
129199 0.0000847 -0.0021895 0.9999153 0.0021895 0.9999153 0.0021895 0.0000847 -0.0021895
135116 0.0000815 -0.0020950 0.9999185 0.0020950 0.9999185 0.0020950 0.0000815 -0.0020950
141303 0.0000784 -0.0020044 0.9999216 0.0020044 0.9999216 0.0020044 0.0000784 -0.0020044
147774 0.0000755 -0.0019176 0.9999245 0.0019176 0.9999245 0.0019176 0.0000755 -0.0019176
154540 0.0000727 -0.0018345 0.9999273 0.0018345 0.9999273 0.0018345 0.0000727 -0.0018345
161617 0.0000700 -0.0017549 0.9999300 0.0017549 0.9999300 0.0017549 0.0000700 -0.0017549
169018 0.0000674 -0.0016786 0.9999326 0.0016786 0.9999326 0.0016786 0.0000674 -0.0016786
176758 0.0000650 -0.0016056 0.9999350 0.0016056 0.9999350 0.0016056 0.0000650 -0.0016056
184852 0.0000628 -0.0015356 0.9999372 0.0015356 0.9999372 0.0015356 0.0000628 -0.0015356
193316 0.0000606 -0.0014685 0.9999394 0.0014685 0.9999394 0.0014685 0.0000606 -0.0014685
202169 0.0000586 -0.0014043 0.9999414 0.0014043 0.9999414 0.0014043 0.0000586 -0.0014043
211427 0.0000567 -0.0013428 0.9999433 0.0013428 0.9999433 0.0013428 0.0000567 -0.0013428
221108 0.0000549 -0.0012838 0.9999451 0.0012838 0.9999451 0.0012838 0.0000549 -0.0012838
231233 0.0000532 -0.0012274 0.9999468 0.0012274 0.9999468 0.0012274 0.0000532 -0.0012274
241822 0.0000517 -0.0011733 0.9999483 0.0011733 0.9999483 0.0011733 0.0000517 -0.0011733
252896 0.0000502 -0.0011215 0.9999498 0.0011215 0.9999498 0.0011215 0.0000502 -0.0011215
264476 0.0000488 -0.0010718 0.9999512 0.0010718 0.9999512 0.0010718 0.0000488 -0.0010718
276587 0.0000476 -0.0010243 0.9999524 0.0010243 0.9999524 0.0010243 0.0000476 -0.0010243
289253 0.0000464 -0.0009787 0.9999536 0.0009787 0.9999536 0.0009787 0.0000464 -0.0009787
302498 0.0000453 -0.0009350 0.9999547 0.0009350 0.9999547 0.0009350 0.0000453 -0.0009350
316350 0.0000443 -0.0008932 0.9999557 0.0008932 0.9999557 0.0008932 0.0000443 -0.0008932
330837 0.0000434 -0.0008531 0.9999566 0.0008531 0.9999566 0.0008531 0.0000434 -0.0008531
345986 0.0000425 -0.0008147 0.9999575 0.0008147 0.9999575 0.0008147 0.0000425 -0.0008147
361830 0.0000417 -0.0007779 0.9999583 0.0007779 0.9999583 0.0007779 0.0000417 -0.0007779
378399 0.0000410 -0.0007426 0.9999590 0.0007426 0.9999590 0.0007426 0.0000410 -0.0007426
395726 0.0000403 -0.0007088 0.9999597 0.0007088 0.9999597 0.0007088 0.0000403 -0.0007088
413847 0.0000397 -0.0006763 0.9999603 0.0006763 0.9999603 0.0006763 0.0000397 -0.0006763
432798 0.0000391 -0.0006452 0.9999609 0.0006452 0.9999609 0.0006452 0.0000391 -0.0006452
452617 0.0000386 -0.0006154 0.9999614 0.0006154 0.9999614 0.0006154 0.0000386 -0.0006154
473344 0.0000382 -0.0005868 0.9999618 0.0005868 0.9999618 0.0005868 0.0000382 -0.0005868
495019 0.0000377 -0.0005593 0.9999623 0.0005593 0.9999623 0.0005593 0.0000377 -0.0005593
517687 0.0000373 -0.0005330 0.9999627 0.0005330 0.9999627 0.0005330 0.0000373 -0.0005330
541393 0.0000370 -0.0005077 0.9999630 0.0005077 0.9999630 0.0005077 0.0000370 -0.0005077
566185 0.0000367 -0.0004834 0.9999633 0.0004834 0.9999633 0.0004834 0.0000367 -0.0004834
592111 0.0000364 -0.0004601 0.9999636 0.0004601 0.9999636 0.0004601 0.0000364 -0.0004601
619225 0.0000362 -0.0004377 0.9999638 0.0004377 0.9999638 0.0004377 0.0000362 -0.0004377
647581 0.0000360 -0.0004162 0.9999640 0.0004162 0.9999640 0.0004162 0.0000360 -0.0004162
677235 0.0000358 -0.0003955 0.9999642 0.0003955 0.9999642 0.0003955 0.0000358 -0.0003955
708247 0.0000356 -0.0003755 0.9999644 0.0003755 0.9999644 0.0003755 0.0000356 -0.0003755
740679 0.0000355 -0.0003564 0.9999645 0.0003564 0.9999645 0.0003564 0.0000355 -0.0003564
774597 0.0000354 -0.0003379 0.9999646 0.0003379 0.9999646 0.0003379 0.0000354 -0.0003379
810067 0.0000353 -0.0003201 0.9999647 0.0003201 0.9999647 0.0003201 0.0000353 -0.0003201
847162 0.0000353 -0.0003029 0.9999647 0.0003029 0.9999647 0.0003029 0.0000353 -0.0003029
885955 0.0000353 -0.0002864 0.9999647 0.0002864 0.9999647 0.0002864 0.0000353 -0.0002864
926525 0.0000353 -0.0002704 0.9999647 0.0002704 0.9999647 0.0002704 0.0000353 -0.0002704
968953 0.0000354 -0.0002549 0.9999646 0.0002549 0.9999646 0.0002549 0.0000354 -0.0002549
1013323 0.0000354 -0.0002399 0.9999646 0.0002399 0.9999646 0.0002399 0.0000354 -0.0002399
1059725 0.0000355 -0.0002255 0.9999645 0.0002255 0.9999645 0.0002255 0.0000355 -0.0002255
1108252 0.0000357 -0.0002114 0.9999643 0.0002114 0.9999643 0.0002114 0.0000357 -0.0002114
1159002 0.0000359 -0.0001978 0.9999641 0.0001978 0.9999641 0.0001978 0.0000359 -0.0001978
1212075 0.0000361 -0.0001846 0.9999639 0.0001846 0.9999639 0.0001846 0.0000361 -0.0001846
1267578 0.0000363 -0.0001718 0.9999637 0.0001718 0.9999637 0.0001718 0.0000363 -0.0001718
1325623 0.0000366 -0.0001593 0.9999634 0.0001593 0.9999634 0.0001593 0.0000366 -0.0001593
1386327 0.0000370 -0.0001471 0.9999630 0.0001471 0.9999630 0.0001471 0.0000370 -0.0001471
1449809 0.0000373 -0.0001352 0.9999627 0.0001352 0.9999627 0.0001352 0.0000373 -0.0001352
1516199 0.0000378 -0.0001236 0.9999622 0.0001236 0.9999622 0.0001236 0.0000378 -0.0001236
1585629 0.0000383 -0.0001122 0.9999617 0.0001122 0.9999617 0.0001122 0.0000383 -0.0001122
1658239 0.0000388 -0.0001010 0.9999612 0.0001010 0.9999612 0.0001010 0.0000388 -0.0001010
1734173 0.0000394 -0.0000901 0.9999606 0.0000901 0.9999606 0.0000901 0.0000394 -0.0000901
1813585 0.0000401 -0.0000793 0.9999599 0.0000793 0.9999599 0.0000793 0.0000401 -0.0000793
1896632 0.0000409 -0.0000687 0.9999591 0.0000687 0.9999591 0.0000687 0.0000409 -0.0000687
1983483 0.0000417 -0.0000582 0.9999583 0.0000582 0.9999583 0.0000582 0.0000417 -0.0000582
2074311 0.0000427 -0.0000478 0.9999573 0.0000478 0.9999573 0.0000478 0.0000427 -0.0000478
