!Murata Part Number: GRM219R7YA105KA12
!These Parameters are Measured in Series Mode Connection
!Data Generated on Mar 30, 2021
!       o--ll--o
!Port1            Port2
!       o------o
!Operation Temp=25[degC], DC Bias Voltage=0[V]
!Freq. Start=100[Hz] Stop=6[GHz] 401[Steps]
# Hz S RI R 50
!Freq.(Hz) S11(Real) S11(Imag) S21(Real) S21(Imag) S12(Real) S12(Imag) S22(Real) S22(Imag)
100 0.9962263 -0.0591323 0.0037737 0.0591323 0.0037737 0.0591323 0.9962263 -0.0591323
105 0.9958842 -0.0618076 0.0041158 0.0618076 0.0041158 0.0618076 0.9958842 -0.0618076
109 0.9955115 -0.0646018 0.0044885 0.0646018 0.0044885 0.0646018 0.9955115 -0.0646018
114 0.9951053 -0.0675199 0.0048947 0.0675199 0.0048947 0.0675199 0.9951053 -0.0675199
120 0.9946626 -0.0705670 0.0053374 0.0705670 0.0053374 0.0705670 0.9946626 -0.0705670
125 0.9941802 -0.0737487 0.0058198 0.0737487 0.0058198 0.0737487 0.9941802 -0.0737487
131 0.9936544 -0.0770703 0.0063456 0.0770703 0.0063456 0.0770703 0.9936544 -0.0770703
137 0.9930814 -0.0805377 0.0069186 0.0805377 0.0069186 0.0805377 0.9930814 -0.0805377
143 0.9924569 -0.0841567 0.0075431 0.0841567 0.0075431 0.0841567 0.9924569 -0.0841567
150 0.9917762 -0.0879335 0.0082238 0.0879335 0.0082238 0.0879335 0.9917762 -0.0879335
156 0.9910343 -0.0918741 0.0089657 0.0918741 0.0089657 0.0918741 0.9910343 -0.0918741
164 0.9902256 -0.0959850 0.0097744 0.0959850 0.0097744 0.0959850 0.9902256 -0.0959850
171 0.9893443 -0.1002726 0.0106557 0.1002726 0.0106557 0.1002726 0.9893443 -0.1002726
179 0.9883837 -0.1047434 0.0116163 0.1047434 0.0116163 0.1047434 0.9883837 -0.1047434
187 0.9873369 -0.1094042 0.0126631 0.1094042 0.0126631 0.1094042 0.9873369 -0.1094042
196 0.9861961 -0.1142617 0.0138039 0.1142617 0.0138039 0.1142617 0.9861961 -0.1142617
205 0.9849530 -0.1193226 0.0150470 0.1193226 0.0150470 0.1193226 0.9849530 -0.1193226
214 0.9835987 -0.1245936 0.0164013 0.1245936 0.0164013 0.1245936 0.9835987 -0.1245936
224 0.9821233 -0.1300815 0.0178767 0.1300815 0.0178767 0.1300815 0.9821233 -0.1300815
234 0.9805165 -0.1357928 0.0194835 0.1357928 0.0194835 0.1357928 0.9805165 -0.1357928
245 0.9787667 -0.1417341 0.0212333 0.1417341 0.0212333 0.1417341 0.9787667 -0.1417341
256 0.9768618 -0.1479115 0.0231382 0.1479115 0.0231382 0.1479115 0.9768618 -0.1479115
268 0.9747887 -0.1543311 0.0252113 0.1543311 0.0252113 0.1543311 0.9747887 -0.1543311
280 0.9725331 -0.1609984 0.0274669 0.1609984 0.0274669 0.1609984 0.9725331 -0.1609984
293 0.9700799 -0.1679186 0.0299201 0.1679186 0.0299201 0.1679186 0.9700799 -0.1679186
306 0.9674130 -0.1750962 0.0325870 0.1750962 0.0325870 0.1750962 0.9674130 -0.1750962
320 0.9645150 -0.1825353 0.0354850 0.1825353 0.0354850 0.1825353 0.9645150 -0.1825353
335 0.9613674 -0.1902389 0.0386326 0.1902389 0.0386326 0.1902389 0.9613674 -0.1902389
350 0.9579507 -0.1982092 0.0420493 0.1982092 0.0420493 0.1982092 0.9579507 -0.1982092
366 0.9542440 -0.2064474 0.0457560 0.2064474 0.0457560 0.2064474 0.9542440 -0.2064474
383 0.9502255 -0.2149532 0.0497745 0.2149532 0.0497745 0.2149532 0.9502255 -0.2149532
401 0.9458721 -0.2237252 0.0541279 0.2237252 0.0541279 0.2237252 0.9458721 -0.2237252
419 0.9411596 -0.2327600 0.0588404 0.2327600 0.0588404 0.2327600 0.9411596 -0.2327600
438 0.9360627 -0.2420526 0.0639373 0.2420526 0.0639373 0.2420526 0.9360627 -0.2420526
458 0.9305551 -0.2515959 0.0694449 0.2515959 0.0694449 0.2515959 0.9305551 -0.2515959
479 0.9246098 -0.2613805 0.0753902 0.2613805 0.0753902 0.2613805 0.9246098 -0.2613805
501 0.9181989 -0.2713944 0.0818011 0.2713944 0.0818011 0.2713944 0.9181989 -0.2713944
524 0.9112939 -0.2816230 0.0887061 0.2816230 0.0887061 0.2816230 0.9112939 -0.2816230
548 0.9038662 -0.2920484 0.0961338 0.2920484 0.0961338 0.2920484 0.9038662 -0.2920484
573 0.8958869 -0.3026500 0.1041131 0.3026500 0.1041131 0.3026500 0.8958869 -0.3026500
600 0.8873275 -0.3134032 0.1126725 0.3134032 0.1126725 0.3134032 0.8873275 -0.3134032
627 0.8781598 -0.3242800 0.1218402 0.3242800 0.1218402 0.3242800 0.8781598 -0.3242800
656 0.8683570 -0.3352487 0.1316430 0.3352487 0.1316430 0.3352487 0.8683570 -0.3352487
686 0.8578934 -0.3462736 0.1421066 0.3462736 0.1421066 0.3462736 0.8578934 -0.3462736
717 0.8467455 -0.3573148 0.1532545 0.3573148 0.1532545 0.3573148 0.8467455 -0.3573148
750 0.8348922 -0.3683285 0.1651078 0.3683285 0.1651078 0.3683285 0.8348922 -0.3683285
784 0.8223154 -0.3792672 0.1776846 0.3792672 0.1776846 0.3792672 0.8223154 -0.3792672
820 0.8090009 -0.3900791 0.1909991 0.3900791 0.1909991 0.3900791 0.8090009 -0.3900791
858 0.7949386 -0.4007092 0.2050614 0.4007092 0.2050614 0.4007092 0.7949386 -0.4007092
897 0.7801236 -0.4110990 0.2198764 0.4110990 0.2198764 0.4110990 0.7801236 -0.4110990
938 0.7645564 -0.4211873 0.2354436 0.4211873 0.2354436 0.4211873 0.7645564 -0.4211873
981 0.7482439 -0.4309108 0.2517561 0.4309108 0.2517561 0.4309108 0.7482439 -0.4309108
1026 0.7311994 -0.4402045 0.2688006 0.4402045 0.2688006 0.4402045 0.7311994 -0.4402045
1073 0.7134436 -0.4490026 0.2865564 0.4490026 0.2865564 0.4490026 0.7134436 -0.4490026
1122 0.6950046 -0.4572397 0.3049954 0.4572397 0.3049954 0.4572397 0.6950046 -0.4572397
1174 0.6759182 -0.4648513 0.3240818 0.4648513 0.3240818 0.4648513 0.6759182 -0.4648513
1227 0.6562280 -0.4717753 0.3437720 0.4717753 0.3437720 0.4717753 0.6562280 -0.4717753
1283 0.6359851 -0.4779529 0.3640149 0.4779529 0.3640149 0.4779529 0.6359851 -0.4779529
1342 0.6152481 -0.4833297 0.3847519 0.4833297 0.3847519 0.4833297 0.6152481 -0.4833297
1404 0.5940826 -0.4878568 0.4059174 0.4878568 0.4059174 0.4878568 0.5940826 -0.4878568
1468 0.5725601 -0.4914920 0.4274399 0.4914920 0.4274399 0.4914920 0.5725601 -0.4914920
1535 0.5507576 -0.4942004 0.4492424 0.4942004 0.4492424 0.4942004 0.5507576 -0.4942004
1606 0.5287564 -0.4959556 0.4712436 0.4959556 0.4712436 0.4959556 0.5287564 -0.4959556
1679 0.5066410 -0.4967400 0.4933590 0.4967400 0.4933590 0.4967400 0.5066410 -0.4967400
1756 0.4844975 -0.4965454 0.5155025 0.4965454 0.5155025 0.4965454 0.4844975 -0.4965454
1836 0.4624129 -0.4953732 0.5375871 0.4953732 0.5375871 0.4953732 0.4624129 -0.4953732
1920 0.4404732 -0.4932344 0.5595268 0.4932344 0.5595268 0.4932344 0.4404732 -0.4932344
2008 0.4187623 -0.4901491 0.5812377 0.4901491 0.5812377 0.4901491 0.4187623 -0.4901491
2100 0.3973606 -0.4861465 0.6026394 0.4861465 0.6026394 0.4861465 0.3973606 -0.4861465
2196 0.3763441 -0.4812640 0.6236559 0.4812640 0.6236559 0.4812640 0.3763441 -0.4812640
2297 0.3557829 -0.4755463 0.6442171 0.4755463 0.6442171 0.4755463 0.3557829 -0.4755463
2402 0.3357410 -0.4690444 0.6642590 0.4690444 0.6642590 0.4690444 0.3357410 -0.4690444
2512 0.3162751 -0.4618149 0.6837249 0.4618149 0.6837249 0.4618149 0.3162751 -0.4618149
2627 0.2974343 -0.4539185 0.7025657 0.4539185 0.7025657 0.4539185 0.2974343 -0.4539185
2748 0.2792600 -0.4454190 0.7207400 0.4454190 0.7207400 0.4454190 0.2792600 -0.4454190
2873 0.2617856 -0.4363822 0.7382144 0.4363822 0.7382144 0.4363822 0.2617856 -0.4363822
3005 0.2450365 -0.4268746 0.7549635 0.4268746 0.7549635 0.4268746 0.2450365 -0.4268746
3143 0.2290309 -0.4169627 0.7709691 0.4169627 0.7709691 0.4169627 0.2290309 -0.4169627
3287 0.2137795 -0.4067120 0.7862205 0.4067120 0.7862205 0.4067120 0.2137795 -0.4067120
3437 0.1992863 -0.3961861 0.8007137 0.3961861 0.8007137 0.3961861 0.1992863 -0.3961861
3594 0.1855495 -0.3854459 0.8144505 0.3854459 0.8144505 0.3854459 0.1855495 -0.3854459
3759 0.1725613 -0.3745494 0.8274387 0.3745494 0.8274387 0.3745494 0.1725613 -0.3745494
3931 0.1603095 -0.3635510 0.8396905 0.3635510 0.8396905 0.3635510 0.1603095 -0.3635510
4111 0.1487775 -0.3525014 0.8512225 0.3525014 0.8512225 0.3525014 0.1487775 -0.3525014
4299 0.1379453 -0.3414472 0.8620547 0.3414472 0.8620547 0.3414472 0.1379453 -0.3414472
4496 0.1277898 -0.3304307 0.8722102 0.3304307 0.8722102 0.3304307 0.1277898 -0.3304307
4702 0.1182858 -0.3194902 0.8817142 0.3194902 0.8817142 0.3194902 0.1182858 -0.3194902
4918 0.1094064 -0.3086598 0.8905936 0.3086598 0.8905936 0.3086598 0.1094064 -0.3086598
5143 0.1011233 -0.2979697 0.8988767 0.2979697 0.8988767 0.2979697 0.1011233 -0.2979697
5378 0.0934077 -0.2874461 0.9065923 0.2874461 0.9065923 0.2874461 0.0934077 -0.2874461
5625 0.0862302 -0.2771117 0.9137698 0.2771117 0.9137698 0.2771117 0.0862302 -0.2771117
5882 0.0795614 -0.2669856 0.9204386 0.2669856 0.9204386 0.2669856 0.0795614 -0.2669856
6151 0.0733722 -0.2570839 0.9266278 0.2570839 0.9266278 0.2570839 0.0733722 -0.2570839
6433 0.0676342 -0.2474195 0.9323658 0.2474195 0.9323658 0.2474195 0.0676342 -0.2474195
6728 0.0623194 -0.2380029 0.9376806 0.2380029 0.9376806 0.2380029 0.0623194 -0.2380029
7036 0.0574009 -0.2288420 0.9425991 0.2288420 0.9425991 0.2288420 0.0574009 -0.2288420
7358 0.0528527 -0.2199424 0.9471473 0.2199424 0.9471473 0.2199424 0.0528527 -0.2199424
7695 0.0486501 -0.2113081 0.9513499 0.2113081 0.9513499 0.2113081 0.0486501 -0.2113081
8047 0.0447692 -0.2029410 0.9552308 0.2029410 0.9552308 0.2029410 0.0447692 -0.2029410
8416 0.0411876 -0.1948416 0.9588124 0.1948416 0.9588124 0.1948416 0.0411876 -0.1948416
8801 0.0378840 -0.1870092 0.9621160 0.1870092 0.9621160 0.1870092 0.0378840 -0.1870092
9204 0.0348383 -0.1794418 0.9651617 0.1794418 0.9651617 0.1794418 0.0348383 -0.1794418
9626 0.0320316 -0.1721365 0.9679684 0.1721365 0.9679684 0.1721365 0.0320316 -0.1721365
10066 0.0294463 -0.1650896 0.9705537 0.1650896 0.9705537 0.1650896 0.0294463 -0.1650896
10527 0.0270658 -0.1582965 0.9729342 0.1582965 0.9729342 0.1582965 0.0270658 -0.1582965
11009 0.0248746 -0.1517523 0.9751254 0.1517523 0.9751254 0.1517523 0.0248746 -0.1517523
11514 0.0228583 -0.1454516 0.9771417 0.1454516 0.9771417 0.1454516 0.0228583 -0.1454516
12041 0.0210034 -0.1393884 0.9789966 0.1393884 0.9789966 0.1393884 0.0210034 -0.1393884
12592 0.0192977 -0.1335566 0.9807023 0.1335566 0.9807023 0.1335566 0.0192977 -0.1335566
13169 0.0177294 -0.1279500 0.9822706 0.1279500 0.9822706 0.1279500 0.0177294 -0.1279500
13772 0.0162879 -0.1225619 0.9837121 0.1225619 0.9837121 0.1225619 0.0162879 -0.1225619
14402 0.0149631 -0.1173860 0.9850369 0.1173860 0.9850369 0.1173860 0.0149631 -0.1173860
15062 0.0137461 -0.1124155 0.9862539 0.1124155 0.9862539 0.1124155 0.0137461 -0.1124155
15752 0.0126281 -0.1076438 0.9873719 0.1076438 0.9873719 0.1076438 0.0126281 -0.1076438
16473 0.0116014 -0.1030644 0.9883986 0.1030644 0.9883986 0.1030644 0.0116014 -0.1030644
17227 0.0106587 -0.0986706 0.9893413 0.0986706 0.9893413 0.0986706 0.0106587 -0.0986706
18016 0.0097933 -0.0944561 0.9902067 0.0944561 0.9902067 0.0944561 0.0097933 -0.0944561
18841 0.0089989 -0.0904145 0.9910011 0.0904145 0.9910011 0.0904145 0.0089989 -0.0904145
19704 0.0082700 -0.0865396 0.9917300 0.0865396 0.9917300 0.0865396 0.0082700 -0.0865396
20606 0.0076011 -0.0828252 0.9923989 0.0828252 0.9923989 0.0828252 0.0076011 -0.0828252
21550 0.0069875 -0.0792653 0.9930125 0.0792653 0.9930125 0.0792653 0.0069875 -0.0792653
22537 0.0064246 -0.0758542 0.9935754 0.0758542 0.9935754 0.0758542 0.0064246 -0.0758542
23569 0.0059083 -0.0725862 0.9940917 0.0725862 0.9940917 0.0725862 0.0059083 -0.0725862
24648 0.0054349 -0.0694556 0.9945651 0.0694556 0.9945651 0.0694556 0.0054349 -0.0694556
25777 0.0050007 -0.0664573 0.9949993 0.0664573 0.9949993 0.0664573 0.0050007 -0.0664573
26957 0.0046025 -0.0635859 0.9953975 0.0635859 0.9953975 0.0635859 0.0046025 -0.0635859
28191 0.0042374 -0.0608365 0.9957626 0.0608365 0.9957626 0.0608365 0.0042374 -0.0608365
29482 0.0039027 -0.0582041 0.9960973 0.0582041 0.9960973 0.0582041 0.0039027 -0.0582041
30832 0.0035957 -0.0556841 0.9964043 0.0556841 0.9964043 0.0556841 0.0035957 -0.0556841
32244 0.0033143 -0.0532718 0.9966857 0.0532718 0.9966857 0.0532718 0.0033143 -0.0532718
33721 0.0030562 -0.0509629 0.9969438 0.0509629 0.9969438 0.0509629 0.0030562 -0.0509629
35265 0.0028195 -0.0487532 0.9971805 0.0487532 0.9971805 0.0487532 0.0028195 -0.0487532
36880 0.0026024 -0.0466384 0.9973976 0.0466384 0.9973976 0.0466384 0.0026024 -0.0466384
38569 0.0024032 -0.0446148 0.9975968 0.0446148 0.9975968 0.0446148 0.0024032 -0.0446148
40335 0.0022205 -0.0426784 0.9977795 0.0426784 0.9977795 0.0426784 0.0022205 -0.0426784
42182 0.0020528 -0.0408256 0.9979472 0.0408256 0.9979472 0.0408256 0.0020528 -0.0408256
44113 0.0018988 -0.0390529 0.9981012 0.0390529 0.9981012 0.0390529 0.0018988 -0.0390529
46134 0.0017574 -0.0373570 0.9982426 0.0373570 0.9982426 0.0373570 0.0017574 -0.0373570
48246 0.0016275 -0.0357345 0.9983725 0.0357345 0.9983725 0.0357345 0.0016275 -0.0357345
50455 0.0015081 -0.0341823 0.9984919 0.0341823 0.9984919 0.0341823 0.0015081 -0.0341823
52766 0.0013984 -0.0326974 0.9986016 0.0326974 0.9986016 0.0326974 0.0013984 -0.0326974
55182 0.0012974 -0.0312769 0.9987026 0.0312769 0.9987026 0.0312769 0.0012974 -0.0312769
57709 0.0012045 -0.0299181 0.9987955 0.0299181 0.9987955 0.0299181 0.0012045 -0.0299181
60352 0.0011189 -0.0286183 0.9988811 0.0286183 0.9988811 0.0286183 0.0011189 -0.0286183
63115 0.0010401 -0.0273749 0.9989599 0.0273749 0.9989599 0.0273749 0.0010401 -0.0273749
66005 0.0009674 -0.0261855 0.9990326 0.0261855 0.9990326 0.0261855 0.0009674 -0.0261855
69028 0.0009003 -0.0250478 0.9990997 0.0250478 0.9990997 0.0250478 0.0009003 -0.0250478
72189 0.0008384 -0.0239595 0.9991616 0.0239595 0.9991616 0.0239595 0.0008384 -0.0239595
75495 0.0007813 -0.0229184 0.9992187 0.0229184 0.9992187 0.0229184 0.0007813 -0.0229184
78952 0.0007284 -0.0219226 0.9992716 0.0219226 0.9992716 0.0219226 0.0007284 -0.0219226
82567 0.0006796 -0.0209699 0.9993204 0.0209699 0.9993204 0.0209699 0.0006796 -0.0209699
86348 0.0006344 -0.0200586 0.9993656 0.0200586 0.9993656 0.0200586 0.0006344 -0.0200586
90302 0.0005926 -0.0191869 0.9994074 0.0191869 0.9994074 0.0191869 0.0005926 -0.0191869
94437 0.0005539 -0.0183530 0.9994461 0.0183530 0.9994461 0.0183530 0.0005539 -0.0183530
98762 0.0005180 -0.0175552 0.9994820 0.0175552 0.9994820 0.0175552 0.0005180 -0.0175552
103284 0.0004848 -0.0167920 0.9995152 0.0167920 0.9995152 0.0167920 0.0004848 -0.0167920
108014 0.0004540 -0.0160619 0.9995460 0.0160619 0.9995460 0.0160619 0.0004540 -0.0160619
112960 0.0004255 -0.0153635 0.9995745 0.0153635 0.9995745 0.0153635 0.0004255 -0.0153635
118133 0.0003990 -0.0146953 0.9996010 0.0146953 0.9996010 0.0146953 0.0003990 -0.0146953
123542 0.0003745 -0.0140561 0.9996255 0.0140561 0.9996255 0.0140561 0.0003745 -0.0140561
129199 0.0003517 -0.0134445 0.9996483 0.0134445 0.9996483 0.0134445 0.0003517 -0.0134445
135116 0.0003306 -0.0128595 0.9996694 0.0128595 0.9996694 0.0128595 0.0003306 -0.0128595
141303 0.0003110 -0.0122998 0.9996890 0.0122998 0.9996890 0.0122998 0.0003110 -0.0122998
147774 0.0002929 -0.0117643 0.9997071 0.0117643 0.9997071 0.0117643 0.0002929 -0.0117643
154540 0.0002761 -0.0112521 0.9997239 0.0112521 0.9997239 0.0112521 0.0002761 -0.0112521
161617 0.0002605 -0.0107621 0.9997395 0.0107621 0.9997395 0.0107621 0.0002605 -0.0107621
169018 0.0002460 -0.0102933 0.9997540 0.0102933 0.9997540 0.0102933 0.0002460 -0.0102933
176758 0.0002326 -0.0098448 0.9997674 0.0098448 0.9997674 0.0098448 0.0002326 -0.0098448
184852 0.0002202 -0.0094158 0.9997798 0.0094158 0.9997798 0.0094158 0.0002202 -0.0094158
193316 0.0002087 -0.0090054 0.9997913 0.0090054 0.9997913 0.0090054 0.0002087 -0.0090054
202169 0.0001980 -0.0086127 0.9998020 0.0086127 0.9998020 0.0086127 0.0001980 -0.0086127
211427 0.0001880 -0.0082372 0.9998120 0.0082372 0.9998120 0.0082372 0.0001880 -0.0082372
221108 0.0001788 -0.0078779 0.9998212 0.0078779 0.9998212 0.0078779 0.0001788 -0.0078779
231233 0.0001703 -0.0075342 0.9998297 0.0075342 0.9998297 0.0075342 0.0001703 -0.0075342
241822 0.0001624 -0.0072054 0.9998376 0.0072054 0.9998376 0.0072054 0.0001624 -0.0072054
252896 0.0001550 -0.0068909 0.9998450 0.0068909 0.9998450 0.0068909 0.0001550 -0.0068909
264476 0.0001481 -0.0065900 0.9998519 0.0065900 0.9998519 0.0065900 0.0001481 -0.0065900
276587 0.0001418 -0.0063022 0.9998582 0.0063022 0.9998582 0.0063022 0.0001418 -0.0063022
289253 0.0001358 -0.0060268 0.9998642 0.0060268 0.9998642 0.0060268 0.0001358 -0.0060268
302498 0.0001303 -0.0057635 0.9998697 0.0057635 0.9998697 0.0057635 0.0001303 -0.0057635
316350 0.0001251 -0.0055115 0.9998749 0.0055115 0.9998749 0.0055115 0.0001251 -0.0055115
330837 0.0001203 -0.0052704 0.9998797 0.0052704 0.9998797 0.0052704 0.0001203 -0.0052704
345986 0.0001158 -0.0050398 0.9998842 0.0050398 0.9998842 0.0050398 0.0001158 -0.0050398
361830 0.0001116 -0.0048192 0.9998884 0.0048192 0.9998884 0.0048192 0.0001116 -0.0048192
378399 0.0001077 -0.0046081 0.9998923 0.0046081 0.9998923 0.0046081 0.0001077 -0.0046081
395726 0.0001041 -0.0044062 0.9998959 0.0044062 0.9998959 0.0044062 0.0001041 -0.0044062
413847 0.0001006 -0.0042130 0.9998994 0.0042130 0.9998994 0.0042130 0.0001006 -0.0042130
432798 0.0000974 -0.0040281 0.9999026 0.0040281 0.9999026 0.0040281 0.0000974 -0.0040281
452617 0.0000944 -0.0038512 0.9999056 0.0038512 0.9999056 0.0038512 0.0000944 -0.0038512
473344 0.0000916 -0.0036819 0.9999084 0.0036819 0.9999084 0.0036819 0.0000916 -0.0036819
495019 0.0000890 -0.0035199 0.9999110 0.0035199 0.9999110 0.0035199 0.0000890 -0.0035199
517687 0.0000865 -0.0033649 0.9999135 0.0033649 0.9999135 0.0033649 0.0000865 -0.0033649
541393 0.0000842 -0.0032166 0.9999158 0.0032166 0.9999158 0.0032166 0.0000842 -0.0032166
566185 0.0000820 -0.0030746 0.9999180 0.0030746 0.9999180 0.0030746 0.0000820 -0.0030746
592111 0.0000800 -0.0029387 0.9999200 0.0029387 0.9999200 0.0029387 0.0000800 -0.0029387
619225 0.0000781 -0.0028087 0.9999219 0.0028087 0.9999219 0.0028087 0.0000781 -0.0028087
647581 0.0000763 -0.0026841 0.9999237 0.0026841 0.9999237 0.0026841 0.0000763 -0.0026841
677235 0.0000747 -0.0025650 0.9999253 0.0025650 0.9999253 0.0025650 0.0000747 -0.0025650
708247 0.0000731 -0.0024508 0.9999269 0.0024508 0.9999269 0.0024508 0.0000731 -0.0024508
740679 0.0000717 -0.0023416 0.9999283 0.0023416 0.9999283 0.0023416 0.0000717 -0.0023416
774597 0.0000704 -0.0022370 0.9999296 0.0022370 0.9999296 0.0022370 0.0000704 -0.0022370
810067 0.0000691 -0.0021368 0.9999309 0.0021368 0.9999309 0.0021368 0.0000691 -0.0021368
847162 0.0000680 -0.0020409 0.9999320 0.0020409 0.9999320 0.0020409 0.0000680 -0.0020409
885955 0.0000669 -0.0019490 0.9999331 0.0019490 0.9999331 0.0019490 0.0000669 -0.0019490
926525 0.0000659 -0.0018610 0.9999341 0.0018610 0.9999341 0.0018610 0.0000659 -0.0018610
968953 0.0000650 -0.0017767 0.9999350 0.0017767 0.9999350 0.0017767 0.0000650 -0.0017767
1013323 0.0000642 -0.0016959 0.9999358 0.0016959 0.9999358 0.0016959 0.0000642 -0.0016959
1059725 0.0000634 -0.0016185 0.9999366 0.0016185 0.9999366 0.0016185 0.0000634 -0.0016185
1108252 0.0000627 -0.0015443 0.9999373 0.0015443 0.9999373 0.0015443 0.0000627 -0.0015443
1159002 0.0000621 -0.0014731 0.9999379 0.0014731 0.9999379 0.0014731 0.0000621 -0.0014731
1212075 0.0000615 -0.0014050 0.9999385 0.0014050 0.9999385 0.0014050 0.0000615 -0.0014050
1267578 0.0000609 -0.0013396 0.9999391 0.0013396 0.9999391 0.0013396 0.0000609 -0.0013396
1325623 0.0000605 -0.0012768 0.9999395 0.0012768 0.9999395 0.0012768 0.0000605 -0.0012768
1386327 0.0000600 -0.0012166 0.9999400 0.0012166 0.9999400 0.0012166 0.0000600 -0.0012166
1449809 0.0000596 -0.0011589 0.9999404 0.0011589 0.9999404 0.0011589 0.0000596 -0.0011589
1516199 0.0000593 -0.0011034 0.9999407 0.0011034 0.9999407 0.0011034 0.0000593 -0.0011034
1585629 0.0000590 -0.0010502 0.9999410 0.0010502 0.9999410 0.0010502 0.0000590 -0.0010502
1658239 0.0000587 -0.0009990 0.9999413 0.0009990 0.9999413 0.0009990 0.0000587 -0.0009990
1734173 0.0000585 -0.0009499 0.9999415 0.0009499 0.9999415 0.0009499 0.0000585 -0.0009499
1813585 0.0000583 -0.0009026 0.9999417 0.0009026 0.9999417 0.0009026 0.0000583 -0.0009026
1896632 0.0000582 -0.0008572 0.9999418 0.0008572 0.9999418 0.0008572 0.0000582 -0.0008572
1983483 0.0000581 -0.0008134 0.9999419 0.0008134 0.9999419 0.0008134 0.0000581 -0.0008134
2074311 0.0000580 -0.0007713 0.9999420 0.0007713 0.9999420 0.0007713 0.0000580 -0.0007713
