!Murata Part Number: GRM21AR72E102KW01
!These Parameters are Measured in Series Mode Connection
!Data Generated on Mar 30, 2021
!       o--ll--o
!Port1            Port2
!       o------o
!Operation Temp=25[degC], DC Bias Voltage=0[V]
!Freq. Start=100[kHz] Stop=6[GHz] 401[Steps]
# Hz S RI R 50
!Freq.(Hz) S11(Real) S11(Imag) S21(Real) S21(Imag) S12(Real) S12(Imag) S22(Real) S22(Imag)
100000 0.9949812 -0.0599758 0.0050188 0.0599758 0.0050188 0.0599758 0.9949812 -0.0599758
102789 0.9947618 -0.0616056 0.0052382 0.0616056 0.0052382 0.0616056 0.9947618 -0.0616056
105655 0.9945314 -0.0632799 0.0054686 0.0632799 0.0054686 0.0632799 0.9945314 -0.0632799
108602 0.9942892 -0.0650000 0.0057108 0.0650000 0.0057108 0.0650000 0.9942892 -0.0650000
111630 0.9940346 -0.0667669 0.0059654 0.0667669 0.0059654 0.0667669 0.9940346 -0.0667669
114743 0.9937669 -0.0685819 0.0062331 0.0685819 0.0062331 0.0685819 0.9937669 -0.0685819
117943 0.9934854 -0.0704462 0.0065146 0.0704462 0.0065146 0.0704462 0.9934854 -0.0704462
121232 0.9931891 -0.0723611 0.0068109 0.0723611 0.0068109 0.0723611 0.9931891 -0.0723611
124613 0.9928774 -0.0743279 0.0071226 0.0743279 0.0071226 0.0743279 0.9928774 -0.0743279
128088 0.9925493 -0.0763479 0.0074507 0.0763479 0.0074507 0.0763479 0.9925493 -0.0763479
131660 0.9922038 -0.0784223 0.0077962 0.0784223 0.0077962 0.0784223 0.9922038 -0.0784223
135332 0.9918400 -0.0805526 0.0081600 0.0805526 0.0081600 0.0805526 0.9918400 -0.0805526
139106 0.9914568 -0.0827401 0.0085432 0.0827401 0.0085432 0.0827401 0.9914568 -0.0827401
142985 0.9910532 -0.0849862 0.0089468 0.0849862 0.0089468 0.0849862 0.9910532 -0.0849862
146972 0.9906281 -0.0872923 0.0093719 0.0872923 0.0093719 0.0872923 0.9906281 -0.0872923
151071 0.9901801 -0.0896597 0.0098199 0.0896597 0.0098199 0.0896597 0.9901801 -0.0896597
155284 0.9897080 -0.0920900 0.0102920 0.0920900 0.0102920 0.0920900 0.9897080 -0.0920900
159614 0.9892105 -0.0945846 0.0107895 0.0945846 0.0107895 0.0945846 0.9892105 -0.0945846
164065 0.9886863 -0.0971450 0.0113137 0.0971450 0.0113137 0.0971450 0.9886863 -0.0971450
168641 0.9881337 -0.0997726 0.0118663 0.0997726 0.0118663 0.0997726 0.9881337 -0.0997726
173344 0.9875513 -0.1024690 0.0124487 0.1024690 0.0124487 0.1024690 0.9875513 -0.1024690
178178 0.9869375 -0.1052356 0.0130625 0.1052356 0.0130625 0.1052356 0.9869375 -0.1052356
183146 0.9862905 -0.1080740 0.0137095 0.1080740 0.0137095 0.1080740 0.9862905 -0.1080740
188254 0.9856085 -0.1109856 0.0143915 0.1109856 0.0143915 0.1109856 0.9856085 -0.1109856
193504 0.9848896 -0.1139721 0.0151104 0.1139721 0.0151104 0.1139721 0.9848896 -0.1139721
198900 0.9841320 -0.1170348 0.0158680 0.1170348 0.0158680 0.1170348 0.9841320 -0.1170348
204447 0.9833334 -0.1201754 0.0166666 0.1201754 0.0166666 0.1201754 0.9833334 -0.1201754
210148 0.9824918 -0.1233953 0.0175082 0.1233953 0.0175082 0.1233953 0.9824918 -0.1233953
216008 0.9816048 -0.1266961 0.0183952 0.1266961 0.0183952 0.1266961 0.9816048 -0.1266961
222032 0.9806701 -0.1300792 0.0193299 0.1300792 0.0193299 0.1300792 0.9806701 -0.1300792
228224 0.9796852 -0.1335460 0.0203148 0.1335460 0.0203148 0.1335460 0.9796852 -0.1335460
234589 0.9786475 -0.1370981 0.0213525 0.1370981 0.0213525 0.1370981 0.9786475 -0.1370981
241130 0.9775542 -0.1407369 0.0224458 0.1407369 0.0224458 0.1407369 0.9775542 -0.1407369
247855 0.9764024 -0.1444636 0.0235976 0.1444636 0.0235976 0.1444636 0.9764024 -0.1444636
254767 0.9751893 -0.1482796 0.0248107 0.1482796 0.0248107 0.1482796 0.9751893 -0.1482796
261871 0.9739116 -0.1521863 0.0260884 0.1521863 0.0260884 0.1521863 0.9739116 -0.1521863
269174 0.9725661 -0.1561849 0.0274339 0.1561849 0.0274339 0.1561849 0.9725661 -0.1561849
276681 0.9711495 -0.1602764 0.0288505 0.1602764 0.0288505 0.1602764 0.9711495 -0.1602764
284397 0.9696582 -0.1644620 0.0303418 0.1644620 0.0303418 0.1644620 0.9696582 -0.1644620
292328 0.9680885 -0.1687428 0.0319115 0.1687428 0.0319115 0.1687428 0.9680885 -0.1687428
300480 0.9664366 -0.1731196 0.0335634 0.1731196 0.0335634 0.1731196 0.9664366 -0.1731196
308859 0.9646985 -0.1775932 0.0353015 0.1775932 0.0353015 0.1775932 0.9646985 -0.1775932
317472 0.9628701 -0.1821644 0.0371299 0.1821644 0.0371299 0.1821644 0.9628701 -0.1821644
326326 0.9609471 -0.1868338 0.0390529 0.1868338 0.0390529 0.1868338 0.9609471 -0.1868338
335426 0.9589250 -0.1916017 0.0410750 0.1916017 0.0410750 0.1916017 0.9589250 -0.1916017
344780 0.9567993 -0.1964685 0.0432007 0.1964685 0.0432007 0.1964685 0.9567993 -0.1964685
354395 0.9545651 -0.2014344 0.0454349 0.2014344 0.0454349 0.2014344 0.9545651 -0.2014344
364278 0.9522176 -0.2064992 0.0477824 0.2064992 0.0477824 0.2064992 0.9522176 -0.2064992
374436 0.9497517 -0.2116628 0.0502483 0.2116628 0.0502483 0.2116628 0.9497517 -0.2116628
384878 0.9471621 -0.2169247 0.0528379 0.2169247 0.0528379 0.2169247 0.9471621 -0.2169247
395611 0.9444435 -0.2222842 0.0555565 0.2222842 0.0555565 0.2222842 0.9444435 -0.2222842
406644 0.9415904 -0.2277406 0.0584096 0.2277406 0.0584096 0.2277406 0.9415904 -0.2277406
417984 0.9385971 -0.2332925 0.0614029 0.2332925 0.0614029 0.2332925 0.9385971 -0.2332925
429640 0.9354577 -0.2389386 0.0645423 0.2389386 0.0645423 0.2389386 0.9354577 -0.2389386
441622 0.9321664 -0.2446771 0.0678336 0.2446771 0.0678336 0.2446771 0.9321664 -0.2446771
453937 0.9287171 -0.2505061 0.0712829 0.2505061 0.0712829 0.2505061 0.9287171 -0.2505061
466596 0.9251037 -0.2564231 0.0748963 0.2564231 0.0748963 0.2564231 0.9251037 -0.2564231
479608 0.9213199 -0.2624254 0.0786801 0.2624254 0.0786801 0.2624254 0.9213199 -0.2624254
492983 0.9173595 -0.2685099 0.0826405 0.2685099 0.0826405 0.2685099 0.9173595 -0.2685099
506731 0.9132159 -0.2746732 0.0867841 0.2746732 0.0867841 0.2746732 0.9132159 -0.2746732
520862 0.9088829 -0.2809113 0.0911171 0.2809113 0.0911171 0.2809113 0.9088829 -0.2809113
535387 0.9043540 -0.2872200 0.0956460 0.2872200 0.0956460 0.2872200 0.9043540 -0.2872200
550318 0.8996227 -0.2935945 0.1003773 0.2935945 0.1003773 0.2935945 0.8996227 -0.2935945
565664 0.8946826 -0.3000296 0.1053174 0.3000296 0.1053174 0.3000296 0.8946826 -0.3000296
581439 0.8895274 -0.3065195 0.1104726 0.3065195 0.1104726 0.3065195 0.8895274 -0.3065195
597654 0.8841508 -0.3130581 0.1158492 0.3130581 0.1158492 0.3130581 0.8841508 -0.3130581
614320 0.8785467 -0.3196386 0.1214533 0.3196386 0.1214533 0.3196386 0.8785467 -0.3196386
631452 0.8727090 -0.3262538 0.1272910 0.3262538 0.1272910 0.3262538 0.8727090 -0.3262538
649061 0.8666319 -0.3328960 0.1333681 0.3328960 0.1333681 0.3328960 0.8666319 -0.3328960
667162 0.8603100 -0.3395569 0.1396900 0.3395569 0.1396900 0.3395569 0.8603100 -0.3395569
685767 0.8537378 -0.3462276 0.1462622 0.3462276 0.1462622 0.3462276 0.8537378 -0.3462276
704891 0.8469104 -0.3528987 0.1530896 0.3528987 0.1530896 0.3528987 0.8469104 -0.3528987
724548 0.8398232 -0.3595603 0.1601768 0.3595603 0.1601768 0.3595603 0.8398232 -0.3595603
744754 0.8324719 -0.3662019 0.1675281 0.3662019 0.1675281 0.3662019 0.8324719 -0.3662019
765523 0.8248529 -0.3728124 0.1751471 0.3728124 0.1751471 0.3728124 0.8248529 -0.3728124
786871 0.8169628 -0.3793805 0.1830372 0.3793805 0.1830372 0.3793805 0.8169628 -0.3793805
808814 0.8087991 -0.3858939 0.1912009 0.3858939 0.1912009 0.3858939 0.8087991 -0.3858939
831370 0.8003598 -0.3923403 0.1996402 0.3923403 0.1996402 0.3923403 0.8003598 -0.3923403
854554 0.7916433 -0.3987067 0.2083567 0.3987067 0.2083567 0.3987067 0.7916433 -0.3987067
878385 0.7826492 -0.4049797 0.2173508 0.4049797 0.2173508 0.4049797 0.7826492 -0.4049797
902880 0.7733774 -0.4111456 0.2266226 0.4111456 0.2266226 0.4111456 0.7733774 -0.4111456
928059 0.7638291 -0.4171903 0.2361709 0.4171903 0.2361709 0.4171903 0.7638291 -0.4171903
953940 0.7540060 -0.4230995 0.2459940 0.4230995 0.2459940 0.4230995 0.7540060 -0.4230995
980542 0.7439108 -0.4288586 0.2560892 0.4288586 0.2560892 0.4288586 0.7439108 -0.4288586
1007887 0.7335474 -0.4344529 0.2664526 0.4344529 0.2664526 0.4344529 0.7335474 -0.4344529
1035994 0.7229203 -0.4398677 0.2770797 0.4398677 0.2770797 0.4398677 0.7229203 -0.4398677
1064885 0.7120353 -0.4450881 0.2879647 0.4450881 0.2879647 0.4450881 0.7120353 -0.4450881
1094581 0.7008992 -0.4500995 0.2991008 0.4500995 0.2991008 0.4500995 0.7008992 -0.4500995
1125106 0.6895197 -0.4548872 0.3104803 0.4548872 0.3104803 0.4548872 0.6895197 -0.4548872
1156481 0.6779059 -0.4594370 0.3220941 0.4594370 0.3220941 0.4594370 0.6779059 -0.4594370
1188732 0.6660676 -0.4637349 0.3339324 0.4637349 0.3339324 0.4637349 0.6660676 -0.4637349
1221882 0.6540159 -0.4677674 0.3459841 0.4677674 0.3459841 0.4677674 0.6540159 -0.4677674
1255957 0.6417628 -0.4715215 0.3582372 0.4715215 0.3582372 0.4715215 0.6417628 -0.4715215
1290982 0.6293215 -0.4749847 0.3706785 0.4749847 0.3706785 0.4749847 0.6293215 -0.4749847
1326984 0.6167060 -0.4781454 0.3832940 0.4781454 0.3832940 0.4781454 0.6167060 -0.4781454
1363989 0.6039313 -0.4809928 0.3960687 0.4809928 0.3960687 0.4809928 0.6039313 -0.4809928
1402027 0.5910133 -0.4835168 0.4089867 0.4835168 0.4089867 0.4835168 0.5910133 -0.4835168
1441125 0.5779686 -0.4857085 0.4220314 0.4857085 0.4220314 0.4857085 0.5779686 -0.4857085
1481314 0.5648146 -0.4875600 0.4351854 0.4875600 0.4351854 0.4875600 0.5648146 -0.4875600
1522623 0.5515694 -0.4890645 0.4484306 0.4890645 0.4484306 0.4890645 0.5515694 -0.4890645
1565085 0.5382514 -0.4902163 0.4617486 0.4902163 0.4617486 0.4902163 0.5382514 -0.4902163
1608730 0.5248798 -0.4910111 0.4751202 0.4910111 0.4751202 0.4910111 0.5248798 -0.4910111
1653593 0.5114739 -0.4914458 0.4885261 0.4914458 0.4885261 0.4914458 0.5114739 -0.4914458
1699707 0.4980532 -0.4915186 0.5019468 0.4915186 0.5019468 0.4915186 0.4980532 -0.4915186
1747106 0.4846375 -0.4912290 0.5153625 0.4912290 0.5153625 0.4912290 0.4846375 -0.4912290
1795828 0.4712464 -0.4905779 0.5287536 0.4905779 0.5287536 0.4905779 0.4712464 -0.4905779
1845908 0.4578994 -0.4895676 0.5421006 0.4895676 0.5421006 0.4895676 0.4578994 -0.4895676
1897385 0.4446160 -0.4882015 0.5553840 0.4882015 0.5553840 0.4882015 0.4446160 -0.4882015
1950297 0.4314151 -0.4864845 0.5685849 0.4864845 0.5685849 0.4864845 0.4314151 -0.4864845
2004685 0.4183151 -0.4844226 0.5816849 0.4844226 0.5816849 0.4844226 0.4183151 -0.4844226
2060590 0.4053341 -0.4820231 0.5946659 0.4820231 0.5946659 0.4820231 0.4053341 -0.4820231
2118054 0.3924894 -0.4792944 0.6075106 0.4792944 0.6075106 0.4792944 0.3924894 -0.4792944
2177120 0.3797974 -0.4762459 0.6202026 0.4762459 0.6202026 0.4762459 0.3797974 -0.4762459
2237833 0.3672740 -0.4728880 0.6327260 0.4728880 0.6327260 0.4728880 0.3672740 -0.4728880
2300240 0.3549340 -0.4692322 0.6450660 0.4692322 0.6450660 0.4692322 0.3549340 -0.4692322
2364387 0.3427912 -0.4652905 0.6572088 0.4652905 0.6572088 0.4652905 0.3427912 -0.4652905
2430322 0.3308585 -0.4610759 0.6691415 0.4610759 0.6691415 0.4610759 0.3308585 -0.4610759
2498097 0.3191477 -0.4566017 0.6808523 0.4566017 0.6808523 0.4566017 0.3191477 -0.4566017
2567761 0.3076695 -0.4518821 0.6923305 0.4518821 0.6923305 0.4518821 0.3076695 -0.4518821
2639368 0.2964336 -0.4469315 0.7035664 0.4469315 0.7035664 0.4469315 0.2964336 -0.4469315
2712972 0.2854485 -0.4417645 0.7145515 0.4417645 0.7145515 0.4417645 0.2854485 -0.4417645
2788629 0.2747216 -0.4363963 0.7252784 0.4363963 0.7252784 0.4363963 0.2747216 -0.4363963
2866396 0.2642592 -0.4308419 0.7357408 0.4308419 0.7357408 0.4308419 0.2642592 -0.4308419
2946331 0.2540665 -0.4251165 0.7459335 0.4251165 0.7459335 0.4251165 0.2540665 -0.4251165
3028495 0.2441478 -0.4192353 0.7558522 0.4192353 0.7558522 0.4192353 0.2441478 -0.4192353
3112951 0.2345062 -0.4132132 0.7654938 0.4132132 0.7654938 0.4132132 0.2345062 -0.4132132
3199762 0.2251438 -0.4070651 0.7748562 0.4070651 0.7748562 0.4070651 0.2251438 -0.4070651
3288994 0.2160619 -0.4008056 0.7839381 0.4008056 0.7839381 0.4008056 0.2160619 -0.4008056
3380714 0.2072609 -0.3944489 0.7927391 0.3944489 0.7927391 0.3944489 0.2072609 -0.3944489
3474992 0.1987401 -0.3880089 0.8012599 0.3880089 0.8012599 0.3880089 0.1987401 -0.3880089
3571899 0.1904984 -0.3814990 0.8095016 0.3814990 0.8095016 0.3814990 0.1904984 -0.3814990
3671508 0.1825337 -0.3749323 0.8174663 0.3749323 0.8174663 0.3749323 0.1825337 -0.3749323
3773896 0.1748433 -0.3683212 0.8251567 0.3683212 0.8251567 0.3683212 0.1748433 -0.3683212
3879139 0.1674239 -0.3616776 0.8325761 0.3616776 0.8325761 0.3616776 0.1674239 -0.3616776
3987316 0.1602716 -0.3550131 0.8397284 0.3550131 0.8397284 0.3550131 0.1602716 -0.3550131
4098510 0.1533821 -0.3483385 0.8466179 0.3483385 0.8466179 0.3483385 0.1533821 -0.3483385
4212806 0.1467505 -0.3416640 0.8532495 0.3416640 0.8532495 0.3416640 0.1467505 -0.3416640
4330288 0.1403716 -0.3349993 0.8596284 0.3349993 0.8596284 0.3349993 0.1403716 -0.3349993
4451047 0.1342398 -0.3283536 0.8657602 0.3283536 0.8657602 0.3283536 0.1342398 -0.3283536
4575173 0.1283495 -0.3217353 0.8716505 0.3217353 0.8716505 0.3217353 0.1283495 -0.3217353
4702761 0.1226943 -0.3151523 0.8773057 0.3151523 0.8773057 0.3151523 0.1226943 -0.3151523
4833907 0.1172682 -0.3086121 0.8827318 0.3086121 0.8827318 0.3086121 0.1172682 -0.3086121
4968711 0.1120646 -0.3021215 0.8879354 0.3021215 0.8879354 0.3021215 0.1120646 -0.3021215
5107273 0.1070770 -0.2956867 0.8929230 0.2956867 0.8929230 0.2956867 0.1070770 -0.2956867
5249700 0.1022987 -0.2893133 0.8977013 0.2893133 0.8977013 0.2893133 0.1022987 -0.2893133
5396098 0.0977232 -0.2830068 0.9022768 0.2830068 0.9022768 0.2830068 0.0977232 -0.2830068
5546579 0.0933437 -0.2767717 0.9066563 0.2767717 0.9066563 0.2767717 0.0933437 -0.2767717
5701257 0.0891536 -0.2706123 0.9108464 0.2706123 0.9108464 0.2706123 0.0891536 -0.2706123
5860248 0.0851462 -0.2645324 0.9148538 0.2645324 0.9148538 0.2645324 0.0851462 -0.2645324
6023672 0.0813149 -0.2585354 0.9186851 0.2585354 0.9186851 0.2585354 0.0813149 -0.2585354
6191655 0.0776533 -0.2526243 0.9223467 0.2526243 0.9223467 0.2526243 0.0776533 -0.2526243
6364321 0.0741550 -0.2468016 0.9258450 0.2468016 0.9258450 0.2468016 0.0741550 -0.2468016
6541803 0.0708137 -0.2410695 0.9291863 0.2410695 0.9291863 0.2410695 0.0708137 -0.2410695
6724235 0.0676233 -0.2354299 0.9323767 0.2354299 0.9323767 0.2354299 0.0676233 -0.2354299
6911753 0.0645778 -0.2298844 0.9354222 0.2298844 0.9354222 0.2298844 0.0645778 -0.2298844
7104501 0.0616712 -0.2244342 0.9383288 0.2244342 0.9383288 0.2244342 0.0616712 -0.2244342
7302625 0.0588979 -0.2190803 0.9411021 0.2190803 0.9411021 0.2190803 0.0588979 -0.2190803
7506273 0.0562524 -0.2138234 0.9437476 0.2138234 0.9437476 0.2138234 0.0562524 -0.2138234
7715601 0.0537293 -0.2086640 0.9462707 0.2086640 0.9462707 0.2086640 0.0537293 -0.2086640
7930766 0.0513234 -0.2036025 0.9486766 0.2036025 0.9486766 0.2036025 0.0513234 -0.2036025
8151931 0.0490296 -0.1986387 0.9509704 0.1986387 0.9509704 0.1986387 0.0490296 -0.1986387
8379264 0.0468431 -0.1937728 0.9531569 0.1937728 0.9531569 0.1937728 0.0468431 -0.1937728
8612937 0.0447591 -0.1890043 0.9552409 0.1890043 0.9552409 0.1890043 0.0447591 -0.1890043
8853126 0.0427733 -0.1843328 0.9572267 0.1843328 0.9572267 0.1843328 0.0427733 -0.1843328
9100013 0.0408812 -0.1797578 0.9591188 0.1797578 0.9591188 0.1797578 0.0408812 -0.1797578
9353785 0.0390786 -0.1752786 0.9609214 0.1752786 0.9609214 0.1752786 0.0390786 -0.1752786
9614634 0.0373616 -0.1708943 0.9626384 0.1708943 0.9626384 0.1708943 0.0373616 -0.1708943
9882758 0.0357262 -0.1666041 0.9642738 0.1666041 0.9642738 0.1666041 0.0357262 -0.1666041
10158358 0.0341687 -0.1624070 0.9658313 0.1624070 0.9658313 0.1624070 0.0341687 -0.1624070
10441645 0.0326857 -0.1583019 0.9673143 0.1583019 0.9673143 0.1583019 0.0326857 -0.1583019
10732831 0.0312737 -0.1542878 0.9687263 0.1542878 0.9687263 0.1542878 0.0312737 -0.1542878
11032137 0.0299295 -0.1503633 0.9700705 0.1503633 0.9700705 0.1503633 0.0299295 -0.1503633
11339791 0.0286499 -0.1465272 0.9713501 0.1465272 0.9713501 0.1465272 0.0286499 -0.1465272
11656024 0.0274319 -0.1427783 0.9725681 0.1427783 0.9725681 0.1427783 0.0274319 -0.1427783
11981075 0.0262727 -0.1391152 0.9737273 0.1391152 0.9737273 0.1391152 0.0262727 -0.1391152
12315192 0.0251696 -0.1355366 0.9748304 0.1355366 0.9748304 0.1355366 0.0251696 -0.1355366
12658625 0.0241200 -0.1320411 0.9758800 0.1320411 0.9758800 0.1320411 0.0241200 -0.1320411
13011637 0.0231213 -0.1286273 0.9768787 0.1286273 0.9768787 0.1286273 0.0231213 -0.1286273
13374492 0.0221711 -0.1252937 0.9778289 0.1252937 0.9778289 0.1252937 0.0221711 -0.1252937
13747467 0.0212672 -0.1220390 0.9787328 0.1220390 0.9787328 0.1220390 0.0212672 -0.1220390
14130843 0.0204074 -0.1188616 0.9795926 0.1188616 0.9795926 0.1188616 0.0204074 -0.1188616
14524910 0.0195897 -0.1157602 0.9804103 0.1157602 0.9804103 0.1157602 0.0195897 -0.1157602
14929966 0.0188119 -0.1127333 0.9811881 0.1127333 0.9811881 0.1127333 0.0188119 -0.1127333
15346318 0.0180723 -0.1097794 0.9819277 0.1097794 0.9819277 0.1097794 0.0180723 -0.1097794
15774281 0.0173690 -0.1068972 0.9826310 0.1068972 0.9826310 0.1068972 0.0173690 -0.1068972
16214179 0.0167002 -0.1040850 0.9832998 0.1040850 0.9832998 0.1040850 0.0167002 -0.1040850
16666344 0.0160643 -0.1013416 0.9839357 0.1013416 0.9839357 0.1013416 0.0160643 -0.1013416
17131118 0.0154598 -0.0986655 0.9845402 0.0986655 0.9845402 0.0986655 0.0154598 -0.0986655
17608854 0.0148850 -0.0960553 0.9851150 0.0960553 0.9851150 0.0960553 0.0148850 -0.0960553
18099912 0.0143386 -0.0935095 0.9856614 0.0935095 0.9856614 0.0935095 0.0143386 -0.0935095
18604665 0.0138192 -0.0910269 0.9861808 0.0910269 0.9861808 0.0910269 0.0138192 -0.0910269
19123493 0.0133254 -0.0886059 0.9866746 0.0886059 0.9866746 0.0886059 0.0133254 -0.0886059
19656790 0.0128560 -0.0862452 0.9871440 0.0862452 0.9871440 0.0862452 0.0128560 -0.0862452
20204959 0.0124097 -0.0839436 0.9875903 0.0839436 0.9875903 0.0839436 0.0124097 -0.0839436
20768415 0.0119855 -0.0816996 0.9880145 0.0816996 0.9880145 0.0816996 0.0119855 -0.0816996
21347584 0.0115823 -0.0795119 0.9884177 0.0795119 0.9884177 0.0795119 0.0115823 -0.0795119
21942904 0.0111989 -0.0773792 0.9888011 0.0773792 0.9888011 0.0773792 0.0111989 -0.0773792
22554827 0.0108344 -0.0753003 0.9891656 0.0753003 0.9891656 0.0753003 0.0108344 -0.0753003
23183813 0.0104878 -0.0732739 0.9895122 0.0732739 0.9895122 0.0732739 0.0104878 -0.0732739
23830340 0.0101582 -0.0712987 0.9898418 0.0712987 0.9898418 0.0712987 0.0101582 -0.0712987
24494897 0.0098448 -0.0693736 0.9901552 0.0693736 0.9901552 0.0693736 0.0098448 -0.0693736
25177987 0.0095467 -0.0674972 0.9904533 0.0674972 0.9904533 0.0674972 0.0095467 -0.0674972
25880126 0.0092631 -0.0656683 0.9907369 0.0656683 0.9907369 0.0656683 0.0092631 -0.0656683
26601845 0.0089933 -0.0638860 0.9910067 0.0638860 0.9910067 0.0638860 0.0089933 -0.0638860
27343691 0.0087365 -0.0621488 0.9912635 0.0621488 0.9912635 0.0621488 0.0087365 -0.0621488
28106225 0.0084921 -0.0604558 0.9915079 0.0604558 0.9915079 0.0604558 0.0084921 -0.0604558
28890023 0.0082594 -0.0588058 0.9917406 0.0588058 0.9917406 0.0588058 0.0082594 -0.0588058
29695680 0.0080377 -0.0571978 0.9919623 0.0571978 0.9919623 0.0571978 0.0080377 -0.0571978
30523804 0.0078266 -0.0556305 0.9921734 0.0556305 0.9921734 0.0556305 0.0078266 -0.0556305
31375021 0.0076254 -0.0541030 0.9923746 0.0541030 0.9923746 0.0541030 0.0076254 -0.0541030
32249977 0.0074335 -0.0526142 0.9925665 0.0526142 0.9925665 0.0526142 0.0074335 -0.0526142
33149332 0.0072506 -0.0511631 0.9927494 0.0511631 0.9927494 0.0511631 0.0072506 -0.0511631
34073768 0.0070760 -0.0497487 0.9929240 0.0497487 0.9929240 0.0497487 0.0070760 -0.0497487
35023984 0.0069093 -0.0483700 0.9930907 0.0483700 0.9930907 0.0483700 0.0069093 -0.0483700
36000698 0.0067502 -0.0470260 0.9932498 0.0470260 0.9932498 0.0470260 0.0067502 -0.0470260
37004650 0.0065981 -0.0457157 0.9934019 0.0457157 0.9934019 0.0457157 0.0065981 -0.0457157
38036599 0.0064527 -0.0444383 0.9935473 0.0444383 0.9935473 0.0444383 0.0064527 -0.0444383
39097326 0.0063136 -0.0431928 0.9936864 0.0431928 0.9936864 0.0431928 0.0063136 -0.0431928
