!Murata Part Number: GRM21BR72A474KA73
!These Parameters are Measured in Series Mode Connection
!Data Generated on Mar 30, 2021
!       o--ll--o
!Port1            Port2
!       o------o
!Operation Temp=25[degC], DC Bias Voltage=0[V]
!Freq. Start=100[Hz] Stop=6[GHz] 401[Steps]
# Hz S RI R 50
!Freq.(Hz) S11(Real) S11(Imag) S21(Real) S21(Imag) S12(Real) S12(Imag) S22(Real) S22(Imag)
100 0.9990593 -0.0286673 0.0009407 0.0286673 0.0009407 0.0286673 0.9990593 -0.0286673
105 0.9989771 -0.0299736 0.0010229 0.0299736 0.0010229 0.0299736 0.9989771 -0.0299736
109 0.9988875 -0.0313392 0.0011125 0.0313392 0.0011125 0.0313392 0.9988875 -0.0313392
114 0.9987899 -0.0327667 0.0012101 0.0327667 0.0012101 0.0327667 0.9987899 -0.0327667
120 0.9986835 -0.0342590 0.0013165 0.0342590 0.0013165 0.0342590 0.9986835 -0.0342590
125 0.9985675 -0.0358188 0.0014325 0.0358188 0.0014325 0.0358188 0.9985675 -0.0358188
131 0.9984410 -0.0374492 0.0015590 0.0374492 0.0015590 0.0374492 0.9984410 -0.0374492
137 0.9983032 -0.0391534 0.0016968 0.0391534 0.0016968 0.0391534 0.9983032 -0.0391534
143 0.9981529 -0.0409345 0.0018471 0.0409345 0.0018471 0.0409345 0.9981529 -0.0409345
150 0.9979890 -0.0427961 0.0020110 0.0427961 0.0020110 0.0427961 0.9979890 -0.0427961
156 0.9978103 -0.0447417 0.0021897 0.0447417 0.0021897 0.0447417 0.9978103 -0.0447417
164 0.9976155 -0.0467750 0.0023845 0.0467750 0.0023845 0.0467750 0.9976155 -0.0467750
171 0.9974031 -0.0488998 0.0025969 0.0488998 0.0025969 0.0488998 0.9974031 -0.0488998
179 0.9971714 -0.0511201 0.0028286 0.0511201 0.0028286 0.0511201 0.9971714 -0.0511201
187 0.9969187 -0.0534402 0.0030813 0.0534402 0.0030813 0.0534402 0.9969187 -0.0534402
196 0.9966432 -0.0558644 0.0033568 0.0558644 0.0033568 0.0558644 0.9966432 -0.0558644
205 0.9963426 -0.0583971 0.0036574 0.0583971 0.0036574 0.0583971 0.9963426 -0.0583971
214 0.9960148 -0.0610430 0.0039852 0.0610430 0.0039852 0.0610430 0.9960148 -0.0610430
224 0.9956572 -0.0638070 0.0043428 0.0638070 0.0043428 0.0638070 0.9956572 -0.0638070
234 0.9952670 -0.0666942 0.0047330 0.0666942 0.0047330 0.0666942 0.9952670 -0.0666942
245 0.9948414 -0.0697096 0.0051586 0.0697096 0.0051586 0.0697096 0.9948414 -0.0697096
256 0.9943770 -0.0728586 0.0056230 0.0728586 0.0056230 0.0728586 0.9943770 -0.0728586
268 0.9938704 -0.0761468 0.0061296 0.0761468 0.0061296 0.0761468 0.9938704 -0.0761468
280 0.9933176 -0.0795799 0.0066824 0.0795799 0.0066824 0.0795799 0.9933176 -0.0795799
293 0.9927144 -0.0831637 0.0072856 0.0831637 0.0072856 0.0831637 0.9927144 -0.0831637
306 0.9920563 -0.0869043 0.0079437 0.0869043 0.0079437 0.0869043 0.9920563 -0.0869043
320 0.9913383 -0.0908078 0.0086617 0.0908078 0.0086617 0.0908078 0.9913383 -0.0908078
335 0.9905549 -0.0948805 0.0094451 0.0948805 0.0094451 0.0948805 0.9905549 -0.0948805
350 0.9897003 -0.0991289 0.0102997 0.0991289 0.0102997 0.0991289 0.9897003 -0.0991289
366 0.9887681 -0.1035594 0.0112319 0.1035594 0.0112319 0.1035594 0.9887681 -0.1035594
383 0.9877513 -0.1081789 0.0122487 0.1081789 0.0122487 0.1081789 0.9877513 -0.1081789
401 0.9866424 -0.1129938 0.0133576 0.1129938 0.0133576 0.1129938 0.9866424 -0.1129938
419 0.9854332 -0.1180110 0.0145668 0.1180110 0.0145668 0.1180110 0.9854332 -0.1180110
438 0.9841150 -0.1232372 0.0158850 0.1232372 0.0158850 0.1232372 0.9841150 -0.1232372
458 0.9826781 -0.1286792 0.0173219 0.1286792 0.0173219 0.1286792 0.9826781 -0.1286792
479 0.9811122 -0.1343435 0.0188878 0.1343435 0.0188878 0.1343435 0.9811122 -0.1343435
501 0.9794062 -0.1402366 0.0205938 0.1402366 0.0205938 0.1402366 0.9794062 -0.1402366
524 0.9775481 -0.1463649 0.0224519 0.1463649 0.0224519 0.1463649 0.9775481 -0.1463649
548 0.9755250 -0.1527343 0.0244750 0.1527343 0.0244750 0.1527343 0.9755250 -0.1527343
573 0.9733231 -0.1593507 0.0266769 0.1593507 0.0266769 0.1593507 0.9733231 -0.1593507
600 0.9709274 -0.1662194 0.0290726 0.1662194 0.0290726 0.1662194 0.9709274 -0.1662194
627 0.9683221 -0.1733450 0.0316779 0.1733450 0.0316779 0.1733450 0.9683221 -0.1733450
656 0.9654901 -0.1807318 0.0345099 0.1807318 0.0345099 0.1807318 0.9654901 -0.1807318
686 0.9624133 -0.1883832 0.0375867 0.1883832 0.0375867 0.1883832 0.9624133 -0.1883832
717 0.9590725 -0.1963017 0.0409275 0.1963017 0.0409275 0.1963017 0.9590725 -0.1963017
750 0.9554470 -0.2044888 0.0445530 0.2044888 0.0445530 0.2044888 0.9554470 -0.2044888
784 0.9515155 -0.2129447 0.0484845 0.2129447 0.0484845 0.2129447 0.9515155 -0.2129447
820 0.9472549 -0.2216684 0.0527451 0.2216684 0.0527451 0.2216684 0.9472549 -0.2216684
858 0.9426414 -0.2306572 0.0573586 0.2306572 0.0573586 0.2306572 0.9426414 -0.2306572
897 0.9376500 -0.2399067 0.0623500 0.2399067 0.0623500 0.2399067 0.9376500 -0.2399067
938 0.9322545 -0.2494106 0.0677455 0.2494106 0.0677455 0.2494106 0.9322545 -0.2494106
981 0.9264280 -0.2591601 0.0735720 0.2591601 0.0735720 0.2591601 0.9264280 -0.2591601
1026 0.9201425 -0.2691442 0.0798575 0.2691442 0.0798575 0.2691442 0.9201425 -0.2691442
1073 0.9133698 -0.2793491 0.0866302 0.2793491 0.0866302 0.2793491 0.9133698 -0.2793491
1122 0.9060808 -0.2897582 0.0939192 0.2897582 0.0939192 0.2897582 0.9060808 -0.2897582
1174 0.8982463 -0.3003515 0.1017537 0.3003515 0.1017537 0.3003515 0.8982463 -0.3003515
1227 0.8898375 -0.3111057 0.1101625 0.3111057 0.1101625 0.3111057 0.8898375 -0.3111057
1283 0.8808256 -0.3219939 0.1191744 0.3219939 0.1191744 0.3219939 0.8808256 -0.3219939
1342 0.8711830 -0.3329854 0.1288170 0.3329854 0.1288170 0.3329854 0.8711830 -0.3329854
1404 0.8608831 -0.3440454 0.1391169 0.3440454 0.1391169 0.3440454 0.8608831 -0.3440454
1468 0.8499011 -0.3551352 0.1500989 0.3551352 0.1500989 0.3551352 0.8499011 -0.3551352
1535 0.8382147 -0.3662117 0.1617853 0.3662117 0.1617853 0.3662117 0.8382147 -0.3662117
1606 0.8258044 -0.3772281 0.1741956 0.3772281 0.1741956 0.3772281 0.8258044 -0.3772281
1679 0.8126541 -0.3881333 0.1873459 0.3881333 0.1873459 0.3881333 0.8126541 -0.3881333
1756 0.7987522 -0.3988725 0.2012478 0.3988725 0.2012478 0.3988725 0.7987522 -0.3988725
1836 0.7840917 -0.4093873 0.2159083 0.4093873 0.2159083 0.4093873 0.7840917 -0.4093873
1920 0.7686712 -0.4196165 0.2313288 0.4196165 0.2313288 0.4196165 0.7686712 -0.4196165
2008 0.7524955 -0.4294960 0.2475045 0.4294960 0.2475045 0.4294960 0.7524955 -0.4294960
2100 0.7355759 -0.4389603 0.2644241 0.4389603 0.2644241 0.4389603 0.7355759 -0.4389603
2196 0.7179313 -0.4479424 0.2820687 0.4479424 0.2820687 0.4479424 0.7179313 -0.4479424
2297 0.6995880 -0.4563756 0.3004120 0.4563756 0.3004120 0.4563756 0.6995880 -0.4563756
2402 0.6805800 -0.4641937 0.3194200 0.4641937 0.3194200 0.4641937 0.6805800 -0.4641937
2512 0.6609497 -0.4713328 0.3390503 0.4713328 0.3390503 0.4713328 0.6609497 -0.4713328
2627 0.6407472 -0.4777318 0.3592528 0.4777318 0.3592528 0.4777318 0.6407472 -0.4777318
2748 0.6200302 -0.4833341 0.3799698 0.4833341 0.3799698 0.4833341 0.6200302 -0.4833341
2873 0.5988638 -0.4880885 0.4011362 0.4880885 0.4011362 0.4880885 0.5988638 -0.4880885
3005 0.5773196 -0.4919502 0.4226804 0.4919502 0.4226804 0.4919502 0.5773196 -0.4919502
3143 0.5554747 -0.4948821 0.4445253 0.4948821 0.4445253 0.4948821 0.5554747 -0.4948821
3287 0.5334112 -0.4968555 0.4665888 0.4968555 0.4665888 0.4968555 0.5334112 -0.4968555
3437 0.5112142 -0.4978505 0.4887858 0.4978505 0.4887858 0.4978505 0.5112142 -0.4978505
3594 0.4889715 -0.4978570 0.5110285 0.4978570 0.5110285 0.4978570 0.4889715 -0.4978570
3759 0.4667712 -0.4968746 0.5332288 0.4968746 0.5332288 0.4968746 0.4667712 -0.4968746
3931 0.4447011 -0.4949127 0.5552989 0.4949127 0.5552989 0.4949127 0.4447011 -0.4949127
4111 0.4228469 -0.4919905 0.5771531 0.4919905 0.5771531 0.4919905 0.4228469 -0.4919905
4299 0.4012908 -0.4881361 0.5987092 0.4881361 0.5987092 0.4881361 0.4012908 -0.4881361
4496 0.3801108 -0.4833861 0.6198892 0.4833861 0.6198892 0.4833861 0.3801108 -0.4833861
4702 0.3593791 -0.4777850 0.6406209 0.4777850 0.6406209 0.4777850 0.3593791 -0.4777850
4918 0.3391613 -0.4713838 0.6608387 0.4713838 0.6608387 0.4713838 0.3391613 -0.4713838
5143 0.3195161 -0.4642392 0.6804839 0.4642392 0.6804839 0.4642392 0.3195161 -0.4642392
5378 0.3004942 -0.4564121 0.6995058 0.4564121 0.6995058 0.4564121 0.3004942 -0.4564121
5625 0.2821386 -0.4479670 0.7178614 0.4479670 0.7178614 0.4479670 0.2821386 -0.4479670
5882 0.2644840 -0.4389703 0.7355160 0.4389703 0.7355160 0.4389703 0.2644840 -0.4389703
6151 0.2475572 -0.4294893 0.7524428 0.4294893 0.7524428 0.4294893 0.2475572 -0.4294893
6433 0.2313772 -0.4195914 0.7686228 0.4195914 0.7686228 0.4195914 0.2313772 -0.4195914
6728 0.2159559 -0.4093431 0.7840441 0.4093431 0.7840441 0.4093431 0.2159559 -0.4093431
7036 0.2012980 -0.3988087 0.7987020 0.3988087 0.7987020 0.3988087 0.2012980 -0.3988087
7358 0.1874022 -0.3880504 0.8125978 0.3880504 0.8125978 0.3880504 0.1874022 -0.3880504
7695 0.1742613 -0.3771271 0.8257387 0.3771271 0.8257387 0.3771271 0.1742613 -0.3771271
8047 0.1618633 -0.3660941 0.8381367 0.3660941 0.8381367 0.3660941 0.1618633 -0.3660941
8416 0.1501919 -0.3550030 0.8498081 0.3550030 0.8498081 0.3550030 0.1501919 -0.3550030
8801 0.1392273 -0.3439012 0.8607727 0.3439012 0.8607727 0.3439012 0.1392273 -0.3439012
9204 0.1289464 -0.3328318 0.8710536 0.3328318 0.8710536 0.3328318 0.1289464 -0.3328318
9626 0.1193241 -0.3218341 0.8806759 0.3218341 0.8806759 0.3218341 0.1193241 -0.3218341
10066 0.1103334 -0.3109426 0.8896666 0.3109426 0.8896666 0.3109426 0.1103334 -0.3109426
10527 0.1019458 -0.3001883 0.8980542 0.3001883 0.8980542 0.3001883 0.1019458 -0.3001883
11009 0.0941324 -0.2895980 0.9058676 0.2895980 0.9058676 0.2895980 0.0941324 -0.2895980
11514 0.0868637 -0.2791949 0.9131363 0.2791949 0.9131363 0.2791949 0.0868637 -0.2791949
12041 0.0801100 -0.2689986 0.9198900 0.2689986 0.9198900 0.2689986 0.0801100 -0.2689986
12592 0.0738422 -0.2590256 0.9261578 0.2590256 0.9261578 0.2590256 0.0738422 -0.2590256
13169 0.0680314 -0.2492892 0.9319686 0.2492892 0.9319686 0.2492892 0.0680314 -0.2492892
13772 0.0626496 -0.2398004 0.9373504 0.2398004 0.9373504 0.2398004 0.0626496 -0.2398004
14402 0.0576696 -0.2305673 0.9423304 0.2305673 0.9423304 0.2305673 0.0576696 -0.2305673
15062 0.0530652 -0.2215959 0.9469348 0.2215959 0.9469348 0.2215959 0.0530652 -0.2215959
15752 0.0488113 -0.2128904 0.9511887 0.2128904 0.9511887 0.2128904 0.0488113 -0.2128904
16473 0.0448840 -0.2044529 0.9551160 0.2044529 0.9551160 0.2044529 0.0448840 -0.2044529
17227 0.0412605 -0.1962844 0.9587395 0.1962844 0.9587395 0.1962844 0.0412605 -0.1962844
18016 0.0379194 -0.1883841 0.9620806 0.1883841 0.9620806 0.1883841 0.0379194 -0.1883841
18841 0.0348402 -0.1807503 0.9651598 0.1807503 0.9651598 0.1807503 0.0348402 -0.1807503
19704 0.0320039 -0.1733802 0.9679961 0.1733802 0.9679961 0.1733802 0.0320039 -0.1733802
20606 0.0293926 -0.1662703 0.9706074 0.1662703 0.9706074 0.1662703 0.0293926 -0.1662703
21550 0.0269894 -0.1594163 0.9730106 0.1594163 0.9730106 0.1594163 0.0269894 -0.1594163
22537 0.0247787 -0.1528131 0.9752213 0.1528131 0.9752213 0.1528131 0.0247787 -0.1528131
23569 0.0227457 -0.1464555 0.9772543 0.1464555 0.9772543 0.1464555 0.0227457 -0.1464555
24648 0.0208769 -0.1403377 0.9791231 0.1403377 0.9791231 0.1403377 0.0208769 -0.1403377
25777 0.0191595 -0.1344536 0.9808405 0.1344536 0.9808405 0.1344536 0.0191595 -0.1344536
26957 0.0175818 -0.1287968 0.9824182 0.1287968 0.9824182 0.1287968 0.0175818 -0.1287968
28191 0.0161328 -0.1233610 0.9838672 0.1233610 0.9838672 0.1233610 0.0161328 -0.1233610
29482 0.0148024 -0.1181395 0.9851976 0.1181395 0.9851976 0.1181395 0.0148024 -0.1181395
30832 0.0135812 -0.1131257 0.9864188 0.1131257 0.9864188 0.1131257 0.0135812 -0.1131257
32244 0.0124604 -0.1083129 0.9875396 0.1083129 0.9875396 0.1083129 0.0124604 -0.1083129
33721 0.0114321 -0.1036946 0.9885679 0.1036946 0.9885679 0.1036946 0.0114321 -0.1036946
35265 0.0104888 -0.0992640 0.9895112 0.0992640 0.9895112 0.0992640 0.0104888 -0.0992640
36880 0.0096237 -0.0950148 0.9903763 0.0950148 0.9903763 0.0950148 0.0096237 -0.0950148
38569 0.0088303 -0.0909403 0.9911697 0.0909403 0.9911697 0.0909403 0.0088303 -0.0909403
40335 0.0081030 -0.0870344 0.9918970 0.0870344 0.9918970 0.0870344 0.0081030 -0.0870344
42182 0.0074362 -0.0832909 0.9925638 0.0832909 0.9925638 0.0832909 0.0074362 -0.0832909
44113 0.0068250 -0.0797036 0.9931750 0.0797036 0.9931750 0.0797036 0.0068250 -0.0797036
46134 0.0062649 -0.0762666 0.9937351 0.0762666 0.9937351 0.0762666 0.0062649 -0.0762666
48246 0.0057517 -0.0729742 0.9942483 0.0729742 0.9942483 0.0729742 0.0057517 -0.0729742
50455 0.0052813 -0.0698208 0.9947187 0.0698208 0.9947187 0.0698208 0.0052813 -0.0698208
52766 0.0048504 -0.0668009 0.9951496 0.0668009 0.9951496 0.0668009 0.0048504 -0.0668009
55182 0.0044556 -0.0639093 0.9955444 0.0639093 0.9955444 0.0639093 0.0044556 -0.0639093
57709 0.0040939 -0.0611407 0.9959061 0.0611407 0.9959061 0.0611407 0.0040939 -0.0611407
60352 0.0037625 -0.0584903 0.9962375 0.0584903 0.9962375 0.0584903 0.0037625 -0.0584903
63115 0.0034590 -0.0559533 0.9965410 0.0559533 0.9965410 0.0559533 0.0034590 -0.0559533
66005 0.0031808 -0.0535250 0.9968192 0.0535250 0.9968192 0.0535250 0.0031808 -0.0535250
69028 0.0029260 -0.0512009 0.9970740 0.0512009 0.9970740 0.0512009 0.0029260 -0.0512009
72189 0.0026925 -0.0489769 0.9973075 0.0489769 0.9973075 0.0489769 0.0026925 -0.0489769
75495 0.0024785 -0.0468486 0.9975215 0.0468486 0.9975215 0.0468486 0.0024785 -0.0468486
78952 0.0022824 -0.0448121 0.9977176 0.0448121 0.9977176 0.0448121 0.0022824 -0.0448121
82567 0.0021026 -0.0428636 0.9978974 0.0428636 0.9978974 0.0428636 0.0021026 -0.0428636
86348 0.0019378 -0.0409993 0.9980622 0.0409993 0.9980622 0.0409993 0.0019378 -0.0409993
90302 0.0017866 -0.0392157 0.9982134 0.0392157 0.9982134 0.0392157 0.0017866 -0.0392157
94437 0.0016480 -0.0375093 0.9983520 0.0375093 0.9983520 0.0375093 0.0016480 -0.0375093
98762 0.0015208 -0.0358769 0.9984792 0.0358769 0.9984792 0.0358769 0.0015208 -0.0358769
103284 0.0014040 -0.0343154 0.9985960 0.0343154 0.9985960 0.0343154 0.0014040 -0.0343154
108014 0.0012969 -0.0328216 0.9987031 0.0328216 0.9987031 0.0328216 0.0012969 -0.0328216
112960 0.0011984 -0.0313926 0.9988016 0.0313926 0.9988016 0.0313926 0.0011984 -0.0313926
118133 0.0011080 -0.0300257 0.9988920 0.0300257 0.9988920 0.0300257 0.0011080 -0.0300257
123542 0.0010249 -0.0287182 0.9989751 0.0287182 0.9989751 0.0287182 0.0010249 -0.0287182
129199 0.0009485 -0.0274676 0.9990515 0.0274676 0.9990515 0.0274676 0.0009485 -0.0274676
135116 0.0008782 -0.0262712 0.9991218 0.0262712 0.9991218 0.0262712 0.0008782 -0.0262712
141303 0.0008135 -0.0251269 0.9991865 0.0251269 0.9991865 0.0251269 0.0008135 -0.0251269
147774 0.0007540 -0.0240323 0.9992460 0.0240323 0.9992460 0.0240323 0.0007540 -0.0240323
154540 0.0006992 -0.0229853 0.9993008 0.0229853 0.9993008 0.0229853 0.0006992 -0.0229853
161617 0.0006486 -0.0219838 0.9993514 0.0219838 0.9993514 0.0219838 0.0006486 -0.0219838
169018 0.0006021 -0.0210258 0.9993979 0.0210258 0.9993979 0.0210258 0.0006021 -0.0210258
176758 0.0005591 -0.0201094 0.9994409 0.0201094 0.9994409 0.0201094 0.0005591 -0.0201094
184852 0.0005196 -0.0192328 0.9994804 0.0192328 0.9994804 0.0192328 0.0005196 -0.0192328
193316 0.0004831 -0.0183943 0.9995169 0.0183943 0.9995169 0.0183943 0.0004831 -0.0183943
202169 0.0004494 -0.0175922 0.9995506 0.0175922 0.9995506 0.0175922 0.0004494 -0.0175922
211427 0.0004183 -0.0168250 0.9995817 0.0168250 0.9995817 0.0168250 0.0004183 -0.0168250
221108 0.0003896 -0.0160910 0.9996104 0.0160910 0.9996104 0.0160910 0.0003896 -0.0160910
231233 0.0003631 -0.0153889 0.9996369 0.0153889 0.9996369 0.0153889 0.0003631 -0.0153889
241822 0.0003387 -0.0147173 0.9996613 0.0147173 0.9996613 0.0147173 0.0003387 -0.0147173
252896 0.0003162 -0.0140748 0.9996838 0.0140748 0.9996838 0.0140748 0.0003162 -0.0140748
264476 0.0002954 -0.0134602 0.9997046 0.0134602 0.9997046 0.0134602 0.0002954 -0.0134602
276587 0.0002762 -0.0128723 0.9997238 0.0128723 0.9997238 0.0128723 0.0002762 -0.0128723
289253 0.0002585 -0.0123099 0.9997415 0.0123099 0.9997415 0.0123099 0.0002585 -0.0123099
302498 0.0002422 -0.0117719 0.9997578 0.0117719 0.9997578 0.0117719 0.0002422 -0.0117719
316350 0.0002271 -0.0112572 0.9997729 0.0112572 0.9997729 0.0112572 0.0002271 -0.0112572
330837 0.0002133 -0.0107649 0.9997867 0.0107649 0.9997867 0.0107649 0.0002133 -0.0107649
345986 0.0002005 -0.0102939 0.9997995 0.0102939 0.9997995 0.0102939 0.0002005 -0.0102939
361830 0.0001887 -0.0098434 0.9998113 0.0098434 0.9998113 0.0098434 0.0001887 -0.0098434
378399 0.0001779 -0.0094124 0.9998221 0.0094124 0.9998221 0.0094124 0.0001779 -0.0094124
395726 0.0001679 -0.0090001 0.9998321 0.0090001 0.9998321 0.0090001 0.0001679 -0.0090001
413847 0.0001587 -0.0086057 0.9998413 0.0086057 0.9998413 0.0086057 0.0001587 -0.0086057
432798 0.0001503 -0.0082285 0.9998497 0.0082285 0.9998497 0.0082285 0.0001503 -0.0082285
452617 0.0001425 -0.0078676 0.9998575 0.0078676 0.9998575 0.0078676 0.0001425 -0.0078676
473344 0.0001354 -0.0075224 0.9998646 0.0075224 0.9998646 0.0075224 0.0001354 -0.0075224
495019 0.0001288 -0.0071921 0.9998712 0.0071921 0.9998712 0.0071921 0.0001288 -0.0071921
517687 0.0001228 -0.0068762 0.9998772 0.0068762 0.9998772 0.0068762 0.0001228 -0.0068762
541393 0.0001173 -0.0065740 0.9998827 0.0065740 0.9998827 0.0065740 0.0001173 -0.0065740
566185 0.0001122 -0.0062848 0.9998878 0.0062848 0.9998878 0.0062848 0.0001122 -0.0062848
592111 0.0001076 -0.0060083 0.9998924 0.0060083 0.9998924 0.0060083 0.0001076 -0.0060083
619225 0.0001033 -0.0057437 0.9998967 0.0057437 0.9998967 0.0057437 0.0001033 -0.0057437
647581 0.0000994 -0.0054905 0.9999006 0.0054905 0.9999006 0.0054905 0.0000994 -0.0054905
677235 0.0000958 -0.0052484 0.9999042 0.0052484 0.9999042 0.0052484 0.0000958 -0.0052484
708247 0.0000925 -0.0050167 0.9999075 0.0050167 0.9999075 0.0050167 0.0000925 -0.0050167
740679 0.0000895 -0.0047950 0.9999105 0.0047950 0.9999105 0.0047950 0.0000895 -0.0047950
774597 0.0000867 -0.0045830 0.9999133 0.0045830 0.9999133 0.0045830 0.0000867 -0.0045830
810067 0.0000842 -0.0043800 0.9999158 0.0043800 0.9999158 0.0043800 0.0000842 -0.0043800
847162 0.0000819 -0.0041859 0.9999181 0.0041859 0.9999181 0.0041859 0.0000819 -0.0041859
885955 0.0000798 -0.0040001 0.9999202 0.0040001 0.9999202 0.0040001 0.0000798 -0.0040001
926525 0.0000778 -0.0038223 0.9999222 0.0038223 0.9999222 0.0038223 0.0000778 -0.0038223
968953 0.0000761 -0.0036522 0.9999239 0.0036522 0.9999239 0.0036522 0.0000761 -0.0036522
1013323 0.0000744 -0.0034893 0.9999256 0.0034893 0.9999256 0.0034893 0.0000744 -0.0034893
1059725 0.0000730 -0.0033335 0.9999270 0.0033335 0.9999270 0.0033335 0.0000730 -0.0033335
1108252 0.0000716 -0.0031843 0.9999284 0.0031843 0.9999284 0.0031843 0.0000716 -0.0031843
1159002 0.0000704 -0.0030415 0.9999296 0.0030415 0.9999296 0.0030415 0.0000704 -0.0030415
1212075 0.0000693 -0.0029047 0.9999307 0.0029047 0.9999307 0.0029047 0.0000693 -0.0029047
1267578 0.0000683 -0.0027738 0.9999317 0.0027738 0.9999317 0.0027738 0.0000683 -0.0027738
1325623 0.0000673 -0.0026485 0.9999327 0.0026485 0.9999327 0.0026485 0.0000673 -0.0026485
1386327 0.0000665 -0.0025284 0.9999335 0.0025284 0.9999335 0.0025284 0.0000665 -0.0025284
1449809 0.0000657 -0.0024135 0.9999343 0.0024135 0.9999343 0.0024135 0.0000657 -0.0024135
1516199 0.0000651 -0.0023033 0.9999349 0.0023033 0.9999349 0.0023033 0.0000651 -0.0023033
1585629 0.0000644 -0.0021978 0.9999356 0.0021978 0.9999356 0.0021978 0.0000644 -0.0021978
1658239 0.0000639 -0.0020966 0.9999361 0.0020966 0.9999361 0.0020966 0.0000639 -0.0020966
1734173 0.0000634 -0.0019997 0.9999366 0.0019997 0.9999366 0.0019997 0.0000634 -0.0019997
1813585 0.0000630 -0.0019068 0.9999370 0.0019068 0.9999370 0.0019068 0.0000630 -0.0019068
1896632 0.0000626 -0.0018177 0.9999374 0.0018177 0.9999374 0.0018177 0.0000626 -0.0018177
1983483 0.0000622 -0.0017322 0.9999378 0.0017322 0.9999378 0.0017322 0.0000622 -0.0017322
2074311 0.0000619 -0.0016502 0.9999381 0.0016502 0.9999381 0.0016502 0.0000619 -0.0016502
