!Murata Part Number: GRM21BR11E104KA01
!These Parameters are Measured in Series Mode Connection
!Data Generated on Mar 30, 2021
!       o--ll--o
!Port1            Port2
!       o------o
!Operation Temp=25[degC], DC Bias Voltage=0[V]
!Freq. Start=100[kHz] Stop=6[GHz] 401[Steps]
# Hz S RI R 50
!Freq.(Hz) S11(Real) S11(Imag) S21(Real) S21(Imag) S12(Real) S12(Imag) S22(Real) S22(Imag)
100000 0.0290697 -0.1629244 0.9709303 0.1629244 0.9709303 0.1629244 0.0290697 -0.1629244
102789 0.0276137 -0.1587745 0.9723863 0.1587745 0.9723863 0.1587745 0.0276137 -0.1587745
105655 0.0262301 -0.1547182 0.9737699 0.1547182 0.9737699 0.1547182 0.0262301 -0.1547182
108602 0.0249155 -0.1507543 0.9750845 0.1507543 0.9750845 0.1507543 0.0249155 -0.1507543
111630 0.0236667 -0.1468817 0.9763333 0.1468817 0.9763333 0.1468817 0.0236667 -0.1468817
114743 0.0224804 -0.1430990 0.9775196 0.1430990 0.9775196 0.1430990 0.0224804 -0.1430990
117943 0.0213537 -0.1394049 0.9786463 0.1394049 0.9786463 0.1394049 0.0213537 -0.1394049
121232 0.0202836 -0.1357981 0.9797164 0.1357981 0.9797164 0.1357981 0.0202836 -0.1357981
124613 0.0192675 -0.1322771 0.9807325 0.1322771 0.9807325 0.1322771 0.0192675 -0.1322771
128088 0.0183026 -0.1288404 0.9816974 0.1288404 0.9816974 0.1288404 0.0183026 -0.1288404
131660 0.0173865 -0.1254867 0.9826135 0.1254867 0.9826135 0.1254867 0.0173865 -0.1254867
135332 0.0165168 -0.1222143 0.9834832 0.1222143 0.9834832 0.1222143 0.0165168 -0.1222143
139106 0.0156911 -0.1190219 0.9843089 0.1190219 0.9843089 0.1190219 0.0156911 -0.1190219
142985 0.0149073 -0.1159078 0.9850927 0.1159078 0.9850927 0.1159078 0.0149073 -0.1159078
146972 0.0141633 -0.1128707 0.9858367 0.1128707 0.9858367 0.1128707 0.0141633 -0.1128707
151071 0.0134570 -0.1099088 0.9865430 0.1099088 0.9865430 0.1099088 0.0134570 -0.1099088
155284 0.0127866 -0.1070208 0.9872134 0.1070208 0.9872134 0.1070208 0.0127866 -0.1070208
159614 0.0121503 -0.1042050 0.9878497 0.1042050 0.9878497 0.1042050 0.0121503 -0.1042050
164065 0.0115464 -0.1014600 0.9884536 0.1014600 0.9884536 0.1014600 0.0115464 -0.1014600
168641 0.0109732 -0.0987842 0.9890268 0.0987842 0.9890268 0.0987842 0.0109732 -0.0987842
173344 0.0104291 -0.0961762 0.9895709 0.0961762 0.9895709 0.0961762 0.0104291 -0.0961762
178178 0.0099127 -0.0936344 0.9900873 0.0936344 0.9900873 0.0936344 0.0099127 -0.0936344
183146 0.0094225 -0.0911574 0.9905775 0.0911574 0.9905775 0.0911574 0.0094225 -0.0911574
188254 0.0089573 -0.0887437 0.9910427 0.0887437 0.9910427 0.0887437 0.0089573 -0.0887437
193504 0.0085157 -0.0863918 0.9914843 0.0863918 0.9914843 0.0863918 0.0085157 -0.0863918
198900 0.0080966 -0.0841004 0.9919034 0.0841004 0.9919034 0.0841004 0.0080966 -0.0841004
204447 0.0076988 -0.0818680 0.9923012 0.0818680 0.9923012 0.0818680 0.0076988 -0.0818680
210148 0.0073211 -0.0796932 0.9926789 0.0796932 0.9926789 0.0796932 0.0073211 -0.0796932
216008 0.0069626 -0.0775747 0.9930374 0.0775747 0.9930374 0.0775747 0.0069626 -0.0775747
222032 0.0066223 -0.0755111 0.9933777 0.0755111 0.9933777 0.0755111 0.0066223 -0.0755111
228224 0.0062993 -0.0735011 0.9937007 0.0735011 0.9937007 0.0735011 0.0062993 -0.0735011
234589 0.0059926 -0.0715434 0.9940074 0.0715434 0.9940074 0.0715434 0.0059926 -0.0715434
241130 0.0057014 -0.0696368 0.9942986 0.0696368 0.9942986 0.0696368 0.0057014 -0.0696368
247855 0.0054250 -0.0677799 0.9945750 0.0677799 0.9945750 0.0677799 0.0054250 -0.0677799
254767 0.0051625 -0.0659715 0.9948375 0.0659715 0.9948375 0.0659715 0.0051625 -0.0659715
261871 0.0049133 -0.0642105 0.9950867 0.0642105 0.9950867 0.0642105 0.0049133 -0.0642105
269174 0.0046767 -0.0624957 0.9953233 0.0624957 0.9953233 0.0624957 0.0046767 -0.0624957
276681 0.0044520 -0.0608259 0.9955480 0.0608259 0.9955480 0.0608259 0.0044520 -0.0608259
284397 0.0042387 -0.0591999 0.9957613 0.0591999 0.9957613 0.0591999 0.0042387 -0.0591999
292328 0.0040361 -0.0576167 0.9959639 0.0576167 0.9959639 0.0576167 0.0040361 -0.0576167
300480 0.0038437 -0.0560752 0.9961563 0.0560752 0.9961563 0.0560752 0.0038437 -0.0560752
308859 0.0036610 -0.0545744 0.9963390 0.0545744 0.9963390 0.0545744 0.0036610 -0.0545744
317472 0.0034875 -0.0531131 0.9965125 0.0531131 0.9965125 0.0531131 0.0034875 -0.0531131
326326 0.0033227 -0.0516905 0.9966773 0.0516905 0.9966773 0.0516905 0.0033227 -0.0516905
335426 0.0031662 -0.0503054 0.9968338 0.0503054 0.9968338 0.0503054 0.0031662 -0.0503054
344780 0.0030175 -0.0489570 0.9969825 0.0489570 0.9969825 0.0489570 0.0030175 -0.0489570
354395 0.0028763 -0.0476442 0.9971237 0.0476442 0.9971237 0.0476442 0.0028763 -0.0476442
364278 0.0027422 -0.0463663 0.9972578 0.0463663 0.9972578 0.0463663 0.0027422 -0.0463663
374436 0.0026148 -0.0451222 0.9973852 0.0451222 0.9973852 0.0451222 0.0026148 -0.0451222
384878 0.0024938 -0.0439112 0.9975062 0.0439112 0.9975062 0.0439112 0.0024938 -0.0439112
395611 0.0023788 -0.0427323 0.9976212 0.0427323 0.9976212 0.0427323 0.0023788 -0.0427323
406644 0.0022696 -0.0415846 0.9977304 0.0415846 0.9977304 0.0415846 0.0022696 -0.0415846
417984 0.0021659 -0.0404675 0.9978341 0.0404675 0.9978341 0.0404675 0.0021659 -0.0404675
429640 0.0020673 -0.0393802 0.9979327 0.0393802 0.9979327 0.0393802 0.0020673 -0.0393802
441622 0.0019736 -0.0383217 0.9980264 0.0383217 0.9980264 0.0383217 0.0019736 -0.0383217
453937 0.0018846 -0.0372914 0.9981154 0.0372914 0.9981154 0.0372914 0.0018846 -0.0372914
466596 0.0018001 -0.0362885 0.9981999 0.0362885 0.9981999 0.0362885 0.0018001 -0.0362885
479608 0.0017197 -0.0353124 0.9982803 0.0353124 0.9982803 0.0353124 0.0017197 -0.0353124
492983 0.0016434 -0.0343623 0.9983566 0.0343623 0.9983566 0.0343623 0.0016434 -0.0343623
506731 0.0015708 -0.0334375 0.9984292 0.0334375 0.9984292 0.0334375 0.0015708 -0.0334375
520862 0.0015019 -0.0325374 0.9984981 0.0325374 0.9984981 0.0325374 0.0015019 -0.0325374
535387 0.0014363 -0.0316613 0.9985637 0.0316613 0.9985637 0.0316613 0.0014363 -0.0316613
550318 0.0013741 -0.0308086 0.9986259 0.0308086 0.9986259 0.0308086 0.0013741 -0.0308086
565664 0.0013149 -0.0299786 0.9986851 0.0299786 0.9986851 0.0299786 0.0013149 -0.0299786
581439 0.0012586 -0.0291709 0.9987414 0.0291709 0.9987414 0.0291709 0.0012586 -0.0291709
597654 0.0012051 -0.0283847 0.9987949 0.0283847 0.9987949 0.0283847 0.0012051 -0.0283847
614320 0.0011543 -0.0276195 0.9988457 0.0276195 0.9988457 0.0276195 0.0011543 -0.0276195
631452 0.0011059 -0.0268747 0.9988941 0.0268747 0.9988941 0.0268747 0.0011059 -0.0268747
649061 0.0010600 -0.0261499 0.9989400 0.0261499 0.9989400 0.0261499 0.0010600 -0.0261499
667162 0.0010163 -0.0254445 0.9989837 0.0254445 0.9989837 0.0254445 0.0010163 -0.0254445
685767 0.0009748 -0.0247579 0.9990252 0.0247579 0.9990252 0.0247579 0.0009748 -0.0247579
704891 0.0009353 -0.0240897 0.9990647 0.0240897 0.9990647 0.0240897 0.0009353 -0.0240897
724548 0.0008977 -0.0234393 0.9991023 0.0234393 0.9991023 0.0234393 0.0008977 -0.0234393
744754 0.0008620 -0.0228064 0.9991380 0.0228064 0.9991380 0.0228064 0.0008620 -0.0228064
765523 0.0008281 -0.0221904 0.9991719 0.0221904 0.9991719 0.0221904 0.0008281 -0.0221904
786871 0.0007958 -0.0215909 0.9992042 0.0215909 0.9992042 0.0215909 0.0007958 -0.0215909
808814 0.0007651 -0.0210074 0.9992349 0.0210074 0.9992349 0.0210074 0.0007651 -0.0210074
831370 0.0007359 -0.0204396 0.9992641 0.0204396 0.9992641 0.0204396 0.0007359 -0.0204396
854554 0.0007081 -0.0198869 0.9992919 0.0198869 0.9992919 0.0198869 0.0007081 -0.0198869
878385 0.0006817 -0.0193491 0.9993183 0.0193491 0.9993183 0.0193491 0.0006817 -0.0193491
902880 0.0006566 -0.0188256 0.9993434 0.0188256 0.9993434 0.0188256 0.0006566 -0.0188256
928059 0.0006327 -0.0183162 0.9993673 0.0183162 0.9993673 0.0183162 0.0006327 -0.0183162
953940 0.0006100 -0.0178204 0.9993900 0.0178204 0.9993900 0.0178204 0.0006100 -0.0178204
980542 0.0005884 -0.0173378 0.9994116 0.0173378 0.9994116 0.0173378 0.0005884 -0.0173378
1007887 0.0005678 -0.0168682 0.9994322 0.0168682 0.9994322 0.0168682 0.0005678 -0.0168682
1035994 0.0005482 -0.0164112 0.9994518 0.0164112 0.9994518 0.0164112 0.0005482 -0.0164112
1064885 0.0005296 -0.0159664 0.9994704 0.0159664 0.9994704 0.0159664 0.0005296 -0.0159664
1094581 0.0005119 -0.0155335 0.9994881 0.0155335 0.9994881 0.0155335 0.0005119 -0.0155335
1125106 0.0004950 -0.0151123 0.9995050 0.0151123 0.9995050 0.0151123 0.0004950 -0.0151123
1156481 0.0004790 -0.0147022 0.9995210 0.0147022 0.9995210 0.0147022 0.0004790 -0.0147022
1188732 0.0004637 -0.0143032 0.9995363 0.0143032 0.9995363 0.0143032 0.0004637 -0.0143032
1221882 0.0004492 -0.0139148 0.9995508 0.0139148 0.9995508 0.0139148 0.0004492 -0.0139148
1255957 0.0004354 -0.0135369 0.9995646 0.0135369 0.9995646 0.0135369 0.0004354 -0.0135369
1290982 0.0004222 -0.0131690 0.9995778 0.0131690 0.9995778 0.0131690 0.0004222 -0.0131690
1326984 0.0004097 -0.0128110 0.9995903 0.0128110 0.9995903 0.0128110 0.0004097 -0.0128110
1363989 0.0003977 -0.0124626 0.9996023 0.0124626 0.9996023 0.0124626 0.0003977 -0.0124626
1402027 0.0003863 -0.0121234 0.9996137 0.0121234 0.9996137 0.0121234 0.0003863 -0.0121234
1441125 0.0003755 -0.0117934 0.9996245 0.0117934 0.9996245 0.0117934 0.0003755 -0.0117934
1481314 0.0003652 -0.0114721 0.9996348 0.0114721 0.9996348 0.0114721 0.0003652 -0.0114721
1522623 0.0003553 -0.0111594 0.9996447 0.0111594 0.9996447 0.0111594 0.0003553 -0.0111594
1565085 0.0003459 -0.0108551 0.9996541 0.0108551 0.9996541 0.0108551 0.0003459 -0.0108551
1608730 0.0003370 -0.0105589 0.9996630 0.0105589 0.9996630 0.0105589 0.0003370 -0.0105589
1653593 0.0003285 -0.0102706 0.9996715 0.0102706 0.9996715 0.0102706 0.0003285 -0.0102706
1699707 0.0003203 -0.0099899 0.9996797 0.0099899 0.9996797 0.0099899 0.0003203 -0.0099899
1747106 0.0003126 -0.0097168 0.9996874 0.0097168 0.9996874 0.0097168 0.0003126 -0.0097168
1795828 0.0003051 -0.0094509 0.9996949 0.0094509 0.9996949 0.0094509 0.0003051 -0.0094509
1845908 0.0002981 -0.0091921 0.9997019 0.0091921 0.9997019 0.0091921 0.0002981 -0.0091921
1897385 0.0002913 -0.0089401 0.9997087 0.0089401 0.9997087 0.0089401 0.0002913 -0.0089401
1950297 0.0002849 -0.0086949 0.9997151 0.0086949 0.9997151 0.0086949 0.0002849 -0.0086949
2004685 0.0002787 -0.0084561 0.9997213 0.0084561 0.9997213 0.0084561 0.0002787 -0.0084561
2060590 0.0002728 -0.0082237 0.9997272 0.0082237 0.9997272 0.0082237 0.0002728 -0.0082237
2118054 0.0002672 -0.0079974 0.9997328 0.0079974 0.9997328 0.0079974 0.0002672 -0.0079974
2177120 0.0002618 -0.0077771 0.9997382 0.0077771 0.9997382 0.0077771 0.0002618 -0.0077771
2237833 0.0002566 -0.0075626 0.9997434 0.0075626 0.9997434 0.0075626 0.0002566 -0.0075626
2300240 0.0002517 -0.0073538 0.9997483 0.0073538 0.9997483 0.0073538 0.0002517 -0.0073538
2364387 0.0002470 -0.0071504 0.9997530 0.0071504 0.9997530 0.0071504 0.0002470 -0.0071504
2430322 0.0002425 -0.0069525 0.9997575 0.0069525 0.9997575 0.0069525 0.0002425 -0.0069525
2498097 0.0002382 -0.0067597 0.9997618 0.0067597 0.9997618 0.0067597 0.0002382 -0.0067597
2567761 0.0002341 -0.0065719 0.9997659 0.0065719 0.9997659 0.0065719 0.0002341 -0.0065719
2639368 0.0002301 -0.0063891 0.9997699 0.0063891 0.9997699 0.0063891 0.0002301 -0.0063891
2712972 0.0002263 -0.0062110 0.9997737 0.0062110 0.9997737 0.0062110 0.0002263 -0.0062110
2788629 0.0002227 -0.0060376 0.9997773 0.0060376 0.9997773 0.0060376 0.0002227 -0.0060376
2866396 0.0002192 -0.0058687 0.9997808 0.0058687 0.9997808 0.0058687 0.0002192 -0.0058687
2946331 0.0002159 -0.0057041 0.9997841 0.0057041 0.9997841 0.0057041 0.0002159 -0.0057041
3028495 0.0002127 -0.0055439 0.9997873 0.0055439 0.9997873 0.0055439 0.0002127 -0.0055439
3112951 0.0002097 -0.0053877 0.9997903 0.0053877 0.9997903 0.0053877 0.0002097 -0.0053877
3199762 0.0002068 -0.0052356 0.9997932 0.0052356 0.9997932 0.0052356 0.0002068 -0.0052356
3288994 0.0002040 -0.0050874 0.9997960 0.0050874 0.9997960 0.0050874 0.0002040 -0.0050874
3380714 0.0002013 -0.0049430 0.9997987 0.0049430 0.9997987 0.0049430 0.0002013 -0.0049430
3474992 0.0001988 -0.0048023 0.9998012 0.0048023 0.9998012 0.0048023 0.0001988 -0.0048023
3571899 0.0001963 -0.0046651 0.9998037 0.0046651 0.9998037 0.0046651 0.0001963 -0.0046651
3671508 0.0001940 -0.0045315 0.9998060 0.0045315 0.9998060 0.0045315 0.0001940 -0.0045315
3773896 0.0001918 -0.0044012 0.9998082 0.0044012 0.9998082 0.0044012 0.0001918 -0.0044012
3879139 0.0001897 -0.0042742 0.9998103 0.0042742 0.9998103 0.0042742 0.0001897 -0.0042742
3987316 0.0001876 -0.0041504 0.9998124 0.0041504 0.9998124 0.0041504 0.0001876 -0.0041504
4098510 0.0001857 -0.0040297 0.9998143 0.0040297 0.9998143 0.0040297 0.0001857 -0.0040297
4212806 0.0001839 -0.0039120 0.9998161 0.0039120 0.9998161 0.0039120 0.0001839 -0.0039120
4330288 0.0001821 -0.0037973 0.9998179 0.0037973 0.9998179 0.0037973 0.0001821 -0.0037973
4451047 0.0001805 -0.0036853 0.9998195 0.0036853 0.9998195 0.0036853 0.0001805 -0.0036853
4575173 0.0001789 -0.0035762 0.9998211 0.0035762 0.9998211 0.0035762 0.0001789 -0.0035762
4702761 0.0001774 -0.0034696 0.9998226 0.0034696 0.9998226 0.0034696 0.0001774 -0.0034696
4833907 0.0001760 -0.0033657 0.9998240 0.0033657 0.9998240 0.0033657 0.0001760 -0.0033657
4968711 0.0001746 -0.0032643 0.9998254 0.0032643 0.9998254 0.0032643 0.0001746 -0.0032643
5107273 0.0001734 -0.0031654 0.9998266 0.0031654 0.9998266 0.0031654 0.0001734 -0.0031654
5249700 0.0001722 -0.0030688 0.9998278 0.0030688 0.9998278 0.0030688 0.0001722 -0.0030688
5396098 0.0001711 -0.0029744 0.9998289 0.0029744 0.9998289 0.0029744 0.0001711 -0.0029744
5546579 0.0001700 -0.0028824 0.9998300 0.0028824 0.9998300 0.0028824 0.0001700 -0.0028824
5701257 0.0001691 -0.0027924 0.9998309 0.0027924 0.9998309 0.0027924 0.0001691 -0.0027924
5860248 0.0001681 -0.0027046 0.9998319 0.0027046 0.9998319 0.0027046 0.0001681 -0.0027046
6023672 0.0001673 -0.0026188 0.9998327 0.0026188 0.9998327 0.0026188 0.0001673 -0.0026188
6191655 0.0001665 -0.0025349 0.9998335 0.0025349 0.9998335 0.0025349 0.0001665 -0.0025349
6364321 0.0001658 -0.0024530 0.9998342 0.0024530 0.9998342 0.0024530 0.0001658 -0.0024530
6541803 0.0001651 -0.0023728 0.9998349 0.0023728 0.9998349 0.0023728 0.0001651 -0.0023728
6724235 0.0001645 -0.0022945 0.9998355 0.0022945 0.9998355 0.0022945 0.0001645 -0.0022945
6911753 0.0001640 -0.0022179 0.9998360 0.0022179 0.9998360 0.0022179 0.0001640 -0.0022179
7104501 0.0001635 -0.0021429 0.9998365 0.0021429 0.9998365 0.0021429 0.0001635 -0.0021429
7302625 0.0001631 -0.0020695 0.9998369 0.0020695 0.9998369 0.0020695 0.0001631 -0.0020695
7506273 0.0001628 -0.0019977 0.9998372 0.0019977 0.9998372 0.0019977 0.0001628 -0.0019977
7715601 0.0001625 -0.0019274 0.9998375 0.0019274 0.9998375 0.0019274 0.0001625 -0.0019274
7930766 0.0001622 -0.0018585 0.9998378 0.0018585 0.9998378 0.0018585 0.0001622 -0.0018585
8151931 0.0001620 -0.0017911 0.9998380 0.0017911 0.9998380 0.0017911 0.0001620 -0.0017911
8379264 0.0001619 -0.0017249 0.9998381 0.0017249 0.9998381 0.0017249 0.0001619 -0.0017249
8612937 0.0001618 -0.0016601 0.9998382 0.0016601 0.9998382 0.0016601 0.0001618 -0.0016601
8853126 0.0001618 -0.0015965 0.9998382 0.0015965 0.9998382 0.0015965 0.0001618 -0.0015965
9100013 0.0001619 -0.0015341 0.9998381 0.0015341 0.9998381 0.0015341 0.0001619 -0.0015341
9353785 0.0001620 -0.0014728 0.9998380 0.0014728 0.9998380 0.0014728 0.0001620 -0.0014728
9614634 0.0001621 -0.0014127 0.9998379 0.0014127 0.9998379 0.0014127 0.0001621 -0.0014127
9882758 0.0001624 -0.0013536 0.9998376 0.0013536 0.9998376 0.0013536 0.0001624 -0.0013536
10158358 0.0001627 -0.0012955 0.9998373 0.0012955 0.9998373 0.0012955 0.0001627 -0.0012955
10441645 0.0001630 -0.0012384 0.9998370 0.0012384 0.9998370 0.0012384 0.0001630 -0.0012384
10732831 0.0001634 -0.0011822 0.9998366 0.0011822 0.9998366 0.0011822 0.0001634 -0.0011822
11032137 0.0001639 -0.0011269 0.9998361 0.0011269 0.9998361 0.0011269 0.0001639 -0.0011269
11339791 0.0001645 -0.0010724 0.9998355 0.0010724 0.9998355 0.0010724 0.0001645 -0.0010724
11656024 0.0001651 -0.0010188 0.9998349 0.0010188 0.9998349 0.0010188 0.0001651 -0.0010188
11981075 0.0001658 -0.0009659 0.9998342 0.0009659 0.9998342 0.0009659 0.0001658 -0.0009659
12315192 0.0001666 -0.0009137 0.9998334 0.0009137 0.9998334 0.0009137 0.0001666 -0.0009137
12658625 0.0001674 -0.0008622 0.9998326 0.0008622 0.9998326 0.0008622 0.0001674 -0.0008622
13011637 0.0001684 -0.0008113 0.9998316 0.0008113 0.9998316 0.0008113 0.0001684 -0.0008113
13374492 0.0001694 -0.0007610 0.9998306 0.0007610 0.9998306 0.0007610 0.0001694 -0.0007610
13747467 0.0001705 -0.0007113 0.9998295 0.0007113 0.9998295 0.0007113 0.0001705 -0.0007113
14130843 0.0001717 -0.0006621 0.9998283 0.0006621 0.9998283 0.0006621 0.0001717 -0.0006621
14524910 0.0001730 -0.0006134 0.9998270 0.0006134 0.9998270 0.0006134 0.0001730 -0.0006134
14929966 0.0001744 -0.0005651 0.9998256 0.0005651 0.9998256 0.0005651 0.0001744 -0.0005651
15346318 0.0001759 -0.0005172 0.9998241 0.0005172 0.9998241 0.0005172 0.0001759 -0.0005172
15774281 0.0001775 -0.0004697 0.9998225 0.0004697 0.9998225 0.0004697 0.0001775 -0.0004697
16214179 0.0001793 -0.0004225 0.9998207 0.0004225 0.9998207 0.0004225 0.0001793 -0.0004225
16666344 0.0001811 -0.0003756 0.9998189 0.0003756 0.9998189 0.0003756 0.0001811 -0.0003756
17131118 0.0001831 -0.0003290 0.9998169 0.0003290 0.9998169 0.0003290 0.0001831 -0.0003290
17608854 0.0001853 -0.0002825 0.9998147 0.0002825 0.9998147 0.0002825 0.0001853 -0.0002825
18099912 0.0001876 -0.0002363 0.9998124 0.0002363 0.9998124 0.0002363 0.0001876 -0.0002363
18604665 0.0001901 -0.0001901 0.9998099 0.0001901 0.9998099 0.0001901 0.0001901 -0.0001901
19123493 0.0001927 -0.0001440 0.9998073 0.0001440 0.9998073 0.0001440 0.0001927 -0.0001440
19656790 0.0001955 -0.0000980 0.9998045 0.0000980 0.9998045 0.0000980 0.0001955 -0.0000980
20204959 0.0001986 -0.0000520 0.9998014 0.0000520 0.9998014 0.0000520 0.0001986 -0.0000520
20768415 0.0002018 -0.0000059 0.9997982 0.0000059 0.9997982 0.0000059 0.0002018 -0.0000059
21347584 0.0002053 0.0000403 0.9997947 -0.0000403 0.9997947 -0.0000403 0.0002053 0.0000403
21942904 0.0002091 0.0000866 0.9997909 -0.0000866 0.9997909 -0.0000866 0.0002091 0.0000866
22554827 0.0002131 0.0001331 0.9997869 -0.0001331 0.9997869 -0.0001331 0.0002131 0.0001331
23183813 0.0002175 0.0001799 0.9997825 -0.0001799 0.9997825 -0.0001799 0.0002175 0.0001799
23830340 0.0002222 0.0002270 0.9997778 -0.0002270 0.9997778 -0.0002270 0.0002222 0.0002270
24494897 0.0002273 0.0002744 0.9997727 -0.0002744 0.9997727 -0.0002744 0.0002273 0.0002744
25177987 0.0002328 0.0003224 0.9997672 -0.0003224 0.9997672 -0.0003224 0.0002328 0.0003224
25880126 0.0002388 0.0003708 0.9997612 -0.0003708 0.9997612 -0.0003708 0.0002388 0.0003708
26601845 0.0002455 0.0004198 0.9997545 -0.0004198 0.9997545 -0.0004198 0.0002455 0.0004198
27343691 0.0002527 0.0004695 0.9997473 -0.0004695 0.9997473 -0.0004695 0.0002527 0.0004695
28106225 0.0002607 0.0005200 0.9997393 -0.0005200 0.9997393 -0.0005200 0.0002607 0.0005200
28890023 0.0002697 0.0005715 0.9997303 -0.0005715 0.9997303 -0.0005715 0.0002697 0.0005715
29695680 0.0002798 0.0006239 0.9997202 -0.0006239 0.9997202 -0.0006239 0.0002798 0.0006239
30523804 0.0002912 0.0006775 0.9997088 -0.0006775 0.9997088 -0.0006775 0.0002912 0.0006775
31375021 0.0003044 0.0007325 0.9996956 -0.0007325 0.9996956 -0.0007325 0.0003044 0.0007325
32249977 0.0003198 0.0007888 0.9996802 -0.0007888 0.9996802 -0.0007888 0.0003198 0.0007888
33149332 0.0003381 0.0008468 0.9996619 -0.0008468 0.9996619 -0.0008468 0.0003381 0.0008468
34073768 0.0003602 0.0009062 0.9996398 -0.0009062 0.9996398 -0.0009062 0.0003602 0.0009062
35023984 0.0003877 0.0009668 0.9996123 -0.0009668 0.9996123 -0.0009668 0.0003877 0.0009668
36000698 0.0004224 0.0010277 0.9995776 -0.0010277 0.9995776 -0.0010277 0.0004224 0.0010277
37004650 0.0004669 0.0010864 0.9995331 -0.0010864 0.9995331 -0.0010864 0.0004669 0.0010864
38036599 0.0005234 0.0011377 0.9994766 -0.0011377 0.9994766 -0.0011377 0.0005234 0.0011377
39097326 0.0005911 0.0011725 0.9994089 -0.0011725 0.9994089 -0.0011725 0.0005911 0.0011725
