!Murata Part Number: GRM21AR72A334KAC5
!These Parameters are Measured in Series Mode Connection
!Data Generated on Mar 30, 2021
!       o--ll--o
!Port1            Port2
!       o------o
!Operation Temp=25[degC], DC Bias Voltage=0[V]
!Freq. Start=100[Hz] Stop=6[GHz] 401[Steps]
# Hz S RI R 50
!Freq.(Hz) S11(Real) S11(Imag) S21(Real) S21(Imag) S12(Real) S12(Imag) S22(Real) S22(Imag)
100 0.9995154 -0.0199405 0.0004846 0.0199405 0.0004846 0.0199405 0.9995154 -0.0199405
105 0.9994746 -0.0208501 0.0005254 0.0208501 0.0005254 0.0208501 0.9994746 -0.0208501
109 0.9994302 -0.0218011 0.0005698 0.0218011 0.0005698 0.0218011 0.9994302 -0.0218011
114 0.9993818 -0.0227955 0.0006182 0.0227955 0.0006182 0.0227955 0.9993818 -0.0227955
120 0.9993291 -0.0238351 0.0006709 0.0238351 0.0006709 0.0238351 0.9993291 -0.0238351
125 0.9992716 -0.0249221 0.0007284 0.0249221 0.0007284 0.0249221 0.9992716 -0.0249221
131 0.9992090 -0.0260584 0.0007910 0.0260584 0.0007910 0.0260584 0.9992090 -0.0260584
137 0.9991407 -0.0272465 0.0008593 0.0272465 0.0008593 0.0272465 0.9991407 -0.0272465
143 0.9990662 -0.0284885 0.0009338 0.0284885 0.0009338 0.0284885 0.9990662 -0.0284885
150 0.9989851 -0.0297869 0.0010149 0.0297869 0.0010149 0.0297869 0.9989851 -0.0297869
156 0.9988966 -0.0311442 0.0011034 0.0311442 0.0011034 0.0311442 0.9988966 -0.0311442
164 0.9988002 -0.0325631 0.0011998 0.0325631 0.0011998 0.0325631 0.9988002 -0.0325631
171 0.9986950 -0.0340463 0.0013050 0.0340463 0.0013050 0.0340463 0.9986950 -0.0340463
179 0.9985803 -0.0355968 0.0014197 0.0355968 0.0014197 0.0355968 0.9985803 -0.0355968
187 0.9984553 -0.0372174 0.0015447 0.0372174 0.0015447 0.0372174 0.9984553 -0.0372174
196 0.9983190 -0.0389113 0.0016810 0.0389113 0.0016810 0.0389113 0.9983190 -0.0389113
205 0.9981704 -0.0406817 0.0018296 0.0406817 0.0018296 0.0406817 0.9981704 -0.0406817
214 0.9980083 -0.0425321 0.0019917 0.0425321 0.0019917 0.0425321 0.9980083 -0.0425321
224 0.9978315 -0.0444661 0.0021685 0.0444661 0.0021685 0.0444661 0.9978315 -0.0444661
234 0.9976388 -0.0464872 0.0023612 0.0464872 0.0023612 0.0464872 0.9976388 -0.0464872
245 0.9974286 -0.0485993 0.0025714 0.0485993 0.0025714 0.0485993 0.9974286 -0.0485993
256 0.9971993 -0.0508064 0.0028007 0.0508064 0.0028007 0.0508064 0.9971993 -0.0508064
268 0.9969493 -0.0531126 0.0030507 0.0531126 0.0030507 0.0531126 0.9969493 -0.0531126
280 0.9966765 -0.0555223 0.0033235 0.0555223 0.0033235 0.0555223 0.9966765 -0.0555223
293 0.9963790 -0.0580399 0.0036210 0.0580399 0.0036210 0.0580399 0.9963790 -0.0580399
306 0.9960544 -0.0606701 0.0039456 0.0606701 0.0039456 0.0606701 0.9960544 -0.0606701
320 0.9957003 -0.0634177 0.0042997 0.0634177 0.0042997 0.0634177 0.9957003 -0.0634177
335 0.9953140 -0.0662877 0.0046860 0.0662877 0.0046860 0.0662877 0.9953140 -0.0662877
350 0.9948925 -0.0692851 0.0051075 0.0692851 0.0051075 0.0692851 0.9948925 -0.0692851
366 0.9944326 -0.0724154 0.0055674 0.0724154 0.0055674 0.0724154 0.9944326 -0.0724154
383 0.9939308 -0.0756841 0.0060692 0.0756841 0.0060692 0.0756841 0.9939308 -0.0756841
401 0.9933832 -0.0790968 0.0066168 0.0790968 0.0066168 0.0790968 0.9933832 -0.0790968
419 0.9927857 -0.0826593 0.0072143 0.0826593 0.0072143 0.0826593 0.9927857 -0.0826593
438 0.9921338 -0.0863776 0.0078662 0.0863776 0.0078662 0.0863776 0.9921338 -0.0863776
458 0.9914225 -0.0902578 0.0085775 0.0902578 0.0085775 0.0902578 0.9914225 -0.0902578
479 0.9906465 -0.0943062 0.0093535 0.0943062 0.0093535 0.0943062 0.9906465 -0.0943062
501 0.9897999 -0.0985292 0.0102001 0.0985292 0.0102001 0.0985292 0.9897999 -0.0985292
524 0.9888765 -0.1029334 0.0111235 0.1029334 0.0111235 0.1029334 0.9888765 -0.1029334
548 0.9878692 -0.1075251 0.0121308 0.1075251 0.0121308 0.1075251 0.9878692 -0.1075251
573 0.9867708 -0.1123113 0.0132292 0.1123113 0.0132292 0.1123113 0.9867708 -0.1123113
600 0.9855731 -0.1172984 0.0144269 0.1172984 0.0144269 0.1172984 0.9855731 -0.1172984
627 0.9842674 -0.1224934 0.0157326 0.1224934 0.0157326 0.1224934 0.9842674 -0.1224934
656 0.9828443 -0.1279027 0.0171557 0.1279027 0.0171557 0.1279027 0.9828443 -0.1279027
686 0.9812936 -0.1335330 0.0187064 0.1335330 0.0187064 0.1335330 0.9812936 -0.1335330
717 0.9796043 -0.1393909 0.0203957 0.1393909 0.0203957 0.1393909 0.9796043 -0.1393909
750 0.9777645 -0.1454825 0.0222355 0.1454825 0.0222355 0.1454825 0.9777645 -0.1454825
784 0.9757615 -0.1518140 0.0242385 0.1518140 0.0242385 0.1518140 0.9757615 -0.1518140
820 0.9735817 -0.1583911 0.0264183 0.1583911 0.0264183 0.1583911 0.9735817 -0.1583911
858 0.9712103 -0.1652191 0.0287897 0.1652191 0.0287897 0.1652191 0.9712103 -0.1652191
897 0.9686317 -0.1723029 0.0313683 0.1723029 0.0313683 0.1723029 0.9686317 -0.1723029
938 0.9658290 -0.1796466 0.0341710 0.1796466 0.0341710 0.1796466 0.9658290 -0.1796466
981 0.9627844 -0.1872538 0.0372156 0.1872538 0.0372156 0.1872538 0.9627844 -0.1872538
1026 0.9594787 -0.1951271 0.0405213 0.1951271 0.0405213 0.1951271 0.9594787 -0.1951271
1073 0.9558919 -0.2032681 0.0441081 0.2032681 0.0441081 0.2032681 0.9558919 -0.2032681
1122 0.9520025 -0.2116773 0.0479975 0.2116773 0.0479975 0.2116773 0.9520025 -0.2116773
1174 0.9477880 -0.2203538 0.0522120 0.2203538 0.0522120 0.2203538 0.9477880 -0.2203538
1227 0.9432247 -0.2292954 0.0567753 0.2292954 0.0567753 0.2292954 0.9432247 -0.2292954
1283 0.9382878 -0.2384977 0.0617122 0.2384977 0.0617122 0.2384977 0.9382878 -0.2384977
1342 0.9329514 -0.2479548 0.0670486 0.2479548 0.0670486 0.2479548 0.9329514 -0.2479548
1404 0.9271888 -0.2576585 0.0728112 0.2576585 0.0728112 0.2576585 0.9271888 -0.2576585
1468 0.9209724 -0.2675981 0.0790276 0.2675981 0.0790276 0.2675981 0.9209724 -0.2675981
1535 0.9142737 -0.2777604 0.0857263 0.2777604 0.0857263 0.2777604 0.9142737 -0.2777604
1606 0.9070640 -0.2881292 0.0929360 0.2881292 0.0929360 0.2881292 0.9070640 -0.2881292
1679 0.8993143 -0.2986852 0.1006857 0.2986852 0.1006857 0.2986852 0.8993143 -0.2986852
1756 0.8909954 -0.3094057 0.1090046 0.3094057 0.1090046 0.3094057 0.8909954 -0.3094057
1836 0.8820788 -0.3202645 0.1179212 0.3202645 0.1179212 0.3202645 0.8820788 -0.3202645
1920 0.8725364 -0.3312315 0.1274636 0.3312315 0.1274636 0.3312315 0.8725364 -0.3312315
2008 0.8623416 -0.3422726 0.1376584 0.3422726 0.1376584 0.3422726 0.8623416 -0.3422726
2100 0.8514692 -0.3533498 0.1485308 0.3533498 0.1485308 0.3533498 0.8514692 -0.3533498
2196 0.8398965 -0.3644209 0.1601035 0.3644209 0.1601035 0.3644209 0.8398965 -0.3644209
2297 0.8276033 -0.3754395 0.1723967 0.3754395 0.1723967 0.3754395 0.8276033 -0.3754395
2402 0.8145732 -0.3863552 0.1854268 0.3863552 0.1854268 0.3863552 0.8145732 -0.3863552
2512 0.8007936 -0.3971138 0.1992064 0.3971138 0.1992064 0.3971138 0.8007936 -0.3971138
2627 0.7862568 -0.4076575 0.2137432 0.4076575 0.2137432 0.4076575 0.7862568 -0.4076575
2748 0.7709606 -0.4179254 0.2290394 0.4179254 0.2290394 0.4179254 0.7709606 -0.4179254
2873 0.7549086 -0.4278539 0.2450914 0.4278539 0.2450914 0.4278539 0.7549086 -0.4278539
3005 0.7381114 -0.4373777 0.2618886 0.4373777 0.2618886 0.4373777 0.7381114 -0.4373777
3143 0.7205865 -0.4464299 0.2794135 0.4464299 0.2794135 0.4464299 0.7205865 -0.4464299
3287 0.7023592 -0.4549438 0.2976408 0.4549438 0.2976408 0.4549438 0.7023592 -0.4549438
3437 0.6834624 -0.4628532 0.3165376 0.4628532 0.3165376 0.4628532 0.6834624 -0.4628532
3594 0.6639371 -0.4700938 0.3360629 0.4700938 0.3360629 0.4700938 0.6639371 -0.4700938
3759 0.6438324 -0.4766041 0.3561676 0.4766041 0.3561676 0.4766041 0.6438324 -0.4766041
3931 0.6232049 -0.4823271 0.3767951 0.4823271 0.3767951 0.4823271 0.6232049 -0.4823271
4111 0.6021185 -0.4872107 0.3978815 0.4872107 0.3978815 0.4872107 0.6021185 -0.4872107
4299 0.5806437 -0.4912094 0.4193563 0.4912094 0.4193563 0.4912094 0.5806437 -0.4912094
4496 0.5588569 -0.4942850 0.4411431 0.4942850 0.4411431 0.4942850 0.5588569 -0.4942850
4702 0.5368392 -0.4964076 0.4631608 0.4964076 0.4631608 0.4964076 0.5368392 -0.4964076
4918 0.5146751 -0.4975563 0.4853249 0.4975563 0.4853249 0.4975563 0.5146751 -0.4975563
5143 0.4924518 -0.4977194 0.5075482 0.4977194 0.5075482 0.4977194 0.4924518 -0.4977194
5378 0.4702571 -0.4968952 0.5297429 0.4968952 0.5297429 0.4968952 0.4702571 -0.4968952
5625 0.4481786 -0.4950917 0.5518214 0.4950917 0.5518214 0.4950917 0.4481786 -0.4950917
5882 0.4263020 -0.4923264 0.5736980 0.4923264 0.5736980 0.4923264 0.4263020 -0.4923264
6151 0.4047099 -0.4886260 0.5952901 0.4886260 0.5952901 0.4886260 0.4047099 -0.4886260
6433 0.3834805 -0.4840257 0.6165195 0.4840257 0.6165195 0.4840257 0.3834805 -0.4840257
6728 0.3626867 -0.4785686 0.6373133 0.4785686 0.6373133 0.4785686 0.3626867 -0.4785686
7036 0.3423949 -0.4723044 0.6576051 0.4723044 0.6576051 0.4723044 0.3423949 -0.4723044
7358 0.3226648 -0.4652886 0.6773352 0.4652886 0.6773352 0.4652886 0.3226648 -0.4652886
7695 0.3035481 -0.4575812 0.6964519 0.4575812 0.6964519 0.4575812 0.3035481 -0.4575812
8047 0.2850890 -0.4492457 0.7149110 0.4492457 0.7149110 0.4492457 0.2850890 -0.4492457
8416 0.2673236 -0.4403479 0.7326764 0.4403479 0.7326764 0.4403479 0.2673236 -0.4403479
8801 0.2502799 -0.4309547 0.7497201 0.4309547 0.7497201 0.4309547 0.2502799 -0.4309547
9204 0.2339784 -0.4211332 0.7660216 0.4211332 0.7660216 0.4211332 0.2339784 -0.4211332
9626 0.2184322 -0.4109496 0.7815678 0.4109496 0.7815678 0.4109496 0.2184322 -0.4109496
10066 0.2036473 -0.4004686 0.7963527 0.4004686 0.7963527 0.4004686 0.2036473 -0.4004686
10527 0.1896236 -0.3897523 0.8103764 0.3897523 0.8103764 0.3897523 0.1896236 -0.3897523
11009 0.1763553 -0.3788600 0.8236447 0.3788600 0.8236447 0.3788600 0.1763553 -0.3788600
11514 0.1638314 -0.3678476 0.8361686 0.3678476 0.8361686 0.3678476 0.1638314 -0.3678476
12041 0.1520365 -0.3567673 0.8479635 0.3567673 0.8479635 0.3567673 0.1520365 -0.3567673
12592 0.1409516 -0.3456671 0.8590484 0.3456671 0.8590484 0.3456671 0.1409516 -0.3456671
13169 0.1305546 -0.3345911 0.8694454 0.3345911 0.8694454 0.3345911 0.1305546 -0.3345911
13772 0.1208207 -0.3235789 0.8791793 0.3235789 0.8791793 0.3235789 0.1208207 -0.3235789
14402 0.1117235 -0.3126664 0.8882765 0.3126664 0.8882765 0.3126664 0.1117235 -0.3126664
15062 0.1032350 -0.3018850 0.8967650 0.3018850 0.8967650 0.3018850 0.1032350 -0.3018850
15752 0.0953264 -0.2912625 0.9046736 0.2912625 0.9046736 0.2912625 0.0953264 -0.2912625
16473 0.0879684 -0.2808228 0.9120316 0.2808228 0.9120316 0.2808228 0.0879684 -0.2808228
17227 0.0811315 -0.2705864 0.9188685 0.2705864 0.9188685 0.2705864 0.0811315 -0.2705864
18016 0.0747863 -0.2605705 0.9252137 0.2605705 0.9252137 0.2605705 0.0747863 -0.2605705
18841 0.0689040 -0.2507893 0.9310960 0.2507893 0.9310960 0.2507893 0.0689040 -0.2507893
19704 0.0634563 -0.2412540 0.9365437 0.2412540 0.9365437 0.2412540 0.0634563 -0.2412540
20606 0.0584159 -0.2319735 0.9415841 0.2319735 0.9415841 0.2319735 0.0584159 -0.2319735
21550 0.0537563 -0.2229544 0.9462437 0.2229544 0.9462437 0.2229544 0.0537563 -0.2229544
22537 0.0494520 -0.2142011 0.9505480 0.2142011 0.9505480 0.2142011 0.0494520 -0.2142011
23569 0.0454789 -0.2057165 0.9545211 0.2057165 0.9545211 0.2057165 0.0454789 -0.2057165
24648 0.0418138 -0.1975014 0.9581862 0.1975014 0.9581862 0.1975014 0.0418138 -0.1975014
25777 0.0384348 -0.1895556 0.9615652 0.1895556 0.9615652 0.1895556 0.0384348 -0.1895556
26957 0.0353213 -0.1818776 0.9646787 0.1818776 0.9646787 0.1818776 0.0353213 -0.1818776
28191 0.0324539 -0.1744647 0.9675461 0.1744647 0.9675461 0.1744647 0.0324539 -0.1744647
29482 0.0298142 -0.1673135 0.9701858 0.1673135 0.9701858 0.1673135 0.0298142 -0.1673135
30832 0.0273851 -0.1604197 0.9726149 0.1604197 0.9726149 0.1604197 0.0273851 -0.1604197
32244 0.0251507 -0.1537783 0.9748493 0.1537783 0.9748493 0.1537783 0.0251507 -0.1537783
33721 0.0230959 -0.1473841 0.9769041 0.1473841 0.9769041 0.1473841 0.0230959 -0.1473841
35265 0.0212070 -0.1412312 0.9787930 0.1412312 0.9787930 0.1412312 0.0212070 -0.1412312
36880 0.0194711 -0.1353135 0.9805289 0.1353135 0.9805289 0.1353135 0.0194711 -0.1353135
38569 0.0178760 -0.1296246 0.9821240 0.1296246 0.9821240 0.1296246 0.0178760 -0.1296246
40335 0.0164109 -0.1241579 0.9835891 0.1241579 0.9835891 0.1241579 0.0164109 -0.1241579
42182 0.0150652 -0.1189069 0.9849348 0.1189069 0.9849348 0.1189069 0.0150652 -0.1189069
44113 0.0138297 -0.1138648 0.9861703 0.1138648 0.9861703 0.1138648 0.0138297 -0.1138648
46134 0.0126954 -0.1090247 0.9873046 0.1090247 0.9873046 0.1090247 0.0126954 -0.1090247
48246 0.0116542 -0.1043802 0.9883458 0.1043802 0.9883458 0.1043802 0.0116542 -0.1043802
50455 0.0106987 -0.0999243 0.9893013 0.0999243 0.9893013 0.0999243 0.0106987 -0.0999243
52766 0.0098220 -0.0956506 0.9901780 0.0956506 0.9901780 0.0956506 0.0098220 -0.0956506
55182 0.0090177 -0.0915526 0.9909823 0.0915526 0.9909823 0.0915526 0.0090177 -0.0915526
57709 0.0082798 -0.0876239 0.9917202 0.0876239 0.9917202 0.0876239 0.0082798 -0.0876239
60352 0.0076031 -0.0838582 0.9923969 0.0838582 0.9923969 0.0838582 0.0076031 -0.0838582
63115 0.0069825 -0.0802494 0.9930175 0.0802494 0.9930175 0.0802494 0.0069825 -0.0802494
66005 0.0064135 -0.0767917 0.9935865 0.0767917 0.9935865 0.0767917 0.0064135 -0.0767917
69028 0.0058918 -0.0734791 0.9941082 0.0734791 0.9941082 0.0734791 0.0058918 -0.0734791
72189 0.0054136 -0.0703061 0.9945864 0.0703061 0.9945864 0.0703061 0.0054136 -0.0703061
75495 0.0049752 -0.0672671 0.9950248 0.0672671 0.9950248 0.0672671 0.0049752 -0.0672671
78952 0.0045734 -0.0643569 0.9954266 0.0643569 0.9954266 0.0643569 0.0045734 -0.0643569
82567 0.0042052 -0.0615704 0.9957948 0.0615704 0.9957948 0.0615704 0.0042052 -0.0615704
86348 0.0038678 -0.0589026 0.9961322 0.0589026 0.9961322 0.0589026 0.0038678 -0.0589026
90302 0.0035585 -0.0563487 0.9964415 0.0563487 0.9964415 0.0563487 0.0035585 -0.0563487
94437 0.0032752 -0.0539041 0.9967248 0.0539041 0.9967248 0.0539041 0.0032752 -0.0539041
98762 0.0030156 -0.0515642 0.9969844 0.0515642 0.9969844 0.0515642 0.0030156 -0.0515642
103284 0.0027777 -0.0493248 0.9972223 0.0493248 0.9972223 0.0493248 0.0027777 -0.0493248
108014 0.0025598 -0.0471818 0.9974402 0.0471818 0.9974402 0.0471818 0.0025598 -0.0471818
112960 0.0023600 -0.0451310 0.9976400 0.0451310 0.9976400 0.0451310 0.0023600 -0.0451310
118133 0.0021770 -0.0431688 0.9978230 0.0431688 0.9978230 0.0431688 0.0021770 -0.0431688
123542 0.0020093 -0.0412913 0.9979907 0.0412913 0.9979907 0.0412913 0.0020093 -0.0412913
129199 0.0018556 -0.0394950 0.9981444 0.0394950 0.9981444 0.0394950 0.0018556 -0.0394950
135116 0.0017146 -0.0377764 0.9982854 0.0377764 0.9982854 0.0377764 0.0017146 -0.0377764
141303 0.0015854 -0.0361324 0.9984146 0.0361324 0.9984146 0.0361324 0.0015854 -0.0361324
147774 0.0014669 -0.0345596 0.9985331 0.0345596 0.9985331 0.0345596 0.0014669 -0.0345596
154540 0.0013582 -0.0330552 0.9986418 0.0330552 0.9986418 0.0330552 0.0013582 -0.0330552
161617 0.0012585 -0.0316161 0.9987415 0.0316161 0.9987415 0.0316161 0.0012585 -0.0316161
169018 0.0011669 -0.0302395 0.9988331 0.0302395 0.9988331 0.0302395 0.0011669 -0.0302395
176758 0.0010828 -0.0289229 0.9989172 0.0289229 0.9989172 0.0289229 0.0010828 -0.0289229
184852 0.0010056 -0.0276635 0.9989944 0.0276635 0.9989944 0.0276635 0.0010056 -0.0276635
193316 0.0009346 -0.0264589 0.9990654 0.0264589 0.9990654 0.0264589 0.0009346 -0.0264589
202169 0.0008693 -0.0253068 0.9991307 0.0253068 0.9991307 0.0253068 0.0008693 -0.0253068
211427 0.0008092 -0.0242049 0.9991908 0.0242049 0.9991908 0.0242049 0.0008092 -0.0242049
221108 0.0007539 -0.0231509 0.9992461 0.0231509 0.9992461 0.0231509 0.0007539 -0.0231509
231233 0.0007029 -0.0221429 0.9992971 0.0221429 0.9992971 0.0221429 0.0007029 -0.0221429
241822 0.0006558 -0.0211787 0.9993442 0.0211787 0.9993442 0.0211787 0.0006558 -0.0211787
252896 0.0006125 -0.0202566 0.9993875 0.0202566 0.9993875 0.0202566 0.0006125 -0.0202566
264476 0.0005724 -0.0193745 0.9994276 0.0193745 0.9994276 0.0193745 0.0005724 -0.0193745
276587 0.0005353 -0.0185309 0.9994647 0.0185309 0.9994647 0.0185309 0.0005353 -0.0185309
289253 0.0005011 -0.0177240 0.9994989 0.0177240 0.9994989 0.0177240 0.0005011 -0.0177240
302498 0.0004693 -0.0169522 0.9995307 0.0169522 0.9995307 0.0169522 0.0004693 -0.0169522
316350 0.0004400 -0.0162139 0.9995600 0.0162139 0.9995600 0.0162139 0.0004400 -0.0162139
330837 0.0004127 -0.0155077 0.9995873 0.0155077 0.9995873 0.0155077 0.0004127 -0.0155077
345986 0.0003874 -0.0148322 0.9996126 0.0148322 0.9996126 0.0148322 0.0003874 -0.0148322
361830 0.0003640 -0.0141860 0.9996360 0.0141860 0.9996360 0.0141860 0.0003640 -0.0141860
378399 0.0003422 -0.0135678 0.9996578 0.0135678 0.9996578 0.0135678 0.0003422 -0.0135678
395726 0.0003220 -0.0129765 0.9996780 0.0129765 0.9996780 0.0129765 0.0003220 -0.0129765
413847 0.0003032 -0.0124108 0.9996968 0.0124108 0.9996968 0.0124108 0.0003032 -0.0124108
432798 0.0002857 -0.0118695 0.9997143 0.0118695 0.9997143 0.0118695 0.0002857 -0.0118695
452617 0.0002694 -0.0113518 0.9997306 0.0113518 0.9997306 0.0113518 0.0002694 -0.0113518
473344 0.0002543 -0.0108564 0.9997457 0.0108564 0.9997457 0.0108564 0.0002543 -0.0108564
495019 0.0002403 -0.0103824 0.9997597 0.0103824 0.9997597 0.0103824 0.0002403 -0.0103824
517687 0.0002272 -0.0099290 0.9997728 0.0099290 0.9997728 0.0099290 0.0002272 -0.0099290
541393 0.0002151 -0.0094951 0.9997849 0.0094951 0.9997849 0.0094951 0.0002151 -0.0094951
566185 0.0002038 -0.0090800 0.9997962 0.0090800 0.9997962 0.0090800 0.0002038 -0.0090800
592111 0.0001933 -0.0086828 0.9998067 0.0086828 0.9998067 0.0086828 0.0001933 -0.0086828
619225 0.0001836 -0.0083027 0.9998164 0.0083027 0.9998164 0.0083027 0.0001836 -0.0083027
647581 0.0001746 -0.0079391 0.9998254 0.0079391 0.9998254 0.0079391 0.0001746 -0.0079391
677235 0.0001663 -0.0075911 0.9998337 0.0075911 0.9998337 0.0075911 0.0001663 -0.0075911
708247 0.0001585 -0.0072582 0.9998415 0.0072582 0.9998415 0.0072582 0.0001585 -0.0072582
740679 0.0001513 -0.0069396 0.9998487 0.0069396 0.9998487 0.0069396 0.0001513 -0.0069396
774597 0.0001447 -0.0066347 0.9998553 0.0066347 0.9998553 0.0066347 0.0001447 -0.0066347
810067 0.0001386 -0.0063430 0.9998614 0.0063430 0.9998614 0.0063430 0.0001386 -0.0063430
847162 0.0001329 -0.0060639 0.9998671 0.0060639 0.9998671 0.0060639 0.0001329 -0.0060639
885955 0.0001277 -0.0057967 0.9998723 0.0057967 0.9998723 0.0057967 0.0001277 -0.0057967
926525 0.0001228 -0.0055411 0.9998772 0.0055411 0.9998772 0.0055411 0.0001228 -0.0055411
968953 0.0001184 -0.0052965 0.9998816 0.0052965 0.9998816 0.0052965 0.0001184 -0.0052965
1013323 0.0001142 -0.0050624 0.9998858 0.0050624 0.9998858 0.0050624 0.0001142 -0.0050624
1059725 0.0001105 -0.0048383 0.9998895 0.0048383 0.9998895 0.0048383 0.0001105 -0.0048383
1108252 0.0001070 -0.0046239 0.9998930 0.0046239 0.9998930 0.0046239 0.0001070 -0.0046239
1159002 0.0001038 -0.0044186 0.9998962 0.0044186 0.9998962 0.0044186 0.0001038 -0.0044186
1212075 0.0001008 -0.0042222 0.9998992 0.0042222 0.9998992 0.0042222 0.0001008 -0.0042222
1267578 0.0000981 -0.0040341 0.9999019 0.0040341 0.9999019 0.0040341 0.0000981 -0.0040341
1325623 0.0000956 -0.0038541 0.9999044 0.0038541 0.9999044 0.0038541 0.0000956 -0.0038541
1386327 0.0000934 -0.0036818 0.9999066 0.0036818 0.9999066 0.0036818 0.0000934 -0.0036818
1449809 0.0000913 -0.0035168 0.9999087 0.0035168 0.9999087 0.0035168 0.0000913 -0.0035168
1516199 0.0000894 -0.0033588 0.9999106 0.0033588 0.9999106 0.0033588 0.0000894 -0.0033588
1585629 0.0000876 -0.0032075 0.9999124 0.0032075 0.9999124 0.0032075 0.0000876 -0.0032075
1658239 0.0000860 -0.0030626 0.9999140 0.0030626 0.9999140 0.0030626 0.0000860 -0.0030626
1734173 0.0000846 -0.0029239 0.9999154 0.0029239 0.9999154 0.0029239 0.0000846 -0.0029239
1813585 0.0000833 -0.0027909 0.9999167 0.0027909 0.9999167 0.0027909 0.0000833 -0.0027909
1896632 0.0000821 -0.0026636 0.9999179 0.0026636 0.9999179 0.0026636 0.0000821 -0.0026636
1983483 0.0000810 -0.0025416 0.9999190 0.0025416 0.9999190 0.0025416 0.0000810 -0.0025416
2074311 0.0000800 -0.0024246 0.9999200 0.0024246 0.9999200 0.0024246 0.0000800 -0.0024246
