!Murata Part Number: GRM21BR61A106KE19
!These Parameters are Measured in Series Mode Connection
!Data Generated on Mar 30, 2021
!       o--ll--o
!Port1            Port2
!       o------o
!Operation Temp=25[degC], DC Bias Voltage=0[V]
!Freq. Start=100[Hz] Stop=6[GHz] 401[Steps]
# Hz S RI R 50
!Freq.(Hz) S11(Real) S11(Imag) S21(Real) S21(Imag) S12(Real) S12(Imag) S22(Real) S22(Imag)
100 0.7782468 -0.4092077 0.2217532 0.4092077 0.2217532 0.4092077 0.7782468 -0.4092077
105 0.7627680 -0.4191876 0.2372320 0.4191876 0.2372320 0.4191876 0.7627680 -0.4191876
109 0.7465519 -0.4288034 0.2534481 0.4288034 0.2534481 0.4288034 0.7465519 -0.4288034
114 0.7296127 -0.4379906 0.2703873 0.4379906 0.2703873 0.4379906 0.7296127 -0.4379906
120 0.7119718 -0.4466842 0.2880282 0.4466842 0.2880282 0.4466842 0.7119718 -0.4466842
125 0.6936581 -0.4548195 0.3063419 0.4548195 0.3063419 0.4548195 0.6936581 -0.4548195
131 0.6747080 -0.4623333 0.3252920 0.4623333 0.3252920 0.4623333 0.6747080 -0.4623333
137 0.6551657 -0.4691649 0.3448343 0.4691649 0.3448343 0.4691649 0.6551657 -0.4691649
143 0.6350828 -0.4752571 0.3649172 0.4752571 0.3649172 0.4752571 0.6350828 -0.4752571
150 0.6145179 -0.4805575 0.3854821 0.4805575 0.3854821 0.4805575 0.6145179 -0.4805575
156 0.5935361 -0.4850191 0.4064639 0.4850191 0.4064639 0.4850191 0.5935361 -0.4850191
164 0.5722085 -0.4886020 0.4277915 0.4886020 0.4277915 0.4886020 0.5722085 -0.4886020
171 0.5506109 -0.4912734 0.4493891 0.4912734 0.4493891 0.4912734 0.5506109 -0.4912734
179 0.5288230 -0.4930090 0.4711770 0.4930090 0.4711770 0.4930090 0.5288230 -0.4930090
187 0.5069271 -0.4937929 0.4930729 0.4937929 0.4930729 0.4937929 0.5069271 -0.4937929
196 0.4850072 -0.4936187 0.5149928 0.4936187 0.5149928 0.4936187 0.4850072 -0.4936187
205 0.4631473 -0.4924888 0.5368527 0.4924888 0.5368527 0.4924888 0.4631473 -0.4924888
214 0.4414303 -0.4904148 0.5585697 0.4904148 0.5585697 0.4904148 0.4414303 -0.4904148
224 0.4199369 -0.4874170 0.5800631 0.4874170 0.5800631 0.4874170 0.4199369 -0.4874170
234 0.3987442 -0.4835242 0.6012558 0.4835242 0.6012558 0.4835242 0.3987442 -0.4835242
245 0.3779250 -0.4787726 0.6220750 0.4787726 0.6220750 0.4787726 0.3779250 -0.4787726
256 0.3575464 -0.4732052 0.6424536 0.4732052 0.6424536 0.4732052 0.3575464 -0.4732052
268 0.3376698 -0.4668710 0.6623302 0.4668710 0.6623302 0.4668710 0.3376698 -0.4668710
280 0.3183495 -0.4598241 0.6816505 0.4598241 0.6816505 0.4598241 0.3183495 -0.4598241
293 0.2996328 -0.4521221 0.7003672 0.4521221 0.7003672 0.4521221 0.2996328 -0.4521221
306 0.2815600 -0.4438258 0.7184400 0.4438258 0.7184400 0.4438258 0.2815600 -0.4438258
320 0.2641635 -0.4349976 0.7358365 0.4349976 0.7358365 0.4349976 0.2641635 -0.4349976
335 0.2474690 -0.4257009 0.7525310 0.4257009 0.7525310 0.4257009 0.2474690 -0.4257009
350 0.2314946 -0.4159989 0.7685054 0.4159989 0.7685054 0.4159989 0.2314946 -0.4159989
366 0.2162522 -0.4059542 0.7837478 0.4059542 0.7837478 0.4059542 0.2162522 -0.4059542
383 0.2017471 -0.3956276 0.7982529 0.3956276 0.7982529 0.3956276 0.2017471 -0.3956276
401 0.1879790 -0.3850777 0.8120210 0.3850777 0.8120210 0.3850777 0.1879790 -0.3850777
419 0.1749421 -0.3743606 0.8250579 0.3743606 0.8250579 0.3743606 0.1749421 -0.3743606
438 0.1626264 -0.3635289 0.8373736 0.3635289 0.8373736 0.3635289 0.1626264 -0.3635289
458 0.1510174 -0.3526322 0.8489826 0.3526322 0.8489826 0.3526322 0.1510174 -0.3526322
479 0.1400973 -0.3417161 0.8599027 0.3417161 0.8599027 0.3417161 0.1400973 -0.3417161
501 0.1298455 -0.3308226 0.8701545 0.3308226 0.8701545 0.3308226 0.1298455 -0.3308226
524 0.1202390 -0.3199898 0.8797610 0.3199898 0.8797610 0.3199898 0.1202390 -0.3199898
548 0.1112527 -0.3092520 0.8887473 0.3092520 0.8887473 0.3092520 0.1112527 -0.3092520
573 0.1028605 -0.2986398 0.8971395 0.2986398 0.8971395 0.2986398 0.1028605 -0.2986398
600 0.0950351 -0.2881800 0.9049649 0.2881800 0.9049649 0.2881800 0.0950351 -0.2881800
627 0.0877487 -0.2778961 0.9122513 0.2778961 0.9122513 0.2778961 0.0877487 -0.2778961
656 0.0809733 -0.2678083 0.9190267 0.2678083 0.9190267 0.2678083 0.0809733 -0.2678083
686 0.0746809 -0.2579336 0.9253191 0.2579336 0.9253191 0.2579336 0.0746809 -0.2579336
717 0.0688440 -0.2482860 0.9311560 0.2482860 0.9311560 0.2482860 0.0688440 -0.2482860
750 0.0634354 -0.2388773 0.9365646 0.2388773 0.9365646 0.2388773 0.0634354 -0.2388773
784 0.0584286 -0.2297163 0.9415714 0.2297163 0.9415714 0.2297163 0.0584286 -0.2297163
820 0.0537982 -0.2208100 0.9462018 0.2208100 0.9462018 0.2208100 0.0537982 -0.2208100
858 0.0495195 -0.2121633 0.9504805 0.2121633 0.9504805 0.2121633 0.0495195 -0.2121633
897 0.0455688 -0.2037792 0.9544312 0.2037792 0.9544312 0.2037792 0.0455688 -0.2037792
938 0.0419237 -0.1956592 0.9580763 0.1956592 0.9580763 0.1956592 0.0419237 -0.1956592
981 0.0385627 -0.1878034 0.9614373 0.1878034 0.9614373 0.1878034 0.0385627 -0.1878034
1026 0.0354655 -0.1802107 0.9645345 0.1802107 0.9645345 0.1802107 0.0354655 -0.1802107
1073 0.0326129 -0.1728789 0.9673871 0.1728789 0.9673871 0.1728789 0.0326129 -0.1728789
1122 0.0299869 -0.1658049 0.9700131 0.1658049 0.9700131 0.1658049 0.0299869 -0.1658049
1174 0.0275705 -0.1589848 0.9724295 0.1589848 0.9724295 0.1589848 0.0275705 -0.1589848
1227 0.0253479 -0.1524141 0.9746521 0.1524141 0.9746521 0.1524141 0.0253479 -0.1524141
1283 0.0233041 -0.1460876 0.9766959 0.1460876 0.9766959 0.1460876 0.0233041 -0.1460876
1342 0.0214253 -0.1399999 0.9785747 0.1399999 0.9785747 0.1399999 0.0214253 -0.1399999
1404 0.0196986 -0.1341450 0.9803014 0.1341450 0.9803014 0.1341450 0.0196986 -0.1341450
1468 0.0181120 -0.1285168 0.9818880 0.1285168 0.9818880 0.1285168 0.0181120 -0.1285168
1535 0.0166543 -0.1231088 0.9833457 0.1231088 0.9833457 0.1231088 0.0166543 -0.1231088
1606 0.0153152 -0.1179147 0.9846848 0.1179147 0.9846848 0.1179147 0.0153152 -0.1179147
1679 0.0140852 -0.1129277 0.9859148 0.1129277 0.9859148 0.1129277 0.0140852 -0.1129277
1756 0.0129553 -0.1081411 0.9870447 0.1081411 0.9870447 0.1081411 0.0129553 -0.1081411
1836 0.0119175 -0.1035483 0.9880825 0.1035483 0.9880825 0.1035483 0.0119175 -0.1035483
1920 0.0109642 -0.0991427 0.9890358 0.0991427 0.9890358 0.0991427 0.0109642 -0.0991427
2008 0.0100885 -0.0949176 0.9899115 0.0949176 0.9899115 0.0949176 0.0100885 -0.0949176
2100 0.0092839 -0.0908666 0.9907161 0.0908666 0.9907161 0.0908666 0.0092839 -0.0908666
2196 0.0085446 -0.0869832 0.9914554 0.0869832 0.9914554 0.0869832 0.0085446 -0.0869832
2297 0.0078652 -0.0832611 0.9921348 0.0832611 0.9921348 0.0832611 0.0078652 -0.0832611
2402 0.0072408 -0.0796942 0.9927592 0.0796942 0.9927592 0.0796942 0.0072408 -0.0796942
2512 0.0066668 -0.0762765 0.9933332 0.0762765 0.9933332 0.0762765 0.0066668 -0.0762765
2627 0.0061391 -0.0730022 0.9938609 0.0730022 0.9938609 0.0730022 0.0061391 -0.0730022
2748 0.0056538 -0.0698656 0.9943462 0.0698656 0.9943462 0.0698656 0.0056538 -0.0698656
2873 0.0052075 -0.0668612 0.9947925 0.0668612 0.9947925 0.0668612 0.0052075 -0.0668612
3005 0.0047970 -0.0639837 0.9952030 0.0639837 0.9952030 0.0639837 0.0047970 -0.0639837
3143 0.0044193 -0.0612280 0.9955807 0.0612280 0.9955807 0.0612280 0.0044193 -0.0612280
3287 0.0040718 -0.0585890 0.9959282 0.0585890 0.9959282 0.0585890 0.0040718 -0.0585890
3437 0.0037520 -0.0560620 0.9962480 0.0560620 0.9962480 0.0560620 0.0037520 -0.0560620
3594 0.0034578 -0.0536423 0.9965422 0.0536423 0.9965422 0.0536423 0.0034578 -0.0536423
3759 0.0031870 -0.0513257 0.9968130 0.0513257 0.9968130 0.0513257 0.0031870 -0.0513257
3931 0.0029377 -0.0491077 0.9970623 0.0491077 0.9970623 0.0491077 0.0029377 -0.0491077
4111 0.0027083 -0.0469842 0.9972917 0.0469842 0.9972917 0.0469842 0.0027083 -0.0469842
4299 0.0024972 -0.0449515 0.9975028 0.0449515 0.9975028 0.0449515 0.0024972 -0.0449515
4496 0.0023029 -0.0430055 0.9976971 0.0430055 0.9976971 0.0430055 0.0023029 -0.0430055
4702 0.0021242 -0.0411428 0.9978758 0.0411428 0.9978758 0.0411428 0.0021242 -0.0411428
4918 0.0019597 -0.0393599 0.9980403 0.0393599 0.9980403 0.0393599 0.0019597 -0.0393599
5143 0.0018083 -0.0376534 0.9981917 0.0376534 0.9981917 0.0376534 0.0018083 -0.0376534
5378 0.0016691 -0.0360201 0.9983309 0.0360201 0.9983309 0.0360201 0.0016691 -0.0360201
5625 0.0015411 -0.0344569 0.9984589 0.0344569 0.9984589 0.0344569 0.0015411 -0.0344569
5882 0.0014234 -0.0329610 0.9985766 0.0329610 0.9985766 0.0329610 0.0014234 -0.0329610
6151 0.0013151 -0.0315294 0.9986849 0.0315294 0.9986849 0.0315294 0.0013151 -0.0315294
6433 0.0012156 -0.0301594 0.9987844 0.0301594 0.9987844 0.0301594 0.0012156 -0.0301594
6728 0.0011241 -0.0288485 0.9988759 0.0288485 0.9988759 0.0288485 0.0011241 -0.0288485
7036 0.0010401 -0.0275942 0.9989599 0.0275942 0.9989599 0.0275942 0.0010401 -0.0275942
7358 0.0009628 -0.0263941 0.9990372 0.0263941 0.9990372 0.0263941 0.0009628 -0.0263941
7695 0.0008918 -0.0252459 0.9991082 0.0252459 0.9991082 0.0252459 0.0008918 -0.0252459
8047 0.0008266 -0.0241473 0.9991734 0.0241473 0.9991734 0.0241473 0.0008266 -0.0241473
8416 0.0007667 -0.0230963 0.9992333 0.0230963 0.9992333 0.0230963 0.0007667 -0.0230963
8801 0.0007117 -0.0220909 0.9992883 0.0220909 0.9992883 0.0220909 0.0007117 -0.0220909
9204 0.0006611 -0.0211291 0.9993389 0.0211291 0.9993389 0.0211291 0.0006611 -0.0211291
9626 0.0006147 -0.0202091 0.9993853 0.0202091 0.9993853 0.0202091 0.0006147 -0.0202091
10066 0.0005720 -0.0193290 0.9994280 0.0193290 0.9994280 0.0193290 0.0005720 -0.0193290
10527 0.0005328 -0.0184872 0.9994672 0.0184872 0.9994672 0.0184872 0.0005328 -0.0184872
11009 0.0004967 -0.0176820 0.9995033 0.0176820 0.9995033 0.0176820 0.0004967 -0.0176820
11514 0.0004636 -0.0169118 0.9995364 0.0169118 0.9995364 0.0169118 0.0004636 -0.0169118
12041 0.0004331 -0.0161752 0.9995669 0.0161752 0.9995669 0.0161752 0.0004331 -0.0161752
12592 0.0004050 -0.0154707 0.9995950 0.0154707 0.9995950 0.0154707 0.0004050 -0.0154707
13169 0.0003792 -0.0147969 0.9996208 0.0147969 0.9996208 0.0147969 0.0003792 -0.0147969
13772 0.0003554 -0.0141525 0.9996446 0.0141525 0.9996446 0.0141525 0.0003554 -0.0141525
14402 0.0003335 -0.0135362 0.9996665 0.0135362 0.9996665 0.0135362 0.0003335 -0.0135362
15062 0.0003132 -0.0129468 0.9996868 0.0129468 0.9996868 0.0129468 0.0003132 -0.0129468
15752 0.0002945 -0.0123831 0.9997055 0.0123831 0.9997055 0.0123831 0.0002945 -0.0123831
16473 0.0002773 -0.0118441 0.9997227 0.0118441 0.9997227 0.0118441 0.0002773 -0.0118441
17227 0.0002613 -0.0113286 0.9997387 0.0113286 0.9997387 0.0113286 0.0002613 -0.0113286
18016 0.0002465 -0.0108356 0.9997535 0.0108356 0.9997535 0.0108356 0.0002465 -0.0108356
18841 0.0002327 -0.0103641 0.9997673 0.0103641 0.9997673 0.0103641 0.0002327 -0.0103641
19704 0.0002200 -0.0099132 0.9997800 0.0099132 0.9997800 0.0099132 0.0002200 -0.0099132
20606 0.0002081 -0.0094820 0.9997919 0.0094820 0.9997919 0.0094820 0.0002081 -0.0094820
21550 0.0001971 -0.0090696 0.9998029 0.0090696 0.9998029 0.0090696 0.0001971 -0.0090696
22537 0.0001868 -0.0086752 0.9998132 0.0086752 0.9998132 0.0086752 0.0001868 -0.0086752
23569 0.0001771 -0.0082980 0.9998229 0.0082980 0.9998229 0.0082980 0.0001771 -0.0082980
24648 0.0001681 -0.0079373 0.9998319 0.0079373 0.9998319 0.0079373 0.0001681 -0.0079373
25777 0.0001597 -0.0075922 0.9998403 0.0075922 0.9998403 0.0075922 0.0001597 -0.0075922
26957 0.0001518 -0.0072622 0.9998482 0.0072622 0.9998482 0.0072622 0.0001518 -0.0072622
28191 0.0001444 -0.0069466 0.9998556 0.0069466 0.9998556 0.0069466 0.0001444 -0.0069466
29482 0.0001374 -0.0066447 0.9998626 0.0066447 0.9998626 0.0066447 0.0001374 -0.0066447
30832 0.0001308 -0.0063560 0.9998692 0.0063560 0.9998692 0.0063560 0.0001308 -0.0063560
32244 0.0001246 -0.0060798 0.9998754 0.0060798 0.9998754 0.0060798 0.0001246 -0.0060798
33721 0.0001188 -0.0058155 0.9998812 0.0058155 0.9998812 0.0058155 0.0001188 -0.0058155
35265 0.0001133 -0.0055628 0.9998867 0.0055628 0.9998867 0.0055628 0.0001133 -0.0055628
36880 0.0001081 -0.0053210 0.9998919 0.0053210 0.9998919 0.0053210 0.0001081 -0.0053210
38569 0.0001032 -0.0050898 0.9998968 0.0050898 0.9998968 0.0050898 0.0001032 -0.0050898
40335 0.0000986 -0.0048685 0.9999014 0.0048685 0.9999014 0.0048685 0.0000986 -0.0048685
42182 0.0000943 -0.0046569 0.9999057 0.0046569 0.9999057 0.0046569 0.0000943 -0.0046569
44113 0.0000902 -0.0044544 0.9999098 0.0044544 0.9999098 0.0044544 0.0000902 -0.0044544
46134 0.0000863 -0.0042607 0.9999137 0.0042607 0.9999137 0.0042607 0.0000863 -0.0042607
48246 0.0000827 -0.0040753 0.9999173 0.0040753 0.9999173 0.0040753 0.0000827 -0.0040753
50455 0.0000792 -0.0038980 0.9999208 0.0038980 0.9999208 0.0038980 0.0000792 -0.0038980
52766 0.0000760 -0.0037284 0.9999240 0.0037284 0.9999240 0.0037284 0.0000760 -0.0037284
55182 0.0000730 -0.0035662 0.9999270 0.0035662 0.9999270 0.0035662 0.0000730 -0.0035662
57709 0.0000701 -0.0034109 0.9999299 0.0034109 0.9999299 0.0034109 0.0000701 -0.0034109
60352 0.0000675 -0.0032624 0.9999325 0.0032624 0.9999325 0.0032624 0.0000675 -0.0032624
63115 0.0000649 -0.0031203 0.9999351 0.0031203 0.9999351 0.0031203 0.0000649 -0.0031203
66005 0.0000626 -0.0029844 0.9999374 0.0029844 0.9999374 0.0029844 0.0000626 -0.0029844
69028 0.0000604 -0.0028543 0.9999396 0.0028543 0.9999396 0.0028543 0.0000604 -0.0028543
72189 0.0000583 -0.0027299 0.9999417 0.0027299 0.9999417 0.0027299 0.0000583 -0.0027299
75495 0.0000563 -0.0026109 0.9999437 0.0026109 0.9999437 0.0026109 0.0000563 -0.0026109
78952 0.0000545 -0.0024971 0.9999455 0.0024971 0.9999455 0.0024971 0.0000545 -0.0024971
82567 0.0000528 -0.0023882 0.9999472 0.0023882 0.9999472 0.0023882 0.0000528 -0.0023882
86348 0.0000511 -0.0022840 0.9999489 0.0022840 0.9999489 0.0022840 0.0000511 -0.0022840
90302 0.0000496 -0.0021843 0.9999504 0.0021843 0.9999504 0.0021843 0.0000496 -0.0021843
94437 0.0000482 -0.0020889 0.9999518 0.0020889 0.9999518 0.0020889 0.0000482 -0.0020889
98762 0.0000468 -0.0019977 0.9999532 0.0019977 0.9999532 0.0019977 0.0000468 -0.0019977
103284 0.0000455 -0.0019105 0.9999545 0.0019105 0.9999545 0.0019105 0.0000455 -0.0019105
108014 0.0000443 -0.0018270 0.9999557 0.0018270 0.9999557 0.0018270 0.0000443 -0.0018270
112960 0.0000432 -0.0017471 0.9999568 0.0017471 0.9999568 0.0017471 0.0000432 -0.0017471
118133 0.0000421 -0.0016707 0.9999579 0.0016707 0.9999579 0.0016707 0.0000421 -0.0016707
123542 0.0000411 -0.0015976 0.9999589 0.0015976 0.9999589 0.0015976 0.0000411 -0.0015976
129199 0.0000401 -0.0015277 0.9999599 0.0015277 0.9999599 0.0015277 0.0000401 -0.0015277
135116 0.0000392 -0.0014608 0.9999608 0.0014608 0.9999608 0.0014608 0.0000392 -0.0014608
141303 0.0000383 -0.0013967 0.9999617 0.0013967 0.9999617 0.0013967 0.0000383 -0.0013967
147774 0.0000375 -0.0013355 0.9999625 0.0013355 0.9999625 0.0013355 0.0000375 -0.0013355
154540 0.0000366 -0.0012768 0.9999634 0.0012768 0.9999634 0.0012768 0.0000366 -0.0012768
161617 0.0000359 -0.0012207 0.9999641 0.0012207 0.9999641 0.0012207 0.0000359 -0.0012207
169018 0.0000351 -0.0011670 0.9999649 0.0011670 0.9999649 0.0011670 0.0000351 -0.0011670
176758 0.0000344 -0.0011156 0.9999656 0.0011156 0.9999656 0.0011156 0.0000344 -0.0011156
184852 0.0000337 -0.0010665 0.9999663 0.0010665 0.9999663 0.0010665 0.0000337 -0.0010665
193316 0.0000331 -0.0010194 0.9999669 0.0010194 0.9999669 0.0010194 0.0000331 -0.0010194
202169 0.0000325 -0.0009743 0.9999675 0.0009743 0.9999675 0.0009743 0.0000325 -0.0009743
211427 0.0000319 -0.0009311 0.9999681 0.0009311 0.9999681 0.0009311 0.0000319 -0.0009311
221108 0.0000313 -0.0008898 0.9999687 0.0008898 0.9999687 0.0008898 0.0000313 -0.0008898
231233 0.0000308 -0.0008502 0.9999692 0.0008502 0.9999692 0.0008502 0.0000308 -0.0008502
241822 0.0000303 -0.0008123 0.9999697 0.0008123 0.9999697 0.0008123 0.0000303 -0.0008123
252896 0.0000298 -0.0007760 0.9999702 0.0007760 0.9999702 0.0007760 0.0000298 -0.0007760
264476 0.0000293 -0.0007412 0.9999707 0.0007412 0.9999707 0.0007412 0.0000293 -0.0007412
276587 0.0000289 -0.0007079 0.9999711 0.0007079 0.9999711 0.0007079 0.0000289 -0.0007079
289253 0.0000284 -0.0006760 0.9999716 0.0006760 0.9999716 0.0006760 0.0000284 -0.0006760
302498 0.0000280 -0.0006454 0.9999720 0.0006454 0.9999720 0.0006454 0.0000280 -0.0006454
316350 0.0000277 -0.0006160 0.9999723 0.0006160 0.9999723 0.0006160 0.0000277 -0.0006160
330837 0.0000273 -0.0005879 0.9999727 0.0005879 0.9999727 0.0005879 0.0000273 -0.0005879
345986 0.0000270 -0.0005609 0.9999730 0.0005609 0.9999730 0.0005609 0.0000270 -0.0005609
361830 0.0000267 -0.0005351 0.9999733 0.0005351 0.9999733 0.0005351 0.0000267 -0.0005351
378399 0.0000264 -0.0005103 0.9999736 0.0005103 0.9999736 0.0005103 0.0000264 -0.0005103
395726 0.0000262 -0.0004865 0.9999738 0.0004865 0.9999738 0.0004865 0.0000262 -0.0004865
413847 0.0000259 -0.0004636 0.9999741 0.0004636 0.9999741 0.0004636 0.0000259 -0.0004636
432798 0.0000257 -0.0004417 0.9999743 0.0004417 0.9999743 0.0004417 0.0000257 -0.0004417
452617 0.0000256 -0.0004207 0.9999744 0.0004207 0.9999744 0.0004207 0.0000256 -0.0004207
473344 0.0000254 -0.0004004 0.9999746 0.0004004 0.9999746 0.0004004 0.0000254 -0.0004004
495019 0.0000253 -0.0003810 0.9999747 0.0003810 0.9999747 0.0003810 0.0000253 -0.0003810
517687 0.0000251 -0.0003623 0.9999749 0.0003623 0.9999749 0.0003623 0.0000251 -0.0003623
541393 0.0000250 -0.0003444 0.9999750 0.0003444 0.9999750 0.0003444 0.0000250 -0.0003444
566185 0.0000250 -0.0003271 0.9999750 0.0003271 0.9999750 0.0003271 0.0000250 -0.0003271
592111 0.0000249 -0.0003105 0.9999751 0.0003105 0.9999751 0.0003105 0.0000249 -0.0003105
619225 0.0000249 -0.0002945 0.9999751 0.0002945 0.9999751 0.0002945 0.0000249 -0.0002945
647581 0.0000249 -0.0002790 0.9999751 0.0002790 0.9999751 0.0002790 0.0000249 -0.0002790
677235 0.0000249 -0.0002642 0.9999751 0.0002642 0.9999751 0.0002642 0.0000249 -0.0002642
708247 0.0000249 -0.0002498 0.9999751 0.0002498 0.9999751 0.0002498 0.0000249 -0.0002498
740679 0.0000250 -0.0002360 0.9999750 0.0002360 0.9999750 0.0002360 0.0000250 -0.0002360
774597 0.0000251 -0.0002226 0.9999749 0.0002226 0.9999749 0.0002226 0.0000251 -0.0002226
810067 0.0000252 -0.0002097 0.9999748 0.0002097 0.9999748 0.0002097 0.0000252 -0.0002097
847162 0.0000253 -0.0001972 0.9999747 0.0001972 0.9999747 0.0001972 0.0000253 -0.0001972
885955 0.0000255 -0.0001850 0.9999745 0.0001850 0.9999745 0.0001850 0.0000255 -0.0001850
926525 0.0000257 -0.0001733 0.9999743 0.0001733 0.9999743 0.0001733 0.0000257 -0.0001733
968953 0.0000259 -0.0001619 0.9999741 0.0001619 0.9999741 0.0001619 0.0000259 -0.0001619
1013323 0.0000261 -0.0001508 0.9999739 0.0001508 0.9999739 0.0001508 0.0000261 -0.0001508
1059725 0.0000264 -0.0001400 0.9999736 0.0001400 0.9999736 0.0001400 0.0000264 -0.0001400
1108252 0.0000268 -0.0001295 0.9999732 0.0001295 0.9999732 0.0001295 0.0000268 -0.0001295
1159002 0.0000271 -0.0001193 0.9999729 0.0001193 0.9999729 0.0001193 0.0000271 -0.0001193
1212075 0.0000275 -0.0001093 0.9999725 0.0001093 0.9999725 0.0001093 0.0000275 -0.0001093
1267578 0.0000280 -0.0000996 0.9999720 0.0000996 0.9999720 0.0000996 0.0000280 -0.0000996
1325623 0.0000285 -0.0000900 0.9999715 0.0000900 0.9999715 0.0000900 0.0000285 -0.0000900
1386327 0.0000291 -0.0000806 0.9999709 0.0000806 0.9999709 0.0000806 0.0000291 -0.0000806
1449809 0.0000297 -0.0000714 0.9999703 0.0000714 0.9999703 0.0000714 0.0000297 -0.0000714
1516199 0.0000304 -0.0000623 0.9999696 0.0000623 0.9999696 0.0000623 0.0000304 -0.0000623
1585629 0.0000311 -0.0000534 0.9999689 0.0000534 0.9999689 0.0000534 0.0000311 -0.0000534
1658239 0.0000320 -0.0000446 0.9999680 0.0000446 0.9999680 0.0000446 0.0000320 -0.0000446
1734173 0.0000329 -0.0000359 0.9999671 0.0000359 0.9999671 0.0000359 0.0000329 -0.0000359
1813585 0.0000339 -0.0000272 0.9999661 0.0000272 0.9999661 0.0000272 0.0000339 -0.0000272
1896632 0.0000351 -0.0000186 0.9999649 0.0000186 0.9999649 0.0000186 0.0000351 -0.0000186
1983483 0.0000363 -0.0000101 0.9999637 0.0000101 0.9999637 0.0000101 0.0000363 -0.0000101
2074311 0.0000377 -0.0000015 0.9999623 0.0000015 0.9999623 0.0000015 0.0000377 -0.0000015
