!Murata Part Number: GRM21BR61H105KA12
!These Parameters are Measured in Series Mode Connection
!Data Generated on Mar 30, 2021
!       o--ll--o
!Port1            Port2
!       o------o
!Operation Temp=25[degC], DC Bias Voltage=0[V]
!Freq. Start=100[Hz] Stop=6[GHz] 401[Steps]
# Hz S RI R 50
!Freq.(Hz) S11(Real) S11(Imag) S21(Real) S21(Imag) S12(Real) S12(Imag) S22(Real) S22(Imag)
100 0.9964189 -0.0585495 0.0035811 0.0585495 0.0035811 0.0585495 0.9964189 -0.0585495
105 0.9960918 -0.0612061 0.0039082 0.0612061 0.0039082 0.0612061 0.9960918 -0.0612061
109 0.9957346 -0.0639813 0.0042654 0.0639813 0.0042654 0.0639813 0.9957346 -0.0639813
114 0.9953446 -0.0668801 0.0046554 0.0668801 0.0046554 0.0668801 0.9953446 -0.0668801
120 0.9949187 -0.0699076 0.0050813 0.0699076 0.0050813 0.0699076 0.9949187 -0.0699076
125 0.9944537 -0.0730694 0.0055463 0.0730694 0.0055463 0.0730694 0.9944537 -0.0730694
131 0.9939460 -0.0763707 0.0060540 0.0763707 0.0060540 0.0763707 0.9939460 -0.0763707
137 0.9933917 -0.0798175 0.0066083 0.0798175 0.0066083 0.0798175 0.9933917 -0.0798175
143 0.9927867 -0.0834154 0.0072133 0.0834154 0.0072133 0.0834154 0.9927867 -0.0834154
150 0.9921263 -0.0871704 0.0078737 0.0871704 0.0078737 0.0871704 0.9921263 -0.0871704
156 0.9914055 -0.0910889 0.0085945 0.0910889 0.0085945 0.0910889 0.9914055 -0.0910889
164 0.9906189 -0.0951770 0.0093811 0.0951770 0.0093811 0.0951770 0.9906189 -0.0951770
171 0.9897607 -0.0994412 0.0102393 0.0994412 0.0102393 0.0994412 0.9897607 -0.0994412
179 0.9888245 -0.1038881 0.0111755 0.1038881 0.0111755 0.1038881 0.9888245 -0.1038881
187 0.9878032 -0.1085242 0.0121968 0.1085242 0.0121968 0.1085242 0.9878032 -0.1085242
196 0.9866894 -0.1133564 0.0133106 0.1133564 0.0133106 0.1133564 0.9866894 -0.1133564
205 0.9854750 -0.1183912 0.0145250 0.1183912 0.0145250 0.1183912 0.9854750 -0.1183912
214 0.9841510 -0.1236357 0.0158490 0.1236357 0.0158490 0.1236357 0.9841510 -0.1236357
224 0.9827080 -0.1290964 0.0172920 0.1290964 0.0172920 0.1290964 0.9827080 -0.1290964
234 0.9811357 -0.1347801 0.0188643 0.1347801 0.0188643 0.1347801 0.9811357 -0.1347801
245 0.9794228 -0.1406933 0.0205772 0.1406933 0.0205772 0.1406933 0.9794228 -0.1406933
256 0.9775573 -0.1468425 0.0224427 0.1468425 0.0224427 0.1468425 0.9775573 -0.1468425
268 0.9755264 -0.1532337 0.0244736 0.1532337 0.0244736 0.1532337 0.9755264 -0.1532337
280 0.9733161 -0.1598728 0.0266839 0.1598728 0.0266839 0.1598728 0.9733161 -0.1598728
293 0.9709114 -0.1667651 0.0290886 0.1667651 0.0290886 0.1667651 0.9709114 -0.1667651
306 0.9682963 -0.1739156 0.0317037 0.1739156 0.0317037 0.1739156 0.9682963 -0.1739156
320 0.9654537 -0.1813284 0.0345463 0.1813284 0.0345463 0.1813284 0.9654537 -0.1813284
335 0.9623653 -0.1890071 0.0376347 0.1890071 0.0376347 0.1890071 0.9623653 -0.1890071
350 0.9590117 -0.1969542 0.0409883 0.1969542 0.0409883 0.1969542 0.9590117 -0.1969542
366 0.9553722 -0.2051713 0.0446278 0.2051713 0.0446278 0.2051713 0.9553722 -0.2051713
383 0.9514249 -0.2136588 0.0485751 0.2136588 0.0485751 0.2136588 0.9514249 -0.2136588
401 0.9471468 -0.2224156 0.0528532 0.2224156 0.0528532 0.2224156 0.9471468 -0.2224156
419 0.9425137 -0.2314390 0.0574863 0.2314390 0.0574863 0.2314390 0.9425137 -0.2314390
438 0.9375001 -0.2407246 0.0624999 0.2407246 0.0624999 0.2407246 0.9375001 -0.2407246
458 0.9320797 -0.2502658 0.0679203 0.2502658 0.0679203 0.2502658 0.9320797 -0.2502658
479 0.9262251 -0.2600538 0.0737749 0.2600538 0.0737749 0.2600538 0.9262251 -0.2600538
501 0.9199082 -0.2700775 0.0800918 0.2700775 0.0800918 0.2700775 0.9199082 -0.2700775
524 0.9131000 -0.2803228 0.0869000 0.2803228 0.0869000 0.2803228 0.9131000 -0.2803228
548 0.9057713 -0.2907725 0.0942287 0.2907725 0.0942287 0.2907725 0.9057713 -0.2907725
573 0.8978927 -0.3014065 0.1021073 0.3014065 0.1021073 0.3014065 0.8978927 -0.3014065
600 0.8894348 -0.3122008 0.1105652 0.3122008 0.1105652 0.3122008 0.8894348 -0.3122008
627 0.8803688 -0.3231281 0.1196312 0.3231281 0.1196312 0.3231281 0.8803688 -0.3231281
656 0.8706667 -0.3341568 0.1293333 0.3341568 0.1293333 0.3341568 0.8706667 -0.3341568
686 0.8603019 -0.3452517 0.1396981 0.3452517 0.1396981 0.3452517 0.8603019 -0.3452517
717 0.8492496 -0.3563730 0.1507504 0.3563730 0.1507504 0.3563730 0.8492496 -0.3563730
750 0.8374876 -0.3674772 0.1625124 0.3674772 0.1625124 0.3674772 0.8374876 -0.3674772
784 0.8249966 -0.3785163 0.1750034 0.3785163 0.1750034 0.3785163 0.8249966 -0.3785163
820 0.8117610 -0.3894385 0.1882390 0.3894385 0.1882390 0.3894385 0.8117610 -0.3894385
858 0.7977696 -0.4001882 0.2022304 0.4001882 0.2022304 0.4001882 0.7977696 -0.4001882
897 0.7830159 -0.4107063 0.2169841 0.4107063 0.2169841 0.4107063 0.7830159 -0.4107063
938 0.7674996 -0.4209306 0.2325004 0.4209306 0.2325004 0.4209306 0.7674996 -0.4209306
981 0.7512262 -0.4307969 0.2487738 0.4307969 0.2487738 0.4307969 0.7512262 -0.4307969
1026 0.7342082 -0.4402387 0.2657918 0.4402387 0.2657918 0.4402387 0.7342082 -0.4402387
1073 0.7164655 -0.4491892 0.2835345 0.4491892 0.2835345 0.4491892 0.7164655 -0.4491892
1122 0.6980256 -0.4575812 0.3019744 0.4575812 0.3019744 0.4575812 0.6980256 -0.4575812
1174 0.6789239 -0.4653488 0.3210761 0.4653488 0.3210761 0.4653488 0.6789239 -0.4653488
1227 0.6592038 -0.4724281 0.3407962 0.4724281 0.3407962 0.4724281 0.6592038 -0.4724281
1283 0.6389167 -0.4787586 0.3610833 0.4787586 0.3610833 0.4787586 0.6389167 -0.4787586
1342 0.6181214 -0.4842843 0.3818786 0.4842843 0.3818786 0.4842843 0.6181214 -0.4842843
1404 0.5968840 -0.4889548 0.4031160 0.4889548 0.4031160 0.4889548 0.5968840 -0.4889548
1468 0.5752770 -0.4927262 0.4247230 0.4927262 0.4247230 0.4927262 0.5752770 -0.4927262
1535 0.5533783 -0.4955625 0.4466217 0.4955625 0.4466217 0.4955625 0.5533783 -0.4955625
1606 0.5312704 -0.4974360 0.4687296 0.4974360 0.4687296 0.4974360 0.5312704 -0.4974360
1679 0.5090389 -0.4983282 0.4909611 0.4983282 0.4909611 0.4983282 0.5090389 -0.4983282
1756 0.4867716 -0.4982301 0.5132284 0.4982301 0.5132284 0.4982301 0.4867716 -0.4982301
1836 0.4645568 -0.4971425 0.5354432 0.4971425 0.5354432 0.4971425 0.4645568 -0.4971425
1920 0.4424819 -0.4950761 0.5575181 0.4950761 0.5575181 0.4950761 0.4424819 -0.4950761
2008 0.4206324 -0.4920511 0.5793676 0.4920511 0.5793676 0.4920511 0.4206324 -0.4920511
2100 0.3990900 -0.4880964 0.6009100 0.4880964 0.6009100 0.4880964 0.3990900 -0.4880964
2196 0.3779321 -0.4832499 0.6220679 0.4832499 0.6220679 0.4832499 0.3779321 -0.4832499
2297 0.3572300 -0.4775566 0.6427700 0.4775566 0.6427700 0.4775566 0.3572300 -0.4775566
2402 0.3370489 -0.4710681 0.6629511 0.4710681 0.6629511 0.4710681 0.3370489 -0.4710681
2512 0.3174463 -0.4638416 0.6825537 0.4638416 0.6825537 0.4638416 0.3174463 -0.4638416
2627 0.2984724 -0.4559385 0.7015276 0.4559385 0.7015276 0.4559385 0.2984724 -0.4559385
2748 0.2801692 -0.4474234 0.7198308 0.4474234 0.7198308 0.4474234 0.2801692 -0.4474234
2873 0.2625706 -0.4383628 0.7374294 0.4383628 0.7374294 0.4383628 0.2625706 -0.4383628
3005 0.2457028 -0.4288241 0.7542972 0.4288241 0.7542972 0.4288241 0.2457028 -0.4288241
3143 0.2295840 -0.4188747 0.7704160 0.4188747 0.7704160 0.4188747 0.2295840 -0.4188747
3287 0.2142253 -0.4085807 0.7857747 0.4085807 0.7857747 0.4085807 0.2142253 -0.4085807
3437 0.1996310 -0.3980064 0.8003690 0.3980064 0.8003690 0.3980064 0.1996310 -0.3980064
3594 0.1857992 -0.3872136 0.8142008 0.3872136 0.8142008 0.3872136 0.1857992 -0.3872136
3759 0.1727222 -0.3762609 0.8272778 0.3762609 0.8272778 0.3762609 0.1727222 -0.3762609
3931 0.1603877 -0.3652035 0.8396123 0.3652035 0.8396123 0.3652035 0.1603877 -0.3652035
4111 0.1487792 -0.3540923 0.8512208 0.3540923 0.8512208 0.3540923 0.1487792 -0.3540923
4299 0.1378762 -0.3429746 0.8621238 0.3429746 0.8621238 0.3429746 0.1378762 -0.3429746
4496 0.1276559 -0.3318933 0.8723441 0.3318933 0.8723441 0.3318933 0.1276559 -0.3318933
4702 0.1180926 -0.3208870 0.8819074 0.3208870 0.8819074 0.3208870 0.1180926 -0.3208870
4918 0.1091594 -0.3099902 0.8908406 0.3099902 0.8908406 0.3099902 0.1091594 -0.3099902
5143 0.1008278 -0.2992335 0.8991722 0.2992335 0.8991722 0.2992335 0.1008278 -0.2992335
5378 0.0930686 -0.2886433 0.9069314 0.2886433 0.9069314 0.2886433 0.0930686 -0.2886433
5625 0.0858523 -0.2782427 0.9141477 0.2782427 0.9141477 0.2782427 0.0858523 -0.2782427
5882 0.0791494 -0.2680511 0.9208506 0.2680511 0.9208506 0.2680511 0.0791494 -0.2680511
6151 0.0729306 -0.2580846 0.9270694 0.2580846 0.9270694 0.2580846 0.0729306 -0.2580846
6433 0.0671670 -0.2483567 0.9328330 0.2483567 0.9328330 0.2483567 0.0671670 -0.2483567
6728 0.0618308 -0.2388777 0.9381692 0.2388777 0.9381692 0.2388777 0.0618308 -0.2388777
7036 0.0568946 -0.2296559 0.9431054 0.2296559 0.9431054 0.2296559 0.0568946 -0.2296559
7358 0.0523324 -0.2206970 0.9476676 0.2206970 0.9476676 0.2206970 0.0523324 -0.2206970
7695 0.0481190 -0.2120052 0.9518810 0.2120052 0.9518810 0.2120052 0.0481190 -0.2120052
8047 0.0442306 -0.2035824 0.9557694 0.2035824 0.9557694 0.2035824 0.0442306 -0.2035824
8416 0.0406445 -0.1954294 0.9593555 0.1954294 0.9593555 0.1954294 0.0406445 -0.1954294
8801 0.0373391 -0.1875455 0.9626609 0.1875455 0.9626609 0.1875455 0.0373391 -0.1875455
9204 0.0342943 -0.1799289 0.9657057 0.1799289 0.9657057 0.1799289 0.0342943 -0.1799289
9626 0.0314908 -0.1725766 0.9685092 0.1725766 0.9685092 0.1725766 0.0314908 -0.1725766
10066 0.0289107 -0.1654850 0.9710893 0.1654850 0.9710893 0.1654850 0.0289107 -0.1654850
10527 0.0265374 -0.1586497 0.9734626 0.1586497 0.9734626 0.1586497 0.0265374 -0.1586497
11009 0.0243550 -0.1520657 0.9756450 0.1520657 0.9756450 0.1520657 0.0243550 -0.1520657
11514 0.0223491 -0.1457276 0.9776509 0.1457276 0.9776509 0.1457276 0.0223491 -0.1457276
12041 0.0205059 -0.1396295 0.9794941 0.1396295 0.9794941 0.1396295 0.0205059 -0.1396295
12592 0.0188129 -0.1337653 0.9811871 0.1337653 0.9811871 0.1337653 0.0188129 -0.1337653
13169 0.0172581 -0.1281286 0.9827419 0.1281286 0.9827419 0.1281286 0.0172581 -0.1281286
13772 0.0158309 -0.1227128 0.9841691 0.1227128 0.9841691 0.1227128 0.0158309 -0.1227128
14402 0.0145209 -0.1175114 0.9854791 0.1175114 0.9854791 0.1175114 0.0145209 -0.1175114
15062 0.0133189 -0.1125176 0.9866811 0.1125176 0.9866811 0.1125176 0.0133189 -0.1125176
15752 0.0122162 -0.1077248 0.9877838 0.1077248 0.9877838 0.1077248 0.0122162 -0.1077248
16473 0.0112049 -0.1031261 0.9887951 0.1031261 0.9887951 0.1031261 0.0112049 -0.1031261
17227 0.0102774 -0.0987151 0.9897226 0.0987151 0.9897226 0.0987151 0.0102774 -0.0987151
18016 0.0094271 -0.0944851 0.9905729 0.0944851 0.9905729 0.0944851 0.0094271 -0.0944851
18841 0.0086475 -0.0904296 0.9913525 0.0904296 0.9913525 0.0904296 0.0086475 -0.0904296
19704 0.0079330 -0.0865423 0.9920670 0.0865423 0.9920670 0.0865423 0.0079330 -0.0865423
20606 0.0072782 -0.0828170 0.9927218 0.0828170 0.9927218 0.0828170 0.0072782 -0.0828170
21550 0.0066781 -0.0792476 0.9933219 0.0792476 0.9933219 0.0792476 0.0066781 -0.0792476
22537 0.0061282 -0.0758281 0.9938718 0.0758281 0.9938718 0.0758281 0.0061282 -0.0758281
23569 0.0056244 -0.0725527 0.9943756 0.0725527 0.9943756 0.0725527 0.0056244 -0.0725527
24648 0.0051628 -0.0694159 0.9948372 0.0694159 0.9948372 0.0694159 0.0051628 -0.0694159
25777 0.0047399 -0.0664121 0.9952601 0.0664121 0.9952601 0.0664121 0.0047399 -0.0664121
26957 0.0043525 -0.0635361 0.9956475 0.0635361 0.9956475 0.0635361 0.0043525 -0.0635361
28191 0.0039975 -0.0607827 0.9960025 0.0607827 0.9960025 0.0607827 0.0039975 -0.0607827
29482 0.0036723 -0.0581469 0.9963277 0.0581469 0.9963277 0.0581469 0.0036723 -0.0581469
30832 0.0033744 -0.0556241 0.9966256 0.0556241 0.9966256 0.0556241 0.0033744 -0.0556241
32244 0.0031014 -0.0532094 0.9968986 0.0532094 0.9968986 0.0532094 0.0031014 -0.0532094
33721 0.0028513 -0.0508986 0.9971487 0.0508986 0.9971487 0.0508986 0.0028513 -0.0508986
35265 0.0026221 -0.0486872 0.9973779 0.0486872 0.9973779 0.0486872 0.0026221 -0.0486872
36880 0.0024120 -0.0465711 0.9975880 0.0465711 0.9975880 0.0465711 0.0024120 -0.0465711
38569 0.0022194 -0.0445463 0.9977806 0.0445463 0.9977806 0.0445463 0.0022194 -0.0445463
40335 0.0020428 -0.0426090 0.9979572 0.0426090 0.9979572 0.0426090 0.0020428 -0.0426090
42182 0.0018809 -0.0407554 0.9981191 0.0407554 0.9981191 0.0407554 0.0018809 -0.0407554
44113 0.0017325 -0.0389821 0.9982675 0.0389821 0.9982675 0.0389821 0.0017325 -0.0389821
46134 0.0015962 -0.0372856 0.9984038 0.0372856 0.9984038 0.0372856 0.0015962 -0.0372856
48246 0.0014712 -0.0356626 0.9985288 0.0356626 0.9985288 0.0356626 0.0014712 -0.0356626
50455 0.0013565 -0.0341100 0.9986435 0.0341100 0.9986435 0.0341100 0.0013565 -0.0341100
52766 0.0012512 -0.0326247 0.9987488 0.0326247 0.9987488 0.0326247 0.0012512 -0.0326247
55182 0.0011545 -0.0312039 0.9988455 0.0312039 0.9988455 0.0312039 0.0011545 -0.0312039
57709 0.0010657 -0.0298448 0.9989343 0.0298448 0.9989343 0.0298448 0.0010657 -0.0298448
60352 0.0009840 -0.0285447 0.9990160 0.0285447 0.9990160 0.0285447 0.0009840 -0.0285447
63115 0.0009090 -0.0273011 0.9990910 0.0273011 0.9990910 0.0273011 0.0009090 -0.0273011
66005 0.0008401 -0.0261115 0.9991599 0.0261115 0.9991599 0.0261115 0.0008401 -0.0261115
69028 0.0007767 -0.0249736 0.9992233 0.0249736 0.9992233 0.0249736 0.0007767 -0.0249736
72189 0.0007184 -0.0238852 0.9992816 0.0238852 0.9992816 0.0238852 0.0007184 -0.0238852
75495 0.0006648 -0.0228440 0.9993352 0.0228440 0.9993352 0.0228440 0.0006648 -0.0228440
78952 0.0006155 -0.0218481 0.9993845 0.0218481 0.9993845 0.0218481 0.0006155 -0.0218481
82567 0.0005701 -0.0208955 0.9994299 0.0208955 0.9994299 0.0208955 0.0005701 -0.0208955
86348 0.0005283 -0.0199843 0.9994717 0.0199843 0.9994717 0.0199843 0.0005283 -0.0199843
90302 0.0004899 -0.0191127 0.9995101 0.0191127 0.9995101 0.0191127 0.0004899 -0.0191127
94437 0.0004545 -0.0182790 0.9995455 0.0182790 0.9995455 0.0182790 0.0004545 -0.0182790
98762 0.0004219 -0.0174816 0.9995781 0.0174816 0.9995781 0.0174816 0.0004219 -0.0174816
103284 0.0003919 -0.0167188 0.9996081 0.0167188 0.9996081 0.0167188 0.0003919 -0.0167188
108014 0.0003643 -0.0159892 0.9996357 0.0159892 0.9996357 0.0159892 0.0003643 -0.0159892
112960 0.0003389 -0.0152913 0.9996611 0.0152913 0.9996611 0.0152913 0.0003389 -0.0152913
118133 0.0003155 -0.0146238 0.9996845 0.0146238 0.9996845 0.0146238 0.0003155 -0.0146238
123542 0.0002940 -0.0139853 0.9997060 0.0139853 0.9997060 0.0139853 0.0002940 -0.0139853
129199 0.0002741 -0.0133746 0.9997259 0.0133746 0.9997259 0.0133746 0.0002741 -0.0133746
135116 0.0002559 -0.0127905 0.9997441 0.0127905 0.9997441 0.0127905 0.0002559 -0.0127905
141303 0.0002391 -0.0122318 0.9997609 0.0122318 0.9997609 0.0122318 0.0002391 -0.0122318
147774 0.0002236 -0.0116974 0.9997764 0.0116974 0.9997764 0.0116974 0.0002236 -0.0116974
154540 0.0002093 -0.0111863 0.9997907 0.0111863 0.9997907 0.0111863 0.0002093 -0.0111863
161617 0.0001962 -0.0106974 0.9998038 0.0106974 0.9998038 0.0106974 0.0001962 -0.0106974
169018 0.0001841 -0.0102298 0.9998159 0.0102298 0.9998159 0.0102298 0.0001841 -0.0102298
176758 0.0001729 -0.0097825 0.9998271 0.0097825 0.9998271 0.0097825 0.0001729 -0.0097825
184852 0.0001627 -0.0093548 0.9998373 0.0093548 0.9998373 0.0093548 0.0001627 -0.0093548
193316 0.0001532 -0.0089456 0.9998468 0.0089456 0.9998468 0.0089456 0.0001532 -0.0089456
202169 0.0001445 -0.0085543 0.9998555 0.0085543 0.9998555 0.0085543 0.0001445 -0.0085543
211427 0.0001364 -0.0081800 0.9998636 0.0081800 0.9998636 0.0081800 0.0001364 -0.0081800
221108 0.0001290 -0.0078220 0.9998710 0.0078220 0.9998710 0.0078220 0.0001290 -0.0078220
231233 0.0001222 -0.0074795 0.9998778 0.0074795 0.9998778 0.0074795 0.0001222 -0.0074795
241822 0.0001159 -0.0071520 0.9998841 0.0071520 0.9998841 0.0071520 0.0001159 -0.0071520
252896 0.0001100 -0.0068387 0.9998900 0.0068387 0.9998900 0.0068387 0.0001100 -0.0068387
264476 0.0001047 -0.0065391 0.9998953 0.0065391 0.9998953 0.0065391 0.0001047 -0.0065391
276587 0.0000997 -0.0062524 0.9999003 0.0062524 0.9999003 0.0062524 0.0000997 -0.0062524
289253 0.0000952 -0.0059783 0.9999048 0.0059783 0.9999048 0.0059783 0.0000952 -0.0059783
302498 0.0000909 -0.0057160 0.9999091 0.0057160 0.9999091 0.0057160 0.0000909 -0.0057160
316350 0.0000871 -0.0054652 0.9999129 0.0054652 0.9999129 0.0054652 0.0000871 -0.0054652
330837 0.0000835 -0.0052252 0.9999165 0.0052252 0.9999165 0.0052252 0.0000835 -0.0052252
345986 0.0000802 -0.0049957 0.9999198 0.0049957 0.9999198 0.0049957 0.0000802 -0.0049957
361830 0.0000771 -0.0047761 0.9999229 0.0047761 0.9999229 0.0047761 0.0000771 -0.0047761
378399 0.0000743 -0.0045661 0.9999257 0.0045661 0.9999257 0.0045661 0.0000743 -0.0045661
395726 0.0000717 -0.0043652 0.9999283 0.0043652 0.9999283 0.0043652 0.0000717 -0.0043652
413847 0.0000693 -0.0041729 0.9999307 0.0041729 0.9999307 0.0041729 0.0000693 -0.0041729
432798 0.0000671 -0.0039890 0.9999329 0.0039890 0.9999329 0.0039890 0.0000671 -0.0039890
452617 0.0000651 -0.0038131 0.9999349 0.0038131 0.9999349 0.0038131 0.0000651 -0.0038131
473344 0.0000632 -0.0036448 0.9999368 0.0036448 0.9999368 0.0036448 0.0000632 -0.0036448
495019 0.0000615 -0.0034838 0.9999385 0.0034838 0.9999385 0.0034838 0.0000615 -0.0034838
517687 0.0000599 -0.0033297 0.9999401 0.0033297 0.9999401 0.0033297 0.0000599 -0.0033297
541393 0.0000585 -0.0031822 0.9999415 0.0031822 0.9999415 0.0031822 0.0000585 -0.0031822
566185 0.0000571 -0.0030412 0.9999429 0.0030412 0.9999429 0.0030412 0.0000571 -0.0030412
592111 0.0000559 -0.0029062 0.9999441 0.0029062 0.9999441 0.0029062 0.0000559 -0.0029062
619225 0.0000548 -0.0027770 0.9999452 0.0027770 0.9999452 0.0027770 0.0000548 -0.0027770
647581 0.0000538 -0.0026533 0.9999462 0.0026533 0.9999462 0.0026533 0.0000538 -0.0026533
677235 0.0000528 -0.0025350 0.9999472 0.0025350 0.9999472 0.0025350 0.0000528 -0.0025350
708247 0.0000520 -0.0024217 0.9999480 0.0024217 0.9999480 0.0024217 0.0000520 -0.0024217
740679 0.0000512 -0.0023133 0.9999488 0.0023133 0.9999488 0.0023133 0.0000512 -0.0023133
774597 0.0000505 -0.0022095 0.9999495 0.0022095 0.9999495 0.0022095 0.0000505 -0.0022095
810067 0.0000498 -0.0021101 0.9999502 0.0021101 0.9999502 0.0021101 0.0000498 -0.0021101
847162 0.0000492 -0.0020149 0.9999508 0.0020149 0.9999508 0.0020149 0.0000492 -0.0020149
885955 0.0000487 -0.0019238 0.9999513 0.0019238 0.9999513 0.0019238 0.0000487 -0.0019238
926525 0.0000482 -0.0018365 0.9999518 0.0018365 0.9999518 0.0018365 0.0000482 -0.0018365
968953 0.0000478 -0.0017529 0.9999522 0.0017529 0.9999522 0.0017529 0.0000478 -0.0017529
1013323 0.0000474 -0.0016729 0.9999526 0.0016729 0.9999526 0.0016729 0.0000474 -0.0016729
1059725 0.0000470 -0.0015961 0.9999530 0.0015961 0.9999530 0.0015961 0.0000470 -0.0015961
1108252 0.0000467 -0.0015226 0.9999533 0.0015226 0.9999533 0.0015226 0.0000467 -0.0015226
1159002 0.0000465 -0.0014521 0.9999535 0.0014521 0.9999535 0.0014521 0.0000465 -0.0014521
1212075 0.0000462 -0.0013845 0.9999538 0.0013845 0.9999538 0.0013845 0.0000462 -0.0013845
1267578 0.0000460 -0.0013197 0.9999540 0.0013197 0.9999540 0.0013197 0.0000460 -0.0013197
1325623 0.0000459 -0.0012575 0.9999541 0.0012575 0.9999541 0.0012575 0.0000459 -0.0012575
1386327 0.0000457 -0.0011979 0.9999543 0.0011979 0.9999543 0.0011979 0.0000457 -0.0011979
1449809 0.0000456 -0.0011406 0.9999544 0.0011406 0.9999544 0.0011406 0.0000456 -0.0011406
1516199 0.0000455 -0.0010856 0.9999545 0.0010856 0.9999545 0.0010856 0.0000455 -0.0010856
1585629 0.0000455 -0.0010328 0.9999545 0.0010328 0.9999545 0.0010328 0.0000455 -0.0010328
1658239 0.0000455 -0.0009821 0.9999545 0.0009821 0.9999545 0.0009821 0.0000455 -0.0009821
1734173 0.0000455 -0.0009334 0.9999545 0.0009334 0.9999545 0.0009334 0.0000455 -0.0009334
1813585 0.0000455 -0.0008865 0.9999545 0.0008865 0.9999545 0.0008865 0.0000455 -0.0008865
1896632 0.0000456 -0.0008414 0.9999544 0.0008414 0.9999544 0.0008414 0.0000456 -0.0008414
1983483 0.0000457 -0.0007979 0.9999543 0.0007979 0.9999543 0.0007979 0.0000457 -0.0007979
2074311 0.0000458 -0.0007561 0.9999542 0.0007561 0.9999542 0.0007561 0.0000458 -0.0007561
