!Murata Part Number: GRM219R71H334KA88
!These Parameters are Measured in Series Mode Connection
!Data Generated on Mar 30, 2021
!       o--ll--o
!Port1            Port2
!       o------o
!Operation Temp=25[degC], DC Bias Voltage=0[V]
!Freq. Start=100[kHz] Stop=6[GHz] 401[Steps]
# Hz S RI R 50
!Freq.(Hz) S11(Real) S11(Imag) S21(Real) S21(Imag) S12(Real) S12(Imag) S22(Real) S22(Imag)
100000 0.0032863 -0.0521976 0.9967137 0.0521976 0.9967137 0.0521976 0.0032863 -0.0521976
102789 0.0031296 -0.0507996 0.9968704 0.0507996 0.9968704 0.0507996 0.0031296 -0.0507996
105655 0.0029807 -0.0494386 0.9970193 0.0494386 0.9970193 0.0494386 0.0029807 -0.0494386
108602 0.0028392 -0.0481136 0.9971608 0.0481136 0.9971608 0.0481136 0.0028392 -0.0481136
111630 0.0027049 -0.0468237 0.9972951 0.0468237 0.9972951 0.0468237 0.0027049 -0.0468237
114743 0.0025772 -0.0455679 0.9974228 0.0455679 0.9974228 0.0455679 0.0025772 -0.0455679
117943 0.0024559 -0.0443455 0.9975441 0.0443455 0.9975441 0.0443455 0.0024559 -0.0443455
121232 0.0023408 -0.0431555 0.9976592 0.0431555 0.9976592 0.0431555 0.0023408 -0.0431555
124613 0.0022313 -0.0419971 0.9977687 0.0419971 0.9977687 0.0419971 0.0022313 -0.0419971
128088 0.0021274 -0.0408695 0.9978726 0.0408695 0.9978726 0.0408695 0.0021274 -0.0408695
131660 0.0020286 -0.0397719 0.9979714 0.0397719 0.9979714 0.0397719 0.0020286 -0.0397719
135332 0.0019348 -0.0387034 0.9980652 0.0387034 0.9980652 0.0387034 0.0019348 -0.0387034
139106 0.0018457 -0.0376635 0.9981543 0.0376635 0.9981543 0.0376635 0.0018457 -0.0376635
142985 0.0017611 -0.0366512 0.9982389 0.0366512 0.9982389 0.0366512 0.0017611 -0.0366512
146972 0.0016807 -0.0356659 0.9983193 0.0356659 0.9983193 0.0356659 0.0016807 -0.0356659
151071 0.0016044 -0.0347070 0.9983956 0.0347070 0.9983956 0.0347070 0.0016044 -0.0347070
155284 0.0015318 -0.0337736 0.9984682 0.0337736 0.9984682 0.0337736 0.0015318 -0.0337736
159614 0.0014629 -0.0328651 0.9985371 0.0328651 0.9985371 0.0328651 0.0014629 -0.0328651
164065 0.0013975 -0.0319809 0.9986025 0.0319809 0.9986025 0.0319809 0.0013975 -0.0319809
168641 0.0013353 -0.0311204 0.9986647 0.0311204 0.9986647 0.0311204 0.0013353 -0.0311204
173344 0.0012762 -0.0302829 0.9987238 0.0302829 0.9987238 0.0302829 0.0012762 -0.0302829
178178 0.0012201 -0.0294678 0.9987799 0.0294678 0.9987799 0.0294678 0.0012201 -0.0294678
183146 0.0011668 -0.0286745 0.9988332 0.0286745 0.9988332 0.0286745 0.0011668 -0.0286745
188254 0.0011161 -0.0279025 0.9988839 0.0279025 0.9988839 0.0279025 0.0011161 -0.0279025
193504 0.0010680 -0.0271512 0.9989320 0.0271512 0.9989320 0.0271512 0.0010680 -0.0271512
198900 0.0010223 -0.0264200 0.9989777 0.0264200 0.9989777 0.0264200 0.0010223 -0.0264200
204447 0.0009788 -0.0257085 0.9990212 0.0257085 0.9990212 0.0257085 0.0009788 -0.0257085
210148 0.0009375 -0.0250160 0.9990625 0.0250160 0.9990625 0.0250160 0.0009375 -0.0250160
216008 0.0008982 -0.0243422 0.9991018 0.0243422 0.9991018 0.0243422 0.0008982 -0.0243422
222032 0.0008608 -0.0236864 0.9991392 0.0236864 0.9991392 0.0236864 0.0008608 -0.0236864
228224 0.0008253 -0.0230483 0.9991747 0.0230483 0.9991747 0.0230483 0.0008253 -0.0230483
234589 0.0007916 -0.0224273 0.9992084 0.0224273 0.9992084 0.0224273 0.0007916 -0.0224273
241130 0.0007595 -0.0218230 0.9992405 0.0218230 0.9992405 0.0218230 0.0007595 -0.0218230
247855 0.0007289 -0.0212350 0.9992711 0.0212350 0.9992711 0.0212350 0.0007289 -0.0212350
254767 0.0006998 -0.0206628 0.9993002 0.0206628 0.9993002 0.0206628 0.0006998 -0.0206628
261871 0.0006721 -0.0201060 0.9993279 0.0201060 0.9993279 0.0201060 0.0006721 -0.0201060
269174 0.0006458 -0.0195642 0.9993542 0.0195642 0.9993542 0.0195642 0.0006458 -0.0195642
276681 0.0006207 -0.0190369 0.9993793 0.0190369 0.9993793 0.0190369 0.0006207 -0.0190369
284397 0.0005968 -0.0185238 0.9994032 0.0185238 0.9994032 0.0185238 0.0005968 -0.0185238
292328 0.0005740 -0.0180246 0.9994260 0.0180246 0.9994260 0.0180246 0.0005740 -0.0180246
300480 0.0005523 -0.0175388 0.9994477 0.0175388 0.9994477 0.0175388 0.0005523 -0.0175388
308859 0.0005316 -0.0170660 0.9994684 0.0170660 0.9994684 0.0170660 0.0005316 -0.0170660
317472 0.0005119 -0.0166060 0.9994881 0.0166060 0.9994881 0.0166060 0.0005119 -0.0166060
326326 0.0004931 -0.0161584 0.9995069 0.0161584 0.9995069 0.0161584 0.0004931 -0.0161584
335426 0.0004751 -0.0157228 0.9995249 0.0157228 0.9995249 0.0157228 0.0004751 -0.0157228
344780 0.0004580 -0.0152989 0.9995420 0.0152989 0.9995420 0.0152989 0.0004580 -0.0152989
354395 0.0004416 -0.0148864 0.9995584 0.0148864 0.9995584 0.0148864 0.0004416 -0.0148864
364278 0.0004260 -0.0144850 0.9995740 0.0144850 0.9995740 0.0144850 0.0004260 -0.0144850
374436 0.0004110 -0.0140944 0.9995890 0.0140944 0.9995890 0.0140944 0.0004110 -0.0140944
384878 0.0003968 -0.0137143 0.9996032 0.0137143 0.9996032 0.0137143 0.0003968 -0.0137143
395611 0.0003831 -0.0133445 0.9996169 0.0133445 0.9996169 0.0133445 0.0003831 -0.0133445
406644 0.0003701 -0.0129845 0.9996299 0.0129845 0.9996299 0.0129845 0.0003701 -0.0129845
417984 0.0003576 -0.0126342 0.9996424 0.0126342 0.9996424 0.0126342 0.0003576 -0.0126342
429640 0.0003456 -0.0122934 0.9996544 0.0122934 0.9996544 0.0122934 0.0003456 -0.0122934
441622 0.0003342 -0.0119616 0.9996658 0.0119616 0.9996658 0.0119616 0.0003342 -0.0119616
453937 0.0003232 -0.0116388 0.9996768 0.0116388 0.9996768 0.0116388 0.0003232 -0.0116388
466596 0.0003128 -0.0113246 0.9996872 0.0113246 0.9996872 0.0113246 0.0003128 -0.0113246
479608 0.0003027 -0.0110189 0.9996973 0.0110189 0.9996973 0.0110189 0.0003027 -0.0110189
492983 0.0002931 -0.0107213 0.9997069 0.0107213 0.9997069 0.0107213 0.0002931 -0.0107213
506731 0.0002839 -0.0104318 0.9997161 0.0104318 0.9997161 0.0104318 0.0002839 -0.0104318
520862 0.0002751 -0.0101499 0.9997249 0.0101499 0.9997249 0.0101499 0.0002751 -0.0101499
535387 0.0002666 -0.0098756 0.9997334 0.0098756 0.9997334 0.0098756 0.0002666 -0.0098756
550318 0.0002585 -0.0096087 0.9997415 0.0096087 0.9997415 0.0096087 0.0002585 -0.0096087
565664 0.0002507 -0.0093489 0.9997493 0.0093489 0.9997493 0.0093489 0.0002507 -0.0093489
581439 0.0002433 -0.0090960 0.9997567 0.0090960 0.9997567 0.0090960 0.0002433 -0.0090960
597654 0.0002362 -0.0088499 0.9997638 0.0088499 0.9997638 0.0088499 0.0002362 -0.0088499
614320 0.0002293 -0.0086104 0.9997707 0.0086104 0.9997707 0.0086104 0.0002293 -0.0086104
631452 0.0002228 -0.0083772 0.9997772 0.0083772 0.9997772 0.0083772 0.0002228 -0.0083772
649061 0.0002165 -0.0081503 0.9997835 0.0081503 0.9997835 0.0081503 0.0002165 -0.0081503
667162 0.0002105 -0.0079295 0.9997895 0.0079295 0.9997895 0.0079295 0.0002105 -0.0079295
685767 0.0002047 -0.0077145 0.9997953 0.0077145 0.9997953 0.0077145 0.0002047 -0.0077145
704891 0.0001992 -0.0075052 0.9998008 0.0075052 0.9998008 0.0075052 0.0001992 -0.0075052
724548 0.0001939 -0.0073016 0.9998061 0.0073016 0.9998061 0.0073016 0.0001939 -0.0073016
744754 0.0001889 -0.0071033 0.9998111 0.0071033 0.9998111 0.0071033 0.0001889 -0.0071033
765523 0.0001841 -0.0069104 0.9998159 0.0069104 0.9998159 0.0069104 0.0001841 -0.0069104
786871 0.0001794 -0.0067226 0.9998206 0.0067226 0.9998206 0.0067226 0.0001794 -0.0067226
808814 0.0001750 -0.0065398 0.9998250 0.0065398 0.9998250 0.0065398 0.0001750 -0.0065398
831370 0.0001708 -0.0063618 0.9998292 0.0063618 0.9998292 0.0063618 0.0001708 -0.0063618
854554 0.0001667 -0.0061886 0.9998333 0.0061886 0.9998333 0.0061886 0.0001667 -0.0061886
878385 0.0001628 -0.0060200 0.9998372 0.0060200 0.9998372 0.0060200 0.0001628 -0.0060200
902880 0.0001591 -0.0058558 0.9998409 0.0058558 0.9998409 0.0058558 0.0001591 -0.0058558
928059 0.0001556 -0.0056961 0.9998444 0.0056961 0.9998444 0.0056961 0.0001556 -0.0056961
953940 0.0001522 -0.0055405 0.9998478 0.0055405 0.9998478 0.0055405 0.0001522 -0.0055405
980542 0.0001490 -0.0053891 0.9998510 0.0053891 0.9998510 0.0053891 0.0001490 -0.0053891
1007887 0.0001459 -0.0052418 0.9998541 0.0052418 0.9998541 0.0052418 0.0001459 -0.0052418
1035994 0.0001430 -0.0050983 0.9998570 0.0050983 0.9998570 0.0050983 0.0001430 -0.0050983
1064885 0.0001402 -0.0049586 0.9998598 0.0049586 0.9998598 0.0049586 0.0001402 -0.0049586
1094581 0.0001375 -0.0048227 0.9998625 0.0048227 0.9998625 0.0048227 0.0001375 -0.0048227
1125106 0.0001350 -0.0046903 0.9998650 0.0046903 0.9998650 0.0046903 0.0001350 -0.0046903
1156481 0.0001326 -0.0045614 0.9998674 0.0045614 0.9998674 0.0045614 0.0001326 -0.0045614
1188732 0.0001302 -0.0044360 0.9998698 0.0044360 0.9998698 0.0044360 0.0001302 -0.0044360
1221882 0.0001280 -0.0043138 0.9998720 0.0043138 0.9998720 0.0043138 0.0001280 -0.0043138
1255957 0.0001260 -0.0041949 0.9998740 0.0041949 0.9998740 0.0041949 0.0001260 -0.0041949
1290982 0.0001240 -0.0040792 0.9998760 0.0040792 0.9998760 0.0040792 0.0001240 -0.0040792
1326984 0.0001221 -0.0039664 0.9998779 0.0039664 0.9998779 0.0039664 0.0001221 -0.0039664
1363989 0.0001203 -0.0038567 0.9998797 0.0038567 0.9998797 0.0038567 0.0001203 -0.0038567
1402027 0.0001185 -0.0037498 0.9998815 0.0037498 0.9998815 0.0037498 0.0001185 -0.0037498
1441125 0.0001169 -0.0036458 0.9998831 0.0036458 0.9998831 0.0036458 0.0001169 -0.0036458
1481314 0.0001154 -0.0035444 0.9998846 0.0035444 0.9998846 0.0035444 0.0001154 -0.0035444
1522623 0.0001139 -0.0034458 0.9998861 0.0034458 0.9998861 0.0034458 0.0001139 -0.0034458
1565085 0.0001125 -0.0033497 0.9998875 0.0033497 0.9998875 0.0033497 0.0001125 -0.0033497
1608730 0.0001112 -0.0032561 0.9998888 0.0032561 0.9998888 0.0032561 0.0001112 -0.0032561
1653593 0.0001099 -0.0031650 0.9998901 0.0031650 0.9998901 0.0031650 0.0001099 -0.0031650
1699707 0.0001087 -0.0030763 0.9998913 0.0030763 0.9998913 0.0030763 0.0001087 -0.0030763
1747106 0.0001076 -0.0029898 0.9998924 0.0029898 0.9998924 0.0029898 0.0001076 -0.0029898
1795828 0.0001065 -0.0029057 0.9998935 0.0029057 0.9998935 0.0029057 0.0001065 -0.0029057
1845908 0.0001055 -0.0028237 0.9998945 0.0028237 0.9998945 0.0028237 0.0001055 -0.0028237
1897385 0.0001045 -0.0027438 0.9998955 0.0027438 0.9998955 0.0027438 0.0001045 -0.0027438
1950297 0.0001036 -0.0026660 0.9998964 0.0026660 0.9998964 0.0026660 0.0001036 -0.0026660
2004685 0.0001027 -0.0025901 0.9998973 0.0025901 0.9998973 0.0025901 0.0001027 -0.0025901
2060590 0.0001019 -0.0025163 0.9998981 0.0025163 0.9998981 0.0025163 0.0001019 -0.0025163
2118054 0.0001012 -0.0024443 0.9998988 0.0024443 0.9998988 0.0024443 0.0001012 -0.0024443
2177120 0.0001004 -0.0023742 0.9998996 0.0023742 0.9998996 0.0023742 0.0001004 -0.0023742
2237833 0.0000997 -0.0023058 0.9999003 0.0023058 0.9999003 0.0023058 0.0000997 -0.0023058
2300240 0.0000991 -0.0022392 0.9999009 0.0022392 0.9999009 0.0022392 0.0000991 -0.0022392
2364387 0.0000985 -0.0021743 0.9999015 0.0021743 0.9999015 0.0021743 0.0000985 -0.0021743
2430322 0.0000979 -0.0021110 0.9999021 0.0021110 0.9999021 0.0021110 0.0000979 -0.0021110
2498097 0.0000974 -0.0020493 0.9999026 0.0020493 0.9999026 0.0020493 0.0000974 -0.0020493
2567761 0.0000969 -0.0019892 0.9999031 0.0019892 0.9999031 0.0019892 0.0000969 -0.0019892
2639368 0.0000964 -0.0019305 0.9999036 0.0019305 0.9999036 0.0019305 0.0000964 -0.0019305
2712972 0.0000960 -0.0018733 0.9999040 0.0018733 0.9999040 0.0018733 0.0000960 -0.0018733
2788629 0.0000956 -0.0018176 0.9999044 0.0018176 0.9999044 0.0018176 0.0000956 -0.0018176
2866396 0.0000952 -0.0017631 0.9999048 0.0017631 0.9999048 0.0017631 0.0000952 -0.0017631
2946331 0.0000948 -0.0017101 0.9999052 0.0017101 0.9999052 0.0017101 0.0000948 -0.0017101
3028495 0.0000945 -0.0016583 0.9999055 0.0016583 0.9999055 0.0016583 0.0000945 -0.0016583
3112951 0.0000942 -0.0016077 0.9999058 0.0016077 0.9999058 0.0016077 0.0000942 -0.0016077
3199762 0.0000939 -0.0015584 0.9999061 0.0015584 0.9999061 0.0015584 0.0000939 -0.0015584
3288994 0.0000936 -0.0015102 0.9999064 0.0015102 0.9999064 0.0015102 0.0000936 -0.0015102
3380714 0.0000934 -0.0014632 0.9999066 0.0014632 0.9999066 0.0014632 0.0000934 -0.0014632
3474992 0.0000932 -0.0014173 0.9999068 0.0014173 0.9999068 0.0014173 0.0000932 -0.0014173
3571899 0.0000930 -0.0013725 0.9999070 0.0013725 0.9999070 0.0013725 0.0000930 -0.0013725
3671508 0.0000928 -0.0013287 0.9999072 0.0013287 0.9999072 0.0013287 0.0000928 -0.0013287
3773896 0.0000927 -0.0012859 0.9999073 0.0012859 0.9999073 0.0012859 0.0000927 -0.0012859
3879139 0.0000926 -0.0012440 0.9999074 0.0012440 0.9999074 0.0012440 0.0000926 -0.0012440
3987316 0.0000925 -0.0012031 0.9999075 0.0012031 0.9999075 0.0012031 0.0000925 -0.0012031
4098510 0.0000924 -0.0011631 0.9999076 0.0011631 0.9999076 0.0011631 0.0000924 -0.0011631
4212806 0.0000923 -0.0011240 0.9999077 0.0011240 0.9999077 0.0011240 0.0000923 -0.0011240
4330288 0.0000923 -0.0010857 0.9999077 0.0010857 0.9999077 0.0010857 0.0000923 -0.0010857
4451047 0.0000922 -0.0010483 0.9999078 0.0010483 0.9999078 0.0010483 0.0000922 -0.0010483
4575173 0.0000922 -0.0010116 0.9999078 0.0010116 0.9999078 0.0010116 0.0000922 -0.0010116
4702761 0.0000922 -0.0009757 0.9999078 0.0009757 0.9999078 0.0009757 0.0000922 -0.0009757
4833907 0.0000923 -0.0009406 0.9999077 0.0009406 0.9999077 0.0009406 0.0000923 -0.0009406
4968711 0.0000923 -0.0009061 0.9999077 0.0009061 0.9999077 0.0009061 0.0000923 -0.0009061
5107273 0.0000924 -0.0008723 0.9999076 0.0008723 0.9999076 0.0008723 0.0000924 -0.0008723
5249700 0.0000925 -0.0008392 0.9999075 0.0008392 0.9999075 0.0008392 0.0000925 -0.0008392
5396098 0.0000926 -0.0008067 0.9999074 0.0008067 0.9999074 0.0008067 0.0000926 -0.0008067
5546579 0.0000927 -0.0007749 0.9999073 0.0007749 0.9999073 0.0007749 0.0000927 -0.0007749
5701257 0.0000929 -0.0007436 0.9999071 0.0007436 0.9999071 0.0007436 0.0000929 -0.0007436
5860248 0.0000931 -0.0007128 0.9999069 0.0007128 0.9999069 0.0007128 0.0000931 -0.0007128
6023672 0.0000933 -0.0006826 0.9999067 0.0006826 0.9999067 0.0006826 0.0000933 -0.0006826
6191655 0.0000935 -0.0006529 0.9999065 0.0006529 0.9999065 0.0006529 0.0000935 -0.0006529
6364321 0.0000937 -0.0006237 0.9999063 0.0006237 0.9999063 0.0006237 0.0000937 -0.0006237
6541803 0.0000940 -0.0005949 0.9999060 0.0005949 0.9999060 0.0005949 0.0000940 -0.0005949
6724235 0.0000943 -0.0005666 0.9999057 0.0005666 0.9999057 0.0005666 0.0000943 -0.0005666
6911753 0.0000946 -0.0005387 0.9999054 0.0005387 0.9999054 0.0005387 0.0000946 -0.0005387
7104501 0.0000950 -0.0005113 0.9999050 0.0005113 0.9999050 0.0005113 0.0000950 -0.0005113
7302625 0.0000954 -0.0004841 0.9999046 0.0004841 0.9999046 0.0004841 0.0000954 -0.0004841
7506273 0.0000958 -0.0004574 0.9999042 0.0004574 0.9999042 0.0004574 0.0000958 -0.0004574
7715601 0.0000963 -0.0004310 0.9999037 0.0004310 0.9999037 0.0004310 0.0000963 -0.0004310
7930766 0.0000968 -0.0004049 0.9999032 0.0004049 0.9999032 0.0004049 0.0000968 -0.0004049
8151931 0.0000973 -0.0003790 0.9999027 0.0003790 0.9999027 0.0003790 0.0000973 -0.0003790
8379264 0.0000979 -0.0003535 0.9999021 0.0003535 0.9999021 0.0003535 0.0000979 -0.0003535
8612937 0.0000985 -0.0003282 0.9999015 0.0003282 0.9999015 0.0003282 0.0000985 -0.0003282
8853126 0.0000991 -0.0003031 0.9999009 0.0003031 0.9999009 0.0003031 0.0000991 -0.0003031
9100013 0.0000999 -0.0002783 0.9999001 0.0002783 0.9999001 0.0002783 0.0000999 -0.0002783
9353785 0.0001006 -0.0002536 0.9998994 0.0002536 0.9998994 0.0002536 0.0001006 -0.0002536
9614634 0.0001014 -0.0002291 0.9998986 0.0002291 0.9998986 0.0002291 0.0001014 -0.0002291
9882758 0.0001023 -0.0002047 0.9998977 0.0002047 0.9998977 0.0002047 0.0001023 -0.0002047
10158358 0.0001033 -0.0001805 0.9998967 0.0001805 0.9998967 0.0001805 0.0001033 -0.0001805
10441645 0.0001043 -0.0001564 0.9998957 0.0001564 0.9998957 0.0001564 0.0001043 -0.0001564
10732831 0.0001054 -0.0001323 0.9998946 0.0001323 0.9998946 0.0001323 0.0001054 -0.0001323
11032137 0.0001065 -0.0001083 0.9998935 0.0001083 0.9998935 0.0001083 0.0001065 -0.0001083
11339791 0.0001078 -0.0000844 0.9998922 0.0000844 0.9998922 0.0000844 0.0001078 -0.0000844
11656024 0.0001092 -0.0000604 0.9998908 0.0000604 0.9998908 0.0000604 0.0001092 -0.0000604
11981075 0.0001106 -0.0000365 0.9998894 0.0000365 0.9998894 0.0000365 0.0001106 -0.0000365
12315192 0.0001122 -0.0000125 0.9998878 0.0000125 0.9998878 0.0000125 0.0001122 -0.0000125
12658625 0.0001139 0.0000116 0.9998861 -0.0000116 0.9998861 -0.0000116 0.0001139 0.0000116
13011637 0.0001158 0.0000357 0.9998842 -0.0000357 0.9998842 -0.0000357 0.0001158 0.0000357
13374492 0.0001178 0.0000600 0.9998822 -0.0000600 0.9998822 -0.0000600 0.0001178 0.0000600
13747467 0.0001199 0.0000844 0.9998801 -0.0000844 0.9998801 -0.0000844 0.0001199 0.0000844
14130843 0.0001223 0.0001089 0.9998777 -0.0001089 0.9998777 -0.0001089 0.0001223 0.0001089
14524910 0.0001249 0.0001337 0.9998751 -0.0001337 0.9998751 -0.0001337 0.0001249 0.0001337
14929966 0.0001277 0.0001587 0.9998723 -0.0001587 0.9998723 -0.0001587 0.0001277 0.0001587
15346318 0.0001308 0.0001840 0.9998692 -0.0001840 0.9998692 -0.0001840 0.0001308 0.0001840
15774281 0.0001342 0.0002096 0.9998658 -0.0002096 0.9998658 -0.0002096 0.0001342 0.0002096
16214179 0.0001380 0.0002355 0.9998620 -0.0002355 0.9998620 -0.0002355 0.0001380 0.0002355
16666344 0.0001422 0.0002619 0.9998578 -0.0002619 0.9998578 -0.0002619 0.0001422 0.0002619
17131118 0.0001468 0.0002887 0.9998532 -0.0002887 0.9998532 -0.0002887 0.0001468 0.0002887
17608854 0.0001521 0.0003160 0.9998479 -0.0003160 0.9998479 -0.0003160 0.0001521 0.0003160
18099912 0.0001581 0.0003438 0.9998419 -0.0003438 0.9998419 -0.0003438 0.0001581 0.0003438
18604665 0.0001649 0.0003722 0.9998351 -0.0003722 0.9998351 -0.0003722 0.0001649 0.0003722
19123493 0.0001728 0.0004012 0.9998272 -0.0004012 0.9998272 -0.0004012 0.0001728 0.0004012
19656790 0.0001819 0.0004309 0.9998181 -0.0004309 0.9998181 -0.0004309 0.0001819 0.0004309
20204959 0.0001927 0.0004612 0.9998073 -0.0004612 0.9998073 -0.0004612 0.0001927 0.0004612
20768415 0.0002057 0.0004920 0.9997943 -0.0004920 0.9997943 -0.0004920 0.0002057 0.0004920
21347584 0.0002212 0.0005230 0.9997788 -0.0005230 0.9997788 -0.0005230 0.0002212 0.0005230
21942904 0.0002402 0.0005537 0.9997598 -0.0005537 0.9997598 -0.0005537 0.0002402 0.0005537
22554827 0.0002634 0.0005830 0.9997366 -0.0005830 0.9997366 -0.0005830 0.0002634 0.0005830
23183813 0.0002913 0.0006090 0.9997087 -0.0006090 0.9997087 -0.0006090 0.0002913 0.0006090
23830340 0.0003235 0.0006286 0.9996765 -0.0006286 0.9996765 -0.0006286 0.0003235 0.0006286
24494897 0.0003571 0.0006385 0.9996429 -0.0006385 0.9996429 -0.0006385 0.0003571 0.0006385
25177987 0.0003861 0.0006369 0.9996139 -0.0006369 0.9996139 -0.0006369 0.0003861 0.0006369
25880126 0.0004032 0.0006278 0.9995968 -0.0006278 0.9995968 -0.0006278 0.0004032 0.0006278
26601845 0.0004056 0.0006200 0.9995944 -0.0006200 0.9995944 -0.0006200 0.0004056 0.0006200
27343691 0.0003982 0.0006215 0.9996018 -0.0006215 0.9996018 -0.0006215 0.0003982 0.0006215
28106225 0.0003885 0.0006344 0.9996115 -0.0006344 0.9996115 -0.0006344 0.0003885 0.0006344
28890023 0.0003821 0.0006559 0.9996179 -0.0006559 0.9996179 -0.0006559 0.0003821 0.0006559
29695680 0.0003812 0.0006823 0.9996188 -0.0006823 0.9996188 -0.0006823 0.0003812 0.0006823
30523804 0.0003860 0.0007105 0.9996140 -0.0007105 0.9996140 -0.0007105 0.0003860 0.0007105
31375021 0.0003958 0.0007382 0.9996042 -0.0007382 0.9996042 -0.0007382 0.0003958 0.0007382
32249977 0.0004097 0.0007641 0.9995903 -0.0007641 0.9995903 -0.0007641 0.0004097 0.0007641
33149332 0.0004266 0.0007869 0.9995734 -0.0007869 0.9995734 -0.0007869 0.0004266 0.0007869
34073768 0.0004453 0.0008058 0.9995547 -0.0008058 0.9995547 -0.0008058 0.0004453 0.0008058
35023984 0.0004644 0.0008205 0.9995356 -0.0008205 0.9995356 -0.0008205 0.0004644 0.0008205
36000698 0.0004824 0.0008306 0.9995176 -0.0008306 0.9995176 -0.0008306 0.0004824 0.0008306
37004650 0.0004978 0.0008366 0.9995022 -0.0008366 0.9995022 -0.0008366 0.0004978 0.0008366
38036599 0.0005089 0.0008394 0.9994911 -0.0008394 0.9994911 -0.0008394 0.0005089 0.0008394
39097326 0.0005147 0.0008404 0.9994853 -0.0008404 0.9994853 -0.0008404 0.0005147 0.0008404
