!Murata Part Number: GRM21BR71C224MA01
!These Parameters are Measured in Series Mode Connection
!Data Generated on Mar 30, 2021
!       o--ll--o
!Port1            Port2
!       o------o
!Operation Temp=25[degC], DC Bias Voltage=0[V]
!Freq. Start=100[Hz] Stop=6[GHz] 401[Steps]
# Hz S RI R 50
!Freq.(Hz) S11(Real) S11(Imag) S21(Real) S21(Imag) S12(Real) S12(Imag) S22(Real) S22(Imag)
100 0.9997526 -0.0137136 0.0002474 0.0137136 0.0002474 0.0137136 0.9997526 -0.0137136
105 0.9997324 -0.0143395 0.0002676 0.0143395 0.0002676 0.0143395 0.9997324 -0.0143395
109 0.9997105 -0.0149940 0.0002895 0.0149940 0.0002895 0.0149940 0.9997105 -0.0149940
114 0.9996866 -0.0156783 0.0003134 0.0156783 0.0003134 0.0156783 0.9996866 -0.0156783
120 0.9996606 -0.0163938 0.0003394 0.0163938 0.0003394 0.0163938 0.9996606 -0.0163938
125 0.9996323 -0.0171419 0.0003677 0.0171419 0.0003677 0.0171419 0.9996323 -0.0171419
131 0.9996015 -0.0179242 0.0003985 0.0179242 0.0003985 0.0179242 0.9996015 -0.0179242
137 0.9995680 -0.0187420 0.0004320 0.0187420 0.0004320 0.0187420 0.9995680 -0.0187420
143 0.9995315 -0.0195972 0.0004685 0.0195972 0.0004685 0.0195972 0.9995315 -0.0195972
150 0.9994917 -0.0204913 0.0005083 0.0204913 0.0005083 0.0204913 0.9994917 -0.0204913
156 0.9994484 -0.0214261 0.0005516 0.0214261 0.0005516 0.0214261 0.9994484 -0.0214261
164 0.9994012 -0.0224035 0.0005988 0.0224035 0.0005988 0.0224035 0.9994012 -0.0224035
171 0.9993498 -0.0234254 0.0006502 0.0234254 0.0006502 0.0234254 0.9993498 -0.0234254
179 0.9992938 -0.0244937 0.0007062 0.0244937 0.0007062 0.0244937 0.9992938 -0.0244937
187 0.9992328 -0.0256106 0.0007672 0.0256106 0.0007672 0.0256106 0.9992328 -0.0256106
196 0.9991663 -0.0267783 0.0008337 0.0267783 0.0008337 0.0267783 0.9991663 -0.0267783
205 0.9990938 -0.0279991 0.0009062 0.0279991 0.0009062 0.0279991 0.9990938 -0.0279991
214 0.9990148 -0.0292753 0.0009852 0.0292753 0.0009852 0.0292753 0.9990148 -0.0292753
224 0.9989286 -0.0306095 0.0010714 0.0306095 0.0010714 0.0306095 0.9989286 -0.0306095
234 0.9988347 -0.0320042 0.0011653 0.0320042 0.0011653 0.0320042 0.9988347 -0.0320042
245 0.9987323 -0.0334621 0.0012677 0.0334621 0.0012677 0.0334621 0.9987323 -0.0334621
256 0.9986206 -0.0349861 0.0013794 0.0349861 0.0013794 0.0349861 0.9986206 -0.0349861
268 0.9984988 -0.0365790 0.0015012 0.0365790 0.0015012 0.0365790 0.9984988 -0.0365790
280 0.9983660 -0.0382441 0.0016340 0.0382441 0.0016340 0.0382441 0.9983660 -0.0382441
293 0.9982211 -0.0399844 0.0017789 0.0399844 0.0017789 0.0399844 0.9982211 -0.0399844
306 0.9980631 -0.0418034 0.0019369 0.0418034 0.0019369 0.0418034 0.9980631 -0.0418034
320 0.9978907 -0.0437043 0.0021093 0.0437043 0.0021093 0.0437043 0.9978907 -0.0437043
335 0.9977026 -0.0456910 0.0022974 0.0456910 0.0022974 0.0456910 0.9977026 -0.0456910
350 0.9974975 -0.0477670 0.0025025 0.0477670 0.0025025 0.0477670 0.9974975 -0.0477670
366 0.9972737 -0.0499363 0.0027263 0.0499363 0.0027263 0.0499363 0.9972737 -0.0499363
383 0.9970295 -0.0522030 0.0029705 0.0522030 0.0029705 0.0522030 0.9970295 -0.0522030
401 0.9967632 -0.0545712 0.0032368 0.0545712 0.0032368 0.0545712 0.9967632 -0.0545712
419 0.9964727 -0.0570454 0.0035273 0.0570454 0.0035273 0.0570454 0.9964727 -0.0570454
438 0.9961558 -0.0596300 0.0038442 0.0596300 0.0038442 0.0596300 0.9961558 -0.0596300
458 0.9958101 -0.0623297 0.0041899 0.0623297 0.0041899 0.0623297 0.9958101 -0.0623297
479 0.9954331 -0.0651494 0.0045669 0.0651494 0.0045669 0.0651494 0.9954331 -0.0651494
501 0.9950218 -0.0680942 0.0049782 0.0680942 0.0049782 0.0680942 0.9950218 -0.0680942
524 0.9945733 -0.0711692 0.0054267 0.0711692 0.0054267 0.0711692 0.9945733 -0.0711692
548 0.9940842 -0.0743798 0.0059158 0.0743798 0.0059158 0.0743798 0.9940842 -0.0743798
573 0.9935508 -0.0777316 0.0064492 0.0777316 0.0064492 0.0777316 0.9935508 -0.0777316
600 0.9929692 -0.0812303 0.0070308 0.0812303 0.0070308 0.0812303 0.9929692 -0.0812303
627 0.9923350 -0.0848818 0.0076650 0.0848818 0.0076650 0.0848818 0.9923350 -0.0848818
656 0.9916436 -0.0886921 0.0083564 0.0886921 0.0083564 0.0886921 0.9916436 -0.0886921
686 0.9908898 -0.0926674 0.0091102 0.0926674 0.0091102 0.0926674 0.9908898 -0.0926674
717 0.9900680 -0.0968140 0.0099320 0.0968140 0.0099320 0.0968140 0.9900680 -0.0968140
750 0.9891724 -0.1011385 0.0108276 0.1011385 0.0108276 0.1011385 0.9891724 -0.1011385
784 0.9881962 -0.1056474 0.0118038 0.1056474 0.0118038 0.1056474 0.9881962 -0.1056474
820 0.9871324 -0.1103473 0.0128676 0.1103473 0.0128676 0.1103473 0.9871324 -0.1103473
858 0.9859732 -0.1152451 0.0140268 0.1152451 0.0140268 0.1152451 0.9859732 -0.1152451
897 0.9847103 -0.1203474 0.0152897 0.1203474 0.0152897 0.1203474 0.9847103 -0.1203474
938 0.9833347 -0.1256610 0.0166653 0.1256610 0.0166653 0.1256610 0.9833347 -0.1256610
981 0.9818364 -0.1311926 0.0181636 0.1311926 0.0181636 0.1311926 0.9818364 -0.1311926
1026 0.9802049 -0.1369490 0.0197951 0.1369490 0.0197951 0.1369490 0.9802049 -0.1369490
1073 0.9784287 -0.1429364 0.0215713 0.1429364 0.0215713 0.1429364 0.9784287 -0.1429364
1122 0.9764955 -0.1491614 0.0235045 0.1491614 0.0235045 0.1491614 0.9764955 -0.1491614
1174 0.9743920 -0.1556298 0.0256080 0.1556298 0.0256080 0.1556298 0.9743920 -0.1556298
1227 0.9721039 -0.1623472 0.0278961 0.1623472 0.0278961 0.1623472 0.9721039 -0.1623472
1283 0.9696159 -0.1693189 0.0303841 0.1693189 0.0303841 0.1693189 0.9696159 -0.1693189
1342 0.9669117 -0.1765494 0.0330883 0.1765494 0.0330883 0.1765494 0.9669117 -0.1765494
1404 0.9639736 -0.1840427 0.0360264 0.1840427 0.0360264 0.1840427 0.9639736 -0.1840427
1468 0.9607830 -0.1918018 0.0392170 0.1918018 0.0392170 0.1918018 0.9607830 -0.1918018
1535 0.9573201 -0.1998290 0.0426799 0.1998290 0.0426799 0.1998290 0.9573201 -0.1998290
1606 0.9535638 -0.2081253 0.0464362 0.2081253 0.0464362 0.2081253 0.9535638 -0.2081253
1679 0.9494919 -0.2166905 0.0505081 0.2166905 0.0505081 0.2166905 0.9494919 -0.2166905
1756 0.9450810 -0.2255228 0.0549190 0.2255228 0.0549190 0.2255228 0.9450810 -0.2255228
1836 0.9403066 -0.2346189 0.0596934 0.2346189 0.0596934 0.2346189 0.9403066 -0.2346189
1920 0.9351430 -0.2439735 0.0648570 0.2439735 0.0648570 0.2439735 0.9351430 -0.2439735
2008 0.9295636 -0.2535793 0.0704364 0.2535793 0.0704364 0.2535793 0.9295636 -0.2535793
2100 0.9235410 -0.2634265 0.0764590 0.2634265 0.0764590 0.2634265 0.9235410 -0.2634265
2196 0.9170469 -0.2735028 0.0829531 0.2735028 0.0829531 0.2735028 0.9170469 -0.2735028
2297 0.9100525 -0.2837932 0.0899475 0.2837932 0.0899475 0.2837932 0.9100525 -0.2837932
2402 0.9025286 -0.2942793 0.0974714 0.2942793 0.0974714 0.2942793 0.9025286 -0.2942793
2512 0.8944460 -0.3049398 0.1055540 0.3049398 0.1055540 0.3049398 0.8944460 -0.3049398
2627 0.8857759 -0.3157495 0.1142241 0.3157495 0.1142241 0.3157495 0.8857759 -0.3157495
2748 0.8764900 -0.3266798 0.1235100 0.3266798 0.1235100 0.3266798 0.8764900 -0.3266798
2873 0.8665609 -0.3376978 0.1334391 0.3376978 0.1334391 0.3376978 0.8665609 -0.3376978
3005 0.8559630 -0.3487669 0.1440370 0.3487669 0.1440370 0.3487669 0.8559630 -0.3487669
3143 0.8446727 -0.3598464 0.1553273 0.3598464 0.1553273 0.3598464 0.8446727 -0.3598464
3287 0.8326688 -0.3708912 0.1673312 0.3708912 0.1673312 0.3708912 0.8326688 -0.3708912
3437 0.8199336 -0.3818523 0.1800664 0.3818523 0.1800664 0.3818523 0.8199336 -0.3818523
3594 0.8064531 -0.3926771 0.1935469 0.3926771 0.1935469 0.3926771 0.8064531 -0.3926771
3759 0.7922180 -0.4033089 0.2077820 0.4033089 0.2077820 0.4033089 0.7922180 -0.4033089
3931 0.7772240 -0.4136880 0.2227760 0.4136880 0.2227760 0.4136880 0.7772240 -0.4136880
4111 0.7614727 -0.4237518 0.2385273 0.4237518 0.2385273 0.4237518 0.7614727 -0.4237518
4299 0.7449721 -0.4334359 0.2550279 0.4334359 0.2550279 0.4334359 0.7449721 -0.4334359
4496 0.7277372 -0.4426739 0.2722628 0.4426739 0.2722628 0.4426739 0.7277372 -0.4426739
4702 0.7097903 -0.4513992 0.2902097 0.4513992 0.2902097 0.4513992 0.7097903 -0.4513992
4918 0.6911615 -0.4595455 0.3088385 0.4595455 0.3088385 0.4595455 0.6911615 -0.4595455
5143 0.6718887 -0.4670479 0.3281113 0.4670479 0.3281113 0.4670479 0.6718887 -0.4670479
5378 0.6520179 -0.4738441 0.3479821 0.4738441 0.3479821 0.4738441 0.6520179 -0.4738441
5625 0.6316027 -0.4798752 0.3683973 0.4798752 0.3683973 0.4798752 0.6316027 -0.4798752
5882 0.6107041 -0.4850874 0.3892959 0.4850874 0.3892959 0.4850874 0.6107041 -0.4850874
6151 0.5893900 -0.4894327 0.4106100 0.4894327 0.4106100 0.4894327 0.5893900 -0.4894327
6433 0.5677346 -0.4928702 0.4322654 0.4928702 0.4322654 0.4928702 0.5677346 -0.4928702
6728 0.5458168 -0.4953668 0.4541832 0.4953668 0.4541832 0.4953668 0.5458168 -0.4953668
7036 0.5237201 -0.4968980 0.4762799 0.4968980 0.4762799 0.4968980 0.5237201 -0.4968980
7358 0.5015303 -0.4974486 0.4984697 0.4974486 0.4984697 0.4974486 0.5015303 -0.4974486
7695 0.4793351 -0.4970130 0.5206649 0.4970130 0.5206649 0.4970130 0.4793351 -0.4970130
8047 0.4572222 -0.4955955 0.5427778 0.4955955 0.5427778 0.4955955 0.4572222 -0.4955955
8416 0.4352780 -0.4932098 0.5647220 0.4932098 0.5647220 0.4932098 0.4352780 -0.4932098
8801 0.4135863 -0.4898791 0.5864137 0.4898791 0.5864137 0.4898791 0.4135863 -0.4898791
9204 0.3922272 -0.4856355 0.6077728 0.4856355 0.6077728 0.4856355 0.3922272 -0.4856355
9626 0.3712754 -0.4805190 0.6287246 0.4805190 0.6287246 0.4805190 0.3712754 -0.4805190
10066 0.3508001 -0.4745768 0.6491999 0.4745768 0.6491999 0.4745768 0.3508001 -0.4745768
10527 0.3308633 -0.4678624 0.6691367 0.4678624 0.6691367 0.4678624 0.3308633 -0.4678624
11009 0.3115199 -0.4604340 0.6884801 0.4604340 0.6884801 0.4604340 0.3115199 -0.4604340
11514 0.2928169 -0.4523541 0.7071831 0.4523541 0.7071831 0.4523541 0.2928169 -0.4523541
12041 0.2747933 -0.4436876 0.7252067 0.4436876 0.7252067 0.4436876 0.2747933 -0.4436876
12592 0.2574802 -0.4345011 0.7425198 0.4345011 0.7425198 0.4345011 0.2574802 -0.4345011
13169 0.2409006 -0.4248616 0.7590994 0.4248616 0.7590994 0.4248616 0.2409006 -0.4248616
13772 0.2250704 -0.4148358 0.7749296 0.4148358 0.7749296 0.4148358 0.2250704 -0.4148358
14402 0.2099981 -0.4044888 0.7900019 0.4044888 0.7900019 0.4044888 0.2099981 -0.4044888
15062 0.1956857 -0.3938836 0.8043143 0.3938836 0.8043143 0.3938836 0.1956857 -0.3938836
15752 0.1821293 -0.3830807 0.8178707 0.3830807 0.8178707 0.3830807 0.1821293 -0.3830807
16473 0.1693198 -0.3721370 0.8306802 0.3721370 0.8306802 0.3721370 0.1693198 -0.3721370
17227 0.1572432 -0.3611059 0.8427568 0.3611059 0.8427568 0.3611059 0.1572432 -0.3611059
18016 0.1458819 -0.3500367 0.8541181 0.3500367 0.8541181 0.3500367 0.1458819 -0.3500367
18841 0.1352147 -0.3389749 0.8647853 0.3389749 0.8647853 0.3389749 0.1352147 -0.3389749
19704 0.1252180 -0.3279614 0.8747820 0.3279614 0.8747820 0.3279614 0.1252180 -0.3279614
20606 0.1158659 -0.3170333 0.8841341 0.3170333 0.8841341 0.3170333 0.1158659 -0.3170333
21550 0.1071311 -0.3062234 0.8928689 0.3062234 0.8928689 0.3062234 0.1071311 -0.3062234
22537 0.0989853 -0.2955606 0.9010147 0.2955606 0.9010147 0.2955606 0.0989853 -0.2955606
23569 0.0913994 -0.2850701 0.9086006 0.2850701 0.9086006 0.2850701 0.0913994 -0.2850701
24648 0.0843442 -0.2747735 0.9156558 0.2747735 0.9156558 0.2747735 0.0843442 -0.2747735
25777 0.0777906 -0.2646889 0.9222094 0.2646889 0.9222094 0.2646889 0.0777906 -0.2646889
26957 0.0717097 -0.2548316 0.9282903 0.2548316 0.9282903 0.2548316 0.0717097 -0.2548316
28191 0.0660733 -0.2452139 0.9339267 0.2452139 0.9339267 0.2452139 0.0660733 -0.2452139
29482 0.0608541 -0.2358455 0.9391459 0.2358455 0.9391459 0.2358455 0.0608541 -0.2358455
30832 0.0560254 -0.2267338 0.9439746 0.2267338 0.9439746 0.2267338 0.0560254 -0.2267338
32244 0.0515617 -0.2178841 0.9484383 0.2178841 0.9484383 0.2178841 0.0515617 -0.2178841
33721 0.0474386 -0.2093000 0.9525614 0.2093000 0.9525614 0.2093000 0.0474386 -0.2093000
35265 0.0436328 -0.2009831 0.9563672 0.2009831 0.9563672 0.2009831 0.0436328 -0.2009831
36880 0.0401222 -0.1929338 0.9598778 0.1929338 0.9598778 0.1929338 0.0401222 -0.1929338
38569 0.0368858 -0.1851512 0.9631142 0.1851512 0.9631142 0.1851512 0.0368858 -0.1851512
40335 0.0339038 -0.1776333 0.9660962 0.1776333 0.9660962 0.1776333 0.0339038 -0.1776333
42182 0.0311577 -0.1703771 0.9688423 0.1703771 0.9688423 0.1703771 0.0311577 -0.1703771
44113 0.0286299 -0.1633789 0.9713701 0.1633789 0.9713701 0.1633789 0.0286299 -0.1633789
46134 0.0263041 -0.1566341 0.9736959 0.1566341 0.9736959 0.1566341 0.0263041 -0.1566341
48246 0.0241650 -0.1501378 0.9758350 0.1501378 0.9758350 0.1501378 0.0241650 -0.1501378
50455 0.0221983 -0.1438846 0.9778017 0.1438846 0.9778017 0.1438846 0.0221983 -0.1438846
52766 0.0203906 -0.1378686 0.9796094 0.1378686 0.9796094 0.1378686 0.0203906 -0.1378686
55182 0.0187297 -0.1320837 0.9812703 0.1320837 0.9812703 0.1320837 0.0187297 -0.1320837
57709 0.0172039 -0.1265235 0.9827961 0.1265235 0.9827961 0.1265235 0.0172039 -0.1265235
60352 0.0158026 -0.1211816 0.9841974 0.1211816 0.9841974 0.1211816 0.0158026 -0.1211816
63115 0.0145159 -0.1160512 0.9854841 0.1160512 0.9854841 0.1160512 0.0145159 -0.1160512
66005 0.0133347 -0.1111259 0.9866653 0.1111259 0.9866653 0.1111259 0.0133347 -0.1111259
69028 0.0122504 -0.1063989 0.9877496 0.1063989 0.9877496 0.1063989 0.0122504 -0.1063989
72189 0.0112552 -0.1018635 0.9887448 0.1018635 0.9887448 0.1018635 0.0112552 -0.1018635
75495 0.0103419 -0.0975132 0.9896581 0.0975132 0.9896581 0.0975132 0.0103419 -0.0975132
78952 0.0095039 -0.0933413 0.9904961 0.0933413 0.9904961 0.0933413 0.0095039 -0.0933413
82567 0.0087349 -0.0893416 0.9912651 0.0893416 0.9912651 0.0893416 0.0087349 -0.0893416
86348 0.0080294 -0.0855076 0.9919706 0.0855076 0.9919706 0.0855076 0.0080294 -0.0855076
90302 0.0073822 -0.0818332 0.9926178 0.0818332 0.9926178 0.0818332 0.0073822 -0.0818332
94437 0.0067884 -0.0783123 0.9932116 0.0783123 0.9932116 0.0783123 0.0067884 -0.0783123
98762 0.0062436 -0.0749391 0.9937564 0.0749391 0.9937564 0.0749391 0.0062436 -0.0749391
103284 0.0057439 -0.0717078 0.9942561 0.0717078 0.9942561 0.0717078 0.0057439 -0.0717078
108014 0.0052855 -0.0686128 0.9947145 0.0686128 0.9947145 0.0686128 0.0052855 -0.0686128
112960 0.0048650 -0.0656487 0.9951350 0.0656487 0.9951350 0.0656487 0.0048650 -0.0656487
118133 0.0044792 -0.0628103 0.9955208 0.0628103 0.9955208 0.0628103 0.0044792 -0.0628103
123542 0.0041254 -0.0600926 0.9958746 0.0600926 0.9958746 0.0600926 0.0041254 -0.0600926
129199 0.0038008 -0.0574906 0.9961992 0.0574906 0.9961992 0.0574906 0.0038008 -0.0574906
135116 0.0035031 -0.0549997 0.9964969 0.0549997 0.9964969 0.0549997 0.0035031 -0.0549997
141303 0.0032300 -0.0526153 0.9967700 0.0526153 0.9967700 0.0526153 0.0032300 -0.0526153
147774 0.0029795 -0.0503330 0.9970205 0.0503330 0.9970205 0.0503330 0.0029795 -0.0503330
154540 0.0027497 -0.0481485 0.9972503 0.0481485 0.9972503 0.0481485 0.0027497 -0.0481485
161617 0.0025389 -0.0460579 0.9974611 0.0460579 0.9974611 0.0460579 0.0025389 -0.0460579
169018 0.0023456 -0.0440572 0.9976544 0.0440572 0.9976544 0.0440572 0.0023456 -0.0440572
176758 0.0021682 -0.0421426 0.9978318 0.0421426 0.9978318 0.0421426 0.0021682 -0.0421426
184852 0.0020056 -0.0403106 0.9979944 0.0403106 0.9979944 0.0403106 0.0020056 -0.0403106
193316 0.0018563 -0.0385576 0.9981437 0.0385576 0.9981437 0.0385576 0.0018563 -0.0385576
202169 0.0017194 -0.0368804 0.9982806 0.0368804 0.9982806 0.0368804 0.0017194 -0.0368804
211427 0.0015939 -0.0352757 0.9984061 0.0352757 0.9984061 0.0352757 0.0015939 -0.0352757
221108 0.0014786 -0.0337405 0.9985214 0.0337405 0.9985214 0.0337405 0.0014786 -0.0337405
231233 0.0013729 -0.0322717 0.9986271 0.0322717 0.9986271 0.0322717 0.0013729 -0.0322717
241822 0.0012758 -0.0308667 0.9987242 0.0308667 0.9987242 0.0308667 0.0012758 -0.0308667
252896 0.0011867 -0.0295225 0.9988133 0.0295225 0.9988133 0.0295225 0.0011867 -0.0295225
264476 0.0011049 -0.0282368 0.9988951 0.0282368 0.9988951 0.0282368 0.0011049 -0.0282368
276587 0.0010297 -0.0270069 0.9989703 0.0270069 0.9989703 0.0270069 0.0010297 -0.0270069
289253 0.0009606 -0.0258304 0.9990394 0.0258304 0.9990394 0.0258304 0.0009606 -0.0258304
302498 0.0008972 -0.0247051 0.9991028 0.0247051 0.9991028 0.0247051 0.0008972 -0.0247051
316350 0.0008388 -0.0236287 0.9991612 0.0236287 0.9991612 0.0236287 0.0008388 -0.0236287
330837 0.0007851 -0.0225991 0.9992149 0.0225991 0.9992149 0.0225991 0.0007851 -0.0225991
345986 0.0007357 -0.0216143 0.9992643 0.0216143 0.9992643 0.0216143 0.0007357 -0.0216143
361830 0.0006901 -0.0206724 0.9993099 0.0206724 0.9993099 0.0206724 0.0006901 -0.0206724
378399 0.0006482 -0.0197715 0.9993518 0.0197715 0.9993518 0.0197715 0.0006482 -0.0197715
395726 0.0006095 -0.0189098 0.9993905 0.0189098 0.9993905 0.0189098 0.0006095 -0.0189098
413847 0.0005738 -0.0180856 0.9994262 0.0180856 0.9994262 0.0180856 0.0005738 -0.0180856
432798 0.0005408 -0.0172972 0.9994592 0.0172972 0.9994592 0.0172972 0.0005408 -0.0172972
452617 0.0005103 -0.0165431 0.9994897 0.0165431 0.9994897 0.0165431 0.0005103 -0.0165431
473344 0.0004820 -0.0158218 0.9995180 0.0158218 0.9995180 0.0158218 0.0004820 -0.0158218
495019 0.0004559 -0.0151319 0.9995441 0.0151319 0.9995441 0.0151319 0.0004559 -0.0151319
517687 0.0004317 -0.0144719 0.9995683 0.0144719 0.9995683 0.0144719 0.0004317 -0.0144719
541393 0.0004092 -0.0138406 0.9995908 0.0138406 0.9995908 0.0138406 0.0004092 -0.0138406
566185 0.0003884 -0.0132367 0.9996116 0.0132367 0.9996116 0.0132367 0.0003884 -0.0132367
592111 0.0003690 -0.0126590 0.9996310 0.0126590 0.9996310 0.0126590 0.0003690 -0.0126590
619225 0.0003510 -0.0121063 0.9996490 0.0121063 0.9996490 0.0121063 0.0003510 -0.0121063
647581 0.0003343 -0.0115775 0.9996657 0.0115775 0.9996657 0.0115775 0.0003343 -0.0115775
677235 0.0003188 -0.0110717 0.9996812 0.0110717 0.9996812 0.0110717 0.0003188 -0.0110717
708247 0.0003043 -0.0105877 0.9996957 0.0105877 0.9996957 0.0105877 0.0003043 -0.0105877
740679 0.0002908 -0.0101246 0.9997092 0.0101246 0.9997092 0.0101246 0.0002908 -0.0101246
774597 0.0002783 -0.0096815 0.9997217 0.0096815 0.9997217 0.0096815 0.0002783 -0.0096815
810067 0.0002666 -0.0092576 0.9997334 0.0092576 0.9997334 0.0092576 0.0002666 -0.0092576
847162 0.0002557 -0.0088519 0.9997443 0.0088519 0.9997443 0.0088519 0.0002557 -0.0088519
885955 0.0002456 -0.0084637 0.9997544 0.0084637 0.9997544 0.0084637 0.0002456 -0.0084637
926525 0.0002361 -0.0080922 0.9997639 0.0080922 0.9997639 0.0080922 0.0002361 -0.0080922
968953 0.0002274 -0.0077368 0.9997726 0.0077368 0.9997726 0.0077368 0.0002274 -0.0077368
1013323 0.0002192 -0.0073965 0.9997808 0.0073965 0.9997808 0.0073965 0.0002192 -0.0073965
1059725 0.0002116 -0.0070709 0.9997884 0.0070709 0.9997884 0.0070709 0.0002116 -0.0070709
1108252 0.0002045 -0.0067593 0.9997955 0.0067593 0.9997955 0.0067593 0.0002045 -0.0067593
1159002 0.0001980 -0.0064611 0.9998020 0.0064611 0.9998020 0.0064611 0.0001980 -0.0064611
1212075 0.0001919 -0.0061756 0.9998081 0.0061756 0.9998081 0.0061756 0.0001919 -0.0061756
1267578 0.0001862 -0.0059023 0.9998138 0.0059023 0.9998138 0.0059023 0.0001862 -0.0059023
1325623 0.0001810 -0.0056407 0.9998190 0.0056407 0.9998190 0.0056407 0.0001810 -0.0056407
1386327 0.0001761 -0.0053903 0.9998239 0.0053903 0.9998239 0.0053903 0.0001761 -0.0053903
1449809 0.0001715 -0.0051505 0.9998285 0.0051505 0.9998285 0.0051505 0.0001715 -0.0051505
1516199 0.0001674 -0.0049210 0.9998326 0.0049210 0.9998326 0.0049210 0.0001674 -0.0049210
1585629 0.0001635 -0.0047012 0.9998365 0.0047012 0.9998365 0.0047012 0.0001635 -0.0047012
1658239 0.0001599 -0.0044908 0.9998401 0.0044908 0.9998401 0.0044908 0.0001599 -0.0044908
1734173 0.0001565 -0.0042892 0.9998435 0.0042892 0.9998435 0.0042892 0.0001565 -0.0042892
1813585 0.0001534 -0.0040962 0.9998466 0.0040962 0.9998466 0.0040962 0.0001534 -0.0040962
1896632 0.0001505 -0.0039113 0.9998495 0.0039113 0.9998495 0.0039113 0.0001505 -0.0039113
1983483 0.0001479 -0.0037342 0.9998521 0.0037342 0.9998521 0.0037342 0.0001479 -0.0037342
2074311 0.0001454 -0.0035645 0.9998546 0.0035645 0.9998546 0.0035645 0.0001454 -0.0035645
