!Murata Part Number: GRM219R72A682KA01
!These Parameters are Measured in Series Mode Connection
!Data Generated on Mar 30, 2021
!       o--ll--o
!Port1            Port2
!       o------o
!Operation Temp=25[degC], DC Bias Voltage=0[V]
!Freq. Start=100[Hz] Stop=6[GHz] 401[Steps]
# Hz S RI R 50
!Freq.(Hz) S11(Real) S11(Imag) S21(Real) S21(Imag) S12(Real) S12(Imag) S22(Real) S22(Imag)
100 0.9999975 -0.0004331 0.0000025 0.0004331 0.0000025 0.0004331 0.9999975 -0.0004331
105 0.9999974 -0.0004528 0.0000026 0.0004528 0.0000026 0.0004528 0.9999974 -0.0004528
109 0.9999973 -0.0004735 0.0000027 0.0004735 0.0000027 0.0004735 0.9999973 -0.0004735
114 0.9999972 -0.0004951 0.0000028 0.0004951 0.0000028 0.0004951 0.9999972 -0.0004951
120 0.9999970 -0.0005176 0.0000030 0.0005176 0.0000030 0.0005176 0.9999970 -0.0005176
125 0.9999969 -0.0005413 0.0000031 0.0005413 0.0000031 0.0005413 0.9999969 -0.0005413
131 0.9999968 -0.0005659 0.0000032 0.0005659 0.0000032 0.0005659 0.9999968 -0.0005659
137 0.9999966 -0.0005918 0.0000034 0.0005918 0.0000034 0.0005918 0.9999966 -0.0005918
143 0.9999965 -0.0006188 0.0000035 0.0006188 0.0000035 0.0006188 0.9999965 -0.0006188
150 0.9999963 -0.0006470 0.0000037 0.0006470 0.0000037 0.0006470 0.9999963 -0.0006470
156 0.9999962 -0.0006765 0.0000038 0.0006765 0.0000038 0.0006765 0.9999962 -0.0006765
164 0.9999960 -0.0007074 0.0000040 0.0007074 0.0000040 0.0007074 0.9999960 -0.0007074
171 0.9999958 -0.0007397 0.0000042 0.0007397 0.0000042 0.0007397 0.9999958 -0.0007397
179 0.9999956 -0.0007734 0.0000044 0.0007734 0.0000044 0.0007734 0.9999956 -0.0007734
187 0.9999954 -0.0008088 0.0000046 0.0008088 0.0000046 0.0008088 0.9999954 -0.0008088
196 0.9999952 -0.0008457 0.0000048 0.0008457 0.0000048 0.0008457 0.9999952 -0.0008457
205 0.9999950 -0.0008843 0.0000050 0.0008843 0.0000050 0.0008843 0.9999950 -0.0008843
214 0.9999948 -0.0009247 0.0000052 0.0009247 0.0000052 0.0009247 0.9999948 -0.0009247
224 0.9999945 -0.0009669 0.0000055 0.0009669 0.0000055 0.0009669 0.9999945 -0.0009669
234 0.9999942 -0.0010111 0.0000058 0.0010111 0.0000058 0.0010111 0.9999942 -0.0010111
245 0.9999940 -0.0010573 0.0000060 0.0010573 0.0000060 0.0010573 0.9999940 -0.0010573
256 0.9999936 -0.0011056 0.0000064 0.0011056 0.0000064 0.0011056 0.9999936 -0.0011056
268 0.9999933 -0.0011561 0.0000067 0.0011561 0.0000067 0.0011561 0.9999933 -0.0011561
280 0.9999929 -0.0012089 0.0000071 0.0012089 0.0000071 0.0012089 0.9999929 -0.0012089
293 0.9999926 -0.0012641 0.0000074 0.0012641 0.0000074 0.0012641 0.9999926 -0.0012641
306 0.9999921 -0.0013218 0.0000079 0.0013218 0.0000079 0.0013218 0.9999921 -0.0013218
320 0.9999917 -0.0013822 0.0000083 0.0013822 0.0000083 0.0013822 0.9999917 -0.0013822
335 0.9999912 -0.0014454 0.0000088 0.0014454 0.0000088 0.0014454 0.9999912 -0.0014454
350 0.9999907 -0.0015114 0.0000093 0.0015114 0.0000093 0.0015114 0.9999907 -0.0015114
366 0.9999901 -0.0015804 0.0000099 0.0015804 0.0000099 0.0015804 0.9999901 -0.0015804
383 0.9999895 -0.0016526 0.0000105 0.0016526 0.0000105 0.0016526 0.9999895 -0.0016526
401 0.9999889 -0.0017281 0.0000111 0.0017281 0.0000111 0.0017281 0.9999889 -0.0017281
419 0.9999882 -0.0018070 0.0000118 0.0018070 0.0000118 0.0018070 0.9999882 -0.0018070
438 0.9999874 -0.0018895 0.0000126 0.0018895 0.0000126 0.0018895 0.9999874 -0.0018895
458 0.9999866 -0.0019758 0.0000134 0.0019758 0.0000134 0.0019758 0.9999866 -0.0019758
479 0.9999858 -0.0020660 0.0000142 0.0020660 0.0000142 0.0020660 0.9999858 -0.0020660
501 0.9999848 -0.0021603 0.0000152 0.0021603 0.0000152 0.0021603 0.9999848 -0.0021603
524 0.9999838 -0.0022589 0.0000162 0.0022589 0.0000162 0.0022589 0.9999838 -0.0022589
548 0.9999828 -0.0023620 0.0000172 0.0023620 0.0000172 0.0023620 0.9999828 -0.0023620
573 0.9999816 -0.0024699 0.0000184 0.0024699 0.0000184 0.0024699 0.9999816 -0.0024699
600 0.9999804 -0.0025826 0.0000196 0.0025826 0.0000196 0.0025826 0.9999804 -0.0025826
627 0.9999791 -0.0027004 0.0000209 0.0027004 0.0000209 0.0027004 0.9999791 -0.0027004
656 0.9999778 -0.0028236 0.0000222 0.0028236 0.0000222 0.0028236 0.9999778 -0.0028236
686 0.9999763 -0.0029525 0.0000237 0.0029525 0.0000237 0.0029525 0.9999763 -0.0029525
717 0.9999747 -0.0030871 0.0000253 0.0030871 0.0000253 0.0030871 0.9999747 -0.0030871
750 0.9999730 -0.0032280 0.0000270 0.0032280 0.0000270 0.0032280 0.9999730 -0.0032280
784 0.9999712 -0.0033752 0.0000288 0.0033752 0.0000288 0.0033752 0.9999712 -0.0033752
820 0.9999693 -0.0035292 0.0000307 0.0035292 0.0000307 0.0035292 0.9999693 -0.0035292
858 0.9999673 -0.0036902 0.0000327 0.0036902 0.0000327 0.0036902 0.9999673 -0.0036902
897 0.9999651 -0.0038585 0.0000349 0.0038585 0.0000349 0.0038585 0.9999651 -0.0038585
938 0.9999628 -0.0040345 0.0000372 0.0040345 0.0000372 0.0040345 0.9999628 -0.0040345
981 0.9999603 -0.0042185 0.0000397 0.0042185 0.0000397 0.0042185 0.9999603 -0.0042185
1026 0.9999577 -0.0044109 0.0000423 0.0044109 0.0000423 0.0044109 0.9999577 -0.0044109
1073 0.9999548 -0.0046121 0.0000452 0.0046121 0.0000452 0.0046121 0.9999548 -0.0046121
1122 0.9999518 -0.0048225 0.0000482 0.0048225 0.0000482 0.0048225 0.9999518 -0.0048225
1174 0.9999486 -0.0050425 0.0000514 0.0050425 0.0000514 0.0050425 0.9999486 -0.0050425
1227 0.9999451 -0.0052725 0.0000549 0.0052725 0.0000549 0.0052725 0.9999451 -0.0052725
1283 0.9999413 -0.0055131 0.0000587 0.0055131 0.0000587 0.0055131 0.9999413 -0.0055131
1342 0.9999373 -0.0057646 0.0000627 0.0057646 0.0000627 0.0057646 0.9999373 -0.0057646
1404 0.9999330 -0.0060276 0.0000670 0.0060276 0.0000670 0.0060276 0.9999330 -0.0060276
1468 0.9999283 -0.0063027 0.0000717 0.0063027 0.0000717 0.0063027 0.9999283 -0.0063027
1535 0.9999233 -0.0065903 0.0000767 0.0065903 0.0000767 0.0065903 0.9999233 -0.0065903
1606 0.9999179 -0.0068911 0.0000821 0.0068911 0.0000821 0.0068911 0.9999179 -0.0068911
1679 0.9999120 -0.0072056 0.0000880 0.0072056 0.0000880 0.0072056 0.9999120 -0.0072056
1756 0.9999057 -0.0075345 0.0000943 0.0075345 0.0000943 0.0075345 0.9999057 -0.0075345
1836 0.9998988 -0.0078784 0.0001012 0.0078784 0.0001012 0.0078784 0.9998988 -0.0078784
1920 0.9998913 -0.0082380 0.0001087 0.0082380 0.0001087 0.0082380 0.9998913 -0.0082380
2008 0.9998832 -0.0086141 0.0001168 0.0086141 0.0001168 0.0086141 0.9998832 -0.0086141
2100 0.9998745 -0.0090073 0.0001255 0.0090073 0.0001255 0.0090073 0.9998745 -0.0090073
2196 0.9998649 -0.0094186 0.0001351 0.0094186 0.0001351 0.0094186 0.9998649 -0.0094186
2297 0.9998546 -0.0098486 0.0001454 0.0098486 0.0001454 0.0098486 0.9998546 -0.0098486
2402 0.9998433 -0.0102982 0.0001567 0.0102982 0.0001567 0.0102982 0.9998433 -0.0102982
2512 0.9998311 -0.0107684 0.0001689 0.0107684 0.0001689 0.0107684 0.9998311 -0.0107684
2627 0.9998178 -0.0112600 0.0001822 0.0112600 0.0001822 0.0112600 0.9998178 -0.0112600
2748 0.9998033 -0.0117740 0.0001967 0.0117740 0.0001967 0.0117740 0.9998033 -0.0117740
2873 0.9997876 -0.0123115 0.0002124 0.0123115 0.0002124 0.0123115 0.9997876 -0.0123115
3005 0.9997704 -0.0128735 0.0002296 0.0128735 0.0002296 0.0128735 0.9997704 -0.0128735
3143 0.9997518 -0.0134611 0.0002482 0.0134611 0.0002482 0.0134611 0.9997518 -0.0134611
3287 0.9997314 -0.0140755 0.0002686 0.0140755 0.0002686 0.0140755 0.9997314 -0.0140755
3437 0.9997093 -0.0147179 0.0002907 0.0147179 0.0002907 0.0147179 0.9997093 -0.0147179
3594 0.9996853 -0.0153895 0.0003147 0.0153895 0.0003147 0.0153895 0.9996853 -0.0153895
3759 0.9996591 -0.0160916 0.0003409 0.0160916 0.0003409 0.0160916 0.9996591 -0.0160916
3931 0.9996306 -0.0168257 0.0003694 0.0168257 0.0003694 0.0168257 0.9996306 -0.0168257
4111 0.9995996 -0.0175932 0.0004004 0.0175932 0.0004004 0.0175932 0.9995996 -0.0175932
4299 0.9995659 -0.0183956 0.0004341 0.0183956 0.0004341 0.0183956 0.9995659 -0.0183956
4496 0.9995292 -0.0192345 0.0004708 0.0192345 0.0004708 0.0192345 0.9995292 -0.0192345
4702 0.9994892 -0.0201114 0.0005108 0.0201114 0.0005108 0.0201114 0.9994892 -0.0201114
4918 0.9994458 -0.0210282 0.0005542 0.0210282 0.0005542 0.0210282 0.9994458 -0.0210282
5143 0.9993986 -0.0219865 0.0006014 0.0219865 0.0006014 0.0219865 0.9993986 -0.0219865
5378 0.9993472 -0.0229884 0.0006528 0.0229884 0.0006528 0.0229884 0.9993472 -0.0229884
5625 0.9992913 -0.0240357 0.0007087 0.0240357 0.0007087 0.0240357 0.9992913 -0.0240357
5882 0.9992305 -0.0251306 0.0007695 0.0251306 0.0007695 0.0251306 0.9992305 -0.0251306
6151 0.9991644 -0.0262750 0.0008356 0.0262750 0.0008356 0.0262750 0.9991644 -0.0262750
6433 0.9990926 -0.0274713 0.0009074 0.0274713 0.0009074 0.0274713 0.9990926 -0.0274713
6728 0.9990144 -0.0287219 0.0009856 0.0287219 0.0009856 0.0287219 0.9990144 -0.0287219
7036 0.9989294 -0.0300291 0.0010706 0.0300291 0.0010706 0.0300291 0.9989294 -0.0300291
7358 0.9988369 -0.0313955 0.0011631 0.0313955 0.0011631 0.0313955 0.9988369 -0.0313955
7695 0.9987363 -0.0328237 0.0012637 0.0328237 0.0012637 0.0328237 0.9987363 -0.0328237
8047 0.9986268 -0.0343166 0.0013732 0.0343166 0.0013732 0.0343166 0.9986268 -0.0343166
8416 0.9985077 -0.0358770 0.0014923 0.0358770 0.0014923 0.0358770 0.9985077 -0.0358770
8801 0.9983781 -0.0375080 0.0016219 0.0375080 0.0016219 0.0375080 0.9983781 -0.0375080
9204 0.9982369 -0.0392127 0.0017631 0.0392127 0.0017631 0.0392127 0.9982369 -0.0392127
9626 0.9980832 -0.0409945 0.0019168 0.0409945 0.0019168 0.0409945 0.9980832 -0.0409945
10066 0.9979159 -0.0428566 0.0020841 0.0428566 0.0020841 0.0428566 0.9979159 -0.0428566
10527 0.9977336 -0.0448028 0.0022664 0.0448028 0.0022664 0.0448028 0.9977336 -0.0448028
11009 0.9975349 -0.0468367 0.0024651 0.0468367 0.0024651 0.0468367 0.9975349 -0.0468367
11514 0.9973185 -0.0489621 0.0026815 0.0489621 0.0026815 0.0489621 0.9973185 -0.0489621
12041 0.9970825 -0.0511832 0.0029175 0.0511832 0.0029175 0.0511832 0.9970825 -0.0511832
12592 0.9968253 -0.0535040 0.0031747 0.0535040 0.0031747 0.0535040 0.9968253 -0.0535040
13169 0.9965448 -0.0559289 0.0034552 0.0559289 0.0034552 0.0559289 0.9965448 -0.0559289
13772 0.9962390 -0.0584624 0.0037610 0.0584624 0.0037610 0.0584624 0.9962390 -0.0584624
14402 0.9959054 -0.0611092 0.0040946 0.0611092 0.0040946 0.0611092 0.9959054 -0.0611092
15062 0.9955415 -0.0638740 0.0044585 0.0638740 0.0044585 0.0638740 0.9955415 -0.0638740
15752 0.9951445 -0.0667618 0.0048555 0.0667618 0.0048555 0.0667618 0.9951445 -0.0667618
16473 0.9947115 -0.0697778 0.0052885 0.0697778 0.0052885 0.0697778 0.9947115 -0.0697778
17227 0.9942389 -0.0729273 0.0057611 0.0729273 0.0057611 0.0729273 0.9942389 -0.0729273
18016 0.9937234 -0.0762157 0.0062766 0.0762157 0.0062766 0.0762157 0.9937234 -0.0762157
18841 0.9931608 -0.0796487 0.0068392 0.0796487 0.0068392 0.0796487 0.9931608 -0.0796487
19704 0.9925470 -0.0832321 0.0074530 0.0832321 0.0074530 0.0832321 0.9925470 -0.0832321
20606 0.9918774 -0.0869717 0.0081226 0.0869717 0.0081226 0.0869717 0.9918774 -0.0869717
21550 0.9911468 -0.0908737 0.0088532 0.0908737 0.0088532 0.0908737 0.9911468 -0.0908737
22537 0.9903498 -0.0949443 0.0096502 0.0949443 0.0096502 0.0949443 0.9903498 -0.0949443
23569 0.9894806 -0.0991896 0.0105194 0.0991896 0.0105194 0.0991896 0.9894806 -0.0991896
24648 0.9885325 -0.1036163 0.0114675 0.1036163 0.0114675 0.1036163 0.9885325 -0.1036163
25777 0.9874987 -0.1082306 0.0125013 0.1082306 0.0125013 0.1082306 0.9874987 -0.1082306
26957 0.9863717 -0.1130391 0.0136283 0.1130391 0.0136283 0.1130391 0.9863717 -0.1130391
28191 0.9851431 -0.1180484 0.0148569 0.1180484 0.0148569 0.1180484 0.9851431 -0.1180484
29482 0.9838043 -0.1232651 0.0161957 0.1232651 0.0161957 0.1232651 0.9838043 -0.1232651
30832 0.9823458 -0.1286956 0.0176542 0.1286956 0.0176542 0.1286956 0.9823458 -0.1286956
32244 0.9807571 -0.1343463 0.0192429 0.1343463 0.0192429 0.1343463 0.9807571 -0.1343463
33721 0.9790274 -0.1402236 0.0209726 0.1402236 0.0209726 0.1402236 0.9790274 -0.1402236
35265 0.9771446 -0.1463334 0.0228554 0.1463334 0.0228554 0.1463334 0.9771446 -0.1463334
36880 0.9750960 -0.1526816 0.0249040 0.1526816 0.0249040 0.1526816 0.9750960 -0.1526816
38569 0.9728680 -0.1592736 0.0271320 0.1592736 0.0271320 0.1592736 0.9728680 -0.1592736
40335 0.9704457 -0.1661145 0.0295543 0.1661145 0.0295543 0.1661145 0.9704457 -0.1661145
42182 0.9678137 -0.1732089 0.0321863 0.1732089 0.0321863 0.1732089 0.9678137 -0.1732089
44113 0.9649550 -0.1805607 0.0350450 0.1805607 0.0350450 0.1805607 0.9649550 -0.1805607
46134 0.9618518 -0.1881730 0.0381482 0.1881730 0.0381482 0.1881730 0.9618518 -0.1881730
48246 0.9584854 -0.1960481 0.0415146 0.1960481 0.0415146 0.1960481 0.9584854 -0.1960481
50455 0.9548355 -0.2041875 0.0451645 0.2041875 0.0451645 0.2041875 0.9548355 -0.2041875
52766 0.9508809 -0.2125912 0.0491191 0.2125912 0.0491191 0.2125912 0.9508809 -0.2125912
55182 0.9465995 -0.2212580 0.0534005 0.2212580 0.0534005 0.2212580 0.9465995 -0.2212580
57709 0.9419676 -0.2301853 0.0580324 0.2301853 0.0580324 0.2301853 0.9419676 -0.2301853
60352 0.9369608 -0.2393687 0.0630392 0.2393687 0.0630392 0.2393687 0.9369608 -0.2393687
63115 0.9315535 -0.2488018 0.0684465 0.2488018 0.0684465 0.2488018 0.9315535 -0.2488018
66005 0.9257193 -0.2584761 0.0742807 0.2584761 0.0742807 0.2584761 0.9257193 -0.2584761
69028 0.9194309 -0.2683809 0.0805691 0.2683809 0.0805691 0.2683809 0.9194309 -0.2683809
72189 0.9126603 -0.2785026 0.0873397 0.2785026 0.0873397 0.2785026 0.9126603 -0.2785026
75495 0.9053793 -0.2888248 0.0946207 0.2888248 0.0946207 0.2888248 0.9053793 -0.2888248
78952 0.8975590 -0.2993281 0.1024410 0.2993281 0.1024410 0.2993281 0.8975590 -0.2993281
82567 0.8891710 -0.3099898 0.1108290 0.3099898 0.1108290 0.3099898 0.8891710 -0.3099898
86348 0.8801870 -0.3207833 0.1198130 0.3207833 0.1198130 0.3207833 0.8801870 -0.3207833
90302 0.8705796 -0.3316786 0.1294204 0.3316786 0.1294204 0.3316786 0.8705796 -0.3316786
94437 0.8603225 -0.3426417 0.1396775 0.3426417 0.1396775 0.3426417 0.8603225 -0.3426417
98762 0.8493912 -0.3536343 0.1506088 0.3536343 0.1506088 0.3536343 0.8493912 -0.3536343
103284 0.8377634 -0.3646143 0.1622366 0.3646143 0.1622366 0.3646143 0.8377634 -0.3646143
108014 0.8254197 -0.3755353 0.1745803 0.3755353 0.1745803 0.3755353 0.8254197 -0.3755353
112960 0.8123439 -0.3863471 0.1876561 0.3863471 0.1876561 0.3863471 0.8123439 -0.3863471
118133 0.7985243 -0.3969955 0.2014757 0.3969955 0.2014757 0.3969955 0.7985243 -0.3969955
123542 0.7839538 -0.4074229 0.2160462 0.4074229 0.2160462 0.4074229 0.7839538 -0.4074229
129199 0.7686306 -0.4175685 0.2313694 0.4175685 0.2313694 0.4175685 0.7686306 -0.4175685
135116 0.7525594 -0.4273692 0.2474406 0.4273692 0.2474406 0.4273692 0.7525594 -0.4273692
141303 0.7357512 -0.4367598 0.2642488 0.4367598 0.2642488 0.4367598 0.7357512 -0.4367598
147774 0.7182244 -0.4456741 0.2817756 0.4456741 0.2817756 0.4456741 0.7182244 -0.4456741
154540 0.7000048 -0.4540457 0.2999952 0.4540457 0.2999952 0.4540457 0.7000048 -0.4540457
161617 0.6811263 -0.4618091 0.3188737 0.4618091 0.3188737 0.4618091 0.6811263 -0.4618091
169018 0.6616304 -0.4689007 0.3383696 0.4689007 0.3383696 0.4689007 0.6616304 -0.4689007
176758 0.6415670 -0.4752601 0.3584330 0.4752601 0.3584330 0.4752601 0.6415670 -0.4752601
184852 0.6209931 -0.4808310 0.3790069 0.4808310 0.3790069 0.4808310 0.6209931 -0.4808310
193316 0.5999733 -0.4855626 0.4000267 0.4855626 0.4000267 0.4855626 0.5999733 -0.4855626
202169 0.5785784 -0.4894106 0.4214216 0.4894106 0.4214216 0.4894106 0.5785784 -0.4894106
211427 0.5568850 -0.4923381 0.4431150 0.4923381 0.4431150 0.4923381 0.5568850 -0.4923381
221108 0.5349743 -0.4943167 0.4650257 0.4943167 0.4650257 0.4943167 0.5349743 -0.4943167
231233 0.5129309 -0.4953269 0.4870691 0.4953269 0.4870691 0.4953269 0.5129309 -0.4953269
241822 0.4908415 -0.4953587 0.5091585 0.4953587 0.5091585 0.4953587 0.4908415 -0.4953587
252896 0.4687935 -0.4944118 0.5312065 0.4944118 0.5312065 0.4944118 0.4687935 -0.4944118
264476 0.4468738 -0.4924958 0.5531262 0.4924958 0.5531262 0.4924958 0.4468738 -0.4924958
276587 0.4251670 -0.4896296 0.5748330 0.4896296 0.5748330 0.4896296 0.4251670 -0.4896296
289253 0.4037546 -0.4858412 0.5962454 0.4858412 0.5962454 0.4858412 0.4037546 -0.4858412
302498 0.3827135 -0.4811672 0.6172865 0.4811672 0.6172865 0.4811672 0.3827135 -0.4811672
316350 0.3621150 -0.4756516 0.6378850 0.4756516 0.6378850 0.4756516 0.3621150 -0.4756516
330837 0.3420239 -0.4693449 0.6579761 0.4693449 0.6579761 0.4693449 0.3420239 -0.4693449
345986 0.3224979 -0.4623032 0.6775021 0.4623032 0.6775021 0.4623032 0.3224979 -0.4623032
361830 0.3035870 -0.4545870 0.6964130 0.4545870 0.6964130 0.4545870 0.3035870 -0.4545870
378399 0.2853334 -0.4462598 0.7146666 0.4462598 0.7146666 0.4462598 0.2853334 -0.4462598
395726 0.2677711 -0.4373872 0.7322289 0.4373872 0.7322289 0.4373872 0.2677711 -0.4373872
413847 0.2509265 -0.4280358 0.7490735 0.4280358 0.7490735 0.4280358 0.2509265 -0.4280358
432798 0.2348182 -0.4182719 0.7651818 0.4182719 0.7651818 0.4182719 0.2348182 -0.4182719
452617 0.2194574 -0.4081609 0.7805426 0.4081609 0.7805426 0.4081609 0.2194574 -0.4081609
473344 0.2048488 -0.3977662 0.7951512 0.3977662 0.7951512 0.3977662 0.2048488 -0.3977662
495019 0.1909909 -0.3871489 0.8090091 0.3871489 0.8090091 0.3871489 0.1909909 -0.3871489
517687 0.1778766 -0.3763669 0.8221234 0.3763669 0.8221234 0.3763669 0.1778766 -0.3763669
541393 0.1654940 -0.3654744 0.8345060 0.3654744 0.8345060 0.3654744 0.1654940 -0.3654744
566185 0.1538271 -0.3545219 0.8461729 0.3545219 0.8461729 0.3545219 0.1538271 -0.3545219
592111 0.1428563 -0.3435559 0.8571437 0.3435559 0.8571437 0.3435559 0.1428563 -0.3435559
619225 0.1325591 -0.3326188 0.8674409 0.3326188 0.8674409 0.3326188 0.1325591 -0.3326188
647581 0.1229108 -0.3217487 0.8770892 0.3217487 0.8770892 0.3217487 0.1229108 -0.3217487
677235 0.1138851 -0.3109796 0.8861149 0.3109796 0.8861149 0.3109796 0.1138851 -0.3109796
708247 0.1054544 -0.3003416 0.8945456 0.3003416 0.8945456 0.3003416 0.1054544 -0.3003416
740679 0.0975903 -0.2898611 0.9024097 0.2898611 0.9024097 0.2898611 0.0975903 -0.2898611
774597 0.0902641 -0.2795606 0.9097359 0.2795606 0.9097359 0.2795606 0.0902641 -0.2795606
810067 0.0834472 -0.2694596 0.9165528 0.2694596 0.9165528 0.2694596 0.0834472 -0.2694596
847162 0.0771112 -0.2595741 0.9228888 0.2595741 0.9228888 0.2595741 0.0771112 -0.2595741
885955 0.0712280 -0.2499175 0.9287720 0.2499175 0.9287720 0.2499175 0.0712280 -0.2499175
926525 0.0657707 -0.2405004 0.9342293 0.2405004 0.9342293 0.2405004 0.0657707 -0.2405004
968953 0.0607126 -0.2313312 0.9392874 0.2313312 0.9392874 0.2313312 0.0607126 -0.2313312
1013323 0.0560286 -0.2224160 0.9439714 0.2224160 0.9439714 0.2224160 0.0560286 -0.2224160
1059725 0.0516942 -0.2137590 0.9483058 0.2137590 0.9483058 0.2137590 0.0516942 -0.2137590
1108252 0.0476862 -0.2053630 0.9523138 0.2053630 0.9523138 0.2053630 0.0476862 -0.2053630
1159002 0.0439825 -0.1972289 0.9560175 0.1972289 0.9560175 0.1972289 0.0439825 -0.1972289
1212075 0.0405621 -0.1893566 0.9594379 0.1893566 0.9594379 0.1893566 0.0405621 -0.1893566
1267578 0.0374052 -0.1817448 0.9625948 0.1817448 0.9625948 0.1817448 0.0374052 -0.1817448
1325623 0.0344930 -0.1743911 0.9655070 0.1743911 0.9655070 0.1743911 0.0344930 -0.1743911
1386327 0.0318080 -0.1672925 0.9681920 0.1672925 0.9681920 0.1672925 0.0318080 -0.1672925
1449809 0.0293336 -0.1604452 0.9706664 0.1604452 0.9706664 0.1604452 0.0293336 -0.1604452
1516199 0.0270543 -0.1538447 0.9729457 0.1538447 0.9729457 0.1538447 0.0270543 -0.1538447
1585629 0.0249556 -0.1474861 0.9750444 0.1474861 0.9750444 0.1474861 0.0249556 -0.1474861
1658239 0.0230239 -0.1413640 0.9769761 0.1413640 0.9769761 0.1413640 0.0230239 -0.1413640
1734173 0.0212467 -0.1354729 0.9787533 0.1354729 0.9787533 0.1354729 0.0212467 -0.1354729
1813585 0.0196120 -0.1298069 0.9803880 0.1298069 0.9803880 0.1298069 0.0196120 -0.1298069
1896632 0.0181088 -0.1243598 0.9818912 0.1243598 0.9818912 0.1243598 0.0181088 -0.1243598
1983483 0.0167270 -0.1191254 0.9832730 0.1191254 0.9832730 0.1191254 0.0167270 -0.1191254
2074311 0.0154571 -0.1140974 0.9845429 0.1140974 0.9845429 0.1140974 0.0154571 -0.1140974
