!Murata Part Number: GRM319B30J106KE18
!These Parameters are Measured in Series Mode Connection
!Data Generated on Mar 30, 2021
!       o--ll--o
!Port1            Port2
!       o------o
!Operation Temp=25[degC], DC Bias Voltage=0[V]
!Freq. Start=100[Hz] Stop=6[GHz] 401[Steps]
# Hz S RI R 50
!Freq.(Hz) S11(Real) S11(Imag) S21(Real) S21(Imag) S12(Real) S12(Imag) S22(Real) S22(Imag)
100 0.8144184 -0.3774226 0.1855816 0.3774226 0.1855816 0.3774226 0.8144184 -0.3774226
105 0.8011579 -0.3877907 0.1988421 0.3877907 0.1988421 0.3877907 0.8011579 -0.3877907
109 0.7871839 -0.3979756 0.2128161 0.3979756 0.2128161 0.3979756 0.7871839 -0.3979756
114 0.7724918 -0.4079218 0.2275082 0.4079218 0.2275082 0.4079218 0.7724918 -0.4079218
120 0.7570820 -0.4175707 0.2429180 0.4175707 0.2429180 0.4175707 0.7570820 -0.4175707
125 0.7409609 -0.4268617 0.2590391 0.4268617 0.2590391 0.4268617 0.7409609 -0.4268617
131 0.7241415 -0.4357326 0.2758585 0.4357326 0.2758585 0.4357326 0.7241415 -0.4357326
137 0.7066437 -0.4441201 0.2933563 0.4441201 0.2933563 0.4441201 0.7066437 -0.4441201
143 0.6884949 -0.4519614 0.3115051 0.4519614 0.3115051 0.4519614 0.6884949 -0.4519614
150 0.6697299 -0.4591944 0.3302701 0.4591944 0.3302701 0.4591944 0.6697299 -0.4591944
156 0.6503910 -0.4657596 0.3496090 0.4657596 0.3496090 0.4657596 0.6503910 -0.4657596
164 0.6305282 -0.4716005 0.3694718 0.4716005 0.3694718 0.4716005 0.6305282 -0.4716005
171 0.6101985 -0.4766651 0.3898015 0.4766651 0.3898015 0.4766651 0.6101985 -0.4766651
179 0.5894659 -0.4809069 0.4105341 0.4809069 0.4105341 0.4809069 0.5894659 -0.4809069
187 0.5683999 -0.4842860 0.4316001 0.4842860 0.4316001 0.4842860 0.5683999 -0.4842860
196 0.5470756 -0.4867698 0.4529244 0.4867698 0.4529244 0.4867698 0.5470756 -0.4867698
205 0.5255716 -0.4883340 0.4744284 0.4883340 0.4744284 0.4883340 0.5255716 -0.4883340
214 0.5039698 -0.4889631 0.4960302 0.4889631 0.4960302 0.4889631 0.5039698 -0.4889631
224 0.4823534 -0.4886508 0.5176466 0.4886508 0.5176466 0.4886508 0.4823534 -0.4886508
234 0.4608060 -0.4874000 0.5391940 0.4874000 0.5391940 0.4874000 0.4608060 -0.4874000
245 0.4394101 -0.4852231 0.5605899 0.4852231 0.5605899 0.4852231 0.4394101 -0.4852231
256 0.4182458 -0.4821411 0.5817542 0.4821411 0.5817542 0.4821411 0.4182458 -0.4821411
268 0.3973894 -0.4781839 0.6026106 0.4781839 0.6026106 0.4781839 0.3973894 -0.4781839
280 0.3769126 -0.4733887 0.6230874 0.4733887 0.6230874 0.4733887 0.3769126 -0.4733887
293 0.3568817 -0.4678000 0.6431183 0.4678000 0.6431183 0.4678000 0.3568817 -0.4678000
306 0.3373560 -0.4614677 0.6626440 0.4614677 0.6626440 0.4614677 0.3373560 -0.4614677
320 0.3183884 -0.4544471 0.6816116 0.4544471 0.6816116 0.4544471 0.3183884 -0.4544471
335 0.3000238 -0.4467967 0.6999762 0.4467967 0.6999762 0.4467967 0.3000238 -0.4467967
350 0.2823000 -0.4385780 0.7177000 0.4385780 0.7177000 0.4385780 0.2823000 -0.4385780
366 0.2652468 -0.4298536 0.7347532 0.4298536 0.7347532 0.4298536 0.2652468 -0.4298536
383 0.2488870 -0.4206869 0.7511130 0.4206869 0.7511130 0.4206869 0.2488870 -0.4206869
401 0.2332358 -0.4111407 0.7667642 0.4111407 0.7667642 0.4111407 0.2332358 -0.4111407
419 0.2183020 -0.4012764 0.7816980 0.4012764 0.7816980 0.4012764 0.2183020 -0.4012764
438 0.2040882 -0.3911534 0.7959118 0.3911534 0.7959118 0.3911534 0.2040882 -0.3911534
458 0.1905914 -0.3808285 0.8094086 0.3808285 0.8094086 0.3808285 0.1905914 -0.3808285
479 0.1778035 -0.3703555 0.8221965 0.3703555 0.8221965 0.3703555 0.1778035 -0.3703555
501 0.1657124 -0.3597845 0.8342876 0.3597845 0.8342876 0.3597845 0.1657124 -0.3597845
524 0.1543020 -0.3491619 0.8456980 0.3491619 0.8456980 0.3491619 0.1543020 -0.3491619
548 0.1435533 -0.3385305 0.8564467 0.3385305 0.8564467 0.3385305 0.1435533 -0.3385305
573 0.1334449 -0.3279289 0.8665551 0.3279289 0.8665551 0.3279289 0.1334449 -0.3279289
600 0.1239535 -0.3173922 0.8760465 0.3173922 0.8760465 0.3173922 0.1239535 -0.3173922
627 0.1150545 -0.3069513 0.8849455 0.3069513 0.8849455 0.3069513 0.1150545 -0.3069513
656 0.1067221 -0.2966337 0.8932779 0.2966337 0.8932779 0.2966337 0.1067221 -0.2966337
686 0.0989301 -0.2864636 0.9010699 0.2864636 0.9010699 0.2864636 0.0989301 -0.2864636
717 0.0916521 -0.2764616 0.9083479 0.2764616 0.9083479 0.2764616 0.0916521 -0.2764616
750 0.0848619 -0.2666456 0.9151381 0.2666456 0.9151381 0.2666456 0.0848619 -0.2666456
784 0.0785332 -0.2570306 0.9214668 0.2570306 0.9214668 0.2570306 0.0785332 -0.2570306
820 0.0726407 -0.2476291 0.9273593 0.2476291 0.9273593 0.2476291 0.0726407 -0.2476291
858 0.0671593 -0.2384511 0.9328407 0.2384511 0.9328407 0.2384511 0.0671593 -0.2384511
897 0.0620649 -0.2295047 0.9379351 0.2295047 0.9379351 0.2295047 0.0620649 -0.2295047
938 0.0573342 -0.2207962 0.9426658 0.2207962 0.9426658 0.2207962 0.0573342 -0.2207962
981 0.0529448 -0.2123299 0.9470552 0.2123299 0.9470552 0.2123299 0.0529448 -0.2123299
1026 0.0488752 -0.2041089 0.9511248 0.2041089 0.9511248 0.2041089 0.0488752 -0.2041089
1073 0.0451049 -0.1961349 0.9548951 0.1961349 0.9548951 0.1961349 0.0451049 -0.1961349
1122 0.0416145 -0.1884082 0.9583855 0.1884082 0.9583855 0.1884082 0.0416145 -0.1884082
1174 0.0383852 -0.1809283 0.9616148 0.1809283 0.9616148 0.1809283 0.0383852 -0.1809283
1227 0.0353996 -0.1736938 0.9646004 0.1736938 0.9646004 0.1736938 0.0353996 -0.1736938
1283 0.0326410 -0.1667024 0.9673590 0.1667024 0.9673590 0.1667024 0.0326410 -0.1667024
1342 0.0300936 -0.1599510 0.9699064 0.1599510 0.9699064 0.1599510 0.0300936 -0.1599510
1404 0.0277426 -0.1534363 0.9722574 0.1534363 0.9722574 0.1534363 0.0277426 -0.1534363
1468 0.0255741 -0.1471540 0.9744259 0.1471540 0.9744259 0.1471540 0.0255741 -0.1471540
1535 0.0235748 -0.1410998 0.9764252 0.1410998 0.9764252 0.1410998 0.0235748 -0.1410998
1606 0.0217325 -0.1352687 0.9782675 0.1352687 0.9782675 0.1352687 0.0217325 -0.1352687
1679 0.0200355 -0.1296557 0.9799645 0.1296557 0.9799645 0.1296557 0.0200355 -0.1296557
1756 0.0184731 -0.1242554 0.9815269 0.1242554 0.9815269 0.1242554 0.0184731 -0.1242554
1836 0.0170352 -0.1190621 0.9829648 0.1190621 0.9829648 0.1190621 0.0170352 -0.1190621
1920 0.0157121 -0.1140702 0.9842879 0.1140702 0.9842879 0.1140702 0.0157121 -0.1140702
2008 0.0144953 -0.1092739 0.9855047 0.1092739 0.9855047 0.1092739 0.0144953 -0.1092739
2100 0.0133763 -0.1046673 0.9866237 0.1046673 0.9866237 0.1046673 0.0133763 -0.1046673
2196 0.0123476 -0.1002444 0.9876524 0.1002444 0.9876524 0.1002444 0.0123476 -0.1002444
2297 0.0114020 -0.0959994 0.9885980 0.0959994 0.9885980 0.0959994 0.0114020 -0.0959994
2402 0.0105330 -0.0919264 0.9894670 0.0919264 0.9894670 0.0919264 0.0105330 -0.0919264
2512 0.0097345 -0.0880195 0.9902655 0.0880195 0.9902655 0.0880195 0.0097345 -0.0880195
2627 0.0090006 -0.0842730 0.9909994 0.0842730 0.9909994 0.0842730 0.0090006 -0.0842730
2748 0.0083263 -0.0806812 0.9916737 0.0806812 0.9916737 0.0806812 0.0083263 -0.0806812
2873 0.0077066 -0.0772383 0.9922934 0.0772383 0.9922934 0.0772383 0.0077066 -0.0772383
3005 0.0071369 -0.0739391 0.9928631 0.0739391 0.9928631 0.0739391 0.0071369 -0.0739391
3143 0.0066133 -0.0707779 0.9933867 0.0707779 0.9933867 0.0707779 0.0066133 -0.0707779
3287 0.0061318 -0.0677497 0.9938682 0.0677497 0.9938682 0.0677497 0.0061318 -0.0677497
3437 0.0056890 -0.0648491 0.9943110 0.0648491 0.9943110 0.0648491 0.0056890 -0.0648491
3594 0.0052815 -0.0620714 0.9947185 0.0620714 0.9947185 0.0620714 0.0052815 -0.0620714
3759 0.0049063 -0.0594114 0.9950937 0.0594114 0.9950937 0.0594114 0.0049063 -0.0594114
3931 0.0045608 -0.0568647 0.9954392 0.0568647 0.9954392 0.0568647 0.0045608 -0.0568647
4111 0.0042424 -0.0544264 0.9957576 0.0544264 0.9957576 0.0544264 0.0042424 -0.0544264
4299 0.0039488 -0.0520923 0.9960512 0.0520923 0.9960512 0.0520923 0.0039488 -0.0520923
4496 0.0036778 -0.0498580 0.9963222 0.0498580 0.9963222 0.0498580 0.0036778 -0.0498580
4702 0.0034276 -0.0477193 0.9965724 0.0477193 0.9965724 0.0477193 0.0034276 -0.0477193
4918 0.0031964 -0.0456723 0.9968036 0.0456723 0.9968036 0.0456723 0.0031964 -0.0456723
5143 0.0029825 -0.0437130 0.9970175 0.0437130 0.9970175 0.0437130 0.0029825 -0.0437130
5378 0.0027845 -0.0418377 0.9972155 0.0418377 0.9972155 0.0418377 0.0027845 -0.0418377
5625 0.0026010 -0.0400429 0.9973990 0.0400429 0.9973990 0.0400429 0.0026010 -0.0400429
5882 0.0024308 -0.0383251 0.9975692 0.0383251 0.9975692 0.0383251 0.0024308 -0.0383251
6151 0.0022729 -0.0366810 0.9977271 0.0366810 0.9977271 0.0366810 0.0022729 -0.0366810
6433 0.0021261 -0.0351073 0.9978739 0.0351073 0.9978739 0.0351073 0.0021261 -0.0351073
6728 0.0019897 -0.0336011 0.9980103 0.0336011 0.9980103 0.0336011 0.0019897 -0.0336011
7036 0.0018629 -0.0321594 0.9981371 0.0321594 0.9981371 0.0321594 0.0018629 -0.0321594
7358 0.0017447 -0.0307793 0.9982553 0.0307793 0.9982553 0.0307793 0.0017447 -0.0307793
7695 0.0016347 -0.0294583 0.9983653 0.0294583 0.9983653 0.0294583 0.0016347 -0.0294583
8047 0.0015322 -0.0281937 0.9984678 0.0281937 0.9984678 0.0281937 0.0015322 -0.0281937
8416 0.0014366 -0.0269832 0.9985634 0.0269832 0.9985634 0.0269832 0.0014366 -0.0269832
8801 0.0013475 -0.0258243 0.9986525 0.0258243 0.9986525 0.0258243 0.0013475 -0.0258243
9204 0.0012644 -0.0247148 0.9987356 0.0247148 0.9987356 0.0247148 0.0012644 -0.0247148
9626 0.0011868 -0.0236527 0.9988132 0.0236527 0.9988132 0.0236527 0.0011868 -0.0236527
10066 0.0011146 -0.0226358 0.9988854 0.0226358 0.9988854 0.0226358 0.0011146 -0.0226358
10527 0.0010472 -0.0216623 0.9989528 0.0216623 0.9989528 0.0216623 0.0010472 -0.0216623
11009 0.0009843 -0.0207303 0.9990157 0.0207303 0.9990157 0.0207303 0.0009843 -0.0207303
11514 0.0009258 -0.0198380 0.9990742 0.0198380 0.9990742 0.0198380 0.0009258 -0.0198380
12041 0.0008712 -0.0189837 0.9991288 0.0189837 0.9991288 0.0189837 0.0008712 -0.0189837
12592 0.0008204 -0.0181659 0.9991796 0.0181659 0.9991796 0.0181659 0.0008204 -0.0181659
13169 0.0007731 -0.0173830 0.9992269 0.0173830 0.9992269 0.0173830 0.0007731 -0.0173830
13772 0.0007291 -0.0166336 0.9992709 0.0166336 0.9992709 0.0166336 0.0007291 -0.0166336
14402 0.0006882 -0.0159162 0.9993118 0.0159162 0.9993118 0.0159162 0.0006882 -0.0159162
15062 0.0006501 -0.0152294 0.9993499 0.0152294 0.9993499 0.0152294 0.0006501 -0.0152294
15752 0.0006148 -0.0145722 0.9993852 0.0145722 0.9993852 0.0145722 0.0006148 -0.0145722
16473 0.0005819 -0.0139431 0.9994181 0.0139431 0.9994181 0.0139431 0.0005819 -0.0139431
17227 0.0005514 -0.0133410 0.9994486 0.0133410 0.9994486 0.0133410 0.0005514 -0.0133410
18016 0.0005231 -0.0127648 0.9994769 0.0127648 0.9994769 0.0127648 0.0005231 -0.0127648
18841 0.0004968 -0.0122134 0.9995032 0.0122134 0.9995032 0.0122134 0.0004968 -0.0122134
19704 0.0004724 -0.0116857 0.9995276 0.0116857 0.9995276 0.0116857 0.0004724 -0.0116857
20606 0.0004497 -0.0111809 0.9995503 0.0111809 0.9995503 0.0111809 0.0004497 -0.0111809
21550 0.0004287 -0.0106978 0.9995713 0.0106978 0.9995713 0.0106978 0.0004287 -0.0106978
22537 0.0004091 -0.0102357 0.9995909 0.0102357 0.9995909 0.0102357 0.0004091 -0.0102357
23569 0.0003910 -0.0097936 0.9996090 0.0097936 0.9996090 0.0097936 0.0003910 -0.0097936
24648 0.0003740 -0.0093706 0.9996260 0.0093706 0.9996260 0.0093706 0.0003740 -0.0093706
25777 0.0003583 -0.0089660 0.9996417 0.0089660 0.9996417 0.0089660 0.0003583 -0.0089660
26957 0.0003436 -0.0085791 0.9996564 0.0085791 0.9996564 0.0085791 0.0003436 -0.0085791
28191 0.0003299 -0.0082089 0.9996701 0.0082089 0.9996701 0.0082089 0.0003299 -0.0082089
29482 0.0003171 -0.0078549 0.9996829 0.0078549 0.9996829 0.0078549 0.0003171 -0.0078549
30832 0.0003051 -0.0075163 0.9996949 0.0075163 0.9996949 0.0075163 0.0003051 -0.0075163
32244 0.0002939 -0.0071924 0.9997061 0.0071924 0.9997061 0.0071924 0.0002939 -0.0071924
33721 0.0002833 -0.0068827 0.9997167 0.0068827 0.9997167 0.0068827 0.0002833 -0.0068827
35265 0.0002732 -0.0065865 0.9997268 0.0065865 0.9997268 0.0065865 0.0002732 -0.0065865
36880 0.0002638 -0.0063033 0.9997362 0.0063033 0.9997362 0.0063033 0.0002638 -0.0063033
38569 0.0002548 -0.0060324 0.9997452 0.0060324 0.9997452 0.0060324 0.0002548 -0.0060324
40335 0.0002462 -0.0057734 0.9997538 0.0057734 0.9997538 0.0057734 0.0002462 -0.0057734
42182 0.0002381 -0.0055256 0.9997619 0.0055256 0.9997619 0.0055256 0.0002381 -0.0055256
44113 0.0002303 -0.0052887 0.9997697 0.0052887 0.9997697 0.0052887 0.0002303 -0.0052887
46134 0.0002228 -0.0050621 0.9997772 0.0050621 0.9997772 0.0050621 0.0002228 -0.0050621
48246 0.0002155 -0.0048453 0.9997845 0.0048453 0.9997845 0.0048453 0.0002155 -0.0048453
50455 0.0002085 -0.0046380 0.9997915 0.0046380 0.9997915 0.0046380 0.0002085 -0.0046380
52766 0.0002017 -0.0044397 0.9997983 0.0044397 0.9997983 0.0044397 0.0002017 -0.0044397
55182 0.0001951 -0.0042500 0.9998049 0.0042500 0.9998049 0.0042500 0.0001951 -0.0042500
57709 0.0001887 -0.0040685 0.9998113 0.0040685 0.9998113 0.0040685 0.0001887 -0.0040685
60352 0.0001825 -0.0038949 0.9998175 0.0038949 0.9998175 0.0038949 0.0001825 -0.0038949
63115 0.0001764 -0.0037287 0.9998236 0.0037287 0.9998236 0.0037287 0.0001764 -0.0037287
66005 0.0001704 -0.0035697 0.9998296 0.0035697 0.9998296 0.0035697 0.0001704 -0.0035697
69028 0.0001646 -0.0034175 0.9998354 0.0034175 0.9998354 0.0034175 0.0001646 -0.0034175
72189 0.0001589 -0.0032718 0.9998411 0.0032718 0.9998411 0.0032718 0.0001589 -0.0032718
75495 0.0001533 -0.0031323 0.9998467 0.0031323 0.9998467 0.0031323 0.0001533 -0.0031323
78952 0.0001479 -0.0029987 0.9998521 0.0029987 0.9998521 0.0029987 0.0001479 -0.0029987
82567 0.0001426 -0.0028708 0.9998574 0.0028708 0.9998574 0.0028708 0.0001426 -0.0028708
86348 0.0001374 -0.0027483 0.9998626 0.0027483 0.9998626 0.0027483 0.0001374 -0.0027483
90302 0.0001324 -0.0026309 0.9998676 0.0026309 0.9998676 0.0026309 0.0001324 -0.0026309
94437 0.0001275 -0.0025185 0.9998725 0.0025185 0.9998725 0.0025185 0.0001275 -0.0025185
98762 0.0001227 -0.0024108 0.9998773 0.0024108 0.9998773 0.0024108 0.0001227 -0.0024108
103284 0.0001181 -0.0023076 0.9998819 0.0023076 0.9998819 0.0023076 0.0001181 -0.0023076
108014 0.0001137 -0.0022088 0.9998863 0.0022088 0.9998863 0.0022088 0.0001137 -0.0022088
112960 0.0001094 -0.0021140 0.9998906 0.0021140 0.9998906 0.0021140 0.0001094 -0.0021140
118133 0.0001053 -0.0020232 0.9998947 0.0020232 0.9998947 0.0020232 0.0001053 -0.0020232
123542 0.0001014 -0.0019361 0.9998986 0.0019361 0.9998986 0.0019361 0.0001014 -0.0019361
129199 0.0000976 -0.0018527 0.9999024 0.0018527 0.9999024 0.0018527 0.0000976 -0.0018527
135116 0.0000940 -0.0017727 0.9999060 0.0017727 0.9999060 0.0017727 0.0000940 -0.0017727
141303 0.0000906 -0.0016961 0.9999094 0.0016961 0.9999094 0.0016961 0.0000906 -0.0016961
147774 0.0000873 -0.0016226 0.9999127 0.0016226 0.9999127 0.0016226 0.0000873 -0.0016226
154540 0.0000843 -0.0015522 0.9999157 0.0015522 0.9999157 0.0015522 0.0000843 -0.0015522
161617 0.0000813 -0.0014847 0.9999187 0.0014847 0.9999187 0.0014847 0.0000813 -0.0014847
169018 0.0000786 -0.0014200 0.9999214 0.0014200 0.9999214 0.0014200 0.0000786 -0.0014200
176758 0.0000760 -0.0013580 0.9999240 0.0013580 0.9999240 0.0013580 0.0000760 -0.0013580
184852 0.0000736 -0.0012985 0.9999264 0.0012985 0.9999264 0.0012985 0.0000736 -0.0012985
193316 0.0000713 -0.0012415 0.9999287 0.0012415 0.9999287 0.0012415 0.0000713 -0.0012415
202169 0.0000692 -0.0011869 0.9999308 0.0011869 0.9999308 0.0011869 0.0000692 -0.0011869
211427 0.0000672 -0.0011346 0.9999328 0.0011346 0.9999328 0.0011346 0.0000672 -0.0011346
221108 0.0000653 -0.0010844 0.9999347 0.0010844 0.9999347 0.0010844 0.0000653 -0.0010844
231233 0.0000636 -0.0010363 0.9999364 0.0010363 0.9999364 0.0010363 0.0000636 -0.0010363
241822 0.0000620 -0.0009902 0.9999380 0.0009902 0.9999380 0.0009902 0.0000620 -0.0009902
252896 0.0000605 -0.0009460 0.9999395 0.0009460 0.9999395 0.0009460 0.0000605 -0.0009460
264476 0.0000591 -0.0009036 0.9999409 0.0009036 0.9999409 0.0009036 0.0000591 -0.0009036
276587 0.0000578 -0.0008630 0.9999422 0.0008630 0.9999422 0.0008630 0.0000578 -0.0008630
289253 0.0000567 -0.0008240 0.9999433 0.0008240 0.9999433 0.0008240 0.0000567 -0.0008240
302498 0.0000556 -0.0007867 0.9999444 0.0007867 0.9999444 0.0007867 0.0000556 -0.0007867
316350 0.0000546 -0.0007509 0.9999454 0.0007509 0.9999454 0.0007509 0.0000546 -0.0007509
330837 0.0000536 -0.0007166 0.9999464 0.0007166 0.9999464 0.0007166 0.0000536 -0.0007166
345986 0.0000528 -0.0006836 0.9999472 0.0006836 0.9999472 0.0006836 0.0000528 -0.0006836
361830 0.0000520 -0.0006520 0.9999480 0.0006520 0.9999480 0.0006520 0.0000520 -0.0006520
378399 0.0000513 -0.0006217 0.9999487 0.0006217 0.9999487 0.0006217 0.0000513 -0.0006217
395726 0.0000506 -0.0005926 0.9999494 0.0005926 0.9999494 0.0005926 0.0000506 -0.0005926
413847 0.0000500 -0.0005647 0.9999500 0.0005647 0.9999500 0.0005647 0.0000500 -0.0005647
432798 0.0000495 -0.0005379 0.9999505 0.0005379 0.9999505 0.0005379 0.0000495 -0.0005379
452617 0.0000490 -0.0005121 0.9999510 0.0005121 0.9999510 0.0005121 0.0000490 -0.0005121
473344 0.0000485 -0.0004874 0.9999515 0.0004874 0.9999515 0.0004874 0.0000485 -0.0004874
495019 0.0000481 -0.0004636 0.9999519 0.0004636 0.9999519 0.0004636 0.0000481 -0.0004636
517687 0.0000478 -0.0004408 0.9999522 0.0004408 0.9999522 0.0004408 0.0000478 -0.0004408
541393 0.0000475 -0.0004188 0.9999525 0.0004188 0.9999525 0.0004188 0.0000475 -0.0004188
566185 0.0000472 -0.0003976 0.9999528 0.0003976 0.9999528 0.0003976 0.0000472 -0.0003976
592111 0.0000469 -0.0003773 0.9999531 0.0003773 0.9999531 0.0003773 0.0000469 -0.0003773
619225 0.0000467 -0.0003577 0.9999533 0.0003577 0.9999533 0.0003577 0.0000467 -0.0003577
647581 0.0000465 -0.0003388 0.9999535 0.0003388 0.9999535 0.0003388 0.0000465 -0.0003388
677235 0.0000463 -0.0003205 0.9999537 0.0003205 0.9999537 0.0003205 0.0000463 -0.0003205
708247 0.0000462 -0.0003029 0.9999538 0.0003029 0.9999538 0.0003029 0.0000462 -0.0003029
740679 0.0000461 -0.0002860 0.9999539 0.0002860 0.9999539 0.0002860 0.0000461 -0.0002860
774597 0.0000460 -0.0002695 0.9999540 0.0002695 0.9999540 0.0002695 0.0000460 -0.0002695
810067 0.0000460 -0.0002537 0.9999540 0.0002537 0.9999540 0.0002537 0.0000460 -0.0002537
847162 0.0000460 -0.0002383 0.9999540 0.0002383 0.9999540 0.0002383 0.0000460 -0.0002383
885955 0.0000460 -0.0002234 0.9999540 0.0002234 0.9999540 0.0002234 0.0000460 -0.0002234
926525 0.0000460 -0.0002089 0.9999540 0.0002089 0.9999540 0.0002089 0.0000460 -0.0002089
968953 0.0000461 -0.0001949 0.9999539 0.0001949 0.9999539 0.0001949 0.0000461 -0.0001949
1013323 0.0000461 -0.0001812 0.9999539 0.0001812 0.9999539 0.0001812 0.0000461 -0.0001812
1059725 0.0000463 -0.0001679 0.9999537 0.0001679 0.9999537 0.0001679 0.0000463 -0.0001679
1108252 0.0000464 -0.0001549 0.9999536 0.0001549 0.9999536 0.0001549 0.0000464 -0.0001549
1159002 0.0000466 -0.0001423 0.9999534 0.0001423 0.9999534 0.0001423 0.0000466 -0.0001423
1212075 0.0000468 -0.0001299 0.9999532 0.0001299 0.9999532 0.0001299 0.0000468 -0.0001299
1267578 0.0000470 -0.0001178 0.9999530 0.0001178 0.9999530 0.0001178 0.0000470 -0.0001178
1325623 0.0000473 -0.0001059 0.9999527 0.0001059 0.9999527 0.0001059 0.0000473 -0.0001059
1386327 0.0000476 -0.0000942 0.9999524 0.0000942 0.9999524 0.0000942 0.0000476 -0.0000942
1449809 0.0000480 -0.0000827 0.9999520 0.0000827 0.9999520 0.0000827 0.0000480 -0.0000827
1516199 0.0000484 -0.0000713 0.9999516 0.0000713 0.9999516 0.0000713 0.0000484 -0.0000713
1585629 0.0000489 -0.0000601 0.9999511 0.0000601 0.9999511 0.0000601 0.0000489 -0.0000601
1658239 0.0000494 -0.0000490 0.9999506 0.0000490 0.9999506 0.0000490 0.0000494 -0.0000490
1734173 0.0000500 -0.0000380 0.9999500 0.0000380 0.9999500 0.0000380 0.0000500 -0.0000380
1813585 0.0000507 -0.0000270 0.9999493 0.0000270 0.9999493 0.0000270 0.0000507 -0.0000270
1896632 0.0000514 -0.0000161 0.9999486 0.0000161 0.9999486 0.0000161 0.0000514 -0.0000161
1983483 0.0000523 -0.0000052 0.9999477 0.0000052 0.9999477 0.0000052 0.0000523 -0.0000052
2074311 0.0000532 0.0000057 0.9999468 -0.0000057 0.9999468 -0.0000057 0.0000532 0.0000057
