!Murata Part Number: GRM31BR72J682KW01
!These Parameters are Measured in Series Mode Connection
!Data Generated on Mar 30, 2021
!       o--ll--o
!Port1            Port2
!       o------o
!Operation Temp=25[degC], DC Bias Voltage=0[V]
!Freq. Start=100[kHz] Stop=6[GHz] 401[Steps]
# Hz S RI R 50
!Freq.(Hz) S11(Real) S11(Imag) S21(Real) S21(Imag) S12(Real) S12(Imag) S22(Real) S22(Imag)
100000 0.8595838 -0.3419961 0.1404162 0.3419961 0.1404162 0.3419961 0.8595838 -0.3419961
102789 0.8529725 -0.3487182 0.1470275 0.3487182 0.1470275 0.3487182 0.8529725 -0.3487182
105655 0.8461026 -0.3554427 0.1538974 0.3554427 0.1538974 0.3554427 0.8461026 -0.3554427
108602 0.8389691 -0.3621596 0.1610309 0.3621596 0.1610309 0.3621596 0.8389691 -0.3621596
111630 0.8315674 -0.3688581 0.1684326 0.3688581 0.1684326 0.3688581 0.8315674 -0.3688581
114743 0.8238934 -0.3755268 0.1761066 0.3755268 0.1761066 0.3755268 0.8238934 -0.3755268
117943 0.8159437 -0.3821538 0.1840563 0.3821538 0.1840563 0.3821538 0.8159437 -0.3821538
121232 0.8077153 -0.3887266 0.1922847 0.3887266 0.1922847 0.3887266 0.8077153 -0.3887266
124613 0.7992060 -0.3952324 0.2007940 0.3952324 0.2007940 0.3952324 0.7992060 -0.3952324
128088 0.7904141 -0.4016576 0.2095859 0.4016576 0.2095859 0.4016576 0.7904141 -0.4016576
131660 0.7813390 -0.4079883 0.2186610 0.4079883 0.2186610 0.4079883 0.7813390 -0.4079883
135332 0.7719807 -0.4142102 0.2280193 0.4142102 0.2280193 0.4142102 0.7719807 -0.4142102
139106 0.7623401 -0.4203087 0.2376599 0.4203087 0.2376599 0.4203087 0.7623401 -0.4203087
142985 0.7524192 -0.4262689 0.2475808 0.4262689 0.2475808 0.4262689 0.7524192 -0.4262689
146972 0.7422208 -0.4320755 0.2577792 0.4320755 0.2577792 0.4320755 0.7422208 -0.4320755
151071 0.7317489 -0.4377134 0.2682511 0.4377134 0.2682511 0.4377134 0.7317489 -0.4377134
155284 0.7210083 -0.4431670 0.2789917 0.4431670 0.2789917 0.4431670 0.7210083 -0.4431670
159614 0.7100052 -0.4484210 0.2899948 0.4484210 0.2899948 0.4484210 0.7100052 -0.4484210
164065 0.6987467 -0.4534603 0.3012533 0.4534603 0.3012533 0.4534603 0.6987467 -0.4534603
168641 0.6872412 -0.4582696 0.3127588 0.4582696 0.3127588 0.4582696 0.6872412 -0.4582696
173344 0.6754981 -0.4628343 0.3245019 0.4628343 0.3245019 0.4628343 0.6754981 -0.4628343
178178 0.6635279 -0.4671400 0.3364721 0.4671400 0.3364721 0.4671400 0.6635279 -0.4671400
183146 0.6513424 -0.4711728 0.3486576 0.4711728 0.3486576 0.4711728 0.6513424 -0.4711728
188254 0.6389542 -0.4749195 0.3610458 0.4749195 0.3610458 0.4749195 0.6389542 -0.4749195
193504 0.6263773 -0.4783674 0.3736227 0.4783674 0.3736227 0.4783674 0.6263773 -0.4783674
198900 0.6136263 -0.4815048 0.3863737 0.4815048 0.3863737 0.4815048 0.6136263 -0.4815048
204447 0.6007172 -0.4843209 0.3992828 0.4843209 0.3992828 0.4843209 0.6007172 -0.4843209
210148 0.5876664 -0.4868057 0.4123336 0.4868057 0.4123336 0.4868057 0.5876664 -0.4868057
216008 0.5744915 -0.4889504 0.4255085 0.4889504 0.4255085 0.4889504 0.5744915 -0.4889504
222032 0.5612106 -0.4907473 0.4387894 0.4907473 0.4387894 0.4907473 0.5612106 -0.4907473
228224 0.5478423 -0.4921900 0.4521577 0.4921900 0.4521577 0.4921900 0.5478423 -0.4921900
234589 0.5344059 -0.4932732 0.4655941 0.4932732 0.4655941 0.4932732 0.5344059 -0.4932732
241130 0.5209211 -0.4939931 0.4790789 0.4939931 0.4790789 0.4939931 0.5209211 -0.4939931
247855 0.5074078 -0.4943470 0.4925922 0.4943470 0.4925922 0.4943470 0.5074078 -0.4943470
254767 0.4938859 -0.4943338 0.5061141 0.4943338 0.5061141 0.4943338 0.4938859 -0.4943338
261871 0.4803757 -0.4939537 0.5196243 0.4939537 0.5196243 0.4939537 0.4803757 -0.4939537
269174 0.4668970 -0.4932082 0.5331030 0.4932082 0.5331030 0.4932082 0.4668970 -0.4932082
276681 0.4534698 -0.4921003 0.5465302 0.4921003 0.5465302 0.4921003 0.4534698 -0.4921003
284397 0.4401136 -0.4906342 0.5598864 0.4906342 0.5598864 0.4906342 0.4401136 -0.4906342
292328 0.4268472 -0.4888155 0.5731528 0.4888155 0.5731528 0.4888155 0.4268472 -0.4888155
300480 0.4136894 -0.4866509 0.5863106 0.4866509 0.5863106 0.4866509 0.4136894 -0.4866509
308859 0.4006578 -0.4841485 0.5993422 0.4841485 0.5993422 0.4841485 0.4006578 -0.4841485
317472 0.3877698 -0.4813172 0.6122302 0.4813172 0.6122302 0.4813172 0.3877698 -0.4813172
326326 0.3750415 -0.4781672 0.6249585 0.4781672 0.6249585 0.4781672 0.3750415 -0.4781672
335426 0.3624884 -0.4747094 0.6375116 0.4747094 0.6375116 0.4747094 0.3624884 -0.4747094
344780 0.3501250 -0.4709559 0.6498750 0.4709559 0.6498750 0.4709559 0.3501250 -0.4709559
354395 0.3379648 -0.4669191 0.6620352 0.4669191 0.6620352 0.4669191 0.3379648 -0.4669191
364278 0.3260200 -0.4626125 0.6739800 0.4626125 0.6739800 0.4626125 0.3260200 -0.4626125
374436 0.3143021 -0.4580498 0.6856979 0.4580498 0.6856979 0.4580498 0.3143021 -0.4580498
384878 0.3028212 -0.4532454 0.6971788 0.4532454 0.6971788 0.4532454 0.3028212 -0.4532454
395611 0.2915865 -0.4482138 0.7084135 0.4482138 0.7084135 0.4482138 0.2915865 -0.4482138
406644 0.2806060 -0.4429701 0.7193940 0.4429701 0.7193940 0.4429701 0.2806060 -0.4429701
417984 0.2698865 -0.4375293 0.7301135 0.4375293 0.7301135 0.4375293 0.2698865 -0.4375293
429640 0.2594339 -0.4319065 0.7405661 0.4319065 0.7405661 0.4319065 0.2594339 -0.4319065
441622 0.2492528 -0.4261169 0.7507472 0.4261169 0.7507472 0.4261169 0.2492528 -0.4261169
453937 0.2393470 -0.4201756 0.7606530 0.4201756 0.7606530 0.4201756 0.2393470 -0.4201756
466596 0.2297193 -0.4140973 0.7702807 0.4140973 0.7702807 0.4140973 0.2297193 -0.4140973
479608 0.2203712 -0.4078967 0.7796288 0.4078967 0.7796288 0.4078967 0.2203712 -0.4078967
492983 0.2113038 -0.4015883 0.7886962 0.4015883 0.7886962 0.4015883 0.2113038 -0.4015883
506731 0.2025171 -0.3951859 0.7974829 0.3951859 0.7974829 0.3951859 0.2025171 -0.3951859
520862 0.1940102 -0.3887031 0.8059898 0.3887031 0.8059898 0.3887031 0.1940102 -0.3887031
535387 0.1857817 -0.3821532 0.8142183 0.3821532 0.8142183 0.3821532 0.1857817 -0.3821532
550318 0.1778293 -0.3755488 0.8221707 0.3755488 0.8221707 0.3755488 0.1778293 -0.3755488
565664 0.1701501 -0.3689020 0.8298499 0.3689020 0.8298499 0.3689020 0.1701501 -0.3689020
581439 0.1627409 -0.3622246 0.8372591 0.3622246 0.8372591 0.3622246 0.1627409 -0.3622246
597654 0.1555977 -0.3555276 0.8444023 0.3555276 0.8444023 0.3555276 0.1555977 -0.3555276
614320 0.1487161 -0.3488215 0.8512839 0.3488215 0.8512839 0.3488215 0.1487161 -0.3488215
631452 0.1420913 -0.3421164 0.8579087 0.3421164 0.8579087 0.3421164 0.1420913 -0.3421164
649061 0.1357182 -0.3354216 0.8642818 0.3354216 0.8642818 0.3354216 0.1357182 -0.3354216
667162 0.1295913 -0.3287461 0.8704087 0.3287461 0.8704087 0.3287461 0.1295913 -0.3287461
685767 0.1237049 -0.3220981 0.8762951 0.3220981 0.8762951 0.3220981 0.1237049 -0.3220981
704891 0.1180530 -0.3154853 0.8819470 0.3154853 0.8819470 0.3154853 0.1180530 -0.3154853
724548 0.1126297 -0.3089149 0.8873703 0.3089149 0.8873703 0.3089149 0.1126297 -0.3089149
744754 0.1074286 -0.3023937 0.8925714 0.3023937 0.8925714 0.3023937 0.1074286 -0.3023937
765523 0.1024433 -0.2959277 0.8975567 0.2959277 0.8975567 0.2959277 0.1024433 -0.2959277
786871 0.0976675 -0.2895226 0.9023325 0.2895226 0.9023325 0.2895226 0.0976675 -0.2895226
808814 0.0930946 -0.2831835 0.9069054 0.2831835 0.9069054 0.2831835 0.0930946 -0.2831835
831370 0.0887183 -0.2769153 0.9112817 0.2769153 0.9112817 0.2769153 0.0887183 -0.2769153
854554 0.0845319 -0.2707220 0.9154681 0.2707220 0.9154681 0.2707220 0.0845319 -0.2707220
878385 0.0805291 -0.2646076 0.9194709 0.2646076 0.9194709 0.2646076 0.0805291 -0.2646076
902880 0.0767035 -0.2585755 0.9232965 0.2585755 0.9232965 0.2585755 0.0767035 -0.2585755
928059 0.0730488 -0.2526287 0.9269512 0.2526287 0.9269512 0.2526287 0.0730488 -0.2526287
953940 0.0695587 -0.2467699 0.9304413 0.2467699 0.9304413 0.2467699 0.0695587 -0.2467699
980542 0.0662270 -0.2410014 0.9337730 0.2410014 0.9337730 0.2410014 0.0662270 -0.2410014
1007887 0.0630479 -0.2353252 0.9369521 0.2353252 0.9369521 0.2353252 0.0630479 -0.2353252
1035994 0.0600152 -0.2297430 0.9399848 0.2297430 0.9399848 0.2297430 0.0600152 -0.2297430
1064885 0.0571234 -0.2242563 0.9428766 0.2242563 0.9428766 0.2242563 0.0571234 -0.2242563
1094581 0.0543666 -0.2188662 0.9456334 0.2188662 0.9456334 0.2188662 0.0543666 -0.2188662
1125106 0.0517395 -0.2135735 0.9482605 0.2135735 0.9482605 0.2135735 0.0517395 -0.2135735
1156481 0.0492366 -0.2083789 0.9507634 0.2083789 0.9507634 0.2083789 0.0492366 -0.2083789
1188732 0.0468528 -0.2032829 0.9531472 0.2032829 0.9531472 0.2032829 0.0468528 -0.2032829
1221882 0.0445829 -0.1982856 0.9554171 0.1982856 0.9554171 0.1982856 0.0445829 -0.1982856
1255957 0.0424222 -0.1933872 0.9575778 0.1933872 0.9575778 0.1933872 0.0424222 -0.1933872
1290982 0.0403659 -0.1885874 0.9596341 0.1885874 0.9596341 0.1885874 0.0403659 -0.1885874
1326984 0.0384093 -0.1838861 0.9615907 0.1838861 0.9615907 0.1838861 0.0384093 -0.1838861
1363989 0.0365480 -0.1792827 0.9634520 0.1792827 0.9634520 0.1792827 0.0365480 -0.1792827
1402027 0.0347779 -0.1747768 0.9652221 0.1747768 0.9652221 0.1747768 0.0347779 -0.1747768
1441125 0.0330946 -0.1703676 0.9669054 0.1703676 0.9669054 0.1703676 0.0330946 -0.1703676
1481314 0.0314944 -0.1660543 0.9685056 0.1660543 0.9685056 0.1660543 0.0314944 -0.1660543
1522623 0.0299733 -0.1618360 0.9700267 0.1618360 0.9700267 0.1618360 0.0299733 -0.1618360
1565085 0.0285276 -0.1577117 0.9714724 0.1577117 0.9714724 0.1577117 0.0285276 -0.1577117
1608730 0.0271539 -0.1536804 0.9728461 0.1536804 0.9728461 0.1536804 0.0271539 -0.1536804
1653593 0.0258487 -0.1497409 0.9741513 0.1497409 0.9741513 0.1497409 0.0258487 -0.1497409
1699707 0.0246089 -0.1458921 0.9753911 0.1458921 0.9753911 0.1458921 0.0246089 -0.1458921
1747106 0.0234311 -0.1421325 0.9765689 0.1421325 0.9765689 0.1421325 0.0234311 -0.1421325
1795828 0.0223126 -0.1384610 0.9776874 0.1384610 0.9776874 0.1384610 0.0223126 -0.1384610
1845908 0.0212503 -0.1348762 0.9787497 0.1348762 0.9787497 0.1348762 0.0212503 -0.1348762
1897385 0.0202416 -0.1313766 0.9797584 0.1313766 0.9797584 0.1313766 0.0202416 -0.1313766
1950297 0.0192838 -0.1279608 0.9807162 0.1279608 0.9807162 0.1279608 0.0192838 -0.1279608
2004685 0.0183745 -0.1246275 0.9816255 0.1246275 0.9816255 0.1246275 0.0183745 -0.1246275
2060590 0.0175111 -0.1213751 0.9824889 0.1213751 0.9824889 0.1213751 0.0175111 -0.1213751
2118054 0.0166915 -0.1182021 0.9833085 0.1182021 0.9833085 0.1182021 0.0166915 -0.1182021
2177120 0.0159134 -0.1151070 0.9840866 0.1151070 0.9840866 0.1151070 0.0159134 -0.1151070
2237833 0.0151748 -0.1120883 0.9848252 0.1120883 0.9848252 0.1120883 0.0151748 -0.1120883
2300240 0.0144737 -0.1091446 0.9855263 0.1091446 0.9855263 0.1091446 0.0144737 -0.1091446
2364387 0.0138081 -0.1062742 0.9861919 0.1062742 0.9861919 0.1062742 0.0138081 -0.1062742
2430322 0.0131762 -0.1034756 0.9868238 0.1034756 0.9868238 0.1034756 0.0131762 -0.1034756
2498097 0.0125764 -0.1007474 0.9874236 0.1007474 0.9874236 0.1007474 0.0125764 -0.1007474
2567761 0.0120070 -0.0980881 0.9879930 0.0980881 0.9879930 0.0980881 0.0120070 -0.0980881
2639368 0.0114664 -0.0954961 0.9885336 0.0954961 0.9885336 0.0954961 0.0114664 -0.0954961
2712972 0.0109531 -0.0929699 0.9890469 0.0929699 0.9890469 0.0929699 0.0109531 -0.0929699
2788629 0.0104658 -0.0905081 0.9895342 0.0905081 0.9895342 0.0905081 0.0104658 -0.0905081
2866396 0.0100030 -0.0881092 0.9899970 0.0881092 0.9899970 0.0881092 0.0100030 -0.0881092
2946331 0.0095635 -0.0857717 0.9904365 0.0857717 0.9904365 0.0857717 0.0095635 -0.0857717
3028495 0.0091461 -0.0834943 0.9908539 0.0834943 0.9908539 0.0834943 0.0091461 -0.0834943
3112951 0.0087497 -0.0812755 0.9912503 0.0812755 0.9912503 0.0812755 0.0087497 -0.0812755
3199762 0.0083730 -0.0791139 0.9916270 0.0791139 0.9916270 0.0791139 0.0083730 -0.0791139
3288994 0.0080152 -0.0770082 0.9919848 0.0770082 0.9919848 0.0770082 0.0080152 -0.0770082
3380714 0.0076752 -0.0749569 0.9923248 0.0749569 0.9923248 0.0749569 0.0076752 -0.0749569
3474992 0.0073520 -0.0729588 0.9926480 0.0729588 0.9926480 0.0729588 0.0073520 -0.0729588
3571899 0.0070449 -0.0710125 0.9929551 0.0710125 0.9929551 0.0710125 0.0070449 -0.0710125
3671508 0.0067529 -0.0691168 0.9932471 0.0691168 0.9932471 0.0691168 0.0067529 -0.0691168
3773896 0.0064752 -0.0672704 0.9935248 0.0672704 0.9935248 0.0672704 0.0064752 -0.0672704
3879139 0.0062112 -0.0654720 0.9937888 0.0654720 0.9937888 0.0654720 0.0062112 -0.0654720
3987316 0.0059600 -0.0637204 0.9940400 0.0637204 0.9940400 0.0637204 0.0059600 -0.0637204
4098510 0.0057211 -0.0620144 0.9942789 0.0620144 0.9942789 0.0620144 0.0057211 -0.0620144
4212806 0.0054937 -0.0603529 0.9945063 0.0603529 0.9945063 0.0603529 0.0054937 -0.0603529
4330288 0.0052774 -0.0587347 0.9947226 0.0587347 0.9947226 0.0587347 0.0052774 -0.0587347
4451047 0.0050714 -0.0571587 0.9949286 0.0571587 0.9949286 0.0571587 0.0050714 -0.0571587
4575173 0.0048753 -0.0556237 0.9951247 0.0556237 0.9951247 0.0556237 0.0048753 -0.0556237
4702761 0.0046886 -0.0541288 0.9953114 0.0541288 0.9953114 0.0541288 0.0046886 -0.0541288
4833907 0.0045108 -0.0526728 0.9954892 0.0526728 0.9954892 0.0526728 0.0045108 -0.0526728
4968711 0.0043414 -0.0512547 0.9956586 0.0512547 0.9956586 0.0512547 0.0043414 -0.0512547
5107273 0.0041800 -0.0498736 0.9958200 0.0498736 0.9958200 0.0498736 0.0041800 -0.0498736
5249700 0.0040262 -0.0485284 0.9959738 0.0485284 0.9959738 0.0485284 0.0040262 -0.0485284
5396098 0.0038797 -0.0472182 0.9961203 0.0472182 0.9961203 0.0472182 0.0038797 -0.0472182
5546579 0.0037400 -0.0459420 0.9962600 0.0459420 0.9962600 0.0459420 0.0037400 -0.0459420
5701257 0.0036069 -0.0446990 0.9963931 0.0446990 0.9963931 0.0446990 0.0036069 -0.0446990
5860248 0.0034799 -0.0434883 0.9965201 0.0434883 0.9965201 0.0434883 0.0034799 -0.0434883
6023672 0.0033589 -0.0423090 0.9966411 0.0423090 0.9966411 0.0423090 0.0033589 -0.0423090
6191655 0.0032435 -0.0411602 0.9967565 0.0411602 0.9967565 0.0411602 0.0032435 -0.0411602
6364321 0.0031335 -0.0400411 0.9968665 0.0400411 0.9968665 0.0400411 0.0031335 -0.0400411
6541803 0.0030285 -0.0389510 0.9969715 0.0389510 0.9969715 0.0389510 0.0030285 -0.0389510
6724235 0.0029284 -0.0378891 0.9970716 0.0378891 0.9970716 0.0378891 0.0029284 -0.0378891
6911753 0.0028330 -0.0368545 0.9971670 0.0368545 0.9971670 0.0368545 0.0028330 -0.0368545
7104501 0.0027420 -0.0358467 0.9972580 0.0358467 0.9972580 0.0358467 0.0027420 -0.0358467
7302625 0.0026552 -0.0348647 0.9973448 0.0348647 0.9973448 0.0348647 0.0026552 -0.0348647
7506273 0.0025724 -0.0339080 0.9974276 0.0339080 0.9974276 0.0339080 0.0025724 -0.0339080
7715601 0.0024934 -0.0329759 0.9975066 0.0329759 0.9975066 0.0329759 0.0024934 -0.0329759
7930766 0.0024182 -0.0320677 0.9975818 0.0320677 0.9975818 0.0320677 0.0024182 -0.0320677
8151931 0.0023464 -0.0311827 0.9976536 0.0311827 0.9976536 0.0311827 0.0023464 -0.0311827
8379264 0.0022780 -0.0303204 0.9977220 0.0303204 0.9977220 0.0303204 0.0022780 -0.0303204
8612937 0.0022127 -0.0294800 0.9977873 0.0294800 0.9977873 0.0294800 0.0022127 -0.0294800
8853126 0.0021506 -0.0286611 0.9978494 0.0286611 0.9978494 0.0286611 0.0021506 -0.0286611
9100013 0.0020913 -0.0278631 0.9979087 0.0278631 0.9979087 0.0278631 0.0020913 -0.0278631
9353785 0.0020348 -0.0270853 0.9979652 0.0270853 0.9979652 0.0270853 0.0020348 -0.0270853
9614634 0.0019810 -0.0263272 0.9980190 0.0263272 0.9980190 0.0263272 0.0019810 -0.0263272
9882758 0.0019298 -0.0255883 0.9980702 0.0255883 0.9980702 0.0255883 0.0019298 -0.0255883
10158358 0.0018809 -0.0248681 0.9981191 0.0248681 0.9981191 0.0248681 0.0018809 -0.0248681
10441645 0.0018344 -0.0241660 0.9981656 0.0241660 0.9981656 0.0241660 0.0018344 -0.0241660
10732831 0.0017902 -0.0234816 0.9982098 0.0234816 0.9982098 0.0234816 0.0017902 -0.0234816
11032137 0.0017480 -0.0228143 0.9982520 0.0228143 0.9982520 0.0228143 0.0017480 -0.0228143
11339791 0.0017079 -0.0221637 0.9982921 0.0221637 0.9982921 0.0221637 0.0017079 -0.0221637
11656024 0.0016697 -0.0215294 0.9983303 0.0215294 0.9983303 0.0215294 0.0016697 -0.0215294
11981075 0.0016334 -0.0209109 0.9983666 0.0209109 0.9983666 0.0209109 0.0016334 -0.0209109
12315192 0.0015988 -0.0203076 0.9984012 0.0203076 0.9984012 0.0203076 0.0015988 -0.0203076
12658625 0.0015660 -0.0197193 0.9984340 0.0197193 0.9984340 0.0197193 0.0015660 -0.0197193
13011637 0.0015347 -0.0191455 0.9984653 0.0191455 0.9984653 0.0191455 0.0015347 -0.0191455
13374492 0.0015050 -0.0185858 0.9984950 0.0185858 0.9984950 0.0185858 0.0015050 -0.0185858
13747467 0.0014768 -0.0180398 0.9985232 0.0180398 0.9985232 0.0180398 0.0014768 -0.0180398
14130843 0.0014500 -0.0175070 0.9985500 0.0175070 0.9985500 0.0175070 0.0014500 -0.0175070
14524910 0.0014245 -0.0169872 0.9985755 0.0169872 0.9985755 0.0169872 0.0014245 -0.0169872
14929966 0.0014003 -0.0164799 0.9985997 0.0164799 0.9985997 0.0164799 0.0014003 -0.0164799
15346318 0.0013773 -0.0159848 0.9986227 0.0159848 0.9986227 0.0159848 0.0013773 -0.0159848
15774281 0.0013555 -0.0155015 0.9986445 0.0155015 0.9986445 0.0155015 0.0013555 -0.0155015
16214179 0.0013348 -0.0150297 0.9986652 0.0150297 0.9986652 0.0150297 0.0013348 -0.0150297
16666344 0.0013152 -0.0145690 0.9986848 0.0145690 0.9986848 0.0145690 0.0013152 -0.0145690
17131118 0.0012966 -0.0141191 0.9987034 0.0141191 0.9987034 0.0141191 0.0012966 -0.0141191
17608854 0.0012789 -0.0136796 0.9987211 0.0136796 0.9987211 0.0136796 0.0012789 -0.0136796
18099912 0.0012622 -0.0132504 0.9987378 0.0132504 0.9987378 0.0132504 0.0012622 -0.0132504
18604665 0.0012463 -0.0128309 0.9987537 0.0128309 0.9987537 0.0128309 0.0012463 -0.0128309
19123493 0.0012313 -0.0124210 0.9987687 0.0124210 0.9987687 0.0124210 0.0012313 -0.0124210
19656790 0.0012171 -0.0120204 0.9987829 0.0120204 0.9987829 0.0120204 0.0012171 -0.0120204
20204959 0.0012036 -0.0116287 0.9987964 0.0116287 0.9987964 0.0116287 0.0012036 -0.0116287
20768415 0.0011908 -0.0112456 0.9988092 0.0112456 0.9988092 0.0112456 0.0011908 -0.0112456
21347584 0.0011788 -0.0108709 0.9988212 0.0108709 0.9988212 0.0108709 0.0011788 -0.0108709
21942904 0.0011674 -0.0105044 0.9988326 0.0105044 0.9988326 0.0105044 0.0011674 -0.0105044
22554827 0.0011567 -0.0101456 0.9988433 0.0101456 0.9988433 0.0101456 0.0011567 -0.0101456
23183813 0.0011465 -0.0097945 0.9988535 0.0097945 0.9988535 0.0097945 0.0011465 -0.0097945
23830340 0.0011369 -0.0094506 0.9988631 0.0094506 0.9988631 0.0094506 0.0011369 -0.0094506
24494897 0.0011279 -0.0091138 0.9988721 0.0091138 0.9988721 0.0091138 0.0011279 -0.0091138
25177987 0.0011194 -0.0087839 0.9988806 0.0087839 0.9988806 0.0087839 0.0011194 -0.0087839
25880126 0.0011114 -0.0084604 0.9988886 0.0084604 0.9988886 0.0084604 0.0011114 -0.0084604
26601845 0.0011038 -0.0081434 0.9988962 0.0081434 0.9988962 0.0081434 0.0011038 -0.0081434
27343691 0.0010968 -0.0078324 0.9989032 0.0078324 0.9989032 0.0078324 0.0010968 -0.0078324
28106225 0.0010901 -0.0075272 0.9989099 0.0075272 0.9989099 0.0075272 0.0010901 -0.0075272
28890023 0.0010839 -0.0072278 0.9989161 0.0072278 0.9989161 0.0072278 0.0010839 -0.0072278
29695680 0.0010781 -0.0069337 0.9989219 0.0069337 0.9989219 0.0069337 0.0010781 -0.0069337
30523804 0.0010727 -0.0066448 0.9989273 0.0066448 0.9989273 0.0066448 0.0010727 -0.0066448
31375021 0.0010676 -0.0063609 0.9989324 0.0063609 0.9989324 0.0063609 0.0010676 -0.0063609
32249977 0.0010629 -0.0060817 0.9989371 0.0060817 0.9989371 0.0060817 0.0010629 -0.0060817
33149332 0.0010585 -0.0058072 0.9989415 0.0058072 0.9989415 0.0058072 0.0010585 -0.0058072
34073768 0.0010545 -0.0055369 0.9989455 0.0055369 0.9989455 0.0055369 0.0010545 -0.0055369
35023984 0.0010508 -0.0052709 0.9989492 0.0052709 0.9989492 0.0052709 0.0010508 -0.0052709
36000698 0.0010474 -0.0050087 0.9989526 0.0050087 0.9989526 0.0050087 0.0010474 -0.0050087
37004650 0.0010443 -0.0047503 0.9989557 0.0047503 0.9989557 0.0047503 0.0010443 -0.0047503
38036599 0.0010415 -0.0044955 0.9989585 0.0044955 0.9989585 0.0044955 0.0010415 -0.0044955
39097326 0.0010390 -0.0042441 0.9989610 0.0042441 0.9989610 0.0042441 0.0010390 -0.0042441
