!Murata Part Number: GRM31CR72A105KA01
!These Parameters are Measured in Series Mode Connection
!Data Generated on Mar 30, 2021
!       o--ll--o
!Port1            Port2
!       o------o
!Operation Temp=25[degC], DC Bias Voltage=0[V]
!Freq. Start=100[Hz] Stop=6[GHz] 401[Steps]
# Hz S RI R 50
!Freq.(Hz) S11(Real) S11(Imag) S21(Real) S21(Imag) S12(Real) S12(Imag) S22(Real) S22(Imag)
100 0.9954370 -0.0630466 0.0045630 0.0630466 0.0045630 0.0630466 0.9954370 -0.0630466
105 0.9950540 -0.0658987 0.0049460 0.0658987 0.0049460 0.0658987 0.9950540 -0.0658987
109 0.9946357 -0.0688774 0.0053643 0.0688774 0.0053643 0.0688774 0.9946357 -0.0688774
114 0.9941791 -0.0719882 0.0058209 0.0719882 0.0058209 0.0719882 0.9941791 -0.0719882
120 0.9936807 -0.0752364 0.0063193 0.0752364 0.0063193 0.0752364 0.9936807 -0.0752364
125 0.9931366 -0.0786276 0.0068634 0.0786276 0.0068634 0.0786276 0.9931366 -0.0786276
131 0.9925428 -0.0821675 0.0074572 0.0821675 0.0074572 0.0821675 0.9925428 -0.0821675
137 0.9918949 -0.0858619 0.0081051 0.0858619 0.0081051 0.0858619 0.9918949 -0.0858619
143 0.9911879 -0.0897169 0.0088121 0.0897169 0.0088121 0.0897169 0.9911879 -0.0897169
150 0.9904165 -0.0937387 0.0095835 0.0937387 0.0095835 0.0937387 0.9904165 -0.0937387
156 0.9895752 -0.0979336 0.0104248 0.0979336 0.0104248 0.0979336 0.9895752 -0.0979336
164 0.9886576 -0.1023079 0.0113424 0.1023079 0.0113424 0.1023079 0.9886576 -0.1023079
171 0.9876571 -0.1068681 0.0123429 0.1068681 0.0123429 0.1068681 0.9876571 -0.1068681
179 0.9865664 -0.1116209 0.0134336 0.1116209 0.0134336 0.1116209 0.9865664 -0.1116209
187 0.9853776 -0.1165729 0.0146224 0.1165729 0.0146224 0.1165729 0.9853776 -0.1165729
196 0.9840823 -0.1217307 0.0159177 0.1217307 0.0159177 0.1217307 0.9840823 -0.1217307
205 0.9826711 -0.1271009 0.0173289 0.1271009 0.0173289 0.1271009 0.9826711 -0.1271009
214 0.9811342 -0.1326902 0.0188658 0.1326902 0.0188658 0.1326902 0.9811342 -0.1326902
224 0.9794609 -0.1385051 0.0205391 0.1385051 0.0205391 0.1385051 0.9794609 -0.1385051
234 0.9776395 -0.1445519 0.0223605 0.1445519 0.0223605 0.1445519 0.9776395 -0.1445519
245 0.9756577 -0.1508367 0.0243423 0.1508367 0.0243423 0.1508367 0.9756577 -0.1508367
256 0.9735021 -0.1573654 0.0264979 0.1573654 0.0264979 0.1573654 0.9735021 -0.1573654
268 0.9711582 -0.1641435 0.0288418 0.1641435 0.0288418 0.1641435 0.9711582 -0.1641435
280 0.9686107 -0.1711760 0.0313893 0.1711760 0.0313893 0.1711760 0.9686107 -0.1711760
293 0.9658430 -0.1784674 0.0341570 0.1784674 0.0341570 0.1784674 0.9658430 -0.1784674
306 0.9628377 -0.1860215 0.0371623 0.1860215 0.0371623 0.1860215 0.9628377 -0.1860215
320 0.9595757 -0.1938412 0.0404243 0.1938412 0.0404243 0.1938412 0.9595757 -0.1938412
335 0.9560373 -0.2019286 0.0439627 0.2019286 0.0439627 0.2019286 0.9560373 -0.2019286
350 0.9522012 -0.2102846 0.0477988 0.2102846 0.0477988 0.2102846 0.9522012 -0.2102846
366 0.9480451 -0.2189087 0.0519549 0.2189087 0.0519549 0.2189087 0.9480451 -0.2189087
383 0.9435452 -0.2277992 0.0564548 0.2277992 0.0564548 0.2277992 0.9435452 -0.2277992
401 0.9386770 -0.2369523 0.0613230 0.2369523 0.0613230 0.2369523 0.9386770 -0.2369523
419 0.9334145 -0.2463627 0.0665855 0.2463627 0.0665855 0.2463627 0.9334145 -0.2463627
438 0.9277309 -0.2560227 0.0722691 0.2560227 0.0722691 0.2560227 0.9277309 -0.2560227
458 0.9215983 -0.2659222 0.0784017 0.2659222 0.0784017 0.2659222 0.9215983 -0.2659222
479 0.9149882 -0.2760485 0.0850118 0.2760485 0.0850118 0.2760485 0.9149882 -0.2760485
501 0.9078715 -0.2863860 0.0921285 0.2863860 0.0921285 0.2863860 0.9078715 -0.2863860
524 0.9002189 -0.2969159 0.0997811 0.2969159 0.0997811 0.2969159 0.9002189 -0.2969159
548 0.8920007 -0.3076161 0.1079993 0.3076161 0.1079993 0.3076161 0.8920007 -0.3076161
573 0.8831879 -0.3184606 0.1168121 0.3184606 0.1168121 0.3184606 0.8831879 -0.3184606
600 0.8737519 -0.3294200 0.1262481 0.3294200 0.1262481 0.3294200 0.8737519 -0.3294200
627 0.8636655 -0.3404604 0.1363345 0.3404604 0.1363345 0.3404604 0.8636655 -0.3404604
656 0.8529030 -0.3515440 0.1470970 0.3515440 0.1470970 0.3515440 0.8529030 -0.3515440
686 0.8414408 -0.3626288 0.1585592 0.3626288 0.1585592 0.3626288 0.8414408 -0.3626288
717 0.8292582 -0.3736687 0.1707418 0.3736687 0.1707418 0.3736687 0.8292582 -0.3736687
750 0.8163381 -0.3846132 0.1836619 0.3846132 0.1836619 0.3846132 0.8163381 -0.3846132
784 0.8026672 -0.3954081 0.1973328 0.3954081 0.1973328 0.3954081 0.8026672 -0.3954081
820 0.7882371 -0.4059955 0.2117629 0.4059955 0.2117629 0.4059955 0.7882371 -0.4059955
858 0.7730449 -0.4163144 0.2269551 0.4163144 0.2269551 0.4163144 0.7730449 -0.4163144
897 0.7570937 -0.4263009 0.2429063 0.4263009 0.2429063 0.4263009 0.7570937 -0.4263009
938 0.7403934 -0.4358894 0.2596066 0.4358894 0.2596066 0.4358894 0.7403934 -0.4358894
981 0.7229611 -0.4450128 0.2770389 0.4450128 0.2770389 0.4450128 0.7229611 -0.4450128
1026 0.7048214 -0.4536038 0.2951786 0.4536038 0.2951786 0.4536038 0.7048214 -0.4536038
1073 0.6860069 -0.4615960 0.3139931 0.4615960 0.3139931 0.4615960 0.6860069 -0.4615960
1122 0.6665583 -0.4689244 0.3334417 0.4689244 0.3334417 0.4689244 0.6665583 -0.4689244
1174 0.6465241 -0.4755274 0.3534759 0.4755274 0.3534759 0.4755274 0.6465241 -0.4755274
1227 0.6259608 -0.4813471 0.3740392 0.4813471 0.3740392 0.4813471 0.6259608 -0.4813471
1283 0.6049319 -0.4863311 0.3950681 0.4863311 0.3950681 0.4863311 0.6049319 -0.4863311
1342 0.5835080 -0.4904335 0.4164920 0.4904335 0.4164920 0.4904335 0.5835080 -0.4904335
1404 0.5617652 -0.4936155 0.4382348 0.4936155 0.4382348 0.4936155 0.5617652 -0.4936155
1468 0.5397843 -0.4958469 0.4602157 0.4958469 0.4602157 0.4958469 0.5397843 -0.4958469
1535 0.5176501 -0.4971060 0.4823499 0.4971060 0.4823499 0.4971060 0.5176501 -0.4971060
1606 0.4954495 -0.4973811 0.5045505 0.4973811 0.5045505 0.4973811 0.4954495 -0.4973811
1679 0.4732704 -0.4966699 0.5267296 0.4966699 0.5267296 0.4966699 0.4732704 -0.4966699
1756 0.4512002 -0.4949800 0.5487998 0.4949800 0.5487998 0.4949800 0.4512002 -0.4949800
1836 0.4293247 -0.4923286 0.5706753 0.4923286 0.5706753 0.4923286 0.4293247 -0.4923286
1920 0.4077265 -0.4887418 0.5922735 0.4887418 0.5922735 0.4887418 0.4077265 -0.4887418
2008 0.3864837 -0.4842547 0.6135163 0.4842547 0.6135163 0.4842547 0.3864837 -0.4842547
2100 0.3656691 -0.4789098 0.6343309 0.4789098 0.6343309 0.4789098 0.3656691 -0.4789098
2196 0.3453494 -0.4727564 0.6546506 0.4727564 0.6546506 0.4727564 0.3453494 -0.4727564
2297 0.3255840 -0.4658494 0.6744160 0.4658494 0.6744160 0.4658494 0.3255840 -0.4658494
2402 0.3064247 -0.4582486 0.6935753 0.4582486 0.6935753 0.4582486 0.3064247 -0.4582486
2512 0.2879159 -0.4500168 0.7120841 0.4500168 0.7120841 0.4500168 0.2879159 -0.4500168
2627 0.2700937 -0.4412192 0.7299063 0.4412192 0.7299063 0.4412192 0.2700937 -0.4412192
2748 0.2529864 -0.4319223 0.7470136 0.4319223 0.7470136 0.4319223 0.2529864 -0.4319223
2873 0.2366146 -0.4221924 0.7633854 0.4221924 0.7633854 0.4221924 0.2366146 -0.4221924
3005 0.2209918 -0.4120952 0.7790082 0.4120952 0.7790082 0.4120952 0.2209918 -0.4120952
3143 0.2061245 -0.4016949 0.7938755 0.4016949 0.7938755 0.4016949 0.2061245 -0.4016949
3287 0.1920130 -0.3910531 0.8079870 0.3910531 0.8079870 0.3910531 0.1920130 -0.3910531
3437 0.1786521 -0.3802286 0.8213479 0.3802286 0.8213479 0.3802286 0.1786521 -0.3802286
3594 0.1660314 -0.3692768 0.8339686 0.3692768 0.8339686 0.3692768 0.1660314 -0.3692768
3759 0.1541363 -0.3582496 0.8458637 0.3582496 0.8458637 0.3582496 0.1541363 -0.3582496
3931 0.1429485 -0.3471948 0.8570515 0.3471948 0.8570515 0.3471948 0.1429485 -0.3471948
4111 0.1324465 -0.3361562 0.8675535 0.3361562 0.8675535 0.3361562 0.1324465 -0.3361562
4299 0.1226065 -0.3251735 0.8773935 0.3251735 0.8773935 0.3251735 0.1226065 -0.3251735
4496 0.1134028 -0.3142825 0.8865972 0.3142825 0.8865972 0.3142825 0.1134028 -0.3142825
4702 0.1048082 -0.3035149 0.8951918 0.3035149 0.8951918 0.3035149 0.1048082 -0.3035149
4918 0.0967946 -0.2928986 0.9032054 0.2928986 0.9032054 0.2928986 0.0967946 -0.2928986
5143 0.0893334 -0.2824578 0.9106666 0.2824578 0.9106666 0.2824578 0.0893334 -0.2824578
5378 0.0823958 -0.2722134 0.9176042 0.2722134 0.9176042 0.2722134 0.0823958 -0.2722134
5625 0.0759530 -0.2621831 0.9240470 0.2621831 0.9240470 0.2621831 0.0759530 -0.2621831
5882 0.0699767 -0.2523814 0.9300233 0.2523814 0.9300233 0.2523814 0.0699767 -0.2523814
6151 0.0644390 -0.2428202 0.9355610 0.2428202 0.9355610 0.2428202 0.0644390 -0.2428202
6433 0.0593129 -0.2335091 0.9406871 0.2335091 0.9406871 0.2335091 0.0593129 -0.2335091
6728 0.0545723 -0.2244550 0.9454277 0.2244550 0.9454277 0.2244550 0.0545723 -0.2244550
7036 0.0501919 -0.2156631 0.9498081 0.2156631 0.9498081 0.2156631 0.0501919 -0.2156631
7358 0.0461476 -0.2071367 0.9538524 0.2071367 0.9538524 0.2071367 0.0461476 -0.2071367
7695 0.0424165 -0.1988774 0.9575835 0.1988774 0.9575835 0.1988774 0.0424165 -0.1988774
8047 0.0389766 -0.1908854 0.9610234 0.1908854 0.9610234 0.1908854 0.0389766 -0.1908854
8416 0.0358072 -0.1831598 0.9641928 0.1831598 0.9641928 0.1831598 0.0358072 -0.1831598
8801 0.0328888 -0.1756984 0.9671112 0.1756984 0.9671112 0.1756984 0.0328888 -0.1756984
9204 0.0302029 -0.1684982 0.9697971 0.1684982 0.9697971 0.1684982 0.0302029 -0.1684982
9626 0.0277322 -0.1615554 0.9722678 0.1615554 0.9722678 0.1615554 0.0277322 -0.1615554
10066 0.0254605 -0.1548655 0.9745395 0.1548655 0.9745395 0.1548655 0.0254605 -0.1548655
10527 0.0233727 -0.1484234 0.9766273 0.1484234 0.9766273 0.1484234 0.0233727 -0.1484234
11009 0.0214545 -0.1422236 0.9785455 0.1422236 0.9785455 0.1422236 0.0214545 -0.1422236
11514 0.0196928 -0.1362602 0.9803072 0.1362602 0.9803072 0.1362602 0.0196928 -0.1362602
12041 0.0180754 -0.1305272 0.9819246 0.1305272 0.9819246 0.1305272 0.0180754 -0.1305272
12592 0.0165907 -0.1250180 0.9834093 0.1250180 0.9834093 0.1250180 0.0165907 -0.1250180
13169 0.0152283 -0.1197263 0.9847717 0.1197263 0.9847717 0.1197263 0.0152283 -0.1197263
13772 0.0139783 -0.1146453 0.9860217 0.1146453 0.9860217 0.1146453 0.0139783 -0.1146453
14402 0.0128316 -0.1097684 0.9871684 0.1097684 0.9871684 0.1097684 0.0128316 -0.1097684
15062 0.0117800 -0.1050889 0.9882200 0.1050889 0.9882200 0.1050889 0.0117800 -0.1050889
15752 0.0108155 -0.1006001 0.9891845 0.1006001 0.9891845 0.1006001 0.0108155 -0.1006001
16473 0.0099312 -0.0962955 0.9900688 0.0962955 0.9900688 0.0962955 0.0099312 -0.0962955
17227 0.0091203 -0.0921684 0.9908797 0.0921684 0.9908797 0.0921684 0.0091203 -0.0921684
18016 0.0083768 -0.0882124 0.9916232 0.0882124 0.9916232 0.0882124 0.0083768 -0.0882124
18841 0.0076952 -0.0844212 0.9923048 0.0844212 0.9923048 0.0844212 0.0076952 -0.0844212
19704 0.0070702 -0.0807886 0.9929298 0.0807886 0.9929298 0.0807886 0.0070702 -0.0807886
20606 0.0064972 -0.0773086 0.9935028 0.0773086 0.9935028 0.0773086 0.0064972 -0.0773086
21550 0.0059717 -0.0739753 0.9940283 0.0739753 0.9940283 0.0739753 0.0059717 -0.0739753
22537 0.0054899 -0.0707828 0.9945101 0.0707828 0.9945101 0.0707828 0.0054899 -0.0707828
23569 0.0050480 -0.0677257 0.9949520 0.0677257 0.9949520 0.0677257 0.0050480 -0.0677257
24648 0.0046428 -0.0647985 0.9953572 0.0647985 0.9953572 0.0647985 0.0046428 -0.0647985
25777 0.0042710 -0.0619959 0.9957290 0.0619959 0.9957290 0.0619959 0.0042710 -0.0619959
26957 0.0039300 -0.0593130 0.9960700 0.0593130 0.9960700 0.0593130 0.0039300 -0.0593130
28191 0.0036170 -0.0567447 0.9963830 0.0567447 0.9963830 0.0567447 0.0036170 -0.0567447
29482 0.0033298 -0.0542864 0.9966702 0.0542864 0.9966702 0.0542864 0.0033298 -0.0542864
30832 0.0030662 -0.0519335 0.9969338 0.0519335 0.9969338 0.0519335 0.0030662 -0.0519335
32244 0.0028242 -0.0496817 0.9971758 0.0496817 0.9971758 0.0496817 0.0028242 -0.0496817
33721 0.0026020 -0.0475266 0.9973980 0.0475266 0.9973980 0.0475266 0.0026020 -0.0475266
35265 0.0023980 -0.0454642 0.9976020 0.0454642 0.9976020 0.0454642 0.0023980 -0.0454642
36880 0.0022106 -0.0434906 0.9977894 0.0434906 0.9977894 0.0434906 0.0022106 -0.0434906
38569 0.0020384 -0.0416021 0.9979616 0.0416021 0.9979616 0.0416021 0.0020384 -0.0416021
40335 0.0018803 -0.0397949 0.9981197 0.0397949 0.9981197 0.0397949 0.0018803 -0.0397949
42182 0.0017350 -0.0380658 0.9982650 0.0380658 0.9982650 0.0380658 0.0017350 -0.0380658
44113 0.0016015 -0.0364113 0.9983985 0.0364113 0.9983985 0.0364113 0.0016015 -0.0364113
46134 0.0014788 -0.0348283 0.9985212 0.0348283 0.9985212 0.0348283 0.0014788 -0.0348283
48246 0.0013660 -0.0333137 0.9986340 0.0333137 0.9986340 0.0333137 0.0013660 -0.0333137
50455 0.0012624 -0.0318646 0.9987376 0.0318646 0.9987376 0.0318646 0.0012624 -0.0318646
52766 0.0011671 -0.0304782 0.9988329 0.0304782 0.9988329 0.0304782 0.0011671 -0.0304782
55182 0.0010795 -0.0291519 0.9989205 0.0291519 0.9989205 0.0291519 0.0010795 -0.0291519
57709 0.0009991 -0.0278829 0.9990009 0.0278829 0.9990009 0.0278829 0.0009991 -0.0278829
60352 0.0009251 -0.0266690 0.9990749 0.0266690 0.9990749 0.0266690 0.0009251 -0.0266690
63115 0.0008571 -0.0255077 0.9991429 0.0255077 0.9991429 0.0255077 0.0008571 -0.0255077
66005 0.0007945 -0.0243967 0.9992055 0.0243967 0.9992055 0.0243967 0.0007945 -0.0243967
69028 0.0007371 -0.0233340 0.9992629 0.0233340 0.9992629 0.0233340 0.0007371 -0.0233340
72189 0.0006842 -0.0223174 0.9993158 0.0223174 0.9993158 0.0223174 0.0006842 -0.0223174
75495 0.0006356 -0.0213449 0.9993644 0.0213449 0.9993644 0.0213449 0.0006356 -0.0213449
78952 0.0005910 -0.0204147 0.9994090 0.0204147 0.9994090 0.0204147 0.0005910 -0.0204147
82567 0.0005499 -0.0195249 0.9994501 0.0195249 0.9994501 0.0195249 0.0005499 -0.0195249
86348 0.0005121 -0.0186738 0.9994879 0.0186738 0.9994879 0.0186738 0.0005121 -0.0186738
90302 0.0004773 -0.0178598 0.9995227 0.0178598 0.9995227 0.0178598 0.0004773 -0.0178598
94437 0.0004452 -0.0170812 0.9995548 0.0170812 0.9995548 0.0170812 0.0004452 -0.0170812
98762 0.0004158 -0.0163364 0.9995842 0.0163364 0.9995842 0.0163364 0.0004158 -0.0163364
103284 0.0003886 -0.0156241 0.9996114 0.0156241 0.9996114 0.0156241 0.0003886 -0.0156241
108014 0.0003636 -0.0149428 0.9996364 0.0149428 0.9996364 0.0149428 0.0003636 -0.0149428
112960 0.0003405 -0.0142912 0.9996595 0.0142912 0.9996595 0.0142912 0.0003405 -0.0142912
118133 0.0003192 -0.0136679 0.9996808 0.0136679 0.9996808 0.0136679 0.0003192 -0.0136679
123542 0.0002996 -0.0130718 0.9997004 0.0130718 0.9997004 0.0130718 0.0002996 -0.0130718
129199 0.0002814 -0.0125017 0.9997186 0.0125017 0.9997186 0.0125017 0.0002814 -0.0125017
135116 0.0002646 -0.0119564 0.9997354 0.0119564 0.9997354 0.0119564 0.0002646 -0.0119564
141303 0.0002491 -0.0114349 0.9997509 0.0114349 0.9997509 0.0114349 0.0002491 -0.0114349
147774 0.0002347 -0.0109360 0.9997653 0.0109360 0.9997653 0.0109360 0.0002347 -0.0109360
154540 0.0002214 -0.0104589 0.9997786 0.0104589 0.9997786 0.0104589 0.0002214 -0.0104589
161617 0.0002090 -0.0100026 0.9997910 0.0100026 0.9997910 0.0100026 0.0002090 -0.0100026
169018 0.0001975 -0.0095661 0.9998025 0.0095661 0.9998025 0.0095661 0.0001975 -0.0095661
176758 0.0001869 -0.0091486 0.9998131 0.0091486 0.9998131 0.0091486 0.0001869 -0.0091486
184852 0.0001770 -0.0087492 0.9998230 0.0087492 0.9998230 0.0087492 0.0001770 -0.0087492
193316 0.0001677 -0.0083672 0.9998323 0.0083672 0.9998323 0.0083672 0.0001677 -0.0083672
202169 0.0001591 -0.0080018 0.9998409 0.0080018 0.9998409 0.0080018 0.0001591 -0.0080018
211427 0.0001511 -0.0076522 0.9998489 0.0076522 0.9998489 0.0076522 0.0001511 -0.0076522
221108 0.0001436 -0.0073178 0.9998564 0.0073178 0.9998564 0.0073178 0.0001436 -0.0073178
231233 0.0001367 -0.0069979 0.9998633 0.0069979 0.9998633 0.0069979 0.0001367 -0.0069979
241822 0.0001301 -0.0066919 0.9998699 0.0066919 0.9998699 0.0066919 0.0001301 -0.0066919
252896 0.0001241 -0.0063991 0.9998759 0.0063991 0.9998759 0.0063991 0.0001241 -0.0063991
264476 0.0001184 -0.0061190 0.9998816 0.0061190 0.9998816 0.0061190 0.0001184 -0.0061190
276587 0.0001131 -0.0058511 0.9998869 0.0058511 0.9998869 0.0058511 0.0001131 -0.0058511
289253 0.0001082 -0.0055947 0.9998918 0.0055947 0.9998918 0.0055947 0.0001082 -0.0055947
302498 0.0001036 -0.0053493 0.9998964 0.0053493 0.9998964 0.0053493 0.0001036 -0.0053493
316350 0.0000993 -0.0051146 0.9999007 0.0051146 0.9999007 0.0051146 0.0000993 -0.0051146
330837 0.0000953 -0.0048900 0.9999047 0.0048900 0.9999047 0.0048900 0.0000953 -0.0048900
345986 0.0000916 -0.0046751 0.9999084 0.0046751 0.9999084 0.0046751 0.0000916 -0.0046751
361830 0.0000881 -0.0044694 0.9999119 0.0044694 0.9999119 0.0044694 0.0000881 -0.0044694
378399 0.0000849 -0.0042726 0.9999151 0.0042726 0.9999151 0.0042726 0.0000849 -0.0042726
395726 0.0000819 -0.0040843 0.9999181 0.0040843 0.9999181 0.0040843 0.0000819 -0.0040843
413847 0.0000791 -0.0039040 0.9999209 0.0039040 0.9999209 0.0039040 0.0000791 -0.0039040
432798 0.0000765 -0.0037315 0.9999235 0.0037315 0.9999235 0.0037315 0.0000765 -0.0037315
452617 0.0000741 -0.0035664 0.9999259 0.0035664 0.9999259 0.0035664 0.0000741 -0.0035664
473344 0.0000719 -0.0034084 0.9999281 0.0034084 0.9999281 0.0034084 0.0000719 -0.0034084
495019 0.0000698 -0.0032572 0.9999302 0.0032572 0.9999302 0.0032572 0.0000698 -0.0032572
517687 0.0000680 -0.0031124 0.9999320 0.0031124 0.9999320 0.0031124 0.0000680 -0.0031124
541393 0.0000662 -0.0029738 0.9999338 0.0029738 0.9999338 0.0029738 0.0000662 -0.0029738
566185 0.0000646 -0.0028412 0.9999354 0.0028412 0.9999354 0.0028412 0.0000646 -0.0028412
592111 0.0000631 -0.0027141 0.9999369 0.0027141 0.9999369 0.0027141 0.0000631 -0.0027141
619225 0.0000617 -0.0025925 0.9999383 0.0025925 0.9999383 0.0025925 0.0000617 -0.0025925
647581 0.0000605 -0.0024761 0.9999395 0.0024761 0.9999395 0.0024761 0.0000605 -0.0024761
677235 0.0000593 -0.0023645 0.9999407 0.0023645 0.9999407 0.0023645 0.0000593 -0.0023645
708247 0.0000583 -0.0022577 0.9999417 0.0022577 0.9999417 0.0022577 0.0000583 -0.0022577
740679 0.0000573 -0.0021554 0.9999427 0.0021554 0.9999427 0.0021554 0.0000573 -0.0021554
774597 0.0000564 -0.0020574 0.9999436 0.0020574 0.9999436 0.0020574 0.0000564 -0.0020574
810067 0.0000556 -0.0019635 0.9999444 0.0019635 0.9999444 0.0019635 0.0000556 -0.0019635
847162 0.0000549 -0.0018735 0.9999451 0.0018735 0.9999451 0.0018735 0.0000549 -0.0018735
885955 0.0000542 -0.0017873 0.9999458 0.0017873 0.9999458 0.0017873 0.0000542 -0.0017873
926525 0.0000536 -0.0017046 0.9999464 0.0017046 0.9999464 0.0017046 0.0000536 -0.0017046
968953 0.0000531 -0.0016253 0.9999469 0.0016253 0.9999469 0.0016253 0.0000531 -0.0016253
1013323 0.0000526 -0.0015493 0.9999474 0.0015493 0.9999474 0.0015493 0.0000526 -0.0015493
1059725 0.0000521 -0.0014763 0.9999479 0.0014763 0.9999479 0.0014763 0.0000521 -0.0014763
1108252 0.0000518 -0.0014063 0.9999482 0.0014063 0.9999482 0.0014063 0.0000518 -0.0014063
1159002 0.0000514 -0.0013392 0.9999486 0.0013392 0.9999486 0.0013392 0.0000514 -0.0013392
1212075 0.0000511 -0.0012747 0.9999489 0.0012747 0.9999489 0.0012747 0.0000511 -0.0012747
1267578 0.0000509 -0.0012127 0.9999491 0.0012127 0.9999491 0.0012127 0.0000509 -0.0012127
1325623 0.0000507 -0.0011532 0.9999493 0.0011532 0.9999493 0.0011532 0.0000507 -0.0011532
1386327 0.0000505 -0.0010960 0.9999495 0.0010960 0.9999495 0.0010960 0.0000505 -0.0010960
1449809 0.0000504 -0.0010409 0.9999496 0.0010409 0.9999496 0.0010409 0.0000504 -0.0010409
1516199 0.0000503 -0.0009880 0.9999497 0.0009880 0.9999497 0.0009880 0.0000503 -0.0009880
1585629 0.0000503 -0.0009370 0.9999497 0.0009370 0.9999497 0.0009370 0.0000503 -0.0009370
1658239 0.0000503 -0.0008879 0.9999497 0.0008879 0.9999497 0.0008879 0.0000503 -0.0008879
1734173 0.0000503 -0.0008406 0.9999497 0.0008406 0.9999497 0.0008406 0.0000503 -0.0008406
1813585 0.0000504 -0.0007949 0.9999496 0.0007949 0.9999496 0.0007949 0.0000504 -0.0007949
1896632 0.0000505 -0.0007509 0.9999495 0.0007509 0.9999495 0.0007509 0.0000505 -0.0007509
1983483 0.0000507 -0.0007083 0.9999493 0.0007083 0.9999493 0.0007083 0.0000507 -0.0007083
2074311 0.0000508 -0.0006672 0.9999492 0.0006672 0.9999492 0.0006672 0.0000508 -0.0006672
