!Murata Part Number: GRM31AR72J222KW01
!These Parameters are Measured in Series Mode Connection
!Data Generated on Mar 30, 2021
!       o--ll--o
!Port1            Port2
!       o------o
!Operation Temp=25[degC], DC Bias Voltage=0[V]
!Freq. Start=100[kHz] Stop=6[GHz] 401[Steps]
# Hz S RI R 50
!Freq.(Hz) S11(Real) S11(Imag) S21(Real) S21(Imag) S12(Real) S12(Imag) S22(Real) S22(Imag)
100000 0.9825934 -0.1201072 0.0174066 0.1201072 0.0174066 0.1201072 0.9825934 -0.1201072
102789 0.9817337 -0.1232734 0.0182663 0.1232734 0.0182663 0.1232734 0.9817337 -0.1232734
105655 0.9808312 -0.1265186 0.0191688 0.1265186 0.0191688 0.1265186 0.9808312 -0.1265186
108602 0.9798838 -0.1298442 0.0201162 0.1298442 0.0201162 0.1298442 0.9798838 -0.1298442
111630 0.9788890 -0.1332519 0.0211110 0.1332519 0.0211110 0.1332519 0.9788890 -0.1332519
114743 0.9778443 -0.1367433 0.0221557 0.1367433 0.0221557 0.1367433 0.9778443 -0.1367433
117943 0.9767473 -0.1403199 0.0232527 0.1403199 0.0232527 0.1403199 0.9767473 -0.1403199
121232 0.9755950 -0.1439832 0.0244050 0.1439832 0.0244050 0.1439832 0.9755950 -0.1439832
124613 0.9743848 -0.1477348 0.0256152 0.1477348 0.0256152 0.1477348 0.9743848 -0.1477348
128088 0.9731134 -0.1515761 0.0268866 0.1515761 0.0268866 0.1515761 0.9731134 -0.1515761
131660 0.9717779 -0.1555085 0.0282221 0.1555085 0.0282221 0.1555085 0.9717779 -0.1555085
135332 0.9703748 -0.1595334 0.0296252 0.1595334 0.0296252 0.1595334 0.9703748 -0.1595334
139106 0.9689007 -0.1636520 0.0310993 0.1636520 0.0310993 0.1636520 0.9689007 -0.1636520
142985 0.9673521 -0.1678656 0.0326479 0.1678656 0.0326479 0.1678656 0.9673521 -0.1678656
146972 0.9657251 -0.1721753 0.0342749 0.1721753 0.0342749 0.1721753 0.9657251 -0.1721753
151071 0.9640158 -0.1765821 0.0359842 0.1765821 0.0359842 0.1765821 0.9640158 -0.1765821
155284 0.9622201 -0.1810869 0.0377799 0.1810869 0.0377799 0.1810869 0.9622201 -0.1810869
159614 0.9603338 -0.1856906 0.0396662 0.1856906 0.0396662 0.1856906 0.9603338 -0.1856906
164065 0.9583523 -0.1903938 0.0416477 0.1903938 0.0416477 0.1903938 0.9583523 -0.1903938
168641 0.9562712 -0.1951971 0.0437288 0.1951971 0.0437288 0.1951971 0.9562712 -0.1951971
173344 0.9540857 -0.2001009 0.0459143 0.2001009 0.0459143 0.2001009 0.9540857 -0.2001009
178178 0.9517907 -0.2051053 0.0482093 0.2051053 0.0482093 0.2051053 0.9517907 -0.2051053
183146 0.9493812 -0.2102104 0.0506188 0.2102104 0.0506188 0.2102104 0.9493812 -0.2102104
188254 0.9468519 -0.2154159 0.0531481 0.2154159 0.0531481 0.2154159 0.9468519 -0.2154159
193504 0.9441974 -0.2207216 0.0558026 0.2207216 0.0558026 0.2207216 0.9441974 -0.2207216
198900 0.9414119 -0.2261267 0.0585881 0.2261267 0.0585881 0.2261267 0.9414119 -0.2261267
204447 0.9384898 -0.2316304 0.0615102 0.2316304 0.0615102 0.2316304 0.9384898 -0.2316304
210148 0.9354252 -0.2372315 0.0645748 0.2372315 0.0645748 0.2372315 0.9354252 -0.2372315
216008 0.9322119 -0.2429284 0.0677881 0.2429284 0.0677881 0.2429284 0.9322119 -0.2429284
222032 0.9288437 -0.2487194 0.0711563 0.2487194 0.0711563 0.2487194 0.9288437 -0.2487194
228224 0.9253143 -0.2546025 0.0746857 0.2546025 0.0746857 0.2546025 0.9253143 -0.2546025
234589 0.9216172 -0.2605750 0.0783828 0.2605750 0.0783828 0.2605750 0.9216172 -0.2605750
241130 0.9177460 -0.2666341 0.0822540 0.2666341 0.0822540 0.2666341 0.9177460 -0.2666341
247855 0.9136940 -0.2727766 0.0863060 0.2727766 0.0863060 0.2727766 0.9136940 -0.2727766
254767 0.9094544 -0.2789988 0.0905456 0.2789988 0.0905456 0.2789988 0.9094544 -0.2789988
261871 0.9050206 -0.2852965 0.0949794 0.2852965 0.0949794 0.2852965 0.9050206 -0.2852965
269174 0.9003858 -0.2916651 0.0996142 0.2916651 0.0996142 0.2916651 0.9003858 -0.2916651
276681 0.8955433 -0.2980996 0.1044567 0.2980996 0.1044567 0.2980996 0.8955433 -0.2980996
284397 0.8904864 -0.3045944 0.1095136 0.3045944 0.1095136 0.3045944 0.8904864 -0.3045944
292328 0.8852084 -0.3111433 0.1147916 0.3111433 0.1147916 0.3111433 0.8852084 -0.3111433
300480 0.8797028 -0.3177398 0.1202972 0.3177398 0.1202972 0.3177398 0.8797028 -0.3177398
308859 0.8739632 -0.3243765 0.1260368 0.3243765 0.1260368 0.3243765 0.8739632 -0.3243765
317472 0.8679836 -0.3310459 0.1320164 0.3310459 0.1320164 0.3310459 0.8679836 -0.3310459
326326 0.8617577 -0.3377394 0.1382423 0.3377394 0.1382423 0.3377394 0.8617577 -0.3377394
335426 0.8552801 -0.3444483 0.1447199 0.3444483 0.1447199 0.3444483 0.8552801 -0.3444483
344780 0.8485453 -0.3511630 0.1514547 0.3511630 0.1514547 0.3511630 0.8485453 -0.3511630
354395 0.8415483 -0.3578734 0.1584517 0.3578734 0.1584517 0.3578734 0.8415483 -0.3578734
364278 0.8342845 -0.3645689 0.1657155 0.3645689 0.1657155 0.3645689 0.8342845 -0.3645689
374436 0.8267498 -0.3712382 0.1732502 0.3712382 0.1732502 0.3712382 0.8267498 -0.3712382
384878 0.8189407 -0.3778696 0.1810593 0.3778696 0.1810593 0.3778696 0.8189407 -0.3778696
395611 0.8108542 -0.3844508 0.1891458 0.3844508 0.1891458 0.3844508 0.8108542 -0.3844508
406644 0.8024880 -0.3909690 0.1975120 0.3909690 0.1975120 0.3909690 0.8024880 -0.3909690
417984 0.7938405 -0.3974108 0.2061595 0.3974108 0.2061595 0.3974108 0.7938405 -0.3974108
429640 0.7849107 -0.4037626 0.2150893 0.4037626 0.2150893 0.4037626 0.7849107 -0.4037626
441622 0.7756987 -0.4100102 0.2243013 0.4100102 0.2243013 0.4100102 0.7756987 -0.4100102
453937 0.7662053 -0.4161392 0.2337947 0.4161392 0.2337947 0.4161392 0.7662053 -0.4161392
466596 0.7564323 -0.4221349 0.2435677 0.4221349 0.2435677 0.4221349 0.7564323 -0.4221349
479608 0.7463823 -0.4279822 0.2536177 0.4279822 0.2536177 0.4279822 0.7463823 -0.4279822
492983 0.7360591 -0.4336662 0.2639409 0.4336662 0.2639409 0.4336662 0.7360591 -0.4336662
506731 0.7254673 -0.4391716 0.2745327 0.4391716 0.2745327 0.4391716 0.7254673 -0.4391716
520862 0.7146129 -0.4444833 0.2853871 0.4444833 0.2853871 0.4444833 0.7146129 -0.4444833
535387 0.7035028 -0.4495862 0.2964972 0.4495862 0.2964972 0.4495862 0.7035028 -0.4495862
550318 0.6921448 -0.4544655 0.3078552 0.4544655 0.3078552 0.4544655 0.6921448 -0.4544655
565664 0.6805482 -0.4591065 0.3194518 0.4591065 0.3194518 0.4591065 0.6805482 -0.4591065
581439 0.6687231 -0.4634950 0.3312769 0.4634950 0.3312769 0.4634950 0.6687231 -0.4634950
597654 0.6566808 -0.4676174 0.3433192 0.4676174 0.3433192 0.4676174 0.6566808 -0.4676174
614320 0.6444336 -0.4714604 0.3555664 0.4714604 0.3555664 0.4714604 0.6444336 -0.4714604
631452 0.6319950 -0.4750116 0.3680050 0.4750116 0.3680050 0.4750116 0.6319950 -0.4750116
649061 0.6193792 -0.4782593 0.3806208 0.4782593 0.3806208 0.4782593 0.6193792 -0.4782593
667162 0.6066015 -0.4811924 0.3933985 0.4811924 0.3933985 0.4811924 0.6066015 -0.4811924
685767 0.5936780 -0.4838012 0.4063220 0.4838012 0.4063220 0.4838012 0.5936780 -0.4838012
704891 0.5806256 -0.4860768 0.4193744 0.4860768 0.4193744 0.4860768 0.5806256 -0.4860768
724548 0.5674619 -0.4880112 0.4325381 0.4880112 0.4325381 0.4880112 0.5674619 -0.4880112
744754 0.5542051 -0.4895978 0.4457949 0.4895978 0.4457949 0.4895978 0.5542051 -0.4895978
765523 0.5408738 -0.4908313 0.4591262 0.4908313 0.4591262 0.4908313 0.5408738 -0.4908313
786871 0.5274873 -0.4917073 0.4725127 0.4917073 0.4725127 0.4917073 0.5274873 -0.4917073
808814 0.5140647 -0.4922231 0.4859353 0.4922231 0.4859353 0.4922231 0.5140647 -0.4922231
831370 0.5006258 -0.4923770 0.4993742 0.4923770 0.4993742 0.4923770 0.5006258 -0.4923770
854554 0.4871901 -0.4921687 0.5128099 0.4921687 0.5128099 0.4921687 0.4871901 -0.4921687
878385 0.4737772 -0.4915994 0.5262228 0.4915994 0.5262228 0.4915994 0.4737772 -0.4915994
902880 0.4604065 -0.4906714 0.5395935 0.4906714 0.5395935 0.4906714 0.4604065 -0.4906714
928059 0.4470971 -0.4893883 0.5529029 0.4893883 0.5529029 0.4893883 0.4470971 -0.4893883
953940 0.4338677 -0.4877550 0.5661323 0.4877550 0.5661323 0.4877550 0.4338677 -0.4877550
980542 0.4207367 -0.4857777 0.5792633 0.4857777 0.5792633 0.4857777 0.4207367 -0.4857777
1007887 0.4077216 -0.4834636 0.5922784 0.4834636 0.5922784 0.4834636 0.4077216 -0.4834636
1035994 0.3948395 -0.4808211 0.6051605 0.4808211 0.6051605 0.4808211 0.3948395 -0.4808211
1064885 0.3821067 -0.4778594 0.6178933 0.4778594 0.6178933 0.4778594 0.3821067 -0.4778594
1094581 0.3695385 -0.4745890 0.6304615 0.4745890 0.6304615 0.4745890 0.3695385 -0.4745890
1125106 0.3571495 -0.4710208 0.6428505 0.4710208 0.6428505 0.4710208 0.3571495 -0.4710208
1156481 0.3449533 -0.4671668 0.6550467 0.4671668 0.6550467 0.4671668 0.3449533 -0.4671668
1188732 0.3329625 -0.4630395 0.6670375 0.4630395 0.6670375 0.4630395 0.3329625 -0.4630395
1221882 0.3211888 -0.4586522 0.6788112 0.4586522 0.6788112 0.4586522 0.3211888 -0.4586522
1255957 0.3096426 -0.4540183 0.6903574 0.4540183 0.6903574 0.4540183 0.3096426 -0.4540183
1290982 0.2983336 -0.4491519 0.7016664 0.4491519 0.7016664 0.4491519 0.2983336 -0.4491519
1326984 0.2872701 -0.4440674 0.7127299 0.4440674 0.7127299 0.4440674 0.2872701 -0.4440674
1363989 0.2764596 -0.4387792 0.7235404 0.4387792 0.7235404 0.4387792 0.2764596 -0.4387792
1402027 0.2659085 -0.4333019 0.7340915 0.4333019 0.7340915 0.4333019 0.2659085 -0.4333019
1441125 0.2556220 -0.4276504 0.7443780 0.4276504 0.7443780 0.4276504 0.2556220 -0.4276504
1481314 0.2456045 -0.4218391 0.7543955 0.4218391 0.7543955 0.4218391 0.2456045 -0.4218391
1522623 0.2358594 -0.4158828 0.7641406 0.4158828 0.7641406 0.4158828 0.2358594 -0.4158828
1565085 0.2263891 -0.4097958 0.7736109 0.4097958 0.7736109 0.4097958 0.2263891 -0.4097958
1608730 0.2171952 -0.4035922 0.7828048 0.4035922 0.7828048 0.4035922 0.2171952 -0.4035922
1653593 0.2082784 -0.3972859 0.7917216 0.3972859 0.7917216 0.3972859 0.2082784 -0.3972859
1699707 0.1996386 -0.3908905 0.8003614 0.3908905 0.8003614 0.3908905 0.1996386 -0.3908905
1747106 0.1912749 -0.3844190 0.8087251 0.3844190 0.8087251 0.3844190 0.1912749 -0.3844190
1795828 0.1831858 -0.3778843 0.8168142 0.3778843 0.8168142 0.3778843 0.1831858 -0.3778843
1845908 0.1753691 -0.3712986 0.8246309 0.3712986 0.8246309 0.3712986 0.1753691 -0.3712986
1897385 0.1678220 -0.3646738 0.8321780 0.3646738 0.8321780 0.3646738 0.1678220 -0.3646738
1950297 0.1605411 -0.3580211 0.8394589 0.3580211 0.8394589 0.3580211 0.1605411 -0.3580211
2004685 0.1535226 -0.3513514 0.8464774 0.3513514 0.8464774 0.3513514 0.1535226 -0.3513514
2060590 0.1467622 -0.3446749 0.8532378 0.3446749 0.8532378 0.3446749 0.1467622 -0.3446749
2118054 0.1402553 -0.3380014 0.8597447 0.3380014 0.8597447 0.3380014 0.1402553 -0.3380014
2177120 0.1339968 -0.3313400 0.8660032 0.3313400 0.8660032 0.3313400 0.1339968 -0.3313400
2237833 0.1279813 -0.3246995 0.8720187 0.3246995 0.8720187 0.3246995 0.1279813 -0.3246995
2300240 0.1222033 -0.3180879 0.8777967 0.3180879 0.8777967 0.3180879 0.1222033 -0.3180879
2364387 0.1166570 -0.3115129 0.8833430 0.3115129 0.8833430 0.3115129 0.1166570 -0.3115129
2430322 0.1113362 -0.3049814 0.8886638 0.3049814 0.8886638 0.3049814 0.1113362 -0.3049814
2498097 0.1062350 -0.2985002 0.8937650 0.2985002 0.8937650 0.2985002 0.1062350 -0.2985002
2567761 0.1013470 -0.2920751 0.8986530 0.2920751 0.8986530 0.2920751 0.1013470 -0.2920751
2639368 0.0966659 -0.2857119 0.9033341 0.2857119 0.9033341 0.2857119 0.0966659 -0.2857119
2712972 0.0921853 -0.2794155 0.9078147 0.2794155 0.9078147 0.2794155 0.0921853 -0.2794155
2788629 0.0878987 -0.2731906 0.9121013 0.2731906 0.9121013 0.2731906 0.0878987 -0.2731906
2866396 0.0837999 -0.2670414 0.9162001 0.2670414 0.9162001 0.2670414 0.0837999 -0.2670414
2946331 0.0798824 -0.2609717 0.9201176 0.2609717 0.9201176 0.2609717 0.0798824 -0.2609717
3028495 0.0761398 -0.2549849 0.9238602 0.2549849 0.9238602 0.2549849 0.0761398 -0.2549849
3112951 0.0725659 -0.2490839 0.9274341 0.2490839 0.9274341 0.2490839 0.0725659 -0.2490839
3199762 0.0691544 -0.2432714 0.9308456 0.2432714 0.9308456 0.2432714 0.0691544 -0.2432714
3288994 0.0658994 -0.2375497 0.9341006 0.2375497 0.9341006 0.2375497 0.0658994 -0.2375497
3380714 0.0627947 -0.2319207 0.9372053 0.2319207 0.9372053 0.2319207 0.0627947 -0.2319207
3474992 0.0598345 -0.2263860 0.9401655 0.2263860 0.9401655 0.2263860 0.0598345 -0.2263860
3571899 0.0570131 -0.2209471 0.9429869 0.2209471 0.9429869 0.2209471 0.0570131 -0.2209471
3671508 0.0543247 -0.2156050 0.9456753 0.2156050 0.9456753 0.2156050 0.0543247 -0.2156050
3773896 0.0517640 -0.2103606 0.9482360 0.2103606 0.9482360 0.2103606 0.0517640 -0.2103606
3879139 0.0493256 -0.2052145 0.9506744 0.2052145 0.9506744 0.2052145 0.0493256 -0.2052145
3987316 0.0470043 -0.2001670 0.9529957 0.2001670 0.9529957 0.2001670 0.0470043 -0.2001670
4098510 0.0447951 -0.1952184 0.9552049 0.1952184 0.9552049 0.1952184 0.0447951 -0.1952184
4212806 0.0426931 -0.1903686 0.9573069 0.1903686 0.9573069 0.1903686 0.0426931 -0.1903686
4330288 0.0406936 -0.1856175 0.9593064 0.1856175 0.9593064 0.1856175 0.0406936 -0.1856175
4451047 0.0387920 -0.1809647 0.9612080 0.1809647 0.9612080 0.1809647 0.0387920 -0.1809647
4575173 0.0369839 -0.1764097 0.9630161 0.1764097 0.9630161 0.1764097 0.0369839 -0.1764097
4702761 0.0352651 -0.1719520 0.9647349 0.1719520 0.9647349 0.1719520 0.0352651 -0.1719520
4833907 0.0336315 -0.1675907 0.9663685 0.1675907 0.9663685 0.1675907 0.0336315 -0.1675907
4968711 0.0320790 -0.1633251 0.9679210 0.1633251 0.9679210 0.1633251 0.0320790 -0.1633251
5107273 0.0306041 -0.1591542 0.9693959 0.1591542 0.9693959 0.1591542 0.0306041 -0.1591542
5249700 0.0292029 -0.1550769 0.9707971 0.1550769 0.9707971 0.1550769 0.0292029 -0.1550769
5396098 0.0278720 -0.1510922 0.9721280 0.1510922 0.9721280 0.1510922 0.0278720 -0.1510922
5546579 0.0266080 -0.1471989 0.9733920 0.1471989 0.9733920 0.1471989 0.0266080 -0.1471989
5701257 0.0254077 -0.1433956 0.9745923 0.1433956 0.9745923 0.1433956 0.0254077 -0.1433956
5860248 0.0242681 -0.1396812 0.9757319 0.1396812 0.9757319 0.1396812 0.0242681 -0.1396812
6023672 0.0231861 -0.1360542 0.9768139 0.1360542 0.9768139 0.1360542 0.0231861 -0.1360542
6191655 0.0221590 -0.1325133 0.9778410 0.1325133 0.9778410 0.1325133 0.0221590 -0.1325133
6364321 0.0211840 -0.1290570 0.9788160 0.1290570 0.9788160 0.1290570 0.0211840 -0.1290570
6541803 0.0202586 -0.1256840 0.9797414 0.1256840 0.9797414 0.1256840 0.0202586 -0.1256840
6724235 0.0193802 -0.1223926 0.9806198 0.1223926 0.9806198 0.1223926 0.0193802 -0.1223926
6911753 0.0185465 -0.1191815 0.9814535 0.1191815 0.9814535 0.1191815 0.0185465 -0.1191815
7104501 0.0177553 -0.1160490 0.9822447 0.1160490 0.9822447 0.1160490 0.0177553 -0.1160490
7302625 0.0170044 -0.1129938 0.9829956 0.1129938 0.9829956 0.1129938 0.0170044 -0.1129938
7506273 0.0162918 -0.1100142 0.9837082 0.1100142 0.9837082 0.1100142 0.0162918 -0.1100142
7715601 0.0156154 -0.1071087 0.9843846 0.1071087 0.9843846 0.1071087 0.0156154 -0.1071087
7930766 0.0149735 -0.1042758 0.9850265 0.1042758 0.9850265 0.1042758 0.0149735 -0.1042758
8151931 0.0143643 -0.1015140 0.9856357 0.1015140 0.9856357 0.1015140 0.0143643 -0.1015140
8379264 0.0137860 -0.0988217 0.9862140 0.0988217 0.9862140 0.0988217 0.0137860 -0.0988217
8612937 0.0132370 -0.0961974 0.9867630 0.0961974 0.9867630 0.0961974 0.0132370 -0.0961974
8853126 0.0127159 -0.0936397 0.9872841 0.0936397 0.9872841 0.0936397 0.0127159 -0.0936397
9100013 0.0122211 -0.0911469 0.9877789 0.0911469 0.9877789 0.0911469 0.0122211 -0.0911469
9353785 0.0117513 -0.0887177 0.9882487 0.0887177 0.9882487 0.0887177 0.0117513 -0.0887177
9614634 0.0113052 -0.0863506 0.9886948 0.0863506 0.9886948 0.0863506 0.0113052 -0.0863506
9882758 0.0108814 -0.0840441 0.9891186 0.0840441 0.9891186 0.0840441 0.0108814 -0.0840441
10158358 0.0104788 -0.0817967 0.9895212 0.0817967 0.9895212 0.0817967 0.0104788 -0.0817967
10441645 0.0100963 -0.0796071 0.9899037 0.0796071 0.9899037 0.0796071 0.0100963 -0.0796071
10732831 0.0097328 -0.0774739 0.9902672 0.0774739 0.9902672 0.0774739 0.0097328 -0.0774739
11032137 0.0093872 -0.0753956 0.9906128 0.0753956 0.9906128 0.0753956 0.0093872 -0.0753956
11339791 0.0090586 -0.0733710 0.9909414 0.0733710 0.9909414 0.0733710 0.0090586 -0.0733710
11656024 0.0087460 -0.0713986 0.9912540 0.0713986 0.9912540 0.0713986 0.0087460 -0.0713986
11981075 0.0084487 -0.0694772 0.9915513 0.0694772 0.9915513 0.0694772 0.0084487 -0.0694772
12315192 0.0081657 -0.0676054 0.9918343 0.0676054 0.9918343 0.0676054 0.0081657 -0.0676054
12658625 0.0078963 -0.0657821 0.9921037 0.0657821 0.9921037 0.0657821 0.0078963 -0.0657821
13011637 0.0076397 -0.0640058 0.9923603 0.0640058 0.9923603 0.0640058 0.0076397 -0.0640058
13374492 0.0073952 -0.0622755 0.9926048 0.0622755 0.9926048 0.0622755 0.0073952 -0.0622755
13747467 0.0071621 -0.0605898 0.9928379 0.0605898 0.9928379 0.0605898 0.0071621 -0.0605898
14130843 0.0069399 -0.0589477 0.9930601 0.0589477 0.9930601 0.0589477 0.0069399 -0.0589477
14524910 0.0067279 -0.0573479 0.9932721 0.0573479 0.9932721 0.0573479 0.0067279 -0.0573479
14929966 0.0065255 -0.0557893 0.9934745 0.0557893 0.9934745 0.0557893 0.0065255 -0.0557893
15346318 0.0063323 -0.0542707 0.9936677 0.0542707 0.9936677 0.0542707 0.0063323 -0.0542707
15774281 0.0061477 -0.0527912 0.9938523 0.0527912 0.9938523 0.0527912 0.0061477 -0.0527912
16214179 0.0059712 -0.0513495 0.9940288 0.0513495 0.9940288 0.0513495 0.0059712 -0.0513495
16666344 0.0058025 -0.0499447 0.9941975 0.0499447 0.9941975 0.0499447 0.0058025 -0.0499447
17131118 0.0056410 -0.0485757 0.9943590 0.0485757 0.9943590 0.0485757 0.0056410 -0.0485757
17608854 0.0054863 -0.0472415 0.9945137 0.0472415 0.9945137 0.0472415 0.0054863 -0.0472415
18099912 0.0053382 -0.0459412 0.9946618 0.0459412 0.9946618 0.0459412 0.0053382 -0.0459412
18604665 0.0051963 -0.0446737 0.9948037 0.0446737 0.9948037 0.0446737 0.0051963 -0.0446737
19123493 0.0050601 -0.0434381 0.9949399 0.0434381 0.9949399 0.0434381 0.0050601 -0.0434381
19656790 0.0049295 -0.0422335 0.9950705 0.0422335 0.9950705 0.0422335 0.0049295 -0.0422335
20204959 0.0048042 -0.0410591 0.9951958 0.0410591 0.9951958 0.0410591 0.0048042 -0.0410591
20768415 0.0046838 -0.0399138 0.9953162 0.0399138 0.9953162 0.0399138 0.0046838 -0.0399138
21347584 0.0045681 -0.0387969 0.9954319 0.0387969 0.9954319 0.0387969 0.0045681 -0.0387969
21942904 0.0044569 -0.0377075 0.9955431 0.0377075 0.9955431 0.0377075 0.0044569 -0.0377075
22554827 0.0043500 -0.0366449 0.9956500 0.0366449 0.9956500 0.0366449 0.0043500 -0.0366449
23183813 0.0042472 -0.0356081 0.9957528 0.0356081 0.9957528 0.0356081 0.0042472 -0.0356081
23830340 0.0041482 -0.0345965 0.9958518 0.0345965 0.9958518 0.0345965 0.0041482 -0.0345965
24494897 0.0040529 -0.0336093 0.9959471 0.0336093 0.9959471 0.0336093 0.0040529 -0.0336093
25177987 0.0039612 -0.0326457 0.9960388 0.0326457 0.9960388 0.0326457 0.0039612 -0.0326457
25880126 0.0038728 -0.0317050 0.9961272 0.0317050 0.9961272 0.0317050 0.0038728 -0.0317050
26601845 0.0037877 -0.0307866 0.9962123 0.0307866 0.9962123 0.0307866 0.0037877 -0.0307866
27343691 0.0037058 -0.0298898 0.9962942 0.0298898 0.9962942 0.0298898 0.0037058 -0.0298898
28106225 0.0036268 -0.0290138 0.9963732 0.0290138 0.9963732 0.0290138 0.0036268 -0.0290138
28890023 0.0035507 -0.0281582 0.9964493 0.0281582 0.9964493 0.0281582 0.0035507 -0.0281582
29695680 0.0034774 -0.0273221 0.9965226 0.0273221 0.9965226 0.0273221 0.0034774 -0.0273221
30523804 0.0034067 -0.0265051 0.9965933 0.0265051 0.9965933 0.0265051 0.0034067 -0.0265051
31375021 0.0033387 -0.0257065 0.9966613 0.0257065 0.9966613 0.0257065 0.0033387 -0.0257065
32249977 0.0032731 -0.0249258 0.9967269 0.0249258 0.9967269 0.0249258 0.0032731 -0.0249258
33149332 0.0032100 -0.0241625 0.9967900 0.0241625 0.9967900 0.0241625 0.0032100 -0.0241625
34073768 0.0031492 -0.0234158 0.9968508 0.0234158 0.9968508 0.0234158 0.0031492 -0.0234158
35023984 0.0030907 -0.0226854 0.9969093 0.0226854 0.9969093 0.0226854 0.0030907 -0.0226854
36000698 0.0030344 -0.0219708 0.9969656 0.0219708 0.9969656 0.0219708 0.0030344 -0.0219708
37004650 0.0029802 -0.0212713 0.9970198 0.0212713 0.9970198 0.0212713 0.0029802 -0.0212713
38036599 0.0029281 -0.0205866 0.9970719 0.0205866 0.9970719 0.0205866 0.0029281 -0.0205866
39097326 0.0028780 -0.0199161 0.9971220 0.0199161 0.9971220 0.0199161 0.0028780 -0.0199161
