!Murata Part Number: GRM31MC81C685MA12
!These Parameters are Measured in Series Mode Connection
!Data Generated on Mar 30, 2021
!       o--ll--o
!Port1            Port2
!       o------o
!Operation Temp=25[degC], DC Bias Voltage=0[V]
!Freq. Start=100[Hz] Stop=6[GHz] 401[Steps]
# Hz S RI R 50
!Freq.(Hz) S11(Real) S11(Imag) S21(Real) S21(Imag) S12(Real) S12(Imag) S22(Real) S22(Imag)
100 0.9080335 -0.2796678 0.0919665 0.2796678 0.0919665 0.2796678 0.9080335 -0.2796678
105 0.9005985 -0.2898630 0.0994015 0.2898630 0.0994015 0.2898630 0.9005985 -0.2898630
109 0.8926228 -0.3002223 0.1073772 0.3002223 0.1073772 0.3002223 0.8926228 -0.3002223
114 0.8840791 -0.3107210 0.1159209 0.3107210 0.1159209 0.3107210 0.8840791 -0.3107210
120 0.8749412 -0.3213312 0.1250588 0.3213312 0.1250588 0.3213312 0.8749412 -0.3213312
125 0.8651841 -0.3320210 0.1348159 0.3320210 0.1348159 0.3320210 0.8651841 -0.3320210
131 0.8547842 -0.3427550 0.1452158 0.3427550 0.1452158 0.3427550 0.8547842 -0.3427550
137 0.8437201 -0.3534941 0.1562799 0.3534941 0.1562799 0.3534941 0.8437201 -0.3534941
143 0.8319733 -0.3641953 0.1680267 0.3641953 0.1680267 0.3641953 0.8319733 -0.3641953
150 0.8195282 -0.3748124 0.1804718 0.3748124 0.1804718 0.3748124 0.8195282 -0.3748124
156 0.8063730 -0.3852955 0.1936270 0.3852955 0.1936270 0.3852955 0.8063730 -0.3852955
164 0.7925002 -0.3955918 0.2074998 0.3955918 0.2074998 0.3955918 0.7925002 -0.3955918
171 0.7779073 -0.4056456 0.2220927 0.4056456 0.2220927 0.4056456 0.7779073 -0.4056456
179 0.7625970 -0.4153990 0.2374030 0.4153990 0.2374030 0.4153990 0.7625970 -0.4153990
187 0.7465778 -0.4247927 0.2534222 0.4247927 0.2534222 0.4247927 0.7465778 -0.4247927
196 0.7298647 -0.4337660 0.2701353 0.4337660 0.2701353 0.4337660 0.7298647 -0.4337660
205 0.7124790 -0.4422583 0.2875210 0.4422583 0.2875210 0.4422583 0.7124790 -0.4422583
214 0.6944487 -0.4502092 0.3055513 0.4502092 0.3055513 0.4502092 0.6944487 -0.4502092
224 0.6758091 -0.4575602 0.3241909 0.4575602 0.3241909 0.4575602 0.6758091 -0.4575602
234 0.6566019 -0.4642547 0.3433981 0.4642547 0.3433981 0.4642547 0.6566019 -0.4642547
245 0.6368756 -0.4702397 0.3631244 0.4702397 0.3631244 0.4702397 0.6368756 -0.4702397
256 0.6166851 -0.4754662 0.3833149 0.4754662 0.3833149 0.4754662 0.6166851 -0.4754662
268 0.5960910 -0.4798906 0.4039090 0.4798906 0.4039090 0.4798906 0.5960910 -0.4798906
280 0.5751593 -0.4834748 0.4248407 0.4834748 0.4248407 0.4834748 0.5751593 -0.4834748
293 0.5539604 -0.4861877 0.4460396 0.4861877 0.4460396 0.4861877 0.5539604 -0.4861877
306 0.5325683 -0.4880052 0.4674317 0.4880052 0.4674317 0.4880052 0.5325683 -0.4880052
320 0.5110596 -0.4889112 0.4889404 0.4889112 0.4889404 0.4889112 0.5110596 -0.4889112
335 0.4895129 -0.4888974 0.5104871 0.4888974 0.5104871 0.4888974 0.4895129 -0.4888974
350 0.4680068 -0.4879640 0.5319932 0.4879640 0.5319932 0.4879640 0.4680068 -0.4879640
366 0.4466197 -0.4861193 0.5533803 0.4861193 0.5533803 0.4861193 0.4466197 -0.4861193
383 0.4254284 -0.4833797 0.5745716 0.4833797 0.5745716 0.4833797 0.4254284 -0.4833797
401 0.4045068 -0.4797695 0.5954932 0.4797695 0.5954932 0.4797695 0.4045068 -0.4797695
419 0.3839253 -0.4753200 0.6160747 0.4753200 0.6160747 0.4753200 0.3839253 -0.4753200
438 0.3637499 -0.4700695 0.6362501 0.4700695 0.6362501 0.4700695 0.3637499 -0.4700695
458 0.3440411 -0.4640619 0.6559589 0.4640619 0.6559589 0.4640619 0.3440411 -0.4640619
479 0.3248537 -0.4573464 0.6751463 0.4573464 0.6751463 0.4573464 0.3248537 -0.4573464
501 0.3062360 -0.4499764 0.6937640 0.4499764 0.6937640 0.4499764 0.3062360 -0.4499764
524 0.2882297 -0.4420086 0.7117703 0.4420086 0.7117703 0.4420086 0.2882297 -0.4420086
548 0.2708698 -0.4335018 0.7291302 0.4335018 0.7291302 0.4335018 0.2708698 -0.4335018
573 0.2541839 -0.4245166 0.7458161 0.4245166 0.7458161 0.4245166 0.2541839 -0.4245166
600 0.2381934 -0.4151139 0.7618066 0.4151139 0.7618066 0.4151139 0.2381934 -0.4151139
627 0.2229126 -0.4053543 0.7770874 0.4053543 0.7770874 0.4053543 0.2229126 -0.4053543
656 0.2083499 -0.3952976 0.7916501 0.3952976 0.7916501 0.3952976 0.2083499 -0.3952976
686 0.1945076 -0.3850014 0.8054924 0.3850014 0.8054924 0.3850014 0.1945076 -0.3850014
717 0.1813828 -0.3745216 0.8186172 0.3745216 0.8186172 0.3745216 0.1813828 -0.3745216
750 0.1689677 -0.3639109 0.8310323 0.3639109 0.8310323 0.3639109 0.1689677 -0.3639109
784 0.1572502 -0.3532191 0.8427498 0.3532191 0.8427498 0.3532191 0.1572502 -0.3532191
820 0.1462143 -0.3424925 0.8537857 0.3424925 0.8537857 0.3424925 0.1462143 -0.3424925
858 0.1358411 -0.3317737 0.8641589 0.3317737 0.8641589 0.3317737 0.1358411 -0.3317737
897 0.1261091 -0.3211018 0.8738909 0.3211018 0.8738909 0.3211018 0.1261091 -0.3211018
938 0.1169943 -0.3105119 0.8830057 0.3105119 0.8830057 0.3105119 0.1169943 -0.3105119
981 0.1084716 -0.3000355 0.8915284 0.3000355 0.8915284 0.3000355 0.1084716 -0.3000355
1026 0.1005144 -0.2897006 0.8994856 0.2897006 0.8994856 0.2897006 0.1005144 -0.2897006
1073 0.0930956 -0.2795314 0.9069044 0.2795314 0.9069044 0.2795314 0.0930956 -0.2795314
1122 0.0861874 -0.2695489 0.9138126 0.2695489 0.9138126 0.2695489 0.0861874 -0.2695489
1174 0.0797623 -0.2597709 0.9202377 0.2597709 0.9202377 0.2597709 0.0797623 -0.2597709
1227 0.0737928 -0.2502123 0.9262072 0.2502123 0.9262072 0.2502123 0.0737928 -0.2502123
1283 0.0682517 -0.2408851 0.9317483 0.2408851 0.9317483 0.2408851 0.0682517 -0.2408851
1342 0.0631129 -0.2317990 0.9368871 0.2317990 0.9368871 0.2317990 0.0631129 -0.2317990
1404 0.0583506 -0.2229612 0.9416494 0.2229612 0.9416494 0.2229612 0.0583506 -0.2229612
1468 0.0539402 -0.2143769 0.9460598 0.2143769 0.9460598 0.2143769 0.0539402 -0.2143769
1535 0.0498580 -0.2060495 0.9501420 0.2060495 0.9501420 0.2060495 0.0498580 -0.2060495
1606 0.0460815 -0.1979807 0.9539185 0.1979807 0.9539185 0.1979807 0.0460815 -0.1979807
1679 0.0425892 -0.1901706 0.9574108 0.1901706 0.9574108 0.1901706 0.0425892 -0.1901706
1756 0.0393607 -0.1826183 0.9606393 0.1826183 0.9606393 0.1826183 0.0393607 -0.1826183
1836 0.0363770 -0.1753215 0.9636230 0.1753215 0.9636230 0.1753215 0.0363770 -0.1753215
1920 0.0336201 -0.1682772 0.9663799 0.1682772 0.9663799 0.1682772 0.0336201 -0.1682772
2008 0.0310730 -0.1614815 0.9689270 0.1614815 0.9689270 0.1614815 0.0310730 -0.1614815
2100 0.0287201 -0.1549298 0.9712799 0.1549298 0.9712799 0.1549298 0.0287201 -0.1549298
2196 0.0265466 -0.1486170 0.9734534 0.1486170 0.9734534 0.1486170 0.0265466 -0.1486170
2297 0.0245390 -0.1425375 0.9754610 0.1425375 0.9754610 0.1425375 0.0245390 -0.1425375
2402 0.0226846 -0.1366855 0.9773154 0.1366855 0.9773154 0.1366855 0.0226846 -0.1366855
2512 0.0209716 -0.1310547 0.9790284 0.1310547 0.9790284 0.1310547 0.0209716 -0.1310547
2627 0.0193893 -0.1256390 0.9806107 0.1256390 0.9806107 0.1256390 0.0193893 -0.1256390
2748 0.0179276 -0.1204318 0.9820724 0.1204318 0.9820724 0.1204318 0.0179276 -0.1204318
2873 0.0165774 -0.1154267 0.9834226 0.1154267 0.9834226 0.1154267 0.0165774 -0.1154267
3005 0.0153300 -0.1106171 0.9846700 0.1106171 0.9846700 0.1106171 0.0153300 -0.1106171
3143 0.0141777 -0.1059966 0.9858223 0.1059966 0.9858223 0.1059966 0.0141777 -0.1059966
3287 0.0131133 -0.1015589 0.9868867 0.1015589 0.9868867 0.1015589 0.0131133 -0.1015589
3437 0.0121300 -0.0972976 0.9878700 0.0972976 0.9878700 0.0972976 0.0121300 -0.0972976
3594 0.0112219 -0.0932066 0.9887781 0.0932066 0.9887781 0.0932066 0.0112219 -0.0932066
3759 0.0103831 -0.0892797 0.9896169 0.0892797 0.9896169 0.0892797 0.0103831 -0.0892797
3931 0.0096086 -0.0855112 0.9903914 0.0855112 0.9903914 0.0855112 0.0096086 -0.0855112
4111 0.0088936 -0.0818953 0.9911064 0.0818953 0.9911064 0.0818953 0.0088936 -0.0818953
4299 0.0082335 -0.0784263 0.9917665 0.0784263 0.9917665 0.0784263 0.0082335 -0.0784263
4496 0.0076242 -0.0750989 0.9923758 0.0750989 0.9923758 0.0750989 0.0076242 -0.0750989
4702 0.0070620 -0.0719078 0.9929380 0.0719078 0.9929380 0.0719078 0.0070620 -0.0719078
4918 0.0065434 -0.0688480 0.9934566 0.0688480 0.9934566 0.0688480 0.0065434 -0.0688480
5143 0.0060650 -0.0659143 0.9939350 0.0659143 0.9939350 0.0659143 0.0060650 -0.0659143
5378 0.0056239 -0.0631022 0.9943761 0.0631022 0.9943761 0.0631022 0.0056239 -0.0631022
5625 0.0052172 -0.0604068 0.9947828 0.0604068 0.9947828 0.0604068 0.0052172 -0.0604068
5882 0.0048423 -0.0578239 0.9951577 0.0578239 0.9951577 0.0578239 0.0048423 -0.0578239
6151 0.0044968 -0.0553489 0.9955032 0.0553489 0.9955032 0.0553489 0.0044968 -0.0553489
6433 0.0041784 -0.0529778 0.9958216 0.0529778 0.9958216 0.0529778 0.0041784 -0.0529778
6728 0.0038850 -0.0507064 0.9961150 0.0507064 0.9961150 0.0507064 0.0038850 -0.0507064
7036 0.0036147 -0.0485309 0.9963853 0.0485309 0.9963853 0.0485309 0.0036147 -0.0485309
7358 0.0033657 -0.0464475 0.9966343 0.0464475 0.9966343 0.0464475 0.0033657 -0.0464475
7695 0.0031362 -0.0444525 0.9968638 0.0444525 0.9968638 0.0444525 0.0031362 -0.0444525
8047 0.0029248 -0.0425423 0.9970752 0.0425423 0.9970752 0.0425423 0.0029248 -0.0425423
8416 0.0027299 -0.0407136 0.9972701 0.0407136 0.9972701 0.0407136 0.0027299 -0.0407136
8801 0.0025502 -0.0389630 0.9974498 0.0389630 0.9974498 0.0389630 0.0025502 -0.0389630
9204 0.0023845 -0.0372874 0.9976155 0.0372874 0.9976155 0.0372874 0.0023845 -0.0372874
9626 0.0022317 -0.0356837 0.9977683 0.0356837 0.9977683 0.0356837 0.0022317 -0.0356837
10066 0.0020905 -0.0341489 0.9979095 0.0341489 0.9979095 0.0341489 0.0020905 -0.0341489
10527 0.0019602 -0.0326802 0.9980398 0.0326802 0.9980398 0.0326802 0.0019602 -0.0326802
11009 0.0018396 -0.0312748 0.9981604 0.0312748 0.9981604 0.0312748 0.0018396 -0.0312748
11514 0.0017281 -0.0299301 0.9982719 0.0299301 0.9982719 0.0299301 0.0017281 -0.0299301
12041 0.0016248 -0.0286434 0.9983752 0.0286434 0.9983752 0.0286434 0.0016248 -0.0286434
12592 0.0015291 -0.0274124 0.9984709 0.0274124 0.9984709 0.0274124 0.0015291 -0.0274124
13169 0.0014401 -0.0262347 0.9985599 0.0262347 0.9985599 0.0262347 0.0014401 -0.0262347
13772 0.0013575 -0.0251079 0.9986425 0.0251079 0.9986425 0.0251079 0.0013575 -0.0251079
14402 0.0012806 -0.0240299 0.9987194 0.0240299 0.9987194 0.0240299 0.0012806 -0.0240299
15062 0.0012088 -0.0229986 0.9987912 0.0229986 0.9987912 0.0229986 0.0012088 -0.0229986
15752 0.0011419 -0.0220119 0.9988581 0.0220119 0.9988581 0.0220119 0.0011419 -0.0220119
16473 0.0010793 -0.0210679 0.9989207 0.0210679 0.9989207 0.0210679 0.0010793 -0.0210679
17227 0.0010206 -0.0201647 0.9989794 0.0201647 0.9989794 0.0201647 0.0010206 -0.0201647
18016 0.0009656 -0.0193005 0.9990344 0.0193005 0.9990344 0.0193005 0.0009656 -0.0193005
18841 0.0009139 -0.0184737 0.9990861 0.0184737 0.9990861 0.0184737 0.0009139 -0.0184737
19704 0.0008653 -0.0176824 0.9991347 0.0176824 0.9991347 0.0176824 0.0008653 -0.0176824
20606 0.0008195 -0.0169253 0.9991805 0.0169253 0.9991805 0.0169253 0.0008195 -0.0169253
21550 0.0007764 -0.0162007 0.9992236 0.0162007 0.9992236 0.0162007 0.0007764 -0.0162007
22537 0.0007356 -0.0155072 0.9992644 0.0155072 0.9992644 0.0155072 0.0007356 -0.0155072
23569 0.0006971 -0.0148434 0.9993029 0.0148434 0.9993029 0.0148434 0.0006971 -0.0148434
24648 0.0006607 -0.0142080 0.9993393 0.0142080 0.9993393 0.0142080 0.0006607 -0.0142080
25777 0.0006263 -0.0135999 0.9993737 0.0135999 0.9993737 0.0135999 0.0006263 -0.0135999
26957 0.0005937 -0.0130176 0.9994063 0.0130176 0.9994063 0.0130176 0.0005937 -0.0130176
28191 0.0005629 -0.0124602 0.9994371 0.0124602 0.9994371 0.0124602 0.0005629 -0.0124602
29482 0.0005338 -0.0119266 0.9994662 0.0119266 0.9994662 0.0119266 0.0005338 -0.0119266
30832 0.0005062 -0.0114156 0.9994938 0.0114156 0.9994938 0.0114156 0.0005062 -0.0114156
32244 0.0004801 -0.0109264 0.9995199 0.0109264 0.9995199 0.0109264 0.0004801 -0.0109264
33721 0.0004555 -0.0104579 0.9995445 0.0104579 0.9995445 0.0104579 0.0004555 -0.0104579
35265 0.0004323 -0.0100094 0.9995677 0.0100094 0.9995677 0.0100094 0.0004323 -0.0100094
36880 0.0004103 -0.0095799 0.9995897 0.0095799 0.9995897 0.0095799 0.0004103 -0.0095799
38569 0.0003897 -0.0091686 0.9996103 0.0091686 0.9996103 0.0091686 0.0003897 -0.0091686
40335 0.0003702 -0.0087748 0.9996298 0.0087748 0.9996298 0.0087748 0.0003702 -0.0087748
42182 0.0003519 -0.0083977 0.9996481 0.0083977 0.9996481 0.0083977 0.0003519 -0.0083977
44113 0.0003346 -0.0080367 0.9996654 0.0080367 0.9996654 0.0080367 0.0003346 -0.0080367
46134 0.0003184 -0.0076910 0.9996816 0.0076910 0.9996816 0.0076910 0.0003184 -0.0076910
48246 0.0003032 -0.0073600 0.9996968 0.0073600 0.9996968 0.0073600 0.0003032 -0.0073600
50455 0.0002890 -0.0070432 0.9997110 0.0070432 0.9997110 0.0070432 0.0002890 -0.0070432
52766 0.0002756 -0.0067398 0.9997244 0.0067398 0.9997244 0.0067398 0.0002756 -0.0067398
55182 0.0002631 -0.0064494 0.9997369 0.0064494 0.9997369 0.0064494 0.0002631 -0.0064494
57709 0.0002514 -0.0061715 0.9997486 0.0061715 0.9997486 0.0061715 0.0002514 -0.0061715
60352 0.0002404 -0.0059054 0.9997596 0.0059054 0.9997596 0.0059054 0.0002404 -0.0059054
63115 0.0002302 -0.0056507 0.9997698 0.0056507 0.9997698 0.0056507 0.0002302 -0.0056507
66005 0.0002206 -0.0054070 0.9997794 0.0054070 0.9997794 0.0054070 0.0002206 -0.0054070
69028 0.0002116 -0.0051737 0.9997884 0.0051737 0.9997884 0.0051737 0.0002116 -0.0051737
72189 0.0002031 -0.0049505 0.9997969 0.0049505 0.9997969 0.0049505 0.0002031 -0.0049505
75495 0.0001952 -0.0047369 0.9998048 0.0047369 0.9998048 0.0047369 0.0001952 -0.0047369
78952 0.0001878 -0.0045325 0.9998122 0.0045325 0.9998122 0.0045325 0.0001878 -0.0045325
82567 0.0001809 -0.0043369 0.9998191 0.0043369 0.9998191 0.0043369 0.0001809 -0.0043369
86348 0.0001743 -0.0041498 0.9998257 0.0041498 0.9998257 0.0041498 0.0001743 -0.0041498
90302 0.0001682 -0.0039708 0.9998318 0.0039708 0.9998318 0.0039708 0.0001682 -0.0039708
94437 0.0001624 -0.0037995 0.9998376 0.0037995 0.9998376 0.0037995 0.0001624 -0.0037995
98762 0.0001569 -0.0036356 0.9998431 0.0036356 0.9998431 0.0036356 0.0001569 -0.0036356
103284 0.0001517 -0.0034789 0.9998483 0.0034789 0.9998483 0.0034789 0.0001517 -0.0034789
108014 0.0001467 -0.0033289 0.9998533 0.0033289 0.9998533 0.0033289 0.0001467 -0.0033289
112960 0.0001420 -0.0031853 0.9998580 0.0031853 0.9998580 0.0031853 0.0001420 -0.0031853
118133 0.0001375 -0.0030480 0.9998625 0.0030480 0.9998625 0.0030480 0.0001375 -0.0030480
123542 0.0001333 -0.0029167 0.9998667 0.0029167 0.9998667 0.0029167 0.0001333 -0.0029167
129199 0.0001291 -0.0027910 0.9998709 0.0027910 0.9998709 0.0027910 0.0001291 -0.0027910
135116 0.0001252 -0.0026707 0.9998748 0.0026707 0.9998748 0.0026707 0.0001252 -0.0026707
141303 0.0001214 -0.0025556 0.9998786 0.0025556 0.9998786 0.0025556 0.0001214 -0.0025556
147774 0.0001177 -0.0024454 0.9998823 0.0024454 0.9998823 0.0024454 0.0001177 -0.0024454
154540 0.0001142 -0.0023400 0.9998858 0.0023400 0.9998858 0.0023400 0.0001142 -0.0023400
161617 0.0001107 -0.0022391 0.9998893 0.0022391 0.9998893 0.0022391 0.0001107 -0.0022391
169018 0.0001074 -0.0021425 0.9998926 0.0021425 0.9998926 0.0021425 0.0001074 -0.0021425
176758 0.0001042 -0.0020500 0.9998958 0.0020500 0.9998958 0.0020500 0.0001042 -0.0020500
184852 0.0001011 -0.0019615 0.9998989 0.0019615 0.9998989 0.0019615 0.0001011 -0.0019615
193316 0.0000980 -0.0018767 0.9999020 0.0018767 0.9999020 0.0018767 0.0000980 -0.0018767
202169 0.0000951 -0.0017954 0.9999049 0.0017954 0.9999049 0.0017954 0.0000951 -0.0017954
211427 0.0000922 -0.0017176 0.9999078 0.0017176 0.9999078 0.0017176 0.0000922 -0.0017176
221108 0.0000895 -0.0016431 0.9999105 0.0016431 0.9999105 0.0016431 0.0000895 -0.0016431
231233 0.0000868 -0.0015717 0.9999132 0.0015717 0.9999132 0.0015717 0.0000868 -0.0015717
241822 0.0000842 -0.0015033 0.9999158 0.0015033 0.9999158 0.0015033 0.0000842 -0.0015033
252896 0.0000817 -0.0014377 0.9999183 0.0014377 0.9999183 0.0014377 0.0000817 -0.0014377
264476 0.0000793 -0.0013748 0.9999207 0.0013748 0.9999207 0.0013748 0.0000793 -0.0013748
276587 0.0000770 -0.0013145 0.9999230 0.0013145 0.9999230 0.0013145 0.0000770 -0.0013145
289253 0.0000748 -0.0012567 0.9999252 0.0012567 0.9999252 0.0012567 0.0000748 -0.0012567
302498 0.0000727 -0.0012013 0.9999273 0.0012013 0.9999273 0.0012013 0.0000727 -0.0012013
316350 0.0000707 -0.0011482 0.9999293 0.0011482 0.9999293 0.0011482 0.0000707 -0.0011482
330837 0.0000688 -0.0010972 0.9999312 0.0010972 0.9999312 0.0010972 0.0000688 -0.0010972
345986 0.0000669 -0.0010483 0.9999331 0.0010483 0.9999331 0.0010483 0.0000669 -0.0010483
361830 0.0000652 -0.0010014 0.9999348 0.0010014 0.9999348 0.0010014 0.0000652 -0.0010014
378399 0.0000636 -0.0009564 0.9999364 0.0009564 0.9999364 0.0009564 0.0000636 -0.0009564
395726 0.0000620 -0.0009132 0.9999380 0.0009132 0.9999380 0.0009132 0.0000620 -0.0009132
413847 0.0000606 -0.0008717 0.9999394 0.0008717 0.9999394 0.0008717 0.0000606 -0.0008717
432798 0.0000592 -0.0008319 0.9999408 0.0008319 0.9999408 0.0008319 0.0000592 -0.0008319
452617 0.0000579 -0.0007937 0.9999421 0.0007937 0.9999421 0.0007937 0.0000579 -0.0007937
473344 0.0000567 -0.0007570 0.9999433 0.0007570 0.9999433 0.0007570 0.0000567 -0.0007570
495019 0.0000556 -0.0007218 0.9999444 0.0007218 0.9999444 0.0007218 0.0000556 -0.0007218
517687 0.0000546 -0.0006879 0.9999454 0.0006879 0.9999454 0.0006879 0.0000546 -0.0006879
541393 0.0000536 -0.0006554 0.9999464 0.0006554 0.9999464 0.0006554 0.0000536 -0.0006554
566185 0.0000528 -0.0006241 0.9999472 0.0006241 0.9999472 0.0006241 0.0000528 -0.0006241
592111 0.0000519 -0.0005940 0.9999481 0.0005940 0.9999481 0.0005940 0.0000519 -0.0005940
619225 0.0000512 -0.0005651 0.9999488 0.0005651 0.9999488 0.0005651 0.0000512 -0.0005651
647581 0.0000505 -0.0005373 0.9999495 0.0005373 0.9999495 0.0005373 0.0000505 -0.0005373
677235 0.0000499 -0.0005105 0.9999501 0.0005105 0.9999501 0.0005105 0.0000499 -0.0005105
708247 0.0000494 -0.0004847 0.9999506 0.0004847 0.9999506 0.0004847 0.0000494 -0.0004847
740679 0.0000489 -0.0004599 0.9999511 0.0004599 0.9999511 0.0004599 0.0000489 -0.0004599
774597 0.0000484 -0.0004359 0.9999516 0.0004359 0.9999516 0.0004359 0.0000484 -0.0004359
810067 0.0000480 -0.0004128 0.9999520 0.0004128 0.9999520 0.0004128 0.0000480 -0.0004128
847162 0.0000477 -0.0003905 0.9999523 0.0003905 0.9999523 0.0003905 0.0000477 -0.0003905
885955 0.0000474 -0.0003690 0.9999526 0.0003690 0.9999526 0.0003690 0.0000474 -0.0003690
926525 0.0000472 -0.0003482 0.9999528 0.0003482 0.9999528 0.0003482 0.0000472 -0.0003482
968953 0.0000470 -0.0003281 0.9999530 0.0003281 0.9999530 0.0003281 0.0000470 -0.0003281
1013323 0.0000469 -0.0003086 0.9999531 0.0003086 0.9999531 0.0003086 0.0000469 -0.0003086
1059725 0.0000468 -0.0002898 0.9999532 0.0002898 0.9999532 0.0002898 0.0000468 -0.0002898
1108252 0.0000467 -0.0002715 0.9999533 0.0002715 0.9999533 0.0002715 0.0000467 -0.0002715
1159002 0.0000467 -0.0002537 0.9999533 0.0002537 0.9999533 0.0002537 0.0000467 -0.0002537
1212075 0.0000468 -0.0002364 0.9999532 0.0002364 0.9999532 0.0002364 0.0000468 -0.0002364
1267578 0.0000469 -0.0002196 0.9999531 0.0002196 0.9999531 0.0002196 0.0000469 -0.0002196
1325623 0.0000471 -0.0002033 0.9999529 0.0002033 0.9999529 0.0002033 0.0000471 -0.0002033
1386327 0.0000473 -0.0001873 0.9999527 0.0001873 0.9999527 0.0001873 0.0000473 -0.0001873
1449809 0.0000475 -0.0001717 0.9999525 0.0001717 0.9999525 0.0001717 0.0000475 -0.0001717
1516199 0.0000478 -0.0001564 0.9999522 0.0001564 0.9999522 0.0001564 0.0000478 -0.0001564
1585629 0.0000482 -0.0001414 0.9999518 0.0001414 0.9999518 0.0001414 0.0000482 -0.0001414
1658239 0.0000487 -0.0001267 0.9999513 0.0001267 0.9999513 0.0001267 0.0000487 -0.0001267
1734173 0.0000492 -0.0001122 0.9999508 0.0001122 0.9999508 0.0001122 0.0000492 -0.0001122
1813585 0.0000498 -0.0000979 0.9999502 0.0000979 0.9999502 0.0000979 0.0000498 -0.0000979
1896632 0.0000505 -0.0000838 0.9999495 0.0000838 0.9999495 0.0000838 0.0000505 -0.0000838
1983483 0.0000513 -0.0000699 0.9999487 0.0000699 0.9999487 0.0000699 0.0000513 -0.0000699
2074311 0.0000522 -0.0000560 0.9999478 0.0000560 0.9999478 0.0000560 0.0000522 -0.0000560
