!Murata Part Number: GRM319R71H153KA01
!These Parameters are Measured in Series Mode Connection
!Data Generated on Mar 30, 2021
!       o--ll--o
!Port1            Port2
!       o------o
!Operation Temp=25[degC], DC Bias Voltage=0[V]
!Freq. Start=100[Hz] Stop=6[GHz] 401[Steps]
# Hz S RI R 50
!Freq.(Hz) S11(Real) S11(Imag) S21(Real) S21(Imag) S12(Real) S12(Imag) S22(Real) S22(Imag)
100 0.9999944 -0.0009520 0.0000056 0.0009520 0.0000056 0.0009520 0.9999944 -0.0009520
105 0.9999941 -0.0009955 0.0000059 0.0009955 0.0000059 0.0009955 0.9999941 -0.0009955
109 0.9999938 -0.0010409 0.0000062 0.0010409 0.0000062 0.0010409 0.9999938 -0.0010409
114 0.9999935 -0.0010884 0.0000065 0.0010884 0.0000065 0.0010884 0.9999935 -0.0010884
120 0.9999931 -0.0011381 0.0000069 0.0011381 0.0000069 0.0011381 0.9999931 -0.0011381
125 0.9999928 -0.0011901 0.0000072 0.0011901 0.0000072 0.0011901 0.9999928 -0.0011901
131 0.9999924 -0.0012444 0.0000076 0.0012444 0.0000076 0.0012444 0.9999924 -0.0012444
137 0.9999920 -0.0013012 0.0000080 0.0013012 0.0000080 0.0013012 0.9999920 -0.0013012
143 0.9999915 -0.0013606 0.0000085 0.0013606 0.0000085 0.0013606 0.9999915 -0.0013606
150 0.9999911 -0.0014227 0.0000089 0.0014227 0.0000089 0.0014227 0.9999911 -0.0014227
156 0.9999906 -0.0014876 0.0000094 0.0014876 0.0000094 0.0014876 0.9999906 -0.0014876
164 0.9999901 -0.0015555 0.0000099 0.0015555 0.0000099 0.0015555 0.9999901 -0.0015555
171 0.9999895 -0.0016265 0.0000105 0.0016265 0.0000105 0.0016265 0.9999895 -0.0016265
179 0.9999889 -0.0017008 0.0000111 0.0017008 0.0000111 0.0017008 0.9999889 -0.0017008
187 0.9999883 -0.0017784 0.0000117 0.0017784 0.0000117 0.0017784 0.9999883 -0.0017784
196 0.9999877 -0.0018596 0.0000123 0.0018596 0.0000123 0.0018596 0.9999877 -0.0018596
205 0.9999870 -0.0019445 0.0000130 0.0019445 0.0000130 0.0019445 0.9999870 -0.0019445
214 0.9999862 -0.0020332 0.0000138 0.0020332 0.0000138 0.0020332 0.9999862 -0.0020332
224 0.9999854 -0.0021260 0.0000146 0.0021260 0.0000146 0.0021260 0.9999854 -0.0021260
234 0.9999846 -0.0022231 0.0000154 0.0022231 0.0000154 0.0022231 0.9999846 -0.0022231
245 0.9999837 -0.0023246 0.0000163 0.0023246 0.0000163 0.0023246 0.9999837 -0.0023246
256 0.9999827 -0.0024307 0.0000173 0.0024307 0.0000173 0.0024307 0.9999827 -0.0024307
268 0.9999817 -0.0025417 0.0000183 0.0025417 0.0000183 0.0025417 0.9999817 -0.0025417
280 0.9999806 -0.0026577 0.0000194 0.0026577 0.0000194 0.0026577 0.9999806 -0.0026577
293 0.9999794 -0.0027790 0.0000206 0.0027790 0.0000206 0.0027790 0.9999794 -0.0027790
306 0.9999781 -0.0029059 0.0000219 0.0029059 0.0000219 0.0029059 0.9999781 -0.0029059
320 0.9999768 -0.0030386 0.0000232 0.0030386 0.0000232 0.0030386 0.9999768 -0.0030386
335 0.9999753 -0.0031773 0.0000247 0.0031773 0.0000247 0.0031773 0.9999753 -0.0031773
350 0.9999738 -0.0033224 0.0000262 0.0033224 0.0000262 0.0033224 0.9999738 -0.0033224
366 0.9999721 -0.0034741 0.0000279 0.0034741 0.0000279 0.0034741 0.9999721 -0.0034741
383 0.9999703 -0.0036328 0.0000297 0.0036328 0.0000297 0.0036328 0.9999703 -0.0036328
401 0.9999683 -0.0037987 0.0000317 0.0037987 0.0000317 0.0037987 0.9999683 -0.0037987
419 0.9999662 -0.0039722 0.0000338 0.0039722 0.0000338 0.0039722 0.9999662 -0.0039722
438 0.9999640 -0.0041535 0.0000360 0.0041535 0.0000360 0.0041535 0.9999640 -0.0041535
458 0.9999615 -0.0043432 0.0000385 0.0043432 0.0000385 0.0043432 0.9999615 -0.0043432
479 0.9999589 -0.0045416 0.0000411 0.0045416 0.0000411 0.0045416 0.9999589 -0.0045416
501 0.9999561 -0.0047490 0.0000439 0.0047490 0.0000439 0.0047490 0.9999561 -0.0047490
524 0.9999530 -0.0049659 0.0000470 0.0049659 0.0000470 0.0049659 0.9999530 -0.0049659
548 0.9999496 -0.0051927 0.0000504 0.0051927 0.0000504 0.0051927 0.9999496 -0.0051927
573 0.9999460 -0.0054298 0.0000540 0.0054298 0.0000540 0.0054298 0.9999460 -0.0054298
600 0.9999421 -0.0056777 0.0000579 0.0056777 0.0000579 0.0056777 0.9999421 -0.0056777
627 0.9999379 -0.0059370 0.0000621 0.0059370 0.0000621 0.0059370 0.9999379 -0.0059370
656 0.9999333 -0.0062081 0.0000667 0.0062081 0.0000667 0.0062081 0.9999333 -0.0062081
686 0.9999284 -0.0064916 0.0000716 0.0064916 0.0000716 0.0064916 0.9999284 -0.0064916
717 0.9999230 -0.0067880 0.0000770 0.0067880 0.0000770 0.0067880 0.9999230 -0.0067880
750 0.9999172 -0.0070979 0.0000828 0.0070979 0.0000828 0.0070979 0.9999172 -0.0070979
784 0.9999109 -0.0074220 0.0000891 0.0074220 0.0000891 0.0074220 0.9999109 -0.0074220
820 0.9999041 -0.0077608 0.0000959 0.0077608 0.0000959 0.0077608 0.9999041 -0.0077608
858 0.9998967 -0.0081151 0.0001033 0.0081151 0.0001033 0.0081151 0.9998967 -0.0081151
897 0.9998887 -0.0084855 0.0001113 0.0084855 0.0001113 0.0084855 0.9998887 -0.0084855
938 0.9998801 -0.0088729 0.0001199 0.0088729 0.0001199 0.0088729 0.9998801 -0.0088729
981 0.9998707 -0.0092779 0.0001293 0.0092779 0.0001293 0.0092779 0.9998707 -0.0092779
1026 0.9998606 -0.0097013 0.0001394 0.0097013 0.0001394 0.0097013 0.9998606 -0.0097013
1073 0.9998496 -0.0101441 0.0001504 0.0101441 0.0001504 0.0101441 0.9998496 -0.0101441
1122 0.9998376 -0.0106070 0.0001624 0.0106070 0.0001624 0.0106070 0.9998376 -0.0106070
1174 0.9998247 -0.0110910 0.0001753 0.0110910 0.0001753 0.0110910 0.9998247 -0.0110910
1227 0.9998107 -0.0115972 0.0001893 0.0115972 0.0001893 0.0115972 0.9998107 -0.0115972
1283 0.9997955 -0.0121263 0.0002045 0.0121263 0.0002045 0.0121263 0.9997955 -0.0121263
1342 0.9997790 -0.0126797 0.0002210 0.0126797 0.0002210 0.0126797 0.9997790 -0.0126797
1404 0.9997611 -0.0132582 0.0002389 0.0132582 0.0002389 0.0132582 0.9997611 -0.0132582
1468 0.9997417 -0.0138631 0.0002583 0.0138631 0.0002583 0.0138631 0.9997417 -0.0138631
1535 0.9997206 -0.0144956 0.0002794 0.0144956 0.0002794 0.0144956 0.9997206 -0.0144956
1606 0.9996978 -0.0151569 0.0003022 0.0151569 0.0003022 0.0151569 0.9996978 -0.0151569
1679 0.9996729 -0.0158484 0.0003271 0.0158484 0.0003271 0.0158484 0.9996729 -0.0158484
1756 0.9996458 -0.0165714 0.0003542 0.0165714 0.0003542 0.0165714 0.9996458 -0.0165714
1836 0.9996164 -0.0173273 0.0003836 0.0173273 0.0003836 0.0173273 0.9996164 -0.0173273
1920 0.9995845 -0.0181177 0.0004155 0.0181177 0.0004155 0.0181177 0.9995845 -0.0181177
2008 0.9995497 -0.0189441 0.0004503 0.0189441 0.0004503 0.0189441 0.9995497 -0.0189441
2100 0.9995118 -0.0198081 0.0004882 0.0198081 0.0004882 0.0198081 0.9995118 -0.0198081
2196 0.9994706 -0.0207114 0.0005294 0.0207114 0.0005294 0.0207114 0.9994706 -0.0207114
2297 0.9994257 -0.0216559 0.0005743 0.0216559 0.0005743 0.0216559 0.9994257 -0.0216559
2402 0.9993769 -0.0226434 0.0006231 0.0226434 0.0006231 0.0226434 0.9993769 -0.0226434
2512 0.9993237 -0.0236757 0.0006763 0.0236757 0.0006763 0.0236757 0.9993237 -0.0236757
2627 0.9992657 -0.0247550 0.0007343 0.0247550 0.0007343 0.0247550 0.9992657 -0.0247550
2748 0.9992026 -0.0258833 0.0007974 0.0258833 0.0007974 0.0258833 0.9992026 -0.0258833
2873 0.9991338 -0.0270629 0.0008662 0.0270629 0.0008662 0.0270629 0.9991338 -0.0270629
3005 0.9990589 -0.0282960 0.0009411 0.0282960 0.0009411 0.0282960 0.9990589 -0.0282960
3143 0.9989772 -0.0295851 0.0010228 0.0295851 0.0010228 0.0295851 0.9989772 -0.0295851
3287 0.9988882 -0.0309326 0.0011118 0.0309326 0.0011118 0.0309326 0.9988882 -0.0309326
3437 0.9987912 -0.0323411 0.0012088 0.0323411 0.0012088 0.0323411 0.9987912 -0.0323411
3594 0.9986856 -0.0338135 0.0013144 0.0338135 0.0013144 0.0338135 0.9986856 -0.0338135
3759 0.9985704 -0.0353524 0.0014296 0.0353524 0.0014296 0.0353524 0.9985704 -0.0353524
3931 0.9984449 -0.0369610 0.0015551 0.0369610 0.0015551 0.0369610 0.9984449 -0.0369610
4111 0.9983081 -0.0386422 0.0016919 0.0386422 0.0016919 0.0386422 0.9983081 -0.0386422
4299 0.9981590 -0.0403994 0.0018410 0.0403994 0.0018410 0.0403994 0.9981590 -0.0403994
4496 0.9979966 -0.0422357 0.0020034 0.0422357 0.0020034 0.0422357 0.9979966 -0.0422357
4702 0.9978195 -0.0441549 0.0021805 0.0441549 0.0021805 0.0441549 0.9978195 -0.0441549
4918 0.9976265 -0.0461604 0.0023735 0.0461604 0.0023735 0.0461604 0.9976265 -0.0461604
5143 0.9974161 -0.0482561 0.0025839 0.0482561 0.0025839 0.0482561 0.9974161 -0.0482561
5378 0.9971868 -0.0504459 0.0028132 0.0504459 0.0028132 0.0504459 0.9971868 -0.0504459
5625 0.9969368 -0.0527340 0.0030632 0.0527340 0.0030632 0.0527340 0.9969368 -0.0527340
5882 0.9966643 -0.0551245 0.0033357 0.0551245 0.0033357 0.0551245 0.9966643 -0.0551245
6151 0.9963671 -0.0576220 0.0036329 0.0576220 0.0036329 0.0576220 0.9963671 -0.0576220
6433 0.9960432 -0.0602310 0.0039568 0.0602310 0.0039568 0.0602310 0.9960432 -0.0602310
6728 0.9956900 -0.0629563 0.0043100 0.0629563 0.0043100 0.0629563 0.9956900 -0.0629563
7036 0.9953049 -0.0658028 0.0046951 0.0658028 0.0046951 0.0658028 0.9953049 -0.0658028
7358 0.9948849 -0.0687756 0.0051151 0.0687756 0.0051151 0.0687756 0.9948849 -0.0687756
7695 0.9944269 -0.0718800 0.0055731 0.0718800 0.0055731 0.0718800 0.9944269 -0.0718800
8047 0.9939275 -0.0751214 0.0060725 0.0751214 0.0060725 0.0751214 0.9939275 -0.0751214
8416 0.9933828 -0.0785055 0.0066172 0.0785055 0.0066172 0.0785055 0.9933828 -0.0785055
8801 0.9927887 -0.0820380 0.0072113 0.0820380 0.0072113 0.0820380 0.9927887 -0.0820380
9204 0.9921408 -0.0857249 0.0078592 0.0857249 0.0078592 0.0857249 0.9921408 -0.0857249
9626 0.9914343 -0.0895722 0.0085657 0.0895722 0.0085657 0.0895722 0.9914343 -0.0895722
10066 0.9906638 -0.0935860 0.0093362 0.0935860 0.0093362 0.0935860 0.9906638 -0.0935860
10527 0.9898236 -0.0977729 0.0101764 0.0977729 0.0101764 0.0977729 0.9898236 -0.0977729
11009 0.9889074 -0.1021391 0.0110926 0.1021391 0.0110926 0.1021391 0.9889074 -0.1021391
11514 0.9879085 -0.1066913 0.0120915 0.1066913 0.0120915 0.1066913 0.9879085 -0.1066913
12041 0.9868196 -0.1114360 0.0131804 0.1114360 0.0131804 0.1114360 0.9868196 -0.1114360
12592 0.9856327 -0.1163799 0.0143673 0.1163799 0.0143673 0.1163799 0.9856327 -0.1163799
13169 0.9843392 -0.1215297 0.0156608 0.1215297 0.0156608 0.1215297 0.9843392 -0.1215297
13772 0.9829298 -0.1268919 0.0170702 0.1268919 0.0170702 0.1268919 0.9829298 -0.1268919
14402 0.9813946 -0.1324731 0.0186054 0.1324731 0.0186054 0.1324731 0.9813946 -0.1324731
15062 0.9797226 -0.1382798 0.0202774 0.1382798 0.0202774 0.1382798 0.9797226 -0.1382798
15752 0.9779023 -0.1443183 0.0220977 0.1443183 0.0220977 0.1443183 0.9779023 -0.1443183
16473 0.9759211 -0.1505946 0.0240789 0.1505946 0.0240789 0.1505946 0.9759211 -0.1505946
17227 0.9737655 -0.1571144 0.0262345 0.1571144 0.0262345 0.1571144 0.9737655 -0.1571144
18016 0.9714210 -0.1638831 0.0285790 0.1638831 0.0285790 0.1638831 0.9714210 -0.1638831
18841 0.9688723 -0.1709055 0.0311277 0.1709055 0.0311277 0.1709055 0.9688723 -0.1709055
19704 0.9661028 -0.1781860 0.0338972 0.1781860 0.0338972 0.1781860 0.9661028 -0.1781860
20606 0.9630949 -0.1857280 0.0369051 0.1857280 0.0369051 0.1857280 0.9630949 -0.1857280
21550 0.9598297 -0.1935344 0.0401703 0.1935344 0.0401703 0.1935344 0.9598297 -0.1935344
22537 0.9562875 -0.2016069 0.0437125 0.2016069 0.0437125 0.2016069 0.9562875 -0.2016069
23569 0.9524471 -0.2099462 0.0475529 0.2099462 0.0475529 0.2099462 0.9524471 -0.2099462
24648 0.9482862 -0.2185517 0.0517138 0.2185517 0.0517138 0.2185517 0.9482862 -0.2185517
25777 0.9437816 -0.2274211 0.0562184 0.2274211 0.0562184 0.2274211 0.9437816 -0.2274211
26957 0.9389086 -0.2365507 0.0610914 0.2365507 0.0610914 0.2365507 0.9389086 -0.2365507
28191 0.9336418 -0.2459348 0.0663582 0.2459348 0.0663582 0.2459348 0.9336418 -0.2459348
29482 0.9279546 -0.2555654 0.0720454 0.2555654 0.0720454 0.2555654 0.9279546 -0.2555654
30832 0.9218196 -0.2654325 0.0781804 0.2654325 0.0781804 0.2654325 0.9218196 -0.2654325
32244 0.9152088 -0.2755232 0.0847912 0.2755232 0.0847912 0.2755232 0.9152088 -0.2755232
33721 0.9080934 -0.2858218 0.0919066 0.2858218 0.0919066 0.2858218 0.9080934 -0.2858218
35265 0.9004447 -0.2963097 0.0995553 0.2963097 0.0995553 0.2963097 0.9004447 -0.2963097
36880 0.8922336 -0.3069646 0.1077664 0.3069646 0.1077664 0.3069646 0.8922336 -0.3069646
38569 0.8834317 -0.3177609 0.1165683 0.3177609 0.1165683 0.3177609 0.8834317 -0.3177609
40335 0.8740109 -0.3286693 0.1259891 0.3286693 0.1259891 0.3286693 0.8740109 -0.3286693
42182 0.8639446 -0.3396564 0.1360554 0.3396564 0.1360554 0.3396564 0.8639446 -0.3396564
44113 0.8532076 -0.3506849 0.1467924 0.3506849 0.1467924 0.3506849 0.8532076 -0.3506849
46134 0.8417769 -0.3617132 0.1582231 0.3617132 0.1582231 0.3617132 0.8417769 -0.3617132
48246 0.8296323 -0.3726958 0.1703677 0.3726958 0.1703677 0.3726958 0.8296323 -0.3726958
50455 0.8167569 -0.3835832 0.1832431 0.3835832 0.1832431 0.3835832 0.8167569 -0.3835832
52766 0.8031378 -0.3943218 0.1968622 0.3943218 0.1968622 0.3943218 0.8031378 -0.3943218
55182 0.7887670 -0.4048548 0.2112330 0.4048548 0.2112330 0.4048548 0.7887670 -0.4048548
57709 0.7736415 -0.4151222 0.2263585 0.4151222 0.2263585 0.4151222 0.7736415 -0.4151222
60352 0.7577644 -0.4250611 0.2422356 0.4250611 0.2422356 0.4250611 0.7577644 -0.4250611
63115 0.7411454 -0.4346069 0.2588546 0.4346069 0.2588546 0.4346069 0.7411454 -0.4346069
66005 0.7238011 -0.4436939 0.2761989 0.4436939 0.2761989 0.4436939 0.7238011 -0.4436939
69028 0.7057556 -0.4522557 0.2942444 0.4522557 0.2942444 0.4522557 0.7057556 -0.4522557
72189 0.6870408 -0.4602269 0.3129592 0.4602269 0.3129592 0.4602269 0.6870408 -0.4602269
75495 0.6676964 -0.4675438 0.3323036 0.4675438 0.3323036 0.4675438 0.6676964 -0.4675438
78952 0.6477697 -0.4741452 0.3522303 0.4741452 0.3522303 0.4741452 0.6477697 -0.4741452
82567 0.6273159 -0.4799743 0.3726841 0.4799743 0.3726841 0.4799743 0.6273159 -0.4799743
86348 0.6063972 -0.4849790 0.3936028 0.4849790 0.3936028 0.4849790 0.6063972 -0.4849790
90302 0.5850824 -0.4891137 0.4149176 0.4891137 0.4149176 0.4891137 0.5850824 -0.4891137
94437 0.5634459 -0.4923397 0.4365541 0.4923397 0.4365541 0.4923397 0.5634459 -0.4923397
98762 0.5415672 -0.4946264 0.4584328 0.4946264 0.4584328 0.4946264 0.5415672 -0.4946264
103284 0.5195291 -0.4959518 0.4804709 0.4959518 0.4804709 0.4959518 0.5195291 -0.4959518
108014 0.4974170 -0.4963031 0.5025830 0.4963031 0.5025830 0.4963031 0.4974170 -0.4963031
112960 0.4753174 -0.4956770 0.5246826 0.4956770 0.5246826 0.4956770 0.4753174 -0.4956770
118133 0.4533166 -0.4940797 0.5466834 0.4940797 0.5466834 0.4940797 0.4533166 -0.4940797
123542 0.4314992 -0.4915269 0.5685008 0.4915269 0.5685008 0.4915269 0.4314992 -0.4915269
129199 0.4099472 -0.4880432 0.5900528 0.4880432 0.5900528 0.4880432 0.4099472 -0.4880432
135116 0.3887384 -0.4836616 0.6112616 0.4836616 0.6112616 0.4836616 0.3887384 -0.4836616
141303 0.3679455 -0.4784230 0.6320545 0.4784230 0.6320545 0.4784230 0.3679455 -0.4784230
147774 0.3476353 -0.4723747 0.6523647 0.4723747 0.6523647 0.4723747 0.3476353 -0.4723747
154540 0.3278677 -0.4655703 0.6721323 0.4655703 0.6721323 0.4655703 0.3278677 -0.4655703
161617 0.3086957 -0.4580677 0.6913043 0.4580677 0.6913043 0.4580677 0.3086957 -0.4580677
169018 0.2901644 -0.4499285 0.7098356 0.4499285 0.7098356 0.4499285 0.2901644 -0.4499285
176758 0.2723111 -0.4412169 0.7276889 0.4412169 0.7276889 0.4412169 0.2723111 -0.4412169
184852 0.2551656 -0.4319984 0.7448344 0.4319984 0.7448344 0.4319984 0.2551656 -0.4319984
193316 0.2387499 -0.4223389 0.7612501 0.4223389 0.7612501 0.4223389 0.2387499 -0.4223389
202169 0.2230788 -0.4123039 0.7769212 0.4123039 0.7769212 0.4123039 0.2230788 -0.4123039
211427 0.2081603 -0.4019573 0.7918397 0.4019573 0.7918397 0.4019573 0.2081603 -0.4019573
221108 0.1939961 -0.3913610 0.8060039 0.3913610 0.8060039 0.3913610 0.1939961 -0.3913610
231233 0.1805820 -0.3805742 0.8194180 0.3805742 0.8194180 0.3805742 0.1805820 -0.3805742
241822 0.1679086 -0.3696529 0.8320914 0.3696529 0.8320914 0.3696529 0.1679086 -0.3696529
252896 0.1559624 -0.3586495 0.8440376 0.3586495 0.8440376 0.3586495 0.1559624 -0.3586495
264476 0.1447256 -0.3476128 0.8552744 0.3476128 0.8552744 0.3476128 0.1447256 -0.3476128
276587 0.1341773 -0.3365872 0.8658227 0.3365872 0.8658227 0.3365872 0.1341773 -0.3365872
289253 0.1242942 -0.3256134 0.8757058 0.3256134 0.8757058 0.3256134 0.1242942 -0.3256134
302498 0.1150507 -0.3147278 0.8849493 0.3147278 0.8849493 0.3147278 0.1150507 -0.3147278
316350 0.1064196 -0.3039631 0.8935804 0.3039631 0.8935804 0.3039631 0.1064196 -0.3039631
330837 0.0983729 -0.2933476 0.9016271 0.2933476 0.9016271 0.2933476 0.0983729 -0.2933476
345986 0.0908819 -0.2829065 0.9091181 0.2829065 0.9091181 0.2829065 0.0908819 -0.2829065
361830 0.0839173 -0.2726611 0.9160827 0.2726611 0.9160827 0.2726611 0.0839173 -0.2726611
378399 0.0774502 -0.2626295 0.9225498 0.2626295 0.9225498 0.2626295 0.0774502 -0.2626295
395726 0.0714519 -0.2528267 0.9285481 0.2528267 0.9285481 0.2528267 0.0714519 -0.2528267
413847 0.0658943 -0.2432650 0.9341057 0.2432650 0.9341057 0.2432650 0.0658943 -0.2432650
432798 0.0607500 -0.2339539 0.9392500 0.2339539 0.9392500 0.2339539 0.0607500 -0.2339539
452617 0.0559923 -0.2249008 0.9440077 0.2249008 0.9440077 0.2249008 0.0559923 -0.2249008
473344 0.0515959 -0.2161109 0.9484041 0.2161109 0.9484041 0.2161109 0.0515959 -0.2161109
495019 0.0475361 -0.2075874 0.9524639 0.2075874 0.9524639 0.2075874 0.0475361 -0.2075874
517687 0.0437898 -0.1993321 0.9562102 0.1993321 0.9562102 0.1993321 0.0437898 -0.1993321
541393 0.0403346 -0.1913450 0.9596654 0.1913450 0.9596654 0.1913450 0.0403346 -0.1913450
566185 0.0371498 -0.1836250 0.9628502 0.1836250 0.9628502 0.1836250 0.0371498 -0.1836250
592111 0.0342154 -0.1761700 0.9657846 0.1761700 0.9657846 0.1761700 0.0342154 -0.1761700
619225 0.0315129 -0.1689767 0.9684871 0.1689767 0.9684871 0.1689767 0.0315129 -0.1689767
647581 0.0290248 -0.1620411 0.9709752 0.1620411 0.9709752 0.1620411 0.0290248 -0.1620411
677235 0.0267348 -0.1553586 0.9732652 0.1553586 0.9732652 0.1553586 0.0267348 -0.1553586
708247 0.0246277 -0.1489239 0.9753723 0.1489239 0.9753723 0.1489239 0.0246277 -0.1489239
740679 0.0226892 -0.1427313 0.9773108 0.1427313 0.9773108 0.1427313 0.0226892 -0.1427313
774597 0.0209062 -0.1367748 0.9790938 0.1367748 0.9790938 0.1367748 0.0209062 -0.1367748
810067 0.0192664 -0.1310480 0.9807336 0.1310480 0.9807336 0.1310480 0.0192664 -0.1310480
847162 0.0177585 -0.1255443 0.9822415 0.1255443 0.9822415 0.1255443 0.0177585 -0.1255443
885955 0.0163719 -0.1202572 0.9836281 0.1202572 0.9836281 0.1202572 0.0163719 -0.1202572
926525 0.0150970 -0.1151798 0.9849030 0.1151798 0.9849030 0.1151798 0.0150970 -0.1151798
968953 0.0139247 -0.1103053 0.9860753 0.1103053 0.9860753 0.1103053 0.0139247 -0.1103053
1013323 0.0128469 -0.1056269 0.9871531 0.1056269 0.9871531 0.1056269 0.0128469 -0.1056269
1059725 0.0118558 -0.1011379 0.9881442 0.1011379 0.9881442 0.1011379 0.0118558 -0.1011379
1108252 0.0109446 -0.0968315 0.9890554 0.0968315 0.9890554 0.0968315 0.0109446 -0.0968315
1159002 0.0101068 -0.0927013 0.9898932 0.0927013 0.9898932 0.0927013 0.0101068 -0.0927013
1212075 0.0093364 -0.0887407 0.9906636 0.0887407 0.9906636 0.0887407 0.0093364 -0.0887407
1267578 0.0086280 -0.0849434 0.9913720 0.0849434 0.9913720 0.0849434 0.0086280 -0.0849434
1325623 0.0079767 -0.0813033 0.9920233 0.0813033 0.9920233 0.0813033 0.0079767 -0.0813033
1386327 0.0073778 -0.0778143 0.9926222 0.0778143 0.9926222 0.0778143 0.0073778 -0.0778143
1449809 0.0068272 -0.0744706 0.9931728 0.0744706 0.9931728 0.0744706 0.0068272 -0.0744706
1516199 0.0063209 -0.0712666 0.9936791 0.0712666 0.9936791 0.0712666 0.0063209 -0.0712666
1585629 0.0058555 -0.0681966 0.9941445 0.0681966 0.9941445 0.0681966 0.0058555 -0.0681966
1658239 0.0054276 -0.0652556 0.9945724 0.0652556 0.9945724 0.0652556 0.0054276 -0.0652556
1734173 0.0050342 -0.0624382 0.9949658 0.0624382 0.9949658 0.0624382 0.0050342 -0.0624382
1813585 0.0046726 -0.0597395 0.9953274 0.0597395 0.9953274 0.0597395 0.0046726 -0.0597395
1896632 0.0043403 -0.0571548 0.9956597 0.0571548 0.9956597 0.0571548 0.0043403 -0.0571548
1983483 0.0040349 -0.0546795 0.9959651 0.0546795 0.9959651 0.0546795 0.0040349 -0.0546795
2074311 0.0037542 -0.0523090 0.9962458 0.0523090 0.9962458 0.0523090 0.0037542 -0.0523090
