!Murata Part Number: GRM31MR71H684KA88
!These Parameters are Measured in Series Mode Connection
!Data Generated on Mar 30, 2021
!       o--ll--o
!Port1            Port2
!       o------o
!Operation Temp=25[degC], DC Bias Voltage=0[V]
!Freq. Start=100[Hz] Stop=6[GHz] 401[Steps]
# Hz S RI R 50
!Freq.(Hz) S11(Real) S11(Imag) S21(Real) S21(Imag) S12(Real) S12(Imag) S22(Real) S22(Imag)
100 0.9981084 -0.0411903 0.0018916 0.0411903 0.0018916 0.0411903 0.9981084 -0.0411903
105 0.9979410 -0.0430630 0.0020590 0.0430630 0.0020590 0.0430630 0.9979410 -0.0430630
109 0.9977586 -0.0450202 0.0022414 0.0450202 0.0022414 0.0450202 0.9977586 -0.0450202
114 0.9975595 -0.0470654 0.0024405 0.0470654 0.0024405 0.0470654 0.9975595 -0.0470654
120 0.9973425 -0.0492027 0.0026575 0.0492027 0.0026575 0.0492027 0.9973425 -0.0492027
125 0.9971057 -0.0514360 0.0028943 0.0514360 0.0028943 0.0514360 0.9971057 -0.0514360
131 0.9968474 -0.0537694 0.0031526 0.0537694 0.0031526 0.0537694 0.9968474 -0.0537694
137 0.9965658 -0.0562074 0.0034342 0.0562074 0.0034342 0.0562074 0.9965658 -0.0562074
143 0.9962585 -0.0587543 0.0037415 0.0587543 0.0037415 0.0587543 0.9962585 -0.0587543
150 0.9959234 -0.0614148 0.0040766 0.0614148 0.0040766 0.0614148 0.9959234 -0.0614148
156 0.9955580 -0.0641937 0.0044420 0.0641937 0.0044420 0.0641937 0.9955580 -0.0641937
164 0.9951593 -0.0670961 0.0048407 0.0670961 0.0048407 0.0670961 0.9951593 -0.0670961
171 0.9947246 -0.0701271 0.0052754 0.0701271 0.0052754 0.0701271 0.9947246 -0.0701271
179 0.9942504 -0.0732921 0.0057496 0.0732921 0.0057496 0.0732921 0.9942504 -0.0732921
187 0.9937333 -0.0765965 0.0062667 0.0765965 0.0062667 0.0765965 0.9937333 -0.0765965
196 0.9931693 -0.0800461 0.0068307 0.0800461 0.0068307 0.0800461 0.9931693 -0.0800461
205 0.9925543 -0.0836467 0.0074457 0.0836467 0.0074457 0.0836467 0.9925543 -0.0836467
214 0.9918837 -0.0874043 0.0081163 0.0874043 0.0081163 0.0874043 0.9918837 -0.0874043
224 0.9911524 -0.0913252 0.0088476 0.0913252 0.0088476 0.0913252 0.9911524 -0.0913252
234 0.9903550 -0.0954155 0.0096450 0.0954155 0.0096450 0.0954155 0.9903550 -0.0954155
245 0.9894856 -0.0996817 0.0105144 0.0996817 0.0105144 0.0996817 0.9894856 -0.0996817
256 0.9885377 -0.1041304 0.0114623 0.1041304 0.0114623 0.1041304 0.9885377 -0.1041304
268 0.9875045 -0.1087682 0.0124955 0.1087682 0.0124955 0.1087682 0.9875045 -0.1087682
280 0.9863783 -0.1136018 0.0136217 0.1136018 0.0136217 0.1136018 0.9863783 -0.1136018
293 0.9851509 -0.1186379 0.0148491 0.1186379 0.0148491 0.1186379 0.9851509 -0.1186379
306 0.9838134 -0.1238833 0.0161866 0.1238833 0.0161866 0.1238833 0.9838134 -0.1238833
320 0.9823562 -0.1293448 0.0176438 0.1293448 0.0176438 0.1293448 0.9823562 -0.1293448
335 0.9807690 -0.1350288 0.0192310 0.1350288 0.0192310 0.1350288 0.9807690 -0.1350288
350 0.9790404 -0.1409419 0.0209596 0.1409419 0.0209596 0.1409419 0.9790404 -0.1409419
366 0.9771585 -0.1470905 0.0228415 0.1470905 0.0228415 0.1470905 0.9771585 -0.1470905
383 0.9751102 -0.1534804 0.0248898 0.1534804 0.0248898 0.1534804 0.9751102 -0.1534804
401 0.9728815 -0.1601175 0.0271185 0.1601175 0.0271185 0.1601175 0.9728815 -0.1601175
419 0.9704574 -0.1670068 0.0295426 0.1670068 0.0295426 0.1670068 0.9704574 -0.1670068
438 0.9678220 -0.1741533 0.0321780 0.1741533 0.0321780 0.1741533 0.9678220 -0.1741533
458 0.9649580 -0.1815608 0.0350420 0.1815608 0.0350420 0.1815608 0.9649580 -0.1815608
479 0.9618472 -0.1892326 0.0381528 0.1892326 0.0381528 0.1892326 0.9618472 -0.1892326
501 0.9584702 -0.1971713 0.0415298 0.1971713 0.0415298 0.1971713 0.9584702 -0.1971713
524 0.9548063 -0.2053780 0.0451937 0.2053780 0.0451937 0.2053780 0.9548063 -0.2053780
548 0.9508339 -0.2138529 0.0491661 0.2138529 0.0491661 0.2138529 0.9508339 -0.2138529
573 0.9465299 -0.2225946 0.0534701 0.2225946 0.0534701 0.2225946 0.9465299 -0.2225946
600 0.9418704 -0.2316003 0.0581296 0.2316003 0.0581296 0.2316003 0.9418704 -0.2316003
627 0.9368301 -0.2408652 0.0631699 0.2408652 0.0631699 0.2408652 0.9368301 -0.2408652
656 0.9313831 -0.2503825 0.0686169 0.2503825 0.0686169 0.2503825 0.9313831 -0.2503825
686 0.9255021 -0.2601434 0.0744979 0.2601434 0.0744979 0.2601434 0.9255021 -0.2601434
717 0.9191594 -0.2701364 0.0808406 0.2701364 0.0808406 0.2701364 0.9191594 -0.2701364
750 0.9123266 -0.2803472 0.0876734 0.2803472 0.0876734 0.2803472 0.9123266 -0.2803472
784 0.9049748 -0.2907586 0.0950252 0.2907586 0.0950252 0.2907586 0.9049748 -0.2907586
820 0.8970751 -0.3013505 0.1029249 0.3013505 0.1029249 0.3013505 0.8970751 -0.3013505
858 0.8885987 -0.3120988 0.1114013 0.3120988 0.1114013 0.3120988 0.8885987 -0.3120988
897 0.8795173 -0.3229764 0.1204827 0.3229764 0.1204827 0.3229764 0.8795173 -0.3229764
938 0.8698034 -0.3339518 0.1301966 0.3339518 0.1301966 0.3339518 0.8698034 -0.3339518
981 0.8594310 -0.3449901 0.1405690 0.3449901 0.1405690 0.3449901 0.8594310 -0.3449901
1026 0.8483761 -0.3560519 0.1516239 0.3560519 0.1516239 0.3560519 0.8483761 -0.3560519
1073 0.8366166 -0.3670940 0.1633834 0.3670940 0.1633834 0.3670940 0.8366166 -0.3670940
1122 0.8241340 -0.3780691 0.1758660 0.3780691 0.1758660 0.3780691 0.8241340 -0.3780691
1174 0.8109129 -0.3889260 0.1890871 0.3889260 0.1890871 0.3889260 0.8109129 -0.3889260
1227 0.7969425 -0.3996097 0.2030575 0.3996097 0.2030575 0.3996097 0.7969425 -0.3996097
1283 0.7822166 -0.4100620 0.2177834 0.4100620 0.2177834 0.4100620 0.7822166 -0.4100620
1342 0.7667349 -0.4202215 0.2332651 0.4202215 0.2332651 0.4202215 0.7667349 -0.4202215
1404 0.7505029 -0.4300247 0.2494971 0.4300247 0.2494971 0.4300247 0.7505029 -0.4300247
1468 0.7335331 -0.4394063 0.2664669 0.4394063 0.2664669 0.4394063 0.7335331 -0.4394063
1535 0.7158450 -0.4483000 0.2841550 0.4483000 0.2841550 0.4483000 0.7158450 -0.4483000
1606 0.6974656 -0.4566396 0.3025344 0.4566396 0.3025344 0.4566396 0.6974656 -0.4566396
1679 0.6784300 -0.4643598 0.3215700 0.4643598 0.3215700 0.4643598 0.6784300 -0.4643598
1756 0.6587810 -0.4713975 0.3412190 0.4713975 0.3412190 0.4713975 0.6587810 -0.4713975
1836 0.6385690 -0.4776928 0.3614310 0.4776928 0.3614310 0.4776928 0.6385690 -0.4776928
1920 0.6178524 -0.4831901 0.3821476 0.4831901 0.3821476 0.4831901 0.6178524 -0.4831901
2008 0.5966962 -0.4878392 0.4033038 0.4878392 0.4033038 0.4878392 0.5966962 -0.4878392
2100 0.5751720 -0.4915967 0.4248280 0.4915967 0.4248280 0.4915967 0.5751720 -0.4915967
2196 0.5533570 -0.4944264 0.4466430 0.4944264 0.4466430 0.4944264 0.5533570 -0.4944264
2297 0.5313327 -0.4963008 0.4686673 0.4963008 0.4686673 0.4963008 0.5313327 -0.4963008
2402 0.5091839 -0.4972012 0.4908161 0.4972012 0.4908161 0.4972012 0.5091839 -0.4972012
2512 0.4869977 -0.4971183 0.5130023 0.4971183 0.5130023 0.4971183 0.4869977 -0.4971183
2627 0.4648615 -0.4960526 0.5351385 0.4960526 0.5351385 0.4960526 0.4648615 -0.4960526
2748 0.4428622 -0.4940144 0.5571378 0.4940144 0.5571378 0.4940144 0.4428622 -0.4940144
2873 0.4210846 -0.4910233 0.5789154 0.4910233 0.5789154 0.4910233 0.4210846 -0.4910233
3005 0.3996100 -0.4871079 0.6003900 0.4871079 0.6003900 0.4871079 0.3996100 -0.4871079
3143 0.3785152 -0.4823054 0.6214848 0.4823054 0.6214848 0.4823054 0.3785152 -0.4823054
3287 0.3578714 -0.4766601 0.6421286 0.4766601 0.6421286 0.4766601 0.3578714 -0.4766601
3437 0.3377432 -0.4702233 0.6622568 0.4702233 0.6622568 0.4702233 0.3377432 -0.4702233
3594 0.3181883 -0.4630513 0.6818117 0.4630513 0.6818117 0.4630513 0.3181883 -0.4630513
3759 0.2992565 -0.4552051 0.7007435 0.4552051 0.7007435 0.4552051 0.2992565 -0.4552051
3931 0.2809897 -0.4467486 0.7190103 0.4467486 0.7190103 0.4467486 0.2809897 -0.4467486
4111 0.2634221 -0.4377479 0.7365779 0.4377479 0.7365779 0.4377479 0.2634221 -0.4377479
4299 0.2465796 -0.4282697 0.7534204 0.4282697 0.7534204 0.4282697 0.2465796 -0.4282697
4496 0.2304807 -0.4183809 0.7695193 0.4183809 0.7695193 0.4183809 0.2304807 -0.4183809
4702 0.2151367 -0.4081471 0.7848633 0.4081471 0.7848633 0.4081471 0.2151367 -0.4081471
4918 0.2005519 -0.3976322 0.7994481 0.3976322 0.7994481 0.3976322 0.2005519 -0.3976322
5143 0.1867247 -0.3868976 0.8132753 0.3868976 0.8132753 0.3868976 0.1867247 -0.3868976
5378 0.1736477 -0.3760015 0.8263523 0.3760015 0.8263523 0.3760015 0.1736477 -0.3760015
5625 0.1613090 -0.3649985 0.8386910 0.3649985 0.8386910 0.3649985 0.1613090 -0.3649985
5882 0.1496920 -0.3539395 0.8503080 0.3539395 0.8503080 0.3539395 0.1496920 -0.3539395
6151 0.1387771 -0.3428714 0.8612229 0.3428714 0.8612229 0.3428714 0.1387771 -0.3428714
6433 0.1285414 -0.3318367 0.8714586 0.3318367 0.8714586 0.3318367 0.1285414 -0.3318367
6728 0.1189598 -0.3208740 0.8810402 0.3208740 0.8810402 0.3208740 0.1189598 -0.3208740
7036 0.1100057 -0.3100177 0.8899943 0.3100177 0.8899943 0.3100177 0.1100057 -0.3100177
7358 0.1016511 -0.2992980 0.8983489 0.2992980 0.8983489 0.2992980 0.1016511 -0.2992980
7695 0.0938670 -0.2887416 0.9061330 0.2887416 0.9061330 0.2887416 0.0938670 -0.2887416
8047 0.0866245 -0.2783713 0.9133755 0.2783713 0.9133755 0.2783713 0.0866245 -0.2783713
8416 0.0798944 -0.2682066 0.9201056 0.2682066 0.9201056 0.2682066 0.0798944 -0.2682066
8801 0.0736476 -0.2582637 0.9263524 0.2582637 0.9263524 0.2582637 0.0736476 -0.2582637
9204 0.0678558 -0.2485561 0.9321442 0.2485561 0.9321442 0.2485561 0.0678558 -0.2485561
9626 0.0624912 -0.2390944 0.9375088 0.2390944 0.9375088 0.2390944 0.0624912 -0.2390944
10066 0.0575270 -0.2298869 0.9424730 0.2298869 0.9424730 0.2298869 0.0575270 -0.2298869
10527 0.0529372 -0.2209396 0.9470628 0.2209396 0.9470628 0.2209396 0.0529372 -0.2209396
11009 0.0486971 -0.2122568 0.9513029 0.2122568 0.9513029 0.2122568 0.0486971 -0.2122568
11514 0.0447829 -0.2038408 0.9552171 0.2038408 0.9552171 0.2038408 0.0447829 -0.2038408
12041 0.0411720 -0.1956926 0.9588280 0.1956926 0.9588280 0.1956926 0.0411720 -0.1956926
12592 0.0378431 -0.1878115 0.9621569 0.1878115 0.9621569 0.1878115 0.0378431 -0.1878115
13169 0.0347759 -0.1801962 0.9652241 0.1801962 0.9652241 0.1801962 0.0347759 -0.1801962
13772 0.0319514 -0.1728438 0.9680486 0.1728438 0.9680486 0.1728438 0.0319514 -0.1728438
14402 0.0293517 -0.1657510 0.9706483 0.1657510 0.9706483 0.1657510 0.0293517 -0.1657510
15062 0.0269600 -0.1589136 0.9730400 0.1589136 0.9730400 0.1589136 0.0269600 -0.1589136
15752 0.0247607 -0.1523267 0.9752393 0.1523267 0.9752393 0.1523267 0.0247607 -0.1523267
16473 0.0227390 -0.1459852 0.9772610 0.1459852 0.9772610 0.1459852 0.0227390 -0.1459852
17227 0.0208812 -0.1398833 0.9791188 0.1398833 0.9791188 0.1398833 0.0208812 -0.1398833
18016 0.0191747 -0.1340150 0.9808253 0.1340150 0.9808253 0.1340150 0.0191747 -0.1340150
18841 0.0176075 -0.1283740 0.9823925 0.1283740 0.9823925 0.1283740 0.0176075 -0.1283740
19704 0.0161687 -0.1229540 0.9838313 0.1229540 0.9838313 0.1229540 0.0161687 -0.1229540
20606 0.0148481 -0.1177483 0.9851519 0.1177483 0.9851519 0.1177483 0.0148481 -0.1177483
21550 0.0136362 -0.1127504 0.9863638 0.1127504 0.9863638 0.1127504 0.0136362 -0.1127504
22537 0.0125243 -0.1079535 0.9874757 0.1079535 0.9874757 0.1079535 0.0125243 -0.1079535
23569 0.0115042 -0.1033510 0.9884958 0.1033510 0.9884958 0.1033510 0.0115042 -0.1033510
24648 0.0105685 -0.0989364 0.9894315 0.0989364 0.9894315 0.0989364 0.0105685 -0.0989364
25777 0.0097103 -0.0947029 0.9902897 0.0947029 0.9902897 0.0947029 0.0097103 -0.0947029
26957 0.0089232 -0.0906443 0.9910768 0.0906443 0.9910768 0.0906443 0.0089232 -0.0906443
28191 0.0082015 -0.0867540 0.9917985 0.0867540 0.9917985 0.0867540 0.0082015 -0.0867540
29482 0.0075395 -0.0830259 0.9924605 0.0830259 0.9924605 0.0830259 0.0075395 -0.0830259
30832 0.0069325 -0.0794538 0.9930675 0.0794538 0.9930675 0.0794538 0.0069325 -0.0794538
32244 0.0063758 -0.0760318 0.9936242 0.0760318 0.9936242 0.0760318 0.0063758 -0.0760318
33721 0.0058652 -0.0727540 0.9941348 0.0727540 0.9941348 0.0727540 0.0058652 -0.0727540
35265 0.0053969 -0.0696148 0.9946031 0.0696148 0.9946031 0.0696148 0.0053969 -0.0696148
36880 0.0049673 -0.0666087 0.9950327 0.0666087 0.9950327 0.0666087 0.0049673 -0.0666087
38569 0.0045732 -0.0637304 0.9954268 0.0637304 0.9954268 0.0637304 0.0045732 -0.0637304
40335 0.0042116 -0.0609746 0.9957884 0.0609746 0.9957884 0.0609746 0.0042116 -0.0609746
42182 0.0038797 -0.0583365 0.9961203 0.0583365 0.9961203 0.0583365 0.0038797 -0.0583365
44113 0.0035751 -0.0558111 0.9964249 0.0558111 0.9964249 0.0558111 0.0035751 -0.0558111
46134 0.0032954 -0.0533939 0.9967046 0.0533939 0.9967046 0.0533939 0.0032954 -0.0533939
48246 0.0030387 -0.0510803 0.9969613 0.0510803 0.9969613 0.0510803 0.0030387 -0.0510803
50455 0.0028028 -0.0488659 0.9971972 0.0488659 0.9971972 0.0488659 0.0028028 -0.0488659
52766 0.0025862 -0.0467468 0.9974138 0.0467468 0.9974138 0.0467468 0.0025862 -0.0467468
55182 0.0023872 -0.0447187 0.9976128 0.0447187 0.9976128 0.0447187 0.0023872 -0.0447187
57709 0.0022044 -0.0427779 0.9977956 0.0427779 0.9977956 0.0427779 0.0022044 -0.0427779
60352 0.0020363 -0.0409207 0.9979637 0.0409207 0.9979637 0.0409207 0.0020363 -0.0409207
63115 0.0018818 -0.0391436 0.9981182 0.0391436 0.9981182 0.0391436 0.0018818 -0.0391436
66005 0.0017398 -0.0374431 0.9982602 0.0374431 0.9982602 0.0374431 0.0017398 -0.0374431
69028 0.0016093 -0.0358159 0.9983907 0.0358159 0.9983907 0.0358159 0.0016093 -0.0358159
72189 0.0014892 -0.0342590 0.9985108 0.0342590 0.9985108 0.0342590 0.0014892 -0.0342590
75495 0.0013789 -0.0327693 0.9986211 0.0327693 0.9986211 0.0327693 0.0013789 -0.0327693
78952 0.0012774 -0.0313439 0.9987226 0.0313439 0.9987226 0.0313439 0.0012774 -0.0313439
82567 0.0011840 -0.0299802 0.9988160 0.0299802 0.9988160 0.0299802 0.0011840 -0.0299802
86348 0.0010982 -0.0286754 0.9989018 0.0286754 0.9989018 0.0286754 0.0010982 -0.0286754
90302 0.0010193 -0.0274271 0.9989807 0.0274271 0.9989807 0.0274271 0.0010193 -0.0274271
94437 0.0009467 -0.0262328 0.9990533 0.0262328 0.9990533 0.0262328 0.0009467 -0.0262328
98762 0.0008800 -0.0250902 0.9991200 0.0250902 0.9991200 0.0250902 0.0008800 -0.0250902
103284 0.0008186 -0.0239970 0.9991814 0.0239970 0.9991814 0.0239970 0.0008186 -0.0239970
108014 0.0007623 -0.0229513 0.9992377 0.0229513 0.9992377 0.0229513 0.0007623 -0.0229513
112960 0.0007104 -0.0219509 0.9992896 0.0219509 0.9992896 0.0219509 0.0007104 -0.0219509
118133 0.0006627 -0.0209938 0.9993373 0.0209938 0.9993373 0.0209938 0.0006627 -0.0209938
123542 0.0006189 -0.0200783 0.9993811 0.0200783 0.9993811 0.0200783 0.0006189 -0.0200783
129199 0.0005787 -0.0192026 0.9994213 0.0192026 0.9994213 0.0192026 0.0005787 -0.0192026
135116 0.0005417 -0.0183648 0.9994583 0.0183648 0.9994583 0.0183648 0.0005417 -0.0183648
141303 0.0005077 -0.0175635 0.9994923 0.0175635 0.9994923 0.0175635 0.0005077 -0.0175635
147774 0.0004764 -0.0167970 0.9995236 0.0167970 0.9995236 0.0167970 0.0004764 -0.0167970
154540 0.0004476 -0.0160638 0.9995524 0.0160638 0.9995524 0.0160638 0.0004476 -0.0160638
161617 0.0004212 -0.0153625 0.9995788 0.0153625 0.9995788 0.0153625 0.0004212 -0.0153625
169018 0.0003969 -0.0146917 0.9996031 0.0146917 0.9996031 0.0146917 0.0003969 -0.0146917
176758 0.0003746 -0.0140501 0.9996254 0.0140501 0.9996254 0.0140501 0.0003746 -0.0140501
184852 0.0003540 -0.0134364 0.9996460 0.0134364 0.9996460 0.0134364 0.0003540 -0.0134364
193316 0.0003351 -0.0128495 0.9996649 0.0128495 0.9996649 0.0128495 0.0003351 -0.0128495
202169 0.0003176 -0.0122881 0.9996824 0.0122881 0.9996824 0.0122881 0.0003176 -0.0122881
211427 0.0003016 -0.0117512 0.9996984 0.0117512 0.9996984 0.0117512 0.0003016 -0.0117512
221108 0.0002868 -0.0112376 0.9997132 0.0112376 0.9997132 0.0112376 0.0002868 -0.0112376
231233 0.0002731 -0.0107464 0.9997269 0.0107464 0.9997269 0.0107464 0.0002731 -0.0107464
241822 0.0002605 -0.0102766 0.9997395 0.0102766 0.9997395 0.0102766 0.0002605 -0.0102766
252896 0.0002489 -0.0098272 0.9997511 0.0098272 0.9997511 0.0098272 0.0002489 -0.0098272
264476 0.0002381 -0.0093975 0.9997619 0.0093975 0.9997619 0.0093975 0.0002381 -0.0093975
276587 0.0002282 -0.0089864 0.9997718 0.0089864 0.9997718 0.0089864 0.0002282 -0.0089864
289253 0.0002190 -0.0085932 0.9997810 0.0085932 0.9997810 0.0085932 0.0002190 -0.0085932
302498 0.0002104 -0.0082171 0.9997896 0.0082171 0.9997896 0.0082171 0.0002104 -0.0082171
316350 0.0002025 -0.0078573 0.9997975 0.0078573 0.9997975 0.0078573 0.0002025 -0.0078573
330837 0.0001951 -0.0075132 0.9998049 0.0075132 0.9998049 0.0075132 0.0001951 -0.0075132
345986 0.0001882 -0.0071840 0.9998118 0.0071840 0.9998118 0.0071840 0.0001882 -0.0071840
361830 0.0001818 -0.0068691 0.9998182 0.0068691 0.9998182 0.0068691 0.0001818 -0.0068691
378399 0.0001758 -0.0065679 0.9998242 0.0065679 0.9998242 0.0065679 0.0001758 -0.0065679
395726 0.0001703 -0.0062797 0.9998297 0.0062797 0.9998297 0.0062797 0.0001703 -0.0062797
413847 0.0001651 -0.0060040 0.9998349 0.0060040 0.9998349 0.0060040 0.0001651 -0.0060040
432798 0.0001602 -0.0057402 0.9998398 0.0057402 0.9998398 0.0057402 0.0001602 -0.0057402
452617 0.0001557 -0.0054878 0.9998443 0.0054878 0.9998443 0.0054878 0.0001557 -0.0054878
473344 0.0001514 -0.0052462 0.9998486 0.0052462 0.9998486 0.0052462 0.0001514 -0.0052462
495019 0.0001474 -0.0050151 0.9998526 0.0050151 0.9998526 0.0050151 0.0001474 -0.0050151
517687 0.0001437 -0.0047939 0.9998563 0.0047939 0.9998563 0.0047939 0.0001437 -0.0047939
541393 0.0001402 -0.0045822 0.9998598 0.0045822 0.9998598 0.0045822 0.0001402 -0.0045822
566185 0.0001369 -0.0043797 0.9998631 0.0043797 0.9998631 0.0043797 0.0001369 -0.0043797
592111 0.0001338 -0.0041857 0.9998662 0.0041857 0.9998662 0.0041857 0.0001338 -0.0041857
619225 0.0001309 -0.0040001 0.9998691 0.0040001 0.9998691 0.0040001 0.0001309 -0.0040001
647581 0.0001282 -0.0038224 0.9998718 0.0038224 0.9998718 0.0038224 0.0001282 -0.0038224
677235 0.0001257 -0.0036523 0.9998743 0.0036523 0.9998743 0.0036523 0.0001257 -0.0036523
708247 0.0001234 -0.0034894 0.9998766 0.0034894 0.9998766 0.0034894 0.0001234 -0.0034894
740679 0.0001212 -0.0033334 0.9998788 0.0033334 0.9998788 0.0033334 0.0001212 -0.0033334
774597 0.0001191 -0.0031840 0.9998809 0.0031840 0.9998809 0.0031840 0.0001191 -0.0031840
810067 0.0001172 -0.0030410 0.9998828 0.0030410 0.9998828 0.0030410 0.0001172 -0.0030410
847162 0.0001154 -0.0029040 0.9998846 0.0029040 0.9998846 0.0029040 0.0001154 -0.0029040
885955 0.0001138 -0.0027727 0.9998862 0.0027727 0.9998862 0.0027727 0.0001138 -0.0027727
926525 0.0001123 -0.0026469 0.9998877 0.0026469 0.9998877 0.0026469 0.0001123 -0.0026469
968953 0.0001108 -0.0025264 0.9998892 0.0025264 0.9998892 0.0025264 0.0001108 -0.0025264
1013323 0.0001095 -0.0024109 0.9998905 0.0024109 0.9998905 0.0024109 0.0001095 -0.0024109
1059725 0.0001083 -0.0023002 0.9998917 0.0023002 0.9998917 0.0023002 0.0001083 -0.0023002
1108252 0.0001072 -0.0021940 0.9998928 0.0021940 0.9998928 0.0021940 0.0001072 -0.0021940
1159002 0.0001062 -0.0020923 0.9998938 0.0020923 0.9998938 0.0020923 0.0001062 -0.0020923
1212075 0.0001052 -0.0019947 0.9998948 0.0019947 0.9998948 0.0019947 0.0001052 -0.0019947
1267578 0.0001044 -0.0019010 0.9998956 0.0019010 0.9998956 0.0019010 0.0001044 -0.0019010
1325623 0.0001036 -0.0018111 0.9998964 0.0018111 0.9998964 0.0018111 0.0001036 -0.0018111
1386327 0.0001028 -0.0017249 0.9998972 0.0017249 0.9998972 0.0017249 0.0001028 -0.0017249
1449809 0.0001022 -0.0016421 0.9998978 0.0016421 0.9998978 0.0016421 0.0001022 -0.0016421
1516199 0.0001016 -0.0015625 0.9998984 0.0015625 0.9998984 0.0015625 0.0001016 -0.0015625
1585629 0.0001011 -0.0014861 0.9998989 0.0014861 0.9998989 0.0014861 0.0001011 -0.0014861
1658239 0.0001006 -0.0014126 0.9998994 0.0014126 0.9998994 0.0014126 0.0001006 -0.0014126
1734173 0.0001002 -0.0013419 0.9998998 0.0013419 0.9998998 0.0013419 0.0001002 -0.0013419
1813585 0.0000999 -0.0012740 0.9999001 0.0012740 0.9999001 0.0012740 0.0000999 -0.0012740
1896632 0.0000996 -0.0012085 0.9999004 0.0012085 0.9999004 0.0012085 0.0000996 -0.0012085
1983483 0.0000993 -0.0011455 0.9999007 0.0011455 0.9999007 0.0011455 0.0000993 -0.0011455
2074311 0.0000991 -0.0010848 0.9999009 0.0010848 0.9999009 0.0010848 0.0000991 -0.0010848
