!Murata Part Number: GRM31BR73A152KW01
!These Parameters are Measured in Series Mode Connection
!Data Generated on Mar 30, 2021
!       o--ll--o
!Port1            Port2
!       o------o
!Operation Temp=25[degC], DC Bias Voltage=0[V]
!Freq. Start=100[kHz] Stop=6[GHz] 401[Steps]
# Hz S RI R 50
!Freq.(Hz) S11(Real) S11(Imag) S21(Real) S21(Imag) S12(Real) S12(Imag) S22(Real) S22(Imag)
100000 0.9911102 -0.0862731 0.0088898 0.0862731 0.0088898 0.0862731 0.9911102 -0.0862731
102789 0.9906705 -0.0886111 0.0093295 0.0886111 0.0093295 0.0886111 0.9906705 -0.0886111
105655 0.9902076 -0.0910111 0.0097924 0.0910111 0.0097924 0.0910111 0.9902076 -0.0910111
108602 0.9897201 -0.0934746 0.0102799 0.0934746 0.0102799 0.0934746 0.9897201 -0.0934746
111630 0.9892068 -0.0960030 0.0107932 0.0960030 0.0107932 0.0960030 0.9892068 -0.0960030
114743 0.9886662 -0.0985979 0.0113338 0.0985979 0.0113338 0.0985979 0.9886662 -0.0985979
117943 0.9880967 -0.1012607 0.0119033 0.1012607 0.0119033 0.1012607 0.9880967 -0.1012607
121232 0.9874969 -0.1039930 0.0125031 0.1039930 0.0125031 0.1039930 0.9874969 -0.1039930
124613 0.9868650 -0.1067963 0.0131350 0.1067963 0.0131350 0.1067963 0.9868650 -0.1067963
128088 0.9861993 -0.1096722 0.0138007 0.1096722 0.0138007 0.1096722 0.9861993 -0.1096722
131660 0.9854979 -0.1126221 0.0145021 0.1126221 0.0145021 0.1126221 0.9854979 -0.1126221
135332 0.9847590 -0.1156476 0.0152410 0.1156476 0.0152410 0.1156476 0.9847590 -0.1156476
139106 0.9839805 -0.1187503 0.0160195 0.1187503 0.0160195 0.1187503 0.9839805 -0.1187503
142985 0.9831602 -0.1219317 0.0168398 0.1219317 0.0168398 0.1219317 0.9831602 -0.1219317
146972 0.9822961 -0.1251933 0.0177039 0.1251933 0.0177039 0.1251933 0.9822961 -0.1251933
151071 0.9813857 -0.1285367 0.0186143 0.1285367 0.0186143 0.1285367 0.9813857 -0.1285367
155284 0.9804265 -0.1319633 0.0195735 0.1319633 0.0195735 0.1319633 0.9804265 -0.1319633
159614 0.9794162 -0.1354745 0.0205838 0.1354745 0.0205838 0.1354745 0.9794162 -0.1354745
164065 0.9783518 -0.1390720 0.0216482 0.1390720 0.0216482 0.1390720 0.9783518 -0.1390720
168641 0.9772308 -0.1427570 0.0227692 0.1427570 0.0227692 0.1427570 0.9772308 -0.1427570
173344 0.9760501 -0.1465310 0.0239499 0.1465310 0.0239499 0.1465310 0.9760501 -0.1465310
178178 0.9748066 -0.1503952 0.0251934 0.1503952 0.0251934 0.1503952 0.9748066 -0.1503952
183146 0.9734973 -0.1543510 0.0265027 0.1543510 0.0265027 0.1543510 0.9734973 -0.1543510
188254 0.9721187 -0.1583996 0.0278813 0.1583996 0.0278813 0.1583996 0.9721187 -0.1583996
193504 0.9706675 -0.1625422 0.0293325 0.1625422 0.0293325 0.1625422 0.9706675 -0.1625422
198900 0.9691398 -0.1667797 0.0308602 0.1667797 0.0308602 0.1667797 0.9691398 -0.1667797
204447 0.9675321 -0.1711133 0.0324679 0.1711133 0.0324679 0.1711133 0.9675321 -0.1711133
210148 0.9658404 -0.1755438 0.0341596 0.1755438 0.0341596 0.1755438 0.9658404 -0.1755438
216008 0.9640606 -0.1800721 0.0359394 0.1800721 0.0359394 0.1800721 0.9640606 -0.1800721
222032 0.9621884 -0.1846987 0.0378116 0.1846987 0.0378116 0.1846987 0.9621884 -0.1846987
228224 0.9602196 -0.1894242 0.0397804 0.1894242 0.0397804 0.1894242 0.9602196 -0.1894242
234589 0.9581495 -0.1942491 0.0418505 0.1942491 0.0418505 0.1942491 0.9581495 -0.1942491
241130 0.9559734 -0.1991735 0.0440266 0.1991735 0.0440266 0.1991735 0.9559734 -0.1991735
247855 0.9536864 -0.2041976 0.0463136 0.2041976 0.0463136 0.2041976 0.9536864 -0.2041976
254767 0.9512836 -0.2093213 0.0487164 0.2093213 0.0487164 0.2093213 0.9512836 -0.2093213
261871 0.9487597 -0.2145442 0.0512403 0.2145442 0.0512403 0.2145442 0.9487597 -0.2145442
269174 0.9461095 -0.2198659 0.0538905 0.2198659 0.0538905 0.2198659 0.9461095 -0.2198659
276681 0.9433273 -0.2252855 0.0566727 0.2252855 0.0566727 0.2252855 0.9433273 -0.2252855
284397 0.9404075 -0.2308022 0.0595925 0.2308022 0.0595925 0.2308022 0.9404075 -0.2308022
292328 0.9373444 -0.2364145 0.0626556 0.2364145 0.0626556 0.2364145 0.9373444 -0.2364145
300480 0.9341321 -0.2421210 0.0658679 0.2421210 0.0658679 0.2421210 0.9341321 -0.2421210
308859 0.9307645 -0.2479197 0.0692355 0.2479197 0.0692355 0.2479197 0.9307645 -0.2479197
317472 0.9272354 -0.2538086 0.0727646 0.2538086 0.0727646 0.2538086 0.9272354 -0.2538086
326326 0.9235386 -0.2597850 0.0764614 0.2597850 0.0764614 0.2597850 0.9235386 -0.2597850
335426 0.9196677 -0.2658461 0.0803323 0.2658461 0.0803323 0.2658461 0.9196677 -0.2658461
344780 0.9156164 -0.2719886 0.0843836 0.2719886 0.0843836 0.2719886 0.9156164 -0.2719886
354395 0.9113781 -0.2782088 0.0886219 0.2782088 0.0886219 0.2782088 0.9113781 -0.2782088
364278 0.9069463 -0.2845026 0.0930537 0.2845026 0.0930537 0.2845026 0.9069463 -0.2845026
374436 0.9023145 -0.2908654 0.0976855 0.2908654 0.0976855 0.2908654 0.9023145 -0.2908654
384878 0.8974762 -0.2972922 0.1025238 0.2972922 0.1025238 0.2972922 0.8974762 -0.2972922
395611 0.8924249 -0.3037776 0.1075751 0.3037776 0.1075751 0.3037776 0.8924249 -0.3037776
406644 0.8871543 -0.3103155 0.1128457 0.3103155 0.1128457 0.3103155 0.8871543 -0.3103155
417984 0.8816579 -0.3168994 0.1183421 0.3168994 0.1183421 0.3168994 0.8816579 -0.3168994
429640 0.8759297 -0.3235224 0.1240703 0.3235224 0.1240703 0.3235224 0.8759297 -0.3235224
441622 0.8699637 -0.3301767 0.1300363 0.3301767 0.1300363 0.3301767 0.8699637 -0.3301767
453937 0.8637541 -0.3368545 0.1362459 0.3368545 0.1362459 0.3368545 0.8637541 -0.3368545
466596 0.8572954 -0.3435469 0.1427046 0.3435469 0.1427046 0.3435469 0.8572954 -0.3435469
479608 0.8505823 -0.3502448 0.1494177 0.3502448 0.1494177 0.3502448 0.8505823 -0.3502448
492983 0.8436099 -0.3569383 0.1563901 0.3569383 0.1563901 0.3569383 0.8436099 -0.3569383
506731 0.8363739 -0.3636173 0.1636261 0.3636173 0.1636261 0.3636173 0.8363739 -0.3636173
520862 0.8288702 -0.3702707 0.1711298 0.3702707 0.1711298 0.3702707 0.8288702 -0.3702707
535387 0.8210951 -0.3768873 0.1789049 0.3768873 0.1789049 0.3768873 0.8210951 -0.3768873
550318 0.8130459 -0.3834550 0.1869541 0.3834550 0.1869541 0.3834550 0.8130459 -0.3834550
565664 0.8047200 -0.3899614 0.1952800 0.3899614 0.1952800 0.3899614 0.8047200 -0.3899614
581439 0.7961158 -0.3963938 0.2038842 0.3963938 0.2038842 0.3963938 0.7961158 -0.3963938
597654 0.7872323 -0.4027386 0.2127677 0.4027386 0.2127677 0.4027386 0.7872323 -0.4027386
614320 0.7780692 -0.4089824 0.2219308 0.4089824 0.2219308 0.4089824 0.7780692 -0.4089824
631452 0.7686271 -0.4151108 0.2313729 0.4151108 0.2313729 0.4151108 0.7686271 -0.4151108
649061 0.7589074 -0.4211097 0.2410926 0.4211097 0.2410926 0.4211097 0.7589074 -0.4211097
667162 0.7489126 -0.4269644 0.2510874 0.4269644 0.2510874 0.4269644 0.7489126 -0.4269644
685767 0.7386459 -0.4326601 0.2613541 0.4326601 0.2613541 0.4326601 0.7386459 -0.4326601
704891 0.7281116 -0.4381818 0.2718884 0.4381818 0.2718884 0.4381818 0.7281116 -0.4381818
724548 0.7173151 -0.4435148 0.2826849 0.4435148 0.2826849 0.4435148 0.7173151 -0.4435148
744754 0.7062627 -0.4486439 0.2937373 0.4486439 0.2937373 0.4486439 0.7062627 -0.4486439
765523 0.6949619 -0.4535546 0.3050381 0.4535546 0.3050381 0.4535546 0.6949619 -0.4535546
786871 0.6834212 -0.4582321 0.3165788 0.4582321 0.3165788 0.4582321 0.6834212 -0.4582321
808814 0.6716502 -0.4626624 0.3283498 0.4626624 0.3283498 0.4626624 0.6716502 -0.4626624
831370 0.6596596 -0.4668315 0.3403404 0.4668315 0.3403404 0.4668315 0.6596596 -0.4668315
854554 0.6474612 -0.4707261 0.3525388 0.4707261 0.3525388 0.4707261 0.6474612 -0.4707261
878385 0.6350678 -0.4743335 0.3649322 0.4743335 0.3649322 0.4743335 0.6350678 -0.4743335
902880 0.6224931 -0.4776416 0.3775069 0.4776416 0.3775069 0.4776416 0.6224931 -0.4776416
928059 0.6097519 -0.4806391 0.3902481 0.4806391 0.3902481 0.4806391 0.6097519 -0.4806391
953940 0.5968598 -0.4833156 0.4031402 0.4833156 0.4031402 0.4833156 0.5968598 -0.4833156
980542 0.5838334 -0.4856617 0.4161666 0.4856617 0.4161666 0.4856617 0.5838334 -0.4856617
1007887 0.5706898 -0.4876690 0.4293102 0.4876690 0.4293102 0.4876690 0.5706898 -0.4876690
1035994 0.5574470 -0.4893303 0.4425530 0.4893303 0.4425530 0.4893303 0.5574470 -0.4893303
1064885 0.5441236 -0.4906393 0.4558764 0.4906393 0.4558764 0.4906393 0.5441236 -0.4906393
1094581 0.5307383 -0.4915912 0.4692617 0.4915912 0.4692617 0.4915912 0.5307383 -0.4915912
1125106 0.5173107 -0.4921825 0.4826893 0.4921825 0.4826893 0.4921825 0.5173107 -0.4921825
1156481 0.5038604 -0.4924108 0.4961396 0.4924108 0.4961396 0.4924108 0.5038604 -0.4924108
1188732 0.4904070 -0.4922752 0.5095930 0.4922752 0.5095930 0.4922752 0.4904070 -0.4922752
1221882 0.4769705 -0.4917761 0.5230295 0.4917761 0.5230295 0.4917761 0.4769705 -0.4917761
1255957 0.4635705 -0.4909152 0.5364295 0.4909152 0.5364295 0.4909152 0.4635705 -0.4909152
1290982 0.4502267 -0.4896956 0.5497733 0.4896956 0.5497733 0.4896956 0.4502267 -0.4896956
1326984 0.4369581 -0.4881217 0.5630419 0.4881217 0.5630419 0.4881217 0.4369581 -0.4881217
1363989 0.4237836 -0.4861991 0.5762164 0.4861991 0.5762164 0.4861991 0.4237836 -0.4861991
1402027 0.4107214 -0.4839346 0.5892786 0.4839346 0.5892786 0.4839346 0.4107214 -0.4839346
1441125 0.3977891 -0.4813364 0.6022109 0.4813364 0.6022109 0.4813364 0.3977891 -0.4813364
1481314 0.3850037 -0.4784135 0.6149963 0.4784135 0.6149963 0.4784135 0.3850037 -0.4784135
1522623 0.3723813 -0.4751760 0.6276187 0.4751760 0.6276187 0.4751760 0.3723813 -0.4751760
1565085 0.3599370 -0.4716351 0.6400630 0.4716351 0.6400630 0.4716351 0.3599370 -0.4716351
1608730 0.3476852 -0.4678027 0.6523148 0.4678027 0.6523148 0.4678027 0.3476852 -0.4678027
1653593 0.3356390 -0.4636913 0.6643610 0.4636913 0.6643610 0.4636913 0.3356390 -0.4636913
1699707 0.3238108 -0.4593144 0.6761892 0.4593144 0.6761892 0.4593144 0.3238108 -0.4593144
1747106 0.3122117 -0.4546859 0.6877883 0.4546859 0.6877883 0.4546859 0.3122117 -0.4546859
1795828 0.3008517 -0.4498200 0.6991483 0.4498200 0.6991483 0.4498200 0.3008517 -0.4498200
1845908 0.2897398 -0.4447314 0.7102602 0.4447314 0.7102602 0.4447314 0.2897398 -0.4447314
1897385 0.2788837 -0.4394352 0.7211163 0.4394352 0.7211163 0.4394352 0.2788837 -0.4394352
1950297 0.2682903 -0.4339464 0.7317097 0.4339464 0.7317097 0.4339464 0.2682903 -0.4339464
2004685 0.2579652 -0.4282803 0.7420348 0.4282803 0.7420348 0.4282803 0.2579652 -0.4282803
2060590 0.2479128 -0.4224520 0.7520872 0.4224520 0.7520872 0.4224520 0.2479128 -0.4224520
2118054 0.2381368 -0.4164765 0.7618632 0.4164765 0.7618632 0.4164765 0.2381368 -0.4164765
2177120 0.2286396 -0.4103689 0.7713604 0.4103689 0.7713604 0.4103689 0.2286396 -0.4103689
2237833 0.2194228 -0.4041439 0.7805772 0.4041439 0.7805772 0.4041439 0.2194228 -0.4041439
2300240 0.2104871 -0.3978157 0.7895129 0.3978157 0.7895129 0.3978157 0.2104871 -0.3978157
2364387 0.2018322 -0.3913984 0.7981678 0.3913984 0.7981678 0.3913984 0.2018322 -0.3913984
2430322 0.1934572 -0.3849057 0.8065428 0.3849057 0.8065428 0.3849057 0.1934572 -0.3849057
2498097 0.1853603 -0.3783507 0.8146397 0.3783507 0.8146397 0.3783507 0.1853603 -0.3783507
2567761 0.1775390 -0.3717460 0.8224610 0.3717460 0.8224610 0.3717460 0.1775390 -0.3717460
2639368 0.1699903 -0.3651039 0.8300097 0.3651039 0.8300097 0.3651039 0.1699903 -0.3651039
2712972 0.1627105 -0.3584358 0.8372895 0.3584358 0.8372895 0.3584358 0.1627105 -0.3584358
2788629 0.1556953 -0.3517530 0.8443047 0.3517530 0.8443047 0.3517530 0.1556953 -0.3517530
2866396 0.1489403 -0.3450658 0.8510597 0.3450658 0.8510597 0.3450658 0.1489403 -0.3450658
2946331 0.1424402 -0.3383842 0.8575598 0.3383842 0.8575598 0.3383842 0.1424402 -0.3383842
3028495 0.1361898 -0.3317174 0.8638102 0.3317174 0.8638102 0.3317174 0.1361898 -0.3317174
3112951 0.1301833 -0.3250741 0.8698167 0.3250741 0.8698167 0.3250741 0.1301833 -0.3250741
3199762 0.1244148 -0.3184626 0.8755852 0.3184626 0.8755852 0.3184626 0.1244148 -0.3184626
3288994 0.1188780 -0.3118903 0.8811220 0.3118903 0.8811220 0.3118903 0.1188780 -0.3118903
3380714 0.1135667 -0.3053643 0.8864333 0.3053643 0.8864333 0.3053643 0.1135667 -0.3053643
3474992 0.1084744 -0.2988910 0.8915256 0.2988910 0.8915256 0.2988910 0.1084744 -0.2988910
3571899 0.1035945 -0.2924764 0.8964055 0.2924764 0.8964055 0.2924764 0.1035945 -0.2924764
3671508 0.0989205 -0.2861258 0.9010795 0.2861258 0.9010795 0.2861258 0.0989205 -0.2861258
3773896 0.0944456 -0.2798442 0.9055544 0.2798442 0.9055544 0.2798442 0.0944456 -0.2798442
3879139 0.0901634 -0.2736360 0.9098366 0.2736360 0.9098366 0.2736360 0.0901634 -0.2736360
3987316 0.0860672 -0.2675052 0.9139328 0.2675052 0.9139328 0.2675052 0.0860672 -0.2675052
4098510 0.0821505 -0.2614553 0.9178495 0.2614553 0.9178495 0.2614553 0.0821505 -0.2614553
4212806 0.0784067 -0.2554896 0.9215933 0.2554896 0.9215933 0.2554896 0.0784067 -0.2554896
4330288 0.0748296 -0.2496106 0.9251704 0.2496106 0.9251704 0.2496106 0.0748296 -0.2496106
4451047 0.0714128 -0.2438210 0.9285872 0.2438210 0.9285872 0.2438210 0.0714128 -0.2438210
4575173 0.0681503 -0.2381226 0.9318497 0.2381226 0.9318497 0.2381226 0.0681503 -0.2381226
4702761 0.0650360 -0.2325172 0.9349640 0.2325172 0.9349640 0.2325172 0.0650360 -0.2325172
4833907 0.0620640 -0.2270063 0.9379360 0.2270063 0.9379360 0.2270063 0.0620640 -0.2270063
4968711 0.0592286 -0.2215910 0.9407714 0.2215910 0.9407714 0.2215910 0.0592286 -0.2215910
5107273 0.0565243 -0.2162722 0.9434757 0.2162722 0.9434757 0.2162722 0.0565243 -0.2162722
5249700 0.0539456 -0.2110505 0.9460544 0.2110505 0.9460544 0.2110505 0.0539456 -0.2110505
5396098 0.0514873 -0.2059264 0.9485127 0.2059264 0.9485127 0.2059264 0.0514873 -0.2059264
5546579 0.0491443 -0.2009000 0.9508557 0.2009000 0.9508557 0.2009000 0.0491443 -0.2009000
5701257 0.0469116 -0.1959715 0.9530884 0.1959715 0.9530884 0.1959715 0.0469116 -0.1959715
5860248 0.0447846 -0.1911407 0.9552154 0.1911407 0.9552154 0.1911407 0.0447846 -0.1911407
6023672 0.0427586 -0.1864073 0.9572414 0.1864073 0.9572414 0.1864073 0.0427586 -0.1864073
6191655 0.0408292 -0.1817708 0.9591708 0.1817708 0.9591708 0.1817708 0.0408292 -0.1817708
6364321 0.0389921 -0.1772307 0.9610079 0.1772307 0.9610079 0.1772307 0.0389921 -0.1772307
6541803 0.0372433 -0.1727863 0.9627567 0.1727863 0.9627567 0.1727863 0.0372433 -0.1727863
6724235 0.0355787 -0.1684369 0.9644213 0.1684369 0.9644213 0.1684369 0.0355787 -0.1684369
6911753 0.0339946 -0.1641814 0.9660054 0.1641814 0.9660054 0.1641814 0.0339946 -0.1641814
7104501 0.0324873 -0.1600190 0.9675127 0.1600190 0.9675127 0.1600190 0.0324873 -0.1600190
7302625 0.0310532 -0.1559486 0.9689468 0.1559486 0.9689468 0.1559486 0.0310532 -0.1559486
7506273 0.0296892 -0.1519691 0.9703108 0.1519691 0.9703108 0.1519691 0.0296892 -0.1519691
7715601 0.0283918 -0.1480794 0.9716082 0.1480794 0.9716082 0.1480794 0.0283918 -0.1480794
7930766 0.0271580 -0.1442780 0.9728420 0.1442780 0.9728420 0.1442780 0.0271580 -0.1442780
8151931 0.0259848 -0.1405639 0.9740152 0.1405639 0.9740152 0.1405639 0.0259848 -0.1405639
8379264 0.0248695 -0.1369357 0.9751305 0.1369357 0.9751305 0.1369357 0.0248695 -0.1369357
8612937 0.0238091 -0.1333921 0.9761909 0.1333921 0.9761909 0.1333921 0.0238091 -0.1333921
8853126 0.0228013 -0.1299316 0.9771987 0.1299316 0.9771987 0.1299316 0.0228013 -0.1299316
9100013 0.0218433 -0.1265529 0.9781567 0.1265529 0.9781567 0.1265529 0.0218433 -0.1265529
9353785 0.0209330 -0.1232545 0.9790670 0.1232545 0.9790670 0.1232545 0.0209330 -0.1232545
9614634 0.0200678 -0.1200350 0.9799322 0.1200350 0.9799322 0.1200350 0.0200678 -0.1200350
9882758 0.0192458 -0.1168930 0.9807542 0.1168930 0.9807542 0.1168930 0.0192458 -0.1168930
10158358 0.0184648 -0.1138270 0.9815352 0.1138270 0.9815352 0.1138270 0.0184648 -0.1138270
10441645 0.0177227 -0.1108356 0.9822773 0.1108356 0.9822773 0.1108356 0.0177227 -0.1108356
10732831 0.0170177 -0.1079172 0.9829823 0.1079172 0.9829823 0.1079172 0.0170177 -0.1079172
11032137 0.0163479 -0.1050705 0.9836521 0.1050705 0.9836521 0.1050705 0.0163479 -0.1050705
11339791 0.0157116 -0.1022939 0.9842884 0.1022939 0.9842884 0.1022939 0.0157116 -0.1022939
11656024 0.0151072 -0.0995860 0.9848928 0.0995860 0.9848928 0.0995860 0.0151072 -0.0995860
11981075 0.0145330 -0.0969454 0.9854670 0.0969454 0.9854670 0.0969454 0.0145330 -0.0969454
12315192 0.0139875 -0.0943705 0.9860125 0.0943705 0.9860125 0.0943705 0.0139875 -0.0943705
12658625 0.0134693 -0.0918601 0.9865307 0.0918601 0.9865307 0.0918601 0.0134693 -0.0918601
13011637 0.0129769 -0.0894126 0.9870231 0.0894126 0.9870231 0.0894126 0.0129769 -0.0894126
13374492 0.0125092 -0.0870267 0.9874908 0.0870267 0.9874908 0.0870267 0.0125092 -0.0870267
13747467 0.0120647 -0.0847009 0.9879353 0.0847009 0.9879353 0.0847009 0.0120647 -0.0847009
14130843 0.0116424 -0.0824339 0.9883576 0.0824339 0.9883576 0.0824339 0.0116424 -0.0824339
14524910 0.0112410 -0.0802243 0.9887590 0.0802243 0.9887590 0.0802243 0.0112410 -0.0802243
14929966 0.0108595 -0.0780707 0.9891405 0.0780707 0.9891405 0.0780707 0.0108595 -0.0780707
15346318 0.0104968 -0.0759719 0.9895032 0.0759719 0.9895032 0.0759719 0.0104968 -0.0759719
15774281 0.0101520 -0.0739265 0.9898480 0.0739265 0.9898480 0.0739265 0.0101520 -0.0739265
16214179 0.0098241 -0.0719332 0.9901759 0.0719332 0.9901759 0.0719332 0.0098241 -0.0719332
16666344 0.0095122 -0.0699908 0.9904878 0.0699908 0.9904878 0.0699908 0.0095122 -0.0699908
17131118 0.0092154 -0.0680979 0.9907846 0.0680979 0.9907846 0.0680979 0.0092154 -0.0680979
17608854 0.0089330 -0.0662534 0.9910670 0.0662534 0.9910670 0.0662534 0.0089330 -0.0662534
18099912 0.0086642 -0.0644560 0.9913358 0.0644560 0.9913358 0.0644560 0.0086642 -0.0644560
18604665 0.0084082 -0.0627045 0.9915918 0.0627045 0.9915918 0.0627045 0.0084082 -0.0627045
19123493 0.0081643 -0.0609977 0.9918357 0.0609977 0.9918357 0.0609977 0.0081643 -0.0609977
19656790 0.0079320 -0.0593345 0.9920680 0.0593345 0.9920680 0.0593345 0.0079320 -0.0593345
20204959 0.0077104 -0.0577138 0.9922896 0.0577138 0.9922896 0.0577138 0.0077104 -0.0577138
20768415 0.0074992 -0.0561343 0.9925008 0.0561343 0.9925008 0.0561343 0.0074992 -0.0561343
21347584 0.0072976 -0.0545951 0.9927024 0.0545951 0.9927024 0.0545951 0.0072976 -0.0545951
21942904 0.0071051 -0.0530950 0.9928949 0.0530950 0.9928949 0.0530950 0.0071051 -0.0530950
22554827 0.0069213 -0.0516329 0.9930787 0.0516329 0.9930787 0.0516329 0.0069213 -0.0516329
23183813 0.0067457 -0.0502078 0.9932543 0.0502078 0.9932543 0.0502078 0.0067457 -0.0502078
23830340 0.0065777 -0.0488188 0.9934223 0.0488188 0.9934223 0.0488188 0.0065777 -0.0488188
24494897 0.0064170 -0.0474647 0.9935830 0.0474647 0.9935830 0.0474647 0.0064170 -0.0474647
25177987 0.0062632 -0.0461446 0.9937368 0.0461446 0.9937368 0.0461446 0.0062632 -0.0461446
25880126 0.0061159 -0.0448575 0.9938841 0.0448575 0.9938841 0.0448575 0.0061159 -0.0448575
26601845 0.0059747 -0.0436026 0.9940253 0.0436026 0.9940253 0.0436026 0.0059747 -0.0436026
27343691 0.0058392 -0.0423787 0.9941608 0.0423787 0.9941608 0.0423787 0.0058392 -0.0423787
28106225 0.0057093 -0.0411852 0.9942907 0.0411852 0.9942907 0.0411852 0.0057093 -0.0411852
28890023 0.0055844 -0.0400210 0.9944156 0.0400210 0.9944156 0.0400210 0.0055844 -0.0400210
29695680 0.0054645 -0.0388852 0.9945355 0.0388852 0.9945355 0.0388852 0.0054645 -0.0388852
30523804 0.0053492 -0.0377771 0.9946508 0.0377771 0.9946508 0.0377771 0.0053492 -0.0377771
31375021 0.0052382 -0.0366958 0.9947618 0.0366958 0.9947618 0.0366958 0.0052382 -0.0366958
32249977 0.0051314 -0.0356405 0.9948686 0.0356405 0.9948686 0.0356405 0.0051314 -0.0356405
33149332 0.0050285 -0.0346104 0.9949715 0.0346104 0.9949715 0.0346104 0.0050285 -0.0346104
34073768 0.0049293 -0.0336046 0.9950707 0.0336046 0.9950707 0.0336046 0.0049293 -0.0336046
35023984 0.0048337 -0.0326225 0.9951663 0.0326225 0.9951663 0.0326225 0.0048337 -0.0326225
36000698 0.0047415 -0.0316633 0.9952585 0.0316633 0.9952585 0.0316633 0.0047415 -0.0316633
37004650 0.0046524 -0.0307263 0.9953476 0.0307263 0.9953476 0.0307263 0.0046524 -0.0307263
38036599 0.0045665 -0.0298107 0.9954335 0.0298107 0.9954335 0.0298107 0.0045665 -0.0298107
39097326 0.0044834 -0.0289159 0.9955166 0.0289159 0.9955166 0.0289159 0.0044834 -0.0289159
