!Murata Part Number: GRM31MB11A225KA01
!These Parameters are Measured in Series Mode Connection
!Data Generated on Mar 30, 2021
!       o--ll--o
!Port1            Port2
!       o------o
!Operation Temp=25[degC], DC Bias Voltage=0[V]
!Freq. Start=100[Hz] Stop=6[GHz] 401[Steps]
# Hz S RI R 50
!Freq.(Hz) S11(Real) S11(Imag) S21(Real) S21(Imag) S12(Real) S12(Imag) S22(Real) S22(Imag)
100 0.9817044 -0.1326509 0.0182956 0.1326509 0.0182956 0.1326509 0.9817044 -0.1326509
105 0.9800353 -0.1384733 0.0199647 0.1384733 0.0199647 0.1384733 0.9800353 -0.1384733
109 0.9782179 -0.1445281 0.0217821 0.1445281 0.0217821 0.1445281 0.9782179 -0.1445281
114 0.9762397 -0.1508214 0.0237603 0.1508214 0.0237603 0.1508214 0.9762397 -0.1508214
120 0.9740872 -0.1573591 0.0259128 0.1573591 0.0259128 0.1573591 0.9740872 -0.1573591
125 0.9717460 -0.1641466 0.0282540 0.1641466 0.0282540 0.1641466 0.9717460 -0.1641466
131 0.9692006 -0.1711888 0.0307994 0.1711888 0.0307994 0.1711888 0.9692006 -0.1711888
137 0.9664345 -0.1784903 0.0335655 0.1784903 0.0335655 0.1784903 0.9664345 -0.1784903
143 0.9634300 -0.1860548 0.0365700 0.1860548 0.0365700 0.1860548 0.9634300 -0.1860548
150 0.9601684 -0.1938851 0.0398316 0.1938851 0.0398316 0.1938851 0.9601684 -0.1938851
156 0.9566295 -0.2019833 0.0433705 0.2019833 0.0433705 0.2019833 0.9566295 -0.2019833
164 0.9527923 -0.2103501 0.0472077 0.2103501 0.0472077 0.2103501 0.9527923 -0.2103501
171 0.9486343 -0.2189852 0.0513657 0.2189852 0.0513657 0.2189852 0.9486343 -0.2189852
179 0.9441320 -0.2278865 0.0558680 0.2278865 0.0558680 0.2278865 0.9441320 -0.2278865
187 0.9392605 -0.2370505 0.0607395 0.2370505 0.0607395 0.2370505 0.9392605 -0.2370505
196 0.9339942 -0.2464715 0.0660058 0.2464715 0.0660058 0.2464715 0.9339942 -0.2464715
205 0.9283060 -0.2561420 0.0716940 0.2561420 0.0716940 0.2561420 0.9283060 -0.2561420
214 0.9221684 -0.2660517 0.0778316 0.2660517 0.0778316 0.2660517 0.9221684 -0.2660517
224 0.9155527 -0.2761879 0.0844473 0.2761879 0.0844473 0.2761879 0.9155527 -0.2761879
234 0.9084300 -0.2865351 0.0915700 0.2865351 0.0915700 0.2865351 0.9084300 -0.2865351
245 0.9007708 -0.2970744 0.0992292 0.2970744 0.0992292 0.2970744 0.9007708 -0.2970744
256 0.8925457 -0.3077836 0.1074543 0.3077836 0.1074543 0.3077836 0.8925457 -0.3077836
268 0.8837256 -0.3186370 0.1162744 0.3186370 0.1162744 0.3186370 0.8837256 -0.3186370
280 0.8742821 -0.3296048 0.1257179 0.3296048 0.1257179 0.3296048 0.8742821 -0.3296048
293 0.8641878 -0.3406533 0.1358122 0.3406533 0.1358122 0.3406533 0.8641878 -0.3406533
306 0.8534171 -0.3517449 0.1465829 0.3517449 0.1465829 0.3517449 0.8534171 -0.3517449
320 0.8419465 -0.3628374 0.1580535 0.3628374 0.1580535 0.3628374 0.8419465 -0.3628374
335 0.8297553 -0.3738848 0.1702447 0.3738848 0.1702447 0.3738848 0.8297553 -0.3738848
350 0.8168262 -0.3848366 0.1831738 0.3848366 0.1831738 0.3848366 0.8168262 -0.3848366
366 0.8031461 -0.3956386 0.1968539 0.3956386 0.1968539 0.3956386 0.8031461 -0.3956386
383 0.7887065 -0.4062330 0.2112935 0.4062330 0.2112935 0.4062330 0.7887065 -0.4062330
401 0.7735044 -0.4165587 0.2264956 0.4165587 0.2264956 0.4165587 0.7735044 -0.4165587
419 0.7575431 -0.4265520 0.2424569 0.4265520 0.2424569 0.4265520 0.7575431 -0.4265520
438 0.7408322 -0.4361470 0.2591678 0.4361470 0.2591678 0.4361470 0.7408322 -0.4361470
458 0.7233889 -0.4452768 0.2766111 0.4452768 0.2766111 0.4452768 0.7233889 -0.4452768
479 0.7052377 -0.4538740 0.2947623 0.4538740 0.2947623 0.4538740 0.7052377 -0.4538740
501 0.6864112 -0.4618720 0.3135888 0.4618720 0.3135888 0.4618720 0.6864112 -0.4618720
524 0.6669500 -0.4692060 0.3330500 0.4692060 0.3330500 0.4692060 0.6669500 -0.4692060
548 0.6469028 -0.4758140 0.3530972 0.4758140 0.3530972 0.4758140 0.6469028 -0.4758140
573 0.6263259 -0.4816383 0.3736741 0.4816383 0.3736741 0.4816383 0.6263259 -0.4816383
600 0.6052829 -0.4866264 0.3947171 0.4866264 0.3947171 0.4866264 0.6052829 -0.4866264
627 0.5838444 -0.4907322 0.4161556 0.4907322 0.4161556 0.4907322 0.5838444 -0.4907322
656 0.5620865 -0.4939168 0.4379135 0.4939168 0.4379135 0.4939168 0.5620865 -0.4939168
686 0.5400902 -0.4961499 0.4599098 0.4961499 0.4599098 0.4961499 0.5400902 -0.4961499
717 0.5179403 -0.4974099 0.4820597 0.4974099 0.4820597 0.4974099 0.5179403 -0.4974099
750 0.4957239 -0.4976849 0.5042761 0.4976849 0.5042761 0.4976849 0.4957239 -0.4976849
784 0.4735288 -0.4969725 0.5264712 0.4969725 0.5264712 0.4969725 0.4735288 -0.4969725
820 0.4514428 -0.4952804 0.5485572 0.4952804 0.5485572 0.4952804 0.4514428 -0.4952804
858 0.4295517 -0.4926256 0.5704483 0.4926256 0.5704483 0.4926256 0.4295517 -0.4926256
897 0.4079382 -0.4890346 0.5920618 0.4890346 0.5920618 0.4890346 0.4079382 -0.4890346
938 0.3866806 -0.4845422 0.6133194 0.4845422 0.6133194 0.4845422 0.3866806 -0.4845422
981 0.3658519 -0.4791910 0.6341481 0.4791910 0.6341481 0.4791910 0.3658519 -0.4791910
1026 0.3455187 -0.4730305 0.6544813 0.4730305 0.6544813 0.4730305 0.3455187 -0.4730305
1073 0.3257406 -0.4661158 0.6742594 0.4661158 0.6742594 0.4661158 0.3257406 -0.4661158
1122 0.3065697 -0.4585065 0.6934303 0.4585065 0.6934303 0.4585065 0.3065697 -0.4585065
1174 0.2880501 -0.4502657 0.7119499 0.4502657 0.7119499 0.4502657 0.2880501 -0.4502657
1227 0.2702181 -0.4414589 0.7297819 0.4414589 0.7297819 0.4414589 0.2702181 -0.4414589
1283 0.2531020 -0.4321524 0.7468980 0.4321524 0.7468980 0.4321524 0.2531020 -0.4321524
1342 0.2367225 -0.4224129 0.7632775 0.4224129 0.7632775 0.4224129 0.2367225 -0.4224129
1404 0.2210929 -0.4123062 0.7789071 0.4123062 0.7789071 0.4123062 0.2210929 -0.4123062
1468 0.2062198 -0.4018965 0.7937802 0.4018965 0.7937802 0.4018965 0.2062198 -0.4018965
1535 0.1921034 -0.3912455 0.8078966 0.3912455 0.8078966 0.3912455 0.1921034 -0.3912455
1606 0.1787383 -0.3804122 0.8212617 0.3804122 0.8212617 0.3804122 0.1787383 -0.3804122
1679 0.1661142 -0.3694520 0.8338858 0.3694520 0.8338858 0.3694520 0.1661142 -0.3694520
1756 0.1542162 -0.3584169 0.8457838 0.3584169 0.8457838 0.3584169 0.1542162 -0.3584169
1836 0.1430260 -0.3473546 0.8569740 0.3473546 0.8569740 0.3473546 0.1430260 -0.3473546
1920 0.1325221 -0.3363091 0.8674779 0.3363091 0.8674779 0.3363091 0.1325221 -0.3363091
2008 0.1226807 -0.3253201 0.8773193 0.3253201 0.8773193 0.3253201 0.1226807 -0.3253201
2100 0.1134757 -0.3144232 0.8865243 0.3144232 0.8865243 0.3144232 0.1134757 -0.3144232
2196 0.1048801 -0.3036502 0.8951199 0.3036502 0.8951199 0.3036502 0.1048801 -0.3036502
2297 0.0968657 -0.2930290 0.9031343 0.2930290 0.9031343 0.2930290 0.0968657 -0.2930290
2402 0.0894037 -0.2825839 0.9105963 0.2825839 0.9105963 0.2825839 0.0894037 -0.2825839
2512 0.0824653 -0.2723355 0.9175347 0.2723355 0.9175347 0.2723355 0.0824653 -0.2723355
2627 0.0760218 -0.2623016 0.9239782 0.2623016 0.9239782 0.2623016 0.0760218 -0.2623016
2748 0.0700446 -0.2524966 0.9299554 0.2524966 0.9299554 0.2524966 0.0700446 -0.2524966
2873 0.0645061 -0.2429326 0.9354939 0.2429326 0.9354939 0.2429326 0.0645061 -0.2429326
3005 0.0593792 -0.2336188 0.9406208 0.2336188 0.9406208 0.2336188 0.0593792 -0.2336188
3143 0.0546376 -0.2245623 0.9453624 0.2245623 0.9453624 0.2245623 0.0546376 -0.2245623
3287 0.0502561 -0.2157683 0.9497439 0.2157683 0.9497439 0.2157683 0.0502561 -0.2157683
3437 0.0462107 -0.2072399 0.9537893 0.2072399 0.9537893 0.2072399 0.0462107 -0.2072399
3594 0.0424784 -0.1989788 0.9575216 0.1989788 0.9575216 0.1989788 0.0424784 -0.1989788
3759 0.0390371 -0.1909853 0.9609629 0.1909853 0.9609629 0.1909853 0.0390371 -0.1909853
3931 0.0358663 -0.1832581 0.9641337 0.1832581 0.9641337 0.1832581 0.0358663 -0.1832581
4111 0.0329464 -0.1757954 0.9670536 0.1757954 0.9670536 0.1757954 0.0329464 -0.1757954
4299 0.0302589 -0.1685939 0.9697411 0.1685939 0.9697411 0.1685939 0.0302589 -0.1685939
4496 0.0277866 -0.1616498 0.9722134 0.1616498 0.9722134 0.1616498 0.0277866 -0.1616498
4702 0.0255132 -0.1549588 0.9744868 0.1549588 0.9744868 0.1549588 0.0255132 -0.1549588
4918 0.0234235 -0.1485156 0.9765765 0.1485156 0.9765765 0.1485156 0.0234235 -0.1485156
5143 0.0215034 -0.1423148 0.9784966 0.1423148 0.9784966 0.1423148 0.0215034 -0.1423148
5378 0.0197398 -0.1363505 0.9802602 0.1363505 0.9802602 0.1363505 0.0197398 -0.1363505
5625 0.0181203 -0.1306165 0.9818797 0.1306165 0.9818797 0.1306165 0.0181203 -0.1306165
5882 0.0166335 -0.1251064 0.9833665 0.1251064 0.9833665 0.1251064 0.0166335 -0.1251064
6151 0.0152689 -0.1198138 0.9847311 0.1198138 0.9847311 0.1198138 0.0152689 -0.1198138
6433 0.0140167 -0.1147319 0.9859833 0.1147319 0.9859833 0.1147319 0.0140167 -0.1147319
6728 0.0128678 -0.1098541 0.9871322 0.1098541 0.9871322 0.1098541 0.0128678 -0.1098541
7036 0.0118138 -0.1051737 0.9881862 0.1051737 0.9881862 0.1051737 0.0118138 -0.1051737
7358 0.0108469 -0.1006840 0.9891531 0.1006840 0.9891531 0.1006840 0.0108469 -0.1006840
7695 0.0099601 -0.0963783 0.9900399 0.0963783 0.9900399 0.0963783 0.0099601 -0.0963783
8047 0.0091467 -0.0922502 0.9908533 0.0922502 0.9908533 0.0922502 0.0091467 -0.0922502
8416 0.0084007 -0.0882932 0.9915993 0.0882932 0.9915993 0.0882932 0.0084007 -0.0882932
8801 0.0077165 -0.0845009 0.9922835 0.0845009 0.9922835 0.0845009 0.0077165 -0.0845009
9204 0.0070889 -0.0808671 0.9929111 0.0808671 0.9929111 0.0808671 0.0070889 -0.0808671
9626 0.0065133 -0.0773858 0.9934867 0.0773858 0.9934867 0.0773858 0.0065133 -0.0773858
10066 0.0059852 -0.0740511 0.9940148 0.0740511 0.9940148 0.0740511 0.0059852 -0.0740511
10527 0.0055008 -0.0708572 0.9944992 0.0708572 0.9944992 0.0708572 0.0055008 -0.0708572
11009 0.0050564 -0.0677986 0.9949436 0.0677986 0.9949436 0.0677986 0.0050564 -0.0677986
11514 0.0046486 -0.0648697 0.9953514 0.0648697 0.9953514 0.0648697 0.0046486 -0.0648697
12041 0.0042743 -0.0620655 0.9957257 0.0620655 0.9957257 0.0620655 0.0042743 -0.0620655
12592 0.0039308 -0.0593807 0.9960692 0.0593807 0.9960692 0.0593807 0.0039308 -0.0593807
13169 0.0036155 -0.0568106 0.9963845 0.0568106 0.9963845 0.0568106 0.0036155 -0.0568106
13772 0.0033261 -0.0543503 0.9966739 0.0543503 0.9966739 0.0543503 0.0033261 -0.0543503
14402 0.0030603 -0.0519954 0.9969397 0.0519954 0.9969397 0.0519954 0.0030603 -0.0519954
15062 0.0028162 -0.0497414 0.9971838 0.0497414 0.9971838 0.0497414 0.0028162 -0.0497414
15752 0.0025921 -0.0475841 0.9974079 0.0475841 0.9974079 0.0475841 0.0025921 -0.0475841
16473 0.0023862 -0.0455195 0.9976138 0.0455195 0.9976138 0.0455195 0.0023862 -0.0455195
17227 0.0021972 -0.0435436 0.9978028 0.0435436 0.9978028 0.0435436 0.0021972 -0.0435436
18016 0.0020235 -0.0416527 0.9979765 0.0416527 0.9979765 0.0416527 0.0020235 -0.0416527
18841 0.0018639 -0.0398433 0.9981361 0.0398433 0.9981361 0.0398433 0.0018639 -0.0398433
19704 0.0017173 -0.0381119 0.9982827 0.0381119 0.9982827 0.0381119 0.0017173 -0.0381119
20606 0.0015826 -0.0364551 0.9984174 0.0364551 0.9984174 0.0364551 0.0015826 -0.0364551
21550 0.0014589 -0.0348698 0.9985411 0.0348698 0.9985411 0.0348698 0.0014589 -0.0348698
22537 0.0013453 -0.0333529 0.9986547 0.0333529 0.9986547 0.0333529 0.0013453 -0.0333529
23569 0.0012409 -0.0319016 0.9987591 0.0319016 0.9987591 0.0319016 0.0012409 -0.0319016
24648 0.0011450 -0.0305131 0.9988550 0.0305131 0.9988550 0.0305131 0.0011450 -0.0305131
25777 0.0010569 -0.0291846 0.9989431 0.0291846 0.9989431 0.0291846 0.0010569 -0.0291846
26957 0.0009760 -0.0279136 0.9990240 0.0279136 0.9990240 0.0279136 0.0009760 -0.0279136
28191 0.0009018 -0.0266976 0.9990982 0.0266976 0.9990982 0.0266976 0.0009018 -0.0266976
29482 0.0008335 -0.0255344 0.9991665 0.0255344 0.9991665 0.0255344 0.0008335 -0.0255344
30832 0.0007709 -0.0244216 0.9992291 0.0244216 0.9992291 0.0244216 0.0007709 -0.0244216
32244 0.0007134 -0.0233570 0.9992866 0.0233570 0.9992866 0.0233570 0.0007134 -0.0233570
33721 0.0006606 -0.0223387 0.9993394 0.0223387 0.9993394 0.0223387 0.0006606 -0.0223387
35265 0.0006121 -0.0213646 0.9993879 0.0213646 0.9993879 0.0213646 0.0006121 -0.0213646
36880 0.0005676 -0.0204329 0.9994324 0.0204329 0.9994324 0.0204329 0.0005676 -0.0204329
38569 0.0005267 -0.0195416 0.9994733 0.0195416 0.9994733 0.0195416 0.0005267 -0.0195416
40335 0.0004892 -0.0186892 0.9995108 0.0186892 0.9995108 0.0186892 0.0004892 -0.0186892
42182 0.0004547 -0.0178738 0.9995453 0.0178738 0.9995453 0.0178738 0.0004547 -0.0178738
44113 0.0004231 -0.0170939 0.9995769 0.0170939 0.9995769 0.0170939 0.0004231 -0.0170939
46134 0.0003940 -0.0163480 0.9996060 0.0163480 0.9996060 0.0163480 0.0003940 -0.0163480
48246 0.0003673 -0.0156346 0.9996327 0.0156346 0.9996327 0.0156346 0.0003673 -0.0156346
50455 0.0003428 -0.0149523 0.9996572 0.0149523 0.9996572 0.0149523 0.0003428 -0.0149523
52766 0.0003202 -0.0142998 0.9996798 0.0142998 0.9996798 0.0142998 0.0003202 -0.0142998
55182 0.0002995 -0.0136757 0.9997005 0.0136757 0.9997005 0.0136757 0.0002995 -0.0136757
57709 0.0002804 -0.0130788 0.9997196 0.0130788 0.9997196 0.0130788 0.0002804 -0.0130788
60352 0.0002628 -0.0125080 0.9997372 0.0125080 0.9997372 0.0125080 0.0002628 -0.0125080
63115 0.0002466 -0.0119621 0.9997534 0.0119621 0.9997534 0.0119621 0.0002466 -0.0119621
66005 0.0002317 -0.0114400 0.9997683 0.0114400 0.9997683 0.0114400 0.0002317 -0.0114400
69028 0.0002180 -0.0109407 0.9997820 0.0109407 0.9997820 0.0109407 0.0002180 -0.0109407
72189 0.0002053 -0.0104632 0.9997947 0.0104632 0.9997947 0.0104632 0.0002053 -0.0104632
75495 0.0001935 -0.0100065 0.9998065 0.0100065 0.9998065 0.0100065 0.0001935 -0.0100065
78952 0.0001827 -0.0095697 0.9998173 0.0095697 0.9998173 0.0095697 0.0001827 -0.0095697
82567 0.0001727 -0.0091521 0.9998273 0.0091521 0.9998273 0.0091521 0.0001727 -0.0091521
86348 0.0001633 -0.0087526 0.9998367 0.0087526 0.9998367 0.0087526 0.0001633 -0.0087526
90302 0.0001547 -0.0083706 0.9998453 0.0083706 0.9998453 0.0083706 0.0001547 -0.0083706
94437 0.0001467 -0.0080052 0.9998533 0.0080052 0.9998533 0.0080052 0.0001467 -0.0080052
98762 0.0001392 -0.0076557 0.9998608 0.0076557 0.9998608 0.0076557 0.0001392 -0.0076557
103284 0.0001323 -0.0073215 0.9998677 0.0073215 0.9998677 0.0073215 0.0001323 -0.0073215
108014 0.0001258 -0.0070018 0.9998742 0.0070018 0.9998742 0.0070018 0.0001258 -0.0070018
112960 0.0001198 -0.0066961 0.9998802 0.0066961 0.9998802 0.0066961 0.0001198 -0.0066961
118133 0.0001142 -0.0064036 0.9998858 0.0064036 0.9998858 0.0064036 0.0001142 -0.0064036
123542 0.0001090 -0.0061239 0.9998910 0.0061239 0.9998910 0.0061239 0.0001090 -0.0061239
129199 0.0001040 -0.0058563 0.9998960 0.0058563 0.9998960 0.0058563 0.0001040 -0.0058563
135116 0.0000995 -0.0056004 0.9999005 0.0056004 0.9999005 0.0056004 0.0000995 -0.0056004
141303 0.0000952 -0.0053555 0.9999048 0.0053555 0.9999048 0.0053555 0.0000952 -0.0053555
147774 0.0000912 -0.0051213 0.9999088 0.0051213 0.9999088 0.0051213 0.0000912 -0.0051213
154540 0.0000874 -0.0048972 0.9999126 0.0048972 0.9999126 0.0048972 0.0000874 -0.0048972
161617 0.0000839 -0.0046829 0.9999161 0.0046829 0.9999161 0.0046829 0.0000839 -0.0046829
169018 0.0000806 -0.0044778 0.9999194 0.0044778 0.9999194 0.0044778 0.0000806 -0.0044778
176758 0.0000776 -0.0042817 0.9999224 0.0042817 0.9999224 0.0042817 0.0000776 -0.0042817
184852 0.0000747 -0.0040940 0.9999253 0.0040940 0.9999253 0.0040940 0.0000747 -0.0040940
193316 0.0000720 -0.0039144 0.9999280 0.0039144 0.9999280 0.0039144 0.0000720 -0.0039144
202169 0.0000695 -0.0037426 0.9999305 0.0037426 0.9999305 0.0037426 0.0000695 -0.0037426
211427 0.0000672 -0.0035782 0.9999328 0.0035782 0.9999328 0.0035782 0.0000672 -0.0035782
221108 0.0000650 -0.0034209 0.9999350 0.0034209 0.9999350 0.0034209 0.0000650 -0.0034209
231233 0.0000630 -0.0032704 0.9999370 0.0032704 0.9999370 0.0032704 0.0000630 -0.0032704
241822 0.0000611 -0.0031264 0.9999389 0.0031264 0.9999389 0.0031264 0.0000611 -0.0031264
252896 0.0000593 -0.0029886 0.9999407 0.0029886 0.9999407 0.0029886 0.0000593 -0.0029886
264476 0.0000577 -0.0028567 0.9999423 0.0028567 0.9999423 0.0028567 0.0000577 -0.0028567
276587 0.0000562 -0.0027305 0.9999438 0.0027305 0.9999438 0.0027305 0.0000562 -0.0027305
289253 0.0000548 -0.0026097 0.9999452 0.0026097 0.9999452 0.0026097 0.0000548 -0.0026097
302498 0.0000535 -0.0024941 0.9999465 0.0024941 0.9999465 0.0024941 0.0000535 -0.0024941
316350 0.0000523 -0.0023835 0.9999477 0.0023835 0.9999477 0.0023835 0.0000523 -0.0023835
330837 0.0000512 -0.0022776 0.9999488 0.0022776 0.9999488 0.0022776 0.0000512 -0.0022776
345986 0.0000501 -0.0021763 0.9999499 0.0021763 0.9999499 0.0021763 0.0000501 -0.0021763
361830 0.0000492 -0.0020793 0.9999508 0.0020793 0.9999508 0.0020793 0.0000492 -0.0020793
378399 0.0000483 -0.0019864 0.9999517 0.0019864 0.9999517 0.0019864 0.0000483 -0.0019864
395726 0.0000475 -0.0018975 0.9999525 0.0018975 0.9999525 0.0018975 0.0000475 -0.0018975
413847 0.0000468 -0.0018124 0.9999532 0.0018124 0.9999532 0.0018124 0.0000468 -0.0018124
432798 0.0000461 -0.0017308 0.9999539 0.0017308 0.9999539 0.0017308 0.0000461 -0.0017308
452617 0.0000455 -0.0016528 0.9999545 0.0016528 0.9999545 0.0016528 0.0000455 -0.0016528
473344 0.0000450 -0.0015780 0.9999550 0.0015780 0.9999550 0.0015780 0.0000450 -0.0015780
495019 0.0000445 -0.0015064 0.9999555 0.0015064 0.9999555 0.0015064 0.0000445 -0.0015064
517687 0.0000440 -0.0014378 0.9999560 0.0014378 0.9999560 0.0014378 0.0000440 -0.0014378
541393 0.0000436 -0.0013721 0.9999564 0.0013721 0.9999564 0.0013721 0.0000436 -0.0013721
566185 0.0000432 -0.0013091 0.9999568 0.0013091 0.9999568 0.0013091 0.0000432 -0.0013091
592111 0.0000429 -0.0012487 0.9999571 0.0012487 0.9999571 0.0012487 0.0000429 -0.0012487
619225 0.0000426 -0.0011908 0.9999574 0.0011908 0.9999574 0.0011908 0.0000426 -0.0011908
647581 0.0000423 -0.0011353 0.9999577 0.0011353 0.9999577 0.0011353 0.0000423 -0.0011353
677235 0.0000421 -0.0010821 0.9999579 0.0010821 0.9999579 0.0010821 0.0000421 -0.0010821
708247 0.0000419 -0.0010310 0.9999581 0.0010310 0.9999581 0.0010310 0.0000419 -0.0010310
740679 0.0000417 -0.0009820 0.9999583 0.0009820 0.9999583 0.0009820 0.0000417 -0.0009820
774597 0.0000415 -0.0009350 0.9999585 0.0009350 0.9999585 0.0009350 0.0000415 -0.0009350
810067 0.0000414 -0.0008898 0.9999586 0.0008898 0.9999586 0.0008898 0.0000414 -0.0008898
847162 0.0000413 -0.0008464 0.9999587 0.0008464 0.9999587 0.0008464 0.0000413 -0.0008464
885955 0.0000413 -0.0008047 0.9999587 0.0008047 0.9999587 0.0008047 0.0000413 -0.0008047
926525 0.0000412 -0.0007647 0.9999588 0.0007647 0.9999588 0.0007647 0.0000412 -0.0007647
968953 0.0000412 -0.0007261 0.9999588 0.0007261 0.9999588 0.0007261 0.0000412 -0.0007261
1013323 0.0000412 -0.0006890 0.9999588 0.0006890 0.9999588 0.0006890 0.0000412 -0.0006890
1059725 0.0000413 -0.0006533 0.9999587 0.0006533 0.9999587 0.0006533 0.0000413 -0.0006533
1108252 0.0000413 -0.0006189 0.9999587 0.0006189 0.9999587 0.0006189 0.0000413 -0.0006189
1159002 0.0000414 -0.0005857 0.9999586 0.0005857 0.9999586 0.0005857 0.0000414 -0.0005857
1212075 0.0000415 -0.0005537 0.9999585 0.0005537 0.9999585 0.0005537 0.0000415 -0.0005537
1267578 0.0000417 -0.0005228 0.9999583 0.0005228 0.9999583 0.0005228 0.0000417 -0.0005228
1325623 0.0000419 -0.0004930 0.9999581 0.0004930 0.9999581 0.0004930 0.0000419 -0.0004930
1386327 0.0000421 -0.0004641 0.9999579 0.0004641 0.9999579 0.0004641 0.0000421 -0.0004641
1449809 0.0000423 -0.0004362 0.9999577 0.0004362 0.9999577 0.0004362 0.0000423 -0.0004362
1516199 0.0000426 -0.0004091 0.9999574 0.0004091 0.9999574 0.0004091 0.0000426 -0.0004091
1585629 0.0000429 -0.0003829 0.9999571 0.0003829 0.9999571 0.0003829 0.0000429 -0.0003829
1658239 0.0000433 -0.0003574 0.9999567 0.0003574 0.9999567 0.0003574 0.0000433 -0.0003574
1734173 0.0000437 -0.0003326 0.9999563 0.0003326 0.9999563 0.0003326 0.0000437 -0.0003326
1813585 0.0000441 -0.0003085 0.9999559 0.0003085 0.9999559 0.0003085 0.0000441 -0.0003085
1896632 0.0000446 -0.0002850 0.9999554 0.0002850 0.9999554 0.0002850 0.0000446 -0.0002850
1983483 0.0000452 -0.0002621 0.9999548 0.0002621 0.9999548 0.0002621 0.0000452 -0.0002621
2074311 0.0000458 -0.0002397 0.9999542 0.0002397 0.9999542 0.0002397 0.0000458 -0.0002397
