!Murata Part Number: GRM31BR72J472KW01
!These Parameters are Measured in Series Mode Connection
!Data Generated on Mar 30, 2021
!       o--ll--o
!Port1            Port2
!       o------o
!Operation Temp=25[degC], DC Bias Voltage=0[V]
!Freq. Start=100[kHz] Stop=6[GHz] 401[Steps]
# Hz S RI R 50
!Freq.(Hz) S11(Real) S11(Imag) S21(Real) S21(Imag) S12(Real) S12(Imag) S22(Real) S22(Imag)
100000 0.9250713 -0.2575961 0.0749287 0.2575961 0.0749287 0.2575961 0.9250713 -0.2575961
102789 0.9212934 -0.2636187 0.0787066 0.2636187 0.0787066 0.2636187 0.9212934 -0.2636187
105655 0.9173392 -0.2697267 0.0826608 0.2697267 0.0826608 0.2697267 0.9173392 -0.2697267
108602 0.9132020 -0.2759166 0.0867980 0.2759166 0.0867980 0.2759166 0.9132020 -0.2759166
111630 0.9088752 -0.2821848 0.0911248 0.2821848 0.0911248 0.2821848 0.9088752 -0.2821848
114743 0.9043520 -0.2885269 0.0956480 0.2885269 0.0956480 0.2885269 0.9043520 -0.2885269
117943 0.8996256 -0.2949384 0.1003744 0.2949384 0.1003744 0.2949384 0.8996256 -0.2949384
121232 0.8946892 -0.3014141 0.1053108 0.3014141 0.1053108 0.3014141 0.8946892 -0.3014141
124613 0.8895361 -0.3079482 0.1104639 0.3079482 0.1104639 0.3079482 0.8895361 -0.3079482
128088 0.8841598 -0.3145346 0.1158402 0.3145346 0.1158402 0.3145346 0.8841598 -0.3145346
131660 0.8785536 -0.3211665 0.1214464 0.3211665 0.1214464 0.3211665 0.8785536 -0.3211665
135332 0.8727111 -0.3278366 0.1272889 0.3278366 0.1272889 0.3278366 0.8727111 -0.3278366
139106 0.8666263 -0.3345370 0.1333737 0.3345370 0.1333737 0.3345370 0.8666263 -0.3345370
142985 0.8602930 -0.3412592 0.1397070 0.3412592 0.1397070 0.3412592 0.8602930 -0.3412592
146972 0.8537056 -0.3479941 0.1462944 0.3479941 0.1462944 0.3479941 0.8537056 -0.3479941
151071 0.8468588 -0.3547321 0.1531412 0.3547321 0.1531412 0.3547321 0.8468588 -0.3547321
155284 0.8397475 -0.3614629 0.1602525 0.3614629 0.1602525 0.3614629 0.8397475 -0.3614629
159614 0.8323674 -0.3681757 0.1676326 0.3681757 0.1676326 0.3681757 0.8323674 -0.3681757
164065 0.8247142 -0.3748591 0.1752858 0.3748591 0.1752858 0.3748591 0.8247142 -0.3748591
168641 0.8167845 -0.3815012 0.1832155 0.3815012 0.1832155 0.3815012 0.8167845 -0.3815012
173344 0.8085755 -0.3880893 0.1914245 0.3880893 0.1914245 0.3880893 0.8085755 -0.3880893
178178 0.8000849 -0.3946105 0.1999151 0.3946105 0.1999151 0.3946105 0.8000849 -0.3946105
183146 0.7913112 -0.4010514 0.2086888 0.4010514 0.2086888 0.4010514 0.7913112 -0.4010514
188254 0.7822537 -0.4073980 0.2177463 0.4073980 0.2177463 0.4073980 0.7822537 -0.4073980
193504 0.7729126 -0.4136359 0.2270874 0.4136359 0.2270874 0.4136359 0.7729126 -0.4136359
198900 0.7632887 -0.4197506 0.2367113 0.4197506 0.2367113 0.4197506 0.7632887 -0.4197506
204447 0.7533842 -0.4257270 0.2466158 0.4257270 0.2466158 0.4257270 0.7533842 -0.4257270
210148 0.7432018 -0.4315501 0.2567982 0.4315501 0.2567982 0.4315501 0.7432018 -0.4315501
216008 0.7327456 -0.4372046 0.2672544 0.4372046 0.2672544 0.4372046 0.7327456 -0.4372046
222032 0.7220205 -0.4426752 0.2779795 0.4426752 0.2779795 0.4426752 0.7220205 -0.4426752
228224 0.7110327 -0.4479464 0.2889673 0.4479464 0.2889673 0.4479464 0.7110327 -0.4479464
234589 0.6997893 -0.4530032 0.3002107 0.4530032 0.3002107 0.4530032 0.6997893 -0.4530032
241130 0.6882987 -0.4578305 0.3117013 0.4578305 0.3117013 0.4578305 0.6882987 -0.4578305
247855 0.6765703 -0.4624137 0.3234297 0.4624137 0.3234297 0.4624137 0.6765703 -0.4624137
254767 0.6646147 -0.4667384 0.3353853 0.4667384 0.3353853 0.4667384 0.6646147 -0.4667384
261871 0.6524435 -0.4707908 0.3475565 0.4707908 0.3475565 0.4707908 0.6524435 -0.4707908
269174 0.6400694 -0.4745578 0.3599306 0.4745578 0.3599306 0.4745578 0.6400694 -0.4745578
276681 0.6275062 -0.4780269 0.3724938 0.4780269 0.3724938 0.4780269 0.6275062 -0.4780269
284397 0.6147687 -0.4811863 0.3852313 0.4811863 0.3852313 0.4811863 0.6147687 -0.4811863
292328 0.6018724 -0.4840252 0.3981276 0.4840252 0.3981276 0.4840252 0.6018724 -0.4840252
300480 0.5888340 -0.4865338 0.4111660 0.4865338 0.4111660 0.4865338 0.5888340 -0.4865338
308859 0.5756708 -0.4887033 0.4243292 0.4887033 0.4243292 0.4887033 0.5756708 -0.4887033
317472 0.5624007 -0.4905260 0.4375993 0.4905260 0.4375993 0.4905260 0.5624007 -0.4905260
326326 0.5490423 -0.4919955 0.4509577 0.4919955 0.4509577 0.4919955 0.5490423 -0.4919955
335426 0.5356147 -0.4931066 0.4643853 0.4931066 0.4643853 0.4931066 0.5356147 -0.4931066
344780 0.5221375 -0.4938552 0.4778625 0.4938552 0.4778625 0.4938552 0.5221375 -0.4938552
354395 0.5086304 -0.4942388 0.4913696 0.4942388 0.4913696 0.4942388 0.5086304 -0.4942388
364278 0.4951132 -0.4942562 0.5048868 0.4942562 0.5048868 0.4942562 0.4951132 -0.4942562
374436 0.4816060 -0.4939075 0.5183940 0.4939075 0.5183940 0.4939075 0.4816060 -0.4939075
384878 0.4681286 -0.4931940 0.5318714 0.4931940 0.5318714 0.4931940 0.4681286 -0.4931940
395611 0.4547007 -0.4921185 0.5452993 0.4921185 0.5452993 0.4921185 0.4547007 -0.4921185
406644 0.4413417 -0.4906852 0.5586583 0.4906852 0.5586583 0.4906852 0.4413417 -0.4906852
417984 0.4280705 -0.4888995 0.5719295 0.4888995 0.5719295 0.4888995 0.4280705 -0.4888995
429640 0.4149056 -0.4867678 0.5850944 0.4867678 0.5850944 0.4867678 0.4149056 -0.4867678
441622 0.4018648 -0.4842981 0.5981352 0.4842981 0.5981352 0.4842981 0.4018648 -0.4842981
453937 0.3889652 -0.4814990 0.6110348 0.4814990 0.6110348 0.4814990 0.3889652 -0.4814990
466596 0.3762232 -0.4783805 0.6237768 0.4783805 0.6237768 0.4783805 0.3762232 -0.4783805
479608 0.3636541 -0.4749534 0.6363459 0.4749534 0.6363459 0.4749534 0.3636541 -0.4749534
492983 0.3512725 -0.4712294 0.6487275 0.4712294 0.6487275 0.4712294 0.3512725 -0.4712294
506731 0.3390920 -0.4672208 0.6609080 0.4672208 0.6609080 0.4672208 0.3390920 -0.4672208
520862 0.3271250 -0.4629408 0.6728750 0.4629408 0.6728750 0.4629408 0.3271250 -0.4629408
535387 0.3153831 -0.4584030 0.6846169 0.4584030 0.6846169 0.4584030 0.3153831 -0.4584030
550318 0.3038765 -0.4536215 0.6961235 0.4536215 0.6961235 0.4536215 0.3038765 -0.4536215
565664 0.2926147 -0.4486109 0.7073853 0.4486109 0.7073853 0.4486109 0.2926147 -0.4486109
581439 0.2816058 -0.4433858 0.7183942 0.4433858 0.7183942 0.4433858 0.2816058 -0.4433858
597654 0.2708569 -0.4379613 0.7291431 0.4379613 0.7291431 0.4379613 0.2708569 -0.4379613
614320 0.2603741 -0.4323524 0.7396259 0.4323524 0.7396259 0.4323524 0.2603741 -0.4323524
631452 0.2501623 -0.4265742 0.7498377 0.4265742 0.7498377 0.4265742 0.2501623 -0.4265742
649061 0.2402254 -0.4206418 0.7597746 0.4206418 0.7597746 0.4206418 0.2402254 -0.4206418
667162 0.2305665 -0.4145699 0.7694335 0.4145699 0.7694335 0.4145699 0.2305665 -0.4145699
685767 0.2211876 -0.4083733 0.7788124 0.4083733 0.7788124 0.4083733 0.2211876 -0.4083733
704891 0.2120898 -0.4020664 0.7879102 0.4020664 0.7879102 0.4020664 0.2120898 -0.4020664
724548 0.2032732 -0.3956632 0.7967268 0.3956632 0.7967268 0.3956632 0.2032732 -0.3956632
744754 0.1947374 -0.3891775 0.8052626 0.3891775 0.8052626 0.3891775 0.1947374 -0.3891775
765523 0.1864811 -0.3826226 0.8135189 0.3826226 0.8135189 0.3826226 0.1864811 -0.3826226
786871 0.1785021 -0.3760112 0.8214979 0.3760112 0.8214979 0.3760112 0.1785021 -0.3760112
808814 0.1707978 -0.3693558 0.8292022 0.3693558 0.8292022 0.3693558 0.1707978 -0.3693558
831370 0.1633650 -0.3626681 0.8366350 0.3626681 0.8366350 0.3626681 0.1633650 -0.3626681
854554 0.1561999 -0.3559595 0.8438001 0.3559595 0.8438001 0.3559595 0.1561999 -0.3559595
878385 0.1492981 -0.3492408 0.8507019 0.3492408 0.8507019 0.3492408 0.1492981 -0.3492408
902880 0.1426549 -0.3425220 0.8573451 0.3425220 0.8573451 0.3425220 0.1426549 -0.3425220
928059 0.1362652 -0.3358129 0.8637348 0.3358129 0.8637348 0.3358129 0.1362652 -0.3358129
953940 0.1301236 -0.3291225 0.8698764 0.3291225 0.8698764 0.3291225 0.1301236 -0.3291225
980542 0.1242244 -0.3224593 0.8757756 0.3224593 0.8757756 0.3224593 0.1242244 -0.3224593
1007887 0.1185615 -0.3158313 0.8814385 0.3158313 0.8814385 0.3158313 0.1185615 -0.3158313
1035994 0.1131288 -0.3092457 0.8868712 0.3092457 0.8868712 0.3092457 0.1131288 -0.3092457
1064885 0.1079200 -0.3027096 0.8920800 0.3027096 0.8920800 0.3027096 0.1079200 -0.3027096
1094581 0.1029287 -0.2962290 0.8970713 0.2962290 0.8970713 0.2962290 0.1029287 -0.2962290
1125106 0.0981482 -0.2898100 0.9018518 0.2898100 0.9018518 0.2898100 0.0981482 -0.2898100
1156481 0.0935721 -0.2834576 0.9064279 0.2834576 0.9064279 0.2834576 0.0935721 -0.2834576
1188732 0.0891937 -0.2771769 0.9108063 0.2771769 0.9108063 0.2771769 0.0891937 -0.2771769
1221882 0.0850064 -0.2709720 0.9149936 0.2709720 0.9149936 0.2709720 0.0850064 -0.2709720
1255957 0.0810035 -0.2648470 0.9189965 0.2648470 0.9189965 0.2648470 0.0810035 -0.2648470
1290982 0.0771787 -0.2588053 0.9228213 0.2588053 0.9228213 0.2588053 0.0771787 -0.2588053
1326984 0.0735254 -0.2528499 0.9264746 0.2528499 0.9264746 0.2528499 0.0735254 -0.2528499
1363989 0.0700372 -0.2469836 0.9299628 0.2469836 0.9299628 0.2469836 0.0700372 -0.2469836
1402027 0.0667078 -0.2412087 0.9332922 0.2412087 0.9332922 0.2412087 0.0667078 -0.2412087
1441125 0.0635311 -0.2355273 0.9364689 0.2355273 0.9364689 0.2355273 0.0635311 -0.2355273
1481314 0.0605011 -0.2299409 0.9394989 0.2299409 0.9394989 0.2299409 0.0605011 -0.2299409
1522623 0.0576118 -0.2244509 0.9423882 0.2244509 0.9423882 0.2244509 0.0576118 -0.2244509
1565085 0.0548574 -0.2190585 0.9451426 0.2190585 0.9451426 0.2190585 0.0548574 -0.2190585
1608730 0.0522325 -0.2137645 0.9477675 0.2137645 0.9477675 0.2137645 0.0522325 -0.2137645
1653593 0.0497314 -0.2085694 0.9502686 0.2085694 0.9502686 0.2085694 0.0497314 -0.2085694
1699707 0.0473490 -0.2034736 0.9526510 0.2034736 0.9526510 0.2034736 0.0473490 -0.2034736
1747106 0.0450802 -0.1984773 0.9549198 0.1984773 0.9549198 0.1984773 0.0450802 -0.1984773
1795828 0.0429198 -0.1935804 0.9570802 0.1935804 0.9570802 0.1935804 0.0429198 -0.1935804
1845908 0.0408632 -0.1887827 0.9591368 0.1887827 0.9591368 0.1887827 0.0408632 -0.1887827
1897385 0.0389057 -0.1840838 0.9610943 0.1840838 0.9610943 0.1840838 0.0389057 -0.1840838
1950297 0.0370429 -0.1794833 0.9629571 0.1794833 0.9629571 0.1794833 0.0370429 -0.1794833
2004685 0.0352705 -0.1749803 0.9647295 0.1749803 0.9647295 0.1749803 0.0352705 -0.1749803
2060590 0.0335843 -0.1705743 0.9664157 0.1705743 0.9664157 0.1705743 0.0335843 -0.1705743
2118054 0.0319804 -0.1662642 0.9680196 0.1662642 0.9680196 0.1662642 0.0319804 -0.1662642
2177120 0.0304549 -0.1620491 0.9695451 0.1620491 0.9695451 0.1620491 0.0304549 -0.1620491
2237833 0.0290042 -0.1579279 0.9709958 0.1579279 0.9709958 0.1579279 0.0290042 -0.1579279
2300240 0.0276248 -0.1538995 0.9723752 0.1538995 0.9723752 0.1538995 0.0276248 -0.1538995
2364387 0.0263134 -0.1499626 0.9736866 0.1499626 0.9736866 0.1499626 0.0263134 -0.1499626
2430322 0.0250667 -0.1461160 0.9749333 0.1461160 0.9749333 0.1461160 0.0250667 -0.1461160
2498097 0.0238816 -0.1423583 0.9761184 0.1423583 0.9761184 0.1423583 0.0238816 -0.1423583
2567761 0.0227552 -0.1386882 0.9772448 0.1386882 0.9772448 0.1386882 0.0227552 -0.1386882
2639368 0.0216846 -0.1351043 0.9783154 0.1351043 0.9783154 0.1351043 0.0216846 -0.1351043
2712972 0.0206673 -0.1316052 0.9793327 0.1316052 0.9793327 0.1316052 0.0206673 -0.1316052
2788629 0.0197007 -0.1281893 0.9802993 0.1281893 0.9802993 0.1281893 0.0197007 -0.1281893
2866396 0.0187822 -0.1248552 0.9812178 0.1248552 0.9812178 0.1248552 0.0187822 -0.1248552
2946331 0.0179095 -0.1216014 0.9820905 0.1216014 0.9820905 0.1216014 0.0179095 -0.1216014
3028495 0.0170805 -0.1184264 0.9829195 0.1184264 0.9829195 0.1184264 0.0170805 -0.1184264
3112951 0.0162930 -0.1153287 0.9837070 0.1153287 0.9837070 0.1153287 0.0162930 -0.1153287
3199762 0.0155449 -0.1123067 0.9844551 0.1123067 0.9844551 0.1123067 0.0155449 -0.1123067
3288994 0.0148344 -0.1093591 0.9851656 0.1093591 0.9851656 0.1093591 0.0148344 -0.1093591
3380714 0.0141596 -0.1064842 0.9858404 0.1064842 0.9858404 0.1064842 0.0141596 -0.1064842
3474992 0.0135187 -0.1036805 0.9864813 0.1036805 0.9864813 0.1036805 0.0135187 -0.1036805
3571899 0.0129101 -0.1009467 0.9870899 0.1009467 0.9870899 0.1009467 0.0129101 -0.1009467
3671508 0.0123322 -0.0982810 0.9876678 0.0982810 0.9876678 0.0982810 0.0123322 -0.0982810
3773896 0.0117835 -0.0956823 0.9882165 0.0956823 0.9882165 0.0956823 0.0117835 -0.0956823
3879139 0.0112625 -0.0931488 0.9887375 0.0931488 0.9887375 0.0931488 0.0112625 -0.0931488
3987316 0.0107678 -0.0906793 0.9892322 0.0906793 0.9892322 0.0906793 0.0107678 -0.0906793
4098510 0.0102982 -0.0882722 0.9897018 0.0882722 0.9897018 0.0882722 0.0102982 -0.0882722
4212806 0.0098523 -0.0859263 0.9901477 0.0859263 0.9901477 0.0859263 0.0098523 -0.0859263
4330288 0.0094291 -0.0836400 0.9905709 0.0836400 0.9905709 0.0836400 0.0094291 -0.0836400
4451047 0.0090274 -0.0814121 0.9909726 0.0814121 0.9909726 0.0814121 0.0090274 -0.0814121
4575173 0.0086460 -0.0792411 0.9913540 0.0792411 0.9913540 0.0792411 0.0086460 -0.0792411
4702761 0.0082840 -0.0771258 0.9917160 0.0771258 0.9917160 0.0771258 0.0082840 -0.0771258
4833907 0.0079404 -0.0750648 0.9920596 0.0750648 0.9920596 0.0750648 0.0079404 -0.0750648
4968711 0.0076143 -0.0730569 0.9923857 0.0730569 0.9923857 0.0730569 0.0076143 -0.0730569
5107273 0.0073047 -0.0711007 0.9926953 0.0711007 0.9926953 0.0711007 0.0073047 -0.0711007
5249700 0.0070109 -0.0691951 0.9929891 0.0691951 0.9929891 0.0691951 0.0070109 -0.0691951
5396098 0.0067321 -0.0673389 0.9932679 0.0673389 0.9932679 0.0673389 0.0067321 -0.0673389
5546579 0.0064674 -0.0655307 0.9935326 0.0655307 0.9935326 0.0655307 0.0064674 -0.0655307
5701257 0.0062161 -0.0637695 0.9937839 0.0637695 0.9937839 0.0637695 0.0062161 -0.0637695
5860248 0.0059776 -0.0620541 0.9940224 0.0620541 0.9940224 0.0620541 0.0059776 -0.0620541
6023672 0.0057512 -0.0603834 0.9942488 0.0603834 0.9942488 0.0603834 0.0057512 -0.0603834
6191655 0.0055363 -0.0587561 0.9944637 0.0587561 0.9944637 0.0587561 0.0055363 -0.0587561
6364321 0.0053323 -0.0571714 0.9946677 0.0571714 0.9946677 0.0571714 0.0053323 -0.0571714
6541803 0.0051386 -0.0556280 0.9948614 0.0556280 0.9948614 0.0556280 0.0051386 -0.0556280
6724235 0.0049546 -0.0541250 0.9950454 0.0541250 0.9950454 0.0541250 0.0049546 -0.0541250
6911753 0.0047799 -0.0526613 0.9952201 0.0526613 0.9952201 0.0526613 0.0047799 -0.0526613
7104501 0.0046140 -0.0512360 0.9953860 0.0512360 0.9953860 0.0512360 0.0046140 -0.0512360
7302625 0.0044564 -0.0498479 0.9955436 0.0498479 0.9955436 0.0498479 0.0044564 -0.0498479
7506273 0.0043066 -0.0484962 0.9956934 0.0484962 0.9956934 0.0484962 0.0043066 -0.0484962
7715601 0.0041643 -0.0471800 0.9958357 0.0471800 0.9958357 0.0471800 0.0041643 -0.0471800
7930766 0.0040291 -0.0458982 0.9959709 0.0458982 0.9959709 0.0458982 0.0040291 -0.0458982
8151931 0.0039005 -0.0446501 0.9960995 0.0446501 0.9960995 0.0446501 0.0039005 -0.0446501
8379264 0.0037782 -0.0434346 0.9962218 0.0434346 0.9962218 0.0434346 0.0037782 -0.0434346
8612937 0.0036619 -0.0422510 0.9963381 0.0422510 0.9963381 0.0422510 0.0036619 -0.0422510
8853126 0.0035513 -0.0410985 0.9964487 0.0410985 0.9964487 0.0410985 0.0035513 -0.0410985
9100013 0.0034460 -0.0399761 0.9965540 0.0399761 0.9965540 0.0399761 0.0034460 -0.0399761
9353785 0.0033457 -0.0388830 0.9966543 0.0388830 0.9966543 0.0388830 0.0033457 -0.0388830
9614634 0.0032502 -0.0378186 0.9967498 0.0378186 0.9967498 0.0378186 0.0032502 -0.0378186
9882758 0.0031592 -0.0367819 0.9968408 0.0367819 0.9968408 0.0367819 0.0031592 -0.0367819
10158358 0.0030724 -0.0357724 0.9969276 0.0357724 0.9969276 0.0357724 0.0030724 -0.0357724
10441645 0.0029897 -0.0347891 0.9970103 0.0347891 0.9970103 0.0347891 0.0029897 -0.0347891
10732831 0.0029107 -0.0338314 0.9970893 0.0338314 0.9970893 0.0338314 0.0029107 -0.0338314
11032137 0.0028354 -0.0328986 0.9971646 0.0328986 0.9971646 0.0328986 0.0028354 -0.0328986
11339791 0.0027634 -0.0319900 0.9972366 0.0319900 0.9972366 0.0319900 0.0027634 -0.0319900
11656024 0.0026946 -0.0311049 0.9973054 0.0311049 0.9973054 0.0311049 0.0026946 -0.0311049
11981075 0.0026288 -0.0302426 0.9973712 0.0302426 0.9973712 0.0302426 0.0026288 -0.0302426
12315192 0.0025659 -0.0294026 0.9974341 0.0294026 0.9974341 0.0294026 0.0025659 -0.0294026
12658625 0.0025056 -0.0285841 0.9974944 0.0285841 0.9974944 0.0285841 0.0025056 -0.0285841
13011637 0.0024479 -0.0277867 0.9975521 0.0277867 0.9975521 0.0277867 0.0024479 -0.0277867
13374492 0.0023926 -0.0270095 0.9976074 0.0270095 0.9976074 0.0270095 0.0023926 -0.0270095
13747467 0.0023395 -0.0262522 0.9976605 0.0262522 0.9976605 0.0262522 0.0023395 -0.0262522
14130843 0.0022886 -0.0255141 0.9977114 0.0255141 0.9977114 0.0255141 0.0022886 -0.0255141
14524910 0.0022397 -0.0247946 0.9977603 0.0247946 0.9977603 0.0247946 0.0022397 -0.0247946
14929966 0.0021927 -0.0240933 0.9978073 0.0240933 0.9978073 0.0240933 0.0021927 -0.0240933
15346318 0.0021474 -0.0234095 0.9978526 0.0234095 0.9978526 0.0234095 0.0021474 -0.0234095
15774281 0.0021039 -0.0227427 0.9978961 0.0227427 0.9978961 0.0227427 0.0021039 -0.0227427
16214179 0.0020621 -0.0220925 0.9979379 0.0220925 0.9979379 0.0220925 0.0020621 -0.0220925
16666344 0.0020217 -0.0214583 0.9979783 0.0214583 0.9979783 0.0214583 0.0020217 -0.0214583
17131118 0.0019828 -0.0208397 0.9980172 0.0208397 0.9980172 0.0208397 0.0019828 -0.0208397
17608854 0.0019454 -0.0202362 0.9980546 0.0202362 0.9980546 0.0202362 0.0019454 -0.0202362
18099912 0.0019092 -0.0196473 0.9980908 0.0196473 0.9980908 0.0196473 0.0019092 -0.0196473
18604665 0.0018743 -0.0190726 0.9981257 0.0190726 0.9981257 0.0190726 0.0018743 -0.0190726
19123493 0.0018406 -0.0185117 0.9981594 0.0185117 0.9981594 0.0185117 0.0018406 -0.0185117
19656790 0.0018080 -0.0179640 0.9981920 0.0179640 0.9981920 0.0179640 0.0018080 -0.0179640
20204959 0.0017766 -0.0174293 0.9982234 0.0174293 0.9982234 0.0174293 0.0017766 -0.0174293
20768415 0.0017462 -0.0169071 0.9982538 0.0169071 0.9982538 0.0169071 0.0017462 -0.0169071
21347584 0.0017169 -0.0163970 0.9982831 0.0163970 0.9982831 0.0163970 0.0017169 -0.0163970
21942904 0.0016885 -0.0158986 0.9983115 0.0158986 0.9983115 0.0158986 0.0016885 -0.0158986
22554827 0.0016611 -0.0154115 0.9983389 0.0154115 0.9983389 0.0154115 0.0016611 -0.0154115
23183813 0.0016346 -0.0149355 0.9983654 0.0149355 0.9983654 0.0149355 0.0016346 -0.0149355
23830340 0.0016090 -0.0144700 0.9983910 0.0144700 0.9983910 0.0144700 0.0016090 -0.0144700
24494897 0.0015843 -0.0140149 0.9984157 0.0140149 0.9984157 0.0140149 0.0015843 -0.0140149
25177987 0.0015604 -0.0135697 0.9984396 0.0135697 0.9984396 0.0135697 0.0015604 -0.0135697
25880126 0.0015373 -0.0131341 0.9984627 0.0131341 0.9984627 0.0131341 0.0015373 -0.0131341
26601845 0.0015150 -0.0127078 0.9984850 0.0127078 0.9984850 0.0127078 0.0015150 -0.0127078
27343691 0.0014936 -0.0122906 0.9985064 0.0122906 0.9985064 0.0122906 0.0014936 -0.0122906
28106225 0.0014729 -0.0118820 0.9985271 0.0118820 0.9985271 0.0118820 0.0014729 -0.0118820
28890023 0.0014529 -0.0114817 0.9985471 0.0114817 0.9985471 0.0114817 0.0014529 -0.0114817
29695680 0.0014337 -0.0110896 0.9985663 0.0110896 0.9985663 0.0110896 0.0014337 -0.0110896
30523804 0.0014152 -0.0107053 0.9985848 0.0107053 0.9985848 0.0107053 0.0014152 -0.0107053
31375021 0.0013974 -0.0103285 0.9986026 0.0103285 0.9986026 0.0103285 0.0013974 -0.0103285
32249977 0.0013803 -0.0099590 0.9986197 0.0099590 0.9986197 0.0099590 0.0013803 -0.0099590
33149332 0.0013638 -0.0095966 0.9986362 0.0095966 0.9986362 0.0095966 0.0013638 -0.0095966
34073768 0.0013481 -0.0092408 0.9986519 0.0092408 0.9986519 0.0092408 0.0013481 -0.0092408
35023984 0.0013330 -0.0088916 0.9986670 0.0088916 0.9986670 0.0088916 0.0013330 -0.0088916
36000698 0.0013186 -0.0085486 0.9986814 0.0085486 0.9986814 0.0085486 0.0013186 -0.0085486
37004650 0.0013048 -0.0082116 0.9986952 0.0082116 0.9986952 0.0082116 0.0013048 -0.0082116
38036599 0.0012917 -0.0078803 0.9987083 0.0078803 0.9987083 0.0078803 0.0012917 -0.0078803
39097326 0.0012791 -0.0075546 0.9987209 0.0075546 0.9987209 0.0075546 0.0012791 -0.0075546
