!Murata Part Number: GRM31MR71E474KA01
!These Parameters are Measured in Series Mode Connection
!Data Generated on Mar 30, 2021
!       o--ll--o
!Port1            Port2
!       o------o
!Operation Temp=25[degC], DC Bias Voltage=0[V]
!Freq. Start=100[Hz] Stop=6[GHz] 401[Steps]
# Hz S RI R 50
!Freq.(Hz) S11(Real) S11(Imag) S21(Real) S21(Imag) S12(Real) S12(Imag) S22(Real) S22(Imag)
100 0.9990005 -0.0291217 0.0009995 0.0291217 0.0009995 0.0291217 0.9990005 -0.0291217
105 0.9989141 -0.0304477 0.0010859 0.0304477 0.0010859 0.0304477 0.9989141 -0.0304477
109 0.9988201 -0.0318338 0.0011799 0.0318338 0.0011799 0.0318338 0.9988201 -0.0318338
114 0.9987176 -0.0332827 0.0012824 0.0332827 0.0012824 0.0332827 0.9987176 -0.0332827
120 0.9986060 -0.0347972 0.0013940 0.0347972 0.0013940 0.0347972 0.9986060 -0.0347972
125 0.9984844 -0.0363802 0.0015156 0.0363802 0.0015156 0.0363802 0.9984844 -0.0363802
131 0.9983519 -0.0380347 0.0016481 0.0380347 0.0016481 0.0380347 0.9983519 -0.0380347
137 0.9982075 -0.0397639 0.0017925 0.0397639 0.0017925 0.0397639 0.9982075 -0.0397639
143 0.9980502 -0.0415712 0.0019498 0.0415712 0.0019498 0.0415712 0.9980502 -0.0415712
150 0.9978787 -0.0434599 0.0021213 0.0434599 0.0021213 0.0434599 0.9978787 -0.0434599
156 0.9976919 -0.0454337 0.0023081 0.0454337 0.0023081 0.0454337 0.9976919 -0.0454337
164 0.9974883 -0.0474962 0.0025117 0.0474962 0.0025117 0.0474962 0.9974883 -0.0474962
171 0.9972664 -0.0496515 0.0027336 0.0496515 0.0027336 0.0496515 0.9972664 -0.0496515
179 0.9970246 -0.0519035 0.0029754 0.0519035 0.0029754 0.0519035 0.9970246 -0.0519035
187 0.9967610 -0.0542564 0.0032390 0.0542564 0.0032390 0.0542564 0.9967610 -0.0542564
196 0.9964737 -0.0567146 0.0035263 0.0567146 0.0035263 0.0567146 0.9964737 -0.0567146
205 0.9961605 -0.0592828 0.0038395 0.0592828 0.0038395 0.0592828 0.9961605 -0.0592828
214 0.9958191 -0.0619654 0.0041809 0.0619654 0.0041809 0.0619654 0.9958191 -0.0619654
224 0.9954469 -0.0647676 0.0045531 0.0647676 0.0045531 0.0647676 0.9954469 -0.0647676
234 0.9950410 -0.0676942 0.0049590 0.0676942 0.0049590 0.0676942 0.9950410 -0.0676942
245 0.9945985 -0.0707506 0.0054015 0.0707506 0.0054015 0.0707506 0.9945985 -0.0707506
256 0.9941159 -0.0739422 0.0058841 0.0739422 0.0058841 0.0739422 0.9941159 -0.0739422
268 0.9935897 -0.0772744 0.0064103 0.0772744 0.0064103 0.0772744 0.9935897 -0.0772744
280 0.9930159 -0.0807531 0.0069841 0.0807531 0.0069841 0.0807531 0.9930159 -0.0807531
293 0.9923901 -0.0843841 0.0076099 0.0843841 0.0076099 0.0843841 0.9923901 -0.0843841
306 0.9917076 -0.0881735 0.0082924 0.0881735 0.0082924 0.0881735 0.9917076 -0.0881735
320 0.9909633 -0.0921275 0.0090367 0.0921275 0.0090367 0.0921275 0.9909633 -0.0921275
335 0.9901516 -0.0962524 0.0098484 0.0962524 0.0098484 0.0962524 0.9901516 -0.0962524
350 0.9892664 -0.1005546 0.0107336 0.1005546 0.0107336 0.1005546 0.9892664 -0.1005546
366 0.9883013 -0.1050407 0.0116987 0.1050407 0.0116987 0.1050407 0.9883013 -0.1050407
383 0.9872490 -0.1097173 0.0127510 0.1097173 0.0127510 0.1097173 0.9872490 -0.1097173
401 0.9861018 -0.1145910 0.0138982 0.1145910 0.0138982 0.1145910 0.9861018 -0.1145910
419 0.9848513 -0.1196686 0.0151487 0.1196686 0.0151487 0.1196686 0.9848513 -0.1196686
438 0.9834885 -0.1249568 0.0165115 0.1249568 0.0165115 0.1249568 0.9834885 -0.1249568
458 0.9820036 -0.1304621 0.0179964 0.1304621 0.0179964 0.1304621 0.9820036 -0.1304621
479 0.9803861 -0.1361911 0.0196139 0.1361911 0.0196139 0.1361911 0.9803861 -0.1361911
501 0.9786244 -0.1421501 0.0213756 0.1421501 0.0213756 0.1421501 0.9786244 -0.1421501
524 0.9767065 -0.1483453 0.0232935 0.1483453 0.0232935 0.1483453 0.9767065 -0.1483453
548 0.9746190 -0.1547827 0.0253810 0.1547827 0.0253810 0.1547827 0.9746190 -0.1547827
573 0.9723478 -0.1614676 0.0276522 0.1614676 0.0276522 0.1614676 0.9723478 -0.1614676
600 0.9698779 -0.1684051 0.0301221 0.1684051 0.0301221 0.1684051 0.9698779 -0.1684051
627 0.9671929 -0.1755998 0.0328071 0.1755998 0.0328071 0.1755998 0.9671929 -0.1755998
656 0.9642756 -0.1830554 0.0357244 0.1830554 0.0357244 0.1830554 0.9642756 -0.1830554
686 0.9611076 -0.1907749 0.0388924 0.1907749 0.0388924 0.1907749 0.9611076 -0.1907749
717 0.9576694 -0.1987605 0.0423306 0.1987605 0.0423306 0.1987605 0.9576694 -0.1987605
750 0.9539402 -0.2070132 0.0460598 0.2070132 0.0460598 0.2070132 0.9539402 -0.2070132
784 0.9498983 -0.2155327 0.0501017 0.2155327 0.0501017 0.2155327 0.9498983 -0.2155327
820 0.9455206 -0.2243173 0.0544794 0.2243173 0.0544794 0.2243173 0.9455206 -0.2243173
858 0.9407830 -0.2333639 0.0592170 0.2333639 0.0592170 0.2333639 0.9407830 -0.2333639
897 0.9356604 -0.2426672 0.0643396 0.2426672 0.0643396 0.2426672 0.9356604 -0.2426672
938 0.9301267 -0.2522201 0.0698733 0.2522201 0.0698733 0.2522201 0.9301267 -0.2522201
981 0.9241549 -0.2620133 0.0758451 0.2620133 0.0758451 0.2620133 0.9241549 -0.2620133
1026 0.9177173 -0.2720349 0.0822827 0.2720349 0.0822827 0.2720349 0.9177173 -0.2720349
1073 0.9107856 -0.2822702 0.0892144 0.2822702 0.0892144 0.2822702 0.9107856 -0.2822702
1122 0.9033311 -0.2927016 0.0966689 0.2927016 0.0966689 0.2927016 0.9033311 -0.2927016
1174 0.8953251 -0.3033084 0.1046749 0.3033084 0.1046749 0.3033084 0.8953251 -0.3033084
1227 0.8867390 -0.3140663 0.1132610 0.3140663 0.1132610 0.3140663 0.8867390 -0.3140663
1283 0.8775449 -0.3249475 0.1224551 0.3249475 0.1224551 0.3249475 0.8775449 -0.3249475
1342 0.8677156 -0.3359203 0.1322844 0.3359203 0.1322844 0.3359203 0.8677156 -0.3359203
1404 0.8572256 -0.3469493 0.1427744 0.3469493 0.1427744 0.3469493 0.8572256 -0.3469493
1468 0.8460510 -0.3579947 0.1539490 0.3579947 0.1539490 0.3579947 0.8460510 -0.3579947
1535 0.8341705 -0.3690130 0.1658295 0.3690130 0.1658295 0.3690130 0.8341705 -0.3690130
1606 0.8215659 -0.3799564 0.1784341 0.3799564 0.1784341 0.3799564 0.8215659 -0.3799564
1679 0.8082225 -0.3907734 0.1917775 0.3907734 0.1917775 0.3907734 0.8082225 -0.3907734
1756 0.7941300 -0.4014088 0.2058700 0.4014088 0.2058700 0.4014088 0.7941300 -0.4014088
1836 0.7792831 -0.4118039 0.2207169 0.4118039 0.2207169 0.4118039 0.7792831 -0.4118039
1920 0.7636819 -0.4218974 0.2363181 0.4218974 0.2363181 0.4218974 0.7636819 -0.4218974
2008 0.7473331 -0.4316254 0.2526669 0.4316254 0.2526669 0.4316254 0.7473331 -0.4316254
2100 0.7302496 -0.4409225 0.2697504 0.4409225 0.2697504 0.4409225 0.7302496 -0.4409225
2196 0.7124521 -0.4497224 0.2875479 0.4497224 0.2875479 0.4497224 0.7124521 -0.4497224
2297 0.6939686 -0.4579590 0.3060314 0.4579590 0.3060314 0.4579590 0.6939686 -0.4579590
2402 0.6748350 -0.4655672 0.3251650 0.4655672 0.3251650 0.4655672 0.6748350 -0.4655672
2512 0.6550950 -0.4724842 0.3449050 0.4724842 0.3449050 0.4724842 0.6550950 -0.4724842
2627 0.6348003 -0.4786505 0.3651997 0.4786505 0.3651997 0.4786505 0.6348003 -0.4786505
2748 0.6140101 -0.4840111 0.3859899 0.4840111 0.3859899 0.4840111 0.6140101 -0.4840111
2873 0.5927903 -0.4885165 0.4072097 0.4885165 0.4072097 0.4885165 0.5927903 -0.4885165
3005 0.5712136 -0.4921241 0.4287864 0.4921241 0.4287864 0.4921241 0.5712136 -0.4921241
3143 0.5493577 -0.4947989 0.4506423 0.4947989 0.4506423 0.4947989 0.5493577 -0.4947989
3287 0.5273049 -0.4965144 0.4726951 0.4965144 0.4726951 0.4965144 0.5273049 -0.4965144
3437 0.5051406 -0.4972530 0.4948594 0.4972530 0.4948594 0.4972530 0.5051406 -0.4972530
3594 0.4829520 -0.4970069 0.5170480 0.4970069 0.5170480 0.4970069 0.4829520 -0.4970069
3759 0.4608268 -0.4957779 0.5391732 0.4957779 0.5391732 0.4957779 0.4608268 -0.4957779
3931 0.4388520 -0.4935775 0.5611480 0.4935775 0.5611480 0.4935775 0.4388520 -0.4935775
4111 0.4171119 -0.4904268 0.5828881 0.4904268 0.5828881 0.4904268 0.4171119 -0.4904268
4299 0.3956877 -0.4863558 0.6043123 0.4863558 0.6043123 0.4863558 0.3956877 -0.4863558
4496 0.3746556 -0.4814028 0.6253444 0.4814028 0.6253444 0.4814028 0.3746556 -0.4814028
4702 0.3540860 -0.4756133 0.6459140 0.4756133 0.6459140 0.4756133 0.3540860 -0.4756133
4918 0.3340428 -0.4690395 0.6659572 0.4690395 0.6659572 0.4690395 0.3340428 -0.4690395
5143 0.3145826 -0.4617388 0.6854174 0.4617388 0.6854174 0.4617388 0.3145826 -0.4617388
5378 0.2957542 -0.4537728 0.7042458 0.4537728 0.7042458 0.4537728 0.2957542 -0.4537728
5625 0.2775986 -0.4452061 0.7224014 0.4452061 0.7224014 0.4452061 0.2775986 -0.4452061
5882 0.2601487 -0.4361051 0.7398513 0.4361051 0.7398513 0.4361051 0.2601487 -0.4361051
6151 0.2434294 -0.4265369 0.7565706 0.4265369 0.7565706 0.4265369 0.2434294 -0.4265369
6433 0.2274581 -0.4165686 0.7725419 0.4165686 0.7725419 0.4165686 0.2274581 -0.4165686
6728 0.2122448 -0.4062658 0.7877552 0.4062658 0.7877552 0.4062658 0.2122448 -0.4062658
7036 0.1977931 -0.3956923 0.8022069 0.3956923 0.8022069 0.3956923 0.1977931 -0.3956923
7358 0.1841003 -0.3849093 0.8158997 0.3849093 0.8158997 0.3849093 0.1841003 -0.3849093
7695 0.1711581 -0.3739747 0.8288419 0.3739747 0.8288419 0.3739747 0.1711581 -0.3739747
8047 0.1589536 -0.3629429 0.8410464 0.3629429 0.8410464 0.3629429 0.1589536 -0.3629429
8416 0.1474697 -0.3518644 0.8525303 0.3518644 0.8525303 0.3518644 0.1474697 -0.3518644
8801 0.1366859 -0.3407855 0.8633141 0.3407855 0.8633141 0.3407855 0.1366859 -0.3407855
9204 0.1265787 -0.3297484 0.8734213 0.3297484 0.8734213 0.3297484 0.1265787 -0.3297484
9626 0.1171226 -0.3187910 0.8828774 0.3187910 0.8828774 0.3187910 0.1171226 -0.3187910
10066 0.1082904 -0.3079473 0.8917096 0.3079473 0.8917096 0.3079473 0.1082904 -0.3079473
10527 0.1000535 -0.2972469 0.8999465 0.2972469 0.8999465 0.2972469 0.1000535 -0.2972469
11009 0.0923829 -0.2867160 0.9076171 0.2867160 0.9076171 0.2867160 0.0923829 -0.2867160
11514 0.0852491 -0.2763767 0.9147509 0.2763767 0.9147509 0.2763767 0.0852491 -0.2763767
12041 0.0786226 -0.2662480 0.9213774 0.2662480 0.9213774 0.2662480 0.0786226 -0.2662480
12592 0.0724744 -0.2563456 0.9275256 0.2563456 0.9275256 0.2563456 0.0724744 -0.2563456
13169 0.0667758 -0.2466823 0.9332242 0.2466823 0.9332242 0.2466823 0.0667758 -0.2466823
13772 0.0614991 -0.2372682 0.9385009 0.2372682 0.9385009 0.2372682 0.0614991 -0.2372682
14402 0.0566173 -0.2281111 0.9433827 0.2281111 0.9433827 0.2281111 0.0566173 -0.2281111
15062 0.0521046 -0.2192165 0.9478954 0.2192165 0.9478954 0.2192165 0.0521046 -0.2192165
15752 0.0479360 -0.2105881 0.9520640 0.2105881 0.9520640 0.2105881 0.0479360 -0.2105881
16473 0.0440880 -0.2022278 0.9559120 0.2022278 0.9559120 0.2022278 0.0440880 -0.2022278
17227 0.0405382 -0.1941359 0.9594618 0.1941359 0.9594618 0.1941359 0.0405382 -0.1941359
18016 0.0372653 -0.1863117 0.9627347 0.1863117 0.9627347 0.1863117 0.0372653 -0.1863117
18841 0.0342493 -0.1787531 0.9657507 0.1787531 0.9657507 0.1787531 0.0342493 -0.1787531
19704 0.0314715 -0.1714572 0.9685285 0.1714572 0.9685285 0.1714572 0.0314715 -0.1714572
20606 0.0289141 -0.1644201 0.9710859 0.1644201 0.9710859 0.1644201 0.0289141 -0.1644201
21550 0.0265606 -0.1576374 0.9734394 0.1576374 0.9734394 0.1576374 0.0265606 -0.1576374
22537 0.0243956 -0.1511041 0.9756044 0.1511041 0.9756044 0.1511041 0.0243956 -0.1511041
23569 0.0224047 -0.1448147 0.9775953 0.1448147 0.9775953 0.1448147 0.0224047 -0.1448147
24648 0.0205745 -0.1387633 0.9794255 0.1387633 0.9794255 0.1387633 0.0205745 -0.1387633
25777 0.0188925 -0.1329438 0.9811075 0.1329438 0.9811075 0.1329438 0.0188925 -0.1329438
26957 0.0173472 -0.1273499 0.9826528 0.1273499 0.9826528 0.1273499 0.0173472 -0.1273499
28191 0.0159278 -0.1219749 0.9840722 0.1219749 0.9840722 0.1219749 0.0159278 -0.1219749
29482 0.0146244 -0.1168125 0.9853756 0.1168125 0.9853756 0.1168125 0.0146244 -0.1168125
30832 0.0134278 -0.1118558 0.9865722 0.1118558 0.9865722 0.1118558 0.0134278 -0.1118558
32244 0.0123295 -0.1070983 0.9876705 0.1070983 0.9876705 0.1070983 0.0123295 -0.1070983
33721 0.0113215 -0.1025333 0.9886785 0.1025333 0.9886785 0.1025333 0.0113215 -0.1025333
35265 0.0103966 -0.0981543 0.9896034 0.0981543 0.9896034 0.0981543 0.0103966 -0.0981543
36880 0.0095481 -0.0939546 0.9904519 0.0939546 0.9904519 0.0939546 0.0095481 -0.0939546
38569 0.0087698 -0.0899280 0.9912302 0.0899280 0.9912302 0.0899280 0.0087698 -0.0899280
40335 0.0080559 -0.0860682 0.9919441 0.0860682 0.9919441 0.0860682 0.0080559 -0.0860682
42182 0.0074011 -0.0823689 0.9925989 0.0823689 0.9925989 0.0823689 0.0074011 -0.0823689
44113 0.0068007 -0.0788242 0.9931993 0.0788242 0.9931993 0.0788242 0.0068007 -0.0788242
46134 0.0062502 -0.0754281 0.9937498 0.0754281 0.9937498 0.0754281 0.0062502 -0.0754281
48246 0.0057453 -0.0721749 0.9942547 0.0721749 0.9942547 0.0721749 0.0057453 -0.0721749
50455 0.0052824 -0.0690591 0.9947176 0.0690591 0.9947176 0.0690591 0.0052824 -0.0690591
52766 0.0048579 -0.0660753 0.9951421 0.0660753 0.9951421 0.0660753 0.0048579 -0.0660753
55182 0.0044686 -0.0632181 0.9955314 0.0632181 0.9955314 0.0632181 0.0044686 -0.0632181
57709 0.0041117 -0.0604825 0.9958883 0.0604825 0.9958883 0.0604825 0.0041117 -0.0604825
60352 0.0037843 -0.0578637 0.9962157 0.0578637 0.9962157 0.0578637 0.0037843 -0.0578637
63115 0.0034841 -0.0553567 0.9965159 0.0553567 0.9965159 0.0553567 0.0034841 -0.0553567
66005 0.0032087 -0.0529571 0.9967913 0.0529571 0.9967913 0.0529571 0.0032087 -0.0529571
69028 0.0029560 -0.0506604 0.9970440 0.0506604 0.9970440 0.0506604 0.0029560 -0.0506604
72189 0.0027242 -0.0484623 0.9972758 0.0484623 0.9972758 0.0484623 0.0027242 -0.0484623
75495 0.0025115 -0.0463587 0.9974885 0.0463587 0.9974885 0.0463587 0.0025115 -0.0463587
78952 0.0023163 -0.0443457 0.9976837 0.0443457 0.9976837 0.0443457 0.0023163 -0.0443457
82567 0.0021371 -0.0424195 0.9978629 0.0424195 0.9978629 0.0424195 0.0021371 -0.0424195
86348 0.0019725 -0.0405763 0.9980275 0.0405763 0.9980275 0.0405763 0.0019725 -0.0405763
90302 0.0018214 -0.0388126 0.9981786 0.0388126 0.9981786 0.0388126 0.0018214 -0.0388126
94437 0.0016826 -0.0371252 0.9983174 0.0371252 0.9983174 0.0371252 0.0016826 -0.0371252
98762 0.0015551 -0.0355106 0.9984449 0.0355106 0.9984449 0.0355106 0.0015551 -0.0355106
103284 0.0014380 -0.0339659 0.9985620 0.0339659 0.9985620 0.0339659 0.0014380 -0.0339659
108014 0.0013304 -0.0324880 0.9986696 0.0324880 0.9986696 0.0324880 0.0013304 -0.0324880
112960 0.0012315 -0.0310740 0.9987685 0.0310740 0.9987685 0.0310740 0.0012315 -0.0310740
118133 0.0011405 -0.0297213 0.9988595 0.0297213 0.9988595 0.0297213 0.0011405 -0.0297213
123542 0.0010570 -0.0284271 0.9989430 0.0284271 0.9989430 0.0284271 0.0010570 -0.0284271
129199 0.0009801 -0.0271890 0.9990199 0.0271890 0.9990199 0.0271890 0.0009801 -0.0271890
135116 0.0009095 -0.0260046 0.9990905 0.0260046 0.9990905 0.0260046 0.0009095 -0.0260046
141303 0.0008445 -0.0248715 0.9991555 0.0248715 0.9991555 0.0248715 0.0008445 -0.0248715
147774 0.0007848 -0.0237875 0.9992152 0.0237875 0.9992152 0.0237875 0.0007848 -0.0237875
154540 0.0007299 -0.0227506 0.9992701 0.0227506 0.9992701 0.0227506 0.0007299 -0.0227506
161617 0.0006794 -0.0217586 0.9993206 0.0217586 0.9993206 0.0217586 0.0006794 -0.0217586
169018 0.0006329 -0.0208097 0.9993671 0.0208097 0.9993671 0.0208097 0.0006329 -0.0208097
176758 0.0005902 -0.0199020 0.9994098 0.0199020 0.9994098 0.0199020 0.0005902 -0.0199020
184852 0.0005509 -0.0190337 0.9994491 0.0190337 0.9994491 0.0190337 0.0005509 -0.0190337
193316 0.0005148 -0.0182031 0.9994852 0.0182031 0.9994852 0.0182031 0.0005148 -0.0182031
202169 0.0004815 -0.0174086 0.9995185 0.0174086 0.9995185 0.0174086 0.0004815 -0.0174086
211427 0.0004509 -0.0166486 0.9995491 0.0166486 0.9995491 0.0166486 0.0004509 -0.0166486
221108 0.0004228 -0.0159216 0.9995772 0.0159216 0.9995772 0.0159216 0.0004228 -0.0159216
231233 0.0003969 -0.0152263 0.9996031 0.0152263 0.9996031 0.0152263 0.0003969 -0.0152263
241822 0.0003730 -0.0145612 0.9996270 0.0145612 0.9996270 0.0145612 0.0003730 -0.0145612
252896 0.0003511 -0.0139250 0.9996489 0.0139250 0.9996489 0.0139250 0.0003511 -0.0139250
264476 0.0003309 -0.0133164 0.9996691 0.0133164 0.9996691 0.0133164 0.0003309 -0.0133164
276587 0.0003122 -0.0127344 0.9996878 0.0127344 0.9996878 0.0127344 0.0003122 -0.0127344
289253 0.0002951 -0.0121776 0.9997049 0.0121776 0.9997049 0.0121776 0.0002951 -0.0121776
302498 0.0002792 -0.0116450 0.9997208 0.0116450 0.9997208 0.0116450 0.0002792 -0.0116450
316350 0.0002646 -0.0111357 0.9997354 0.0111357 0.9997354 0.0111357 0.0002646 -0.0111357
330837 0.0002511 -0.0106484 0.9997489 0.0106484 0.9997489 0.0106484 0.0002511 -0.0106484
345986 0.0002387 -0.0101823 0.9997613 0.0101823 0.9997613 0.0101823 0.0002387 -0.0101823
361830 0.0002272 -0.0097365 0.9997728 0.0097365 0.9997728 0.0097365 0.0002272 -0.0097365
378399 0.0002165 -0.0093101 0.9997835 0.0093101 0.9997835 0.0093101 0.0002165 -0.0093101
395726 0.0002066 -0.0089021 0.9997934 0.0089021 0.9997934 0.0089021 0.0002066 -0.0089021
413847 0.0001975 -0.0085119 0.9998025 0.0085119 0.9998025 0.0085119 0.0001975 -0.0085119
432798 0.0001890 -0.0081386 0.9998110 0.0081386 0.9998110 0.0081386 0.0001890 -0.0081386
452617 0.0001812 -0.0077814 0.9998188 0.0077814 0.9998188 0.0077814 0.0001812 -0.0077814
473344 0.0001739 -0.0074398 0.9998261 0.0074398 0.9998261 0.0074398 0.0001739 -0.0074398
495019 0.0001671 -0.0071129 0.9998329 0.0071129 0.9998329 0.0071129 0.0001671 -0.0071129
517687 0.0001608 -0.0068001 0.9998392 0.0068001 0.9998392 0.0068001 0.0001608 -0.0068001
541393 0.0001549 -0.0065009 0.9998451 0.0065009 0.9998451 0.0065009 0.0001549 -0.0065009
566185 0.0001495 -0.0062146 0.9998505 0.0062146 0.9998505 0.0062146 0.0001495 -0.0062146
592111 0.0001444 -0.0059406 0.9998556 0.0059406 0.9998556 0.0059406 0.0001444 -0.0059406
619225 0.0001397 -0.0056784 0.9998603 0.0056784 0.9998603 0.0056784 0.0001397 -0.0056784
647581 0.0001353 -0.0054275 0.9998647 0.0054275 0.9998647 0.0054275 0.0001353 -0.0054275
677235 0.0001312 -0.0051873 0.9998688 0.0051873 0.9998688 0.0051873 0.0001312 -0.0051873
708247 0.0001274 -0.0049575 0.9998726 0.0049575 0.9998726 0.0049575 0.0001274 -0.0049575
740679 0.0001239 -0.0047375 0.9998761 0.0047375 0.9998761 0.0047375 0.0001239 -0.0047375
774597 0.0001206 -0.0045269 0.9998794 0.0045269 0.9998794 0.0045269 0.0001206 -0.0045269
810067 0.0001175 -0.0043253 0.9998825 0.0043253 0.9998825 0.0043253 0.0001175 -0.0043253
847162 0.0001146 -0.0041322 0.9998854 0.0041322 0.9998854 0.0041322 0.0001146 -0.0041322
885955 0.0001120 -0.0039474 0.9998880 0.0039474 0.9998880 0.0039474 0.0001120 -0.0039474
926525 0.0001096 -0.0037704 0.9998904 0.0037704 0.9998904 0.0037704 0.0001096 -0.0037704
968953 0.0001073 -0.0036009 0.9998927 0.0036009 0.9998927 0.0036009 0.0001073 -0.0036009
1013323 0.0001052 -0.0034386 0.9998948 0.0034386 0.9998948 0.0034386 0.0001052 -0.0034386
1059725 0.0001032 -0.0032831 0.9998968 0.0032831 0.9998968 0.0032831 0.0001032 -0.0032831
1108252 0.0001015 -0.0031341 0.9998985 0.0031341 0.9998985 0.0031341 0.0001015 -0.0031341
1159002 0.0000998 -0.0029913 0.9999002 0.0029913 0.9999002 0.0029913 0.0000998 -0.0029913
1212075 0.0000983 -0.0028545 0.9999017 0.0028545 0.9999017 0.0028545 0.0000983 -0.0028545
1267578 0.0000969 -0.0027234 0.9999031 0.0027234 0.9999031 0.0027234 0.0000969 -0.0027234
1325623 0.0000956 -0.0025977 0.9999044 0.0025977 0.9999044 0.0025977 0.0000956 -0.0025977
1386327 0.0000945 -0.0024772 0.9999055 0.0024772 0.9999055 0.0024772 0.0000945 -0.0024772
1449809 0.0000934 -0.0023616 0.9999066 0.0023616 0.9999066 0.0023616 0.0000934 -0.0023616
1516199 0.0000925 -0.0022507 0.9999075 0.0022507 0.9999075 0.0022507 0.0000925 -0.0022507
1585629 0.0000916 -0.0021443 0.9999084 0.0021443 0.9999084 0.0021443 0.0000916 -0.0021443
1658239 0.0000908 -0.0020422 0.9999092 0.0020422 0.9999092 0.0020422 0.0000908 -0.0020422
1734173 0.0000902 -0.0019441 0.9999098 0.0019441 0.9999098 0.0019441 0.0000902 -0.0019441
1813585 0.0000895 -0.0018499 0.9999105 0.0018499 0.9999105 0.0018499 0.0000895 -0.0018499
1896632 0.0000890 -0.0017594 0.9999110 0.0017594 0.9999110 0.0017594 0.0000890 -0.0017594
1983483 0.0000886 -0.0016725 0.9999114 0.0016725 0.9999114 0.0016725 0.0000886 -0.0016725
2074311 0.0000882 -0.0015888 0.9999118 0.0015888 0.9999118 0.0015888 0.0000882 -0.0015888
