!Murata Part Number: GRM31CR61H106MA12
!These Parameters are Measured in Series Mode Connection
!Data Generated on Mar 30, 2021
!       o--ll--o
!Port1            Port2
!       o------o
!Operation Temp=25[degC], DC Bias Voltage=0[V]
!Freq. Start=100[Hz] Stop=6[GHz] 401[Steps]
# Hz S RI R 50
!Freq.(Hz) S11(Real) S11(Imag) S21(Real) S21(Imag) S12(Real) S12(Imag) S22(Real) S22(Imag)
100 0.8376107 -0.3608379 0.1623893 0.3608379 0.1623893 0.3608379 0.8376107 -0.3608379
105 0.8254355 -0.3716133 0.1745645 0.3716133 0.1745645 0.3716133 0.8254355 -0.3716133
109 0.8125408 -0.3822812 0.1874592 0.3822812 0.1874592 0.3822812 0.8125408 -0.3822812
114 0.7989158 -0.3927884 0.2010842 0.3927884 0.2010842 0.3927884 0.7989158 -0.3927884
120 0.7845544 -0.4030781 0.2154456 0.4030781 0.2154456 0.4030781 0.7845544 -0.4030781
125 0.7694561 -0.4130910 0.2305439 0.4130910 0.2305439 0.4130910 0.7694561 -0.4130910
131 0.7536263 -0.4227655 0.2463737 0.4227655 0.2463737 0.4227655 0.7536263 -0.4227655
137 0.7370771 -0.4320384 0.2629229 0.4320384 0.2629229 0.4320384 0.7370771 -0.4320384
143 0.7198273 -0.4408458 0.2801727 0.4408458 0.2801727 0.4408458 0.7198273 -0.4408458
150 0.7019032 -0.4491240 0.2980968 0.4491240 0.2980968 0.4491240 0.7019032 -0.4491240
156 0.6833386 -0.4568105 0.3166614 0.4568105 0.3166614 0.4568105 0.6833386 -0.4568105
164 0.6641747 -0.4638447 0.3358253 0.4638447 0.3358253 0.4638447 0.6641747 -0.4638447
171 0.6444600 -0.4701696 0.3555400 0.4701696 0.3555400 0.4701696 0.6444600 -0.4701696
179 0.6242500 -0.4757324 0.3757500 0.4757324 0.3757500 0.4757324 0.6242500 -0.4757324
187 0.6036070 -0.4804854 0.3963930 0.4804854 0.3963930 0.4804854 0.6036070 -0.4804854
196 0.5825988 -0.4843875 0.4174012 0.4843875 0.4174012 0.4843875 0.5825988 -0.4843875
205 0.5612983 -0.4874046 0.4387017 0.4874046 0.4387017 0.4874046 0.5612983 -0.4874046
214 0.5397826 -0.4895105 0.4602174 0.4895105 0.4602174 0.4895105 0.5397826 -0.4895105
224 0.5181313 -0.4906875 0.4818687 0.4906875 0.4818687 0.4906875 0.5181313 -0.4906875
234 0.4964259 -0.4909264 0.5035741 0.4909264 0.5035741 0.4909264 0.4964259 -0.4909264
245 0.4747484 -0.4902271 0.5252516 0.4902271 0.5252516 0.4902271 0.4747484 -0.4902271
256 0.4531800 -0.4885983 0.5468200 0.4885983 0.5468200 0.4885983 0.4531800 -0.4885983
268 0.4317997 -0.4860571 0.5682003 0.4860571 0.5682003 0.4860571 0.4317997 -0.4860571
280 0.4106837 -0.4826288 0.5893163 0.4826288 0.5893163 0.4826288 0.4106837 -0.4826288
293 0.3899039 -0.4783464 0.6100961 0.4783464 0.6100961 0.4783464 0.3899039 -0.4783464
306 0.3695273 -0.4732494 0.6304727 0.4732494 0.6304727 0.4732494 0.3695273 -0.4732494
320 0.3496150 -0.4673833 0.6503850 0.4673833 0.6503850 0.4673833 0.3496150 -0.4673833
335 0.3302220 -0.4607983 0.6697780 0.4607983 0.6697780 0.4607983 0.3302220 -0.4607983
350 0.3113965 -0.4535490 0.6886035 0.4535490 0.6886035 0.4535490 0.3113965 -0.4535490
366 0.2931800 -0.4456925 0.7068200 0.4456925 0.7068200 0.4456925 0.2931800 -0.4456925
383 0.2756066 -0.4372884 0.7243934 0.4372884 0.7243934 0.4372884 0.2756066 -0.4372884
401 0.2587039 -0.4283969 0.7412961 0.4283969 0.7412961 0.4283969 0.2587039 -0.4283969
419 0.2424926 -0.4190789 0.7575074 0.4190789 0.7575074 0.4190789 0.2424926 -0.4190789
438 0.2269870 -0.4093944 0.7730130 0.4093944 0.7730130 0.4093944 0.2269870 -0.4093944
458 0.2121952 -0.3994024 0.7878048 0.3994024 0.7878048 0.3994024 0.2121952 -0.3994024
479 0.1981199 -0.3891599 0.8018801 0.3891599 0.8018801 0.3891599 0.1981199 -0.3891599
501 0.1847586 -0.3787218 0.8152414 0.3787218 0.8152414 0.3787218 0.1847586 -0.3787218
524 0.1721042 -0.3681400 0.8278958 0.3681400 0.8278958 0.3681400 0.1721042 -0.3681400
548 0.1601456 -0.3574637 0.8398544 0.3574637 0.8398544 0.3574637 0.1601456 -0.3574637
573 0.1488680 -0.3467384 0.8511320 0.3467384 0.8511320 0.3467384 0.1488680 -0.3467384
600 0.1382538 -0.3360066 0.8617462 0.3360066 0.8617462 0.3360066 0.1382538 -0.3360066
627 0.1282826 -0.3253070 0.8717174 0.3253070 0.8717174 0.3253070 0.1282826 -0.3253070
656 0.1189323 -0.3146750 0.8810677 0.3146750 0.8810677 0.3146750 0.1189323 -0.3146750
686 0.1101789 -0.3041421 0.8898211 0.3041421 0.8898211 0.3041421 0.1101789 -0.3041421
717 0.1019975 -0.2937369 0.8980025 0.2937369 0.8980025 0.2937369 0.1019975 -0.2937369
750 0.0943619 -0.2834843 0.9056381 0.2834843 0.9056381 0.2834843 0.0943619 -0.2834843
784 0.0872460 -0.2734061 0.9127540 0.2734061 0.9127540 0.2734061 0.0872460 -0.2734061
820 0.0806232 -0.2635212 0.9193768 0.2635212 0.9193768 0.2635212 0.0806232 -0.2635212
858 0.0744668 -0.2538454 0.9255332 0.2538454 0.9255332 0.2538454 0.0744668 -0.2538454
897 0.0687508 -0.2443922 0.9312492 0.2443922 0.9312492 0.2443922 0.0687508 -0.2443922
938 0.0634492 -0.2351724 0.9365508 0.2351724 0.9365508 0.2351724 0.0634492 -0.2351724
981 0.0585371 -0.2261945 0.9414629 0.2261945 0.9414629 0.2261945 0.0585371 -0.2261945
1026 0.0539900 -0.2174651 0.9460100 0.2174651 0.9460100 0.2174651 0.0539900 -0.2174651
1073 0.0497844 -0.2089890 0.9502156 0.2089890 0.9502156 0.2089890 0.0497844 -0.2089890
1122 0.0458978 -0.2007689 0.9541022 0.2007689 0.9541022 0.2007689 0.0458978 -0.2007689
1174 0.0423084 -0.1928066 0.9576916 0.1928066 0.9576916 0.1928066 0.0423084 -0.1928066
1227 0.0389959 -0.1851020 0.9610041 0.1851020 0.9610041 0.1851020 0.0389959 -0.1851020
1283 0.0359405 -0.1776542 0.9640595 0.1776542 0.9640595 0.1776542 0.0359405 -0.1776542
1342 0.0331238 -0.1704612 0.9668762 0.1704612 0.9668762 0.1704612 0.0331238 -0.1704612
1404 0.0305284 -0.1635199 0.9694716 0.1635199 0.9694716 0.1635199 0.0305284 -0.1635199
1468 0.0281379 -0.1568268 0.9718621 0.1568268 0.9718621 0.1568268 0.0281379 -0.1568268
1535 0.0259368 -0.1503774 0.9740632 0.1503774 0.9740632 0.1503774 0.0259368 -0.1503774
1606 0.0239107 -0.1441669 0.9760893 0.1441669 0.9760893 0.1441669 0.0239107 -0.1441669
1679 0.0220461 -0.1381900 0.9779539 0.1381900 0.9779539 0.1381900 0.0220461 -0.1381900
1756 0.0203305 -0.1324409 0.9796695 0.1324409 0.9796695 0.1324409 0.0203305 -0.1324409
1836 0.0187521 -0.1269138 0.9812479 0.1269138 0.9812479 0.1269138 0.0187521 -0.1269138
1920 0.0173000 -0.1216023 0.9827000 0.1216023 0.9827000 0.1216023 0.0173000 -0.1216023
2008 0.0159642 -0.1165002 0.9840358 0.1165002 0.9840358 0.1165002 0.0159642 -0.1165002
2100 0.0147352 -0.1116009 0.9852648 0.1116009 0.9852648 0.1116009 0.0147352 -0.1116009
2196 0.0136045 -0.1068981 0.9863955 0.1068981 0.9863955 0.1068981 0.0136045 -0.1068981
2297 0.0125639 -0.1023851 0.9874361 0.1023851 0.9874361 0.1023851 0.0125639 -0.1023851
2402 0.0116063 -0.0980554 0.9883937 0.0980554 0.9883937 0.0980554 0.0116063 -0.0980554
2512 0.0107246 -0.0939026 0.9892754 0.0939026 0.9892754 0.0939026 0.0107246 -0.0939026
2627 0.0099128 -0.0899203 0.9900872 0.0899203 0.9900872 0.0899203 0.0099128 -0.0899203
2748 0.0091651 -0.0861021 0.9908349 0.0861021 0.9908349 0.0861021 0.0091651 -0.0861021
2873 0.0084761 -0.0824420 0.9915239 0.0824420 0.9915239 0.0824420 0.0084761 -0.0824420
3005 0.0078411 -0.0789338 0.9921589 0.0789338 0.9921589 0.0789338 0.0078411 -0.0789338
3143 0.0072556 -0.0755717 0.9927444 0.0755717 0.9927444 0.0755717 0.0072556 -0.0755717
3287 0.0067157 -0.0723499 0.9932843 0.0723499 0.9932843 0.0723499 0.0067157 -0.0723499
3437 0.0062175 -0.0692628 0.9937825 0.0692628 0.9937825 0.0692628 0.0062175 -0.0692628
3594 0.0057577 -0.0663051 0.9942423 0.0663051 0.9942423 0.0663051 0.0057577 -0.0663051
3759 0.0053332 -0.0634715 0.9946668 0.0634715 0.9946668 0.0634715 0.0053332 -0.0634715
3931 0.0049413 -0.0607570 0.9950587 0.0607570 0.9950587 0.0607570 0.0049413 -0.0607570
4111 0.0045792 -0.0581567 0.9954208 0.0581567 0.9954208 0.0581567 0.0045792 -0.0581567
4299 0.0042448 -0.0556658 0.9957552 0.0556658 0.9957552 0.0556658 0.0042448 -0.0556658
4496 0.0039357 -0.0532800 0.9960643 0.0532800 0.9960643 0.0532800 0.0039357 -0.0532800
4702 0.0036502 -0.0509949 0.9963498 0.0509949 0.9963498 0.0509949 0.0036502 -0.0509949
4918 0.0033863 -0.0488063 0.9966137 0.0488063 0.9966137 0.0488063 0.0033863 -0.0488063
5143 0.0031424 -0.0467102 0.9968576 0.0467102 0.9968576 0.0467102 0.0031424 -0.0467102
5378 0.0029170 -0.0447028 0.9970830 0.0447028 0.9970830 0.0447028 0.0029170 -0.0447028
5625 0.0027087 -0.0427804 0.9972913 0.0427804 0.9972913 0.0427804 0.0027087 -0.0427804
5882 0.0025163 -0.0409395 0.9974837 0.0409395 0.9974837 0.0409395 0.0025163 -0.0409395
6151 0.0023385 -0.0391768 0.9976615 0.0391768 0.9976615 0.0391768 0.0023385 -0.0391768
6433 0.0021742 -0.0374890 0.9978258 0.0374890 0.9978258 0.0374890 0.0021742 -0.0374890
6728 0.0020225 -0.0358730 0.9979775 0.0358730 0.9979775 0.0358730 0.0020225 -0.0358730
7036 0.0018825 -0.0343258 0.9981175 0.0343258 0.9981175 0.0343258 0.0018825 -0.0343258
7358 0.0017531 -0.0328446 0.9982469 0.0328446 0.9982469 0.0328446 0.0017531 -0.0328446
7695 0.0016337 -0.0314266 0.9983663 0.0314266 0.9983663 0.0314266 0.0016337 -0.0314266
8047 0.0015235 -0.0300694 0.9984765 0.0300694 0.9984765 0.0300694 0.0015235 -0.0300694
8416 0.0014218 -0.0287702 0.9985782 0.0287702 0.9985782 0.0287702 0.0014218 -0.0287702
8801 0.0013280 -0.0275267 0.9986720 0.0275267 0.9986720 0.0275267 0.0013280 -0.0275267
9204 0.0012414 -0.0263366 0.9987586 0.0263366 0.9987586 0.0263366 0.0012414 -0.0263366
9626 0.0011615 -0.0251977 0.9988385 0.0251977 0.9988385 0.0251977 0.0011615 -0.0251977
10066 0.0010877 -0.0241078 0.9989123 0.0241078 0.9989123 0.0241078 0.0010877 -0.0241078
10527 0.0010196 -0.0230649 0.9989804 0.0230649 0.9989804 0.0230649 0.0010196 -0.0230649
11009 0.0009568 -0.0220670 0.9990432 0.0220670 0.9990432 0.0220670 0.0009568 -0.0220670
11514 0.0008987 -0.0211122 0.9991013 0.0211122 0.9991013 0.0211122 0.0008987 -0.0211122
12041 0.0008451 -0.0201987 0.9991549 0.0201987 0.9991549 0.0201987 0.0008451 -0.0201987
12592 0.0007955 -0.0193248 0.9992045 0.0193248 0.9992045 0.0193248 0.0007955 -0.0193248
13169 0.0007496 -0.0184887 0.9992504 0.0184887 0.9992504 0.0184887 0.0007496 -0.0184887
13772 0.0007071 -0.0176889 0.9992929 0.0176889 0.9992929 0.0176889 0.0007071 -0.0176889
14402 0.0006678 -0.0169238 0.9993322 0.0169238 0.9993322 0.0169238 0.0006678 -0.0169238
15062 0.0006313 -0.0161920 0.9993687 0.0161920 0.9993687 0.0161920 0.0006313 -0.0161920
15752 0.0005974 -0.0154919 0.9994026 0.0154919 0.9994026 0.0154919 0.0005974 -0.0154919
16473 0.0005659 -0.0148223 0.9994341 0.0148223 0.9994341 0.0148223 0.0005659 -0.0148223
17227 0.0005365 -0.0141818 0.9994635 0.0141818 0.9994635 0.0141818 0.0005365 -0.0141818
18016 0.0005092 -0.0135691 0.9994908 0.0135691 0.9994908 0.0135691 0.0005092 -0.0135691
18841 0.0004836 -0.0129831 0.9995164 0.0129831 0.9995164 0.0129831 0.0004836 -0.0129831
19704 0.0004597 -0.0124225 0.9995403 0.0124225 0.9995403 0.0124225 0.0004597 -0.0124225
20606 0.0004373 -0.0118863 0.9995627 0.0118863 0.9995627 0.0118863 0.0004373 -0.0118863
21550 0.0004163 -0.0113735 0.9995837 0.0113735 0.9995837 0.0113735 0.0004163 -0.0113735
22537 0.0003965 -0.0108828 0.9996035 0.0108828 0.9996035 0.0108828 0.0003965 -0.0108828
23569 0.0003779 -0.0104135 0.9996221 0.0104135 0.9996221 0.0104135 0.0003779 -0.0104135
24648 0.0003604 -0.0099646 0.9996396 0.0099646 0.9996396 0.0099646 0.0003604 -0.0099646
25777 0.0003438 -0.0095350 0.9996562 0.0095350 0.9996562 0.0095350 0.0003438 -0.0095350
26957 0.0003281 -0.0091241 0.9996719 0.0091241 0.9996719 0.0091241 0.0003281 -0.0091241
28191 0.0003133 -0.0087310 0.9996867 0.0087310 0.9996867 0.0087310 0.0003133 -0.0087310
29482 0.0002992 -0.0083548 0.9997008 0.0083548 0.9997008 0.0083548 0.0002992 -0.0083548
30832 0.0002859 -0.0079949 0.9997141 0.0079949 0.9997141 0.0079949 0.0002859 -0.0079949
32244 0.0002733 -0.0076504 0.9997267 0.0076504 0.9997267 0.0076504 0.0002733 -0.0076504
33721 0.0002612 -0.0073209 0.9997388 0.0073209 0.9997388 0.0073209 0.0002612 -0.0073209
35265 0.0002499 -0.0070055 0.9997501 0.0070055 0.9997501 0.0070055 0.0002499 -0.0070055
36880 0.0002390 -0.0067036 0.9997610 0.0067036 0.9997610 0.0067036 0.0002390 -0.0067036
38569 0.0002288 -0.0064148 0.9997712 0.0064148 0.9997712 0.0064148 0.0002288 -0.0064148
40335 0.0002190 -0.0061383 0.9997810 0.0061383 0.9997810 0.0061383 0.0002190 -0.0061383
42182 0.0002098 -0.0058737 0.9997902 0.0058737 0.9997902 0.0058737 0.0002098 -0.0058737
44113 0.0002010 -0.0056205 0.9997990 0.0056205 0.9997990 0.0056205 0.0002010 -0.0056205
46134 0.0001927 -0.0053781 0.9998073 0.0053781 0.9998073 0.0053781 0.0001927 -0.0053781
48246 0.0001849 -0.0051461 0.9998151 0.0051461 0.9998151 0.0051461 0.0001849 -0.0051461
50455 0.0001774 -0.0049241 0.9998226 0.0049241 0.9998226 0.0049241 0.0001774 -0.0049241
52766 0.0001704 -0.0047116 0.9998296 0.0047116 0.9998296 0.0047116 0.0001704 -0.0047116
55182 0.0001638 -0.0045082 0.9998362 0.0045082 0.9998362 0.0045082 0.0001638 -0.0045082
57709 0.0001575 -0.0043135 0.9998425 0.0043135 0.9998425 0.0043135 0.0001575 -0.0043135
60352 0.0001516 -0.0041272 0.9998484 0.0041272 0.9998484 0.0041272 0.0001516 -0.0041272
63115 0.0001460 -0.0039489 0.9998540 0.0039489 0.9998540 0.0039489 0.0001460 -0.0039489
66005 0.0001407 -0.0037783 0.9998593 0.0037783 0.9998593 0.0037783 0.0001407 -0.0037783
69028 0.0001358 -0.0036150 0.9998642 0.0036150 0.9998642 0.0036150 0.0001358 -0.0036150
72189 0.0001311 -0.0034588 0.9998689 0.0034588 0.9998689 0.0034588 0.0001311 -0.0034588
75495 0.0001267 -0.0033093 0.9998733 0.0033093 0.9998733 0.0033093 0.0001267 -0.0033093
78952 0.0001225 -0.0031662 0.9998775 0.0031662 0.9998775 0.0031662 0.0001225 -0.0031662
82567 0.0001185 -0.0030293 0.9998815 0.0030293 0.9998815 0.0030293 0.0001185 -0.0030293
86348 0.0001148 -0.0028983 0.9998852 0.0028983 0.9998852 0.0028983 0.0001148 -0.0028983
90302 0.0001113 -0.0027729 0.9998887 0.0027729 0.9998887 0.0027729 0.0001113 -0.0027729
94437 0.0001079 -0.0026530 0.9998921 0.0026530 0.9998921 0.0026530 0.0001079 -0.0026530
98762 0.0001047 -0.0025383 0.9998953 0.0025383 0.9998953 0.0025383 0.0001047 -0.0025383
103284 0.0001017 -0.0024285 0.9998983 0.0024285 0.9998983 0.0024285 0.0001017 -0.0024285
108014 0.0000988 -0.0023235 0.9999012 0.0023235 0.9999012 0.0023235 0.0000988 -0.0023235
112960 0.0000960 -0.0022229 0.9999040 0.0022229 0.9999040 0.0022229 0.0000960 -0.0022229
118133 0.0000934 -0.0021268 0.9999066 0.0021268 0.9999066 0.0021268 0.0000934 -0.0021268
123542 0.0000908 -0.0020348 0.9999092 0.0020348 0.9999092 0.0020348 0.0000908 -0.0020348
129199 0.0000884 -0.0019467 0.9999116 0.0019467 0.9999116 0.0019467 0.0000884 -0.0019467
135116 0.0000860 -0.0018624 0.9999140 0.0018624 0.9999140 0.0018624 0.0000860 -0.0018624
141303 0.0000837 -0.0017818 0.9999163 0.0017818 0.9999163 0.0017818 0.0000837 -0.0017818
147774 0.0000815 -0.0017046 0.9999185 0.0017046 0.9999185 0.0017046 0.0000815 -0.0017046
154540 0.0000794 -0.0016307 0.9999206 0.0016307 0.9999206 0.0016307 0.0000794 -0.0016307
161617 0.0000772 -0.0015600 0.9999228 0.0015600 0.9999228 0.0015600 0.0000772 -0.0015600
169018 0.0000752 -0.0014923 0.9999248 0.0014923 0.9999248 0.0014923 0.0000752 -0.0014923
176758 0.0000732 -0.0014274 0.9999268 0.0014274 0.9999268 0.0014274 0.0000732 -0.0014274
184852 0.0000713 -0.0013653 0.9999287 0.0013653 0.9999287 0.0013653 0.0000713 -0.0013653
193316 0.0000694 -0.0013058 0.9999306 0.0013058 0.9999306 0.0013058 0.0000694 -0.0013058
202169 0.0000675 -0.0012488 0.9999325 0.0012488 0.9999325 0.0012488 0.0000675 -0.0012488
211427 0.0000657 -0.0011942 0.9999343 0.0011942 0.9999343 0.0011942 0.0000657 -0.0011942
221108 0.0000639 -0.0011419 0.9999361 0.0011419 0.9999361 0.0011419 0.0000639 -0.0011419
231233 0.0000622 -0.0010918 0.9999378 0.0010918 0.9999378 0.0010918 0.0000622 -0.0010918
241822 0.0000606 -0.0010437 0.9999394 0.0010437 0.9999394 0.0010437 0.0000606 -0.0010437
252896 0.0000589 -0.0009976 0.9999411 0.0009976 0.9999411 0.0009976 0.0000589 -0.0009976
264476 0.0000574 -0.0009534 0.9999426 0.0009534 0.9999426 0.0009534 0.0000574 -0.0009534
276587 0.0000559 -0.0009109 0.9999441 0.0009109 0.9999441 0.0009109 0.0000559 -0.0009109
289253 0.0000544 -0.0008702 0.9999456 0.0008702 0.9999456 0.0008702 0.0000544 -0.0008702
302498 0.0000530 -0.0008312 0.9999470 0.0008312 0.9999470 0.0008312 0.0000530 -0.0008312
316350 0.0000517 -0.0007937 0.9999483 0.0007937 0.9999483 0.0007937 0.0000517 -0.0007937
330837 0.0000504 -0.0007577 0.9999496 0.0007577 0.9999496 0.0007577 0.0000504 -0.0007577
345986 0.0000492 -0.0007231 0.9999508 0.0007231 0.9999508 0.0007231 0.0000492 -0.0007231
361830 0.0000480 -0.0006899 0.9999520 0.0006899 0.9999520 0.0006899 0.0000480 -0.0006899
378399 0.0000469 -0.0006580 0.9999531 0.0006580 0.9999531 0.0006580 0.0000469 -0.0006580
395726 0.0000459 -0.0006273 0.9999541 0.0006273 0.9999541 0.0006273 0.0000459 -0.0006273
413847 0.0000449 -0.0005979 0.9999551 0.0005979 0.9999551 0.0005979 0.0000449 -0.0005979
432798 0.0000440 -0.0005695 0.9999560 0.0005695 0.9999560 0.0005695 0.0000440 -0.0005695
452617 0.0000432 -0.0005423 0.9999568 0.0005423 0.9999568 0.0005423 0.0000432 -0.0005423
473344 0.0000424 -0.0005160 0.9999576 0.0005160 0.9999576 0.0005160 0.0000424 -0.0005160
495019 0.0000417 -0.0004908 0.9999583 0.0004908 0.9999583 0.0004908 0.0000417 -0.0004908
517687 0.0000411 -0.0004665 0.9999589 0.0004665 0.9999589 0.0004665 0.0000411 -0.0004665
541393 0.0000405 -0.0004431 0.9999595 0.0004431 0.9999595 0.0004431 0.0000405 -0.0004431
566185 0.0000400 -0.0004205 0.9999600 0.0004205 0.9999600 0.0004205 0.0000400 -0.0004205
592111 0.0000395 -0.0003988 0.9999605 0.0003988 0.9999605 0.0003988 0.0000395 -0.0003988
619225 0.0000391 -0.0003778 0.9999609 0.0003778 0.9999609 0.0003778 0.0000391 -0.0003778
647581 0.0000387 -0.0003575 0.9999613 0.0003575 0.9999613 0.0003575 0.0000387 -0.0003575
677235 0.0000384 -0.0003380 0.9999616 0.0003380 0.9999616 0.0003380 0.0000384 -0.0003380
708247 0.0000382 -0.0003191 0.9999618 0.0003191 0.9999618 0.0003191 0.0000382 -0.0003191
740679 0.0000380 -0.0003008 0.9999620 0.0003008 0.9999620 0.0003008 0.0000380 -0.0003008
774597 0.0000379 -0.0002831 0.9999621 0.0002831 0.9999621 0.0002831 0.0000379 -0.0002831
810067 0.0000378 -0.0002659 0.9999622 0.0002659 0.9999622 0.0002659 0.0000378 -0.0002659
847162 0.0000378 -0.0002493 0.9999622 0.0002493 0.9999622 0.0002493 0.0000378 -0.0002493
885955 0.0000379 -0.0002332 0.9999621 0.0002332 0.9999621 0.0002332 0.0000379 -0.0002332
926525 0.0000380 -0.0002176 0.9999620 0.0002176 0.9999620 0.0002176 0.0000380 -0.0002176
968953 0.0000382 -0.0002023 0.9999618 0.0002023 0.9999618 0.0002023 0.0000382 -0.0002023
1013323 0.0000384 -0.0001875 0.9999616 0.0001875 0.9999616 0.0001875 0.0000384 -0.0001875
1059725 0.0000387 -0.0001731 0.9999613 0.0001731 0.9999613 0.0001731 0.0000387 -0.0001731
1108252 0.0000391 -0.0001590 0.9999609 0.0001590 0.9999609 0.0001590 0.0000391 -0.0001590
1159002 0.0000395 -0.0001452 0.9999605 0.0001452 0.9999605 0.0001452 0.0000395 -0.0001452
1212075 0.0000401 -0.0001318 0.9999599 0.0001318 0.9999599 0.0001318 0.0000401 -0.0001318
1267578 0.0000406 -0.0001186 0.9999594 0.0001186 0.9999594 0.0001186 0.0000406 -0.0001186
1325623 0.0000413 -0.0001056 0.9999587 0.0001056 0.9999587 0.0001056 0.0000413 -0.0001056
1386327 0.0000421 -0.0000929 0.9999579 0.0000929 0.9999579 0.0000929 0.0000421 -0.0000929
1449809 0.0000429 -0.0000804 0.9999571 0.0000804 0.9999571 0.0000804 0.0000429 -0.0000804
1516199 0.0000438 -0.0000681 0.9999562 0.0000681 0.9999562 0.0000681 0.0000438 -0.0000681
1585629 0.0000449 -0.0000559 0.9999551 0.0000559 0.9999551 0.0000559 0.0000449 -0.0000559
1658239 0.0000460 -0.0000439 0.9999540 0.0000439 0.9999540 0.0000439 0.0000460 -0.0000439
1734173 0.0000473 -0.0000320 0.9999527 0.0000320 0.9999527 0.0000320 0.0000473 -0.0000320
1813585 0.0000487 -0.0000202 0.9999513 0.0000202 0.9999513 0.0000202 0.0000487 -0.0000202
1896632 0.0000502 -0.0000084 0.9999498 0.0000084 0.9999498 0.0000084 0.0000502 -0.0000084
1983483 0.0000518 0.0000033 0.9999482 -0.0000033 0.9999482 -0.0000033 0.0000518 0.0000033
2074311 0.0000536 0.0000150 0.9999464 -0.0000150 0.9999464 -0.0000150 0.0000536 0.0000150
