!Murata Part Number: GRM319R71H683KA01
!These Parameters are Measured in Series Mode Connection
!Data Generated on Mar 30, 2021
!       o--ll--o
!Port1            Port2
!       o------o
!Operation Temp=25[degC], DC Bias Voltage=0[V]
!Freq. Start=100[Hz] Stop=6[GHz] 401[Steps]
# Hz S RI R 50
!Freq.(Hz) S11(Real) S11(Imag) S21(Real) S21(Imag) S12(Real) S12(Imag) S22(Real) S22(Imag)
100 0.9999622 -0.0043166 0.0000378 0.0043166 0.0000378 0.0043166 0.9999622 -0.0043166
105 0.9999596 -0.0045137 0.0000404 0.0045137 0.0000404 0.0045137 0.9999596 -0.0045137
109 0.9999568 -0.0047198 0.0000432 0.0047198 0.0000432 0.0047198 0.9999568 -0.0047198
114 0.9999538 -0.0049352 0.0000462 0.0049352 0.0000462 0.0049352 0.9999538 -0.0049352
120 0.9999505 -0.0051606 0.0000495 0.0051606 0.0000495 0.0051606 0.9999505 -0.0051606
125 0.9999469 -0.0053962 0.0000531 0.0053962 0.0000531 0.0053962 0.9999469 -0.0053962
131 0.9999431 -0.0056425 0.0000569 0.0056425 0.0000569 0.0056425 0.9999431 -0.0056425
137 0.9999390 -0.0059001 0.0000610 0.0059001 0.0000610 0.0059001 0.9999390 -0.0059001
143 0.9999345 -0.0061695 0.0000655 0.0061695 0.0000655 0.0061695 0.9999345 -0.0061695
150 0.9999297 -0.0064512 0.0000703 0.0064512 0.0000703 0.0064512 0.9999297 -0.0064512
156 0.9999245 -0.0067457 0.0000755 0.0067457 0.0000755 0.0067457 0.9999245 -0.0067457
164 0.9999188 -0.0070536 0.0000812 0.0070536 0.0000812 0.0070536 0.9999188 -0.0070536
171 0.9999127 -0.0073756 0.0000873 0.0073756 0.0000873 0.0073756 0.9999127 -0.0073756
179 0.9999061 -0.0077123 0.0000939 0.0077123 0.0000939 0.0077123 0.9999061 -0.0077123
187 0.9998989 -0.0080643 0.0001011 0.0080643 0.0001011 0.0080643 0.9998989 -0.0080643
196 0.9998912 -0.0084324 0.0001088 0.0084324 0.0001088 0.0084324 0.9998912 -0.0084324
205 0.9998828 -0.0088173 0.0001172 0.0088173 0.0001172 0.0088173 0.9998828 -0.0088173
214 0.9998738 -0.0092198 0.0001262 0.0092198 0.0001262 0.0092198 0.9998738 -0.0092198
224 0.9998639 -0.0096406 0.0001361 0.0096406 0.0001361 0.0096406 0.9998639 -0.0096406
234 0.9998533 -0.0100806 0.0001467 0.0100806 0.0001467 0.0100806 0.9998533 -0.0100806
245 0.9998418 -0.0105407 0.0001582 0.0105407 0.0001582 0.0105407 0.9998418 -0.0105407
256 0.9998293 -0.0110218 0.0001707 0.0110218 0.0001707 0.0110218 0.9998293 -0.0110218
268 0.9998157 -0.0115249 0.0001843 0.0115249 0.0001843 0.0115249 0.9998157 -0.0115249
280 0.9998010 -0.0120508 0.0001990 0.0120508 0.0001990 0.0120508 0.9998010 -0.0120508
293 0.9997850 -0.0126008 0.0002150 0.0126008 0.0002150 0.0126008 0.9997850 -0.0126008
306 0.9997676 -0.0131759 0.0002324 0.0131759 0.0002324 0.0131759 0.9997676 -0.0131759
320 0.9997488 -0.0137773 0.0002512 0.0137773 0.0002512 0.0137773 0.9997488 -0.0137773
335 0.9997283 -0.0144060 0.0002717 0.0144060 0.0002717 0.0144060 0.9997283 -0.0144060
350 0.9997060 -0.0150635 0.0002940 0.0150635 0.0002940 0.0150635 0.9997060 -0.0150635
366 0.9996818 -0.0157509 0.0003182 0.0157509 0.0003182 0.0157509 0.9996818 -0.0157509
383 0.9996554 -0.0164696 0.0003446 0.0164696 0.0003446 0.0164696 0.9996554 -0.0164696
401 0.9996267 -0.0172212 0.0003733 0.0172212 0.0003733 0.0172212 0.9996267 -0.0172212
419 0.9995955 -0.0180069 0.0004045 0.0180069 0.0004045 0.0180069 0.9995955 -0.0180069
438 0.9995615 -0.0188285 0.0004385 0.0188285 0.0004385 0.0188285 0.9995615 -0.0188285
458 0.9995245 -0.0196875 0.0004755 0.0196875 0.0004755 0.0196875 0.9995245 -0.0196875
479 0.9994842 -0.0205857 0.0005158 0.0205857 0.0005158 0.0205857 0.9994842 -0.0205857
501 0.9994403 -0.0215247 0.0005597 0.0215247 0.0005597 0.0215247 0.9994403 -0.0215247
524 0.9993925 -0.0225064 0.0006075 0.0225064 0.0006075 0.0225064 0.9993925 -0.0225064
548 0.9993404 -0.0235328 0.0006596 0.0235328 0.0006596 0.0235328 0.9993404 -0.0235328
573 0.9992836 -0.0246058 0.0007164 0.0246058 0.0007164 0.0246058 0.9992836 -0.0246058
600 0.9992218 -0.0257276 0.0007782 0.0257276 0.0007782 0.0257276 0.9992218 -0.0257276
627 0.9991544 -0.0269004 0.0008456 0.0269004 0.0008456 0.0269004 0.9991544 -0.0269004
656 0.9990810 -0.0281264 0.0009190 0.0281264 0.0009190 0.0281264 0.9990810 -0.0281264
686 0.9990010 -0.0294081 0.0009990 0.0294081 0.0009990 0.0294081 0.9990010 -0.0294081
717 0.9989138 -0.0307478 0.0010862 0.0307478 0.0010862 0.0307478 0.9989138 -0.0307478
750 0.9988188 -0.0321483 0.0011812 0.0321483 0.0011812 0.0321483 0.9988188 -0.0321483
784 0.9987152 -0.0336122 0.0012848 0.0336122 0.0012848 0.0336122 0.9987152 -0.0336122
820 0.9986024 -0.0351424 0.0013976 0.0351424 0.0013976 0.0351424 0.9986024 -0.0351424
858 0.9984795 -0.0367419 0.0015205 0.0367419 0.0015205 0.0367419 0.9984795 -0.0367419
897 0.9983455 -0.0384136 0.0016545 0.0384136 0.0016545 0.0384136 0.9983455 -0.0384136
938 0.9981994 -0.0401609 0.0018006 0.0401609 0.0018006 0.0401609 0.9981994 -0.0401609
981 0.9980402 -0.0419870 0.0019598 0.0419870 0.0019598 0.0419870 0.9980402 -0.0419870
1026 0.9978667 -0.0438956 0.0021333 0.0438956 0.0021333 0.0438956 0.9978667 -0.0438956
1073 0.9976776 -0.0458901 0.0023224 0.0458901 0.0023224 0.0458901 0.9976776 -0.0458901
1122 0.9974714 -0.0479745 0.0025286 0.0479745 0.0025286 0.0479745 0.9974714 -0.0479745
1174 0.9972466 -0.0501525 0.0027534 0.0501525 0.0027534 0.0501525 0.9972466 -0.0501525
1227 0.9970015 -0.0524285 0.0029985 0.0524285 0.0029985 0.0524285 0.9970015 -0.0524285
1283 0.9967343 -0.0548065 0.0032657 0.0548065 0.0032657 0.0548065 0.9967343 -0.0548065
1342 0.9964428 -0.0572910 0.0035572 0.0572910 0.0035572 0.0572910 0.9964428 -0.0572910
1404 0.9961250 -0.0598866 0.0038750 0.0598866 0.0038750 0.0598866 0.9961250 -0.0598866
1468 0.9957783 -0.0625982 0.0042217 0.0625982 0.0042217 0.0625982 0.9957783 -0.0625982
1535 0.9954001 -0.0654305 0.0045999 0.0654305 0.0045999 0.0654305 0.9954001 -0.0654305
1606 0.9949876 -0.0683887 0.0050124 0.0683887 0.0050124 0.0683887 0.9949876 -0.0683887
1679 0.9945376 -0.0714780 0.0054624 0.0714780 0.0054624 0.0714780 0.9945376 -0.0714780
1756 0.9940466 -0.0747040 0.0059534 0.0747040 0.0059534 0.0747040 0.9940466 -0.0747040
1836 0.9935110 -0.0780721 0.0064890 0.0780721 0.0064890 0.0780721 0.9935110 -0.0780721
1920 0.9929267 -0.0815882 0.0070733 0.0815882 0.0070733 0.0815882 0.9929267 -0.0815882
2008 0.9922892 -0.0852582 0.0077108 0.0852582 0.0077108 0.0852582 0.9922892 -0.0852582
2100 0.9915937 -0.0890881 0.0084063 0.0890881 0.0084063 0.0890881 0.9915937 -0.0890881
2196 0.9908350 -0.0930842 0.0091650 0.0930842 0.0091650 0.0930842 0.9908350 -0.0930842
2297 0.9900073 -0.0972528 0.0099927 0.0972528 0.0099927 0.0972528 0.9900073 -0.0972528
2402 0.9891046 -0.1016003 0.0108954 0.1016003 0.0108954 0.1016003 0.9891046 -0.1016003
2512 0.9881201 -0.1061333 0.0118799 0.1061333 0.0118799 0.1061333 0.9881201 -0.1061333
2627 0.9870464 -0.1108584 0.0129536 0.1108584 0.0129536 0.1108584 0.9870464 -0.1108584
2748 0.9858759 -0.1157823 0.0141241 0.1157823 0.0141241 0.1157823 0.9858759 -0.1157823
2873 0.9845998 -0.1209115 0.0154002 0.1209115 0.0154002 0.1209115 0.9845998 -0.1209115
3005 0.9832091 -0.1262528 0.0167909 0.1262528 0.0167909 0.1262528 0.9832091 -0.1262528
3143 0.9816937 -0.1318128 0.0183063 0.1318128 0.0183063 0.1318128 0.9816937 -0.1318128
3287 0.9800430 -0.1375979 0.0199570 0.1375979 0.0199570 0.1375979 0.9800430 -0.1375979
3437 0.9782453 -0.1436145 0.0217547 0.1436145 0.0217547 0.1436145 0.9782453 -0.1436145
3594 0.9762883 -0.1498687 0.0237117 0.1498687 0.0237117 0.1498687 0.9762883 -0.1498687
3759 0.9741585 -0.1563662 0.0258415 0.1563662 0.0258415 0.1563662 0.9741585 -0.1563662
3931 0.9718416 -0.1631124 0.0281584 0.1631124 0.0281584 0.1631124 0.9718416 -0.1631124
4111 0.9693223 -0.1701124 0.0306777 0.1701124 0.0306777 0.1701124 0.9693223 -0.1701124
4299 0.9665841 -0.1773704 0.0334159 0.1773704 0.0334159 0.1773704 0.9665841 -0.1773704
4496 0.9636095 -0.1848902 0.0363905 0.1848902 0.0363905 0.1848902 0.9636095 -0.1848902
4702 0.9603799 -0.1926746 0.0396201 0.1926746 0.0396201 0.1926746 0.9603799 -0.1926746
4918 0.9568756 -0.2007255 0.0431244 0.2007255 0.0431244 0.2007255 0.9568756 -0.2007255
5143 0.9530755 -0.2090438 0.0469245 0.2090438 0.0469245 0.2090438 0.9530755 -0.2090438
5378 0.9489576 -0.2176290 0.0510424 0.2176290 0.0510424 0.2176290 0.9489576 -0.2176290
5625 0.9444986 -0.2264791 0.0555014 0.2264791 0.0555014 0.2264791 0.9444986 -0.2264791
5882 0.9396742 -0.2355906 0.0603258 0.2355906 0.0603258 0.2355906 0.9396742 -0.2355906
6151 0.9344589 -0.2449581 0.0655411 0.2449581 0.0655411 0.2449581 0.9344589 -0.2449581
6433 0.9288263 -0.2545740 0.0711737 0.2545740 0.0711737 0.2545740 0.9288263 -0.2545740
6728 0.9227492 -0.2644285 0.0772508 0.2644285 0.0772508 0.2644285 0.9227492 -0.2644285
7036 0.9161995 -0.2745092 0.0838005 0.2745092 0.0838005 0.2745092 0.9161995 -0.2745092
7358 0.9091485 -0.2848010 0.0908515 0.2848010 0.0908515 0.2848010 0.9091485 -0.2848010
7695 0.9015675 -0.2952855 0.0984325 0.2952855 0.0984325 0.2952855 0.9015675 -0.2952855
8047 0.8934275 -0.3059413 0.1065725 0.3059413 0.1065725 0.3059413 0.8934275 -0.3059413
8416 0.8846995 -0.3167432 0.1153005 0.3167432 0.1153005 0.3167432 0.8846995 -0.3167432
8801 0.8753557 -0.3276627 0.1246443 0.3276627 0.1246443 0.3276627 0.8753557 -0.3276627
9204 0.8653687 -0.3386669 0.1346313 0.3386669 0.1346313 0.3386669 0.8653687 -0.3386669
9626 0.8547130 -0.3497192 0.1452870 0.3497192 0.1452870 0.3497192 0.8547130 -0.3497192
10066 0.8433651 -0.3607787 0.1566349 0.3607787 0.1566349 0.3607787 0.8433651 -0.3607787
10527 0.8313039 -0.3718006 0.1686961 0.3718006 0.1686961 0.3718006 0.8313039 -0.3718006
11009 0.8185118 -0.3827357 0.1814882 0.3827357 0.1814882 0.3827357 0.8185118 -0.3827357
11514 0.8049748 -0.3935311 0.1950252 0.3935311 0.1950252 0.3935311 0.8049748 -0.3935311
12041 0.7906836 -0.4041302 0.2093164 0.4041302 0.2093164 0.4041302 0.7906836 -0.4041302
12592 0.7756342 -0.4144731 0.2243658 0.4144731 0.2243658 0.4144731 0.7756342 -0.4144731
13169 0.7598282 -0.4244970 0.2401718 0.4244970 0.2401718 0.4244970 0.7598282 -0.4244970
13772 0.7432740 -0.4341371 0.2567260 0.4341371 0.2567260 0.4341371 0.7432740 -0.4341371
14402 0.7259868 -0.4433269 0.2740132 0.4433269 0.2740132 0.4433269 0.7259868 -0.4433269
15062 0.7079892 -0.4519995 0.2920108 0.4519995 0.2920108 0.4519995 0.7079892 -0.4519995
15752 0.6893119 -0.4600885 0.3106881 0.4600885 0.3106881 0.4600885 0.6893119 -0.4600885
16473 0.6699934 -0.4675288 0.3300066 0.4675288 0.3300066 0.4675288 0.6699934 -0.4675288
17227 0.6500801 -0.4742579 0.3499199 0.4742579 0.3499199 0.4742579 0.6500801 -0.4742579
18016 0.6296264 -0.4802172 0.3703736 0.4802172 0.3703736 0.4802172 0.6296264 -0.4802172
18841 0.6086941 -0.4853529 0.3913059 0.4853529 0.3913059 0.4853529 0.6086941 -0.4853529
19704 0.5873518 -0.4896175 0.4126482 0.4896175 0.4126482 0.4896175 0.5873518 -0.4896175
20606 0.5656742 -0.4929702 0.4343258 0.4929702 0.4343258 0.4929702 0.5656742 -0.4929702
21550 0.5437413 -0.4953787 0.4562587 0.4953787 0.4562587 0.4953787 0.5437413 -0.4953787
22537 0.5216367 -0.4968192 0.4783633 0.4968192 0.4783633 0.4968192 0.5216367 -0.4968192
23569 0.4994471 -0.4972774 0.5005529 0.4972774 0.5005529 0.4972774 0.4994471 -0.4972774
24648 0.4772603 -0.4967485 0.5227397 0.4967485 0.5227397 0.4967485 0.4772603 -0.4967485
25777 0.4551643 -0.4952378 0.5448357 0.4952378 0.5448357 0.4952378 0.4551643 -0.4952378
26957 0.4332455 -0.4927601 0.5667545 0.4927601 0.5667545 0.4927601 0.4332455 -0.4927601
28191 0.4115876 -0.4893397 0.5884124 0.4893397 0.5884124 0.4893397 0.4115876 -0.4893397
29482 0.3902702 -0.4850096 0.6097298 0.4850096 0.6097298 0.4850096 0.3902702 -0.4850096
30832 0.3693679 -0.4798107 0.6306321 0.4798107 0.6306321 0.4798107 0.3693679 -0.4798107
32244 0.3489488 -0.4737912 0.6510512 0.4737912 0.6510512 0.4737912 0.3489488 -0.4737912
33721 0.3290746 -0.4670052 0.6709254 0.4670052 0.6709254 0.4670052 0.3290746 -0.4670052
35265 0.3097991 -0.4595116 0.6902009 0.4595116 0.6902009 0.4595116 0.3097991 -0.4595116
36880 0.2911685 -0.4513732 0.7088315 0.4513732 0.7088315 0.4513732 0.2911685 -0.4513732
38569 0.2732210 -0.4426553 0.7267790 0.4426553 0.7267790 0.4426553 0.2732210 -0.4426553
40335 0.2559865 -0.4334246 0.7440135 0.4334246 0.7440135 0.4334246 0.2559865 -0.4334246
42182 0.2394874 -0.4237481 0.7605126 0.4237481 0.7605126 0.4237481 0.2394874 -0.4237481
44113 0.2237385 -0.4136924 0.7762615 0.4136924 0.7762615 0.4136924 0.2237385 -0.4136924
46134 0.2087476 -0.4033224 0.7912524 0.4033224 0.7912524 0.4033224 0.2087476 -0.4033224
48246 0.1945161 -0.3927009 0.8054839 0.3927009 0.8054839 0.3927009 0.1945161 -0.3927009
50455 0.1810393 -0.3818877 0.8189607 0.3818877 0.8189607 0.3818877 0.1810393 -0.3818877
52766 0.1683076 -0.3709394 0.8316924 0.3709394 0.8316924 0.3709394 0.1683076 -0.3709394
55182 0.1563066 -0.3599088 0.8436934 0.3599088 0.8436934 0.3599088 0.1563066 -0.3599088
57709 0.1450184 -0.3488450 0.8549816 0.3488450 0.8549816 0.3488450 0.1450184 -0.3488450
60352 0.1344215 -0.3377926 0.8655785 0.3377926 0.8655785 0.3377926 0.1344215 -0.3377926
63115 0.1244921 -0.3267923 0.8755079 0.3267923 0.8755079 0.3267923 0.1244921 -0.3267923
66005 0.1152043 -0.3158806 0.8847957 0.3158806 0.8847957 0.3158806 0.1152043 -0.3158806
69028 0.1065306 -0.3050899 0.8934694 0.3050899 0.8934694 0.3050899 0.1065306 -0.3050899
72189 0.0984427 -0.2944487 0.9015573 0.2944487 0.9015573 0.2944487 0.0984427 -0.2944487
75495 0.0909116 -0.2839818 0.9090884 0.2839818 0.9090884 0.2839818 0.0909116 -0.2839818
78952 0.0839082 -0.2737104 0.9160918 0.2737104 0.9160918 0.2737104 0.0839082 -0.2737104
82567 0.0774034 -0.2636526 0.9225966 0.2636526 0.9225966 0.2636526 0.0774034 -0.2636526
86348 0.0713684 -0.2538231 0.9286316 0.2538231 0.9286316 0.2538231 0.0713684 -0.2538231
90302 0.0657753 -0.2442342 0.9342247 0.2442342 0.9342247 0.2442342 0.0657753 -0.2442342
94437 0.0605966 -0.2348954 0.9394034 0.2348954 0.9394034 0.2348954 0.0605966 -0.2348954
98762 0.0558059 -0.2258139 0.9441941 0.2258139 0.9441941 0.2258139 0.0558059 -0.2258139
103284 0.0513777 -0.2169950 0.9486223 0.2169950 0.9486223 0.2169950 0.0513777 -0.2169950
108014 0.0472877 -0.2084418 0.9527123 0.2084418 0.9527123 0.2084418 0.0472877 -0.2084418
112960 0.0435126 -0.2001561 0.9564874 0.2001561 0.9564874 0.2001561 0.0435126 -0.2001561
118133 0.0400305 -0.1921382 0.9599695 0.1921382 0.9599695 0.1921382 0.0400305 -0.1921382
123542 0.0368204 -0.1843869 0.9631796 0.1843869 0.9631796 0.1843869 0.0368204 -0.1843869
129199 0.0338625 -0.1769002 0.9661375 0.1769002 0.9661375 0.1769002 0.0338625 -0.1769002
135116 0.0311385 -0.1696750 0.9688615 0.1696750 0.9688615 0.1696750 0.0311385 -0.1696750
141303 0.0286308 -0.1627075 0.9713692 0.1627075 0.9713692 0.1627075 0.0286308 -0.1627075
147774 0.0263232 -0.1559930 0.9736768 0.1559930 0.9736768 0.1559930 0.0263232 -0.1559930
154540 0.0242004 -0.1495266 0.9757996 0.1495266 0.9757996 0.1495266 0.0242004 -0.1495266
161617 0.0222481 -0.1433026 0.9777519 0.1433026 0.9777519 0.1433026 0.0222481 -0.1433026
169018 0.0204533 -0.1373151 0.9795467 0.1373151 0.9795467 0.1373151 0.0204533 -0.1373151
176758 0.0188035 -0.1315580 0.9811965 0.1315580 0.9811965 0.1315580 0.0188035 -0.1315580
184852 0.0172873 -0.1260248 0.9827127 0.1260248 0.9827127 0.1260248 0.0172873 -0.1260248
193316 0.0158942 -0.1207089 0.9841058 0.1207089 0.9841058 0.1207089 0.0158942 -0.1207089
202169 0.0146143 -0.1156037 0.9853857 0.1156037 0.9853857 0.1156037 0.0146143 -0.1156037
211427 0.0134386 -0.1107025 0.9865614 0.1107025 0.9865614 0.1107025 0.0134386 -0.1107025
221108 0.0123587 -0.1059985 0.9876413 0.1059985 0.9876413 0.1059985 0.0123587 -0.1059985
231233 0.0113670 -0.1014851 0.9886330 0.1014851 0.9886330 0.1014851 0.0113670 -0.1014851
241822 0.0104562 -0.0971556 0.9895438 0.0971556 0.9895438 0.0971556 0.0104562 -0.0971556
252896 0.0096199 -0.0930035 0.9903801 0.0930035 0.9903801 0.0930035 0.0096199 -0.0930035
264476 0.0088519 -0.0890223 0.9911481 0.0890223 0.9911481 0.0890223 0.0088519 -0.0890223
276587 0.0081468 -0.0852059 0.9918532 0.0852059 0.9918532 0.0852059 0.0081468 -0.0852059
289253 0.0074995 -0.0815479 0.9925005 0.0815479 0.9925005 0.0815479 0.0074995 -0.0815479
302498 0.0069052 -0.0780424 0.9930948 0.0780424 0.9930948 0.0780424 0.0069052 -0.0780424
316350 0.0063596 -0.0746835 0.9936404 0.0746835 0.9936404 0.0746835 0.0063596 -0.0746835
330837 0.0058587 -0.0714655 0.9941413 0.0714655 0.9941413 0.0714655 0.0058587 -0.0714655
345986 0.0053990 -0.0683829 0.9946010 0.0683829 0.9946010 0.0683829 0.0053990 -0.0683829
361830 0.0049770 -0.0654304 0.9950230 0.0654304 0.9950230 0.0654304 0.0049770 -0.0654304
378399 0.0045898 -0.0626028 0.9954102 0.0626028 0.9954102 0.0626028 0.0045898 -0.0626028
395726 0.0042344 -0.0598950 0.9957656 0.0598950 0.9957656 0.0598950 0.0042344 -0.0598950
413847 0.0039082 -0.0573022 0.9960918 0.0573022 0.9960918 0.0573022 0.0039082 -0.0573022
432798 0.0036089 -0.0548198 0.9963911 0.0548198 0.9963911 0.0548198 0.0036089 -0.0548198
452617 0.0033343 -0.0524433 0.9966657 0.0524433 0.9966657 0.0524433 0.0033343 -0.0524433
473344 0.0030823 -0.0501683 0.9969177 0.0501683 0.9969177 0.0501683 0.0030823 -0.0501683
495019 0.0028512 -0.0479906 0.9971488 0.0479906 0.9971488 0.0479906 0.0028512 -0.0479906
517687 0.0026391 -0.0459063 0.9973609 0.0459063 0.9973609 0.0459063 0.0026391 -0.0459063
541393 0.0024445 -0.0439114 0.9975555 0.0439114 0.9975555 0.0439114 0.0024445 -0.0439114
566185 0.0022660 -0.0420022 0.9977340 0.0420022 0.9977340 0.0420022 0.0022660 -0.0420022
592111 0.0021023 -0.0401752 0.9978977 0.0401752 0.9978977 0.0401752 0.0021023 -0.0401752
619225 0.0019521 -0.0384268 0.9980479 0.0384268 0.9980479 0.0384268 0.0019521 -0.0384268
647581 0.0018142 -0.0367539 0.9981858 0.0367539 0.9981858 0.0367539 0.0018142 -0.0367539
677235 0.0016878 -0.0351531 0.9983122 0.0351531 0.9983122 0.0351531 0.0016878 -0.0351531
708247 0.0015717 -0.0336216 0.9984283 0.0336216 0.9984283 0.0336216 0.0015717 -0.0336216
740679 0.0014652 -0.0321562 0.9985348 0.0321562 0.9985348 0.0321562 0.0014652 -0.0321562
774597 0.0013674 -0.0307542 0.9986326 0.0307542 0.9986326 0.0307542 0.0013674 -0.0307542
810067 0.0012776 -0.0294129 0.9987224 0.0294129 0.9987224 0.0294129 0.0012776 -0.0294129
847162 0.0011951 -0.0281297 0.9988049 0.0281297 0.9988049 0.0281297 0.0011951 -0.0281297
885955 0.0011193 -0.0269020 0.9988807 0.0269020 0.9988807 0.0269020 0.0011193 -0.0269020
926525 0.0010496 -0.0257276 0.9989504 0.0257276 0.9989504 0.0257276 0.0010496 -0.0257276
968953 0.0009855 -0.0246041 0.9990145 0.0246041 0.9990145 0.0246041 0.0009855 -0.0246041
1013323 0.0009266 -0.0235293 0.9990734 0.0235293 0.9990734 0.0235293 0.0009266 -0.0235293
1059725 0.0008723 -0.0225011 0.9991277 0.0225011 0.9991277 0.0225011 0.0008723 -0.0225011
1108252 0.0008223 -0.0215174 0.9991777 0.0215174 0.9991777 0.0215174 0.0008223 -0.0215174
1159002 0.0007762 -0.0205764 0.9992238 0.0205764 0.9992238 0.0205764 0.0007762 -0.0205764
1212075 0.0007337 -0.0196761 0.9992663 0.0196761 0.9992663 0.0196761 0.0007337 -0.0196761
1267578 0.0006945 -0.0188148 0.9993055 0.0188148 0.9993055 0.0188148 0.0006945 -0.0188148
1325623 0.0006582 -0.0179908 0.9993418 0.0179908 0.9993418 0.0179908 0.0006582 -0.0179908
1386327 0.0006247 -0.0172024 0.9993753 0.0172024 0.9993753 0.0172024 0.0006247 -0.0172024
1449809 0.0005936 -0.0164480 0.9994064 0.0164480 0.9994064 0.0164480 0.0005936 -0.0164480
1516199 0.0005649 -0.0157262 0.9994351 0.0157262 0.9994351 0.0157262 0.0005649 -0.0157262
1585629 0.0005382 -0.0150355 0.9994618 0.0150355 0.9994618 0.0150355 0.0005382 -0.0150355
1658239 0.0005135 -0.0143746 0.9994865 0.0143746 0.9994865 0.0143746 0.0005135 -0.0143746
1734173 0.0004905 -0.0137421 0.9995095 0.0137421 0.9995095 0.0137421 0.0004905 -0.0137421
1813585 0.0004692 -0.0131367 0.9995308 0.0131367 0.9995308 0.0131367 0.0004692 -0.0131367
1896632 0.0004494 -0.0125573 0.9995506 0.0125573 0.9995506 0.0125573 0.0004494 -0.0125573
1983483 0.0004310 -0.0120026 0.9995690 0.0120026 0.9995690 0.0120026 0.0004310 -0.0120026
2074311 0.0004138 -0.0114717 0.9995862 0.0114717 0.9995862 0.0114717 0.0004138 -0.0114717
