!Murata Part Number: GRM31MR72A223MA01
!These Parameters are Measured in Series Mode Connection
!Data Generated on Mar 30, 2021
!       o--ll--o
!Port1            Port2
!       o------o
!Operation Temp=25[degC], DC Bias Voltage=0[V]
!Freq. Start=100[Hz] Stop=6[GHz] 401[Steps]
# Hz S RI R 50
!Freq.(Hz) S11(Real) S11(Imag) S21(Real) S21(Imag) S12(Real) S12(Imag) S22(Real) S22(Imag)
100 0.9999920 -0.0013502 0.0000080 0.0013502 0.0000080 0.0013502 0.9999920 -0.0013502
105 0.9999916 -0.0014118 0.0000084 0.0014118 0.0000084 0.0014118 0.9999916 -0.0014118
109 0.9999912 -0.0014763 0.0000088 0.0014763 0.0000088 0.0014763 0.9999912 -0.0014763
114 0.9999907 -0.0015437 0.0000093 0.0015437 0.0000093 0.0015437 0.9999907 -0.0015437
120 0.9999902 -0.0016141 0.0000098 0.0016141 0.0000098 0.0016141 0.9999902 -0.0016141
125 0.9999897 -0.0016878 0.0000103 0.0016878 0.0000103 0.0016878 0.9999897 -0.0016878
131 0.9999891 -0.0017649 0.0000109 0.0017649 0.0000109 0.0017649 0.9999891 -0.0017649
137 0.9999885 -0.0018455 0.0000115 0.0018455 0.0000115 0.0018455 0.9999885 -0.0018455
143 0.9999878 -0.0019298 0.0000122 0.0019298 0.0000122 0.0019298 0.9999878 -0.0019298
150 0.9999871 -0.0020180 0.0000129 0.0020180 0.0000129 0.0020180 0.9999871 -0.0020180
156 0.9999864 -0.0021101 0.0000136 0.0021101 0.0000136 0.0021101 0.9999864 -0.0021101
164 0.9999856 -0.0022065 0.0000144 0.0022065 0.0000144 0.0022065 0.9999856 -0.0022065
171 0.9999847 -0.0023073 0.0000153 0.0023073 0.0000153 0.0023073 0.9999847 -0.0023073
179 0.9999838 -0.0024127 0.0000162 0.0024127 0.0000162 0.0024127 0.9999838 -0.0024127
187 0.9999828 -0.0025229 0.0000172 0.0025229 0.0000172 0.0025229 0.9999828 -0.0025229
196 0.9999817 -0.0026381 0.0000183 0.0026381 0.0000183 0.0026381 0.9999817 -0.0026381
205 0.9999805 -0.0027586 0.0000195 0.0027586 0.0000195 0.0027586 0.9999805 -0.0027586
214 0.9999792 -0.0028846 0.0000208 0.0028846 0.0000208 0.0028846 0.9999792 -0.0028846
224 0.9999779 -0.0030164 0.0000221 0.0030164 0.0000221 0.0030164 0.9999779 -0.0030164
234 0.9999764 -0.0031541 0.0000236 0.0031541 0.0000236 0.0031541 0.9999764 -0.0031541
245 0.9999748 -0.0032982 0.0000252 0.0032982 0.0000252 0.0032982 0.9999748 -0.0032982
256 0.9999732 -0.0034488 0.0000268 0.0034488 0.0000268 0.0034488 0.9999732 -0.0034488
268 0.9999713 -0.0036063 0.0000287 0.0036063 0.0000287 0.0036063 0.9999713 -0.0036063
280 0.9999694 -0.0037710 0.0000306 0.0037710 0.0000306 0.0037710 0.9999694 -0.0037710
293 0.9999672 -0.0039432 0.0000328 0.0039432 0.0000328 0.0039432 0.9999672 -0.0039432
306 0.9999649 -0.0041233 0.0000351 0.0041233 0.0000351 0.0041233 0.9999649 -0.0041233
320 0.9999625 -0.0043116 0.0000375 0.0043116 0.0000375 0.0043116 0.9999625 -0.0043116
335 0.9999598 -0.0045085 0.0000402 0.0045085 0.0000402 0.0045085 0.9999598 -0.0045085
350 0.9999570 -0.0047144 0.0000430 0.0047144 0.0000430 0.0047144 0.9999570 -0.0047144
366 0.9999539 -0.0049296 0.0000461 0.0049296 0.0000461 0.0049296 0.9999539 -0.0049296
383 0.9999505 -0.0051547 0.0000495 0.0051547 0.0000495 0.0051547 0.9999505 -0.0051547
401 0.9999469 -0.0053901 0.0000531 0.0053901 0.0000531 0.0053901 0.9999469 -0.0053901
419 0.9999430 -0.0056362 0.0000570 0.0056362 0.0000570 0.0056362 0.9999430 -0.0056362
438 0.9999388 -0.0058936 0.0000612 0.0058936 0.0000612 0.0058936 0.9999388 -0.0058936
458 0.9999342 -0.0061627 0.0000658 0.0061627 0.0000658 0.0061627 0.9999342 -0.0061627
479 0.9999293 -0.0064440 0.0000707 0.0064440 0.0000707 0.0064440 0.9999293 -0.0064440
501 0.9999240 -0.0067382 0.0000760 0.0067382 0.0000760 0.0067382 0.9999240 -0.0067382
524 0.9999182 -0.0070458 0.0000818 0.0070458 0.0000818 0.0070458 0.9999182 -0.0070458
548 0.9999119 -0.0073675 0.0000881 0.0073675 0.0000881 0.0073675 0.9999119 -0.0073675
573 0.9999052 -0.0077038 0.0000948 0.0077038 0.0000948 0.0077038 0.9999052 -0.0077038
600 0.9998978 -0.0080555 0.0001022 0.0080555 0.0001022 0.0080555 0.9998978 -0.0080555
627 0.9998899 -0.0084231 0.0001101 0.0084231 0.0001101 0.0084231 0.9998899 -0.0084231
656 0.9998813 -0.0088076 0.0001187 0.0088076 0.0001187 0.0088076 0.9998813 -0.0088076
686 0.9998719 -0.0092096 0.0001281 0.0092096 0.0001281 0.0092096 0.9998719 -0.0092096
717 0.9998618 -0.0096298 0.0001382 0.0096298 0.0001382 0.0096298 0.9998618 -0.0096298
750 0.9998508 -0.0100693 0.0001492 0.0100693 0.0001492 0.0100693 0.9998508 -0.0100693
784 0.9998390 -0.0105287 0.0001610 0.0105287 0.0001610 0.0105287 0.9998390 -0.0105287
820 0.9998261 -0.0110091 0.0001739 0.0110091 0.0001739 0.0110091 0.9998261 -0.0110091
858 0.9998121 -0.0115114 0.0001879 0.0115114 0.0001879 0.0115114 0.9998121 -0.0115114
897 0.9997970 -0.0120365 0.0002030 0.0120365 0.0002030 0.0120365 0.9997970 -0.0120365
938 0.9997806 -0.0125856 0.0002194 0.0125856 0.0002194 0.0125856 0.9997806 -0.0125856
981 0.9997628 -0.0131596 0.0002372 0.0131596 0.0002372 0.0131596 0.9997628 -0.0131596
1026 0.9997435 -0.0137598 0.0002565 0.0137598 0.0002565 0.0137598 0.9997435 -0.0137598
1073 0.9997226 -0.0143873 0.0002774 0.0143873 0.0002774 0.0143873 0.9997226 -0.0143873
1122 0.9996999 -0.0150434 0.0003001 0.0150434 0.0003001 0.0150434 0.9996999 -0.0150434
1174 0.9996753 -0.0157293 0.0003247 0.0157293 0.0003247 0.0157293 0.9996753 -0.0157293
1227 0.9996486 -0.0164465 0.0003514 0.0164465 0.0003514 0.0164465 0.9996486 -0.0164465
1283 0.9996196 -0.0171963 0.0003804 0.0171963 0.0003804 0.0171963 0.9996196 -0.0171963
1342 0.9995882 -0.0179803 0.0004118 0.0179803 0.0004118 0.0179803 0.9995882 -0.0179803
1404 0.9995541 -0.0188000 0.0004459 0.0188000 0.0004459 0.0188000 0.9995541 -0.0188000
1468 0.9995170 -0.0196570 0.0004830 0.0196570 0.0004830 0.0196570 0.9995170 -0.0196570
1535 0.9994768 -0.0205530 0.0005232 0.0205530 0.0005232 0.0205530 0.9994768 -0.0205530
1606 0.9994330 -0.0214898 0.0005670 0.0214898 0.0005670 0.0214898 0.9994330 -0.0214898
1679 0.9993855 -0.0224693 0.0006145 0.0224693 0.0006145 0.0224693 0.9993855 -0.0224693
1756 0.9993338 -0.0234933 0.0006662 0.0234933 0.0006662 0.0234933 0.9993338 -0.0234933
1836 0.9992775 -0.0245640 0.0007225 0.0245640 0.0007225 0.0245640 0.9992775 -0.0245640
1920 0.9992163 -0.0256835 0.0007837 0.0256835 0.0007837 0.0256835 0.9992163 -0.0256835
2008 0.9991497 -0.0268538 0.0008503 0.0268538 0.0008503 0.0268538 0.9991497 -0.0268538
2100 0.9990771 -0.0280775 0.0009229 0.0280775 0.0009229 0.0280775 0.9990771 -0.0280775
2196 0.9989981 -0.0293568 0.0010019 0.0293568 0.0010019 0.0293568 0.9989981 -0.0293568
2297 0.9989120 -0.0306942 0.0010880 0.0306942 0.0010880 0.0306942 0.9989120 -0.0306942
2402 0.9988181 -0.0320925 0.0011819 0.0320925 0.0011819 0.0320925 0.9988181 -0.0320925
2512 0.9987158 -0.0335542 0.0012842 0.0335542 0.0012842 0.0335542 0.9987158 -0.0335542
2627 0.9986042 -0.0350823 0.0013958 0.0350823 0.0013958 0.0350823 0.9986042 -0.0350823
2748 0.9984825 -0.0366798 0.0015175 0.0366798 0.0015175 0.0366798 0.9984825 -0.0366798
2873 0.9983497 -0.0383496 0.0016503 0.0383496 0.0016503 0.0383496 0.9983497 -0.0383496
3005 0.9982048 -0.0400951 0.0017952 0.0400951 0.0017952 0.0400951 0.9982048 -0.0400951
3143 0.9980467 -0.0419195 0.0019533 0.0419195 0.0019533 0.0419195 0.9980467 -0.0419195
3287 0.9978742 -0.0438264 0.0021258 0.0438264 0.0021258 0.0438264 0.9978742 -0.0438264
3437 0.9976858 -0.0458193 0.0023142 0.0458193 0.0023142 0.0458193 0.9976858 -0.0458193
3594 0.9974802 -0.0479021 0.0025198 0.0479021 0.0025198 0.0479021 0.9974802 -0.0479021
3759 0.9972558 -0.0500786 0.0027442 0.0500786 0.0027442 0.0500786 0.9972558 -0.0500786
3931 0.9970107 -0.0523530 0.0029893 0.0523530 0.0029893 0.0523530 0.9970107 -0.0523530
4111 0.9967432 -0.0547293 0.0032568 0.0547293 0.0032568 0.0547293 0.9967432 -0.0547293
4299 0.9964512 -0.0572120 0.0035488 0.0572120 0.0035488 0.0572120 0.9964512 -0.0572120
4496 0.9961325 -0.0598057 0.0038675 0.0598057 0.0038675 0.0598057 0.9961325 -0.0598057
4702 0.9957845 -0.0625150 0.0042155 0.0625150 0.0042155 0.0625150 0.9957845 -0.0625150
4918 0.9954047 -0.0653448 0.0045953 0.0653448 0.0045953 0.0653448 0.9954047 -0.0653448
5143 0.9949901 -0.0683001 0.0050099 0.0683001 0.0050099 0.0683001 0.9949901 -0.0683001
5378 0.9945377 -0.0713861 0.0054623 0.0713861 0.0054623 0.0713861 0.9945377 -0.0713861
5625 0.9940440 -0.0746081 0.0059560 0.0746081 0.0059560 0.0746081 0.9940440 -0.0746081
5882 0.9935052 -0.0779717 0.0064948 0.0779717 0.0064948 0.0779717 0.9935052 -0.0779717
6151 0.9929175 -0.0814825 0.0070825 0.0814825 0.0070825 0.0814825 0.9929175 -0.0814825
6433 0.9922763 -0.0851464 0.0077237 0.0851464 0.0077237 0.0851464 0.9922763 -0.0851464
6728 0.9915770 -0.0889694 0.0084230 0.0889694 0.0084230 0.0889694 0.9915770 -0.0889694
7036 0.9908144 -0.0929575 0.0091856 0.0929575 0.0091856 0.0929575 0.9908144 -0.0929575
7358 0.9899828 -0.0971171 0.0100172 0.0971171 0.0100172 0.0971171 0.9899828 -0.0971171
7695 0.9890762 -0.1014546 0.0109238 0.1014546 0.0109238 0.1014546 0.9890762 -0.1014546
8047 0.9880881 -0.1059763 0.0119119 0.1059763 0.0119119 0.1059763 0.9880881 -0.1059763
8416 0.9870112 -0.1106889 0.0129888 0.1106889 0.0129888 0.1106889 0.9870112 -0.1106889
8801 0.9858379 -0.1155991 0.0141621 0.1155991 0.0141621 0.1155991 0.9858379 -0.1155991
9204 0.9845598 -0.1207134 0.0154402 0.1207134 0.0154402 0.1207134 0.9845598 -0.1207134
9626 0.9831678 -0.1260386 0.0168322 0.1260386 0.0168322 0.1260386 0.9831678 -0.1260386
10066 0.9816522 -0.1315812 0.0183478 0.1315812 0.0183478 0.1315812 0.9816522 -0.1315812
10527 0.9800024 -0.1373479 0.0199976 0.1373479 0.0199976 0.1373479 0.9800024 -0.1373479
11009 0.9782069 -0.1433450 0.0217931 0.1433450 0.0217931 0.1433450 0.9782069 -0.1433450
11514 0.9762536 -0.1495788 0.0237464 0.1495788 0.0237464 0.1495788 0.9762536 -0.1495788
12041 0.9741292 -0.1560551 0.0258708 0.1560551 0.0258708 0.1560551 0.9741292 -0.1560551
12592 0.9718194 -0.1627797 0.0281806 0.1627797 0.0281806 0.1627797 0.9718194 -0.1627797
13169 0.9693091 -0.1697575 0.0306909 0.1697575 0.0306909 0.1697575 0.9693091 -0.1697575
13772 0.9665819 -0.1769932 0.0334181 0.1769932 0.0334181 0.1769932 0.9665819 -0.1769932
14402 0.9636203 -0.1844908 0.0363797 0.1844908 0.0363797 0.1844908 0.9636203 -0.1844908
15062 0.9604057 -0.1922533 0.0395943 0.1922533 0.0395943 0.1922533 0.9604057 -0.1922533
15752 0.9569183 -0.2002829 0.0430817 0.2002829 0.0430817 0.2002829 0.9569183 -0.2002829
16473 0.9531371 -0.2085807 0.0468629 0.2085807 0.0468629 0.2085807 0.9531371 -0.2085807
17227 0.9490398 -0.2171465 0.0509602 0.2171465 0.0509602 0.2171465 0.9490398 -0.2171465
18016 0.9446030 -0.2259786 0.0553970 0.2259786 0.0553970 0.2259786 0.9446030 -0.2259786
18841 0.9398022 -0.2350737 0.0601978 0.2350737 0.0601978 0.2350737 0.9398022 -0.2350737
19704 0.9346115 -0.2444264 0.0653885 0.2444264 0.0653885 0.2444264 0.9346115 -0.2444264
20606 0.9290044 -0.2540294 0.0709956 0.2540294 0.0709956 0.2540294 0.9290044 -0.2540294
21550 0.9229532 -0.2638729 0.0770468 0.2638729 0.0770468 0.2638729 0.9229532 -0.2638729
22537 0.9164295 -0.2739445 0.0835705 0.2739445 0.0835705 0.2739445 0.9164295 -0.2739445
23569 0.9094044 -0.2842290 0.0905956 0.2842290 0.0905956 0.2842290 0.9094044 -0.2842290
24648 0.9018486 -0.2947079 0.0981514 0.2947079 0.0981514 0.2947079 0.9018486 -0.2947079
25777 0.8937329 -0.3053596 0.1062671 0.3053596 0.1062671 0.3053596 0.8937329 -0.3053596
26957 0.8850281 -0.3161586 0.1149719 0.3161586 0.1149719 0.3161586 0.8850281 -0.3161586
28191 0.8757060 -0.3270758 0.1242940 0.3270758 0.1242940 0.3270758 0.8757060 -0.3270758
29482 0.8657392 -0.3380782 0.1342608 0.3380782 0.1342608 0.3380782 0.8657392 -0.3380782
30832 0.8551022 -0.3491286 0.1448978 0.3491286 0.1448978 0.3491286 0.8551022 -0.3491286
32244 0.8437713 -0.3601856 0.1562287 0.3601856 0.1562287 0.3601856 0.8437713 -0.3601856
33721 0.8317259 -0.3712038 0.1682741 0.3712038 0.1682741 0.3712038 0.8317259 -0.3712038
35265 0.8189484 -0.3821336 0.1810516 0.3821336 0.1810516 0.3821336 0.8189484 -0.3821336
36880 0.8054255 -0.3929217 0.1945745 0.3929217 0.1945745 0.3929217 0.8054255 -0.3929217
38569 0.7911483 -0.4035110 0.2088517 0.4035110 0.2088517 0.4035110 0.7911483 -0.4035110
40335 0.7761135 -0.4138415 0.2238865 0.4138415 0.2238865 0.4138415 0.7761135 -0.4138415
42182 0.7603235 -0.4238502 0.2396765 0.4238502 0.2396765 0.4238502 0.7603235 -0.4238502
44113 0.7437873 -0.4334722 0.2562127 0.4334722 0.2562127 0.4334722 0.7437873 -0.4334722
46134 0.7265211 -0.4426415 0.2734789 0.4426415 0.2734789 0.4426415 0.7265211 -0.4426415
48246 0.7085484 -0.4512915 0.2914516 0.4512915 0.2914516 0.4512915 0.7085484 -0.4512915
50455 0.6899006 -0.4593564 0.3100994 0.4593564 0.3100994 0.4593564 0.6899006 -0.4593564
52766 0.6706169 -0.4667720 0.3293831 0.4667720 0.3293831 0.4667720 0.6706169 -0.4667720
55182 0.6507442 -0.4734767 0.3492558 0.4734767 0.3492558 0.4734767 0.6507442 -0.4734767
57709 0.6303372 -0.4794132 0.3696628 0.4794132 0.3696628 0.4794132 0.6303372 -0.4794132
60352 0.6094579 -0.4845288 0.3905421 0.4845288 0.3905421 0.4845288 0.6094579 -0.4845288
63115 0.5881748 -0.4887774 0.4118252 0.4887774 0.4118252 0.4887774 0.5881748 -0.4887774
66005 0.5665620 -0.4921196 0.4334380 0.4921196 0.4334380 0.4921196 0.5665620 -0.4921196
69028 0.5446988 -0.4945243 0.4553012 0.4945243 0.4553012 0.4945243 0.5446988 -0.4945243
72189 0.5226679 -0.4959689 0.4773321 0.4959689 0.4773321 0.4959689 0.5226679 -0.4959689
75495 0.5005547 -0.4964400 0.4994453 0.4964400 0.4994453 0.4964400 0.5005547 -0.4964400
78952 0.4784456 -0.4959336 0.5215544 0.4959336 0.5215544 0.4959336 0.4784456 -0.4959336
82567 0.4564269 -0.4944554 0.5435731 0.4944554 0.5435731 0.4944554 0.4564269 -0.4944554
86348 0.4345834 -0.4920204 0.5654166 0.4920204 0.5654166 0.4920204 0.4345834 -0.4920204
90302 0.4129969 -0.4886527 0.5870031 0.4886527 0.5870031 0.4886527 0.4129969 -0.4886527
94437 0.3917455 -0.4843846 0.6082545 0.4843846 0.6082545 0.4843846 0.3917455 -0.4843846
98762 0.3709020 -0.4792563 0.6290980 0.4792563 0.6290980 0.4792563 0.3709020 -0.4792563
103284 0.3505336 -0.4733148 0.6494664 0.4733148 0.6494664 0.4733148 0.3505336 -0.4733148
108014 0.3307004 -0.4666128 0.6692996 0.4666128 0.6692996 0.4666128 0.3307004 -0.4666128
112960 0.3114557 -0.4592077 0.6885443 0.4592077 0.6885443 0.4592077 0.3114557 -0.4592077
118133 0.2928450 -0.4511606 0.7071550 0.4511606 0.7071550 0.4511606 0.2928450 -0.4511606
123542 0.2749062 -0.4425352 0.7250938 0.4425352 0.7250938 0.4425352 0.2749062 -0.4425352
129199 0.2576695 -0.4333964 0.7423305 0.4333964 0.7423305 0.4333964 0.2576695 -0.4333964
135116 0.2411575 -0.4238098 0.7588425 0.4238098 0.7588425 0.4238098 0.2411575 -0.4238098
141303 0.2253858 -0.4138402 0.7746142 0.4138402 0.7746142 0.4138402 0.2253858 -0.4138402
147774 0.2103631 -0.4035515 0.7896369 0.4035515 0.7896369 0.4035515 0.2103631 -0.4035515
154540 0.1960916 -0.3930052 0.8039084 0.3930052 0.8039084 0.3930052 0.1960916 -0.3930052
161617 0.1825679 -0.3822605 0.8174321 0.3822605 0.8174321 0.3822605 0.1825679 -0.3822605
169018 0.1697837 -0.3713732 0.8302163 0.3713732 0.8302163 0.3713732 0.1697837 -0.3713732
176758 0.1577259 -0.3603959 0.8422741 0.3603959 0.8422741 0.3603959 0.1577259 -0.3603959
184852 0.1463776 -0.3493773 0.8536224 0.3493773 0.8536224 0.3493773 0.1463776 -0.3493773
193316 0.1357187 -0.3383622 0.8642813 0.3383622 0.8642813 0.3383622 0.1357187 -0.3383622
202169 0.1257264 -0.3273914 0.8742736 0.3273914 0.8742736 0.3273914 0.1257264 -0.3273914
211427 0.1163758 -0.3165019 0.8836242 0.3165019 0.8836242 0.3165019 0.1163758 -0.3165019
221108 0.1076404 -0.3057265 0.8923596 0.3057265 0.8923596 0.3057265 0.1076404 -0.3057265
231233 0.0994925 -0.2950942 0.9005075 0.2950942 0.9005075 0.2950942 0.0994925 -0.2950942
241822 0.0919038 -0.2846306 0.9080962 0.2846306 0.9080962 0.2846306 0.0919038 -0.2846306
252896 0.0848455 -0.2743574 0.9151545 0.2743574 0.9151545 0.2743574 0.0848455 -0.2743574
264476 0.0782891 -0.2642934 0.9217109 0.2642934 0.9217109 0.2642934 0.0782891 -0.2642934
276587 0.0722060 -0.2544541 0.9277940 0.2544541 0.9277940 0.2544541 0.0722060 -0.2544541
289253 0.0665683 -0.2448522 0.9334317 0.2448522 0.9334317 0.2448522 0.0665683 -0.2448522
302498 0.0613486 -0.2354980 0.9386514 0.2354980 0.9386514 0.2354980 0.0613486 -0.2354980
316350 0.0565206 -0.2263991 0.9434794 0.2263991 0.9434794 0.2263991 0.0565206 -0.2263991
330837 0.0520586 -0.2175613 0.9479414 0.2175613 0.9479414 0.2175613 0.0520586 -0.2175613
345986 0.0479382 -0.2089884 0.9520618 0.2089884 0.9520618 0.2089884 0.0479382 -0.2089884
361830 0.0441359 -0.2006824 0.9558641 0.2006824 0.9558641 0.2006824 0.0441359 -0.2006824
378399 0.0406296 -0.1926439 0.9593704 0.1926439 0.9593704 0.1926439 0.0406296 -0.1926439
395726 0.0373981 -0.1848722 0.9626019 0.1848722 0.9626019 0.1848722 0.0373981 -0.1848722
413847 0.0344215 -0.1773654 0.9655785 0.1773654 0.9655785 0.1773654 0.0344215 -0.1773654
432798 0.0316810 -0.1701206 0.9683190 0.1701206 0.9683190 0.1701206 0.0316810 -0.1701206
452617 0.0291590 -0.1631342 0.9708410 0.1631342 0.9708410 0.1631342 0.0291590 -0.1631342
473344 0.0268389 -0.1564018 0.9731611 0.1564018 0.9731611 0.1564018 0.0268389 -0.1564018
495019 0.0247052 -0.1499183 0.9752948 0.1499183 0.9752948 0.1499183 0.0247052 -0.1499183
517687 0.0227436 -0.1436782 0.9772564 0.1436782 0.9772564 0.1436782 0.0227436 -0.1436782
541393 0.0209405 -0.1376758 0.9790595 0.1376758 0.9790595 0.1376758 0.0209405 -0.1376758
566185 0.0192835 -0.1319048 0.9807165 0.1319048 0.9807165 0.1319048 0.0192835 -0.1319048
592111 0.0177609 -0.1263588 0.9822391 0.1263588 0.9822391 0.1263588 0.0177609 -0.1263588
619225 0.0163620 -0.1210312 0.9836380 0.1210312 0.9836380 0.1210312 0.0163620 -0.1210312
647581 0.0150769 -0.1159153 0.9849231 0.1159153 0.9849231 0.1159153 0.0150769 -0.1159153
677235 0.0138963 -0.1110044 0.9861037 0.1110044 0.9861037 0.1110044 0.0138963 -0.1110044
708247 0.0128117 -0.1062916 0.9871883 0.1062916 0.9871883 0.1062916 0.0128117 -0.1062916
740679 0.0118153 -0.1017703 0.9881847 0.1017703 0.9881847 0.1017703 0.0118153 -0.1017703
774597 0.0108998 -0.0974337 0.9891002 0.0974337 0.9891002 0.0974337 0.0108998 -0.0974337
810067 0.0100587 -0.0932752 0.9899413 0.0932752 0.9899413 0.0932752 0.0100587 -0.0932752
847162 0.0092858 -0.0892883 0.9907142 0.0892883 0.9907142 0.0892883 0.0092858 -0.0892883
885955 0.0085754 -0.0854665 0.9914246 0.0854665 0.9914246 0.0854665 0.0085754 -0.0854665
926525 0.0079225 -0.0818036 0.9920775 0.0818036 0.9920775 0.0818036 0.0079225 -0.0818036
968953 0.0073223 -0.0782935 0.9926777 0.0782935 0.9926777 0.0782935 0.0073223 -0.0782935
1013323 0.0067704 -0.0749303 0.9932296 0.0749303 0.9932296 0.0749303 0.0067704 -0.0749303
1059725 0.0062630 -0.0717081 0.9937370 0.0717081 0.9937370 0.0717081 0.0062630 -0.0717081
1108252 0.0057963 -0.0686213 0.9942037 0.0686213 0.9942037 0.0686213 0.0057963 -0.0686213
1159002 0.0053671 -0.0656646 0.9946329 0.0656646 0.9946329 0.0656646 0.0053671 -0.0656646
1212075 0.0049722 -0.0628326 0.9950278 0.0628326 0.9950278 0.0628326 0.0049722 -0.0628326
1267578 0.0046089 -0.0601203 0.9953911 0.0601203 0.9953911 0.0601203 0.0046089 -0.0601203
1325623 0.0042747 -0.0575228 0.9957253 0.0575228 0.9957253 0.0575228 0.0042747 -0.0575228
1386327 0.0039672 -0.0550353 0.9960328 0.0550353 0.9960328 0.0550353 0.0039672 -0.0550353
1449809 0.0036841 -0.0526534 0.9963159 0.0526534 0.9963159 0.0526534 0.0036841 -0.0526534
1516199 0.0034237 -0.0503727 0.9965763 0.0503727 0.9965763 0.0503727 0.0034237 -0.0503727
1585629 0.0031840 -0.0481890 0.9968160 0.0481890 0.9968160 0.0481890 0.0031840 -0.0481890
1658239 0.0029634 -0.0460982 0.9970366 0.0460982 0.9970366 0.0460982 0.0029634 -0.0460982
1734173 0.0027604 -0.0440964 0.9972396 0.0440964 0.9972396 0.0440964 0.0027604 -0.0440964
1813585 0.0025735 -0.0421800 0.9974265 0.0421800 0.9974265 0.0421800 0.0025735 -0.0421800
1896632 0.0024015 -0.0403454 0.9975985 0.0403454 0.9975985 0.0403454 0.0024015 -0.0403454
1983483 0.0022432 -0.0385890 0.9977568 0.0385890 0.9977568 0.0385890 0.0022432 -0.0385890
2074311 0.0020975 -0.0369077 0.9979025 0.0369077 0.9979025 0.0369077 0.0020975 -0.0369077
