!Murata Part Number: GRM319B11C105KAA3
!These Parameters are Measured in Series Mode Connection
!Data Generated on Mar 30, 2021
!       o--ll--o
!Port1            Port2
!       o------o
!Operation Temp=25[degC], DC Bias Voltage=0[V]
!Freq. Start=100[Hz] Stop=6[GHz] 401[Steps]
# Hz S RI R 50
!Freq.(Hz) S11(Real) S11(Imag) S21(Real) S21(Imag) S12(Real) S12(Imag) S22(Real) S22(Imag)
100 0.9963115 -0.0597054 0.0036885 0.0597054 0.0036885 0.0597054 0.9963115 -0.0597054
105 0.9959689 -0.0624144 0.0040311 0.0624144 0.0040311 0.0624144 0.9959689 -0.0624144
109 0.9955947 -0.0652441 0.0044053 0.0652441 0.0044053 0.0652441 0.9955947 -0.0652441
114 0.9951860 -0.0681994 0.0048140 0.0681994 0.0048140 0.0681994 0.9951860 -0.0681994
120 0.9947397 -0.0712856 0.0052603 0.0712856 0.0052603 0.0712856 0.9947397 -0.0712856
125 0.9942525 -0.0745080 0.0057475 0.0745080 0.0057475 0.0745080 0.9942525 -0.0745080
131 0.9937206 -0.0778722 0.0062794 0.0778722 0.0062794 0.0778722 0.9937206 -0.0778722
137 0.9931401 -0.0813840 0.0068599 0.0813840 0.0068599 0.0813840 0.9931401 -0.0813840
143 0.9925065 -0.0850491 0.0074935 0.0850491 0.0074935 0.0850491 0.9925065 -0.0850491
150 0.9918151 -0.0888736 0.0081849 0.0888736 0.0081849 0.0888736 0.9918151 -0.0888736
156 0.9910607 -0.0928638 0.0089393 0.0928638 0.0089393 0.0928638 0.9910607 -0.0928638
164 0.9902378 -0.0970258 0.0097622 0.0970258 0.0097622 0.0970258 0.9902378 -0.0970258
171 0.9893403 -0.1013662 0.0106597 0.1013662 0.0106597 0.1013662 0.9893403 -0.1013662
179 0.9883616 -0.1058915 0.0116384 0.1058915 0.0116384 0.1058915 0.9883616 -0.1058915
187 0.9872945 -0.1106082 0.0127055 0.1106082 0.0127055 0.1106082 0.9872945 -0.1106082
196 0.9861312 -0.1155232 0.0138688 0.1155232 0.0138688 0.1155232 0.9861312 -0.1155232
205 0.9848635 -0.1206432 0.0151365 0.1206432 0.0151365 0.1206432 0.9848635 -0.1206432
214 0.9834822 -0.1259748 0.0165178 0.1259748 0.0165178 0.1259748 0.9834822 -0.1259748
224 0.9819775 -0.1315247 0.0180225 0.1315247 0.0180225 0.1315247 0.9819775 -0.1315247
234 0.9803389 -0.1372996 0.0196611 0.1372996 0.0196611 0.1372996 0.9803389 -0.1372996
245 0.9785547 -0.1433060 0.0214453 0.1433060 0.0214453 0.1433060 0.9785547 -0.1433060
256 0.9766129 -0.1495500 0.0233871 0.1495500 0.0233871 0.1495500 0.9766129 -0.1495500
268 0.9744999 -0.1560378 0.0255001 0.1560378 0.0255001 0.1560378 0.9744999 -0.1560378
280 0.9722017 -0.1627749 0.0277983 0.1627749 0.0277983 0.1627749 0.9722017 -0.1627749
293 0.9697028 -0.1697665 0.0302972 0.1697665 0.0302972 0.1697665 0.9697028 -0.1697665
306 0.9669869 -0.1770173 0.0330131 0.1770173 0.0330131 0.1770173 0.9669869 -0.1770173
320 0.9640364 -0.1845313 0.0359636 0.1845313 0.0359636 0.1845313 0.9640364 -0.1845313
335 0.9608326 -0.1923117 0.0391674 0.1923117 0.0391674 0.1923117 0.9608326 -0.1923117
350 0.9573556 -0.2003605 0.0426444 0.2003605 0.0426444 0.2003605 0.9573556 -0.2003605
366 0.9535843 -0.2086791 0.0464157 0.2086791 0.0464157 0.2086791 0.9535843 -0.2086791
383 0.9494963 -0.2172672 0.0505037 0.2172672 0.0505037 0.2172672 0.9494963 -0.2172672
401 0.9450682 -0.2261231 0.0549318 0.2261231 0.0549318 0.2261231 0.9450682 -0.2261231
419 0.9402753 -0.2352436 0.0597247 0.2352436 0.0597247 0.2352436 0.9402753 -0.2352436
438 0.9350916 -0.2446233 0.0649084 0.2446233 0.0649084 0.2446233 0.9350916 -0.2446233
458 0.9294904 -0.2542550 0.0705096 0.2542550 0.0705096 0.2542550 0.9294904 -0.2542550
479 0.9234440 -0.2641290 0.0765560 0.2641290 0.0765560 0.2641290 0.9234440 -0.2641290
501 0.9169237 -0.2742327 0.0830763 0.2742327 0.0830763 0.2742327 0.9169237 -0.2742327
524 0.9099005 -0.2845510 0.0900995 0.2845510 0.0900995 0.2845510 0.9099005 -0.2845510
548 0.9023450 -0.2950655 0.0976550 0.2950655 0.0976550 0.2950655 0.9023450 -0.2950655
573 0.8942276 -0.3057545 0.1057724 0.3057545 0.1057724 0.3057545 0.8942276 -0.3057545
600 0.8855190 -0.3165925 0.1144810 0.3165925 0.1144810 0.3165925 0.8855190 -0.3165925
627 0.8761908 -0.3275504 0.1238092 0.3275504 0.1238092 0.3275504 0.8761908 -0.3275504
656 0.8662153 -0.3385950 0.1337847 0.3385950 0.1337847 0.3385950 0.8662153 -0.3385950
686 0.8555667 -0.3496891 0.1444333 0.3496891 0.1444333 0.3496891 0.8555667 -0.3496891
717 0.8442211 -0.3607911 0.1557789 0.3607911 0.1557789 0.3607911 0.8442211 -0.3607911
750 0.8321576 -0.3718555 0.1678424 0.3718555 0.1678424 0.3718555 0.8321576 -0.3718555
784 0.8193582 -0.3828324 0.1806418 0.3828324 0.1806418 0.3828324 0.8193582 -0.3828324
820 0.8058095 -0.3936682 0.1941905 0.3936682 0.1941905 0.3936682 0.8058095 -0.3936682
858 0.7915022 -0.4043056 0.2084978 0.4043056 0.2084978 0.4043056 0.7915022 -0.4043056
897 0.7764328 -0.4146840 0.2235672 0.4146840 0.2235672 0.4146840 0.7764328 -0.4146840
938 0.7606034 -0.4247400 0.2393966 0.4247400 0.2393966 0.4247400 0.7606034 -0.4247400
981 0.7440230 -0.4344084 0.2559770 0.4344084 0.2559770 0.4344084 0.7440230 -0.4344084
1026 0.7267077 -0.4436223 0.2732923 0.4436223 0.2732923 0.4436223 0.7267077 -0.4436223
1073 0.7086808 -0.4523148 0.2913192 0.4523148 0.2913192 0.4523148 0.7086808 -0.4523148
1122 0.6899738 -0.4604192 0.3100262 0.4604192 0.3100262 0.4604192 0.6899738 -0.4604192
1174 0.6706260 -0.4678706 0.3293740 0.4678706 0.3293740 0.4678706 0.6706260 -0.4678706
1227 0.6506847 -0.4746068 0.3493153 0.4746068 0.3493153 0.4746068 0.6506847 -0.4746068
1283 0.6302051 -0.4805698 0.3697949 0.4805698 0.3697949 0.4805698 0.6302051 -0.4805698
1342 0.6092494 -0.4857064 0.3907506 0.4857064 0.3907506 0.4857064 0.6092494 -0.4857064
1404 0.5878869 -0.4899697 0.4121131 0.4899697 0.4121131 0.4899697 0.5878869 -0.4899697
1468 0.5661924 -0.4933199 0.4338076 0.4933199 0.4338076 0.4933199 0.5661924 -0.4933199
1535 0.5442460 -0.4957254 0.4557540 0.4957254 0.4557540 0.4957254 0.5442460 -0.4957254
1606 0.5221314 -0.4971634 0.4778686 0.4971634 0.4778686 0.4971634 0.5221314 -0.4971634
1679 0.4999349 -0.4976203 0.5000651 0.4976203 0.5000651 0.4976203 0.4999349 -0.4976203
1756 0.4777439 -0.4970922 0.5222561 0.4970922 0.5222561 0.4970922 0.4777439 -0.4970922
1836 0.4556456 -0.4955850 0.5443544 0.4955850 0.5443544 0.4955850 0.4556456 -0.4955850
1920 0.4337258 -0.4931140 0.5662742 0.4931140 0.5662742 0.4931140 0.4337258 -0.4931140
2008 0.4120672 -0.4897036 0.5879328 0.4897036 0.5879328 0.4897036 0.4120672 -0.4897036
2100 0.3907488 -0.4853871 0.6092512 0.4853871 0.6092512 0.4853871 0.3907488 -0.4853871
2196 0.3698440 -0.4802053 0.6301560 0.4802053 0.6301560 0.4802053 0.3698440 -0.4802053
2297 0.3494205 -0.4742059 0.6505795 0.4742059 0.6505795 0.4742059 0.3494205 -0.4742059
2402 0.3295388 -0.4674426 0.6704612 0.4674426 0.6704612 0.4674426 0.3295388 -0.4674426
2512 0.3102525 -0.4599738 0.6897475 0.4599738 0.6897475 0.4599738 0.3102525 -0.4599738
2627 0.2916071 -0.4518615 0.7083929 0.4518615 0.7083929 0.4518615 0.2916071 -0.4518615
2748 0.2736404 -0.4431701 0.7263596 0.4431701 0.7263596 0.4431701 0.2736404 -0.4431701
2873 0.2563826 -0.4339656 0.7436174 0.4339656 0.7436174 0.4339656 0.2563826 -0.4339656
3005 0.2398559 -0.4243141 0.7601441 0.4243141 0.7601441 0.4243141 0.2398559 -0.4243141
3143 0.2240753 -0.4142815 0.7759247 0.4142815 0.7759247 0.4142815 0.2240753 -0.4142815
3287 0.2090492 -0.4039318 0.7909508 0.4039318 0.7909508 0.4039318 0.2090492 -0.4039318
3437 0.1947793 -0.3933273 0.8052207 0.3933273 0.8052207 0.3933273 0.1947793 -0.3933273
3594 0.1812616 -0.3825275 0.8187384 0.3825275 0.8187384 0.3825275 0.1812616 -0.3825275
3759 0.1684871 -0.3715884 0.8315129 0.3715884 0.8315129 0.3715884 0.1684871 -0.3715884
3931 0.1564422 -0.3605628 0.8435578 0.3605628 0.8435578 0.3605628 0.1564422 -0.3605628
4111 0.1451095 -0.3494995 0.8548905 0.3494995 0.8548905 0.3494995 0.1451095 -0.3494995
4299 0.1344683 -0.3384433 0.8655317 0.3384433 0.8655317 0.3384433 0.1344683 -0.3384433
4496 0.1244955 -0.3274351 0.8755045 0.3274351 0.8755045 0.3274351 0.1244955 -0.3274351
4702 0.1151655 -0.3165114 0.8848345 0.3165114 0.8848345 0.3165114 0.1151655 -0.3165114
4918 0.1064516 -0.3057052 0.8935484 0.3057052 0.8935484 0.3057052 0.1064516 -0.3057052
5143 0.0983257 -0.2950453 0.9016743 0.2950453 0.9016743 0.2950453 0.0983257 -0.2950453
5378 0.0907592 -0.2845568 0.9092408 0.2845568 0.9092408 0.2845568 0.0907592 -0.2845568
5625 0.0837233 -0.2742615 0.9162767 0.2742615 0.9162767 0.2742615 0.0837233 -0.2742615
5882 0.0771890 -0.2641779 0.9228110 0.2641779 0.9228110 0.2641779 0.0771890 -0.2641779
6151 0.0711276 -0.2543211 0.9288724 0.2543211 0.9288724 0.2543211 0.0711276 -0.2543211
6433 0.0655111 -0.2447038 0.9344889 0.2447038 0.9344889 0.2447038 0.0655111 -0.2447038
6728 0.0603122 -0.2353360 0.9396878 0.2353360 0.9396878 0.2353360 0.0603122 -0.2353360
7036 0.0555043 -0.2262251 0.9444957 0.2262251 0.9444957 0.2262251 0.0555043 -0.2262251
7358 0.0510617 -0.2173768 0.9489383 0.2173768 0.9489383 0.2173768 0.0510617 -0.2173768
7695 0.0469602 -0.2087946 0.9530398 0.2087946 0.9530398 0.2087946 0.0469602 -0.2087946
8047 0.0431761 -0.2004804 0.9568239 0.2004804 0.9568239 0.2004804 0.0431761 -0.2004804
8416 0.0396873 -0.1924347 0.9603127 0.1924347 0.9603127 0.1924347 0.0396873 -0.1924347
8801 0.0364728 -0.1846567 0.9635272 0.1846567 0.9635272 0.1846567 0.0364728 -0.1846567
9204 0.0335126 -0.1771443 0.9664874 0.1771443 0.9664874 0.1771443 0.0335126 -0.1771443
9626 0.0307880 -0.1698946 0.9692120 0.1698946 0.9692120 0.1698946 0.0307880 -0.1698946
10066 0.0282813 -0.1629038 0.9717187 0.1629038 0.9717187 0.1629038 0.0282813 -0.1629038
10527 0.0259761 -0.1561676 0.9740239 0.1561676 0.9740239 0.1561676 0.0259761 -0.1561676
11009 0.0238570 -0.1496807 0.9761430 0.1496807 0.9761430 0.1496807 0.0238570 -0.1496807
11514 0.0219096 -0.1434377 0.9780904 0.1434377 0.9780904 0.1434377 0.0219096 -0.1434377
12041 0.0201204 -0.1374326 0.9798796 0.1374326 0.9798796 0.1374326 0.0201204 -0.1374326
12592 0.0184771 -0.1316594 0.9815229 0.1316594 0.9815229 0.1316594 0.0184771 -0.1316594
13169 0.0169680 -0.1261114 0.9830320 0.1261114 0.9830320 0.1261114 0.0169680 -0.1261114
13772 0.0155824 -0.1207822 0.9844176 0.1207822 0.9844176 0.1207822 0.0155824 -0.1207822
14402 0.0143104 -0.1156650 0.9856896 0.1156650 0.9856896 0.1156650 0.0143104 -0.1156650
15062 0.0131428 -0.1107531 0.9868572 0.1107531 0.9868572 0.1107531 0.0131428 -0.1107531
15752 0.0120712 -0.1060397 0.9879288 0.1060397 0.9879288 0.1060397 0.0120712 -0.1060397
16473 0.0110876 -0.1015181 0.9889124 0.1015181 0.9889124 0.1015181 0.0110876 -0.1015181
17227 0.0101850 -0.0971815 0.9898150 0.0971815 0.9898150 0.0971815 0.0101850 -0.0971815
18016 0.0093567 -0.0930234 0.9906433 0.0930234 0.9906433 0.0930234 0.0093567 -0.0930234
18841 0.0085965 -0.0890373 0.9914035 0.0890373 0.9914035 0.0890373 0.0085965 -0.0890373
19704 0.0078988 -0.0852167 0.9921012 0.0852167 0.9921012 0.0852167 0.0078988 -0.0852167
20606 0.0072586 -0.0815554 0.9927414 0.0815554 0.9927414 0.0815554 0.0072586 -0.0815554
21550 0.0066710 -0.0780474 0.9933290 0.0780474 0.9933290 0.0780474 0.0066710 -0.0780474
22537 0.0061317 -0.0746866 0.9938683 0.0746866 0.9938683 0.0746866 0.0061317 -0.0746866
23569 0.0056367 -0.0714674 0.9943633 0.0714674 0.9943633 0.0714674 0.0056367 -0.0714674
24648 0.0051823 -0.0683841 0.9948177 0.0683841 0.9948177 0.0683841 0.0051823 -0.0683841
25777 0.0047653 -0.0654312 0.9952347 0.0654312 0.9952347 0.0654312 0.0047653 -0.0654312
26957 0.0043825 -0.0626036 0.9956175 0.0626036 0.9956175 0.0626036 0.0043825 -0.0626036
28191 0.0040312 -0.0598961 0.9959688 0.0598961 0.9959688 0.0598961 0.0040312 -0.0598961
29482 0.0037086 -0.0573039 0.9962914 0.0573039 0.9962914 0.0573039 0.0037086 -0.0573039
30832 0.0034126 -0.0548222 0.9965874 0.0548222 0.9965874 0.0548222 0.0034126 -0.0548222
32244 0.0031408 -0.0524465 0.9968592 0.0524465 0.9968592 0.0524465 0.0031408 -0.0524465
33721 0.0028914 -0.0501724 0.9971086 0.0501724 0.9971086 0.0501724 0.0028914 -0.0501724
35265 0.0026624 -0.0479957 0.9973376 0.0479957 0.9973376 0.0479957 0.0026624 -0.0479957
36880 0.0024523 -0.0459124 0.9975477 0.0459124 0.9975477 0.0459124 0.0024523 -0.0459124
38569 0.0022594 -0.0439185 0.9977406 0.0439185 0.9977406 0.0439185 0.0022594 -0.0439185
40335 0.0020825 -0.0420104 0.9979175 0.0420104 0.9979175 0.0420104 0.0020825 -0.0420104
42182 0.0019201 -0.0401843 0.9980799 0.0401843 0.9980799 0.0401843 0.0019201 -0.0401843
44113 0.0017710 -0.0384370 0.9982290 0.0384370 0.9982290 0.0384370 0.0017710 -0.0384370
46134 0.0016343 -0.0367650 0.9983657 0.0367650 0.9983657 0.0367650 0.0016343 -0.0367650
48246 0.0015089 -0.0351651 0.9984911 0.0351651 0.9984911 0.0351651 0.0015089 -0.0351651
50455 0.0013938 -0.0336344 0.9986062 0.0336344 0.9986062 0.0336344 0.0013938 -0.0336344
52766 0.0012883 -0.0321699 0.9987117 0.0321699 0.9987117 0.0321699 0.0012883 -0.0321699
55182 0.0011914 -0.0307688 0.9988086 0.0307688 0.9988086 0.0307688 0.0011914 -0.0307688
57709 0.0011026 -0.0294283 0.9988974 0.0294283 0.9988974 0.0294283 0.0011026 -0.0294283
60352 0.0010212 -0.0281460 0.9989788 0.0281460 0.9989788 0.0281460 0.0010212 -0.0281460
63115 0.0009464 -0.0269193 0.9990536 0.0269193 0.9990536 0.0269193 0.0009464 -0.0269193
66005 0.0008779 -0.0257459 0.9991221 0.0257459 0.9991221 0.0257459 0.0008779 -0.0257459
69028 0.0008150 -0.0246234 0.9991850 0.0246234 0.9991850 0.0246234 0.0008150 -0.0246234
72189 0.0007573 -0.0235498 0.9992427 0.0235498 0.9992427 0.0235498 0.0007573 -0.0235498
75495 0.0007044 -0.0225228 0.9992956 0.0225228 0.9992956 0.0225228 0.0007044 -0.0225228
78952 0.0006558 -0.0215406 0.9993442 0.0215406 0.9993442 0.0215406 0.0006558 -0.0215406
82567 0.0006112 -0.0206011 0.9993888 0.0206011 0.9993888 0.0206011 0.0006112 -0.0206011
86348 0.0005703 -0.0197025 0.9994297 0.0197025 0.9994297 0.0197025 0.0005703 -0.0197025
90302 0.0005327 -0.0188431 0.9994673 0.0188431 0.9994673 0.0188431 0.0005327 -0.0188431
94437 0.0004982 -0.0180211 0.9995018 0.0180211 0.9995018 0.0180211 0.0004982 -0.0180211
98762 0.0004664 -0.0172350 0.9995336 0.0172350 0.9995336 0.0172350 0.0004664 -0.0172350
103284 0.0004372 -0.0164832 0.9995628 0.0164832 0.9995628 0.0164832 0.0004372 -0.0164832
108014 0.0004103 -0.0157642 0.9995897 0.0157642 0.9995897 0.0157642 0.0004103 -0.0157642
112960 0.0003856 -0.0150765 0.9996144 0.0150765 0.9996144 0.0150765 0.0003856 -0.0150765
118133 0.0003628 -0.0144189 0.9996372 0.0144189 0.9996372 0.0144189 0.0003628 -0.0144189
123542 0.0003417 -0.0137900 0.9996583 0.0137900 0.9996583 0.0137900 0.0003417 -0.0137900
129199 0.0003223 -0.0131885 0.9996777 0.0131885 0.9996777 0.0131885 0.0003223 -0.0131885
135116 0.0003044 -0.0126132 0.9996956 0.0126132 0.9996956 0.0126132 0.0003044 -0.0126132
141303 0.0002878 -0.0120631 0.9997122 0.0120631 0.9997122 0.0120631 0.0002878 -0.0120631
147774 0.0002724 -0.0115369 0.9997276 0.0115369 0.9997276 0.0115369 0.0002724 -0.0115369
154540 0.0002581 -0.0110337 0.9997419 0.0110337 0.9997419 0.0110337 0.0002581 -0.0110337
161617 0.0002449 -0.0105524 0.9997551 0.0105524 0.9997551 0.0105524 0.0002449 -0.0105524
169018 0.0002326 -0.0100921 0.9997674 0.0100921 0.9997674 0.0100921 0.0002326 -0.0100921
176758 0.0002212 -0.0096518 0.9997788 0.0096518 0.9997788 0.0096518 0.0002212 -0.0096518
184852 0.0002106 -0.0092307 0.9997894 0.0092307 0.9997894 0.0092307 0.0002106 -0.0092307
193316 0.0002006 -0.0088279 0.9997994 0.0088279 0.9997994 0.0088279 0.0002006 -0.0088279
202169 0.0001914 -0.0084427 0.9998086 0.0084427 0.9998086 0.0084427 0.0001914 -0.0084427
211427 0.0001827 -0.0080741 0.9998173 0.0080741 0.9998173 0.0080741 0.0001827 -0.0080741
221108 0.0001747 -0.0077216 0.9998253 0.0077216 0.9998253 0.0077216 0.0001747 -0.0077216
231233 0.0001671 -0.0073844 0.9998329 0.0073844 0.9998329 0.0073844 0.0001671 -0.0073844
241822 0.0001600 -0.0070618 0.9998400 0.0070618 0.9998400 0.0070618 0.0001600 -0.0070618
252896 0.0001534 -0.0067531 0.9998466 0.0067531 0.9998466 0.0067531 0.0001534 -0.0067531
264476 0.0001472 -0.0064578 0.9998528 0.0064578 0.9998528 0.0064578 0.0001472 -0.0064578
276587 0.0001414 -0.0061753 0.9998586 0.0061753 0.9998586 0.0061753 0.0001414 -0.0061753
289253 0.0001360 -0.0059050 0.9998640 0.0059050 0.9998640 0.0059050 0.0001360 -0.0059050
302498 0.0001309 -0.0056464 0.9998691 0.0056464 0.9998691 0.0056464 0.0001309 -0.0056464
316350 0.0001261 -0.0053990 0.9998739 0.0053990 0.9998739 0.0053990 0.0001261 -0.0053990
330837 0.0001216 -0.0051622 0.9998784 0.0051622 0.9998784 0.0051622 0.0001216 -0.0051622
345986 0.0001175 -0.0049356 0.9998825 0.0049356 0.9998825 0.0049356 0.0001175 -0.0049356
361830 0.0001136 -0.0047188 0.9998864 0.0047188 0.9998864 0.0047188 0.0001136 -0.0047188
378399 0.0001099 -0.0045113 0.9998901 0.0045113 0.9998901 0.0045113 0.0001099 -0.0045113
395726 0.0001065 -0.0043127 0.9998935 0.0043127 0.9998935 0.0043127 0.0001065 -0.0043127
413847 0.0001033 -0.0041226 0.9998967 0.0041226 0.9998967 0.0041226 0.0001033 -0.0041226
432798 0.0001004 -0.0039408 0.9998996 0.0039408 0.9998996 0.0039408 0.0001004 -0.0039408
452617 0.0000976 -0.0037667 0.9999024 0.0037667 0.9999024 0.0037667 0.0000976 -0.0037667
473344 0.0000951 -0.0036000 0.9999049 0.0036000 0.9999049 0.0036000 0.0000951 -0.0036000
495019 0.0000927 -0.0034405 0.9999073 0.0034405 0.9999073 0.0034405 0.0000927 -0.0034405
517687 0.0000905 -0.0032879 0.9999095 0.0032879 0.9999095 0.0032879 0.0000905 -0.0032879
541393 0.0000884 -0.0031417 0.9999116 0.0031417 0.9999116 0.0031417 0.0000884 -0.0031417
566185 0.0000865 -0.0030018 0.9999135 0.0030018 0.9999135 0.0030018 0.0000865 -0.0030018
592111 0.0000848 -0.0028678 0.9999152 0.0028678 0.9999152 0.0028678 0.0000848 -0.0028678
619225 0.0000832 -0.0027396 0.9999168 0.0027396 0.9999168 0.0027396 0.0000832 -0.0027396
647581 0.0000817 -0.0026168 0.9999183 0.0026168 0.9999183 0.0026168 0.0000817 -0.0026168
677235 0.0000803 -0.0024991 0.9999197 0.0024991 0.9999197 0.0024991 0.0000803 -0.0024991
708247 0.0000790 -0.0023865 0.9999210 0.0023865 0.9999210 0.0023865 0.0000790 -0.0023865
740679 0.0000779 -0.0022786 0.9999221 0.0022786 0.9999221 0.0022786 0.0000779 -0.0022786
774597 0.0000768 -0.0021752 0.9999232 0.0021752 0.9999232 0.0021752 0.0000768 -0.0021752
810067 0.0000758 -0.0020762 0.9999242 0.0020762 0.9999242 0.0020762 0.0000758 -0.0020762
847162 0.0000749 -0.0019813 0.9999251 0.0019813 0.9999251 0.0019813 0.0000749 -0.0019813
885955 0.0000741 -0.0018904 0.9999259 0.0018904 0.9999259 0.0018904 0.0000741 -0.0018904
926525 0.0000734 -0.0018032 0.9999266 0.0018032 0.9999266 0.0018032 0.0000734 -0.0018032
968953 0.0000727 -0.0017196 0.9999273 0.0017196 0.9999273 0.0017196 0.0000727 -0.0017196
1013323 0.0000721 -0.0016395 0.9999279 0.0016395 0.9999279 0.0016395 0.0000721 -0.0016395
1059725 0.0000715 -0.0015626 0.9999285 0.0015626 0.9999285 0.0015626 0.0000715 -0.0015626
1108252 0.0000710 -0.0014889 0.9999290 0.0014889 0.9999290 0.0014889 0.0000710 -0.0014889
1159002 0.0000706 -0.0014181 0.9999294 0.0014181 0.9999294 0.0014181 0.0000706 -0.0014181
1212075 0.0000702 -0.0013502 0.9999298 0.0013502 0.9999298 0.0013502 0.0000702 -0.0013502
1267578 0.0000698 -0.0012849 0.9999302 0.0012849 0.9999302 0.0012849 0.0000698 -0.0012849
1325623 0.0000695 -0.0012223 0.9999305 0.0012223 0.9999305 0.0012223 0.0000695 -0.0012223
1386327 0.0000693 -0.0011620 0.9999307 0.0011620 0.9999307 0.0011620 0.0000693 -0.0011620
1449809 0.0000691 -0.0011041 0.9999309 0.0011041 0.9999309 0.0011041 0.0000691 -0.0011041
1516199 0.0000689 -0.0010484 0.9999311 0.0010484 0.9999311 0.0010484 0.0000689 -0.0010484
1585629 0.0000687 -0.0009948 0.9999313 0.0009948 0.9999313 0.0009948 0.0000687 -0.0009948
1658239 0.0000686 -0.0009432 0.9999314 0.0009432 0.9999314 0.0009432 0.0000686 -0.0009432
1734173 0.0000686 -0.0008935 0.9999314 0.0008935 0.9999314 0.0008935 0.0000686 -0.0008935
1813585 0.0000685 -0.0008456 0.9999315 0.0008456 0.9999315 0.0008456 0.0000685 -0.0008456
1896632 0.0000685 -0.0007993 0.9999315 0.0007993 0.9999315 0.0007993 0.0000685 -0.0007993
1983483 0.0000686 -0.0007547 0.9999314 0.0007547 0.9999314 0.0007547 0.0000686 -0.0007547
2074311 0.0000686 -0.0007116 0.9999314 0.0007116 0.9999314 0.0007116 0.0000686 -0.0007116
