!Murata Part Number: GRM319R72A222KA01
!These Parameters are Measured in Series Mode Connection
!Data Generated on Mar 30, 2021
!       o--ll--o
!Port1            Port2
!       o------o
!Operation Temp=25[degC], DC Bias Voltage=0[V]
!Freq. Start=100[Hz] Stop=6[GHz] 401[Steps]
# Hz S RI R 50
!Freq.(Hz) S11(Real) S11(Imag) S21(Real) S21(Imag) S12(Real) S12(Imag) S22(Real) S22(Imag)
100 0.9999993 -0.0001378 0.0000007 0.0001378 0.0000007 0.0001378 0.9999993 -0.0001378
105 0.9999992 -0.0001441 0.0000008 0.0001441 0.0000008 0.0001441 0.9999992 -0.0001441
109 0.9999992 -0.0001506 0.0000008 0.0001506 0.0000008 0.0001506 0.9999992 -0.0001506
114 0.9999992 -0.0001575 0.0000008 0.0001575 0.0000008 0.0001575 0.9999992 -0.0001575
120 0.9999991 -0.0001647 0.0000009 0.0001647 0.0000009 0.0001647 0.9999991 -0.0001647
125 0.9999991 -0.0001722 0.0000009 0.0001722 0.0000009 0.0001722 0.9999991 -0.0001722
131 0.9999990 -0.0001800 0.0000010 0.0001800 0.0000010 0.0001800 0.9999990 -0.0001800
137 0.9999990 -0.0001882 0.0000010 0.0001882 0.0000010 0.0001882 0.9999990 -0.0001882
143 0.9999990 -0.0001968 0.0000010 0.0001968 0.0000010 0.0001968 0.9999990 -0.0001968
150 0.9999989 -0.0002058 0.0000011 0.0002058 0.0000011 0.0002058 0.9999989 -0.0002058
156 0.9999989 -0.0002152 0.0000011 0.0002152 0.0000011 0.0002152 0.9999989 -0.0002152
164 0.9999988 -0.0002250 0.0000012 0.0002250 0.0000012 0.0002250 0.9999988 -0.0002250
171 0.9999988 -0.0002353 0.0000012 0.0002353 0.0000012 0.0002353 0.9999988 -0.0002353
179 0.9999987 -0.0002460 0.0000013 0.0002460 0.0000013 0.0002460 0.9999987 -0.0002460
187 0.9999987 -0.0002572 0.0000013 0.0002572 0.0000013 0.0002572 0.9999987 -0.0002572
196 0.9999987 -0.0002690 0.0000013 0.0002690 0.0000013 0.0002690 0.9999987 -0.0002690
205 0.9999986 -0.0002813 0.0000014 0.0002813 0.0000014 0.0002813 0.9999986 -0.0002813
214 0.9999986 -0.0002941 0.0000014 0.0002941 0.0000014 0.0002941 0.9999986 -0.0002941
224 0.9999985 -0.0003075 0.0000015 0.0003075 0.0000015 0.0003075 0.9999985 -0.0003075
234 0.9999984 -0.0003216 0.0000016 0.0003216 0.0000016 0.0003216 0.9999984 -0.0003216
245 0.9999984 -0.0003363 0.0000016 0.0003363 0.0000016 0.0003363 0.9999984 -0.0003363
256 0.9999983 -0.0003516 0.0000017 0.0003516 0.0000017 0.0003516 0.9999983 -0.0003516
268 0.9999982 -0.0003677 0.0000018 0.0003677 0.0000018 0.0003677 0.9999982 -0.0003677
280 0.9999982 -0.0003845 0.0000018 0.0003845 0.0000018 0.0003845 0.9999982 -0.0003845
293 0.9999981 -0.0004021 0.0000019 0.0004021 0.0000019 0.0004021 0.9999981 -0.0004021
306 0.9999980 -0.0004204 0.0000020 0.0004204 0.0000020 0.0004204 0.9999980 -0.0004204
320 0.9999979 -0.0004396 0.0000021 0.0004396 0.0000021 0.0004396 0.9999979 -0.0004396
335 0.9999978 -0.0004597 0.0000022 0.0004597 0.0000022 0.0004597 0.9999978 -0.0004597
350 0.9999977 -0.0004807 0.0000023 0.0004807 0.0000023 0.0004807 0.9999977 -0.0004807
366 0.9999976 -0.0005027 0.0000024 0.0005027 0.0000024 0.0005027 0.9999976 -0.0005027
383 0.9999975 -0.0005257 0.0000025 0.0005257 0.0000025 0.0005257 0.9999975 -0.0005257
401 0.9999974 -0.0005497 0.0000026 0.0005497 0.0000026 0.0005497 0.9999974 -0.0005497
419 0.9999972 -0.0005748 0.0000028 0.0005748 0.0000028 0.0005748 0.9999972 -0.0005748
438 0.9999971 -0.0006011 0.0000029 0.0006011 0.0000029 0.0006011 0.9999971 -0.0006011
458 0.9999969 -0.0006286 0.0000031 0.0006286 0.0000031 0.0006286 0.9999969 -0.0006286
479 0.9999968 -0.0006573 0.0000032 0.0006573 0.0000032 0.0006573 0.9999968 -0.0006573
501 0.9999966 -0.0006873 0.0000034 0.0006873 0.0000034 0.0006873 0.9999966 -0.0006873
524 0.9999964 -0.0007187 0.0000036 0.0007187 0.0000036 0.0007187 0.9999964 -0.0007187
548 0.9999962 -0.0007515 0.0000038 0.0007515 0.0000038 0.0007515 0.9999962 -0.0007515
573 0.9999960 -0.0007859 0.0000040 0.0007859 0.0000040 0.0007859 0.9999960 -0.0007859
600 0.9999957 -0.0008218 0.0000043 0.0008218 0.0000043 0.0008218 0.9999957 -0.0008218
627 0.9999955 -0.0008593 0.0000045 0.0008593 0.0000045 0.0008593 0.9999955 -0.0008593
656 0.9999952 -0.0008986 0.0000048 0.0008986 0.0000048 0.0008986 0.9999952 -0.0008986
686 0.9999949 -0.0009396 0.0000051 0.0009396 0.0000051 0.0009396 0.9999949 -0.0009396
717 0.9999946 -0.0009825 0.0000054 0.0009825 0.0000054 0.0009825 0.9999946 -0.0009825
750 0.9999942 -0.0010273 0.0000058 0.0010273 0.0000058 0.0010273 0.9999942 -0.0010273
784 0.9999939 -0.0010742 0.0000061 0.0010742 0.0000061 0.0010742 0.9999939 -0.0010742
820 0.9999935 -0.0011233 0.0000065 0.0011233 0.0000065 0.0011233 0.9999935 -0.0011233
858 0.9999931 -0.0011746 0.0000069 0.0011746 0.0000069 0.0011746 0.9999931 -0.0011746
897 0.9999927 -0.0012282 0.0000073 0.0012282 0.0000073 0.0012282 0.9999927 -0.0012282
938 0.9999923 -0.0012842 0.0000077 0.0012842 0.0000077 0.0012842 0.9999923 -0.0012842
981 0.9999918 -0.0013428 0.0000082 0.0013428 0.0000082 0.0013428 0.9999918 -0.0013428
1026 0.9999913 -0.0014041 0.0000087 0.0014041 0.0000087 0.0014041 0.9999913 -0.0014041
1073 0.9999908 -0.0014681 0.0000092 0.0014681 0.0000092 0.0014681 0.9999908 -0.0014681
1122 0.9999902 -0.0015351 0.0000098 0.0015351 0.0000098 0.0015351 0.9999902 -0.0015351
1174 0.9999897 -0.0016052 0.0000103 0.0016052 0.0000103 0.0016052 0.9999897 -0.0016052
1227 0.9999890 -0.0016784 0.0000110 0.0016784 0.0000110 0.0016784 0.9999890 -0.0016784
1283 0.9999884 -0.0017550 0.0000116 0.0017550 0.0000116 0.0017550 0.9999884 -0.0017550
1342 0.9999877 -0.0018350 0.0000123 0.0018350 0.0000123 0.0018350 0.9999877 -0.0018350
1404 0.9999870 -0.0019188 0.0000130 0.0019188 0.0000130 0.0019188 0.9999870 -0.0019188
1468 0.9999862 -0.0020063 0.0000138 0.0020063 0.0000138 0.0020063 0.9999862 -0.0020063
1535 0.9999854 -0.0020978 0.0000146 0.0020978 0.0000146 0.0020978 0.9999854 -0.0020978
1606 0.9999846 -0.0021936 0.0000154 0.0021936 0.0000154 0.0021936 0.9999846 -0.0021936
1679 0.9999837 -0.0022936 0.0000163 0.0022936 0.0000163 0.0022936 0.9999837 -0.0022936
1756 0.9999827 -0.0023983 0.0000173 0.0023983 0.0000173 0.0023983 0.9999827 -0.0023983
1836 0.9999817 -0.0025078 0.0000183 0.0025078 0.0000183 0.0025078 0.9999817 -0.0025078
1920 0.9999807 -0.0026222 0.0000193 0.0026222 0.0000193 0.0026222 0.9999807 -0.0026222
2008 0.9999795 -0.0027419 0.0000205 0.0027419 0.0000205 0.0027419 0.9999795 -0.0027419
2100 0.9999783 -0.0028670 0.0000217 0.0028670 0.0000217 0.0028670 0.9999783 -0.0028670
2196 0.9999770 -0.0029979 0.0000230 0.0029979 0.0000230 0.0029979 0.9999770 -0.0029979
2297 0.9999756 -0.0031348 0.0000244 0.0031348 0.0000244 0.0031348 0.9999756 -0.0031348
2402 0.9999741 -0.0032779 0.0000259 0.0032779 0.0000259 0.0032779 0.9999741 -0.0032779
2512 0.9999725 -0.0034276 0.0000275 0.0034276 0.0000275 0.0034276 0.9999725 -0.0034276
2627 0.9999707 -0.0035841 0.0000293 0.0035841 0.0000293 0.0035841 0.9999707 -0.0035841
2748 0.9999689 -0.0037478 0.0000311 0.0037478 0.0000311 0.0037478 0.9999689 -0.0037478
2873 0.9999668 -0.0039190 0.0000332 0.0039190 0.0000332 0.0039190 0.9999668 -0.0039190
3005 0.9999646 -0.0040980 0.0000354 0.0040980 0.0000354 0.0040980 0.9999646 -0.0040980
3143 0.9999623 -0.0042851 0.0000377 0.0042851 0.0000377 0.0042851 0.9999623 -0.0042851
3287 0.9999597 -0.0044809 0.0000403 0.0044809 0.0000403 0.0044809 0.9999597 -0.0044809
3437 0.9999570 -0.0046855 0.0000430 0.0046855 0.0000430 0.0046855 0.9999570 -0.0046855
3594 0.9999540 -0.0048996 0.0000460 0.0048996 0.0000460 0.0048996 0.9999540 -0.0048996
3759 0.9999507 -0.0051234 0.0000493 0.0051234 0.0000493 0.0051234 0.9999507 -0.0051234
3931 0.9999472 -0.0053574 0.0000528 0.0053574 0.0000528 0.0053574 0.9999472 -0.0053574
4111 0.9999433 -0.0056022 0.0000567 0.0056022 0.0000567 0.0056022 0.9999433 -0.0056022
4299 0.9999392 -0.0058581 0.0000608 0.0058581 0.0000608 0.0058581 0.9999392 -0.0058581
4496 0.9999346 -0.0061257 0.0000654 0.0061257 0.0000654 0.0061257 0.9999346 -0.0061257
4702 0.9999297 -0.0064055 0.0000703 0.0064055 0.0000703 0.0064055 0.9999297 -0.0064055
4918 0.9999244 -0.0066980 0.0000756 0.0066980 0.0000756 0.0066980 0.9999244 -0.0066980
5143 0.9999186 -0.0070040 0.0000814 0.0070040 0.0000814 0.0070040 0.9999186 -0.0070040
5378 0.9999123 -0.0073238 0.0000877 0.0073238 0.0000877 0.0073238 0.9999123 -0.0073238
5625 0.9999055 -0.0076583 0.0000945 0.0076583 0.0000945 0.0076583 0.9999055 -0.0076583
5882 0.9998981 -0.0080080 0.0001019 0.0080080 0.0001019 0.0080080 0.9998981 -0.0080080
6151 0.9998900 -0.0083736 0.0001100 0.0083736 0.0001100 0.0083736 0.9998900 -0.0083736
6433 0.9998813 -0.0087559 0.0001187 0.0087559 0.0001187 0.0087559 0.9998813 -0.0087559
6728 0.9998718 -0.0091555 0.0001282 0.0091555 0.0001282 0.0091555 0.9998718 -0.0091555
7036 0.9998615 -0.0095734 0.0001385 0.0095734 0.0001385 0.0095734 0.9998615 -0.0095734
7358 0.9998504 -0.0100103 0.0001496 0.0100103 0.0001496 0.0100103 0.9998504 -0.0100103
7695 0.9998383 -0.0104671 0.0001617 0.0104671 0.0001617 0.0104671 0.9998383 -0.0104671
8047 0.9998252 -0.0109447 0.0001748 0.0109447 0.0001748 0.0109447 0.9998252 -0.0109447
8416 0.9998109 -0.0114440 0.0001891 0.0114440 0.0001891 0.0114440 0.9998109 -0.0114440
8801 0.9997955 -0.0119660 0.0002045 0.0119660 0.0002045 0.0119660 0.9997955 -0.0119660
9204 0.9997788 -0.0125118 0.0002212 0.0125118 0.0002212 0.0125118 0.9997788 -0.0125118
9626 0.9997607 -0.0130824 0.0002393 0.0130824 0.0002393 0.0130824 0.9997607 -0.0130824
10066 0.9997411 -0.0136789 0.0002589 0.0136789 0.0002589 0.0136789 0.9997411 -0.0136789
10527 0.9997199 -0.0143026 0.0002801 0.0143026 0.0002801 0.0143026 0.9997199 -0.0143026
11009 0.9996968 -0.0149547 0.0003032 0.0149547 0.0003032 0.0149547 0.9996968 -0.0149547
11514 0.9996718 -0.0156364 0.0003282 0.0156364 0.0003282 0.0156364 0.9996718 -0.0156364
12041 0.9996448 -0.0163491 0.0003552 0.0163491 0.0003552 0.0163491 0.9996448 -0.0163491
12592 0.9996154 -0.0170943 0.0003846 0.0170943 0.0003846 0.0170943 0.9996154 -0.0170943
13169 0.9995836 -0.0178733 0.0004164 0.0178733 0.0004164 0.0178733 0.9995836 -0.0178733
13772 0.9995491 -0.0186878 0.0004509 0.0186878 0.0004509 0.0186878 0.9995491 -0.0186878
14402 0.9995116 -0.0195394 0.0004884 0.0195394 0.0004884 0.0195394 0.9995116 -0.0195394
15062 0.9994709 -0.0204297 0.0005291 0.0204297 0.0005291 0.0204297 0.9994709 -0.0204297
15752 0.9994267 -0.0213606 0.0005733 0.0213606 0.0005733 0.0213606 0.9994267 -0.0213606
16473 0.9993787 -0.0223338 0.0006213 0.0223338 0.0006213 0.0223338 0.9993787 -0.0223338
17227 0.9993266 -0.0233513 0.0006734 0.0233513 0.0006734 0.0233513 0.9993266 -0.0233513
18016 0.9992699 -0.0244151 0.0007301 0.0244151 0.0007301 0.0244151 0.9992699 -0.0244151
18841 0.9992082 -0.0255273 0.0007918 0.0255273 0.0007918 0.0255273 0.9992082 -0.0255273
19704 0.9991411 -0.0266901 0.0008589 0.0266901 0.0008589 0.0266901 0.9991411 -0.0266901
20606 0.9990680 -0.0279058 0.0009320 0.0279058 0.0009320 0.0279058 0.9990680 -0.0279058
21550 0.9989885 -0.0291768 0.0010115 0.0291768 0.0010115 0.0291768 0.9989885 -0.0291768
22537 0.9989018 -0.0305056 0.0010982 0.0305056 0.0010982 0.0305056 0.9989018 -0.0305056
23569 0.9988074 -0.0318947 0.0011926 0.0318947 0.0011926 0.0318947 0.9988074 -0.0318947
24648 0.9987045 -0.0333468 0.0012955 0.0333468 0.0012955 0.0333468 0.9987045 -0.0333468
25777 0.9985923 -0.0348649 0.0014077 0.0348649 0.0014077 0.0348649 0.9985923 -0.0348649
26957 0.9984699 -0.0364517 0.0015301 0.0364517 0.0015301 0.0364517 0.9984699 -0.0364517
28191 0.9983365 -0.0381105 0.0016635 0.0381105 0.0016635 0.0381105 0.9983365 -0.0381105
29482 0.9981909 -0.0398443 0.0018091 0.0398443 0.0018091 0.0398443 0.9981909 -0.0398443
30832 0.9980321 -0.0416565 0.0019679 0.0416565 0.0019679 0.0416565 0.9980321 -0.0416565
32244 0.9978588 -0.0435506 0.0021412 0.0435506 0.0021412 0.0435506 0.9978588 -0.0435506
33721 0.9976697 -0.0455300 0.0023303 0.0455300 0.0023303 0.0455300 0.9976697 -0.0455300
35265 0.9974633 -0.0475986 0.0025367 0.0475986 0.0025367 0.0475986 0.9974633 -0.0475986
36880 0.9972380 -0.0497602 0.0027620 0.0497602 0.0027620 0.0497602 0.9972380 -0.0497602
38569 0.9969921 -0.0520188 0.0030079 0.0520188 0.0030079 0.0520188 0.9969921 -0.0520188
40335 0.9967238 -0.0543786 0.0032762 0.0543786 0.0032762 0.0543786 0.9967238 -0.0543786
42182 0.9964309 -0.0568440 0.0035691 0.0568440 0.0035691 0.0568440 0.9964309 -0.0568440
44113 0.9961113 -0.0594193 0.0038887 0.0594193 0.0038887 0.0594193 0.9961113 -0.0594193
46134 0.9957625 -0.0621093 0.0042375 0.0621093 0.0042375 0.0621093 0.9957625 -0.0621093
48246 0.9953818 -0.0649186 0.0046182 0.0649186 0.0046182 0.0649186 0.9953818 -0.0649186
50455 0.9949665 -0.0678524 0.0050335 0.0678524 0.0050335 0.0678524 0.9949665 -0.0678524
52766 0.9945134 -0.0709157 0.0054866 0.0709157 0.0054866 0.0709157 0.9945134 -0.0709157
55182 0.9940190 -0.0741138 0.0059810 0.0741138 0.0059810 0.0741138 0.9940190 -0.0741138
57709 0.9934799 -0.0774521 0.0065201 0.0774521 0.0065201 0.0774521 0.9934799 -0.0774521
60352 0.9928918 -0.0809362 0.0071082 0.0809362 0.0071082 0.0809362 0.9928918 -0.0809362
63115 0.9922505 -0.0845719 0.0077495 0.0845719 0.0077495 0.0845719 0.9922505 -0.0845719
66005 0.9915514 -0.0883651 0.0084486 0.0883651 0.0084486 0.0883651 0.9915514 -0.0883651
69028 0.9907892 -0.0923218 0.0092108 0.0923218 0.0092108 0.0923218 0.9907892 -0.0923218
72189 0.9899586 -0.0964482 0.0100414 0.0964482 0.0100414 0.0964482 0.9899586 -0.0964482
75495 0.9890534 -0.1007505 0.0109466 0.1007505 0.0109466 0.1007505 0.9890534 -0.1007505
78952 0.9880671 -0.1052352 0.0119329 0.1052352 0.0119329 0.1052352 0.9880671 -0.1052352
82567 0.9869929 -0.1099087 0.0130071 0.1099087 0.0130071 0.1099087 0.9869929 -0.1099087
86348 0.9858229 -0.1147776 0.0141771 0.1147776 0.0141771 0.1147776 0.9858229 -0.1147776
90302 0.9845491 -0.1198484 0.0154509 0.1198484 0.0154509 0.1198484 0.9845491 -0.1198484
94437 0.9831625 -0.1251277 0.0168375 0.1251277 0.0168375 0.1251277 0.9831625 -0.1251277
98762 0.9816534 -0.1306221 0.0183466 0.1306221 0.0183466 0.1306221 0.9816534 -0.1306221
103284 0.9800115 -0.1363380 0.0199885 0.1363380 0.0199885 0.1363380 0.9800115 -0.1363380
108014 0.9782255 -0.1422818 0.0217745 0.1422818 0.0217745 0.1422818 0.9782255 -0.1422818
112960 0.9762834 -0.1484595 0.0237166 0.1484595 0.0237166 0.1484595 0.9762834 -0.1484595
118133 0.9741722 -0.1548772 0.0258278 0.1548772 0.0258278 0.1548772 0.9741722 -0.1548772
123542 0.9718779 -0.1615402 0.0281221 0.1615402 0.0281221 0.1615402 0.9718779 -0.1615402
129199 0.9693855 -0.1684538 0.0306145 0.1684538 0.0306145 0.1684538 0.9693855 -0.1684538
135116 0.9666789 -0.1756225 0.0333211 0.1756225 0.0333211 0.1756225 0.9666789 -0.1756225
141303 0.9637410 -0.1830503 0.0362590 0.1830503 0.0362590 0.1830503 0.9637410 -0.1830503
147774 0.9605534 -0.1907403 0.0394466 0.1907403 0.0394466 0.1907403 0.9605534 -0.1907403
154540 0.9570966 -0.1986946 0.0429034 0.1986946 0.0429034 0.1986946 0.9570966 -0.1986946
161617 0.9533499 -0.2069146 0.0466501 0.2069146 0.0466501 0.2069146 0.9533499 -0.2069146
169018 0.9492915 -0.2154000 0.0507085 0.2154000 0.0507085 0.2154000 0.9492915 -0.2154000
176758 0.9448982 -0.2241493 0.0551018 0.2241493 0.0551018 0.2241493 0.9448982 -0.2241493
184852 0.9401458 -0.2331593 0.0598542 0.2331593 0.0598542 0.2331593 0.9401458 -0.2331593
193316 0.9350091 -0.2424249 0.0649909 0.2424249 0.0649909 0.2424249 0.9350091 -0.2424249
202169 0.9294618 -0.2519390 0.0705382 0.2519390 0.0705382 0.2519390 0.9294618 -0.2519390
211427 0.9234765 -0.2616921 0.0765235 0.2616921 0.0765235 0.2616921 0.9234765 -0.2616921
221108 0.9170253 -0.2716722 0.0829747 0.2716722 0.0829747 0.2716722 0.9170253 -0.2716722
231233 0.9100797 -0.2818644 0.0899203 0.2818644 0.0899203 0.2818644 0.9100797 -0.2818644
241822 0.9026107 -0.2922508 0.0973893 0.2922508 0.0973893 0.2922508 0.9026107 -0.2922508
252896 0.8945896 -0.3028101 0.1054104 0.3028101 0.1054104 0.3028101 0.8945896 -0.3028101
264476 0.8859876 -0.3135176 0.1140124 0.3135176 0.1140124 0.3135176 0.8859876 -0.3135176
276587 0.8767766 -0.3243449 0.1232234 0.3243449 0.1232234 0.3243449 0.8767766 -0.3243449
289253 0.8669297 -0.3352595 0.1330703 0.3352595 0.1330703 0.3352595 0.8669297 -0.3352595
302498 0.8564216 -0.3462251 0.1435784 0.3462251 0.1435784 0.3462251 0.8564216 -0.3462251
316350 0.8452287 -0.3572014 0.1547713 0.3572014 0.1547713 0.3572014 0.8452287 -0.3572014
330837 0.8333305 -0.3681437 0.1666695 0.3681437 0.1666695 0.3681437 0.8333305 -0.3681437
345986 0.8207095 -0.3790038 0.1792905 0.3790038 0.1792905 0.3790038 0.8207095 -0.3790038
361830 0.8073521 -0.3897292 0.1926479 0.3897292 0.1926479 0.3897292 0.8073521 -0.3897292
378399 0.7932493 -0.4002643 0.2067507 0.4002643 0.2067507 0.4002643 0.7932493 -0.4002643
395726 0.7783972 -0.4105500 0.2216028 0.4105500 0.2216028 0.4105500 0.7783972 -0.4105500
413847 0.7627977 -0.4205247 0.2372023 0.4205247 0.2372023 0.4205247 0.7627977 -0.4205247
432798 0.7464590 -0.4301248 0.2535410 0.4301248 0.2535410 0.4301248 0.7464590 -0.4301248
452617 0.7293964 -0.4392854 0.2706036 0.4392854 0.2706036 0.4392854 0.7293964 -0.4392854
473344 0.7116321 -0.4479411 0.2883679 0.4479411 0.2883679 0.4479411 0.7116321 -0.4479411
495019 0.6931960 -0.4560271 0.3068040 0.4560271 0.3068040 0.4560271 0.6931960 -0.4560271
517687 0.6741257 -0.4634800 0.3258743 0.4634800 0.3258743 0.4634800 0.6741257 -0.4634800
541393 0.6544666 -0.4702390 0.3455334 0.4702390 0.3455334 0.4702390 0.6544666 -0.4702390
566185 0.6342712 -0.4762470 0.3657288 0.4762470 0.3657288 0.4762470 0.6342712 -0.4762470
592111 0.6135995 -0.4814519 0.3864005 0.4814519 0.3864005 0.4814519 0.6135995 -0.4814519
619225 0.5925177 -0.4858070 0.4074823 0.4858070 0.4074823 0.4858070 0.5925177 -0.4858070
647581 0.5710980 -0.4892728 0.4289020 0.4892728 0.4289020 0.4892728 0.5710980 -0.4892728
677235 0.5494173 -0.4918172 0.4505827 0.4918172 0.4505827 0.4918172 0.5494173 -0.4918172
708247 0.5275565 -0.4934165 0.4724435 0.4934165 0.4724435 0.4934165 0.5275565 -0.4934165
740679 0.5055990 -0.4940558 0.4944010 0.4940558 0.4944010 0.4940558 0.5055990 -0.4940558
774597 0.4836296 -0.4937296 0.5163704 0.4937296 0.5163704 0.4937296 0.4836296 -0.4937296
810067 0.4617332 -0.4924414 0.5382668 0.4924414 0.5382668 0.4924414 0.4617332 -0.4924414
847162 0.4399935 -0.4902040 0.5600065 0.4902040 0.5600065 0.4902040 0.4399935 -0.4902040
885955 0.4184917 -0.4870392 0.5815083 0.4870392 0.5815083 0.4870392 0.4184917 -0.4870392
926525 0.3973056 -0.4829771 0.6026944 0.4829771 0.6026944 0.4829771 0.3973056 -0.4829771
968953 0.3765081 -0.4780554 0.6234919 0.4780554 0.6234919 0.4780554 0.3765081 -0.4780554
1013323 0.3561667 -0.4723188 0.6438333 0.4723188 0.6438333 0.4723188 0.3561667 -0.4723188
1059725 0.3363424 -0.4658178 0.6636576 0.4658178 0.6636576 0.4658178 0.3363424 -0.4658178
1108252 0.3170893 -0.4586081 0.6829107 0.4586081 0.6829107 0.4586081 0.3170893 -0.4586081
1159002 0.2984545 -0.4507490 0.7015455 0.4507490 0.7015455 0.4507490 0.2984545 -0.4507490
1212075 0.2804771 -0.4423026 0.7195229 0.4423026 0.7195229 0.4423026 0.2804771 -0.4423026
1267578 0.2631892 -0.4333329 0.7368108 0.4333329 0.7368108 0.4333329 0.2631892 -0.4333329
1325623 0.2466150 -0.4239044 0.7533850 0.4239044 0.7533850 0.4239044 0.2466150 -0.4239044
1386327 0.2307716 -0.4140817 0.7692284 0.4140817 0.7692284 0.4140817 0.2307716 -0.4140817
1449809 0.2156695 -0.4039281 0.7843305 0.4039281 0.7843305 0.4039281 0.2156695 -0.4039281
1516199 0.2013126 -0.3935052 0.7986874 0.3935052 0.7986874 0.3935052 0.2013126 -0.3935052
1585629 0.1876989 -0.3828723 0.8123011 0.3828723 0.8123011 0.3828723 0.1876989 -0.3828723
1658239 0.1748215 -0.3720856 0.8251785 0.3720856 0.8251785 0.3720856 0.1748215 -0.3720856
1734173 0.1626684 -0.3611983 0.8373316 0.3611983 0.8373316 0.3611983 0.1626684 -0.3611983
1813585 0.1512238 -0.3502595 0.8487762 0.3502595 0.8487762 0.3502595 0.1512238 -0.3502595
1896632 0.1404686 -0.3393148 0.8595314 0.3393148 0.8595314 0.3393148 0.1404686 -0.3393148
1983483 0.1303807 -0.3284059 0.8696193 0.3284059 0.8696193 0.3284059 0.1303807 -0.3284059
2074311 0.1209356 -0.3175702 0.8790644 0.3175702 0.8790644 0.3175702 0.1209356 -0.3175702
