!Murata Part Number: GRM319B11E684KA01
!These Parameters are Measured in Series Mode Connection
!Data Generated on Mar 30, 2021
!       o--ll--o
!Port1            Port2
!       o------o
!Operation Temp=25[degC], DC Bias Voltage=0[V]
!Freq. Start=100[Hz] Stop=6[GHz] 401[Steps]
# Hz S RI R 50
!Freq.(Hz) S11(Real) S11(Imag) S21(Real) S21(Imag) S12(Real) S12(Imag) S22(Real) S22(Imag)
100 0.9980910 -0.0408474 0.0019090 0.0408474 0.0019090 0.0408474 0.9980910 -0.0408474
105 0.9979248 -0.0427039 0.0020752 0.0427039 0.0020752 0.0427039 0.9979248 -0.0427039
109 0.9977436 -0.0446441 0.0022564 0.0446441 0.0022564 0.0446441 0.9977436 -0.0446441
114 0.9975458 -0.0466718 0.0024542 0.0466718 0.0024542 0.0466718 0.9975458 -0.0466718
120 0.9973301 -0.0487907 0.0026699 0.0487907 0.0026699 0.0487907 0.9973301 -0.0487907
125 0.9970947 -0.0510048 0.0029053 0.0510048 0.0029053 0.0510048 0.9970947 -0.0510048
131 0.9968379 -0.0533182 0.0031621 0.0533182 0.0031621 0.0533182 0.9968379 -0.0533182
137 0.9965577 -0.0557352 0.0034423 0.0557352 0.0034423 0.0557352 0.9965577 -0.0557352
143 0.9962520 -0.0582601 0.0037480 0.0582601 0.0037480 0.0582601 0.9962520 -0.0582601
150 0.9959185 -0.0608975 0.0040815 0.0608975 0.0040815 0.0608975 0.9959185 -0.0608975
156 0.9955547 -0.0636522 0.0044453 0.0636522 0.0044453 0.0636522 0.9955547 -0.0636522
164 0.9951578 -0.0665291 0.0048422 0.0665291 0.0048422 0.0665291 0.9951578 -0.0665291
171 0.9947249 -0.0695331 0.0052751 0.0695331 0.0052751 0.0695331 0.9947249 -0.0695331
179 0.9942527 -0.0726697 0.0057473 0.0726697 0.0057473 0.0726697 0.9942527 -0.0726697
187 0.9937378 -0.0759441 0.0062622 0.0759441 0.0062622 0.0759441 0.9937378 -0.0759441
196 0.9931763 -0.0793619 0.0068237 0.0793619 0.0068237 0.0793619 0.9931763 -0.0793619
205 0.9925642 -0.0829289 0.0074358 0.0829289 0.0074358 0.0829289 0.9925642 -0.0829289
214 0.9918968 -0.0866509 0.0081032 0.0866509 0.0081032 0.0866509 0.9918968 -0.0866509
224 0.9911694 -0.0905340 0.0088306 0.0905340 0.0088306 0.0905340 0.9911694 -0.0905340
234 0.9903766 -0.0945842 0.0096234 0.0945842 0.0096234 0.0945842 0.9903766 -0.0945842
245 0.9895127 -0.0988080 0.0104873 0.0988080 0.0104873 0.0988080 0.9895127 -0.0988080
256 0.9885714 -0.1032118 0.0114286 0.1032118 0.0114286 0.1032118 0.9885714 -0.1032118
268 0.9875460 -0.1078020 0.0124540 0.1078020 0.0124540 0.1078020 0.9875460 -0.1078020
280 0.9864293 -0.1125854 0.0135707 0.1125854 0.0135707 0.1125854 0.9864293 -0.1125854
293 0.9852131 -0.1175684 0.0147869 0.1175684 0.0147869 0.1175684 0.9852131 -0.1175684
306 0.9838889 -0.1227579 0.0161111 0.1227579 0.0161111 0.1227579 0.9838889 -0.1227579
320 0.9824475 -0.1281606 0.0175525 0.1281606 0.0175525 0.1281606 0.9824475 -0.1281606
335 0.9808787 -0.1337829 0.0191213 0.1337829 0.0191213 0.1337829 0.9808787 -0.1337829
350 0.9791717 -0.1396315 0.0208283 0.1396315 0.0208283 0.1396315 0.9791717 -0.1396315
366 0.9773147 -0.1457126 0.0226853 0.1457126 0.0226853 0.1457126 0.9773147 -0.1457126
383 0.9752951 -0.1520325 0.0247049 0.1520325 0.0247049 0.1520325 0.9752951 -0.1520325
401 0.9730994 -0.1585969 0.0269006 0.1585969 0.0269006 0.1585969 0.9730994 -0.1585969
419 0.9707129 -0.1654113 0.0292871 0.1654113 0.0292871 0.1654113 0.9707129 -0.1654113
438 0.9681198 -0.1724805 0.0318802 0.1724805 0.0318802 0.1724805 0.9681198 -0.1724805
458 0.9653036 -0.1798090 0.0346964 0.1798090 0.0346964 0.1798090 0.9653036 -0.1798090
479 0.9622462 -0.1874003 0.0377538 0.1874003 0.0377538 0.1874003 0.9622462 -0.1874003
501 0.9589287 -0.1952571 0.0410713 0.1952571 0.0410713 0.1952571 0.9589287 -0.1952571
524 0.9553306 -0.2033812 0.0446694 0.2033812 0.0446694 0.2033812 0.9553306 -0.2033812
548 0.9514307 -0.2117731 0.0485693 0.2117731 0.0485693 0.2117731 0.9514307 -0.2117731
573 0.9472062 -0.2204320 0.0527938 0.2204320 0.0527938 0.2204320 0.9472062 -0.2204320
600 0.9426334 -0.2293555 0.0573666 0.2293555 0.0573666 0.2293555 0.9426334 -0.2293555
627 0.9376873 -0.2385395 0.0623127 0.2385395 0.0623127 0.2385395 0.9376873 -0.2385395
656 0.9323420 -0.2479779 0.0676580 0.2479779 0.0676580 0.2479779 0.9323420 -0.2479779
686 0.9265706 -0.2576624 0.0734294 0.2576624 0.0734294 0.2576624 0.9265706 -0.2576624
717 0.9203452 -0.2675823 0.0796548 0.2675823 0.0796548 0.2675823 0.9203452 -0.2675823
750 0.9136376 -0.2777239 0.0863624 0.2777239 0.0863624 0.2777239 0.9136376 -0.2777239
784 0.9064188 -0.2880711 0.0935812 0.2880711 0.0935812 0.2880711 0.9064188 -0.2880711
820 0.8986597 -0.2986041 0.1013403 0.2986041 0.1013403 0.2986041 0.8986597 -0.2986041
858 0.8903315 -0.3093001 0.1096685 0.3093001 0.1096685 0.3093001 0.8903315 -0.3093001
897 0.8814055 -0.3201324 0.1185945 0.3201324 0.1185945 0.3201324 0.8814055 -0.3201324
938 0.8718539 -0.3310708 0.1281461 0.3310708 0.1281461 0.3310708 0.8718539 -0.3310708
981 0.8616505 -0.3420808 0.1383495 0.3420808 0.1383495 0.3420808 0.8616505 -0.3420808
1026 0.8507704 -0.3531241 0.1492296 0.3531241 0.1492296 0.3531241 0.8507704 -0.3531241
1073 0.8391912 -0.3641583 0.1608088 0.3641583 0.1608088 0.3641583 0.8391912 -0.3641583
1122 0.8268936 -0.3751369 0.1731064 0.3751369 0.1731064 0.3751369 0.8268936 -0.3751369
1174 0.8138614 -0.3860094 0.1861386 0.3860094 0.1861386 0.3860094 0.8138614 -0.3860094
1227 0.8000829 -0.3967217 0.1999171 0.3967217 0.1999171 0.3967217 0.8000829 -0.3967217
1283 0.7855510 -0.4072162 0.2144490 0.4072162 0.2144490 0.4072162 0.7855510 -0.4072162
1342 0.7702642 -0.4174323 0.2297358 0.4174323 0.2297358 0.4174323 0.7702642 -0.4174323
1404 0.7542267 -0.4273070 0.2457733 0.4273070 0.2457733 0.4273070 0.7542267 -0.4273070
1468 0.7374497 -0.4367754 0.2625503 0.4367754 0.2625503 0.4367754 0.7374497 -0.4367754
1535 0.7199511 -0.4457716 0.2800489 0.4457716 0.2800489 0.4457716 0.7199511 -0.4457716
1606 0.7017567 -0.4542297 0.2982433 0.4542297 0.2982433 0.4542297 0.7017567 -0.4542297
1679 0.6828995 -0.4620843 0.3171005 0.4620843 0.3171005 0.4620843 0.6828995 -0.4620843
1756 0.6634206 -0.4692722 0.3365794 0.4692722 0.3365794 0.4692722 0.6634206 -0.4692722
1836 0.6433689 -0.4757330 0.3566311 0.4757330 0.3566311 0.4757330 0.6433689 -0.4757330
1920 0.6228006 -0.4814106 0.3771994 0.4814106 0.3771994 0.4814106 0.6228006 -0.4814106
2008 0.6017792 -0.4862539 0.3982208 0.4862539 0.3982208 0.4862539 0.6017792 -0.4862539
2100 0.5803745 -0.4902183 0.4196255 0.4902183 0.4196255 0.4902183 0.5803745 -0.4902183
2196 0.5586620 -0.4932662 0.4413380 0.4932662 0.4413380 0.4932662 0.5586620 -0.4932662
2297 0.5367217 -0.4953684 0.4632783 0.4953684 0.4632783 0.4953684 0.5367217 -0.4953684
2402 0.5146374 -0.4965042 0.4853626 0.4965042 0.4853626 0.4965042 0.5146374 -0.4965042
2512 0.4924951 -0.4966623 0.5075049 0.4966623 0.5075049 0.4966623 0.4924951 -0.4966623
2627 0.4703815 -0.4958410 0.5296185 0.4958410 0.5296185 0.4958410 0.4703815 -0.4958410
2748 0.4483832 -0.4940480 0.5516168 0.4940480 0.5516168 0.4940480 0.4483832 -0.4940480
2873 0.4265850 -0.4913006 0.5734150 0.4913006 0.5734150 0.4913006 0.4265850 -0.4913006
3005 0.4050686 -0.4876252 0.5949314 0.4876252 0.5949314 0.4876252 0.4050686 -0.4876252
3143 0.3839114 -0.4830563 0.6160886 0.4830563 0.6160886 0.4830563 0.3839114 -0.4830563
3287 0.3631858 -0.4776364 0.6368142 0.4776364 0.6368142 0.4776364 0.3631858 -0.4776364
3437 0.3429576 -0.4714146 0.6570424 0.4714146 0.6570424 0.4714146 0.3429576 -0.4714146
3594 0.3232861 -0.4644458 0.6767139 0.4644458 0.6767139 0.4644458 0.3232861 -0.4644458
3759 0.3042228 -0.4567891 0.6957772 0.4567891 0.6957772 0.4567891 0.3042228 -0.4567891
3931 0.2858116 -0.4485076 0.7141884 0.4485076 0.7141884 0.4485076 0.2858116 -0.4485076
4111 0.2680885 -0.4396663 0.7319115 0.4396663 0.7319115 0.4396663 0.2680885 -0.4396663
4299 0.2510816 -0.4303316 0.7489184 0.4303316 0.7489184 0.4303316 0.2510816 -0.4303316
4496 0.2348113 -0.4205699 0.7651887 0.4205699 0.7651887 0.4205699 0.2348113 -0.4205699
4702 0.2192908 -0.4104470 0.7807092 0.4104470 0.7807092 0.4104470 0.2192908 -0.4104470
4918 0.2045263 -0.4000269 0.7954737 0.4000269 0.7954737 0.4000269 0.2045263 -0.4000269
5143 0.1905178 -0.3893716 0.8094822 0.3893716 0.8094822 0.3893716 0.1905178 -0.3893716
5378 0.1772596 -0.3785398 0.8227404 0.3785398 0.8227404 0.3785398 0.1772596 -0.3785398
5625 0.1647410 -0.3675870 0.8352590 0.3675870 0.8352590 0.3675870 0.1647410 -0.3675870
5882 0.1529467 -0.3565651 0.8470533 0.3565651 0.8470533 0.3565651 0.1529467 -0.3565651
6151 0.1418579 -0.3455217 0.8581421 0.3455217 0.8581421 0.3455217 0.1418579 -0.3455217
6433 0.1314528 -0.3345006 0.8685472 0.3345006 0.8685472 0.3345006 0.1314528 -0.3345006
6728 0.1217068 -0.3235412 0.8782932 0.3235412 0.8782932 0.3235412 0.1217068 -0.3235412
7036 0.1125938 -0.3126790 0.8874062 0.3126790 0.8874062 0.3126790 0.1125938 -0.3126790
7358 0.1040861 -0.3019453 0.8959139 0.3019453 0.8959139 0.3019453 0.1040861 -0.3019453
7695 0.0961552 -0.2913676 0.9038448 0.2913676 0.9038448 0.2913676 0.0961552 -0.2913676
8047 0.0887720 -0.2809696 0.9112280 0.2809696 0.9112280 0.2809696 0.0887720 -0.2809696
8416 0.0819073 -0.2707717 0.9180927 0.2707717 0.9180927 0.2707717 0.0819073 -0.2707717
8801 0.0755323 -0.2607908 0.9244677 0.2607908 0.9244677 0.2607908 0.0755323 -0.2607908
9204 0.0696185 -0.2510411 0.9303815 0.2510411 0.9303815 0.2510411 0.0696185 -0.2510411
9626 0.0641378 -0.2415338 0.9358622 0.2415338 0.9358622 0.2415338 0.0641378 -0.2415338
10066 0.0590633 -0.2322777 0.9409367 0.2322777 0.9409367 0.2322777 0.0590633 -0.2322777
10527 0.0543689 -0.2232795 0.9456311 0.2232795 0.9456311 0.2232795 0.0543689 -0.2232795
11009 0.0500296 -0.2145436 0.9499704 0.2145436 0.9499704 0.2145436 0.0500296 -0.2145436
11514 0.0460213 -0.2060729 0.9539787 0.2060729 0.9539787 0.2060729 0.0460213 -0.2060729
12041 0.0423214 -0.1978686 0.9576786 0.1978686 0.9576786 0.1978686 0.0423214 -0.1978686
12592 0.0389083 -0.1899304 0.9610917 0.1899304 0.9610917 0.1899304 0.0389083 -0.1899304
13169 0.0357615 -0.1822571 0.9642385 0.1822571 0.9642385 0.1822571 0.0357615 -0.1822571
13772 0.0328619 -0.1748462 0.9671381 0.1748462 0.9671381 0.1748462 0.0328619 -0.1748462
14402 0.0301913 -0.1676945 0.9698087 0.1676945 0.9698087 0.1676945 0.0301913 -0.1676945
15062 0.0277329 -0.1607980 0.9722671 0.1607980 0.9722671 0.1607980 0.0277329 -0.1607980
15752 0.0254708 -0.1541520 0.9745292 0.1541520 0.9745292 0.1541520 0.0254708 -0.1541520
16473 0.0233901 -0.1477515 0.9766099 0.1477515 0.9766099 0.1477515 0.0233901 -0.1477515
17227 0.0214770 -0.1415908 0.9785230 0.1415908 0.9785230 0.1415908 0.0214770 -0.1415908
18016 0.0197186 -0.1356641 0.9802814 0.1356641 0.9802814 0.1356641 0.0197186 -0.1356641
18841 0.0181030 -0.1299654 0.9818970 0.1299654 0.9818970 0.1299654 0.0181030 -0.1299654
19704 0.0166191 -0.1244882 0.9833809 0.1244882 0.9833809 0.1244882 0.0166191 -0.1244882
20606 0.0152564 -0.1192261 0.9847436 0.1192261 0.9847436 0.1192261 0.0152564 -0.1192261
21550 0.0140054 -0.1141726 0.9859946 0.1141726 0.9859946 0.1141726 0.0140054 -0.1141726
22537 0.0128573 -0.1093211 0.9871427 0.1093211 0.9871427 0.1093211 0.0128573 -0.1093211
23569 0.0118038 -0.1046651 0.9881962 0.1046651 0.9881962 0.1046651 0.0118038 -0.1046651
24648 0.0108373 -0.1001979 0.9891627 0.1001979 0.9891627 0.1001979 0.0108373 -0.1001979
25777 0.0099508 -0.0959132 0.9900492 0.0959132 0.9900492 0.0959132 0.0099508 -0.0959132
26957 0.0091379 -0.0918045 0.9908621 0.0918045 0.9908621 0.0918045 0.0091379 -0.0918045
28191 0.0083924 -0.0878655 0.9916076 0.0878655 0.9916076 0.0878655 0.0083924 -0.0878655
29482 0.0077090 -0.0840900 0.9922910 0.0840900 0.9922910 0.0840900 0.0077090 -0.0840900
30832 0.0070824 -0.0804719 0.9929176 0.0804719 0.9929176 0.0804719 0.0070824 -0.0804719
32244 0.0065081 -0.0770053 0.9934919 0.0770053 0.9934919 0.0770053 0.0065081 -0.0770053
33721 0.0059817 -0.0736844 0.9940183 0.0736844 0.9940183 0.0736844 0.0059817 -0.0736844
35265 0.0054992 -0.0705037 0.9945008 0.0705037 0.9945008 0.0705037 0.0054992 -0.0705037
36880 0.0050570 -0.0674575 0.9949430 0.0674575 0.9949430 0.0674575 0.0050570 -0.0674575
38569 0.0046517 -0.0645406 0.9953483 0.0645406 0.9953483 0.0645406 0.0046517 -0.0645406
40335 0.0042802 -0.0617478 0.9957198 0.0617478 0.9957198 0.0617478 0.0042802 -0.0617478
42182 0.0039397 -0.0590742 0.9960603 0.0590742 0.9960603 0.0590742 0.0039397 -0.0590742
44113 0.0036275 -0.0565149 0.9963725 0.0565149 0.9963725 0.0565149 0.0036275 -0.0565149
46134 0.0033413 -0.0540652 0.9966587 0.0540652 0.9966587 0.0540652 0.0033413 -0.0540652
48246 0.0030789 -0.0517206 0.9969211 0.0517206 0.9969211 0.0517206 0.0030789 -0.0517206
50455 0.0028382 -0.0494768 0.9971618 0.0494768 0.9971618 0.0494768 0.0028382 -0.0494768
52766 0.0026174 -0.0473296 0.9973826 0.0473296 0.9973826 0.0473296 0.0026174 -0.0473296
55182 0.0024149 -0.0452749 0.9975851 0.0452749 0.9975851 0.0452749 0.0024149 -0.0452749
57709 0.0022290 -0.0433089 0.9977710 0.0433089 0.9977710 0.0433089 0.0022290 -0.0433089
60352 0.0020584 -0.0414278 0.9979416 0.0414278 0.9979416 0.0414278 0.0020584 -0.0414278
63115 0.0019017 -0.0396280 0.9980983 0.0396280 0.9980983 0.0396280 0.0019017 -0.0396280
66005 0.0017578 -0.0379061 0.9982422 0.0379061 0.9982422 0.0379061 0.0017578 -0.0379061
69028 0.0016256 -0.0362586 0.9983744 0.0362586 0.9983744 0.0362586 0.0016256 -0.0362586
72189 0.0015040 -0.0346825 0.9984960 0.0346825 0.9984960 0.0346825 0.0015040 -0.0346825
75495 0.0013923 -0.0331747 0.9986077 0.0331747 0.9986077 0.0331747 0.0013923 -0.0331747
78952 0.0012895 -0.0317323 0.9987105 0.0317323 0.9987105 0.0317323 0.0012895 -0.0317323
82567 0.0011950 -0.0303523 0.9988050 0.0303523 0.9988050 0.0303523 0.0011950 -0.0303523
86348 0.0011080 -0.0290322 0.9988920 0.0290322 0.9988920 0.0290322 0.0011080 -0.0290322
90302 0.0010279 -0.0277693 0.9989721 0.0277693 0.9989721 0.0277693 0.0010279 -0.0277693
94437 0.0009541 -0.0265611 0.9990459 0.0265611 0.9990459 0.0265611 0.0009541 -0.0265611
98762 0.0008861 -0.0254054 0.9991139 0.0254054 0.9991139 0.0254054 0.0008861 -0.0254054
103284 0.0008235 -0.0242998 0.9991765 0.0242998 0.9991765 0.0242998 0.0008235 -0.0242998
108014 0.0007658 -0.0232421 0.9992342 0.0232421 0.9992342 0.0232421 0.0007658 -0.0232421
112960 0.0007126 -0.0222303 0.9992874 0.0222303 0.9992874 0.0222303 0.0007126 -0.0222303
118133 0.0006635 -0.0212623 0.9993365 0.0212623 0.9993365 0.0212623 0.0006635 -0.0212623
123542 0.0006183 -0.0203364 0.9993817 0.0203364 0.9993817 0.0203364 0.0006183 -0.0203364
129199 0.0005766 -0.0194506 0.9994234 0.0194506 0.9994234 0.0194506 0.0005766 -0.0194506
135116 0.0005381 -0.0186033 0.9994619 0.0186033 0.9994619 0.0186033 0.0005381 -0.0186033
141303 0.0005027 -0.0177927 0.9994973 0.0177927 0.9994973 0.0177927 0.0005027 -0.0177927
147774 0.0004699 -0.0170173 0.9995301 0.0170173 0.9995301 0.0170173 0.0004699 -0.0170173
154540 0.0004398 -0.0162755 0.9995602 0.0162755 0.9995602 0.0162755 0.0004398 -0.0162755
161617 0.0004119 -0.0155659 0.9995881 0.0155659 0.9995881 0.0155659 0.0004119 -0.0155659
169018 0.0003862 -0.0148871 0.9996138 0.0148871 0.9996138 0.0148871 0.0003862 -0.0148871
176758 0.0003626 -0.0142378 0.9996374 0.0142378 0.9996374 0.0142378 0.0003626 -0.0142378
184852 0.0003407 -0.0136167 0.9996593 0.0136167 0.9996593 0.0136167 0.0003407 -0.0136167
193316 0.0003205 -0.0130226 0.9996795 0.0130226 0.9996795 0.0130226 0.0003205 -0.0130226
202169 0.0003019 -0.0124542 0.9996981 0.0124542 0.9996981 0.0124542 0.0003019 -0.0124542
211427 0.0002847 -0.0119106 0.9997153 0.0119106 0.9997153 0.0119106 0.0002847 -0.0119106
221108 0.0002689 -0.0113906 0.9997311 0.0113906 0.9997311 0.0113906 0.0002689 -0.0113906
231233 0.0002542 -0.0108931 0.9997458 0.0108931 0.9997458 0.0108931 0.0002542 -0.0108931
241822 0.0002407 -0.0104173 0.9997593 0.0104173 0.9997593 0.0104173 0.0002407 -0.0104173
252896 0.0002281 -0.0099622 0.9997719 0.0099622 0.9997719 0.0099622 0.0002281 -0.0099622
264476 0.0002166 -0.0095268 0.9997834 0.0095268 0.9997834 0.0095268 0.0002166 -0.0095268
276587 0.0002058 -0.0091104 0.9997942 0.0091104 0.9997942 0.0091104 0.0002058 -0.0091104
289253 0.0001959 -0.0087121 0.9998041 0.0087121 0.9998041 0.0087121 0.0001959 -0.0087121
302498 0.0001867 -0.0083310 0.9998133 0.0083310 0.9998133 0.0083310 0.0001867 -0.0083310
316350 0.0001782 -0.0079665 0.9998218 0.0079665 0.9998218 0.0079665 0.0001782 -0.0079665
330837 0.0001703 -0.0076179 0.9998297 0.0076179 0.9998297 0.0076179 0.0001703 -0.0076179
345986 0.0001629 -0.0072843 0.9998371 0.0072843 0.9998371 0.0072843 0.0001629 -0.0072843
361830 0.0001561 -0.0069652 0.9998439 0.0069652 0.9998439 0.0069652 0.0001561 -0.0069652
378399 0.0001497 -0.0066600 0.9998503 0.0066600 0.9998503 0.0066600 0.0001497 -0.0066600
395726 0.0001438 -0.0063680 0.9998562 0.0063680 0.9998562 0.0063680 0.0001438 -0.0063680
413847 0.0001382 -0.0060886 0.9998618 0.0060886 0.9998618 0.0060886 0.0001382 -0.0060886
432798 0.0001330 -0.0058213 0.9998670 0.0058213 0.9998670 0.0058213 0.0001330 -0.0058213
452617 0.0001282 -0.0055655 0.9998718 0.0055655 0.9998718 0.0055655 0.0001282 -0.0055655
473344 0.0001237 -0.0053208 0.9998763 0.0053208 0.9998763 0.0053208 0.0001237 -0.0053208
495019 0.0001195 -0.0050867 0.9998805 0.0050867 0.9998805 0.0050867 0.0001195 -0.0050867
517687 0.0001155 -0.0048626 0.9998845 0.0048626 0.9998845 0.0048626 0.0001155 -0.0048626
541393 0.0001118 -0.0046481 0.9998882 0.0046481 0.9998882 0.0046481 0.0001118 -0.0046481
566185 0.0001084 -0.0044429 0.9998916 0.0044429 0.9998916 0.0044429 0.0001084 -0.0044429
592111 0.0001051 -0.0042465 0.9998949 0.0042465 0.9998949 0.0042465 0.0001051 -0.0042465
619225 0.0001021 -0.0040585 0.9998979 0.0040585 0.9998979 0.0040585 0.0001021 -0.0040585
647581 0.0000993 -0.0038785 0.9999007 0.0038785 0.9999007 0.0038785 0.0000993 -0.0038785
677235 0.0000966 -0.0037062 0.9999034 0.0037062 0.9999034 0.0037062 0.0000966 -0.0037062
708247 0.0000941 -0.0035412 0.9999059 0.0035412 0.9999059 0.0035412 0.0000941 -0.0035412
740679 0.0000918 -0.0033833 0.9999082 0.0033833 0.9999082 0.0033833 0.0000918 -0.0033833
774597 0.0000896 -0.0032321 0.9999104 0.0032321 0.9999104 0.0032321 0.0000896 -0.0032321
810067 0.0000876 -0.0030872 0.9999124 0.0030872 0.9999124 0.0030872 0.0000876 -0.0030872
847162 0.0000857 -0.0029485 0.9999143 0.0029485 0.9999143 0.0029485 0.0000857 -0.0029485
885955 0.0000840 -0.0028156 0.9999160 0.0028156 0.9999160 0.0028156 0.0000840 -0.0028156
926525 0.0000824 -0.0026883 0.9999176 0.0026883 0.9999176 0.0026883 0.0000824 -0.0026883
968953 0.0000808 -0.0025664 0.9999192 0.0025664 0.9999192 0.0025664 0.0000808 -0.0025664
1013323 0.0000795 -0.0024495 0.9999205 0.0024495 0.9999205 0.0024495 0.0000795 -0.0024495
1059725 0.0000782 -0.0023375 0.9999218 0.0023375 0.9999218 0.0023375 0.0000782 -0.0023375
1108252 0.0000770 -0.0022301 0.9999230 0.0022301 0.9999230 0.0022301 0.0000770 -0.0022301
1159002 0.0000759 -0.0021271 0.9999241 0.0021271 0.9999241 0.0021271 0.0000759 -0.0021271
1212075 0.0000749 -0.0020284 0.9999251 0.0020284 0.9999251 0.0020284 0.0000749 -0.0020284
1267578 0.0000740 -0.0019337 0.9999260 0.0019337 0.9999260 0.0019337 0.0000740 -0.0019337
1325623 0.0000732 -0.0018429 0.9999268 0.0018429 0.9999268 0.0018429 0.0000732 -0.0018429
1386327 0.0000725 -0.0017557 0.9999275 0.0017557 0.9999275 0.0017557 0.0000725 -0.0017557
1449809 0.0000718 -0.0016720 0.9999282 0.0016720 0.9999282 0.0016720 0.0000718 -0.0016720
1516199 0.0000712 -0.0015917 0.9999288 0.0015917 0.9999288 0.0015917 0.0000712 -0.0015917
1585629 0.0000707 -0.0015145 0.9999293 0.0015145 0.9999293 0.0015145 0.0000707 -0.0015145
1658239 0.0000702 -0.0014403 0.9999298 0.0014403 0.9999298 0.0014403 0.0000702 -0.0014403
1734173 0.0000699 -0.0013690 0.9999301 0.0013690 0.9999301 0.0013690 0.0000699 -0.0013690
1813585 0.0000695 -0.0013004 0.9999305 0.0013004 0.9999305 0.0013004 0.0000695 -0.0013004
1896632 0.0000693 -0.0012345 0.9999307 0.0012345 0.9999307 0.0012345 0.0000693 -0.0012345
1983483 0.0000691 -0.0011709 0.9999309 0.0011709 0.9999309 0.0011709 0.0000691 -0.0011709
2074311 0.0000689 -0.0011098 0.9999311 0.0011098 0.9999311 0.0011098 0.0000689 -0.0011098
