!Murata Part Number: GRM31CR72A225KA73
!These Parameters are Measured in Series Mode Connection
!Data Generated on Mar 30, 2021
!       o--ll--o
!Port1            Port2
!       o------o
!Operation Temp=25[degC], DC Bias Voltage=0[V]
!Freq. Start=100[Hz] Stop=6[GHz] 401[Steps]
# Hz S RI R 50
!Freq.(Hz) S11(Real) S11(Imag) S21(Real) S21(Imag) S12(Real) S12(Imag) S22(Real) S22(Imag)
100 0.9809232 -0.1348955 0.0190768 0.1348955 0.0190768 0.1348955 0.9809232 -0.1348955
105 0.9792003 -0.1408059 0.0207997 0.1408059 0.0207997 0.1408059 0.9792003 -0.1408059
109 0.9773244 -0.1469515 0.0226756 0.1469515 0.0226756 0.1469515 0.9773244 -0.1469515
114 0.9752826 -0.1533385 0.0247174 0.1533385 0.0247174 0.1533385 0.9752826 -0.1533385
120 0.9730608 -0.1599725 0.0269392 0.1599725 0.0269392 0.1599725 0.9730608 -0.1599725
125 0.9706443 -0.1668589 0.0293557 0.1668589 0.0293557 0.1668589 0.9706443 -0.1668589
131 0.9680169 -0.1740024 0.0319831 0.1740024 0.0319831 0.1740024 0.9680169 -0.1740024
137 0.9651617 -0.1814070 0.0348383 0.1814070 0.0348383 0.1814070 0.9651617 -0.1814070
143 0.9620604 -0.1890761 0.0379396 0.1890761 0.0379396 0.1890761 0.9620604 -0.1890761
150 0.9586938 -0.1970123 0.0413062 0.1970123 0.0413062 0.1970123 0.9586938 -0.1970123
156 0.9550412 -0.2052169 0.0449588 0.2052169 0.0449588 0.2052169 0.9550412 -0.2052169
164 0.9510811 -0.2136902 0.0489189 0.2136902 0.0489189 0.2136902 0.9510811 -0.2136902
171 0.9467905 -0.2224310 0.0532095 0.2224310 0.0532095 0.2224310 0.9467905 -0.2224310
179 0.9421454 -0.2314367 0.0578546 0.2314367 0.0578546 0.2314367 0.9421454 -0.2314367
187 0.9371206 -0.2407027 0.0628794 0.2407027 0.0628794 0.2407027 0.9371206 -0.2407027
196 0.9316901 -0.2502225 0.0683099 0.2502225 0.0683099 0.2502225 0.9316901 -0.2502225
205 0.9258266 -0.2599873 0.0741734 0.2599873 0.0741734 0.2599873 0.9258266 -0.2599873
214 0.9195023 -0.2699861 0.0804977 0.2699861 0.0804977 0.2699861 0.9195023 -0.2699861
224 0.9126886 -0.2802048 0.0873114 0.2802048 0.0873114 0.2802048 0.9126886 -0.2802048
234 0.9053563 -0.2906266 0.0946437 0.2906266 0.0946437 0.2906266 0.9053563 -0.2906266
245 0.8974763 -0.3012313 0.1025237 0.3012313 0.1025237 0.3012313 0.8974763 -0.3012313
256 0.8890193 -0.3119954 0.1109807 0.3119954 0.1109807 0.3119954 0.8890193 -0.3119954
268 0.8799568 -0.3228916 0.1200432 0.3228916 0.1200432 0.3228916 0.8799568 -0.3228916
280 0.8702608 -0.3338888 0.1297392 0.3338888 0.1297392 0.3338888 0.8702608 -0.3338888
293 0.8599048 -0.3449519 0.1400952 0.3449519 0.1400952 0.3449519 0.8599048 -0.3449519
306 0.8488641 -0.3560416 0.1511359 0.3560416 0.1511359 0.3560416 0.8488641 -0.3560416
320 0.8371162 -0.3671145 0.1628838 0.3671145 0.1628838 0.3671145 0.8371162 -0.3671145
335 0.8246420 -0.3781230 0.1753580 0.3781230 0.1753580 0.3781230 0.8246420 -0.3781230
350 0.8114256 -0.3890154 0.1885744 0.3890154 0.1885744 0.3890154 0.8114256 -0.3890154
366 0.7974556 -0.3997364 0.2025444 0.3997364 0.2025444 0.3997364 0.7974556 -0.3997364
383 0.7827256 -0.4102271 0.2172744 0.4102271 0.2172744 0.4102271 0.7827256 -0.4102271
401 0.7672349 -0.4204255 0.2327651 0.4204255 0.2327651 0.4204255 0.7672349 -0.4204255
419 0.7509889 -0.4302672 0.2490111 0.4302672 0.2490111 0.4302672 0.7509889 -0.4302672
438 0.7339999 -0.4396861 0.2660001 0.4396861 0.2660001 0.4396861 0.7339999 -0.4396861
458 0.7162876 -0.4486152 0.2837124 0.4486152 0.2837124 0.4486152 0.7162876 -0.4486152
479 0.6978794 -0.4569872 0.3021206 0.4569872 0.3021206 0.4569872 0.6978794 -0.4569872
501 0.6788108 -0.4647363 0.3211892 0.4647363 0.3211892 0.4647363 0.6788108 -0.4647363
524 0.6591250 -0.4717987 0.3408750 0.4717987 0.3408750 0.4717987 0.6591250 -0.4717987
548 0.6388734 -0.4781136 0.3611266 0.4781136 0.3611266 0.4781136 0.6388734 -0.4781136
573 0.6181151 -0.4836253 0.3818849 0.4836253 0.3818849 0.4836253 0.6181151 -0.4836253
600 0.5969161 -0.4882832 0.4030839 0.4882832 0.4030839 0.4882832 0.5969161 -0.4882832
627 0.5753489 -0.4920438 0.4246511 0.4920438 0.4246511 0.4920438 0.5753489 -0.4920438
656 0.5534915 -0.4948712 0.4465085 0.4948712 0.4465085 0.4948712 0.5534915 -0.4948712
686 0.5314266 -0.4967379 0.4685734 0.4967379 0.4685734 0.4967379 0.5314266 -0.4967379
717 0.5092398 -0.4976257 0.4907602 0.4976257 0.4907602 0.4976257 0.5092398 -0.4976257
750 0.4870186 -0.4975261 0.5129814 0.4975261 0.5129814 0.4975261 0.4870186 -0.4975261
784 0.4648514 -0.4964402 0.5351486 0.4964402 0.5351486 0.4964402 0.4648514 -0.4964402
820 0.4428252 -0.4943790 0.5571748 0.4943790 0.5571748 0.4943790 0.4428252 -0.4943790
858 0.4210252 -0.4913631 0.5789748 0.4913631 0.5789748 0.4913631 0.4210252 -0.4913631
897 0.3995327 -0.4874220 0.6004673 0.4874220 0.6004673 0.4874220 0.3995327 -0.4874220
938 0.3784244 -0.4825934 0.6215756 0.4825934 0.6215756 0.4825934 0.3784244 -0.4825934
981 0.3577713 -0.4769227 0.6422287 0.4769227 0.6422287 0.4769227 0.3577713 -0.4769227
1026 0.3376376 -0.4704617 0.6623624 0.4704617 0.6623624 0.4704617 0.3376376 -0.4704617
1073 0.3180805 -0.4632674 0.6819195 0.4632674 0.6819195 0.4632674 0.3180805 -0.4632674
1122 0.2991492 -0.4554010 0.7008508 0.4554010 0.7008508 0.4554010 0.2991492 -0.4554010
1174 0.2808852 -0.4469268 0.7191148 0.4469268 0.7191148 0.4469268 0.2808852 -0.4469268
1227 0.2633217 -0.4379110 0.7366783 0.4379110 0.7366783 0.4379110 0.2633217 -0.4379110
1283 0.2464845 -0.4284204 0.7535155 0.4284204 0.7535155 0.4284204 0.2464845 -0.4284204
1342 0.2303912 -0.4185217 0.7696088 0.4185217 0.7696088 0.4185217 0.2303912 -0.4185217
1404 0.2150527 -0.4082805 0.7849473 0.4082805 0.7849473 0.4082805 0.2150527 -0.4082805
1468 0.2004729 -0.3977603 0.7995271 0.3977603 0.7995271 0.3977603 0.2004729 -0.3977603
1535 0.1866499 -0.3870221 0.8133501 0.3870221 0.8133501 0.3870221 0.1866499 -0.3870221
1606 0.1735761 -0.3761238 0.8264239 0.3761238 0.8264239 0.3761238 0.1735761 -0.3761238
1679 0.1612393 -0.3651198 0.8387607 0.3651198 0.8387607 0.3651198 0.1612393 -0.3651198
1756 0.1496231 -0.3540605 0.8503769 0.3540605 0.8503769 0.3540605 0.1496231 -0.3540605
1836 0.1387076 -0.3429924 0.8612924 0.3429924 0.8612924 0.3429924 0.1387076 -0.3429924
1920 0.1284702 -0.3319579 0.8715298 0.3319579 0.8715298 0.3319579 0.1284702 -0.3319579
2008 0.1188860 -0.3209952 0.8811140 0.3209952 0.8811140 0.3209952 0.1188860 -0.3209952
2100 0.1099283 -0.3101384 0.8900717 0.3101384 0.8900717 0.3101384 0.1099283 -0.3101384
2196 0.1015693 -0.2994178 0.8984307 0.2994178 0.8984307 0.2994178 0.1015693 -0.2994178
2297 0.0937805 -0.2888597 0.9062195 0.2888597 0.9062195 0.2888597 0.0937805 -0.2888597
2402 0.0865330 -0.2784871 0.9134670 0.2784871 0.9134670 0.2784871 0.0865330 -0.2784871
2512 0.0797977 -0.2683193 0.9202023 0.2683193 0.9202023 0.2683193 0.0797977 -0.2683193
2627 0.0735459 -0.2583727 0.9264541 0.2583727 0.9264541 0.2583727 0.0735459 -0.2583727
2748 0.0677493 -0.2486608 0.9322507 0.2486608 0.9322507 0.2486608 0.0677493 -0.2486608
2873 0.0623803 -0.2391942 0.9376197 0.2391942 0.9376197 0.2391942 0.0623803 -0.2391942
3005 0.0574121 -0.2299814 0.9425879 0.2299814 0.9425879 0.2299814 0.0574121 -0.2299814
3143 0.0528189 -0.2210285 0.9471811 0.2210285 0.9471811 0.2210285 0.0528189 -0.2210285
3287 0.0485760 -0.2123399 0.9514240 0.2123399 0.9514240 0.2123399 0.0485760 -0.2123399
3437 0.0446595 -0.2039180 0.9553405 0.2039180 0.9553405 0.2039180 0.0446595 -0.2039180
3594 0.0410469 -0.1957638 0.9589531 0.1957638 0.9589531 0.1957638 0.0410469 -0.1957638
3759 0.0377168 -0.1878770 0.9622832 0.1878770 0.9622832 0.1878770 0.0377168 -0.1878770
3931 0.0346490 -0.1802560 0.9653510 0.1802560 0.9653510 0.1802560 0.0346490 -0.1802560
4111 0.0318243 -0.1728983 0.9681757 0.1728983 0.9681757 0.1728983 0.0318243 -0.1728983
4299 0.0292248 -0.1658004 0.9707752 0.1658004 0.9707752 0.1658004 0.0292248 -0.1658004
4496 0.0268337 -0.1589583 0.9731663 0.1589583 0.9731663 0.1589583 0.0268337 -0.1589583
4702 0.0246351 -0.1523670 0.9753649 0.1523670 0.9753649 0.1523670 0.0246351 -0.1523670
4918 0.0226144 -0.1460215 0.9773856 0.1460215 0.9773856 0.1460215 0.0226144 -0.1460215
5143 0.0207578 -0.1399160 0.9792422 0.1399160 0.9792422 0.1399160 0.0207578 -0.1399160
5378 0.0190525 -0.1340444 0.9809475 0.1340444 0.9809475 0.1340444 0.0190525 -0.1340444
5625 0.0174866 -0.1284005 0.9825134 0.1284005 0.9825134 0.1284005 0.0174866 -0.1284005
5882 0.0160491 -0.1229779 0.9839509 0.1229779 0.9839509 0.1229779 0.0160491 -0.1229779
6151 0.0147296 -0.1177699 0.9852704 0.1177699 0.9852704 0.1177699 0.0147296 -0.1177699
6433 0.0135188 -0.1127698 0.9864812 0.1127698 0.9864812 0.1127698 0.0135188 -0.1127698
6728 0.0124079 -0.1079711 0.9875921 0.1079711 0.9875921 0.1079711 0.0124079 -0.1079711
7036 0.0113887 -0.1033669 0.9886113 0.1033669 0.9886113 0.1033669 0.0113887 -0.1033669
7358 0.0104537 -0.0989507 0.9895463 0.0989507 0.9895463 0.0989507 0.0104537 -0.0989507
7695 0.0095962 -0.0947158 0.9904038 0.0947158 0.9904038 0.0947158 0.0095962 -0.0947158
8047 0.0088096 -0.0906557 0.9911904 0.0906557 0.9911904 0.0906557 0.0088096 -0.0906557
8416 0.0080882 -0.0867640 0.9919118 0.0867640 0.9919118 0.0867640 0.0080882 -0.0867640
8801 0.0074266 -0.0830344 0.9925734 0.0830344 0.9925734 0.0830344 0.0074266 -0.0830344
9204 0.0068198 -0.0794609 0.9931802 0.0794609 0.9931802 0.0794609 0.0068198 -0.0794609
9626 0.0062632 -0.0760374 0.9937368 0.0760374 0.9937368 0.0760374 0.0062632 -0.0760374
10066 0.0057528 -0.0727580 0.9942472 0.0727580 0.9942472 0.0727580 0.0057528 -0.0727580
10527 0.0052846 -0.0696172 0.9947154 0.0696172 0.9947154 0.0696172 0.0052846 -0.0696172
11009 0.0048552 -0.0666093 0.9951448 0.0666093 0.9951448 0.0666093 0.0048552 -0.0666093
11514 0.0044613 -0.0637292 0.9955387 0.0637292 0.9955387 0.0637292 0.0044613 -0.0637292
12041 0.0041000 -0.0609716 0.9959000 0.0609716 0.9959000 0.0609716 0.0041000 -0.0609716
12592 0.0037685 -0.0583315 0.9962315 0.0583315 0.9962315 0.0583315 0.0037685 -0.0583315
13169 0.0034645 -0.0558041 0.9965355 0.0558041 0.9965355 0.0558041 0.0034645 -0.0558041
13772 0.0031855 -0.0533848 0.9968145 0.0533848 0.9968145 0.0533848 0.0031855 -0.0533848
14402 0.0029295 -0.0510692 0.9970705 0.0510692 0.9970705 0.0510692 0.0029295 -0.0510692
15062 0.0026947 -0.0488529 0.9973053 0.0488529 0.9973053 0.0488529 0.0026947 -0.0488529
15752 0.0024793 -0.0467317 0.9975207 0.0467317 0.9975207 0.0467317 0.0024793 -0.0467317
16473 0.0022816 -0.0447017 0.9977184 0.0447017 0.9977184 0.0447017 0.0022816 -0.0447017
17227 0.0021003 -0.0427592 0.9978997 0.0427592 0.9978997 0.0427592 0.0021003 -0.0427592
18016 0.0019339 -0.0409003 0.9980661 0.0409003 0.9980661 0.0409003 0.0019339 -0.0409003
18841 0.0017812 -0.0391215 0.9982188 0.0391215 0.9982188 0.0391215 0.0017812 -0.0391215
19704 0.0016412 -0.0374196 0.9983588 0.0374196 0.9983588 0.0374196 0.0016412 -0.0374196
20606 0.0015127 -0.0357912 0.9984873 0.0357912 0.9984873 0.0357912 0.0015127 -0.0357912
21550 0.0013948 -0.0342332 0.9986052 0.0342332 0.9986052 0.0342332 0.0013948 -0.0342332
22537 0.0012866 -0.0327426 0.9987134 0.0327426 0.9987134 0.0327426 0.0012866 -0.0327426
23569 0.0011874 -0.0313166 0.9988126 0.0313166 0.9988126 0.0313166 0.0011874 -0.0313166
24648 0.0010964 -0.0299524 0.9989036 0.0299524 0.9989036 0.0299524 0.0010964 -0.0299524
25777 0.0010129 -0.0286473 0.9989871 0.0286473 0.9989871 0.0286473 0.0010129 -0.0286473
26957 0.0009363 -0.0273989 0.9990637 0.0273989 0.9990637 0.0273989 0.0009363 -0.0273989
28191 0.0008660 -0.0262047 0.9991340 0.0262047 0.9991340 0.0262047 0.0008660 -0.0262047
29482 0.0008015 -0.0250623 0.9991985 0.0250623 0.9991985 0.0250623 0.0008015 -0.0250623
30832 0.0007423 -0.0239697 0.9992577 0.0239697 0.9992577 0.0239697 0.0007423 -0.0239697
32244 0.0006880 -0.0229245 0.9993120 0.0229245 0.9993120 0.0229245 0.0006880 -0.0229245
33721 0.0006381 -0.0219249 0.9993619 0.0219249 0.9993619 0.0219249 0.0006381 -0.0219249
35265 0.0005923 -0.0209688 0.9994077 0.0209688 0.9994077 0.0209688 0.0005923 -0.0209688
36880 0.0005503 -0.0200543 0.9994497 0.0200543 0.9994497 0.0200543 0.0005503 -0.0200543
38569 0.0005117 -0.0191797 0.9994883 0.0191797 0.9994883 0.0191797 0.0005117 -0.0191797
40335 0.0004762 -0.0183431 0.9995238 0.0183431 0.9995238 0.0183431 0.0004762 -0.0183431
42182 0.0004435 -0.0175431 0.9995565 0.0175431 0.9995565 0.0175431 0.0004435 -0.0175431
44113 0.0004135 -0.0167780 0.9995865 0.0167780 0.9995865 0.0167780 0.0004135 -0.0167780
46134 0.0003859 -0.0160462 0.9996141 0.0160462 0.9996141 0.0160462 0.0003859 -0.0160462
48246 0.0003605 -0.0153463 0.9996395 0.0153463 0.9996395 0.0153463 0.0003605 -0.0153463
50455 0.0003370 -0.0146770 0.9996630 0.0146770 0.9996630 0.0146770 0.0003370 -0.0146770
52766 0.0003154 -0.0140369 0.9996846 0.0140369 0.9996846 0.0140369 0.0003154 -0.0140369
55182 0.0002955 -0.0134247 0.9997045 0.0134247 0.9997045 0.0134247 0.0002955 -0.0134247
57709 0.0002771 -0.0128393 0.9997229 0.0128393 0.9997229 0.0128393 0.0002771 -0.0128393
60352 0.0002601 -0.0122793 0.9997399 0.0122793 0.9997399 0.0122793 0.0002601 -0.0122793
63115 0.0002443 -0.0117438 0.9997557 0.0117438 0.9997557 0.0117438 0.0002443 -0.0117438
66005 0.0002298 -0.0112316 0.9997702 0.0112316 0.9997702 0.0112316 0.0002298 -0.0112316
69028 0.0002163 -0.0107418 0.9997837 0.0107418 0.9997837 0.0107418 0.0002163 -0.0107418
72189 0.0002037 -0.0102733 0.9997963 0.0102733 0.9997963 0.0102733 0.0002037 -0.0102733
75495 0.0001921 -0.0098252 0.9998079 0.0098252 0.9998079 0.0098252 0.0001921 -0.0098252
78952 0.0001813 -0.0093967 0.9998187 0.0093967 0.9998187 0.0093967 0.0001813 -0.0093967
82567 0.0001713 -0.0089868 0.9998287 0.0089868 0.9998287 0.0089868 0.0001713 -0.0089868
86348 0.0001620 -0.0085947 0.9998380 0.0085947 0.9998380 0.0085947 0.0001620 -0.0085947
90302 0.0001533 -0.0082197 0.9998467 0.0082197 0.9998467 0.0082197 0.0001533 -0.0082197
94437 0.0001452 -0.0078609 0.9998548 0.0078609 0.9998548 0.0078609 0.0001452 -0.0078609
98762 0.0001376 -0.0075178 0.9998624 0.0075178 0.9998624 0.0075178 0.0001376 -0.0075178
103284 0.0001306 -0.0071896 0.9998694 0.0071896 0.9998694 0.0071896 0.0001306 -0.0071896
108014 0.0001241 -0.0068756 0.9998759 0.0068756 0.9998759 0.0068756 0.0001241 -0.0068756
112960 0.0001180 -0.0065753 0.9998820 0.0065753 0.9998820 0.0065753 0.0001180 -0.0065753
118133 0.0001123 -0.0062880 0.9998877 0.0062880 0.9998877 0.0062880 0.0001123 -0.0062880
123542 0.0001070 -0.0060131 0.9998930 0.0060131 0.9998930 0.0060131 0.0001070 -0.0060131
129199 0.0001021 -0.0057502 0.9998979 0.0057502 0.9998979 0.0057502 0.0001021 -0.0057502
135116 0.0000975 -0.0054986 0.9999025 0.0054986 0.9999025 0.0054986 0.0000975 -0.0054986
141303 0.0000932 -0.0052580 0.9999068 0.0052580 0.9999068 0.0052580 0.0000932 -0.0052580
147774 0.0000892 -0.0050278 0.9999108 0.0050278 0.9999108 0.0050278 0.0000892 -0.0050278
154540 0.0000855 -0.0048075 0.9999145 0.0048075 0.9999145 0.0048075 0.0000855 -0.0048075
161617 0.0000821 -0.0045968 0.9999179 0.0045968 0.9999179 0.0045968 0.0000821 -0.0045968
169018 0.0000789 -0.0043952 0.9999211 0.0043952 0.9999211 0.0043952 0.0000789 -0.0043952
176758 0.0000759 -0.0042024 0.9999241 0.0042024 0.9999241 0.0042024 0.0000759 -0.0042024
184852 0.0000732 -0.0040178 0.9999268 0.0040178 0.9999268 0.0040178 0.0000732 -0.0040178
193316 0.0000706 -0.0038413 0.9999294 0.0038413 0.9999294 0.0038413 0.0000706 -0.0038413
202169 0.0000683 -0.0036724 0.9999317 0.0036724 0.9999317 0.0036724 0.0000683 -0.0036724
211427 0.0000661 -0.0035108 0.9999339 0.0035108 0.9999339 0.0035108 0.0000661 -0.0035108
221108 0.0000641 -0.0033561 0.9999359 0.0033561 0.9999359 0.0033561 0.0000641 -0.0033561
231233 0.0000622 -0.0032082 0.9999378 0.0032082 0.9999378 0.0032082 0.0000622 -0.0032082
241822 0.0000605 -0.0030666 0.9999395 0.0030666 0.9999395 0.0030666 0.0000605 -0.0030666
252896 0.0000589 -0.0029311 0.9999411 0.0029311 0.9999411 0.0029311 0.0000589 -0.0029311
264476 0.0000575 -0.0028015 0.9999425 0.0028015 0.9999425 0.0028015 0.0000575 -0.0028015
276587 0.0000561 -0.0026774 0.9999439 0.0026774 0.9999439 0.0026774 0.0000561 -0.0026774
289253 0.0000549 -0.0025587 0.9999451 0.0025587 0.9999451 0.0025587 0.0000549 -0.0025587
302498 0.0000537 -0.0024451 0.9999463 0.0024451 0.9999463 0.0024451 0.0000537 -0.0024451
316350 0.0000527 -0.0023364 0.9999473 0.0023364 0.9999473 0.0023364 0.0000527 -0.0023364
330837 0.0000517 -0.0022323 0.9999483 0.0022323 0.9999483 0.0022323 0.0000517 -0.0022323
345986 0.0000508 -0.0021327 0.9999492 0.0021327 0.9999492 0.0021327 0.0000508 -0.0021327
361830 0.0000500 -0.0020373 0.9999500 0.0020373 0.9999500 0.0020373 0.0000500 -0.0020373
378399 0.0000493 -0.0019461 0.9999507 0.0019461 0.9999507 0.0019461 0.0000493 -0.0019461
395726 0.0000486 -0.0018587 0.9999514 0.0018587 0.9999514 0.0018587 0.0000486 -0.0018587
413847 0.0000480 -0.0017750 0.9999520 0.0017750 0.9999520 0.0017750 0.0000480 -0.0017750
432798 0.0000474 -0.0016948 0.9999526 0.0016948 0.9999526 0.0016948 0.0000474 -0.0016948
452617 0.0000469 -0.0016181 0.9999531 0.0016181 0.9999531 0.0016181 0.0000469 -0.0016181
473344 0.0000465 -0.0015446 0.9999535 0.0015446 0.9999535 0.0015446 0.0000465 -0.0015446
495019 0.0000460 -0.0014741 0.9999540 0.0014741 0.9999540 0.0014741 0.0000460 -0.0014741
517687 0.0000456 -0.0014067 0.9999544 0.0014067 0.9999544 0.0014067 0.0000456 -0.0014067
541393 0.0000453 -0.0013420 0.9999547 0.0013420 0.9999547 0.0013420 0.0000453 -0.0013420
566185 0.0000450 -0.0012800 0.9999550 0.0012800 0.9999550 0.0012800 0.0000450 -0.0012800
592111 0.0000447 -0.0012206 0.9999553 0.0012206 0.9999553 0.0012206 0.0000447 -0.0012206
619225 0.0000445 -0.0011636 0.9999555 0.0011636 0.9999555 0.0011636 0.0000445 -0.0011636
647581 0.0000442 -0.0011090 0.9999558 0.0011090 0.9999558 0.0011090 0.0000442 -0.0011090
677235 0.0000440 -0.0010566 0.9999560 0.0010566 0.9999560 0.0010566 0.0000440 -0.0010566
708247 0.0000439 -0.0010063 0.9999561 0.0010063 0.9999561 0.0010063 0.0000439 -0.0010063
740679 0.0000437 -0.0009580 0.9999563 0.0009580 0.9999563 0.0009580 0.0000437 -0.0009580
774597 0.0000436 -0.0009116 0.9999564 0.0009116 0.9999564 0.0009116 0.0000436 -0.0009116
810067 0.0000435 -0.0008671 0.9999565 0.0008671 0.9999565 0.0008671 0.0000435 -0.0008671
847162 0.0000434 -0.0008242 0.9999566 0.0008242 0.9999566 0.0008242 0.0000434 -0.0008242
885955 0.0000434 -0.0007831 0.9999566 0.0007831 0.9999566 0.0007831 0.0000434 -0.0007831
926525 0.0000434 -0.0007435 0.9999566 0.0007435 0.9999566 0.0007435 0.0000434 -0.0007435
968953 0.0000433 -0.0007054 0.9999567 0.0007054 0.9999567 0.0007054 0.0000433 -0.0007054
1013323 0.0000433 -0.0006687 0.9999567 0.0006687 0.9999567 0.0006687 0.0000433 -0.0006687
1059725 0.0000434 -0.0006333 0.9999566 0.0006333 0.9999566 0.0006333 0.0000434 -0.0006333
1108252 0.0000434 -0.0005993 0.9999566 0.0005993 0.9999566 0.0005993 0.0000434 -0.0005993
1159002 0.0000435 -0.0005664 0.9999565 0.0005664 0.9999565 0.0005664 0.0000435 -0.0005664
1212075 0.0000436 -0.0005346 0.9999564 0.0005346 0.9999564 0.0005346 0.0000436 -0.0005346
1267578 0.0000437 -0.0005039 0.9999563 0.0005039 0.9999563 0.0005039 0.0000437 -0.0005039
1325623 0.0000438 -0.0004742 0.9999562 0.0004742 0.9999562 0.0004742 0.0000438 -0.0004742
1386327 0.0000440 -0.0004455 0.9999560 0.0004455 0.9999560 0.0004455 0.0000440 -0.0004455
1449809 0.0000442 -0.0004177 0.9999558 0.0004177 0.9999558 0.0004177 0.0000442 -0.0004177
1516199 0.0000444 -0.0003906 0.9999556 0.0003906 0.9999556 0.0003906 0.0000444 -0.0003906
1585629 0.0000446 -0.0003644 0.9999554 0.0003644 0.9999554 0.0003644 0.0000446 -0.0003644
1658239 0.0000449 -0.0003389 0.9999551 0.0003389 0.9999551 0.0003389 0.0000449 -0.0003389
1734173 0.0000452 -0.0003141 0.9999548 0.0003141 0.9999548 0.0003141 0.0000452 -0.0003141
1813585 0.0000456 -0.0002898 0.9999544 0.0002898 0.9999544 0.0002898 0.0000456 -0.0002898
1896632 0.0000459 -0.0002662 0.9999541 0.0002662 0.9999541 0.0002662 0.0000459 -0.0002662
1983483 0.0000464 -0.0002430 0.9999536 0.0002430 0.9999536 0.0002430 0.0000464 -0.0002430
2074311 0.0000469 -0.0002204 0.9999531 0.0002204 0.9999531 0.0002204 0.0000469 -0.0002204
