!Murata Part Number: GRM31CR71C106MAC7
!These Parameters are Measured in Series Mode Connection
!Data Generated on Mar 30, 2021
!       o--ll--o
!Port1            Port2
!       o------o
!Operation Temp=25[degC], DC Bias Voltage=0[V]
!Freq. Start=100[Hz] Stop=6[GHz] 401[Steps]
# Hz S RI R 50
!Freq.(Hz) S11(Real) S11(Imag) S21(Real) S21(Imag) S12(Real) S12(Imag) S22(Real) S22(Imag)
100 0.8262615 -0.3685825 0.1737385 0.3685825 0.1737385 0.3685825 0.8262615 -0.3685825
105 0.8135561 -0.3791501 0.1864439 0.3791501 0.1864439 0.3791501 0.8135561 -0.3791501
109 0.8001365 -0.3895686 0.1998635 0.3895686 0.1998635 0.3895686 0.8001365 -0.3895686
114 0.7859962 -0.3997841 0.2140038 0.3997841 0.2140038 0.3997841 0.7859962 -0.3997841
120 0.7711335 -0.4097399 0.2288665 0.4097399 0.2288665 0.4097399 0.7711335 -0.4097399
125 0.7555524 -0.4193772 0.2444476 0.4193772 0.2444476 0.4193772 0.7555524 -0.4193772
131 0.7392628 -0.4286354 0.2607372 0.4286354 0.2607372 0.4286354 0.7392628 -0.4286354
137 0.7222810 -0.4374531 0.2777190 0.4374531 0.2777190 0.4374531 0.7222810 -0.4374531
143 0.7046302 -0.4457685 0.2953698 0.4457685 0.2953698 0.4457685 0.7046302 -0.4457685
150 0.6863404 -0.4535209 0.3136596 0.4535209 0.3136596 0.4535209 0.6863404 -0.4535209
156 0.6674488 -0.4606509 0.3325512 0.4606509 0.3325512 0.4606509 0.6674488 -0.4606509
164 0.6479995 -0.4671016 0.3520005 0.4671016 0.3520005 0.4671016 0.6479995 -0.4671016
171 0.6280437 -0.4728198 0.3719563 0.4728198 0.3719563 0.4728198 0.6280437 -0.4728198
179 0.6076387 -0.4777568 0.3923613 0.4777568 0.3923613 0.4777568 0.6076387 -0.4777568
187 0.5868481 -0.4818693 0.4131519 0.4818693 0.4131519 0.4818693 0.5868481 -0.4818693
196 0.5657408 -0.4851203 0.4342592 0.4851203 0.4342592 0.4851203 0.5657408 -0.4851203
205 0.5443900 -0.4874799 0.4556100 0.4874799 0.4556100 0.4874799 0.5443900 -0.4874799
214 0.5228727 -0.4889259 0.4771273 0.4889259 0.4771273 0.4889259 0.5228727 -0.4889259
224 0.5012684 -0.4894444 0.4987316 0.4894444 0.4987316 0.4894444 0.5012684 -0.4894444
234 0.4796577 -0.4890300 0.5203423 0.4890300 0.5203423 0.4890300 0.4796577 -0.4890300
245 0.4581219 -0.4876859 0.5418781 0.4876859 0.5418781 0.4876859 0.4581219 -0.4876859
256 0.4367410 -0.4854243 0.5632590 0.4854243 0.5632590 0.4854243 0.4367410 -0.4854243
268 0.4155928 -0.4822655 0.5844072 0.4822655 0.5844072 0.4822655 0.4155928 -0.4822655
280 0.3947521 -0.4782378 0.6052479 0.4782378 0.6052479 0.4782378 0.3947521 -0.4782378
293 0.3742894 -0.4733772 0.6257106 0.4733772 0.6257106 0.4733772 0.3742894 -0.4733772
306 0.3542697 -0.4677262 0.6457303 0.4677262 0.6457303 0.4677262 0.3542697 -0.4677262
320 0.3347525 -0.4613332 0.6652475 0.4613332 0.6652475 0.4613332 0.3347525 -0.4613332
335 0.3157906 -0.4542513 0.6842094 0.4542513 0.6842094 0.4542513 0.3157906 -0.4542513
350 0.2974296 -0.4465376 0.7025704 0.4465376 0.7025704 0.4465376 0.2974296 -0.4465376
366 0.2797083 -0.4382522 0.7202917 0.4382522 0.7202917 0.4382522 0.2797083 -0.4382522
383 0.2626579 -0.4294569 0.7373421 0.4294569 0.7373421 0.4294569 0.2626579 -0.4294569
401 0.2463026 -0.4202143 0.7536974 0.4202143 0.7536974 0.4202143 0.2463026 -0.4202143
419 0.2306593 -0.4105869 0.7693407 0.4105869 0.7693407 0.4105869 0.2306593 -0.4105869
438 0.2157383 -0.4006366 0.7842617 0.4006366 0.7842617 0.4006366 0.2157383 -0.4006366
458 0.2015438 -0.3904232 0.7984562 0.3904232 0.7984562 0.3904232 0.2015438 -0.3904232
479 0.1880741 -0.3800045 0.8119259 0.3800045 0.8119259 0.3800045 0.1880741 -0.3800045
501 0.1753222 -0.3694354 0.8246778 0.3694354 0.8246778 0.3694354 0.1753222 -0.3694354
524 0.1632767 -0.3587675 0.8367233 0.3587675 0.8367233 0.3587675 0.1632767 -0.3587675
548 0.1519221 -0.3480489 0.8480779 0.3480489 0.8480779 0.3480489 0.1519221 -0.3480489
573 0.1412396 -0.3373238 0.8587604 0.3373238 0.8587604 0.3373238 0.1412396 -0.3373238
600 0.1312076 -0.3266327 0.8687924 0.3266327 0.8687924 0.3266327 0.1312076 -0.3266327
627 0.1218023 -0.3160120 0.8781977 0.3160120 0.8781977 0.3160120 0.1218023 -0.3160120
656 0.1129981 -0.3054943 0.8870019 0.3054943 0.8870019 0.3054943 0.1129981 -0.3054943
686 0.1047684 -0.2951084 0.8952316 0.2951084 0.8952316 0.2951084 0.1047684 -0.2951084
717 0.0970858 -0.2848793 0.9029142 0.2848793 0.9029142 0.2848793 0.0970858 -0.2848793
750 0.0899225 -0.2748288 0.9100775 0.2748288 0.9100775 0.2748288 0.0899225 -0.2748288
784 0.0832505 -0.2649750 0.9167495 0.2649750 0.9167495 0.2649750 0.0832505 -0.2649750
820 0.0770424 -0.2553334 0.9229576 0.2553334 0.9229576 0.2553334 0.0770424 -0.2553334
858 0.0712711 -0.2459163 0.9287289 0.2459163 0.9287289 0.2459163 0.0712711 -0.2459163
897 0.0659101 -0.2367339 0.9340899 0.2367339 0.9340899 0.2367339 0.0659101 -0.2367339
938 0.0609340 -0.2277936 0.9390660 0.2277936 0.9390660 0.2277936 0.0609340 -0.2277936
981 0.0563182 -0.2191010 0.9436818 0.2191010 0.9436818 0.2191010 0.0563182 -0.2191010
1026 0.0520391 -0.2106598 0.9479609 0.2106598 0.9479609 0.2106598 0.0520391 -0.2106598
1073 0.0480744 -0.2024720 0.9519256 0.2024720 0.9519256 0.2024720 0.0480744 -0.2024720
1122 0.0444028 -0.1945384 0.9555972 0.1945384 0.9555972 0.1945384 0.0444028 -0.1945384
1174 0.0410042 -0.1868583 0.9589958 0.1868583 0.9589958 0.1868583 0.0410042 -0.1868583
1227 0.0378597 -0.1794301 0.9621403 0.1794301 0.9621403 0.1794301 0.0378597 -0.1794301
1283 0.0349515 -0.1722512 0.9650485 0.1722512 0.9650485 0.1722512 0.0349515 -0.1722512
1342 0.0322628 -0.1653184 0.9677372 0.1653184 0.9677372 0.1653184 0.0322628 -0.1653184
1404 0.0297780 -0.1586276 0.9702220 0.1586276 0.9702220 0.1586276 0.0297780 -0.1586276
1468 0.0274825 -0.1521746 0.9725175 0.1521746 0.9725175 0.1521746 0.0274825 -0.1521746
1535 0.0253625 -0.1459544 0.9746375 0.1459544 0.9746375 0.1459544 0.0253625 -0.1459544
1606 0.0234054 -0.1399618 0.9765946 0.1399618 0.9765946 0.1399618 0.0234054 -0.1399618
1679 0.0215992 -0.1341913 0.9784008 0.1341913 0.9784008 0.1341913 0.0215992 -0.1341913
1756 0.0199329 -0.1286374 0.9800671 0.1286374 0.9800671 0.1286374 0.0199329 -0.1286374
1836 0.0183961 -0.1232941 0.9816039 0.1232941 0.9816039 0.1232941 0.0183961 -0.1232941
1920 0.0169792 -0.1181557 0.9830208 0.1181557 0.9830208 0.1181557 0.0169792 -0.1181557
2008 0.0156732 -0.1132161 0.9843268 0.1132161 0.9843268 0.1132161 0.0156732 -0.1132161
2100 0.0144699 -0.1084694 0.9855301 0.1084694 0.9855301 0.1084694 0.0144699 -0.1084694
2196 0.0133615 -0.1039096 0.9866385 0.1039096 0.9866385 0.1039096 0.0133615 -0.1039096
2297 0.0123408 -0.0995308 0.9876592 0.0995308 0.9876592 0.0995308 0.0123408 -0.0995308
2402 0.0114010 -0.0953270 0.9885990 0.0953270 0.9885990 0.0953270 0.0114010 -0.0953270
2512 0.0105361 -0.0912924 0.9894639 0.0912924 0.9894639 0.0912924 0.0105361 -0.0912924
2627 0.0097401 -0.0874212 0.9902599 0.0874212 0.9902599 0.0874212 0.0097401 -0.0874212
2748 0.0090077 -0.0837079 0.9909923 0.0837079 0.9909923 0.0837079 0.0090077 -0.0837079
2873 0.0083339 -0.0801467 0.9916661 0.0801467 0.9916661 0.0801467 0.0083339 -0.0801467
3005 0.0077142 -0.0767323 0.9922858 0.0767323 0.9922858 0.0767323 0.0077142 -0.0767323
3143 0.0071441 -0.0734592 0.9928559 0.0734592 0.9928559 0.0734592 0.0071441 -0.0734592
3287 0.0066197 -0.0703223 0.9933803 0.0703223 0.9933803 0.0703223 0.0066197 -0.0703223
3437 0.0061374 -0.0673165 0.9938626 0.0673165 0.9938626 0.0673165 0.0061374 -0.0673165
3594 0.0056937 -0.0644367 0.9943063 0.0644367 0.9943063 0.0644367 0.0056937 -0.0644367
3759 0.0052855 -0.0616781 0.9947145 0.0616781 0.9947145 0.0616781 0.0052855 -0.0616781
3931 0.0049098 -0.0590361 0.9950902 0.0590361 0.9950902 0.0590361 0.0049098 -0.0590361
4111 0.0045639 -0.0565060 0.9954361 0.0565060 0.9954361 0.0565060 0.0045639 -0.0565060
4299 0.0042455 -0.0540833 0.9957545 0.0540833 0.9957545 0.0540833 0.0042455 -0.0540833
4496 0.0039520 -0.0517639 0.9960480 0.0517639 0.9960480 0.0517639 0.0039520 -0.0517639
4702 0.0036816 -0.0495434 0.9963184 0.0495434 0.9963184 0.0495434 0.0036816 -0.0495434
4918 0.0034321 -0.0474179 0.9965679 0.0474179 0.9965679 0.0474179 0.0034321 -0.0474179
5143 0.0032019 -0.0453834 0.9967981 0.0453834 0.9967981 0.0453834 0.0032019 -0.0453834
5378 0.0029892 -0.0434362 0.9970108 0.0434362 0.9970108 0.0434362 0.0029892 -0.0434362
5625 0.0027926 -0.0415727 0.9972074 0.0415727 0.9972074 0.0415727 0.0027926 -0.0415727
5882 0.0026107 -0.0397892 0.9973893 0.0397892 0.9973893 0.0397892 0.0026107 -0.0397892
6151 0.0024423 -0.0380824 0.9975577 0.0380824 0.9975577 0.0380824 0.0024423 -0.0380824
6433 0.0022861 -0.0364490 0.9977139 0.0364490 0.9977139 0.0364490 0.0022861 -0.0364490
6728 0.0021411 -0.0348859 0.9978589 0.0348859 0.9978589 0.0348859 0.0021411 -0.0348859
7036 0.0020064 -0.0333901 0.9979936 0.0333901 0.9979936 0.0333901 0.0020064 -0.0333901
7358 0.0018812 -0.0319586 0.9981188 0.0319586 0.9981188 0.0319586 0.0018812 -0.0319586
7695 0.0017646 -0.0305887 0.9982354 0.0305887 0.9982354 0.0305887 0.0017646 -0.0305887
8047 0.0016559 -0.0292776 0.9983441 0.0292776 0.9983441 0.0292776 0.0016559 -0.0292776
8416 0.0015544 -0.0280228 0.9984456 0.0280228 0.9984456 0.0280228 0.0015544 -0.0280228
8801 0.0014597 -0.0268218 0.9985403 0.0268218 0.9985403 0.0268218 0.0014597 -0.0268218
9204 0.0013712 -0.0256723 0.9986288 0.0256723 0.9986288 0.0256723 0.0013712 -0.0256723
9626 0.0012885 -0.0245719 0.9987115 0.0245719 0.9987115 0.0245719 0.0012885 -0.0245719
10066 0.0012110 -0.0235187 0.9987890 0.0235187 0.9987890 0.0235187 0.0012110 -0.0235187
10527 0.0011385 -0.0225105 0.9988615 0.0225105 0.9988615 0.0225105 0.0011385 -0.0225105
11009 0.0010705 -0.0215452 0.9989295 0.0215452 0.9989295 0.0215452 0.0010705 -0.0215452
11514 0.0010069 -0.0206212 0.9989931 0.0206212 0.9989931 0.0206212 0.0010069 -0.0206212
12041 0.0009473 -0.0197365 0.9990527 0.0197365 0.9990527 0.0197365 0.0009473 -0.0197365
12592 0.0008914 -0.0188895 0.9991086 0.0188895 0.9991086 0.0188895 0.0008914 -0.0188895
13169 0.0008391 -0.0180786 0.9991609 0.0180786 0.9991609 0.0180786 0.0008391 -0.0180786
13772 0.0007901 -0.0173022 0.9992099 0.0173022 0.9992099 0.0173022 0.0007901 -0.0173022
14402 0.0007442 -0.0165588 0.9992558 0.0165588 0.9992558 0.0165588 0.0007442 -0.0165588
15062 0.0007013 -0.0158470 0.9992987 0.0158470 0.9992987 0.0158470 0.0007013 -0.0158470
15752 0.0006611 -0.0151656 0.9993389 0.0151656 0.9993389 0.0151656 0.0006611 -0.0151656
16473 0.0006236 -0.0145131 0.9993764 0.0145131 0.9993764 0.0145131 0.0006236 -0.0145131
17227 0.0005885 -0.0138884 0.9994115 0.0138884 0.9994115 0.0138884 0.0005885 -0.0138884
18016 0.0005557 -0.0132904 0.9994443 0.0132904 0.9994443 0.0132904 0.0005557 -0.0132904
18841 0.0005252 -0.0127179 0.9994748 0.0127179 0.9994748 0.0127179 0.0005252 -0.0127179
19704 0.0004967 -0.0121698 0.9995033 0.0121698 0.9995033 0.0121698 0.0004967 -0.0121698
20606 0.0004701 -0.0116452 0.9995299 0.0116452 0.9995299 0.0116452 0.0004701 -0.0116452
21550 0.0004453 -0.0111430 0.9995547 0.0111430 0.9995547 0.0111430 0.0004453 -0.0111430
22537 0.0004222 -0.0106623 0.9995778 0.0106623 0.9995778 0.0106623 0.0004222 -0.0106623
23569 0.0004007 -0.0102022 0.9995993 0.0102022 0.9995993 0.0102022 0.0004007 -0.0102022
24648 0.0003807 -0.0097620 0.9996193 0.0097620 0.9996193 0.0097620 0.0003807 -0.0097620
25777 0.0003621 -0.0093406 0.9996379 0.0093406 0.9996379 0.0093406 0.0003621 -0.0093406
26957 0.0003448 -0.0089374 0.9996552 0.0089374 0.9996552 0.0089374 0.0003448 -0.0089374
28191 0.0003286 -0.0085516 0.9996714 0.0085516 0.9996714 0.0085516 0.0003286 -0.0085516
29482 0.0003136 -0.0081824 0.9996864 0.0081824 0.9996864 0.0081824 0.0003136 -0.0081824
30832 0.0002995 -0.0078292 0.9997005 0.0078292 0.9997005 0.0078292 0.0002995 -0.0078292
32244 0.0002864 -0.0074913 0.9997136 0.0074913 0.9997136 0.0074913 0.0002864 -0.0074913
33721 0.0002742 -0.0071680 0.9997258 0.0071680 0.9997258 0.0071680 0.0002742 -0.0071680
35265 0.0002628 -0.0068587 0.9997372 0.0068587 0.9997372 0.0068587 0.0002628 -0.0068587
36880 0.0002521 -0.0065629 0.9997479 0.0065629 0.9997479 0.0065629 0.0002521 -0.0065629
38569 0.0002420 -0.0062799 0.9997580 0.0062799 0.9997580 0.0062799 0.0002420 -0.0062799
40335 0.0002326 -0.0060092 0.9997674 0.0060092 0.9997674 0.0060092 0.0002326 -0.0060092
42182 0.0002237 -0.0057503 0.9997763 0.0057503 0.9997763 0.0057503 0.0002237 -0.0057503
44113 0.0002153 -0.0055026 0.9997847 0.0055026 0.9997847 0.0055026 0.0002153 -0.0055026
46134 0.0002073 -0.0052658 0.9997927 0.0052658 0.9997927 0.0052658 0.0002073 -0.0052658
48246 0.0001998 -0.0050392 0.9998002 0.0050392 0.9998002 0.0050392 0.0001998 -0.0050392
50455 0.0001926 -0.0048225 0.9998074 0.0048225 0.9998074 0.0048225 0.0001926 -0.0048225
52766 0.0001857 -0.0046151 0.9998143 0.0046151 0.9998143 0.0046151 0.0001857 -0.0046151
55182 0.0001792 -0.0044168 0.9998208 0.0044168 0.9998208 0.0044168 0.0001792 -0.0044168
57709 0.0001729 -0.0042271 0.9998271 0.0042271 0.9998271 0.0042271 0.0001729 -0.0042271
60352 0.0001668 -0.0040457 0.9998332 0.0040457 0.9998332 0.0040457 0.0001668 -0.0040457
63115 0.0001610 -0.0038721 0.9998390 0.0038721 0.9998390 0.0038721 0.0001610 -0.0038721
66005 0.0001554 -0.0037060 0.9998446 0.0037060 0.9998446 0.0037060 0.0001554 -0.0037060
69028 0.0001500 -0.0035470 0.9998500 0.0035470 0.9998500 0.0035470 0.0001500 -0.0035470
72189 0.0001447 -0.0033949 0.9998553 0.0033949 0.9998553 0.0033949 0.0001447 -0.0033949
75495 0.0001396 -0.0032494 0.9998604 0.0032494 0.9998604 0.0032494 0.0001396 -0.0032494
78952 0.0001346 -0.0031101 0.9998654 0.0031101 0.9998654 0.0031101 0.0001346 -0.0031101
82567 0.0001298 -0.0029767 0.9998702 0.0029767 0.9998702 0.0029767 0.0001298 -0.0029767
86348 0.0001251 -0.0028491 0.9998749 0.0028491 0.9998749 0.0028491 0.0001251 -0.0028491
90302 0.0001206 -0.0027268 0.9998794 0.0027268 0.9998794 0.0027268 0.0001206 -0.0027268
94437 0.0001162 -0.0026098 0.9998838 0.0026098 0.9998838 0.0026098 0.0001162 -0.0026098
98762 0.0001119 -0.0024977 0.9998881 0.0024977 0.9998881 0.0024977 0.0001119 -0.0024977
103284 0.0001078 -0.0023904 0.9998922 0.0023904 0.9998922 0.0023904 0.0001078 -0.0023904
108014 0.0001038 -0.0022876 0.9998962 0.0022876 0.9998962 0.0022876 0.0001038 -0.0022876
112960 0.0000999 -0.0021892 0.9999001 0.0021892 0.9999001 0.0021892 0.0000999 -0.0021892
118133 0.0000962 -0.0020948 0.9999038 0.0020948 0.9999038 0.0020948 0.0000962 -0.0020948
123542 0.0000926 -0.0020044 0.9999074 0.0020044 0.9999074 0.0020044 0.0000926 -0.0020044
129199 0.0000892 -0.0019178 0.9999108 0.0019178 0.9999108 0.0019178 0.0000892 -0.0019178
135116 0.0000859 -0.0018349 0.9999141 0.0018349 0.9999141 0.0018349 0.0000859 -0.0018349
141303 0.0000828 -0.0017554 0.9999172 0.0017554 0.9999172 0.0017554 0.0000828 -0.0017554
147774 0.0000798 -0.0016792 0.9999202 0.0016792 0.9999202 0.0016792 0.0000798 -0.0016792
154540 0.0000769 -0.0016061 0.9999231 0.0016061 0.9999231 0.0016061 0.0000769 -0.0016061
161617 0.0000742 -0.0015362 0.9999258 0.0015362 0.9999258 0.0015362 0.0000742 -0.0015362
169018 0.0000716 -0.0014691 0.9999284 0.0014691 0.9999284 0.0014691 0.0000716 -0.0014691
176758 0.0000692 -0.0014048 0.9999308 0.0014048 0.9999308 0.0014048 0.0000692 -0.0014048
184852 0.0000669 -0.0013432 0.9999331 0.0013432 0.9999331 0.0013432 0.0000669 -0.0013432
193316 0.0000647 -0.0012841 0.9999353 0.0012841 0.9999353 0.0012841 0.0000647 -0.0012841
202169 0.0000627 -0.0012275 0.9999373 0.0012275 0.9999373 0.0012275 0.0000627 -0.0012275
211427 0.0000608 -0.0011733 0.9999392 0.0011733 0.9999392 0.0011733 0.0000608 -0.0011733
221108 0.0000590 -0.0011213 0.9999410 0.0011213 0.9999410 0.0011213 0.0000590 -0.0011213
231233 0.0000573 -0.0010714 0.9999427 0.0010714 0.9999427 0.0010714 0.0000573 -0.0010714
241822 0.0000558 -0.0010236 0.9999442 0.0010236 0.9999442 0.0010236 0.0000558 -0.0010236
252896 0.0000543 -0.0009778 0.9999457 0.0009778 0.9999457 0.0009778 0.0000543 -0.0009778
264476 0.0000530 -0.0009339 0.9999470 0.0009339 0.9999470 0.0009339 0.0000530 -0.0009339
276587 0.0000518 -0.0008918 0.9999482 0.0008918 0.9999482 0.0008918 0.0000518 -0.0008918
289253 0.0000506 -0.0008514 0.9999494 0.0008514 0.9999494 0.0008514 0.0000506 -0.0008514
302498 0.0000495 -0.0008126 0.9999505 0.0008126 0.9999505 0.0008126 0.0000495 -0.0008126
316350 0.0000486 -0.0007755 0.9999514 0.0007755 0.9999514 0.0007755 0.0000486 -0.0007755
330837 0.0000476 -0.0007399 0.9999524 0.0007399 0.9999524 0.0007399 0.0000476 -0.0007399
345986 0.0000468 -0.0007057 0.9999532 0.0007057 0.9999532 0.0007057 0.0000468 -0.0007057
361830 0.0000460 -0.0006729 0.9999540 0.0006729 0.9999540 0.0006729 0.0000460 -0.0006729
378399 0.0000453 -0.0006414 0.9999547 0.0006414 0.9999547 0.0006414 0.0000453 -0.0006414
395726 0.0000447 -0.0006111 0.9999553 0.0006111 0.9999553 0.0006111 0.0000447 -0.0006111
413847 0.0000441 -0.0005821 0.9999559 0.0005821 0.9999559 0.0005821 0.0000441 -0.0005821
432798 0.0000436 -0.0005542 0.9999564 0.0005542 0.9999564 0.0005542 0.0000436 -0.0005542
452617 0.0000431 -0.0005274 0.9999569 0.0005274 0.9999569 0.0005274 0.0000431 -0.0005274
473344 0.0000427 -0.0005017 0.9999573 0.0005017 0.9999573 0.0005017 0.0000427 -0.0005017
495019 0.0000423 -0.0004769 0.9999577 0.0004769 0.9999577 0.0004769 0.0000423 -0.0004769
517687 0.0000420 -0.0004531 0.9999580 0.0004531 0.9999580 0.0004531 0.0000420 -0.0004531
541393 0.0000417 -0.0004302 0.9999583 0.0004302 0.9999583 0.0004302 0.0000417 -0.0004302
566185 0.0000414 -0.0004081 0.9999586 0.0004081 0.9999586 0.0004081 0.0000414 -0.0004081
592111 0.0000412 -0.0003869 0.9999588 0.0003869 0.9999588 0.0003869 0.0000412 -0.0003869
619225 0.0000410 -0.0003664 0.9999590 0.0003664 0.9999590 0.0003664 0.0000410 -0.0003664
647581 0.0000408 -0.0003466 0.9999592 0.0003466 0.9999592 0.0003466 0.0000408 -0.0003466
677235 0.0000407 -0.0003276 0.9999593 0.0003276 0.9999593 0.0003276 0.0000407 -0.0003276
708247 0.0000406 -0.0003091 0.9999594 0.0003091 0.9999594 0.0003091 0.0000406 -0.0003091
740679 0.0000406 -0.0002913 0.9999594 0.0002913 0.9999594 0.0002913 0.0000406 -0.0002913
774597 0.0000405 -0.0002741 0.9999595 0.0002741 0.9999595 0.0002741 0.0000405 -0.0002741
810067 0.0000405 -0.0002574 0.9999595 0.0002574 0.9999595 0.0002574 0.0000405 -0.0002574
847162 0.0000406 -0.0002412 0.9999594 0.0002412 0.9999594 0.0002412 0.0000406 -0.0002412
885955 0.0000406 -0.0002255 0.9999594 0.0002255 0.9999594 0.0002255 0.0000406 -0.0002255
926525 0.0000408 -0.0002102 0.9999592 0.0002102 0.9999592 0.0002102 0.0000408 -0.0002102
968953 0.0000409 -0.0001954 0.9999591 0.0001954 0.9999591 0.0001954 0.0000409 -0.0001954
1013323 0.0000411 -0.0001809 0.9999589 0.0001809 0.9999589 0.0001809 0.0000411 -0.0001809
1059725 0.0000413 -0.0001668 0.9999587 0.0001668 0.9999587 0.0001668 0.0000413 -0.0001668
1108252 0.0000415 -0.0001530 0.9999585 0.0001530 0.9999585 0.0001530 0.0000415 -0.0001530
1159002 0.0000418 -0.0001395 0.9999582 0.0001395 0.9999582 0.0001395 0.0000418 -0.0001395
1212075 0.0000422 -0.0001263 0.9999578 0.0001263 0.9999578 0.0001263 0.0000422 -0.0001263
1267578 0.0000426 -0.0001133 0.9999574 0.0001133 0.9999574 0.0001133 0.0000426 -0.0001133
1325623 0.0000430 -0.0001005 0.9999570 0.0001005 0.9999570 0.0001005 0.0000430 -0.0001005
1386327 0.0000435 -0.0000879 0.9999565 0.0000879 0.9999565 0.0000879 0.0000435 -0.0000879
1449809 0.0000441 -0.0000755 0.9999559 0.0000755 0.9999559 0.0000755 0.0000441 -0.0000755
1516199 0.0000447 -0.0000631 0.9999553 0.0000631 0.9999553 0.0000631 0.0000447 -0.0000631
1585629 0.0000455 -0.0000509 0.9999545 0.0000509 0.9999545 0.0000509 0.0000455 -0.0000509
1658239 0.0000463 -0.0000387 0.9999537 0.0000387 0.9999537 0.0000387 0.0000463 -0.0000387
1734173 0.0000472 -0.0000265 0.9999528 0.0000265 0.9999528 0.0000265 0.0000472 -0.0000265
1813585 0.0000483 -0.0000143 0.9999517 0.0000143 0.9999517 0.0000143 0.0000483 -0.0000143
1896632 0.0000495 -0.0000021 0.9999505 0.0000021 0.9999505 0.0000021 0.0000495 -0.0000021
1983483 0.0000509 0.0000103 0.9999491 -0.0000103 0.9999491 -0.0000103 0.0000509 0.0000103
2074311 0.0000525 0.0000228 0.9999475 -0.0000228 0.9999475 -0.0000228 0.0000525 0.0000228
