!Murata Part Number: GRM31CR60G227ME11
!These Parameters are Measured in Series Mode Connection
!Data Generated on Mar 30, 2021
!       o--ll--o
!Port1            Port2
!       o------o
!Operation Temp=25[degC], DC Bias Voltage=0[V]
!Freq. Start=100[Hz] Stop=6[GHz] 401[Steps]
# Hz S RI R 50
!Freq.(Hz) S11(Real) S11(Imag) S21(Real) S21(Imag) S12(Real) S12(Imag) S22(Real) S22(Imag)
100 0.0127981 -0.1060507 0.9872019 0.1060507 0.9872019 0.1060507 0.0127981 -0.1060507
105 0.0117844 -0.1015493 0.9882156 0.1015493 0.9882156 0.1015493 0.0117844 -0.1015493
109 0.0108535 -0.0972308 0.9891465 0.0972308 0.9891465 0.0972308 0.0108535 -0.0972308
114 0.0099987 -0.0930887 0.9900013 0.0930887 0.9900013 0.0930887 0.0099987 -0.0930887
120 0.0092138 -0.0891170 0.9907862 0.0891170 0.9907862 0.0891170 0.0092138 -0.0891170
125 0.0084931 -0.0853095 0.9915069 0.0853095 0.9915069 0.0853095 0.0084931 -0.0853095
131 0.0078312 -0.0816602 0.9921688 0.0816602 0.9921688 0.0816602 0.0078312 -0.0816602
137 0.0072234 -0.0781632 0.9927766 0.0781632 0.9927766 0.0781632 0.0072234 -0.0781632
143 0.0066651 -0.0748128 0.9933349 0.0748128 0.9933349 0.0748128 0.0066651 -0.0748128
150 0.0061521 -0.0716033 0.9938479 0.0716033 0.9938479 0.0716033 0.0061521 -0.0716033
156 0.0056808 -0.0685293 0.9943192 0.0685293 0.9943192 0.0685293 0.0056808 -0.0685293
164 0.0052475 -0.0655853 0.9947525 0.0655853 0.9947525 0.0655853 0.0052475 -0.0655853
171 0.0048490 -0.0627662 0.9951510 0.0627662 0.9951510 0.0627662 0.0048490 -0.0627662
179 0.0044825 -0.0600670 0.9955175 0.0600670 0.9955175 0.0600670 0.0044825 -0.0600670
187 0.0041452 -0.0574828 0.9958548 0.0574828 0.9958548 0.0574828 0.0041452 -0.0574828
196 0.0038347 -0.0550089 0.9961653 0.0550089 0.9961653 0.0550089 0.0038347 -0.0550089
205 0.0035487 -0.0526406 0.9964513 0.0526406 0.9964513 0.0526406 0.0035487 -0.0526406
214 0.0032850 -0.0503737 0.9967150 0.0503737 0.9967150 0.0503737 0.0032850 -0.0503737
224 0.0030420 -0.0482039 0.9969580 0.0482039 0.9969580 0.0482039 0.0030420 -0.0482039
234 0.0028177 -0.0461270 0.9971823 0.0461270 0.9971823 0.0461270 0.0028177 -0.0461270
245 0.0026107 -0.0441391 0.9973893 0.0441391 0.9973893 0.0441391 0.0026107 -0.0441391
256 0.0024195 -0.0422365 0.9975805 0.0422365 0.9975805 0.0422365 0.0024195 -0.0422365
268 0.0022428 -0.0404155 0.9977572 0.0404155 0.9977572 0.0404155 0.0022428 -0.0404155
280 0.0020794 -0.0386726 0.9979206 0.0386726 0.9979206 0.0386726 0.0020794 -0.0386726
293 0.0019284 -0.0370045 0.9980716 0.0370045 0.9980716 0.0370045 0.0019284 -0.0370045
306 0.0017886 -0.0354080 0.9982114 0.0354080 0.9982114 0.0354080 0.0017886 -0.0354080
320 0.0016592 -0.0338799 0.9983408 0.0338799 0.9983408 0.0338799 0.0016592 -0.0338799
335 0.0015394 -0.0324174 0.9984606 0.0324174 0.9984606 0.0324174 0.0015394 -0.0324174
350 0.0014284 -0.0310176 0.9985716 0.0310176 0.9985716 0.0310176 0.0014284 -0.0310176
366 0.0013257 -0.0296779 0.9986743 0.0296779 0.9986743 0.0296779 0.0013257 -0.0296779
383 0.0012305 -0.0283956 0.9987695 0.0283956 0.9987695 0.0283956 0.0012305 -0.0283956
401 0.0011423 -0.0271683 0.9988577 0.0271683 0.9988577 0.0271683 0.0011423 -0.0271683
419 0.0010606 -0.0259937 0.9989394 0.0259937 0.9989394 0.0259937 0.0010606 -0.0259937
438 0.0009849 -0.0248694 0.9990151 0.0248694 0.9990151 0.0248694 0.0009849 -0.0248694
458 0.0009147 -0.0237934 0.9990853 0.0237934 0.9990853 0.0237934 0.0009147 -0.0237934
479 0.0008498 -0.0227636 0.9991502 0.0227636 0.9991502 0.0227636 0.0008498 -0.0227636
501 0.0007897 -0.0217781 0.9992103 0.0217781 0.9992103 0.0217781 0.0007897 -0.0217781
524 0.0007340 -0.0208349 0.9992660 0.0208349 0.9992660 0.0208349 0.0007340 -0.0208349
548 0.0006825 -0.0199322 0.9993175 0.0199322 0.9993175 0.0199322 0.0006825 -0.0199322
573 0.0006348 -0.0190684 0.9993652 0.0190684 0.9993652 0.0190684 0.0006348 -0.0190684
600 0.0005906 -0.0182418 0.9994094 0.0182418 0.9994094 0.0182418 0.0005906 -0.0182418
627 0.0005498 -0.0174507 0.9994502 0.0174507 0.9994502 0.0174507 0.0005498 -0.0174507
656 0.0005120 -0.0166938 0.9994880 0.0166938 0.9994880 0.0166938 0.0005120 -0.0166938
686 0.0004771 -0.0159696 0.9995229 0.0159696 0.9995229 0.0159696 0.0004771 -0.0159696
717 0.0004448 -0.0152766 0.9995552 0.0152766 0.9995552 0.0152766 0.0004448 -0.0152766
750 0.0004149 -0.0146136 0.9995851 0.0146136 0.9995851 0.0146136 0.0004149 -0.0146136
784 0.0003873 -0.0139792 0.9996127 0.0139792 0.9996127 0.0139792 0.0003873 -0.0139792
820 0.0003617 -0.0133723 0.9996383 0.0133723 0.9996383 0.0133723 0.0003617 -0.0133723
858 0.0003381 -0.0127917 0.9996619 0.0127917 0.9996619 0.0127917 0.0003381 -0.0127917
897 0.0003162 -0.0122363 0.9996838 0.0122363 0.9996838 0.0122363 0.0003162 -0.0122363
938 0.0002959 -0.0117049 0.9997041 0.0117049 0.9997041 0.0117049 0.0002959 -0.0117049
981 0.0002771 -0.0111966 0.9997229 0.0111966 0.9997229 0.0111966 0.0002771 -0.0111966
1026 0.0002597 -0.0107104 0.9997403 0.0107104 0.9997403 0.0107104 0.0002597 -0.0107104
1073 0.0002435 -0.0102452 0.9997565 0.0102452 0.9997565 0.0102452 0.0002435 -0.0102452
1122 0.0002285 -0.0098003 0.9997715 0.0098003 0.9997715 0.0098003 0.0002285 -0.0098003
1174 0.0002146 -0.0093747 0.9997854 0.0093747 0.9997854 0.0093747 0.0002146 -0.0093747
1227 0.0002016 -0.0089676 0.9997984 0.0089676 0.9997984 0.0089676 0.0002016 -0.0089676
1283 0.0001895 -0.0085782 0.9998105 0.0085782 0.9998105 0.0085782 0.0001895 -0.0085782
1342 0.0001783 -0.0082058 0.9998217 0.0082058 0.9998217 0.0082058 0.0001783 -0.0082058
1404 0.0001678 -0.0078495 0.9998322 0.0078495 0.9998322 0.0078495 0.0001678 -0.0078495
1468 0.0001580 -0.0075087 0.9998420 0.0075087 0.9998420 0.0075087 0.0001580 -0.0075087
1535 0.0001488 -0.0071827 0.9998512 0.0071827 0.9998512 0.0071827 0.0001488 -0.0071827
1606 0.0001402 -0.0068709 0.9998598 0.0068709 0.9998598 0.0068709 0.0001402 -0.0068709
1679 0.0001321 -0.0065727 0.9998679 0.0065727 0.9998679 0.0065727 0.0001321 -0.0065727
1756 0.0001246 -0.0062873 0.9998754 0.0062873 0.9998754 0.0062873 0.0001246 -0.0062873
1836 0.0001175 -0.0060144 0.9998825 0.0060144 0.9998825 0.0060144 0.0001175 -0.0060144
1920 0.0001108 -0.0057533 0.9998892 0.0057533 0.9998892 0.0057533 0.0001108 -0.0057533
2008 0.0001046 -0.0055036 0.9998954 0.0055036 0.9998954 0.0055036 0.0001046 -0.0055036
2100 0.0000987 -0.0052646 0.9999013 0.0052646 0.9999013 0.0052646 0.0000987 -0.0052646
2196 0.0000931 -0.0050360 0.9999069 0.0050360 0.9999069 0.0050360 0.0000931 -0.0050360
2297 0.0000879 -0.0048174 0.9999121 0.0048174 0.9999121 0.0048174 0.0000879 -0.0048174
2402 0.0000830 -0.0046082 0.9999170 0.0046082 0.9999170 0.0046082 0.0000830 -0.0046082
2512 0.0000784 -0.0044080 0.9999216 0.0044080 0.9999216 0.0044080 0.0000784 -0.0044080
2627 0.0000740 -0.0042165 0.9999260 0.0042165 0.9999260 0.0042165 0.0000740 -0.0042165
2748 0.0000699 -0.0040333 0.9999301 0.0040333 0.9999301 0.0040333 0.0000699 -0.0040333
2873 0.0000661 -0.0038581 0.9999339 0.0038581 0.9999339 0.0038581 0.0000661 -0.0038581
3005 0.0000625 -0.0036904 0.9999375 0.0036904 0.9999375 0.0036904 0.0000625 -0.0036904
3143 0.0000591 -0.0035299 0.9999409 0.0035299 0.9999409 0.0035299 0.0000591 -0.0035299
3287 0.0000559 -0.0033765 0.9999441 0.0033765 0.9999441 0.0033765 0.0000559 -0.0033765
3437 0.0000529 -0.0032296 0.9999471 0.0032296 0.9999471 0.0032296 0.0000529 -0.0032296
3594 0.0000501 -0.0030891 0.9999499 0.0030891 0.9999499 0.0030891 0.0000501 -0.0030891
3759 0.0000475 -0.0029547 0.9999525 0.0029547 0.9999525 0.0029547 0.0000475 -0.0029547
3931 0.0000450 -0.0028261 0.9999550 0.0028261 0.9999550 0.0028261 0.0000450 -0.0028261
4111 0.0000427 -0.0027031 0.9999573 0.0027031 0.9999573 0.0027031 0.0000427 -0.0027031
4299 0.0000406 -0.0025855 0.9999594 0.0025855 0.9999594 0.0025855 0.0000406 -0.0025855
4496 0.0000385 -0.0024729 0.9999615 0.0024729 0.9999615 0.0024729 0.0000385 -0.0024729
4702 0.0000367 -0.0023652 0.9999633 0.0023652 0.9999633 0.0023652 0.0000367 -0.0023652
4918 0.0000349 -0.0022621 0.9999651 0.0022621 0.9999651 0.0022621 0.0000349 -0.0022621
5143 0.0000333 -0.0021636 0.9999667 0.0021636 0.9999667 0.0021636 0.0000333 -0.0021636
5378 0.0000317 -0.0020693 0.9999683 0.0020693 0.9999683 0.0020693 0.0000317 -0.0020693
5625 0.0000303 -0.0019791 0.9999697 0.0019791 0.9999697 0.0019791 0.0000303 -0.0019791
5882 0.0000289 -0.0018928 0.9999711 0.0018928 0.9999711 0.0018928 0.0000289 -0.0018928
6151 0.0000277 -0.0018103 0.9999723 0.0018103 0.9999723 0.0018103 0.0000277 -0.0018103
6433 0.0000265 -0.0017314 0.9999735 0.0017314 0.9999735 0.0017314 0.0000265 -0.0017314
6728 0.0000254 -0.0016559 0.9999746 0.0016559 0.9999746 0.0016559 0.0000254 -0.0016559
7036 0.0000244 -0.0015836 0.9999756 0.0015836 0.9999756 0.0015836 0.0000244 -0.0015836
7358 0.0000234 -0.0015146 0.9999766 0.0015146 0.9999766 0.0015146 0.0000234 -0.0015146
7695 0.0000226 -0.0014485 0.9999774 0.0014485 0.9999774 0.0014485 0.0000226 -0.0014485
8047 0.0000217 -0.0013853 0.9999783 0.0013853 0.9999783 0.0013853 0.0000217 -0.0013853
8416 0.0000209 -0.0013248 0.9999791 0.0013248 0.9999791 0.0013248 0.0000209 -0.0013248
8801 0.0000202 -0.0012669 0.9999798 0.0012669 0.9999798 0.0012669 0.0000202 -0.0012669
9204 0.0000195 -0.0012116 0.9999805 0.0012116 0.9999805 0.0012116 0.0000195 -0.0012116
9626 0.0000189 -0.0011587 0.9999811 0.0011587 0.9999811 0.0011587 0.0000189 -0.0011587
10066 0.0000183 -0.0011081 0.9999817 0.0011081 0.9999817 0.0011081 0.0000183 -0.0011081
10527 0.0000177 -0.0010596 0.9999823 0.0010596 0.9999823 0.0010596 0.0000177 -0.0010596
11009 0.0000172 -0.0010133 0.9999828 0.0010133 0.9999828 0.0010133 0.0000172 -0.0010133
11514 0.0000167 -0.0009690 0.9999833 0.0009690 0.9999833 0.0009690 0.0000167 -0.0009690
12041 0.0000162 -0.0009266 0.9999838 0.0009266 0.9999838 0.0009266 0.0000162 -0.0009266
12592 0.0000158 -0.0008861 0.9999842 0.0008861 0.9999842 0.0008861 0.0000158 -0.0008861
13169 0.0000154 -0.0008473 0.9999846 0.0008473 0.9999846 0.0008473 0.0000154 -0.0008473
13772 0.0000150 -0.0008102 0.9999850 0.0008102 0.9999850 0.0008102 0.0000150 -0.0008102
14402 0.0000146 -0.0007747 0.9999854 0.0007747 0.9999854 0.0007747 0.0000146 -0.0007747
15062 0.0000143 -0.0007408 0.9999857 0.0007408 0.9999857 0.0007408 0.0000143 -0.0007408
15752 0.0000140 -0.0007083 0.9999860 0.0007083 0.9999860 0.0007083 0.0000140 -0.0007083
16473 0.0000137 -0.0006772 0.9999863 0.0006772 0.9999863 0.0006772 0.0000137 -0.0006772
17227 0.0000134 -0.0006475 0.9999866 0.0006475 0.9999866 0.0006475 0.0000134 -0.0006475
18016 0.0000132 -0.0006191 0.9999868 0.0006191 0.9999868 0.0006191 0.0000132 -0.0006191
18841 0.0000129 -0.0005918 0.9999871 0.0005918 0.9999871 0.0005918 0.0000129 -0.0005918
19704 0.0000127 -0.0005658 0.9999873 0.0005658 0.9999873 0.0005658 0.0000127 -0.0005658
20606 0.0000125 -0.0005409 0.9999875 0.0005409 0.9999875 0.0005409 0.0000125 -0.0005409
21550 0.0000123 -0.0005171 0.9999877 0.0005171 0.9999877 0.0005171 0.0000123 -0.0005171
22537 0.0000122 -0.0004943 0.9999878 0.0004943 0.9999878 0.0004943 0.0000122 -0.0004943
23569 0.0000120 -0.0004725 0.9999880 0.0004725 0.9999880 0.0004725 0.0000120 -0.0004725
24648 0.0000119 -0.0004517 0.9999881 0.0004517 0.9999881 0.0004517 0.0000119 -0.0004517
25777 0.0000117 -0.0004317 0.9999883 0.0004317 0.9999883 0.0004317 0.0000117 -0.0004317
26957 0.0000116 -0.0004126 0.9999884 0.0004126 0.9999884 0.0004126 0.0000116 -0.0004126
28191 0.0000115 -0.0003943 0.9999885 0.0003943 0.9999885 0.0003943 0.0000115 -0.0003943
29482 0.0000114 -0.0003768 0.9999886 0.0003768 0.9999886 0.0003768 0.0000114 -0.0003768
30832 0.0000113 -0.0003601 0.9999887 0.0003601 0.9999887 0.0003601 0.0000113 -0.0003601
32244 0.0000112 -0.0003441 0.9999888 0.0003441 0.9999888 0.0003441 0.0000112 -0.0003441
33721 0.0000111 -0.0003287 0.9999889 0.0003287 0.9999889 0.0003287 0.0000111 -0.0003287
35265 0.0000110 -0.0003141 0.9999890 0.0003141 0.9999890 0.0003141 0.0000110 -0.0003141
36880 0.0000109 -0.0003000 0.9999891 0.0003000 0.9999891 0.0003000 0.0000109 -0.0003000
38569 0.0000108 -0.0002866 0.9999892 0.0002866 0.9999892 0.0002866 0.0000108 -0.0002866
40335 0.0000108 -0.0002737 0.9999892 0.0002737 0.9999892 0.0002737 0.0000108 -0.0002737
42182 0.0000107 -0.0002613 0.9999893 0.0002613 0.9999893 0.0002613 0.0000107 -0.0002613
44113 0.0000107 -0.0002495 0.9999893 0.0002495 0.9999893 0.0002495 0.0000107 -0.0002495
46134 0.0000106 -0.0002382 0.9999894 0.0002382 0.9999894 0.0002382 0.0000106 -0.0002382
48246 0.0000106 -0.0002274 0.9999894 0.0002274 0.9999894 0.0002274 0.0000106 -0.0002274
50455 0.0000105 -0.0002170 0.9999895 0.0002170 0.9999895 0.0002170 0.0000105 -0.0002170
52766 0.0000105 -0.0002071 0.9999895 0.0002071 0.9999895 0.0002071 0.0000105 -0.0002071
55182 0.0000105 -0.0001975 0.9999895 0.0001975 0.9999895 0.0001975 0.0000105 -0.0001975
57709 0.0000104 -0.0001884 0.9999896 0.0001884 0.9999896 0.0001884 0.0000104 -0.0001884
60352 0.0000104 -0.0001796 0.9999896 0.0001796 0.9999896 0.0001796 0.0000104 -0.0001796
63115 0.0000104 -0.0001712 0.9999896 0.0001712 0.9999896 0.0001712 0.0000104 -0.0001712
66005 0.0000104 -0.0001631 0.9999896 0.0001631 0.9999896 0.0001631 0.0000104 -0.0001631
69028 0.0000103 -0.0001554 0.9999897 0.0001554 0.9999897 0.0001554 0.0000103 -0.0001554
72189 0.0000103 -0.0001479 0.9999897 0.0001479 0.9999897 0.0001479 0.0000103 -0.0001479
75495 0.0000103 -0.0001408 0.9999897 0.0001408 0.9999897 0.0001408 0.0000103 -0.0001408
78952 0.0000103 -0.0001339 0.9999897 0.0001339 0.9999897 0.0001339 0.0000103 -0.0001339
82567 0.0000103 -0.0001274 0.9999897 0.0001274 0.9999897 0.0001274 0.0000103 -0.0001274
86348 0.0000103 -0.0001210 0.9999897 0.0001210 0.9999897 0.0001210 0.0000103 -0.0001210
90302 0.0000103 -0.0001149 0.9999897 0.0001149 0.9999897 0.0001149 0.0000103 -0.0001149
94437 0.0000104 -0.0001090 0.9999896 0.0001090 0.9999896 0.0001090 0.0000104 -0.0001090
98762 0.0000104 -0.0001034 0.9999896 0.0001034 0.9999896 0.0001034 0.0000104 -0.0001034
103284 0.0000104 -0.0000979 0.9999896 0.0000979 0.9999896 0.0000979 0.0000104 -0.0000979
108014 0.0000105 -0.0000927 0.9999895 0.0000927 0.9999895 0.0000927 0.0000105 -0.0000927
112960 0.0000105 -0.0000876 0.9999895 0.0000876 0.9999895 0.0000876 0.0000105 -0.0000876
118133 0.0000106 -0.0000827 0.9999894 0.0000827 0.9999894 0.0000827 0.0000106 -0.0000827
123542 0.0000106 -0.0000780 0.9999894 0.0000780 0.9999894 0.0000780 0.0000106 -0.0000780
129199 0.0000107 -0.0000734 0.9999893 0.0000734 0.9999893 0.0000734 0.0000107 -0.0000734
135116 0.0000108 -0.0000690 0.9999892 0.0000690 0.9999892 0.0000690 0.0000108 -0.0000690
141303 0.0000109 -0.0000647 0.9999891 0.0000647 0.9999891 0.0000647 0.0000109 -0.0000647
147774 0.0000110 -0.0000605 0.9999890 0.0000605 0.9999890 0.0000605 0.0000110 -0.0000605
154540 0.0000111 -0.0000565 0.9999889 0.0000565 0.9999889 0.0000565 0.0000111 -0.0000565
161617 0.0000113 -0.0000526 0.9999887 0.0000526 0.9999887 0.0000526 0.0000113 -0.0000526
169018 0.0000114 -0.0000487 0.9999886 0.0000487 0.9999886 0.0000487 0.0000114 -0.0000487
176758 0.0000116 -0.0000450 0.9999884 0.0000450 0.9999884 0.0000450 0.0000116 -0.0000450
184852 0.0000118 -0.0000414 0.9999882 0.0000414 0.9999882 0.0000414 0.0000118 -0.0000414
193316 0.0000120 -0.0000378 0.9999880 0.0000378 0.9999880 0.0000378 0.0000120 -0.0000378
202169 0.0000123 -0.0000343 0.9999877 0.0000343 0.9999877 0.0000343 0.0000123 -0.0000343
211427 0.0000125 -0.0000309 0.9999875 0.0000309 0.9999875 0.0000309 0.0000125 -0.0000309
221108 0.0000129 -0.0000276 0.9999871 0.0000276 0.9999871 0.0000276 0.0000129 -0.0000276
231233 0.0000132 -0.0000243 0.9999868 0.0000243 0.9999868 0.0000243 0.0000132 -0.0000243
241822 0.0000136 -0.0000211 0.9999864 0.0000211 0.9999864 0.0000211 0.0000136 -0.0000211
252896 0.0000140 -0.0000179 0.9999860 0.0000179 0.9999860 0.0000179 0.0000140 -0.0000179
264476 0.0000145 -0.0000148 0.9999855 0.0000148 0.9999855 0.0000148 0.0000145 -0.0000148
276587 0.0000150 -0.0000117 0.9999850 0.0000117 0.9999850 0.0000117 0.0000150 -0.0000117
289253 0.0000156 -0.0000086 0.9999844 0.0000086 0.9999844 0.0000086 0.0000156 -0.0000086
302498 0.0000163 -0.0000056 0.9999837 0.0000056 0.9999837 0.0000056 0.0000163 -0.0000056
316350 0.0000170 -0.0000026 0.9999830 0.0000026 0.9999830 0.0000026 0.0000170 -0.0000026
330837 0.0000179 0.0000004 0.9999821 -0.0000004 0.9999821 -0.0000004 0.0000179 0.0000004
345986 0.0000188 0.0000033 0.9999812 -0.0000033 0.9999812 -0.0000033 0.0000188 0.0000033
361830 0.0000199 0.0000062 0.9999801 -0.0000062 0.9999801 -0.0000062 0.0000199 0.0000062
378399 0.0000211 0.0000090 0.9999789 -0.0000090 0.9999789 -0.0000090 0.0000211 0.0000090
395726 0.0000224 0.0000117 0.9999776 -0.0000117 0.9999776 -0.0000117 0.0000224 0.0000117
413847 0.0000239 0.0000142 0.9999761 -0.0000142 0.9999761 -0.0000142 0.0000239 0.0000142
432798 0.0000255 0.0000166 0.9999745 -0.0000166 0.9999745 -0.0000166 0.0000255 0.0000166
452617 0.0000272 0.0000188 0.9999728 -0.0000188 0.9999728 -0.0000188 0.0000272 0.0000188
473344 0.0000289 0.0000208 0.9999711 -0.0000208 0.9999711 -0.0000208 0.0000289 0.0000208
495019 0.0000306 0.0000225 0.9999694 -0.0000225 0.9999694 -0.0000225 0.0000306 0.0000225
517687 0.0000322 0.0000240 0.9999678 -0.0000240 0.9999678 -0.0000240 0.0000322 0.0000240
541393 0.0000336 0.0000253 0.9999664 -0.0000253 0.9999664 -0.0000253 0.0000336 0.0000253
566185 0.0000349 0.0000266 0.9999651 -0.0000266 0.9999651 -0.0000266 0.0000349 0.0000266
592111 0.0000360 0.0000279 0.9999640 -0.0000279 0.9999640 -0.0000279 0.0000360 0.0000279
619225 0.0000371 0.0000293 0.9999629 -0.0000293 0.9999629 -0.0000293 0.0000371 0.0000293
647581 0.0000383 0.0000308 0.9999617 -0.0000308 0.9999617 -0.0000308 0.0000383 0.0000308
677235 0.0000395 0.0000321 0.9999605 -0.0000321 0.9999605 -0.0000321 0.0000395 0.0000321
708247 0.0000409 0.0000332 0.9999591 -0.0000332 0.9999591 -0.0000332 0.0000409 0.0000332
740679 0.0000420 0.0000339 0.9999580 -0.0000339 0.9999580 -0.0000339 0.0000420 0.0000339
774597 0.0000427 0.0000344 0.9999573 -0.0000344 0.9999573 -0.0000344 0.0000427 0.0000344
810067 0.0000429 0.0000351 0.9999571 -0.0000351 0.9999571 -0.0000351 0.0000429 0.0000351
847162 0.0000426 0.0000361 0.9999574 -0.0000361 0.9999574 -0.0000361 0.0000426 0.0000361
885955 0.0000421 0.0000376 0.9999579 -0.0000376 0.9999579 -0.0000376 0.0000421 0.0000376
926525 0.0000418 0.0000397 0.9999582 -0.0000397 0.9999582 -0.0000397 0.0000418 0.0000397
968953 0.0000417 0.0000420 0.9999583 -0.0000420 0.9999583 -0.0000420 0.0000417 0.0000420
1013323 0.0000419 0.0000446 0.9999581 -0.0000446 0.9999581 -0.0000446 0.0000419 0.0000446
1059725 0.0000423 0.0000472 0.9999577 -0.0000472 0.9999577 -0.0000472 0.0000423 0.0000472
1108252 0.0000429 0.0000499 0.9999571 -0.0000499 0.9999571 -0.0000499 0.0000429 0.0000499
1159002 0.0000436 0.0000525 0.9999564 -0.0000525 0.9999564 -0.0000525 0.0000436 0.0000525
1212075 0.0000445 0.0000552 0.9999555 -0.0000552 0.9999555 -0.0000552 0.0000445 0.0000552
1267578 0.0000454 0.0000578 0.9999546 -0.0000578 0.9999546 -0.0000578 0.0000454 0.0000578
1325623 0.0000465 0.0000605 0.9999535 -0.0000605 0.9999535 -0.0000605 0.0000465 0.0000605
1386327 0.0000475 0.0000631 0.9999525 -0.0000631 0.9999525 -0.0000631 0.0000475 0.0000631
1449809 0.0000486 0.0000657 0.9999514 -0.0000657 0.9999514 -0.0000657 0.0000486 0.0000657
1516199 0.0000497 0.0000684 0.9999503 -0.0000684 0.9999503 -0.0000684 0.0000497 0.0000684
1585629 0.0000509 0.0000710 0.9999491 -0.0000710 0.9999491 -0.0000710 0.0000509 0.0000710
1658239 0.0000520 0.0000737 0.9999480 -0.0000737 0.9999480 -0.0000737 0.0000520 0.0000737
1734173 0.0000531 0.0000764 0.9999469 -0.0000764 0.9999469 -0.0000764 0.0000531 0.0000764
1813585 0.0000542 0.0000792 0.9999458 -0.0000792 0.9999458 -0.0000792 0.0000542 0.0000792
1896632 0.0000553 0.0000820 0.9999447 -0.0000820 0.9999447 -0.0000820 0.0000553 0.0000820
1983483 0.0000564 0.0000849 0.9999436 -0.0000849 0.9999436 -0.0000849 0.0000564 0.0000849
2074311 0.0000575 0.0000879 0.9999425 -0.0000879 0.9999425 -0.0000879 0.0000575 0.0000879
