!Murata Part Number: GRM31CR11A106MA01
!These Parameters are Measured in Series Mode Connection
!Data Generated on Mar 30, 2021
!       o--ll--o
!Port1            Port2
!       o------o
!Operation Temp=25[degC], DC Bias Voltage=0[V]
!Freq. Start=100[Hz] Stop=6[GHz] 401[Steps]
# Hz S RI R 50
!Freq.(Hz) S11(Real) S11(Imag) S21(Real) S21(Imag) S12(Real) S12(Imag) S22(Real) S22(Imag)
100 0.7380414 -0.4369599 0.2619586 0.4369599 0.2619586 0.4369599 0.7380414 -0.4369599
105 0.7205399 -0.4459912 0.2794601 0.4459912 0.2794601 0.4459912 0.7205399 -0.4459912
109 0.7023381 -0.4544848 0.2976619 0.4544848 0.2976619 0.4544848 0.7023381 -0.4544848
114 0.6834691 -0.4623749 0.3165309 0.4623749 0.3165309 0.4623749 0.6834691 -0.4623749
120 0.6639740 -0.4695973 0.3360260 0.4695973 0.3360260 0.4695973 0.6639740 -0.4695973
125 0.6439019 -0.4760910 0.3560981 0.4760910 0.3560981 0.4760910 0.6439019 -0.4760910
131 0.6233095 -0.4817992 0.3766905 0.4817992 0.3766905 0.4817992 0.6233095 -0.4817992
137 0.6022606 -0.4866704 0.3977394 0.4866704 0.3977394 0.4866704 0.6022606 -0.4866704
143 0.5808257 -0.4906595 0.4191743 0.4906595 0.4191743 0.4906595 0.5808257 -0.4906595
150 0.5590808 -0.4937287 0.4409192 0.4937287 0.4409192 0.4937287 0.5590808 -0.4937287
156 0.5371068 -0.4958486 0.4628932 0.4958486 0.4628932 0.4958486 0.5371068 -0.4958486
164 0.5149878 -0.4969985 0.4850122 0.4969985 0.4850122 0.4969985 0.5149878 -0.4969985
171 0.4928104 -0.4971674 0.5071896 0.4971674 0.5071896 0.4971674 0.4928104 -0.4971674
179 0.4706620 -0.4963536 0.5293380 0.4963536 0.5293380 0.4963536 0.4706620 -0.4963536
187 0.4486294 -0.4945653 0.5513706 0.4945653 0.5513706 0.4945653 0.4486294 -0.4945653
196 0.4267977 -0.4918202 0.5732023 0.4918202 0.5732023 0.4918202 0.4267977 -0.4918202
205 0.4052488 -0.4881448 0.5947512 0.4881448 0.5947512 0.4881448 0.4052488 -0.4881448
214 0.3840601 -0.4835742 0.6159399 0.4835742 0.6159399 0.4835742 0.3840601 -0.4835742
224 0.3633039 -0.4781511 0.6366961 0.4781511 0.6366961 0.4781511 0.3633039 -0.4781511
234 0.3430461 -0.4719249 0.6569539 0.4719249 0.6569539 0.4719249 0.3430461 -0.4719249
245 0.3233456 -0.4649504 0.6766544 0.4649504 0.6766544 0.4649504 0.3233456 -0.4649504
256 0.3042540 -0.4572871 0.6957460 0.4572871 0.6957460 0.4572871 0.3042540 -0.4572871
268 0.2858150 -0.4489980 0.7141850 0.4489980 0.7141850 0.4489980 0.2858150 -0.4489980
280 0.2680643 -0.4401479 0.7319357 0.4401479 0.7319357 0.4401479 0.2680643 -0.4401479
293 0.2510302 -0.4308031 0.7489698 0.4308031 0.7489698 0.4308031 0.2510302 -0.4308031
306 0.2347329 -0.4210300 0.7652671 0.4210300 0.7652671 0.4210300 0.2347329 -0.4210300
320 0.2191858 -0.4108941 0.7808142 0.4108941 0.7808142 0.4108941 0.2191858 -0.4108941
335 0.2043952 -0.4004594 0.7956048 0.4004594 0.7956048 0.4004594 0.2043952 -0.4004594
350 0.1903613 -0.3897876 0.8096387 0.3897876 0.8096387 0.3897876 0.1903613 -0.3897876
366 0.1770786 -0.3789374 0.8229214 0.3789374 0.8229214 0.3789374 0.1770786 -0.3789374
383 0.1645367 -0.3679643 0.8354633 0.3679643 0.8354633 0.3679643 0.1645367 -0.3679643
401 0.1527206 -0.3569202 0.8472794 0.3569202 0.8472794 0.3569202 0.1527206 -0.3569202
419 0.1416119 -0.3458528 0.8583881 0.3458528 0.8583881 0.3458528 0.1416119 -0.3458528
438 0.1311888 -0.3348060 0.8688112 0.3348060 0.8688112 0.3348060 0.1311888 -0.3348060
458 0.1214274 -0.3238196 0.8785726 0.3238196 0.8785726 0.3238196 0.1214274 -0.3238196
479 0.1123014 -0.3129293 0.8876986 0.3129293 0.8876986 0.3129293 0.1123014 -0.3129293
501 0.1037836 -0.3021666 0.8962164 0.3021666 0.8962164 0.3021666 0.1037836 -0.3021666
524 0.0958454 -0.2915594 0.9041546 0.2915594 0.9041546 0.2915594 0.0958454 -0.2915594
548 0.0884578 -0.2811319 0.9115422 0.2811319 0.9115422 0.2811319 0.0884578 -0.2811319
573 0.0815918 -0.2709048 0.9184082 0.2709048 0.9184082 0.2709048 0.0815918 -0.2709048
600 0.0752184 -0.2608954 0.9247816 0.2608954 0.9247816 0.2608954 0.0752184 -0.2608954
627 0.0693087 -0.2511181 0.9306913 0.2511181 0.9306913 0.2511181 0.0693087 -0.2511181
656 0.0638350 -0.2415846 0.9361650 0.2415846 0.9361650 0.2415846 0.0638350 -0.2415846
686 0.0587697 -0.2323040 0.9412303 0.2323040 0.9412303 0.2323040 0.0587697 -0.2323040
717 0.0540867 -0.2232831 0.9459133 0.2232831 0.9459133 0.2232831 0.0540867 -0.2232831
750 0.0497605 -0.2145267 0.9502395 0.2145267 0.9502395 0.2145267 0.0497605 -0.2145267
784 0.0457670 -0.2060377 0.9542330 0.2060377 0.9542330 0.2060377 0.0457670 -0.2060377
820 0.0420829 -0.1978175 0.9579171 0.1978175 0.9579171 0.1978175 0.0420829 -0.1978175
858 0.0386865 -0.1898659 0.9613135 0.1898659 0.9613135 0.1898659 0.0386865 -0.1898659
897 0.0355570 -0.1821816 0.9644430 0.1821816 0.9644430 0.1821816 0.0355570 -0.1821816
938 0.0326748 -0.1747621 0.9673252 0.1747621 0.9673252 0.1747621 0.0326748 -0.1747621
981 0.0300215 -0.1676041 0.9699785 0.1676041 0.9699785 0.1676041 0.0300215 -0.1676041
1026 0.0275801 -0.1607035 0.9724199 0.1607035 0.9724199 0.1607035 0.0275801 -0.1607035
1073 0.0253343 -0.1540556 0.9746657 0.1540556 0.9746657 0.1540556 0.0253343 -0.1540556
1122 0.0232691 -0.1476549 0.9767309 0.1476549 0.9767309 0.1476549 0.0232691 -0.1476549
1174 0.0213705 -0.1414958 0.9786295 0.1414958 0.9786295 0.1414958 0.0213705 -0.1414958
1227 0.0196255 -0.1355721 0.9803745 0.1355721 0.9803745 0.1355721 0.0196255 -0.1355721
1283 0.0180220 -0.1298776 0.9819780 0.1298776 0.9819780 0.1298776 0.0180220 -0.1298776
1342 0.0165488 -0.1244057 0.9834512 0.1244057 0.9834512 0.1244057 0.0165488 -0.1244057
1404 0.0151955 -0.1191497 0.9848045 0.1191497 0.9848045 0.1191497 0.0151955 -0.1191497
1468 0.0139525 -0.1141028 0.9860475 0.1141028 0.9860475 0.1141028 0.0139525 -0.1141028
1535 0.0128110 -0.1092584 0.9871890 0.1092584 0.9871890 0.1092584 0.0128110 -0.1092584
1606 0.0117628 -0.1046096 0.9882372 0.1046096 0.9882372 0.1046096 0.0117628 -0.1046096
1679 0.0108004 -0.1001497 0.9891996 0.1001497 0.9891996 0.1001497 0.0108004 -0.1001497
1756 0.0099169 -0.0958722 0.9900831 0.0958722 0.9900831 0.0958722 0.0099169 -0.0958722
1836 0.0091057 -0.0917704 0.9908943 0.0917704 0.9908943 0.0917704 0.0091057 -0.0917704
1920 0.0083611 -0.0878379 0.9916389 0.0878379 0.9916389 0.0878379 0.0083611 -0.0878379
2008 0.0076777 -0.0840685 0.9923223 0.0840685 0.9923223 0.0840685 0.0076777 -0.0840685
2100 0.0070504 -0.0804559 0.9929496 0.0804559 0.9929496 0.0804559 0.0070504 -0.0804559
2196 0.0064748 -0.0769944 0.9935252 0.0769944 0.9935252 0.0769944 0.0064748 -0.0769944
2297 0.0059465 -0.0736779 0.9940535 0.0736779 0.9940535 0.0736779 0.0059465 -0.0736779
2402 0.0054618 -0.0705009 0.9945382 0.0705009 0.9945382 0.0705009 0.0054618 -0.0705009
2512 0.0050170 -0.0674578 0.9949830 0.0674578 0.9949830 0.0674578 0.0050170 -0.0674578
2627 0.0046090 -0.0645434 0.9953910 0.0645434 0.9953910 0.0645434 0.0046090 -0.0645434
2748 0.0042347 -0.0617526 0.9957653 0.0617526 0.9957653 0.0617526 0.0042347 -0.0617526
2873 0.0038913 -0.0590804 0.9961087 0.0590804 0.9961087 0.0590804 0.0038913 -0.0590804
3005 0.0035764 -0.0565219 0.9964236 0.0565219 0.9964236 0.0565219 0.0035764 -0.0565219
3143 0.0032875 -0.0540726 0.9967125 0.0540726 0.9967125 0.0540726 0.0032875 -0.0540726
3287 0.0030226 -0.0517279 0.9969774 0.0517279 0.9969774 0.0517279 0.0030226 -0.0517279
3437 0.0027797 -0.0494837 0.9972203 0.0494837 0.9972203 0.0494837 0.0027797 -0.0494837
3594 0.0025569 -0.0473357 0.9974431 0.0473357 0.9974431 0.0473357 0.0025569 -0.0473357
3759 0.0023526 -0.0452801 0.9976474 0.0452801 0.9976474 0.0452801 0.0023526 -0.0452801
3931 0.0021652 -0.0433128 0.9978348 0.0433128 0.9978348 0.0433128 0.0021652 -0.0433128
4111 0.0019934 -0.0414303 0.9980066 0.0414303 0.9980066 0.0414303 0.0019934 -0.0414303
4299 0.0018359 -0.0396290 0.9981641 0.0396290 0.9981641 0.0396290 0.0018359 -0.0396290
4496 0.0016914 -0.0379055 0.9983086 0.0379055 0.9983086 0.0379055 0.0016914 -0.0379055
4702 0.0015589 -0.0362565 0.9984411 0.0362565 0.9984411 0.0362565 0.0015589 -0.0362565
4918 0.0014374 -0.0346788 0.9985626 0.0346788 0.9985626 0.0346788 0.0014374 -0.0346788
5143 0.0013259 -0.0331695 0.9986741 0.0331695 0.9986741 0.0331695 0.0013259 -0.0331695
5378 0.0012236 -0.0317256 0.9987764 0.0317256 0.9987764 0.0317256 0.0012236 -0.0317256
5625 0.0011297 -0.0303444 0.9988703 0.0303444 0.9988703 0.0303444 0.0011297 -0.0303444
5882 0.0010436 -0.0290231 0.9989564 0.0290231 0.9989564 0.0290231 0.0010436 -0.0290231
6151 0.0009645 -0.0277592 0.9990355 0.0277592 0.9990355 0.0277592 0.0009645 -0.0277592
6433 0.0008919 -0.0265502 0.9991081 0.0265502 0.9991081 0.0265502 0.0008919 -0.0265502
6728 0.0008251 -0.0253938 0.9991749 0.0253938 0.9991749 0.0253938 0.0008251 -0.0253938
7036 0.0007638 -0.0242876 0.9992362 0.0242876 0.9992362 0.0242876 0.0007638 -0.0242876
7358 0.0007074 -0.0232297 0.9992926 0.0232297 0.9992926 0.0232297 0.0007074 -0.0232297
7695 0.0006556 -0.0222177 0.9993444 0.0222177 0.9993444 0.0222177 0.0006556 -0.0222177
8047 0.0006079 -0.0212498 0.9993921 0.0212498 0.9993921 0.0212498 0.0006079 -0.0212498
8416 0.0005640 -0.0203240 0.9994360 0.0203240 0.9994360 0.0203240 0.0005640 -0.0203240
8801 0.0005235 -0.0194386 0.9994765 0.0194386 0.9994765 0.0194386 0.0005235 -0.0194386
9204 0.0004863 -0.0185916 0.9995137 0.0185916 0.9995137 0.0185916 0.0004863 -0.0185916
9626 0.0004520 -0.0177816 0.9995480 0.0177816 0.9995480 0.0177816 0.0004520 -0.0177816
10066 0.0004203 -0.0170068 0.9995797 0.0170068 0.9995797 0.0170068 0.0004203 -0.0170068
10527 0.0003911 -0.0162658 0.9996089 0.0162658 0.9996089 0.0162658 0.0003911 -0.0162658
11009 0.0003641 -0.0155570 0.9996359 0.0155570 0.9996359 0.0155570 0.0003641 -0.0155570
11514 0.0003393 -0.0148790 0.9996607 0.0148790 0.9996607 0.0148790 0.0003393 -0.0148790
12041 0.0003163 -0.0142306 0.9996837 0.0142306 0.9996837 0.0142306 0.0003163 -0.0142306
12592 0.0002951 -0.0136104 0.9997049 0.0136104 0.9997049 0.0136104 0.0002951 -0.0136104
13169 0.0002755 -0.0130172 0.9997245 0.0130172 0.9997245 0.0130172 0.0002755 -0.0130172
13772 0.0002573 -0.0124498 0.9997427 0.0124498 0.9997427 0.0124498 0.0002573 -0.0124498
14402 0.0002406 -0.0119070 0.9997594 0.0119070 0.9997594 0.0119070 0.0002406 -0.0119070
15062 0.0002251 -0.0113879 0.9997749 0.0113879 0.9997749 0.0113879 0.0002251 -0.0113879
15752 0.0002108 -0.0108914 0.9997892 0.0108914 0.9997892 0.0108914 0.0002108 -0.0108914
16473 0.0001976 -0.0104165 0.9998024 0.0104165 0.9998024 0.0104165 0.0001976 -0.0104165
17227 0.0001853 -0.0099622 0.9998147 0.0099622 0.9998147 0.0099622 0.0001853 -0.0099622
18016 0.0001740 -0.0095277 0.9998260 0.0095277 0.9998260 0.0095277 0.0001740 -0.0095277
18841 0.0001636 -0.0091122 0.9998364 0.0091122 0.9998364 0.0091122 0.0001636 -0.0091122
19704 0.0001539 -0.0087147 0.9998461 0.0087147 0.9998461 0.0087147 0.0001539 -0.0087147
20606 0.0001450 -0.0083345 0.9998550 0.0083345 0.9998550 0.0083345 0.0001450 -0.0083345
21550 0.0001367 -0.0079709 0.9998633 0.0079709 0.9998633 0.0079709 0.0001367 -0.0079709
22537 0.0001291 -0.0076231 0.9998709 0.0076231 0.9998709 0.0076231 0.0001291 -0.0076231
23569 0.0001220 -0.0072904 0.9998780 0.0072904 0.9998780 0.0072904 0.0001220 -0.0072904
24648 0.0001155 -0.0069723 0.9998845 0.0069723 0.9998845 0.0069723 0.0001155 -0.0069723
25777 0.0001094 -0.0066680 0.9998906 0.0066680 0.9998906 0.0066680 0.0001094 -0.0066680
26957 0.0001038 -0.0063770 0.9998962 0.0063770 0.9998962 0.0063770 0.0001038 -0.0063770
28191 0.0000987 -0.0060986 0.9999013 0.0060986 0.9999013 0.0060986 0.0000987 -0.0060986
29482 0.0000939 -0.0058324 0.9999061 0.0058324 0.9999061 0.0058324 0.0000939 -0.0058324
30832 0.0000894 -0.0055778 0.9999106 0.0055778 0.9999106 0.0055778 0.0000894 -0.0055778
32244 0.0000853 -0.0053343 0.9999147 0.0053343 0.9999147 0.0053343 0.0000853 -0.0053343
33721 0.0000815 -0.0051015 0.9999185 0.0051015 0.9999185 0.0051015 0.0000815 -0.0051015
35265 0.0000779 -0.0048788 0.9999221 0.0048788 0.9999221 0.0048788 0.0000779 -0.0048788
36880 0.0000746 -0.0046658 0.9999254 0.0046658 0.9999254 0.0046658 0.0000746 -0.0046658
38569 0.0000716 -0.0044620 0.9999284 0.0044620 0.9999284 0.0044620 0.0000716 -0.0044620
40335 0.0000687 -0.0042672 0.9999313 0.0042672 0.9999313 0.0042672 0.0000687 -0.0042672
42182 0.0000660 -0.0040809 0.9999340 0.0040809 0.9999340 0.0040809 0.0000660 -0.0040809
44113 0.0000636 -0.0039027 0.9999364 0.0039027 0.9999364 0.0039027 0.0000636 -0.0039027
46134 0.0000612 -0.0037322 0.9999388 0.0037322 0.9999388 0.0037322 0.0000612 -0.0037322
48246 0.0000590 -0.0035692 0.9999410 0.0035692 0.9999410 0.0035692 0.0000590 -0.0035692
50455 0.0000570 -0.0034133 0.9999430 0.0034133 0.9999430 0.0034133 0.0000570 -0.0034133
52766 0.0000551 -0.0032642 0.9999449 0.0032642 0.9999449 0.0032642 0.0000551 -0.0032642
55182 0.0000533 -0.0031216 0.9999467 0.0031216 0.9999467 0.0031216 0.0000533 -0.0031216
57709 0.0000516 -0.0029851 0.9999484 0.0029851 0.9999484 0.0029851 0.0000516 -0.0029851
60352 0.0000500 -0.0028546 0.9999500 0.0028546 0.9999500 0.0028546 0.0000500 -0.0028546
63115 0.0000485 -0.0027298 0.9999515 0.0027298 0.9999515 0.0027298 0.0000485 -0.0027298
66005 0.0000470 -0.0026104 0.9999530 0.0026104 0.9999530 0.0026104 0.0000470 -0.0026104
69028 0.0000457 -0.0024962 0.9999543 0.0024962 0.9999543 0.0024962 0.0000457 -0.0024962
72189 0.0000444 -0.0023870 0.9999556 0.0023870 0.9999556 0.0023870 0.0000444 -0.0023870
75495 0.0000432 -0.0022824 0.9999568 0.0022824 0.9999568 0.0022824 0.0000432 -0.0022824
78952 0.0000421 -0.0021825 0.9999579 0.0021825 0.9999579 0.0021825 0.0000421 -0.0021825
82567 0.0000410 -0.0020868 0.9999590 0.0020868 0.9999590 0.0020868 0.0000410 -0.0020868
86348 0.0000400 -0.0019953 0.9999600 0.0019953 0.9999600 0.0019953 0.0000400 -0.0019953
90302 0.0000390 -0.0019077 0.9999610 0.0019077 0.9999610 0.0019077 0.0000390 -0.0019077
94437 0.0000381 -0.0018240 0.9999619 0.0018240 0.9999619 0.0018240 0.0000381 -0.0018240
98762 0.0000373 -0.0017438 0.9999627 0.0017438 0.9999627 0.0017438 0.0000373 -0.0017438
103284 0.0000365 -0.0016671 0.9999635 0.0016671 0.9999635 0.0016671 0.0000365 -0.0016671
108014 0.0000357 -0.0015937 0.9999643 0.0015937 0.9999643 0.0015937 0.0000357 -0.0015937
112960 0.0000350 -0.0015235 0.9999650 0.0015235 0.9999650 0.0015235 0.0000350 -0.0015235
118133 0.0000343 -0.0014563 0.9999657 0.0014563 0.9999657 0.0014563 0.0000343 -0.0014563
123542 0.0000337 -0.0013920 0.9999663 0.0013920 0.9999663 0.0013920 0.0000337 -0.0013920
129199 0.0000331 -0.0013304 0.9999669 0.0013304 0.9999669 0.0013304 0.0000331 -0.0013304
135116 0.0000326 -0.0012715 0.9999674 0.0012715 0.9999674 0.0012715 0.0000326 -0.0012715
141303 0.0000321 -0.0012151 0.9999679 0.0012151 0.9999679 0.0012151 0.0000321 -0.0012151
147774 0.0000316 -0.0011611 0.9999684 0.0011611 0.9999684 0.0011611 0.0000316 -0.0011611
154540 0.0000312 -0.0011095 0.9999688 0.0011095 0.9999688 0.0011095 0.0000312 -0.0011095
161617 0.0000308 -0.0010600 0.9999692 0.0010600 0.9999692 0.0010600 0.0000308 -0.0010600
169018 0.0000304 -0.0010127 0.9999696 0.0010127 0.9999696 0.0010127 0.0000304 -0.0010127
176758 0.0000301 -0.0009673 0.9999699 0.0009673 0.9999699 0.0009673 0.0000301 -0.0009673
184852 0.0000298 -0.0009239 0.9999702 0.0009239 0.9999702 0.0009239 0.0000298 -0.0009239
193316 0.0000295 -0.0008824 0.9999705 0.0008824 0.9999705 0.0008824 0.0000295 -0.0008824
202169 0.0000292 -0.0008426 0.9999708 0.0008426 0.9999708 0.0008426 0.0000292 -0.0008426
211427 0.0000290 -0.0008044 0.9999710 0.0008044 0.9999710 0.0008044 0.0000290 -0.0008044
221108 0.0000287 -0.0007679 0.9999713 0.0007679 0.9999713 0.0007679 0.0000287 -0.0007679
231233 0.0000285 -0.0007329 0.9999715 0.0007329 0.9999715 0.0007329 0.0000285 -0.0007329
241822 0.0000284 -0.0006994 0.9999716 0.0006994 0.9999716 0.0006994 0.0000284 -0.0006994
252896 0.0000282 -0.0006673 0.9999718 0.0006673 0.9999718 0.0006673 0.0000282 -0.0006673
264476 0.0000281 -0.0006365 0.9999719 0.0006365 0.9999719 0.0006365 0.0000281 -0.0006365
276587 0.0000279 -0.0006069 0.9999721 0.0006069 0.9999721 0.0006069 0.0000279 -0.0006069
289253 0.0000278 -0.0005786 0.9999722 0.0005786 0.9999722 0.0005786 0.0000278 -0.0005786
302498 0.0000277 -0.0005514 0.9999723 0.0005514 0.9999723 0.0005514 0.0000277 -0.0005514
316350 0.0000277 -0.0005254 0.9999723 0.0005254 0.9999723 0.0005254 0.0000277 -0.0005254
330837 0.0000276 -0.0005004 0.9999724 0.0005004 0.9999724 0.0005004 0.0000276 -0.0005004
345986 0.0000276 -0.0004764 0.9999724 0.0004764 0.9999724 0.0004764 0.0000276 -0.0004764
361830 0.0000275 -0.0004533 0.9999725 0.0004533 0.9999725 0.0004533 0.0000275 -0.0004533
378399 0.0000275 -0.0004311 0.9999725 0.0004311 0.9999725 0.0004311 0.0000275 -0.0004311
395726 0.0000275 -0.0004098 0.9999725 0.0004098 0.9999725 0.0004098 0.0000275 -0.0004098
413847 0.0000275 -0.0003894 0.9999725 0.0003894 0.9999725 0.0003894 0.0000275 -0.0003894
432798 0.0000276 -0.0003697 0.9999724 0.0003697 0.9999724 0.0003697 0.0000276 -0.0003697
452617 0.0000276 -0.0003507 0.9999724 0.0003507 0.9999724 0.0003507 0.0000276 -0.0003507
473344 0.0000277 -0.0003325 0.9999723 0.0003325 0.9999723 0.0003325 0.0000277 -0.0003325
495019 0.0000278 -0.0003149 0.9999722 0.0003149 0.9999722 0.0003149 0.0000278 -0.0003149
517687 0.0000279 -0.0002980 0.9999721 0.0002980 0.9999721 0.0002980 0.0000279 -0.0002980
541393 0.0000280 -0.0002816 0.9999720 0.0002816 0.9999720 0.0002816 0.0000280 -0.0002816
566185 0.0000281 -0.0002658 0.9999719 0.0002658 0.9999719 0.0002658 0.0000281 -0.0002658
592111 0.0000283 -0.0002505 0.9999717 0.0002505 0.9999717 0.0002505 0.0000283 -0.0002505
619225 0.0000285 -0.0002358 0.9999715 0.0002358 0.9999715 0.0002358 0.0000285 -0.0002358
647581 0.0000287 -0.0002215 0.9999713 0.0002215 0.9999713 0.0002215 0.0000287 -0.0002215
677235 0.0000289 -0.0002076 0.9999711 0.0002076 0.9999711 0.0002076 0.0000289 -0.0002076
708247 0.0000291 -0.0001942 0.9999709 0.0001942 0.9999709 0.0001942 0.0000291 -0.0001942
740679 0.0000294 -0.0001812 0.9999706 0.0001812 0.9999706 0.0001812 0.0000294 -0.0001812
774597 0.0000297 -0.0001685 0.9999703 0.0001685 0.9999703 0.0001685 0.0000297 -0.0001685
810067 0.0000301 -0.0001561 0.9999699 0.0001561 0.9999699 0.0001561 0.0000301 -0.0001561
847162 0.0000305 -0.0001441 0.9999695 0.0001441 0.9999695 0.0001441 0.0000305 -0.0001441
885955 0.0000309 -0.0001323 0.9999691 0.0001323 0.9999691 0.0001323 0.0000309 -0.0001323
926525 0.0000314 -0.0001208 0.9999686 0.0001208 0.9999686 0.0001208 0.0000314 -0.0001208
968953 0.0000319 -0.0001096 0.9999681 0.0001096 0.9999681 0.0001096 0.0000319 -0.0001096
1013323 0.0000325 -0.0000985 0.9999675 0.0000985 0.9999675 0.0000985 0.0000325 -0.0000985
1059725 0.0000331 -0.0000877 0.9999669 0.0000877 0.9999669 0.0000877 0.0000331 -0.0000877
1108252 0.0000338 -0.0000770 0.9999662 0.0000770 0.9999662 0.0000770 0.0000338 -0.0000770
1159002 0.0000346 -0.0000665 0.9999654 0.0000665 0.9999654 0.0000665 0.0000346 -0.0000665
1212075 0.0000355 -0.0000560 0.9999645 0.0000560 0.9999645 0.0000560 0.0000355 -0.0000560
1267578 0.0000365 -0.0000457 0.9999635 0.0000457 0.9999635 0.0000457 0.0000365 -0.0000457
1325623 0.0000376 -0.0000354 0.9999624 0.0000354 0.9999624 0.0000354 0.0000376 -0.0000354
1386327 0.0000388 -0.0000252 0.9999612 0.0000252 0.9999612 0.0000252 0.0000388 -0.0000252
1449809 0.0000401 -0.0000150 0.9999599 0.0000150 0.9999599 0.0000150 0.0000401 -0.0000150
1516199 0.0000416 -0.0000048 0.9999584 0.0000048 0.9999584 0.0000048 0.0000416 -0.0000048
1585629 0.0000433 0.0000054 0.9999567 -0.0000054 0.9999567 -0.0000054 0.0000433 0.0000054
1658239 0.0000453 0.0000158 0.9999547 -0.0000158 0.9999547 -0.0000158 0.0000453 0.0000158
1734173 0.0000476 0.0000262 0.9999524 -0.0000262 0.9999524 -0.0000262 0.0000476 0.0000262
1813585 0.0000502 0.0000367 0.9999498 -0.0000367 0.9999498 -0.0000367 0.0000502 0.0000367
1896632 0.0000532 0.0000474 0.9999468 -0.0000474 0.9999468 -0.0000474 0.0000532 0.0000474
1983483 0.0000569 0.0000583 0.9999431 -0.0000583 0.9999431 -0.0000583 0.0000569 0.0000583
2074311 0.0000614 0.0000694 0.9999386 -0.0000694 0.9999386 -0.0000694 0.0000614 0.0000694
