!Murata Part Number: GRM31BR72J332KW01
!These Parameters are Measured in Series Mode Connection
!Data Generated on Mar 30, 2021
!       o--ll--o
!Port1            Port2
!       o------o
!Operation Temp=25[degC], DC Bias Voltage=0[V]
!Freq. Start=100[kHz] Stop=6[GHz] 401[Steps]
# Hz S RI R 50
!Freq.(Hz) S11(Real) S11(Imag) S21(Real) S21(Imag) S12(Real) S12(Imag) S22(Real) S22(Imag)
100000 0.9627122 -0.1835053 0.0372878 0.1835053 0.0372878 0.1835053 0.9627122 -0.1835053
102789 0.9607757 -0.1881882 0.0392243 0.1881882 0.0392243 0.1881882 0.9607757 -0.1881882
105655 0.9587407 -0.1929708 0.0412593 0.1929708 0.0412593 0.1929708 0.9587407 -0.1929708
108602 0.9566027 -0.1978535 0.0433973 0.1978535 0.0433973 0.1978535 0.9566027 -0.1978535
111630 0.9543568 -0.2028367 0.0456432 0.2028367 0.0456432 0.2028367 0.9543568 -0.2028367
114743 0.9519979 -0.2079203 0.0480021 0.2079203 0.0480021 0.2079203 0.9519979 -0.2079203
117943 0.9495209 -0.2131043 0.0504791 0.2131043 0.0504791 0.2131043 0.9495209 -0.2131043
121232 0.9469204 -0.2183883 0.0530796 0.2183883 0.0530796 0.2183883 0.9469204 -0.2183883
124613 0.9441909 -0.2237719 0.0558091 0.2237719 0.0558091 0.2237719 0.9441909 -0.2237719
128088 0.9413267 -0.2292542 0.0586733 0.2292542 0.0586733 0.2292542 0.9413267 -0.2292542
131660 0.9383220 -0.2348340 0.0616780 0.2348340 0.0616780 0.2348340 0.9383220 -0.2348340
135332 0.9351707 -0.2405102 0.0648293 0.2405102 0.0648293 0.2405102 0.9351707 -0.2405102
139106 0.9318668 -0.2462810 0.0681332 0.2462810 0.0681332 0.2462810 0.9318668 -0.2462810
142985 0.9284040 -0.2521444 0.0715960 0.2521444 0.0715960 0.2521444 0.9284040 -0.2521444
146972 0.9247759 -0.2580982 0.0752241 0.2580982 0.0752241 0.2580982 0.9247759 -0.2580982
151071 0.9209761 -0.2641395 0.0790239 0.2641395 0.0790239 0.2641395 0.9209761 -0.2641395
155284 0.9169979 -0.2702653 0.0830021 0.2702653 0.0830021 0.2702653 0.9169979 -0.2702653
159614 0.9128348 -0.2764721 0.0871652 0.2764721 0.0871652 0.2764721 0.9128348 -0.2764721
164065 0.9084800 -0.2827560 0.0915200 0.2827560 0.0915200 0.2827560 0.9084800 -0.2827560
168641 0.9039269 -0.2891126 0.0960731 0.2891126 0.0960731 0.2891126 0.9039269 -0.2891126
173344 0.8991687 -0.2955369 0.1008313 0.2955369 0.1008313 0.2955369 0.8991687 -0.2955369
178178 0.8941987 -0.3020237 0.1058013 0.3020237 0.1058013 0.3020237 0.8941987 -0.3020237
183146 0.8890103 -0.3085670 0.1109897 0.3085670 0.1109897 0.3085670 0.8890103 -0.3085670
188254 0.8835970 -0.3151605 0.1164030 0.3151605 0.1164030 0.3151605 0.8835970 -0.3151605
193504 0.8779524 -0.3217973 0.1220476 0.3217973 0.1220476 0.3217973 0.8779524 -0.3217973
198900 0.8720701 -0.3284697 0.1279299 0.3284697 0.1279299 0.3284697 0.8720701 -0.3284697
204447 0.8659442 -0.3351699 0.1340558 0.3351699 0.1340558 0.3351699 0.8659442 -0.3351699
210148 0.8595689 -0.3418890 0.1404311 0.3418890 0.1404311 0.3418890 0.8595689 -0.3418890
216008 0.8529386 -0.3486180 0.1470614 0.3486180 0.1470614 0.3486180 0.8529386 -0.3486180
222032 0.8460483 -0.3553470 0.1539517 0.3553470 0.1539517 0.3553470 0.8460483 -0.3553470
228224 0.8388932 -0.3620657 0.1611068 0.3620657 0.1611068 0.3620657 0.8388932 -0.3620657
234589 0.8314690 -0.3687631 0.1685310 0.3687631 0.1685310 0.3687631 0.8314690 -0.3687631
241130 0.8237720 -0.3754277 0.1762280 0.3754277 0.1762280 0.3754277 0.8237720 -0.3754277
247855 0.8157988 -0.3820475 0.1842012 0.3820475 0.1842012 0.3820475 0.8157988 -0.3820475
254767 0.8075470 -0.3886101 0.1924530 0.3886101 0.1924530 0.3886101 0.8075470 -0.3886101
261871 0.7990145 -0.3951022 0.2009855 0.3951022 0.2009855 0.3951022 0.7990145 -0.3951022
269174 0.7902002 -0.4015106 0.2097998 0.4015106 0.2097998 0.4015106 0.7902002 -0.4015106
276681 0.7811037 -0.4078213 0.2188963 0.4078213 0.2188963 0.4078213 0.7811037 -0.4078213
284397 0.7717254 -0.4140200 0.2282746 0.4140200 0.2282746 0.4140200 0.7717254 -0.4140200
292328 0.7620665 -0.4200922 0.2379335 0.4200922 0.2379335 0.4200922 0.7620665 -0.4200922
300480 0.7521295 -0.4260232 0.2478705 0.4260232 0.2478705 0.4260232 0.7521295 -0.4260232
308859 0.7419174 -0.4317979 0.2580826 0.4317979 0.2580826 0.4317979 0.7419174 -0.4317979
317472 0.7314345 -0.4374014 0.2685655 0.4374014 0.2685655 0.4374014 0.7314345 -0.4374014
326326 0.7206860 -0.4428184 0.2793140 0.4428184 0.2793140 0.4428184 0.7206860 -0.4428184
335426 0.7096784 -0.4480339 0.2903216 0.4480339 0.2903216 0.4480339 0.7096784 -0.4480339
344780 0.6984190 -0.4530330 0.3015810 0.4530330 0.3015810 0.4530330 0.6984190 -0.4530330
354395 0.6869163 -0.4578011 0.3130837 0.4578011 0.3130837 0.4578011 0.6869163 -0.4578011
364278 0.6751800 -0.4623237 0.3248200 0.4623237 0.3248200 0.4623237 0.6751800 -0.4623237
374436 0.6632207 -0.4665870 0.3367793 0.4665870 0.3367793 0.4665870 0.6632207 -0.4665870
384878 0.6510501 -0.4705775 0.3489499 0.4705775 0.3489499 0.4705775 0.6510501 -0.4705775
395611 0.6386810 -0.4742824 0.3613190 0.4742824 0.3613190 0.4742824 0.6386810 -0.4742824
406644 0.6261272 -0.4776895 0.3738728 0.4776895 0.3738728 0.4776895 0.6261272 -0.4776895
417984 0.6134034 -0.4807877 0.3865966 0.4807877 0.3865966 0.4807877 0.6134034 -0.4807877
429640 0.6005252 -0.4835664 0.3994748 0.4835664 0.3994748 0.4835664 0.6005252 -0.4835664
441622 0.5875090 -0.4860162 0.4124910 0.4860162 0.4124910 0.4860162 0.5875090 -0.4860162
453937 0.5743719 -0.4881286 0.4256281 0.4881286 0.4256281 0.4881286 0.5743719 -0.4881286
466596 0.5611317 -0.4898963 0.4388683 0.4898963 0.4388683 0.4898963 0.5611317 -0.4898963
479608 0.5478069 -0.4913132 0.4521931 0.4913132 0.4521931 0.4913132 0.5478069 -0.4913132
492983 0.5344163 -0.4923744 0.4655837 0.4923744 0.4655837 0.4923744 0.5344163 -0.4923744
506731 0.5209789 -0.4930761 0.4790211 0.4930761 0.4790211 0.4930761 0.5209789 -0.4930761
520862 0.5075143 -0.4934160 0.4924857 0.4934160 0.4924857 0.4934160 0.5075143 -0.4934160
535387 0.4940421 -0.4933930 0.5059579 0.4933930 0.5059579 0.4933930 0.4940421 -0.4933930
550318 0.4805818 -0.4930073 0.5194182 0.4930073 0.5194182 0.4930073 0.4805818 -0.4930073
565664 0.4671529 -0.4922605 0.5328471 0.4922605 0.5328471 0.4922605 0.4671529 -0.4922605
581439 0.4537749 -0.4911554 0.5462251 0.4911554 0.5462251 0.4911554 0.4537749 -0.4911554
597654 0.4404666 -0.4896961 0.5595334 0.4896961 0.5595334 0.4896961 0.4404666 -0.4896961
614320 0.4272468 -0.4878880 0.5727532 0.4878880 0.5727532 0.4878880 0.4272468 -0.4878880
631452 0.4141334 -0.4857375 0.5858666 0.4857375 0.5858666 0.4857375 0.4141334 -0.4857375
649061 0.4011441 -0.4832524 0.5988559 0.4832524 0.5988559 0.4832524 0.4011441 -0.4832524
667162 0.3882956 -0.4804413 0.6117044 0.4804413 0.6117044 0.4804413 0.3882956 -0.4804413
685767 0.3756040 -0.4773140 0.6243960 0.4773140 0.6243960 0.4773140 0.3756040 -0.4773140
704891 0.3630844 -0.4738811 0.6369156 0.4738811 0.6369156 0.4738811 0.3630844 -0.4738811
724548 0.3507512 -0.4701540 0.6492488 0.4701540 0.6492488 0.4701540 0.3507512 -0.4701540
744754 0.3386178 -0.4661450 0.6613822 0.4661450 0.6613822 0.4661450 0.3386178 -0.4661450
765523 0.3266964 -0.4618669 0.6733036 0.4618669 0.6733036 0.4618669 0.3266964 -0.4618669
786871 0.3149985 -0.4573331 0.6850015 0.4573331 0.6850015 0.4573331 0.3149985 -0.4573331
808814 0.3035343 -0.4525575 0.6964657 0.4525575 0.6964657 0.4525575 0.3035343 -0.4525575
831370 0.2923131 -0.4475543 0.7076869 0.4475543 0.7076869 0.4475543 0.2923131 -0.4475543
854554 0.2813430 -0.4423382 0.7186570 0.4423382 0.7186570 0.4423382 0.2813430 -0.4423382
878385 0.2706311 -0.4369238 0.7293689 0.4369238 0.7293689 0.4369238 0.2706311 -0.4369238
902880 0.2601835 -0.4313261 0.7398165 0.4313261 0.7398165 0.4313261 0.2601835 -0.4313261
928059 0.2500052 -0.4255598 0.7499948 0.4255598 0.7499948 0.4255598 0.2500052 -0.4255598
953940 0.2401002 -0.4196399 0.7598998 0.4196399 0.7598998 0.4196399 0.2401002 -0.4196399
980542 0.2304715 -0.4135811 0.7695285 0.4135811 0.7695285 0.4135811 0.2304715 -0.4135811
1007887 0.2211212 -0.4073978 0.7788788 0.4073978 0.7788788 0.4073978 0.2211212 -0.4073978
1035994 0.2120506 -0.4011044 0.7879494 0.4011044 0.7879494 0.4011044 0.2120506 -0.4011044
1064885 0.2032598 -0.3947148 0.7967402 0.3947148 0.7967402 0.3947148 0.2032598 -0.3947148
1094581 0.1947486 -0.3882427 0.8052514 0.3882427 0.8052514 0.3882427 0.1947486 -0.3882427
1125106 0.1865156 -0.3817013 0.8134844 0.3817013 0.8134844 0.3817013 0.1865156 -0.3817013
1156481 0.1785589 -0.3751032 0.8214411 0.3751032 0.8214411 0.3751032 0.1785589 -0.3751032
1188732 0.1708760 -0.3684609 0.8291240 0.3684609 0.8291240 0.3684609 0.1708760 -0.3684609
1221882 0.1634636 -0.3617862 0.8365364 0.3617862 0.8365364 0.3617862 0.1634636 -0.3617862
1255957 0.1563181 -0.3550902 0.8436819 0.3550902 0.8436819 0.3550902 0.1563181 -0.3550902
1290982 0.1494353 -0.3483838 0.8505647 0.3483838 0.8505647 0.3483838 0.1494353 -0.3483838
1326984 0.1428104 -0.3416771 0.8571896 0.3416771 0.8571896 0.3416771 0.1428104 -0.3416771
1363989 0.1364385 -0.3349798 0.8635615 0.3349798 0.8635615 0.3349798 0.1364385 -0.3349798
1402027 0.1303142 -0.3283010 0.8696858 0.3283010 0.8696858 0.3283010 0.1303142 -0.3283010
1441125 0.1244318 -0.3216491 0.8755682 0.3216491 0.8755682 0.3216491 0.1244318 -0.3216491
1481314 0.1187854 -0.3150322 0.8812146 0.3150322 0.8812146 0.3150322 0.1187854 -0.3150322
1522623 0.1133689 -0.3084575 0.8866311 0.3084575 0.8866311 0.3084575 0.1133689 -0.3084575
1565085 0.1081760 -0.3019321 0.8918240 0.3019321 0.8918240 0.3019321 0.1081760 -0.3019321
1608730 0.1032002 -0.2954622 0.8967998 0.2954622 0.8967998 0.2954622 0.1032002 -0.2954622
1653593 0.0984352 -0.2890536 0.9015648 0.2890536 0.9015648 0.2890536 0.0984352 -0.2890536
1699707 0.0938742 -0.2827117 0.9061258 0.2827117 0.9061258 0.2827117 0.0938742 -0.2827117
1747106 0.0895108 -0.2764413 0.9104892 0.2764413 0.9104892 0.2764413 0.0895108 -0.2764413
1795828 0.0853382 -0.2702468 0.9146618 0.2702468 0.9146618 0.2702468 0.0853382 -0.2702468
1845908 0.0813500 -0.2641321 0.9186500 0.2641321 0.9186500 0.2641321 0.0813500 -0.2641321
1897385 0.0775396 -0.2581007 0.9224604 0.2581007 0.9224604 0.2581007 0.0775396 -0.2581007
1950297 0.0739005 -0.2521558 0.9260995 0.2521558 0.9260995 0.2521558 0.0739005 -0.2521558
2004685 0.0704264 -0.2463001 0.9295736 0.2463001 0.9295736 0.2463001 0.0704264 -0.2463001
2060590 0.0671109 -0.2405358 0.9328891 0.2405358 0.9328891 0.2405358 0.0671109 -0.2405358
2118054 0.0639478 -0.2348651 0.9360522 0.2348651 0.9360522 0.2348651 0.0639478 -0.2348651
2177120 0.0609312 -0.2292896 0.9390688 0.2292896 0.9390688 0.2292896 0.0609312 -0.2292896
2237833 0.0580551 -0.2238107 0.9419449 0.2238107 0.9419449 0.2238107 0.0580551 -0.2238107
2300240 0.0553137 -0.2184296 0.9446863 0.2184296 0.9446863 0.2184296 0.0553137 -0.2184296
2364387 0.0527014 -0.2131469 0.9472986 0.2131469 0.9472986 0.2131469 0.0527014 -0.2131469
2430322 0.0502127 -0.2079634 0.9497873 0.2079634 0.9497873 0.2079634 0.0502127 -0.2079634
2498097 0.0478424 -0.2028794 0.9521576 0.2028794 0.9521576 0.2028794 0.0478424 -0.2028794
2567761 0.0455852 -0.1978950 0.9544148 0.1978950 0.9544148 0.1978950 0.0455852 -0.1978950
2639368 0.0434361 -0.1930103 0.9565639 0.1930103 0.9565639 0.1930103 0.0434361 -0.1930103
2712972 0.0413905 -0.1882249 0.9586095 0.1882249 0.9586095 0.1882249 0.0413905 -0.1882249
2788629 0.0394435 -0.1835385 0.9605565 0.1835385 0.9605565 0.1835385 0.0394435 -0.1835385
2866396 0.0375908 -0.1789505 0.9624092 0.1789505 0.9624092 0.1789505 0.0375908 -0.1789505
2946331 0.0358279 -0.1744604 0.9641721 0.1744604 0.9641721 0.1744604 0.0358279 -0.1744604
3028495 0.0341509 -0.1700672 0.9658491 0.1700672 0.9658491 0.1700672 0.0341509 -0.1700672
3112951 0.0325556 -0.1657701 0.9674444 0.1657701 0.9674444 0.1657701 0.0325556 -0.1657701
3199762 0.0310382 -0.1615680 0.9689618 0.1615680 0.9689618 0.1615680 0.0310382 -0.1615680
3288994 0.0295951 -0.1574599 0.9704049 0.1574599 0.9704049 0.1574599 0.0295951 -0.1574599
3380714 0.0282227 -0.1534447 0.9717773 0.1534447 0.9717773 0.1534447 0.0282227 -0.1534447
3474992 0.0269177 -0.1495210 0.9730823 0.1495210 0.9730823 0.1495210 0.0269177 -0.1495210
3571899 0.0256768 -0.1456875 0.9743232 0.1456875 0.9743232 0.1456875 0.0256768 -0.1456875
3671508 0.0244970 -0.1419429 0.9755030 0.1419429 0.9755030 0.1419429 0.0244970 -0.1419429
3773896 0.0233753 -0.1382858 0.9766247 0.1382858 0.9766247 0.1382858 0.0233753 -0.1382858
3879139 0.0223089 -0.1347148 0.9776911 0.1347148 0.9776911 0.1347148 0.0223089 -0.1347148
3987316 0.0212950 -0.1312283 0.9787050 0.1312283 0.9787050 0.1312283 0.0212950 -0.1312283
4098510 0.0203313 -0.1278250 0.9796687 0.1278250 0.9796687 0.1278250 0.0203313 -0.1278250
4212806 0.0194151 -0.1245032 0.9805849 0.1245032 0.9805849 0.1245032 0.0194151 -0.1245032
4330288 0.0185442 -0.1212614 0.9814558 0.1212614 0.9814558 0.1212614 0.0185442 -0.1212614
4451047 0.0177163 -0.1180982 0.9822837 0.1180982 0.9822837 0.1180982 0.0177163 -0.1180982
4575173 0.0169294 -0.1150120 0.9830706 0.1150120 0.9830706 0.1150120 0.0169294 -0.1150120
4702761 0.0161814 -0.1120012 0.9838186 0.1120012 0.9838186 0.1120012 0.0161814 -0.1120012
4833907 0.0154704 -0.1090643 0.9845296 0.1090643 0.9845296 0.1090643 0.0154704 -0.1090643
4968711 0.0147947 -0.1061997 0.9852053 0.1061997 0.9852053 0.1061997 0.0147947 -0.1061997
5107273 0.0141523 -0.1034060 0.9858477 0.1034060 0.9858477 0.1034060 0.0141523 -0.1034060
5249700 0.0135418 -0.1006816 0.9864582 0.1006816 0.9864582 0.1006816 0.0135418 -0.1006816
5396098 0.0129616 -0.0980250 0.9870384 0.0980250 0.9870384 0.0980250 0.0129616 -0.0980250
5546579 0.0124101 -0.0954347 0.9875899 0.0954347 0.9875899 0.0954347 0.0124101 -0.0954347
5701257 0.0118859 -0.0929092 0.9881141 0.0929092 0.9881141 0.0929092 0.0118859 -0.0929092
5860248 0.0113877 -0.0904472 0.9886123 0.0904472 0.9886123 0.0904472 0.0113877 -0.0904472
6023672 0.0109142 -0.0880471 0.9890858 0.0880471 0.9890858 0.0880471 0.0109142 -0.0880471
6191655 0.0104643 -0.0857075 0.9895357 0.0857075 0.9895357 0.0857075 0.0104643 -0.0857075
6364321 0.0100366 -0.0834271 0.9899634 0.0834271 0.9899634 0.0834271 0.0100366 -0.0834271
6541803 0.0096302 -0.0812044 0.9903698 0.0812044 0.9903698 0.0812044 0.0096302 -0.0812044
6724235 0.0092439 -0.0790381 0.9907561 0.0790381 0.9907561 0.0790381 0.0092439 -0.0790381
6911753 0.0088768 -0.0769270 0.9911232 0.0769270 0.9911232 0.0769270 0.0088768 -0.0769270
7104501 0.0085279 -0.0748695 0.9914721 0.0748695 0.9914721 0.0748695 0.0085279 -0.0748695
7302625 0.0081964 -0.0728646 0.9918036 0.0728646 0.9918036 0.0728646 0.0081964 -0.0728646
7506273 0.0078813 -0.0709109 0.9921187 0.0709109 0.9921187 0.0709109 0.0078813 -0.0709109
7715601 0.0075818 -0.0690071 0.9924182 0.0690071 0.9924182 0.0690071 0.0075818 -0.0690071
7930766 0.0072973 -0.0671521 0.9927027 0.0671521 0.9927027 0.0671521 0.0072973 -0.0671521
8151931 0.0070268 -0.0653447 0.9929732 0.0653447 0.9929732 0.0653447 0.0070268 -0.0653447
8379264 0.0067697 -0.0635836 0.9932303 0.0635836 0.9932303 0.0635836 0.0067697 -0.0635836
8612937 0.0065254 -0.0618678 0.9934746 0.0618678 0.9934746 0.0618678 0.0065254 -0.0618678
8853126 0.0062931 -0.0601962 0.9937069 0.0601962 0.9937069 0.0601962 0.0062931 -0.0601962
9100013 0.0060724 -0.0585675 0.9939276 0.0585675 0.9939276 0.0585675 0.0060724 -0.0585675
9353785 0.0058625 -0.0569808 0.9941375 0.0569808 0.9941375 0.0569808 0.0058625 -0.0569808
9614634 0.0056630 -0.0554349 0.9943370 0.0554349 0.9943370 0.0554349 0.0056630 -0.0554349
9882758 0.0054733 -0.0539289 0.9945267 0.0539289 0.9945267 0.0539289 0.0054733 -0.0539289
10158358 0.0052930 -0.0524617 0.9947070 0.0524617 0.9947070 0.0524617 0.0052930 -0.0524617
10441645 0.0051215 -0.0510323 0.9948785 0.0510323 0.9948785 0.0510323 0.0051215 -0.0510323
10732831 0.0049583 -0.0496397 0.9950417 0.0496397 0.9950417 0.0496397 0.0049583 -0.0496397
11032137 0.0048031 -0.0482830 0.9951969 0.0482830 0.9951969 0.0482830 0.0048031 -0.0482830
11339791 0.0046555 -0.0469613 0.9953445 0.0469613 0.9953445 0.0469613 0.0046555 -0.0469613
11656024 0.0045150 -0.0456736 0.9954850 0.0456736 0.9954850 0.0456736 0.0045150 -0.0456736
11981075 0.0043813 -0.0444191 0.9956187 0.0444191 0.9956187 0.0444191 0.0043813 -0.0444191
12315192 0.0042540 -0.0431968 0.9957460 0.0431968 0.9957460 0.0431968 0.0042540 -0.0431968
12658625 0.0041328 -0.0420059 0.9958672 0.0420059 0.9958672 0.0420059 0.0041328 -0.0420059
13011637 0.0040173 -0.0408455 0.9959827 0.0408455 0.9959827 0.0408455 0.0040173 -0.0408455
13374492 0.0039073 -0.0397149 0.9960927 0.0397149 0.9960927 0.0397149 0.0039073 -0.0397149
13747467 0.0038025 -0.0386132 0.9961975 0.0386132 0.9961975 0.0386132 0.0038025 -0.0386132
14130843 0.0037026 -0.0375397 0.9962974 0.0375397 0.9962974 0.0375397 0.0037026 -0.0375397
14524910 0.0036073 -0.0364935 0.9963927 0.0364935 0.9963927 0.0364935 0.0036073 -0.0364935
14929966 0.0035164 -0.0354739 0.9964836 0.0354739 0.9964836 0.0354739 0.0035164 -0.0354739
15346318 0.0034296 -0.0344801 0.9965704 0.0344801 0.9965704 0.0344801 0.0034296 -0.0344801
15774281 0.0033468 -0.0335116 0.9966532 0.0335116 0.9966532 0.0335116 0.0033468 -0.0335116
16214179 0.0032677 -0.0325674 0.9967323 0.0325674 0.9967323 0.0325674 0.0032677 -0.0325674
16666344 0.0031921 -0.0316471 0.9968079 0.0316471 0.9968079 0.0316471 0.0031921 -0.0316471
17131118 0.0031199 -0.0307498 0.9968801 0.0307498 0.9968801 0.0307498 0.0031199 -0.0307498
17608854 0.0030508 -0.0298749 0.9969492 0.0298749 0.9969492 0.0298749 0.0030508 -0.0298749
18099912 0.0029848 -0.0290217 0.9970152 0.0290217 0.9970152 0.0290217 0.0029848 -0.0290217
18604665 0.0029215 -0.0281897 0.9970785 0.0281897 0.9970785 0.0281897 0.0029215 -0.0281897
19123493 0.0028610 -0.0273783 0.9971390 0.0273783 0.9971390 0.0273783 0.0028610 -0.0273783
19656790 0.0028030 -0.0265867 0.9971970 0.0265867 0.9971970 0.0265867 0.0028030 -0.0265867
20204959 0.0027474 -0.0258145 0.9972526 0.0258145 0.9972526 0.0258145 0.0027474 -0.0258145
20768415 0.0026941 -0.0250610 0.9973059 0.0250610 0.9973059 0.0250610 0.0026941 -0.0250610
21347584 0.0026431 -0.0243258 0.9973569 0.0243258 0.9973569 0.0243258 0.0026431 -0.0243258
21942904 0.0025940 -0.0236081 0.9974060 0.0236081 0.9974060 0.0236081 0.0025940 -0.0236081
22554827 0.0025470 -0.0229076 0.9974530 0.0229076 0.9974530 0.0229076 0.0025470 -0.0229076
23183813 0.0025019 -0.0222237 0.9974981 0.0222237 0.9974981 0.0222237 0.0025019 -0.0222237
23830340 0.0024585 -0.0215558 0.9975415 0.0215558 0.9975415 0.0215558 0.0024585 -0.0215558
24494897 0.0024169 -0.0209035 0.9975831 0.0209035 0.9975831 0.0209035 0.0024169 -0.0209035
25177987 0.0023768 -0.0202663 0.9976232 0.0202663 0.9976232 0.0202663 0.0023768 -0.0202663
25880126 0.0023384 -0.0196438 0.9976616 0.0196438 0.9976616 0.0196438 0.0023384 -0.0196438
26601845 0.0023014 -0.0190353 0.9976986 0.0190353 0.9976986 0.0190353 0.0023014 -0.0190353
27343691 0.0022659 -0.0184406 0.9977341 0.0184406 0.9977341 0.0184406 0.0022659 -0.0184406
28106225 0.0022318 -0.0178592 0.9977682 0.0178592 0.9977682 0.0178592 0.0022318 -0.0178592
28890023 0.0021990 -0.0172905 0.9978010 0.0172905 0.9978010 0.0172905 0.0021990 -0.0172905
29695680 0.0021675 -0.0167343 0.9978325 0.0167343 0.9978325 0.0167343 0.0021675 -0.0167343
30523804 0.0021371 -0.0161901 0.9978629 0.0161901 0.9978629 0.0161901 0.0021371 -0.0161901
31375021 0.0021080 -0.0156575 0.9978920 0.0156575 0.9978920 0.0156575 0.0021080 -0.0156575
32249977 0.0020800 -0.0151361 0.9979200 0.0151361 0.9979200 0.0151361 0.0020800 -0.0151361
33149332 0.0020532 -0.0146255 0.9979468 0.0146255 0.9979468 0.0146255 0.0020532 -0.0146255
34073768 0.0020274 -0.0141254 0.9979726 0.0141254 0.9979726 0.0141254 0.0020274 -0.0141254
35023984 0.0020026 -0.0136353 0.9979974 0.0136353 0.9979974 0.0136353 0.0020026 -0.0136353
36000698 0.0019788 -0.0131550 0.9980212 0.0131550 0.9980212 0.0131550 0.0019788 -0.0131550
37004650 0.0019560 -0.0126841 0.9980440 0.0126841 0.9980440 0.0126841 0.0019560 -0.0126841
38036599 0.0019342 -0.0122223 0.9980658 0.0122223 0.9980658 0.0122223 0.0019342 -0.0122223
39097326 0.0019132 -0.0117691 0.9980868 0.0117691 0.9980868 0.0117691 0.0019132 -0.0117691
