!Murata Part Number: GRM31CC81E226ME11
!These Parameters are Measured in Series Mode Connection
!Data Generated on Mar 30, 2021
!       o--ll--o
!Port1            Port2
!       o------o
!Operation Temp=25[degC], DC Bias Voltage=0[V]
!Freq. Start=100[Hz] Stop=6[GHz] 401[Steps]
# Hz S RI R 50
!Freq.(Hz) S11(Real) S11(Imag) S21(Real) S21(Imag) S12(Real) S12(Imag) S22(Real) S22(Imag)
100 0.5038052 -0.4926099 0.4961948 0.4926099 0.4961948 0.4926099 0.5038052 -0.4926099
105 0.4819420 -0.4922994 0.5180580 0.4922994 0.5180580 0.4922994 0.4819420 -0.4922994
109 0.4601494 -0.4910324 0.5398506 0.4910324 0.5398506 0.4910324 0.4601494 -0.4910324
114 0.4385111 -0.4888215 0.5614889 0.4888215 0.5614889 0.4888215 0.4385111 -0.4888215
120 0.4171089 -0.4856884 0.5828911 0.4856884 0.5828911 0.4856884 0.4171089 -0.4856884
125 0.3960205 -0.4816635 0.6039795 0.4816635 0.6039795 0.4816635 0.3960205 -0.4816635
131 0.3753188 -0.4767849 0.6246812 0.4767849 0.6246812 0.4767849 0.3753188 -0.4767849
137 0.3550711 -0.4710977 0.6449289 0.4710977 0.6449289 0.4710977 0.3550711 -0.4710977
143 0.3353381 -0.4646529 0.6646619 0.4646529 0.6646619 0.4646529 0.3353381 -0.4646529
150 0.3161733 -0.4575066 0.6838267 0.4575066 0.6838267 0.4575066 0.3161733 -0.4575066
156 0.2976227 -0.4497182 0.7023773 0.4497182 0.7023773 0.4497182 0.2976227 -0.4497182
164 0.2797248 -0.4413502 0.7202752 0.4413502 0.7202752 0.4413502 0.2797248 -0.4413502
171 0.2625104 -0.4324663 0.7374896 0.4324663 0.7374896 0.4324663 0.2625104 -0.4324663
179 0.2460025 -0.4231308 0.7539975 0.4231308 0.7539975 0.4231308 0.2460025 -0.4231308
187 0.2302174 -0.4134076 0.7697826 0.4134076 0.7697826 0.4134076 0.2302174 -0.4134076
196 0.2151643 -0.4033592 0.7848357 0.4033592 0.7848357 0.4033592 0.2151643 -0.4033592
205 0.2008461 -0.3930464 0.7991539 0.3930464 0.7991539 0.3930464 0.2008461 -0.3930464
214 0.1872603 -0.3825270 0.8127397 0.3825270 0.8127397 0.3825270 0.1872603 -0.3825270
224 0.1743992 -0.3718561 0.8256008 0.3718561 0.8256008 0.3718561 0.1743992 -0.3718561
234 0.1622507 -0.3610851 0.8377493 0.3610851 0.8377493 0.3610851 0.1622507 -0.3610851
245 0.1507989 -0.3502619 0.8492011 0.3502619 0.8492011 0.3502619 0.1507989 -0.3502619
256 0.1400248 -0.3394305 0.8599752 0.3394305 0.8599752 0.3394305 0.1400248 -0.3394305
268 0.1299067 -0.3286309 0.8700933 0.3286309 0.8700933 0.3286309 0.1299067 -0.3286309
280 0.1204210 -0.3178996 0.8795790 0.3178996 0.8795790 0.3178996 0.1204210 -0.3178996
293 0.1115425 -0.3072688 0.8884575 0.3072688 0.8884575 0.3072688 0.1115425 -0.3072688
306 0.1032450 -0.2967674 0.8967550 0.2967674 0.8967550 0.2967674 0.1032450 -0.2967674
320 0.0955013 -0.2864205 0.9044987 0.2864205 0.9044987 0.2864205 0.0955013 -0.2864205
335 0.0882841 -0.2762502 0.9117159 0.2762502 0.9117159 0.2762502 0.0882841 -0.2762502
350 0.0815662 -0.2662751 0.9184338 0.2662751 0.9184338 0.2662751 0.0815662 -0.2662751
366 0.0753203 -0.2565110 0.9246797 0.2565110 0.9246797 0.2565110 0.0753203 -0.2565110
383 0.0695196 -0.2469712 0.9304804 0.2469712 0.9304804 0.2469712 0.0695196 -0.2469712
401 0.0641380 -0.2376663 0.9358620 0.2376663 0.9358620 0.2376663 0.0641380 -0.2376663
419 0.0591501 -0.2286047 0.9408499 0.2286047 0.9408499 0.2286047 0.0591501 -0.2286047
438 0.0545311 -0.2197928 0.9454689 0.2197928 0.9454689 0.2197928 0.0545311 -0.2197928
458 0.0502575 -0.2112351 0.9497425 0.2112351 0.9497425 0.2112351 0.0502575 -0.2112351
479 0.0463066 -0.2029346 0.9536934 0.2029346 0.9536934 0.2029346 0.0463066 -0.2029346
501 0.0426566 -0.1948925 0.9573434 0.1948925 0.9573434 0.1948925 0.0426566 -0.1948925
524 0.0392870 -0.1871092 0.9607130 0.1871092 0.9607130 0.1871092 0.0392870 -0.1871092
548 0.0361781 -0.1795834 0.9638219 0.1795834 0.9638219 0.1795834 0.0361781 -0.1795834
573 0.0333115 -0.1723133 0.9666885 0.1723133 0.9666885 0.1723133 0.0333115 -0.1723133
600 0.0306696 -0.1652960 0.9693304 0.1652960 0.9693304 0.1652960 0.0306696 -0.1652960
627 0.0282361 -0.1585277 0.9717639 0.1585277 0.9717639 0.1585277 0.0282361 -0.1585277
656 0.0259955 -0.1520043 0.9740045 0.1520043 0.9740045 0.1520043 0.0259955 -0.1520043
686 0.0239333 -0.1457211 0.9760667 0.1457211 0.9760667 0.1457211 0.0239333 -0.1457211
717 0.0220359 -0.1396727 0.9779641 0.1396727 0.9779641 0.1396727 0.0220359 -0.1396727
750 0.0202907 -0.1338536 0.9797093 0.1338536 0.9797093 0.1338536 0.0202907 -0.1338536
784 0.0186859 -0.1282580 0.9813141 0.1282580 0.9813141 0.1282580 0.0186859 -0.1282580
820 0.0172105 -0.1228798 0.9827895 0.1228798 0.9827895 0.1228798 0.0172105 -0.1228798
858 0.0158543 -0.1177127 0.9841457 0.1177127 0.9841457 0.1177127 0.0158543 -0.1177127
897 0.0146077 -0.1127504 0.9853923 0.1127504 0.9853923 0.1127504 0.0146077 -0.1127504
938 0.0134621 -0.1079865 0.9865379 0.1079865 0.9865379 0.1079865 0.0134621 -0.1079865
981 0.0124092 -0.1034146 0.9875908 0.1034146 0.9875908 0.1034146 0.0124092 -0.1034146
1026 0.0114415 -0.0990282 0.9885585 0.0990282 0.9885585 0.0990282 0.0114415 -0.0990282
1073 0.0105521 -0.0948209 0.9894479 0.0948209 0.9894479 0.0948209 0.0105521 -0.0948209
1122 0.0097346 -0.0907865 0.9902654 0.0907865 0.9902654 0.0907865 0.0097346 -0.0907865
1174 0.0089829 -0.0869185 0.9910171 0.0869185 0.9910171 0.0869185 0.0089829 -0.0869185
1227 0.0082918 -0.0832110 0.9917082 0.0832110 0.9917082 0.0832110 0.0082918 -0.0832110
1283 0.0076560 -0.0796578 0.9923440 0.0796578 0.9923440 0.0796578 0.0076560 -0.0796578
1342 0.0070712 -0.0762531 0.9929288 0.0762531 0.9929288 0.0762531 0.0070712 -0.0762531
1404 0.0065329 -0.0729911 0.9934671 0.0729911 0.9934671 0.0729911 0.0065329 -0.0729911
1468 0.0060375 -0.0698662 0.9939625 0.0698662 0.9939625 0.0698662 0.0060375 -0.0698662
1535 0.0055812 -0.0668730 0.9944188 0.0668730 0.9944188 0.0668730 0.0055812 -0.0668730
1606 0.0051608 -0.0640061 0.9948392 0.0640061 0.9948392 0.0640061 0.0051608 -0.0640061
1679 0.0047735 -0.0612605 0.9952265 0.0612605 0.9952265 0.0612605 0.0047735 -0.0612605
1756 0.0044164 -0.0586311 0.9955836 0.0586311 0.9955836 0.0586311 0.0044164 -0.0586311
1836 0.0040870 -0.0561133 0.9959130 0.0561133 0.9959130 0.0561133 0.0040870 -0.0561133
1920 0.0037832 -0.0537023 0.9962168 0.0537023 0.9962168 0.0537023 0.0037832 -0.0537023
2008 0.0035029 -0.0513938 0.9964971 0.0513938 0.9964971 0.0513938 0.0035029 -0.0513938
2100 0.0032441 -0.0491834 0.9967559 0.0491834 0.9967559 0.0491834 0.0032441 -0.0491834
2196 0.0030051 -0.0470671 0.9969949 0.0470671 0.9969949 0.0470671 0.0030051 -0.0470671
2297 0.0027845 -0.0450409 0.9972155 0.0450409 0.9972155 0.0450409 0.0027845 -0.0450409
2402 0.0025806 -0.0431010 0.9974194 0.0431010 0.9974194 0.0431010 0.0025806 -0.0431010
2512 0.0023923 -0.0412438 0.9976077 0.0412438 0.9976077 0.0412438 0.0023923 -0.0412438
2627 0.0022183 -0.0394659 0.9977817 0.0394659 0.9977817 0.0394659 0.0022183 -0.0394659
2748 0.0020575 -0.0377638 0.9979425 0.0377638 0.9979425 0.0377638 0.0020575 -0.0377638
2873 0.0019090 -0.0361344 0.9980910 0.0361344 0.9980910 0.0361344 0.0019090 -0.0361344
3005 0.0017717 -0.0345746 0.9982283 0.0345746 0.9982283 0.0345746 0.0017717 -0.0345746
3143 0.0016449 -0.0330815 0.9983551 0.0330815 0.9983551 0.0330815 0.0016449 -0.0330815
3287 0.0015277 -0.0316523 0.9984723 0.0316523 0.9984723 0.0316523 0.0015277 -0.0316523
3437 0.0014194 -0.0302843 0.9985806 0.0302843 0.9985806 0.0302843 0.0014194 -0.0302843
3594 0.0013193 -0.0289749 0.9986807 0.0289749 0.9986807 0.0289749 0.0013193 -0.0289749
3759 0.0012269 -0.0277217 0.9987731 0.0277217 0.9987731 0.0277217 0.0012269 -0.0277217
3931 0.0011415 -0.0265223 0.9988585 0.0265223 0.9988585 0.0265223 0.0011415 -0.0265223
4111 0.0010627 -0.0253744 0.9989373 0.0253744 0.9989373 0.0253744 0.0010627 -0.0253744
4299 0.0009898 -0.0242759 0.9990102 0.0242759 0.9990102 0.0242759 0.0009898 -0.0242759
4496 0.0009225 -0.0232246 0.9990775 0.0232246 0.9990775 0.0232246 0.0009225 -0.0232246
4702 0.0008603 -0.0222187 0.9991397 0.0222187 0.9991397 0.0222187 0.0008603 -0.0222187
4918 0.0008029 -0.0212561 0.9991971 0.0212561 0.9991971 0.0212561 0.0008029 -0.0212561
5143 0.0007498 -0.0203350 0.9992502 0.0203350 0.9992502 0.0203350 0.0007498 -0.0203350
5378 0.0007007 -0.0194537 0.9992993 0.0194537 0.9992993 0.0194537 0.0007007 -0.0194537
5625 0.0006553 -0.0186105 0.9993447 0.0186105 0.9993447 0.0186105 0.0006553 -0.0186105
5882 0.0006133 -0.0178038 0.9993867 0.0178038 0.9993867 0.0178038 0.0006133 -0.0178038
6151 0.0005744 -0.0170319 0.9994256 0.0170319 0.9994256 0.0170319 0.0005744 -0.0170319
6433 0.0005385 -0.0162935 0.9994615 0.0162935 0.9994615 0.0162935 0.0005385 -0.0162935
6728 0.0005052 -0.0155870 0.9994948 0.0155870 0.9994948 0.0155870 0.0005052 -0.0155870
7036 0.0004743 -0.0149112 0.9995257 0.0149112 0.9995257 0.0149112 0.0004743 -0.0149112
7358 0.0004456 -0.0142646 0.9995544 0.0142646 0.9995544 0.0142646 0.0004456 -0.0142646
7695 0.0004190 -0.0136461 0.9995810 0.0136461 0.9995810 0.0136461 0.0004190 -0.0136461
8047 0.0003944 -0.0130544 0.9996056 0.0130544 0.9996056 0.0130544 0.0003944 -0.0130544
8416 0.0003714 -0.0124883 0.9996286 0.0124883 0.9996286 0.0124883 0.0003714 -0.0124883
8801 0.0003501 -0.0119468 0.9996499 0.0119468 0.9996499 0.0119468 0.0003501 -0.0119468
9204 0.0003302 -0.0114287 0.9996698 0.0114287 0.9996698 0.0114287 0.0003302 -0.0114287
9626 0.0003117 -0.0109331 0.9996883 0.0109331 0.9996883 0.0109331 0.0003117 -0.0109331
10066 0.0002945 -0.0104590 0.9997055 0.0104590 0.9997055 0.0104590 0.0002945 -0.0104590
10527 0.0002784 -0.0100055 0.9997216 0.0100055 0.9997216 0.0100055 0.0002784 -0.0100055
11009 0.0002634 -0.0095716 0.9997366 0.0095716 0.9997366 0.0095716 0.0002634 -0.0095716
11514 0.0002494 -0.0091565 0.9997506 0.0091565 0.9997506 0.0091565 0.0002494 -0.0091565
12041 0.0002364 -0.0087594 0.9997636 0.0087594 0.9997636 0.0087594 0.0002364 -0.0087594
12592 0.0002242 -0.0083795 0.9997758 0.0083795 0.9997758 0.0083795 0.0002242 -0.0083795
13169 0.0002127 -0.0080160 0.9997873 0.0080160 0.9997873 0.0080160 0.0002127 -0.0080160
13772 0.0002021 -0.0076683 0.9997979 0.0076683 0.9997979 0.0076683 0.0002021 -0.0076683
14402 0.0001921 -0.0073357 0.9998079 0.0073357 0.9998079 0.0073357 0.0001921 -0.0073357
15062 0.0001828 -0.0070175 0.9998172 0.0070175 0.9998172 0.0070175 0.0001828 -0.0070175
15752 0.0001741 -0.0067131 0.9998259 0.0067131 0.9998259 0.0067131 0.0001741 -0.0067131
16473 0.0001660 -0.0064218 0.9998340 0.0064218 0.9998340 0.0064218 0.0001660 -0.0064218
17227 0.0001583 -0.0061432 0.9998417 0.0061432 0.9998417 0.0061432 0.0001583 -0.0061432
18016 0.0001512 -0.0058767 0.9998488 0.0058767 0.9998488 0.0058767 0.0001512 -0.0058767
18841 0.0001445 -0.0056218 0.9998555 0.0056218 0.9998555 0.0056218 0.0001445 -0.0056218
19704 0.0001383 -0.0053779 0.9998617 0.0053779 0.9998617 0.0053779 0.0001383 -0.0053779
20606 0.0001324 -0.0051446 0.9998676 0.0051446 0.9998676 0.0051446 0.0001324 -0.0051446
21550 0.0001269 -0.0049214 0.9998731 0.0049214 0.9998731 0.0049214 0.0001269 -0.0049214
22537 0.0001218 -0.0047079 0.9998782 0.0047079 0.9998782 0.0047079 0.0001218 -0.0047079
23569 0.0001170 -0.0045037 0.9998830 0.0045037 0.9998830 0.0045037 0.0001170 -0.0045037
24648 0.0001124 -0.0043084 0.9998876 0.0043084 0.9998876 0.0043084 0.0001124 -0.0043084
25777 0.0001081 -0.0041215 0.9998919 0.0041215 0.9998919 0.0041215 0.0001081 -0.0041215
26957 0.0001041 -0.0039428 0.9998959 0.0039428 0.9998959 0.0039428 0.0001041 -0.0039428
28191 0.0001003 -0.0037719 0.9998997 0.0037719 0.9998997 0.0037719 0.0001003 -0.0037719
29482 0.0000967 -0.0036084 0.9999033 0.0036084 0.9999033 0.0036084 0.0000967 -0.0036084
30832 0.0000933 -0.0034520 0.9999067 0.0034520 0.9999067 0.0034520 0.0000933 -0.0034520
32244 0.0000900 -0.0033024 0.9999100 0.0033024 0.9999100 0.0033024 0.0000900 -0.0033024
33721 0.0000870 -0.0031593 0.9999130 0.0031593 0.9999130 0.0031593 0.0000870 -0.0031593
35265 0.0000840 -0.0030224 0.9999160 0.0030224 0.9999160 0.0030224 0.0000840 -0.0030224
36880 0.0000812 -0.0028915 0.9999188 0.0028915 0.9999188 0.0028915 0.0000812 -0.0028915
38569 0.0000785 -0.0027662 0.9999215 0.0027662 0.9999215 0.0027662 0.0000785 -0.0027662
40335 0.0000760 -0.0026464 0.9999240 0.0026464 0.9999240 0.0026464 0.0000760 -0.0026464
42182 0.0000735 -0.0025318 0.9999265 0.0025318 0.9999265 0.0025318 0.0000735 -0.0025318
44113 0.0000711 -0.0024222 0.9999289 0.0024222 0.9999289 0.0024222 0.0000711 -0.0024222
46134 0.0000688 -0.0023173 0.9999312 0.0023173 0.9999312 0.0023173 0.0000688 -0.0023173
48246 0.0000666 -0.0022169 0.9999334 0.0022169 0.9999334 0.0022169 0.0000666 -0.0022169
50455 0.0000645 -0.0021208 0.9999355 0.0021208 0.9999355 0.0021208 0.0000645 -0.0021208
52766 0.0000625 -0.0020289 0.9999375 0.0020289 0.9999375 0.0020289 0.0000625 -0.0020289
55182 0.0000605 -0.0019410 0.9999395 0.0019410 0.9999395 0.0019410 0.0000605 -0.0019410
57709 0.0000586 -0.0018568 0.9999414 0.0018568 0.9999414 0.0018568 0.0000586 -0.0018568
60352 0.0000567 -0.0017763 0.9999433 0.0017763 0.9999433 0.0017763 0.0000567 -0.0017763
63115 0.0000549 -0.0016992 0.9999451 0.0016992 0.9999451 0.0016992 0.0000549 -0.0016992
66005 0.0000532 -0.0016254 0.9999468 0.0016254 0.9999468 0.0016254 0.0000532 -0.0016254
69028 0.0000516 -0.0015547 0.9999484 0.0015547 0.9999484 0.0015547 0.0000516 -0.0015547
72189 0.0000500 -0.0014871 0.9999500 0.0014871 0.9999500 0.0014871 0.0000500 -0.0014871
75495 0.0000485 -0.0014223 0.9999515 0.0014223 0.9999515 0.0014223 0.0000485 -0.0014223
78952 0.0000470 -0.0013603 0.9999530 0.0013603 0.9999530 0.0013603 0.0000470 -0.0013603
82567 0.0000456 -0.0013010 0.9999544 0.0013010 0.9999544 0.0013010 0.0000456 -0.0013010
86348 0.0000443 -0.0012442 0.9999557 0.0012442 0.9999557 0.0012442 0.0000443 -0.0012442
90302 0.0000430 -0.0011897 0.9999570 0.0011897 0.9999570 0.0011897 0.0000430 -0.0011897
94437 0.0000418 -0.0011376 0.9999582 0.0011376 0.9999582 0.0011376 0.0000418 -0.0011376
98762 0.0000407 -0.0010877 0.9999593 0.0010877 0.9999593 0.0010877 0.0000407 -0.0010877
103284 0.0000396 -0.0010399 0.9999604 0.0010399 0.9999604 0.0010399 0.0000396 -0.0010399
108014 0.0000386 -0.0009942 0.9999614 0.0009942 0.9999614 0.0009942 0.0000386 -0.0009942
112960 0.0000376 -0.0009503 0.9999624 0.0009503 0.9999624 0.0009503 0.0000376 -0.0009503
118133 0.0000367 -0.0009083 0.9999633 0.0009083 0.9999633 0.0009083 0.0000367 -0.0009083
123542 0.0000359 -0.0008681 0.9999641 0.0008681 0.9999641 0.0008681 0.0000359 -0.0008681
129199 0.0000351 -0.0008296 0.9999649 0.0008296 0.9999649 0.0008296 0.0000351 -0.0008296
135116 0.0000343 -0.0007927 0.9999657 0.0007927 0.9999657 0.0007927 0.0000343 -0.0007927
141303 0.0000336 -0.0007574 0.9999664 0.0007574 0.9999664 0.0007574 0.0000336 -0.0007574
147774 0.0000330 -0.0007235 0.9999670 0.0007235 0.9999670 0.0007235 0.0000330 -0.0007235
154540 0.0000324 -0.0006910 0.9999676 0.0006910 0.9999676 0.0006910 0.0000324 -0.0006910
161617 0.0000318 -0.0006599 0.9999682 0.0006599 0.9999682 0.0006599 0.0000318 -0.0006599
169018 0.0000313 -0.0006301 0.9999687 0.0006301 0.9999687 0.0006301 0.0000313 -0.0006301
176758 0.0000308 -0.0006016 0.9999692 0.0006016 0.9999692 0.0006016 0.0000308 -0.0006016
184852 0.0000304 -0.0005742 0.9999696 0.0005742 0.9999696 0.0005742 0.0000304 -0.0005742
193316 0.0000300 -0.0005480 0.9999700 0.0005480 0.9999700 0.0005480 0.0000300 -0.0005480
202169 0.0000296 -0.0005228 0.9999704 0.0005228 0.9999704 0.0005228 0.0000296 -0.0005228
211427 0.0000293 -0.0004987 0.9999707 0.0004987 0.9999707 0.0004987 0.0000293 -0.0004987
221108 0.0000290 -0.0004755 0.9999710 0.0004755 0.9999710 0.0004755 0.0000290 -0.0004755
231233 0.0000287 -0.0004533 0.9999713 0.0004533 0.9999713 0.0004533 0.0000287 -0.0004533
241822 0.0000284 -0.0004320 0.9999716 0.0004320 0.9999716 0.0004320 0.0000284 -0.0004320
252896 0.0000282 -0.0004116 0.9999718 0.0004116 0.9999718 0.0004116 0.0000282 -0.0004116
264476 0.0000280 -0.0003919 0.9999720 0.0003919 0.9999720 0.0003919 0.0000280 -0.0003919
276587 0.0000278 -0.0003731 0.9999722 0.0003731 0.9999722 0.0003731 0.0000278 -0.0003731
289253 0.0000277 -0.0003550 0.9999723 0.0003550 0.9999723 0.0003550 0.0000277 -0.0003550
302498 0.0000275 -0.0003376 0.9999725 0.0003376 0.9999725 0.0003376 0.0000275 -0.0003376
316350 0.0000274 -0.0003208 0.9999726 0.0003208 0.9999726 0.0003208 0.0000274 -0.0003208
330837 0.0000273 -0.0003048 0.9999727 0.0003048 0.9999727 0.0003048 0.0000273 -0.0003048
345986 0.0000272 -0.0002893 0.9999728 0.0002893 0.9999728 0.0002893 0.0000272 -0.0002893
361830 0.0000272 -0.0002744 0.9999728 0.0002744 0.9999728 0.0002744 0.0000272 -0.0002744
378399 0.0000271 -0.0002600 0.9999729 0.0002600 0.9999729 0.0002600 0.0000271 -0.0002600
395726 0.0000271 -0.0002461 0.9999729 0.0002461 0.9999729 0.0002461 0.0000271 -0.0002461
413847 0.0000271 -0.0002328 0.9999729 0.0002328 0.9999729 0.0002328 0.0000271 -0.0002328
432798 0.0000271 -0.0002199 0.9999729 0.0002199 0.9999729 0.0002199 0.0000271 -0.0002199
452617 0.0000272 -0.0002074 0.9999728 0.0002074 0.9999728 0.0002074 0.0000272 -0.0002074
473344 0.0000272 -0.0001954 0.9999728 0.0001954 0.9999728 0.0001954 0.0000272 -0.0001954
495019 0.0000273 -0.0001837 0.9999727 0.0001837 0.9999727 0.0001837 0.0000273 -0.0001837
517687 0.0000274 -0.0001724 0.9999726 0.0001724 0.9999726 0.0001724 0.0000274 -0.0001724
541393 0.0000275 -0.0001615 0.9999725 0.0001615 0.9999725 0.0001615 0.0000275 -0.0001615
566185 0.0000276 -0.0001509 0.9999724 0.0001509 0.9999724 0.0001509 0.0000276 -0.0001509
592111 0.0000278 -0.0001406 0.9999722 0.0001406 0.9999722 0.0001406 0.0000278 -0.0001406
619225 0.0000280 -0.0001305 0.9999720 0.0001305 0.9999720 0.0001305 0.0000280 -0.0001305
647581 0.0000282 -0.0001207 0.9999718 0.0001207 0.9999718 0.0001207 0.0000282 -0.0001207
677235 0.0000285 -0.0001112 0.9999715 0.0001112 0.9999715 0.0001112 0.0000285 -0.0001112
708247 0.0000287 -0.0001018 0.9999713 0.0001018 0.9999713 0.0001018 0.0000287 -0.0001018
740679 0.0000290 -0.0000927 0.9999710 0.0000927 0.9999710 0.0000927 0.0000290 -0.0000927
774597 0.0000294 -0.0000838 0.9999706 0.0000838 0.9999706 0.0000838 0.0000294 -0.0000838
810067 0.0000298 -0.0000750 0.9999702 0.0000750 0.9999702 0.0000750 0.0000298 -0.0000750
847162 0.0000302 -0.0000663 0.9999698 0.0000663 0.9999698 0.0000663 0.0000302 -0.0000663
885955 0.0000307 -0.0000578 0.9999693 0.0000578 0.9999693 0.0000578 0.0000307 -0.0000578
926525 0.0000312 -0.0000493 0.9999688 0.0000493 0.9999688 0.0000493 0.0000312 -0.0000493
968953 0.0000318 -0.0000410 0.9999682 0.0000410 0.9999682 0.0000410 0.0000318 -0.0000410
1013323 0.0000325 -0.0000327 0.9999675 0.0000327 0.9999675 0.0000327 0.0000325 -0.0000327
1059725 0.0000332 -0.0000245 0.9999668 0.0000245 0.9999668 0.0000245 0.0000332 -0.0000245
1108252 0.0000341 -0.0000162 0.9999659 0.0000162 0.9999659 0.0000162 0.0000341 -0.0000162
1159002 0.0000350 -0.0000080 0.9999650 0.0000080 0.9999650 0.0000080 0.0000350 -0.0000080
1212075 0.0000361 0.0000002 0.9999639 -0.0000002 0.9999639 -0.0000002 0.0000361 0.0000002
1267578 0.0000373 0.0000086 0.9999627 -0.0000086 0.9999627 -0.0000086 0.0000373 0.0000086
1325623 0.0000387 0.0000169 0.9999613 -0.0000169 0.9999613 -0.0000169 0.0000387 0.0000169
1386327 0.0000403 0.0000255 0.9999597 -0.0000255 0.9999597 -0.0000255 0.0000403 0.0000255
1449809 0.0000422 0.0000341 0.9999578 -0.0000341 0.9999578 -0.0000341 0.0000422 0.0000341
1516199 0.0000444 0.0000430 0.9999556 -0.0000430 0.9999556 -0.0000430 0.0000444 0.0000430
1585629 0.0000471 0.0000520 0.9999529 -0.0000520 0.9999529 -0.0000520 0.0000471 0.0000520
1658239 0.0000504 0.0000613 0.9999496 -0.0000613 0.9999496 -0.0000613 0.0000504 0.0000613
1734173 0.0000545 0.0000708 0.9999455 -0.0000708 0.9999455 -0.0000708 0.0000545 0.0000708
1813585 0.0000599 0.0000804 0.9999401 -0.0000804 0.9999401 -0.0000804 0.0000599 0.0000804
1896632 0.0000669 0.0000896 0.9999331 -0.0000896 0.9999331 -0.0000896 0.0000669 0.0000896
1983483 0.0000761 0.0000977 0.9999239 -0.0000977 0.9999239 -0.0000977 0.0000761 0.0000977
2074311 0.0000872 0.0001028 0.9999128 -0.0001028 0.9999128 -0.0001028 0.0000872 0.0001028
