!Murata Part Number: GRM31CC81A476ME44
!These Parameters are Measured in Series Mode Connection
!Data Generated on Mar 30, 2021
!       o--ll--o
!Port1            Port2
!       o------o
!Operation Temp=25[degC], DC Bias Voltage=0[V]
!Freq. Start=100[Hz] Stop=6[GHz] 401[Steps]
# Hz S RI R 50
!Freq.(Hz) S11(Real) S11(Imag) S21(Real) S21(Imag) S12(Real) S12(Imag) S22(Real) S22(Imag)
100 0.2165893 -0.4035905 0.7834107 0.4035905 0.7834107 0.4035905 0.2165893 -0.4035905
105 0.2021601 -0.3933492 0.7978399 0.3933492 0.7978399 0.3933492 0.2021601 -0.3933492
109 0.1884653 -0.3828818 0.8115347 0.3828818 0.8115347 0.3828818 0.1884653 -0.3828818
114 0.1754997 -0.3722450 0.8245003 0.3722450 0.8245003 0.3722450 0.1754997 -0.3722450
120 0.1632536 -0.3614927 0.8367464 0.3614927 0.8367464 0.3614927 0.1632536 -0.3614927
125 0.1517127 -0.3506749 0.8482873 0.3506749 0.8482873 0.3506749 0.1517127 -0.3506749
131 0.1408591 -0.3398383 0.8591409 0.3398383 0.8591409 0.3398383 0.1408591 -0.3398383
137 0.1306718 -0.3290253 0.8693282 0.3290253 0.8693282 0.3290253 0.1306718 -0.3290253
143 0.1211274 -0.3182745 0.8788726 0.3182745 0.8788726 0.3182745 0.1211274 -0.3182745
150 0.1122005 -0.3076206 0.8877995 0.3076206 0.8877995 0.3076206 0.1122005 -0.3076206
156 0.1038643 -0.2970942 0.8961357 0.2970942 0.8961357 0.2970942 0.1038643 -0.2970942
164 0.0960910 -0.2867222 0.9039090 0.2867222 0.9039090 0.2867222 0.0960910 -0.2867222
171 0.0888524 -0.2765280 0.9111476 0.2765280 0.9111476 0.2765280 0.0888524 -0.2765280
179 0.0821200 -0.2665315 0.9178800 0.2665315 0.9178800 0.2665315 0.0821200 -0.2665315
187 0.0758654 -0.2567493 0.9241346 0.2567493 0.9241346 0.2567493 0.0758654 -0.2567493
196 0.0700606 -0.2471953 0.9299394 0.2471953 0.9299394 0.2471953 0.0700606 -0.2471953
205 0.0646783 -0.2378805 0.9353217 0.2378805 0.9353217 0.2378805 0.0646783 -0.2378805
214 0.0596919 -0.2288133 0.9403081 0.2288133 0.9403081 0.2288133 0.0596919 -0.2288133
224 0.0550757 -0.2200002 0.9449243 0.2200002 0.9449243 0.2200002 0.0550757 -0.2200002
234 0.0508051 -0.2114454 0.9491949 0.2114454 0.9491949 0.2114454 0.0508051 -0.2114454
245 0.0468565 -0.2031515 0.9531435 0.2031515 0.9531435 0.2031515 0.0468565 -0.2031515
256 0.0432076 -0.1951194 0.9567924 0.1951194 0.9567924 0.1951194 0.0432076 -0.1951194
268 0.0398371 -0.1873487 0.9601629 0.1873487 0.9601629 0.1873487 0.0398371 -0.1873487
280 0.0367251 -0.1798378 0.9632749 0.1798378 0.9632749 0.1798378 0.0367251 -0.1798378
293 0.0338528 -0.1725840 0.9661472 0.1725840 0.9661472 0.1725840 0.0338528 -0.1725840
306 0.0312025 -0.1655840 0.9687975 0.1655840 0.9687975 0.1655840 0.0312025 -0.1655840
320 0.0287576 -0.1588334 0.9712424 0.1588334 0.9712424 0.1588334 0.0287576 -0.1588334
335 0.0265028 -0.1523274 0.9734972 0.1523274 0.9734972 0.1523274 0.0265028 -0.1523274
350 0.0244238 -0.1460608 0.9755762 0.1460608 0.9755762 0.1460608 0.0244238 -0.1460608
366 0.0225071 -0.1400279 0.9774929 0.1400279 0.9774929 0.1400279 0.0225071 -0.1400279
383 0.0207404 -0.1342227 0.9792596 0.1342227 0.9792596 0.1342227 0.0207404 -0.1342227
401 0.0191123 -0.1286390 0.9808877 0.1286390 0.9808877 0.1286390 0.0191123 -0.1286390
419 0.0176120 -0.1232705 0.9823880 0.1232705 0.9823880 0.1232705 0.0176120 -0.1232705
438 0.0162298 -0.1181108 0.9837702 0.1181108 0.9837702 0.1181108 0.0162298 -0.1181108
458 0.0149566 -0.1131535 0.9850434 0.1131535 0.9850434 0.1131535 0.0149566 -0.1131535
479 0.0137839 -0.1083919 0.9862161 0.1083919 0.9862161 0.1083919 0.0137839 -0.1083919
501 0.0127039 -0.1038199 0.9872961 0.1038199 0.9872961 0.1038199 0.0127039 -0.1038199
524 0.0117095 -0.0994309 0.9882905 0.0994309 0.9882905 0.0994309 0.0117095 -0.0994309
548 0.0107941 -0.0952186 0.9892059 0.0952186 0.9892059 0.0952186 0.0107941 -0.0952186
573 0.0099515 -0.0911771 0.9900485 0.0911771 0.9900485 0.0911771 0.0099515 -0.0911771
600 0.0091760 -0.0873000 0.9908240 0.0873000 0.9908240 0.0873000 0.0091760 -0.0873000
627 0.0084625 -0.0835817 0.9915375 0.0835817 0.9915375 0.0835817 0.0084625 -0.0835817
656 0.0078060 -0.0800162 0.9921940 0.0800162 0.9921940 0.0800162 0.0078060 -0.0800162
686 0.0072021 -0.0765979 0.9927979 0.0765979 0.9927979 0.0765979 0.0072021 -0.0765979
717 0.0066466 -0.0733213 0.9933534 0.0733213 0.9933534 0.0733213 0.0066466 -0.0733213
750 0.0061358 -0.0701810 0.9938642 0.0701810 0.9938642 0.0701810 0.0061358 -0.0701810
784 0.0056661 -0.0671719 0.9943339 0.0671719 0.9943339 0.0671719 0.0056661 -0.0671719
820 0.0052342 -0.0642890 0.9947658 0.0642890 0.9947658 0.0642890 0.0052342 -0.0642890
858 0.0048371 -0.0615272 0.9951629 0.0615272 0.9951629 0.0615272 0.0048371 -0.0615272
897 0.0044720 -0.0588820 0.9955280 0.0588820 0.9955280 0.0588820 0.0044720 -0.0588820
938 0.0041363 -0.0563486 0.9958637 0.0563486 0.9958637 0.0563486 0.0041363 -0.0563486
981 0.0038277 -0.0539227 0.9961723 0.0539227 0.9961723 0.0539227 0.0038277 -0.0539227
1026 0.0035438 -0.0515999 0.9964562 0.0515999 0.9964562 0.0515999 0.0035438 -0.0515999
1073 0.0032828 -0.0493762 0.9967172 0.0493762 0.9967172 0.0493762 0.0032828 -0.0493762
1122 0.0030426 -0.0472473 0.9969574 0.0472473 0.9969574 0.0472473 0.0030426 -0.0472473
1174 0.0028216 -0.0452096 0.9971784 0.0452096 0.9971784 0.0452096 0.0028216 -0.0452096
1227 0.0026182 -0.0432592 0.9973818 0.0432592 0.9973818 0.0432592 0.0026182 -0.0432592
1283 0.0024309 -0.0413926 0.9975691 0.0413926 0.9975691 0.0413926 0.0024309 -0.0413926
1342 0.0022584 -0.0396062 0.9977416 0.0396062 0.9977416 0.0396062 0.0022584 -0.0396062
1404 0.0020993 -0.0378967 0.9979007 0.0378967 0.9979007 0.0378967 0.0020993 -0.0378967
1468 0.0019527 -0.0362608 0.9980473 0.0362608 0.9980473 0.0362608 0.0019527 -0.0362608
1535 0.0018173 -0.0346956 0.9981827 0.0346956 0.9981827 0.0346956 0.0018173 -0.0346956
1606 0.0016923 -0.0331978 0.9983077 0.0331978 0.9983077 0.0331978 0.0016923 -0.0331978
1679 0.0015767 -0.0317648 0.9984233 0.0317648 0.9984233 0.0317648 0.0015767 -0.0317648
1756 0.0014698 -0.0303936 0.9985302 0.0303936 0.9985302 0.0303936 0.0014698 -0.0303936
1836 0.0013708 -0.0290817 0.9986292 0.0290817 0.9986292 0.0290817 0.0013708 -0.0290817
1920 0.0012791 -0.0278265 0.9987209 0.0278265 0.9987209 0.0278265 0.0012791 -0.0278265
2008 0.0011941 -0.0266255 0.9988059 0.0266255 0.9988059 0.0266255 0.0011941 -0.0266255
2100 0.0011152 -0.0254763 0.9988848 0.0254763 0.9988848 0.0254763 0.0011152 -0.0254763
2196 0.0010418 -0.0243768 0.9989582 0.0243768 0.9989582 0.0243768 0.0010418 -0.0243768
2297 0.0009736 -0.0233248 0.9990264 0.0233248 0.9990264 0.0233248 0.0009736 -0.0233248
2402 0.0009102 -0.0223181 0.9990898 0.0223181 0.9990898 0.0223181 0.0009102 -0.0223181
2512 0.0008511 -0.0213548 0.9991489 0.0213548 0.9991489 0.0213548 0.0008511 -0.0213548
2627 0.0007960 -0.0204331 0.9992040 0.0204331 0.9992040 0.0204331 0.0007960 -0.0204331
2748 0.0007447 -0.0195510 0.9992553 0.0195510 0.9992553 0.0195510 0.0007447 -0.0195510
2873 0.0006968 -0.0187069 0.9993032 0.0187069 0.9993032 0.0187069 0.0006968 -0.0187069
3005 0.0006522 -0.0178991 0.9993478 0.0178991 0.9993478 0.0178991 0.0006522 -0.0178991
3143 0.0006105 -0.0171260 0.9993895 0.0171260 0.9993895 0.0171260 0.0006105 -0.0171260
3287 0.0005716 -0.0163862 0.9994284 0.0163862 0.9994284 0.0163862 0.0005716 -0.0163862
3437 0.0005353 -0.0156781 0.9994647 0.0156781 0.9994647 0.0156781 0.0005353 -0.0156781
3594 0.0005014 -0.0150004 0.9994986 0.0150004 0.9994986 0.0150004 0.0005014 -0.0150004
3759 0.0004698 -0.0143519 0.9995302 0.0143519 0.9995302 0.0143519 0.0004698 -0.0143519
3931 0.0004403 -0.0137311 0.9995597 0.0137311 0.9995597 0.0137311 0.0004403 -0.0137311
4111 0.0004128 -0.0131371 0.9995872 0.0131371 0.9995872 0.0131371 0.0004128 -0.0131371
4299 0.0003871 -0.0125685 0.9996129 0.0125685 0.9996129 0.0125685 0.0003871 -0.0125685
4496 0.0003633 -0.0120244 0.9996367 0.0120244 0.9996367 0.0120244 0.0003633 -0.0120244
4702 0.0003410 -0.0115036 0.9996590 0.0115036 0.9996590 0.0115036 0.0003410 -0.0115036
4918 0.0003203 -0.0110052 0.9996797 0.0110052 0.9996797 0.0110052 0.0003203 -0.0110052
5143 0.0003011 -0.0105283 0.9996989 0.0105283 0.9996989 0.0105283 0.0003011 -0.0105283
5378 0.0002832 -0.0100719 0.9997168 0.0100719 0.9997168 0.0100719 0.0002832 -0.0100719
5625 0.0002666 -0.0096351 0.9997334 0.0096351 0.9997334 0.0096351 0.0002666 -0.0096351
5882 0.0002511 -0.0092172 0.9997489 0.0092172 0.9997489 0.0092172 0.0002511 -0.0092172
6151 0.0002368 -0.0088173 0.9997632 0.0088173 0.9997632 0.0088173 0.0002368 -0.0088173
6433 0.0002235 -0.0084346 0.9997765 0.0084346 0.9997765 0.0084346 0.0002235 -0.0084346
6728 0.0002111 -0.0080685 0.9997889 0.0080685 0.9997889 0.0080685 0.0002111 -0.0080685
7036 0.0001996 -0.0077183 0.9998004 0.0077183 0.9998004 0.0077183 0.0001996 -0.0077183
7358 0.0001890 -0.0073832 0.9998110 0.0073832 0.9998110 0.0073832 0.0001890 -0.0073832
7695 0.0001792 -0.0070626 0.9998208 0.0070626 0.9998208 0.0070626 0.0001792 -0.0070626
8047 0.0001700 -0.0067559 0.9998300 0.0067559 0.9998300 0.0067559 0.0001700 -0.0067559
8416 0.0001615 -0.0064625 0.9998385 0.0064625 0.9998385 0.0064625 0.0001615 -0.0064625
8801 0.0001537 -0.0061818 0.9998463 0.0061818 0.9998463 0.0061818 0.0001537 -0.0061818
9204 0.0001463 -0.0059134 0.9998537 0.0059134 0.9998537 0.0059134 0.0001463 -0.0059134
9626 0.0001395 -0.0056566 0.9998605 0.0056566 0.9998605 0.0056566 0.0001395 -0.0056566
10066 0.0001332 -0.0054110 0.9998668 0.0054110 0.9998668 0.0054110 0.0001332 -0.0054110
10527 0.0001273 -0.0051761 0.9998727 0.0051761 0.9998727 0.0051761 0.0001273 -0.0051761
11009 0.0001218 -0.0049514 0.9998782 0.0049514 0.9998782 0.0049514 0.0001218 -0.0049514
11514 0.0001167 -0.0047365 0.9998833 0.0047365 0.9998833 0.0047365 0.0001167 -0.0047365
12041 0.0001119 -0.0045310 0.9998881 0.0045310 0.9998881 0.0045310 0.0001119 -0.0045310
12592 0.0001074 -0.0043344 0.9998926 0.0043344 0.9998926 0.0043344 0.0001074 -0.0043344
13169 0.0001032 -0.0041464 0.9998968 0.0041464 0.9998968 0.0041464 0.0001032 -0.0041464
13772 0.0000992 -0.0039667 0.9999008 0.0039667 0.9999008 0.0039667 0.0000992 -0.0039667
14402 0.0000954 -0.0037947 0.9999046 0.0037947 0.9999046 0.0037947 0.0000954 -0.0037947
15062 0.0000918 -0.0036303 0.9999082 0.0036303 0.9999082 0.0036303 0.0000918 -0.0036303
15752 0.0000885 -0.0034730 0.9999115 0.0034730 0.9999115 0.0034730 0.0000885 -0.0034730
16473 0.0000853 -0.0033226 0.9999147 0.0033226 0.9999147 0.0033226 0.0000853 -0.0033226
17227 0.0000822 -0.0031788 0.9999178 0.0031788 0.9999178 0.0031788 0.0000822 -0.0031788
18016 0.0000793 -0.0030412 0.9999207 0.0030412 0.9999207 0.0030412 0.0000793 -0.0030412
18841 0.0000765 -0.0029096 0.9999235 0.0029096 0.9999235 0.0029096 0.0000765 -0.0029096
19704 0.0000738 -0.0027837 0.9999262 0.0027837 0.9999262 0.0027837 0.0000738 -0.0027837
20606 0.0000712 -0.0026633 0.9999288 0.0026633 0.9999288 0.0026633 0.0000712 -0.0026633
21550 0.0000687 -0.0025481 0.9999313 0.0025481 0.9999313 0.0025481 0.0000687 -0.0025481
22537 0.0000663 -0.0024379 0.9999337 0.0024379 0.9999337 0.0024379 0.0000663 -0.0024379
23569 0.0000640 -0.0023324 0.9999360 0.0023324 0.9999360 0.0023324 0.0000640 -0.0023324
24648 0.0000618 -0.0022316 0.9999382 0.0022316 0.9999382 0.0022316 0.0000618 -0.0022316
25777 0.0000597 -0.0021351 0.9999403 0.0021351 0.9999403 0.0021351 0.0000597 -0.0021351
26957 0.0000576 -0.0020427 0.9999424 0.0020427 0.9999424 0.0020427 0.0000576 -0.0020427
28191 0.0000556 -0.0019544 0.9999444 0.0019544 0.9999444 0.0019544 0.0000556 -0.0019544
29482 0.0000536 -0.0018698 0.9999464 0.0018698 0.9999464 0.0018698 0.0000536 -0.0018698
30832 0.0000518 -0.0017889 0.9999482 0.0017889 0.9999482 0.0017889 0.0000518 -0.0017889
32244 0.0000500 -0.0017114 0.9999500 0.0017114 0.9999500 0.0017114 0.0000500 -0.0017114
33721 0.0000483 -0.0016373 0.9999517 0.0016373 0.9999517 0.0016373 0.0000483 -0.0016373
35265 0.0000466 -0.0015664 0.9999534 0.0015664 0.9999534 0.0015664 0.0000466 -0.0015664
36880 0.0000450 -0.0014985 0.9999550 0.0014985 0.9999550 0.0014985 0.0000450 -0.0014985
38569 0.0000435 -0.0014335 0.9999565 0.0014335 0.9999565 0.0014335 0.0000435 -0.0014335
40335 0.0000421 -0.0013713 0.9999579 0.0013713 0.9999579 0.0013713 0.0000421 -0.0013713
42182 0.0000407 -0.0013117 0.9999593 0.0013117 0.9999593 0.0013117 0.0000407 -0.0013117
44113 0.0000394 -0.0012547 0.9999606 0.0012547 0.9999606 0.0012547 0.0000394 -0.0012547
46134 0.0000382 -0.0012001 0.9999618 0.0012001 0.9999618 0.0012001 0.0000382 -0.0012001
48246 0.0000370 -0.0011479 0.9999630 0.0011479 0.9999630 0.0011479 0.0000370 -0.0011479
50455 0.0000359 -0.0010979 0.9999641 0.0010979 0.9999641 0.0010979 0.0000359 -0.0010979
52766 0.0000348 -0.0010500 0.9999652 0.0010500 0.9999652 0.0010500 0.0000348 -0.0010500
55182 0.0000338 -0.0010042 0.9999662 0.0010042 0.9999662 0.0010042 0.0000338 -0.0010042
57709 0.0000329 -0.0009603 0.9999671 0.0009603 0.9999671 0.0009603 0.0000329 -0.0009603
60352 0.0000320 -0.0009183 0.9999680 0.0009183 0.9999680 0.0009183 0.0000320 -0.0009183
63115 0.0000312 -0.0008781 0.9999688 0.0008781 0.9999688 0.0008781 0.0000312 -0.0008781
66005 0.0000305 -0.0008397 0.9999695 0.0008397 0.9999695 0.0008397 0.0000305 -0.0008397
69028 0.0000297 -0.0008028 0.9999703 0.0008028 0.9999703 0.0008028 0.0000297 -0.0008028
72189 0.0000291 -0.0007676 0.9999709 0.0007676 0.9999709 0.0007676 0.0000291 -0.0007676
75495 0.0000285 -0.0007338 0.9999715 0.0007338 0.9999715 0.0007338 0.0000285 -0.0007338
78952 0.0000279 -0.0007015 0.9999721 0.0007015 0.9999721 0.0007015 0.0000279 -0.0007015
82567 0.0000273 -0.0006706 0.9999727 0.0006706 0.9999727 0.0006706 0.0000273 -0.0006706
86348 0.0000268 -0.0006410 0.9999732 0.0006410 0.9999732 0.0006410 0.0000268 -0.0006410
90302 0.0000264 -0.0006127 0.9999736 0.0006127 0.9999736 0.0006127 0.0000264 -0.0006127
94437 0.0000259 -0.0005855 0.9999741 0.0005855 0.9999741 0.0005855 0.0000259 -0.0005855
98762 0.0000255 -0.0005596 0.9999745 0.0005596 0.9999745 0.0005596 0.0000255 -0.0005596
103284 0.0000252 -0.0005347 0.9999748 0.0005347 0.9999748 0.0005347 0.0000252 -0.0005347
108014 0.0000248 -0.0005109 0.9999752 0.0005109 0.9999752 0.0005109 0.0000248 -0.0005109
112960 0.0000245 -0.0004881 0.9999755 0.0004881 0.9999755 0.0004881 0.0000245 -0.0004881
118133 0.0000242 -0.0004663 0.9999758 0.0004663 0.9999758 0.0004663 0.0000242 -0.0004663
123542 0.0000239 -0.0004454 0.9999761 0.0004454 0.9999761 0.0004454 0.0000239 -0.0004454
129199 0.0000237 -0.0004254 0.9999763 0.0004254 0.9999763 0.0004254 0.0000237 -0.0004254
135116 0.0000235 -0.0004062 0.9999765 0.0004062 0.9999765 0.0004062 0.0000235 -0.0004062
141303 0.0000232 -0.0003878 0.9999768 0.0003878 0.9999768 0.0003878 0.0000232 -0.0003878
147774 0.0000230 -0.0003702 0.9999770 0.0003702 0.9999770 0.0003702 0.0000230 -0.0003702
154540 0.0000229 -0.0003534 0.9999771 0.0003534 0.9999771 0.0003534 0.0000229 -0.0003534
161617 0.0000227 -0.0003372 0.9999773 0.0003372 0.9999773 0.0003372 0.0000227 -0.0003372
169018 0.0000225 -0.0003217 0.9999775 0.0003217 0.9999775 0.0003217 0.0000225 -0.0003217
176758 0.0000224 -0.0003069 0.9999776 0.0003069 0.9999776 0.0003069 0.0000224 -0.0003069
184852 0.0000223 -0.0002926 0.9999777 0.0002926 0.9999777 0.0002926 0.0000223 -0.0002926
193316 0.0000221 -0.0002790 0.9999779 0.0002790 0.9999779 0.0002790 0.0000221 -0.0002790
202169 0.0000220 -0.0002659 0.9999780 0.0002659 0.9999780 0.0002659 0.0000220 -0.0002659
211427 0.0000219 -0.0002533 0.9999781 0.0002533 0.9999781 0.0002533 0.0000219 -0.0002533
221108 0.0000218 -0.0002412 0.9999782 0.0002412 0.9999782 0.0002412 0.0000218 -0.0002412
231233 0.0000217 -0.0002296 0.9999783 0.0002296 0.9999783 0.0002296 0.0000217 -0.0002296
241822 0.0000216 -0.0002185 0.9999784 0.0002185 0.9999784 0.0002185 0.0000216 -0.0002185
252896 0.0000216 -0.0002078 0.9999784 0.0002078 0.9999784 0.0002078 0.0000216 -0.0002078
264476 0.0000215 -0.0001975 0.9999785 0.0001975 0.9999785 0.0001975 0.0000215 -0.0001975
276587 0.0000214 -0.0001876 0.9999786 0.0001876 0.9999786 0.0001876 0.0000214 -0.0001876
289253 0.0000214 -0.0001781 0.9999786 0.0001781 0.9999786 0.0001781 0.0000214 -0.0001781
302498 0.0000213 -0.0001689 0.9999787 0.0001689 0.9999787 0.0001689 0.0000213 -0.0001689
316350 0.0000213 -0.0001601 0.9999787 0.0001601 0.9999787 0.0001601 0.0000213 -0.0001601
330837 0.0000213 -0.0001515 0.9999787 0.0001515 0.9999787 0.0001515 0.0000213 -0.0001515
345986 0.0000213 -0.0001433 0.9999787 0.0001433 0.9999787 0.0001433 0.0000213 -0.0001433
361830 0.0000213 -0.0001354 0.9999787 0.0001354 0.9999787 0.0001354 0.0000213 -0.0001354
378399 0.0000213 -0.0001277 0.9999787 0.0001277 0.9999787 0.0001277 0.0000213 -0.0001277
395726 0.0000213 -0.0001203 0.9999787 0.0001203 0.9999787 0.0001203 0.0000213 -0.0001203
413847 0.0000213 -0.0001131 0.9999787 0.0001131 0.9999787 0.0001131 0.0000213 -0.0001131
432798 0.0000214 -0.0001061 0.9999786 0.0001061 0.9999786 0.0001061 0.0000214 -0.0001061
452617 0.0000214 -0.0000993 0.9999786 0.0000993 0.9999786 0.0000993 0.0000214 -0.0000993
473344 0.0000215 -0.0000928 0.9999785 0.0000928 0.9999785 0.0000928 0.0000215 -0.0000928
495019 0.0000216 -0.0000864 0.9999784 0.0000864 0.9999784 0.0000864 0.0000216 -0.0000864
517687 0.0000217 -0.0000802 0.9999783 0.0000802 0.9999783 0.0000802 0.0000217 -0.0000802
541393 0.0000219 -0.0000741 0.9999781 0.0000741 0.9999781 0.0000741 0.0000219 -0.0000741
566185 0.0000220 -0.0000682 0.9999780 0.0000682 0.9999780 0.0000682 0.0000220 -0.0000682
592111 0.0000222 -0.0000624 0.9999778 0.0000624 0.9999778 0.0000624 0.0000222 -0.0000624
619225 0.0000224 -0.0000568 0.9999776 0.0000568 0.9999776 0.0000568 0.0000224 -0.0000568
647581 0.0000227 -0.0000512 0.9999773 0.0000512 0.9999773 0.0000512 0.0000227 -0.0000512
677235 0.0000229 -0.0000458 0.9999771 0.0000458 0.9999771 0.0000458 0.0000229 -0.0000458
708247 0.0000233 -0.0000405 0.9999767 0.0000405 0.9999767 0.0000405 0.0000233 -0.0000405
740679 0.0000236 -0.0000352 0.9999764 0.0000352 0.9999764 0.0000352 0.0000236 -0.0000352
774597 0.0000240 -0.0000301 0.9999760 0.0000301 0.9999760 0.0000301 0.0000240 -0.0000301
810067 0.0000245 -0.0000250 0.9999755 0.0000250 0.9999755 0.0000250 0.0000245 -0.0000250
847162 0.0000250 -0.0000199 0.9999750 0.0000199 0.9999750 0.0000199 0.0000250 -0.0000199
885955 0.0000255 -0.0000149 0.9999745 0.0000149 0.9999745 0.0000149 0.0000255 -0.0000149
926525 0.0000261 -0.0000100 0.9999739 0.0000100 0.9999739 0.0000100 0.0000261 -0.0000100
968953 0.0000268 -0.0000051 0.9999732 0.0000051 0.9999732 0.0000051 0.0000268 -0.0000051
1013323 0.0000276 -0.0000003 0.9999724 0.0000003 0.9999724 0.0000003 0.0000276 -0.0000003
1059725 0.0000285 0.0000046 0.9999715 -0.0000046 0.9999715 -0.0000046 0.0000285 0.0000046
1108252 0.0000294 0.0000093 0.9999706 -0.0000093 0.9999706 -0.0000093 0.0000294 0.0000093
1159002 0.0000305 0.0000141 0.9999695 -0.0000141 0.9999695 -0.0000141 0.0000305 0.0000141
1212075 0.0000316 0.0000187 0.9999684 -0.0000187 0.9999684 -0.0000187 0.0000316 0.0000187
1267578 0.0000329 0.0000234 0.9999671 -0.0000234 0.9999671 -0.0000234 0.0000329 0.0000234
1325623 0.0000343 0.0000279 0.9999657 -0.0000279 0.9999657 -0.0000279 0.0000343 0.0000279
1386327 0.0000358 0.0000324 0.9999642 -0.0000324 0.9999642 -0.0000324 0.0000358 0.0000324
1449809 0.0000374 0.0000368 0.9999626 -0.0000368 0.9999626 -0.0000368 0.0000374 0.0000368
1516199 0.0000392 0.0000410 0.9999608 -0.0000410 0.9999608 -0.0000410 0.0000392 0.0000410
1585629 0.0000410 0.0000452 0.9999590 -0.0000452 0.9999590 -0.0000452 0.0000410 0.0000452
1658239 0.0000429 0.0000491 0.9999571 -0.0000491 0.9999571 -0.0000491 0.0000429 0.0000491
1734173 0.0000448 0.0000529 0.9999552 -0.0000529 0.9999552 -0.0000529 0.0000448 0.0000529
1813585 0.0000467 0.0000564 0.9999533 -0.0000564 0.9999533 -0.0000564 0.0000467 0.0000564
1896632 0.0000485 0.0000598 0.9999515 -0.0000598 0.9999515 -0.0000598 0.0000485 0.0000598
1983483 0.0000501 0.0000631 0.9999499 -0.0000631 0.9999499 -0.0000631 0.0000501 0.0000631
2074311 0.0000515 0.0000662 0.9999485 -0.0000662 0.9999485 -0.0000662 0.0000515 0.0000662
