!Murata Part Number: GRM31MR72A473MA01
!These Parameters are Measured in Series Mode Connection
!Data Generated on Mar 30, 2021
!       o--ll--o
!Port1            Port2
!       o------o
!Operation Temp=25[degC], DC Bias Voltage=0[V]
!Freq. Start=100[Hz] Stop=6[GHz] 401[Steps]
# Hz S RI R 50
!Freq.(Hz) S11(Real) S11(Imag) S21(Real) S21(Imag) S12(Real) S12(Imag) S22(Real) S22(Imag)
100 0.9999778 -0.0029239 0.0000222 0.0029239 0.0000222 0.0029239 0.9999778 -0.0029239
105 0.9999764 -0.0030573 0.0000236 0.0030573 0.0000236 0.0030573 0.9999764 -0.0030573
109 0.9999750 -0.0031969 0.0000250 0.0031969 0.0000250 0.0031969 0.9999750 -0.0031969
114 0.9999734 -0.0033428 0.0000266 0.0033428 0.0000266 0.0033428 0.9999734 -0.0033428
120 0.9999717 -0.0034954 0.0000283 0.0034954 0.0000283 0.0034954 0.9999717 -0.0034954
125 0.9999699 -0.0036549 0.0000301 0.0036549 0.0000301 0.0036549 0.9999699 -0.0036549
131 0.9999680 -0.0038218 0.0000320 0.0038218 0.0000320 0.0038218 0.9999680 -0.0038218
137 0.9999659 -0.0039963 0.0000341 0.0039963 0.0000341 0.0039963 0.9999659 -0.0039963
143 0.9999637 -0.0041788 0.0000363 0.0041788 0.0000363 0.0041788 0.9999637 -0.0041788
150 0.9999612 -0.0043696 0.0000388 0.0043696 0.0000388 0.0043696 0.9999612 -0.0043696
156 0.9999586 -0.0045691 0.0000414 0.0045691 0.0000414 0.0045691 0.9999586 -0.0045691
164 0.9999558 -0.0047777 0.0000442 0.0047777 0.0000442 0.0047777 0.9999558 -0.0047777
171 0.9999527 -0.0049958 0.0000473 0.0049958 0.0000473 0.0049958 0.9999527 -0.0049958
179 0.9999494 -0.0052240 0.0000506 0.0052240 0.0000506 0.0052240 0.9999494 -0.0052240
187 0.9999458 -0.0054625 0.0000542 0.0054625 0.0000542 0.0054625 0.9999458 -0.0054625
196 0.9999420 -0.0057119 0.0000580 0.0057119 0.0000580 0.0057119 0.9999420 -0.0057119
205 0.9999378 -0.0059727 0.0000622 0.0059727 0.0000622 0.0059727 0.9999378 -0.0059727
214 0.9999332 -0.0062454 0.0000668 0.0062454 0.0000668 0.0062454 0.9999332 -0.0062454
224 0.9999283 -0.0065306 0.0000717 0.0065306 0.0000717 0.0065306 0.9999283 -0.0065306
234 0.9999230 -0.0068287 0.0000770 0.0068287 0.0000770 0.0068287 0.9999230 -0.0068287
245 0.9999173 -0.0071405 0.0000827 0.0071405 0.0000827 0.0071405 0.9999173 -0.0071405
256 0.9999111 -0.0074665 0.0000889 0.0074665 0.0000889 0.0074665 0.9999111 -0.0074665
268 0.9999044 -0.0078073 0.0000956 0.0078073 0.0000956 0.0078073 0.9999044 -0.0078073
280 0.9998971 -0.0081637 0.0001029 0.0081637 0.0001029 0.0081637 0.9998971 -0.0081637
293 0.9998892 -0.0085364 0.0001108 0.0085364 0.0001108 0.0085364 0.9998892 -0.0085364
306 0.9998807 -0.0089260 0.0001193 0.0089260 0.0001193 0.0089260 0.9998807 -0.0089260
320 0.9998715 -0.0093334 0.0001285 0.0093334 0.0001285 0.0093334 0.9998715 -0.0093334
335 0.9998615 -0.0097595 0.0001385 0.0097595 0.0001385 0.0097595 0.9998615 -0.0097595
350 0.9998507 -0.0102049 0.0001493 0.0102049 0.0001493 0.0102049 0.9998507 -0.0102049
366 0.9998389 -0.0106707 0.0001611 0.0106707 0.0001611 0.0106707 0.9998389 -0.0106707
383 0.9998262 -0.0111577 0.0001738 0.0111577 0.0001738 0.0111577 0.9998262 -0.0111577
401 0.9998125 -0.0116669 0.0001875 0.0116669 0.0001875 0.0116669 0.9998125 -0.0116669
419 0.9997975 -0.0121994 0.0002025 0.0121994 0.0002025 0.0121994 0.9997975 -0.0121994
438 0.9997813 -0.0127562 0.0002187 0.0127562 0.0002187 0.0127562 0.9997813 -0.0127562
458 0.9997637 -0.0133383 0.0002363 0.0133383 0.0002363 0.0133383 0.9997637 -0.0133383
479 0.9997446 -0.0139471 0.0002554 0.0139471 0.0002554 0.0139471 0.9997446 -0.0139471
501 0.9997239 -0.0145836 0.0002761 0.0145836 0.0002761 0.0145836 0.9997239 -0.0145836
524 0.9997013 -0.0152492 0.0002987 0.0152492 0.0002987 0.0152492 0.9997013 -0.0152492
548 0.9996768 -0.0159452 0.0003232 0.0159452 0.0003232 0.0159452 0.9996768 -0.0159452
573 0.9996502 -0.0166729 0.0003498 0.0166729 0.0003498 0.0166729 0.9996502 -0.0166729
600 0.9996211 -0.0174338 0.0003789 0.0174338 0.0003789 0.0174338 0.9996211 -0.0174338
627 0.9995895 -0.0182295 0.0004105 0.0182295 0.0004105 0.0182295 0.9995895 -0.0182295
656 0.9995551 -0.0190614 0.0004449 0.0190614 0.0004449 0.0190614 0.9995551 -0.0190614
686 0.9995177 -0.0199313 0.0004823 0.0199313 0.0004823 0.0199313 0.9995177 -0.0199313
717 0.9994768 -0.0208408 0.0005232 0.0208408 0.0005232 0.0208408 0.9994768 -0.0208408
750 0.9994323 -0.0217918 0.0005677 0.0217918 0.0005677 0.0217918 0.9994323 -0.0217918
784 0.9993838 -0.0227861 0.0006162 0.0227861 0.0006162 0.0227861 0.9993838 -0.0227861
820 0.9993309 -0.0238257 0.0006691 0.0238257 0.0006691 0.0238257 0.9993309 -0.0238257
858 0.9992732 -0.0249127 0.0007268 0.0249127 0.0007268 0.0249127 0.9992732 -0.0249127
897 0.9992102 -0.0260491 0.0007898 0.0260491 0.0007898 0.0260491 0.9992102 -0.0260491
938 0.9991416 -0.0272371 0.0008584 0.0272371 0.0008584 0.0272371 0.9991416 -0.0272371
981 0.9990667 -0.0284792 0.0009333 0.0284792 0.0009333 0.0284792 0.9990667 -0.0284792
1026 0.9989849 -0.0297776 0.0010151 0.0297776 0.0010151 0.0297776 0.9989849 -0.0297776
1073 0.9988958 -0.0311350 0.0011042 0.0311350 0.0011042 0.0311350 0.9988958 -0.0311350
1122 0.9987985 -0.0325540 0.0012015 0.0325540 0.0012015 0.0325540 0.9987985 -0.0325540
1174 0.9986923 -0.0340372 0.0013077 0.0340372 0.0013077 0.0340372 0.9986923 -0.0340372
1227 0.9985764 -0.0355876 0.0014236 0.0355876 0.0014236 0.0355876 0.9985764 -0.0355876
1283 0.9984500 -0.0372081 0.0015500 0.0372081 0.0015500 0.0372081 0.9984500 -0.0372081
1342 0.9983121 -0.0389019 0.0016879 0.0389019 0.0016879 0.0389019 0.9983121 -0.0389019
1404 0.9981617 -0.0406721 0.0018383 0.0406721 0.0018383 0.0406721 0.9981617 -0.0406721
1468 0.9979975 -0.0425221 0.0020025 0.0425221 0.0020025 0.0425221 0.9979975 -0.0425221
1535 0.9978185 -0.0444555 0.0021815 0.0444555 0.0021815 0.0444555 0.9978185 -0.0444555
1606 0.9976231 -0.0464758 0.0023769 0.0464758 0.0023769 0.0464758 0.9976231 -0.0464758
1679 0.9974101 -0.0485869 0.0025899 0.0485869 0.0025899 0.0485869 0.9974101 -0.0485869
1756 0.9971777 -0.0507926 0.0028223 0.0507926 0.0028223 0.0507926 0.9971777 -0.0507926
1836 0.9969243 -0.0530972 0.0030757 0.0530972 0.0030757 0.0530972 0.9969243 -0.0530972
1920 0.9966479 -0.0555048 0.0033521 0.0555048 0.0033521 0.0555048 0.9966479 -0.0555048
2008 0.9963466 -0.0580198 0.0036534 0.0580198 0.0036534 0.0580198 0.9963466 -0.0580198
2100 0.9960180 -0.0606470 0.0039820 0.0606470 0.0039820 0.0606470 0.9960180 -0.0606470
2196 0.9956597 -0.0633909 0.0043403 0.0633909 0.0043403 0.0633909 0.9956597 -0.0633909
2297 0.9952691 -0.0662567 0.0047309 0.0662567 0.0047309 0.0662567 0.9952691 -0.0662567
2402 0.9948433 -0.0692493 0.0051567 0.0692493 0.0051567 0.0692493 0.9948433 -0.0692493
2512 0.9943790 -0.0723740 0.0056210 0.0723740 0.0056210 0.0723740 0.9943790 -0.0723740
2627 0.9938730 -0.0756364 0.0061270 0.0756364 0.0061270 0.0756364 0.9938730 -0.0756364
2748 0.9933213 -0.0790421 0.0066787 0.0790421 0.0066787 0.0790421 0.9933213 -0.0790421
2873 0.9927199 -0.0825968 0.0072801 0.0825968 0.0072801 0.0825968 0.9927199 -0.0825968
3005 0.9920644 -0.0863066 0.0079356 0.0863066 0.0079356 0.0863066 0.9920644 -0.0863066
3143 0.9913499 -0.0901775 0.0086501 0.0901775 0.0086501 0.0901775 0.9913499 -0.0901775
3287 0.9905711 -0.0942159 0.0094289 0.0942159 0.0094289 0.0942159 0.9905711 -0.0942159
3437 0.9897223 -0.0984282 0.0102777 0.0984282 0.0102777 0.0984282 0.9897223 -0.0984282
3594 0.9887973 -0.1028208 0.0112027 0.1028208 0.0112027 0.1028208 0.9887973 -0.1028208
3759 0.9877892 -0.1074005 0.0122108 0.1074005 0.0122108 0.1074005 0.9877892 -0.1074005
3931 0.9866906 -0.1121740 0.0133094 0.1121740 0.0133094 0.1121740 0.9866906 -0.1121740
4111 0.9854937 -0.1171479 0.0145063 0.1171479 0.0145063 0.1171479 0.9854937 -0.1171479
4299 0.9841897 -0.1223292 0.0158103 0.1223292 0.0158103 0.1223292 0.9841897 -0.1223292
4496 0.9827693 -0.1277245 0.0172307 0.1277245 0.0172307 0.1277245 0.9827693 -0.1277245
4702 0.9812222 -0.1333406 0.0187778 0.1333406 0.0187778 0.1333406 0.9812222 -0.1333406
4918 0.9795376 -0.1391841 0.0204624 0.1391841 0.0204624 0.1391841 0.9795376 -0.1391841
5143 0.9777035 -0.1452613 0.0222965 0.1452613 0.0222965 0.1452613 0.9777035 -0.1452613
5378 0.9757074 -0.1515784 0.0242926 0.1515784 0.0242926 0.1515784 0.9757074 -0.1515784
5625 0.9735354 -0.1581412 0.0264646 0.1581412 0.0264646 0.1581412 0.9735354 -0.1581412
5882 0.9711728 -0.1649553 0.0288272 0.1649553 0.0288272 0.1649553 0.9711728 -0.1649553
6151 0.9686040 -0.1720255 0.0313960 0.1720255 0.0313960 0.1720255 0.9686040 -0.1720255
6433 0.9658120 -0.1793562 0.0341880 0.1793562 0.0341880 0.1793562 0.9658120 -0.1793562
6728 0.9627789 -0.1869509 0.0372211 0.1869509 0.0372211 0.1869509 0.9627789 -0.1869509
7036 0.9594855 -0.1948124 0.0405145 0.1948124 0.0405145 0.1948124 0.9594855 -0.1948124
7358 0.9559114 -0.2029424 0.0440886 0.2029424 0.0440886 0.2029424 0.9559114 -0.2029424
7695 0.9520353 -0.2113414 0.0479647 0.2113414 0.0479647 0.2113414 0.9520353 -0.2113414
8047 0.9478344 -0.2200086 0.0521656 0.2200086 0.0521656 0.2200086 0.9478344 -0.2200086
8416 0.9432848 -0.2289416 0.0567152 0.2289416 0.0567152 0.2289416 0.9432848 -0.2289416
8801 0.9383615 -0.2381362 0.0616385 0.2381362 0.0616385 0.2381362 0.9383615 -0.2381362
9204 0.9330387 -0.2475864 0.0669613 0.2475864 0.0669613 0.2475864 0.9330387 -0.2475864
9626 0.9272893 -0.2572839 0.0727107 0.2572839 0.0727107 0.2572839 0.9272893 -0.2572839
10066 0.9210856 -0.2672178 0.0789144 0.2672178 0.0789144 0.2672178 0.9210856 -0.2672178
10527 0.9143990 -0.2773749 0.0856010 0.2773749 0.0856010 0.2773749 0.9143990 -0.2773749
11009 0.9072007 -0.2877386 0.0927993 0.2877386 0.0927993 0.2877386 0.9072007 -0.2877386
11514 0.8994615 -0.2982896 0.1005385 0.2982896 0.1005385 0.2982896 0.8994615 -0.2982896
12041 0.8911524 -0.3090049 0.1088476 0.3090049 0.1088476 0.3090049 0.8911524 -0.3090049
12592 0.8822446 -0.3198579 0.1177554 0.3198579 0.1177554 0.3198579 0.8822446 -0.3198579
13169 0.8727103 -0.3308183 0.1272897 0.3308183 0.1272897 0.3308183 0.8727103 -0.3308183
13772 0.8625230 -0.3418519 0.1374770 0.3418519 0.1374770 0.3418519 0.8625230 -0.3418519
14402 0.8516576 -0.3529203 0.1483424 0.3529203 0.1483424 0.3529203 0.8516576 -0.3529203
15062 0.8400916 -0.3639810 0.1599084 0.3639810 0.1599084 0.3639810 0.8400916 -0.3639810
15752 0.8278054 -0.3749875 0.1721946 0.3749875 0.1721946 0.3749875 0.8278054 -0.3749875
16473 0.8147825 -0.3858893 0.1852175 0.3858893 0.1852175 0.3858893 0.8147825 -0.3858893
17227 0.8010111 -0.3966320 0.1989889 0.3966320 0.1989889 0.3966320 0.8010111 -0.3966320
18016 0.7864837 -0.4071578 0.2135163 0.4071578 0.2135163 0.4071578 0.7864837 -0.4071578
18841 0.7711985 -0.4174059 0.2288015 0.4174059 0.2288015 0.4174059 0.7711985 -0.4174059
19704 0.7551597 -0.4273130 0.2448403 0.4273130 0.2448403 0.4273130 0.7551597 -0.4273130
20606 0.7383783 -0.4368137 0.2616217 0.4368137 0.2616217 0.4368137 0.7383783 -0.4368137
21550 0.7208721 -0.4458418 0.2791279 0.4458418 0.2791279 0.4458418 0.7208721 -0.4458418
22537 0.7026668 -0.4543307 0.2973332 0.4543307 0.2973332 0.4543307 0.7026668 -0.4543307
23569 0.6837957 -0.4622149 0.3162043 0.4622149 0.3162043 0.4622149 0.6837957 -0.4622149
24648 0.6643000 -0.4694305 0.3357000 0.4694305 0.3357000 0.4694305 0.6643000 -0.4694305
25777 0.6442288 -0.4759167 0.3557712 0.4759167 0.3557712 0.4759167 0.6442288 -0.4759167
26957 0.6236389 -0.4816170 0.3763611 0.4816170 0.3763611 0.4816170 0.6236389 -0.4816170
28191 0.6025939 -0.4864800 0.3974061 0.4864800 0.3974061 0.4864800 0.6025939 -0.4864800
29482 0.5811644 -0.4904609 0.4188356 0.4904609 0.4188356 0.4904609 0.5811644 -0.4904609
30832 0.5594264 -0.4935220 0.4405736 0.4935220 0.4405736 0.4935220 0.5594264 -0.4935220
32244 0.5374605 -0.4956341 0.4625395 0.4956341 0.4625395 0.4956341 0.5374605 -0.4956341
33721 0.5153510 -0.4967766 0.4846490 0.4967766 0.4846490 0.4967766 0.5153510 -0.4967766
35265 0.4931843 -0.4969386 0.5068157 0.4969386 0.5068157 0.4969386 0.4931843 -0.4969386
36880 0.4710479 -0.4961185 0.5289521 0.4961185 0.5289521 0.4961185 0.4710479 -0.4961185
38569 0.4490284 -0.4943248 0.5509716 0.4943248 0.5509716 0.4943248 0.4490284 -0.4943248
40335 0.4272110 -0.4915750 0.5727890 0.4915750 0.5727890 0.4915750 0.4272110 -0.4915750
42182 0.4056773 -0.4878960 0.5943227 0.4878960 0.5943227 0.4878960 0.4056773 -0.4878960
44113 0.3845050 -0.4833231 0.6154950 0.4833231 0.6154950 0.4833231 0.3845050 -0.4833231
46134 0.3637661 -0.4778991 0.6362339 0.4778991 0.6362339 0.4778991 0.3637661 -0.4778991
48246 0.3435263 -0.4716734 0.6564737 0.4716734 0.6564737 0.4716734 0.3435263 -0.4716734
50455 0.3238444 -0.4647013 0.6761556 0.4647013 0.6761556 0.4647013 0.3238444 -0.4647013
52766 0.3047717 -0.4570423 0.6952283 0.4570423 0.6952283 0.4570423 0.3047717 -0.4570423
55182 0.2863518 -0.4487594 0.7136482 0.4487594 0.7136482 0.4487594 0.2863518 -0.4487594
57709 0.2686200 -0.4399177 0.7313800 0.4399177 0.7313800 0.4399177 0.2686200 -0.4399177
60352 0.2516042 -0.4305833 0.7483958 0.4305833 0.7483958 0.4305833 0.2516042 -0.4305833
63115 0.2353246 -0.4208228 0.7646754 0.4208228 0.7646754 0.4208228 0.2353246 -0.4208228
66005 0.2197939 -0.4107014 0.7802061 0.4107014 0.7802061 0.4107014 0.2197939 -0.4107014
69028 0.2050183 -0.4002830 0.7949817 0.4002830 0.7949817 0.4002830 0.2050183 -0.4002830
72189 0.1909977 -0.3896291 0.8090023 0.3896291 0.8090023 0.3896291 0.1909977 -0.3896291
75495 0.1777263 -0.3787983 0.8222737 0.3787983 0.8222737 0.3787983 0.1777263 -0.3787983
78952 0.1651936 -0.3678456 0.8348064 0.3678456 0.8348064 0.3678456 0.1651936 -0.3678456
82567 0.1533845 -0.3568226 0.8466155 0.3568226 0.8466155 0.3568226 0.1533845 -0.3568226
86348 0.1422804 -0.3457768 0.8577196 0.3457768 0.8577196 0.3457768 0.1422804 -0.3457768
90302 0.1318596 -0.3347517 0.8681404 0.3347517 0.8681404 0.3347517 0.1318596 -0.3347517
94437 0.1220982 -0.3237867 0.8779018 0.3237867 0.8779018 0.3237867 0.1220982 -0.3237867
98762 0.1129701 -0.3129173 0.8870299 0.3129173 0.8870299 0.3129173 0.1129701 -0.3129173
103284 0.1044480 -0.3021748 0.8955520 0.3021748 0.8955520 0.3021748 0.1044480 -0.3021748
108014 0.0965037 -0.2915868 0.9034963 0.2915868 0.9034963 0.2915868 0.0965037 -0.2915868
112960 0.0891084 -0.2811772 0.9108916 0.2811772 0.9108916 0.2811772 0.0891084 -0.2811772
118133 0.0822332 -0.2709666 0.9177668 0.2709666 0.9177668 0.2709666 0.0822332 -0.2709666
123542 0.0758493 -0.2609723 0.9241507 0.2609723 0.9241507 0.2609723 0.0758493 -0.2609723
129199 0.0699283 -0.2512085 0.9300717 0.2512085 0.9300717 0.2512085 0.0699283 -0.2512085
135116 0.0644424 -0.2416870 0.9355576 0.2416870 0.9355576 0.2416870 0.0644424 -0.2416870
141303 0.0593646 -0.2324168 0.9406354 0.2324168 0.9406354 0.2324168 0.0593646 -0.2324168
147774 0.0546686 -0.2234048 0.9453314 0.2234048 0.9453314 0.2234048 0.0546686 -0.2234048
154540 0.0503293 -0.2146557 0.9496707 0.2146557 0.9496707 0.2146557 0.0503293 -0.2146557
161617 0.0463227 -0.2061727 0.9536773 0.2061727 0.9536773 0.2061727 0.0463227 -0.2061727
169018 0.0426259 -0.1979572 0.9573741 0.1979572 0.9573741 0.1979572 0.0426259 -0.1979572
176758 0.0392169 -0.1900091 0.9607831 0.1900091 0.9607831 0.1900091 0.0392169 -0.1900091
184852 0.0360753 -0.1823272 0.9639247 0.1823272 0.9639247 0.1823272 0.0360753 -0.1823272
193316 0.0331815 -0.1749092 0.9668185 0.1749092 0.9668185 0.1749092 0.0331815 -0.1749092
202169 0.0305172 -0.1677518 0.9694828 0.1677518 0.9694828 0.1677518 0.0305172 -0.1677518
211427 0.0280653 -0.1608512 0.9719347 0.1608512 0.9719347 0.1608512 0.0280653 -0.1608512
221108 0.0258095 -0.1542026 0.9741905 0.1542026 0.9741905 0.1542026 0.0258095 -0.1542026
231233 0.0237351 -0.1478009 0.9762649 0.1478009 0.9762649 0.1478009 0.0237351 -0.1478009
241822 0.0218277 -0.1416403 0.9781723 0.1416403 0.9781723 0.1416403 0.0218277 -0.1416403
252896 0.0200746 -0.1357149 0.9799254 0.1357149 0.9799254 0.1357149 0.0200746 -0.1357149
264476 0.0184635 -0.1300185 0.9815365 0.1300185 0.9815365 0.1300185 0.0184635 -0.1300185
276587 0.0169831 -0.1245445 0.9830169 0.1245445 0.9830169 0.1245445 0.0169831 -0.1245445
289253 0.0156231 -0.1192863 0.9843769 0.1192863 0.9843769 0.1192863 0.0156231 -0.1192863
302498 0.0143738 -0.1142373 0.9856262 0.1142373 0.9856262 0.1142373 0.0143738 -0.1142373
316350 0.0132263 -0.1093906 0.9867737 0.1093906 0.9867737 0.1093906 0.0132263 -0.1093906
330837 0.0121724 -0.1047397 0.9878276 0.1047397 0.9878276 0.1047397 0.0121724 -0.1047397
345986 0.0112045 -0.1002777 0.9887955 0.1002777 0.9887955 0.1002777 0.0112045 -0.1002777
361830 0.0103157 -0.0959980 0.9896843 0.0959980 0.9896843 0.0959980 0.0103157 -0.0959980
378399 0.0094994 -0.0918941 0.9905006 0.0918941 0.9905006 0.0918941 0.0094994 -0.0918941
395726 0.0087498 -0.0879595 0.9912502 0.0879595 0.9912502 0.0879595 0.0087498 -0.0879595
413847 0.0080614 -0.0841880 0.9919386 0.0841880 0.9919386 0.0841880 0.0080614 -0.0841880
432798 0.0074293 -0.0805734 0.9925707 0.0805734 0.9925707 0.0805734 0.0074293 -0.0805734
452617 0.0068488 -0.0771098 0.9931512 0.0771098 0.9931512 0.0771098 0.0068488 -0.0771098
473344 0.0063157 -0.0737911 0.9936843 0.0737911 0.9936843 0.0737911 0.0063157 -0.0737911
495019 0.0058263 -0.0706119 0.9941737 0.0706119 0.9941737 0.0706119 0.0058263 -0.0706119
517687 0.0053768 -0.0675665 0.9946232 0.0675665 0.9946232 0.0675665 0.0053768 -0.0675665
541393 0.0049641 -0.0646497 0.9950359 0.0646497 0.9950359 0.0646497 0.0049641 -0.0646497
566185 0.0045851 -0.0618564 0.9954149 0.0618564 0.9954149 0.0618564 0.0045851 -0.0618564
592111 0.0042371 -0.0591815 0.9957629 0.0591815 0.9957629 0.0591815 0.0042371 -0.0591815
619225 0.0039176 -0.0566202 0.9960824 0.0566202 0.9960824 0.0566202 0.0039176 -0.0566202
647581 0.0036242 -0.0541679 0.9963758 0.0541679 0.9963758 0.0541679 0.0036242 -0.0541679
677235 0.0033549 -0.0518202 0.9966451 0.0518202 0.9966451 0.0518202 0.0033549 -0.0518202
708247 0.0031076 -0.0495728 0.9968924 0.0495728 0.9968924 0.0495728 0.0031076 -0.0495728
740679 0.0028805 -0.0474215 0.9971195 0.0474215 0.9971195 0.0474215 0.0028805 -0.0474215
774597 0.0026720 -0.0453622 0.9973280 0.0453622 0.9973280 0.0453622 0.0026720 -0.0453622
810067 0.0024806 -0.0433913 0.9975194 0.0433913 0.9975194 0.0433913 0.0024806 -0.0433913
847162 0.0023049 -0.0415050 0.9976951 0.0415050 0.9976951 0.0415050 0.0023049 -0.0415050
885955 0.0021435 -0.0396998 0.9978565 0.0396998 0.9978565 0.0396998 0.0021435 -0.0396998
926525 0.0019953 -0.0379722 0.9980047 0.0379722 0.9980047 0.0379722 0.0019953 -0.0379722
968953 0.0018592 -0.0363190 0.9981408 0.0363190 0.9981408 0.0363190 0.0018592 -0.0363190
1013323 0.0017341 -0.0347371 0.9982659 0.0347371 0.9982659 0.0347371 0.0017341 -0.0347371
1059725 0.0016192 -0.0332233 0.9983808 0.0332233 0.9983808 0.0332233 0.0016192 -0.0332233
1108252 0.0015137 -0.0317749 0.9984863 0.0317749 0.9984863 0.0317749 0.0015137 -0.0317749
1159002 0.0014166 -0.0303890 0.9985834 0.0303890 0.9985834 0.0303890 0.0014166 -0.0303890
1212075 0.0013274 -0.0290629 0.9986726 0.0290629 0.9986726 0.0290629 0.0013274 -0.0290629
1267578 0.0012453 -0.0277941 0.9987547 0.0277941 0.9987547 0.0277941 0.0012453 -0.0277941
1325623 0.0011697 -0.0265801 0.9988303 0.0265801 0.9988303 0.0265801 0.0011697 -0.0265801
1386327 0.0011002 -0.0254186 0.9988998 0.0254186 0.9988998 0.0254186 0.0011002 -0.0254186
1449809 0.0010361 -0.0243072 0.9989639 0.0243072 0.9989639 0.0243072 0.0010361 -0.0243072
1516199 0.0009771 -0.0232439 0.9990229 0.0232439 0.9990229 0.0232439 0.0009771 -0.0232439
1585629 0.0009226 -0.0222264 0.9990774 0.0222264 0.9990774 0.0222264 0.0009226 -0.0222264
1658239 0.0008724 -0.0212528 0.9991276 0.0212528 0.9991276 0.0212528 0.0008724 -0.0212528
1734173 0.0008260 -0.0203212 0.9991740 0.0203212 0.9991740 0.0203212 0.0008260 -0.0203212
1813585 0.0007832 -0.0194298 0.9992168 0.0194298 0.9992168 0.0194298 0.0007832 -0.0194298
1896632 0.0007436 -0.0185767 0.9992564 0.0185767 0.9992564 0.0185767 0.0007436 -0.0185767
1983483 0.0007069 -0.0177603 0.9992931 0.0177603 0.9992931 0.0177603 0.0007069 -0.0177603
2074311 0.0006730 -0.0169790 0.9993270 0.0169790 0.9993270 0.0169790 0.0006730 -0.0169790
