!Murata Part Number: GRM31MR72A333KA01
!These Parameters are Measured in Series Mode Connection
!Data Generated on Mar 30, 2021
!       o--ll--o
!Port1            Port2
!       o------o
!Operation Temp=25[degC], DC Bias Voltage=0[V]
!Freq. Start=100[Hz] Stop=6[GHz] 401[Steps]
# Hz S RI R 50
!Freq.(Hz) S11(Real) S11(Imag) S21(Real) S21(Imag) S12(Real) S12(Imag) S22(Real) S22(Imag)
100 0.9999873 -0.0020173 0.0000127 0.0020173 0.0000127 0.0020173 0.9999873 -0.0020173
105 0.9999866 -0.0021094 0.0000134 0.0021094 0.0000134 0.0021094 0.9999866 -0.0021094
109 0.9999858 -0.0022057 0.0000142 0.0022057 0.0000142 0.0022057 0.9999858 -0.0022057
114 0.9999850 -0.0023064 0.0000150 0.0023064 0.0000150 0.0023064 0.9999850 -0.0023064
120 0.9999842 -0.0024117 0.0000158 0.0024117 0.0000158 0.0024117 0.9999842 -0.0024117
125 0.9999832 -0.0025219 0.0000168 0.0025219 0.0000168 0.0025219 0.9999832 -0.0025219
131 0.9999823 -0.0026370 0.0000177 0.0026370 0.0000177 0.0026370 0.9999823 -0.0026370
137 0.9999812 -0.0027575 0.0000188 0.0027575 0.0000188 0.0027575 0.9999812 -0.0027575
143 0.9999801 -0.0028834 0.0000199 0.0028834 0.0000199 0.0028834 0.9999801 -0.0028834
150 0.9999788 -0.0030151 0.0000212 0.0030151 0.0000212 0.0030151 0.9999788 -0.0030151
156 0.9999775 -0.0031528 0.0000225 0.0031528 0.0000225 0.0031528 0.9999775 -0.0031528
164 0.9999761 -0.0032968 0.0000239 0.0032968 0.0000239 0.0032968 0.9999761 -0.0032968
171 0.9999746 -0.0034475 0.0000254 0.0034475 0.0000254 0.0034475 0.9999746 -0.0034475
179 0.9999729 -0.0036049 0.0000271 0.0036049 0.0000271 0.0036049 0.9999729 -0.0036049
187 0.9999712 -0.0037696 0.0000288 0.0037696 0.0000288 0.0037696 0.9999712 -0.0037696
196 0.9999692 -0.0039418 0.0000308 0.0039418 0.0000308 0.0039418 0.9999692 -0.0039418
205 0.9999672 -0.0041219 0.0000328 0.0041219 0.0000328 0.0041219 0.9999672 -0.0041219
214 0.9999649 -0.0043103 0.0000351 0.0043103 0.0000351 0.0043103 0.9999649 -0.0043103
224 0.9999625 -0.0045072 0.0000375 0.0045072 0.0000375 0.0045072 0.9999625 -0.0045072
234 0.9999599 -0.0047131 0.0000401 0.0047131 0.0000401 0.0047131 0.9999599 -0.0047131
245 0.9999571 -0.0049284 0.0000429 0.0049284 0.0000429 0.0049284 0.9999571 -0.0049284
256 0.9999540 -0.0051536 0.0000460 0.0051536 0.0000460 0.0051536 0.9999540 -0.0051536
268 0.9999507 -0.0053891 0.0000493 0.0053891 0.0000493 0.0053891 0.9999507 -0.0053891
280 0.9999471 -0.0056353 0.0000529 0.0056353 0.0000529 0.0056353 0.9999471 -0.0056353
293 0.9999432 -0.0058928 0.0000568 0.0058928 0.0000568 0.0058928 0.9999432 -0.0058928
306 0.9999390 -0.0061620 0.0000610 0.0061620 0.0000610 0.0061620 0.9999390 -0.0061620
320 0.9999344 -0.0064436 0.0000656 0.0064436 0.0000656 0.0064436 0.9999344 -0.0064436
335 0.9999294 -0.0067380 0.0000706 0.0067380 0.0000706 0.0067380 0.9999294 -0.0067380
350 0.9999240 -0.0070459 0.0000760 0.0070459 0.0000760 0.0070459 0.9999240 -0.0070459
366 0.9999182 -0.0073678 0.0000818 0.0073678 0.0000818 0.0073678 0.9999182 -0.0073678
383 0.9999118 -0.0077044 0.0000882 0.0077044 0.0000882 0.0077044 0.9999118 -0.0077044
401 0.9999049 -0.0080564 0.0000951 0.0080564 0.0000951 0.0080564 0.9999049 -0.0080564
419 0.9998974 -0.0084244 0.0001026 0.0084244 0.0001026 0.0084244 0.9998974 -0.0084244
438 0.9998892 -0.0088093 0.0001108 0.0088093 0.0001108 0.0088093 0.9998892 -0.0088093
458 0.9998803 -0.0092117 0.0001197 0.0092117 0.0001197 0.0092117 0.9998803 -0.0092117
479 0.9998707 -0.0096325 0.0001293 0.0096325 0.0001293 0.0096325 0.9998707 -0.0096325
501 0.9998602 -0.0100725 0.0001398 0.0100725 0.0001398 0.0100725 0.9998602 -0.0100725
524 0.9998488 -0.0105326 0.0001512 0.0105326 0.0001512 0.0105326 0.9998488 -0.0105326
548 0.9998364 -0.0110136 0.0001636 0.0110136 0.0001636 0.0110136 0.9998364 -0.0110136
573 0.9998229 -0.0115166 0.0001771 0.0115166 0.0001771 0.0115166 0.9998229 -0.0115166
600 0.9998082 -0.0120425 0.0001918 0.0120425 0.0001918 0.0120425 0.9998082 -0.0120425
627 0.9997923 -0.0125924 0.0002077 0.0125924 0.0002077 0.0125924 0.9997923 -0.0125924
656 0.9997749 -0.0131674 0.0002251 0.0131674 0.0002251 0.0131674 0.9997749 -0.0131674
686 0.9997561 -0.0137685 0.0002439 0.0137685 0.0002439 0.0137685 0.9997561 -0.0137685
717 0.9997355 -0.0143970 0.0002645 0.0143970 0.0002645 0.0143970 0.9997355 -0.0143970
750 0.9997132 -0.0150541 0.0002868 0.0150541 0.0002868 0.0150541 0.9997132 -0.0150541
784 0.9996890 -0.0157412 0.0003110 0.0157412 0.0003110 0.0157412 0.9996890 -0.0157412
820 0.9996626 -0.0164596 0.0003374 0.0164596 0.0003374 0.0164596 0.9996626 -0.0164596
858 0.9996340 -0.0172106 0.0003660 0.0172106 0.0003660 0.0172106 0.9996340 -0.0172106
897 0.9996028 -0.0179958 0.0003972 0.0179958 0.0003972 0.0179958 0.9996028 -0.0179958
938 0.9995689 -0.0188168 0.0004311 0.0188168 0.0004311 0.0188168 0.9995689 -0.0188168
981 0.9995321 -0.0196751 0.0004679 0.0196751 0.0004679 0.0196751 0.9995321 -0.0196751
1026 0.9994920 -0.0205725 0.0005080 0.0205725 0.0005080 0.0205725 0.9994920 -0.0205725
1073 0.9994484 -0.0215107 0.0005516 0.0215107 0.0005516 0.0215107 0.9994484 -0.0215107
1122 0.9994010 -0.0224916 0.0005990 0.0224916 0.0005990 0.0224916 0.9994010 -0.0224916
1174 0.9993494 -0.0235172 0.0006506 0.0235172 0.0006506 0.0235172 0.9993494 -0.0235172
1227 0.9992933 -0.0245893 0.0007067 0.0245893 0.0007067 0.0245893 0.9992933 -0.0245893
1283 0.9992322 -0.0257102 0.0007678 0.0257102 0.0007678 0.0257102 0.9992322 -0.0257102
1342 0.9991657 -0.0268821 0.0008343 0.0268821 0.0008343 0.0268821 0.9991657 -0.0268821
1404 0.9990933 -0.0281073 0.0009067 0.0281073 0.0009067 0.0281073 0.9990933 -0.0281073
1468 0.9990144 -0.0293881 0.0009856 0.0293881 0.0009856 0.0293881 0.9990144 -0.0293881
1535 0.9989285 -0.0307272 0.0010715 0.0307272 0.0010715 0.0307272 0.9989285 -0.0307272
1606 0.9988349 -0.0321270 0.0011651 0.0321270 0.0011651 0.0321270 0.9988349 -0.0321270
1679 0.9987329 -0.0335904 0.0012671 0.0335904 0.0012671 0.0335904 0.9987329 -0.0335904
1756 0.9986218 -0.0351203 0.0013782 0.0351203 0.0013782 0.0351203 0.9986218 -0.0351203
1836 0.9985006 -0.0367195 0.0014994 0.0367195 0.0014994 0.0367195 0.9985006 -0.0367195
1920 0.9983684 -0.0383912 0.0016316 0.0383912 0.0016316 0.0383912 0.9983684 -0.0383912
2008 0.9982242 -0.0401386 0.0017758 0.0401386 0.0017758 0.0401386 0.9982242 -0.0401386
2100 0.9980669 -0.0419651 0.0019331 0.0419651 0.0019331 0.0419651 0.9980669 -0.0419651
2196 0.9978953 -0.0438742 0.0021047 0.0438742 0.0021047 0.0438742 0.9978953 -0.0438742
2297 0.9977080 -0.0458695 0.0022920 0.0458695 0.0022920 0.0458695 0.9977080 -0.0458695
2402 0.9975036 -0.0479548 0.0024964 0.0479548 0.0024964 0.0479548 0.9975036 -0.0479548
2512 0.9972805 -0.0501340 0.0027195 0.0501340 0.0027195 0.0501340 0.9972805 -0.0501340
2627 0.9970370 -0.0524113 0.0029630 0.0524113 0.0029630 0.0524113 0.9970370 -0.0524113
2748 0.9967712 -0.0547908 0.0032288 0.0547908 0.0032288 0.0547908 0.9967712 -0.0547908
2873 0.9964810 -0.0572770 0.0035190 0.0572770 0.0035190 0.0572770 0.9964810 -0.0572770
3005 0.9961642 -0.0598745 0.0038358 0.0598745 0.0038358 0.0598745 0.9961642 -0.0598745
3143 0.9958184 -0.0625879 0.0041816 0.0625879 0.0041816 0.0625879 0.9958184 -0.0625879
3287 0.9954408 -0.0654222 0.0045592 0.0654222 0.0045592 0.0654222 0.9954408 -0.0654222
3437 0.9950286 -0.0683824 0.0049714 0.0683824 0.0049714 0.0683824 0.9950286 -0.0683824
3594 0.9945787 -0.0714738 0.0054213 0.0714738 0.0054213 0.0714738 0.9945787 -0.0714738
3759 0.9940875 -0.0747017 0.0059125 0.0747017 0.0059125 0.0747017 0.9940875 -0.0747017
3931 0.9935515 -0.0780717 0.0064485 0.0780717 0.0064485 0.0780717 0.9935515 -0.0780717
4111 0.9929664 -0.0815895 0.0070336 0.0815895 0.0070336 0.0815895 0.9929664 -0.0815895
4299 0.9923280 -0.0852610 0.0076720 0.0852610 0.0076720 0.0852610 0.9923280 -0.0852610
4496 0.9916314 -0.0890922 0.0083686 0.0890922 0.0083686 0.0890922 0.9916314 -0.0890922
4702 0.9908714 -0.0930893 0.0091286 0.0930893 0.0091286 0.0930893 0.9908714 -0.0930893
4918 0.9900424 -0.0972585 0.0099576 0.0972585 0.0099576 0.0972585 0.9900424 -0.0972585
5143 0.9891383 -0.1016063 0.0108617 0.1016063 0.0108617 0.1016063 0.9891383 -0.1016063
5378 0.9881524 -0.1061393 0.0118476 0.1061393 0.0118476 0.1061393 0.9881524 -0.1061393
5625 0.9870775 -0.1108639 0.0129225 0.1108639 0.0129225 0.1108639 0.9870775 -0.1108639
5882 0.9859058 -0.1157868 0.0140942 0.1157868 0.0140942 0.1157868 0.9859058 -0.1157868
6151 0.9846289 -0.1209148 0.0153711 0.1209148 0.0153711 0.1209148 0.9846289 -0.1209148
6433 0.9832377 -0.1262544 0.0167623 0.1262544 0.0167623 0.1262544 0.9832377 -0.1262544
6728 0.9817224 -0.1318124 0.0182776 0.1318124 0.0182776 0.1318124 0.9817224 -0.1318124
7036 0.9800722 -0.1375953 0.0199278 0.1375953 0.0199278 0.1375953 0.9800722 -0.1375953
7358 0.9782758 -0.1436095 0.0217242 0.1436095 0.0217242 0.1436095 0.9782758 -0.1436095
7695 0.9763207 -0.1498611 0.0236793 0.1498611 0.0236793 0.1498611 0.9763207 -0.1498611
8047 0.9741937 -0.1563561 0.0258063 0.1563561 0.0258063 0.1563561 0.9741937 -0.1563561
8416 0.9718805 -0.1631001 0.0281195 0.1631001 0.0281195 0.1631001 0.9718805 -0.1631001
8801 0.9693658 -0.1700981 0.0306342 0.1700981 0.0306342 0.1700981 0.9693658 -0.1700981
9204 0.9666332 -0.1773548 0.0333668 0.1773548 0.0333668 0.1773548 0.9666332 -0.1773548
9626 0.9636651 -0.1848739 0.0363349 0.1848739 0.0363349 0.1848739 0.9636651 -0.1848739
10066 0.9604428 -0.1926586 0.0395572 0.1926586 0.0395572 0.1926586 0.9604428 -0.1926586
10527 0.9569466 -0.2007111 0.0430534 0.2007111 0.0430534 0.2007111 0.9569466 -0.2007111
11009 0.9531553 -0.2090323 0.0468447 0.2090323 0.0468447 0.2090323 0.9531553 -0.2090323
11514 0.9490466 -0.2176220 0.0509534 0.2176220 0.0509534 0.2176220 0.9490466 -0.2176220
12041 0.9445970 -0.2264785 0.0554030 0.2264785 0.0554030 0.2264785 0.9445970 -0.2264785
12592 0.9397819 -0.2355984 0.0602181 0.2355984 0.0602181 0.2355984 0.9397819 -0.2355984
13169 0.9345755 -0.2449762 0.0654245 0.2449762 0.0654245 0.2449762 0.9345755 -0.2449762
13772 0.9289511 -0.2546047 0.0710489 0.2546047 0.0710489 0.2546047 0.9289511 -0.2546047
14402 0.9228809 -0.2644739 0.0771191 0.2644739 0.0771191 0.2644739 0.9228809 -0.2644739
15062 0.9163366 -0.2745715 0.0836634 0.2745715 0.0836634 0.2745715 0.9163366 -0.2745715
15752 0.9092890 -0.2848820 0.0907110 0.2848820 0.0907110 0.2848820 0.9092890 -0.2848820
16473 0.9017088 -0.2953870 0.0982912 0.2953870 0.0982912 0.2953870 0.9017088 -0.2953870
17227 0.8935667 -0.3060647 0.1064333 0.3060647 0.1064333 0.3060647 0.8935667 -0.3060647
18016 0.8848335 -0.3168896 0.1151665 0.3168896 0.1151665 0.3168896 0.8848335 -0.3168896
18841 0.8754807 -0.3278325 0.1245193 0.3278325 0.1245193 0.3278325 0.8754807 -0.3278325
19704 0.8654809 -0.3388600 0.1345191 0.3388600 0.1345191 0.3388600 0.8654809 -0.3388600
20606 0.8548085 -0.3499349 0.1451915 0.3499349 0.1451915 0.3499349 0.8548085 -0.3499349
21550 0.8434397 -0.3610156 0.1565603 0.3610156 0.1565603 0.3610156 0.8434397 -0.3610156
22537 0.8313538 -0.3720565 0.1686462 0.3720565 0.1686462 0.3720565 0.8313538 -0.3720565
23569 0.8185331 -0.3830077 0.1814669 0.3830077 0.1814669 0.3830077 0.8185331 -0.3830077
24648 0.8049643 -0.3938156 0.1950357 0.3938156 0.1950357 0.3938156 0.8049643 -0.3938156
25777 0.7906384 -0.4044228 0.2093616 0.4044228 0.2093616 0.4044228 0.7906384 -0.4044228
26957 0.7755521 -0.4147688 0.2244479 0.4147688 0.2244479 0.4147688 0.7755521 -0.4147688
28191 0.7597079 -0.4247904 0.2402921 0.4247904 0.2402921 0.4247904 0.7597079 -0.4247904
29482 0.7431150 -0.4344224 0.2568850 0.4344224 0.2568850 0.4344224 0.7431150 -0.4344224
30832 0.7257896 -0.4435981 0.2742104 0.4435981 0.2742104 0.4435981 0.7257896 -0.4435981
32244 0.7077555 -0.4522507 0.2922445 0.4522507 0.2922445 0.4522507 0.7077555 -0.4522507
33721 0.6890443 -0.4603138 0.3109557 0.4603138 0.3109557 0.4603138 0.6890443 -0.4603138
35265 0.6696956 -0.4677229 0.3303044 0.4677229 0.3303044 0.4677229 0.6696956 -0.4677229
36880 0.6497568 -0.4744161 0.3502432 0.4744161 0.3502432 0.4744161 0.6497568 -0.4744161
38569 0.6292831 -0.4803355 0.3707169 0.4803355 0.3707169 0.4803355 0.6292831 -0.4803355
40335 0.6083370 -0.4854285 0.3916630 0.4854285 0.3916630 0.4854285 0.6083370 -0.4854285
42182 0.5869876 -0.4896484 0.4130124 0.4896484 0.4130124 0.4896484 0.5869876 -0.4896484
44113 0.5653100 -0.4929560 0.4346900 0.4929560 0.4346900 0.4929560 0.5653100 -0.4929560
46134 0.5433839 -0.4953199 0.4566161 0.4953199 0.4566161 0.4953199 0.5433839 -0.4953199
48246 0.5212930 -0.4967178 0.4787070 0.4967178 0.4787070 0.4967178 0.5212930 -0.4967178
50455 0.4991234 -0.4971364 0.5008766 0.4971364 0.5008766 0.4971364 0.4991234 -0.4971364
52766 0.4769622 -0.4965721 0.5230378 0.4965721 0.5230378 0.4965721 0.4769622 -0.4965721
55182 0.4548964 -0.4950309 0.5451036 0.4950309 0.5451036 0.4950309 0.4548964 -0.4950309
57709 0.4330115 -0.4925286 0.5669885 0.4925286 0.5669885 0.4925286 0.4330115 -0.4925286
60352 0.4113899 -0.4890897 0.5886101 0.4890897 0.5886101 0.4890897 0.4113899 -0.4890897
63115 0.3901102 -0.4847474 0.6098898 0.4847474 0.6098898 0.4847474 0.3901102 -0.4847474
66005 0.3692455 -0.4795428 0.6307545 0.4795428 0.6307545 0.4795428 0.3692455 -0.4795428
69028 0.3488631 -0.4735235 0.6511369 0.4735235 0.6511369 0.4735235 0.3488631 -0.4735235
72189 0.3290234 -0.4667433 0.6709766 0.4667433 0.6709766 0.4667433 0.3290234 -0.4667433
75495 0.3097795 -0.4592604 0.6902205 0.4592604 0.6902205 0.4592604 0.3097795 -0.4592604
78952 0.2911768 -0.4511368 0.7088232 0.4511368 0.7088232 0.4511368 0.2911768 -0.4511368
82567 0.2732529 -0.4424369 0.7267471 0.4424369 0.7267471 0.4424369 0.2732529 -0.4424369
86348 0.2560376 -0.4332265 0.7439624 0.4332265 0.7439624 0.4332265 0.2560376 -0.4332265
90302 0.2395531 -0.4235716 0.7604469 0.4235716 0.7604469 0.4235716 0.2395531 -0.4235716
94437 0.2238142 -0.4135379 0.7761858 0.4135379 0.7761858 0.4135379 0.2238142 -0.4135379
98762 0.2088291 -0.4031895 0.7911709 0.4031895 0.7911709 0.4031895 0.2088291 -0.4031895
103284 0.1945994 -0.3925883 0.8054006 0.3925883 0.8054006 0.3925883 0.1945994 -0.3925883
108014 0.1811211 -0.3817938 0.8188789 0.3817938 0.8188789 0.3817938 0.1811211 -0.3817938
112960 0.1683849 -0.3708621 0.8316151 0.3708621 0.8316151 0.3708621 0.1683849 -0.3708621
118133 0.1563773 -0.3598456 0.8436227 0.3598456 0.8436227 0.3598456 0.1563773 -0.3598456
123542 0.1450807 -0.3487930 0.8549193 0.3487930 0.8549193 0.3487930 0.1450807 -0.3487930
129199 0.1344744 -0.3377492 0.8655256 0.3377492 0.8655256 0.3377492 0.1344744 -0.3377492
135116 0.1245351 -0.3267547 0.8754649 0.3267547 0.8754649 0.3267547 0.1245351 -0.3267547
141303 0.1152373 -0.3158462 0.8847627 0.3158462 0.8847627 0.3158462 0.1152373 -0.3158462
147774 0.1065541 -0.3050564 0.8934459 0.3050564 0.8934459 0.3050564 0.1065541 -0.3050564
154540 0.0984575 -0.2944140 0.9015425 0.2944140 0.9015425 0.2944140 0.0984575 -0.2944140
161617 0.0909188 -0.2839440 0.9090812 0.2839440 0.9090812 0.2839440 0.0909188 -0.2839440
169018 0.0839090 -0.2736681 0.9160910 0.2736681 0.9160910 0.2736681 0.0839090 -0.2736681
176758 0.0773991 -0.2636046 0.9226009 0.2636046 0.9226009 0.2636046 0.0773991 -0.2636046
184852 0.0713607 -0.2537686 0.9286393 0.2537686 0.9286393 0.2537686 0.0713607 -0.2537686
193316 0.0657655 -0.2441726 0.9342345 0.2441726 0.9342345 0.2441726 0.0657655 -0.2441726
202169 0.0605862 -0.2348264 0.9394138 0.2348264 0.9394138 0.2348264 0.0605862 -0.2348264
211427 0.0557963 -0.2257375 0.9442037 0.2257375 0.9442037 0.2257375 0.0557963 -0.2257375
221108 0.0513702 -0.2169113 0.9486298 0.2169113 0.9486298 0.2169113 0.0513702 -0.2169113
231233 0.0472834 -0.2083512 0.9527166 0.2083512 0.9527166 0.2083512 0.0472834 -0.2083512
241822 0.0435126 -0.2000592 0.9564874 0.2000592 0.9564874 0.2000592 0.0435126 -0.2000592
252896 0.0400355 -0.1920354 0.9599645 0.1920354 0.9599645 0.1920354 0.0400355 -0.1920354
264476 0.0368312 -0.1842791 0.9631688 0.1842791 0.9631688 0.1842791 0.0368312 -0.1842791
276587 0.0338798 -0.1767880 0.9661202 0.1767880 0.9661202 0.1767880 0.0338798 -0.1767880
289253 0.0311626 -0.1695592 0.9688374 0.1695592 0.9688374 0.1695592 0.0311626 -0.1695592
302498 0.0286621 -0.1625888 0.9713379 0.1625888 0.9713379 0.1625888 0.0286621 -0.1625888
316350 0.0263619 -0.1558723 0.9736381 0.1558723 0.9736381 0.1558723 0.0263619 -0.1558723
330837 0.0242465 -0.1494045 0.9757535 0.1494045 0.9757535 0.1494045 0.0242465 -0.1494045
345986 0.0223017 -0.1431798 0.9776983 0.1431798 0.9776983 0.1431798 0.0223017 -0.1431798
361830 0.0205142 -0.1371923 0.9794858 0.1371923 0.9794858 0.1371923 0.0205142 -0.1371923
378399 0.0188716 -0.1314358 0.9811284 0.1314358 0.9811284 0.1314358 0.0188716 -0.1314358
395726 0.0173624 -0.1259037 0.9826376 0.1259037 0.9826376 0.1259037 0.0173624 -0.1259037
413847 0.0159760 -0.1205895 0.9840240 0.1205895 0.9840240 0.1205895 0.0159760 -0.1205895
432798 0.0147025 -0.1154863 0.9852975 0.1154863 0.9852975 0.1154863 0.0147025 -0.1154863
452617 0.0135329 -0.1105876 0.9864671 0.1105876 0.9864671 0.1105876 0.0135329 -0.1105876
473344 0.0124587 -0.1058864 0.9875413 0.1058864 0.9875413 0.1058864 0.0124587 -0.1058864
495019 0.0114723 -0.1013760 0.9885277 0.1013760 0.9885277 0.1013760 0.0114723 -0.1013760
517687 0.0105665 -0.0970498 0.9894335 0.0970498 0.9894335 0.0970498 0.0105665 -0.0970498
541393 0.0097348 -0.0929012 0.9902652 0.0929012 0.9902652 0.0929012 0.0097348 -0.0929012
566185 0.0089710 -0.0889237 0.9910290 0.0889237 0.9910290 0.0889237 0.0089710 -0.0889237
592111 0.0082697 -0.0851109 0.9917303 0.0851109 0.9917303 0.0851109 0.0082697 -0.0851109
619225 0.0076258 -0.0814568 0.9923742 0.0814568 0.9923742 0.0814568 0.0076258 -0.0814568
647581 0.0070346 -0.0779551 0.9929654 0.0779551 0.9929654 0.0779551 0.0070346 -0.0779551
677235 0.0064917 -0.0746000 0.9935083 0.0746000 0.9935083 0.0746000 0.0064917 -0.0746000
708247 0.0059933 -0.0713859 0.9940067 0.0713859 0.9940067 0.0713859 0.0059933 -0.0713859
740679 0.0055356 -0.0683071 0.9944644 0.0683071 0.9944644 0.0683071 0.0055356 -0.0683071
774597 0.0051154 -0.0653583 0.9948846 0.0653583 0.9948846 0.0653583 0.0051154 -0.0653583
810067 0.0047296 -0.0625342 0.9952704 0.0625342 0.9952704 0.0625342 0.0047296 -0.0625342
847162 0.0043754 -0.0598300 0.9956246 0.0598300 0.9956246 0.0598300 0.0043754 -0.0598300
885955 0.0040502 -0.0572406 0.9959498 0.0572406 0.9959498 0.0572406 0.0040502 -0.0572406
926525 0.0037516 -0.0547615 0.9962484 0.0547615 0.9962484 0.0547615 0.0037516 -0.0547615
968953 0.0034774 -0.0523881 0.9965226 0.0523881 0.9965226 0.0523881 0.0034774 -0.0523881
1013323 0.0032256 -0.0501161 0.9967744 0.0501161 0.9967744 0.0501161 0.0032256 -0.0501161
1059725 0.0029945 -0.0479413 0.9970055 0.0479413 0.9970055 0.0479413 0.0029945 -0.0479413
1108252 0.0027822 -0.0458596 0.9972178 0.0458596 0.9972178 0.0458596 0.0027822 -0.0458596
1159002 0.0025872 -0.0438672 0.9974128 0.0438672 0.9974128 0.0438672 0.0025872 -0.0438672
1212075 0.0024081 -0.0419604 0.9975919 0.0419604 0.9975919 0.0419604 0.0024081 -0.0419604
1267578 0.0022436 -0.0401355 0.9977564 0.0401355 0.9977564 0.0401355 0.0022436 -0.0401355
1325623 0.0020924 -0.0383891 0.9979076 0.0383891 0.9979076 0.0383891 0.0020924 -0.0383891
1386327 0.0019535 -0.0367179 0.9980465 0.0367179 0.9980465 0.0367179 0.0019535 -0.0367179
1449809 0.0018258 -0.0351187 0.9981742 0.0351187 0.9981742 0.0351187 0.0018258 -0.0351187
1516199 0.0017083 -0.0335884 0.9982917 0.0335884 0.9982917 0.0335884 0.0017083 -0.0335884
1585629 0.0016002 -0.0321241 0.9983998 0.0321241 0.9983998 0.0321241 0.0016002 -0.0321241
1658239 0.0015008 -0.0307230 0.9984992 0.0307230 0.9984992 0.0307230 0.0015008 -0.0307230
1734173 0.0014092 -0.0293824 0.9985908 0.0293824 0.9985908 0.0293824 0.0014092 -0.0293824
1813585 0.0013248 -0.0280995 0.9986752 0.0280995 0.9986752 0.0280995 0.0013248 -0.0280995
1896632 0.0012470 -0.0268720 0.9987530 0.0268720 0.9987530 0.0268720 0.0012470 -0.0268720
1983483 0.0011752 -0.0256974 0.9988248 0.0256974 0.9988248 0.0256974 0.0011752 -0.0256974
2074311 0.0011089 -0.0245735 0.9988911 0.0245735 0.9988911 0.0245735 0.0011089 -0.0245735
