!Murata Part Number: GRM31BR72J152KW01
!These Parameters are Measured in Series Mode Connection
!Data Generated on Mar 30, 2021
!       o--ll--o
!Port1            Port2
!       o------o
!Operation Temp=25[degC], DC Bias Voltage=0[V]
!Freq. Start=100[kHz] Stop=6[GHz] 401[Steps]
# Hz S RI R 50
!Freq.(Hz) S11(Real) S11(Imag) S21(Real) S21(Imag) S12(Real) S12(Imag) S22(Real) S22(Imag)
100000 0.9910245 -0.0865285 0.0089755 0.0865285 0.0089755 0.0865285 0.9910245 -0.0865285
102789 0.9905816 -0.0888724 0.0094184 0.0888724 0.0094184 0.0888724 0.9905816 -0.0888724
105655 0.9901153 -0.0912785 0.0098847 0.0912785 0.0098847 0.0912785 0.9901153 -0.0912785
108602 0.9896244 -0.0937482 0.0103756 0.0937482 0.0103756 0.0937482 0.9896244 -0.0937482
111630 0.9891074 -0.0962829 0.0108926 0.0962829 0.0108926 0.0962829 0.9891074 -0.0962829
114743 0.9885629 -0.0988842 0.0114371 0.0988842 0.0114371 0.0988842 0.9885629 -0.0988842
117943 0.9879895 -0.1015537 0.0120105 0.1015537 0.0120105 0.1015537 0.9879895 -0.1015537
121232 0.9873854 -0.1042927 0.0126146 0.1042927 0.0126146 0.1042927 0.9873854 -0.1042927
124613 0.9867491 -0.1071029 0.0132509 0.1071029 0.0132509 0.1071029 0.9867491 -0.1071029
128088 0.9860788 -0.1099857 0.0139212 0.1099857 0.0139212 0.1099857 0.9860788 -0.1099857
131660 0.9853726 -0.1129427 0.0146274 0.1129427 0.0146274 0.1129427 0.9853726 -0.1129427
135332 0.9846287 -0.1159755 0.0153713 0.1159755 0.0153713 0.1159755 0.9846287 -0.1159755
139106 0.9838449 -0.1190856 0.0161551 0.1190856 0.0161551 0.1190856 0.9838449 -0.1190856
142985 0.9830191 -0.1222745 0.0169809 0.1222745 0.0169809 0.1222745 0.9830191 -0.1222745
146972 0.9821491 -0.1255437 0.0178509 0.1255437 0.0178509 0.1255437 0.9821491 -0.1255437
151071 0.9812326 -0.1288948 0.0187674 0.1288948 0.0187674 0.1288948 0.9812326 -0.1288948
155284 0.9802672 -0.1323292 0.0197328 0.1323292 0.0197328 0.1323292 0.9802672 -0.1323292
159614 0.9792501 -0.1358485 0.0207499 0.1358485 0.0207499 0.1358485 0.9792501 -0.1358485
164065 0.9781788 -0.1394539 0.0218212 0.1394539 0.0218212 0.1394539 0.9781788 -0.1394539
168641 0.9770504 -0.1431471 0.0229496 0.1431471 0.0229496 0.1431471 0.9770504 -0.1431471
173344 0.9758621 -0.1469292 0.0241379 0.1469292 0.0241379 0.1469292 0.9758621 -0.1469292
178178 0.9746106 -0.1508018 0.0253894 0.1508018 0.0253894 0.1508018 0.9746106 -0.1508018
183146 0.9732929 -0.1547659 0.0267071 0.1547659 0.0267071 0.1547659 0.9732929 -0.1547659
188254 0.9719055 -0.1588229 0.0280945 0.1588229 0.0280945 0.1588229 0.9719055 -0.1588229
193504 0.9704451 -0.1629739 0.0295549 0.1629739 0.0295549 0.1629739 0.9704451 -0.1629739
198900 0.9689078 -0.1672199 0.0310922 0.1672199 0.0310922 0.1672199 0.9689078 -0.1672199
204447 0.9672901 -0.1715620 0.0327099 0.1715620 0.0327099 0.1715620 0.9672901 -0.1715620
210148 0.9655879 -0.1760009 0.0344121 0.1760009 0.0344121 0.1760009 0.9655879 -0.1760009
216008 0.9637971 -0.1805376 0.0362029 0.1805376 0.0362029 0.1805376 0.9637971 -0.1805376
222032 0.9619135 -0.1851725 0.0380865 0.1851725 0.0380865 0.1851725 0.9619135 -0.1851725
228224 0.9599328 -0.1899064 0.0400672 0.1899064 0.0400672 0.1899064 0.9599328 -0.1899064
234589 0.9578502 -0.1947395 0.0421498 0.1947395 0.0421498 0.1947395 0.9578502 -0.1947395
241130 0.9556612 -0.1996720 0.0443388 0.1996720 0.0443388 0.1996720 0.9556612 -0.1996720
247855 0.9533608 -0.2047041 0.0466392 0.2047041 0.0466392 0.2047041 0.9533608 -0.2047041
254767 0.9509440 -0.2098355 0.0490560 0.2098355 0.0490560 0.2098355 0.9509440 -0.2098355
261871 0.9484055 -0.2150661 0.0515945 0.2150661 0.0515945 0.2150661 0.9484055 -0.2150661
269174 0.9457401 -0.2203951 0.0542599 0.2203951 0.0542599 0.2203951 0.9457401 -0.2203951
276681 0.9429422 -0.2258218 0.0570578 0.2258218 0.0570578 0.2258218 0.9429422 -0.2258218
284397 0.9400061 -0.2313452 0.0599939 0.2313452 0.0599939 0.2313452 0.9400061 -0.2313452
292328 0.9369262 -0.2369640 0.0630738 0.2369640 0.0630738 0.2369640 0.9369262 -0.2369640
300480 0.9336963 -0.2426766 0.0663037 0.2426766 0.0663037 0.2426766 0.9336963 -0.2426766
308859 0.9303106 -0.2484810 0.0696894 0.2484810 0.0696894 0.2484810 0.9303106 -0.2484810
317472 0.9267629 -0.2543751 0.0732371 0.2543751 0.0732371 0.2543751 0.9267629 -0.2543751
326326 0.9230468 -0.2603563 0.0769532 0.2603563 0.0769532 0.2603563 0.9230468 -0.2603563
335426 0.9191561 -0.2664215 0.0808439 0.2664215 0.0808439 0.2664215 0.9191561 -0.2664215
344780 0.9150843 -0.2725676 0.0849157 0.2725676 0.0849157 0.2725676 0.9150843 -0.2725676
354395 0.9108250 -0.2787907 0.0891750 0.2787907 0.0891750 0.2787907 0.9108250 -0.2787907
364278 0.9063717 -0.2850867 0.0936283 0.2850867 0.0936283 0.2850867 0.9063717 -0.2850867
374436 0.9017178 -0.2914510 0.0982822 0.2914510 0.0982822 0.2914510 0.9017178 -0.2914510
384878 0.8968569 -0.2978786 0.1031431 0.2978786 0.1031431 0.2978786 0.8968569 -0.2978786
395611 0.8917826 -0.3043638 0.1082174 0.3043638 0.1082174 0.3043638 0.8917826 -0.3043638
406644 0.8864884 -0.3109006 0.1135116 0.3109006 0.1135116 0.3109006 0.8864884 -0.3109006
417984 0.8809681 -0.3174826 0.1190319 0.3174826 0.1190319 0.3174826 0.8809681 -0.3174826
429640 0.8752156 -0.3241025 0.1247844 0.3241025 0.1247844 0.3241025 0.8752156 -0.3241025
441622 0.8692249 -0.3307528 0.1307751 0.3307528 0.1307751 0.3307528 0.8692249 -0.3307528
453937 0.8629903 -0.3374254 0.1370097 0.3374254 0.1370097 0.3374254 0.8629903 -0.3374254
466596 0.8565063 -0.3441115 0.1434937 0.3441115 0.1434937 0.3441115 0.8565063 -0.3441115
479608 0.8497678 -0.3508018 0.1502322 0.3508018 0.1502322 0.3508018 0.8497678 -0.3508018
492983 0.8427700 -0.3574867 0.1572300 0.3574867 0.1572300 0.3574867 0.8427700 -0.3574867
506731 0.8355084 -0.3641556 0.1644916 0.3641556 0.1644916 0.3641556 0.8355084 -0.3641556
520862 0.8279792 -0.3707976 0.1720208 0.3707976 0.1720208 0.3707976 0.8279792 -0.3707976
535387 0.8201787 -0.3774015 0.1798213 0.3774015 0.1798213 0.3774015 0.8201787 -0.3774015
550318 0.8121042 -0.3839551 0.1878958 0.3839551 0.1878958 0.3839551 0.8121042 -0.3839551
565664 0.8037534 -0.3904460 0.1962466 0.3904460 0.1962466 0.3904460 0.8037534 -0.3904460
581439 0.7951246 -0.3968615 0.2048754 0.3968615 0.2048754 0.3968615 0.7951246 -0.3968615
597654 0.7862170 -0.4031880 0.2137830 0.4031880 0.2137830 0.4031880 0.7862170 -0.4031880
614320 0.7770303 -0.4094120 0.2229697 0.4094120 0.2229697 0.4094120 0.7770303 -0.4094120
631452 0.7675653 -0.4155193 0.2324347 0.4155193 0.2324347 0.4155193 0.7675653 -0.4155193
649061 0.7578235 -0.4214955 0.2421765 0.4214955 0.2421765 0.4214955 0.7578235 -0.4214955
667162 0.7478074 -0.4273262 0.2521926 0.4273262 0.2521926 0.4273262 0.7478074 -0.4273262
685767 0.7375204 -0.4329965 0.2624796 0.4329965 0.2624796 0.4329965 0.7375204 -0.4329965
704891 0.7269669 -0.4384916 0.2730331 0.4384916 0.2730331 0.4384916 0.7269669 -0.4384916
724548 0.7161523 -0.4437965 0.2838477 0.4437965 0.2838477 0.4437965 0.7161523 -0.4437965
744754 0.7050831 -0.4488964 0.2949169 0.4488964 0.2949169 0.4488964 0.7050831 -0.4488964
765523 0.6937669 -0.4537767 0.3062331 0.4537767 0.3062331 0.4537767 0.6937669 -0.4537767
786871 0.6822123 -0.4584228 0.3177877 0.4584228 0.3177877 0.4584228 0.6822123 -0.4584228
808814 0.6704290 -0.4628206 0.3295710 0.4628206 0.3295710 0.4628206 0.6704290 -0.4628206
831370 0.6584277 -0.4669563 0.3415723 0.4669563 0.3415723 0.4669563 0.6584277 -0.4669563
854554 0.6462203 -0.4708167 0.3537797 0.4708167 0.3537797 0.4708167 0.6462203 -0.4708167
878385 0.6338197 -0.4743892 0.3661803 0.4743892 0.3661803 0.4743892 0.6338197 -0.4743892
902880 0.6212397 -0.4776618 0.3787603 0.4776618 0.3787603 0.4776618 0.6212397 -0.4776618
928059 0.6084951 -0.4806233 0.3915049 0.4806233 0.3915049 0.4806233 0.6084951 -0.4806233
953940 0.5956016 -0.4832635 0.4043984 0.4832635 0.4043984 0.4832635 0.5956016 -0.4832635
980542 0.5825757 -0.4855731 0.4174243 0.4855731 0.4174243 0.4855731 0.5825757 -0.4855731
1007887 0.5694348 -0.4875438 0.4305652 0.4875438 0.4305652 0.4875438 0.5694348 -0.4875438
1035994 0.5561966 -0.4891685 0.4438034 0.4891685 0.4438034 0.4891685 0.5561966 -0.4891685
1064885 0.5428798 -0.4904412 0.4571202 0.4904412 0.4571202 0.4904412 0.5428798 -0.4904412
1094581 0.5295032 -0.4913572 0.4704968 0.4913572 0.4704968 0.4913572 0.5295032 -0.4913572
1125106 0.5160862 -0.4919130 0.4839138 0.4919130 0.4839138 0.4919130 0.5160862 -0.4919130
1156481 0.5026485 -0.4921064 0.4973515 0.4921064 0.4973515 0.4921064 0.5026485 -0.4921064
1188732 0.4892096 -0.4919367 0.5107904 0.4919367 0.5107904 0.4919367 0.4892096 -0.4919367
1221882 0.4757895 -0.4914044 0.5242105 0.4914044 0.5242105 0.4914044 0.4757895 -0.4914044
1255957 0.4624076 -0.4905113 0.5375924 0.4905113 0.5375924 0.4905113 0.4624076 -0.4905113
1290982 0.4490835 -0.4892606 0.5509165 0.4892606 0.5509165 0.4892606 0.4490835 -0.4892606
1326984 0.4358363 -0.4876568 0.5641637 0.4876568 0.5641637 0.4876568 0.4358363 -0.4876568
1363989 0.4226847 -0.4857057 0.5773153 0.4857057 0.5773153 0.4857057 0.4226847 -0.4857057
1402027 0.4096467 -0.4834142 0.5903533 0.4834142 0.5903533 0.4834142 0.4096467 -0.4834142
1441125 0.3967400 -0.4807904 0.6032600 0.4807904 0.6032600 0.4807904 0.3967400 -0.4807904
1481314 0.3839812 -0.4778435 0.6160188 0.4778435 0.6160188 0.4778435 0.3839812 -0.4778435
1522623 0.3713864 -0.4745838 0.6286136 0.4745838 0.6286136 0.4745838 0.3713864 -0.4745838
1565085 0.3589707 -0.4710222 0.6410293 0.4710222 0.6410293 0.4710222 0.3589707 -0.4710222
1608730 0.3467481 -0.4671708 0.6532519 0.4671708 0.6532519 0.4671708 0.3467481 -0.4671708
1653593 0.3347319 -0.4630422 0.6652681 0.4630422 0.6652681 0.4630422 0.3347319 -0.4630422
1699707 0.3229340 -0.4586499 0.6770660 0.4586499 0.6770660 0.4586499 0.3229340 -0.4586499
1747106 0.3113656 -0.4540076 0.6886344 0.4540076 0.6886344 0.4540076 0.3113656 -0.4540076
1795828 0.3000365 -0.4491297 0.6999635 0.4491297 0.6999635 0.4491297 0.3000365 -0.4491297
1845908 0.2889556 -0.4440309 0.7110444 0.4440309 0.7110444 0.4440309 0.2889556 -0.4440309
1897385 0.2781305 -0.4387261 0.7218695 0.4387261 0.7218695 0.4387261 0.2781305 -0.4387261
1950297 0.2675679 -0.4332303 0.7324321 0.4332303 0.7324321 0.4332303 0.2675679 -0.4332303
2004685 0.2572733 -0.4275587 0.7427267 0.4275587 0.7427267 0.4275587 0.2572733 -0.4275587
2060590 0.2472511 -0.4217265 0.7527489 0.4217265 0.7527489 0.4217265 0.2472511 -0.4217265
2118054 0.2375048 -0.4157486 0.7624952 0.4157486 0.7624952 0.4157486 0.2375048 -0.4157486
2177120 0.2280368 -0.4096400 0.7719632 0.4096400 0.7719632 0.4096400 0.2280368 -0.4096400
2237833 0.2188485 -0.4034151 0.7811515 0.4034151 0.7811515 0.4034151 0.2188485 -0.4034151
2300240 0.2099407 -0.3970883 0.7900593 0.3970883 0.7900593 0.3970883 0.2099407 -0.3970883
2364387 0.2013130 -0.3906736 0.7986870 0.3906736 0.7986870 0.3906736 0.2013130 -0.3906736
2430322 0.1929643 -0.3841844 0.8070357 0.3841844 0.8070357 0.3841844 0.1929643 -0.3841844
2498097 0.1848928 -0.3776338 0.8151072 0.3776338 0.8151072 0.3776338 0.1848928 -0.3776338
2567761 0.1770962 -0.3710345 0.8229038 0.3710345 0.8229038 0.3710345 0.1770962 -0.3710345
2639368 0.1695711 -0.3643984 0.8304289 0.3643984 0.8304289 0.3643984 0.1695711 -0.3643984
2712972 0.1623141 -0.3577371 0.8376859 0.3577371 0.8376859 0.3577371 0.1623141 -0.3577371
2788629 0.1553209 -0.3510616 0.8446791 0.3510616 0.8446791 0.3510616 0.1553209 -0.3510616
2866396 0.1485868 -0.3443821 0.8514132 0.3443821 0.8514132 0.3443821 0.1485868 -0.3443821
2946331 0.1421068 -0.3377086 0.8578932 0.3377086 0.8578932 0.3377086 0.1421068 -0.3377086
3028495 0.1358755 -0.3310503 0.8641245 0.3310503 0.8641245 0.3310503 0.1358755 -0.3310503
3112951 0.1298873 -0.3244158 0.8701127 0.3244158 0.8701127 0.3244158 0.1298873 -0.3244158
3199762 0.1241362 -0.3178132 0.8758638 0.3178132 0.8758638 0.3178132 0.1241362 -0.3178132
3288994 0.1186161 -0.3112499 0.8813839 0.3112499 0.8813839 0.3112499 0.1186161 -0.3112499
3380714 0.1133207 -0.3047329 0.8866793 0.3047329 0.8866793 0.3047329 0.1133207 -0.3047329
3474992 0.1082435 -0.2982687 0.8917565 0.2982687 0.8917565 0.2982687 0.1082435 -0.2982687
3571899 0.1033781 -0.2918631 0.8966219 0.2918631 0.8966219 0.2918631 0.1033781 -0.2918631
3671508 0.0987178 -0.2855214 0.9012822 0.2855214 0.9012822 0.2855214 0.0987178 -0.2855214
3773896 0.0942562 -0.2792486 0.9057438 0.2792486 0.9057438 0.2792486 0.0942562 -0.2792486
3879139 0.0899867 -0.2730490 0.9100133 0.2730490 0.9100133 0.2730490 0.0899867 -0.2730490
3987316 0.0859026 -0.2669267 0.9140974 0.2669267 0.9140974 0.2669267 0.0859026 -0.2669267
4098510 0.0819976 -0.2608851 0.9180024 0.2608851 0.9180024 0.2608851 0.0819976 -0.2608851
4212806 0.0782652 -0.2549274 0.9217348 0.2549274 0.9217348 0.2549274 0.0782652 -0.2549274
4330288 0.0746991 -0.2490564 0.9253009 0.2490564 0.9253009 0.2490564 0.0746991 -0.2490564
4451047 0.0712930 -0.2432744 0.9287070 0.2432744 0.9287070 0.2432744 0.0712930 -0.2432744
4575173 0.0680408 -0.2375835 0.9319592 0.2375835 0.9319592 0.2375835 0.0680408 -0.2375835
4702761 0.0649366 -0.2319854 0.9350634 0.2319854 0.9350634 0.2319854 0.0649366 -0.2319854
4833907 0.0619746 -0.2264816 0.9380254 0.2264816 0.9380254 0.2264816 0.0619746 -0.2264816
4968711 0.0591490 -0.2210733 0.9408510 0.2210733 0.9408510 0.2210733 0.0591490 -0.2210733
5107273 0.0564543 -0.2157613 0.9435457 0.2157613 0.9435457 0.2157613 0.0564543 -0.2157613
5249700 0.0538851 -0.2105463 0.9461149 0.2105463 0.9461149 0.2105463 0.0538851 -0.2105463
5396098 0.0514362 -0.2054287 0.9485638 0.2054287 0.9485638 0.2054287 0.0514362 -0.2054287
5546579 0.0491025 -0.2004089 0.9508975 0.2004089 0.9508975 0.2004089 0.0491025 -0.2004089
5701257 0.0468791 -0.1954868 0.9531209 0.1954868 0.9531209 0.1954868 0.0468791 -0.1954868
5860248 0.0447612 -0.1906623 0.9552388 0.1906623 0.9552388 0.1906623 0.0447612 -0.1906623
6023672 0.0427443 -0.1859353 0.9572557 0.1859353 0.9572557 0.1859353 0.0427443 -0.1859353
6191655 0.0408239 -0.1813052 0.9591761 0.1813052 0.9591761 0.1813052 0.0408239 -0.1813052
6364321 0.0389958 -0.1767715 0.9610042 0.1767715 0.9610042 0.1767715 0.0389958 -0.1767715
6541803 0.0372559 -0.1723336 0.9627441 0.1723336 0.9627441 0.1723336 0.0372559 -0.1723336
6724235 0.0356001 -0.1679906 0.9643999 0.1679906 0.9643999 0.1679906 0.0356001 -0.1679906
6911753 0.0340248 -0.1637417 0.9659752 0.1637417 0.9659752 0.1637417 0.0340248 -0.1637417
7104501 0.0325261 -0.1595860 0.9674739 0.1595860 0.9674739 0.1595860 0.0325261 -0.1595860
7302625 0.0311006 -0.1555224 0.9688994 0.1555224 0.9688994 0.1555224 0.0311006 -0.1555224
7506273 0.0297449 -0.1515498 0.9702551 0.1515498 0.9702551 0.1515498 0.0297449 -0.1515498
7715601 0.0284558 -0.1476670 0.9715442 0.1476670 0.9715442 0.1476670 0.0284558 -0.1476670
7930766 0.0272301 -0.1438729 0.9727699 0.1438729 0.9727699 0.1438729 0.0272301 -0.1438729
8151931 0.0260649 -0.1401660 0.9739351 0.1401660 0.9739351 0.1401660 0.0260649 -0.1401660
8379264 0.0249573 -0.1365452 0.9750427 0.1365452 0.9750427 0.1365452 0.0249573 -0.1365452
8612937 0.0239045 -0.1330091 0.9760955 0.1330091 0.9760955 0.1330091 0.0239045 -0.1330091
8853126 0.0229039 -0.1295562 0.9770961 0.1295562 0.9770961 0.1295562 0.0229039 -0.1295562
9100013 0.0219530 -0.1261853 0.9780470 0.1261853 0.9780470 0.1261853 0.0219530 -0.1261853
9353785 0.0210495 -0.1228948 0.9789505 0.1228948 0.9789505 0.1228948 0.0210495 -0.1228948
9614634 0.0201909 -0.1196833 0.9798091 0.1196833 0.9798091 0.1196833 0.0201909 -0.1196833
9882758 0.0193751 -0.1165493 0.9806249 0.1165493 0.9806249 0.1165493 0.0193751 -0.1165493
10158358 0.0185999 -0.1134915 0.9814001 0.1134915 0.9814001 0.1134915 0.0185999 -0.1134915
10441645 0.0178634 -0.1105082 0.9821366 0.1105082 0.9821366 0.1105082 0.0178634 -0.1105082
10732831 0.0171637 -0.1075981 0.9828363 0.1075981 0.9828363 0.1075981 0.0171637 -0.1075981
11032137 0.0164989 -0.1047597 0.9835011 0.1047597 0.9835011 0.1047597 0.0164989 -0.1047597
11339791 0.0158672 -0.1019914 0.9841328 0.1019914 0.9841328 0.1019914 0.0158672 -0.1019914
11656024 0.0152670 -0.0992918 0.9847330 0.0992918 0.9847330 0.0992918 0.0152670 -0.0992918
11981075 0.0146967 -0.0966595 0.9853033 0.0966595 0.9853033 0.0966595 0.0146967 -0.0966595
12315192 0.0141547 -0.0940929 0.9858453 0.0940929 0.9858453 0.0940929 0.0141547 -0.0940929
12658625 0.0136396 -0.0915906 0.9863604 0.0915906 0.9863604 0.0915906 0.0136396 -0.0915906
13011637 0.0131501 -0.0891512 0.9868499 0.0891512 0.9868499 0.0891512 0.0131501 -0.0891512
13374492 0.0126847 -0.0867733 0.9873153 0.0867733 0.9873153 0.0867733 0.0126847 -0.0867733
13747467 0.0122423 -0.0844554 0.9877577 0.0844554 0.9877577 0.0844554 0.0122423 -0.0844554
14130843 0.0118216 -0.0821961 0.9881784 0.0821961 0.9881784 0.0821961 0.0118216 -0.0821961
14524910 0.0114215 -0.0799941 0.9885785 0.0799941 0.9885785 0.0799941 0.0114215 -0.0799941
14929966 0.0110409 -0.0778480 0.9889591 0.0778480 0.9889591 0.0778480 0.0110409 -0.0778480
15346318 0.0106788 -0.0757563 0.9893212 0.0757563 0.9893212 0.0757563 0.0106788 -0.0757563
15774281 0.0103342 -0.0737179 0.9896658 0.0737179 0.9896658 0.0737179 0.0103342 -0.0737179
16214179 0.0100062 -0.0717313 0.9899938 0.0717313 0.9899938 0.0717313 0.0100062 -0.0717313
16666344 0.0096939 -0.0697953 0.9903061 0.0697953 0.9903061 0.0697953 0.0096939 -0.0697953
17131118 0.0093964 -0.0679086 0.9906036 0.0679086 0.9906036 0.0679086 0.0093964 -0.0679086
17608854 0.0091129 -0.0660700 0.9908871 0.0660700 0.9908871 0.0660700 0.0091129 -0.0660700
18099912 0.0088428 -0.0642781 0.9911572 0.0642781 0.9911572 0.0642781 0.0088428 -0.0642781
18604665 0.0085851 -0.0625318 0.9914149 0.0625318 0.9914149 0.0625318 0.0085851 -0.0625318
19123493 0.0083394 -0.0608299 0.9916606 0.0608299 0.9916606 0.0608299 0.0083394 -0.0608299
19656790 0.0081049 -0.0591712 0.9918951 0.0591712 0.9918951 0.0591712 0.0081049 -0.0591712
20204959 0.0078811 -0.0575546 0.9921189 0.0575546 0.9921189 0.0575546 0.0078811 -0.0575546
20768415 0.0076673 -0.0559788 0.9923327 0.0559788 0.9923327 0.0559788 0.0076673 -0.0559788
21347584 0.0074630 -0.0544428 0.9925370 0.0544428 0.9925370 0.0544428 0.0074630 -0.0544428
21942904 0.0072678 -0.0529456 0.9927322 0.0529456 0.9927322 0.0529456 0.0072678 -0.0529456
22554827 0.0070810 -0.0514859 0.9929190 0.0514859 0.9929190 0.0514859 0.0070810 -0.0514859
23183813 0.0069023 -0.0500629 0.9930977 0.0500629 0.9930977 0.0500629 0.0069023 -0.0500629
23830340 0.0067312 -0.0486753 0.9932688 0.0486753 0.9932688 0.0486753 0.0067312 -0.0486753
24494897 0.0065674 -0.0473224 0.9934326 0.0473224 0.9934326 0.0473224 0.0065674 -0.0473224
25177987 0.0064104 -0.0460029 0.9935896 0.0460029 0.9935896 0.0460029 0.0064104 -0.0460029
25880126 0.0062599 -0.0447161 0.9937401 0.0447161 0.9937401 0.0447161 0.0062599 -0.0447161
26601845 0.0061155 -0.0434608 0.9938845 0.0434608 0.9938845 0.0434608 0.0061155 -0.0434608
27343691 0.0059770 -0.0422363 0.9940230 0.0422363 0.9940230 0.0422363 0.0059770 -0.0422363
28106225 0.0058441 -0.0410416 0.9941559 0.0410416 0.9941559 0.0410416 0.0058441 -0.0410416
28890023 0.0057164 -0.0398758 0.9942836 0.0398758 0.9942836 0.0398758 0.0057164 -0.0398758
29695680 0.0055937 -0.0387381 0.9944063 0.0387381 0.9944063 0.0387381 0.0055937 -0.0387381
30523804 0.0054759 -0.0376277 0.9945241 0.0376277 0.9945241 0.0376277 0.0054759 -0.0376277
31375021 0.0053626 -0.0365436 0.9946374 0.0365436 0.9946374 0.0365436 0.0053626 -0.0365436
32249977 0.0052536 -0.0354851 0.9947464 0.0354851 0.9947464 0.0354851 0.0052536 -0.0354851
33149332 0.0051488 -0.0344514 0.9948512 0.0344514 0.9948512 0.0344514 0.0051488 -0.0344514
34073768 0.0050480 -0.0334419 0.9949520 0.0334419 0.9949520 0.0334419 0.0050480 -0.0334419
35023984 0.0049511 -0.0324556 0.9950489 0.0324556 0.9950489 0.0324556 0.0049511 -0.0324556
36000698 0.0048577 -0.0314919 0.9951423 0.0314919 0.9951423 0.0314919 0.0048577 -0.0314919
37004650 0.0047680 -0.0305502 0.9952320 0.0305502 0.9952320 0.0305502 0.0047680 -0.0305502
38036599 0.0046816 -0.0296296 0.9953184 0.0296296 0.9953184 0.0296296 0.0046816 -0.0296296
39097326 0.0045984 -0.0287296 0.9954016 0.0287296 0.9954016 0.0287296 0.0045984 -0.0287296
