!Murata Part Number: GRM31AR72J152KW01
!These Parameters are Measured in Series Mode Connection
!Data Generated on Mar 30, 2021
!       o--ll--o
!Port1            Port2
!       o------o
!Operation Temp=25[degC], DC Bias Voltage=0[V]
!Freq. Start=100[kHz] Stop=6[GHz] 401[Steps]
# Hz S RI R 50
!Freq.(Hz) S11(Real) S11(Imag) S21(Real) S21(Imag) S12(Real) S12(Imag) S22(Real) S22(Imag)
100000 0.9893650 -0.0889813 0.0106350 0.0889813 0.0106350 0.0889813 0.9893650 -0.0889813
102789 0.9888953 -0.0913633 0.0111047 0.0913633 0.0111047 0.0913633 0.9888953 -0.0913633
105655 0.9884019 -0.0938089 0.0115981 0.0938089 0.0115981 0.0938089 0.9884019 -0.0938089
108602 0.9878835 -0.0963193 0.0121165 0.0963193 0.0121165 0.0963193 0.9878835 -0.0963193
111630 0.9873387 -0.0988962 0.0126613 0.0988962 0.0126613 0.0988962 0.9873387 -0.0988962
114743 0.9867658 -0.1015411 0.0132342 0.1015411 0.0132342 0.1015411 0.9867658 -0.1015411
117943 0.9861634 -0.1042556 0.0138366 0.1042556 0.0138366 0.1042556 0.9861634 -0.1042556
121232 0.9855298 -0.1070412 0.0144702 0.1070412 0.0144702 0.1070412 0.9855298 -0.1070412
124613 0.9848632 -0.1098994 0.0151368 0.1098994 0.0151368 0.1098994 0.9848632 -0.1098994
128088 0.9841618 -0.1128320 0.0158382 0.1128320 0.0158382 0.1128320 0.9841618 -0.1128320
131660 0.9834237 -0.1158404 0.0165763 0.1158404 0.0165763 0.1158404 0.9834237 -0.1158404
135332 0.9826468 -0.1189262 0.0173532 0.1189262 0.0173532 0.1189262 0.9826468 -0.1189262
139106 0.9818291 -0.1220910 0.0181709 0.1220910 0.0181709 0.1220910 0.9818291 -0.1220910
142985 0.9809683 -0.1253364 0.0190317 0.1253364 0.0190317 0.1253364 0.9809683 -0.1253364
146972 0.9800621 -0.1286639 0.0199379 0.1286639 0.0199379 0.1286639 0.9800621 -0.1286639
151071 0.9791080 -0.1320751 0.0208920 0.1320751 0.0208920 0.1320751 0.9791080 -0.1320751
155284 0.9781034 -0.1355714 0.0218966 0.1355714 0.0218966 0.1355714 0.9781034 -0.1355714
159614 0.9770458 -0.1391544 0.0229542 0.1391544 0.0229542 0.1391544 0.9770458 -0.1391544
164065 0.9759322 -0.1428255 0.0240678 0.1428255 0.0240678 0.1428255 0.9759322 -0.1428255
168641 0.9747597 -0.1465862 0.0252403 0.1465862 0.0252403 0.1465862 0.9747597 -0.1465862
173344 0.9735253 -0.1504379 0.0264747 0.1504379 0.0264747 0.1504379 0.9735253 -0.1504379
178178 0.9722257 -0.1543818 0.0277743 0.1543818 0.0277743 0.1543818 0.9722257 -0.1543818
183146 0.9708577 -0.1584193 0.0291423 0.1584193 0.0291423 0.1584193 0.9708577 -0.1584193
188254 0.9694177 -0.1625515 0.0305823 0.1625515 0.0305823 0.1625515 0.9694177 -0.1625515
193504 0.9679020 -0.1667797 0.0320980 0.1667797 0.0320980 0.1667797 0.9679020 -0.1667797
198900 0.9663068 -0.1711048 0.0336932 0.1711048 0.0336932 0.1711048 0.9663068 -0.1711048
204447 0.9646283 -0.1755278 0.0353717 0.1755278 0.0353717 0.1755278 0.9646283 -0.1755278
210148 0.9628623 -0.1800495 0.0371377 0.1800495 0.0371377 0.1800495 0.9628623 -0.1800495
216008 0.9610045 -0.1846708 0.0389955 0.1846708 0.0389955 0.1846708 0.9610045 -0.1846708
222032 0.9590504 -0.1893921 0.0409496 0.1893921 0.0409496 0.1893921 0.9590504 -0.1893921
228224 0.9569955 -0.1942140 0.0430045 0.1942140 0.0430045 0.1942140 0.9569955 -0.1942140
234589 0.9548350 -0.1991368 0.0451650 0.1991368 0.0451650 0.1991368 0.9548350 -0.1991368
241130 0.9525640 -0.2041606 0.0474360 0.2041606 0.0474360 0.2041606 0.9525640 -0.2041606
247855 0.9501773 -0.2092853 0.0498227 0.2092853 0.0498227 0.2092853 0.9501773 -0.2092853
254767 0.9476696 -0.2145108 0.0523304 0.2145108 0.0523304 0.2145108 0.9476696 -0.2145108
261871 0.9450355 -0.2198365 0.0549645 0.2198365 0.0549645 0.2198365 0.9450355 -0.2198365
269174 0.9422695 -0.2252617 0.0577305 0.2252617 0.0577305 0.2252617 0.9422695 -0.2252617
276681 0.9393657 -0.2307855 0.0606343 0.2307855 0.0606343 0.2307855 0.9393657 -0.2307855
284397 0.9363183 -0.2364066 0.0636817 0.2364066 0.0636817 0.2364066 0.9363183 -0.2364066
292328 0.9331212 -0.2421235 0.0668788 0.2421235 0.0668788 0.2421235 0.9331212 -0.2421235
300480 0.9297682 -0.2479344 0.0702318 0.2479344 0.0702318 0.2479344 0.9297682 -0.2479344
308859 0.9262531 -0.2538371 0.0737469 0.2538371 0.0737469 0.2538371 0.9262531 -0.2538371
317472 0.9225694 -0.2598290 0.0774306 0.2598290 0.0774306 0.2598290 0.9225694 -0.2598290
326326 0.9187105 -0.2659072 0.0812895 0.2659072 0.0812895 0.2659072 0.9187105 -0.2659072
335426 0.9146700 -0.2720685 0.0853300 0.2720685 0.0853300 0.2720685 0.9146700 -0.2720685
344780 0.9104411 -0.2783091 0.0895589 0.2783091 0.0895589 0.2783091 0.9104411 -0.2783091
354395 0.9060172 -0.2846247 0.0939828 0.2846247 0.0939828 0.2846247 0.9060172 -0.2846247
364278 0.9013916 -0.2910108 0.0986084 0.2910108 0.0986084 0.2910108 0.9013916 -0.2910108
374436 0.8965576 -0.2974623 0.1034424 0.2974623 0.1034424 0.2974623 0.8965576 -0.2974623
384878 0.8915085 -0.3039736 0.1084915 0.3039736 0.1084915 0.3039736 0.8915085 -0.3039736
395611 0.8862377 -0.3105384 0.1137623 0.3105384 0.1137623 0.3105384 0.8862377 -0.3105384
406644 0.8807389 -0.3171502 0.1192611 0.3171502 0.1192611 0.3171502 0.8807389 -0.3171502
417984 0.8750056 -0.3238016 0.1249944 0.3238016 0.1249944 0.3238016 0.8750056 -0.3238016
429640 0.8690318 -0.3304851 0.1309682 0.3304851 0.1309682 0.3304851 0.8690318 -0.3304851
441622 0.8628115 -0.3371921 0.1371885 0.3371921 0.1371885 0.3371921 0.8628115 -0.3371921
453937 0.8563390 -0.3439137 0.1436610 0.3439137 0.1436610 0.3439137 0.8563390 -0.3439137
466596 0.8496092 -0.3506406 0.1503908 0.3506406 0.1503908 0.3506406 0.8496092 -0.3506406
479608 0.8426170 -0.3573625 0.1573830 0.3573625 0.1573830 0.3573625 0.8426170 -0.3573625
492983 0.8353580 -0.3640689 0.1646420 0.3640689 0.1646420 0.3640689 0.8353580 -0.3640689
506731 0.8278280 -0.3707485 0.1721720 0.3707485 0.1721720 0.3707485 0.8278280 -0.3707485
520862 0.8200237 -0.3773896 0.1799763 0.3773896 0.1799763 0.3773896 0.8200237 -0.3773896
535387 0.8119421 -0.3839798 0.1880579 0.3839798 0.1880579 0.3839798 0.8119421 -0.3839798
550318 0.8035809 -0.3905065 0.1964191 0.3905065 0.1964191 0.3905065 0.8035809 -0.3905065
565664 0.7949387 -0.3969563 0.2050613 0.3969563 0.2050613 0.3969563 0.7949387 -0.3969563
581439 0.7860145 -0.4033157 0.2139855 0.4033157 0.2139855 0.4033157 0.7860145 -0.4033157
597654 0.7768085 -0.4095704 0.2231915 0.4095704 0.2231915 0.4095704 0.7768085 -0.4095704
614320 0.7673215 -0.4157062 0.2326785 0.4157062 0.2326785 0.4157062 0.7673215 -0.4157062
631452 0.7575553 -0.4217084 0.2424447 0.4217084 0.2424447 0.4217084 0.7575553 -0.4217084
649061 0.7475126 -0.4275621 0.2524874 0.4275621 0.2524874 0.4275621 0.7475126 -0.4275621
667162 0.7371973 -0.4332522 0.2628027 0.4332522 0.2628027 0.4332522 0.7371973 -0.4332522
685767 0.7266140 -0.4387637 0.2733860 0.4387637 0.2733860 0.4387637 0.7266140 -0.4387637
704891 0.7157687 -0.4440816 0.2842313 0.4440816 0.2842313 0.4440816 0.7157687 -0.4440816
724548 0.7046682 -0.4491908 0.2953318 0.4491908 0.2953318 0.4491908 0.7046682 -0.4491908
744754 0.6933205 -0.4540766 0.3066795 0.4540766 0.3066795 0.4540766 0.6933205 -0.4540766
765523 0.6817347 -0.4587245 0.3182653 0.4587245 0.3182653 0.4587245 0.6817347 -0.4587245
786871 0.6699210 -0.4631204 0.3300790 0.4631204 0.3300790 0.4631204 0.6699210 -0.4631204
808814 0.6578907 -0.4672506 0.3421093 0.4672506 0.3421093 0.4672506 0.6578907 -0.4672506
831370 0.6456560 -0.4711021 0.3543440 0.4711021 0.3543440 0.4711021 0.6456560 -0.4711021
854554 0.6332302 -0.4746625 0.3667698 0.4746625 0.3667698 0.4746625 0.6332302 -0.4746625
878385 0.6206277 -0.4779202 0.3793723 0.4779202 0.3793723 0.4779202 0.6206277 -0.4779202
902880 0.6078635 -0.4808643 0.3921365 0.4808643 0.3921365 0.4808643 0.6078635 -0.4808643
928059 0.5949537 -0.4834851 0.4050463 0.4834851 0.4050463 0.4834851 0.5949537 -0.4834851
953940 0.5819151 -0.4857736 0.4180849 0.4857736 0.4180849 0.4857736 0.5819151 -0.4857736
980542 0.5687652 -0.4877221 0.4312348 0.4877221 0.4312348 0.4877221 0.5687652 -0.4877221
1007887 0.5555220 -0.4893240 0.4444780 0.4893240 0.4444780 0.4893240 0.5555220 -0.4893240
1035994 0.5422040 -0.4905738 0.4577960 0.4905738 0.4577960 0.4905738 0.5422040 -0.4905738
1064885 0.5288303 -0.4914674 0.4711697 0.4914674 0.4711697 0.4914674 0.5288303 -0.4914674
1094581 0.5154201 -0.4920019 0.4845799 0.4920019 0.4845799 0.4920019 0.5154201 -0.4920019
1125106 0.5019928 -0.4921757 0.4980072 0.4921757 0.4980072 0.4921757 0.5019928 -0.4921757
1156481 0.4885679 -0.4919884 0.5114321 0.4919884 0.5114321 0.4919884 0.4885679 -0.4919884
1188732 0.4751648 -0.4914411 0.5248352 0.4914411 0.5248352 0.4914411 0.4751648 -0.4914411
1221882 0.4618028 -0.4905361 0.5381972 0.4905361 0.5381972 0.4905361 0.4618028 -0.4905361
1255957 0.4485009 -0.4892769 0.5514991 0.4892769 0.5514991 0.4892769 0.4485009 -0.4892769
1290982 0.4352778 -0.4876684 0.5647222 0.4876684 0.5647222 0.4876684 0.4352778 -0.4876684
1326984 0.4221516 -0.4857165 0.5778484 0.4857165 0.5778484 0.4857165 0.4221516 -0.4857165
1363989 0.4091398 -0.4834284 0.5908602 0.4834284 0.5908602 0.4834284 0.4091398 -0.4834284
1402027 0.3962595 -0.4808122 0.6037405 0.4808122 0.6037405 0.4808122 0.3962595 -0.4808122
1441125 0.3835268 -0.4778772 0.6164732 0.4778772 0.6164732 0.4778772 0.3835268 -0.4778772
1481314 0.3709571 -0.4746336 0.6290429 0.4746336 0.6290429 0.4746336 0.3709571 -0.4746336
1522623 0.3585650 -0.4710922 0.6414350 0.4710922 0.6414350 0.4710922 0.3585650 -0.4710922
1565085 0.3463640 -0.4672648 0.6536360 0.4672648 0.6536360 0.4672648 0.3463640 -0.4672648
1608730 0.3343668 -0.4631639 0.6656332 0.4631639 0.6656332 0.4631639 0.3343668 -0.4631639
1653593 0.3225850 -0.4588024 0.6774150 0.4588024 0.6774150 0.4588024 0.3225850 -0.4588024
1699707 0.3110292 -0.4541938 0.6889708 0.4541938 0.6889708 0.4541938 0.3110292 -0.4541938
1747106 0.2997091 -0.4493520 0.7002909 0.4493520 0.7002909 0.4493520 0.2997091 -0.4493520
1795828 0.2886331 -0.4442911 0.7113669 0.4442911 0.7113669 0.4442911 0.2886331 -0.4442911
1845908 0.2778087 -0.4390257 0.7221913 0.4390257 0.7221913 0.4390257 0.2778087 -0.4390257
1897385 0.2672425 -0.4335702 0.7327575 0.4335702 0.7327575 0.4335702 0.2672425 -0.4335702
1950297 0.2569398 -0.4279392 0.7430602 0.4279392 0.7430602 0.4279392 0.2569398 -0.4279392
2004685 0.2469051 -0.4221473 0.7530949 0.4221473 0.7530949 0.4221473 0.2469051 -0.4221473
2060590 0.2371419 -0.4162091 0.7628581 0.4162091 0.7628581 0.4162091 0.2371419 -0.4162091
2118054 0.2276528 -0.4101388 0.7723472 0.4101388 0.7723472 0.4101388 0.2276528 -0.4101388
2177120 0.2184394 -0.4039507 0.7815606 0.4039507 0.7815606 0.4039507 0.2184394 -0.4039507
2237833 0.2095026 -0.3976585 0.7904974 0.3976585 0.7904974 0.3976585 0.2095026 -0.3976585
2300240 0.2008424 -0.3912757 0.7991576 0.3912757 0.7991576 0.3912757 0.2008424 -0.3912757
2364387 0.1924581 -0.3848157 0.8075419 0.3848157 0.8075419 0.3848157 0.1924581 -0.3848157
2430322 0.1843481 -0.3782910 0.8156519 0.3782910 0.8156519 0.3782910 0.1843481 -0.3782910
2498097 0.1765105 -0.3717141 0.8234895 0.3717141 0.8234895 0.3717141 0.1765105 -0.3717141
2567761 0.1689425 -0.3650967 0.8310575 0.3650967 0.8310575 0.3650967 0.1689425 -0.3650967
2639368 0.1616409 -0.3584503 0.8383591 0.3584503 0.8383591 0.3584503 0.1616409 -0.3584503
2712972 0.1546019 -0.3517857 0.8453981 0.3517857 0.8453981 0.3517857 0.1546019 -0.3517857
2788629 0.1478213 -0.3451132 0.8521787 0.3451132 0.8521787 0.3451132 0.1478213 -0.3451132
2866396 0.1412945 -0.3384426 0.8587055 0.3384426 0.8587055 0.3384426 0.1412945 -0.3384426
2946331 0.1350166 -0.3317832 0.8649834 0.3317832 0.8649834 0.3317832 0.1350166 -0.3317832
3028495 0.1289821 -0.3251438 0.8710179 0.3251438 0.8710179 0.3251438 0.1289821 -0.3251438
3112951 0.1231856 -0.3185325 0.8768144 0.3185325 0.8768144 0.3185325 0.1231856 -0.3185325
3199762 0.1176213 -0.3119569 0.8823787 0.3119569 0.8823787 0.3119569 0.1176213 -0.3119569
3288994 0.1122832 -0.3054243 0.8877168 0.3054243 0.8877168 0.3054243 0.1122832 -0.3054243
3380714 0.1071652 -0.2989411 0.8928348 0.2989411 0.8928348 0.2989411 0.1071652 -0.2989411
3474992 0.1022610 -0.2925137 0.8977390 0.2925137 0.8977390 0.2925137 0.1022610 -0.2925137
3571899 0.0975643 -0.2861475 0.9024357 0.2861475 0.9024357 0.2861475 0.0975643 -0.2861475
3671508 0.0930687 -0.2798477 0.9069313 0.2798477 0.9069313 0.2798477 0.0930687 -0.2798477
3773896 0.0887678 -0.2736191 0.9112322 0.2736191 0.9112322 0.2736191 0.0887678 -0.2736191
3879139 0.0846552 -0.2674658 0.9153448 0.2674658 0.9153448 0.2674658 0.0846552 -0.2674658
3987316 0.0807246 -0.2613918 0.9192754 0.2613918 0.9192754 0.2613918 0.0807246 -0.2613918
4098510 0.0769694 -0.2554004 0.9230306 0.2554004 0.9230306 0.2554004 0.0769694 -0.2554004
4212806 0.0733835 -0.2494946 0.9266165 0.2494946 0.9266165 0.2494946 0.0733835 -0.2494946
4330288 0.0699606 -0.2436772 0.9300394 0.2436772 0.9300394 0.2436772 0.0699606 -0.2436772
4451047 0.0666946 -0.2379505 0.9333054 0.2379505 0.9333054 0.2379505 0.0666946 -0.2379505
4575173 0.0635795 -0.2323164 0.9364205 0.2323164 0.9364205 0.2323164 0.0635795 -0.2323164
4702761 0.0606094 -0.2267767 0.9393906 0.2267767 0.9393906 0.2267767 0.0606094 -0.2267767
4833907 0.0577784 -0.2213327 0.9422216 0.2213327 0.9422216 0.2213327 0.0577784 -0.2213327
4968711 0.0550811 -0.2159855 0.9449189 0.2159855 0.9449189 0.2159855 0.0550811 -0.2159855
5107273 0.0525117 -0.2107361 0.9474883 0.2107361 0.9474883 0.2107361 0.0525117 -0.2107361
5249700 0.0500651 -0.2055850 0.9499349 0.2055850 0.9499349 0.2055850 0.0500651 -0.2055850
5396098 0.0477359 -0.2005326 0.9522641 0.2005326 0.9522641 0.2005326 0.0477359 -0.2005326
5546579 0.0455192 -0.1955792 0.9544808 0.1955792 0.9544808 0.1955792 0.0455192 -0.1955792
5701257 0.0434100 -0.1907247 0.9565900 0.1907247 0.9565900 0.1907247 0.0434100 -0.1907247
5860248 0.0414035 -0.1859690 0.9585965 0.1859690 0.9585965 0.1859690 0.0414035 -0.1859690
6023672 0.0394953 -0.1813118 0.9605047 0.1813118 0.9605047 0.1813118 0.0394953 -0.1813118
6191655 0.0376808 -0.1767525 0.9623192 0.1767525 0.9623192 0.1767525 0.0376808 -0.1767525
6364321 0.0359558 -0.1722906 0.9640442 0.1722906 0.9640442 0.1722906 0.0359558 -0.1722906
6541803 0.0343162 -0.1679254 0.9656838 0.1679254 0.9656838 0.1679254 0.0343162 -0.1679254
6724235 0.0327580 -0.1636559 0.9672420 0.1636559 0.9672420 0.1636559 0.0327580 -0.1636559
6911753 0.0312775 -0.1594813 0.9687225 0.1594813 0.9687225 0.1594813 0.0312775 -0.1594813
7104501 0.0298708 -0.1554004 0.9701292 0.1554004 0.9701292 0.1554004 0.0298708 -0.1554004
7302625 0.0285346 -0.1514123 0.9714654 0.1514123 0.9714654 0.1514123 0.0285346 -0.1514123
7506273 0.0272654 -0.1475157 0.9727346 0.1475157 0.9727346 0.1475157 0.0272654 -0.1475157
7715601 0.0260601 -0.1437094 0.9739399 0.1437094 0.9739399 0.1437094 0.0260601 -0.1437094
7930766 0.0249154 -0.1399920 0.9750846 0.1399920 0.9750846 0.1399920 0.0249154 -0.1399920
8151931 0.0238285 -0.1363622 0.9761715 0.1363622 0.9761715 0.1363622 0.0238285 -0.1363622
8379264 0.0227965 -0.1328187 0.9772035 0.1328187 0.9772035 0.1328187 0.0227965 -0.1328187
8612937 0.0218167 -0.1293599 0.9781833 0.1293599 0.9781833 0.1293599 0.0218167 -0.1293599
8853126 0.0208864 -0.1259844 0.9791136 0.1259844 0.9791136 0.1259844 0.0208864 -0.1259844
9100013 0.0200032 -0.1226908 0.9799968 0.1226908 0.9799968 0.1226908 0.0200032 -0.1226908
9353785 0.0191647 -0.1194775 0.9808353 0.1194775 0.9808353 0.1194775 0.0191647 -0.1194775
9614634 0.0183687 -0.1163430 0.9816313 0.1163430 0.9816313 0.1163430 0.0183687 -0.1163430
9882758 0.0176130 -0.1132859 0.9823870 0.1132859 0.9823870 0.1132859 0.0176130 -0.1132859
10158358 0.0168955 -0.1103044 0.9831045 0.1103044 0.9831045 0.1103044 0.0168955 -0.1103044
10441645 0.0162142 -0.1073972 0.9837858 0.1073972 0.9837858 0.1073972 0.0162142 -0.1073972
10732831 0.0155674 -0.1045627 0.9844326 0.1045627 0.9844326 0.1045627 0.0155674 -0.1045627
11032137 0.0149531 -0.1017992 0.9850469 0.1017992 0.9850469 0.1017992 0.0149531 -0.1017992
11339791 0.0143698 -0.0991054 0.9856302 0.0991054 0.9856302 0.0991054 0.0143698 -0.0991054
11656024 0.0138157 -0.0964797 0.9861843 0.0964797 0.9861843 0.0964797 0.0138157 -0.0964797
11981075 0.0132894 -0.0939205 0.9867106 0.0939205 0.9867106 0.0939205 0.0132894 -0.0939205
12315192 0.0127893 -0.0914263 0.9872107 0.0914263 0.9872107 0.0914263 0.0127893 -0.0914263
12658625 0.0123142 -0.0889957 0.9876858 0.0889957 0.9876858 0.0889957 0.0123142 -0.0889957
13011637 0.0118625 -0.0866272 0.9881375 0.0866272 0.9881375 0.0866272 0.0118625 -0.0866272
13374492 0.0114332 -0.0843193 0.9885668 0.0843193 0.9885668 0.0843193 0.0114332 -0.0843193
13747467 0.0110250 -0.0820705 0.9889750 0.0820705 0.9889750 0.0820705 0.0110250 -0.0820705
14130843 0.0106367 -0.0798794 0.9893633 0.0798794 0.9893633 0.0798794 0.0106367 -0.0798794
14524910 0.0102673 -0.0777447 0.9897327 0.0777447 0.9897327 0.0777447 0.0102673 -0.0777447
14929966 0.0099158 -0.0756649 0.9900842 0.0756649 0.9900842 0.0756649 0.0099158 -0.0756649
15346318 0.0095812 -0.0736386 0.9904188 0.0736386 0.9904188 0.0736386 0.0095812 -0.0736386
15774281 0.0092625 -0.0716646 0.9907375 0.0716646 0.9907375 0.0716646 0.0092625 -0.0716646
16214179 0.0089590 -0.0697414 0.9910410 0.0697414 0.9910410 0.0697414 0.0089590 -0.0697414
16666344 0.0086697 -0.0678677 0.9913303 0.0678677 0.9913303 0.0678677 0.0086697 -0.0678677
17131118 0.0083938 -0.0660423 0.9916062 0.0660423 0.9916062 0.0660423 0.0083938 -0.0660423
17608854 0.0081308 -0.0642640 0.9918692 0.0642640 0.9918692 0.0642640 0.0081308 -0.0642640
18099912 0.0078798 -0.0625313 0.9921202 0.0625313 0.9921202 0.0625313 0.0078798 -0.0625313
18604665 0.0076401 -0.0608433 0.9923599 0.0608433 0.9923599 0.0608433 0.0076401 -0.0608433
19123493 0.0074113 -0.0591985 0.9925887 0.0591985 0.9925887 0.0591985 0.0074113 -0.0591985
19656790 0.0071926 -0.0575959 0.9928074 0.0575959 0.9928074 0.0575959 0.0071926 -0.0575959
20204959 0.0069835 -0.0560344 0.9930165 0.0560344 0.9930165 0.0560344 0.0069835 -0.0560344
20768415 0.0067835 -0.0545127 0.9932165 0.0545127 0.9932165 0.0545127 0.0067835 -0.0545127
21347584 0.0065922 -0.0530298 0.9934078 0.0530298 0.9934078 0.0530298 0.0065922 -0.0530298
21942904 0.0064089 -0.0515846 0.9935911 0.0515846 0.9935911 0.0515846 0.0064089 -0.0515846
22554827 0.0062334 -0.0501760 0.9937666 0.0501760 0.9937666 0.0501760 0.0062334 -0.0501760
23183813 0.0060652 -0.0488030 0.9939348 0.0488030 0.9939348 0.0488030 0.0060652 -0.0488030
23830340 0.0059039 -0.0474646 0.9940961 0.0474646 0.9940961 0.0474646 0.0059039 -0.0474646
24494897 0.0057492 -0.0461598 0.9942508 0.0461598 0.9942508 0.0461598 0.0057492 -0.0461598
25177987 0.0056008 -0.0448877 0.9943992 0.0448877 0.9943992 0.0448877 0.0056008 -0.0448877
25880126 0.0054582 -0.0436472 0.9945418 0.0436472 0.9945418 0.0436472 0.0054582 -0.0436472
26601845 0.0053213 -0.0424375 0.9946787 0.0424375 0.9946787 0.0424375 0.0053213 -0.0424375
27343691 0.0051897 -0.0412577 0.9948103 0.0412577 0.9948103 0.0412577 0.0051897 -0.0412577
28106225 0.0050632 -0.0401069 0.9949368 0.0401069 0.9949368 0.0401069 0.0050632 -0.0401069
28890023 0.0049416 -0.0389842 0.9950584 0.0389842 0.9950584 0.0389842 0.0049416 -0.0389842
29695680 0.0048247 -0.0378889 0.9951753 0.0378889 0.9951753 0.0378889 0.0048247 -0.0378889
30523804 0.0047121 -0.0368200 0.9952879 0.0368200 0.9952879 0.0368200 0.0047121 -0.0368200
31375021 0.0046039 -0.0357769 0.9953961 0.0357769 0.9953961 0.0357769 0.0046039 -0.0357769
32249977 0.0044997 -0.0347588 0.9955003 0.0347588 0.9955003 0.0347588 0.0044997 -0.0347588
33149332 0.0043994 -0.0337648 0.9956006 0.0337648 0.9956006 0.0337648 0.0043994 -0.0337648
34073768 0.0043029 -0.0327943 0.9956971 0.0327943 0.9956971 0.0327943 0.0043029 -0.0327943
35023984 0.0042100 -0.0318466 0.9957900 0.0318466 0.9957900 0.0318466 0.0042100 -0.0318466
36000698 0.0041205 -0.0309210 0.9958795 0.0309210 0.9958795 0.0309210 0.0041205 -0.0309210
37004650 0.0040345 -0.0300169 0.9959655 0.0300169 0.9959655 0.0300169 0.0040345 -0.0300169
38036599 0.0039516 -0.0291335 0.9960484 0.0291335 0.9960484 0.0291335 0.0039516 -0.0291335
39097326 0.0038719 -0.0282703 0.9961281 0.0282703 0.9961281 0.0282703 0.0038719 -0.0282703
