!  American Technical Ceramics  Date:   11/13/98
!  One Norden Lane
!  Huntington Station,  NY.   11746-2102
!  Tel:  (516) 622-4700               Fax:  (516) 622-4748
!  Part Number  100A0R7
!  Description: Porcelain, High Q, Low ESR
!  Application: Bypass, Coupling, Timing, Feedback
!               Tuning, Impedance Match, Blocking
# GHZ S DB R 50
! Freq   |S11|   S11 Ph  |S21|   S21 Ph  |S12|   S12 Ph  |S22|   S22 Ph
    0.05    0.07   -1.39  -32.59   87.99  -32.59   87.99    0.07   -1.39
    0.15    0.03   -3.96  -23.09   86.34  -23.09   86.34    0.03   -3.96
    0.25   -0.03   -6.86  -18.67   83.63  -18.67   83.63   -0.03   -6.86
    0.35   -0.06   -9.59  -15.80   81.11  -15.80   81.11   -0.06   -9.59
    0.45   -0.12  -12.05  -13.66   78.64  -13.66   78.64   -0.12  -12.05
    0.55   -0.23  -14.33  -11.88   74.70  -11.88   74.70   -0.23  -14.33
    0.65   -0.36  -16.95  -10.55   72.33  -10.55   72.33   -0.36  -16.95
    0.75   -0.60  -19.62   -9.51   70.43   -9.51   70.43   -0.60  -19.62
    0.85   -0.68  -23.10   -8.57   67.65   -8.57   67.65   -0.68  -23.10
    0.95   -0.75  -24.28   -7.69   65.49   -7.69   65.49   -0.75  -24.28
    1.05   -0.94  -26.44   -7.00   63.13   -7.00   63.13   -0.94  -26.44
    1.15   -1.07  -28.25   -6.33   61.18   -6.33   61.18   -1.07  -28.25
    1.25   -1.35  -30.50   -5.85   59.72   -5.85   59.72   -1.35  -30.50
    1.35   -1.50  -33.17   -5.36   57.30   -5.36   57.30   -1.50  -33.17
    1.45   -1.64  -34.84   -4.89   55.14   -4.89   55.14   -1.64  -34.84
    1.55   -1.82  -36.36   -4.47   53.24   -4.47   53.24   -1.82  -36.36
    1.65   -1.99  -37.85   -4.11   51.62   -4.11   51.62   -1.99  -37.85
    1.75   -2.27  -39.58   -3.81   50.32   -3.81   50.32   -2.27  -39.58
    1.85   -2.51  -41.77   -3.58   48.60   -3.58   48.60   -2.51  -41.77
    1.95   -2.69  -43.16   -3.29   46.73   -3.29   46.73   -2.69  -43.16
    2.05   -2.88  -44.41   -3.05   45.17   -3.05   45.17   -2.88  -44.41
    2.14   -3.10  -45.36   -2.80   43.76   -2.80   43.76   -3.10  -45.36
    2.24   -3.36  -47.01   -2.62   42.58   -2.62   42.58   -3.36  -47.01
    2.34   -3.62  -48.77   -2.44   41.24   -2.44   41.24   -3.62  -48.77
    2.44   -3.82  -50.00   -2.28   39.81   -2.28   39.81   -3.82  -50.00
    2.54   -4.07  -50.75   -2.10   38.38   -2.10   38.38   -4.07  -50.75
    2.64   -4.28  -51.75   -1.97   37.30   -1.97   37.30   -4.28  -51.75
    2.74   -4.61  -53.02   -1.83   35.97   -1.83   35.97   -4.61  -53.02
    2.84   -4.84  -54.65   -1.73   34.86   -1.73   34.86   -4.84  -54.65
    2.94   -5.10  -55.54   -1.61   33.49   -1.61   33.49   -5.10  -55.54
    3.04   -5.34  -56.15   -1.49   32.40   -1.49   32.40   -5.34  -56.15
    3.14   -5.58  -56.87   -1.42   31.41   -1.42   31.41   -5.58  -56.87
    3.24   -5.93  -57.60   -1.37   30.29   -1.37   30.29   -5.93  -57.60
    3.34   -6.22  -58.98   -1.30   29.23   -1.30   29.23   -6.22  -58.98
    3.44   -6.48  -59.66   -1.24   28.14   -1.24   28.14   -6.48  -59.66
    3.54   -6.67  -60.27   -1.16   27.16   -1.16   27.16   -6.67  -60.27
    3.64   -6.90  -60.32   -1.11   26.48   -1.11   26.48   -6.90  -60.32
    3.74   -7.25  -60.92   -1.09   25.62   -1.09   25.62   -7.25  -60.92
    3.84   -7.52  -62.02   -1.06   24.73   -1.06   24.73   -7.52  -62.02
    3.94   -7.77  -62.81   -1.03   23.74   -1.03   23.74   -7.77  -62.81
    4.04   -7.84  -64.84   -0.81   23.02   -0.81   23.02   -7.84  -64.84
    4.14   -8.02  -64.88   -0.76   22.51   -0.76   22.51   -8.02  -64.88
    4.24   -8.30  -65.20   -0.76   22.03   -0.76   22.03   -8.30  -65.20
    4.34   -8.58  -66.76   -0.72   21.24   -0.72   21.24   -8.58  -66.76
    4.44   -8.79  -67.24   -0.70   20.47   -0.70   20.47   -8.79  -67.24
    4.54   -8.98  -67.96   -0.64   19.65   -0.64   19.65   -8.98  -67.96
    4.64   -9.11  -68.05   -0.58   19.19   -0.58   19.19   -9.11  -68.05
    4.74   -9.43  -68.20   -0.58   18.83   -0.58   18.83   -9.43  -68.20
    4.84   -9.63  -69.16   -0.58   18.18   -0.58   18.18   -9.63  -69.16
    4.94   -9.88  -69.28   -0.56   17.58   -0.56   17.58   -9.88  -69.28
    5.04  -10.12  -69.90   -0.55   16.82   -0.55   16.82  -10.12  -69.90
    5.14  -10.19  -70.10   -0.49   16.42   -0.49   16.42  -10.19  -70.10
    5.24  -10.45  -70.36   -0.49   16.12   -0.49   16.12  -10.45  -70.36
    5.34  -10.63  -71.04   -0.49   15.65   -0.49   15.65  -10.63  -71.04
    5.44  -10.97  -70.94   -0.49   15.15   -0.49   15.15  -10.97  -70.94
    5.54  -11.13  -71.71   -0.47   14.65   -0.47   14.65  -11.13  -71.71
    5.64  -11.23  -71.98   -0.45   14.27   -0.45   14.27  -11.23  -71.98
    5.74  -11.40  -72.44   -0.42   14.04   -0.42   14.04  -11.40  -72.44
    5.84  -11.77  -73.08   -0.42   13.64   -0.42   13.64  -11.77  -73.08
    5.94  -11.99  -73.49   -0.39   13.20   -0.39   13.20  -11.99  -73.49
    6.04  -12.30  -74.31   -0.39   12.78   -0.39   12.78  -12.30  -74.31
    6.13  -12.38  -74.32   -0.36   12.28   -0.36   12.28  -12.38  -74.32
    6.23  -12.76  -74.03   -0.36   12.06   -0.36   12.06  -12.76  -74.03
    6.33  -13.09  -75.03   -0.36   11.66   -0.36   11.66  -13.09  -75.03
    6.43  -13.36  -75.70   -0.35   11.34   -0.35   11.34  -13.36  -75.70
    6.53  -13.64  -75.90   -0.33   10.95   -0.33   10.95  -13.64  -75.90
    6.63  -13.90  -75.86   -0.32   10.49   -0.32   10.49  -13.90  -75.86
    6.73  -14.33  -75.66   -0.30   10.21   -0.30   10.21  -14.33  -75.66
    6.83  -14.84  -76.35   -0.32    9.85   -0.32    9.85  -14.84  -76.35
    6.93  -15.12  -75.87   -0.31    9.45   -0.31    9.45  -15.12  -75.87
    7.03  -15.52  -74.78   -0.31    9.20   -0.31    9.20  -15.52  -74.78
    7.13  -15.83  -74.57   -0.30    8.78   -0.30    8.78  -15.83  -74.57
    7.23  -16.35  -73.49   -0.30    8.47   -0.30    8.47  -16.35  -73.49
    7.33  -16.84  -73.00   -0.31    8.14   -0.31    8.14  -16.84  -73.00
    7.43  -17.30  -71.40   -0.33    7.79   -0.33    7.79  -17.30  -71.40
    7.53  -17.67  -69.12   -0.33    7.50   -0.33    7.50  -17.67  -69.12
    7.63  -18.07  -67.25   -0.35    7.32   -0.35    7.32  -18.07  -67.25
    7.73  -18.37  -65.21   -0.34    7.09   -0.34    7.09  -18.37  -65.21
    7.83  -18.84  -65.05   -0.34    7.05   -0.34    7.05  -18.84  -65.05
    7.93  -19.41  -63.93   -0.33    6.70   -0.33    6.70  -19.41  -63.93
    8.03  -20.14  -61.27   -0.32    6.41   -0.32    6.41  -20.14  -61.27
    8.13  -20.72  -58.24   -0.31    6.03   -0.31    6.03  -20.72  -58.24
    8.23  -21.31  -54.96   -0.31    5.82   -0.31    5.82  -21.31  -54.96
    8.33  -22.03  -52.41   -0.30    5.62   -0.30    5.62  -22.03  -52.41
    8.43  -22.80  -49.80   -0.29    5.42   -0.29    5.42  -22.80  -49.80
    8.53  -23.81  -44.82   -0.28    5.00   -0.28    5.00  -23.81  -44.82
    8.63  -24.55  -39.43   -0.28    4.75   -0.28    4.75  -24.55  -39.43
    8.73  -25.55  -32.21   -0.27    4.36   -0.27    4.36  -25.55  -32.21
    8.83  -26.12  -25.51   -0.27    4.11   -0.27    4.11  -26.12  -25.51
    8.93  -26.90  -17.01   -0.28    3.81   -0.28    3.81  -26.90  -17.01
    9.03  -27.07   -8.40   -0.28    3.54   -0.28    3.54  -27.07   -8.40
    9.13  -27.43    0.95   -0.28    3.33   -0.28    3.33  -27.43    0.95
    9.23  -27.50    9.33   -0.28    3.03   -0.28    3.03  -27.50    9.33
    9.33  -27.39   17.05   -0.29    2.81   -0.29    2.81  -27.39   17.05
    9.43  -27.26   22.25   -0.29    2.65   -0.29    2.65  -27.26   22.25
    9.53  -27.33   29.55   -0.29    2.46   -0.29    2.46  -27.33   29.55
    9.63  -26.95   36.36   -0.29    2.22   -0.29    2.22  -26.95   36.36
    9.73  -26.96   40.98   -0.28    2.01   -0.28    2.01  -26.96   40.98
    9.83  -26.71   47.23   -0.26    1.85   -0.26    1.85  -26.71   47.23
    9.93  -26.44   51.94   -0.26    1.63   -0.26    1.63  -26.44   51.94
   10.03  -26.13   56.78   -0.26    1.38   -0.26    1.38  -26.13   56.78
   10.12  -25.76   60.50   -0.26    1.17   -0.26    1.17  -25.76   60.50
   10.22  -25.55   65.13   -0.25    0.94   -0.25    0.94  -25.55   65.13
   10.32  -25.15   68.42   -0.24    0.74   -0.24    0.74  -25.15   68.42
   10.42  -24.95   72.16   -0.23    0.53   -0.23    0.53  -24.95   72.16
   10.52  -24.44   75.09   -0.22    0.33   -0.22    0.33  -24.44   75.09
   10.62  -24.10   78.58   -0.22    0.09   -0.22    0.09  -24.10   78.58
   10.72  -23.56   80.50   -0.21   -0.24   -0.21   -0.24  -23.56   80.50
   10.82  -23.26   81.82   -0.20   -0.51   -0.20   -0.51  -23.26   81.82
   10.92  -22.77   83.16   -0.20   -0.73   -0.20   -0.73  -22.77   83.16
   11.02  -22.53   83.91   -0.20   -0.97   -0.20   -0.97  -22.53   83.91
   11.12  -22.08   85.39   -0.20   -1.25   -0.20   -1.25  -22.08   85.39
   11.22  -21.73   85.94   -0.20   -1.57   -0.20   -1.57  -21.73   85.94
   11.32  -21.37   86.44   -0.19   -1.81   -0.19   -1.81  -21.37   86.44
   11.42  -21.13   86.31   -0.19   -2.07   -0.19   -2.07  -21.13   86.31
   11.52  -20.80   86.61   -0.20   -2.28   -0.20   -2.28  -20.80   86.61
   11.62  -20.41   87.08   -0.20   -2.64   -0.20   -2.64  -20.41   87.08
   11.72  -20.01   87.23   -0.21   -2.87   -0.21   -2.87  -20.01   87.23
   11.82  -19.73   87.59   -0.20   -3.22   -0.20   -3.22  -19.73   87.59
   11.92  -19.46   86.78   -0.19   -3.45   -0.19   -3.45  -19.46   86.78
   12.02  -19.06   86.61   -0.21   -3.76   -0.21   -3.76  -19.06   86.61
   12.12  -18.62   86.21   -0.22   -4.00   -0.22   -4.00  -18.62   86.21
   12.22  -18.28   86.42   -0.24   -4.36   -0.24   -4.36  -18.28   86.42
   12.32  -17.94   85.56   -0.24   -4.65   -0.24   -4.65  -17.94   85.56
   12.42  -17.75   84.24   -0.23   -5.02   -0.23   -5.02  -17.75   84.24
   12.52  -17.24   83.72   -0.24   -5.14   -0.24   -5.14  -17.24   83.72
   12.62  -17.02   83.53   -0.24   -5.45   -0.24   -5.45  -17.02   83.53
   12.72  -16.55   83.22   -0.26   -5.77   -0.26   -5.77  -16.55   83.22
   12.82  -16.40   81.89   -0.28   -6.23   -0.28   -6.23  -16.40   81.89
   12.92  -15.92   80.99   -0.27   -6.59   -0.27   -6.59  -15.92   80.99
   13.02  -15.70   80.22   -0.28   -6.87   -0.28   -6.87  -15.70   80.22
   13.12  -15.24   80.36   -0.31   -7.01   -0.31   -7.01  -15.24   80.36
   13.22  -14.92   80.16   -0.34   -7.42   -0.34   -7.42  -14.92   80.16
   13.32  -14.54   78.91   -0.36   -7.82   -0.36   -7.82  -14.54   78.91
   13.42  -14.17   77.83   -0.37   -8.31   -0.37   -8.31  -14.17   77.83
   13.52  -13.80   77.54   -0.35   -8.48   -0.35   -8.48  -13.80   77.54
   13.62  -13.41   77.73   -0.39   -8.68   -0.39   -8.68  -13.41   77.73
   13.72  -12.99   77.05   -0.43   -9.01   -0.43   -9.01  -12.99   77.05
   13.82  -12.66   76.95   -0.49   -9.50   -0.49   -9.50  -12.66   76.95
   13.92  -12.32   75.66   -0.48   -9.96   -0.48   -9.96  -12.32   75.66
   14.02  -12.01   75.38   -0.50  -10.34   -0.50  -10.34  -12.01   75.38
   14.11  -11.59   74.44   -0.52  -10.43   -0.52  -10.43  -11.59   74.44
   14.21  -11.23   76.14   -0.57  -10.50   -0.57  -10.50  -11.23   76.14
   14.31  -10.95   75.66   -0.60  -10.92   -0.60  -10.92  -10.95   75.66
   14.41  -10.74   75.19   -0.64  -11.37   -0.64  -11.37  -10.74   75.19
   14.51  -10.49   74.42   -0.67  -11.66   -0.67  -11.66  -10.49   74.42
   14.61  -10.15   74.64   -0.70  -12.00   -0.70  -12.00  -10.15   74.64
   14.71   -9.81   75.65   -0.72  -12.16   -0.72  -12.16   -9.81   75.65
   14.81   -9.62   75.71   -0.77  -12.40   -0.77  -12.40   -9.62   75.71
   14.91   -9.41   75.92   -0.80  -12.61   -0.80  -12.61   -9.41   75.92
   15.01   -9.35   75.20   -0.86  -12.96   -0.86  -12.96   -9.35   75.20
   15.11   -9.09   76.13   -0.88  -13.03   -0.88  -13.03   -9.09   76.13
   15.21   -8.87   76.43   -0.91  -13.26   -0.91  -13.26   -8.87   76.43
   15.31   -8.74   77.81   -0.93  -13.22   -0.93  -13.22   -8.74   77.81
   15.41   -8.56   77.05   -0.98  -13.51   -0.98  -13.51   -8.56   77.05
   15.51   -8.52   77.48   -0.99  -13.56   -0.99  -13.56   -8.52   77.48
   15.61   -8.38   77.20   -1.03  -13.67   -1.03  -13.67   -8.38   77.20
   15.71   -8.23   78.63   -1.03  -13.69   -1.03  -13.69   -8.23   78.63
   15.81   -8.10   78.63   -1.05  -13.82   -1.05  -13.82   -8.10   78.63
   15.91   -8.01   78.91   -1.06  -13.93   -1.06  -13.93   -8.01   78.91
   16.01   -8.05   78.23   -1.10  -14.00   -1.10  -14.00   -8.05   78.23
   16.11   -8.00   78.40   -1.11  -14.03   -1.11  -14.03   -8.00   78.40
   16.21   -7.94   78.95   -1.12  -14.25   -1.12  -14.25   -7.94   78.95
   16.31   -7.85   79.38   -1.10  -14.41   -1.10  -14.41   -7.85   79.38
   16.41   -7.82   79.64   -1.09  -14.60   -1.09  -14.60   -7.82   79.64
   16.51   -7.83   79.31   -1.10  -14.72   -1.10  -14.72   -7.83   79.31
   16.61   -7.81   79.51   -1.11  -14.84   -1.11  -14.84   -7.81   79.51
   16.71   -7.85   79.82   -1.12  -14.90   -1.12  -14.90   -7.85   79.82
   16.81   -7.77   79.52   -1.13  -15.46   -1.13  -15.46   -7.77   79.52
   16.91   -7.80   80.01   -1.10  -15.51   -1.10  -15.51   -7.80   80.01
   17.01   -7.80   79.77   -1.10  -16.01   -1.10  -16.01   -7.80   79.77
   17.11   -7.95   80.13   -1.11  -16.04   -1.11  -16.04   -7.95   80.13
   17.21   -7.94   79.93   -1.18  -16.59   -1.18  -16.59   -7.94   79.93
   17.31   -7.99   80.66   -1.15  -16.69   -1.15  -16.69   -7.99   80.66
   17.41   -7.87   80.65   -1.16  -17.24   -1.16  -17.24   -7.87   80.65
   17.51   -8.00   81.11   -1.16  -17.50   -1.16  -17.50   -8.00   81.11
   17.61   -7.92   80.93   -1.23  -17.99   -1.23  -17.99   -7.92   80.93
   17.71   -7.97   80.95   -1.24  -18.02   -1.24  -18.02   -7.97   80.95
   17.81   -7.81   80.80   -1.23  -18.80   -1.23  -18.80   -7.81   80.80
   17.91   -7.87   80.52   -1.23  -19.45   -1.23  -19.45   -7.87   80.52
   18.01   -7.77   80.21   -1.26  -19.67   -1.26  -19.67   -7.77   80.21
   18.10   -7.84   79.19   -1.27  -20.40   -1.27  -20.40   -7.84   79.19
   18.20   -7.64   79.24   -1.36  -20.60   -1.36  -20.60   -7.64   79.24
   18.30   -7.60   78.60   -1.36  -21.56   -1.36  -21.56   -7.60   78.60
   18.40   -7.58   78.49   -1.41  -22.26   -1.41  -22.26   -7.58   78.49
   18.50   -7.57   77.17   -1.46  -23.11   -1.46  -23.11   -7.57   77.17
   18.60   -7.43   76.86   -1.54  -23.65   -1.54  -23.65   -7.43   76.86
   18.70   -7.31   76.49   -1.62  -24.38   -1.62  -24.38   -7.31   76.49
   18.80   -7.15   76.47   -1.69  -25.14   -1.69  -25.14   -7.15   76.47
   18.90   -7.04   76.18   -1.77  -25.96   -1.77  -25.96   -7.04   76.18
   19.00   -6.87   75.28   -1.85  -26.97   -1.85  -26.97   -6.87   75.28
   19.10   -6.68   75.37   -1.99  -27.89   -1.99  -27.89   -6.68   75.37
   19.20   -6.50   75.67   -2.15  -28.97   -2.15  -28.97   -6.50   75.67
   19.30   -6.20   76.77   -2.33  -30.16   -2.33  -30.16   -6.20   76.77
   19.40   -5.89   76.79   -2.59  -31.61   -2.59  -31.61   -5.89   76.79
   19.50   -5.37   76.87   -2.95  -33.01   -2.95  -33.01   -5.37   76.87
   19.60   -4.71   77.54   -3.65  -33.59   -3.65  -33.59   -4.71   77.54
   19.70   -3.83   74.86   -4.49  -30.48   -4.49  -30.48   -3.83   74.86
   19.80   -3.38   70.04   -4.71  -22.98   -4.71  -22.98   -3.38   70.04
   19.90   -3.50   63.90   -3.99  -19.30   -3.99  -19.30   -3.50   63.90
   20.00   -3.79   61.99   -3.47  -19.61   -3.47  -19.61   -3.79   61.99
