!  American Technical Ceramics  Date:   11/13/98
!  One Norden Lane
!  Huntington Station,  NY.   11746-2102
!  Tel:  (516) 622-4700               Fax:  (516) 622-4748
!  Part Number  100A0R8
!  Description: Porcelain, High Q, Low ESR
!  Application: Bypass, Coupling, Timing, Feedback
!               Tuning, Impedance Match, Blocking
# GHZ S DB R 50
! Freq   |S11|   S11 Ph  |S21|   S21 Ph  |S12|   S12 Ph  |S22|   S22 Ph
    0.05    0.06   -1.47  -32.32   89.31  -32.32   89.31    0.06   -1.47
    0.15   -0.01   -4.19  -22.83   86.18  -22.83   86.18   -0.01   -4.19
    0.25   -0.08   -7.12  -18.42   83.32  -18.42   83.32   -0.08   -7.12
    0.35   -0.11   -9.94  -15.56   80.71  -15.56   80.71   -0.11   -9.94
    0.45   -0.17  -12.50  -13.43   78.16  -13.43   78.16   -0.17  -12.50
    0.55   -0.29  -14.89  -11.65   74.15  -11.65   74.15   -0.29  -14.89
    0.65   -0.42  -17.58  -10.33   71.70  -10.33   71.70   -0.42  -17.58
    0.75   -0.67  -20.33   -9.30   69.69   -9.30   69.69   -0.67  -20.33
    0.85   -0.76  -23.90   -8.37   66.82   -8.37   66.82   -0.76  -23.90
    0.95   -0.84  -25.13   -7.48   64.65   -7.48   64.65   -0.84  -25.13
    1.05   -1.04  -27.37   -6.80   62.20   -6.80   62.20   -1.04  -27.37
    1.15   -1.17  -29.23   -6.15   60.18   -6.15   60.18   -1.17  -29.23
    1.25   -1.46  -31.56   -5.66   58.61   -5.66   58.61   -1.46  -31.56
    1.35   -1.63  -34.26   -5.19   56.21   -5.19   56.21   -1.63  -34.26
    1.45   -1.77  -35.98   -4.74   54.00   -4.74   54.00   -1.77  -35.98
    1.55   -1.95  -37.52   -4.32   52.06   -4.32   52.06   -1.95  -37.52
    1.65   -2.13  -39.08   -3.97   50.38   -3.97   50.38   -2.13  -39.08
    1.75   -2.43  -40.85   -3.68   49.08   -3.68   49.08   -2.43  -40.85
    1.85   -2.67  -43.01   -3.45   47.34   -3.45   47.34   -2.67  -43.01
    1.95   -2.86  -44.49   -3.17   45.43   -3.17   45.43   -2.86  -44.49
    2.05   -3.06  -45.77   -2.94   43.85   -2.94   43.85   -3.06  -45.77
    2.14   -3.28  -46.74   -2.70   42.41   -2.70   42.41   -3.28  -46.74
    2.24   -3.56  -48.41   -2.52   41.22   -2.52   41.22   -3.56  -48.41
    2.34   -3.83  -50.17   -2.35   39.82   -2.35   39.82   -3.83  -50.17
    2.44   -4.04  -51.45   -2.19   38.37   -2.19   38.37   -4.04  -51.45
    2.54   -4.28  -52.20   -2.02   36.95   -2.02   36.95   -4.28  -52.20
    2.64   -4.51  -53.20   -1.90   35.86   -1.90   35.86   -4.51  -53.20
    2.74   -4.84  -54.50   -1.77   34.52   -1.77   34.52   -4.84  -54.50
    2.84   -5.08  -56.15   -1.67   33.38   -1.67   33.38   -5.08  -56.15
    2.94   -5.34  -57.03   -1.56   32.03   -1.56   32.03   -5.34  -57.03
    3.04   -5.59  -57.66   -1.45   30.94   -1.45   30.94   -5.59  -57.66
    3.14   -5.84  -58.33   -1.38   29.96   -1.38   29.96   -5.84  -58.33
    3.24   -6.19  -59.11   -1.32   28.83   -1.32   28.83   -6.19  -59.11
    3.34   -6.48  -60.46   -1.26   27.76   -1.26   27.76   -6.48  -60.46
    3.44   -6.75  -61.18   -1.20   26.66   -1.20   26.66   -6.75  -61.18
    3.54   -6.96  -61.72   -1.13   25.68   -1.13   25.68   -6.96  -61.72
    3.64   -7.18  -61.78   -1.09   25.01   -1.09   25.01   -7.18  -61.78
    3.74   -7.53  -62.35   -1.06   24.14   -1.06   24.14   -7.53  -62.35
    3.84   -7.80  -63.49   -1.04   23.26   -1.04   23.26   -7.80  -63.49
    3.94   -8.05  -64.24   -1.01   22.29   -1.01   22.29   -8.05  -64.24
    4.04   -8.12  -66.36   -0.80   21.59   -0.80   21.59   -8.12  -66.36
    4.14   -8.31  -66.57   -0.74   21.04   -0.74   21.04   -8.31  -66.57
    4.24   -8.62  -66.85   -0.74   20.51   -0.74   20.51   -8.62  -66.85
    4.34   -8.90  -68.43   -0.71   19.69   -0.71   19.69   -8.90  -68.43
    4.44   -9.11  -68.85   -0.69   18.93   -0.69   18.93   -9.11  -68.85
    4.54   -9.31  -69.55   -0.64   18.10   -0.64   18.10   -9.31  -69.55
    4.64   -9.45  -69.43   -0.59   17.61   -0.59   17.61   -9.45  -69.43
    4.74   -9.75  -69.53   -0.60   17.29   -0.60   17.29   -9.75  -69.53
    4.84   -9.93  -70.67   -0.59   16.73   -0.59   16.73   -9.93  -70.67
    4.94  -10.17  -70.82   -0.57   16.11   -0.57   16.11  -10.17  -70.82
    5.04  -10.42  -71.60   -0.56   15.35   -0.56   15.35  -10.42  -71.60
    5.14  -10.50  -71.82   -0.50   14.93   -0.50   14.93  -10.50  -71.82
    5.24  -10.77  -72.14   -0.50   14.59   -0.50   14.59  -10.77  -72.14
    5.34  -10.96  -72.75   -0.49   14.12   -0.49   14.12  -10.96  -72.75
    5.44  -11.31  -72.84   -0.50   13.62   -0.50   13.62  -11.31  -72.84
    5.54  -11.47  -73.50   -0.48   13.09   -0.48   13.09  -11.47  -73.50
    5.64  -11.58  -73.85   -0.46   12.68   -0.46   12.68  -11.58  -73.85
    5.74  -11.77  -74.13   -0.44   12.44   -0.44   12.44  -11.77  -74.13
    5.84  -12.13  -74.77   -0.45   12.03   -0.45   12.03  -12.13  -74.77
    5.94  -12.33  -75.08   -0.42   11.63   -0.42   11.63  -12.33  -75.08
    6.04  -12.60  -75.86   -0.43   11.24   -0.43   11.24  -12.60  -75.86
    6.13  -12.67  -76.16   -0.39   10.76   -0.39   10.76  -12.67  -76.16
    6.23  -13.04  -76.03   -0.39   10.56   -0.39   10.56  -13.04  -76.03
    6.33  -13.36  -77.22   -0.38   10.12   -0.38   10.12  -13.36  -77.22
    6.43  -13.69  -77.95   -0.37    9.74   -0.37    9.74  -13.69  -77.95
    6.53  -13.97  -78.12   -0.36    9.32   -0.36    9.32  -13.97  -78.12
    6.63  -14.27  -77.97   -0.34    8.88   -0.34    8.88  -14.27  -77.97
    6.73  -14.67  -77.54   -0.33    8.59   -0.33    8.59  -14.67  -77.54
    6.83  -15.17  -78.27   -0.36    8.24   -0.36    8.24  -15.17  -78.27
    6.93  -15.42  -77.71   -0.34    7.84   -0.34    7.84  -15.42  -77.71
    7.03  -15.85  -76.82   -0.35    7.56   -0.35    7.56  -15.85  -76.82
    7.13  -16.11  -76.37   -0.34    7.14   -0.34    7.14  -16.11  -76.37
    7.23  -16.63  -75.67   -0.34    6.88   -0.34    6.88  -16.63  -75.67
    7.33  -17.07  -74.94   -0.35    6.56   -0.35    6.56  -17.07  -74.94
    7.43  -17.55  -74.05   -0.37    6.22   -0.37    6.22  -17.55  -74.05
    7.53  -17.91  -71.87   -0.36    5.92   -0.36    5.92  -17.91  -71.87
    7.63  -18.38  -70.64   -0.37    5.72   -0.37    5.72  -18.38  -70.64
    7.73  -18.77  -68.17   -0.36    5.41   -0.36    5.41  -18.77  -68.17
    7.83  -19.30  -67.43   -0.38    5.29   -0.38    5.29  -19.30  -67.43
    7.93  -19.74  -65.69   -0.38    4.97   -0.38    4.97  -19.74  -65.69
    8.03  -20.39  -63.66   -0.37    4.77   -0.37    4.77  -20.39  -63.66
    8.13  -20.89  -61.35   -0.36    4.45   -0.36    4.45  -20.89  -61.35
    8.23  -21.60  -58.64   -0.35    4.23   -0.35    4.23  -21.60  -58.64
    8.33  -22.37  -56.02   -0.34    3.99   -0.34    3.99  -22.37  -56.02
    8.43  -23.21  -53.70   -0.33    3.77   -0.33    3.77  -23.21  -53.70
    8.53  -24.18  -49.02   -0.32    3.34   -0.32    3.34  -24.18  -49.02
    8.63  -25.02  -43.52   -0.32    3.10   -0.32    3.10  -25.02  -43.52
    8.73  -25.97  -36.04   -0.31    2.68   -0.31    2.68  -25.97  -36.04
    8.83  -26.77  -28.90   -0.31    2.42   -0.31    2.42  -26.77  -28.90
    8.93  -27.38  -19.94   -0.32    2.10   -0.32    2.10  -27.38  -19.94
    9.03  -27.65  -11.67   -0.33    1.86   -0.33    1.86  -27.65  -11.67
    9.13  -27.89   -3.42   -0.34    1.69   -0.34    1.69  -27.89   -3.42
    9.23  -28.14    5.66   -0.33    1.40   -0.33    1.40  -28.14    5.66
    9.33  -28.07   13.10   -0.33    1.18   -0.33    1.18  -28.07   13.10
    9.43  -28.13   19.33   -0.33    0.99   -0.33    0.99  -28.13   19.33
    9.53  -28.13   26.81   -0.33    0.78   -0.33    0.78  -28.13   26.81
    9.63  -27.77   34.15   -0.33    0.54   -0.33    0.54  -27.77   34.15
    9.73  -27.59   39.24   -0.32    0.33   -0.32    0.33  -27.59   39.24
    9.83  -27.40   45.28   -0.31    0.13   -0.31    0.13  -27.40   45.28
    9.93  -27.15   49.92   -0.31   -0.04   -0.31   -0.04  -27.15   49.92
   10.03  -26.85   54.01   -0.31   -0.29   -0.31   -0.29  -26.85   54.01
   10.12  -26.56   58.41   -0.30   -0.48   -0.30   -0.48  -26.56   58.41
   10.22  -26.30   62.93   -0.30   -0.73   -0.30   -0.73  -26.30   62.93
   10.32  -26.02   66.95   -0.28   -0.93   -0.28   -0.93  -26.02   66.95
   10.42  -25.79   70.37   -0.28   -1.15   -0.28   -1.15  -25.79   70.37
   10.52  -25.37   73.85   -0.27   -1.34   -0.27   -1.34  -25.37   73.85
   10.62  -24.92   77.60   -0.26   -1.56   -0.26   -1.56  -24.92   77.60
   10.72  -24.41   79.58   -0.26   -1.88   -0.26   -1.88  -24.41   79.58
   10.82  -23.98   81.58   -0.25   -2.16   -0.25   -2.16  -23.98   81.58
   10.92  -23.58   82.23   -0.25   -2.37   -0.25   -2.37  -23.58   82.23
   11.02  -23.27   83.33   -0.24   -2.64   -0.24   -2.64  -23.27   83.33
   11.12  -22.89   84.44   -0.25   -2.90   -0.25   -2.90  -22.89   84.44
   11.22  -22.49   85.58   -0.24   -3.21   -0.24   -3.21  -22.49   85.58
   11.32  -22.17   85.75   -0.23   -3.44   -0.23   -3.44  -22.17   85.75
   11.42  -21.95   86.05   -0.23   -3.71   -0.23   -3.71  -21.95   86.05
   11.52  -21.59   86.08   -0.24   -3.94   -0.24   -3.94  -21.59   86.08
   11.62  -21.23   86.88   -0.24   -4.26   -0.24   -4.26  -21.23   86.88
   11.72  -20.88   86.77   -0.25   -4.52   -0.25   -4.52  -20.88   86.77
   11.82  -20.59   87.40   -0.24   -4.84   -0.24   -4.84  -20.59   87.40
   11.92  -20.34   86.53   -0.24   -5.04   -0.24   -5.04  -20.34   86.53
   12.02  -19.92   86.28   -0.25   -5.37   -0.25   -5.37  -19.92   86.28
   12.12  -19.49   86.02   -0.26   -5.59   -0.26   -5.59  -19.49   86.02
   12.22  -19.13   86.12   -0.28   -5.92   -0.28   -5.92  -19.13   86.12
   12.32  -18.82   85.07   -0.28   -6.21   -0.28   -6.21  -18.82   85.07
   12.42  -18.61   83.63   -0.27   -6.57   -0.27   -6.57  -18.61   83.63
   12.52  -18.17   82.89   -0.27   -6.71   -0.27   -6.71  -18.17   82.89
   12.62  -17.89   82.84   -0.28   -7.02   -0.28   -7.02  -17.89   82.84
   12.72  -17.49   82.52   -0.29   -7.32   -0.29   -7.32  -17.49   82.52
   12.82  -17.30   81.36   -0.31   -7.73   -0.31   -7.73  -17.30   81.36
   12.92  -16.86   80.05   -0.30   -8.07   -0.30   -8.07  -16.86   80.05
   13.02  -16.59   79.80   -0.31   -8.35   -0.31   -8.35  -16.59   79.80
   13.12  -16.14   79.48   -0.33   -8.47   -0.33   -8.47  -16.14   79.48
   13.22  -15.83   79.70   -0.36   -8.88   -0.36   -8.88  -15.83   79.70
   13.32  -15.45   78.07   -0.38   -9.27   -0.38   -9.27  -15.45   78.07
   13.42  -15.09   77.30   -0.38   -9.74   -0.38   -9.74  -15.09   77.30
   13.52  -14.68   76.83   -0.37   -9.92   -0.37   -9.92  -14.68   76.83
   13.62  -14.31   77.20   -0.40  -10.12   -0.40  -10.12  -14.31   77.20
   13.72  -13.85   76.50   -0.44  -10.43   -0.44  -10.43  -13.85   76.50
   13.82  -13.54   76.20   -0.49  -10.90   -0.49  -10.90  -13.54   76.20
   13.92  -13.16   74.95   -0.49  -11.33   -0.49  -11.33  -13.16   74.95
   14.02  -12.85   74.52   -0.50  -11.68   -0.50  -11.68  -12.85   74.52
   14.11  -12.42   73.83   -0.52  -11.81   -0.52  -11.81  -12.42   73.83
   14.21  -12.06   75.22   -0.57  -11.86   -0.57  -11.86  -12.06   75.22
   14.31  -11.76   74.78   -0.59  -12.27   -0.59  -12.27  -11.76   74.78
   14.41  -11.53   74.21   -0.63  -12.70   -0.63  -12.70  -11.53   74.21
   14.51  -11.27   73.57   -0.65  -13.01   -0.65  -13.01  -11.27   73.57
   14.61  -10.91   73.68   -0.68  -13.32   -0.68  -13.32  -10.91   73.68
   14.71  -10.58   74.64   -0.70  -13.41   -0.70  -13.41  -10.58   74.64
   14.81  -10.36   74.74   -0.74  -13.71   -0.74  -13.71  -10.36   74.74
   14.91  -10.16   74.87   -0.77  -13.89   -0.77  -13.89  -10.16   74.87
   15.01  -10.07   74.27   -0.83  -14.26   -0.83  -14.26  -10.07   74.27
   15.11   -9.81   75.00   -0.85  -14.31   -0.85  -14.31   -9.81   75.00
   15.21   -9.58   75.46   -0.87  -14.50   -0.87  -14.50   -9.58   75.46
   15.31   -9.44   76.61   -0.89  -14.48   -0.89  -14.48   -9.44   76.61
   15.41   -9.27   75.97   -0.93  -14.79   -0.93  -14.79   -9.27   75.97
   15.51   -9.19   76.25   -0.94  -14.81   -0.94  -14.81   -9.19   76.25
   15.61   -9.07   76.03   -0.98  -14.92   -0.98  -14.92   -9.07   76.03
   15.71   -8.92   77.40   -0.98  -14.92   -0.98  -14.92   -8.92   77.40
   15.81   -8.80   77.38   -1.00  -15.07   -1.00  -15.07   -8.80   77.38
   15.91   -8.68   77.69   -1.00  -15.18   -1.00  -15.18   -8.68   77.69
   16.01   -8.73   76.85   -1.04  -15.22   -1.04  -15.22   -8.73   76.85
   16.11   -8.67   77.13   -1.05  -15.25   -1.05  -15.25   -8.67   77.13
   16.21   -8.61   77.57   -1.06  -15.46   -1.06  -15.46   -8.61   77.57
   16.31   -8.53   78.07   -1.04  -15.61   -1.04  -15.61   -8.53   78.07
   16.41   -8.49   78.18   -1.03  -15.78   -1.03  -15.78   -8.49   78.18
   16.51   -8.52   77.97   -1.04  -15.84   -1.04  -15.84   -8.52   77.97
   16.61   -8.49   78.18   -1.04  -15.96   -1.04  -15.96   -8.49   78.18
   16.71   -8.56   78.44   -1.05  -16.00   -1.05  -16.00   -8.56   78.44
   16.81   -8.46   78.18   -1.06  -16.55   -1.06  -16.55   -8.46   78.18
   16.91   -8.51   78.54   -1.04  -16.56   -1.04  -16.56   -8.51   78.54
   17.01   -8.49   78.59   -1.03  -17.02   -1.03  -17.02   -8.49   78.59
   17.11   -8.67   78.69   -1.04  -17.07   -1.04  -17.07   -8.67   78.69
   17.21   -8.66   78.83   -1.11  -17.55   -1.11  -17.55   -8.66   78.83
   17.31   -8.72   79.21   -1.08  -17.57   -1.08  -17.57   -8.72   79.21
   17.41   -8.63   79.43   -1.09  -18.08   -1.09  -18.08   -8.63   79.43
   17.51   -8.74   79.81   -1.08  -18.30   -1.08  -18.30   -8.74   79.81
   17.61   -8.71   79.80   -1.15  -18.76   -1.15  -18.76   -8.71   79.80
   17.71   -8.74   79.56   -1.15  -18.72   -1.15  -18.72   -8.74   79.56
   17.81   -8.60   79.40   -1.14  -19.38   -1.14  -19.38   -8.60   79.40
   17.91   -8.65   79.29   -1.13  -19.95   -1.13  -19.95   -8.65   79.29
   18.01   -8.61   78.64   -1.15  -20.18   -1.15  -20.18   -8.61   78.64
   18.10   -8.67   77.88   -1.15  -20.80   -1.15  -20.80   -8.67   77.88
   18.20   -8.53   77.63   -1.23  -20.98   -1.23  -20.98   -8.53   77.63
   18.30   -8.47   77.15   -1.22  -21.80   -1.22  -21.80   -8.47   77.15
   18.40   -8.46   76.83   -1.27  -22.36   -1.27  -22.36   -8.46   76.83
   18.50   -8.46   75.62   -1.30  -23.07   -1.30  -23.07   -8.46   75.62
   18.60   -8.32   74.99   -1.37  -23.44   -1.37  -23.44   -8.32   74.99
   18.70   -8.22   74.53   -1.42  -24.06   -1.42  -24.06   -8.22   74.53
   18.80   -8.07   74.32   -1.48  -24.64   -1.48  -24.64   -8.07   74.32
   18.90   -7.98   73.75   -1.54  -25.21   -1.54  -25.21   -7.98   73.75
   19.00   -7.83   72.65   -1.59  -25.95   -1.59  -25.95   -7.83   72.65
   19.10   -7.66   72.27   -1.67  -26.47   -1.67  -26.47   -7.66   72.27
   19.20   -7.52   72.04   -1.77  -27.11   -1.77  -27.11   -7.52   72.04
   19.30   -7.32   72.22   -1.84  -27.73   -1.84  -27.73   -7.32   72.22
   19.40   -7.20   71.51   -1.93  -28.57   -1.93  -28.57   -7.20   71.51
   19.50   -6.97   70.79   -2.00  -29.38   -2.00  -29.38   -6.97   70.79
   19.60   -6.88   71.64   -2.14  -30.19   -2.14  -30.19   -6.88   71.64
   19.70   -6.62   72.08   -2.27  -31.10   -2.27  -31.10   -6.62   72.08
   19.80   -6.44   73.83   -2.50  -32.23   -2.50  -32.23   -6.44   73.83
   19.90   -6.07   74.16   -2.76  -33.51   -2.76  -33.51   -6.07   74.16
   20.00   -5.54   75.54   -3.24  -34.27   -3.24  -34.27   -5.54   75.54
