!  American Technical Ceramics  Date:    3/13/98
!  One Norden Lane
!  Huntington Station,  NY.   11746-2102
!  Tel:  (516) 547-5700               Fax:  (516) 547-5748
!  Part Number  100b5r6b
!  Description: Porcelain, High Q, Low ESR
!  Application: Bypass, Coupling, Timing, Feedback
!               Tuning, Impedance Match, Blocking
# GHZ S DB R 50
! Freq   |S11|   S11 Ph  |S21|   S21 Ph  |S12|   S12 Ph  |S22|   S22 Ph
    0.05    0.06  -10.23  -15.55   78.63  -15.55   78.63    0.06  -10.23
    0.14   -0.82  -26.68   -7.26   63.42   -7.26   63.42   -0.82  -26.68
    0.23   -2.02  -39.95   -4.16   50.75   -4.16   50.75   -2.02  -39.95
    0.32   -3.31  -50.03   -2.60   41.07   -2.60   41.07   -3.31  -50.03
    0.41   -4.60  -57.40   -1.78   34.11   -1.78   34.11   -4.60  -57.40
    0.50   -5.73  -62.86   -1.30   28.75   -1.30   28.75   -5.73  -62.86
    0.59   -6.94  -67.80   -0.99   23.92   -0.99   23.92   -6.94  -67.80
    0.68   -7.86  -71.37   -0.80   20.90   -0.80   20.90   -7.86  -71.37
    0.77   -8.65  -74.37   -0.65   18.29   -0.65   18.29   -8.65  -74.37
    0.86   -9.37  -76.84   -0.56   16.18   -0.56   16.18   -9.37  -76.84
    0.95   -9.95  -79.04   -0.48   14.28   -0.48   14.28   -9.95  -79.04
    1.04  -10.44  -81.10   -0.45   12.74   -0.45   12.74  -10.44  -81.10
    1.13  -10.90  -82.90   -0.39   11.39   -0.39   11.39  -10.90  -82.90
    1.22  -11.28  -84.09   -0.36   10.40   -0.36   10.40  -11.28  -84.09
    1.31  -11.65  -85.70   -0.32    9.28   -0.32    9.28  -11.65  -85.70
    1.40  -11.94  -86.98   -0.29    8.27   -0.29    8.27  -11.94  -86.98
    1.49  -12.21  -88.44   -0.27    7.47   -0.27    7.47  -12.21  -88.44
    1.58  -12.42  -90.11   -0.25    6.72   -0.25    6.72  -12.42  -90.11
    1.67  -12.66  -91.28   -0.28    6.04   -0.28    6.04  -12.66  -91.28
    1.76  -12.84  -92.08   -0.26    5.38   -0.26    5.38  -12.84  -92.08
    1.85  -12.95  -93.49   -0.25    4.84   -0.25    4.84  -12.95  -93.49
    1.93  -13.16  -93.96   -0.25    4.27   -0.25    4.27  -13.16  -93.96
    2.02  -13.21  -94.99   -0.24    3.54   -0.24    3.54  -13.21  -94.99
    2.11  -13.29  -95.73   -0.26    3.03   -0.26    3.03  -13.29  -95.73
    2.20  -13.35  -96.72   -0.25    2.68   -0.25    2.68  -13.35  -96.72
    2.29  -13.37  -97.55   -0.25    2.01   -0.25    2.01  -13.37  -97.55
    2.38  -13.38  -98.23   -0.26    1.76   -0.26    1.76  -13.38  -98.23
    2.47  -13.43  -99.10   -0.23    1.27   -0.23    1.27  -13.43  -99.10
    2.56  -13.46  -99.23   -0.21    0.84   -0.21    0.84  -13.46  -99.23
    2.65  -13.45  -99.86   -0.25    0.49   -0.25    0.49  -13.45  -99.86
    2.74  -13.43 -100.82   -0.24    0.17   -0.24    0.17  -13.43 -100.82
    2.83  -13.46 -101.48   -0.24   -0.21   -0.24   -0.21  -13.46 -101.48
    2.92  -13.43 -102.67   -0.24   -0.52   -0.24   -0.52  -13.43 -102.67
    3.01  -13.42 -102.98   -0.27   -1.09   -0.27   -1.09  -13.42 -102.98
    3.10  -13.47 -103.93   -0.27   -1.28   -0.27   -1.28  -13.47 -103.93
    3.19  -13.40 -103.75   -0.33   -1.72   -0.33   -1.72  -13.40 -103.75
    3.28  -13.31 -104.91   -0.25   -2.16   -0.25   -2.16  -13.31 -104.91
    3.37  -13.28 -104.21   -0.33   -2.34   -0.33   -2.34  -13.28 -104.21
    3.46  -13.24 -105.18   -0.31   -2.76   -0.31   -2.76  -13.24 -105.18
    3.55  -13.13 -105.02   -0.30   -3.03   -0.30   -3.03  -13.13 -105.02
    3.64  -13.06 -105.79   -0.29   -3.16   -0.29   -3.16  -13.06 -105.79
    3.73  -13.03 -105.11   -0.34   -3.64   -0.34   -3.64  -13.03 -105.11
    3.82  -13.04 -106.33   -0.32   -3.77   -0.32   -3.77  -13.04 -106.33
    3.91  -12.93 -106.45   -0.36   -3.98   -0.36   -3.98  -12.93 -106.45
    4.00  -13.04 -108.60   -0.31   -4.43   -0.31   -4.43  -13.04 -108.60
    4.09  -13.05 -108.76   -0.32   -4.67   -0.32   -4.67  -13.05 -108.76
    4.18  -13.08 -109.94   -0.33   -4.97   -0.33   -4.97  -13.08 -109.94
    4.27  -12.92 -110.33   -0.33   -5.06   -0.33   -5.06  -12.92 -110.33
    4.36  -13.07 -110.44   -0.36   -5.50   -0.36   -5.50  -13.07 -110.44
    4.45  -13.02 -110.84   -0.35   -5.66   -0.35   -5.66  -13.02 -110.84
    4.54  -13.07 -110.98   -0.37   -6.12   -0.37   -6.12  -13.07 -110.98
    4.63  -13.03 -111.07   -0.34   -6.38   -0.34   -6.38  -13.03 -111.07
    4.72  -13.14 -110.01   -0.38   -6.67   -0.38   -6.67  -13.14 -110.01
    4.81  -13.15 -110.65   -0.38   -6.79   -0.38   -6.79  -13.15 -110.65
    4.90  -13.22 -110.42   -0.38   -7.01   -0.38   -7.01  -13.22 -110.42
    4.99  -13.22 -111.41   -0.33   -7.22   -0.33   -7.22  -13.22 -111.41
    5.08  -13.35 -110.66   -0.38   -7.36   -0.38   -7.36  -13.35 -110.66
    5.17  -13.50 -111.95   -0.38   -7.83   -0.38   -7.83  -13.50 -111.95
    5.26  -13.63 -111.77   -0.36   -7.95   -0.36   -7.95  -13.63 -111.77
    5.35  -13.67 -112.04   -0.36   -7.96   -0.36   -7.96  -13.67 -112.04
    5.44  -13.98 -111.14   -0.40   -8.36   -0.40   -8.36  -13.98 -111.14
    5.52  -14.02 -111.99   -0.40   -8.64   -0.40   -8.64  -14.02 -111.99
    5.61  -14.08 -111.10   -0.37   -8.66   -0.37   -8.66  -14.08 -111.10
    5.70  -14.17 -110.99   -0.39   -9.02   -0.39   -9.02  -14.17 -110.99
    5.79  -14.40 -111.28   -0.39   -9.32   -0.39   -9.32  -14.40 -111.28
    5.88  -14.50 -111.21   -0.37   -9.45   -0.37   -9.45  -14.50 -111.21
    5.97  -14.80 -110.80   -0.36   -9.82   -0.36   -9.82  -14.80 -110.80
    6.06  -15.08 -110.13   -0.38  -10.16   -0.38  -10.16  -15.08 -110.13
    6.15  -15.29 -110.75   -0.38  -10.52   -0.38  -10.52  -15.29 -110.75
    6.24  -15.47 -110.19   -0.37  -10.66   -0.37  -10.66  -15.47 -110.19
    6.33  -15.78 -110.02   -0.39  -10.94   -0.39  -10.94  -15.78 -110.02
    6.42  -16.14 -110.19   -0.40  -11.22   -0.40  -11.22  -16.14 -110.19
    6.51  -16.43 -109.79   -0.39  -11.71   -0.39  -11.71  -16.43 -109.79
    6.60  -16.76 -108.89   -0.43  -12.07   -0.43  -12.07  -16.76 -108.89
    6.69  -17.04 -106.86   -0.42  -12.30   -0.42  -12.30  -17.04 -106.86
    6.78  -17.22 -105.14   -0.47  -12.71   -0.47  -12.71  -17.22 -105.14
    6.87  -17.38 -102.69   -0.48  -12.85   -0.48  -12.85  -17.38 -102.69
    6.96  -17.57 -102.24   -0.49  -13.22   -0.49  -13.22  -17.57 -102.24
    7.05  -17.83 -100.74   -0.50  -13.27   -0.50  -13.27  -17.83 -100.74
    7.14  -17.97  -99.53   -0.53  -13.40   -0.53  -13.40  -17.97  -99.53
    7.23  -18.14  -97.84   -0.54  -13.91   -0.54  -13.91  -18.14  -97.84
    7.32  -18.17  -96.39   -0.58  -13.97   -0.58  -13.97  -18.17  -96.39
    7.41  -18.25  -95.88   -0.58  -14.23   -0.58  -14.23  -18.25  -95.88
    7.50  -18.32  -94.93   -0.56  -14.45   -0.56  -14.45  -18.32  -94.93
    7.59  -18.47  -94.97   -0.59  -14.84   -0.59  -14.84  -18.47  -94.97
    7.68  -18.86  -94.49   -0.54  -14.92   -0.54  -14.92  -18.86  -94.49
    7.77  -19.18  -94.66   -0.54  -15.21   -0.54  -15.21  -19.18  -94.66
    7.86  -19.86  -92.35   -0.51  -15.92   -0.51  -15.92  -19.86  -92.35
    7.95  -20.38  -90.62   -0.51  -16.50   -0.51  -16.50  -20.38  -90.62
    8.04  -21.16  -87.53   -0.46  -17.29   -0.46  -17.29  -21.16  -87.53
    8.13  -21.68  -82.09   -0.49  -18.11   -0.49  -18.11  -21.68  -82.09
    8.22  -22.34  -73.74   -0.49  -19.02   -0.49  -19.02  -22.34  -73.74
    8.31  -22.84  -64.06   -0.51  -19.96   -0.51  -19.96  -22.84  -64.06
    8.40  -22.98  -50.23   -0.50  -21.22   -0.50  -21.22  -22.98  -50.23
    8.49  -22.11  -31.40   -0.49  -22.84   -0.49  -22.84  -22.11  -31.40
    8.58  -20.06  -17.23   -0.57  -24.88   -0.57  -24.88  -20.06  -17.23
    8.67  -17.26   -7.72   -0.69  -27.81   -0.69  -27.81  -17.26   -7.72
    8.76  -13.89   -5.79   -0.95  -31.98   -0.95  -31.98  -13.89   -5.79
    8.85  -10.31   -8.73   -1.57  -38.00   -1.57  -38.00  -10.31   -8.73
    8.94   -6.73  -22.51   -3.33  -45.98   -3.33  -45.98   -6.73  -22.51
    9.03   -4.06  -47.60   -8.10  -40.87   -8.10  -40.87   -4.06  -47.60
    9.11   -4.01  -76.48   -7.59    4.86   -7.59    4.86   -4.01  -76.48
    9.20   -5.53  -95.64   -3.92    8.20   -3.92    8.20   -5.53  -95.64
    9.29   -7.21 -106.84   -2.37    3.24   -2.37    3.24   -7.21 -106.84
    9.38   -8.52 -113.11   -1.73   -0.33   -1.73   -0.33   -8.52 -113.11
    9.47   -9.72 -117.19   -1.42   -3.51   -1.42   -3.51   -9.72 -117.19
    9.56  -10.70 -120.62   -1.24   -5.78   -1.24   -5.78  -10.70 -120.62
    9.65  -11.59 -123.33   -1.09   -7.52   -1.09   -7.52  -11.59 -123.33
    9.74  -12.33 -126.42   -1.01   -8.75   -1.01   -8.75  -12.33 -126.42
    9.83  -12.99 -128.03   -0.96   -9.84   -0.96   -9.84  -12.99 -128.03
    9.92  -13.81 -130.74   -0.89  -11.15   -0.89  -11.15  -13.81 -130.74
   10.01  -14.34 -133.28   -0.87  -11.84   -0.87  -11.84  -14.34 -133.28
   10.10  -14.96 -135.22   -0.84  -12.51   -0.84  -12.51  -14.96 -135.22
   10.19  -15.53 -136.71   -0.85  -13.33   -0.85  -13.33  -15.53 -136.71
   10.28  -16.26 -139.29   -0.84  -14.39   -0.84  -14.39  -16.26 -139.29
   10.37  -16.78 -142.03   -0.84  -14.87   -0.84  -14.87  -16.78 -142.03
   10.46  -17.54 -143.82   -0.86  -15.64   -0.86  -15.64  -17.54 -143.82
   10.55  -18.31 -147.39   -0.89  -16.40   -0.89  -16.40  -18.31 -147.39
   10.64  -19.20 -151.12   -0.94  -16.77   -0.94  -16.77  -19.20 -151.12
   10.73  -20.16 -156.90   -0.98  -17.25   -0.98  -17.25  -20.16 -156.90
   10.82  -21.50 -160.61   -1.05  -17.26   -1.05  -17.26  -21.50 -160.61
   10.91  -22.98 -167.55   -1.02  -17.52   -1.02  -17.52  -22.98 -167.55
   11.00  -24.75 -175.35   -1.03  -17.88   -1.03  -17.88  -24.75 -175.35
   11.09  -26.35  172.08   -1.04  -18.16   -1.04  -18.16  -26.35  172.08
   11.18  -28.61  155.73   -1.04  -18.38   -1.04  -18.38  -28.61  155.73
   11.27  -30.22  131.91   -1.08  -18.64   -1.08  -18.64  -30.22  131.91
   11.36  -30.37   99.04   -1.07  -19.07   -1.07  -19.07  -30.37   99.04
   11.45  -28.65   75.49   -1.09  -19.30   -1.09  -19.30  -28.65   75.49
   11.54  -27.09   56.81   -1.10  -19.58   -1.10  -19.58  -27.09   56.81
   11.63  -25.73   49.42   -1.09  -19.96   -1.09  -19.96  -25.73   49.42
   11.72  -24.17   41.90   -1.10  -20.23   -1.10  -20.23  -24.17   41.90
   11.81  -22.85   39.09   -1.09  -20.67   -1.09  -20.67  -22.85   39.09
   11.90  -21.65   35.17   -1.06  -20.94   -1.06  -20.94  -21.65   35.17
   11.99  -20.61   34.01   -1.08  -21.26   -1.08  -21.26  -20.61   34.01
   12.08  -19.74   31.63   -1.12  -21.54   -1.12  -21.54  -19.74   31.63
   12.17  -18.91   29.34   -1.13  -22.07   -1.13  -22.07  -18.91   29.34
   12.26  -18.18   27.76   -1.11  -22.43   -1.11  -22.43  -18.18   27.76
   12.35  -17.49   26.69   -1.14  -22.93   -1.14  -22.93  -17.49   26.69
   12.44  -16.93   26.51   -1.18  -23.55   -1.18  -23.55  -16.93   26.51
   12.53  -16.16   24.32   -1.18  -23.93   -1.18  -23.93  -16.16   24.32
   12.62  -15.63   24.19   -1.23  -24.48   -1.23  -24.48  -15.63   24.19
   12.70  -14.96   22.56   -1.22  -24.63   -1.22  -24.63  -14.96   22.56
   12.79  -14.63   21.03   -1.27  -25.36   -1.27  -25.36  -14.63   21.03
   12.88  -14.08   20.06   -1.27  -25.71   -1.27  -25.71  -14.08   20.06
   12.97  -13.74   18.79   -1.34  -26.00   -1.34  -26.00  -13.74   18.79
   13.06  -13.40   18.10   -1.38  -26.56   -1.38  -26.56  -13.40   18.10
   13.15  -13.22   16.06   -1.38  -27.25   -1.38  -27.25  -13.22   16.06
   13.24  -12.84   16.69   -1.42  -27.36   -1.42  -27.36  -12.84   16.69
   13.33  -12.55   15.64   -1.48  -27.76   -1.48  -27.76  -12.55   15.64
   13.42  -12.43   15.90   -1.54  -28.34   -1.54  -28.34  -12.43   15.90
   13.51  -12.03   13.63   -1.53  -29.01   -1.53  -29.01  -12.03   13.63
   13.60  -11.87   14.69   -1.62  -29.08   -1.62  -29.08  -11.87   14.69
   13.69  -11.46   14.17   -1.69  -29.63   -1.69  -29.63  -11.46   14.17
   13.78  -11.42   12.80   -1.72  -30.72   -1.72  -30.72  -11.42   12.80
   13.87  -10.93   11.94   -1.73  -30.96   -1.73  -30.96  -10.93   11.94
   13.96  -10.73   12.60   -1.78  -30.92   -1.78  -30.92  -10.73   12.60
   14.05  -10.64   12.39   -1.87  -31.94   -1.87  -31.94  -10.64   12.39
   14.14  -10.58   11.19   -1.92  -32.82   -1.92  -32.82  -10.58   11.19
   14.23  -10.17   11.21   -1.93  -33.39   -1.93  -33.39  -10.17   11.21
   14.32   -9.93   11.68   -1.99  -33.99   -1.99  -33.99   -9.93   11.68
   14.41   -9.97   11.16   -2.15  -34.56   -2.15  -34.56   -9.97   11.16
   14.50   -9.81   10.64   -2.19  -35.38   -2.19  -35.38   -9.81   10.64
   14.59   -9.56   10.05   -2.27  -36.20   -2.27  -36.20   -9.56   10.05
   14.68   -9.34   10.58   -2.35  -36.70   -2.35  -36.70   -9.34   10.58
   14.77   -9.18   10.96   -2.52  -37.07   -2.52  -37.07   -9.18   10.96
   14.86   -8.85   10.59   -2.65  -37.96   -2.65  -37.96   -8.85   10.59
   14.95   -8.44    9.98   -2.76  -38.77   -2.76  -38.77   -8.44    9.98
   15.04   -8.18   10.52   -2.90  -38.45   -2.90  -38.45   -8.18   10.52
   15.13   -7.78    9.22   -3.01  -38.55   -3.01  -38.55   -7.78    9.22
   15.22   -7.53    6.62   -3.15  -39.77   -3.15  -39.77   -7.53    6.62
   15.31   -7.09    6.28   -3.15  -40.13   -3.15  -40.13   -7.09    6.28
   15.40   -6.87    3.90   -3.37  -41.06   -3.37  -41.06   -6.87    3.90
   15.49   -6.64    1.22   -3.52  -42.52   -3.52  -42.52   -6.64    1.22
   15.58   -6.31   -2.11   -3.79  -43.91   -3.79  -43.91   -6.31   -2.11
   15.67   -6.02   -4.80   -4.13  -45.80   -4.13  -45.80   -6.02   -4.80
   15.76   -5.63   -9.92   -4.72  -48.01   -4.72  -48.01   -5.63   -9.92
   15.85   -5.53  -17.72   -5.83  -49.43   -5.83  -49.43   -5.53  -17.72
   15.94   -5.79  -28.91   -7.69  -45.80   -7.69  -45.80   -5.79  -28.91
   16.03   -7.75  -41.92   -8.66  -24.93   -8.66  -24.93   -7.75  -41.92
   16.12  -11.53  -40.11   -6.24  -14.06   -6.24  -14.06  -11.53  -40.11
   16.21  -12.68  -23.22   -5.10  -16.80   -5.10  -16.80  -12.68  -23.22
   16.29  -13.61   -7.08   -4.35  -16.76   -4.35  -16.76  -13.61   -7.08
   16.38  -11.94    8.53   -3.61  -19.91   -3.61  -19.91  -11.94    8.53
   16.47  -10.29   10.58   -3.32  -23.60   -3.32  -23.60  -10.29   10.58
   16.56   -9.25   10.98   -3.23  -26.54   -3.23  -26.54   -9.25   10.98
   16.65   -8.49    9.80   -3.33  -28.62   -3.33  -28.62   -8.49    9.80
   16.74   -7.94    9.31   -3.38  -30.52   -3.38  -30.52   -7.94    9.31
   16.83   -7.39    7.94   -3.50  -31.07   -3.50  -31.07   -7.39    7.94
   16.92   -7.00    7.18   -3.59  -32.50   -3.59  -32.50   -7.00    7.18
   17.01   -6.56    6.09   -3.76  -33.02   -3.76  -33.02   -6.56    6.09
   17.10   -6.22    5.23   -3.74  -33.31   -3.74  -33.31   -6.22    5.23
   17.19   -5.79    4.28   -3.95  -33.51   -3.95  -33.51   -5.79    4.28
   17.28   -5.64    2.96   -3.94  -33.83   -3.94  -33.83   -5.64    2.96
   17.37   -5.36    1.78   -4.00  -34.77   -4.00  -34.77   -5.36    1.78
   17.46   -5.11    0.74   -4.06  -34.59   -4.06  -34.59   -5.11    0.74
   17.55   -4.94   -0.20   -4.13  -35.19   -4.13  -35.19   -4.94   -0.20
   17.64   -4.60   -1.40   -4.25  -35.23   -4.25  -35.23   -4.60   -1.40
   17.73   -4.66   -2.75   -4.23  -36.05   -4.23  -36.05   -4.66   -2.75
   17.82   -4.46   -3.06   -4.43  -36.01   -4.43  -36.01   -4.46   -3.06
   17.91   -4.55   -3.36   -4.48  -37.22   -4.48  -37.22   -4.55   -3.36
   18.00   -4.32   -4.88   -4.53  -37.33   -4.53  -37.33   -4.32   -4.88
