!  American Technical Ceramics  Date:    3/13/98
!  One Norden Lane
!  Huntington Station,  NY.   11746-2102
!  Tel:  (516) 547-5700               Fax:  (516) 547-5748
!  Part Number  100b1r0b
!  Description: Porcelain, High Q, Low ESR
!  Application: Bypass, Coupling, Timing, Feedback
!               Tuning, Impedance Match, Blocking
# GHZ S DB R 50
! Freq   |S11|   S11 Ph  |S21|   S21 Ph  |S12|   S12 Ph  |S22|   S22 Ph
    0.05    0.05   -1.04  -29.86   92.01  -29.86   92.01    0.05   -1.04
    0.15    0.04   -6.48  -20.36   83.99  -20.36   83.99    0.04   -6.48
    0.25   -0.08  -10.46  -16.05   79.95  -16.05   79.95   -0.08  -10.46
    0.35   -0.15  -14.68  -13.23   76.02  -13.23   76.02   -0.15  -14.68
    0.45   -0.27  -18.72  -11.18   72.20  -11.18   72.20   -0.27  -18.72
    0.55   -0.54  -23.17   -9.47   67.69   -9.47   67.69   -0.54  -23.17
    0.65   -0.74  -27.14   -8.24   64.15   -8.24   64.15   -0.74  -27.14
    0.75   -0.95  -30.75   -7.21   60.72   -7.21   60.72   -0.95  -30.75
    0.85   -1.21  -34.43   -6.39   57.49   -6.39   57.49   -1.21  -34.43
    0.95   -1.42  -37.61   -5.70   54.53   -5.70   54.53   -1.42  -37.61
    1.05   -1.65  -40.78   -5.15   51.57   -5.15   51.57   -1.65  -40.78
    1.15   -1.86  -43.83   -4.62   49.05   -4.62   49.05   -1.86  -43.83
    1.25   -2.14  -46.33   -4.15   46.67   -4.15   46.67   -2.14  -46.33
    1.35   -2.41  -49.36   -3.81   44.11   -3.81   44.11   -2.41  -49.36
    1.45   -2.66  -51.86   -3.55   41.91   -3.55   41.91   -2.66  -51.86
    1.55   -2.85  -54.41   -3.28   39.62   -3.28   39.62   -2.85  -54.41
    1.65   -3.09  -56.88   -3.00   37.48   -3.00   37.48   -3.09  -56.88
    1.75   -3.31  -59.07   -2.76   36.10   -2.76   36.10   -3.31  -59.07
    1.85   -3.59  -61.35   -2.59   34.29   -2.59   34.29   -3.59  -61.35
    1.95   -3.79  -63.12   -2.47   32.63   -2.47   32.63   -3.79  -63.12
    2.05   -3.97  -65.06   -2.35   30.85   -2.35   30.85   -3.97  -65.06
    2.14   -4.16  -66.90   -2.19   29.19   -2.19   29.19   -4.16  -66.90
    2.24   -4.37  -68.92   -2.01   28.12   -2.01   28.12   -4.37  -68.92
    2.34   -4.61  -70.93   -1.94   26.71   -1.94   26.71   -4.61  -70.93
    2.44   -4.77  -72.77   -1.86   25.51   -1.86   25.51   -4.77  -72.77
    2.54   -4.92  -74.12   -1.82   24.17   -1.82   24.17   -4.92  -74.12
    2.64   -5.07  -74.76   -1.70   22.87   -1.70   22.87   -5.07  -74.76
    2.74   -5.29  -76.54   -1.61   22.03   -1.61   22.03   -5.29  -76.54
    2.84   -5.50  -78.39   -1.57   20.66   -1.57   20.66   -5.50  -78.39
    2.94   -5.62  -80.32   -1.51   19.80   -1.51   19.80   -5.62  -80.32
    3.04   -5.70  -80.94   -1.52   18.59   -1.52   18.59   -5.70  -80.94
    3.14   -5.85  -82.42   -1.42   17.55   -1.42   17.55   -5.85  -82.42
    3.24   -5.95  -83.31   -1.41   17.03   -1.41   17.03   -5.95  -83.31
    3.34   -6.28  -85.56   -1.35   15.56   -1.35   15.56   -6.28  -85.56
    3.44   -6.26  -86.98   -1.34   15.09   -1.34   15.09   -6.26  -86.98
    3.54   -6.38  -87.47   -1.35   14.03   -1.35   14.03   -6.38  -87.47
    3.64   -6.36  -88.60   -1.25   13.39   -1.25   13.39   -6.36  -88.60
    3.74   -6.59  -89.21   -1.28   12.68   -1.28   12.68   -6.59  -89.21
    3.84   -6.77  -91.35   -1.24   11.80   -1.24   11.80   -6.77  -91.35
    3.94   -6.80  -92.01   -1.24   11.03   -1.24   11.03   -6.80  -92.01
    4.04   -6.88  -93.94   -1.18   10.44   -1.18   10.44   -6.88  -93.94
    4.14   -6.87  -94.75   -1.11    9.84   -1.11    9.84   -6.87  -94.75
    4.24   -7.00  -95.13   -1.13    9.35   -1.13    9.35   -7.00  -95.13
    4.34   -7.22  -97.09   -1.11    8.63   -1.11    8.63   -7.22  -97.09
    4.44   -7.29  -98.24   -1.10    8.11   -1.10    8.11   -7.29  -98.24
    4.54   -7.42  -98.79   -1.12    7.19   -1.12    7.19   -7.42  -98.79
    4.64   -7.44  -99.48   -1.02    6.70   -1.02    6.70   -7.44  -99.48
    4.74   -7.51  -98.99   -1.01    6.82   -1.01    6.82   -7.51  -98.99
    4.84   -7.70 -100.78   -1.03    5.89   -1.03    5.89   -7.70 -100.78
    4.94   -7.79 -101.35   -1.04    5.51   -1.04    5.51   -7.79 -101.35
    5.04   -8.01 -102.32   -1.02    4.73   -1.02    4.73   -8.01 -102.32
    5.14   -7.95 -103.19   -0.96    4.09   -0.96    4.09   -7.95 -103.19
    5.24   -8.21 -103.31   -0.94    4.11   -0.94    4.11   -8.21 -103.31
    5.34   -8.27 -104.45   -0.93    3.76   -0.93    3.76   -8.27 -104.45
    5.44   -8.63 -104.42   -0.98    3.12   -0.98    3.12   -8.63 -104.42
    5.54   -8.61 -106.09   -0.95    2.30   -0.95    2.30   -8.61 -106.09
    5.64   -8.76 -105.62   -0.93    2.07   -0.93    2.07   -8.76 -105.62
    5.74   -8.80 -107.09   -0.90    1.77   -0.90    1.77   -8.80 -107.09
    5.84   -9.01 -107.18   -0.86    1.63   -0.86    1.63   -9.01 -107.18
    5.94   -9.24 -108.99   -0.87    0.96   -0.87    0.96   -9.24 -108.99
    6.04   -9.42 -109.75   -0.85    0.34   -0.85    0.34   -9.42 -109.75
    6.13   -9.49 -110.87   -0.81   -0.10   -0.81   -0.10   -9.49 -110.87
    6.23   -9.74 -111.30   -0.83   -0.49   -0.83   -0.49   -9.74 -111.30
    6.33   -9.93 -112.19   -0.81   -0.71   -0.81   -0.71   -9.93 -112.19
    6.43  -10.26 -113.50   -0.81   -1.18   -0.81   -1.18  -10.26 -113.50
    6.53  -10.41 -114.54   -0.80   -1.94   -0.80   -1.94  -10.41 -114.54
    6.63  -10.67 -115.12   -0.80   -2.41   -0.80   -2.41  -10.67 -115.12
    6.73  -10.83 -115.64   -0.79   -2.91   -0.79   -2.91  -10.83 -115.64
    6.83  -11.23 -116.17   -0.81   -3.21   -0.81   -3.21  -11.23 -116.17
    6.93  -11.40 -116.91   -0.85   -3.63   -0.85   -3.63  -11.40 -116.91
    7.03  -11.57 -117.12   -0.84   -3.83   -0.84   -3.83  -11.57 -117.12
    7.13  -11.63 -117.72   -0.88   -4.33   -0.88   -4.33  -11.63 -117.72
    7.23  -11.91 -118.35   -0.84   -4.88   -0.84   -4.88  -11.91 -118.35
    7.33  -12.11 -118.33   -0.89   -5.03   -0.89   -5.03  -12.11 -118.33
    7.43  -12.34 -119.08   -0.92   -5.21   -0.92   -5.21  -12.34 -119.08
    7.53  -12.30 -118.58   -0.93   -5.59   -0.93   -5.59  -12.30 -118.58
    7.63  -12.37 -119.52   -0.95   -5.43   -0.95   -5.43  -12.37 -119.52
    7.73  -12.23 -120.49   -0.92   -5.98   -0.92   -5.98  -12.23 -120.49
    7.83  -12.52 -122.31   -0.88   -5.78   -0.88   -5.78  -12.52 -122.31
    7.93  -12.53 -124.45   -0.87   -6.37   -0.87   -6.37  -12.53 -124.45
    8.03  -12.80 -125.80   -0.80   -6.75   -0.80   -6.75  -12.80 -125.80
    8.13  -12.78 -126.83   -0.84   -7.16   -0.84   -7.16  -12.78 -126.83
    8.23  -13.01 -127.55   -0.82   -7.67   -0.82   -7.67  -13.01 -127.55
    8.33  -13.10 -128.91   -0.78   -7.80   -0.78   -7.80  -13.10 -128.91
    8.43  -13.25 -131.61   -0.79   -8.40   -0.79   -8.40  -13.25 -131.61
    8.53  -13.38 -133.26   -0.80   -8.78   -0.80   -8.78  -13.38 -133.26
    8.63  -13.57 -134.16   -0.80   -9.27   -0.80   -9.27  -13.57 -134.16
    8.73  -13.60 -135.70   -0.79   -9.78   -0.79   -9.78  -13.60 -135.70
    8.83  -13.83 -137.57   -0.76  -10.24   -0.76  -10.24  -13.83 -137.57
    8.93  -14.06 -140.16   -0.75  -10.72   -0.75  -10.72  -14.06 -140.16
    9.03  -14.18 -142.44   -0.77  -11.38   -0.77  -11.38  -14.18 -142.44
    9.13  -14.32 -143.12   -0.76  -11.63   -0.76  -11.63  -14.32 -143.12
    9.23  -14.43 -145.81   -0.76  -12.21   -0.76  -12.21  -14.43 -145.81
    9.33  -14.63 -147.51   -0.77  -12.72   -0.77  -12.72  -14.63 -147.51
    9.43  -14.90 -150.89   -0.78  -13.19   -0.78  -13.19  -14.90 -150.89
    9.53  -14.98 -153.44   -0.77  -13.60   -0.77  -13.60  -14.98 -153.44
    9.63  -15.23 -156.04   -0.75  -14.18   -0.75  -14.18  -15.23 -156.04
    9.73  -15.24 -158.93   -0.78  -14.51   -0.78  -14.51  -15.24 -158.93
    9.83  -15.45 -162.06   -0.76  -15.09   -0.76  -15.09  -15.45 -162.06
    9.93  -15.89 -165.98   -0.80  -15.63   -0.80  -15.63  -15.89 -165.98
   10.03  -16.01 -170.08   -0.74  -16.19   -0.74  -16.19  -16.01 -170.08
   10.12  -16.25 -173.51   -0.78  -16.70   -0.78  -16.70  -16.25 -173.51
   10.22  -16.30 -177.40   -0.79  -17.36   -0.79  -17.36  -16.30 -177.40
   10.32  -16.50  178.98   -0.82  -17.92   -0.82  -17.92  -16.50  178.98
   10.42  -16.90  173.55   -0.88  -18.37   -0.88  -18.37  -16.90  173.55
   10.52  -17.01  168.04   -0.90  -19.17   -0.90  -19.17  -17.01  168.04
   10.62  -17.14  163.19   -0.93  -19.81   -0.93  -19.81  -17.14  163.19
   10.72  -17.21  156.06   -1.00  -20.21   -1.00  -20.21  -17.21  156.06
   10.82  -17.34  150.32   -1.02  -20.34   -1.02  -20.34  -17.34  150.32
   10.92  -17.62  142.43   -1.09  -20.76   -1.09  -20.76  -17.62  142.43
   11.02  -17.67  135.36   -1.10  -21.12   -1.10  -21.12  -17.67  135.36
   11.12  -17.67  127.21   -1.11  -21.41   -1.11  -21.41  -17.67  127.21
   11.22  -17.45  120.37   -1.12  -21.62   -1.12  -21.62  -17.45  120.37
   11.32  -17.50  112.62   -1.16  -21.93   -1.16  -21.93  -17.50  112.62
   11.42  -17.34  104.25   -1.14  -22.54   -1.14  -22.54  -17.34  104.25
   11.52  -17.32   96.77   -1.18  -22.76   -1.18  -22.76  -17.32   96.77
   11.62  -17.19   92.08   -1.16  -23.17   -1.16  -23.17  -17.19   92.08
   11.72  -16.93   86.37   -1.19  -23.28   -1.19  -23.28  -16.93   86.37
   11.82  -16.58   82.04   -1.20  -24.15   -1.20  -24.15  -16.58   82.04
   11.92  -16.40   76.38   -1.16  -24.30   -1.16  -24.30  -16.40   76.38
   12.02  -15.88   72.43   -1.20  -24.84   -1.20  -24.84  -15.88   72.43
   12.12  -15.47   68.60   -1.21  -25.26   -1.21  -25.26  -15.47   68.60
   12.22  -15.00   65.97   -1.24  -25.73   -1.24  -25.73  -15.00   65.97
   12.32  -14.59   62.00   -1.24  -26.35   -1.24  -26.35  -14.59   62.00
   12.42  -14.34   59.16   -1.25  -27.20   -1.25  -27.20  -14.34   59.16
   12.52  -13.85   54.80   -1.28  -27.58   -1.28  -27.58  -13.85   54.80
   12.62  -13.40   53.24   -1.33  -28.28   -1.33  -28.28  -13.40   53.24
   12.72  -12.92   50.21   -1.34  -28.58   -1.34  -28.58  -12.92   50.21
   12.82  -12.68   48.29   -1.43  -29.27   -1.43  -29.27  -12.68   48.29
   12.92  -12.33   44.10   -1.41  -30.01   -1.41  -30.01  -12.33   44.10
   13.02  -12.13   42.28   -1.44  -30.51   -1.44  -30.51  -12.13   42.28
   13.12  -11.81   40.10   -1.48  -30.98   -1.48  -30.98  -11.81   40.10
   13.22  -11.67   39.43   -1.56  -31.78   -1.56  -31.78  -11.67   39.43
   13.32  -11.38   36.87   -1.64  -32.54   -1.64  -32.54  -11.38   36.87
   13.42  -11.41   35.24   -1.75  -33.04   -1.75  -33.04  -11.41   35.24
   13.52  -11.02   33.55   -1.65  -33.40   -1.65  -33.40  -11.02   33.55
   13.62  -10.80   34.81   -1.76  -33.70   -1.76  -33.70  -10.80   34.81
   13.72  -10.45   32.18   -1.79  -34.67   -1.79  -34.67  -10.45   32.18
   13.82  -10.27   32.00   -1.92  -35.19   -1.92  -35.19  -10.27   32.00
   13.92  -10.25   29.48   -1.97  -36.16   -1.97  -36.16  -10.25   29.48
   14.02  -10.11   28.19   -1.98  -36.72   -1.98  -36.72  -10.11   28.19
   14.11   -9.86   26.80   -2.05  -37.33   -2.05  -37.33   -9.86   26.80
   14.21   -9.58   27.73   -2.11  -37.71   -2.11  -37.71   -9.58   27.73
   14.31   -9.42   28.01   -2.19  -38.46   -2.19  -38.46   -9.42   28.01
   14.41   -9.40   25.97   -2.29  -39.11   -2.29  -39.11   -9.40   25.97
   14.51   -9.29   25.21   -2.32  -39.88   -2.32  -39.88   -9.29   25.21
   14.61   -9.20   24.59   -2.48  -40.70   -2.48  -40.70   -9.20   24.59
   14.71   -8.82   24.15   -2.53  -41.35   -2.53  -41.35   -8.82   24.15
   14.81   -8.56   24.40   -2.61  -41.87   -2.61  -41.87   -8.56   24.40
   14.91   -8.37   24.10   -2.72  -42.21   -2.72  -42.21   -8.37   24.10
   15.01   -8.33   22.24   -2.87  -42.85   -2.87  -42.85   -8.33   22.24
   15.11   -8.07   21.50   -3.00  -43.33   -3.00  -43.33   -8.07   21.50
   15.21   -7.91   19.73   -3.10  -43.62   -3.10  -43.62   -7.91   19.73
   15.31   -7.48   19.71   -3.07  -43.87   -3.07  -43.87   -7.48   19.71
   15.41   -7.42   17.99   -3.18  -44.13   -3.18  -44.13   -7.42   17.99
   15.51   -7.31   16.75   -3.18  -44.74   -3.18  -44.74   -7.31   16.75
   15.61   -7.20   14.64   -3.29  -44.95   -3.29  -44.95   -7.20   14.64
   15.71   -7.00   14.53   -3.37  -45.41   -3.37  -45.41   -7.00   14.53
   15.81   -6.83   12.76   -3.43  -46.23   -3.43  -46.23   -6.83   12.76
   15.91   -6.69   11.84   -3.46  -46.94   -3.46  -46.94   -6.69   11.84
   16.01   -6.70    9.96   -3.59  -47.23   -3.59  -47.23   -6.70    9.96
   16.11   -6.51    8.57   -3.71  -47.99   -3.71  -47.99   -6.51    8.57
   16.21   -6.41    7.86   -3.79  -48.34   -3.79  -48.34   -6.41    7.86
   16.31   -6.09    6.94   -3.81  -49.30   -3.81  -49.30   -6.09    6.94
   16.41   -5.97    5.80   -3.88  -49.99   -3.88  -49.99   -5.97    5.80
   16.51   -5.80    3.73   -3.97  -50.85   -3.97  -50.85   -5.80    3.73
   16.61   -5.65    2.70   -4.14  -51.67   -4.14  -51.67   -5.65    2.70
   16.71   -5.49    2.23   -4.22  -51.92   -4.22  -51.92   -5.49    2.23
   16.81   -5.22    1.07   -4.51  -53.03   -4.51  -53.03   -5.22    1.07
   16.91   -5.10    0.06   -4.62  -53.79   -4.62  -53.79   -5.10    0.06
   17.01   -4.89   -0.76   -4.88  -54.26   -4.88  -54.26   -4.89   -0.76
   17.11   -4.76   -2.02   -4.95  -54.23   -4.95  -54.23   -4.76   -2.02
   17.21   -4.46   -2.36   -5.25  -53.63   -5.25  -53.63   -4.46   -2.36
   17.31   -4.30   -4.30   -5.32  -53.99   -5.32  -53.99   -4.30   -4.30
   17.41   -4.07   -5.12   -5.41  -54.50   -5.41  -54.50   -4.07   -5.12
   17.51   -3.98   -7.36   -5.47  -54.61   -5.47  -54.61   -3.98   -7.36
   17.61   -3.81   -7.48   -5.71  -54.27   -5.71  -54.27   -3.81   -7.48
   17.71   -3.78  -10.09   -5.65  -54.44   -5.65  -54.44   -3.78  -10.09
   17.81   -3.52  -10.43   -5.79  -55.12   -5.79  -55.12   -3.52  -10.43
   17.91   -3.74  -11.85   -5.97  -56.20   -5.97  -56.20   -3.74  -11.85
   18.01   -3.44  -13.82   -5.98  -56.44   -5.98  -56.44   -3.44  -13.82
   18.10   -3.65  -14.47   -6.18  -57.67   -6.18  -57.67   -3.65  -14.47
   18.20   -3.30  -15.83   -6.27  -57.11   -6.27  -57.11   -3.30  -15.83
   18.30   -3.36  -16.42   -6.49  -57.96   -6.49  -57.96   -3.36  -16.42
   18.40   -3.38  -17.85   -6.70  -58.83   -6.70  -58.83   -3.38  -17.85
   18.50   -3.38  -19.99   -6.83  -59.14   -6.83  -59.14   -3.38  -19.99
   18.60   -3.34  -21.75   -6.99  -59.78   -6.99  -59.78   -3.34  -21.75
   18.70   -3.32  -22.99   -7.16  -59.93   -7.16  -59.93   -3.32  -22.99
   18.80   -3.15  -24.64   -7.23  -60.06   -7.23  -60.06   -3.15  -24.64
   18.90   -3.31  -27.64   -7.37  -61.13   -7.37  -61.13   -3.31  -27.64
   19.00   -3.40  -31.91   -7.39  -62.21   -7.39  -62.21   -3.40  -31.91
   19.10   -3.70  -35.10   -7.40  -64.27   -7.40  -64.27   -3.70  -35.10
   19.20   -4.39  -39.82   -7.53  -67.83   -7.53  -67.83   -4.39  -39.82
   19.30   -5.56  -44.15   -8.11  -70.44   -8.11  -70.44   -5.56  -44.15
   19.40   -7.64  -37.93   -8.17  -71.73   -8.17  -71.73   -7.64  -37.93
   19.50   -9.13  -29.46   -8.40  -79.52   -8.40  -79.52   -9.13  -29.46
   19.60   -8.48   -1.29  -10.24  -86.56  -10.24  -86.56   -8.48   -1.29
   19.70   -5.33   -0.20  -12.44  -80.82  -12.44  -80.82   -5.33   -0.20
   19.80   -3.78   -3.00  -12.77  -70.63  -12.77  -70.63   -3.78   -3.00
   19.90   -3.02   -9.55  -12.56  -67.52  -12.56  -67.52   -3.02   -9.55
   20.00   -2.61  -13.73  -12.43  -66.46  -12.43  -66.46   -2.61  -13.73
