!  American Technical Ceramics  Date:    3/13/98
!  One Norden Lane
!  Huntington Station,  NY.   11746-2102
!  Tel:  (516) 547-5700               Fax:  (516) 547-5748
!  Part Number  100b3r9c
!  Description: Porcelain, High Q, Low ESR
!  Application: Bypass, Coupling, Timing, Feedback
!               Tuning, Impedance Match, Blocking
# GHZ S DB R 50
! Freq   |S11|   S11 Ph  |S21|   S21 Ph  |S12|   S12 Ph  |S22|   S22 Ph
    0.05    0.10   -7.28  -18.21   83.08  -18.21   83.08    0.10   -7.28
    0.14   -0.38  -19.58   -9.85   70.34   -9.85   70.34   -0.38  -19.58
    0.23   -1.10  -30.64   -6.25   60.01   -6.25   60.01   -1.10  -30.64
    0.32   -1.93  -39.87   -4.22   50.88   -4.22   50.88   -1.93  -39.87
    0.41   -2.88  -47.37   -3.03   43.77   -3.03   43.77   -2.88  -47.37
    0.50   -3.77  -53.35   -2.27   37.82   -2.27   37.82   -3.77  -53.35
    0.59   -4.84  -58.90   -1.74   32.26   -1.74   32.26   -4.84  -58.90
    0.68   -5.65  -63.03   -1.40   28.69   -1.40   28.69   -5.65  -63.03
    0.77   -6.38  -66.63   -1.15   25.44   -1.15   25.44   -6.38  -66.63
    0.86   -7.05  -69.59   -0.99   22.67   -0.99   22.67   -7.05  -69.59
    0.95   -7.63  -72.34   -0.85   20.42   -0.85   20.42   -7.63  -72.34
    1.04   -8.16  -74.52   -0.76   18.37   -0.76   18.37   -8.16  -74.52
    1.13   -8.62  -76.83   -0.66   16.67   -0.66   16.67   -8.62  -76.83
    1.22   -9.09  -78.33   -0.61   15.25   -0.61   15.25   -9.09  -78.33
    1.31   -9.46  -80.16   -0.55   13.87   -0.55   13.87   -9.46  -80.16
    1.40   -9.80  -81.81   -0.49   12.70   -0.49   12.70   -9.80  -81.81
    1.49  -10.14  -83.57   -0.45   11.57   -0.45   11.57  -10.14  -83.57
    1.58  -10.43  -85.09   -0.42   10.61   -0.42   10.61  -10.43  -85.09
    1.67  -10.72  -86.43   -0.42    9.76   -0.42    9.76  -10.72  -86.43
    1.76  -10.92  -87.67   -0.38    8.76   -0.38    8.76  -10.92  -87.67
    1.85  -11.14  -89.12   -0.37    8.14   -0.37    8.14  -11.14  -89.12
    1.93  -11.33  -90.00   -0.36    7.32   -0.36    7.32  -11.33  -90.00
    2.02  -11.48  -91.12   -0.35    6.37   -0.35    6.37  -11.48  -91.12
    2.11  -11.60  -92.07   -0.35    5.83   -0.35    5.83  -11.60  -92.07
    2.20  -11.73  -93.35   -0.36    5.38   -0.36    5.38  -11.73  -93.35
    2.29  -11.81  -94.39   -0.34    4.55   -0.34    4.55  -11.81  -94.39
    2.38  -11.89  -95.15   -0.34    4.16   -0.34    4.16  -11.89  -95.15
    2.47  -11.99  -96.05   -0.30    3.59   -0.30    3.59  -11.99  -96.05
    2.56  -12.14  -96.40   -0.30    3.04   -0.30    3.04  -12.14  -96.40
    2.65  -12.21  -97.34   -0.31    2.63   -0.31    2.63  -12.21  -97.34
    2.74  -12.23  -98.50   -0.31    2.23   -0.31    2.23  -12.23  -98.50
    2.83  -12.33  -99.18   -0.30    1.67   -0.30    1.67  -12.33  -99.18
    2.92  -12.37 -100.60   -0.30    1.42   -0.30    1.42  -12.37 -100.60
    3.01  -12.39 -101.14   -0.33    0.68   -0.33    0.68  -12.39 -101.14
    3.10  -12.49 -102.33   -0.33    0.29   -0.33    0.29  -12.49 -102.33
    3.19  -12.50 -102.19   -0.37   -0.11   -0.37   -0.11  -12.50 -102.19
    3.28  -12.43 -103.58   -0.29   -0.75   -0.29   -0.75  -12.43 -103.58
    3.37  -12.47 -103.01   -0.37   -0.98   -0.37   -0.98  -12.47 -103.01
    3.46  -12.49 -104.12   -0.35   -1.37   -0.35   -1.37  -12.49 -104.12
    3.55  -12.41 -104.02   -0.37   -1.66   -0.37   -1.66  -12.41 -104.02
    3.64  -12.35 -105.05   -0.33   -1.88   -0.33   -1.88  -12.35 -105.05
    3.73  -12.39 -104.68   -0.38   -2.38   -0.38   -2.38  -12.39 -104.68
    3.82  -12.41 -106.05   -0.34   -2.57   -0.34   -2.57  -12.41 -106.05
    3.91  -12.36 -106.34   -0.38   -2.90   -0.38   -2.90  -12.36 -106.34
    4.00  -12.52 -108.48   -0.35   -3.34   -0.35   -3.34  -12.52 -108.48
    4.09  -12.55 -108.77   -0.35   -3.68   -0.35   -3.68  -12.55 -108.77
    4.18  -12.62 -110.16   -0.39   -3.93   -0.39   -3.93  -12.62 -110.16
    4.27  -12.48 -110.66   -0.37   -4.30   -0.37   -4.30  -12.48 -110.66
    4.36  -12.66 -111.04   -0.39   -4.61   -0.39   -4.61  -12.66 -111.04
    4.45  -12.63 -111.53   -0.38   -4.93   -0.38   -4.93  -12.63 -111.53
    4.54  -12.70 -112.07   -0.38   -5.29   -0.38   -5.29  -12.70 -112.07
    4.63  -12.71 -112.51   -0.36   -5.56   -0.36   -5.56  -12.71 -112.51
    4.72  -12.85 -111.69   -0.41   -5.96   -0.41   -5.96  -12.85 -111.69
    4.81  -12.89 -112.71   -0.39   -6.17   -0.39   -6.17  -12.89 -112.71
    4.90  -12.99 -112.47   -0.37   -6.43   -0.37   -6.43  -12.99 -112.47
    4.99  -13.07 -113.80   -0.36   -6.58   -0.36   -6.58  -13.07 -113.80
    5.08  -13.23 -113.08   -0.38   -6.67   -0.38   -6.67  -13.23 -113.08
    5.17  -13.43 -114.48   -0.37   -7.29   -0.37   -7.29  -13.43 -114.48
    5.26  -13.59 -114.58   -0.36   -7.41   -0.36   -7.41  -13.59 -114.58
    5.35  -13.66 -115.15   -0.35   -7.73   -0.35   -7.73  -13.66 -115.15
    5.44  -14.01 -114.49   -0.40   -8.02   -0.40   -8.02  -14.01 -114.49
    5.52  -14.10 -115.58   -0.39   -8.44   -0.39   -8.44  -14.10 -115.58
    5.61  -14.19 -114.73   -0.37   -8.61   -0.37   -8.61  -14.19 -114.73
    5.70  -14.34 -114.79   -0.38   -8.92   -0.38   -8.92  -14.34 -114.79
    5.79  -14.62 -115.43   -0.41   -9.20   -0.41   -9.20  -14.62 -115.43
    5.88  -14.71 -115.59   -0.37   -9.32   -0.37   -9.32  -14.71 -115.59
    5.97  -15.00 -115.44   -0.35   -9.69   -0.35   -9.69  -15.00 -115.44
    6.06  -15.36 -115.31   -0.37  -10.07   -0.37  -10.07  -15.36 -115.31
    6.15  -15.65 -116.20   -0.37  -10.42   -0.37  -10.42  -15.65 -116.20
    6.24  -15.91 -116.07   -0.36  -10.75   -0.36  -10.75  -15.91 -116.07
    6.33  -16.21 -116.27   -0.37  -10.84   -0.37  -10.84  -16.21 -116.27
    6.42  -16.66 -116.80   -0.40  -11.01   -0.40  -11.01  -16.66 -116.80
    6.51  -16.99 -117.05   -0.36  -11.77   -0.36  -11.77  -16.99 -117.05
    6.60  -17.46 -116.79   -0.38  -12.16   -0.38  -12.16  -17.46 -116.79
    6.69  -17.88 -115.12   -0.38  -12.45   -0.38  -12.45  -17.88 -115.12
    6.78  -18.25 -114.14   -0.44  -12.78   -0.44  -12.78  -18.25 -114.14
    6.87  -18.57 -111.55   -0.44  -13.01   -0.44  -13.01  -18.57 -111.55
    6.96  -18.81 -110.73   -0.46  -13.42   -0.46  -13.42  -18.81 -110.73
    7.05  -19.16 -109.34   -0.48  -13.66   -0.48  -13.66  -19.16 -109.34
    7.14  -19.42 -108.44   -0.50  -13.77   -0.50  -13.77  -19.42 -108.44
    7.23  -19.79 -107.00   -0.51  -14.14   -0.51  -14.14  -19.79 -107.00
    7.32  -19.91 -105.06   -0.54  -14.32   -0.54  -14.32  -19.91 -105.06
    7.41  -20.03 -104.48   -0.57  -14.56   -0.57  -14.56  -20.03 -104.48
    7.50  -20.15 -103.10   -0.59  -14.75   -0.59  -14.75  -20.15 -103.10
    7.59  -20.19 -102.61   -0.62  -14.89   -0.62  -14.89  -20.19 -102.61
    7.68  -20.37 -102.63   -0.58  -15.20   -0.58  -15.20  -20.37 -102.63
    7.77  -20.51 -104.23   -0.58  -14.94   -0.58  -14.94  -20.51 -104.23
    7.86  -21.03 -104.86   -0.57  -15.42   -0.57  -15.42  -21.03 -104.86
    7.95  -21.50 -105.84   -0.54  -15.78   -0.54  -15.78  -21.50 -105.84
    8.04  -22.22 -106.26   -0.50  -16.08   -0.50  -16.08  -22.22 -106.26
    8.13  -22.65 -105.47   -0.54  -16.57   -0.54  -16.57  -22.65 -105.47
    8.22  -23.19 -104.38   -0.52  -17.03   -0.52  -17.03  -23.19 -104.38
    8.31  -23.71 -104.09   -0.51  -17.54   -0.51  -17.54  -23.71 -104.09
    8.40  -24.37 -104.95   -0.54  -17.93   -0.54  -17.93  -24.37 -104.95
    8.49  -25.23 -104.26   -0.48  -18.27   -0.48  -18.27  -25.23 -104.26
    8.58  -26.46 -103.37   -0.49  -18.71   -0.49  -18.71  -26.46 -103.37
    8.67  -27.77 -101.96   -0.49  -19.30   -0.49  -19.30  -27.77 -101.96
    8.76  -29.45 -101.22   -0.47  -19.71   -0.47  -19.71  -29.45 -101.22
    8.85  -31.67  -95.99   -0.49  -20.47   -0.49  -20.47  -31.67  -95.99
    8.94  -33.89  -83.10   -0.48  -21.04   -0.48  -21.04  -33.89  -83.10
    9.03  -36.32  -57.41   -0.51  -21.56   -0.51  -21.56  -36.32  -57.41
    9.11  -36.63  -22.64   -0.49  -22.56   -0.49  -22.56  -36.63  -22.64
    9.20  -33.67    6.78   -0.53  -23.45   -0.53  -23.45  -33.67    6.78
    9.29  -30.71   20.60   -0.53  -24.39   -0.53  -24.39  -30.71   20.60
    9.38  -27.81   24.69   -0.56  -24.89   -0.56  -24.89  -27.81   24.69
    9.47  -25.35   29.83   -0.61  -26.11   -0.61  -26.11  -25.35   29.83
    9.56  -22.85   31.11   -0.62  -27.35   -0.62  -27.35  -22.85   31.11
    9.65  -20.85   30.45   -0.61  -28.59   -0.61  -28.59  -20.85   30.45
    9.74  -19.05   29.07   -0.69  -29.86   -0.69  -29.86  -19.05   29.07
    9.83  -17.13   26.99   -0.72  -31.82   -0.72  -31.82  -17.13   26.99
    9.92  -15.49   23.77   -0.80  -33.84   -0.80  -33.84  -15.49   23.77
   10.01  -13.63   19.40   -0.97  -36.27   -0.97  -36.27  -13.63   19.40
   10.10  -11.83   14.35   -1.18  -39.55   -1.18  -39.55  -11.83   14.35
   10.19   -9.92    7.32   -1.57  -44.08   -1.57  -44.08   -9.92    7.32
   10.28   -7.99   -2.13   -2.25  -49.61   -2.25  -49.61   -7.99   -2.13
   10.37   -5.95  -15.68   -3.73  -56.49   -3.73  -56.49   -5.95  -15.68
   10.46   -4.31  -34.55   -7.02  -62.11   -7.02  -62.11   -4.31  -34.55
   10.55   -3.70  -59.39  -12.65  -34.72  -12.65  -34.72   -3.70  -59.39
   10.64   -4.44  -83.53   -8.73   10.30   -8.73   10.30   -4.44  -83.53
   10.73   -6.18 -104.16   -4.83   10.02   -4.83   10.02   -6.18 -104.16
   10.82   -8.29 -117.01   -3.22    4.44   -3.22    4.44   -8.29 -117.01
   10.91  -10.49 -129.93   -2.40   -0.92   -2.40   -0.92  -10.49 -129.93
   11.00  -12.69 -138.57   -1.95   -4.61   -1.95   -4.61  -12.69 -138.57
   11.09  -14.72 -148.77   -1.67   -7.55   -1.67   -7.55  -14.72 -148.77
   11.18  -17.00 -157.60   -1.52   -9.78   -1.52   -9.78  -17.00 -157.60
   11.27  -19.29 -169.90   -1.41  -11.95   -1.41  -11.95  -19.29 -169.90
   11.36  -21.86  174.52   -1.33  -13.66   -1.33  -13.66  -21.86  174.52
   11.45  -24.12  153.69   -1.34  -14.94   -1.34  -14.94  -24.12  153.69
   11.54  -25.97  127.23   -1.30  -16.01   -1.30  -16.01  -25.97  127.23
   11.63  -25.47  105.19   -1.26  -16.97   -1.26  -16.97  -25.47  105.19
   11.72  -24.09   84.51   -1.23  -17.95   -1.23  -17.95  -24.09   84.51
   11.81  -22.57   72.78   -1.24  -18.88   -1.24  -18.88  -22.57   72.78
   11.90  -21.12   62.85   -1.21  -19.60   -1.21  -19.60  -21.12   62.85
   11.99  -19.74   57.15   -1.20  -20.35   -1.20  -20.35  -19.74   57.15
   12.08  -18.71   52.66   -1.23  -21.03   -1.23  -21.03  -18.71   52.66
   12.17  -17.77   48.40   -1.26  -21.99   -1.26  -21.99  -17.77   48.40
   12.26  -16.92   45.23   -1.26  -22.56   -1.26  -22.56  -16.92   45.23
   12.35  -16.08   42.73   -1.27  -23.16   -1.27  -23.16  -16.08   42.73
   12.44  -15.44   40.60   -1.30  -24.24   -1.30  -24.24  -15.44   40.60
   12.53  -14.66   37.44   -1.30  -24.60   -1.30  -24.60  -14.66   37.44
   12.62  -14.20   36.02   -1.34  -25.39   -1.34  -25.39  -14.20   36.02
   12.70  -13.57   34.23   -1.35  -25.76   -1.35  -25.76  -13.57   34.23
   12.79  -13.24   32.42   -1.43  -26.76   -1.43  -26.76  -13.24   32.42
   12.88  -12.64   30.68   -1.42  -27.14   -1.42  -27.14  -12.64   30.68
   12.97  -12.30   28.74   -1.48  -27.61   -1.48  -27.61  -12.30   28.74
   13.06  -11.96   27.89   -1.53  -28.05   -1.53  -28.05  -11.96   27.89
   13.15  -11.77   25.21   -1.52  -28.98   -1.52  -28.98  -11.77   25.21
   13.24  -11.40   25.13   -1.57  -29.21   -1.57  -29.21  -11.40   25.13
   13.33  -11.15   23.58   -1.63  -29.70   -1.63  -29.70  -11.15   23.58
   13.42  -11.05   23.33   -1.73  -30.51   -1.73  -30.51  -11.05   23.33
   13.51  -10.69   20.62   -1.69  -31.29   -1.69  -31.29  -10.69   20.62
   13.60  -10.61   21.48   -1.77  -31.25   -1.77  -31.25  -10.61   21.48
   13.69  -10.25   20.66   -1.88  -32.01   -1.88  -32.01  -10.25   20.66
   13.78  -10.21   19.36   -1.98  -33.07   -1.98  -33.07  -10.21   19.36
   13.87   -9.80   18.34   -1.94  -33.27   -1.94  -33.27   -9.80   18.34
   13.96   -9.70   19.04   -2.02  -33.22   -2.02  -33.22   -9.70   19.04
   14.05   -9.55   18.91   -2.10  -33.88   -2.10  -33.88   -9.55   18.91
   14.14   -9.47   17.24   -2.14  -35.07   -2.14  -35.07   -9.47   17.24
   14.23   -9.12   17.38   -2.14  -35.26   -2.14  -35.26   -9.12   17.38
   14.32   -8.97   17.91   -2.23  -35.66   -2.23  -35.66   -8.97   17.91
   14.41   -8.99   17.33   -2.35  -36.54   -2.35  -36.54   -8.99   17.33
   14.50   -8.87   16.60   -2.43  -37.24   -2.43  -37.24   -8.87   16.60
   14.59   -8.62   15.87   -2.49  -37.68   -2.49  -37.68   -8.62   15.87
   14.68   -8.45   15.99   -2.53  -38.24   -2.53  -38.24   -8.45   15.99
   14.77   -8.34   16.28   -2.68  -38.40   -2.68  -38.40   -8.34   16.28
   14.86   -8.13   15.63   -2.77  -39.09   -2.77  -39.09   -8.13   15.63
   14.95   -7.79   15.31   -2.87  -39.57   -2.87  -39.57   -7.79   15.31
   15.04   -7.69   15.87   -3.00  -39.30   -3.00  -39.30   -7.69   15.87
   15.13   -7.48   15.00   -3.06  -39.39   -3.06  -39.39   -7.48   15.00
   15.22   -7.27   13.39   -3.16  -40.01   -3.16  -40.01   -7.27   13.39
   15.31   -7.01   13.83   -3.18  -39.68   -3.18  -39.68   -7.01   13.83
   15.40   -6.89   12.35   -3.26  -40.24   -3.26  -40.24   -6.89   12.35
   15.49   -6.81   11.10   -3.27  -40.60   -3.27  -40.60   -6.81   11.10
   15.58   -6.65    9.42   -3.34  -41.20   -3.34  -41.20   -6.65    9.42
   15.67   -6.53    9.89   -3.36  -41.30   -3.36  -41.30   -6.53    9.89
   15.76   -6.37    8.28   -3.42  -41.74   -3.42  -41.74   -6.37    8.28
   15.85   -6.37    7.21   -3.54  -42.28   -3.54  -42.28   -6.37    7.21
   15.94   -6.12    6.56   -3.54  -43.06   -3.54  -43.06   -6.12    6.56
   16.03   -6.19    5.80   -3.64  -42.95   -3.64  -42.95   -6.19    5.80
   16.12   -6.01    4.60   -3.71  -43.44   -3.71  -43.44   -6.01    4.60
   16.21   -5.94    3.73   -3.88  -44.21   -3.88  -44.21   -5.94    3.73
   16.29   -5.65    2.88   -3.89  -44.64   -3.89  -44.64   -5.65    2.88
   16.38   -5.63    2.17   -3.93  -44.90   -3.93  -44.90   -5.63    2.17
   16.47   -5.58    0.13   -4.05  -46.19   -4.05  -46.19   -5.58    0.13
   16.56   -5.82   -0.70   -4.18  -47.34   -4.18  -47.34   -5.82   -0.70
   16.65   -6.11    2.78   -4.67  -47.54   -4.67  -47.54   -6.11    2.78
   16.74   -5.28    5.21   -4.62  -45.87   -4.62  -45.87   -5.28    5.21
   16.83   -4.84    2.80   -4.71  -45.71   -4.71  -45.71   -4.84    2.80
   16.92   -4.67    1.72   -4.78  -46.59   -4.78  -46.59   -4.67    1.72
   17.01   -4.43    0.40   -4.99  -46.91   -4.99  -46.91   -4.43    0.40
   17.10   -4.30   -0.36   -5.01  -46.95   -5.01  -46.95   -4.30   -0.36
   17.19   -4.05   -0.93   -5.30  -46.54   -5.30  -46.54   -4.05   -0.93
   17.28   -3.99   -2.26   -5.33  -46.33   -5.33  -46.33   -3.99   -2.26
   17.37   -3.81   -3.15   -5.39  -46.92   -5.39  -46.92   -3.81   -3.15
   17.46   -3.62   -3.98   -5.50  -46.29   -5.50  -46.29   -3.62   -3.98
   17.55   -3.49   -4.76   -5.59  -46.36   -5.59  -46.36   -3.49   -4.76
   17.64   -3.21   -6.06   -5.68  -46.06   -5.68  -46.06   -3.21   -6.06
   17.73   -3.34   -7.46   -5.70  -47.07   -5.70  -47.07   -3.34   -7.46
   17.82   -3.13   -7.73   -5.87  -46.68   -5.87  -46.68   -3.13   -7.73
   17.91   -3.28   -8.36   -6.03  -47.99   -6.03  -47.99   -3.28   -8.36
   18.00   -3.05  -10.05   -6.10  -48.15   -6.10  -48.15   -3.05  -10.05
