!  American Technical Ceramics  Date:    3/13/98
!  One Norden Lane
!  Huntington Station,  NY.   11746-2102
!  Tel:  (516) 547-5700               Fax:  (516) 547-5748
!  Part Number  180r1r5c
!  Description: Porcelain, High Q, Low ESR
!  Application: Bypass, Coupling, Timing, Feedback
!               Tuning, Impedance Match, Blocking
# GHZ S DB R 50
! Freq   |S11|   S11 Ph  |S21|   S21 Ph  |S12|   S12 Ph  |S22|   S22 Ph
    0.05   -0.02   -2.09  -27.89   87.20  -27.89   87.20   -0.02   -2.09
    0.15   -0.04   -8.76  -17.53   81.68  -17.53   81.68   -0.04   -8.76
    0.25   -0.21  -14.26  -13.25   76.31  -13.25   76.31   -0.21  -14.26
    0.35   -0.37  -19.73  -10.52   71.28  -10.52   71.28   -0.37  -19.73
    0.45   -0.59  -25.05   -8.59   66.38   -8.59   66.38   -0.59  -25.05
    0.55   -1.02  -30.41   -7.07   60.99   -7.07   60.99   -1.02  -30.41
    0.65   -1.31  -35.00   -5.96   56.78   -5.96   56.78   -1.31  -35.00
    0.75   -1.65  -39.10   -5.09   53.03   -5.09   53.03   -1.65  -39.10
    0.85   -2.03  -43.14   -4.43   49.31   -4.43   49.31   -2.03  -43.14
    0.95   -2.33  -46.62   -3.89   46.18   -3.89   46.18   -2.33  -46.62
    1.05   -2.67  -49.84   -3.47   43.11   -3.47   43.11   -2.67  -49.84
    1.15   -2.95  -52.92   -3.05   40.47   -3.05   40.47   -2.95  -52.92
    1.25   -3.31  -55.35   -2.72   38.16   -2.72   38.16   -3.31  -55.35
    1.35   -3.66  -58.16   -2.49   35.91   -2.49   35.91   -3.66  -58.16
    1.45   -3.92  -60.47   -2.31   33.83   -2.31   33.83   -3.92  -60.47
    1.55   -4.19  -62.54   -2.14   31.86   -2.14   31.86   -4.19  -62.54
    1.65   -4.46  -64.62   -1.96   30.09   -1.96   30.09   -4.46  -64.62
    1.75   -4.72  -66.52   -1.79   28.63   -1.79   28.63   -4.72  -66.52
    1.85   -5.00  -68.51   -1.67   27.27   -1.67   27.27   -5.00  -68.51
    1.95   -5.22  -69.77   -1.60   25.80   -1.60   25.80   -5.22  -69.77
    2.05   -5.44  -71.36   -1.55   24.49   -1.55   24.49   -5.44  -71.36
    2.14   -5.60  -72.62   -1.42   23.07   -1.42   23.07   -5.60  -72.62
    2.24   -5.83  -74.41   -1.31   22.23   -1.31   22.23   -5.83  -74.41
    2.34   -6.07  -75.86   -1.26   20.88   -1.26   20.88   -6.07  -75.86
    2.44   -6.25  -77.34   -1.22   20.18   -1.22   20.18   -6.25  -77.34
    2.54   -6.40  -78.13   -1.19   19.17   -1.19   19.17   -6.40  -78.13
    2.64   -6.52  -78.37   -1.12   18.11   -1.12   18.11   -6.52  -78.37
    2.74   -6.72  -79.73   -1.06   17.40   -1.06   17.40   -6.72  -79.73
    2.84   -6.94  -81.33   -1.06   16.23   -1.06   16.23   -6.94  -81.33
    2.94   -7.01  -82.70   -1.00   15.48   -1.00   15.48   -7.01  -82.70
    3.04   -7.07  -82.89   -1.03   14.68   -1.03   14.68   -7.07  -82.89
    3.14   -7.23  -83.99   -0.97   13.81   -0.97   13.81   -7.23  -83.99
    3.24   -7.28  -84.68   -0.96   13.46   -0.96   13.46   -7.28  -84.68
    3.34   -7.56  -86.41   -0.94   12.15   -0.94   12.15   -7.56  -86.41
    3.44   -7.53  -87.61   -0.93   11.96   -0.93   11.96   -7.53  -87.61
    3.54   -7.60  -87.65   -0.97   11.11   -0.97   11.11   -7.60  -87.65
    3.64   -7.54  -88.64   -0.90   10.55   -0.90   10.55   -7.54  -88.64
    3.74   -7.70  -88.85   -0.94   10.04   -0.94   10.04   -7.70  -88.85
    3.84   -7.81  -90.80   -0.91    9.27   -0.91    9.27   -7.81  -90.80
    3.94   -7.79  -91.33   -0.93    8.70   -0.93    8.70   -7.79  -91.33
    4.04   -7.83  -92.82   -0.90    8.21   -0.90    8.21   -7.83  -92.82
    4.14   -7.73  -93.70   -0.85    7.81   -0.85    7.81   -7.73  -93.70
    4.24   -7.81  -93.98   -0.88    7.66   -0.88    7.66   -7.81  -93.98
    4.34   -7.93  -95.75   -0.89    6.92   -0.89    6.92   -7.93  -95.75
    4.44   -7.92  -96.48   -0.92    6.52   -0.92    6.52   -7.92  -96.48
    4.54   -7.94  -97.11   -0.93    5.77   -0.93    5.77   -7.94  -97.11
    4.64   -7.86  -97.41   -0.87    5.65   -0.87    5.65   -7.86  -97.41
    4.74   -7.85  -96.87   -0.87    5.84   -0.87    5.84   -7.85  -96.87
    4.84   -7.97  -98.29   -0.90    5.10   -0.90    5.10   -7.97  -98.29
    4.94   -7.94  -98.71   -0.95    4.92   -0.95    4.92   -7.94  -98.71
    5.04   -8.02  -99.35   -0.94    4.09   -0.94    4.09   -8.02  -99.35
    5.14   -7.80 -100.02   -0.88    3.79   -0.88    3.79   -7.80 -100.02
    5.24   -7.93  -99.96   -0.87    3.99   -0.87    3.99   -7.93  -99.96
    5.34   -7.85 -100.85   -0.89    3.72   -0.89    3.72   -7.85 -100.85
    5.44   -8.06 -100.79   -0.97    3.34   -0.97    3.34   -8.06 -100.79
    5.54   -7.93 -102.15   -0.95    2.74   -0.95    2.74   -7.93 -102.15
    5.64   -7.92 -101.65   -0.94    2.71   -0.94    2.71   -7.92 -101.65
    5.74   -7.84 -102.99   -0.92    2.49   -0.92    2.49   -7.84 -102.99
    5.84   -7.94 -102.32   -0.93    2.78   -0.93    2.78   -7.94 -102.32
    5.94   -8.01 -103.90   -0.96    2.18   -0.96    2.18   -8.01 -103.90
    6.04   -8.02 -104.01   -0.96    1.86   -0.96    1.86   -8.02 -104.01
    6.13   -7.93 -104.63   -0.93    1.64   -0.93    1.64   -7.93 -104.63
    6.23   -7.98 -104.72   -0.94    1.56   -0.94    1.56   -7.98 -104.72
    6.33   -8.04 -105.25   -0.94    1.65   -0.94    1.65   -8.04 -105.25
    6.43   -8.21 -105.90   -0.97    1.68   -0.97    1.68   -8.21 -105.90
    6.53   -8.16 -106.93   -0.95    0.83   -0.95    0.83   -8.16 -106.93
    6.63   -8.19 -106.79   -0.95    0.90   -0.95    0.90   -8.19 -106.79
    6.73   -8.22 -107.02   -0.93    0.61   -0.93    0.61   -8.22 -107.02
    6.83   -8.46 -107.23   -0.95    0.83   -0.95    0.83   -8.46 -107.23
    6.93   -8.46 -108.08   -0.99    0.57   -0.99    0.57   -8.46 -108.08
    7.03   -8.56 -107.79   -0.98    0.49   -0.98    0.49   -8.56 -107.79
    7.13   -8.48 -108.04   -0.99    0.11   -0.99    0.11   -8.48 -108.04
    7.23   -8.59 -108.20   -0.96    0.05   -0.96    0.05   -8.59 -108.20
    7.33   -8.67 -108.09   -0.97   -0.01   -0.97   -0.01   -8.67 -108.09
    7.43   -8.89 -108.59   -1.02   -0.01   -1.02   -0.01   -8.89 -108.59
    7.53   -8.78 -107.97   -1.02   -0.34   -1.02   -0.34   -8.78 -107.97
    7.63   -8.87 -108.20   -1.07   -0.14   -1.07   -0.14   -8.87 -108.20
    7.73   -8.71 -107.90   -1.02   -0.69   -1.02   -0.69   -8.71 -107.90
    7.83   -8.92 -108.55   -1.00   -0.18   -1.00   -0.18   -8.92 -108.55
    7.93   -8.90 -109.57   -1.03   -0.55   -1.03   -0.55   -8.90 -109.57
    8.03   -9.08 -109.70   -0.97   -0.53   -0.97   -0.53   -9.08 -109.70
    8.13   -8.94 -109.70   -1.02   -0.89   -1.02   -0.89   -8.94 -109.70
    8.23   -9.05 -109.61   -1.00   -1.11   -1.00   -1.11   -9.05 -109.61
    8.33   -9.07 -109.84   -0.98   -1.40   -0.98   -1.40   -9.07 -109.84
    8.43   -9.20 -111.25   -0.96   -1.28   -0.96   -1.28   -9.20 -111.25
    8.53   -9.19 -111.28   -1.01   -1.27   -1.01   -1.27   -9.19 -111.28
    8.63   -9.26 -111.28   -1.01   -1.51   -1.01   -1.51   -9.26 -111.28
    8.73   -9.26 -111.70   -0.97   -2.12   -0.97   -2.12   -9.26 -111.70
    8.83   -9.39 -112.58   -0.94   -2.07   -0.94   -2.07   -9.39 -112.58
    8.93   -9.48 -114.07   -0.97   -2.45   -0.97   -2.45   -9.48 -114.07
    9.03   -9.51 -114.67   -1.00   -2.81   -1.00   -2.81   -9.51 -114.67
    9.13   -9.49 -114.43   -0.97   -2.81   -0.97   -2.81   -9.49 -114.43
    9.23   -9.49 -115.57   -1.00   -3.06   -1.00   -3.06   -9.49 -115.57
    9.33   -9.53 -115.84   -1.02   -3.48   -1.02   -3.48   -9.53 -115.84
    9.43   -9.63 -117.98   -1.02   -3.61   -1.02   -3.61   -9.63 -117.98
    9.53   -9.60 -119.25   -1.01   -3.75   -1.01   -3.75   -9.60 -119.25
    9.63   -9.65 -119.86   -1.01   -4.09   -1.01   -4.09   -9.65 -119.86
    9.73   -9.50 -121.07   -1.02   -4.05   -1.02   -4.05   -9.50 -121.07
    9.83   -9.53 -122.29   -1.06   -4.44   -1.06   -4.44   -9.53 -122.29
    9.93   -9.68 -124.64   -1.05   -4.64   -1.05   -4.64   -9.68 -124.64
   10.03   -9.58 -126.40   -1.01   -4.76   -1.01   -4.76   -9.58 -126.40
   10.12   -9.56 -127.59   -1.00   -5.10   -1.00   -5.10   -9.56 -127.59
   10.22   -9.38 -128.59   -1.02   -5.17   -1.02   -5.17   -9.38 -128.59
   10.32   -9.45 -129.51   -1.09   -5.31   -1.09   -5.31   -9.45 -129.51
   10.42   -9.62 -131.47   -1.15   -5.54   -1.15   -5.54   -9.62 -131.47
   10.52   -9.52 -133.53   -1.13   -6.11   -1.13   -6.11   -9.52 -133.53
   10.62   -9.48 -134.09   -1.12   -6.30   -1.12   -6.30   -9.48 -134.09
   10.72   -9.40 -136.21   -1.10   -6.43   -1.10   -6.43   -9.40 -136.21
   10.82   -9.44 -135.57   -1.14   -6.06   -1.14   -6.06   -9.44 -135.57
   10.92   -9.64 -138.23   -1.20   -6.77   -1.20   -6.77   -9.64 -138.23
   11.02   -9.65 -138.69   -1.19   -6.92   -1.19   -6.92   -9.65 -138.69
   11.12   -9.59 -139.09   -1.21   -7.01   -1.21   -7.01   -9.59 -139.09
   11.22   -9.35 -139.79   -1.18   -6.95   -1.18   -6.95   -9.35 -139.79
   11.32   -9.53 -140.68   -1.26   -7.06   -1.26   -7.06   -9.53 -140.68
   11.42   -9.64 -141.88   -1.28   -7.28   -1.28   -7.28   -9.64 -141.88
   11.52   -9.62 -142.74   -1.28   -7.50   -1.28   -7.50   -9.62 -142.74
   11.62   -9.66 -142.43   -1.27   -7.53   -1.27   -7.53   -9.66 -142.43
   11.72   -9.64 -143.77   -1.29   -7.78   -1.29   -7.78   -9.64 -143.77
   11.82   -9.63 -143.45   -1.31   -7.93   -1.31   -7.93   -9.63 -143.45
   11.92   -9.95 -145.12   -1.36   -7.94   -1.36   -7.94   -9.95 -145.12
   12.02   -9.87 -146.04   -1.34   -8.00   -1.34   -8.00   -9.87 -146.04
   12.12  -10.04 -146.68   -1.35   -8.14   -1.35   -8.14  -10.04 -146.68
   12.22  -10.05 -147.00   -1.34   -8.26   -1.34   -8.26  -10.05 -147.00
   12.32  -10.16 -147.78   -1.34   -8.26   -1.34   -8.26  -10.16 -147.78
   12.42  -10.49 -148.20   -1.38   -8.16   -1.38   -8.16  -10.49 -148.20
   12.52  -10.61 -149.93   -1.39   -8.43   -1.39   -8.43  -10.61 -149.93
   12.62  -10.81 -149.18   -1.36   -8.19   -1.36   -8.19  -10.81 -149.18
   12.72  -10.97 -150.66   -1.38   -8.70   -1.38   -8.70  -10.97 -150.66
   12.82  -11.10 -150.25   -1.32   -8.53   -1.32   -8.53  -11.10 -150.25
   12.92  -11.49 -152.26   -1.36   -8.50   -1.36   -8.50  -11.49 -152.26
   13.02  -11.72 -152.71   -1.31   -8.54   -1.31   -8.54  -11.72 -152.71
   13.12  -11.92 -153.65   -1.31   -8.85   -1.31   -8.85  -11.92 -153.65
   13.22  -12.14 -153.88   -1.26   -9.13   -1.26   -9.13  -12.14 -153.88
   13.32  -12.48 -155.33   -1.27   -9.42   -1.27   -9.42  -12.48 -155.33
   13.42  -12.88 -156.39   -1.25   -9.38   -1.25   -9.38  -12.88 -156.39
   13.52  -13.24 -158.48   -1.27   -9.56   -1.27   -9.56  -13.24 -158.48
   13.62  -13.54 -159.63   -1.23  -10.09   -1.23  -10.09  -13.54 -159.63
   13.72  -14.01 -161.30   -1.27  -10.34   -1.27  -10.34  -14.01 -161.30
   13.82  -14.38 -161.97   -1.22  -10.67   -1.22  -10.67  -14.38 -161.97
   13.92  -15.02 -164.55   -1.25  -10.89   -1.25  -10.89  -15.02 -164.55
   14.02  -15.53 -166.45   -1.24  -11.08   -1.24  -11.08  -15.53 -166.45
   14.11  -16.10 -169.05   -1.25  -11.47   -1.25  -11.47  -16.10 -169.05
   14.21  -16.49 -169.74   -1.27  -12.04   -1.27  -12.04  -16.49 -169.74
   14.31  -16.94 -171.66   -1.23  -12.48   -1.23  -12.48  -16.94 -171.66
   14.41  -17.65 -176.38   -1.28  -12.77   -1.28  -12.77  -17.65 -176.38
   14.51  -18.11  178.40   -1.28  -13.05   -1.28  -13.05  -18.11  178.40
   14.61  -18.76  174.67   -1.35  -13.50   -1.35  -13.50  -18.76  174.67
   14.71  -19.08  170.05   -1.36  -14.01   -1.36  -14.01  -19.08  170.05
   14.81  -19.58  163.46   -1.38  -14.51   -1.38  -14.51  -19.58  163.46
   14.91  -19.81  157.52   -1.44  -14.73   -1.44  -14.73  -19.81  157.52
   15.01  -20.32  147.78   -1.48  -14.98   -1.48  -14.98  -20.32  147.78
   15.11  -20.63  141.43   -1.55  -15.53   -1.55  -15.53  -20.63  141.43
   15.21  -20.59  132.07   -1.58  -15.36   -1.58  -15.36  -20.59  132.07
   15.31  -20.77  127.23   -1.58  -15.68   -1.58  -15.68  -20.77  127.23
   15.41  -20.65  118.45   -1.58  -15.94   -1.58  -15.94  -20.65  118.45
   15.51  -20.84  112.65   -1.58  -16.29   -1.58  -16.29  -20.84  112.65
   15.61  -20.74  107.44   -1.61  -16.46   -1.61  -16.46  -20.74  107.44
   15.71  -20.41  104.65   -1.61  -16.59   -1.61  -16.59  -20.41  104.65
   15.81  -20.14  100.53   -1.66  -17.28   -1.66  -17.28  -20.14  100.53
   15.91  -19.94   97.44   -1.69  -17.66   -1.69  -17.66  -19.94   97.44
   16.01  -19.87   94.20   -1.72  -17.88   -1.72  -17.88  -19.87   94.20
   16.11  -19.44   92.37   -1.69  -18.45   -1.69  -18.45  -19.44   92.37
   16.21  -19.17   90.75   -1.74  -18.75   -1.74  -18.75  -19.17   90.75
   16.31  -18.63   88.79   -1.74  -19.31   -1.74  -19.31  -18.63   88.79
   16.41  -18.40   87.31   -1.76  -19.77   -1.76  -19.77  -18.40   87.31
   16.51  -18.13   85.25   -1.75  -20.48   -1.75  -20.48  -18.13   85.25
   16.61  -17.90   83.37   -1.82  -21.22   -1.82  -21.22  -17.90   83.37
   16.71  -17.76   82.88   -1.85  -21.93   -1.85  -21.93  -17.76   82.88
   16.81  -17.06   80.95   -1.90  -22.57   -1.90  -22.57  -17.06   80.95
   16.91  -16.80   80.33   -2.00  -23.56   -2.00  -23.56  -16.80   80.33
   17.01  -15.93   77.82   -2.07  -23.94   -2.07  -23.94  -15.93   77.82
   17.11  -15.72   75.51   -2.16  -24.61   -2.16  -24.61  -15.72   75.51
   17.21  -15.00   71.40   -2.32  -25.35   -2.32  -25.35  -15.00   71.40
   17.31  -14.69   66.13   -2.39  -25.76   -2.39  -25.76  -14.69   66.13
   17.41  -14.17   62.39   -2.40  -26.23   -2.40  -26.23  -14.17   62.39
   17.51  -13.94   55.95   -2.42  -26.73   -2.42  -26.73  -13.94   55.95
   17.61  -13.42   51.75   -2.53  -27.78   -2.53  -27.78  -13.42   51.75
   17.71  -13.31   45.56   -2.55  -28.17   -2.55  -28.17  -13.31   45.56
   17.81  -12.68   40.23   -2.58  -30.20   -2.58  -30.20  -12.68   40.23
   17.91  -12.28   34.68   -2.72  -32.07   -2.72  -32.07  -12.28   34.68
   18.01  -11.65   27.64   -2.78  -33.97   -2.78  -33.97  -11.65   27.64
   18.10  -11.11   21.25   -2.96  -36.79   -2.96  -36.79  -11.11   21.25
   18.20  -10.22   13.12   -3.25  -39.60   -3.25  -39.60  -10.22   13.12
   18.30   -9.26    5.35   -3.70  -44.24   -3.70  -44.24   -9.26    5.35
   18.40   -8.23   -5.44   -4.45  -50.29   -4.45  -50.29   -8.23   -5.44
   18.50   -7.08  -19.61   -5.84  -58.24   -5.84  -58.24   -7.08  -19.61
   18.60   -5.96  -39.68   -9.06  -68.32   -9.06  -68.32   -5.96  -39.68
   18.70   -5.71  -66.10  -19.42  -57.60  -19.42  -57.60   -5.71  -66.10
   18.80   -7.01  -97.47  -11.91   39.07  -11.91   39.07   -7.01  -97.47
   18.90  -10.48 -127.60   -6.28   26.48   -6.28   26.48  -10.48 -127.60
   19.00  -15.25 -156.54   -4.30   14.11   -4.30   14.11  -15.25 -156.54
   19.10  -20.39  165.18   -3.52    5.55   -3.52    5.55  -20.39  165.18
   19.20  -22.26  104.76   -3.24   -0.13   -3.24   -0.13  -22.26  104.76
   19.30  -19.61   66.82   -3.05   -4.82   -3.05   -4.82  -19.61   66.82
   19.40  -17.03   48.58   -2.99   -8.26   -2.99   -8.26  -17.03   48.58
   19.50  -14.98   37.20   -3.00  -11.05   -3.00  -11.05  -14.98   37.20
   19.60  -13.50   31.13   -3.03  -12.96   -3.03  -12.96  -13.50   31.13
   19.70  -12.17   23.65   -3.10  -14.97   -3.10  -14.97  -12.17   23.65
   19.80  -11.20   20.65   -3.18  -16.38   -3.18  -16.38  -11.20   20.65
   19.90  -10.42   15.98   -3.27  -17.85   -3.27  -17.85  -10.42   15.98
   20.00   -9.81   13.19   -3.36  -19.13   -3.36  -19.13   -9.81   13.19
