!  American Technical Ceramics  Date:    3/13/98
!  One Norden Lane
!  Huntington Station,  NY.   11746-2102
!  Tel:  (516) 547-5700               Fax:  (516) 547-5748
!  Part Number  180r2r7c
!  Description: Porcelain, High Q, Low ESR
!  Application: Bypass, Coupling, Timing, Feedback
!               Tuning, Impedance Match, Blocking
# GHZ S DB R 50
! Freq   |S11|   S11 Ph  |S21|   S21 Ph  |S12|   S12 Ph  |S22|   S22 Ph
    0.05   -0.01   -4.07  -21.97   87.30  -21.97   87.30   -0.01   -4.07
    0.15   -0.20  -14.82  -12.58   75.72  -12.58   75.72   -0.20  -14.82
    0.25   -0.65  -23.61   -8.57   67.14   -8.57   67.14   -0.65  -23.61
    0.35   -1.16  -31.66   -6.22   59.40   -6.22   59.40   -1.16  -31.66
    0.45   -1.75  -38.90   -4.67   52.65   -4.67   52.65   -1.75  -38.90
    0.55   -2.57  -45.47   -3.60   46.10   -3.60   46.10   -2.57  -45.47
    0.65   -3.22  -50.77   -2.86   41.22   -2.86   41.22   -3.22  -50.77
    0.75   -3.87  -55.08   -2.36   37.14   -2.36   37.14   -3.87  -55.08
    0.85   -4.47  -59.04   -1.97   33.55   -1.97   33.55   -4.47  -59.04
    0.95   -5.00  -62.22   -1.70   30.68   -1.70   30.68   -5.00  -62.22
    1.05   -5.49  -65.13   -1.49   27.99   -1.49   27.99   -5.49  -65.13
    1.15   -5.95  -67.66   -1.28   25.94   -1.28   25.94   -5.95  -67.66
    1.25   -6.41  -69.74   -1.12   24.02   -1.12   24.02   -6.41  -69.74
    1.35   -6.81  -71.96   -1.04   22.28   -1.04   22.28   -6.81  -71.96
    1.45   -7.15  -73.63   -0.97   20.73   -0.97   20.73   -7.15  -73.63
    1.55   -7.46  -75.11   -0.90   19.33   -0.90   19.33   -7.46  -75.11
    1.65   -7.77  -76.76   -0.82   17.81   -0.82   17.81   -7.77  -76.76
    1.75   -8.06  -78.24   -0.74   16.97   -0.74   16.97   -8.06  -78.24
    1.85   -8.33  -79.65   -0.71   16.05   -0.71   16.05   -8.33  -79.65
    1.95   -8.57  -80.63   -0.70   14.97   -0.70   14.97   -8.57  -80.63
    2.05   -8.75  -81.57   -0.66   14.05   -0.66   14.05   -8.75  -81.57
    2.14   -8.93  -82.41   -0.62   13.11   -0.62   13.11   -8.93  -82.41
    2.24   -9.10  -83.69   -0.57   12.47   -0.57   12.47   -9.10  -83.69
    2.34   -9.31  -84.95   -0.57   11.80   -0.57   11.80   -9.31  -84.95
    2.44   -9.46  -85.96   -0.55   11.19   -0.55   11.19   -9.46  -85.96
    2.54   -9.57  -86.45   -0.55   10.56   -0.55   10.56   -9.57  -86.45
    2.64   -9.63  -86.37   -0.53    9.82   -0.53    9.82   -9.63  -86.37
    2.74   -9.80  -87.27   -0.49    9.41   -0.49    9.41   -9.80  -87.27
    2.84   -9.98  -88.50   -0.52    8.71   -0.52    8.71   -9.98  -88.50
    2.94  -10.02  -89.41   -0.49    8.25   -0.49    8.25  -10.02  -89.41
    3.04   -9.99  -89.40   -0.51    7.62   -0.51    7.62   -9.99  -89.40
    3.14  -10.09  -90.05   -0.48    7.17   -0.48    7.17  -10.09  -90.05
    3.24  -10.09  -90.44   -0.51    6.91   -0.51    6.91  -10.09  -90.44
    3.34  -10.30  -91.71   -0.49    6.08   -0.49    6.08  -10.30  -91.71
    3.44  -10.20  -92.79   -0.51    5.95   -0.51    5.95  -10.20  -92.79
    3.54  -10.20  -92.53   -0.53    5.34   -0.53    5.34  -10.20  -92.53
    3.64  -10.11  -93.41   -0.50    4.96   -0.50    4.96  -10.11  -93.41
    3.74  -10.21  -93.40   -0.53    4.73   -0.53    4.73  -10.21  -93.40
    3.84  -10.21  -94.85   -0.55    4.29   -0.55    4.29  -10.21  -94.85
    3.94  -10.11  -95.28   -0.57    3.80   -0.57    3.80  -10.11  -95.28
    4.04  -10.13  -96.67   -0.54    3.58   -0.54    3.58  -10.13  -96.67
    4.14   -9.99  -97.27   -0.53    3.41   -0.53    3.41   -9.99  -97.27
    4.24   -9.99  -97.37   -0.54    3.13   -0.54    3.13   -9.99  -97.37
    4.34  -10.05  -99.18   -0.54    2.93   -0.54    2.93  -10.05  -99.18
    4.44   -9.99  -99.80   -0.57    2.57   -0.57    2.57   -9.99  -99.80
    4.54   -9.93 -100.08   -0.61    2.04   -0.61    2.04   -9.93 -100.08
    4.64   -9.85 -100.42   -0.55    1.89   -0.55    1.89   -9.85 -100.42
    4.74   -9.74  -99.88   -0.57    2.06   -0.57    2.06   -9.74  -99.88
    4.84   -9.85 -100.86   -0.61    1.65   -0.61    1.65   -9.85 -100.86
    4.94   -9.71 -101.01   -0.61    1.48   -0.61    1.48   -9.71 -101.01
    5.04   -9.75 -101.71   -0.64    1.01   -0.64    1.01   -9.75 -101.71
    5.14   -9.56 -102.12   -0.61    0.76   -0.61    0.76   -9.56 -102.12
    5.24   -9.62 -101.92   -0.61    0.97   -0.61    0.97   -9.62 -101.92
    5.34   -9.51 -102.63   -0.61    0.87   -0.61    0.87   -9.51 -102.63
    5.44   -9.69 -102.20   -0.69    0.61   -0.69    0.61   -9.69 -102.20
    5.54   -9.49 -103.59   -0.67    0.11   -0.67    0.11   -9.49 -103.59
    5.64   -9.45 -103.16   -0.66    0.19   -0.66    0.19   -9.45 -103.16
    5.74   -9.36 -104.08   -0.65   -0.02   -0.65   -0.02   -9.36 -104.08
    5.84   -9.46 -103.44   -0.66    0.36   -0.66    0.36   -9.46 -103.44
    5.94   -9.49 -104.63   -0.70   -0.08   -0.70   -0.08   -9.49 -104.63
    6.04   -9.49 -104.71   -0.70   -0.24   -0.70   -0.24   -9.49 -104.71
    6.13   -9.34 -105.15   -0.69   -0.44   -0.69   -0.44   -9.34 -105.15
    6.23   -9.42 -104.94   -0.71   -0.34   -0.71   -0.34   -9.42 -104.94
    6.33   -9.45 -105.39   -0.68   -0.28   -0.68   -0.28   -9.45 -105.39
    6.43   -9.60 -105.93   -0.72   -0.30   -0.72   -0.30   -9.60 -105.93
    6.53   -9.52 -106.49   -0.72   -0.80   -0.72   -0.80   -9.52 -106.49
    6.63   -9.58 -106.34   -0.72   -0.82   -0.72   -0.82   -9.58 -106.34
    6.73   -9.56 -106.25   -0.70   -1.05   -0.70   -1.05   -9.56 -106.25
    6.83   -9.78 -106.26   -0.73   -0.82   -0.73   -0.82   -9.78 -106.26
    6.93   -9.76 -106.95   -0.76   -0.95   -0.76   -0.95   -9.76 -106.95
    7.03   -9.86 -106.47   -0.77   -0.88   -0.77   -0.88   -9.86 -106.47
    7.13   -9.73 -106.33   -0.77   -1.07   -0.77   -1.07   -9.73 -106.33
    7.23   -9.85 -106.32   -0.75   -1.25   -0.75   -1.25   -9.85 -106.32
    7.33   -9.91 -106.16   -0.79   -1.07   -0.79   -1.07   -9.91 -106.16
    7.43  -10.10 -106.46   -0.80   -1.02   -0.80   -1.02  -10.10 -106.46
    7.53   -9.98 -105.63   -0.81   -1.34   -0.81   -1.34   -9.98 -105.63
    7.63  -10.06 -105.66   -0.84   -1.13   -0.84   -1.13  -10.06 -105.66
    7.73   -9.92 -105.16   -0.82   -1.54   -0.82   -1.54   -9.92 -105.16
    7.83  -10.14 -105.69   -0.81   -1.07   -0.81   -1.07  -10.14 -105.69
    7.93  -10.13 -106.42   -0.83   -1.50   -0.83   -1.50  -10.13 -106.42
    8.03  -10.33 -106.27   -0.78   -1.54   -0.78   -1.54  -10.33 -106.27
    8.13  -10.31 -105.22   -0.87   -2.16   -0.87   -2.16  -10.31 -105.22
    8.23   -9.88 -102.23   -1.01   -1.40   -1.01   -1.40   -9.88 -102.23
    8.33   -9.98 -105.40   -0.86   -1.08   -0.86   -1.08   -9.98 -105.40
    8.43  -10.18 -107.04   -0.85   -1.33   -0.85   -1.33  -10.18 -107.04
    8.53  -10.17 -107.07   -0.84   -1.16   -0.84   -1.16  -10.17 -107.07
    8.63  -10.22 -107.15   -0.84   -1.66   -0.84   -1.66  -10.22 -107.15
    8.73  -10.26 -107.42   -0.81   -2.03   -0.81   -2.03  -10.26 -107.42
    8.83  -10.36 -108.20   -0.79   -2.16   -0.79   -2.16  -10.36 -108.20
    8.93  -10.49 -109.11   -0.81   -2.25   -0.81   -2.25  -10.49 -109.11
    9.03  -10.45 -109.57   -0.85   -2.56   -0.85   -2.56  -10.45 -109.57
    9.13  -10.42 -109.26   -0.85   -2.45   -0.85   -2.45  -10.42 -109.26
    9.23  -10.40 -110.26   -0.86   -2.58   -0.86   -2.58  -10.40 -110.26
    9.33  -10.44 -110.56   -0.88   -2.95   -0.88   -2.95  -10.44 -110.56
    9.43  -10.52 -112.69   -0.88   -2.91   -0.88   -2.91  -10.52 -112.69
    9.53  -10.44 -113.74   -0.86   -2.98   -0.86   -2.98  -10.44 -113.74
    9.63  -10.46 -114.26   -0.86   -3.32   -0.86   -3.32  -10.46 -114.26
    9.73  -10.31 -115.66   -0.89   -3.24   -0.89   -3.24  -10.31 -115.66
    9.83  -10.32 -116.77   -0.91   -3.61   -0.91   -3.61  -10.32 -116.77
    9.93  -10.47 -118.93   -0.89   -3.64   -0.89   -3.64  -10.47 -118.93
   10.03  -10.36 -120.65   -0.86   -3.78   -0.86   -3.78  -10.36 -120.65
   10.12  -10.34 -121.54   -0.88   -4.06   -0.88   -4.06  -10.34 -121.54
   10.22  -10.16 -122.48   -0.90   -4.06   -0.90   -4.06  -10.16 -122.48
   10.32  -10.21 -123.53   -0.98   -3.95   -0.98   -3.95  -10.21 -123.53
   10.42  -10.33 -125.38   -0.98   -4.32   -0.98   -4.32  -10.33 -125.38
   10.52  -10.26 -127.38   -0.99   -4.56   -0.99   -4.56  -10.26 -127.38
   10.62  -10.22 -127.89   -0.98   -4.75   -0.98   -4.75  -10.22 -127.89
   10.72  -10.11 -129.74   -0.96   -4.76   -0.96   -4.76  -10.11 -129.74
   10.82  -10.13 -128.98   -1.02   -4.49   -1.02   -4.49  -10.13 -128.98
   10.92  -10.29 -131.58   -1.06   -5.14   -1.06   -5.14  -10.29 -131.58
   11.02  -10.20 -131.80   -1.04   -5.08   -1.04   -5.08  -10.20 -131.80
   11.12  -10.27 -133.38   -1.05   -5.63   -1.05   -5.63  -10.27 -133.38
   11.22  -10.08 -133.64   -1.02   -5.52   -1.02   -5.52  -10.08 -133.64
   11.32  -10.23 -134.09   -1.11   -5.41   -1.11   -5.41  -10.23 -134.09
   11.42  -10.34 -134.87   -1.10   -5.77   -1.10   -5.77  -10.34 -134.87
   11.52  -10.28 -135.65   -1.09   -5.82   -1.09   -5.82  -10.28 -135.65
   11.62  -10.31 -135.61   -1.12   -6.05   -1.12   -6.05  -10.31 -135.61
   11.72  -10.31 -136.94   -1.13   -6.16   -1.13   -6.16  -10.31 -136.94
   11.82  -10.37 -136.74   -1.15   -6.07   -1.15   -6.07  -10.37 -136.74
   11.92  -10.68 -138.11   -1.21   -6.26   -1.21   -6.26  -10.68 -138.11
   12.02  -10.64 -138.78   -1.18   -6.39   -1.18   -6.39  -10.64 -138.78
   12.12  -10.87 -139.31   -1.20   -6.66   -1.20   -6.66  -10.87 -139.31
   12.22  -10.90 -139.42   -1.18   -6.79   -1.18   -6.79  -10.90 -139.42
   12.32  -11.05 -140.08   -1.18   -7.01   -1.18   -7.01  -11.05 -140.08
   12.42  -11.44 -140.54   -1.21   -6.95   -1.21   -6.95  -11.44 -140.54
   12.52  -11.62 -142.51   -1.25   -7.42   -1.25   -7.42  -11.62 -142.51
   12.62  -11.97 -141.58   -1.21   -7.32   -1.21   -7.32  -11.97 -141.58
   12.72  -12.27 -142.88   -1.21   -7.95   -1.21   -7.95  -12.27 -142.88
   12.82  -12.62 -142.24   -1.15   -8.10   -1.15   -8.10  -12.62 -142.24
   12.92  -13.22 -143.80   -1.17   -8.53   -1.17   -8.53  -13.22 -143.80
   13.02  -13.80 -144.23   -1.14   -8.99   -1.14   -8.99  -13.80 -144.23
   13.12  -14.45 -145.41   -1.17   -9.82   -1.17   -9.82  -14.45 -145.41
   13.22  -15.36 -145.48   -1.11  -10.97   -1.11  -10.97  -15.36 -145.48
   13.32  -16.75 -146.28   -1.15  -12.26   -1.15  -12.26  -16.75 -146.28
   13.42  -19.02 -145.80   -1.16  -13.67   -1.16  -13.67  -19.02 -145.80
   13.52  -22.71 -140.58   -1.21  -16.14   -1.21  -16.14  -22.71 -140.58
   13.62  -30.54  -88.84   -1.32  -19.52   -1.32  -19.52  -30.54  -88.84
   13.72  -19.69  -20.22   -1.77  -25.76   -1.77  -25.76  -19.69  -20.22
   13.82  -11.45  -24.78   -3.05  -34.02   -3.05  -34.02  -11.45  -24.78
   13.92   -6.35  -52.51   -7.52  -37.71   -7.52  -37.71   -6.35  -52.51
   14.02   -4.92  -86.43   -8.90   12.48   -8.90   12.48   -4.92  -86.43
   14.11   -5.96 -109.35   -4.63   17.96   -4.63   17.96   -5.96 -109.35
   14.21   -7.16 -120.80   -3.00   12.70   -3.00   12.70   -7.16 -120.80
   14.31   -8.39 -126.97   -2.36    9.15   -2.36    9.15   -8.39 -126.97
   14.41   -9.52 -132.88   -2.01    6.32   -2.01    6.32   -9.52 -132.88
   14.51  -10.42 -136.95   -1.85    4.50   -1.85    4.50  -10.42 -136.95
   14.61  -11.22 -139.50   -1.76    3.07   -1.76    3.07  -11.22 -139.50
   14.71  -11.81 -142.40   -1.72    1.53   -1.72    1.53  -11.81 -142.40
   14.81  -12.50 -144.73   -1.70    0.44   -1.70    0.44  -12.50 -144.73
   14.91  -13.12 -148.31   -1.70   -0.29   -1.70   -0.29  -13.12 -148.31
   15.01  -14.03 -152.39   -1.69   -0.59   -1.69   -0.59  -14.03 -152.39
   15.11  -14.67 -154.11   -1.71   -1.26   -1.71   -1.26  -14.67 -154.11
   15.21  -15.34 -158.09   -1.69   -1.46   -1.69   -1.46  -15.34 -158.09
   15.31  -15.77 -158.75   -1.66   -2.08   -1.66   -2.08  -15.77 -158.75
   15.41  -16.48 -163.28   -1.65   -2.45   -1.65   -2.45  -16.48 -163.28
   15.51  -17.02 -164.78   -1.67   -2.79   -1.67   -2.79  -17.02 -164.78
   15.61  -17.38 -168.95   -1.63   -3.18   -1.63   -3.18  -17.38 -168.95
   15.71  -17.71 -170.42   -1.64   -3.32   -1.64   -3.32  -17.71 -170.42
   15.81  -17.90 -173.68   -1.71   -3.83   -1.71   -3.83  -17.90 -173.68
   15.91  -18.26 -175.50   -1.72   -4.09   -1.72   -4.09  -18.26 -175.50
   16.01  -18.38 -179.50   -1.73   -4.27   -1.73   -4.27  -18.38 -179.50
   16.11  -18.46  177.60   -1.76   -4.64   -1.76   -4.64  -18.46  177.60
   16.21  -18.38  174.67   -1.75   -4.79   -1.75   -4.79  -18.38  174.67
   16.31  -18.29  172.13   -1.75   -4.85   -1.75   -4.85  -18.29  172.13
   16.41  -18.26  169.99   -1.80   -5.04   -1.80   -5.04  -18.26  169.99
   16.51  -18.10  166.67   -1.80   -5.69   -1.80   -5.69  -18.10  166.67
   16.61  -18.06  165.24   -1.86   -6.08   -1.86   -6.08  -18.06  165.24
   16.71  -17.75  162.53   -1.88   -6.68   -1.88   -6.68  -17.75  162.53
   16.81  -17.21  159.25   -1.87   -6.60   -1.87   -6.60  -17.21  159.25
   16.91  -17.11  157.02   -2.02   -6.99   -2.02   -6.99  -17.11  157.02
   17.01  -16.74  151.96   -2.07   -6.93   -2.07   -6.93  -16.74  151.96
   17.11  -16.77  149.33   -2.13   -7.03   -2.13   -7.03  -16.77  149.33
   17.21  -16.54  143.38   -2.21   -7.06   -2.21   -7.06  -16.54  143.38
   17.31  -16.81  141.01   -2.25   -6.89   -2.25   -6.89  -16.81  141.01
   17.41  -16.72  137.56   -2.24   -6.53   -2.24   -6.53  -16.72  137.56
   17.51  -17.31  133.39   -2.26   -6.39   -2.26   -6.39  -17.31  133.39
   17.61  -17.28  130.57   -2.23   -6.60   -2.23   -6.60  -17.28  130.57
   17.71  -18.05  128.62   -2.25   -6.31   -2.25   -6.31  -18.05  128.62
   17.81  -18.04  127.45   -2.18   -6.91   -2.18   -6.91  -18.04  127.45
   17.91  -18.36  124.68   -2.23   -7.01   -2.23   -7.01  -18.36  124.68
   18.01  -18.51  122.14   -2.23   -7.48   -2.23   -7.48  -18.51  122.14
   18.10  -18.57  118.90   -2.22   -8.14   -2.22   -8.14  -18.57  118.90
   18.20  -18.44  115.71   -2.33   -8.01   -2.33   -8.01  -18.44  115.71
   18.30  -18.34  110.42   -2.36   -8.48   -2.36   -8.48  -18.34  110.42
   18.40  -18.27  104.01   -2.49   -8.44   -2.49   -8.44  -18.27  104.01
   18.50  -17.95   96.34   -2.49   -8.59   -2.49   -8.59  -17.95   96.34
   18.60  -17.92   88.64   -2.55   -8.51   -2.55   -8.51  -17.92   88.64
   18.70  -17.59   81.17   -2.56   -8.48   -2.56   -8.48  -17.59   81.17
   18.80  -17.20   73.11   -2.61   -8.42   -2.61   -8.42  -17.20   73.11
   18.90  -16.94   66.60   -2.64   -8.48   -2.64   -8.48  -16.94   66.60
   19.00  -16.36   58.43   -2.61   -8.49   -2.61   -8.49  -16.36   58.43
   19.10  -15.93   53.06   -2.63   -8.90   -2.63   -8.90  -15.93   53.06
   19.20  -15.34   47.93   -2.66   -8.67   -2.66   -8.67  -15.34   47.93
   19.30  -14.77   43.54   -2.71   -9.14   -2.71   -9.14  -14.77   43.54
   19.40  -14.09   39.49   -2.72   -9.39   -2.72   -9.39  -14.09   39.49
   19.50  -13.41   34.34   -2.70   -9.59   -2.70   -9.59  -13.41   34.34
   19.60  -12.88   31.84   -2.75   -9.86   -2.75   -9.86  -12.88   31.84
   19.70  -12.18   27.47   -2.78  -10.11   -2.78  -10.11  -12.18   27.47
   19.80  -11.64   26.39   -2.87  -10.05   -2.87  -10.05  -11.64   26.39
   19.90  -11.10   22.62   -2.86  -10.43   -2.86  -10.43  -11.10   22.62
   20.00  -10.73   20.57   -2.89  -10.55   -2.89  -10.55  -10.73   20.57
