!  American Technical Ceramics  Date:     3/6/98
!  One Norden Lane
!  Huntington Station,  NY.   11746-2102
!  Tel:  (516) 547-5700               Fax:  (516) 547-5748
!  Part Number  500S1R1
!  Description: Broadband Microwave capacitor
!  Application:
!
# GHZ S DB R 50
! Freq   |S11|   S11 Ph  |S21|   S21 Ph  |S12|   S12 Ph  |S22|   S22 Ph
    0.05    0.01   -1.42  -29.19   86.41  -29.19   86.41    0.01   -1.42
    0.18   -0.03   -6.95  -18.30   83.26  -18.30   83.26   -0.03   -6.95
    0.31   -0.11  -11.95  -13.63   78.09  -13.63   78.09   -0.11  -11.95
    0.45   -0.32  -16.86  -10.79   73.63  -10.79   73.63   -0.32  -16.86
    0.58   -0.60  -21.98   -8.71   68.04   -8.71   68.04   -0.60  -21.98
    0.71   -0.96  -26.36   -7.27   63.11   -7.27   63.11   -0.96  -26.36
    0.84   -1.28  -31.06   -6.12   59.36   -6.12   59.36   -1.28  -31.06
    0.98   -1.49  -33.72   -5.14   55.35   -5.14   55.35   -1.49  -33.72
    1.11   -1.98  -37.49   -4.47   52.53   -4.47   52.53   -1.98  -37.49
    1.24   -2.42  -39.93   -3.88   49.85   -3.88   49.85   -2.42  -39.93
    1.37   -2.64  -43.24   -3.36   46.46   -3.36   46.46   -2.64  -43.24
    1.50   -3.12  -46.18   -2.97   44.08   -2.97   44.08   -3.12  -46.18
    1.64   -3.38  -47.76   -2.56   41.39   -2.56   41.39   -3.38  -47.76
    1.77   -3.81  -50.70   -2.28   39.13   -2.28   39.13   -3.81  -50.70
    1.90   -4.21  -52.34   -2.05   37.17   -2.05   37.17   -4.21  -52.34
    2.03   -4.53  -54.63   -1.85   35.14   -1.85   35.14   -4.53  -54.63
    2.17   -4.96  -56.23   -1.66   33.33   -1.66   33.33   -4.96  -56.23
    2.30   -5.29  -57.56   -1.49   31.62   -1.49   31.62   -5.29  -57.56
    2.43   -5.69  -59.64   -1.37   30.26   -1.37   30.26   -5.69  -59.64
    2.56   -6.09  -60.30   -1.21   28.61   -1.21   28.61   -6.09  -60.30
    2.70   -6.43  -62.31   -1.11   27.25   -1.11   27.25   -6.43  -62.31
    2.83   -6.79  -63.29   -1.03   26.04   -1.03   26.04   -6.79  -63.29
    2.96   -7.12  -64.06   -0.95   24.54   -0.95   24.54   -7.12  -64.06
    3.09   -7.60  -65.50   -0.89   23.45   -0.89   23.45   -7.60  -65.50
    3.22   -7.89  -65.78   -0.83   22.20   -0.83   22.20   -7.89  -65.78
    3.36   -8.24  -67.47   -0.77   21.22   -0.77   21.22   -8.24  -67.47
    3.49   -8.55  -67.42   -0.73   20.31   -0.73   20.31   -8.55  -67.42
    3.62   -8.85  -68.09   -0.71   19.25   -0.71   19.25   -8.85  -68.09
    3.75   -9.27  -69.03   -0.68   18.30   -0.68   18.30   -9.27  -69.03
    3.89   -9.47  -69.20   -0.65   17.26   -0.65   17.26   -9.47  -69.20
    4.02   -9.60  -71.61   -0.53   16.99   -0.53   16.99   -9.60  -71.61
    4.15   -9.82  -71.74   -0.48   16.24   -0.48   16.24   -9.82  -71.74
    4.28  -10.04  -72.54   -0.47   15.53   -0.47   15.53  -10.04  -72.54
    4.41  -10.39  -72.89   -0.48   14.87   -0.48   14.87  -10.39  -72.89
    4.55  -10.57  -73.33   -0.46   14.15   -0.46   14.15  -10.57  -73.33
    4.68  -10.80  -74.15   -0.45   13.58   -0.45   13.58  -10.80  -74.15
    4.81  -10.90  -73.73   -0.44   13.19   -0.44   13.19  -10.90  -73.73
    4.94  -11.10  -73.92   -0.42   12.84   -0.42   12.84  -11.10  -73.92
    5.08  -11.31  -73.78   -0.42   12.41   -0.42   12.41  -11.31  -73.78
    5.21  -11.38  -74.63   -0.41   11.84   -0.41   11.84  -11.38  -74.63
    5.34  -11.54  -75.21   -0.37   11.58   -0.37   11.58  -11.54  -75.21
    5.47  -11.62  -74.73   -0.36   11.08   -0.36   11.08  -11.62  -74.73
    5.60  -11.81  -75.93   -0.37   10.73   -0.37   10.73  -11.81  -75.93
    5.74  -11.94  -75.70   -0.34   10.52   -0.34   10.52  -11.94  -75.70
    5.87  -12.12  -76.29   -0.35   10.07   -0.35   10.07  -12.12  -76.29
    6.00  -12.36  -77.59   -0.37    9.61   -0.37    9.61  -12.36  -77.59
    6.13  -12.33  -76.86   -0.33    9.37   -0.33    9.37  -12.33  -76.86
    6.27  -12.56  -77.15   -0.32    9.18   -0.32    9.18  -12.56  -77.15
    6.40  -12.73  -78.19   -0.34    8.87   -0.34    8.87  -12.73  -78.19
    6.53  -13.00  -78.67   -0.34    8.68   -0.34    8.68  -13.00  -78.67
    6.66  -13.22  -78.92   -0.32    8.36   -0.32    8.36  -13.22  -78.92
    6.79  -13.31  -79.60   -0.34    7.93   -0.34    7.93  -13.31  -79.60
    6.93  -13.65  -79.02   -0.33    7.91   -0.33    7.91  -13.65  -79.02
    7.06  -13.85  -77.53   -0.31    7.73   -0.31    7.73  -13.85  -77.53
    7.19  -14.04  -79.07   -0.34    7.36   -0.34    7.36  -14.04  -79.07
    7.32  -14.30  -78.46   -0.35    7.30   -0.35    7.30  -14.30  -78.46
    7.46  -14.58  -77.39   -0.34    7.11   -0.34    7.11  -14.58  -77.39
    7.59  -14.62  -77.67   -0.36    6.84   -0.36    6.84  -14.62  -77.67
    7.72  -14.83  -76.55   -0.34    6.85   -0.34    6.85  -14.83  -76.55
    7.85  -15.30  -76.65   -0.32    6.81   -0.32    6.81  -15.30  -76.65
    7.99  -15.36  -76.29   -0.34    6.52   -0.34    6.52  -15.36  -76.29
    8.12  -15.61  -75.78   -0.34    6.36   -0.34    6.36  -15.61  -75.78
    8.25  -15.93  -75.52   -0.32    6.31   -0.32    6.31  -15.93  -75.52
    8.38  -16.12  -74.80   -0.32    6.02   -0.32    6.02  -16.12  -74.80
    8.51  -16.51  -74.98   -0.30    5.90   -0.30    5.90  -16.51  -74.98
    8.65  -16.82  -74.61   -0.28    5.83   -0.28    5.83  -16.82  -74.61
    8.78  -17.17  -74.30   -0.29    5.55   -0.29    5.55  -17.17  -74.30
    8.91  -17.54  -73.05   -0.29    5.30   -0.29    5.30  -17.54  -73.05
    9.04  -17.77  -72.03   -0.29    5.10   -0.29    5.10  -17.77  -72.03
    9.18  -18.04  -72.23   -0.29    4.97   -0.29    4.97  -18.04  -72.23
    9.31  -18.24  -71.13   -0.29    4.82   -0.29    4.82  -18.24  -71.13
    9.44  -18.49  -71.36   -0.28    4.81   -0.28    4.81  -18.49  -71.36
    9.57  -18.60  -71.16   -0.29    4.62   -0.29    4.62  -18.60  -71.16
    9.70  -18.74  -71.83   -0.28    4.57   -0.28    4.57  -18.74  -71.83
    9.84  -19.03  -72.69   -0.26    4.43   -0.26    4.43  -19.03  -72.69
    9.97  -19.14  -72.35   -0.26    4.21   -0.26    4.21  -19.14  -72.35
   10.10  -19.26  -73.79   -0.24    4.20   -0.24    4.20  -19.26  -73.79
   10.23  -19.33  -74.61   -0.23    4.12   -0.23    4.12  -19.33  -74.61
   10.37  -19.46  -76.06   -0.22    3.98   -0.22    3.98  -19.46  -76.06
   10.50  -19.49  -76.87   -0.21    3.87   -0.21    3.87  -19.49  -76.87
   10.63  -19.65  -77.82   -0.19    3.67   -0.19    3.67  -19.65  -77.82
   10.76  -19.85  -79.39   -0.18    3.48   -0.18    3.48  -19.85  -79.39
   10.89  -19.75  -79.07   -0.17    3.40   -0.17    3.40  -19.75  -79.07
   11.03  -19.78  -79.26   -0.17    3.28   -0.17    3.28  -19.78  -79.26
   11.16  -19.81  -80.15   -0.17    3.04   -0.17    3.04  -19.81  -80.15
   11.29  -19.71  -80.19   -0.16    2.95   -0.16    2.95  -19.71  -80.19
   11.42  -19.71  -79.99   -0.16    2.89   -0.16    2.89  -19.71  -79.99
   11.56  -19.62  -80.58   -0.15    2.72   -0.15    2.72  -19.62  -80.58
   11.69  -19.50  -80.68   -0.14    2.66   -0.14    2.66  -19.50  -80.68
   11.82  -19.42  -79.90   -0.14    2.62   -0.14    2.62  -19.42  -79.90
   11.95  -19.45  -80.51   -0.13    2.40   -0.13    2.40  -19.45  -80.51
   12.08  -19.31  -80.45   -0.12    2.31   -0.12    2.31  -19.31  -80.45
   12.22  -19.22  -80.01   -0.12    2.24   -0.12    2.24  -19.22  -80.01
   12.35  -19.25  -81.30   -0.12    2.06   -0.12    2.06  -19.25  -81.30
   12.48  -19.06  -80.23   -0.11    1.93   -0.11    1.93  -19.06  -80.23
   12.61  -19.18  -80.58   -0.13    1.89   -0.13    1.89  -19.18  -80.58
   12.75  -19.21  -81.88   -0.13    1.72   -0.13    1.72  -19.21  -81.88
   12.88  -19.20  -80.84   -0.12    1.59   -0.12    1.59  -19.20  -80.84
   13.01  -19.47  -81.07   -0.14    1.73   -0.14    1.73  -19.47  -81.07
   13.14  -19.53  -82.18   -0.14    1.62   -0.14    1.62  -19.53  -82.18
   13.28  -19.78  -81.84   -0.13    1.55   -0.13    1.55  -19.78  -81.84
   13.41  -20.07  -81.01   -0.12    1.63   -0.12    1.63  -20.07  -81.01
   13.54  -20.32  -81.22   -0.12    1.55   -0.12    1.55  -20.32  -81.22
   13.67  -20.68  -81.38   -0.11    1.50   -0.11    1.50  -20.68  -81.38
   13.80  -21.28  -80.69   -0.10    1.43   -0.10    1.43  -21.28  -80.69
   13.94  -21.77  -80.47   -0.09    1.30   -0.09    1.30  -21.77  -80.47
   14.07  -22.23  -79.32   -0.08    1.16   -0.08    1.16  -22.23  -79.32
   14.20  -22.99  -78.75   -0.08    1.11   -0.08    1.11  -22.99  -78.75
   14.33  -23.75  -77.60   -0.09    0.96   -0.09    0.96  -23.75  -77.60
   14.47  -24.52  -76.27   -0.08    0.91   -0.08    0.91  -24.52  -76.27
   14.60  -25.62  -75.82   -0.09    0.82   -0.09    0.82  -25.62  -75.82
   14.73  -26.65  -73.04   -0.09    0.68   -0.09    0.68  -26.65  -73.04
   14.86  -27.97  -69.03   -0.09    0.62   -0.09    0.62  -27.97  -69.03
   14.99  -28.90  -65.29   -0.09    0.53   -0.09    0.53  -28.90  -65.29
   15.13  -30.32  -61.24   -0.10    0.43   -0.10    0.43  -30.32  -61.24
   15.26  -31.71  -56.12   -0.10    0.40   -0.10    0.40  -31.71  -56.12
   15.39  -32.98  -48.84   -0.10    0.30   -0.10    0.30  -32.98  -48.84
   15.52  -34.49  -43.06   -0.10    0.18   -0.10    0.18  -34.49  -43.06
   15.66  -36.46  -31.86   -0.10    0.18   -0.10    0.18  -36.46  -31.86
   15.79  -37.03  -14.38   -0.10    0.10   -0.10    0.10  -37.03  -14.38
   15.92  -36.71   -7.91   -0.10    0.02   -0.10    0.02  -36.71   -7.91
   16.05  -37.91   -1.75   -0.11    0.02   -0.11    0.02  -37.91   -1.75
   16.18  -37.78    6.11   -0.10   -0.05   -0.10   -0.05  -37.78    6.11
   16.32  -37.47    8.54   -0.09   -0.13   -0.09   -0.13  -37.47    8.54
   16.45  -37.40    7.50   -0.09   -0.21   -0.09   -0.21  -37.40    7.50
   16.58  -37.46    8.58   -0.09   -0.31   -0.09   -0.31  -37.46    8.58
   16.71  -37.54    8.29   -0.09   -0.41   -0.09   -0.41  -37.54    8.29
   16.85  -36.42   -1.87   -0.09   -0.45   -0.09   -0.45  -36.42   -1.87
   16.98  -35.60  -13.34   -0.09   -0.49   -0.09   -0.49  -35.60  -13.34
   17.11  -35.04  -24.05   -0.10   -0.61   -0.10   -0.61  -35.04  -24.05
   17.24  -33.61  -28.83   -0.11   -0.61   -0.11   -0.61  -33.61  -28.83
   17.37  -32.63  -39.85   -0.11   -0.64   -0.11   -0.64  -32.63  -39.85
   17.51  -32.12  -49.12   -0.12   -0.68   -0.12   -0.68  -32.12  -49.12
   17.64  -31.47  -49.97   -0.11   -0.76   -0.11   -0.76  -31.47  -49.97
   17.77  -30.35  -53.69   -0.11   -0.75   -0.11   -0.75  -30.35  -53.69
   17.90  -29.24  -56.19   -0.11   -0.89   -0.11   -0.89  -29.24  -56.19
   18.04  -28.94  -63.22   -0.10   -0.96   -0.10   -0.96  -28.94  -63.22
   18.17  -28.42  -60.67   -0.10   -1.05   -0.10   -1.05  -28.42  -60.67
   18.30  -28.00  -63.59   -0.10   -1.09   -0.10   -1.09  -28.00  -63.59
   18.43  -27.67  -65.14   -0.11   -1.20   -0.11   -1.20  -27.67  -65.14
   18.57  -27.61  -66.06   -0.11   -1.30   -0.11   -1.30  -27.61  -66.06
   18.70  -27.62  -66.44   -0.12   -1.33   -0.12   -1.33  -27.62  -66.44
   18.83  -27.74  -66.77   -0.13   -1.38   -0.13   -1.38  -27.74  -66.77
   18.96  -28.08  -66.80   -0.13   -1.42   -0.13   -1.42  -28.08  -66.80
   19.09  -28.79  -65.30   -0.13   -1.42   -0.13   -1.42  -28.79  -65.30
   19.23  -29.25  -61.57   -0.12   -1.47   -0.12   -1.47  -29.25  -61.57
   19.36  -29.93  -61.01   -0.13   -1.53   -0.13   -1.53  -29.93  -61.01
   19.49  -31.03  -59.34   -0.11   -1.52   -0.11   -1.52  -31.03  -59.34
   19.62  -32.78  -51.12   -0.11   -1.60   -0.11   -1.60  -32.78  -51.12
   19.76  -34.07  -43.16   -0.11   -1.65   -0.11   -1.65  -34.07  -43.16
   19.89  -35.86  -33.31   -0.11   -1.81   -0.11   -1.81  -35.86  -33.31
   20.02  -37.63   -5.51   -0.12   -1.87   -0.12   -1.87  -37.63   -5.51
   20.15  -37.31   19.17   -0.13   -1.97   -0.13   -1.97  -37.31   19.17
   20.28  -36.46   36.31   -0.13   -2.13   -0.13   -2.13  -36.46   36.31
   20.42  -35.08   59.01   -0.14   -2.23   -0.14   -2.23  -35.08   59.01
   20.55  -32.49   67.31   -0.16   -2.32   -0.16   -2.32  -32.49   67.31
   20.68  -30.45   75.44   -0.17   -2.38   -0.17   -2.38  -30.45   75.44
   20.81  -29.19   78.95   -0.17   -2.52   -0.17   -2.52  -29.19   78.95
   20.95  -27.99   85.47   -0.18   -2.55   -0.18   -2.55  -27.99   85.47
   21.08  -26.67   88.91   -0.20   -2.57   -0.20   -2.57  -26.67   88.91
   21.21  -25.92   87.76   -0.22   -2.67   -0.22   -2.67  -25.92   87.76
   21.34  -25.46   90.87   -0.23   -2.73   -0.23   -2.73  -25.46   90.87
   21.47  -24.83   94.83   -0.24   -2.65   -0.24   -2.65  -24.83   94.83
   21.61  -24.41   93.66   -0.24   -2.66   -0.24   -2.66  -24.41   93.66
   21.74  -24.23   93.81   -0.26   -2.77   -0.26   -2.77  -24.23   93.81
   21.87  -23.95   96.85   -0.25   -2.67   -0.25   -2.67  -23.95   96.85
   22.00  -23.70   95.74   -0.26   -2.63   -0.26   -2.63  -23.70   95.74
   22.14  -23.74   94.39   -0.27   -2.74   -0.27   -2.74  -23.74   94.39
   22.27  -24.14   96.10   -0.27   -2.84   -0.27   -2.84  -24.14   96.10
   22.40  -24.05   96.15   -0.28   -2.66   -0.28   -2.66  -24.05   96.15
   22.53  -23.96   94.38   -0.31   -2.69   -0.31   -2.69  -23.96   94.38
   22.66  -24.44   92.91   -0.32   -2.53   -0.32   -2.53  -24.44   92.91
   22.80  -25.00   91.95   -0.32   -2.48   -0.32   -2.48  -25.00   91.95
   22.93  -25.07   90.03   -0.33   -2.50   -0.33   -2.50  -25.07   90.03
   23.06  -25.38   86.83   -0.33   -2.40   -0.33   -2.40  -25.38   86.83
   23.19  -25.81   83.60   -0.33   -2.42   -0.33   -2.42  -25.81   83.60
   23.33  -26.08   80.70   -0.33   -2.42   -0.33   -2.42  -26.08   80.70
   23.46  -26.26   77.32   -0.32   -2.49   -0.32   -2.49  -26.26   77.32
   23.59  -26.31   73.90   -0.34   -2.62   -0.34   -2.62  -26.31   73.90
   23.72  -25.95   71.64   -0.35   -2.67   -0.35   -2.67  -25.95   71.64
   23.86  -25.56   69.77   -0.37   -2.72   -0.37   -2.72  -25.56   69.77
   23.99  -24.90   68.18   -0.37   -2.85   -0.37   -2.85  -24.90   68.18
   24.12  -24.11   64.75   -0.40   -3.00   -0.40   -3.00  -24.11   64.75
   24.25  -23.65   63.04   -0.42   -3.05   -0.42   -3.05  -23.65   63.04
   24.38  -22.74   64.70   -0.42   -3.12   -0.42   -3.12  -22.74   64.70
   24.52  -21.53   64.36   -0.44   -3.32   -0.44   -3.32  -21.53   64.36
   24.65  -20.62   64.52   -0.44   -3.35   -0.44   -3.35  -20.62   64.52
   24.78  -19.95   64.86   -0.44   -3.44   -0.44   -3.44  -19.95   64.86
   24.91  -18.91   66.29   -0.46   -3.59   -0.46   -3.59  -18.91   66.29
   25.05  -17.77   67.26   -0.48   -3.64   -0.48   -3.64  -17.77   67.26
   25.18  -17.09   65.64   -0.48   -3.92   -0.48   -3.92  -17.09   65.64
   25.31  -16.34   68.80   -0.50   -3.86   -0.50   -3.86  -16.34   68.80
   25.44  -15.69   70.02   -0.49   -4.05   -0.49   -4.05  -15.69   70.02
   25.57  -15.03   71.06   -0.49   -4.19   -0.49   -4.19  -15.03   71.06
   25.71  -14.61   72.72   -0.50   -4.21   -0.50   -4.21  -14.61   72.72
   25.84  -14.01   75.94   -0.52   -4.49   -0.52   -4.49  -14.01   75.94
   25.97  -13.60   79.18   -0.53   -4.84   -0.53   -4.84  -13.60   79.18
   26.10  -13.13   82.59   -0.57   -5.14   -0.57   -5.14  -13.13   82.59
   26.24  -12.85   87.96   -0.59   -4.93   -0.59   -4.93  -12.85   87.96
   26.37  -12.69   91.22   -0.61   -4.96   -0.61   -4.96  -12.69   91.22
   26.50  -12.71   95.25   -0.64   -4.97   -0.64   -4.97  -12.71   95.25
