!  American Technical Ceramics  Date:     3/6/98
!  One Norden Lane
!  Huntington Station,  NY.   11746-2102
!  Tel:  (516) 547-5700               Fax:  (516) 547-5748
!  Part Number  500S3R6
!  Description: Broadband Microwave capacitor
!  Application:
!
# GHZ S DB R 50
! Freq   |S11|   S11 Ph  |S21|   S21 Ph  |S12|   S12 Ph  |S22|   S22 Ph
    0.05   -0.11   -6.83  -19.07   84.10  -19.07   84.10   -0.11   -6.83
    0.18   -0.72  -22.75   -8.35   67.53   -8.35   67.53   -0.72  -22.75
    0.31   -1.81  -35.88   -4.68   54.25   -4.68   54.25   -1.81  -35.88
    0.45   -3.10  -46.01   -2.91   44.55   -2.91   44.55   -3.10  -46.01
    0.58   -4.53  -53.50   -1.97   36.42   -1.97   36.42   -4.53  -53.50
    0.71   -5.82  -58.79   -1.45   30.74   -1.45   30.74   -5.82  -58.79
    0.84   -6.94  -63.69   -1.10   26.75   -1.10   26.75   -6.94  -63.69
    0.98   -7.88  -65.83   -0.82   23.31   -0.82   23.31   -7.88  -65.83
    1.11   -8.90  -69.07   -0.66   21.00   -0.66   21.00   -8.90  -69.07
    1.24   -9.82  -70.70   -0.52   19.03   -0.52   19.03   -9.82  -70.70
    1.37  -10.54  -72.53   -0.44   17.00   -0.44   17.00  -10.54  -72.53
    1.50  -11.35  -74.36   -0.37   15.61   -0.37   15.61  -11.35  -74.36
    1.64  -12.00  -74.81   -0.30   14.13   -0.30   14.13  -12.00  -74.81
    1.77  -12.72  -76.50   -0.27   13.03   -0.27   13.03  -12.72  -76.50
    1.90  -13.35  -77.03   -0.23   12.11   -0.23   12.11  -13.35  -77.03
    2.03  -13.91  -78.15   -0.21   11.15   -0.21   11.15  -13.91  -78.15
    2.17  -14.58  -78.60   -0.20   10.36   -0.20   10.36  -14.58  -78.60
    2.30  -15.09  -78.99   -0.18    9.65   -0.18    9.65  -15.09  -78.99
    2.43  -15.67  -80.33   -0.16    9.06   -0.16    9.06  -15.67  -80.33
    2.56  -16.26  -79.73   -0.15    8.35   -0.15    8.35  -16.26  -79.73
    2.70  -16.73  -80.98   -0.14    7.82   -0.14    7.82  -16.73  -80.98
    2.83  -17.22  -81.01   -0.14    7.38   -0.14    7.38  -17.22  -81.01
    2.96  -17.66  -80.57   -0.13    6.82   -0.13    6.82  -17.66  -80.57
    3.09  -18.22  -81.19   -0.13    6.43   -0.13    6.43  -18.22  -81.19
    3.22  -18.61  -80.54   -0.13    5.99   -0.13    5.99  -18.61  -80.54
    3.36  -19.01  -81.19   -0.13    5.61   -0.13    5.61  -19.01  -81.19
    3.49  -19.32  -80.41   -0.13    5.31   -0.13    5.31  -19.32  -80.41
    3.62  -19.63  -80.36   -0.13    4.93   -0.13    4.93  -19.63  -80.36
    3.75  -20.03  -80.63   -0.13    4.58   -0.13    4.58  -20.03  -80.63
    3.89  -20.17  -80.31   -0.13    4.24   -0.13    4.24  -20.17  -80.31
    4.02  -20.59  -81.01   -0.11    4.04   -0.11    4.04  -20.59  -81.01
    4.15  -20.80  -80.55   -0.10    3.77   -0.10    3.77  -20.80  -80.55
    4.28  -20.97  -80.98   -0.11    3.52   -0.11    3.52  -20.97  -80.98
    4.41  -21.31  -80.78   -0.13    3.29   -0.13    3.29  -21.31  -80.78
    4.55  -21.40  -81.14   -0.12    3.06   -0.12    3.06  -21.40  -81.14
    4.68  -21.58  -82.18   -0.13    2.83   -0.13    2.83  -21.58  -82.18
    4.81  -21.68  -81.67   -0.13    2.68   -0.13    2.68  -21.68  -81.67
    4.94  -21.76  -81.83   -0.13    2.54   -0.13    2.54  -21.76  -81.83
    5.08  -21.89  -81.86   -0.14    2.39   -0.14    2.39  -21.89  -81.86
    5.21  -21.91  -82.64   -0.14    2.17   -0.14    2.17  -21.91  -82.64
    5.34  -21.99  -83.07   -0.14    2.03   -0.14    2.03  -21.99  -83.07
    5.47  -21.95  -82.91   -0.14    1.87   -0.14    1.87  -21.95  -82.91
    5.60  -22.08  -84.04   -0.14    1.72   -0.14    1.72  -22.08  -84.04
    5.74  -22.14  -83.75   -0.14    1.63   -0.14    1.63  -22.14  -83.75
    5.87  -22.31  -83.85   -0.15    1.49   -0.15    1.49  -22.31  -83.85
    6.00  -22.50  -84.49   -0.16    1.31   -0.16    1.31  -22.50  -84.49
    6.13  -22.52  -83.84   -0.15    1.22   -0.15    1.22  -22.52  -83.84
    6.27  -22.88  -83.68   -0.15    1.13   -0.15    1.13  -22.88  -83.68
    6.40  -23.15  -83.24   -0.16    1.00   -0.16    1.00  -23.15  -83.24
    6.53  -23.52  -82.92   -0.17    0.92   -0.17    0.92  -23.52  -82.92
    6.66  -24.03  -82.03   -0.17    0.81   -0.17    0.81  -24.03  -82.03
    6.79  -24.39  -80.03   -0.18    0.62   -0.18    0.62  -24.39  -80.03
    6.93  -24.90  -77.82   -0.19    0.64   -0.19    0.64  -24.90  -77.82
    7.06  -25.50  -75.53   -0.19    0.58   -0.19    0.58  -25.50  -75.53
    7.19  -26.11  -73.54   -0.20    0.43   -0.20    0.43  -26.11  -73.54
    7.32  -26.67  -69.87   -0.22    0.41   -0.22    0.41  -26.67  -69.87
    7.46  -27.41  -65.67   -0.23    0.34   -0.23    0.34  -27.41  -65.67
    7.59  -27.74  -61.65   -0.24    0.29   -0.24    0.29  -27.74  -61.65
    7.72  -28.10  -57.51   -0.25    0.36   -0.25    0.36  -28.10  -57.51
    7.85  -28.95  -55.47   -0.24    0.38   -0.24    0.38  -28.95  -55.47
    7.99  -29.52  -51.55   -0.25    0.30   -0.25    0.30  -29.52  -51.55
    8.12  -30.28  -46.87   -0.25    0.27   -0.25    0.27  -30.28  -46.87
    8.25  -31.16  -41.90   -0.25    0.27   -0.25    0.27  -31.16  -41.90
    8.38  -31.61  -36.21   -0.25    0.18   -0.25    0.18  -31.61  -36.21
    8.51  -32.40  -30.94   -0.25    0.20   -0.25    0.20  -32.40  -30.94
    8.65  -33.26  -23.96   -0.25    0.18   -0.25    0.18  -33.26  -23.96
    8.78  -33.41  -13.61   -0.25    0.09   -0.25    0.09  -33.41  -13.61
    8.91  -33.50   -5.32   -0.25    0.01   -0.25    0.01  -33.50   -5.32
    9.04  -33.30    2.30   -0.26   -0.02   -0.26   -0.02  -33.30    2.30
    9.18  -32.85    7.02   -0.27   -0.01   -0.27   -0.01  -32.85    7.02
    9.31  -32.63    8.57   -0.27    0.05   -0.27    0.05  -32.63    8.57
    9.44  -33.25   11.57   -0.27    0.08   -0.27    0.08  -33.25   11.57
    9.57  -32.84   16.57   -0.27    0.03   -0.27    0.03  -32.84   16.57
    9.70  -33.22   17.77   -0.26    0.07   -0.26    0.07  -33.22   17.77
    9.84  -33.73   20.57   -0.25    0.06   -0.25    0.06  -33.73   20.57
    9.97  -34.02   24.17   -0.24    0.08   -0.24    0.08  -34.02   24.17
   10.10  -34.61   24.06   -0.24    0.14   -0.24    0.14  -34.61   24.06
   10.23  -35.51   26.66   -0.23    0.18   -0.23    0.18  -35.51   26.66
   10.37  -36.88   28.90   -0.22    0.15   -0.22    0.15  -36.88   28.90
   10.50  -38.28   37.29   -0.21    0.12   -0.21    0.12  -38.28   37.29
   10.63  -39.19   43.65   -0.20    0.07   -0.20    0.07  -39.19   43.65
   10.76  -40.98   45.63   -0.19   -0.01   -0.19   -0.01  -40.98   45.63
   10.89  -42.98   57.96   -0.18   -0.05   -0.18   -0.05  -42.98   57.96
   11.03  -43.97   66.22   -0.18   -0.07   -0.18   -0.07  -43.97   66.22
   11.16  -48.40   68.09   -0.18   -0.14   -0.18   -0.14  -48.40   68.09
   11.29  -57.41  100.13   -0.17   -0.17   -0.17   -0.17  -57.41  100.13
   11.42  -57.66 -168.98   -0.16   -0.24   -0.16   -0.24  -57.66 -168.98
   11.56  -50.05 -121.58   -0.16   -0.27   -0.16   -0.27  -50.05 -121.58
   11.69  -45.35 -114.28   -0.15   -0.36   -0.15   -0.36  -45.35 -114.28
   11.82  -42.78 -109.93   -0.15   -0.41   -0.15   -0.41  -42.78 -109.93
   11.95  -40.97 -103.23   -0.14   -0.48   -0.14   -0.48  -40.97 -103.23
   12.08  -39.26  -98.16   -0.14   -0.54   -0.14   -0.54  -39.26  -98.16
   12.22  -38.77  -92.31   -0.14   -0.61   -0.14   -0.61  -38.77  -92.31
   12.35  -37.84  -88.13   -0.13   -0.63   -0.13   -0.63  -37.84  -88.13
   12.48  -37.84  -81.44   -0.13   -0.77   -0.13   -0.77  -37.84  -81.44
   12.61  -38.62  -72.90   -0.14   -0.82   -0.14   -0.82  -38.62  -72.90
   12.75  -38.12  -68.30   -0.14   -0.90   -0.14   -0.90  -38.12  -68.30
   12.88  -39.26  -60.86   -0.14   -0.99   -0.14   -0.99  -39.26  -60.86
   13.01  -41.61  -44.13   -0.14   -0.96   -0.14   -0.96  -41.61  -44.13
   13.14  -42.05  -27.41   -0.14   -1.04   -0.14   -1.04  -42.05  -27.41
   13.28  -43.29    7.85   -0.14   -1.10   -0.14   -1.10  -43.29    7.85
   13.41  -40.80   40.24   -0.14   -1.19   -0.14   -1.19  -40.80   40.24
   13.54  -37.39   56.55   -0.13   -1.27   -0.13   -1.27  -37.39   56.55
   13.67  -34.97   64.66   -0.14   -1.41   -0.14   -1.41  -34.97   64.66
   13.80  -32.83   73.36   -0.14   -1.50   -0.14   -1.50  -32.83   73.36
   13.94  -30.51   78.12   -0.15   -1.60   -0.15   -1.60  -30.51   78.12
   14.07  -28.74   79.87   -0.15   -1.62   -0.15   -1.62  -28.74   79.87
   14.20  -27.50   82.53   -0.16   -1.74   -0.16   -1.74  -27.50   82.53
   14.33  -26.12   84.85   -0.16   -1.86   -0.16   -1.86  -26.12   84.85
   14.47  -25.01   85.37   -0.16   -1.95   -0.16   -1.95  -25.01   85.37
   14.60  -24.11   85.20   -0.16   -2.13   -0.16   -2.13  -24.11   85.20
   14.73  -23.14   86.76   -0.17   -2.21   -0.17   -2.21  -23.14   86.76
   14.86  -22.43   86.39   -0.19   -2.34   -0.19   -2.34  -22.43   86.39
   14.99  -21.70   85.91   -0.20   -2.45   -0.20   -2.45  -21.70   85.91
   15.13  -21.25   86.12   -0.21   -2.53   -0.21   -2.53  -21.25   86.12
   15.26  -20.79   85.90   -0.23   -2.62   -0.23   -2.62  -20.79   85.90
   15.39  -20.20   87.07   -0.23   -2.66   -0.23   -2.66  -20.20   87.07
   15.52  -19.84   86.95   -0.23   -2.69   -0.23   -2.69  -19.84   86.95
   15.66  -19.52   86.80   -0.25   -2.78   -0.25   -2.78  -19.52   86.80
   15.79  -19.17   86.73   -0.25   -2.79   -0.25   -2.79  -19.17   86.73
   15.92  -18.74   86.76   -0.24   -2.90   -0.24   -2.90  -18.74   86.76
   16.05  -18.55   85.94   -0.26   -2.95   -0.26   -2.95  -18.55   85.94
   16.18  -18.39   85.45   -0.27   -3.01   -0.27   -3.01  -18.39   85.45
   16.32  -18.24   86.29   -0.27   -3.06   -0.27   -3.06  -18.24   86.29
   16.45  -18.13   85.69   -0.27   -3.16   -0.27   -3.16  -18.13   85.69
   16.58  -18.01   86.37   -0.27   -3.22   -0.27   -3.22  -18.01   86.37
   16.71  -18.19   86.80   -0.26   -3.29   -0.26   -3.29  -18.19   86.80
   16.85  -18.05   85.99   -0.27   -3.42   -0.27   -3.42  -18.05   85.99
   16.98  -17.97   87.35   -0.26   -3.58   -0.26   -3.58  -17.97   87.35
   17.11  -18.26   86.81   -0.28   -3.68   -0.28   -3.68  -18.26   86.81
   17.24  -18.21   87.97   -0.30   -3.86   -0.30   -3.86  -18.21   87.97
   17.37  -18.45   87.91   -0.28   -4.07   -0.28   -4.07  -18.45   87.91
   17.51  -18.52   87.35   -0.28   -4.30   -0.28   -4.30  -18.52   87.35
   17.64  -18.56   87.64   -0.31   -4.56   -0.31   -4.56  -18.56   87.64
   17.77  -18.71   87.53   -0.29   -4.83   -0.29   -4.83  -18.71   87.53
   17.90  -18.64   87.26   -0.29   -5.32   -0.29   -5.32  -18.64   87.26
   18.04  -18.69   84.11   -0.32   -5.53   -0.32   -5.53  -18.69   84.11
   18.17  -18.47   84.71   -0.34   -6.00   -0.34   -6.00  -18.47   84.71
   18.30  -18.19   82.79   -0.34   -6.43   -0.34   -6.43  -18.19   82.79
   18.43  -17.72   80.33   -0.38   -6.90   -0.38   -6.90  -17.72   80.33
   18.57  -17.31   78.99   -0.41   -7.37   -0.41   -7.37  -17.31   78.99
   18.70  -16.82   77.61   -0.44   -8.05   -0.44   -8.05  -16.82   77.61
   18.83  -16.11   75.91   -0.49   -8.68   -0.49   -8.68  -16.11   75.91
   18.96  -15.34   73.86   -0.54   -9.23   -0.54   -9.23  -15.34   73.86
   19.09  -14.57   71.99   -0.59  -10.00   -0.59  -10.00  -14.57   71.99
   19.23  -13.74   71.33   -0.67  -10.91   -0.67  -10.91  -13.74   71.33
   19.36  -12.96   68.96   -0.75  -11.82   -0.75  -11.82  -12.96   68.96
   19.49  -12.03   66.47   -0.84  -12.88   -0.84  -12.88  -12.03   66.47
   19.62  -11.37   65.54   -1.00  -14.09   -1.00  -14.09  -11.37   65.54
   19.76  -10.59   63.15   -1.17  -15.48   -1.17  -15.48  -10.59   63.15
   19.89   -9.61   60.45   -1.35  -16.74   -1.35  -16.74   -9.61   60.45
   20.02   -8.91   57.94   -1.64  -18.34   -1.64  -18.34   -8.91   57.94
   20.15   -8.17   55.20   -2.01  -20.09   -2.01  -20.09   -8.17   55.20
   20.28   -7.29   51.70   -2.44  -21.74   -2.44  -21.74   -7.29   51.70
   20.42   -6.59   47.32   -3.02  -23.42   -3.02  -23.42   -6.59   47.32
   20.55   -6.08   42.42   -3.83  -24.51   -3.83  -24.51   -6.08   42.42
   20.68   -5.41   37.22   -4.82  -24.59   -4.82  -24.59   -5.41   37.22
   20.81   -4.85   29.97   -6.09  -22.95   -6.09  -22.95   -4.85   29.97
   20.95   -4.69   22.41   -7.52  -16.54   -7.52  -16.54   -4.69   22.41
   21.08   -4.54   15.04   -8.48   -4.78   -8.48   -4.78   -4.54   15.04
   21.21   -4.74    5.74   -8.54    9.43   -8.54    9.43   -4.74    5.74
   21.34   -4.99   -3.30   -7.61   20.91   -7.61   20.91   -4.99   -3.30
   21.47   -5.43  -10.64   -6.10   27.36   -6.10   27.36   -5.43  -10.64
   21.61   -6.27  -19.72   -4.82   29.73   -4.82   29.73   -6.27  -19.72
   21.74   -7.11  -27.19   -3.80   29.50   -3.80   29.50   -7.11  -27.19
   21.87   -8.12  -33.12   -2.94   27.87   -2.94   27.87   -8.12  -33.12
   22.00   -9.17  -39.61   -2.39   26.10   -2.39   26.10   -9.17  -39.61
   22.14  -10.22  -44.40   -2.00   24.15   -2.00   24.15  -10.22  -44.40
   22.27  -11.36  -48.04   -1.69   22.08   -1.69   22.08  -11.36  -48.04
   22.40  -12.35  -52.74   -1.43   20.57   -1.43   20.57  -12.35  -52.74
   22.53  -13.34  -56.46   -1.29   19.34   -1.29   19.34  -13.34  -56.46
   22.66  -14.35  -59.30   -1.18   18.07   -1.18   18.07  -14.35  -59.30
   22.80  -15.17  -62.51   -1.07   17.06   -1.07   17.06  -15.17  -62.51
   22.93  -15.96  -65.55   -1.00   16.14   -1.00   16.14  -15.96  -65.55
   23.06  -16.61  -67.42   -0.95   15.41   -0.95   15.41  -16.61  -67.42
   23.19  -17.24  -69.37   -0.89   14.69   -0.89   14.69  -17.24  -69.37
   23.33  -17.62  -70.51   -0.83   14.06   -0.83   14.06  -17.62  -70.51
   23.46  -17.87  -71.45   -0.81   13.47   -0.81   13.47  -17.87  -71.45
   23.59  -18.11  -73.21   -0.80   13.01   -0.80   13.01  -18.11  -73.21
   23.72  -18.46  -73.53   -0.79   12.58   -0.79   12.58  -18.46  -73.53
   23.86  -18.82  -72.98   -0.78   12.19   -0.78   12.19  -18.82  -72.98
   23.99  -19.14  -73.03   -0.76   11.98   -0.76   11.98  -19.14  -73.03
   24.12  -19.65  -72.23   -0.75   11.64   -0.75   11.64  -19.65  -72.23
   24.25  -20.42  -68.90   -0.74   11.52   -0.74   11.52  -20.42  -68.90
   24.38  -20.74  -67.95   -0.72   11.31   -0.72   11.31  -20.74  -67.95
   24.52  -21.61  -68.18   -0.70   11.03   -0.70   11.03  -21.61  -68.18
   24.65  -22.85  -63.79   -0.70   10.96   -0.70   10.96  -22.85  -63.79
   24.78  -24.06  -60.55   -0.68   10.85   -0.68   10.85  -24.06  -60.55
   24.91  -25.70  -58.88   -0.65   10.71   -0.65   10.71  -25.70  -58.88
   25.05  -28.73  -49.02   -0.64   10.56   -0.64   10.56  -28.73  -49.02
   25.18  -31.93  -29.29   -0.62   10.48   -0.62   10.48  -31.93  -29.29
   25.31  -35.08   -6.61   -0.60   10.28   -0.60   10.28  -35.08   -6.61
   25.44  -35.46   38.76   -0.58   10.18   -0.58   10.18  -35.46   38.76
   25.57  -31.56   79.88   -0.54    9.98   -0.54    9.98  -31.56   79.88
   25.71  -27.52   90.42   -0.54    9.60   -0.54    9.60  -27.52   90.42
   25.84  -25.76   99.70   -0.53    9.13   -0.53    9.13  -25.76   99.70
   25.97  -23.28  111.92   -0.53    8.91   -0.53    8.91  -23.28  111.92
   26.10  -21.64  117.16   -0.54    8.53   -0.54    8.53  -21.64  117.16
   26.24  -20.37  120.91   -0.58    8.21   -0.58    8.21  -20.37  120.91
   26.37  -19.42  126.54   -0.59    8.13   -0.59    8.13  -19.42  126.54
   26.50  -18.30  132.77   -0.63    7.78   -0.63    7.78  -18.30  132.77
