!  American Technical Ceramics  Date:    3/13/98
!  One Norden Lane
!  Huntington Station,  NY.   11746-2102
!  Tel:  (516) 547-5700               Fax:  (516) 547-5748
!  Part Number  700A4R7C
!  Description: Porcelain, High Q, Low ESR
!  Application: Bypass, Coupling, Timing, Feedback
!               Tuning, Impedance Match, Blocking
# GHZ S DB R 50
! Freq   |S11|   S11 Ph  |S21|   S21 Ph  |S12|   S12 Ph  |S22|   S22 Ph
    0.05    0.04   -8.17  -17.01   82.72  -17.01   82.72    0.04   -8.17
    0.14   -0.60  -21.84   -8.66   68.04   -8.66   68.04   -0.60  -21.84
    0.23   -1.50  -33.62   -5.24   56.68   -5.24   56.68   -1.50  -33.62
    0.32   -2.57  -42.96   -3.38   47.28   -3.38   47.28   -2.57  -42.96
    0.41   -3.73  -50.37   -2.34   40.27   -2.34   40.27   -3.73  -50.37
    0.50   -4.82  -55.94   -1.69   34.69   -1.69   34.69   -4.82  -55.94
    0.59   -6.07  -60.95   -1.26   29.48   -1.26   29.48   -6.07  -60.95
    0.68   -7.06  -64.64   -0.99   26.11   -0.99   26.11   -7.06  -64.64
    0.77   -7.97  -67.37   -0.77   23.30   -0.77   23.30   -7.97  -67.37
    0.86   -8.83  -69.94   -0.63   20.95   -0.63   20.95   -8.83  -69.94
    0.95   -9.61  -71.94   -0.52   18.96   -0.52   18.96   -9.61  -71.94
    1.04  -10.35  -73.75   -0.46   17.21   -0.46   17.21  -10.35  -73.75
    1.13  -11.06  -75.28   -0.37   15.77   -0.37   15.77  -11.06  -75.28
    1.22  -11.72  -76.18   -0.34   14.64   -0.34   14.64  -11.72  -76.18
    1.31  -12.37  -77.63   -0.28   13.34   -0.28   13.34  -12.37  -77.63
    1.40  -13.03  -78.42   -0.25   12.48   -0.25   12.48  -13.03  -78.42
    1.49  -13.62  -79.67   -0.20   11.61   -0.20   11.61  -13.62  -79.67
    1.58  -14.17  -80.74   -0.17   10.78   -0.17   10.78  -14.17  -80.74
    1.67  -14.79  -81.46   -0.19   10.08   -0.19   10.08  -14.79  -81.46
    1.76  -15.35  -81.76   -0.16    9.32   -0.16    9.32  -15.35  -81.76
    1.85  -15.88  -82.42   -0.12    8.77   -0.12    8.77  -15.88  -82.42
    1.93  -16.45  -82.45   -0.12    8.18   -0.12    8.18  -16.45  -82.45
    2.02  -16.93  -82.68   -0.10    7.43   -0.10    7.43  -16.93  -82.68
    2.11  -17.49  -82.76   -0.12    7.03   -0.12    7.03  -17.49  -82.76
    2.20  -18.05  -83.23   -0.13    6.65   -0.13    6.65  -18.05  -83.23
    2.29  -18.54  -83.31   -0.09    6.08   -0.09    6.08  -18.54  -83.31
    2.38  -19.07  -83.38   -0.11    5.80   -0.11    5.80  -19.07  -83.38
    2.47  -19.64  -83.58   -0.07    5.35   -0.07    5.35  -19.64  -83.58
    2.56  -20.23  -82.94   -0.09    4.67   -0.09    4.67  -20.23  -82.94
    2.65  -20.72  -82.76   -0.06    4.65   -0.06    4.65  -20.72  -82.76
    2.74  -21.25  -83.02   -0.07    4.36   -0.07    4.36  -21.25  -83.02
    2.83  -21.81  -82.42   -0.06    4.04   -0.06    4.04  -21.81  -82.42
    2.92  -22.40  -82.87   -0.06    3.70   -0.06    3.70  -22.40  -82.87
    3.01  -22.90  -82.09   -0.06    3.30   -0.06    3.30  -22.90  -82.09
    3.10  -23.55  -81.62   -0.07    3.04   -0.07    3.04  -23.55  -81.62
    3.19  -24.03  -80.00   -0.10    2.91   -0.10    2.91  -24.03  -80.00
    3.28  -24.54  -80.37   -0.06    2.30   -0.06    2.30  -24.54  -80.37
    3.37  -25.05  -77.82   -0.09    2.23   -0.09    2.23  -25.05  -77.82
    3.46  -25.59  -77.32   -0.08    1.93   -0.08    1.93  -25.59  -77.32
    3.55  -25.94  -75.57   -0.07    1.69   -0.07    1.69  -25.94  -75.57
    3.64  -26.45  -75.07   -0.07    1.54   -0.07    1.54  -26.45  -75.07
    3.73  -26.88  -72.73   -0.10    1.06   -0.10    1.06  -26.88  -72.73
    3.82  -27.40  -72.11   -0.07    1.15   -0.07    1.15  -27.40  -72.11
    3.91  -27.66  -71.01   -0.10    0.90   -0.10    0.90  -27.66  -71.01
    4.00  -28.53  -70.44   -0.07    0.58   -0.07    0.58  -28.53  -70.44
    4.09  -28.79  -68.29   -0.08    0.46   -0.08    0.46  -28.79  -68.29
    4.18  -29.31  -68.44   -0.08    0.31   -0.08    0.31  -29.31  -68.44
    4.27  -29.59  -67.76   -0.08    0.19   -0.08    0.19  -29.59  -67.76
    4.36  -30.23  -65.23   -0.11   -0.25   -0.11   -0.25  -30.23  -65.23
    4.45  -30.56  -64.42   -0.10   -0.28   -0.10   -0.28  -30.56  -64.42
    4.54  -31.06  -62.73   -0.08   -0.49   -0.08   -0.49  -31.06  -62.73
    4.63  -31.35  -60.39   -0.09   -0.65   -0.09   -0.65  -31.35  -60.39
    4.72  -31.81  -56.99   -0.11   -1.08   -0.11   -1.08  -31.81  -56.99
    4.81  -32.12  -55.01   -0.10   -1.15   -0.10   -1.15  -32.12  -55.01
    4.90  -32.52  -52.10   -0.10   -1.23   -0.10   -1.23  -32.52  -52.10
    4.99  -32.83  -49.58   -0.11   -1.23   -0.11   -1.23  -32.83  -49.58
    5.08  -33.27  -45.27   -0.10   -1.53   -0.10   -1.53  -33.27  -45.27
    5.17  -33.57  -43.32   -0.10   -1.70   -0.10   -1.70  -33.57  -43.32
    5.26  -33.74  -38.88   -0.10   -1.80   -0.10   -1.80  -33.74  -38.88
    5.35  -34.06  -34.13   -0.12   -1.99   -0.12   -1.99  -34.06  -34.13
    5.44  -34.53  -30.31   -0.12   -2.17   -0.12   -2.17  -34.53  -30.31
    5.52  -34.58  -25.41   -0.12   -2.22   -0.12   -2.22  -34.58  -25.41
    5.61  -34.31  -20.32   -0.11   -2.41   -0.11   -2.41  -34.31  -20.32
    5.70  -34.47  -12.04   -0.13   -2.67   -0.13   -2.67  -34.47  -12.04
    5.79  -34.56   -5.54   -0.14   -2.90   -0.14   -2.90  -34.56   -5.54
    5.88  -33.94    1.42   -0.14   -2.72   -0.14   -2.72  -33.94    1.42
    5.97  -33.29    8.86   -0.13   -3.09   -0.13   -3.09  -33.29    8.86
    6.06  -32.77   14.05   -0.14   -3.38   -0.14   -3.38  -32.77   14.05
    6.15  -32.10   16.48   -0.14   -3.54   -0.14   -3.54  -32.10   16.48
    6.24  -31.36   21.54   -0.14   -3.66   -0.14   -3.66  -31.36   21.54
    6.33  -30.74   26.19   -0.16   -3.74   -0.16   -3.74  -30.74   26.19
    6.42  -29.84   29.40   -0.16   -3.83   -0.16   -3.83  -29.84   29.40
    6.51  -29.02   33.21   -0.13   -4.11   -0.13   -4.11  -29.02   33.21
    6.60  -27.92   35.18   -0.16   -4.39   -0.16   -4.39  -27.92   35.18
    6.69  -27.12   36.91   -0.17   -4.44   -0.17   -4.44  -27.12   36.91
    6.78  -26.17   36.71   -0.20   -4.50   -0.20   -4.50  -26.17   36.71
    6.87  -25.44   38.28   -0.19   -4.74   -0.19   -4.74  -25.44   38.28
    6.96  -24.70   38.67   -0.20   -5.01   -0.20   -5.01  -24.70   38.67
    7.05  -24.16   39.76   -0.23   -5.07   -0.23   -5.07  -24.16   39.76
    7.14  -23.40   38.79   -0.24   -5.16   -0.24   -5.16  -23.40   38.79
    7.23  -22.75   39.43   -0.24   -5.41   -0.24   -5.41  -22.75   39.43
    7.32  -22.20   38.87   -0.27   -5.62   -0.27   -5.62  -22.20   38.87
    7.41  -21.64   37.85   -0.27   -5.74   -0.27   -5.74  -21.64   37.85
    7.50  -21.14   37.62   -0.30   -5.92   -0.30   -5.92  -21.14   37.62
    7.59  -21.02   36.75   -0.35   -5.89   -0.35   -5.89  -21.02   36.75
    7.68  -20.81   39.73   -0.32   -5.86   -0.32   -5.86  -20.81   39.73
    7.77  -20.13   39.61   -0.31   -5.74   -0.31   -5.74  -20.13   39.61
    7.86  -19.96   41.76   -0.36   -6.03   -0.36   -6.03  -19.96   41.76
    7.95  -19.43   41.19   -0.34   -6.28   -0.34   -6.28  -19.43   41.19
    8.04  -19.23   42.32   -0.33   -6.45   -0.33   -6.45  -19.23   42.32
    8.13  -18.61   42.23   -0.34   -6.38   -0.34   -6.38  -18.61   42.23
    8.22  -18.36   44.00   -0.36   -6.38   -0.36   -6.38  -18.36   44.00
    8.31  -18.04   44.16   -0.39   -6.71   -0.39   -6.71  -18.04   44.16
    8.40  -17.70   44.38   -0.39   -6.66   -0.39   -6.66  -17.70   44.38
    8.49  -17.28   46.25   -0.34   -6.77   -0.34   -6.77  -17.28   46.25
    8.58  -17.06   45.94   -0.38   -7.01   -0.38   -7.01  -17.06   45.94
    8.67  -16.90   46.74   -0.38   -7.09   -0.38   -7.09  -16.90   46.74
    8.76  -16.55   45.82   -0.39   -7.20   -0.39   -7.20  -16.55   45.82
    8.85  -16.35   47.32   -0.38   -7.39   -0.38   -7.39  -16.35   47.32
    8.94  -16.07   46.80   -0.40   -7.39   -0.40   -7.39  -16.07   46.80
    9.03  -15.83   47.20   -0.42   -7.48   -0.42   -7.48  -15.83   47.20
    9.11  -15.64   47.49   -0.44   -7.80   -0.44   -7.80  -15.64   47.49
    9.20  -15.39   48.14   -0.42   -8.04   -0.42   -8.04  -15.39   48.14
    9.29  -15.27   48.12   -0.41   -7.90   -0.41   -7.90  -15.27   48.12
    9.38  -15.02   47.92   -0.44   -8.01   -0.44   -8.01  -15.02   47.92
    9.47  -14.90   49.25   -0.44   -8.24   -0.44   -8.24  -14.90   49.25
    9.56  -14.66   49.22   -0.43   -8.38   -0.43   -8.38  -14.66   49.22
    9.65  -14.61   49.62   -0.42   -8.42   -0.42   -8.42  -14.61   49.62
    9.74  -14.54   49.27   -0.50   -8.58   -0.50   -8.58  -14.54   49.27
    9.83  -14.29   50.02   -0.40   -8.81   -0.40   -8.81  -14.29   50.02
    9.92  -14.32   50.35   -0.40   -8.84   -0.40   -8.84  -14.32   50.35
   10.01  -14.08   49.90   -0.46   -9.10   -0.46   -9.10  -14.08   49.90
   10.10  -13.99   50.39   -0.45   -9.20   -0.45   -9.20  -13.99   50.39
   10.19  -13.81   50.65   -0.44   -9.73   -0.44   -9.73  -13.81   50.65
   10.28  -13.70   51.22   -0.44   -9.56   -0.44   -9.56  -13.70   51.22
   10.37  -13.50   51.16   -0.45   -9.70   -0.45   -9.70  -13.50   51.16
   10.46  -13.26   51.86   -0.44  -10.32   -0.44  -10.32  -13.26   51.86
   10.55  -13.11   52.03   -0.44  -10.51   -0.44  -10.51  -13.11   52.03
   10.64  -12.86   52.34   -0.46  -10.72   -0.46  -10.72  -12.86   52.34
   10.73  -12.75   51.53   -0.52  -11.19   -0.52  -11.19  -12.75   51.53
   10.82  -12.35   51.71   -0.50  -11.83   -0.50  -11.83  -12.35   51.71
   10.91  -12.18   50.91   -0.52  -12.14   -0.52  -12.14  -12.18   50.91
   11.00  -11.84   50.87   -0.53  -12.74   -0.53  -12.74  -11.84   50.87
   11.09  -11.58   49.76   -0.60  -13.43   -0.60  -13.43  -11.58   49.76
   11.18  -11.20   49.17   -0.62  -14.29   -0.62  -14.29  -11.20   49.17
   11.27  -10.83   48.16   -0.75  -14.92   -0.75  -14.92  -10.83   48.16
   11.36  -10.26   46.18   -0.84  -16.16   -0.84  -16.16  -10.26   46.18
   11.45   -9.71   45.06   -1.01  -17.47   -1.01  -17.47   -9.71   45.06
   11.54   -8.98   41.61   -1.24  -19.03   -1.24  -19.03   -8.98   41.61
   11.63   -8.13   37.56   -1.62  -21.07   -1.62  -21.07   -8.13   37.56
   11.72   -7.07   30.30   -2.27  -22.94   -2.27  -22.94   -7.07   30.30
   11.81   -6.25   20.13   -3.47  -24.11   -3.47  -24.11   -6.25   20.13
   11.90   -5.64    2.87   -5.22  -17.33   -5.22  -17.33   -5.64    2.87
   11.99   -6.30  -16.10   -5.63    1.97   -5.63    1.97   -6.30  -16.10
   12.08   -8.44  -34.01   -3.61   11.96   -3.61   11.96   -8.44  -34.01
   12.17  -11.48  -44.08   -2.11   10.77   -2.11   10.77  -11.48  -44.08
   12.26  -14.47  -46.78   -1.31    7.77   -1.31    7.77  -14.47  -46.78
   12.35  -17.31  -42.26   -0.91    4.94   -0.91    4.94  -17.31  -42.26
   12.44  -19.82  -31.16   -0.72    2.64   -0.72    2.64  -19.82  -31.16
   12.53  -21.10  -18.61   -0.56    0.70   -0.56    0.70  -21.10  -18.61
   12.62  -21.53   -3.38   -0.50   -0.56   -0.50   -0.56  -21.53   -3.38
   12.70  -21.21    7.45   -0.43   -1.62   -0.43   -1.62  -21.21    7.45
   12.79  -20.58   16.60   -0.42   -2.75   -0.42   -2.75  -20.58   16.60
   12.88  -19.86   22.21   -0.38   -3.66   -0.38   -3.66  -19.86   22.21
   12.97  -19.06   26.57   -0.36   -4.19   -0.36   -4.19  -19.06   26.57
   13.06  -18.55   30.31   -0.39   -4.77   -0.39   -4.77  -18.55   30.31
   13.15  -17.89   30.56   -0.35   -5.66   -0.35   -5.66  -17.89   30.56
   13.24  -17.28   33.36   -0.35   -5.92   -0.35   -5.92  -17.28   33.36
   13.33  -16.72   33.77   -0.38   -6.52   -0.38   -6.52  -16.72   33.77
   13.42  -16.45   36.36   -0.42   -6.95   -0.42   -6.95  -16.45   36.36
   13.51  -15.84   35.11   -0.39   -7.57   -0.39   -7.57  -15.84   35.11
   13.60  -15.46   37.57   -0.36   -7.82   -0.36   -7.82  -15.46   37.57
   13.69  -14.93   37.79   -0.46   -8.27   -0.46   -8.27  -14.93   37.79
   13.78  -14.73   38.02   -0.47   -9.03   -0.47   -9.03  -14.73   38.02
   13.87  -13.99   38.23   -0.42   -9.04   -0.42   -9.04  -13.99   38.23
   13.96  -13.58   40.08   -0.48   -8.91   -0.48   -8.91  -13.58   40.08
   14.05  -13.37   39.70   -0.54   -9.78   -0.54   -9.78  -13.37   39.70
   14.14  -13.05   39.39   -0.51  -10.26   -0.51  -10.26  -13.05   39.39
   14.23  -12.56   39.78   -0.52  -10.27   -0.52  -10.27  -12.56   39.78
   14.32  -12.16   41.00   -0.54  -10.63   -0.54  -10.63  -12.16   41.00
   14.41  -12.09   40.27   -0.62  -10.99   -0.62  -10.99  -12.09   40.27
   14.50  -11.84   40.36   -0.62  -11.17   -0.62  -11.17  -11.84   40.36
   14.59  -11.49   39.69   -0.64  -11.78   -0.64  -11.78  -11.49   39.69
   14.68  -11.28   40.36   -0.60  -11.54   -0.60  -11.54  -11.28   40.36
   14.77  -11.09   40.69   -0.68  -12.04   -0.68  -12.04  -11.09   40.69
   14.86  -10.90   40.64   -0.70  -12.21   -0.70  -12.21  -10.90   40.64
   14.95  -10.58   40.99   -0.70  -12.42   -0.70  -12.42  -10.58   40.99
   15.04  -10.52   42.56   -0.78  -12.33   -0.78  -12.33  -10.52   42.56
   15.13  -10.37   42.61   -0.81  -12.25   -0.81  -12.25  -10.37   42.61
   15.22  -10.21   42.13   -0.86  -12.97   -0.86  -12.97  -10.21   42.13
   15.31   -9.94   44.17   -0.83  -12.27   -0.83  -12.27   -9.94   44.17
   15.40   -9.83   43.66   -0.90  -12.66   -0.90  -12.66   -9.83   43.66
   15.49   -9.75   43.66   -0.92  -12.91   -0.92  -12.91   -9.75   43.66
   15.58   -9.49   42.75   -0.94  -13.04   -0.94  -13.04   -9.49   42.75
   15.67   -9.49   44.08   -0.91  -13.03   -0.91  -13.03   -9.49   44.08
   15.76   -9.28   43.78   -0.92  -12.83   -0.92  -12.83   -9.28   43.78
   15.85   -9.33   43.32   -0.98  -13.29   -0.98  -13.29   -9.33   43.32
   15.94   -9.05   43.13   -0.93  -13.30   -0.93  -13.30   -9.05   43.13
   16.03   -9.25   43.62   -0.97  -13.03   -0.97  -13.03   -9.25   43.62
   16.12   -9.11   43.32   -0.98  -12.94   -0.98  -12.94   -9.11   43.32
   16.21   -9.07   42.84   -1.00  -13.10   -1.00  -13.10   -9.07   42.84
   16.29   -8.93   43.35   -0.99  -13.23   -0.99  -13.23   -8.93   43.35
   16.38   -8.97   43.95   -0.96  -13.04   -0.96  -13.04   -8.97   43.95
   16.47   -8.90   43.43   -0.98  -13.32   -0.98  -13.32   -8.90   43.43
   16.56   -8.91   43.50   -0.97  -13.42   -0.97  -13.42   -8.91   43.50
   16.65   -8.84   43.03   -1.00  -13.46   -1.00  -13.46   -8.84   43.03
   16.74   -8.85   43.84   -0.95  -13.70   -0.95  -13.70   -8.85   43.84
   16.83   -8.83   42.82   -1.02  -13.86   -1.02  -13.86   -8.83   42.82
   16.92   -8.78   43.07   -1.01  -13.89   -1.01  -13.89   -8.78   43.07
   17.01   -8.69   42.18   -1.07  -14.33   -1.07  -14.33   -8.69   42.18
   17.10   -8.88   42.08   -1.02  -13.82   -1.02  -13.82   -8.88   42.08
   17.19   -8.80   42.22   -1.09  -14.49   -1.09  -14.49   -8.80   42.22
   17.28   -8.98   42.10   -1.07  -13.87   -1.07  -13.87   -8.98   42.10
   17.37   -8.95   42.79   -1.01  -14.39   -1.01  -14.39   -8.95   42.79
   17.46   -9.01   42.68   -1.04  -14.12   -1.04  -14.12   -9.01   42.68
   17.55   -8.90   42.73   -1.04  -14.69   -1.04  -14.69   -8.90   42.73
   17.64   -8.86   42.03   -1.10  -14.57   -1.10  -14.57   -8.86   42.03
   17.73   -8.92   42.24   -1.02  -14.60   -1.02  -14.60   -8.92   42.24
   17.82   -8.84   41.68   -1.06  -15.15   -1.06  -15.15   -8.84   41.68
   17.91   -8.92   41.72   -1.03  -15.89   -1.03  -15.89   -8.92   41.72
   18.00   -8.88   40.46   -1.01  -16.02   -1.01  -16.02   -8.88   40.46
