!  American Technical Ceramics  Date:    1/14/99
!  One Norden Lane
!  Huntington Station,  NY.   11746-2102
!  Tel:  (516) 547-5700               Fax:  (516) 547-5748
!  Part Number  700a0r8
!  Description: NPO, High Q, Temperature Stable
!  Application: Bypass, Coupling, Timing
!               Tuning, Blocking
# GHZ S DB R 50
! Freq   |S11|   S11 Ph  |S21|   S21 Ph  |S12|   S12 Ph  |S22|   S22 Ph
    0.05    0.01   -1.75  -31.74   90.23  -31.74   90.23    0.01   -1.75
    0.15    0.00   -4.56  -21.99   85.66  -21.99   85.66    0.00   -4.56
    0.25   -0.08   -7.75  -17.61   82.64  -17.61   82.64   -0.08   -7.75
    0.35   -0.13  -10.78  -14.76   79.83  -14.76   79.83   -0.13  -10.78
    0.45   -0.21  -13.61  -12.64   77.05  -12.64   77.05   -0.21  -13.61
    0.55   -0.35  -16.03  -10.90   72.83  -10.90   72.83   -0.35  -16.03
    0.65   -0.49  -18.97   -9.59   70.22   -9.59   70.22   -0.49  -18.97
    0.75   -0.76  -21.84   -8.57   68.00   -8.57   68.00   -0.76  -21.84
    0.85   -0.88  -25.62   -7.67   64.96   -7.67   64.96   -0.88  -25.62
    0.95   -0.99  -27.08   -6.80   62.58   -6.80   62.58   -0.99  -27.08
    1.05   -1.22  -29.42   -6.13   60.04   -6.13   60.04   -1.22  -29.42
    1.15   -1.39  -31.42   -5.50   57.89   -5.50   57.89   -1.39  -31.42
    1.25   -1.71  -33.86   -5.04   56.21   -5.04   56.21   -1.71  -33.86
    1.35   -1.91  -36.69   -4.59   53.68   -4.59   53.68   -1.91  -36.69
    1.45   -2.09  -38.50   -4.16   51.37   -4.16   51.37   -2.09  -38.50
    1.55   -2.31  -40.13   -3.77   49.41   -3.77   49.41   -2.31  -40.13
    1.65   -2.53  -41.74   -3.44   47.65   -3.44   47.65   -2.53  -41.74
    1.75   -2.85  -43.59   -3.17   46.28   -3.17   46.28   -2.85  -43.59
    1.85   -3.13  -45.78   -2.97   44.55   -2.97   44.55   -3.13  -45.78
    1.95   -3.35  -47.23   -2.71   42.66   -2.71   42.66   -3.35  -47.23
    2.05   -3.57  -48.51   -2.50   41.12   -2.50   41.12   -3.57  -48.51
    2.14   -3.83  -49.46   -2.29   39.69   -2.29   39.69   -3.83  -49.46
    2.24   -4.12  -51.14   -2.13   38.53   -2.13   38.53   -4.12  -51.14
    2.34   -4.42  -52.89   -1.98   37.17   -1.98   37.17   -4.42  -52.89
    2.44   -4.64  -54.06   -1.84   35.77   -1.84   35.77   -4.64  -54.06
    2.54   -4.90  -54.78   -1.69   34.41   -1.69   34.41   -4.90  -54.78
    2.64   -5.14  -55.72   -1.58   33.32   -1.58   33.32   -5.14  -55.72
    2.74   -5.49  -56.95   -1.48   32.12   -1.48   32.12   -5.49  -56.95
    2.84   -5.75  -58.56   -1.38   31.04   -1.38   31.04   -5.75  -58.56
    2.94   -6.03  -59.31   -1.28   29.79   -1.28   29.79   -6.03  -59.31
    3.04   -6.30  -59.95   -1.19   28.77   -1.19   28.77   -6.30  -59.95
    3.14   -6.56  -60.56   -1.12   27.86   -1.12   27.86   -6.56  -60.56
    3.24   -6.92  -61.26   -1.08   26.86   -1.08   26.86   -6.92  -61.26
    3.34   -7.24  -62.54   -1.02   25.84   -1.02   25.84   -7.24  -62.54
    3.44   -7.53  -63.18   -0.97   24.82   -0.97   24.82   -7.53  -63.18
    3.54   -7.76  -63.67   -0.91   23.88   -0.91   23.88   -7.76  -63.67
    3.64   -8.00  -63.64   -0.88   23.26   -0.88   23.26   -8.00  -63.64
    3.74   -8.38  -64.09   -0.87   22.46   -0.87   22.46   -8.38  -64.09
    3.84   -8.66  -65.10   -0.85   21.64   -0.85   21.64   -8.66  -65.10
    3.94   -8.94  -65.72   -0.83   20.74   -0.83   20.74   -8.94  -65.72
    4.04   -9.09  -68.12   -0.63   19.83   -0.63   19.83   -9.09  -68.12
    4.14   -9.30  -68.24   -0.58   19.31   -0.58   19.31   -9.30  -68.24
    4.24   -9.61  -68.49   -0.58   18.83   -0.58   18.83   -9.61  -68.49
    4.34   -9.92  -69.98   -0.56   18.10   -0.56   18.10   -9.92  -69.98
    4.44  -10.18  -70.32   -0.54   17.38   -0.54   17.38  -10.18  -70.32
    4.54  -10.40  -70.83   -0.50   16.63   -0.50   16.63  -10.40  -70.83
    4.64  -10.54  -70.77   -0.46   16.21   -0.46   16.21  -10.54  -70.77
    4.74  -10.86  -70.88   -0.46   15.93   -0.46   15.93  -10.86  -70.88
    4.84  -11.08  -71.98   -0.46   15.33   -0.46   15.33  -11.08  -71.98
    4.94  -11.33  -72.06   -0.45   14.81   -0.45   14.81  -11.33  -72.06
    5.04  -11.59  -72.82   -0.43   14.16   -0.43   14.16  -11.59  -72.82
    5.14  -11.70  -73.04   -0.38   13.72   -0.38   13.72  -11.70  -73.04
    5.24  -12.00  -73.37   -0.38   13.42   -0.38   13.42  -12.00  -73.37
    5.34  -12.23  -73.90   -0.37   13.01   -0.37   13.01  -12.23  -73.90
    5.44  -12.59  -73.86   -0.38   12.52   -0.38   12.52  -12.59  -73.86
    5.54  -12.76  -74.57   -0.37   12.06   -0.37   12.06  -12.76  -74.57
    5.64  -12.92  -74.98   -0.34   11.67   -0.34   11.67  -12.92  -74.98
    5.74  -13.15  -75.17   -0.32   11.43   -0.32   11.43  -13.15  -75.17
    5.84  -13.53  -75.71   -0.33   11.03   -0.33   11.03  -13.53  -75.71
    5.94  -13.77  -76.03   -0.31   10.65   -0.31   10.65  -13.77  -76.03
    6.04  -14.08  -76.92   -0.32   10.25   -0.32   10.25  -14.08  -76.92
    6.13  -14.21  -77.04   -0.29    9.84   -0.29    9.84  -14.21  -77.04
    6.23  -14.64  -76.97   -0.29    9.61   -0.29    9.61  -14.64  -76.97
    6.33  -15.03  -78.04   -0.28    9.21   -0.28    9.21  -15.03  -78.04
    6.43  -15.40  -78.65   -0.27    8.87   -0.27    8.87  -15.40  -78.65
    6.53  -15.74  -78.80   -0.27    8.45   -0.27    8.45  -15.74  -78.80
    6.63  -16.11  -78.43   -0.27    8.02   -0.27    8.02  -16.11  -78.43
    6.73  -16.60  -78.07   -0.26    7.75   -0.26    7.75  -16.60  -78.07
    6.83  -17.16  -78.73   -0.27    7.45   -0.27    7.45  -17.16  -78.73
    6.93  -17.53  -78.18   -0.27    7.07   -0.27    7.07  -17.53  -78.18
    7.03  -18.05  -76.98   -0.27    6.80   -0.27    6.80  -18.05  -76.98
    7.13  -18.47  -76.44   -0.27    6.39   -0.27    6.39  -18.47  -76.44
    7.23  -19.13  -75.22   -0.27    6.14   -0.27    6.14  -19.13  -75.22
    7.33  -19.70  -74.13   -0.29    5.81   -0.29    5.81  -19.70  -74.13
    7.43  -20.32  -72.63   -0.30    5.52   -0.30    5.52  -20.32  -72.63
    7.53  -20.85  -69.64   -0.30    5.24   -0.30    5.24  -20.85  -69.64
    7.63  -21.41  -67.18   -0.31    5.00   -0.31    5.00  -21.41  -67.18
    7.73  -21.89  -64.29   -0.31    4.78   -0.31    4.78  -21.89  -64.29
    7.83  -22.57  -62.67   -0.32    4.66   -0.32    4.66  -22.57  -62.67
    7.93  -23.15  -60.35   -0.31    4.38   -0.31    4.38  -23.15  -60.35
    8.03  -24.06  -57.31   -0.30    4.18   -0.30    4.18  -24.06  -57.31
    8.13  -24.85  -52.36   -0.30    3.84   -0.30    3.84  -24.85  -52.36
    8.23  -25.66  -47.19   -0.30    3.61   -0.30    3.61  -25.66  -47.19
    8.33  -26.55  -41.68   -0.29    3.40   -0.29    3.40  -26.55  -41.68
    8.43  -27.50  -35.32   -0.28    3.16   -0.28    3.16  -27.50  -35.32
    8.53  -28.40  -24.86   -0.28    2.86   -0.28    2.86  -28.40  -24.86
    8.63  -28.94  -14.67   -0.28    2.63   -0.28    2.63  -28.94  -14.67
    8.73  -29.27   -0.96   -0.27    2.30   -0.27    2.30  -29.27   -0.96
    8.83  -29.12    9.64   -0.28    2.10   -0.28    2.10  -29.12    9.64
    8.93  -28.58   20.49   -0.28    1.79   -0.28    1.79  -28.58   20.49
    9.03  -27.84   27.83   -0.29    1.60   -0.29    1.60  -27.84   27.83
    9.13  -27.29   35.71   -0.30    1.40   -0.30    1.40  -27.29   35.71
    9.23  -26.52   41.77   -0.30    1.15   -0.30    1.15  -26.52   41.77
    9.33  -25.95   45.71   -0.30    1.00   -0.30    1.00  -25.95   45.71
    9.43  -25.46   49.84   -0.30    0.80   -0.30    0.80  -25.46   49.84
    9.53  -24.94   53.94   -0.30    0.65   -0.30    0.65  -24.94   53.94
    9.63  -24.38   57.48   -0.31    0.47   -0.31    0.47  -24.38   57.48
    9.73  -24.03   60.51   -0.29    0.26   -0.29    0.26  -24.03   60.51
    9.83  -23.56   63.71   -0.29    0.09   -0.29    0.09  -23.56   63.71
    9.93  -23.23   65.44   -0.29   -0.03   -0.29   -0.03  -23.23   65.44
   10.03  -22.88   67.57   -0.29   -0.24   -0.29   -0.24  -22.88   67.57
   10.12  -22.53   70.05   -0.28   -0.39   -0.28   -0.39  -22.53   70.05
   10.22  -22.23   72.66   -0.28   -0.62   -0.28   -0.62  -22.23   72.66
   10.32  -21.93   74.84   -0.26   -0.83   -0.26   -0.83  -21.93   74.84
   10.42  -21.71   76.82   -0.26   -0.99   -0.26   -0.99  -21.71   76.82
   10.52  -21.28   78.75   -0.26   -1.18   -0.26   -1.18  -21.28   78.75
   10.62  -20.95   81.06   -0.26   -1.37   -0.26   -1.37  -20.95   81.06
   10.72  -20.57   82.34   -0.25   -1.69   -0.25   -1.69  -20.57   82.34
   10.82  -20.26   83.37   -0.23   -1.93   -0.23   -1.93  -20.26   83.37
   10.92  -19.99   83.75   -0.24   -2.09   -0.24   -2.09  -19.99   83.75
   11.02  -19.79   84.78   -0.24   -2.35   -0.24   -2.35  -19.79   84.78
   11.12  -19.54   85.44   -0.24   -2.54   -0.24   -2.54  -19.54   85.44
   11.22  -19.26   86.38   -0.23   -2.86   -0.23   -2.86  -19.26   86.38
   11.32  -19.07   86.79   -0.22   -3.07   -0.22   -3.07  -19.07   86.79
   11.42  -18.93   87.08   -0.22   -3.31   -0.22   -3.31  -18.93   87.08
   11.52  -18.73   86.87   -0.23   -3.51   -0.23   -3.51  -18.73   86.87
   11.62  -18.48   87.75   -0.23   -3.79   -0.23   -3.79  -18.48   87.75
   11.72  -18.24   87.61   -0.24   -4.01   -0.24   -4.01  -18.24   87.61
   11.82  -18.08   88.08   -0.22   -4.36   -0.22   -4.36  -18.08   88.08
   11.92  -17.95   87.17   -0.22   -4.53   -0.22   -4.53  -17.95   87.17
   12.02  -17.67   87.06   -0.24   -4.80   -0.24   -4.80  -17.67   87.06
   12.12  -17.39   86.55   -0.25   -4.96   -0.25   -4.96  -17.39   86.55
   12.22  -17.17   86.70   -0.27   -5.35   -0.27   -5.35  -17.17   86.70
   12.32  -16.98   85.74   -0.26   -5.60   -0.26   -5.60  -16.98   85.74
   12.42  -16.87   84.44   -0.26   -5.92   -0.26   -5.92  -16.87   84.44
   12.52  -16.52   83.48   -0.25   -6.01   -0.25   -6.01  -16.52   83.48
   12.62  -16.33   83.43   -0.27   -6.32   -0.27   -6.32  -16.33   83.43
   12.72  -16.00   83.03   -0.28   -6.54   -0.28   -6.54  -16.00   83.03
   12.82  -15.90   81.85   -0.30   -7.01   -0.30   -7.01  -15.90   81.85
   12.92  -15.55   80.41   -0.28   -7.28   -0.28   -7.28  -15.55   80.41
   13.02  -15.33   80.08   -0.30   -7.54   -0.30   -7.54  -15.33   80.08
   13.12  -14.92   79.73   -0.31   -7.66   -0.31   -7.66  -14.92   79.73
   13.22  -14.69   79.94   -0.36   -8.07   -0.36   -8.07  -14.69   79.94
   13.32  -14.34   78.49   -0.36   -8.43   -0.36   -8.43  -14.34   78.49
   13.42  -14.05   77.60   -0.37   -8.86   -0.37   -8.86  -14.05   77.60
   13.52  -13.69   77.15   -0.36   -8.98   -0.36   -8.98  -13.69   77.15
   13.62  -13.36   77.69   -0.39   -9.19   -0.39   -9.19  -13.36   77.69
   13.72  -12.96   77.20   -0.43   -9.46   -0.43   -9.46  -12.96   77.20
   13.82  -12.66   77.05   -0.47   -9.92   -0.47   -9.92  -12.66   77.05
   13.92  -12.32   75.85   -0.48  -10.40   -0.48  -10.40  -12.32   75.85
   14.02  -12.05   75.51   -0.48  -10.64   -0.48  -10.64  -12.05   75.51
   14.11  -11.64   74.80   -0.50  -10.78   -0.50  -10.78  -11.64   74.80
   14.21  -11.32   76.38   -0.55  -10.85   -0.55  -10.85  -11.32   76.38
   14.31  -11.05   76.03   -0.58  -11.21   -0.58  -11.21  -11.05   76.03
   14.41  -10.86   75.36   -0.61  -11.65   -0.61  -11.65  -10.86   75.36
   14.51  -10.63   74.97   -0.64  -11.91   -0.64  -11.91  -10.63   74.97
   14.61  -10.33   74.97   -0.66  -12.23   -0.66  -12.23  -10.33   74.97
   14.71  -10.02   76.16   -0.68  -12.31   -0.68  -12.31  -10.02   76.16
   14.81   -9.83   76.17   -0.72  -12.56   -0.72  -12.56   -9.83   76.17
   14.91   -9.64   76.28   -0.75  -12.72   -0.75  -12.72   -9.64   76.28
   15.01   -9.58   75.68   -0.82  -13.00   -0.82  -13.00   -9.58   75.68
   15.11   -9.36   76.33   -0.84  -13.14   -0.84  -13.14   -9.36   76.33
   15.21   -9.14   76.73   -0.87  -13.23   -0.87  -13.23   -9.14   76.73
   15.31   -9.02   77.77   -0.88  -13.25   -0.88  -13.25   -9.02   77.77
   15.41   -8.87   77.05   -0.93  -13.50   -0.93  -13.50   -8.87   77.05
   15.51   -8.82   77.39   -0.94  -13.53   -0.94  -13.53   -8.82   77.39
   15.61   -8.70   77.07   -0.99  -13.62   -0.99  -13.62   -8.70   77.07
   15.71   -8.54   78.36   -0.99  -13.60   -0.99  -13.60   -8.54   78.36
   15.81   -8.40   78.25   -1.00  -13.67   -1.00  -13.67   -8.40   78.25
   15.91   -8.31   78.45   -1.01  -13.80   -1.01  -13.80   -8.31   78.45
   16.01   -8.36   77.69   -1.05  -13.79   -1.05  -13.79   -8.36   77.69
   16.11   -8.29   77.91   -1.06  -13.82   -1.06  -13.82   -8.29   77.91
   16.21   -8.22   78.30   -1.08  -13.94   -1.08  -13.94   -8.22   78.30
   16.31   -8.13   78.68   -1.06  -14.06   -1.06  -14.06   -8.13   78.68
   16.41   -8.09   78.72   -1.04  -14.21   -1.04  -14.21   -8.09   78.72
   16.51   -8.11   78.37   -1.04  -14.25   -1.04  -14.25   -8.11   78.37
   16.61   -8.08   78.45   -1.05  -14.40   -1.05  -14.40   -8.08   78.45
   16.71   -8.13   78.77   -1.07  -14.36   -1.07  -14.36   -8.13   78.77
   16.81   -8.01   78.42   -1.08  -14.91   -1.08  -14.91   -8.01   78.42
   16.91   -8.05   78.83   -1.04  -14.89   -1.04  -14.89   -8.05   78.83
   17.01   -8.04   78.73   -1.04  -15.35   -1.04  -15.35   -8.04   78.73
   17.11   -8.20   78.92   -1.04  -15.35   -1.04  -15.35   -8.20   78.92
   17.21   -8.19   79.00   -1.12  -15.80   -1.12  -15.80   -8.19   79.00
   17.31   -8.24   79.40   -1.08  -15.77   -1.08  -15.77   -8.24   79.40
   17.41   -8.14   79.64   -1.08  -16.28   -1.08  -16.28   -8.14   79.64
   17.51   -8.25   79.99   -1.07  -16.49   -1.07  -16.49   -8.25   79.99
   17.61   -8.23   80.06   -1.14  -16.87   -1.14  -16.87   -8.23   80.06
   17.71   -8.27   79.82   -1.14  -16.82   -1.14  -16.82   -8.27   79.82
   17.81   -8.12   79.80   -1.13  -17.40   -1.13  -17.40   -8.12   79.80
   17.91   -8.18   79.75   -1.12  -17.85   -1.12  -17.85   -8.18   79.75
   18.01   -8.15   79.16   -1.12  -18.03   -1.12  -18.03   -8.15   79.16
   18.10   -8.26   78.41   -1.12  -18.64   -1.12  -18.64   -8.26   78.41
   18.20   -8.13   78.33   -1.20  -18.75   -1.20  -18.75   -8.13   78.33
   18.30   -8.10   77.95   -1.19  -19.42   -1.19  -19.42   -8.10   77.95
   18.40   -8.07   77.52   -1.23  -19.98   -1.23  -19.98   -8.07   77.52
   18.50   -8.09   76.39   -1.25  -20.57   -1.25  -20.57   -8.09   76.39
   18.60   -7.96   75.66   -1.31  -20.85   -1.31  -20.85   -7.96   75.66
   18.70   -7.86   75.17   -1.36  -21.42   -1.36  -21.42   -7.86   75.17
   18.80   -7.74   74.78   -1.40  -21.88   -1.40  -21.88   -7.74   74.78
   18.90   -7.66   74.08   -1.46  -22.43   -1.46  -22.43   -7.66   74.08
   19.00   -7.53   72.62   -1.49  -23.00   -1.49  -23.00   -7.53   72.62
   19.10   -7.36   72.04   -1.57  -23.39   -1.57  -23.39   -7.36   72.04
   19.20   -7.22   71.38   -1.65  -23.87   -1.65  -23.87   -7.22   71.38
   19.30   -7.04   71.03   -1.69  -24.30   -1.69  -24.30   -7.04   71.03
   19.40   -6.91   69.91   -1.76  -24.98   -1.76  -24.98   -6.91   69.91
   19.50   -6.71   68.80   -1.80  -25.60   -1.80  -25.60   -6.71   68.80
   19.60   -6.61   68.92   -1.91  -26.08   -1.91  -26.08   -6.61   68.92
   19.70   -6.39   68.42   -1.97  -26.52   -1.97  -26.52   -6.39   68.42
   19.80   -6.30   69.15   -2.10  -27.10   -2.10  -27.10   -6.30   69.15
   19.90   -6.10   68.07   -2.15  -27.78   -2.15  -27.78   -6.10   68.07
   20.00   -5.92   68.37   -2.28  -28.27   -2.28  -28.27   -5.92   68.37
