!  American Technical Ceramics  Date:    1/14/99
!  One Norden Lane
!  Huntington Station,  NY.   11746-2102
!  Tel:  (516) 547-5700               Fax:  (516) 547-5748
!  Part Number  700a0r9
!  Description: NPO, High Q, Temperature Stable
!  Application: Bypass, Coupling, Timing
!               Tuning, Blocking
# GHZ S DB R 50
! Freq   |S11|   S11 Ph  |S21|   S21 Ph  |S12|   S12 Ph  |S22|   S22 Ph
    0.05   -0.02   -1.54  -30.93   87.22  -30.93   87.22   -0.02   -1.54
    0.15   -0.01   -4.88  -21.53   85.27  -21.53   85.27   -0.01   -4.88
    0.25   -0.09   -8.22  -17.12   82.11  -17.12   82.11   -0.09   -8.22
    0.35   -0.15  -11.46  -14.28   79.19  -14.28   79.19   -0.15  -11.46
    0.45   -0.23  -14.42  -12.18   76.22  -12.18   76.22   -0.23  -14.42
    0.55   -0.39  -16.98  -10.46   71.85  -10.46   71.85   -0.39  -16.98
    0.65   -0.55  -20.06   -9.16   69.12   -9.16   69.12   -0.55  -20.06
    0.75   -0.83  -23.05   -8.16   66.80   -8.16   66.80   -0.83  -23.05
    0.85   -0.98  -26.91   -7.27   63.65   -7.27   63.65   -0.98  -26.91
    0.95   -1.10  -28.48   -6.42   61.16   -6.42   61.16   -1.10  -28.48
    1.05   -1.35  -30.90   -5.77   58.50   -5.77   58.50   -1.35  -30.90
    1.15   -1.53  -32.96   -5.17   56.30   -5.17   56.30   -1.53  -32.96
    1.25   -1.87  -35.46   -4.72   54.57   -4.72   54.57   -1.87  -35.46
    1.35   -2.09  -38.30   -4.29   51.99   -4.29   51.99   -2.09  -38.30
    1.45   -2.29  -40.17   -3.88   49.63   -3.88   49.63   -2.29  -40.17
    1.55   -2.52  -41.80   -3.50   47.64   -3.50   47.64   -2.52  -41.80
    1.65   -2.76  -43.42   -3.19   45.89   -3.19   45.89   -2.76  -43.42
    1.75   -3.09  -45.28   -2.94   44.49   -2.94   44.49   -3.09  -45.28
    1.85   -3.38  -47.47   -2.75   42.75   -2.75   42.75   -3.38  -47.47
    1.95   -3.61  -48.92   -2.51   40.89   -2.51   40.89   -3.61  -48.92
    2.05   -3.84  -50.17   -2.31   39.32   -2.31   39.32   -3.84  -50.17
    2.14   -4.11  -51.11   -2.11   37.90   -2.11   37.90   -4.11  -51.11
    2.24   -4.42  -52.77   -1.96   36.74   -1.96   36.74   -4.42  -52.77
    2.34   -4.72  -54.49   -1.82   35.40   -1.82   35.40   -4.72  -54.49
    2.44   -4.96  -55.67   -1.70   34.02   -1.70   34.02   -4.96  -55.67
    2.54   -5.23  -56.35   -1.55   32.70   -1.55   32.70   -5.23  -56.35
    2.64   -5.48  -57.28   -1.45   31.65   -1.45   31.65   -5.48  -57.28
    2.74   -5.83  -58.44   -1.36   30.44   -1.36   30.44   -5.83  -58.44
    2.84   -6.10  -60.01   -1.27   29.40   -1.27   29.40   -6.10  -60.01
    2.94   -6.38  -60.75   -1.18   28.18   -1.18   28.18   -6.38  -60.75
    3.04   -6.65  -61.33   -1.10   27.17   -1.10   27.17   -6.65  -61.33
    3.14   -6.92  -61.90   -1.04   26.31   -1.04   26.31   -6.92  -61.90
    3.24   -7.29  -62.52   -1.00   25.31   -1.00   25.31   -7.29  -62.52
    3.34   -7.61  -63.77   -0.95   24.34   -0.95   24.34   -7.61  -63.77
    3.44   -7.90  -64.35   -0.91   23.36   -0.91   23.36   -7.90  -64.35
    3.54   -8.12  -64.85   -0.84   22.48   -0.84   22.48   -8.12  -64.85
    3.64   -8.35  -64.88   -0.82   21.87   -0.82   21.87   -8.35  -64.88
    3.74   -8.74  -65.37   -0.81   21.06   -0.81   21.06   -8.74  -65.37
    3.84   -9.04  -66.33   -0.80   20.25   -0.80   20.25   -9.04  -66.33
    3.94   -9.32  -66.88   -0.78   19.36   -0.78   19.36   -9.32  -66.88
    4.04   -9.48  -69.17   -0.59   18.45   -0.59   18.45   -9.48  -69.17
    4.14   -9.68  -69.10   -0.55   17.98   -0.55   17.98   -9.68  -69.10
    4.24   -9.97  -69.35   -0.55   17.55   -0.55   17.55   -9.97  -69.35
    4.34  -10.27  -70.74   -0.54   16.86   -0.54   16.86  -10.27  -70.74
    4.44  -10.50  -71.14   -0.52   16.22   -0.52   16.22  -10.50  -71.14
    4.54  -10.70  -71.82   -0.47   15.48   -0.47   15.48  -10.70  -71.82
    4.64  -10.87  -71.92   -0.43   15.04   -0.43   15.04  -10.87  -71.92
    4.74  -11.21  -71.95   -0.43   14.75   -0.43   14.75  -11.21  -71.95
    4.84  -11.43  -72.90   -0.43   14.14   -0.43   14.14  -11.43  -72.90
    4.94  -11.69  -72.94   -0.43   13.64   -0.43   13.64  -11.69  -72.94
    5.04  -11.94  -73.59   -0.42   12.97   -0.42   12.97  -11.94  -73.59
    5.14  -12.05  -73.72   -0.37   12.59   -0.37   12.59  -12.05  -73.72
    5.24  -12.32  -73.92   -0.38   12.33   -0.38   12.33  -12.32  -73.92
    5.34  -12.53  -74.54   -0.37   11.93   -0.37   11.93  -12.53  -74.54
    5.44  -12.88  -74.59   -0.38   11.47   -0.38   11.47  -12.88  -74.59
    5.54  -13.07  -75.32   -0.36   11.00   -0.36   11.00  -13.07  -75.32
    5.64  -13.22  -75.51   -0.34   10.62   -0.34   10.62  -13.22  -75.51
    5.74  -13.42  -75.79   -0.32   10.43   -0.32   10.43  -13.42  -75.79
    5.84  -13.82  -76.49   -0.33   10.06   -0.33   10.06  -13.82  -76.49
    5.94  -14.08  -76.76   -0.31    9.63   -0.31    9.63  -14.08  -76.76
    6.04  -14.39  -77.46   -0.31    9.24   -0.31    9.24  -14.39  -77.46
    6.13  -14.52  -77.49   -0.29    8.79   -0.29    8.79  -14.52  -77.49
    6.23  -14.94  -77.22   -0.29    8.59   -0.29    8.59  -14.94  -77.22
    6.33  -15.29  -78.26   -0.29    8.22   -0.29    8.22  -15.29  -78.26
    6.43  -15.67  -78.95   -0.28    7.90   -0.28    7.90  -15.67  -78.95
    6.53  -16.00  -79.07   -0.28    7.51   -0.28    7.51  -16.00  -79.07
    6.63  -16.37  -78.76   -0.27    7.10   -0.27    7.10  -16.37  -78.76
    6.73  -16.87  -78.43   -0.26    6.84   -0.26    6.84  -16.87  -78.43
    6.83  -17.47  -78.83   -0.28    6.52   -0.28    6.52  -17.47  -78.83
    6.93  -17.82  -77.95   -0.28    6.16   -0.28    6.16  -17.82  -77.95
    7.03  -18.31  -76.74   -0.28    5.92   -0.28    5.92  -18.31  -76.74
    7.13  -18.74  -76.27   -0.27    5.50   -0.27    5.50  -18.74  -76.27
    7.23  -19.42  -74.86   -0.28    5.21   -0.28    5.21  -19.42  -74.86
    7.33  -19.99  -73.41   -0.29    4.91   -0.29    4.91  -19.99  -73.41
    7.43  -20.59  -71.53   -0.31    4.60   -0.31    4.60  -20.59  -71.53
    7.53  -21.07  -67.98   -0.32    4.33   -0.32    4.33  -21.07  -67.98
    7.63  -21.53  -65.48   -0.34    4.16   -0.34    4.16  -21.53  -65.48
    7.73  -21.91  -62.79   -0.33    3.98   -0.33    3.98  -21.91  -62.79
    7.83  -22.58  -62.10   -0.33    3.91   -0.33    3.91  -22.58  -62.10
    7.93  -23.27  -59.93   -0.32    3.58   -0.32    3.58  -23.27  -59.93
    8.03  -24.30  -56.11   -0.31    3.32   -0.31    3.32  -24.30  -56.11
    8.13  -25.02  -50.18   -0.31    2.98   -0.31    2.98  -25.02  -50.18
    8.23  -25.69  -44.02   -0.32    2.75   -0.32    2.75  -25.69  -44.02
    8.33  -26.34  -38.70   -0.31    2.56   -0.31    2.56  -26.34  -38.70
    8.43  -27.15  -33.44   -0.31    2.38   -0.31    2.38  -27.15  -33.44
    8.53  -27.97  -23.81   -0.30    2.07   -0.30    2.07  -27.97  -23.81
    8.63  -28.54  -14.48   -0.29    1.86   -0.29    1.86  -28.54  -14.48
    8.73  -28.79   -0.43   -0.29    1.52   -0.29    1.52  -28.79   -0.43
    8.83  -28.59    8.08   -0.30    1.33   -0.30    1.33  -28.59    8.08
    8.93  -28.29   18.45   -0.30    1.04   -0.30    1.04  -28.29   18.45
    9.03  -27.51   25.89   -0.31    0.78   -0.31    0.78  -27.51   25.89
    9.13  -27.06   33.19   -0.31    0.62   -0.31    0.62  -27.06   33.19
    9.23  -26.37   39.86   -0.31    0.36   -0.31    0.36  -26.37   39.86
    9.33  -25.74   43.21   -0.32    0.19   -0.32    0.19  -25.74   43.21
    9.43  -25.37   46.77   -0.32    0.04   -0.32    0.04  -25.37   46.77
    9.53  -24.96   51.16   -0.32   -0.13   -0.32   -0.13  -24.96   51.16
    9.63  -24.42   54.90   -0.32   -0.31   -0.32   -0.31  -24.42   54.90
    9.73  -24.07   57.77   -0.32   -0.53   -0.32   -0.53  -24.07   57.77
    9.83  -23.72   60.76   -0.31   -0.64   -0.31   -0.64  -23.72   60.76
    9.93  -23.41   63.21   -0.30   -0.81   -0.30   -0.81  -23.41   63.21
   10.03  -23.03   65.44   -0.30   -1.04   -0.30   -1.04  -23.03   65.44
   10.12  -22.70   68.09   -0.30   -1.18   -0.30   -1.18  -22.70   68.09
   10.22  -22.40   70.70   -0.30   -1.45   -0.30   -1.45  -22.40   70.70
   10.32  -22.12   72.93   -0.29   -1.63   -0.29   -1.63  -22.12   72.93
   10.42  -21.89   74.94   -0.28   -1.78   -0.28   -1.78  -21.89   74.94
   10.52  -21.50   76.79   -0.27   -2.00   -0.27   -2.00  -21.50   76.79
   10.62  -21.20   79.42   -0.27   -2.15   -0.27   -2.15  -21.20   79.42
   10.72  -20.82   80.54   -0.27   -2.49   -0.27   -2.49  -20.82   80.54
   10.82  -20.51   81.82   -0.25   -2.73   -0.25   -2.73  -20.51   81.82
   10.92  -20.24   82.37   -0.25   -2.90   -0.25   -2.90  -20.24   82.37
   11.02  -20.02   83.34   -0.25   -3.18   -0.25   -3.18  -20.02   83.34
   11.12  -19.78   84.03   -0.26   -3.36   -0.26   -3.36  -19.78   84.03
   11.22  -19.51   85.06   -0.25   -3.69   -0.25   -3.69  -19.51   85.06
   11.32  -19.29   85.59   -0.24   -3.89   -0.24   -3.89  -19.29   85.59
   11.42  -19.16   85.83   -0.24   -4.15   -0.24   -4.15  -19.16   85.83
   11.52  -18.93   85.53   -0.25   -4.38   -0.25   -4.38  -18.93   85.53
   11.62  -18.69   86.38   -0.25   -4.66   -0.25   -4.66  -18.69   86.38
   11.72  -18.45   86.21   -0.26   -4.90   -0.26   -4.90  -18.45   86.21
   11.82  -18.27   86.68   -0.24   -5.26   -0.24   -5.26  -18.27   86.68
   11.92  -18.13   85.67   -0.24   -5.41   -0.24   -5.41  -18.13   85.67
   12.02  -17.85   85.48   -0.26   -5.68   -0.26   -5.68  -17.85   85.48
   12.12  -17.57   85.04   -0.28   -5.85   -0.28   -5.85  -17.57   85.04
   12.22  -17.35   85.10   -0.29   -6.26   -0.29   -6.26  -17.35   85.10
   12.32  -17.14   84.06   -0.28   -6.51   -0.28   -6.51  -17.14   84.06
   12.42  -17.02   82.76   -0.28   -6.84   -0.28   -6.84  -17.02   82.76
   12.52  -16.67   81.80   -0.28   -6.93   -0.28   -6.93  -16.67   81.80
   12.62  -16.45   81.76   -0.29   -7.28   -0.29   -7.28  -16.45   81.76
   12.72  -16.12   81.35   -0.31   -7.51   -0.31   -7.51  -16.12   81.35
   12.82  -16.01   80.22   -0.32   -7.95   -0.32   -7.95  -16.01   80.22
   12.92  -15.64   78.61   -0.31   -8.27   -0.31   -8.27  -15.64   78.61
   13.02  -15.40   78.30   -0.32   -8.53   -0.32   -8.53  -15.40   78.30
   13.12  -14.99   77.92   -0.34   -8.64   -0.34   -8.64  -14.99   77.92
   13.22  -14.74   78.16   -0.38   -9.03   -0.38   -9.03  -14.74   78.16
   13.32  -14.39   76.69   -0.39   -9.41   -0.39   -9.41  -14.39   76.69
   13.42  -14.09   75.82   -0.40   -9.88   -0.40   -9.88  -14.09   75.82
   13.52  -13.70   75.38   -0.39  -10.04   -0.39  -10.04  -13.70   75.38
   13.62  -13.36   75.95   -0.42  -10.22   -0.42  -10.22  -13.36   75.95
   13.72  -12.95   75.33   -0.47  -10.51   -0.47  -10.51  -12.95   75.33
   13.82  -12.66   75.19   -0.51  -10.95   -0.51  -10.95  -12.66   75.19
   13.92  -12.31   74.07   -0.51  -11.42   -0.51  -11.42  -12.31   74.07
   14.02  -12.03   73.68   -0.52  -11.75   -0.52  -11.75  -12.03   73.68
   14.11  -11.61   72.93   -0.53  -11.89   -0.53  -11.89  -11.61   72.93
   14.21  -11.30   74.49   -0.59  -11.97   -0.59  -11.97  -11.30   74.49
   14.31  -11.02   74.22   -0.61  -12.32   -0.61  -12.32  -11.02   74.22
   14.41  -10.82   73.55   -0.65  -12.75   -0.65  -12.75  -10.82   73.55
   14.51  -10.60   73.12   -0.68  -13.04   -0.68  -13.04  -10.60   73.12
   14.61  -10.29   73.07   -0.71  -13.38   -0.71  -13.38  -10.29   73.07
   14.71   -9.98   74.25   -0.72  -13.50   -0.72  -13.50   -9.98   74.25
   14.81   -9.79   74.32   -0.76  -13.75   -0.76  -13.75   -9.79   74.32
   14.91   -9.60   74.38   -0.80  -13.93   -0.80  -13.93   -9.60   74.38
   15.01   -9.53   73.77   -0.86  -14.24   -0.86  -14.24   -9.53   73.77
   15.11   -9.31   74.40   -0.89  -14.38   -0.89  -14.38   -9.31   74.40
   15.21   -9.10   74.81   -0.91  -14.49   -0.91  -14.49   -9.10   74.81
   15.31   -8.98   75.83   -0.94  -14.52   -0.94  -14.52   -8.98   75.83
   15.41   -8.83   75.11   -0.99  -14.79   -0.99  -14.79   -8.83   75.11
   15.51   -8.77   75.38   -0.99  -14.82   -0.99  -14.82   -8.77   75.38
   15.61   -8.65   75.08   -1.04  -14.91   -1.04  -14.91   -8.65   75.08
   15.71   -8.50   76.32   -1.04  -14.93   -1.04  -14.93   -8.50   76.32
   15.81   -8.37   76.20   -1.06  -15.00   -1.06  -15.00   -8.37   76.20
   15.91   -8.27   76.38   -1.07  -15.13   -1.07  -15.13   -8.27   76.38
   16.01   -8.32   75.55   -1.12  -15.16   -1.12  -15.16   -8.32   75.55
   16.11   -8.26   75.77   -1.12  -15.15   -1.12  -15.15   -8.26   75.77
   16.21   -8.18   76.07   -1.13  -15.34   -1.13  -15.34   -8.18   76.07
   16.31   -8.09   76.47   -1.11  -15.48   -1.11  -15.48   -8.09   76.47
   16.41   -8.04   76.42   -1.10  -15.66   -1.10  -15.66   -8.04   76.42
   16.51   -8.06   75.99   -1.11  -15.71   -1.11  -15.71   -8.06   75.99
   16.61   -8.03   76.05   -1.11  -15.90   -1.11  -15.90   -8.03   76.05
   16.71   -8.08   76.34   -1.13  -15.87   -1.13  -15.87   -8.08   76.34
   16.81   -7.96   75.88   -1.14  -16.42   -1.14  -16.42   -7.96   75.88
   16.91   -8.01   76.12   -1.10  -16.49   -1.10  -16.49   -8.01   76.12
   17.01   -7.99   76.05   -1.11  -16.96   -1.11  -16.96   -7.99   76.05
   17.11   -8.15   76.13   -1.11  -16.96   -1.11  -16.96   -8.15   76.13
   17.21   -8.14   76.13   -1.19  -17.42   -1.19  -17.42   -8.14   76.13
   17.31   -8.19   76.42   -1.15  -17.44   -1.15  -17.44   -8.19   76.42
   17.41   -8.09   76.52   -1.16  -18.01   -1.16  -18.01   -8.09   76.52
   17.51   -8.21   76.76   -1.15  -18.23   -1.15  -18.23   -8.21   76.76
   17.61   -8.19   76.73   -1.22  -18.62   -1.22  -18.62   -8.19   76.73
   17.71   -8.24   76.38   -1.23  -18.59   -1.23  -18.59   -8.24   76.38
   17.81   -8.09   76.28   -1.22  -19.23   -1.22  -19.23   -8.09   76.28
   17.91   -8.15   76.13   -1.22  -19.76   -1.22  -19.76   -8.15   76.13
   18.01   -8.11   75.39   -1.23  -19.92   -1.23  -19.92   -8.11   75.39
   18.10   -8.20   74.44   -1.23  -20.55   -1.23  -20.55   -8.20   74.44
   18.20   -8.08   74.15   -1.30  -20.67   -1.30  -20.67   -8.08   74.15
   18.30   -8.05   73.60   -1.30  -21.40   -1.30  -21.40   -8.05   73.60
   18.40   -8.03   72.97   -1.35  -22.03   -1.35  -22.03   -8.03   72.97
   18.50   -8.07   71.73   -1.38  -22.66   -1.38  -22.66   -8.07   71.73
   18.60   -7.94   70.83   -1.43  -23.00   -1.43  -23.00   -7.94   70.83
   18.70   -7.85   70.24   -1.50  -23.54   -1.50  -23.54   -7.85   70.24
   18.80   -7.73   69.66   -1.55  -24.05   -1.55  -24.05   -7.73   69.66
   18.90   -7.67   68.83   -1.61  -24.63   -1.61  -24.63   -7.67   68.83
   19.00   -7.55   67.20   -1.65  -25.25   -1.65  -25.25   -7.55   67.20
   19.10   -7.40   66.45   -1.73  -25.71   -1.73  -25.71   -7.40   66.45
   19.20   -7.28   65.66   -1.82  -26.26   -1.82  -26.26   -7.28   65.66
   19.30   -7.13   65.23   -1.88  -26.78   -1.88  -26.78   -7.13   65.23
   19.40   -7.03   64.05   -1.96  -27.44   -1.96  -27.44   -7.03   64.05
   19.50   -6.84   62.69   -2.01  -28.09   -2.01  -28.09   -6.84   62.69
   19.60   -6.78   62.60   -2.13  -28.62   -2.13  -28.62   -6.78   62.60
   19.70   -6.61   61.87   -2.20  -29.24   -2.20  -29.24   -6.61   61.87
   19.80   -6.59   62.52   -2.34  -29.93   -2.34  -29.93   -6.59   62.52
   19.90   -6.46   61.32   -2.42  -30.74   -2.42  -30.74   -6.46   61.32
   20.00   -6.36   61.54   -2.58  -31.30   -2.58  -31.30   -6.36   61.54
