!  American Technical Ceramics  Date:    3/13/98
!  One Norden Lane
!  Huntington Station,  NY.   11746-2102
!  Tel:  (516) 547-5700               Fax:  (516) 547-5748
!  Part Number  700A560G
!  Description: Porcelain, High Q, Low ESR
!  Application: Bypass, Coupling, Timing, Feedback
!               Tuning, Impedance Match, Blocking
# GHZ S DB R 50
! Freq   |S11|   S11 Ph  |S21|   S21 Ph  |S12|   S12 Ph  |S22|   S22 Ph
    0.05   -6.00  -59.29   -1.32   30.05   -1.32   30.05   -6.00  -59.29
    0.09  -10.14  -72.49   -0.45   17.83   -0.45   17.83  -10.14  -72.49
    0.13  -13.17  -77.49   -0.31   12.46   -0.31   12.46  -13.17  -77.49
    0.17  -15.51  -80.98   -0.15    9.57   -0.15    9.57  -15.51  -80.98
    0.21  -17.37  -83.12   -0.09    7.79   -0.09    7.79  -17.37  -83.12
    0.25  -18.87  -84.36   -0.07    6.35   -0.07    6.35  -18.87  -84.36
    0.29  -20.21  -85.89   -0.07    5.38   -0.07    5.38  -20.21  -85.89
    0.33  -21.43  -86.79   -0.04    4.66   -0.04    4.66  -21.43  -86.79
    0.37  -22.57  -87.70   -0.03    3.94   -0.03    3.94  -22.57  -87.70
    0.41  -23.49  -87.99   -0.04    3.72   -0.04    3.72  -23.49  -87.99
    0.45  -24.40  -89.14   -0.03    3.30   -0.03    3.30  -24.40  -89.14
    0.49  -25.33  -89.42   -0.01    2.90   -0.01    2.90  -25.33  -89.42
    0.53  -26.27  -89.47   -0.03    2.46   -0.03    2.46  -26.27  -89.47
    0.57  -27.29  -89.71   -0.03    2.24   -0.03    2.24  -27.29  -89.71
    0.61  -27.83  -90.62   -0.03    2.02   -0.03    2.02  -27.83  -90.62
    0.65  -28.62  -90.62    0.00    1.91    0.00    1.91  -28.62  -90.62
    0.69  -29.16  -90.90   -0.03    1.78   -0.03    1.78  -29.16  -90.90
    0.73  -30.04  -91.29   -0.02    1.57   -0.02    1.57  -30.04  -91.29
    0.77  -30.76  -91.05   -0.02    1.36   -0.02    1.36  -30.76  -91.05
    0.81  -31.31  -92.04   -0.01    1.28   -0.01    1.28  -31.31  -92.04
    0.85  -32.24  -92.91   -0.02    1.14   -0.02    1.14  -32.24  -92.91
    0.88  -32.65  -92.40   -0.03    1.04   -0.03    1.04  -32.65  -92.40
    0.92  -33.78  -92.54   -0.03    0.85   -0.03    0.85  -33.78  -92.54
    0.96  -34.17  -93.15   -0.02    0.82   -0.02    0.82  -34.17  -93.15
    1.00  -35.24  -92.90   -0.03    0.85   -0.03    0.85  -35.24  -92.90
    1.04  -35.80  -91.69   -0.03    0.52   -0.03    0.52  -35.80  -91.69
    1.08  -36.51  -93.79   -0.03    0.59   -0.03    0.59  -36.51  -93.79
    1.12  -37.67  -94.47   -0.02    0.40   -0.02    0.40  -37.67  -94.47
    1.16  -38.42  -90.81   -0.01    0.26   -0.01    0.26  -38.42  -90.81
    1.20  -39.42  -93.09   -0.01    0.23   -0.01    0.23  -39.42  -93.09
    1.24  -40.55  -89.92   -0.03    0.10   -0.03    0.10  -40.55  -89.92
    1.28  -41.62  -91.88   -0.04    0.01   -0.04    0.01  -41.62  -91.88
    1.32  -43.68  -85.48   -0.04    0.00   -0.04    0.00  -43.68  -85.48
    1.36  -44.25  -90.46   -0.03    0.03   -0.03    0.03  -44.25  -90.46
    1.40  -47.60  -84.49   -0.03   -0.06   -0.03   -0.06  -47.60  -84.49
    1.44  -48.17  -80.90   -0.03   -0.21   -0.03   -0.21  -48.17  -80.90
    1.48  -54.27  -90.27   -0.02   -0.23   -0.02   -0.23  -54.27  -90.27
    1.52  -58.64  -40.76   -0.02   -0.36   -0.02   -0.36  -58.64  -40.76
    1.56  -59.10  -37.42   -0.01   -0.46   -0.01   -0.46  -59.10  -37.42
    1.60  -54.40   65.37   -0.02   -0.59   -0.02   -0.59  -54.40   65.37
    1.64  -54.48   44.91   -0.03   -0.54   -0.03   -0.54  -54.48   44.91
    1.68  -47.73   81.02   -0.04   -0.72   -0.04   -0.72  -47.73   81.02
    1.72  -47.19   58.58   -0.03   -0.60   -0.03   -0.60  -47.19   58.58
    1.76  -45.41   79.12   -0.03   -0.53   -0.03   -0.53  -45.41   79.12
    1.80  -43.22   69.73   -0.04   -0.75   -0.04   -0.75  -43.22   69.73
    1.84  -43.52   69.85   -0.03   -0.79   -0.03   -0.79  -43.52   69.85
    1.88  -40.99   79.43   -0.03   -0.83   -0.03   -0.83  -40.99   79.43
    1.92  -40.09   71.79   -0.04   -0.89   -0.04   -0.89  -40.09   71.79
    1.96  -39.88   74.39   -0.02   -0.99   -0.02   -0.99  -39.88   74.39
    2.00  -38.05   75.39   -0.02   -1.04   -0.02   -1.04  -38.05   75.39
    2.04  -38.27   73.69   -0.04   -1.18   -0.04   -1.18  -38.27   73.69
    2.08  -36.86   78.46   -0.02   -1.26   -0.02   -1.26  -36.86   78.46
    2.12  -36.68   72.45   -0.04   -1.28   -0.04   -1.28  -36.68   72.45
    2.16  -36.30   77.05   -0.05   -1.34   -0.05   -1.34  -36.30   77.05
    2.20  -35.60   74.14   -0.04   -1.37   -0.04   -1.37  -35.60   74.14
    2.24  -35.24   76.37   -0.04   -1.47   -0.04   -1.47  -35.24   76.37
    2.28  -34.28   76.63   -0.04   -1.36   -0.04   -1.36  -34.28   76.63
    2.32  -34.30   72.38   -0.04   -1.46   -0.04   -1.46  -34.30   72.38
    2.36  -33.72   76.40   -0.03   -1.64   -0.03   -1.64  -33.72   76.40
    2.40  -32.96   75.17   -0.03   -1.61   -0.03   -1.61  -32.96   75.17
    2.44  -32.94   75.61   -0.05   -1.68   -0.05   -1.68  -32.94   75.61
    2.47  -32.26   75.26   -0.04   -1.72   -0.04   -1.72  -32.26   75.26
    2.51  -32.24   73.81   -0.05   -1.75   -0.05   -1.75  -32.24   73.81
    2.55  -31.55   75.96   -0.06   -1.91   -0.06   -1.91  -31.55   75.96
    2.59  -31.18   74.01   -0.06   -1.70   -0.06   -1.70  -31.18   74.01
    2.63  -30.99   75.22   -0.06   -2.03   -0.06   -2.03  -30.99   75.22
    2.67  -30.40   74.73   -0.06   -1.91   -0.06   -1.91  -30.40   74.73
    2.71  -30.34   74.36   -0.05   -2.26   -0.05   -2.26  -30.34   74.36
    2.75  -29.96   74.52   -0.05   -2.17   -0.05   -2.17  -29.96   74.52
    2.79  -29.51   73.30   -0.05   -2.24   -0.05   -2.24  -29.51   73.30
    2.83  -29.32   73.72   -0.06   -2.30   -0.06   -2.30  -29.32   73.72
    2.87  -28.85   73.94   -0.06   -2.33   -0.06   -2.33  -28.85   73.94
    2.91  -28.40   72.84   -0.06   -2.58   -0.06   -2.58  -28.40   72.84
    2.95  -28.08   72.97   -0.06   -2.66   -0.06   -2.66  -28.08   72.97
    2.99  -27.59   72.60   -0.04   -2.79   -0.04   -2.79  -27.59   72.60
    3.03  -27.35   72.60   -0.06   -2.86   -0.06   -2.86  -27.35   72.60
    3.07  -26.71   72.08   -0.09   -3.09   -0.09   -3.09  -26.71   72.08
    3.11  -26.32   70.93   -0.08   -3.02   -0.08   -3.02  -26.32   70.93
    3.15  -25.74   70.52   -0.10   -3.22   -0.10   -3.22  -25.74   70.52
    3.19  -25.13   69.31   -0.12   -3.63   -0.12   -3.63  -25.13   69.31
    3.23  -24.31   68.29   -0.13   -3.96   -0.13   -3.96  -24.31   68.29
    3.27  -23.48   65.90   -0.17   -4.27   -0.17   -4.27  -23.48   65.90
    3.31  -22.38   62.70   -0.23   -4.85   -0.23   -4.85  -22.38   62.70
    3.35  -21.09   56.97   -0.32   -5.22   -0.32   -5.22  -21.09   56.97
    3.39  -19.48   46.97   -0.52   -5.91   -0.52   -5.91  -19.48   46.97
    3.43  -18.17   28.33   -0.89   -5.26   -0.89   -5.26  -18.17   28.33
    3.47  -18.25    1.82   -1.12   -1.81   -1.12   -1.81  -18.25    1.82
    3.51  -20.86  -22.19   -0.80    0.99   -0.80    0.99  -20.86  -22.19
    3.55  -24.33  -33.85   -0.47    1.10   -0.47    1.10  -24.33  -33.85
    3.59  -27.82  -36.78   -0.29    0.51   -0.29    0.51  -27.82  -36.78
    3.63  -30.98  -33.53   -0.23    0.23   -0.23    0.23  -30.98  -33.53
    3.67  -33.61  -24.19   -0.17   -0.23   -0.17   -0.23  -33.61  -24.19
    3.71  -35.15  -10.67   -0.15   -0.68   -0.15   -0.68  -35.15  -10.67
    3.75  -36.12    2.65   -0.12   -0.94   -0.12   -0.94  -36.12    2.65
    3.79  -36.63   14.20   -0.11   -1.11   -0.11   -1.11  -36.63   14.20
    3.83  -36.44   24.45   -0.11   -1.22   -0.11   -1.22  -36.44   24.45
    3.87  -36.18   30.09   -0.11   -1.43   -0.11   -1.43  -36.18   30.09
    3.91  -35.94   35.19   -0.11   -1.67   -0.11   -1.67  -35.94   35.19
    3.95  -35.51   37.32   -0.10   -1.71   -0.10   -1.71  -35.51   37.32
    3.99  -35.33   40.42   -0.10   -1.86   -0.10   -1.86  -35.33   40.42
    4.03  -34.25   50.72   -0.09   -1.86   -0.09   -1.86  -34.25   50.72
    4.06  -33.72   51.91   -0.10   -2.02   -0.10   -2.02  -33.72   51.91
    4.10  -33.77   52.64   -0.09   -2.10   -0.09   -2.10  -33.77   52.64
    4.14  -33.58   54.69   -0.10   -2.11   -0.10   -2.11  -33.58   54.69
    4.18  -33.32   55.80   -0.10   -2.27   -0.10   -2.27  -33.32   55.80
    4.22  -32.81   57.73   -0.10   -2.30   -0.10   -2.30  -32.81   57.73
    4.26  -33.07   57.69   -0.10   -2.33   -0.10   -2.33  -33.07   57.69
    4.30  -33.01   60.00   -0.10   -2.35   -0.10   -2.35  -33.01   60.00
    4.34  -32.67   61.14   -0.11   -2.36   -0.11   -2.36  -32.67   61.14
    4.38  -32.33   61.83   -0.10   -2.49   -0.10   -2.49  -32.33   61.83
    4.42  -32.29   62.37   -0.09   -2.63   -0.09   -2.63  -32.29   62.37
    4.46  -32.21   62.82   -0.09   -2.66   -0.09   -2.66  -32.21   62.82
    4.50  -32.03   62.58   -0.11   -2.60   -0.11   -2.60  -32.03   62.58
    4.54  -31.80   63.96   -0.08   -2.55   -0.08   -2.55  -31.80   63.96
    4.58  -31.52   64.05   -0.11   -2.85   -0.11   -2.85  -31.52   64.05
    4.62  -31.65   62.92   -0.11   -2.72   -0.11   -2.72  -31.65   62.92
    4.66  -31.49   63.99   -0.10   -2.89   -0.10   -2.89  -31.49   63.99
    4.70  -31.27   64.73   -0.11   -2.96   -0.11   -2.96  -31.27   64.73
    4.74  -31.29   63.74   -0.11   -3.03   -0.11   -3.03  -31.29   63.74
    4.78  -31.16   64.61   -0.12   -2.93   -0.12   -2.93  -31.16   64.61
    4.82  -30.93   65.41   -0.11   -3.10   -0.11   -3.10  -30.93   65.41
    4.86  -31.03   65.02   -0.13   -3.06   -0.13   -3.06  -31.03   65.02
    4.90  -30.99   65.90   -0.10   -3.15   -0.10   -3.15  -30.99   65.90
    4.94  -30.64   66.11   -0.11   -3.24   -0.11   -3.24  -30.64   66.11
    4.98  -30.37   65.81   -0.13   -3.36   -0.13   -3.36  -30.37   65.81
    5.02  -30.70   65.56   -0.10   -3.35   -0.10   -3.35  -30.70   65.56
    5.06  -30.29   67.48   -0.10   -3.29   -0.10   -3.29  -30.29   67.48
    5.10  -30.11   66.08   -0.11   -3.45   -0.11   -3.45  -30.11   66.08
    5.14  -30.02   66.74   -0.14   -3.71   -0.14   -3.71  -30.02   66.74
    5.18  -29.81   66.57   -0.12   -3.41   -0.12   -3.41  -29.81   66.57
    5.22  -29.61   66.62   -0.12   -3.67   -0.12   -3.67  -29.61   66.62
    5.26  -29.66   66.77   -0.11   -3.67   -0.11   -3.67  -29.66   66.77
    5.30  -29.34   66.54   -0.13   -3.79   -0.13   -3.79  -29.34   66.54
    5.34  -29.09   66.27   -0.14   -3.78   -0.14   -3.78  -29.09   66.27
    5.38  -29.02   65.14   -0.12   -3.85   -0.12   -3.85  -29.02   65.14
    5.42  -28.99   66.49   -0.14   -3.87   -0.14   -3.87  -28.99   66.49
    5.46  -28.58   66.65   -0.13   -3.99   -0.13   -3.99  -28.58   66.65
    5.50  -28.44   65.87   -0.14   -3.90   -0.14   -3.90  -28.44   65.87
    5.54  -28.33   65.64   -0.15   -4.05   -0.15   -4.05  -28.33   65.64
    5.58  -27.99   66.50   -0.14   -4.21   -0.14   -4.21  -27.99   66.50
    5.62  -27.89   65.39   -0.15   -4.07   -0.15   -4.07  -27.89   65.39
    5.65  -27.62   65.95   -0.16   -4.27   -0.16   -4.27  -27.62   65.95
    5.69  -27.29   65.32   -0.16   -4.52   -0.16   -4.52  -27.29   65.32
    5.73  -26.94   64.50   -0.19   -4.48   -0.19   -4.48  -26.94   64.50
    5.77  -26.74   64.51   -0.17   -4.55   -0.17   -4.55  -26.74   64.51
    5.81  -26.20   64.58   -0.18   -4.71   -0.18   -4.71  -26.20   64.58
    5.85  -25.88   63.04   -0.18   -4.80   -0.18   -4.80  -25.88   63.04
    5.89  -25.53   62.35   -0.19   -4.83   -0.19   -4.83  -25.53   62.35
    5.93  -25.17   61.36   -0.21   -5.08   -0.21   -5.08  -25.17   61.36
    5.97  -24.56   59.37   -0.26   -5.17   -0.26   -5.17  -24.56   59.37
    6.01  -24.15   56.69   -0.26   -5.24   -0.26   -5.24  -24.15   56.69
    6.05  -23.74   53.90   -0.31   -5.42   -0.31   -5.42  -23.74   53.90
    6.09  -23.23   49.79   -0.36   -5.57   -0.36   -5.57  -23.23   49.79
    6.13  -22.85   44.45   -0.42   -5.52   -0.42   -5.52  -22.85   44.45
    6.17  -22.70   38.07   -0.49   -5.40   -0.49   -5.40  -22.70   38.07
    6.21  -22.64   31.35   -0.55   -4.75   -0.55   -4.75  -22.64   31.35
    6.25  -23.18   23.29   -0.57   -4.34   -0.57   -4.34  -23.18   23.29
    6.29  -24.18   17.69   -0.56   -3.71   -0.56   -3.71  -24.18   17.69
    6.33  -25.36   14.82   -0.51   -3.25   -0.51   -3.25  -25.36   14.82
    6.37  -26.63   14.93   -0.42   -3.14   -0.42   -3.14  -26.63   14.93
    6.41  -27.60   19.11   -0.39   -3.03   -0.39   -3.03  -27.60   19.11
    6.45  -28.33   25.29   -0.33   -3.14   -0.33   -3.14  -28.33   25.29
    6.49  -28.43   31.50   -0.30   -3.23   -0.30   -3.23  -28.43   31.50
    6.53  -28.51   35.96   -0.29   -3.38   -0.29   -3.38  -28.51   35.96
    6.57  -28.16   41.01   -0.25   -3.53   -0.25   -3.53  -28.16   41.01
    6.61  -27.69   42.80   -0.26   -3.66   -0.26   -3.66  -27.69   42.80
    6.65  -27.31   46.13   -0.24   -3.65   -0.24   -3.65  -27.31   46.13
    6.69  -27.02   48.43   -0.24   -3.80   -0.24   -3.80  -27.02   48.43
    6.73  -26.55   49.13   -0.24   -3.94   -0.24   -3.94  -26.55   49.13
    6.77  -26.16   48.89   -0.24   -3.99   -0.24   -3.99  -26.16   48.89
    6.81  -25.67   50.09   -0.24   -4.11   -0.24   -4.11  -25.67   50.09
    6.85  -25.40   50.57   -0.23   -4.17   -0.23   -4.17  -25.40   50.57
    6.89  -25.10   50.77   -0.23   -4.39   -0.23   -4.39  -25.10   50.77
    6.93  -24.88   50.43   -0.23   -4.40   -0.23   -4.40  -24.88   50.43
    6.97  -24.41   50.97   -0.24   -4.50   -0.24   -4.50  -24.41   50.97
    7.01  -24.16   49.93   -0.25   -4.39   -0.25   -4.39  -24.16   49.93
    7.05  -24.06   51.18   -0.27   -4.44   -0.27   -4.44  -24.06   51.18
    7.09  -23.75   51.64   -0.26   -4.51   -0.26   -4.51  -23.75   51.64
    7.13  -23.50   50.70   -0.25   -4.72   -0.25   -4.72  -23.50   50.70
    7.17  -23.15   50.63   -0.27   -4.65   -0.27   -4.65  -23.15   50.63
    7.21  -22.83   50.72   -0.27   -4.78   -0.27   -4.78  -22.83   50.72
    7.24  -22.61   50.97   -0.27   -4.90   -0.27   -4.90  -22.61   50.97
    7.28  -22.45   50.53   -0.28   -4.99   -0.28   -4.99  -22.45   50.53
    7.32  -22.21   49.67   -0.29   -5.06   -0.29   -5.06  -22.21   49.67
    7.36  -21.93   49.28   -0.30   -4.99   -0.30   -4.99  -21.93   49.28
    7.40  -21.71   49.25   -0.30   -4.96   -0.30   -4.96  -21.71   49.25
    7.44  -21.67   49.69   -0.32   -5.11   -0.32   -5.11  -21.67   49.69
    7.48  -21.29   49.44   -0.32   -5.19   -0.32   -5.19  -21.29   49.44
    7.52  -21.23   47.93   -0.33   -5.09   -0.33   -5.09  -21.23   47.93
    7.56  -20.95   48.38   -0.33   -5.08   -0.33   -5.08  -20.95   48.38
    7.60  -20.77   47.87   -0.32   -5.18   -0.32   -5.18  -20.77   47.87
    7.64  -20.71   49.11   -0.34   -5.15   -0.34   -5.15  -20.71   49.11
    7.68  -20.62   48.31   -0.33   -5.14   -0.33   -5.14  -20.62   48.31
    7.72  -20.39   48.36   -0.35   -5.04   -0.35   -5.04  -20.39   48.36
    7.76  -20.19   47.87   -0.35   -5.14   -0.35   -5.14  -20.19   47.87
    7.80  -20.06   48.36   -0.37   -5.21   -0.37   -5.21  -20.06   48.36
    7.84  -19.97   49.05   -0.37   -5.23   -0.37   -5.23  -19.97   49.05
    7.88  -19.72   48.79   -0.36   -5.23   -0.36   -5.23  -19.72   48.79
    7.92  -19.62   47.79   -0.37   -5.32   -0.37   -5.32  -19.62   47.79
    7.96  -19.40   48.48   -0.37   -5.35   -0.37   -5.35  -19.40   48.48
    8.00  -19.32   48.04   -0.37   -5.43   -0.37   -5.43  -19.32   48.04
