!  American Technical Ceramics  Date:    3/13/98
!  One Norden Lane
!  Huntington Station,  NY.   11746-2102
!  Tel:  (516) 547-5700               Fax:  (516) 547-5748
!  Part Number  700B390J
!  Description: Porcelain, High Q, Low ESR
!  Application: Bypass, Coupling, Timing, Feedback
!               Tuning, Impedance Match, Blocking
# GHZ S DB R 50
! Freq   |S11|   S11 Ph  |S21|   S21 Ph  |S12|   S12 Ph  |S22|   S22 Ph
    0.05   -4.11  -51.47   -2.11   38.46   -2.11   38.46   -4.11  -51.47
    0.09   -7.70  -66.31   -0.79   23.65   -0.79   23.65   -7.70  -66.31
    0.13  -10.45  -73.36   -0.49   16.64   -0.49   16.64  -10.45  -73.36
    0.17  -12.56  -77.54   -0.23   12.84   -0.23   12.84  -12.56  -77.54
    0.21  -14.19  -80.40   -0.18   10.22   -0.18   10.22  -14.19  -80.40
    0.25  -15.48  -81.94   -0.13    8.41   -0.13    8.41  -15.48  -81.94
    0.29  -16.56  -83.78   -0.11    7.15   -0.11    7.15  -16.56  -83.78
    0.33  -17.44  -85.09   -0.08    6.09   -0.08    6.09  -17.44  -85.09
    0.37  -18.23  -85.89   -0.06    5.16   -0.06    5.16  -18.23  -85.89
    0.41  -18.87  -86.74   -0.06    4.65   -0.06    4.65  -18.87  -86.74
    0.45  -19.40  -87.79   -0.06    3.92   -0.06    3.92  -19.40  -87.79
    0.49  -19.82  -88.37   -0.04    3.51   -0.04    3.51  -19.82  -88.37
    0.53  -20.35  -89.06   -0.05    2.92   -0.05    2.92  -20.35  -89.06
    0.57  -20.62  -89.74   -0.05    2.57   -0.05    2.57  -20.62  -89.74
    0.61  -20.88  -90.18   -0.04    2.05   -0.04    2.05  -20.88  -90.18
    0.65  -21.04  -90.60   -0.04    1.89   -0.04    1.89  -21.04  -90.60
    0.69  -21.22  -91.32   -0.05    1.69   -0.05    1.69  -21.22  -91.32
    0.73  -21.35  -91.78   -0.03    1.22   -0.03    1.22  -21.35  -91.78
    0.77  -21.42  -92.51   -0.04    1.02   -0.04    1.02  -21.42  -92.51
    0.81  -21.48  -92.86   -0.04    0.86   -0.04    0.86  -21.48  -92.86
    0.85  -21.57  -93.31   -0.04    0.63   -0.04    0.63  -21.57  -93.31
    0.88  -21.57  -93.77   -0.04    0.41   -0.04    0.41  -21.57  -93.77
    0.92  -21.59  -94.37   -0.04    0.23   -0.04    0.23  -21.59  -94.37
    0.96  -21.54  -94.88   -0.05    0.02   -0.05    0.02  -21.54  -94.88
    1.00  -21.56  -95.40   -0.06   -0.10   -0.06   -0.10  -21.56  -95.40
    1.04  -21.50  -95.65   -0.06   -0.28   -0.06   -0.28  -21.50  -95.65
    1.08  -21.45  -96.40   -0.05   -0.43   -0.05   -0.43  -21.45  -96.40
    1.12  -21.38  -96.73   -0.04   -0.66   -0.04   -0.66  -21.38  -96.73
    1.16  -21.27  -97.17   -0.04   -0.75   -0.04   -0.75  -21.27  -97.17
    1.20  -21.22  -97.39   -0.05   -1.00   -0.05   -1.00  -21.22  -97.39
    1.24  -21.16  -97.66   -0.04   -1.13   -0.04   -1.13  -21.16  -97.66
    1.28  -21.10  -98.17   -0.06   -1.24   -0.06   -1.24  -21.10  -98.17
    1.32  -20.94  -98.50   -0.05   -1.47   -0.05   -1.47  -20.94  -98.50
    1.36  -20.87  -99.17   -0.07   -1.54   -0.07   -1.54  -20.87  -99.17
    1.40  -20.78  -99.32   -0.06   -1.63   -0.06   -1.63  -20.78  -99.32
    1.44  -20.69 -100.07   -0.06   -1.84   -0.06   -1.84  -20.69 -100.07
    1.48  -20.55 -100.19   -0.05   -1.89   -0.05   -1.89  -20.55 -100.19
    1.52  -20.51 -100.93   -0.06   -2.12   -0.06   -2.12  -20.51 -100.93
    1.56  -20.32 -101.05   -0.07   -2.34   -0.07   -2.34  -20.32 -101.05
    1.60  -20.30 -101.56   -0.07   -2.40   -0.07   -2.40  -20.30 -101.56
    1.64  -20.10 -101.60   -0.07   -2.52   -0.07   -2.52  -20.10 -101.60
    1.68  -20.06 -102.62   -0.08   -2.66   -0.08   -2.66  -20.06 -102.62
    1.72  -19.88 -102.26   -0.06   -2.71   -0.06   -2.71  -19.88 -102.26
    1.76  -19.82 -102.81   -0.07   -2.64   -0.07   -2.64  -19.82 -102.81
    1.80  -19.66 -103.05   -0.09   -3.04   -0.09   -3.04  -19.66 -103.05
    1.84  -19.56 -103.72   -0.08   -3.05   -0.08   -3.05  -19.56 -103.72
    1.88  -19.45 -103.56   -0.07   -3.28   -0.07   -3.28  -19.45 -103.56
    1.92  -19.36 -103.98   -0.07   -3.25   -0.07   -3.25  -19.36 -103.98
    1.96  -19.24 -104.15   -0.09   -3.41   -0.09   -3.41  -19.24 -104.15
    2.00  -19.16 -104.41   -0.08   -3.54   -0.08   -3.54  -19.16 -104.41
    2.04  -19.00 -105.01   -0.09   -3.72   -0.09   -3.72  -19.00 -105.01
    2.08  -18.96 -105.36   -0.07   -3.71   -0.07   -3.71  -18.96 -105.36
    2.12  -18.82 -105.55   -0.11   -3.96   -0.11   -3.96  -18.82 -105.55
    2.16  -18.68 -105.68   -0.08   -4.05   -0.08   -4.05  -18.68 -105.68
    2.20  -18.63 -106.29   -0.10   -4.15   -0.10   -4.15  -18.63 -106.29
    2.24  -18.52 -106.52   -0.09   -4.34   -0.09   -4.34  -18.52 -106.52
    2.28  -18.49 -106.92   -0.10   -4.38   -0.10   -4.38  -18.49 -106.92
    2.32  -18.30 -106.97   -0.10   -4.34   -0.10   -4.34  -18.30 -106.97
    2.36  -18.29 -107.63   -0.10   -4.66   -0.10   -4.66  -18.29 -107.63
    2.40  -18.14 -107.52   -0.08   -4.94   -0.08   -4.94  -18.14 -107.52
    2.44  -18.14 -108.30   -0.13   -4.85   -0.13   -4.85  -18.14 -108.30
    2.47  -17.99 -108.05   -0.10   -5.05   -0.10   -5.05  -17.99 -108.05
    2.51  -17.94 -108.71   -0.12   -4.96   -0.12   -4.96  -17.94 -108.71
    2.55  -17.89 -108.74   -0.12   -5.31   -0.12   -5.31  -17.89 -108.74
    2.59  -17.88 -109.28   -0.14   -5.35   -0.14   -5.35  -17.88 -109.28
    2.63  -17.71 -109.42   -0.12   -5.50   -0.12   -5.50  -17.71 -109.42
    2.67  -17.73 -109.87   -0.12   -5.70   -0.12   -5.70  -17.73 -109.87
    2.71  -17.65 -110.05   -0.13   -5.98   -0.13   -5.98  -17.65 -110.05
    2.75  -17.65 -110.28   -0.11   -6.00   -0.11   -6.00  -17.65 -110.28
    2.79  -17.58 -110.48   -0.13   -6.17   -0.13   -6.17  -17.58 -110.48
    2.83  -17.62 -110.93   -0.11   -6.36   -0.11   -6.36  -17.62 -110.93
    2.87  -17.63 -111.08   -0.13   -6.43   -0.13   -6.43  -17.63 -111.08
    2.91  -17.66 -111.64   -0.13   -6.62   -0.13   -6.62  -17.66 -111.64
    2.95  -17.79 -111.87   -0.13   -7.19   -0.13   -7.19  -17.79 -111.87
    2.99  -17.88 -112.07   -0.12   -7.38   -0.12   -7.38  -17.88 -112.07
    3.03  -18.06 -112.37   -0.15   -7.57   -0.15   -7.57  -18.06 -112.37
    3.07  -18.37 -112.35   -0.16   -8.19   -0.16   -8.19  -18.37 -112.35
    3.11  -18.93 -112.69   -0.19   -8.65   -0.19   -8.65  -18.93 -112.69
    3.15  -19.67 -111.56   -0.17   -9.42   -0.17   -9.42  -19.67 -111.56
    3.19  -21.33 -108.61   -0.24  -10.62   -0.24  -10.62  -21.33 -108.61
    3.23  -24.63  -91.51   -0.36  -12.67   -0.36  -12.67  -24.63  -91.51
    3.27  -21.11  -25.58   -0.91  -16.07   -0.91  -16.07  -21.11  -25.58
    3.31  -11.18  -42.45   -2.83  -11.68   -2.83  -11.68  -11.18  -42.45
    3.35  -10.02  -81.22   -1.67    1.07   -1.67    1.07  -10.02  -81.22
    3.39  -11.17  -96.08   -0.80   -0.62   -0.80   -0.62  -11.17  -96.08
    3.43  -12.12 -102.45   -0.53   -2.25   -0.53   -2.25  -12.12 -102.45
    3.47  -12.63 -104.68   -0.43   -3.29   -0.43   -3.29  -12.63 -104.68
    3.51  -13.02 -106.73   -0.38   -4.02   -0.38   -4.02  -13.02 -106.73
    3.55  -13.14 -107.56   -0.35   -4.55   -0.35   -4.55  -13.14 -107.56
    3.59  -13.30 -108.82   -0.32   -4.92   -0.32   -4.92  -13.30 -108.82
    3.63  -13.40 -109.52   -0.33   -5.18   -0.33   -5.18  -13.40 -109.52
    3.67  -13.51 -110.07   -0.33   -5.48   -0.33   -5.48  -13.51 -110.07
    3.71  -13.53 -109.97   -0.31   -5.91   -0.31   -5.91  -13.53 -109.97
    3.75  -13.51 -110.52   -0.31   -6.05   -0.31   -6.05  -13.51 -110.52
    3.79  -13.52 -111.17   -0.31   -6.16   -0.31   -6.16  -13.52 -111.17
    3.83  -13.53 -111.04   -0.32   -6.29   -0.32   -6.29  -13.53 -111.04
    3.87  -13.51 -111.68   -0.34   -6.63   -0.34   -6.63  -13.51 -111.68
    3.91  -13.42 -111.64   -0.31   -6.83   -0.31   -6.83  -13.42 -111.64
    3.95  -13.41 -112.22   -0.33   -6.86   -0.33   -6.86  -13.41 -112.22
    3.99  -13.35 -112.24   -0.31   -7.11   -0.31   -7.11  -13.35 -112.24
    4.03  -13.63 -114.16   -0.31   -7.19   -0.31   -7.19  -13.63 -114.16
    4.06  -13.59 -114.02   -0.30   -7.29   -0.30   -7.29  -13.59 -114.02
    4.10  -13.57 -114.60   -0.30   -7.43   -0.30   -7.43  -13.57 -114.60
    4.14  -13.51 -114.72   -0.29   -7.58   -0.29   -7.58  -13.51 -114.72
    4.18  -13.58 -115.16   -0.32   -7.68   -0.32   -7.68  -13.58 -115.16
    4.22  -13.47 -114.74   -0.30   -7.73   -0.30   -7.73  -13.47 -114.74
    4.26  -13.51 -115.77   -0.31   -7.92   -0.31   -7.92  -13.51 -115.77
    4.30  -13.46 -115.92   -0.30   -7.95   -0.30   -7.95  -13.46 -115.92
    4.34  -13.50 -116.34   -0.34   -7.93   -0.34   -7.93  -13.50 -116.34
    4.38  -13.47 -116.19   -0.30   -8.23   -0.30   -8.23  -13.47 -116.19
    4.42  -13.47 -116.50   -0.30   -8.26   -0.30   -8.26  -13.47 -116.50
    4.46  -13.41 -116.81   -0.30   -8.34   -0.30   -8.34  -13.41 -116.81
    4.50  -13.47 -116.97   -0.32   -8.53   -0.32   -8.53  -13.47 -116.97
    4.54  -13.45 -117.14   -0.32   -8.56   -0.32   -8.56  -13.45 -117.14
    4.58  -13.47 -117.26   -0.33   -8.63   -0.33   -8.63  -13.47 -117.26
    4.62  -13.46 -117.53   -0.33   -8.71   -0.33   -8.71  -13.46 -117.53
    4.66  -13.46 -117.48   -0.32   -8.99   -0.32   -8.99  -13.46 -117.48
    4.70  -13.53 -117.52   -0.35   -9.02   -0.35   -9.02  -13.53 -117.52
    4.74  -13.48 -117.65   -0.33   -9.15   -0.33   -9.15  -13.48 -117.65
    4.78  -13.54 -117.70   -0.35   -9.09   -0.35   -9.09  -13.54 -117.70
    4.82  -13.47 -117.83   -0.32   -9.26   -0.32   -9.26  -13.47 -117.83
    4.86  -13.54 -118.43   -0.35   -9.33   -0.35   -9.33  -13.54 -118.43
    4.90  -13.54 -118.12   -0.34   -9.38   -0.34   -9.38  -13.54 -118.12
    4.94  -13.59 -118.51   -0.33   -9.48   -0.33   -9.48  -13.59 -118.51
    4.98  -13.56 -118.82   -0.33   -9.70   -0.33   -9.70  -13.56 -118.82
    5.02  -13.68 -119.01   -0.35   -9.86   -0.35   -9.86  -13.68 -119.01
    5.06  -13.65 -118.57   -0.36   -9.80   -0.36   -9.80  -13.65 -118.57
    5.10  -13.67 -119.11   -0.33   -9.92   -0.33   -9.92  -13.67 -119.11
    5.14  -13.73 -119.30   -0.35  -10.34   -0.35  -10.34  -13.73 -119.30
    5.18  -13.81 -119.26   -0.36  -10.03   -0.36  -10.03  -13.81 -119.26
    5.22  -13.81 -119.00   -0.35  -10.39   -0.35  -10.39  -13.81 -119.00
    5.26  -13.96 -119.67   -0.34  -10.39   -0.34  -10.39  -13.96 -119.67
    5.30  -13.94 -119.05   -0.34  -10.66   -0.34  -10.66  -13.94 -119.05
    5.34  -14.03 -119.62   -0.35  -10.60   -0.35  -10.60  -14.03 -119.62
    5.38  -14.11 -119.67   -0.35  -10.99   -0.35  -10.99  -14.11 -119.67
    5.42  -14.25 -119.26   -0.38  -10.91   -0.38  -10.91  -14.25 -119.26
    5.46  -14.25 -119.26   -0.36  -11.05   -0.36  -11.05  -14.25 -119.26
    5.50  -14.35 -119.81   -0.35  -11.33   -0.35  -11.33  -14.35 -119.81
    5.54  -14.52 -119.61   -0.37  -11.52   -0.37  -11.52  -14.52 -119.61
    5.58  -14.57 -118.24   -0.36  -11.49   -0.36  -11.49  -14.57 -118.24
    5.62  -14.74 -119.52   -0.37  -11.59   -0.37  -11.59  -14.74 -119.52
    5.65  -14.86 -119.07   -0.37  -11.81   -0.37  -11.81  -14.86 -119.07
    5.69  -15.00 -119.21   -0.37  -12.23   -0.37  -12.23  -15.00 -119.21
    5.73  -15.16 -119.35   -0.36  -12.39   -0.36  -12.39  -15.16 -119.35
    5.77  -15.51 -119.14   -0.38  -12.62   -0.38  -12.62  -15.51 -119.14
    5.81  -15.71 -118.16   -0.37  -12.94   -0.37  -12.94  -15.71 -118.16
    5.85  -16.16 -118.08   -0.39  -13.49   -0.39  -13.49  -16.16 -118.08
    5.89  -16.62 -116.49   -0.41  -14.07   -0.41  -14.07  -16.62 -116.49
    5.93  -17.39 -113.38   -0.48  -14.78   -0.48  -14.78  -17.39 -113.38
    5.97  -18.13 -106.03   -0.61  -15.78   -0.61  -15.78  -18.13 -106.03
    6.01  -18.46  -91.55   -0.83  -16.84   -0.83  -16.84  -18.46  -91.55
    6.05  -16.21  -75.52   -1.32  -17.01   -1.32  -17.01  -16.21  -75.52
    6.09  -13.00  -77.98   -1.84  -13.84   -1.84  -13.84  -13.00  -77.98
    6.13  -11.51  -91.01   -1.67   -9.21   -1.67   -9.21  -11.51  -91.01
    6.17  -11.55 -101.33   -1.21   -7.73   -1.21   -7.73  -11.55 -101.33
    6.21  -11.84 -107.09   -0.94   -7.76   -0.94   -7.76  -11.84 -107.09
    6.25  -12.23 -111.18   -0.75   -8.45   -0.75   -8.45  -12.23 -111.18
    6.29  -12.59 -113.12   -0.66   -8.94   -0.66   -8.94  -12.59 -113.12
    6.33  -12.85 -114.74   -0.60   -9.28   -0.60   -9.28  -12.85 -114.74
    6.37  -13.11 -116.09   -0.56   -9.80   -0.56   -9.80  -13.11 -116.09
    6.41  -13.39 -116.95   -0.53   -9.99   -0.53   -9.99  -13.39 -116.95
    6.45  -13.57 -117.37   -0.52  -10.31   -0.52  -10.31  -13.57 -117.37
    6.49  -13.72 -118.26   -0.50  -10.55   -0.50  -10.55  -13.72 -118.26
    6.53  -14.00 -118.38   -0.51  -10.79   -0.51  -10.79  -14.00 -118.38
    6.57  -14.08 -118.60   -0.48  -10.99   -0.48  -10.99  -14.08 -118.60
    6.61  -14.29 -118.95   -0.49  -11.28   -0.49  -11.28  -14.29 -118.95
    6.65  -14.46 -118.62   -0.48  -11.30   -0.48  -11.30  -14.46 -118.62
    6.69  -14.61 -118.79   -0.48  -11.61   -0.48  -11.61  -14.61 -118.79
    6.73  -14.68 -118.86   -0.48  -11.90   -0.48  -11.90  -14.68 -118.86
    6.77  -14.90 -118.80   -0.50  -11.85   -0.50  -11.85  -14.90 -118.80
    6.81  -14.96 -118.08   -0.49  -12.10   -0.49  -12.10  -14.96 -118.08
    6.85  -15.11 -117.91   -0.51  -12.07   -0.51  -12.07  -15.11 -117.91
    6.89  -15.08 -117.85   -0.52  -12.41   -0.52  -12.41  -15.08 -117.85
    6.93  -15.27 -117.96   -0.52  -12.41   -0.52  -12.41  -15.27 -117.96
    6.97  -15.23 -117.36   -0.53  -12.58   -0.53  -12.58  -15.23 -117.36
    7.01  -15.38 -117.69   -0.54  -12.49   -0.54  -12.49  -15.38 -117.69
    7.05  -15.43 -117.07   -0.52  -12.68   -0.52  -12.68  -15.43 -117.07
    7.09  -15.49 -117.57   -0.53  -12.82   -0.53  -12.82  -15.49 -117.57
    7.13  -15.57 -117.40   -0.54  -12.82   -0.54  -12.82  -15.57 -117.40
    7.17  -15.64 -117.11   -0.54  -12.95   -0.54  -12.95  -15.64 -117.11
    7.21  -15.74 -116.58   -0.58  -13.21   -0.58  -13.21  -15.74 -116.58
    7.24  -15.81 -116.50   -0.58  -13.25   -0.58  -13.25  -15.81 -116.50
    7.28  -15.86 -116.01   -0.59  -13.38   -0.59  -13.38  -15.86 -116.01
    7.32  -15.84 -115.68   -0.59  -13.50   -0.59  -13.50  -15.84 -115.68
    7.36  -15.84 -115.68   -0.62  -13.41   -0.62  -13.41  -15.84 -115.68
    7.40  -15.88 -115.81   -0.61  -13.40   -0.61  -13.40  -15.88 -115.81
    7.44  -15.96 -115.28   -0.62  -13.41   -0.62  -13.41  -15.96 -115.28
    7.48  -15.83 -115.31   -0.62  -13.48   -0.62  -13.48  -15.83 -115.31
    7.52  -15.93 -115.34   -0.65  -13.47   -0.65  -13.47  -15.93 -115.34
    7.56  -15.83 -114.86   -0.65  -13.55   -0.65  -13.55  -15.83 -114.86
    7.60  -15.86 -115.76   -0.64  -13.61   -0.64  -13.61  -15.86 -115.76
    7.64  -15.86 -115.31   -0.63  -13.39   -0.63  -13.39  -15.86 -115.31
    7.68  -15.81 -115.99   -0.63  -13.56   -0.63  -13.56  -15.81 -115.99
    7.72  -15.76 -116.40   -0.62  -13.66   -0.62  -13.66  -15.76 -116.40
    7.76  -15.87 -117.47   -0.66  -13.69   -0.66  -13.69  -15.87 -117.47
    7.80  -15.94 -117.66   -0.63  -13.66   -0.63  -13.66  -15.94 -117.66
    7.84  -16.02 -118.05   -0.63  -13.75   -0.63  -13.75  -16.02 -118.05
    7.88  -15.97 -118.40   -0.61  -13.91   -0.61  -13.91  -15.97 -118.40
    7.92  -16.12 -118.91   -0.61  -13.90   -0.61  -13.90  -16.12 -118.91
    7.96  -16.17 -118.76   -0.59  -14.17   -0.59  -14.17  -16.17 -118.76
    8.00  -16.24 -119.75   -0.60  -14.30   -0.60  -14.30  -16.24 -119.75
