!  American Technical Ceramics  Date:    3/13/98
!  One Norden Lane
!  Huntington Station,  NY.   11746-2102
!  Tel:  (516) 547-5700               Fax:  (516) 547-5748
!  Part Number  700B150F
!  Description: Porcelain, High Q, Low ESR
!  Application: Bypass, Coupling, Timing, Feedback
!               Tuning, Impedance Match, Blocking
# GHZ S DB R 50
! Freq   |S11|   S11 Ph  |S21|   S21 Ph  |S12|   S12 Ph  |S22|   S22 Ph
    0.05   -0.80  -25.26   -7.44   64.10   -7.44   64.10   -0.80  -25.26
    0.11   -3.20  -46.76   -2.83   43.09   -2.83   43.09   -3.20  -46.76
    0.17   -5.49  -59.49   -1.45   30.86   -1.45   30.86   -5.49  -59.49
    0.24   -7.54  -66.87   -0.82   23.72   -0.82   23.72   -7.54  -66.87
    0.30   -9.19  -71.79   -0.55   18.83   -0.55   18.83   -9.19  -71.79
    0.36  -10.57  -75.37   -0.38   15.44   -0.38   15.44  -10.57  -75.37
    0.42  -11.70  -78.10   -0.30   13.00   -0.30   13.00  -11.70  -78.10
    0.48  -12.64  -80.11   -0.24   11.07   -0.24   11.07  -12.64  -80.11
    0.54  -13.68  -81.74   -0.21    9.27   -0.21    9.27  -13.68  -81.74
    0.61  -14.38  -83.49   -0.18    8.02   -0.18    8.02  -14.38  -83.49
    0.67  -14.95  -84.72   -0.18    7.02   -0.18    7.02  -14.95  -84.72
    0.73  -15.44  -85.59   -0.15    6.15   -0.15    6.15  -15.44  -85.59
    0.79  -15.86  -86.64   -0.15    5.37   -0.15    5.37  -15.86  -86.64
    0.85  -16.24  -87.87   -0.13    4.74   -0.13    4.74  -16.24  -87.87
    0.91  -16.53  -88.67   -0.11    4.16   -0.11    4.16  -16.53  -88.67
    0.98  -16.76  -89.92   -0.12    3.51   -0.12    3.51  -16.76  -89.92
    1.04  -17.02  -90.69   -0.12    2.94   -0.12    2.94  -17.02  -90.69
    1.10  -17.22  -91.52   -0.10    2.68   -0.10    2.68  -17.22  -91.52
    1.16  -17.29  -92.41   -0.12    2.12   -0.12    2.12  -17.29  -92.41
    1.22  -17.41  -92.82   -0.12    1.70   -0.12    1.70  -17.41  -92.82
    1.29  -17.52  -93.76   -0.11    1.38   -0.11    1.38  -17.52  -93.76
    1.35  -17.56  -94.63   -0.10    1.02   -0.10    1.02  -17.56  -94.63
    1.41  -17.59  -95.24   -0.09    0.69   -0.09    0.69  -17.59  -95.24
    1.47  -17.61  -95.95   -0.10    0.31   -0.10    0.31  -17.61  -95.95
    1.53  -17.62  -96.74   -0.11    0.06   -0.11    0.06  -17.62  -96.74
    1.59  -17.64  -97.68   -0.11   -0.19   -0.11   -0.19  -17.64  -97.68
    1.66  -17.59  -98.15   -0.11   -0.59   -0.11   -0.59  -17.59  -98.15
    1.72  -17.55  -98.63   -0.11   -0.98   -0.11   -0.98  -17.55  -98.63
    1.78  -17.53  -99.52   -0.11   -1.23   -0.11   -1.23  -17.53  -99.52
    1.84  -17.48 -100.27   -0.10   -1.51   -0.10   -1.51  -17.48 -100.27
    1.90  -17.36 -100.17   -0.10   -1.71   -0.10   -1.71  -17.36 -100.17
    1.96  -17.31 -100.79   -0.10   -1.97   -0.10   -1.97  -17.31 -100.79
    2.03  -17.30 -101.63   -0.14   -2.17   -0.14   -2.17  -17.30 -101.63
    2.09  -17.25 -102.30   -0.12   -2.32   -0.12   -2.32  -17.25 -102.30
    2.15  -17.05 -102.53   -0.12   -2.64   -0.12   -2.64  -17.05 -102.53
    2.21  -17.02 -103.21   -0.13   -2.99   -0.13   -2.99  -17.02 -103.21
    2.27  -16.98 -104.07   -0.14   -2.95   -0.14   -2.95  -16.98 -104.07
    2.33  -16.87 -104.48   -0.14   -3.34   -0.14   -3.34  -16.87 -104.48
    2.40  -16.73 -104.72   -0.14   -3.51   -0.14   -3.51  -16.73 -104.72
    2.46  -16.70 -105.31   -0.12   -3.64   -0.12   -3.64  -16.70 -105.31
    2.52  -16.62 -106.08   -0.15   -3.81   -0.15   -3.81  -16.62 -106.08
    2.58  -16.51 -106.23   -0.14   -4.21   -0.14   -4.21  -16.51 -106.23
    2.64  -16.39 -106.06   -0.15   -4.29   -0.15   -4.29  -16.39 -106.06
    2.71  -16.30 -106.77   -0.17   -4.62   -0.17   -4.62  -16.30 -106.77
    2.77  -16.26 -107.84   -0.15   -4.79   -0.15   -4.79  -16.26 -107.84
    2.83  -16.15 -107.66   -0.15   -4.98   -0.15   -4.98  -16.15 -107.66
    2.89  -16.00 -107.80   -0.17   -4.99   -0.17   -4.99  -16.00 -107.80
    2.95  -15.99 -108.74   -0.17   -5.55   -0.17   -5.55  -15.99 -108.74
    3.01  -15.91 -108.92   -0.19   -5.61   -0.19   -5.61  -15.91 -108.92
    3.08  -15.76 -109.32   -0.17   -5.74   -0.17   -5.74  -15.76 -109.32
    3.14  -15.70 -109.18   -0.18   -5.98   -0.18   -5.98  -15.70 -109.18
    3.20  -15.71 -109.57   -0.23   -6.28   -0.23   -6.28  -15.71 -109.57
    3.26  -15.54 -109.93   -0.20   -6.42   -0.20   -6.42  -15.54 -109.93
    3.32  -15.48 -110.36   -0.19   -6.66   -0.19   -6.66  -15.48 -110.36
    3.38  -15.28 -110.29   -0.23   -6.74   -0.23   -6.74  -15.28 -110.29
    3.45  -15.32 -111.46   -0.22   -7.02   -0.22   -7.02  -15.32 -111.46
    3.51  -15.24 -111.47   -0.23   -7.07   -0.23   -7.07  -15.24 -111.47
    3.57  -15.09 -111.05   -0.21   -7.43   -0.21   -7.43  -15.09 -111.05
    3.63  -15.01 -111.82   -0.24   -7.46   -0.24   -7.46  -15.01 -111.82
    3.69  -15.05 -112.17   -0.26   -7.86   -0.26   -7.86  -15.05 -112.17
    3.76  -14.84 -112.31   -0.25   -7.94   -0.25   -7.94  -14.84 -112.31
    3.82  -14.81 -112.48   -0.23   -8.40   -0.23   -8.40  -14.81 -112.48
    3.88  -14.66 -112.38   -0.26   -8.43   -0.26   -8.43  -14.66 -112.38
    3.94  -14.63 -113.23   -0.28   -8.63   -0.28   -8.63  -14.63 -113.23
    4.00  -14.78 -115.24   -0.25   -8.91   -0.25   -8.91  -14.78 -115.24
    4.06  -14.71 -115.23   -0.25   -9.12   -0.25   -9.12  -14.71 -115.23
    4.13  -14.68 -115.67   -0.25   -9.40   -0.25   -9.40  -14.68 -115.67
    4.19  -14.81 -116.42   -0.28   -9.53   -0.28   -9.53  -14.81 -116.42
    4.25  -14.68 -116.39   -0.26   -9.48   -0.26   -9.48  -14.68 -116.39
    4.31  -14.72 -116.98   -0.26  -10.05   -0.26  -10.05  -14.72 -116.98
    4.37  -14.80 -117.59   -0.27  -10.31   -0.27  -10.31  -14.80 -117.59
    4.43  -14.91 -118.14   -0.29  -10.50   -0.29  -10.50  -14.91 -118.14
    4.50  -14.96 -118.39   -0.28  -10.72   -0.28  -10.72  -14.96 -118.39
    4.56  -15.02 -118.23   -0.29  -11.19   -0.29  -11.19  -15.02 -118.23
    4.62  -15.17 -119.07   -0.30  -11.38   -0.30  -11.38  -15.17 -119.07
    4.68  -15.39 -119.00   -0.32  -11.67   -0.32  -11.67  -15.39 -119.00
    4.74  -15.44 -118.99   -0.28  -12.11   -0.28  -12.11  -15.44 -118.99
    4.80  -15.70 -119.53   -0.32  -12.55   -0.32  -12.55  -15.70 -119.53
    4.87  -16.06 -120.34   -0.30  -12.99   -0.30  -12.99  -16.06 -120.34
    4.93  -16.54 -120.72   -0.31  -13.56   -0.31  -13.56  -16.54 -120.72
    4.99  -17.14 -121.42   -0.29  -14.49   -0.29  -14.49  -17.14 -121.42
    5.05  -18.31 -120.85   -0.34  -15.53   -0.34  -15.53  -18.31 -120.85
    5.11  -20.17 -119.79   -0.33  -16.97   -0.33  -16.97  -20.17 -119.79
    5.18  -24.07 -108.31   -0.45  -19.05   -0.45  -19.05  -24.07 -108.31
    5.24  -25.35  -30.88   -0.76  -22.87   -0.76  -22.87  -25.35  -30.88
    5.30  -13.64  -14.18   -2.02  -28.47   -2.02  -28.47  -13.64  -14.18
    5.36   -7.55  -51.30   -4.76  -14.88   -4.76  -14.88   -7.55  -51.30
    5.42   -7.68  -83.89   -2.63    0.26   -2.63    0.26   -7.68  -83.89
    5.48   -8.75  -97.95   -1.38   -1.86   -1.38   -1.86   -8.75  -97.95
    5.55   -9.89 -104.75   -0.98   -4.42   -0.98   -4.42   -9.89 -104.75
    5.61  -10.59 -108.40   -0.81   -5.95   -0.81   -5.95  -10.59 -108.40
    5.67  -11.15 -110.21   -0.72   -6.82   -0.72   -6.82  -11.15 -110.21
    5.73  -11.43 -111.99   -0.64   -7.69   -0.64   -7.69  -11.43 -111.99
    5.79  -11.85 -113.26   -0.60   -8.42   -0.60   -8.42  -11.85 -113.26
    5.85  -12.06 -114.50   -0.53   -8.83   -0.53   -8.83  -12.06 -114.50
    5.92  -12.47 -115.48   -0.54   -9.33   -0.54   -9.33  -12.47 -115.48
    5.98  -12.60 -115.79   -0.51   -9.66   -0.51   -9.66  -12.60 -115.79
    6.04  -12.90 -116.01   -0.52  -10.13   -0.52  -10.13  -12.90 -116.01
    6.10  -13.07 -117.10   -0.50  -10.43   -0.50  -10.43  -13.07 -117.10
    6.16  -13.32 -117.46   -0.48  -10.78   -0.48  -10.78  -13.32 -117.46
    6.23  -13.42 -117.34   -0.48  -11.16   -0.48  -11.16  -13.42 -117.34
    6.29  -13.67 -117.89   -0.48  -11.41   -0.48  -11.41  -13.67 -117.89
    6.35  -13.86 -118.32   -0.50  -11.60   -0.50  -11.60  -13.86 -118.32
    6.41  -14.07 -118.73   -0.50  -11.87   -0.50  -11.87  -14.07 -118.73
    6.47  -14.09 -118.33   -0.46  -12.30   -0.46  -12.30  -14.09 -118.33
    6.53  -14.44 -118.76   -0.50  -12.42   -0.50  -12.42  -14.44 -118.76
    6.60  -14.57 -118.88   -0.51  -12.67   -0.51  -12.67  -14.57 -118.88
    6.66  -14.74 -118.32   -0.50  -12.95   -0.50  -12.95  -14.74 -118.32
    6.72  -14.79 -118.09   -0.53  -13.18   -0.53  -13.18  -14.79 -118.09
    6.78  -15.04 -118.06   -0.55  -13.29   -0.55  -13.29  -15.04 -118.06
    6.84  -15.20 -117.32   -0.55  -13.45   -0.55  -13.45  -15.20 -117.32
    6.90  -15.14 -117.35   -0.58  -13.60   -0.58  -13.60  -15.14 -117.35
    6.97  -15.16 -116.71   -0.59  -13.94   -0.59  -13.94  -15.16 -116.71
    7.03  -15.38 -117.14   -0.61  -13.53   -0.61  -13.53  -15.38 -117.14
    7.09  -15.33 -117.70   -0.58  -13.94   -0.58  -13.94  -15.33 -117.70
    7.15  -15.48 -117.21   -0.59  -14.05   -0.59  -14.05  -15.48 -117.21
    7.21  -15.60 -116.88   -0.59  -14.29   -0.59  -14.29  -15.60 -116.88
    7.27  -15.74 -116.59   -0.64  -14.37   -0.64  -14.37  -15.74 -116.59
    7.34  -15.67 -116.28   -0.62  -14.50   -0.62  -14.50  -15.67 -116.28
    7.40  -15.61 -116.42   -0.64  -14.44   -0.64  -14.44  -15.61 -116.42
    7.46  -15.62 -115.57   -0.64  -14.58   -0.64  -14.58  -15.62 -115.57
    7.52  -15.66 -116.79   -0.66  -14.48   -0.66  -14.48  -15.66 -116.79
    7.58  -15.52 -116.74   -0.65  -14.60   -0.65  -14.60  -15.52 -116.74
    7.65  -15.57 -117.07   -0.62  -14.55   -0.62  -14.55  -15.57 -117.07
    7.71  -15.44 -118.33   -0.63  -14.83   -0.63  -14.83  -15.44 -118.33
    7.77  -15.55 -120.15   -0.62  -14.77   -0.62  -14.77  -15.55 -120.15
    7.83  -15.70 -120.84   -0.59  -14.89   -0.59  -14.89  -15.70 -120.84
    7.89  -15.60 -121.42   -0.58  -15.19   -0.58  -15.19  -15.60 -121.42
    7.95  -15.88 -122.29   -0.57  -15.26   -0.57  -15.26  -15.88 -122.29
    8.02  -16.01 -124.27   -0.58  -15.51   -0.58  -15.51  -16.01 -124.27
    8.08  -15.99 -123.71   -0.56  -15.88   -0.56  -15.88  -15.99 -123.71
    8.14  -16.14 -124.81   -0.56  -16.04   -0.56  -16.04  -16.14 -124.81
    8.20  -16.31 -125.47   -0.56  -16.39   -0.56  -16.39  -16.31 -125.47
    8.26  -16.37 -126.37   -0.56  -16.38   -0.56  -16.38  -16.37 -126.37
    8.32  -16.47 -126.83   -0.56  -16.62   -0.56  -16.62  -16.47 -126.83
    8.39  -16.48 -127.91   -0.57  -16.92   -0.57  -16.92  -16.48 -127.91
    8.45  -16.73 -128.79   -0.53  -17.22   -0.53  -17.22  -16.73 -128.79
    8.51  -16.82 -130.10   -0.57  -17.47   -0.57  -17.47  -16.82 -130.10
    8.57  -17.00 -130.42   -0.54  -17.87   -0.54  -17.87  -17.00 -130.42
    8.63  -17.12 -131.36   -0.51  -17.99   -0.51  -17.99  -17.12 -131.36
    8.70  -17.42 -132.24   -0.56  -18.25   -0.56  -18.25  -17.42 -132.24
    8.76  -17.51 -133.45   -0.54  -18.66   -0.54  -18.66  -17.51 -133.45
    8.82  -17.70 -133.56   -0.55  -19.06   -0.55  -19.06  -17.70 -133.56
    8.88  -17.90 -134.93   -0.59  -19.15   -0.59  -19.15  -17.90 -134.93
    8.94  -18.29 -135.54   -0.58  -19.57   -0.58  -19.57  -18.29 -135.54
    9.00  -18.52 -136.74   -0.55  -20.02   -0.55  -20.02  -18.52 -136.74
    9.07  -18.77 -137.43   -0.57  -20.41   -0.57  -20.41  -18.77 -137.43
    9.13  -19.20 -138.12   -0.59  -20.93   -0.59  -20.93  -19.20 -138.12
    9.19  -19.85 -139.97   -0.60  -21.40   -0.60  -21.40  -19.85 -139.97
    9.25  -20.43 -140.57   -0.62  -22.40   -0.62  -22.40  -20.43 -140.57
    9.31  -21.39 -140.06   -0.66  -22.80   -0.66  -22.80  -21.39 -140.06
    9.37  -22.66 -139.41   -0.69  -23.74   -0.69  -23.74  -22.66 -139.41
    9.44  -24.71 -134.63   -0.78  -24.78   -0.78  -24.78  -24.71 -134.63
    9.50  -27.24 -117.58   -0.86  -26.08   -0.86  -26.08  -27.24 -117.58
    9.56  -27.16  -74.27   -1.07  -27.76   -1.07  -27.76  -27.16  -74.27
    9.62  -21.57  -50.21   -1.50  -29.70   -1.50  -29.70  -21.57  -50.21
    9.68  -16.15  -54.57   -2.27  -30.12   -2.27  -30.12  -16.15  -54.57
    9.74  -12.49  -72.96   -3.22  -25.47   -3.22  -25.47  -12.49  -72.96
    9.81  -11.01  -94.44   -3.13  -16.91   -3.13  -16.91  -11.01  -94.44
    9.87  -11.11 -112.56   -2.39  -13.24   -2.39  -13.24  -11.11 -112.56
    9.93  -11.82 -124.13   -1.79  -13.42   -1.79  -13.42  -11.82 -124.13
    9.99  -12.32 -132.60   -1.43  -14.25   -1.43  -14.25  -12.32 -132.60
   10.05  -12.98 -138.02   -1.25  -15.31   -1.25  -15.31  -12.98 -138.02
   10.12  -13.55 -143.49   -1.12  -16.27   -1.12  -16.27  -13.55 -143.49
   10.18  -13.95 -146.62   -1.06  -16.92   -1.06  -16.92  -13.95 -146.62
   10.24  -14.34 -150.30   -1.00  -17.76   -1.00  -17.76  -14.34 -150.30
   10.30  -14.68 -153.16   -0.96  -18.47   -0.96  -18.47  -14.68 -153.16
   10.36  -15.04 -156.61   -0.96  -19.03   -0.96  -19.03  -15.04 -156.61
   10.42  -15.44 -159.37   -0.99  -19.51   -0.99  -19.51  -15.44 -159.37
   10.49  -15.59 -162.63   -0.97  -19.86   -0.97  -19.86  -15.59 -162.63
   10.55  -15.96 -165.05   -0.99  -20.43   -0.99  -20.43  -15.96 -165.05
   10.61  -16.29 -169.10   -0.99  -20.72   -0.99  -20.72  -16.29 -169.10
   10.67  -16.55 -171.99   -1.05  -20.73   -1.05  -20.73  -16.55 -171.99
   10.73  -16.95 -175.94   -1.04  -21.37   -1.04  -21.37  -16.95 -175.94
   10.79  -17.28 -178.67   -1.09  -21.44   -1.09  -21.44  -17.28 -178.67
   10.86  -17.56  176.57   -1.08  -21.67   -1.08  -21.67  -17.56  176.57
   10.92  -18.02  173.10   -1.12  -21.61   -1.12  -21.61  -18.02  173.10
   10.98  -18.38  169.43   -1.11  -21.60   -1.11  -21.60  -18.38  169.43
   11.04  -18.68  164.63   -1.08  -21.92   -1.08  -21.92  -18.68  164.63
   11.10  -19.18  159.82   -1.10  -21.92   -1.10  -21.92  -19.18  159.82
   11.17  -19.68  155.96   -1.11  -22.06   -1.11  -22.06  -19.68  155.96
   11.23  -19.89  150.51   -1.15  -22.45   -1.15  -22.45  -19.89  150.51
   11.29  -20.32  145.63   -1.09  -22.49   -1.09  -22.49  -20.32  145.63
   11.35  -20.79  139.21   -1.08  -22.59   -1.08  -22.59  -20.79  139.21
   11.41  -21.17  132.79   -1.09  -22.85   -1.09  -22.85  -21.17  132.79
   11.47  -21.51  127.29   -1.12  -22.99   -1.12  -22.99  -21.51  127.29
   11.54  -21.99  121.91   -1.10  -23.00   -1.10  -23.00  -21.99  121.91
   11.60  -22.24  116.26   -1.09  -23.13   -1.09  -23.13  -22.24  116.26
   11.66  -22.23  111.00   -1.08  -23.50   -1.08  -23.50  -22.23  111.00
   11.72  -22.36  105.40   -1.08  -23.59   -1.08  -23.59  -22.36  105.40
   11.78  -22.36   99.64   -1.08  -23.98   -1.08  -23.98  -22.36   99.64
   11.84  -22.22   94.93   -1.08  -24.33   -1.08  -24.33  -22.22   94.93
   11.91  -22.05   90.82   -1.08  -24.14   -1.08  -24.14  -22.05   90.82
   11.97  -21.76   85.55   -1.10  -24.54   -1.10  -24.54  -21.76   85.55
   12.03  -21.57   81.85   -1.12  -24.87   -1.12  -24.87  -21.57   81.85
   12.09  -21.24   77.08   -1.08  -25.19   -1.08  -25.19  -21.24   77.08
   12.15  -20.85   73.70   -1.08  -25.36   -1.08  -25.36  -20.85   73.70
   12.21  -20.43   70.68   -1.10  -25.52   -1.10  -25.52  -20.43   70.68
   12.28  -20.19   67.42   -1.08  -26.08   -1.08  -26.08  -20.19   67.42
   12.34  -19.64   64.76   -1.08  -26.49   -1.08  -26.49  -19.64   64.76
   12.40  -19.21   62.23   -1.10  -26.73   -1.10  -26.73  -19.21   62.23
