!Murata Part Number: GRM1882C2A8R4DA01
!These Parameters are Measured in Series Mode Connection
!Data Generated on Mar 30, 2021
!       o--ll--o
!Port1            Port2
!       o------o
!Operation Temp=25[degC], DC Bias Voltage=0[V]
!Freq. Start=100[MHz] Stop=9[GHz] 401[Steps]
# Hz S RI R 50
!Freq.(Hz) S11(Real) S11(Imag) S21(Real) S21(Imag) S12(Real) S12(Imag) S22(Real) S22(Imag)
100000000 0.7813206 -0.4130016 0.2186794 0.4130016 0.2186794 0.4130016 0.7813206 -0.4130016
121000000 0.7090034 -0.4537698 0.2909966 0.4537698 0.2909966 0.4537698 0.7090034 -0.4537698
142000000 0.6384529 -0.4798811 0.3615471 0.4798811 0.3615471 0.4798811 0.6384529 -0.4798811
163000000 0.5721864 -0.4940675 0.4278136 0.4940675 0.4278136 0.4940675 0.5721864 -0.4940675
184000000 0.5115424 -0.4990355 0.4884576 0.4990355 0.4884576 0.4990355 0.5115424 -0.4990355
205000000 0.4570102 -0.4971711 0.5429898 0.4971711 0.5429898 0.4971711 0.4570102 -0.4971711
226000000 0.4085342 -0.4904317 0.5914658 0.4904317 0.5914658 0.4904317 0.4085342 -0.4904317
247000000 0.3657476 -0.4803477 0.6342524 0.4803477 0.6342524 0.4803477 0.3657476 -0.4803477
268000000 0.3281326 -0.4680761 0.6718674 0.4680761 0.6718674 0.4680761 0.3281326 -0.4680761
289000000 0.2951214 -0.4544697 0.7048786 0.4544697 0.7048786 0.4544697 0.2951214 -0.4544697
310000000 0.2661545 -0.4401444 0.7338455 0.4401444 0.7338455 0.4401444 0.2661545 -0.4401444
331000000 0.2407116 -0.4255367 0.7592884 0.4255367 0.7592884 0.4255367 0.2407116 -0.4255367
352000000 0.2183249 -0.4109502 0.7816751 0.4109502 0.7816751 0.4109502 0.2183249 -0.4109502
373000000 0.1985824 -0.3965916 0.8014176 0.3965916 0.8014176 0.3965916 0.1985824 -0.3965916
394000000 0.1811263 -0.3825971 0.8188737 0.3825971 0.8188737 0.3825971 0.1811263 -0.3825971
415000000 0.1656483 -0.3690525 0.8343517 0.3690525 0.8343517 0.3690525 0.1656483 -0.3690525
436000000 0.1518839 -0.3560080 0.8481161 0.3560080 0.8481161 0.3560080 0.1518839 -0.3560080
457000000 0.1396069 -0.3434884 0.8603931 0.3434884 0.8603931 0.3434884 0.1396069 -0.3434884
478000000 0.1286241 -0.3315014 0.8713759 0.3315014 0.8713759 0.3315014 0.1286241 -0.3315014
499000000 0.1187702 -0.3200423 0.8812298 0.3200423 0.8812298 0.3200423 0.1187702 -0.3200423
520000000 0.1099037 -0.3090987 0.8900963 0.3090987 0.8900963 0.3090987 0.1099037 -0.3090987
541000000 0.1019034 -0.2986531 0.8980966 0.2986531 0.8980966 0.2986531 0.1019034 -0.2986531
562000000 0.0946652 -0.2886846 0.9053348 0.2886846 0.9053348 0.2886846 0.0946652 -0.2886846
583000000 0.0880993 -0.2791708 0.9119007 0.2791708 0.9119007 0.2791708 0.0880993 -0.2791708
604000000 0.0821283 -0.2700884 0.9178717 0.2700884 0.9178717 0.2700884 0.0821283 -0.2700884
625000000 0.0766853 -0.2614142 0.9233147 0.2614142 0.9233147 0.2614142 0.0766853 -0.2614142
646000000 0.0717121 -0.2531254 0.9282879 0.2531254 0.9282879 0.2531254 0.0717121 -0.2531254
667000000 0.0671581 -0.2451999 0.9328419 0.2451999 0.9328419 0.2451999 0.0671581 -0.2451999
688000000 0.0629790 -0.2376166 0.9370210 0.2376166 0.9370210 0.2376166 0.0629790 -0.2376166
709000000 0.0591363 -0.2303552 0.9408637 0.2303552 0.9408637 0.2303552 0.0591363 -0.2303552
730000000 0.0555960 -0.2233968 0.9444040 0.2233968 0.9444040 0.2233968 0.0555960 -0.2233968
751000000 0.0523283 -0.2167234 0.9476717 0.2167234 0.9476717 0.2167234 0.0523283 -0.2167234
772000000 0.0493069 -0.2103182 0.9506931 0.2103182 0.9506931 0.2103182 0.0493069 -0.2103182
793000000 0.0465085 -0.2041653 0.9534915 0.2041653 0.9534915 0.2041653 0.0465085 -0.2041653
814000000 0.0439124 -0.1982500 0.9560876 0.1982500 0.9560876 0.1982500 0.0439124 -0.1982500
835000000 0.0415003 -0.1925585 0.9584997 0.1925585 0.9584997 0.1925585 0.0415003 -0.1925585
856000000 0.0392558 -0.1870778 0.9607442 0.1870778 0.9607442 0.1870778 0.0392558 -0.1870778
877000000 0.0371645 -0.1817960 0.9628355 0.1817960 0.9628355 0.1817960 0.0371645 -0.1817960
898000000 0.0352132 -0.1767018 0.9647868 0.1767018 0.9647868 0.1767018 0.0352132 -0.1767018
919000000 0.0333902 -0.1717846 0.9666098 0.1717846 0.9666098 0.1717846 0.0333902 -0.1717846
940000000 0.0316851 -0.1670348 0.9683149 0.1670348 0.9683149 0.1670348 0.0316851 -0.1670348
961000000 0.0300883 -0.1624431 0.9699117 0.1624431 0.9699117 0.1624431 0.0300883 -0.1624431
982000000 0.0285914 -0.1580010 0.9714086 0.1580010 0.9714086 0.1580010 0.0285914 -0.1580010
1003000000 0.0271866 -0.1537006 0.9728134 0.1537006 0.9728134 0.1537006 0.0271866 -0.1537006
1024000000 0.0258668 -0.1495344 0.9741332 0.1495344 0.9741332 0.1495344 0.0258668 -0.1495344
1045000000 0.0246259 -0.1454953 0.9753741 0.1454953 0.9753741 0.1454953 0.0246259 -0.1454953
1066000000 0.0234580 -0.1415769 0.9765420 0.1415769 0.9765420 0.1415769 0.0234580 -0.1415769
1087000000 0.0223578 -0.1377731 0.9776422 0.1377731 0.9776422 0.1377731 0.0223578 -0.1377731
1108000000 0.0213207 -0.1340780 0.9786793 0.1340780 0.9786793 0.1340780 0.0213207 -0.1340780
1129000000 0.0203422 -0.1304864 0.9796578 0.1304864 0.9796578 0.1304864 0.0203422 -0.1304864
1150000000 0.0194184 -0.1269932 0.9805816 0.1269932 0.9805816 0.1269932 0.0194184 -0.1269932
1171000000 0.0185456 -0.1235936 0.9814544 0.1235936 0.9814544 0.1235936 0.0185456 -0.1235936
1192000000 0.0177204 -0.1202832 0.9822796 0.1202832 0.9822796 0.1202832 0.0177204 -0.1202832
1213000000 0.0169399 -0.1170578 0.9830601 0.1170578 0.9830601 0.1170578 0.0169399 -0.1170578
1234000000 0.0162010 -0.1139135 0.9837990 0.1139135 0.9837990 0.1139135 0.0162010 -0.1139135
1255000000 0.0155014 -0.1108465 0.9844986 0.1108465 0.9844986 0.1108465 0.0155014 -0.1108465
1276000000 0.0148385 -0.1078533 0.9851615 0.1078533 0.9851615 0.1078533 0.0148385 -0.1078533
1297000000 0.0142101 -0.1049307 0.9857899 0.1049307 0.9857899 0.1049307 0.0142101 -0.1049307
1318000000 0.0136143 -0.1020755 0.9863857 0.1020755 0.9863857 0.1020755 0.0136143 -0.1020755
1339000000 0.0130490 -0.0992848 0.9869510 0.0992848 0.9869510 0.0992848 0.0130490 -0.0992848
1360000000 0.0125126 -0.0965558 0.9874874 0.0965558 0.9874874 0.0965558 0.0125126 -0.0965558
1381000000 0.0120034 -0.0938859 0.9879966 0.0938859 0.9879966 0.0938859 0.0120034 -0.0938859
1402000000 0.0115200 -0.0912725 0.9884800 0.0912725 0.9884800 0.0912725 0.0115200 -0.0912725
1423000000 0.0110609 -0.0887134 0.9889391 0.0887134 0.9889391 0.0887134 0.0110609 -0.0887134
1444000000 0.0106247 -0.0862062 0.9893753 0.0862062 0.9893753 0.0862062 0.0106247 -0.0862062
1465000000 0.0102104 -0.0837489 0.9897896 0.0837489 0.9897896 0.0837489 0.0102104 -0.0837489
1486000000 0.0098168 -0.0813395 0.9901832 0.0813395 0.9901832 0.0813395 0.0098168 -0.0813395
1507000000 0.0094427 -0.0789761 0.9905573 0.0789761 0.9905573 0.0789761 0.0094427 -0.0789761
1528000000 0.0090873 -0.0766567 0.9909127 0.0766567 0.9909127 0.0766567 0.0090873 -0.0766567
1549000000 0.0087496 -0.0743798 0.9912504 0.0743798 0.9912504 0.0743798 0.0087496 -0.0743798
1570000000 0.0084288 -0.0721437 0.9915712 0.0721437 0.9915712 0.0721437 0.0084288 -0.0721437
1591000000 0.0081240 -0.0699468 0.9918760 0.0699468 0.9918760 0.0699468 0.0081240 -0.0699468
1612000000 0.0078346 -0.0677876 0.9921654 0.0677876 0.9921654 0.0677876 0.0078346 -0.0677876
1633000000 0.0075597 -0.0656648 0.9924403 0.0656648 0.9924403 0.0656648 0.0075597 -0.0656648
1654000000 0.0072988 -0.0635769 0.9927012 0.0635769 0.9927012 0.0635769 0.0072988 -0.0635769
1675000000 0.0070511 -0.0615227 0.9929489 0.0615227 0.9929489 0.0615227 0.0070511 -0.0615227
1696000000 0.0068162 -0.0595010 0.9931838 0.0595010 0.9931838 0.0595010 0.0068162 -0.0595010
1717000000 0.0065935 -0.0575106 0.9934065 0.0575106 0.9934065 0.0575106 0.0065935 -0.0575106
1738000000 0.0063825 -0.0555503 0.9936175 0.0555503 0.9936175 0.0555503 0.0063825 -0.0555503
1759000000 0.0061826 -0.0536191 0.9938174 0.0536191 0.9938174 0.0536191 0.0061826 -0.0536191
1780000000 0.0059935 -0.0517159 0.9940065 0.0517159 0.9940065 0.0517159 0.0059935 -0.0517159
1801000000 0.0058146 -0.0498399 0.9941854 0.0498399 0.9941854 0.0498399 0.0058146 -0.0498399
1822000000 0.0056457 -0.0479900 0.9943543 0.0479900 0.9943543 0.0479900 0.0056457 -0.0479900
1843000000 0.0054862 -0.0461654 0.9945138 0.0461654 0.9945138 0.0461654 0.0054862 -0.0461654
1864000000 0.0053360 -0.0443651 0.9946640 0.0443651 0.9946640 0.0443651 0.0053360 -0.0443651
1885000000 0.0051945 -0.0425884 0.9948055 0.0425884 0.9948055 0.0425884 0.0051945 -0.0425884
1906000000 0.0050615 -0.0408345 0.9949385 0.0408345 0.9949385 0.0408345 0.0050615 -0.0408345
1927000000 0.0049367 -0.0391026 0.9950633 0.0391026 0.9950633 0.0391026 0.0049367 -0.0391026
1948000000 0.0048198 -0.0373920 0.9951802 0.0373920 0.9951802 0.0373920 0.0048198 -0.0373920
1969000000 0.0047105 -0.0357019 0.9952895 0.0357019 0.9952895 0.0357019 0.0047105 -0.0357019
1990000000 0.0046086 -0.0340317 0.9953914 0.0340317 0.9953914 0.0340317 0.0046086 -0.0340317
2011000000 0.0045139 -0.0323808 0.9954861 0.0323808 0.9954861 0.0323808 0.0045139 -0.0323808
2032000000 0.0044260 -0.0307486 0.9955740 0.0307486 0.9955740 0.0307486 0.0044260 -0.0307486
2053000000 0.0043448 -0.0291343 0.9956552 0.0291343 0.9956552 0.0291343 0.0043448 -0.0291343
2074000000 0.0042701 -0.0275375 0.9957299 0.0275375 0.9957299 0.0275375 0.0042701 -0.0275375
2095000000 0.0042017 -0.0259576 0.9957983 0.0259576 0.9957983 0.0259576 0.0042017 -0.0259576
2116000000 0.0041394 -0.0243940 0.9958606 0.0243940 0.9958606 0.0243940 0.0041394 -0.0243940
2137000000 0.0040830 -0.0228463 0.9959170 0.0228463 0.9959170 0.0228463 0.0040830 -0.0228463
2158000000 0.0040324 -0.0213140 0.9959676 0.0213140 0.9959676 0.0213140 0.0040324 -0.0213140
2179000000 0.0039873 -0.0197964 0.9960127 0.0197964 0.9960127 0.0197964 0.0039873 -0.0197964
2200000000 0.0039478 -0.0182933 0.9960522 0.0182933 0.9960522 0.0182933 0.0039478 -0.0182933
2221000000 0.0039135 -0.0168041 0.9960865 0.0168041 0.9960865 0.0168041 0.0039135 -0.0168041
2242000000 0.0038844 -0.0153284 0.9961156 0.0153284 0.9961156 0.0153284 0.0038844 -0.0153284
2263000000 0.0038604 -0.0138658 0.9961396 0.0138658 0.9961396 0.0138658 0.0038604 -0.0138658
2284000000 0.0038413 -0.0124159 0.9961587 0.0124159 0.9961587 0.0124159 0.0038413 -0.0124159
2305000000 0.0038270 -0.0109782 0.9961730 0.0109782 0.9961730 0.0109782 0.0038270 -0.0109782
2326000000 0.0038174 -0.0095525 0.9961826 0.0095525 0.9961826 0.0095525 0.0038174 -0.0095525
2347000000 0.0038124 -0.0081383 0.9961876 0.0081383 0.9961876 0.0081383 0.0038124 -0.0081383
2368000000 0.0038120 -0.0067353 0.9961880 0.0067353 0.9961880 0.0067353 0.0038120 -0.0067353
2389000000 0.0038160 -0.0053431 0.9961840 0.0053431 0.9961840 0.0053431 0.0038160 -0.0053431
2410000000 0.0038243 -0.0039614 0.9961757 0.0039614 0.9961757 0.0039614 0.0038243 -0.0039614
2431000000 0.0038369 -0.0025898 0.9961631 0.0025898 0.9961631 0.0025898 0.0038369 -0.0025898
2452000000 0.0038536 -0.0012281 0.9961464 0.0012281 0.9961464 0.0012281 0.0038536 -0.0012281
2473000000 0.0038745 0.0001240 0.9961255 -0.0001240 0.9961255 -0.0001240 0.0038745 0.0001240
2494000000 0.0038994 0.0014670 0.9961006 -0.0014670 0.9961006 -0.0014670 0.0038994 0.0014670
2515000000 0.0039283 0.0028009 0.9960717 -0.0028009 0.9960717 -0.0028009 0.0039283 0.0028009
2536000000 0.0039611 0.0041262 0.9960389 -0.0041262 0.9960389 -0.0041262 0.0039611 0.0041262
2557000000 0.0039977 0.0054431 0.9960023 -0.0054431 0.9960023 -0.0054431 0.0039977 0.0054431
2578000000 0.0040382 0.0067519 0.9959618 -0.0067519 0.9959618 -0.0067519 0.0040382 0.0067519
2599000000 0.0040824 0.0080529 0.9959176 -0.0080529 0.9959176 -0.0080529 0.0040824 0.0080529
2620000000 0.0041304 0.0093462 0.9958696 -0.0093462 0.9958696 -0.0093462 0.0041304 0.0093462
2641000000 0.0041820 0.0106322 0.9958180 -0.0106322 0.9958180 -0.0106322 0.0041820 0.0106322
2662000000 0.0042373 0.0119110 0.9957627 -0.0119110 0.9957627 -0.0119110 0.0042373 0.0119110
2683000000 0.0042961 0.0131830 0.9957039 -0.0131830 0.9957039 -0.0131830 0.0042961 0.0131830
2704000000 0.0043585 0.0144484 0.9956415 -0.0144484 0.9956415 -0.0144484 0.0043585 0.0144484
2725000000 0.0044245 0.0157073 0.9955755 -0.0157073 0.9955755 -0.0157073 0.0044245 0.0157073
2746000000 0.0044939 0.0169601 0.9955061 -0.0169601 0.9955061 -0.0169601 0.0044939 0.0169601
2767000000 0.0045669 0.0182069 0.9954331 -0.0182069 0.9954331 -0.0182069 0.0045669 0.0182069
2788000000 0.0046432 0.0194479 0.9953568 -0.0194479 0.9953568 -0.0194479 0.0046432 0.0194479
2809000000 0.0047231 0.0206833 0.9952769 -0.0206833 0.9952769 -0.0206833 0.0047231 0.0206833
2830000000 0.0048064 0.0219135 0.9951936 -0.0219135 0.9951936 -0.0219135 0.0048064 0.0219135
2851000000 0.0048930 0.0231384 0.9951070 -0.0231384 0.9951070 -0.0231384 0.0048930 0.0231384
2872000000 0.0049831 0.0243585 0.9950169 -0.0243585 0.9950169 -0.0243585 0.0049831 0.0243585
2893000000 0.0050766 0.0255738 0.9949234 -0.0255738 0.9949234 -0.0255738 0.0050766 0.0255738
2914000000 0.0051735 0.0267845 0.9948265 -0.0267845 0.9948265 -0.0267845 0.0051735 0.0267845
2935000000 0.0052737 0.0279909 0.9947263 -0.0279909 0.9947263 -0.0279909 0.0052737 0.0279909
2956000000 0.0053774 0.0291930 0.9946226 -0.0291930 0.9946226 -0.0291930 0.0053774 0.0291930
2977000000 0.0054844 0.0303912 0.9945156 -0.0303912 0.9945156 -0.0303912 0.0054844 0.0303912
2998000000 0.0055948 0.0315856 0.9944052 -0.0315856 0.9944052 -0.0315856 0.0055948 0.0315856
3019000000 0.0057086 0.0327763 0.9942914 -0.0327763 0.9942914 -0.0327763 0.0057086 0.0327763
3040000000 0.0058258 0.0339635 0.9941742 -0.0339635 0.9941742 -0.0339635 0.0058258 0.0339635
3061000000 0.0059465 0.0351475 0.9940535 -0.0351475 0.9940535 -0.0351475 0.0059465 0.0351475
3082000000 0.0060705 0.0363284 0.9939295 -0.0363284 0.9939295 -0.0363284 0.0060705 0.0363284
3103000000 0.0061980 0.0375063 0.9938020 -0.0375063 0.9938020 -0.0375063 0.0061980 0.0375063
3124000000 0.0063290 0.0386814 0.9936710 -0.0386814 0.9936710 -0.0386814 0.0063290 0.0386814
3145000000 0.0064635 0.0398539 0.9935365 -0.0398539 0.9935365 -0.0398539 0.0064635 0.0398539
3166000000 0.0066016 0.0410240 0.9933984 -0.0410240 0.9933984 -0.0410240 0.0066016 0.0410240
3187000000 0.0067431 0.0421919 0.9932569 -0.0421919 0.9932569 -0.0421919 0.0067431 0.0421919
3208000000 0.0068883 0.0433576 0.9931117 -0.0433576 0.9931117 -0.0433576 0.0068883 0.0433576
3229000000 0.0070370 0.0445214 0.9929630 -0.0445214 0.9929630 -0.0445214 0.0070370 0.0445214
3250000000 0.0071895 0.0456835 0.9928105 -0.0456835 0.9928105 -0.0456835 0.0071895 0.0456835
3271000000 0.0073456 0.0468439 0.9926544 -0.0468439 0.9926544 -0.0468439 0.0073456 0.0468439
3292000000 0.0075054 0.0480029 0.9924946 -0.0480029 0.9924946 -0.0480029 0.0075054 0.0480029
3313000000 0.0076691 0.0491607 0.9923309 -0.0491607 0.9923309 -0.0491607 0.0076691 0.0491607
3334000000 0.0078366 0.0503173 0.9921634 -0.0503173 0.9921634 -0.0503173 0.0078366 0.0503173
3355000000 0.0080080 0.0514731 0.9919920 -0.0514731 0.9919920 -0.0514731 0.0080080 0.0514731
3376000000 0.0081834 0.0526280 0.9918166 -0.0526280 0.9918166 -0.0526280 0.0081834 0.0526280
3397000000 0.0083628 0.0537824 0.9916372 -0.0537824 0.9916372 -0.0537824 0.0083628 0.0537824
3418000000 0.0085462 0.0549363 0.9914538 -0.0549363 0.9914538 -0.0549363 0.0085462 0.0549363
3439000000 0.0087339 0.0560901 0.9912661 -0.0560901 0.9912661 -0.0560901 0.0087339 0.0560901
3460000000 0.0089258 0.0572437 0.9910742 -0.0572437 0.9910742 -0.0572437 0.0089258 0.0572437
3481000000 0.0091220 0.0583974 0.9908780 -0.0583974 0.9908780 -0.0583974 0.0091220 0.0583974
3502000000 0.0093227 0.0595515 0.9906773 -0.0595515 0.9906773 -0.0595515 0.0093227 0.0595515
3523000000 0.0095278 0.0607060 0.9904722 -0.0607060 0.9904722 -0.0607060 0.0095278 0.0607060
3544000000 0.0097376 0.0618611 0.9902624 -0.0618611 0.9902624 -0.0618611 0.0097376 0.0618611
3565000000 0.0099521 0.0630171 0.9900479 -0.0630171 0.9900479 -0.0630171 0.0099521 0.0630171
3586000000 0.0101714 0.0641741 0.9898286 -0.0641741 0.9898286 -0.0641741 0.0101714 0.0641741
3607000000 0.0103957 0.0653323 0.9896043 -0.0653323 0.9896043 -0.0653323 0.0103957 0.0653323
3628000000 0.0106251 0.0664920 0.9893749 -0.0664920 0.9893749 -0.0664920 0.0106251 0.0664920
3649000000 0.0108597 0.0676532 0.9891403 -0.0676532 0.9891403 -0.0676532 0.0108597 0.0676532
3670000000 0.0110997 0.0688163 0.9889003 -0.0688163 0.9889003 -0.0688163 0.0110997 0.0688163
3691000000 0.0113452 0.0699814 0.9886548 -0.0699814 0.9886548 -0.0699814 0.0113452 0.0699814
3712000000 0.0115964 0.0711488 0.9884036 -0.0711488 0.9884036 -0.0711488 0.0115964 0.0711488
3733000000 0.0118535 0.0723186 0.9881465 -0.0723186 0.9881465 -0.0723186 0.0118535 0.0723186
3754000000 0.0121166 0.0734912 0.9878834 -0.0734912 0.9878834 -0.0734912 0.0121166 0.0734912
3775000000 0.0123861 0.0746667 0.9876139 -0.0746667 0.9876139 -0.0746667 0.0123861 0.0746667
3796000000 0.0126619 0.0758453 0.9873381 -0.0758453 0.9873381 -0.0758453 0.0126619 0.0758453
3817000000 0.0129445 0.0770274 0.9870555 -0.0770274 0.9870555 -0.0770274 0.0129445 0.0770274
3838000000 0.0132341 0.0782131 0.9867659 -0.0782131 0.9867659 -0.0782131 0.0132341 0.0782131
3859000000 0.0135309 0.0794028 0.9864691 -0.0794028 0.9864691 -0.0794028 0.0135309 0.0794028
3880000000 0.0138352 0.0805967 0.9861648 -0.0805967 0.9861648 -0.0805967 0.0138352 0.0805967
3901000000 0.0141473 0.0817951 0.9858527 -0.0817951 0.9858527 -0.0817951 0.0141473 0.0817951
3922000000 0.0144675 0.0829983 0.9855325 -0.0829983 0.9855325 -0.0829983 0.0144675 0.0829983
3943000000 0.0147962 0.0842066 0.9852038 -0.0842066 0.9852038 -0.0842066 0.0147962 0.0842066
3964000000 0.0151338 0.0854202 0.9848662 -0.0854202 0.9848662 -0.0854202 0.0151338 0.0854202
3985000000 0.0154806 0.0866396 0.9845194 -0.0866396 0.9845194 -0.0866396 0.0154806 0.0866396
4006000000 0.0158371 0.0878651 0.9841629 -0.0878651 0.9841629 -0.0878651 0.0158371 0.0878651
4027000000 0.0162038 0.0890969 0.9837962 -0.0890969 0.9837962 -0.0890969 0.0162038 0.0890969
4048000000 0.0165812 0.0903356 0.9834188 -0.0903356 0.9834188 -0.0903356 0.0165812 0.0903356
4069000000 0.0169698 0.0915814 0.9830302 -0.0915814 0.9830302 -0.0915814 0.0169698 0.0915814
4090000000 0.0173702 0.0928347 0.9826298 -0.0928347 0.9826298 -0.0928347 0.0173702 0.0928347
4111000000 0.0177831 0.0940960 0.9822169 -0.0940960 0.9822169 -0.0940960 0.0177831 0.0940960
4132000000 0.0182092 0.0953656 0.9817908 -0.0953656 0.9817908 -0.0953656 0.0182092 0.0953656
4153000000 0.0186492 0.0966440 0.9813508 -0.0966440 0.9813508 -0.0966440 0.0186492 0.0966440
4174000000 0.0191039 0.0979317 0.9808961 -0.0979317 0.9808961 -0.0979317 0.0191039 0.0979317
4195000000 0.0195743 0.0992292 0.9804257 -0.0992292 0.9804257 -0.0992292 0.0195743 0.0992292
4216000000 0.0200614 0.1005368 0.9799386 -0.1005368 0.9799386 -0.1005368 0.0200614 0.1005368
4237000000 0.0205663 0.1018552 0.9794337 -0.1018552 0.9794337 -0.1018552 0.0205663 0.1018552
4258000000 0.0210900 0.1031848 0.9789100 -0.1031848 0.9789100 -0.1031848 0.0210900 0.1031848
4279000000 0.0216340 0.1045261 0.9783660 -0.1045261 0.9783660 -0.1045261 0.0216340 0.1045261
4300000000 0.0221997 0.1058798 0.9778003 -0.1058798 0.9778003 -0.1058798 0.0221997 0.1058798
4321000000 0.0227886 0.1072463 0.9772114 -0.1072463 0.9772114 -0.1072463 0.0227886 0.1072463
4342000000 0.0234026 0.1086262 0.9765974 -0.1086262 0.9765974 -0.1086262 0.0234026 0.1086262
4363000000 0.0240435 0.1100201 0.9759565 -0.1100201 0.9759565 -0.1100201 0.0240435 0.1100201
4384000000 0.0247134 0.1114285 0.9752866 -0.1114285 0.9752866 -0.1114285 0.0247134 0.1114285
4405000000 0.0254148 0.1128519 0.9745852 -0.1128519 0.9745852 -0.1128519 0.0254148 0.1128519
4426000000 0.0261503 0.1142909 0.9738497 -0.1142909 0.9738497 -0.1142909 0.0261503 0.1142909
4447000000 0.0269228 0.1157458 0.9730772 -0.1157458 0.9730772 -0.1157458 0.0269228 0.1157458
4468000000 0.0277357 0.1172171 0.9722643 -0.1172171 0.9722643 -0.1172171 0.0277357 0.1172171
4489000000 0.0285925 0.1187051 0.9714075 -0.1187051 0.9714075 -0.1187051 0.0285925 0.1187051
4510000000 0.0294973 0.1202100 0.9705027 -0.1202100 0.9705027 -0.1202100 0.0294973 0.1202100
