!Murata Part Number: GRM1882C1H9R3BA01
!These Parameters are Measured in Series Mode Connection
!Data Generated on Mar 30, 2021
!       o--ll--o
!Port1            Port2
!       o------o
!Operation Temp=25[degC], DC Bias Voltage=0[V]
!Freq. Start=100[MHz] Stop=9[GHz] 401[Steps]
# Hz S RI R 50
!Freq.(Hz) S11(Real) S11(Imag) S21(Real) S21(Imag) S12(Real) S12(Imag) S22(Real) S22(Imag)
100000000 0.7446039 -0.4357798 0.2553961 0.4357798 0.2553961 0.4357798 0.7446039 -0.4357798
121000000 0.6653382 -0.4714908 0.3346618 0.4714908 0.3346618 0.4714908 0.6653382 -0.4714908
142000000 0.5902984 -0.4913130 0.4097016 0.4913130 0.4097016 0.4913130 0.5902984 -0.4913130
163000000 0.5217811 -0.4989682 0.4782189 0.4989682 0.4782189 0.4989682 0.5217811 -0.4989682
184000000 0.4606751 -0.4977950 0.5393249 0.4977950 0.5393249 0.4977950 0.4606751 -0.4977950
205000000 0.4069816 -0.4905087 0.5930184 0.4905087 0.5930184 0.4905087 0.4069816 -0.4905087
226000000 0.3602146 -0.4791859 0.6397854 0.4791859 0.6397854 0.4791859 0.3602146 -0.4791859
247000000 0.3196679 -0.4653501 0.6803321 0.4653501 0.6803321 0.4653501 0.3196679 -0.4653501
268000000 0.2845746 -0.4500858 0.7154254 0.4500858 0.7154254 0.4500858 0.2845746 -0.4500858
289000000 0.2541938 -0.4341469 0.7458062 0.4341469 0.7458062 0.4341469 0.2541938 -0.4341469
310000000 0.2278512 -0.4180453 0.7721488 0.4180453 0.7721488 0.4180453 0.2278512 -0.4180453
331000000 0.2049538 -0.4021210 0.7950462 0.4021210 0.7950462 0.4021210 0.2049538 -0.4021210
352000000 0.1849911 -0.3865920 0.8150089 0.3865920 0.8150089 0.3865920 0.1849911 -0.3865920
373000000 0.1675285 -0.3715923 0.8324715 0.3715923 0.8324715 0.3715923 0.1675285 -0.3715923
394000000 0.1521987 -0.3571978 0.8478013 0.3571978 0.8478013 0.3571978 0.1521987 -0.3571978
415000000 0.1386926 -0.3434447 0.8613074 0.3434447 0.8613074 0.3434447 0.1386926 -0.3434447
436000000 0.1267502 -0.3303429 0.8732498 0.3303429 0.8732498 0.3303429 0.1267502 -0.3303429
457000000 0.1161527 -0.3178850 0.8838473 0.3178850 0.8838473 0.3178850 0.1161527 -0.3178850
478000000 0.1067159 -0.3060522 0.8932841 0.3060522 0.8932841 0.3060522 0.1067159 -0.3060522
499000000 0.0982844 -0.2948192 0.9017156 0.2948192 0.9017156 0.2948192 0.0982844 -0.2948192
520000000 0.0907264 -0.2841566 0.9092736 0.2841566 0.9092736 0.2841566 0.0907264 -0.2841566
541000000 0.0839303 -0.2740335 0.9160697 0.2740335 0.9160697 0.2740335 0.0839303 -0.2740335
562000000 0.0778009 -0.2644183 0.9221991 0.2644183 0.9221991 0.2644183 0.0778009 -0.2644183
583000000 0.0722569 -0.2552800 0.9277431 0.2552800 0.9277431 0.2552800 0.0722569 -0.2552800
604000000 0.0672288 -0.2465886 0.9327712 0.2465886 0.9327712 0.2465886 0.0672288 -0.2465886
625000000 0.0626566 -0.2383154 0.9373434 0.2383154 0.9373434 0.2383154 0.0626566 -0.2383154
646000000 0.0584886 -0.2304332 0.9415114 0.2304332 0.9415114 0.2304332 0.0584886 -0.2304332
667000000 0.0546801 -0.2229166 0.9453199 0.2229166 0.9453199 0.2229166 0.0546801 -0.2229166
688000000 0.0511923 -0.2157416 0.9488077 0.2157416 0.9488077 0.2157416 0.0511923 -0.2157416
709000000 0.0479912 -0.2088861 0.9520088 0.2088861 0.9520088 0.2088861 0.0479912 -0.2088861
730000000 0.0450472 -0.2023294 0.9549528 0.2023294 0.9549528 0.2023294 0.0450472 -0.2023294
751000000 0.0423346 -0.1960521 0.9576654 0.1960521 0.9576654 0.1960521 0.0423346 -0.1960521
772000000 0.0398304 -0.1900366 0.9601696 0.1900366 0.9601696 0.1900366 0.0398304 -0.1900366
793000000 0.0375146 -0.1842663 0.9624854 0.1842663 0.9624854 0.1842663 0.0375146 -0.1842663
814000000 0.0353695 -0.1787260 0.9646305 0.1787260 0.9646305 0.1787260 0.0353695 -0.1787260
835000000 0.0333792 -0.1734013 0.9666208 0.1734013 0.9666208 0.1734013 0.0333792 -0.1734013
856000000 0.0315298 -0.1682793 0.9684702 0.1682793 0.9684702 0.1682793 0.0315298 -0.1682793
877000000 0.0298089 -0.1633477 0.9701911 0.1633477 0.9701911 0.1633477 0.0298089 -0.1633477
898000000 0.0282054 -0.1585953 0.9717946 0.1585953 0.9717946 0.1585953 0.0282054 -0.1585953
919000000 0.0267092 -0.1540115 0.9732908 0.1540115 0.9732908 0.1540115 0.0267092 -0.1540115
940000000 0.0253116 -0.1495867 0.9746884 0.1495867 0.9746884 0.1495867 0.0253116 -0.1495867
961000000 0.0240045 -0.1453118 0.9759955 0.1453118 0.9759955 0.1453118 0.0240045 -0.1453118
982000000 0.0227806 -0.1411784 0.9772194 0.1411784 0.9772194 0.1411784 0.0227806 -0.1411784
1003000000 0.0216335 -0.1371788 0.9783665 0.1371788 0.9783665 0.1371788 0.0216335 -0.1371788
1024000000 0.0205572 -0.1333055 0.9794428 0.1333055 0.9794428 0.1333055 0.0205572 -0.1333055
1045000000 0.0195465 -0.1295518 0.9804535 0.1295518 0.9804535 0.1295518 0.0195465 -0.1295518
1066000000 0.0185965 -0.1259115 0.9814035 0.1259115 0.9814035 0.1259115 0.0185965 -0.1259115
1087000000 0.0177028 -0.1223785 0.9822972 0.1223785 0.9822972 0.1223785 0.0177028 -0.1223785
1108000000 0.0168615 -0.1189475 0.9831385 0.1189475 0.9831385 0.1189475 0.0168615 -0.1189475
1129000000 0.0160688 -0.1156131 0.9839312 0.1156131 0.9839312 0.1156131 0.0160688 -0.1156131
1150000000 0.0153215 -0.1123705 0.9846785 0.1123705 0.9846785 0.1123705 0.0153215 -0.1123705
1171000000 0.0146164 -0.1092153 0.9853836 0.1092153 0.9853836 0.1092153 0.0146164 -0.1092153
1192000000 0.0139509 -0.1061432 0.9860491 0.1061432 0.9860491 0.1061432 0.0139509 -0.1061432
1213000000 0.0133223 -0.1031502 0.9866777 0.1031502 0.9866777 0.1031502 0.0133223 -0.1031502
1234000000 0.0127282 -0.1002325 0.9872718 0.1002325 0.9872718 0.1002325 0.0127282 -0.1002325
1255000000 0.0121666 -0.0973866 0.9878334 0.0973866 0.9878334 0.0973866 0.0121666 -0.0973866
1276000000 0.0116355 -0.0946093 0.9883645 0.0946093 0.9883645 0.0946093 0.0116355 -0.0946093
1297000000 0.0111329 -0.0918974 0.9888671 0.0918974 0.9888671 0.0918974 0.0111329 -0.0918974
1318000000 0.0106572 -0.0892479 0.9893428 0.0892479 0.9893428 0.0892479 0.0106572 -0.0892479
1339000000 0.0102069 -0.0866581 0.9897931 0.0866581 0.9897931 0.0866581 0.0102069 -0.0866581
1360000000 0.0097804 -0.0841254 0.9902196 0.0841254 0.9902196 0.0841254 0.0097804 -0.0841254
1381000000 0.0093765 -0.0816473 0.9906235 0.0816473 0.9906235 0.0816473 0.0093765 -0.0816473
1402000000 0.0089938 -0.0792215 0.9910062 0.0792215 0.9910062 0.0792215 0.0089938 -0.0792215
1423000000 0.0086313 -0.0768457 0.9913687 0.0768457 0.9913687 0.0768457 0.0086313 -0.0768457
1444000000 0.0082878 -0.0745179 0.9917122 0.0745179 0.9917122 0.0745179 0.0082878 -0.0745179
1465000000 0.0079624 -0.0722361 0.9920376 0.0722361 0.9920376 0.0722361 0.0079624 -0.0722361
1486000000 0.0076540 -0.0699985 0.9923460 0.0699985 0.9923460 0.0699985 0.0076540 -0.0699985
1507000000 0.0073620 -0.0678031 0.9926380 0.0678031 0.9926380 0.0678031 0.0073620 -0.0678031
1528000000 0.0070854 -0.0656485 0.9929146 0.0656485 0.9929146 0.0656485 0.0070854 -0.0656485
1549000000 0.0068234 -0.0635329 0.9931766 0.0635329 0.9931766 0.0635329 0.0068234 -0.0635329
1570000000 0.0065754 -0.0614548 0.9934246 0.0614548 0.9934246 0.0614548 0.0065754 -0.0614548
1591000000 0.0063408 -0.0594128 0.9936592 0.0594128 0.9936592 0.0594128 0.0063408 -0.0594128
1612000000 0.0061188 -0.0574055 0.9938812 0.0574055 0.9938812 0.0574055 0.0061188 -0.0574055
1633000000 0.0059089 -0.0554316 0.9940911 0.0554316 0.9940911 0.0554316 0.0059089 -0.0554316
1654000000 0.0057107 -0.0534899 0.9942893 0.0534899 0.9942893 0.0534899 0.0057107 -0.0534899
1675000000 0.0055234 -0.0515791 0.9944766 0.0515791 0.9944766 0.0515791 0.0055234 -0.0515791
1696000000 0.0053468 -0.0496981 0.9946532 0.0496981 0.9946532 0.0496981 0.0053468 -0.0496981
1717000000 0.0051803 -0.0478459 0.9948197 0.0478459 0.9948197 0.0478459 0.0051803 -0.0478459
1738000000 0.0050235 -0.0460213 0.9949765 0.0460213 0.9949765 0.0460213 0.0050235 -0.0460213
1759000000 0.0048760 -0.0442235 0.9951240 0.0442235 0.9951240 0.0442235 0.0048760 -0.0442235
1780000000 0.0047374 -0.0424514 0.9952626 0.0424514 0.9952626 0.0424514 0.0047374 -0.0424514
1801000000 0.0046075 -0.0407042 0.9953925 0.0407042 0.9953925 0.0407042 0.0046075 -0.0407042
1822000000 0.0044857 -0.0389811 0.9955143 0.0389811 0.9955143 0.0389811 0.0044857 -0.0389811
1843000000 0.0043720 -0.0372810 0.9956280 0.0372810 0.9956280 0.0372810 0.0043720 -0.0372810
1864000000 0.0042658 -0.0356034 0.9957342 0.0356034 0.9957342 0.0356034 0.0042658 -0.0356034
1885000000 0.0041671 -0.0339474 0.9958329 0.0339474 0.9958329 0.0339474 0.0041671 -0.0339474
1906000000 0.0040754 -0.0323122 0.9959246 0.0323122 0.9959246 0.0323122 0.0040754 -0.0323122
1927000000 0.0039906 -0.0306973 0.9960094 0.0306973 0.9960094 0.0306973 0.0039906 -0.0306973
1948000000 0.0039124 -0.0291019 0.9960876 0.0291019 0.9960876 0.0291019 0.0039124 -0.0291019
1969000000 0.0038407 -0.0275254 0.9961593 0.0275254 0.9961593 0.0275254 0.0038407 -0.0275254
1990000000 0.0037751 -0.0259671 0.9962249 0.0259671 0.9962249 0.0259671 0.0037751 -0.0259671
2011000000 0.0037155 -0.0244265 0.9962845 0.0244265 0.9962845 0.0244265 0.0037155 -0.0244265
2032000000 0.0036617 -0.0229030 0.9963383 0.0229030 0.9963383 0.0229030 0.0036617 -0.0229030
2053000000 0.0036135 -0.0213960 0.9963865 0.0213960 0.9963865 0.0213960 0.0036135 -0.0213960
2074000000 0.0035708 -0.0199051 0.9964292 0.0199051 0.9964292 0.0199051 0.0035708 -0.0199051
2095000000 0.0035334 -0.0184297 0.9964666 0.0184297 0.9964666 0.0184297 0.0035334 -0.0184297
2116000000 0.0035012 -0.0169692 0.9964988 0.0169692 0.9964988 0.0169692 0.0035012 -0.0169692
2137000000 0.0034739 -0.0155234 0.9965261 0.0155234 0.9965261 0.0155234 0.0034739 -0.0155234
2158000000 0.0034516 -0.0140916 0.9965484 0.0140916 0.9965484 0.0140916 0.0034516 -0.0140916
2179000000 0.0034340 -0.0126734 0.9965660 0.0126734 0.9965660 0.0126734 0.0034340 -0.0126734
2200000000 0.0034210 -0.0112685 0.9965790 0.0112685 0.9965790 0.0112685 0.0034210 -0.0112685
2221000000 0.0034125 -0.0098764 0.9965875 0.0098764 0.9965875 0.0098764 0.0034125 -0.0098764
2242000000 0.0034084 -0.0084967 0.9965916 0.0084967 0.9965916 0.0084967 0.0034084 -0.0084967
2263000000 0.0034086 -0.0071290 0.9965914 0.0071290 0.9965914 0.0071290 0.0034086 -0.0071290
2284000000 0.0034130 -0.0057729 0.9965870 0.0057729 0.9965870 0.0057729 0.0034130 -0.0057729
2305000000 0.0034215 -0.0044282 0.9965785 0.0044282 0.9965785 0.0044282 0.0034215 -0.0044282
2326000000 0.0034341 -0.0030944 0.9965659 0.0030944 0.9965659 0.0030944 0.0034341 -0.0030944
2347000000 0.0034505 -0.0017713 0.9965495 0.0017713 0.9965495 0.0017713 0.0034505 -0.0017713
2368000000 0.0034709 -0.0004584 0.9965291 0.0004584 0.9965291 0.0004584 0.0034709 -0.0004584
2389000000 0.0034950 0.0008445 0.9965050 -0.0008445 0.9965050 -0.0008445 0.0034950 0.0008445
2410000000 0.0035229 0.0021377 0.9964771 -0.0021377 0.9964771 -0.0021377 0.0035229 0.0021377
2431000000 0.0035544 0.0034216 0.9964456 -0.0034216 0.9964456 -0.0034216 0.0035544 0.0034216
2452000000 0.0035895 0.0046964 0.9964105 -0.0046964 0.9964105 -0.0046964 0.0035895 0.0046964
2473000000 0.0036281 0.0059624 0.9963719 -0.0059624 0.9963719 -0.0059624 0.0036281 0.0059624
2494000000 0.0036702 0.0072199 0.9963298 -0.0072199 0.9963298 -0.0072199 0.0036702 0.0072199
2515000000 0.0037157 0.0084691 0.9962843 -0.0084691 0.9962843 -0.0084691 0.0037157 0.0084691
2536000000 0.0037646 0.0097103 0.9962354 -0.0097103 0.9962354 -0.0097103 0.0037646 0.0097103
2557000000 0.0038169 0.0109438 0.9961831 -0.0109438 0.9961831 -0.0109438 0.0038169 0.0109438
2578000000 0.0038724 0.0121697 0.9961276 -0.0121697 0.9961276 -0.0121697 0.0038724 0.0121697
2599000000 0.0039312 0.0133884 0.9960688 -0.0133884 0.9960688 -0.0133884 0.0039312 0.0133884
2620000000 0.0039932 0.0146001 0.9960068 -0.0146001 0.9960068 -0.0146001 0.0039932 0.0146001
2641000000 0.0040584 0.0158050 0.9959416 -0.0158050 0.9959416 -0.0158050 0.0040584 0.0158050
2662000000 0.0041268 0.0170033 0.9958732 -0.0170033 0.9958732 -0.0170033 0.0041268 0.0170033
2683000000 0.0041983 0.0181952 0.9958017 -0.0181952 0.9958017 -0.0181952 0.0041983 0.0181952
2704000000 0.0042728 0.0193810 0.9957272 -0.0193810 0.9957272 -0.0193810 0.0042728 0.0193810
2725000000 0.0043505 0.0205608 0.9956495 -0.0205608 0.9956495 -0.0205608 0.0043505 0.0205608
2746000000 0.0044312 0.0217349 0.9955688 -0.0217349 0.9955688 -0.0217349 0.0044312 0.0217349
2767000000 0.0045149 0.0229034 0.9954851 -0.0229034 0.9954851 -0.0229034 0.0045149 0.0229034
2788000000 0.0046017 0.0240666 0.9953983 -0.0240666 0.9953983 -0.0240666 0.0046017 0.0240666
2809000000 0.0046915 0.0252247 0.9953085 -0.0252247 0.9953085 -0.0252247 0.0046915 0.0252247
2830000000 0.0047842 0.0263778 0.9952158 -0.0263778 0.9952158 -0.0263778 0.0047842 0.0263778
2851000000 0.0048800 0.0275261 0.9951200 -0.0275261 0.9951200 -0.0275261 0.0048800 0.0275261
2872000000 0.0049788 0.0286699 0.9950212 -0.0286699 0.9950212 -0.0286699 0.0049788 0.0286699
2893000000 0.0050805 0.0298092 0.9949195 -0.0298092 0.9949195 -0.0298092 0.0050805 0.0298092
2914000000 0.0051852 0.0309443 0.9948148 -0.0309443 0.9948148 -0.0309443 0.0051852 0.0309443
2935000000 0.0052929 0.0320753 0.9947071 -0.0320753 0.9947071 -0.0320753 0.0052929 0.0320753
2956000000 0.0054035 0.0332024 0.9945965 -0.0332024 0.9945965 -0.0332024 0.0054035 0.0332024
2977000000 0.0055172 0.0343259 0.9944828 -0.0343259 0.9944828 -0.0343259 0.0055172 0.0343259
2998000000 0.0056338 0.0354458 0.9943662 -0.0354458 0.9943662 -0.0354458 0.0056338 0.0354458
3019000000 0.0057534 0.0365623 0.9942466 -0.0365623 0.9942466 -0.0365623 0.0057534 0.0365623
3040000000 0.0058761 0.0376756 0.9941239 -0.0376756 0.9941239 -0.0376756 0.0058761 0.0376756
3061000000 0.0060017 0.0387858 0.9939983 -0.0387858 0.9939983 -0.0387858 0.0060017 0.0387858
3082000000 0.0061304 0.0398932 0.9938696 -0.0398932 0.9938696 -0.0398932 0.0061304 0.0398932
3103000000 0.0062622 0.0409979 0.9937378 -0.0409979 0.9937378 -0.0409979 0.0062622 0.0409979
3124000000 0.0063971 0.0421000 0.9936029 -0.0421000 0.9936029 -0.0421000 0.0063971 0.0421000
3145000000 0.0065351 0.0431997 0.9934649 -0.0431997 0.9934649 -0.0431997 0.0065351 0.0431997
3166000000 0.0066762 0.0442972 0.9933238 -0.0442972 0.9933238 -0.0442972 0.0066762 0.0442972
3187000000 0.0068205 0.0453927 0.9931795 -0.0453927 0.9931795 -0.0453927 0.0068205 0.0453927
3208000000 0.0069680 0.0464862 0.9930320 -0.0464862 0.9930320 -0.0464862 0.0069680 0.0464862
3229000000 0.0071187 0.0475780 0.9928813 -0.0475780 0.9928813 -0.0475780 0.0071187 0.0475780
3250000000 0.0072727 0.0486683 0.9927273 -0.0486683 0.9927273 -0.0486683 0.0072727 0.0486683
3271000000 0.0074300 0.0497571 0.9925700 -0.0497571 0.9925700 -0.0497571 0.0074300 0.0497571
3292000000 0.0075907 0.0508447 0.9924093 -0.0508447 0.9924093 -0.0508447 0.0075907 0.0508447
3313000000 0.0077549 0.0519312 0.9922451 -0.0519312 0.9922451 -0.0519312 0.0077549 0.0519312
3334000000 0.0079225 0.0530169 0.9920775 -0.0530169 0.9920775 -0.0530169 0.0079225 0.0530169
3355000000 0.0080936 0.0541018 0.9919064 -0.0541018 0.9919064 -0.0541018 0.0080936 0.0541018
3376000000 0.0082684 0.0551861 0.9917316 -0.0551861 0.9917316 -0.0551861 0.0082684 0.0551861
3397000000 0.0084468 0.0562701 0.9915532 -0.0562701 0.9915532 -0.0562701 0.0084468 0.0562701
3418000000 0.0086289 0.0573538 0.9913711 -0.0573538 0.9913711 -0.0573538 0.0086289 0.0573538
3439000000 0.0088149 0.0584376 0.9911851 -0.0584376 0.9911851 -0.0584376 0.0088149 0.0584376
3460000000 0.0090048 0.0595215 0.9909952 -0.0595215 0.9909952 -0.0595215 0.0090048 0.0595215
3481000000 0.0091987 0.0606058 0.9908013 -0.0606058 0.9908013 -0.0606058 0.0091987 0.0606058
3502000000 0.0093966 0.0616906 0.9906034 -0.0616906 0.9906034 -0.0616906 0.0093966 0.0616906
3523000000 0.0095988 0.0627763 0.9904012 -0.0627763 0.9904012 -0.0627763 0.0095988 0.0627763
3544000000 0.0098053 0.0638628 0.9901947 -0.0638628 0.9901947 -0.0638628 0.0098053 0.0638628
3565000000 0.0100162 0.0649505 0.9899838 -0.0649505 0.9899838 -0.0649505 0.0100162 0.0649505
3586000000 0.0102317 0.0660397 0.9897683 -0.0660397 0.9897683 -0.0660397 0.0102317 0.0660397
3607000000 0.0104518 0.0671304 0.9895482 -0.0671304 0.9895482 -0.0671304 0.0104518 0.0671304
3628000000 0.0106768 0.0682230 0.9893232 -0.0682230 0.9893232 -0.0682230 0.0106768 0.0682230
3649000000 0.0109068 0.0693176 0.9890932 -0.0693176 0.9890932 -0.0693176 0.0109068 0.0693176
3670000000 0.0111420 0.0704146 0.9888580 -0.0704146 0.9888580 -0.0704146 0.0111420 0.0704146
3691000000 0.0113825 0.0715141 0.9886175 -0.0715141 0.9886175 -0.0715141 0.0113825 0.0715141
3712000000 0.0116286 0.0726165 0.9883714 -0.0726165 0.9883714 -0.0726165 0.0116286 0.0726165
3733000000 0.0118804 0.0737221 0.9881196 -0.0737221 0.9881196 -0.0737221 0.0118804 0.0737221
3754000000 0.0121382 0.0748310 0.9878618 -0.0748310 0.9878618 -0.0748310 0.0121382 0.0748310
3775000000 0.0124022 0.0759436 0.9875978 -0.0759436 0.9875978 -0.0759436 0.0124022 0.0759436
3796000000 0.0126728 0.0770603 0.9873272 -0.0770603 0.9873272 -0.0770603 0.0126728 0.0770603
3817000000 0.0129501 0.0781813 0.9870499 -0.0781813 0.9870499 -0.0781813 0.0129501 0.0781813
3838000000 0.0132345 0.0793069 0.9867655 -0.0793069 0.9867655 -0.0793069 0.0132345 0.0793069
3859000000 0.0135264 0.0804377 0.9864736 -0.0804377 0.9864736 -0.0804377 0.0135264 0.0804377
3880000000 0.0138260 0.0815739 0.9861740 -0.0815739 0.9861740 -0.0815739 0.0138260 0.0815739
3901000000 0.0141339 0.0827158 0.9858661 -0.0827158 0.9858661 -0.0827158 0.0141339 0.0827158
3922000000 0.0144504 0.0838641 0.9855496 -0.0838641 0.9855496 -0.0838641 0.0144504 0.0838641
3943000000 0.0147760 0.0850190 0.9852240 -0.0850190 0.9852240 -0.0850190 0.0147760 0.0850190
3964000000 0.0151112 0.0861810 0.9848888 -0.0861810 0.9848888 -0.0861810 0.0151112 0.0861810
3985000000 0.0154567 0.0873507 0.9845433 -0.0873507 0.9845433 -0.0873507 0.0154567 0.0873507
4006000000 0.0158129 0.0885285 0.9841871 -0.0885285 0.9841871 -0.0885285 0.0158129 0.0885285
4027000000 0.0161806 0.0897151 0.9838194 -0.0897151 0.9838194 -0.0897151 0.0161806 0.0897151
4048000000 0.0165605 0.0909109 0.9834395 -0.0909109 0.9834395 -0.0909109 0.0165605 0.0909109
4069000000 0.0169536 0.0921166 0.9830464 -0.0921166 0.9830464 -0.0921166 0.0169536 0.0921166
4090000000 0.0173605 0.0933328 0.9826395 -0.0933328 0.9826395 -0.0933328 0.0173605 0.0933328
4111000000 0.0177825 0.0945602 0.9822175 -0.0945602 0.9822175 -0.0945602 0.0177825 0.0945602
4132000000 0.0182205 0.0957996 0.9817795 -0.0957996 0.9817795 -0.0957996 0.0182205 0.0957996
4153000000 0.0186759 0.0970518 0.9813241 -0.0970518 0.9813241 -0.0970518 0.0186759 0.0970518
4174000000 0.0191500 0.0983174 0.9808500 -0.0983174 0.9808500 -0.0983174 0.0191500 0.0983174
4195000000 0.0196443 0.0995975 0.9803557 -0.0995975 0.9803557 -0.0995975 0.0196443 0.0995975
4216000000 0.0201606 0.1008929 0.9798394 -0.1008929 0.9798394 -0.1008929 0.0201606 0.1008929
4237000000 0.0207008 0.1022045 0.9792992 -0.1022045 0.9792992 -0.1022045 0.0207008 0.1022045
4258000000 0.0212671 0.1035334 0.9787329 -0.1035334 0.9787329 -0.1035334 0.0212671 0.1035334
4279000000 0.0218620 0.1048807 0.9781380 -0.1048807 0.9781380 -0.1048807 0.0218620 0.1048807
4300000000 0.0224882 0.1062474 0.9775118 -0.1062474 0.9775118 -0.1062474 0.0224882 0.1062474
4321000000 0.0231488 0.1076346 0.9768512 -0.1076346 0.9768512 -0.1076346 0.0231488 0.1076346
4342000000 0.0238476 0.1090435 0.9761524 -0.1090435 0.9761524 -0.1090435 0.0238476 0.1090435
4363000000 0.0245884 0.1104753 0.9754116 -0.1104753 0.9754116 -0.1104753 0.0245884 0.1104753
4384000000 0.0253761 0.1119312 0.9746239 -0.1119312 0.9746239 -0.1119312 0.0253761 0.1119312
4405000000 0.0262160 0.1134120 0.9737840 -0.1134120 0.9737840 -0.1134120 0.0262160 0.1134120
4426000000 0.0271143 0.1149190 0.9728857 -0.1149190 0.9728857 -0.1149190 0.0271143 0.1149190
4447000000 0.0280781 0.1164529 0.9719219 -0.1164529 0.9719219 -0.1164529 0.0280781 0.1164529
4468000000 0.0291156 0.1180141 0.9708844 -0.1180141 0.9708844 -0.1180141 0.0291156 0.1180141
4489000000 0.0302364 0.1196030 0.9697636 -0.1196030 0.9697636 -0.1196030 0.0302364 0.1196030
4510000000 0.0314516 0.1212189 0.9685484 -0.1212189 0.9685484 -0.1212189 0.0314516 0.1212189
