!Murata Part Number: GRM1885C1H5R0WA01
!These Parameters are Measured in Series Mode Connection
!Data Generated on Mar 30, 2021
!       o--ll--o
!Port1            Port2
!       o------o
!Operation Temp=25[degC], DC Bias Voltage=0[V]
!Freq. Start=100[MHz] Stop=9[GHz] 401[Steps]
# Hz S RI R 50
!Freq.(Hz) S11(Real) S11(Imag) S21(Real) S21(Imag) S12(Real) S12(Imag) S22(Real) S22(Imag)
100000000 0.9099091 -0.2861044 0.0900909 0.2861044 0.0900909 0.2861044 0.9099091 -0.2861044
121000000 0.8732935 -0.3323870 0.1267065 0.3323870 0.1267065 0.3323870 0.8732935 -0.3323870
142000000 0.8333111 -0.3723884 0.1666889 0.3723884 0.1666889 0.3723884 0.8333111 -0.3723884
163000000 0.7912088 -0.4060793 0.2087912 0.4060793 0.2087912 0.4060793 0.7912088 -0.4060793
184000000 0.7480991 -0.4336795 0.2519009 0.4336795 0.2519009 0.4336795 0.7480991 -0.4336795
205000000 0.7049217 -0.4555893 0.2950783 0.4555893 0.2950783 0.4555893 0.7049217 -0.4555893
226000000 0.6624308 -0.4723248 0.3375692 0.4723248 0.3375692 0.4723248 0.6624308 -0.4723248
247000000 0.6212004 -0.4844608 0.3787996 0.4844608 0.3787996 0.4844608 0.6212004 -0.4844608
268000000 0.5816423 -0.4925870 0.4183577 0.4925870 0.4183577 0.4925870 0.5816423 -0.4925870
289000000 0.5440291 -0.4972762 0.4559709 0.4972762 0.4559709 0.4972762 0.5440291 -0.4972762
310000000 0.5085202 -0.4990633 0.4914798 0.4990633 0.4914798 0.4990633 0.5085202 -0.4990633
331000000 0.4751861 -0.4984335 0.5248139 0.4984335 0.5248139 0.4984335 0.4751861 -0.4984335
352000000 0.4440303 -0.4958176 0.5559697 0.4958176 0.5559697 0.4958176 0.4440303 -0.4958176
373000000 0.4150079 -0.4915906 0.5849921 0.4915906 0.5849921 0.4915906 0.4150079 -0.4915906
394000000 0.3880404 -0.4860751 0.6119596 0.4860751 0.6119596 0.4860751 0.3880404 -0.4860751
415000000 0.3630273 -0.4795451 0.6369727 0.4795451 0.6369727 0.4795451 0.3630273 -0.4795451
436000000 0.3398557 -0.4722309 0.6601443 0.4722309 0.6601443 0.4722309 0.3398557 -0.4722309
457000000 0.3184064 -0.4643249 0.6815936 0.4643249 0.6815936 0.4643249 0.3184064 -0.4643249
478000000 0.2985590 -0.4559862 0.7014410 0.4559862 0.7014410 0.4559862 0.2985590 -0.4559862
499000000 0.2801952 -0.4473459 0.7198048 0.4473459 0.7198048 0.4473459 0.2801952 -0.4473459
520000000 0.2632010 -0.4385111 0.7367990 0.4385111 0.7367990 0.4385111 0.2632010 -0.4385111
541000000 0.2474683 -0.4295686 0.7525317 0.4295686 0.7525317 0.4295686 0.2474683 -0.4295686
562000000 0.2328955 -0.4205887 0.7671045 0.4205887 0.7671045 0.4205887 0.2328955 -0.4205887
583000000 0.2193880 -0.4116276 0.7806120 0.4116276 0.7806120 0.4116276 0.2193880 -0.4116276
604000000 0.2068581 -0.4027298 0.7931419 0.4027298 0.7931419 0.4027298 0.2068581 -0.4027298
625000000 0.1952251 -0.3939304 0.8047749 0.3939304 0.8047749 0.3939304 0.1952251 -0.3939304
646000000 0.1844150 -0.3852565 0.8155850 0.3852565 0.8155850 0.3852565 0.1844150 -0.3852565
667000000 0.1743598 -0.3767290 0.8256402 0.3767290 0.8256402 0.3767290 0.1743598 -0.3767290
688000000 0.1649975 -0.3683633 0.8350025 0.3683633 0.8350025 0.3683633 0.1649975 -0.3683633
709000000 0.1562716 -0.3601705 0.8437284 0.3601705 0.8437284 0.3601705 0.1562716 -0.3601705
730000000 0.1481304 -0.3521583 0.8518696 0.3521583 0.8518696 0.3521583 0.1481304 -0.3521583
751000000 0.1405269 -0.3443317 0.8594731 0.3443317 0.8594731 0.3443317 0.1405269 -0.3443317
772000000 0.1334182 -0.3366931 0.8665818 0.3366931 0.8665818 0.3366931 0.1334182 -0.3366931
793000000 0.1267655 -0.3292433 0.8732345 0.3292433 0.8732345 0.3292433 0.1267655 -0.3292433
814000000 0.1205329 -0.3219817 0.8794671 0.3219817 0.8794671 0.3219817 0.1205329 -0.3219817
835000000 0.1146883 -0.3149064 0.8853117 0.3149064 0.8853117 0.3149064 0.1146883 -0.3149064
856000000 0.1092019 -0.3080147 0.8907981 0.3080147 0.8907981 0.3080147 0.1092019 -0.3080147
877000000 0.1040469 -0.3013032 0.8959531 0.3013032 0.8959531 0.3013032 0.1040469 -0.3013032
898000000 0.0991985 -0.2947680 0.9008015 0.2947680 0.9008015 0.2947680 0.0991985 -0.2947680
919000000 0.0946344 -0.2884048 0.9053656 0.2884048 0.9053656 0.2884048 0.0946344 -0.2884048
940000000 0.0903338 -0.2822089 0.9096662 0.2822089 0.9096662 0.2822089 0.0903338 -0.2822089
961000000 0.0862780 -0.2761758 0.9137220 0.2761758 0.9137220 0.2761758 0.0862780 -0.2761758
982000000 0.0824497 -0.2703003 0.9175503 0.2703003 0.9175503 0.2703003 0.0824497 -0.2703003
1003000000 0.0788331 -0.2645778 0.9211669 0.2645778 0.9211669 0.2645778 0.0788331 -0.2645778
1024000000 0.0754137 -0.2590031 0.9245863 0.2590031 0.9245863 0.2590031 0.0754137 -0.2590031
1045000000 0.0721780 -0.2535715 0.9278220 0.2535715 0.9278220 0.2535715 0.0721780 -0.2535715
1066000000 0.0691138 -0.2482782 0.9308862 0.2482782 0.9308862 0.2482782 0.0691138 -0.2482782
1087000000 0.0662099 -0.2431183 0.9337901 0.2431183 0.9337901 0.2431183 0.0662099 -0.2431183
1108000000 0.0634558 -0.2380872 0.9365442 0.2380872 0.9365442 0.2380872 0.0634558 -0.2380872
1129000000 0.0608419 -0.2331804 0.9391581 0.2331804 0.9391581 0.2331804 0.0608419 -0.2331804
1150000000 0.0583594 -0.2283936 0.9416406 0.2283936 0.9416406 0.2283936 0.0583594 -0.2283936
1171000000 0.0560000 -0.2237224 0.9440000 0.2237224 0.9440000 0.2237224 0.0560000 -0.2237224
1192000000 0.0537562 -0.2191627 0.9462438 0.2191627 0.9462438 0.2191627 0.0537562 -0.2191627
1213000000 0.0516210 -0.2147105 0.9483790 0.2147105 0.9483790 0.2147105 0.0516210 -0.2147105
1234000000 0.0495878 -0.2103620 0.9504122 0.2103620 0.9504122 0.2103620 0.0495878 -0.2103620
1255000000 0.0476507 -0.2061134 0.9523493 0.2061134 0.9523493 0.2061134 0.0476507 -0.2061134
1276000000 0.0458041 -0.2019612 0.9541959 0.2019612 0.9541959 0.2019612 0.0458041 -0.2019612
1297000000 0.0440427 -0.1979019 0.9559573 0.1979019 0.9559573 0.1979019 0.0440427 -0.1979019
1318000000 0.0423617 -0.1939322 0.9576383 0.1939322 0.9576383 0.1939322 0.0423617 -0.1939322
1339000000 0.0407566 -0.1900489 0.9592434 0.1900489 0.9592434 0.1900489 0.0407566 -0.1900489
1360000000 0.0392233 -0.1862490 0.9607767 0.1862490 0.9607767 0.1862490 0.0392233 -0.1862490
1381000000 0.0377577 -0.1825294 0.9622423 0.1825294 0.9622423 0.1825294 0.0377577 -0.1825294
1402000000 0.0363564 -0.1788874 0.9636436 0.1788874 0.9636436 0.1788874 0.0363564 -0.1788874
1423000000 0.0350157 -0.1753202 0.9649843 0.1753202 0.9649843 0.1753202 0.0350157 -0.1753202
1444000000 0.0337327 -0.1718253 0.9662673 0.1718253 0.9662673 0.1718253 0.0337327 -0.1718253
1465000000 0.0325043 -0.1684001 0.9674957 0.1684001 0.9674957 0.1684001 0.0325043 -0.1684001
1486000000 0.0313276 -0.1650422 0.9686724 0.1650422 0.9686724 0.1650422 0.0313276 -0.1650422
1507000000 0.0302002 -0.1617493 0.9697998 0.1617493 0.9697998 0.1617493 0.0302002 -0.1617493
1528000000 0.0291195 -0.1585193 0.9708805 0.1585193 0.9708805 0.1585193 0.0291195 -0.1585193
1549000000 0.0280833 -0.1553499 0.9719167 0.1553499 0.9719167 0.1553499 0.0280833 -0.1553499
1570000000 0.0270894 -0.1522391 0.9729106 0.1522391 0.9729106 0.1522391 0.0270894 -0.1522391
1591000000 0.0261357 -0.1491850 0.9738643 0.1491850 0.9738643 0.1491850 0.0261357 -0.1491850
1612000000 0.0252204 -0.1461857 0.9747796 0.1461857 0.9747796 0.1461857 0.0252204 -0.1461857
1633000000 0.0243417 -0.1432393 0.9756583 0.1432393 0.9756583 0.1432393 0.0243417 -0.1432393
1654000000 0.0234979 -0.1403441 0.9765021 0.1403441 0.9765021 0.1403441 0.0234979 -0.1403441
1675000000 0.0226874 -0.1374986 0.9773126 0.1374986 0.9773126 0.1374986 0.0226874 -0.1374986
1696000000 0.0219088 -0.1347009 0.9780912 0.1347009 0.9780912 0.1347009 0.0219088 -0.1347009
1717000000 0.0211605 -0.1319497 0.9788395 0.1319497 0.9788395 0.1319497 0.0211605 -0.1319497
1738000000 0.0204413 -0.1292433 0.9795587 0.1292433 0.9795587 0.1292433 0.0204413 -0.1292433
1759000000 0.0197499 -0.1265805 0.9802501 0.1265805 0.9802501 0.1265805 0.0197499 -0.1265805
1780000000 0.0190852 -0.1239597 0.9809148 0.1239597 0.9809148 0.1239597 0.0190852 -0.1239597
1801000000 0.0184459 -0.1213798 0.9815541 0.1213798 0.9815541 0.1213798 0.0184459 -0.1213798
1822000000 0.0178311 -0.1188393 0.9821689 0.1188393 0.9821689 0.1188393 0.0178311 -0.1188393
1843000000 0.0172398 -0.1163371 0.9827602 0.1163371 0.9827602 0.1163371 0.0172398 -0.1163371
1864000000 0.0166709 -0.1138721 0.9833291 0.1138721 0.9833291 0.1138721 0.0166709 -0.1138721
1885000000 0.0161236 -0.1114430 0.9838764 0.1114430 0.9838764 0.1114430 0.0161236 -0.1114430
1906000000 0.0155971 -0.1090487 0.9844029 0.1090487 0.9844029 0.1090487 0.0155971 -0.1090487
1927000000 0.0150905 -0.1066883 0.9849095 0.1066883 0.9849095 0.1066883 0.0150905 -0.1066883
1948000000 0.0146030 -0.1043607 0.9853970 0.1043607 0.9853970 0.1043607 0.0146030 -0.1043607
1969000000 0.0141340 -0.1020648 0.9858660 0.1020648 0.9858660 0.1020648 0.0141340 -0.1020648
1990000000 0.0136828 -0.0997999 0.9863172 0.0997999 0.9863172 0.0997999 0.0136828 -0.0997999
2011000000 0.0132486 -0.0975649 0.9867514 0.0975649 0.9867514 0.0975649 0.0132486 -0.0975649
2032000000 0.0128309 -0.0953589 0.9871691 0.0953589 0.9871691 0.0953589 0.0128309 -0.0953589
2053000000 0.0124291 -0.0931811 0.9875709 0.0931811 0.9875709 0.0931811 0.0124291 -0.0931811
2074000000 0.0120426 -0.0910308 0.9879574 0.0910308 0.9879574 0.0910308 0.0120426 -0.0910308
2095000000 0.0116708 -0.0889070 0.9883292 0.0889070 0.9883292 0.0889070 0.0116708 -0.0889070
2116000000 0.0113134 -0.0868091 0.9886866 0.0868091 0.9886866 0.0868091 0.0113134 -0.0868091
2137000000 0.0109697 -0.0847362 0.9890303 0.0847362 0.9890303 0.0847362 0.0109697 -0.0847362
2158000000 0.0106393 -0.0826877 0.9893607 0.0826877 0.9893607 0.0826877 0.0106393 -0.0826877
2179000000 0.0103218 -0.0806629 0.9896782 0.0806629 0.9896782 0.0806629 0.0103218 -0.0806629
2200000000 0.0100167 -0.0786611 0.9899833 0.0786611 0.9899833 0.0786611 0.0100167 -0.0786611
2221000000 0.0097237 -0.0766816 0.9902763 0.0766816 0.9902763 0.0766816 0.0097237 -0.0766816
2242000000 0.0094424 -0.0747238 0.9905576 0.0747238 0.9905576 0.0747238 0.0094424 -0.0747238
2263000000 0.0091724 -0.0727872 0.9908276 0.0727872 0.9908276 0.0727872 0.0091724 -0.0727872
2284000000 0.0089133 -0.0708710 0.9910867 0.0708710 0.9910867 0.0708710 0.0089133 -0.0708710
2305000000 0.0086649 -0.0689748 0.9913351 0.0689748 0.9913351 0.0689748 0.0086649 -0.0689748
2326000000 0.0084268 -0.0670980 0.9915732 0.0670980 0.9915732 0.0670980 0.0084268 -0.0670980
2347000000 0.0081987 -0.0652401 0.9918013 0.0652401 0.9918013 0.0652401 0.0081987 -0.0652401
2368000000 0.0079803 -0.0634004 0.9920197 0.0634004 0.9920197 0.0634004 0.0079803 -0.0634004
2389000000 0.0077714 -0.0615786 0.9922286 0.0615786 0.9922286 0.0615786 0.0077714 -0.0615786
2410000000 0.0075717 -0.0597742 0.9924283 0.0597742 0.9924283 0.0597742 0.0075717 -0.0597742
2431000000 0.0073809 -0.0579866 0.9926191 0.0579866 0.9926191 0.0579866 0.0073809 -0.0579866
2452000000 0.0071988 -0.0562154 0.9928012 0.0562154 0.9928012 0.0562154 0.0071988 -0.0562154
2473000000 0.0070251 -0.0544601 0.9929749 0.0544601 0.9929749 0.0544601 0.0070251 -0.0544601
2494000000 0.0068597 -0.0527204 0.9931403 0.0527204 0.9931403 0.0527204 0.0068597 -0.0527204
2515000000 0.0067024 -0.0509957 0.9932976 0.0509957 0.9932976 0.0509957 0.0067024 -0.0509957
2536000000 0.0065528 -0.0492857 0.9934472 0.0492857 0.9934472 0.0492857 0.0065528 -0.0492857
2557000000 0.0064110 -0.0475900 0.9935890 0.0475900 0.9935890 0.0475900 0.0064110 -0.0475900
2578000000 0.0062765 -0.0459082 0.9937235 0.0459082 0.9937235 0.0459082 0.0062765 -0.0459082
2599000000 0.0061494 -0.0442399 0.9938506 0.0442399 0.9938506 0.0442399 0.0061494 -0.0442399
2620000000 0.0060294 -0.0425847 0.9939706 0.0425847 0.9939706 0.0425847 0.0060294 -0.0425847
2641000000 0.0059164 -0.0409423 0.9940836 0.0409423 0.9940836 0.0409423 0.0059164 -0.0409423
2662000000 0.0058101 -0.0393123 0.9941899 0.0393123 0.9941899 0.0393123 0.0058101 -0.0393123
2683000000 0.0057105 -0.0376944 0.9942895 0.0376944 0.9942895 0.0376944 0.0057105 -0.0376944
2704000000 0.0056175 -0.0360882 0.9943825 0.0360882 0.9943825 0.0360882 0.0056175 -0.0360882
2725000000 0.0055308 -0.0344935 0.9944692 0.0344935 0.9944692 0.0344935 0.0055308 -0.0344935
2746000000 0.0054504 -0.0329099 0.9945496 0.0329099 0.9945496 0.0329099 0.0054504 -0.0329099
2767000000 0.0053761 -0.0313371 0.9946239 0.0313371 0.9946239 0.0313371 0.0053761 -0.0313371
2788000000 0.0053078 -0.0297748 0.9946922 0.0297748 0.9946922 0.0297748 0.0053078 -0.0297748
2809000000 0.0052455 -0.0282227 0.9947545 0.0282227 0.9947545 0.0282227 0.0052455 -0.0282227
2830000000 0.0051889 -0.0266806 0.9948111 0.0266806 0.9948111 0.0266806 0.0051889 -0.0266806
2851000000 0.0051381 -0.0251480 0.9948619 0.0251480 0.9948619 0.0251480 0.0051381 -0.0251480
2872000000 0.0050928 -0.0236249 0.9949072 0.0236249 0.9949072 0.0236249 0.0050928 -0.0236249
2893000000 0.0050531 -0.0221108 0.9949469 0.0221108 0.9949469 0.0221108 0.0050531 -0.0221108
2914000000 0.0050188 -0.0206056 0.9949812 0.0206056 0.9949812 0.0206056 0.0050188 -0.0206056
2935000000 0.0049899 -0.0191090 0.9950101 0.0191090 0.9950101 0.0191090 0.0049899 -0.0191090
2956000000 0.0049662 -0.0176206 0.9950338 0.0176206 0.9950338 0.0176206 0.0049662 -0.0176206
2977000000 0.0049478 -0.0161404 0.9950522 0.0161404 0.9950522 0.0161404 0.0049478 -0.0161404
2998000000 0.0049344 -0.0146681 0.9950656 0.0146681 0.9950656 0.0146681 0.0049344 -0.0146681
3019000000 0.0049261 -0.0132033 0.9950739 0.0132033 0.9950739 0.0132033 0.0049261 -0.0132033
3040000000 0.0049228 -0.0117459 0.9950772 0.0117459 0.9950772 0.0117459 0.0049228 -0.0117459
3061000000 0.0049244 -0.0102957 0.9950756 0.0102957 0.9950756 0.0102957 0.0049244 -0.0102957
3082000000 0.0049309 -0.0088524 0.9950691 0.0088524 0.9950691 0.0088524 0.0049309 -0.0088524
3103000000 0.0049422 -0.0074158 0.9950578 0.0074158 0.9950578 0.0074158 0.0049422 -0.0074158
3124000000 0.0049583 -0.0059857 0.9950417 0.0059857 0.9950417 0.0059857 0.0049583 -0.0059857
3145000000 0.0049792 -0.0045619 0.9950208 0.0045619 0.9950208 0.0045619 0.0049792 -0.0045619
3166000000 0.0050047 -0.0031442 0.9949953 0.0031442 0.9949953 0.0031442 0.0050047 -0.0031442
3187000000 0.0050348 -0.0017323 0.9949652 0.0017323 0.9949652 0.0017323 0.0050348 -0.0017323
3208000000 0.0050695 -0.0003262 0.9949305 0.0003262 0.9949305 0.0003262 0.0050695 -0.0003262
3229000000 0.0051089 0.0010745 0.9948911 -0.0010745 0.9948911 -0.0010745 0.0051089 0.0010745
3250000000 0.0051527 0.0024699 0.9948473 -0.0024699 0.9948473 -0.0024699 0.0051527 0.0024699
3271000000 0.0052011 0.0038602 0.9947989 -0.0038602 0.9947989 -0.0038602 0.0052011 0.0038602
3292000000 0.0052539 0.0052456 0.9947461 -0.0052456 0.9947461 -0.0052456 0.0052539 0.0052456
3313000000 0.0053112 0.0066262 0.9946888 -0.0066262 0.9946888 -0.0066262 0.0053112 0.0066262
3334000000 0.0053729 0.0080023 0.9946271 -0.0080023 0.9946271 -0.0080023 0.0053729 0.0080023
3355000000 0.0054391 0.0093740 0.9945609 -0.0093740 0.9945609 -0.0093740 0.0054391 0.0093740
3376000000 0.0055096 0.0107416 0.9944904 -0.0107416 0.9944904 -0.0107416 0.0055096 0.0107416
3397000000 0.0055845 0.0121051 0.9944155 -0.0121051 0.9944155 -0.0121051 0.0055845 0.0121051
3418000000 0.0056638 0.0134648 0.9943362 -0.0134648 0.9943362 -0.0134648 0.0056638 0.0134648
3439000000 0.0057475 0.0148208 0.9942525 -0.0148208 0.9942525 -0.0148208 0.0057475 0.0148208
3460000000 0.0058356 0.0161734 0.9941644 -0.0161734 0.9941644 -0.0161734 0.0058356 0.0161734
3481000000 0.0059279 0.0175226 0.9940721 -0.0175226 0.9940721 -0.0175226 0.0059279 0.0175226
3502000000 0.0060247 0.0188686 0.9939753 -0.0188686 0.9939753 -0.0188686 0.0060247 0.0188686
3523000000 0.0061258 0.0202116 0.9938742 -0.0202116 0.9938742 -0.0202116 0.0061258 0.0202116
3544000000 0.0062312 0.0215518 0.9937688 -0.0215518 0.9937688 -0.0215518 0.0062312 0.0215518
3565000000 0.0063411 0.0228893 0.9936589 -0.0228893 0.9936589 -0.0228893 0.0063411 0.0228893
3586000000 0.0064553 0.0242243 0.9935447 -0.0242243 0.9935447 -0.0242243 0.0064553 0.0242243
3607000000 0.0065738 0.0255569 0.9934262 -0.0255569 0.9934262 -0.0255569 0.0065738 0.0255569
3628000000 0.0066968 0.0268874 0.9933032 -0.0268874 0.9933032 -0.0268874 0.0066968 0.0268874
3649000000 0.0068242 0.0282158 0.9931758 -0.0282158 0.9931758 -0.0282158 0.0068242 0.0282158
3670000000 0.0069560 0.0295423 0.9930440 -0.0295423 0.9930440 -0.0295423 0.0069560 0.0295423
3691000000 0.0070923 0.0308670 0.9929077 -0.0308670 0.9929077 -0.0308670 0.0070923 0.0308670
3712000000 0.0072330 0.0321902 0.9927670 -0.0321902 0.9927670 -0.0321902 0.0072330 0.0321902
3733000000 0.0073783 0.0335120 0.9926217 -0.0335120 0.9926217 -0.0335120 0.0073783 0.0335120
3754000000 0.0075280 0.0348325 0.9924720 -0.0348325 0.9924720 -0.0348325 0.0075280 0.0348325
3775000000 0.0076824 0.0361519 0.9923176 -0.0361519 0.9923176 -0.0361519 0.0076824 0.0361519
3796000000 0.0078413 0.0374703 0.9921587 -0.0374703 0.9921587 -0.0374703 0.0078413 0.0374703
3817000000 0.0080048 0.0387880 0.9919952 -0.0387880 0.9919952 -0.0387880 0.0080048 0.0387880
3838000000 0.0081731 0.0401049 0.9918269 -0.0401049 0.9918269 -0.0401049 0.0081731 0.0401049
3859000000 0.0083460 0.0414214 0.9916540 -0.0414214 0.9916540 -0.0414214 0.0083460 0.0414214
3880000000 0.0085236 0.0427375 0.9914764 -0.0427375 0.9914764 -0.0427375 0.0085236 0.0427375
3901000000 0.0087061 0.0440534 0.9912939 -0.0440534 0.9912939 -0.0440534 0.0087061 0.0440534
3922000000 0.0088934 0.0453693 0.9911066 -0.0453693 0.9911066 -0.0453693 0.0088934 0.0453693
3943000000 0.0090857 0.0466852 0.9909143 -0.0466852 0.9909143 -0.0466852 0.0090857 0.0466852
3964000000 0.0092828 0.0480015 0.9907172 -0.0480015 0.9907172 -0.0480015 0.0092828 0.0480015
3985000000 0.0094850 0.0493181 0.9905150 -0.0493181 0.9905150 -0.0493181 0.0094850 0.0493181
4006000000 0.0096923 0.0506354 0.9903077 -0.0506354 0.9903077 -0.0506354 0.0096923 0.0506354
4027000000 0.0099048 0.0519533 0.9900952 -0.0519533 0.9900952 -0.0519533 0.0099048 0.0519533
4048000000 0.0101224 0.0532722 0.9898776 -0.0532722 0.9898776 -0.0532722 0.0101224 0.0532722
4069000000 0.0103453 0.0545921 0.9896547 -0.0545921 0.9896547 -0.0545921 0.0103453 0.0545921
4090000000 0.0105736 0.0559132 0.9894264 -0.0559132 0.9894264 -0.0559132 0.0105736 0.0559132
4111000000 0.0108074 0.0572356 0.9891926 -0.0572356 0.9891926 -0.0572356 0.0108074 0.0572356
4132000000 0.0110467 0.0585596 0.9889533 -0.0585596 0.9889533 -0.0585596 0.0110467 0.0585596
4153000000 0.0112916 0.0598853 0.9887084 -0.0598853 0.9887084 -0.0598853 0.0112916 0.0598853
4174000000 0.0115422 0.0612129 0.9884578 -0.0612129 0.9884578 -0.0612129 0.0115422 0.0612129
4195000000 0.0117987 0.0625424 0.9882013 -0.0625424 0.9882013 -0.0625424 0.0117987 0.0625424
4216000000 0.0120610 0.0638742 0.9879390 -0.0638742 0.9879390 -0.0638742 0.0120610 0.0638742
4237000000 0.0123294 0.0652083 0.9876706 -0.0652083 0.9876706 -0.0652083 0.0123294 0.0652083
4258000000 0.0126039 0.0665449 0.9873961 -0.0665449 0.9873961 -0.0665449 0.0126039 0.0665449
4279000000 0.0128847 0.0678843 0.9871153 -0.0678843 0.9871153 -0.0678843 0.0128847 0.0678843
4300000000 0.0131718 0.0692265 0.9868282 -0.0692265 0.9868282 -0.0692265 0.0131718 0.0692265
4321000000 0.0134655 0.0705718 0.9865345 -0.0705718 0.9865345 -0.0705718 0.0134655 0.0705718
4342000000 0.0137657 0.0719203 0.9862343 -0.0719203 0.9862343 -0.0719203 0.0137657 0.0719203
4363000000 0.0140728 0.0732723 0.9859272 -0.0732723 0.9859272 -0.0732723 0.0140728 0.0732723
4384000000 0.0143868 0.0746279 0.9856132 -0.0746279 0.9856132 -0.0746279 0.0143868 0.0746279
4405000000 0.0147079 0.0759873 0.9852921 -0.0759873 0.9852921 -0.0759873 0.0147079 0.0759873
4426000000 0.0150362 0.0773507 0.9849638 -0.0773507 0.9849638 -0.0773507 0.0150362 0.0773507
4447000000 0.0153719 0.0787183 0.9846281 -0.0787183 0.9846281 -0.0787183 0.0153719 0.0787183
4468000000 0.0157152 0.0800903 0.9842848 -0.0800903 0.9842848 -0.0800903 0.0157152 0.0800903
4489000000 0.0160663 0.0814669 0.9839337 -0.0814669 0.9839337 -0.0814669 0.0160663 0.0814669
4510000000 0.0164253 0.0828483 0.9835747 -0.0828483 0.9835747 -0.0828483 0.0164253 0.0828483
