!Murata Part Number: GRM1885C2A7R3DA01
!These Parameters are Measured in Series Mode Connection
!Data Generated on Mar 30, 2021
!       o--ll--o
!Port1            Port2
!       o------o
!Operation Temp=25[degC], DC Bias Voltage=0[V]
!Freq. Start=100[MHz] Stop=9[GHz] 401[Steps]
# Hz S RI R 50
!Freq.(Hz) S11(Real) S11(Imag) S21(Real) S21(Imag) S12(Real) S12(Imag) S22(Real) S22(Imag)
100000000 0.8255497 -0.3791605 0.1744503 0.3791605 0.1744503 0.3791605 0.8255497 -0.3791605
121000000 0.7634683 -0.4245203 0.2365317 0.4245203 0.2365317 0.4245203 0.7634683 -0.4245203
142000000 0.7005970 -0.4574597 0.2994030 0.4574597 0.2994030 0.4574597 0.7005970 -0.4574597
163000000 0.6393488 -0.4795405 0.3606512 0.4795405 0.3606512 0.4795405 0.6393488 -0.4795405
184000000 0.5813295 -0.4925742 0.4186705 0.4925742 0.4186705 0.4925742 0.5813295 -0.4925742
205000000 0.5274665 -0.4983554 0.4725335 0.4983554 0.4725335 0.4983554 0.5274665 -0.4983554
226000000 0.4781751 -0.4985077 0.5218249 0.4985077 0.5218249 0.4985077 0.4781751 -0.4985077
247000000 0.4335163 -0.4944155 0.5664837 0.4944155 0.5664837 0.4944155 0.4335163 -0.4944155
268000000 0.3933264 -0.4872125 0.6066736 0.4872125 0.6066736 0.4872125 0.3933264 -0.4872125
289000000 0.3573131 -0.4777996 0.6426869 0.4777996 0.6426869 0.4777996 0.3573131 -0.4777996
310000000 0.3251215 -0.4668776 0.6748785 0.4668776 0.6748785 0.4668776 0.3251215 -0.4668776
331000000 0.2963774 -0.4549815 0.7036226 0.4549815 0.7036226 0.4549815 0.2963774 -0.4549815
352000000 0.2707137 -0.4425141 0.7292863 0.4425141 0.7292863 0.4425141 0.2707137 -0.4425141
373000000 0.2477854 -0.4297748 0.7522146 0.4297748 0.7522146 0.4297748 0.2477854 -0.4297748
394000000 0.2272763 -0.4169825 0.7727237 0.4169825 0.7727237 0.4169825 0.2272763 -0.4169825
415000000 0.2089022 -0.4042950 0.7910978 0.4042950 0.7910978 0.4042950 0.2089022 -0.4042950
436000000 0.1924105 -0.3918241 0.8075895 0.3918241 0.8075895 0.3918241 0.1924105 -0.3918241
457000000 0.1775784 -0.3796464 0.8224216 0.3796464 0.8224216 0.3796464 0.1775784 -0.3796464
478000000 0.1642103 -0.3678128 0.8357897 0.3678128 0.8357897 0.3678128 0.1642103 -0.3678128
499000000 0.1521352 -0.3563546 0.8478648 0.3563546 0.8478648 0.3563546 0.1521352 -0.3563546
520000000 0.1412037 -0.3452893 0.8587963 0.3452893 0.8587963 0.3452893 0.1412037 -0.3452893
541000000 0.1312854 -0.3346236 0.8687146 0.3346236 0.8687146 0.3346236 0.1312854 -0.3346236
562000000 0.1222666 -0.3243570 0.8777334 0.3243570 0.8777334 0.3243570 0.1222666 -0.3243570
583000000 0.1140479 -0.3144836 0.8859521 0.3144836 0.8859521 0.3144836 0.1140479 -0.3144836
604000000 0.1065425 -0.3049938 0.8934575 0.3049938 0.8934575 0.3049938 0.1065425 -0.3049938
625000000 0.0996742 -0.2958754 0.9003258 0.2958754 0.9003258 0.2958754 0.0996742 -0.2958754
646000000 0.0933764 -0.2871148 0.9066236 0.2871148 0.9066236 0.2871148 0.0933764 -0.2871148
667000000 0.0875904 -0.2786973 0.9124096 0.2786973 0.9124096 0.2786973 0.0875904 -0.2786973
688000000 0.0822647 -0.2706079 0.9177353 0.2706079 0.9177353 0.2706079 0.0822647 -0.2706079
709000000 0.0773538 -0.2628314 0.9226462 0.2628314 0.9226462 0.2628314 0.0773538 -0.2628314
730000000 0.0728175 -0.2553528 0.9271825 0.2553528 0.9271825 0.2553528 0.0728175 -0.2553528
751000000 0.0686201 -0.2481575 0.9313799 0.2481575 0.9313799 0.2481575 0.0686201 -0.2481575
772000000 0.0647300 -0.2412312 0.9352700 0.2412312 0.9352700 0.2412312 0.0647300 -0.2412312
793000000 0.0611191 -0.2345603 0.9388809 0.2345603 0.9388809 0.2345603 0.0611191 -0.2345603
814000000 0.0577625 -0.2281317 0.9422375 0.2281317 0.9422375 0.2281317 0.0577625 -0.2281317
835000000 0.0546376 -0.2219329 0.9453624 0.2219329 0.9453624 0.2219329 0.0546376 -0.2219329
856000000 0.0517246 -0.2159522 0.9482754 0.2159522 0.9482754 0.2159522 0.0517246 -0.2159522
877000000 0.0490054 -0.2101783 0.9509946 0.2101783 0.9509946 0.2101783 0.0490054 -0.2101783
898000000 0.0464639 -0.2046005 0.9535361 0.2046005 0.9535361 0.2046005 0.0464639 -0.2046005
919000000 0.0440857 -0.1992089 0.9559143 0.1992089 0.9559143 0.1992089 0.0440857 -0.1992089
940000000 0.0418576 -0.1939939 0.9581424 0.1939939 0.9581424 0.1939939 0.0418576 -0.1939939
961000000 0.0397679 -0.1889467 0.9602321 0.1889467 0.9602321 0.1889467 0.0397679 -0.1889467
982000000 0.0378059 -0.1840589 0.9621941 0.1840589 0.9621941 0.1840589 0.0378059 -0.1840589
1003000000 0.0359618 -0.1793224 0.9640382 0.1793224 0.9640382 0.1793224 0.0359618 -0.1793224
1024000000 0.0342270 -0.1747299 0.9657730 0.1747299 0.9657730 0.1747299 0.0342270 -0.1747299
1045000000 0.0325933 -0.1702743 0.9674067 0.1702743 0.9674067 0.1702743 0.0325933 -0.1702743
1066000000 0.0310536 -0.1659490 0.9689464 0.1659490 0.9689464 0.1659490 0.0310536 -0.1659490
1087000000 0.0296012 -0.1617476 0.9703988 0.1617476 0.9703988 0.1617476 0.0296012 -0.1617476
1108000000 0.0282300 -0.1576645 0.9717700 0.1576645 0.9717700 0.1576645 0.0282300 -0.1576645
1129000000 0.0269344 -0.1536939 0.9730656 0.1536939 0.9730656 0.1536939 0.0269344 -0.1536939
1150000000 0.0257095 -0.1498307 0.9742905 0.1498307 0.9742905 0.1498307 0.0257095 -0.1498307
1171000000 0.0245505 -0.1460699 0.9754495 0.1460699 0.9754495 0.1460699 0.0245505 -0.1460699
1192000000 0.0234531 -0.1424068 0.9765469 0.1424068 0.9765469 0.1424068 0.0234531 -0.1424068
1213000000 0.0224135 -0.1388372 0.9775865 0.1388372 0.9775865 0.1388372 0.0224135 -0.1388372
1234000000 0.0214280 -0.1353567 0.9785720 0.1353567 0.9785720 0.1353567 0.0214280 -0.1353567
1255000000 0.0204932 -0.1319616 0.9795068 0.1319616 0.9795068 0.1319616 0.0204932 -0.1319616
1276000000 0.0196060 -0.1286480 0.9803940 0.1286480 0.9803940 0.1286480 0.0196060 -0.1286480
1297000000 0.0187637 -0.1254124 0.9812363 0.1254124 0.9812363 0.1254124 0.0187637 -0.1254124
1318000000 0.0179636 -0.1222517 0.9820364 0.1222517 0.9820364 0.1222517 0.0179636 -0.1222517
1339000000 0.0172031 -0.1191624 0.9827969 0.1191624 0.9827969 0.1191624 0.0172031 -0.1191624
1360000000 0.0164801 -0.1161418 0.9835199 0.1161418 0.9835199 0.1161418 0.0164801 -0.1161418
1381000000 0.0157925 -0.1131870 0.9842075 0.1131870 0.9842075 0.1131870 0.0157925 -0.1131870
1402000000 0.0151383 -0.1102953 0.9848617 0.1102953 0.9848617 0.1102953 0.0151383 -0.1102953
1423000000 0.0145157 -0.1074641 0.9854843 0.1074641 0.9854843 0.1074641 0.0145157 -0.1074641
1444000000 0.0139229 -0.1046911 0.9860771 0.1046911 0.9860771 0.1046911 0.0139229 -0.1046911
1465000000 0.0133585 -0.1019739 0.9866415 0.1019739 0.9866415 0.1019739 0.0133585 -0.1019739
1486000000 0.0128209 -0.0993103 0.9871791 0.0993103 0.9871791 0.0993103 0.0128209 -0.0993103
1507000000 0.0123088 -0.0966984 0.9876912 0.0966984 0.9876912 0.0966984 0.0123088 -0.0966984
1528000000 0.0118208 -0.0941360 0.9881792 0.0941360 0.9881792 0.0941360 0.0118208 -0.0941360
1549000000 0.0113559 -0.0916214 0.9886441 0.0916214 0.9886441 0.0916214 0.0113559 -0.0916214
1570000000 0.0109128 -0.0891527 0.9890872 0.0891527 0.9890872 0.0891527 0.0109128 -0.0891527
1591000000 0.0104906 -0.0867282 0.9895094 0.0867282 0.9895094 0.0867282 0.0104906 -0.0867282
1612000000 0.0100881 -0.0843463 0.9899119 0.0843463 0.9899119 0.0843463 0.0100881 -0.0843463
1633000000 0.0097046 -0.0820055 0.9902954 0.0820055 0.9902954 0.0820055 0.0097046 -0.0820055
1654000000 0.0093391 -0.0797042 0.9906609 0.0797042 0.9906609 0.0797042 0.0093391 -0.0797042
1675000000 0.0089909 -0.0774411 0.9910091 0.0774411 0.9910091 0.0774411 0.0089909 -0.0774411
1696000000 0.0086591 -0.0752148 0.9913409 0.0752148 0.9913409 0.0752148 0.0086591 -0.0752148
1717000000 0.0083430 -0.0730240 0.9916570 0.0730240 0.9916570 0.0730240 0.0083430 -0.0730240
1738000000 0.0080421 -0.0708674 0.9919579 0.0708674 0.9919579 0.0708674 0.0080421 -0.0708674
1759000000 0.0077555 -0.0687440 0.9922445 0.0687440 0.9922445 0.0687440 0.0077555 -0.0687440
1780000000 0.0074827 -0.0666525 0.9925173 0.0666525 0.9925173 0.0666525 0.0074827 -0.0666525
1801000000 0.0072232 -0.0645918 0.9927768 0.0645918 0.9927768 0.0645918 0.0072232 -0.0645918
1822000000 0.0069765 -0.0625611 0.9930235 0.0625611 0.9930235 0.0625611 0.0069765 -0.0625611
1843000000 0.0067419 -0.0605591 0.9932581 0.0605591 0.9932581 0.0605591 0.0067419 -0.0605591
1864000000 0.0065191 -0.0585851 0.9934809 0.0585851 0.9934809 0.0585851 0.0065191 -0.0585851
1885000000 0.0063076 -0.0566380 0.9936924 0.0566380 0.9936924 0.0566380 0.0063076 -0.0566380
1906000000 0.0061069 -0.0547170 0.9938931 0.0547170 0.9938931 0.0547170 0.0061069 -0.0547170
1927000000 0.0059167 -0.0528212 0.9940833 0.0528212 0.9940833 0.0528212 0.0059167 -0.0528212
1948000000 0.0057365 -0.0509499 0.9942635 0.0509499 0.9942635 0.0509499 0.0057365 -0.0509499
1969000000 0.0055661 -0.0491023 0.9944339 0.0491023 0.9944339 0.0491023 0.0055661 -0.0491023
1990000000 0.0054051 -0.0472776 0.9945949 0.0472776 0.9945949 0.0472776 0.0054051 -0.0472776
2011000000 0.0052530 -0.0454750 0.9947470 0.0454750 0.9947470 0.0454750 0.0052530 -0.0454750
2032000000 0.0051098 -0.0436940 0.9948902 0.0436940 0.9948902 0.0436940 0.0051098 -0.0436940
2053000000 0.0049750 -0.0419338 0.9950250 0.0419338 0.9950250 0.0419338 0.0049750 -0.0419338
2074000000 0.0048483 -0.0401938 0.9951517 0.0401938 0.9951517 0.0401938 0.0048483 -0.0401938
2095000000 0.0047296 -0.0384734 0.9952704 0.0384734 0.9952704 0.0384734 0.0047296 -0.0384734
2116000000 0.0046185 -0.0367720 0.9953815 0.0367720 0.9953815 0.0367720 0.0046185 -0.0367720
2137000000 0.0045148 -0.0350889 0.9954852 0.0350889 0.9954852 0.0350889 0.0045148 -0.0350889
2158000000 0.0044184 -0.0334238 0.9955816 0.0334238 0.9955816 0.0334238 0.0044184 -0.0334238
2179000000 0.0043289 -0.0317759 0.9956711 0.0317759 0.9956711 0.0317759 0.0043289 -0.0317759
2200000000 0.0042462 -0.0301448 0.9957538 0.0301448 0.9957538 0.0301448 0.0042462 -0.0301448
2221000000 0.0041701 -0.0285301 0.9958299 0.0285301 0.9958299 0.0285301 0.0041701 -0.0285301
2242000000 0.0041004 -0.0269312 0.9958996 0.0269312 0.9958996 0.0269312 0.0041004 -0.0269312
2263000000 0.0040369 -0.0253476 0.9959631 0.0253476 0.9959631 0.0253476 0.0040369 -0.0253476
2284000000 0.0039795 -0.0237790 0.9960205 0.0237790 0.9960205 0.0237790 0.0039795 -0.0237790
2305000000 0.0039280 -0.0222248 0.9960720 0.0222248 0.9960720 0.0222248 0.0039280 -0.0222248
2326000000 0.0038822 -0.0206847 0.9961178 0.0206847 0.9961178 0.0206847 0.0038822 -0.0206847
2347000000 0.0038421 -0.0191583 0.9961579 0.0191583 0.9961579 0.0191583 0.0038421 -0.0191583
2368000000 0.0038074 -0.0176451 0.9961926 0.0176451 0.9961926 0.0176451 0.0038074 -0.0176451
2389000000 0.0037781 -0.0161448 0.9962219 0.0161448 0.9962219 0.0161448 0.0037781 -0.0161448
2410000000 0.0037540 -0.0146570 0.9962460 0.0146570 0.9962460 0.0146570 0.0037540 -0.0146570
2431000000 0.0037350 -0.0131813 0.9962650 0.0131813 0.9962650 0.0131813 0.0037350 -0.0131813
2452000000 0.0037210 -0.0117175 0.9962790 0.0117175 0.9962790 0.0117175 0.0037210 -0.0117175
2473000000 0.0037119 -0.0102651 0.9962881 0.0102651 0.9962881 0.0102651 0.0037119 -0.0102651
2494000000 0.0037076 -0.0088239 0.9962924 0.0088239 0.9962924 0.0088239 0.0037076 -0.0088239
2515000000 0.0037080 -0.0073935 0.9962920 0.0073935 0.9962920 0.0073935 0.0037080 -0.0073935
2536000000 0.0037129 -0.0059736 0.9962871 0.0059736 0.9962871 0.0059736 0.0037129 -0.0059736
2557000000 0.0037224 -0.0045639 0.9962776 0.0045639 0.9962776 0.0045639 0.0037224 -0.0045639
2578000000 0.0037364 -0.0031642 0.9962636 0.0031642 0.9962636 0.0031642 0.0037364 -0.0031642
2599000000 0.0037546 -0.0017741 0.9962454 0.0017741 0.9962454 0.0017741 0.0037546 -0.0017741
2620000000 0.0037772 -0.0003934 0.9962228 0.0003934 0.9962228 0.0003934 0.0037772 -0.0003934
2641000000 0.0038039 0.0009781 0.9961961 -0.0009781 0.9961961 -0.0009781 0.0038039 0.0009781
2662000000 0.0038349 0.0023409 0.9961651 -0.0023409 0.9961651 -0.0023409 0.0038349 0.0023409
2683000000 0.0038698 0.0036950 0.9961302 -0.0036950 0.9961302 -0.0036950 0.0038698 0.0036950
2704000000 0.0039088 0.0050408 0.9960912 -0.0050408 0.9960912 -0.0050408 0.0039088 0.0050408
2725000000 0.0039518 0.0063785 0.9960482 -0.0063785 0.9960482 -0.0063785 0.0039518 0.0063785
2746000000 0.0039987 0.0077083 0.9960013 -0.0077083 0.9960013 -0.0077083 0.0039987 0.0077083
2767000000 0.0040494 0.0090304 0.9959506 -0.0090304 0.9959506 -0.0090304 0.0040494 0.0090304
2788000000 0.0041040 0.0103451 0.9958960 -0.0103451 0.9958960 -0.0103451 0.0041040 0.0103451
2809000000 0.0041623 0.0116526 0.9958377 -0.0116526 0.9958377 -0.0116526 0.0041623 0.0116526
2830000000 0.0042244 0.0129531 0.9957756 -0.0129531 0.9957756 -0.0129531 0.0042244 0.0129531
2851000000 0.0042901 0.0142468 0.9957099 -0.0142468 0.9957099 -0.0142468 0.0042901 0.0142468
2872000000 0.0043595 0.0155339 0.9956405 -0.0155339 0.9956405 -0.0155339 0.0043595 0.0155339
2893000000 0.0044325 0.0168146 0.9955675 -0.0168146 0.9955675 -0.0168146 0.0044325 0.0168146
2914000000 0.0045091 0.0180891 0.9954909 -0.0180891 0.9954909 -0.0180891 0.0045091 0.0180891
2935000000 0.0045892 0.0193576 0.9954108 -0.0193576 0.9954108 -0.0193576 0.0045892 0.0193576
2956000000 0.0046729 0.0206202 0.9953271 -0.0206202 0.9953271 -0.0206202 0.0046729 0.0206202
2977000000 0.0047601 0.0218772 0.9952399 -0.0218772 0.9952399 -0.0218772 0.0047601 0.0218772
2998000000 0.0048507 0.0231288 0.9951493 -0.0231288 0.9951493 -0.0231288 0.0048507 0.0231288
3019000000 0.0049449 0.0243750 0.9950551 -0.0243750 0.9950551 -0.0243750 0.0049449 0.0243750
3040000000 0.0050424 0.0256161 0.9949576 -0.0256161 0.9949576 -0.0256161 0.0050424 0.0256161
3061000000 0.0051434 0.0268522 0.9948566 -0.0268522 0.9948566 -0.0268522 0.0051434 0.0268522
3082000000 0.0052478 0.0280835 0.9947522 -0.0280835 0.9947522 -0.0280835 0.0052478 0.0280835
3103000000 0.0053557 0.0293102 0.9946443 -0.0293102 0.9946443 -0.0293102 0.0053557 0.0293102
3124000000 0.0054669 0.0305324 0.9945331 -0.0305324 0.9945331 -0.0305324 0.0054669 0.0305324
3145000000 0.0055814 0.0317503 0.9944186 -0.0317503 0.9944186 -0.0317503 0.0055814 0.0317503
3166000000 0.0056994 0.0329640 0.9943006 -0.0329640 0.9943006 -0.0329640 0.0056994 0.0329640
3187000000 0.0058208 0.0341736 0.9941792 -0.0341736 0.9941792 -0.0341736 0.0058208 0.0341736
3208000000 0.0059455 0.0353794 0.9940545 -0.0353794 0.9940545 -0.0353794 0.0059455 0.0353794
3229000000 0.0060736 0.0365815 0.9939264 -0.0365815 0.9939264 -0.0365815 0.0060736 0.0365815
3250000000 0.0062050 0.0377800 0.9937950 -0.0377800 0.9937950 -0.0377800 0.0062050 0.0377800
3271000000 0.0063398 0.0389750 0.9936602 -0.0389750 0.9936602 -0.0389750 0.0063398 0.0389750
3292000000 0.0064781 0.0401667 0.9935219 -0.0401667 0.9935219 -0.0401667 0.0064781 0.0401667
3313000000 0.0066197 0.0413553 0.9933803 -0.0413553 0.9933803 -0.0413553 0.0066197 0.0413553
3334000000 0.0067647 0.0425408 0.9932353 -0.0425408 0.9932353 -0.0425408 0.0067647 0.0425408
3355000000 0.0069131 0.0437235 0.9930869 -0.0437235 0.9930869 -0.0437235 0.0069131 0.0437235
3376000000 0.0070649 0.0449033 0.9929351 -0.0449033 0.9929351 -0.0449033 0.0070649 0.0449033
3397000000 0.0072202 0.0460806 0.9927798 -0.0460806 0.9927798 -0.0460806 0.0072202 0.0460806
3418000000 0.0073789 0.0472553 0.9926211 -0.0472553 0.9926211 -0.0472553 0.0073789 0.0472553
3439000000 0.0075411 0.0484277 0.9924589 -0.0484277 0.9924589 -0.0484277 0.0075411 0.0484277
3460000000 0.0077068 0.0495978 0.9922932 -0.0495978 0.9922932 -0.0495978 0.0077068 0.0495978
3481000000 0.0078759 0.0507658 0.9921241 -0.0507658 0.9921241 -0.0507658 0.0078759 0.0507658
3502000000 0.0080487 0.0519318 0.9919513 -0.0519318 0.9919513 -0.0519318 0.0080487 0.0519318
3523000000 0.0082250 0.0530960 0.9917750 -0.0530960 0.9917750 -0.0530960 0.0082250 0.0530960
3544000000 0.0084049 0.0542584 0.9915951 -0.0542584 0.9915951 -0.0542584 0.0084049 0.0542584
3565000000 0.0085884 0.0554192 0.9914116 -0.0554192 0.9914116 -0.0554192 0.0085884 0.0554192
3586000000 0.0087756 0.0565786 0.9912244 -0.0565786 0.9912244 -0.0565786 0.0087756 0.0565786
3607000000 0.0089664 0.0577365 0.9910336 -0.0577365 0.9910336 -0.0577365 0.0089664 0.0577365
3628000000 0.0091611 0.0588933 0.9908389 -0.0588933 0.9908389 -0.0588933 0.0091611 0.0588933
3649000000 0.0093594 0.0600489 0.9906406 -0.0600489 0.9906406 -0.0600489 0.0093594 0.0600489
3670000000 0.0095616 0.0612035 0.9904384 -0.0612035 0.9904384 -0.0612035 0.0095616 0.0612035
3691000000 0.0097677 0.0623572 0.9902323 -0.0623572 0.9902323 -0.0623572 0.0097677 0.0623572
3712000000 0.0099777 0.0635102 0.9900223 -0.0635102 0.9900223 -0.0635102 0.0099777 0.0635102
3733000000 0.0101916 0.0646626 0.9898084 -0.0646626 0.9898084 -0.0646626 0.0101916 0.0646626
3754000000 0.0104095 0.0658145 0.9895905 -0.0658145 0.9895905 -0.0658145 0.0104095 0.0658145
3775000000 0.0106316 0.0669660 0.9893684 -0.0669660 0.9893684 -0.0669660 0.0106316 0.0669660
3796000000 0.0108577 0.0681173 0.9891423 -0.0681173 0.9891423 -0.0681173 0.0108577 0.0681173
3817000000 0.0110881 0.0692684 0.9889119 -0.0692684 0.9889119 -0.0692684 0.0110881 0.0692684
3838000000 0.0113227 0.0704196 0.9886773 -0.0704196 0.9886773 -0.0704196 0.0113227 0.0704196
3859000000 0.0115616 0.0715709 0.9884384 -0.0715709 0.9884384 -0.0715709 0.0115616 0.0715709
3880000000 0.0118050 0.0727224 0.9881950 -0.0727224 0.9881950 -0.0727224 0.0118050 0.0727224
3901000000 0.0120528 0.0738743 0.9879472 -0.0738743 0.9879472 -0.0738743 0.0120528 0.0738743
3922000000 0.0123052 0.0750268 0.9876948 -0.0750268 0.9876948 -0.0750268 0.0123052 0.0750268
3943000000 0.0125623 0.0761799 0.9874377 -0.0761799 0.9874377 -0.0761799 0.0125623 0.0761799
3964000000 0.0128241 0.0773338 0.9871759 -0.0773338 0.9871759 -0.0773338 0.0128241 0.0773338
3985000000 0.0130907 0.0784886 0.9869093 -0.0784886 0.9869093 -0.0784886 0.0130907 0.0784886
4006000000 0.0133623 0.0796445 0.9866377 -0.0796445 0.9866377 -0.0796445 0.0133623 0.0796445
4027000000 0.0136389 0.0808015 0.9863611 -0.0808015 0.9863611 -0.0808015 0.0136389 0.0808015
4048000000 0.0139207 0.0819599 0.9860793 -0.0819599 0.9860793 -0.0819599 0.0139207 0.0819599
4069000000 0.0142078 0.0831198 0.9857922 -0.0831198 0.9857922 -0.0831198 0.0142078 0.0831198
4090000000 0.0145002 0.0842813 0.9854998 -0.0842813 0.9854998 -0.0842813 0.0145002 0.0842813
4111000000 0.0147982 0.0854446 0.9852018 -0.0854446 0.9852018 -0.0854446 0.0147982 0.0854446
4132000000 0.0151018 0.0866098 0.9848982 -0.0866098 0.9848982 -0.0866098 0.0151018 0.0866098
4153000000 0.0154113 0.0877771 0.9845887 -0.0877771 0.9845887 -0.0877771 0.0154113 0.0877771
4174000000 0.0157267 0.0889466 0.9842733 -0.0889466 0.9842733 -0.0889466 0.0157267 0.0889466
4195000000 0.0160482 0.0901185 0.9839518 -0.0901185 0.9839518 -0.0901185 0.0160482 0.0901185
4216000000 0.0163760 0.0912929 0.9836240 -0.0912929 0.9836240 -0.0912929 0.0163760 0.0912929
4237000000 0.0167103 0.0924701 0.9832897 -0.0924701 0.9832897 -0.0924701 0.0167103 0.0924701
4258000000 0.0170512 0.0936501 0.9829488 -0.0936501 0.9829488 -0.0936501 0.0170512 0.0936501
4279000000 0.0173990 0.0948332 0.9826010 -0.0948332 0.9826010 -0.0948332 0.0173990 0.0948332
4300000000 0.0177538 0.0960195 0.9822462 -0.0960195 0.9822462 -0.0960195 0.0177538 0.0960195
4321000000 0.0181159 0.0972093 0.9818841 -0.0972093 0.9818841 -0.0972093 0.0181159 0.0972093
4342000000 0.0184855 0.0984027 0.9815145 -0.0984027 0.9815145 -0.0984027 0.0184855 0.0984027
4363000000 0.0188629 0.0995998 0.9811371 -0.0995998 0.9811371 -0.0995998 0.0188629 0.0995998
4384000000 0.0192483 0.1008009 0.9807517 -0.1008009 0.9807517 -0.1008009 0.0192483 0.1008009
4405000000 0.0196421 0.1020063 0.9803579 -0.1020063 0.9803579 -0.1020063 0.0196421 0.1020063
4426000000 0.0200444 0.1032160 0.9799556 -0.1032160 0.9799556 -0.1032160 0.0200444 0.1032160
4447000000 0.0204557 0.1044303 0.9795443 -0.1044303 0.9795443 -0.1044303 0.0204557 0.1044303
4468000000 0.0208762 0.1056494 0.9791238 -0.1056494 0.9791238 -0.1056494 0.0208762 0.1056494
4489000000 0.0213064 0.1068736 0.9786936 -0.1068736 0.9786936 -0.1068736 0.0213064 0.1068736
4510000000 0.0217465 0.1081031 0.9782535 -0.1081031 0.9782535 -0.1081031 0.0217465 0.1081031
