!Murata Part Number: GRM1885C2A9R6BA01
!These Parameters are Measured in Series Mode Connection
!Data Generated on Mar 30, 2021
!       o--ll--o
!Port1            Port2
!       o------o
!Operation Temp=25[degC], DC Bias Voltage=0[V]
!Freq. Start=100[MHz] Stop=9[GHz] 401[Steps]
# Hz S RI R 50
!Freq.(Hz) S11(Real) S11(Imag) S21(Real) S21(Imag) S12(Real) S12(Imag) S22(Real) S22(Imag)
100000000 0.7323684 -0.4424430 0.2676316 0.4424430 0.2676316 0.4424430 0.7323684 -0.4424430
121000000 0.6510873 -0.4762802 0.3489127 0.4762802 0.3489127 0.4762802 0.6510873 -0.4762802
142000000 0.5748925 -0.4939454 0.4251075 0.4939454 0.4251075 0.4939454 0.5748925 -0.4939454
163000000 0.5059478 -0.4994795 0.4940522 0.4994795 0.4940522 0.4994795 0.5059478 -0.4994795
184000000 0.4449561 -0.4964006 0.5550439 0.4964006 0.5550439 0.4964006 0.4449561 -0.4964006
205000000 0.3917413 -0.4874996 0.6082587 0.4874996 0.6082587 0.4874996 0.3917413 -0.4874996
226000000 0.3456742 -0.4748637 0.6543258 0.4748637 0.6543258 0.4748637 0.3456742 -0.4748637
247000000 0.3059437 -0.4599932 0.6940563 0.4599932 0.6940563 0.4599932 0.3059437 -0.4599932
268000000 0.2717114 -0.4439349 0.7282886 0.4439349 0.7282886 0.4439349 0.2717114 -0.4439349
289000000 0.2421899 -0.4274021 0.7578101 0.4274021 0.7578101 0.4274021 0.2421899 -0.4274021
310000000 0.2166770 -0.4108691 0.7833230 0.4108691 0.7833230 0.4108691 0.2166770 -0.4108691
331000000 0.1945642 -0.3946424 0.8054358 0.3946424 0.8054358 0.3946424 0.1945642 -0.3946424
352000000 0.1753333 -0.3789130 0.8246667 0.3789130 0.8246667 0.3789130 0.1753333 -0.3789130
373000000 0.1585474 -0.3637922 0.8414526 0.3637922 0.8414526 0.3637922 0.1585474 -0.3637922
394000000 0.1438402 -0.3493381 0.8561598 0.3493381 0.8561598 0.3493381 0.1438402 -0.3493381
415000000 0.1309050 -0.3355726 0.8690950 0.3355726 0.8690950 0.3355726 0.1309050 -0.3355726
436000000 0.1194853 -0.3224947 0.8805147 0.3224947 0.8805147 0.3224947 0.1194853 -0.3224947
457000000 0.1093662 -0.3100881 0.8906338 0.3100881 0.8906338 0.3100881 0.1093662 -0.3100881
478000000 0.1003675 -0.2983273 0.8996325 0.2983273 0.8996325 0.2983273 0.1003675 -0.2983273
499000000 0.0923374 -0.2871816 0.9076626 0.2871816 0.9076626 0.2871816 0.0923374 -0.2871816
520000000 0.0851477 -0.2766177 0.9148523 0.2766177 0.9148523 0.2766177 0.0851477 -0.2766177
541000000 0.0786901 -0.2666014 0.9213099 0.2666014 0.9213099 0.2666014 0.0786901 -0.2666014
562000000 0.0728724 -0.2570986 0.9271276 0.2570986 0.9271276 0.2570986 0.0728724 -0.2570986
583000000 0.0676160 -0.2480764 0.9323840 0.2480764 0.9323840 0.2480764 0.0676160 -0.2480764
604000000 0.0628536 -0.2395033 0.9371464 0.2395033 0.9371464 0.2395033 0.0628536 -0.2395033
625000000 0.0585274 -0.2313495 0.9414726 0.2313495 0.9414726 0.2313495 0.0585274 -0.2313495
646000000 0.0545875 -0.2235870 0.9454125 0.2235870 0.9454125 0.2235870 0.0545875 -0.2235870
667000000 0.0509911 -0.2161896 0.9490089 0.2161896 0.9490089 0.2161896 0.0509911 -0.2161896
688000000 0.0477005 -0.2091328 0.9522995 0.2091328 0.9522995 0.2091328 0.0477005 -0.2091328
709000000 0.0446835 -0.2023942 0.9553165 0.2023942 0.9553165 0.2023942 0.0446835 -0.2023942
730000000 0.0419114 -0.1959527 0.9580886 0.1959527 0.9580886 0.1959527 0.0419114 -0.1959527
751000000 0.0393596 -0.1897888 0.9606404 0.1897888 0.9606404 0.1897888 0.0393596 -0.1897888
772000000 0.0370060 -0.1838847 0.9629940 0.1838847 0.9629940 0.1838847 0.0370060 -0.1838847
793000000 0.0348315 -0.1782237 0.9651685 0.1782237 0.9651685 0.1782237 0.0348315 -0.1782237
814000000 0.0328190 -0.1727904 0.9671810 0.1727904 0.9671810 0.1727904 0.0328190 -0.1727904
835000000 0.0309535 -0.1675707 0.9690465 0.1675707 0.9690465 0.1675707 0.0309535 -0.1675707
856000000 0.0292216 -0.1625514 0.9707784 0.1625514 0.9707784 0.1625514 0.0292216 -0.1625514
877000000 0.0276115 -0.1577202 0.9723885 0.1577202 0.9723885 0.1577202 0.0276115 -0.1577202
898000000 0.0261125 -0.1530661 0.9738875 0.1530661 0.9738875 0.1530661 0.0261125 -0.1530661
919000000 0.0247150 -0.1485784 0.9752850 0.1485784 0.9752850 0.1485784 0.0247150 -0.1485784
940000000 0.0234107 -0.1442475 0.9765893 0.1442475 0.9765893 0.1442475 0.0234107 -0.1442475
961000000 0.0221918 -0.1400645 0.9778082 0.1400645 0.9778082 0.1400645 0.0221918 -0.1400645
982000000 0.0210515 -0.1360209 0.9789485 0.1360209 0.9789485 0.1360209 0.0210515 -0.1360209
1003000000 0.0199836 -0.1321089 0.9800164 0.1321089 0.9800164 0.1321089 0.0199836 -0.1321089
1024000000 0.0189825 -0.1283215 0.9810175 0.1283215 0.9810175 0.1283215 0.0189825 -0.1283215
1045000000 0.0180431 -0.1246517 0.9819569 0.1246517 0.9819569 0.1246517 0.0180431 -0.1246517
1066000000 0.0171608 -0.1210933 0.9828392 0.1210933 0.9828392 0.1210933 0.0171608 -0.1210933
1087000000 0.0163314 -0.1176406 0.9836686 0.1176406 0.9836686 0.1176406 0.0163314 -0.1176406
1108000000 0.0155511 -0.1142879 0.9844489 0.1142879 0.9844489 0.1142879 0.0155511 -0.1142879
1129000000 0.0148166 -0.1110302 0.9851834 0.1110302 0.9851834 0.1110302 0.0148166 -0.1110302
1150000000 0.0141245 -0.1078627 0.9858755 0.1078627 0.9858755 0.1078627 0.0141245 -0.1078627
1171000000 0.0134721 -0.1047809 0.9865279 0.1047809 0.9865279 0.1047809 0.0134721 -0.1047809
1192000000 0.0128567 -0.1017806 0.9871433 0.1017806 0.9871433 0.1017806 0.0128567 -0.1017806
1213000000 0.0122758 -0.0988579 0.9877242 0.0988579 0.9877242 0.0988579 0.0122758 -0.0988579
1234000000 0.0117273 -0.0960090 0.9882727 0.0960090 0.9882727 0.0960090 0.0117273 -0.0960090
1255000000 0.0112090 -0.0932305 0.9887910 0.0932305 0.9887910 0.0932305 0.0112090 -0.0932305
1276000000 0.0107192 -0.0905191 0.9892808 0.0905191 0.9892808 0.0905191 0.0107192 -0.0905191
1297000000 0.0102561 -0.0878718 0.9897439 0.0878718 0.9897439 0.0878718 0.0102561 -0.0878718
1318000000 0.0098180 -0.0852856 0.9901820 0.0852856 0.9901820 0.0852856 0.0098180 -0.0852856
1339000000 0.0094035 -0.0827578 0.9905965 0.0827578 0.9905965 0.0827578 0.0094035 -0.0827578
1360000000 0.0090112 -0.0802859 0.9909888 0.0802859 0.9909888 0.0802859 0.0090112 -0.0802859
1381000000 0.0086399 -0.0778673 0.9913601 0.0778673 0.9913601 0.0778673 0.0086399 -0.0778673
1402000000 0.0082884 -0.0754998 0.9917116 0.0754998 0.9917116 0.0754998 0.0082884 -0.0754998
1423000000 0.0079556 -0.0731813 0.9920444 0.0731813 0.9920444 0.0731813 0.0079556 -0.0731813
1444000000 0.0076405 -0.0709096 0.9923595 0.0709096 0.9923595 0.0709096 0.0076405 -0.0709096
1465000000 0.0073422 -0.0686828 0.9926578 0.0686828 0.9926578 0.0686828 0.0073422 -0.0686828
1486000000 0.0070597 -0.0664991 0.9929403 0.0664991 0.9929403 0.0664991 0.0070597 -0.0664991
1507000000 0.0067923 -0.0643567 0.9932077 0.0643567 0.9932077 0.0643567 0.0067923 -0.0643567
1528000000 0.0065391 -0.0622540 0.9934609 0.0622540 0.9934609 0.0622540 0.0065391 -0.0622540
1549000000 0.0062996 -0.0601894 0.9937004 0.0601894 0.9937004 0.0601894 0.0062996 -0.0601894
1570000000 0.0060730 -0.0581613 0.9939270 0.0581613 0.9939270 0.0581613 0.0060730 -0.0581613
1591000000 0.0058587 -0.0561684 0.9941413 0.0561684 0.9941413 0.0561684 0.0058587 -0.0561684
1612000000 0.0056562 -0.0542093 0.9943438 0.0542093 0.9943438 0.0542093 0.0056562 -0.0542093
1633000000 0.0054649 -0.0522828 0.9945351 0.0522828 0.9945351 0.0522828 0.0054649 -0.0522828
1654000000 0.0052842 -0.0503875 0.9947158 0.0503875 0.9947158 0.0503875 0.0052842 -0.0503875
1675000000 0.0051138 -0.0485224 0.9948862 0.0485224 0.9948862 0.0485224 0.0051138 -0.0485224
1696000000 0.0049531 -0.0466862 0.9950469 0.0466862 0.9950469 0.0466862 0.0049531 -0.0466862
1717000000 0.0048018 -0.0448780 0.9951982 0.0448780 0.9951982 0.0448780 0.0048018 -0.0448780
1738000000 0.0046595 -0.0430968 0.9953405 0.0430968 0.9953405 0.0430968 0.0046595 -0.0430968
1759000000 0.0045257 -0.0413414 0.9954743 0.0413414 0.9954743 0.0413414 0.0045257 -0.0413414
1780000000 0.0044002 -0.0396112 0.9955998 0.0396112 0.9955998 0.0396112 0.0044002 -0.0396112
1801000000 0.0042825 -0.0379050 0.9957175 0.0379050 0.9957175 0.0379050 0.0042825 -0.0379050
1822000000 0.0041725 -0.0362222 0.9958275 0.0362222 0.9958275 0.0362222 0.0041725 -0.0362222
1843000000 0.0040699 -0.0345618 0.9959301 0.0345618 0.9959301 0.0345618 0.0040699 -0.0345618
1864000000 0.0039742 -0.0329231 0.9960258 0.0329231 0.9960258 0.0329231 0.0039742 -0.0329231
1885000000 0.0038854 -0.0313054 0.9961146 0.0313054 0.9961146 0.0313054 0.0038854 -0.0313054
1906000000 0.0038031 -0.0297080 0.9961969 0.0297080 0.9961969 0.0297080 0.0038031 -0.0297080
1927000000 0.0037271 -0.0281301 0.9962729 0.0281301 0.9962729 0.0281301 0.0037271 -0.0281301
1948000000 0.0036572 -0.0265711 0.9963428 0.0265711 0.9963428 0.0265711 0.0036572 -0.0265711
1969000000 0.0035932 -0.0250303 0.9964068 0.0250303 0.9964068 0.0250303 0.0035932 -0.0250303
1990000000 0.0035349 -0.0235072 0.9964651 0.0235072 0.9964651 0.0235072 0.0035349 -0.0235072
2011000000 0.0034822 -0.0220012 0.9965178 0.0220012 0.9965178 0.0220012 0.0034822 -0.0220012
2032000000 0.0034348 -0.0205117 0.9965652 0.0205117 0.9965652 0.0205117 0.0034348 -0.0205117
2053000000 0.0033926 -0.0190382 0.9966074 0.0190382 0.9966074 0.0190382 0.0033926 -0.0190382
2074000000 0.0033554 -0.0175801 0.9966446 0.0175801 0.9966446 0.0175801 0.0033554 -0.0175801
2095000000 0.0033231 -0.0161370 0.9966769 0.0161370 0.9966769 0.0161370 0.0033231 -0.0161370
2116000000 0.0032956 -0.0147084 0.9967044 0.0147084 0.9967044 0.0147084 0.0032956 -0.0147084
2137000000 0.0032727 -0.0132937 0.9967273 0.0132937 0.9967273 0.0132937 0.0032727 -0.0132937
2158000000 0.0032543 -0.0118926 0.9967457 0.0118926 0.9967457 0.0118926 0.0032543 -0.0118926
2179000000 0.0032403 -0.0105046 0.9967597 0.0105046 0.9967597 0.0105046 0.0032403 -0.0105046
2200000000 0.0032306 -0.0091293 0.9967694 0.0091293 0.9967694 0.0091293 0.0032306 -0.0091293
2221000000 0.0032250 -0.0077663 0.9967750 0.0077663 0.9967750 0.0077663 0.0032250 -0.0077663
2242000000 0.0032236 -0.0064152 0.9967764 0.0064152 0.9967764 0.0064152 0.0032236 -0.0064152
2263000000 0.0032261 -0.0050756 0.9967739 0.0050756 0.9967739 0.0050756 0.0032261 -0.0050756
2284000000 0.0032325 -0.0037472 0.9967675 0.0037472 0.9967675 0.0037472 0.0032325 -0.0037472
2305000000 0.0032428 -0.0024296 0.9967572 0.0024296 0.9967572 0.0024296 0.0032428 -0.0024296
2326000000 0.0032568 -0.0011224 0.9967432 0.0011224 0.9967432 0.0011224 0.0032568 -0.0011224
2347000000 0.0032744 0.0001746 0.9967256 -0.0001746 0.9967256 -0.0001746 0.0032744 0.0001746
2368000000 0.0032957 0.0014619 0.9967043 -0.0014619 0.9967043 -0.0014619 0.0032957 0.0014619
2389000000 0.0033205 0.0027397 0.9966795 -0.0027397 0.9966795 -0.0027397 0.0033205 0.0027397
2410000000 0.0033488 0.0040083 0.9966512 -0.0040083 0.9966512 -0.0040083 0.0033488 0.0040083
2431000000 0.0033805 0.0052680 0.9966195 -0.0052680 0.9966195 -0.0052680 0.0033805 0.0052680
2452000000 0.0034155 0.0065191 0.9965845 -0.0065191 0.9965845 -0.0065191 0.0034155 0.0065191
2473000000 0.0034539 0.0077619 0.9965461 -0.0077619 0.9965461 -0.0077619 0.0034539 0.0077619
2494000000 0.0034956 0.0089967 0.9965044 -0.0089967 0.9965044 -0.0089967 0.0034956 0.0089967
2515000000 0.0035405 0.0102237 0.9964595 -0.0102237 0.9964595 -0.0102237 0.0035405 0.0102237
2536000000 0.0035886 0.0114432 0.9964114 -0.0114432 0.9964114 -0.0114432 0.0035886 0.0114432
2557000000 0.0036399 0.0126555 0.9963601 -0.0126555 0.9963601 -0.0126555 0.0036399 0.0126555
2578000000 0.0036943 0.0138607 0.9963057 -0.0138607 0.9963057 -0.0138607 0.0036943 0.0138607
2599000000 0.0037518 0.0150592 0.9962482 -0.0150592 0.9962482 -0.0150592 0.0037518 0.0150592
2620000000 0.0038124 0.0162511 0.9961876 -0.0162511 0.9961876 -0.0162511 0.0038124 0.0162511
2641000000 0.0038761 0.0174368 0.9961239 -0.0174368 0.9961239 -0.0174368 0.0038761 0.0174368
2662000000 0.0039427 0.0186163 0.9960573 -0.0186163 0.9960573 -0.0186163 0.0039427 0.0186163
2683000000 0.0040124 0.0197901 0.9959876 -0.0197901 0.9959876 -0.0197901 0.0040124 0.0197901
2704000000 0.0040851 0.0209582 0.9959149 -0.0209582 0.9959149 -0.0209582 0.0040851 0.0209582
2725000000 0.0041608 0.0221208 0.9958392 -0.0221208 0.9958392 -0.0221208 0.0041608 0.0221208
2746000000 0.0042394 0.0232783 0.9957606 -0.0232783 0.9957606 -0.0232783 0.0042394 0.0232783
2767000000 0.0043210 0.0244308 0.9956790 -0.0244308 0.9956790 -0.0244308 0.0043210 0.0244308
2788000000 0.0044056 0.0255785 0.9955944 -0.0255785 0.9955944 -0.0255785 0.0044056 0.0255785
2809000000 0.0044932 0.0267216 0.9955068 -0.0267216 0.9955068 -0.0267216 0.0044932 0.0267216
2830000000 0.0045837 0.0278603 0.9954163 -0.0278603 0.9954163 -0.0278603 0.0045837 0.0278603
2851000000 0.0046772 0.0289948 0.9953228 -0.0289948 0.9953228 -0.0289948 0.0046772 0.0289948
2872000000 0.0047736 0.0301253 0.9952264 -0.0301253 0.9952264 -0.0301253 0.0047736 0.0301253
2893000000 0.0048731 0.0312520 0.9951269 -0.0312520 0.9951269 -0.0312520 0.0048731 0.0312520
2914000000 0.0049755 0.0323751 0.9950245 -0.0323751 0.9950245 -0.0323751 0.0049755 0.0323751
2935000000 0.0050810 0.0334948 0.9949190 -0.0334948 0.9949190 -0.0334948 0.0050810 0.0334948
2956000000 0.0051895 0.0346112 0.9948105 -0.0346112 0.9948105 -0.0346112 0.0051895 0.0346112
2977000000 0.0053011 0.0357246 0.9946989 -0.0357246 0.9946989 -0.0357246 0.0053011 0.0357246
2998000000 0.0054157 0.0368351 0.9945843 -0.0368351 0.9945843 -0.0368351 0.0054157 0.0368351
3019000000 0.0055334 0.0379429 0.9944666 -0.0379429 0.9944666 -0.0379429 0.0055334 0.0379429
3040000000 0.0056543 0.0390482 0.9943457 -0.0390482 0.9943457 -0.0390482 0.0056543 0.0390482
3061000000 0.0057784 0.0401512 0.9942216 -0.0401512 0.9942216 -0.0401512 0.0057784 0.0401512
3082000000 0.0059056 0.0412521 0.9940944 -0.0412521 0.9940944 -0.0412521 0.0059056 0.0412521
3103000000 0.0060362 0.0423511 0.9939638 -0.0423511 0.9939638 -0.0423511 0.0060362 0.0423511
3124000000 0.0061700 0.0434483 0.9938300 -0.0434483 0.9938300 -0.0434483 0.0061700 0.0434483
3145000000 0.0063072 0.0445439 0.9936928 -0.0445439 0.9936928 -0.0445439 0.0063072 0.0445439
3166000000 0.0064477 0.0456382 0.9935523 -0.0456382 0.9935523 -0.0456382 0.0064477 0.0456382
3187000000 0.0065918 0.0467313 0.9934082 -0.0467313 0.9934082 -0.0467313 0.0065918 0.0467313
3208000000 0.0067394 0.0478234 0.9932606 -0.0478234 0.9932606 -0.0478234 0.0067394 0.0478234
3229000000 0.0068905 0.0489147 0.9931095 -0.0489147 0.9931095 -0.0489147 0.0068905 0.0489147
3250000000 0.0070454 0.0500054 0.9929546 -0.0500054 0.9929546 -0.0500054 0.0070454 0.0500054
3271000000 0.0072039 0.0510957 0.9927961 -0.0510957 0.9927961 -0.0510957 0.0072039 0.0510957
3292000000 0.0073664 0.0521858 0.9926336 -0.0521858 0.9926336 -0.0521858 0.0073664 0.0521858
3313000000 0.0075327 0.0532760 0.9924673 -0.0532760 0.9924673 -0.0532760 0.0075327 0.0532760
3334000000 0.0077031 0.0543664 0.9922969 -0.0543664 0.9922969 -0.0543664 0.0077031 0.0543664
3355000000 0.0078776 0.0554572 0.9921224 -0.0554572 0.9921224 -0.0554572 0.0078776 0.0554572
3376000000 0.0080564 0.0565487 0.9919436 -0.0565487 0.9919436 -0.0565487 0.0080564 0.0565487
3397000000 0.0082396 0.0576411 0.9917604 -0.0576411 0.9917604 -0.0576411 0.0082396 0.0576411
3418000000 0.0084272 0.0587347 0.9915728 -0.0587347 0.9915728 -0.0587347 0.0084272 0.0587347
3439000000 0.0086195 0.0598296 0.9913805 -0.0598296 0.9913805 -0.0598296 0.0086195 0.0598296
3460000000 0.0088166 0.0609261 0.9911834 -0.0609261 0.9911834 -0.0609261 0.0088166 0.0609261
3481000000 0.0090187 0.0620245 0.9909813 -0.0620245 0.9909813 -0.0620245 0.0090187 0.0620245
3502000000 0.0092259 0.0631250 0.9907741 -0.0631250 0.9907741 -0.0631250 0.0092259 0.0631250
3523000000 0.0094385 0.0642279 0.9905615 -0.0642279 0.9905615 -0.0642279 0.0094385 0.0642279
3544000000 0.0096565 0.0653335 0.9903435 -0.0653335 0.9903435 -0.0653335 0.0096565 0.0653335
3565000000 0.0098804 0.0664421 0.9901196 -0.0664421 0.9901196 -0.0664421 0.0098804 0.0664421
3586000000 0.0101102 0.0675540 0.9898898 -0.0675540 0.9898898 -0.0675540 0.0101102 0.0675540
3607000000 0.0103463 0.0686695 0.9896537 -0.0686695 0.9896537 -0.0686695 0.0103463 0.0686695
3628000000 0.0105889 0.0697888 0.9894111 -0.0697888 0.9894111 -0.0697888 0.0105889 0.0697888
3649000000 0.0108383 0.0709125 0.9891617 -0.0709125 0.9891617 -0.0709125 0.0108383 0.0709125
3670000000 0.0110948 0.0720407 0.9889052 -0.0720407 0.9889052 -0.0720407 0.0110948 0.0720407
3691000000 0.0113589 0.0731739 0.9886411 -0.0731739 0.9886411 -0.0731739 0.0113589 0.0731739
3712000000 0.0116308 0.0743125 0.9883692 -0.0743125 0.9883692 -0.0743125 0.0116308 0.0743125
3733000000 0.0119110 0.0754569 0.9880890 -0.0754569 0.9880890 -0.0754569 0.0119110 0.0754569
3754000000 0.0122000 0.0766075 0.9878000 -0.0766075 0.9878000 -0.0766075 0.0122000 0.0766075
3775000000 0.0124981 0.0777647 0.9875019 -0.0777647 0.9875019 -0.0777647 0.0124981 0.0777647
3796000000 0.0128060 0.0789291 0.9871940 -0.0789291 0.9871940 -0.0789291 0.0128060 0.0789291
3817000000 0.0131243 0.0801011 0.9868757 -0.0801011 0.9868757 -0.0801011 0.0131243 0.0801011
3838000000 0.0134535 0.0812812 0.9865465 -0.0812812 0.9865465 -0.0812812 0.0134535 0.0812812
3859000000 0.0137943 0.0824701 0.9862057 -0.0824701 0.9862057 -0.0824701 0.0137943 0.0824701
3880000000 0.0141476 0.0836682 0.9858524 -0.0836682 0.9858524 -0.0836682 0.0141476 0.0836682
3901000000 0.0145141 0.0848761 0.9854859 -0.0848761 0.9854859 -0.0848761 0.0145141 0.0848761
3922000000 0.0148948 0.0860946 0.9851052 -0.0860946 0.9851052 -0.0860946 0.0148948 0.0860946
3943000000 0.0152907 0.0873243 0.9847093 -0.0873243 0.9847093 -0.0873243 0.0152907 0.0873243
3964000000 0.0157029 0.0885659 0.9842971 -0.0885659 0.9842971 -0.0885659 0.0157029 0.0885659
3985000000 0.0161326 0.0898201 0.9838674 -0.0898201 0.9838674 -0.0898201 0.0161326 0.0898201
4006000000 0.0165813 0.0910878 0.9834187 -0.0910878 0.9834187 -0.0910878 0.0165813 0.0910878
4027000000 0.0170504 0.0923697 0.9829496 -0.0923697 0.9829496 -0.0923697 0.0170504 0.0923697
4048000000 0.0175417 0.0936668 0.9824583 -0.0936668 0.9824583 -0.0936668 0.0175417 0.0936668
4069000000 0.0180571 0.0949799 0.9819429 -0.0949799 0.9819429 -0.0949799 0.0180571 0.0949799
4090000000 0.0185986 0.0963101 0.9814014 -0.0963101 0.9814014 -0.0963101 0.0185986 0.0963101
4111000000 0.0191688 0.0976582 0.9808312 -0.0976582 0.9808312 -0.0976582 0.0191688 0.0976582
4132000000 0.0197702 0.0990253 0.9802298 -0.0990253 0.9802298 -0.0990253 0.0197702 0.0990253
4153000000 0.0204060 0.1004124 0.9795940 -0.1004124 0.9795940 -0.1004124 0.0204060 0.1004124
4174000000 0.0210795 0.1018206 0.9789205 -0.1018206 0.9789205 -0.1018206 0.0210795 0.1018206
4195000000 0.0217946 0.1032509 0.9782054 -0.1032509 0.9782054 -0.1032509 0.0217946 0.1032509
4216000000 0.0225557 0.1047044 0.9774443 -0.1047044 0.9774443 -0.1047044 0.0225557 0.1047044
4237000000 0.0233678 0.1061819 0.9766322 -0.1061819 0.9766322 -0.1061819 0.0233678 0.1061819
4258000000 0.0242367 0.1076843 0.9757633 -0.1076843 0.9757633 -0.1076843 0.0242367 0.1076843
4279000000 0.0251689 0.1092123 0.9748311 -0.1092123 0.9748311 -0.1092123 0.0251689 0.1092123
4300000000 0.0261719 0.1107663 0.9738281 -0.1107663 0.9738281 -0.1107663 0.0261719 0.1107663
4321000000 0.0272542 0.1123463 0.9727458 -0.1123463 0.9727458 -0.1123463 0.0272542 0.1123463
4342000000 0.0284258 0.1139520 0.9715742 -0.1139520 0.9715742 -0.1139520 0.0284258 0.1139520
4363000000 0.0296981 0.1155821 0.9703019 -0.1155821 0.9703019 -0.1155821 0.0296981 0.1155821
4384000000 0.0310843 0.1172345 0.9689157 -0.1172345 0.9689157 -0.1172345 0.0310843 0.1172345
4405000000 0.0325995 0.1189055 0.9674005 -0.1189055 0.9674005 -0.1189055 0.0325995 0.1189055
4426000000 0.0342612 0.1205898 0.9657388 -0.1205898 0.9657388 -0.1205898 0.0342612 0.1205898
4447000000 0.0360895 0.1222794 0.9639105 -0.1222794 0.9639105 -0.1222794 0.0360895 0.1222794
4468000000 0.0381073 0.1239627 0.9618927 -0.1239627 0.9618927 -0.1239627 0.0381073 0.1239627
4489000000 0.0403406 0.1256238 0.9596594 -0.1256238 0.9596594 -0.1256238 0.0403406 0.1256238
4510000000 0.0428187 0.1272400 0.9571813 -0.1272400 0.9571813 -0.1272400 0.0428187 0.1272400
