!Murata Part Number: GRM1883U1H122JA01
!These Parameters are Measured in Series Mode Connection
!Data Generated on Mar 30, 2021
!       o--ll--o
!Port1            Port2
!       o------o
!Operation Temp=25[degC], DC Bias Voltage=0[V]
!Freq. Start=1000[kHz] Stop=6[GHz] 401[Steps]
# Hz S RI R 50
!Freq.(Hz) S11(Real) S11(Imag) S21(Real) S21(Imag) S12(Real) S12(Imag) S22(Real) S22(Imag)
1000000 0.6480843 -0.4774654 0.3519157 0.4774654 0.3519157 0.4774654 0.6480843 -0.4774654
1021987 0.6381019 -0.4804449 0.3618981 0.4804449 0.3618981 0.4804449 0.6381019 -0.4804449
1044457 0.6279989 -0.4832317 0.3720011 0.4832317 0.3720011 0.4832317 0.6279989 -0.4832317
1067422 0.6177828 -0.4858199 0.3822172 0.4858199 0.3822172 0.4858199 0.6177828 -0.4858199
1090891 0.6074616 -0.4882037 0.3925384 0.4882037 0.3925384 0.4882037 0.6074616 -0.4882037
1114877 0.5970435 -0.4903779 0.4029565 0.4903779 0.4029565 0.4903779 0.5970435 -0.4903779
1139390 0.5865371 -0.4923376 0.4134629 0.4923376 0.4134629 0.4923376 0.5865371 -0.4923376
1164441 0.5759515 -0.4940784 0.4240485 0.4940784 0.4240485 0.4940784 0.5759515 -0.4940784
1190044 0.5652957 -0.4955962 0.4347043 0.4955962 0.4347043 0.4955962 0.5652957 -0.4955962
1216210 0.5545793 -0.4968875 0.4454207 0.4968875 0.4454207 0.4968875 0.5545793 -0.4968875
1242950 0.5438119 -0.4979494 0.4561881 0.4979494 0.4561881 0.4979494 0.5438119 -0.4979494
1270279 0.5330035 -0.4987793 0.4669965 0.4987793 0.4669965 0.4987793 0.5330035 -0.4987793
1298209 0.5221642 -0.4993754 0.4778358 0.4993754 0.4778358 0.4993754 0.5221642 -0.4993754
1326753 0.5113039 -0.4997361 0.4886961 0.4997361 0.4886961 0.4997361 0.5113039 -0.4997361
1355924 0.5004331 -0.4998607 0.4995669 0.4998607 0.4995669 0.4998607 0.5004331 -0.4998607
1385737 0.4895619 -0.4997489 0.5104381 0.4997489 0.5104381 0.4997489 0.4895619 -0.4997489
1416205 0.4787006 -0.4994008 0.5212994 0.4994008 0.5212994 0.4994008 0.4787006 -0.4994008
1447343 0.4678596 -0.4988174 0.5321404 0.4988174 0.5321404 0.4988174 0.4678596 -0.4988174
1479166 0.4570488 -0.4979999 0.5429512 0.4979999 0.5429512 0.4979999 0.4570488 -0.4979999
1511688 0.4462785 -0.4969504 0.5537215 0.4969504 0.5537215 0.4969504 0.4462785 -0.4969504
1544926 0.4355585 -0.4956712 0.5644415 0.4956712 0.5644415 0.4956712 0.4355585 -0.4956712
1578894 0.4248984 -0.4941654 0.5751016 0.4941654 0.5751016 0.4941654 0.4248984 -0.4941654
1613609 0.4143079 -0.4924363 0.5856921 0.4924363 0.5856921 0.4924363 0.4143079 -0.4924363
1649087 0.4037960 -0.4904880 0.5962040 0.4904880 0.5962040 0.4904880 0.4037960 -0.4904880
1685346 0.3933719 -0.4883249 0.6066281 0.4883249 0.6066281 0.4883249 0.3933719 -0.4883249
1722402 0.3830441 -0.4859518 0.6169559 0.4859518 0.6169559 0.4859518 0.3830441 -0.4859518
1760272 0.3728209 -0.4833740 0.6271791 0.4833740 0.6271791 0.4833740 0.3728209 -0.4833740
1798975 0.3627103 -0.4805971 0.6372897 0.4805971 0.6372897 0.4805971 0.3627103 -0.4805971
1838529 0.3527197 -0.4776272 0.6472803 0.4776272 0.6472803 0.4776272 0.3527197 -0.4776272
1878953 0.3428565 -0.4744706 0.6571435 0.4744706 0.6571435 0.4744706 0.3428565 -0.4744706
1920266 0.3331272 -0.4711338 0.6668728 0.4711338 0.6668728 0.4711338 0.3331272 -0.4711338
1962487 0.3235382 -0.4676239 0.6764618 0.4676239 0.6764618 0.4676239 0.3235382 -0.4676239
2005636 0.3140954 -0.4639479 0.6859046 0.4639479 0.6859046 0.4639479 0.3140954 -0.4639479
2049734 0.3048041 -0.4601131 0.6951959 0.4601131 0.6951959 0.4601131 0.3048041 -0.4601131
2094801 0.2956693 -0.4561270 0.7043307 0.4561270 0.7043307 0.4561270 0.2956693 -0.4561270
2140860 0.2866956 -0.4519972 0.7133044 0.4519972 0.7133044 0.4519972 0.2866956 -0.4519972
2187931 0.2778869 -0.4477315 0.7221131 0.4477315 0.7221131 0.4477315 0.2778869 -0.4477315
2236037 0.2692468 -0.4433375 0.7307532 0.4433375 0.7307532 0.4433375 0.2692468 -0.4433375
2285201 0.2607785 -0.4388232 0.7392215 0.4388232 0.7392215 0.4388232 0.2607785 -0.4388232
2335446 0.2524848 -0.4341964 0.7475152 0.4341964 0.7475152 0.4341964 0.2524848 -0.4341964
2386795 0.2443677 -0.4294649 0.7556323 0.4294649 0.7556323 0.4294649 0.2443677 -0.4294649
2439274 0.2364293 -0.4246364 0.7635707 0.4246364 0.7635707 0.4246364 0.2364293 -0.4246364
2492906 0.2286709 -0.4197187 0.7713291 0.4197187 0.7713291 0.4197187 0.2286709 -0.4197187
2547717 0.2210935 -0.4147194 0.7789065 0.4147194 0.7789065 0.4147194 0.2210935 -0.4147194
2603734 0.2136978 -0.4096461 0.7863022 0.4096461 0.7863022 0.4096461 0.2136978 -0.4096461
2660982 0.2064842 -0.4045060 0.7935158 0.4045060 0.7935158 0.4045060 0.2064842 -0.4045060
2719490 0.1994525 -0.3993065 0.8005475 0.3993065 0.8005475 0.3993065 0.1994525 -0.3993065
2779283 0.1926023 -0.3940547 0.8073977 0.3940547 0.8073977 0.3940547 0.1926023 -0.3940547
2840391 0.1859329 -0.3887573 0.8140671 0.3887573 0.8140671 0.3887573 0.1859329 -0.3887573
2902843 0.1794434 -0.3834213 0.8205566 0.3834213 0.8205566 0.3834213 0.1794434 -0.3834213
2966668 0.1731324 -0.3780529 0.8268676 0.3780529 0.8268676 0.3780529 0.1731324 -0.3780529
3031896 0.1669984 -0.3726587 0.8330016 0.3726587 0.8330016 0.3726587 0.1669984 -0.3726587
3098558 0.1610397 -0.3672445 0.8389603 0.3672445 0.8389603 0.3672445 0.1610397 -0.3672445
3166686 0.1552541 -0.3618163 0.8447459 0.3618163 0.8447459 0.3618163 0.1552541 -0.3618163
3236312 0.1496396 -0.3563798 0.8503604 0.3563798 0.8503604 0.3563798 0.1496396 -0.3563798
3307469 0.1441936 -0.3509403 0.8558064 0.3509403 0.8558064 0.3509403 0.1441936 -0.3509403
3380190 0.1389138 -0.3455029 0.8610862 0.3455029 0.8610862 0.3455029 0.1389138 -0.3455029
3454511 0.1337973 -0.3400726 0.8662027 0.3400726 0.8662027 0.3400726 0.1337973 -0.3400726
3530465 0.1288413 -0.3346540 0.8711587 0.3346540 0.8711587 0.3346540 0.1288413 -0.3346540
3608090 0.1240428 -0.3292517 0.8759572 0.3292517 0.8759572 0.3292517 0.1240428 -0.3292517
3687421 0.1193988 -0.3238697 0.8806012 0.3238697 0.8806012 0.3238697 0.1193988 -0.3238697
3768496 0.1149061 -0.3185122 0.8850939 0.3185122 0.8850939 0.3185122 0.1149061 -0.3185122
3851354 0.1105615 -0.3131827 0.8894385 0.3131827 0.8894385 0.3131827 0.1105615 -0.3131827
3936034 0.1063617 -0.3078849 0.8936383 0.3078849 0.8936383 0.3078849 0.1063617 -0.3078849
4022575 0.1023034 -0.3026221 0.8976966 0.3026221 0.8976966 0.3026221 0.1023034 -0.3026221
4111020 0.0983832 -0.2973973 0.9016168 0.2973973 0.9016168 0.2973973 0.0983832 -0.2973973
4201409 0.0945976 -0.2922134 0.9054024 0.2922134 0.9054024 0.2922134 0.0945976 -0.2922134
4293785 0.0909433 -0.2870730 0.9090567 0.2870730 0.9090567 0.2870730 0.0909433 -0.2870730
4388193 0.0874168 -0.2819787 0.9125832 0.2819787 0.9125832 0.2819787 0.0874168 -0.2819787
4484676 0.0840147 -0.2769328 0.9159853 0.2769328 0.9159853 0.2769328 0.0840147 -0.2769328
4583281 0.0807336 -0.2719372 0.9192664 0.2719372 0.9192664 0.2719372 0.0807336 -0.2719372
4684054 0.0775702 -0.2669939 0.9224298 0.2669939 0.9224298 0.2669939 0.0775702 -0.2669939
4787042 0.0745209 -0.2621048 0.9254791 0.2621048 0.9254791 0.2621048 0.0745209 -0.2621048
4892295 0.0715825 -0.2572712 0.9284175 0.2572712 0.9284175 0.2572712 0.0715825 -0.2572712
4999862 0.0687517 -0.2524948 0.9312483 0.2524948 0.9312483 0.2524948 0.0687517 -0.2524948
5109794 0.0660252 -0.2477766 0.9339748 0.2477766 0.9339748 0.2477766 0.0660252 -0.2477766
5222143 0.0633999 -0.2431179 0.9366001 0.2431179 0.9366001 0.2431179 0.0633999 -0.2431179
5336962 0.0608724 -0.2385197 0.9391276 0.2385197 0.9391276 0.2385197 0.0608724 -0.2385197
5454306 0.0584398 -0.2339827 0.9415602 0.2339827 0.9415602 0.2339827 0.0584398 -0.2339827
5574230 0.0560989 -0.2295078 0.9439011 0.2295078 0.9439011 0.2295078 0.0560989 -0.2295078
5696791 0.0538468 -0.2250956 0.9461532 0.2250956 0.9461532 0.2250956 0.0538468 -0.2250956
5822046 0.0516805 -0.2207465 0.9483195 0.2207465 0.9483195 0.2207465 0.0516805 -0.2207465
5950055 0.0495971 -0.2164609 0.9504029 0.2164609 0.9504029 0.2164609 0.0495971 -0.2164609
6080879 0.0475939 -0.2122392 0.9524061 0.2122392 0.9524061 0.2122392 0.0475939 -0.2122392
6214580 0.0456682 -0.2080816 0.9543318 0.2080816 0.9543318 0.2080816 0.0456682 -0.2080816
6351220 0.0438171 -0.2039882 0.9561829 0.2039882 0.9561829 0.2039882 0.0438171 -0.2039882
6490864 0.0420381 -0.1999591 0.9579619 0.1999591 0.9579619 0.1999591 0.0420381 -0.1999591
6633579 0.0403288 -0.1959941 0.9596712 0.1959941 0.9596712 0.1959941 0.0403288 -0.1959941
6779431 0.0386865 -0.1920932 0.9613135 0.1920932 0.9613135 0.1920932 0.0386865 -0.1920932
6928491 0.0371089 -0.1882563 0.9628911 0.1882563 0.9628911 0.1882563 0.0371089 -0.1882563
7080828 0.0355937 -0.1844830 0.9644063 0.1844830 0.9644063 0.1844830 0.0355937 -0.1844830
7236514 0.0341386 -0.1807732 0.9658614 0.1807732 0.9658614 0.1807732 0.0341386 -0.1807732
7395623 0.0327414 -0.1771264 0.9672586 0.1771264 0.9672586 0.1771264 0.0327414 -0.1771264
7558231 0.0314000 -0.1735422 0.9686000 0.1735422 0.9686000 0.1735422 0.0314000 -0.1735422
7724414 0.0301123 -0.1700203 0.9698877 0.1700203 0.9698877 0.1700203 0.0301123 -0.1700203
7894251 0.0288762 -0.1665601 0.9711238 0.1665601 0.9711238 0.1665601 0.0288762 -0.1665601
8067822 0.0276899 -0.1631611 0.9723101 0.1631611 0.9723101 0.1631611 0.0276899 -0.1631611
8245209 0.0265515 -0.1598228 0.9734485 0.1598228 0.9734485 0.1598228 0.0265515 -0.1598228
8426497 0.0254591 -0.1565446 0.9745409 0.1565446 0.9745409 0.1565446 0.0254591 -0.1565446
8611770 0.0244110 -0.1533258 0.9755890 0.1533258 0.9755890 0.1533258 0.0244110 -0.1533258
8801117 0.0234055 -0.1501658 0.9765945 0.1501658 0.9765945 0.1501658 0.0234055 -0.1501658
8994628 0.0224410 -0.1470641 0.9775590 0.1470641 0.9775590 0.1470641 0.0224410 -0.1470641
9192393 0.0215158 -0.1440198 0.9784842 0.1440198 0.9784842 0.1440198 0.0215158 -0.1440198
9394506 0.0206285 -0.1410322 0.9793715 0.1410322 0.9793715 0.1410322 0.0206285 -0.1410322
9601063 0.0197776 -0.1381007 0.9802224 0.1381007 0.9802224 0.1381007 0.0197776 -0.1381007
9812162 0.0189616 -0.1352246 0.9810384 0.1352246 0.9810384 0.1352246 0.0189616 -0.1352246
10027902 0.0181791 -0.1324030 0.9818209 0.1324030 0.9818209 0.1324030 0.0181791 -0.1324030
10248386 0.0174289 -0.1296352 0.9825711 0.1296352 0.9825711 0.1296352 0.0174289 -0.1296352
10473717 0.0167097 -0.1269205 0.9832903 0.1269205 0.9832903 0.1269205 0.0167097 -0.1269205
10704003 0.0160203 -0.1242580 0.9839797 0.1242580 0.9839797 0.1242580 0.0160203 -0.1242580
10939352 0.0153594 -0.1216471 0.9846406 0.1216471 0.9846406 0.1216471 0.0153594 -0.1216471
11179876 0.0147259 -0.1190868 0.9852741 0.1190868 0.9852741 0.1190868 0.0147259 -0.1190868
11425688 0.0141187 -0.1165766 0.9858813 0.1165766 0.9858813 0.1165766 0.0141187 -0.1165766
11676904 0.0135368 -0.1141154 0.9864632 0.1141154 0.9864632 0.1141154 0.0135368 -0.1141154
11933645 0.0129791 -0.1117026 0.9870209 0.1117026 0.9870209 0.1117026 0.0129791 -0.1117026
12196030 0.0124448 -0.1093374 0.9875552 0.1093374 0.9875552 0.1093374 0.0124448 -0.1093374
12464184 0.0119327 -0.1070190 0.9880673 0.1070190 0.9880673 0.1070190 0.0119327 -0.1070190
12738235 0.0114421 -0.1047465 0.9885579 0.1047465 0.9885579 0.1047465 0.0114421 -0.1047465
13018310 0.0109720 -0.1025193 0.9890280 0.1025193 0.9890280 0.1025193 0.0109720 -0.1025193
13304544 0.0105216 -0.1003365 0.9894784 0.1003365 0.9894784 0.1003365 0.0105216 -0.1003365
13597071 0.0100902 -0.0981974 0.9899098 0.0981974 0.9899098 0.0981974 0.0100902 -0.0981974
13896030 0.0096768 -0.0961012 0.9903232 0.0961012 0.9903232 0.0961012 0.0096768 -0.0961012
14201563 0.0092809 -0.0940471 0.9907191 0.0940471 0.9907191 0.0940471 0.0092809 -0.0940471
14513813 0.0089017 -0.0920343 0.9910983 0.0920343 0.9910983 0.0920343 0.0089017 -0.0920343
14832928 0.0085384 -0.0900622 0.9914616 0.0900622 0.9914616 0.0900622 0.0085384 -0.0900622
15159060 0.0081905 -0.0881300 0.9918095 0.0881300 0.9918095 0.0881300 0.0081905 -0.0881300
15492362 0.0078573 -0.0862369 0.9921427 0.0862369 0.9921427 0.0862369 0.0078573 -0.0862369
15832993 0.0075382 -0.0843823 0.9924618 0.0843823 0.9924618 0.0843823 0.0075382 -0.0843823
16181113 0.0072326 -0.0825653 0.9927674 0.0825653 0.9927674 0.0825653 0.0072326 -0.0825653
16536888 0.0069399 -0.0807853 0.9930601 0.0807853 0.9930601 0.0807853 0.0069399 -0.0807853
16900485 0.0066597 -0.0790416 0.9933403 0.0790416 0.9933403 0.0790416 0.0066597 -0.0790416
17272076 0.0063914 -0.0773334 0.9936086 0.0773334 0.9936086 0.0773334 0.0063914 -0.0773334
17651837 0.0061344 -0.0756602 0.9938656 0.0756602 0.9938656 0.0756602 0.0061344 -0.0756602
18039948 0.0058884 -0.0740211 0.9941116 0.0740211 0.9941116 0.0740211 0.0058884 -0.0740211
18436593 0.0056529 -0.0724156 0.9943471 0.0724156 0.9943471 0.0724156 0.0056529 -0.0724156
18841959 0.0054273 -0.0708430 0.9945727 0.0708430 0.9945727 0.0708430 0.0054273 -0.0708430
19256237 0.0052114 -0.0693025 0.9947886 0.0693025 0.9947886 0.0693025 0.0052114 -0.0693025
19679624 0.0050047 -0.0677937 0.9949953 0.0677937 0.9949953 0.0677937 0.0050047 -0.0677937
20112321 0.0048069 -0.0663158 0.9951931 0.0663158 0.9951931 0.0663158 0.0048069 -0.0663158
20554530 0.0046174 -0.0648683 0.9953826 0.0648683 0.9953826 0.0648683 0.0046174 -0.0648683
21006463 0.0044361 -0.0634505 0.9955639 0.0634505 0.9955639 0.0634505 0.0044361 -0.0634505
21468333 0.0042625 -0.0620618 0.9957375 0.0620618 0.9957375 0.0620618 0.0042625 -0.0620618
21940357 0.0040964 -0.0607016 0.9959036 0.0607016 0.9959036 0.0607016 0.0040964 -0.0607016
22422760 0.0039373 -0.0593693 0.9960627 0.0593693 0.9960627 0.0593693 0.0039373 -0.0593693
22915770 0.0037851 -0.0580644 0.9962149 0.0580644 0.9962149 0.0580644 0.0037851 -0.0580644
23419619 0.0036394 -0.0567862 0.9963606 0.0567862 0.9963606 0.0567862 0.0036394 -0.0567862
23934547 0.0034999 -0.0555343 0.9965001 0.0555343 0.9965001 0.0555343 0.0034999 -0.0555343
24460796 0.0033664 -0.0543081 0.9966336 0.0543081 0.9966336 0.0543081 0.0033664 -0.0543081
24998616 0.0032387 -0.0531071 0.9967613 0.0531071 0.9967613 0.0531071 0.0032387 -0.0531071
25548261 0.0031164 -0.0519306 0.9968836 0.0519306 0.9968836 0.0519306 0.0031164 -0.0519306
26109991 0.0029994 -0.0507782 0.9970006 0.0507782 0.9970006 0.0507782 0.0029994 -0.0507782
26684072 0.0028874 -0.0496494 0.9971126 0.0496494 0.9971126 0.0496494 0.0028874 -0.0496494
27270775 0.0027803 -0.0485437 0.9972197 0.0485437 0.9972197 0.0485437 0.0027803 -0.0485437
27870378 0.0026777 -0.0474606 0.9973223 0.0474606 0.9973223 0.0474606 0.0026777 -0.0474606
28483164 0.0025796 -0.0463996 0.9974204 0.0463996 0.9974204 0.0463996 0.0025796 -0.0463996
29109424 0.0024856 -0.0453602 0.9975144 0.0453602 0.9975144 0.0453602 0.0024856 -0.0453602
29749453 0.0023958 -0.0443419 0.9976042 0.0443419 0.9976042 0.0443419 0.0023958 -0.0443419
30403555 0.0023098 -0.0433444 0.9976902 0.0433444 0.9976902 0.0433444 0.0023098 -0.0433444
31072038 0.0022275 -0.0423671 0.9977725 0.0423671 0.9977725 0.0423671 0.0022275 -0.0423671
31755220 0.0021488 -0.0414096 0.9978512 0.0414096 0.9978512 0.0414096 0.0021488 -0.0414096
32453422 0.0020734 -0.0404714 0.9979266 0.0404714 0.9979266 0.0404714 0.0020734 -0.0404714
33166976 0.0020013 -0.0395522 0.9979987 0.0395522 0.9979987 0.0395522 0.0020013 -0.0395522
33896219 0.0019324 -0.0386515 0.9980676 0.0386515 0.9980676 0.0386515 0.0019324 -0.0386515
34641496 0.0018664 -0.0377689 0.9981336 0.0377689 0.9981336 0.0377689 0.0018664 -0.0377689
35403159 0.0018033 -0.0369040 0.9981967 0.0369040 0.9981967 0.0369040 0.0018033 -0.0369040
36181569 0.0017429 -0.0360564 0.9982571 0.0360564 0.9982571 0.0360564 0.0017429 -0.0360564
36977093 0.0016851 -0.0352257 0.9983149 0.0352257 0.9983149 0.0352257 0.0016851 -0.0352257
37790109 0.0016299 -0.0344115 0.9983701 0.0344115 0.9983701 0.0344115 0.0016299 -0.0344115
38621001 0.0015770 -0.0336135 0.9984230 0.0336135 0.9984230 0.0336135 0.0015770 -0.0336135
39470161 0.0015265 -0.0328313 0.9984735 0.0328313 0.9984735 0.0328313 0.0015265 -0.0328313
40337993 0.0014781 -0.0320644 0.9985219 0.0320644 0.9985219 0.0320644 0.0014781 -0.0320644
41224905 0.0014319 -0.0313127 0.9985681 0.0313127 0.9985681 0.0313127 0.0014319 -0.0313127
42131317 0.0013876 -0.0305757 0.9986124 0.0305757 0.9986124 0.0305757 0.0013876 -0.0305757
43057659 0.0013453 -0.0298530 0.9986547 0.0298530 0.9986547 0.0298530 0.0013453 -0.0298530
44004369 0.0013049 -0.0291444 0.9986951 0.0291444 0.9986951 0.0291444 0.0013049 -0.0291444
44971893 0.0012663 -0.0284495 0.9987337 0.0284495 0.9987337 0.0284495 0.0012663 -0.0284495
45960691 0.0012293 -0.0277680 0.9987707 0.0277680 0.9987707 0.0277680 0.0012293 -0.0277680
46971230 0.0011940 -0.0270996 0.9988060 0.0270996 0.9988060 0.0270996 0.0011940 -0.0270996
48003987 0.0011602 -0.0264439 0.9988398 0.0264439 0.9988398 0.0264439 0.0011602 -0.0264439
49059451 0.0011279 -0.0258007 0.9988721 0.0258007 0.9988721 0.0258007 0.0011279 -0.0258007
50138122 0.0010971 -0.0251696 0.9989029 0.0251696 0.9989029 0.0251696 0.0010971 -0.0251696
51240510 0.0010677 -0.0245504 0.9989323 0.0245504 0.9989323 0.0245504 0.0010677 -0.0245504
52367136 0.0010395 -0.0239427 0.9989605 0.0239427 0.9989605 0.0239427 0.0010395 -0.0239427
53518533 0.0010127 -0.0233463 0.9989873 0.0233463 0.9989873 0.0233463 0.0010127 -0.0233463
54695245 0.0009870 -0.0227610 0.9990130 0.0227610 0.9990130 0.0227610 0.0009870 -0.0227610
55897831 0.0009625 -0.0221863 0.9990375 0.0221863 0.9990375 0.0221863 0.0009625 -0.0221863
57126857 0.0009392 -0.0216221 0.9990608 0.0216221 0.9990608 0.0216221 0.0009392 -0.0216221
58382906 0.0009169 -0.0210681 0.9990831 0.0210681 0.9990831 0.0210681 0.0009169 -0.0210681
59666572 0.0008956 -0.0205240 0.9991044 0.0205240 0.9991044 0.0205240 0.0008956 -0.0205240
60978462 0.0008754 -0.0199897 0.9991246 0.0199897 0.9991246 0.0199897 0.0008754 -0.0199897
62319196 0.0008560 -0.0194647 0.9991440 0.0194647 0.9991440 0.0194647 0.0008560 -0.0194647
63689409 0.0008376 -0.0189489 0.9991624 0.0189489 0.9991624 0.0189489 0.0008376 -0.0189489
65089750 0.0008201 -0.0184420 0.9991799 0.0184420 0.9991799 0.0184420 0.0008201 -0.0184420
66520879 0.0008034 -0.0179439 0.9991966 0.0179439 0.9991966 0.0179439 0.0008034 -0.0179439
67983474 0.0007876 -0.0174542 0.9992124 0.0174542 0.9992124 0.0174542 0.0007876 -0.0174542
69478228 0.0007725 -0.0169727 0.9992275 0.0169727 0.9992275 0.0169727 0.0007725 -0.0169727
71005847 0.0007581 -0.0164992 0.9992419 0.0164992 0.9992419 0.0164992 0.0007581 -0.0164992
72567054 0.0007445 -0.0160335 0.9992555 0.0160335 0.9992555 0.0160335 0.0007445 -0.0160335
74162587 0.0007316 -0.0155754 0.9992684 0.0155754 0.9992684 0.0155754 0.0007316 -0.0155754
75793201 0.0007194 -0.0151246 0.9992806 0.0151246 0.9992806 0.0151246 0.0007194 -0.0151246
77459667 0.0007079 -0.0146810 0.9992921 0.0146810 0.9992921 0.0146810 0.0007079 -0.0146810
79162774 0.0006969 -0.0142442 0.9993031 0.0142442 0.9993031 0.0142442 0.0006969 -0.0142442
80903327 0.0006866 -0.0138142 0.9993134 0.0138142 0.9993134 0.0138142 0.0006866 -0.0138142
82682150 0.0006769 -0.0133907 0.9993231 0.0133907 0.9993231 0.0133907 0.0006769 -0.0133907
84500083 0.0006677 -0.0129735 0.9993323 0.0129735 0.9993323 0.0129735 0.0006677 -0.0129735
86357988 0.0006591 -0.0125624 0.9993409 0.0125624 0.9993409 0.0125624 0.0006591 -0.0125624
88256743 0.0006511 -0.0121572 0.9993489 0.0121572 0.9993489 0.0121572 0.0006511 -0.0121572
90197245 0.0006435 -0.0117577 0.9993565 0.0117577 0.9993565 0.0117577 0.0006435 -0.0117577
92180413 0.0006365 -0.0113637 0.9993635 0.0113637 0.9993635 0.0113637 0.0006365 -0.0113637
94207185 0.0006300 -0.0109751 0.9993700 0.0109751 0.9993700 0.0109751 0.0006300 -0.0109751
96278520 0.0006239 -0.0105917 0.9993761 0.0105917 0.9993761 0.0105917 0.0006239 -0.0105917
98395398 0.0006184 -0.0102132 0.9993816 0.0102132 0.9993816 0.0102132 0.0006184 -0.0102132
100558819 0.0006133 -0.0098396 0.9993867 0.0098396 0.9993867 0.0098396 0.0006133 -0.0098396
102769807 0.0006086 -0.0094705 0.9993914 0.0094705 0.9993914 0.0094705 0.0006086 -0.0094705
105029408 0.0006044 -0.0091059 0.9993956 0.0091059 0.9993956 0.0091059 0.0006044 -0.0091059
107338692 0.0006007 -0.0087455 0.9993993 0.0087455 0.9993993 0.0087455 0.0006007 -0.0087455
