!Murata Part Number: GRM1885C1H1R1CA01
!These Parameters are Measured in Series Mode Connection
!Data Generated on Mar 30, 2021
!       o--ll--o
!Port1            Port2
!       o------o
!Operation Temp=25[degC], DC Bias Voltage=0[V]
!Freq. Start=100[MHz] Stop=9[GHz] 401[Steps]
# Hz S RI R 50
!Freq.(Hz) S11(Real) S11(Imag) S21(Real) S21(Imag) S12(Real) S12(Imag) S22(Real) S22(Imag)
100000000 0.9952340 -0.0688025 0.0047660 0.0688025 0.0047660 0.0688025 0.9952340 -0.0688025
121000000 0.9930358 -0.0830766 0.0069642 0.0830766 0.0069642 0.0830766 0.9930358 -0.0830766
142000000 0.9904310 -0.0972523 0.0095690 0.0972523 0.0095690 0.0972523 0.9904310 -0.0972523
163000000 0.9874254 -0.1113132 0.0125746 0.1113132 0.0125746 0.1113132 0.9874254 -0.1113132
184000000 0.9840256 -0.1252437 0.0159744 0.1252437 0.0159744 0.1252437 0.9840256 -0.1252437
205000000 0.9802390 -0.1390282 0.0197610 0.1390282 0.0197610 0.1390282 0.9802390 -0.1390282
226000000 0.9760737 -0.1526521 0.0239263 0.1526521 0.0239263 0.1526521 0.9760737 -0.1526521
247000000 0.9715387 -0.1661010 0.0284613 0.1661010 0.0284613 0.1661010 0.9715387 -0.1661010
268000000 0.9666435 -0.1793612 0.0333565 0.1793612 0.0333565 0.1793612 0.9666435 -0.1793612
289000000 0.9613985 -0.1924196 0.0386015 0.1924196 0.0386015 0.1924196 0.9613985 -0.1924196
310000000 0.9558143 -0.2052640 0.0441857 0.2052640 0.0441857 0.2052640 0.9558143 -0.2052640
331000000 0.9499025 -0.2178827 0.0500975 0.2178827 0.0500975 0.2178827 0.9499025 -0.2178827
352000000 0.9436747 -0.2302648 0.0563253 0.2302648 0.0563253 0.2302648 0.9436747 -0.2302648
373000000 0.9371433 -0.2424001 0.0628567 0.2424001 0.0628567 0.2424001 0.9371433 -0.2424001
394000000 0.9303210 -0.2542792 0.0696790 0.2542792 0.0696790 0.2542792 0.9303210 -0.2542792
415000000 0.9232205 -0.2658936 0.0767795 0.2658936 0.0767795 0.2658936 0.9232205 -0.2658936
436000000 0.9158552 -0.2772354 0.0841448 0.2772354 0.0841448 0.2772354 0.9158552 -0.2772354
457000000 0.9082383 -0.2882976 0.0917617 0.2882976 0.0917617 0.2882976 0.9082383 -0.2882976
478000000 0.9003835 -0.2990739 0.0996165 0.2990739 0.0996165 0.2990739 0.9003835 -0.2990739
499000000 0.8923044 -0.3095590 0.1076956 0.3095590 0.1076956 0.3095590 0.8923044 -0.3095590
520000000 0.8840145 -0.3197481 0.1159855 0.3197481 0.1159855 0.3197481 0.8840145 -0.3197481
541000000 0.8755276 -0.3296372 0.1244724 0.3296372 0.1244724 0.3296372 0.8755276 -0.3296372
562000000 0.8668573 -0.3392232 0.1331427 0.3392232 0.1331427 0.3392232 0.8668573 -0.3392232
583000000 0.8580171 -0.3485037 0.1419829 0.3485037 0.1419829 0.3485037 0.8580171 -0.3485037
604000000 0.8490203 -0.3574767 0.1509797 0.3574767 0.1509797 0.3574767 0.8490203 -0.3574767
625000000 0.8398802 -0.3661411 0.1601198 0.3661411 0.1601198 0.3661411 0.8398802 -0.3661411
646000000 0.8306096 -0.3744966 0.1693904 0.3744966 0.1693904 0.3744966 0.8306096 -0.3744966
667000000 0.8212215 -0.3825431 0.1787785 0.3825431 0.1787785 0.3825431 0.8212215 -0.3825431
688000000 0.8117281 -0.3902815 0.1882719 0.3902815 0.1882719 0.3902815 0.8117281 -0.3902815
709000000 0.8021418 -0.3977129 0.1978582 0.3977129 0.1978582 0.3977129 0.8021418 -0.3977129
730000000 0.7924744 -0.4048391 0.2075256 0.4048391 0.2075256 0.4048391 0.7924744 -0.4048391
751000000 0.7827373 -0.4116625 0.2172627 0.4116625 0.2172627 0.4116625 0.7827373 -0.4116625
772000000 0.7729418 -0.4181857 0.2270582 0.4181857 0.2270582 0.4181857 0.7729418 -0.4181857
793000000 0.7630987 -0.4244119 0.2369013 0.4244119 0.2369013 0.4244119 0.7630987 -0.4244119
814000000 0.7532183 -0.4303446 0.2467817 0.4303446 0.2467817 0.4303446 0.7532183 -0.4303446
835000000 0.7433107 -0.4359877 0.2566893 0.4359877 0.2566893 0.4359877 0.7433107 -0.4359877
856000000 0.7333855 -0.4413455 0.2666145 0.4413455 0.2666145 0.4413455 0.7333855 -0.4413455
877000000 0.7234519 -0.4464224 0.2765481 0.4464224 0.2765481 0.4464224 0.7234519 -0.4464224
898000000 0.7135187 -0.4512233 0.2864813 0.4512233 0.2864813 0.4512233 0.7135187 -0.4512233
919000000 0.7035943 -0.4557532 0.2964057 0.4557532 0.2964057 0.4557532 0.7035943 -0.4557532
940000000 0.6936867 -0.4600173 0.3063133 0.4600173 0.3063133 0.4600173 0.6936867 -0.4600173
961000000 0.6838035 -0.4640211 0.3161965 0.4640211 0.3161965 0.4640211 0.6838035 -0.4640211
982000000 0.6739518 -0.4677701 0.3260482 0.4677701 0.3260482 0.4677701 0.6739518 -0.4677701
1003000000 0.6641385 -0.4712700 0.3358615 0.4712700 0.3358615 0.4712700 0.6641385 -0.4712700
1024000000 0.6543699 -0.4745268 0.3456301 0.4745268 0.3456301 0.4745268 0.6543699 -0.4745268
1045000000 0.6446520 -0.4775462 0.3553480 0.4775462 0.3553480 0.4775462 0.6446520 -0.4775462
1066000000 0.6349905 -0.4803344 0.3650095 0.4803344 0.3650095 0.4803344 0.6349905 -0.4803344
1087000000 0.6253906 -0.4828973 0.3746094 0.4828973 0.3746094 0.4828973 0.6253906 -0.4828973
1108000000 0.6158573 -0.4852411 0.3841427 0.4852411 0.3841427 0.4852411 0.6158573 -0.4852411
1129000000 0.6063951 -0.4873717 0.3936049 0.4873717 0.3936049 0.4873717 0.6063951 -0.4873717
1150000000 0.5970082 -0.4892953 0.4029918 0.4892953 0.4029918 0.4892953 0.5970082 -0.4892953
1171000000 0.5877006 -0.4910180 0.4122994 0.4910180 0.4122994 0.4910180 0.5877006 -0.4910180
1192000000 0.5784758 -0.4925458 0.4215242 0.4925458 0.4215242 0.4925458 0.5784758 -0.4925458
1213000000 0.5693371 -0.4938846 0.4306629 0.4938846 0.4306629 0.4938846 0.5693371 -0.4938846
1234000000 0.5602876 -0.4950406 0.4397124 0.4950406 0.4397124 0.4950406 0.5602876 -0.4950406
1255000000 0.5513299 -0.4960194 0.4486701 0.4960194 0.4486701 0.4960194 0.5513299 -0.4960194
1276000000 0.5424666 -0.4968270 0.4575334 0.4968270 0.4575334 0.4968270 0.5424666 -0.4968270
1297000000 0.5336998 -0.4974690 0.4663002 0.4974690 0.4663002 0.4974690 0.5336998 -0.4974690
1318000000 0.5250315 -0.4979512 0.4749685 0.4979512 0.4749685 0.4979512 0.5250315 -0.4979512
1339000000 0.5164635 -0.4982790 0.4835365 0.4982790 0.4835365 0.4982790 0.5164635 -0.4982790
1360000000 0.5079972 -0.4984580 0.4920028 0.4984580 0.4920028 0.4984580 0.5079972 -0.4984580
1381000000 0.4996340 -0.4984935 0.5003660 0.4984935 0.5003660 0.4984935 0.4996340 -0.4984935
1402000000 0.4913750 -0.4983907 0.5086250 0.4983907 0.5086250 0.4983907 0.4913750 -0.4983907
1423000000 0.4832211 -0.4981547 0.5167789 0.4981547 0.5167789 0.4981547 0.4832211 -0.4981547
1444000000 0.4751732 -0.4977906 0.5248268 0.4977906 0.5248268 0.4977906 0.4751732 -0.4977906
1465000000 0.4672317 -0.4973033 0.5327683 0.4973033 0.5327683 0.4973033 0.4672317 -0.4973033
1486000000 0.4593971 -0.4966975 0.5406029 0.4966975 0.5406029 0.4966975 0.4593971 -0.4966975
1507000000 0.4516698 -0.4959779 0.5483302 0.4959779 0.5483302 0.4959779 0.4516698 -0.4959779
1528000000 0.4440498 -0.4951491 0.5559502 0.4951491 0.5559502 0.4951491 0.4440498 -0.4951491
1549000000 0.4365372 -0.4942155 0.5634628 0.4942155 0.5634628 0.4942155 0.4365372 -0.4942155
1570000000 0.4291320 -0.4931814 0.5708680 0.4931814 0.5708680 0.4931814 0.4291320 -0.4931814
1591000000 0.4218339 -0.4920509 0.5781661 0.4920509 0.5781661 0.4920509 0.4218339 -0.4920509
1612000000 0.4146426 -0.4908281 0.5853574 0.4908281 0.5853574 0.4908281 0.4146426 -0.4908281
1633000000 0.4075577 -0.4895170 0.5924423 0.4895170 0.5924423 0.4895170 0.4075577 -0.4895170
1654000000 0.4005787 -0.4881214 0.5994213 0.4881214 0.5994213 0.4881214 0.4005787 -0.4881214
1675000000 0.3937051 -0.4866449 0.6062949 0.4866449 0.6062949 0.4866449 0.3937051 -0.4866449
1696000000 0.3869362 -0.4850912 0.6130638 0.4850912 0.6130638 0.4850912 0.3869362 -0.4850912
1717000000 0.3802713 -0.4834638 0.6197287 0.4834638 0.6197287 0.4834638 0.3802713 -0.4834638
1738000000 0.3737096 -0.4817660 0.6262904 0.4817660 0.6262904 0.4817660 0.3737096 -0.4817660
1759000000 0.3672503 -0.4800010 0.6327497 0.4800010 0.6327497 0.4800010 0.3672503 -0.4800010
1780000000 0.3608925 -0.4781720 0.6391075 0.4781720 0.6391075 0.4781720 0.3608925 -0.4781720
1801000000 0.3546353 -0.4762821 0.6453647 0.4762821 0.6453647 0.4762821 0.3546353 -0.4762821
1822000000 0.3484777 -0.4743341 0.6515223 0.4743341 0.6515223 0.4743341 0.3484777 -0.4743341
1843000000 0.3424186 -0.4723310 0.6575814 0.4723310 0.6575814 0.4723310 0.3424186 -0.4723310
1864000000 0.3364570 -0.4702754 0.6635430 0.4702754 0.6635430 0.4702754 0.3364570 -0.4702754
1885000000 0.3305918 -0.4681700 0.6694082 0.4681700 0.6694082 0.4681700 0.3305918 -0.4681700
1906000000 0.3248219 -0.4660173 0.6751781 0.4660173 0.6751781 0.4660173 0.3248219 -0.4660173
1927000000 0.3191462 -0.4638197 0.6808538 0.4638197 0.6808538 0.4638197 0.3191462 -0.4638197
1948000000 0.3135636 -0.4615797 0.6864364 0.4615797 0.6864364 0.4615797 0.3135636 -0.4615797
1969000000 0.3080727 -0.4592995 0.6919273 0.4592995 0.6919273 0.4592995 0.3080727 -0.4592995
1990000000 0.3026725 -0.4569814 0.6973275 0.4569814 0.6973275 0.4569814 0.3026725 -0.4569814
2011000000 0.2973618 -0.4546273 0.7026382 0.4546273 0.7026382 0.4546273 0.2973618 -0.4546273
2032000000 0.2921392 -0.4522393 0.7078608 0.4522393 0.7078608 0.4522393 0.2921392 -0.4522393
2053000000 0.2870037 -0.4498195 0.7129963 0.4498195 0.7129963 0.4498195 0.2870037 -0.4498195
2074000000 0.2819540 -0.4473696 0.7180460 0.4473696 0.7180460 0.4473696 0.2819540 -0.4473696
2095000000 0.2769888 -0.4448914 0.7230112 0.4448914 0.7230112 0.4448914 0.2769888 -0.4448914
2116000000 0.2721069 -0.4423868 0.7278931 0.4423868 0.7278931 0.4423868 0.2721069 -0.4423868
2137000000 0.2673072 -0.4398574 0.7326928 0.4398574 0.7326928 0.4398574 0.2673072 -0.4398574
2158000000 0.2625883 -0.4373047 0.7374117 0.4373047 0.7374117 0.4373047 0.2625883 -0.4373047
2179000000 0.2579490 -0.4347303 0.7420510 0.4347303 0.7420510 0.4347303 0.2579490 -0.4347303
2200000000 0.2533881 -0.4321356 0.7466119 0.4321356 0.7466119 0.4321356 0.2533881 -0.4321356
2221000000 0.2489045 -0.4295222 0.7510955 0.4295222 0.7510955 0.4295222 0.2489045 -0.4295222
2242000000 0.2444968 -0.4268913 0.7555032 0.4268913 0.7555032 0.4268913 0.2444968 -0.4268913
2263000000 0.2401639 -0.4242443 0.7598361 0.4242443 0.7598361 0.4242443 0.2401639 -0.4242443
2284000000 0.2359046 -0.4215823 0.7640954 0.4215823 0.7640954 0.4215823 0.2359046 -0.4215823
2305000000 0.2317177 -0.4189067 0.7682823 0.4189067 0.7682823 0.4189067 0.2317177 -0.4189067
2326000000 0.2276020 -0.4162185 0.7723980 0.4162185 0.7723980 0.4162185 0.2276020 -0.4162185
2347000000 0.2235563 -0.4135188 0.7764437 0.4135188 0.7764437 0.4135188 0.2235563 -0.4135188
2368000000 0.2195796 -0.4108088 0.7804204 0.4108088 0.7804204 0.4108088 0.2195796 -0.4108088
2389000000 0.2156707 -0.4080893 0.7843293 0.4080893 0.7843293 0.4080893 0.2156707 -0.4080893
2410000000 0.2118284 -0.4053614 0.7881716 0.4053614 0.7881716 0.4053614 0.2118284 -0.4053614
2431000000 0.2080517 -0.4026260 0.7919483 0.4026260 0.7919483 0.4026260 0.2080517 -0.4026260
2452000000 0.2043393 -0.3998839 0.7956607 0.3998839 0.7956607 0.3998839 0.2043393 -0.3998839
2473000000 0.2006903 -0.3971361 0.7993097 0.3971361 0.7993097 0.3971361 0.2006903 -0.3971361
2494000000 0.1971036 -0.3943833 0.8028964 0.3943833 0.8028964 0.3943833 0.1971036 -0.3943833
2515000000 0.1935781 -0.3916262 0.8064219 0.3916262 0.8064219 0.3916262 0.1935781 -0.3916262
2536000000 0.1901128 -0.3888658 0.8098872 0.3888658 0.8098872 0.3888658 0.1901128 -0.3888658
2557000000 0.1867066 -0.3861025 0.8132934 0.3861025 0.8132934 0.3861025 0.1867066 -0.3861025
2578000000 0.1833585 -0.3833372 0.8166415 0.3833372 0.8166415 0.3833372 0.1833585 -0.3833372
2599000000 0.1800675 -0.3805704 0.8199325 0.3805704 0.8199325 0.3805704 0.1800675 -0.3805704
2620000000 0.1768327 -0.3778028 0.8231673 0.3778028 0.8231673 0.3778028 0.1768327 -0.3778028
2641000000 0.1736530 -0.3750350 0.8263470 0.3750350 0.8263470 0.3750350 0.1736530 -0.3750350
2662000000 0.1705276 -0.3722674 0.8294724 0.3722674 0.8294724 0.3722674 0.1705276 -0.3722674
2683000000 0.1674554 -0.3695007 0.8325446 0.3695007 0.8325446 0.3695007 0.1674554 -0.3695007
2704000000 0.1644356 -0.3667354 0.8355644 0.3667354 0.8355644 0.3667354 0.1644356 -0.3667354
2725000000 0.1614672 -0.3639719 0.8385328 0.3639719 0.8385328 0.3639719 0.1614672 -0.3639719
2746000000 0.1585494 -0.3612107 0.8414506 0.3612107 0.8414506 0.3612107 0.1585494 -0.3612107
2767000000 0.1556812 -0.3584522 0.8443188 0.3584522 0.8443188 0.3584522 0.1556812 -0.3584522
2788000000 0.1528618 -0.3556969 0.8471382 0.3556969 0.8471382 0.3556969 0.1528618 -0.3556969
2809000000 0.1500904 -0.3529451 0.8499096 0.3529451 0.8499096 0.3529451 0.1500904 -0.3529451
2830000000 0.1473662 -0.3501972 0.8526338 0.3501972 0.8526338 0.3501972 0.1473662 -0.3501972
2851000000 0.1446882 -0.3474536 0.8553118 0.3474536 0.8553118 0.3474536 0.1446882 -0.3474536
2872000000 0.1420557 -0.3447147 0.8579443 0.3447147 0.8579443 0.3447147 0.1420557 -0.3447147
2893000000 0.1394679 -0.3419807 0.8605321 0.3419807 0.8605321 0.3419807 0.1394679 -0.3419807
2914000000 0.1369241 -0.3392519 0.8630759 0.3392519 0.8630759 0.3392519 0.1369241 -0.3392519
2935000000 0.1344234 -0.3365286 0.8655766 0.3365286 0.8655766 0.3365286 0.1344234 -0.3365286
2956000000 0.1319651 -0.3338112 0.8680349 0.3338112 0.8680349 0.3338112 0.1319651 -0.3338112
2977000000 0.1295485 -0.3310999 0.8704515 0.3310999 0.8704515 0.3310999 0.1295485 -0.3310999
2998000000 0.1271729 -0.3283948 0.8728271 0.3283948 0.8728271 0.3283948 0.1271729 -0.3283948
3019000000 0.1248375 -0.3256963 0.8751625 0.3256963 0.8751625 0.3256963 0.1248375 -0.3256963
3040000000 0.1225417 -0.3230046 0.8774583 0.3230046 0.8774583 0.3230046 0.1225417 -0.3230046
3061000000 0.1202847 -0.3203199 0.8797153 0.3203199 0.8797153 0.3203199 0.1202847 -0.3203199
3082000000 0.1180660 -0.3176423 0.8819340 0.3176423 0.8819340 0.3176423 0.1180660 -0.3176423
3103000000 0.1158848 -0.3149721 0.8841152 0.3149721 0.8841152 0.3149721 0.1158848 -0.3149721
3124000000 0.1137405 -0.3123094 0.8862595 0.3123094 0.8862595 0.3123094 0.1137405 -0.3123094
3145000000 0.1116324 -0.3096543 0.8883676 0.3096543 0.8883676 0.3096543 0.1116324 -0.3096543
3166000000 0.1095600 -0.3070072 0.8904400 0.3070072 0.8904400 0.3070072 0.1095600 -0.3070072
3187000000 0.1075227 -0.3043680 0.8924773 0.3043680 0.8924773 0.3043680 0.1075227 -0.3043680
3208000000 0.1055198 -0.3017369 0.8944802 0.3017369 0.8944802 0.3017369 0.1055198 -0.3017369
3229000000 0.1035507 -0.2991140 0.8964493 0.2991140 0.8964493 0.2991140 0.1035507 -0.2991140
3250000000 0.1016149 -0.2964995 0.8983851 0.2964995 0.8983851 0.2964995 0.1016149 -0.2964995
3271000000 0.0997119 -0.2938935 0.9002881 0.2938935 0.9002881 0.2938935 0.0997119 -0.2938935
3292000000 0.0978410 -0.2912960 0.9021590 0.2912960 0.9021590 0.2912960 0.0978410 -0.2912960
3313000000 0.0960017 -0.2887072 0.9039983 0.2887072 0.9039983 0.2887072 0.0960017 -0.2887072
3334000000 0.0941936 -0.2861271 0.9058064 0.2861271 0.9058064 0.2861271 0.0941936 -0.2861271
3355000000 0.0924160 -0.2835559 0.9075840 0.2835559 0.9075840 0.2835559 0.0924160 -0.2835559
3376000000 0.0906684 -0.2809935 0.9093316 0.2809935 0.9093316 0.2809935 0.0906684 -0.2809935
3397000000 0.0889505 -0.2784401 0.9110495 0.2784401 0.9110495 0.2784401 0.0889505 -0.2784401
3418000000 0.0872616 -0.2758957 0.9127384 0.2758957 0.9127384 0.2758957 0.0872616 -0.2758957
3439000000 0.0856013 -0.2733603 0.9143987 0.2733603 0.9143987 0.2733603 0.0856013 -0.2733603
3460000000 0.0839691 -0.2708341 0.9160309 0.2708341 0.9160309 0.2708341 0.0839691 -0.2708341
3481000000 0.0823645 -0.2683171 0.9176355 0.2683171 0.9176355 0.2683171 0.0823645 -0.2683171
3502000000 0.0807872 -0.2658092 0.9192128 0.2658092 0.9192128 0.2658092 0.0807872 -0.2658092
3523000000 0.0792366 -0.2633106 0.9207634 0.2633106 0.9207634 0.2633106 0.0792366 -0.2633106
3544000000 0.0777123 -0.2608212 0.9222877 0.2608212 0.9222877 0.2608212 0.0777123 -0.2608212
3565000000 0.0762140 -0.2583412 0.9237860 0.2583412 0.9237860 0.2583412 0.0762140 -0.2583412
3586000000 0.0747411 -0.2558704 0.9252589 0.2558704 0.9252589 0.2558704 0.0747411 -0.2558704
3607000000 0.0732932 -0.2534090 0.9267068 0.2534090 0.9267068 0.2534090 0.0732932 -0.2534090
3628000000 0.0718700 -0.2509569 0.9281300 0.2509569 0.9281300 0.2509569 0.0718700 -0.2509569
3649000000 0.0704711 -0.2485142 0.9295289 0.2485142 0.9295289 0.2485142 0.0704711 -0.2485142
3670000000 0.0690961 -0.2460808 0.9309039 0.2460808 0.9309039 0.2460808 0.0690961 -0.2460808
3691000000 0.0677445 -0.2436568 0.9322555 0.2436568 0.9322555 0.2436568 0.0677445 -0.2436568
3712000000 0.0664161 -0.2412422 0.9335839 0.2412422 0.9335839 0.2412422 0.0664161 -0.2412422
3733000000 0.0651104 -0.2388369 0.9348896 0.2388369 0.9348896 0.2388369 0.0651104 -0.2388369
3754000000 0.0638271 -0.2364410 0.9361729 0.2364410 0.9361729 0.2364410 0.0638271 -0.2364410
3775000000 0.0625659 -0.2340544 0.9374341 0.2340544 0.9374341 0.2340544 0.0625659 -0.2340544
3796000000 0.0613264 -0.2316771 0.9386736 0.2316771 0.9386736 0.2316771 0.0613264 -0.2316771
3817000000 0.0601082 -0.2293092 0.9398918 0.2293092 0.9398918 0.2293092 0.0601082 -0.2293092
3838000000 0.0589111 -0.2269506 0.9410889 0.2269506 0.9410889 0.2269506 0.0589111 -0.2269506
3859000000 0.0577347 -0.2246013 0.9422653 0.2246013 0.9422653 0.2246013 0.0577347 -0.2246013
3880000000 0.0565787 -0.2222612 0.9434213 0.2222612 0.9434213 0.2222612 0.0565787 -0.2222612
3901000000 0.0554427 -0.2199304 0.9445573 0.2199304 0.9445573 0.2199304 0.0554427 -0.2199304
3922000000 0.0543266 -0.2176088 0.9456734 0.2176088 0.9456734 0.2176088 0.0543266 -0.2176088
3943000000 0.0532299 -0.2152964 0.9467701 0.2152964 0.9467701 0.2152964 0.0532299 -0.2152964
3964000000 0.0521524 -0.2129932 0.9478476 0.2129932 0.9478476 0.2129932 0.0521524 -0.2129932
3985000000 0.0510938 -0.2106991 0.9489062 0.2106991 0.9489062 0.2106991 0.0510938 -0.2106991
4006000000 0.0500537 -0.2084141 0.9499463 0.2084141 0.9499463 0.2084141 0.0500537 -0.2084141
4027000000 0.0490321 -0.2061383 0.9509679 0.2061383 0.9509679 0.2061383 0.0490321 -0.2061383
4048000000 0.0480285 -0.2038714 0.9519715 0.2038714 0.9519715 0.2038714 0.0480285 -0.2038714
4069000000 0.0470426 -0.2016136 0.9529574 0.2016136 0.9529574 0.2016136 0.0470426 -0.2016136
4090000000 0.0460744 -0.1993648 0.9539256 0.1993648 0.9539256 0.1993648 0.0460744 -0.1993648
4111000000 0.0451234 -0.1971249 0.9548766 0.1971249 0.9548766 0.1971249 0.0451234 -0.1971249
4132000000 0.0441894 -0.1948939 0.9558106 0.1948939 0.9558106 0.1948939 0.0441894 -0.1948939
4153000000 0.0432722 -0.1926718 0.9567278 0.1926718 0.9567278 0.1926718 0.0432722 -0.1926718
4174000000 0.0423715 -0.1904585 0.9576285 0.1904585 0.9576285 0.1904585 0.0423715 -0.1904585
4195000000 0.0414871 -0.1882540 0.9585129 0.1882540 0.9585129 0.1882540 0.0414871 -0.1882540
4216000000 0.0406188 -0.1860582 0.9593812 0.1860582 0.9593812 0.1860582 0.0406188 -0.1860582
4237000000 0.0397664 -0.1838712 0.9602336 0.1838712 0.9602336 0.1838712 0.0397664 -0.1838712
4258000000 0.0389295 -0.1816928 0.9610705 0.1816928 0.9610705 0.1816928 0.0389295 -0.1816928
4279000000 0.0381081 -0.1795230 0.9618919 0.1795230 0.9618919 0.1795230 0.0381081 -0.1795230
4300000000 0.0373018 -0.1773618 0.9626982 0.1773618 0.9626982 0.1773618 0.0373018 -0.1773618
4321000000 0.0365105 -0.1752092 0.9634895 0.1752092 0.9634895 0.1752092 0.0365105 -0.1752092
4342000000 0.0357340 -0.1730650 0.9642660 0.1730650 0.9642660 0.1730650 0.0357340 -0.1730650
4363000000 0.0349720 -0.1709293 0.9650280 0.1709293 0.9650280 0.1709293 0.0349720 -0.1709293
4384000000 0.0342244 -0.1688019 0.9657756 0.1688019 0.9657756 0.1688019 0.0342244 -0.1688019
4405000000 0.0334910 -0.1666830 0.9665090 0.1666830 0.9665090 0.1666830 0.0334910 -0.1666830
4426000000 0.0327715 -0.1645723 0.9672285 0.1645723 0.9672285 0.1645723 0.0327715 -0.1645723
4447000000 0.0320658 -0.1624699 0.9679342 0.1624699 0.9679342 0.1624699 0.0320658 -0.1624699
4468000000 0.0313738 -0.1603757 0.9686262 0.1603757 0.9686262 0.1603757 0.0313738 -0.1603757
4489000000 0.0306951 -0.1582896 0.9693049 0.1582896 0.9693049 0.1582896 0.0306951 -0.1582896
4510000000 0.0300297 -0.1562117 0.9699703 0.1562117 0.9699703 0.1562117 0.0300297 -0.1562117
