!Murata Part Number: GRM1885C2A9R5DA01
!These Parameters are Measured in Series Mode Connection
!Data Generated on Mar 30, 2021
!       o--ll--o
!Port1            Port2
!       o------o
!Operation Temp=25[degC], DC Bias Voltage=0[V]
!Freq. Start=100[MHz] Stop=9[GHz] 401[Steps]
# Hz S RI R 50
!Freq.(Hz) S11(Real) S11(Imag) S21(Real) S21(Imag) S12(Real) S12(Imag) S22(Real) S22(Imag)
100000000 0.7364595 -0.4402744 0.2635405 0.4402744 0.2635405 0.4402744 0.7364595 -0.4402744
121000000 0.6558404 -0.4747509 0.3441596 0.4747509 0.3441596 0.4747509 0.6558404 -0.4747509
142000000 0.5800183 -0.4931460 0.4199817 0.4931460 0.4199817 0.4931460 0.5800183 -0.4931460
163000000 0.5112032 -0.4993944 0.4887968 0.4993944 0.4887968 0.4993944 0.5112032 -0.4993944
184000000 0.4501609 -0.4969554 0.5498391 0.4969554 0.5498391 0.4969554 0.4501609 -0.4969554
205000000 0.3967746 -0.4885954 0.6032254 0.4885954 0.6032254 0.4885954 0.3967746 -0.4885954
226000000 0.3504629 -0.4763987 0.6495371 0.4763987 0.6495371 0.4763987 0.3504629 -0.4763987
247000000 0.3104497 -0.4618734 0.6895503 0.4618734 0.6895503 0.4618734 0.3104497 -0.4618734
268000000 0.2759200 -0.4460792 0.7240800 0.4460792 0.7240800 0.4460792 0.2759200 -0.4460792
289000000 0.2461021 -0.4297429 0.7538979 0.4297429 0.7538979 0.4297429 0.2461021 -0.4297429
310000000 0.2203031 -0.4133512 0.7796969 0.4133512 0.7796969 0.4133512 0.2203031 -0.4133512
331000000 0.1979198 -0.3972220 0.8020802 0.3972220 0.8020802 0.3972220 0.1979198 -0.3972220
352000000 0.1784366 -0.3815552 0.8215634 0.3815552 0.8215634 0.3815552 0.1784366 -0.3815552
373000000 0.1614175 -0.3664698 0.8385825 0.3664698 0.8385825 0.3664698 0.1614175 -0.3664698
394000000 0.1464958 -0.3520300 0.8535042 0.3520300 0.8535042 0.3520300 0.1464958 -0.3520300
415000000 0.1333642 -0.3382626 0.8666358 0.3382626 0.8666358 0.3382626 0.1333642 -0.3382626
436000000 0.1217650 -0.3251702 0.8782350 0.3251702 0.8782350 0.3251702 0.1217650 -0.3251702
457000000 0.1114820 -0.3127397 0.8885180 0.3127397 0.8885180 0.3127397 0.1114820 -0.3127397
478000000 0.1023337 -0.3009479 0.8976663 0.3009479 0.8976663 0.3009479 0.1023337 -0.3009479
499000000 0.0941669 -0.2897660 0.9058331 0.2897660 0.9058331 0.2897660 0.0941669 -0.2897660
520000000 0.0868525 -0.2791622 0.9131475 0.2791622 0.9131475 0.2791622 0.0868525 -0.2791622
541000000 0.0802808 -0.2691032 0.9197192 0.2691032 0.9197192 0.2691032 0.0802808 -0.2691032
562000000 0.0743587 -0.2595562 0.9256413 0.2595562 0.9256413 0.2595562 0.0743587 -0.2595562
583000000 0.0690065 -0.2504887 0.9309935 0.2504887 0.9309935 0.2504887 0.0690065 -0.2504887
604000000 0.0641561 -0.2418699 0.9358439 0.2418699 0.9358439 0.2418699 0.0641561 -0.2418699
625000000 0.0597490 -0.2336703 0.9402510 0.2336703 0.9402510 0.2336703 0.0597490 -0.2336703
646000000 0.0557347 -0.2258622 0.9442653 0.2258622 0.9442653 0.2258622 0.0557347 -0.2258622
667000000 0.0520696 -0.2184197 0.9479304 0.2184197 0.9479304 0.2184197 0.0520696 -0.2184197
688000000 0.0487156 -0.2113186 0.9512844 0.2113186 0.9512844 0.2113186 0.0487156 -0.2113186
709000000 0.0456399 -0.2045364 0.9543601 0.2045364 0.9543601 0.2045364 0.0456399 -0.2045364
730000000 0.0428134 -0.1980522 0.9571866 0.1980522 0.9571866 0.1980522 0.0428134 -0.1980522
751000000 0.0402111 -0.1918467 0.9597889 0.1918467 0.9597889 0.1918467 0.0402111 -0.1918467
772000000 0.0378106 -0.1859020 0.9621894 0.1859020 0.9621894 0.1859020 0.0378106 -0.1859020
793000000 0.0355925 -0.1802014 0.9644075 0.1802014 0.9644075 0.1802014 0.0355925 -0.1802014
814000000 0.0335393 -0.1747297 0.9664607 0.1747297 0.9664607 0.1747297 0.0335393 -0.1747297
835000000 0.0316359 -0.1694726 0.9683641 0.1694726 0.9683641 0.1694726 0.0316359 -0.1694726
856000000 0.0298685 -0.1644169 0.9701315 0.1644169 0.9701315 0.1644169 0.0298685 -0.1644169
877000000 0.0282252 -0.1595505 0.9717748 0.1595505 0.9717748 0.1595505 0.0282252 -0.1595505
898000000 0.0266951 -0.1548621 0.9733049 0.1548621 0.9733049 0.1548621 0.0266951 -0.1548621
919000000 0.0252685 -0.1503412 0.9747315 0.1503412 0.9747315 0.1503412 0.0252685 -0.1503412
940000000 0.0239368 -0.1459781 0.9760632 0.1459781 0.9760632 0.1459781 0.0239368 -0.1459781
961000000 0.0226921 -0.1417638 0.9773079 0.1417638 0.9773079 0.1417638 0.0226921 -0.1417638
982000000 0.0215276 -0.1376898 0.9784724 0.1376898 0.9784724 0.1376898 0.0215276 -0.1376898
1003000000 0.0204368 -0.1337485 0.9795632 0.1337485 0.9795632 0.1337485 0.0204368 -0.1337485
1024000000 0.0194142 -0.1299324 0.9805858 0.1299324 0.9805858 0.1299324 0.0194142 -0.1299324
1045000000 0.0184544 -0.1262350 0.9815456 0.1262350 0.9815456 0.1262350 0.0184544 -0.1262350
1066000000 0.0175529 -0.1226498 0.9824471 0.1226498 0.9824471 0.1226498 0.0175529 -0.1226498
1087000000 0.0167053 -0.1191709 0.9832947 0.1191709 0.9832947 0.1191709 0.0167053 -0.1191709
1108000000 0.0159078 -0.1157929 0.9840922 0.1157929 0.9840922 0.1157929 0.0159078 -0.1157929
1129000000 0.0151569 -0.1125106 0.9848431 0.1125106 0.9848431 0.1125106 0.0151569 -0.1125106
1150000000 0.0144494 -0.1093192 0.9855506 0.1093192 0.9855506 0.1093192 0.0144494 -0.1093192
1171000000 0.0137823 -0.1062142 0.9862177 0.1062142 0.9862177 0.1062142 0.0137823 -0.1062142
1192000000 0.0131529 -0.1031914 0.9868471 0.1031914 0.9868471 0.1031914 0.0131529 -0.1031914
1213000000 0.0125587 -0.1002468 0.9874413 0.1002468 0.9874413 0.1002468 0.0125587 -0.1002468
1234000000 0.0119975 -0.0973766 0.9880025 0.0973766 0.9880025 0.0973766 0.0119975 -0.0973766
1255000000 0.0114672 -0.0945774 0.9885328 0.0945774 0.9885328 0.0945774 0.0114672 -0.0945774
1276000000 0.0109659 -0.0918459 0.9890341 0.0918459 0.9890341 0.0918459 0.0109659 -0.0918459
1297000000 0.0104918 -0.0891790 0.9895082 0.0891790 0.9895082 0.0891790 0.0104918 -0.0891790
1318000000 0.0100433 -0.0865737 0.9899567 0.0865737 0.9899567 0.0865737 0.0100433 -0.0865737
1339000000 0.0096188 -0.0840274 0.9903812 0.0840274 0.9903812 0.0840274 0.0096188 -0.0840274
1360000000 0.0092170 -0.0815374 0.9907830 0.0815374 0.9907830 0.0815374 0.0092170 -0.0815374
1381000000 0.0088366 -0.0791012 0.9911634 0.0791012 0.9911634 0.0791012 0.0088366 -0.0791012
1402000000 0.0084763 -0.0767166 0.9915237 0.0767166 0.9915237 0.0767166 0.0084763 -0.0767166
1423000000 0.0081351 -0.0743813 0.9918649 0.0743813 0.9918649 0.0743813 0.0081351 -0.0743813
1444000000 0.0078120 -0.0720933 0.9921880 0.0720933 0.9921880 0.0720933 0.0078120 -0.0720933
1465000000 0.0075060 -0.0698507 0.9924940 0.0698507 0.9924940 0.0698507 0.0075060 -0.0698507
1486000000 0.0072161 -0.0676515 0.9927839 0.0676515 0.9927839 0.0676515 0.0072161 -0.0676515
1507000000 0.0069416 -0.0654940 0.9930584 0.0654940 0.9930584 0.0654940 0.0069416 -0.0654940
1528000000 0.0066817 -0.0633765 0.9933183 0.0633765 0.9933183 0.0633765 0.0066817 -0.0633765
1549000000 0.0064356 -0.0612975 0.9935644 0.0612975 0.9935644 0.0612975 0.0064356 -0.0612975
1570000000 0.0062027 -0.0592554 0.9937973 0.0592554 0.9937973 0.0592554 0.0062027 -0.0592554
1591000000 0.0059824 -0.0572488 0.9940176 0.0572488 0.9940176 0.0572488 0.0059824 -0.0572488
1612000000 0.0057741 -0.0552763 0.9942259 0.0552763 0.9942259 0.0552763 0.0057741 -0.0552763
1633000000 0.0055771 -0.0533367 0.9944229 0.0533367 0.9944229 0.0533367 0.0055771 -0.0533367
1654000000 0.0053911 -0.0514286 0.9946089 0.0514286 0.9946089 0.0514286 0.0053911 -0.0514286
1675000000 0.0052154 -0.0495510 0.9947846 0.0495510 0.9947846 0.0495510 0.0052154 -0.0495510
1696000000 0.0050498 -0.0477026 0.9949502 0.0477026 0.9949502 0.0477026 0.0050498 -0.0477026
1717000000 0.0048936 -0.0458825 0.9951064 0.0458825 0.9951064 0.0458825 0.0048936 -0.0458825
1738000000 0.0047466 -0.0440895 0.9952534 0.0440895 0.9952534 0.0440895 0.0047466 -0.0440895
1759000000 0.0046083 -0.0423228 0.9953917 0.0423228 0.9953917 0.0423228 0.0046083 -0.0423228
1780000000 0.0044784 -0.0405813 0.9955216 0.0405813 0.9955216 0.0405813 0.0044784 -0.0405813
1801000000 0.0043566 -0.0388642 0.9956434 0.0388642 0.9956434 0.0388642 0.0043566 -0.0388642
1822000000 0.0042425 -0.0371706 0.9957575 0.0371706 0.9957575 0.0371706 0.0042425 -0.0371706
1843000000 0.0041359 -0.0354998 0.9958641 0.0354998 0.9958641 0.0354998 0.0041359 -0.0354998
1864000000 0.0040365 -0.0338508 0.9959635 0.0338508 0.9959635 0.0338508 0.0040365 -0.0338508
1885000000 0.0039440 -0.0322231 0.9960560 0.0322231 0.9960560 0.0322231 0.0039440 -0.0322231
1906000000 0.0038581 -0.0306157 0.9961419 0.0306157 0.9961419 0.0306157 0.0038581 -0.0306157
1927000000 0.0037787 -0.0290282 0.9962213 0.0290282 0.9962213 0.0290282 0.0037787 -0.0290282
1948000000 0.0037054 -0.0274597 0.9962946 0.0274597 0.9962946 0.0274597 0.0037054 -0.0274597
1969000000 0.0036382 -0.0259096 0.9963618 0.0259096 0.9963618 0.0259096 0.0036382 -0.0259096
1990000000 0.0035768 -0.0243775 0.9964232 0.0243775 0.9964232 0.0243775 0.0035768 -0.0243775
2011000000 0.0035210 -0.0228625 0.9964790 0.0228625 0.9964790 0.0228625 0.0035210 -0.0228625
2032000000 0.0034706 -0.0213643 0.9965294 0.0213643 0.9965294 0.0213643 0.0034706 -0.0213643
2053000000 0.0034256 -0.0198821 0.9965744 0.0198821 0.9965744 0.0198821 0.0034256 -0.0198821
2074000000 0.0033856 -0.0184156 0.9966144 0.0184156 0.9966144 0.0184156 0.0033856 -0.0184156
2095000000 0.0033506 -0.0169642 0.9966494 0.0169642 0.9966494 0.0169642 0.0033506 -0.0169642
2116000000 0.0033205 -0.0155275 0.9966795 0.0155275 0.9966795 0.0155275 0.0033205 -0.0155275
2137000000 0.0032950 -0.0141048 0.9967050 0.0141048 0.9967050 0.0141048 0.0032950 -0.0141048
2158000000 0.0032741 -0.0126959 0.9967259 0.0126959 0.9967259 0.0126959 0.0032741 -0.0126959
2179000000 0.0032577 -0.0113002 0.9967423 0.0113002 0.9967423 0.0113002 0.0032577 -0.0113002
2200000000 0.0032457 -0.0099174 0.9967543 0.0099174 0.9967543 0.0099174 0.0032457 -0.0099174
2221000000 0.0032378 -0.0085469 0.9967622 0.0085469 0.9967622 0.0085469 0.0032378 -0.0085469
2242000000 0.0032341 -0.0071885 0.9967659 0.0071885 0.9967659 0.0071885 0.0032341 -0.0071885
2263000000 0.0032345 -0.0058418 0.9967655 0.0058418 0.9967655 0.0058418 0.0032345 -0.0058418
2284000000 0.0032388 -0.0045063 0.9967612 0.0045063 0.9967612 0.0045063 0.0032388 -0.0045063
2305000000 0.0032470 -0.0031818 0.9967530 0.0031818 0.9967530 0.0031818 0.0032470 -0.0031818
2326000000 0.0032590 -0.0018678 0.9967410 0.0018678 0.9967410 0.0018678 0.0032590 -0.0018678
2347000000 0.0032747 -0.0005641 0.9967253 0.0005641 0.9967253 0.0005641 0.0032747 -0.0005641
2368000000 0.0032941 0.0007298 0.9967059 -0.0007298 0.9967059 -0.0007298 0.0032941 0.0007298
2389000000 0.0033170 0.0020140 0.9966830 -0.0020140 0.9966830 -0.0020140 0.0033170 0.0020140
2410000000 0.0033435 0.0032890 0.9966565 -0.0032890 0.9966565 -0.0032890 0.0033435 0.0032890
2431000000 0.0033734 0.0045550 0.9966266 -0.0045550 0.9966266 -0.0045550 0.0033734 0.0045550
2452000000 0.0034068 0.0058123 0.9965932 -0.0058123 0.9965932 -0.0058123 0.0034068 0.0058123
2473000000 0.0034435 0.0070612 0.9965565 -0.0070612 0.9965565 -0.0070612 0.0034435 0.0070612
2494000000 0.0034835 0.0083019 0.9965165 -0.0083019 0.9965165 -0.0083019 0.0034835 0.0083019
2515000000 0.0035269 0.0095348 0.9964731 -0.0095348 0.9964731 -0.0095348 0.0035269 0.0095348
2536000000 0.0035734 0.0107601 0.9964266 -0.0107601 0.9964266 -0.0107601 0.0035734 0.0107601
2557000000 0.0036232 0.0119780 0.9963768 -0.0119780 0.9963768 -0.0119780 0.0036232 0.0119780
2578000000 0.0036761 0.0131889 0.9963239 -0.0131889 0.9963239 -0.0131889 0.0036761 0.0131889
2599000000 0.0037321 0.0143929 0.9962679 -0.0143929 0.9962679 -0.0143929 0.0037321 0.0143929
2620000000 0.0037913 0.0155903 0.9962087 -0.0155903 0.9962087 -0.0155903 0.0037913 0.0155903
2641000000 0.0038535 0.0167813 0.9961465 -0.0167813 0.9961465 -0.0167813 0.0038535 0.0167813
2662000000 0.0039188 0.0179661 0.9960812 -0.0179661 0.9960812 -0.0179661 0.0039188 0.0179661
2683000000 0.0039872 0.0191451 0.9960128 -0.0191451 0.9960128 -0.0191451 0.0039872 0.0191451
2704000000 0.0040586 0.0203183 0.9959414 -0.0203183 0.9959414 -0.0203183 0.0040586 0.0203183
2725000000 0.0041330 0.0214860 0.9958670 -0.0214860 0.9958670 -0.0214860 0.0041330 0.0214860
2746000000 0.0042104 0.0226485 0.9957896 -0.0226485 0.9957896 -0.0226485 0.0042104 0.0226485
2767000000 0.0042907 0.0238059 0.9957093 -0.0238059 0.9957093 -0.0238059 0.0042907 0.0238059
2788000000 0.0043741 0.0249584 0.9956259 -0.0249584 0.9956259 -0.0249584 0.0043741 0.0249584
2809000000 0.0044605 0.0261063 0.9955395 -0.0261063 0.9955395 -0.0261063 0.0044605 0.0261063
2830000000 0.0045499 0.0272497 0.9954501 -0.0272497 0.9954501 -0.0272497 0.0045499 0.0272497
2851000000 0.0046422 0.0283889 0.9953578 -0.0283889 0.9953578 -0.0283889 0.0046422 0.0283889
2872000000 0.0047376 0.0295240 0.9952624 -0.0295240 0.9952624 -0.0295240 0.0047376 0.0295240
2893000000 0.0048359 0.0306552 0.9951641 -0.0306552 0.9951641 -0.0306552 0.0048359 0.0306552
2914000000 0.0049373 0.0317828 0.9950627 -0.0317828 0.9950627 -0.0317828 0.0049373 0.0317828
2935000000 0.0050417 0.0329069 0.9949583 -0.0329069 0.9949583 -0.0329069 0.0050417 0.0329069
2956000000 0.0051492 0.0340276 0.9948508 -0.0340276 0.9948508 -0.0340276 0.0051492 0.0340276
2977000000 0.0052597 0.0351453 0.9947403 -0.0351453 0.9947403 -0.0351453 0.0052597 0.0351453
2998000000 0.0053734 0.0362600 0.9946266 -0.0362600 0.9946266 -0.0362600 0.0053734 0.0362600
3019000000 0.0054902 0.0373720 0.9945098 -0.0373720 0.9945098 -0.0373720 0.0054902 0.0373720
3040000000 0.0056101 0.0384815 0.9943899 -0.0384815 0.9943899 -0.0384815 0.0056101 0.0384815
3061000000 0.0057332 0.0395886 0.9942668 -0.0395886 0.9942668 -0.0395886 0.0057332 0.0395886
3082000000 0.0058595 0.0406935 0.9941405 -0.0406935 0.9941405 -0.0406935 0.0058595 0.0406935
3103000000 0.0059891 0.0417964 0.9940109 -0.0417964 0.9940109 -0.0417964 0.0059891 0.0417964
3124000000 0.0061221 0.0428975 0.9938779 -0.0428975 0.9938779 -0.0428975 0.0061221 0.0428975
3145000000 0.0062583 0.0439971 0.9937417 -0.0439971 0.9937417 -0.0439971 0.0062583 0.0439971
3166000000 0.0063981 0.0450952 0.9936019 -0.0450952 0.9936019 -0.0450952 0.0063981 0.0450952
3187000000 0.0065412 0.0461920 0.9934588 -0.0461920 0.9934588 -0.0461920 0.0065412 0.0461920
3208000000 0.0066880 0.0472879 0.9933120 -0.0472879 0.9933120 -0.0472879 0.0066880 0.0472879
3229000000 0.0068383 0.0483829 0.9931617 -0.0483829 0.9931617 -0.0483829 0.0068383 0.0483829
3250000000 0.0069923 0.0494773 0.9930077 -0.0494773 0.9930077 -0.0494773 0.0069923 0.0494773
3271000000 0.0071501 0.0505712 0.9928499 -0.0505712 0.9928499 -0.0505712 0.0071501 0.0505712
3292000000 0.0073117 0.0516649 0.9926883 -0.0516649 0.9926883 -0.0516649 0.0073117 0.0516649
3313000000 0.0074773 0.0527586 0.9925227 -0.0527586 0.9925227 -0.0527586 0.0074773 0.0527586
3334000000 0.0076469 0.0538525 0.9923531 -0.0538525 0.9923531 -0.0538525 0.0076469 0.0538525
3355000000 0.0078207 0.0549468 0.9921793 -0.0549468 0.9921793 -0.0549468 0.0078207 0.0549468
3376000000 0.0079987 0.0560417 0.9920013 -0.0560417 0.9920013 -0.0560417 0.0079987 0.0560417
3397000000 0.0081811 0.0571375 0.9918189 -0.0571375 0.9918189 -0.0571375 0.0081811 0.0571375
3418000000 0.0083680 0.0582344 0.9916320 -0.0582344 0.9916320 -0.0582344 0.0083680 0.0582344
3439000000 0.0085596 0.0593326 0.9914404 -0.0593326 0.9914404 -0.0593326 0.0085596 0.0593326
3460000000 0.0087560 0.0604324 0.9912440 -0.0604324 0.9912440 -0.0604324 0.0087560 0.0604324
3481000000 0.0089573 0.0615340 0.9910427 -0.0615340 0.9910427 -0.0615340 0.0089573 0.0615340
3502000000 0.0091638 0.0626378 0.9908362 -0.0626378 0.9908362 -0.0626378 0.0091638 0.0626378
3523000000 0.0093757 0.0637439 0.9906243 -0.0637439 0.9906243 -0.0637439 0.0093757 0.0637439
3544000000 0.0095930 0.0648527 0.9904070 -0.0648527 0.9904070 -0.0648527 0.0095930 0.0648527
3565000000 0.0098162 0.0659644 0.9901838 -0.0659644 0.9901838 -0.0659644 0.0098162 0.0659644
3586000000 0.0100453 0.0670793 0.9899547 -0.0670793 0.9899547 -0.0670793 0.0100453 0.0670793
3607000000 0.0102807 0.0681978 0.9897193 -0.0681978 0.9897193 -0.0681978 0.0102807 0.0681978
3628000000 0.0105226 0.0693202 0.9894774 -0.0693202 0.9894774 -0.0693202 0.0105226 0.0693202
3649000000 0.0107714 0.0704469 0.9892286 -0.0704469 0.9892286 -0.0704469 0.0107714 0.0704469
3670000000 0.0110273 0.0715781 0.9889727 -0.0715781 0.9889727 -0.0715781 0.0110273 0.0715781
3691000000 0.0112907 0.0727143 0.9887093 -0.0727143 0.9887093 -0.0727143 0.0112907 0.0727143
3712000000 0.0115620 0.0738558 0.9884380 -0.0738558 0.9884380 -0.0738558 0.0115620 0.0738558
3733000000 0.0118415 0.0750031 0.9881585 -0.0750031 0.9881585 -0.0750031 0.0118415 0.0750031
3754000000 0.0121298 0.0761566 0.9878702 -0.0761566 0.9878702 -0.0761566 0.0121298 0.0761566
3775000000 0.0124273 0.0773167 0.9875727 -0.0773167 0.9875727 -0.0773167 0.0124273 0.0773167
3796000000 0.0127346 0.0784839 0.9872654 -0.0784839 0.9872654 -0.0784839 0.0127346 0.0784839
3817000000 0.0130522 0.0796587 0.9869478 -0.0796587 0.9869478 -0.0796587 0.0130522 0.0796587
3838000000 0.0133807 0.0808417 0.9866193 -0.0808417 0.9866193 -0.0808417 0.0133807 0.0808417
3859000000 0.0137209 0.0820333 0.9862791 -0.0820333 0.9862791 -0.0820333 0.0137209 0.0820333
3880000000 0.0140736 0.0832341 0.9859264 -0.0832341 0.9859264 -0.0832341 0.0140736 0.0832341
3901000000 0.0144394 0.0844448 0.9855606 -0.0844448 0.9855606 -0.0844448 0.0144394 0.0844448
3922000000 0.0148195 0.0856661 0.9851805 -0.0856661 0.9851805 -0.0856661 0.0148195 0.0856661
3943000000 0.0152147 0.0868984 0.9847853 -0.0868984 0.9847853 -0.0868984 0.0152147 0.0868984
3964000000 0.0156263 0.0881427 0.9843737 -0.0881427 0.9843737 -0.0881427 0.0156263 0.0881427
3985000000 0.0160554 0.0893997 0.9839446 -0.0893997 0.9839446 -0.0893997 0.0160554 0.0893997
4006000000 0.0165034 0.0906700 0.9834966 -0.0906700 0.9834966 -0.0906700 0.0165034 0.0906700
4027000000 0.0169719 0.0919547 0.9830281 -0.0919547 0.9830281 -0.0919547 0.0169719 0.0919547
4048000000 0.0174625 0.0932544 0.9825375 -0.0932544 0.9825375 -0.0932544 0.0174625 0.0932544
4069000000 0.0179772 0.0945702 0.9820228 -0.0945702 0.9820228 -0.0945702 0.0179772 0.0945702
4090000000 0.0185181 0.0959030 0.9814819 -0.0959030 0.9814819 -0.0959030 0.0185181 0.0959030
4111000000 0.0190876 0.0972538 0.9809124 -0.0972538 0.9809124 -0.0972538 0.0190876 0.0972538
4132000000 0.0196884 0.0986236 0.9803116 -0.0986236 0.9803116 -0.0986236 0.0196884 0.0986236
4153000000 0.0203235 0.1000134 0.9796765 -0.1000134 0.9796765 -0.1000134 0.0203235 0.1000134
4174000000 0.0209963 0.1014242 0.9790037 -0.1014242 0.9790037 -0.1014242 0.0209963 0.1014242
4195000000 0.0217107 0.1028572 0.9782893 -0.1028572 0.9782893 -0.1028572 0.0217107 0.1028572
4216000000 0.0224711 0.1043134 0.9775289 -0.1043134 0.9775289 -0.1043134 0.0224711 0.1043134
4237000000 0.0232826 0.1057936 0.9767174 -0.1057936 0.9767174 -0.1057936 0.0232826 0.1057936
4258000000 0.0241508 0.1072987 0.9758492 -0.1072987 0.9758492 -0.1072987 0.0241508 0.1072987
4279000000 0.0250822 0.1088295 0.9749178 -0.1088295 0.9749178 -0.1088295 0.0250822 0.1088295
4300000000 0.0260844 0.1103863 0.9739156 -0.1103863 0.9739156 -0.1103863 0.0260844 0.1103863
4321000000 0.0271661 0.1119692 0.9728339 -0.1119692 0.9728339 -0.1119692 0.0271661 0.1119692
4342000000 0.0283370 0.1135778 0.9716630 -0.1135778 0.9716630 -0.1135778 0.0283370 0.1135778
4363000000 0.0296086 0.1152108 0.9703914 -0.1152108 0.9703914 -0.1152108 0.0296086 0.1152108
4384000000 0.0309940 0.1168662 0.9690060 -0.1168662 0.9690060 -0.1168662 0.0309940 0.1168662
4405000000 0.0325085 0.1185403 0.9674915 -0.1185403 0.9674915 -0.1185403 0.0325085 0.1185403
4426000000 0.0341695 0.1202277 0.9658305 -0.1202277 0.9658305 -0.1202277 0.0341695 0.1202277
4447000000 0.0359971 0.1219206 0.9640029 -0.1219206 0.9640029 -0.1219206 0.0359971 0.1219206
4468000000 0.0380143 0.1236073 0.9619857 -0.1236073 0.9619857 -0.1236073 0.0380143 0.1236073
4489000000 0.0402470 0.1252718 0.9597530 -0.1252718 0.9597530 -0.1252718 0.0402470 0.1252718
4510000000 0.0427246 0.1268917 0.9572754 -0.1268917 0.9572754 -0.1268917 0.0427246 0.1268917
