!Murata Part Number: GRM1885C1H3R5BA01
!These Parameters are Measured in Series Mode Connection
!Data Generated on Mar 30, 2021
!       o--ll--o
!Port1            Port2
!       o------o
!Operation Temp=25[degC], DC Bias Voltage=0[V]
!Freq. Start=100[MHz] Stop=9[GHz] 401[Steps]
# Hz S RI R 50
!Freq.(Hz) S11(Real) S11(Imag) S21(Real) S21(Imag) S12(Real) S12(Imag) S22(Real) S22(Imag)
100000000 0.9537334 -0.2098934 0.0462666 0.2098934 0.0462666 0.2098934 0.9537334 -0.2098934
121000000 0.9336372 -0.2487039 0.0663628 0.2487039 0.0663628 0.2487039 0.9336372 -0.2487039
142000000 0.9107617 -0.2848294 0.0892383 0.2848294 0.0892383 0.2848294 0.9107617 -0.2848294
163000000 0.8855516 -0.3180462 0.1144484 0.3180462 0.1144484 0.3180462 0.8855516 -0.3180462
184000000 0.8584592 -0.3482143 0.1415408 0.3482143 0.1415408 0.3482143 0.8584592 -0.3482143
205000000 0.8299280 -0.3752718 0.1700720 0.3752718 0.1700720 0.3752718 0.8299280 -0.3752718
226000000 0.8003789 -0.3992266 0.1996211 0.3992266 0.1996211 0.3992266 0.8003789 -0.3992266
247000000 0.7702004 -0.4201457 0.2297996 0.4201457 0.2297996 0.4201457 0.7702004 -0.4201457
268000000 0.7397409 -0.4381439 0.2602591 0.4381439 0.2602591 0.4381439 0.7397409 -0.4381439
289000000 0.7093058 -0.4533725 0.2906942 0.4533725 0.2906942 0.4533725 0.7093058 -0.4533725
310000000 0.6791555 -0.4660086 0.3208445 0.4660086 0.3208445 0.4660086 0.6791555 -0.4660086
331000000 0.6495068 -0.4762457 0.3504932 0.4762457 0.3504932 0.4762457 0.6495068 -0.4762457
352000000 0.6205350 -0.4842851 0.3794650 0.4842851 0.3794650 0.4842851 0.6205350 -0.4842851
373000000 0.5923776 -0.4903301 0.4076224 0.4903301 0.4076224 0.4903301 0.5923776 -0.4903301
394000000 0.5651380 -0.4945801 0.4348620 0.4945801 0.4348620 0.4945801 0.5651380 -0.4945801
415000000 0.5388903 -0.4972269 0.4611097 0.4972269 0.4611097 0.4972269 0.5388903 -0.4972269
436000000 0.5136829 -0.4984522 0.4863171 0.4984522 0.4863171 0.4984522 0.5136829 -0.4984522
457000000 0.4895435 -0.4984253 0.5104565 0.4984253 0.5104565 0.4984253 0.4895435 -0.4984253
478000000 0.4664817 -0.4973029 0.5335183 0.4973029 0.5335183 0.4973029 0.4664817 -0.4973029
499000000 0.4444933 -0.4952280 0.5555067 0.4952280 0.5555067 0.4952280 0.4444933 -0.4952280
520000000 0.4235629 -0.4923303 0.5764371 0.4923303 0.5764371 0.4923303 0.4235629 -0.4923303
541000000 0.4036665 -0.4887268 0.5963335 0.4887268 0.5963335 0.4887268 0.4036665 -0.4887268
562000000 0.3847735 -0.4845220 0.6152265 0.4845220 0.6152265 0.4845220 0.3847735 -0.4845220
583000000 0.3668487 -0.4798091 0.6331513 0.4798091 0.6331513 0.4798091 0.3668487 -0.4798091
604000000 0.3498537 -0.4746706 0.6501463 0.4746706 0.6501463 0.4746706 0.3498537 -0.4746706
625000000 0.3337482 -0.4691795 0.6662518 0.4691795 0.6662518 0.4691795 0.3337482 -0.4691795
646000000 0.3184908 -0.4633996 0.6815092 0.4633996 0.6815092 0.4633996 0.3184908 -0.4633996
667000000 0.3040399 -0.4573873 0.6959601 0.4573873 0.6959601 0.4573873 0.3040399 -0.4573873
688000000 0.2903541 -0.4511913 0.7096459 0.4511913 0.7096459 0.4511913 0.2903541 -0.4511913
709000000 0.2773929 -0.4448545 0.7226071 0.4448545 0.7226071 0.4448545 0.2773929 -0.4448545
730000000 0.2651171 -0.4384139 0.7348829 0.4384139 0.7348829 0.4384139 0.2651171 -0.4384139
751000000 0.2534884 -0.4319013 0.7465116 0.4319013 0.7465116 0.4319013 0.2534884 -0.4319013
772000000 0.2424706 -0.4253446 0.7575294 0.4253446 0.7575294 0.4253446 0.2424706 -0.4253446
793000000 0.2320286 -0.4187673 0.7679714 0.4187673 0.7679714 0.4187673 0.2320286 -0.4187673
814000000 0.2221293 -0.4121898 0.7778707 0.4121898 0.7778707 0.4121898 0.2221293 -0.4121898
835000000 0.2127413 -0.4056294 0.7872587 0.4056294 0.7872587 0.4056294 0.2127413 -0.4056294
856000000 0.2038346 -0.3991009 0.7961654 0.3991009 0.7961654 0.3991009 0.2038346 -0.3991009
877000000 0.1953813 -0.3926165 0.8046187 0.3926165 0.8046187 0.3926165 0.1953813 -0.3926165
898000000 0.1873548 -0.3861869 0.8126452 0.3861869 0.8126452 0.3861869 0.1873548 -0.3861869
919000000 0.1797301 -0.3798206 0.8202699 0.3798206 0.8202699 0.3798206 0.1797301 -0.3798206
940000000 0.1724838 -0.3735248 0.8275162 0.3735248 0.8275162 0.3735248 0.1724838 -0.3735248
961000000 0.1655940 -0.3673054 0.8344060 0.3673054 0.8344060 0.3673054 0.1655940 -0.3673054
982000000 0.1590398 -0.3611671 0.8409602 0.3611671 0.8409602 0.3611671 0.1590398 -0.3611671
1003000000 0.1528021 -0.3551137 0.8471979 0.3551137 0.8471979 0.3551137 0.1528021 -0.3551137
1024000000 0.1468625 -0.3491480 0.8531375 0.3491480 0.8531375 0.3491480 0.1468625 -0.3491480
1045000000 0.1412042 -0.3432721 0.8587958 0.3432721 0.8587958 0.3432721 0.1412042 -0.3432721
1066000000 0.1358111 -0.3374877 0.8641889 0.3374877 0.8641889 0.3374877 0.1358111 -0.3374877
1087000000 0.1306682 -0.3317957 0.8693318 0.3317957 0.8693318 0.3317957 0.1306682 -0.3317957
1108000000 0.1257617 -0.3261965 0.8742383 0.3261965 0.8742383 0.3261965 0.1257617 -0.3261965
1129000000 0.1210784 -0.3206904 0.8789216 0.3206904 0.8789216 0.3206904 0.1210784 -0.3206904
1150000000 0.1166060 -0.3152770 0.8833940 0.3152770 0.8833940 0.3152770 0.1166060 -0.3152770
1171000000 0.1123329 -0.3099559 0.8876671 0.3099559 0.8876671 0.3099559 0.1123329 -0.3099559
1192000000 0.1082485 -0.3047264 0.8917515 0.3047264 0.8917515 0.3047264 0.1082485 -0.3047264
1213000000 0.1043425 -0.2995874 0.8956575 0.2995874 0.8956575 0.2995874 0.1043425 -0.2995874
1234000000 0.1006054 -0.2945378 0.8993946 0.2945378 0.8993946 0.2945378 0.1006054 -0.2945378
1255000000 0.0970285 -0.2895765 0.9029715 0.2895765 0.9029715 0.2895765 0.0970285 -0.2895765
1276000000 0.0936032 -0.2847019 0.9063968 0.2847019 0.9063968 0.2847019 0.0936032 -0.2847019
1297000000 0.0903218 -0.2799127 0.9096782 0.2799127 0.9096782 0.2799127 0.0903218 -0.2799127
1318000000 0.0871769 -0.2752073 0.9128231 0.2752073 0.9128231 0.2752073 0.0871769 -0.2752073
1339000000 0.0841615 -0.2705842 0.9158385 0.2705842 0.9158385 0.2705842 0.0841615 -0.2705842
1360000000 0.0812692 -0.2660416 0.9187308 0.2660416 0.9187308 0.2660416 0.0812692 -0.2660416
1381000000 0.0784937 -0.2615779 0.9215063 0.2615779 0.9215063 0.2615779 0.0784937 -0.2615779
1402000000 0.0758294 -0.2571915 0.9241706 0.2571915 0.9241706 0.2571915 0.0758294 -0.2571915
1423000000 0.0732708 -0.2528806 0.9267292 0.2528806 0.9267292 0.2528806 0.0732708 -0.2528806
1444000000 0.0708128 -0.2486435 0.9291872 0.2486435 0.9291872 0.2486435 0.0708128 -0.2486435
1465000000 0.0684506 -0.2444786 0.9315494 0.2444786 0.9315494 0.2444786 0.0684506 -0.2444786
1486000000 0.0661796 -0.2403842 0.9338204 0.2403842 0.9338204 0.2403842 0.0661796 -0.2403842
1507000000 0.0639956 -0.2363586 0.9360044 0.2363586 0.9360044 0.2363586 0.0639956 -0.2363586
1528000000 0.0618945 -0.2324002 0.9381055 0.2324002 0.9381055 0.2324002 0.0618945 -0.2324002
1549000000 0.0598725 -0.2285073 0.9401275 0.2285073 0.9401275 0.2285073 0.0598725 -0.2285073
1570000000 0.0579260 -0.2246784 0.9420740 0.2246784 0.9420740 0.2246784 0.0579260 -0.2246784
1591000000 0.0560516 -0.2209118 0.9439484 0.2209118 0.9439484 0.2209118 0.0560516 -0.2209118
1612000000 0.0542461 -0.2172061 0.9457539 0.2172061 0.9457539 0.2172061 0.0542461 -0.2172061
1633000000 0.0525064 -0.2135598 0.9474936 0.2135598 0.9474936 0.2135598 0.0525064 -0.2135598
1654000000 0.0508297 -0.2099712 0.9491703 0.2099712 0.9491703 0.2099712 0.0508297 -0.2099712
1675000000 0.0492132 -0.2064391 0.9507868 0.2064391 0.9507868 0.2064391 0.0492132 -0.2064391
1696000000 0.0476544 -0.2029620 0.9523456 0.2029620 0.9523456 0.2029620 0.0476544 -0.2029620
1717000000 0.0461508 -0.1995384 0.9538492 0.1995384 0.9538492 0.1995384 0.0461508 -0.1995384
1738000000 0.0447000 -0.1961671 0.9553000 0.1961671 0.9553000 0.1961671 0.0447000 -0.1961671
1759000000 0.0432999 -0.1928468 0.9567001 0.1928468 0.9567001 0.1928468 0.0432999 -0.1928468
1780000000 0.0419485 -0.1895761 0.9580515 0.1895761 0.9580515 0.1895761 0.0419485 -0.1895761
1801000000 0.0406436 -0.1863538 0.9593564 0.1863538 0.9593564 0.1863538 0.0406436 -0.1863538
1822000000 0.0393835 -0.1831787 0.9606165 0.1831787 0.9606165 0.1831787 0.0393835 -0.1831787
1843000000 0.0381663 -0.1800496 0.9618337 0.1800496 0.9618337 0.1800496 0.0381663 -0.1800496
1864000000 0.0369903 -0.1769654 0.9630097 0.1769654 0.9630097 0.1769654 0.0369903 -0.1769654
1885000000 0.0358540 -0.1739249 0.9641460 0.1739249 0.9641460 0.1739249 0.0358540 -0.1739249
1906000000 0.0347558 -0.1709270 0.9652442 0.1709270 0.9652442 0.1709270 0.0347558 -0.1709270
1927000000 0.0336942 -0.1679707 0.9663058 0.1679707 0.9663058 0.1679707 0.0336942 -0.1679707
1948000000 0.0326678 -0.1650549 0.9673322 0.1650549 0.9673322 0.1650549 0.0326678 -0.1650549
1969000000 0.0316753 -0.1621787 0.9683247 0.1621787 0.9683247 0.1621787 0.0316753 -0.1621787
1990000000 0.0307155 -0.1593410 0.9692845 0.1593410 0.9692845 0.1593410 0.0307155 -0.1593410
2011000000 0.0297872 -0.1565409 0.9702128 0.1565409 0.9702128 0.1565409 0.0297872 -0.1565409
2032000000 0.0288891 -0.1537775 0.9711109 0.1537775 0.9711109 0.1537775 0.0288891 -0.1537775
2053000000 0.0280202 -0.1510498 0.9719798 0.1510498 0.9719798 0.1510498 0.0280202 -0.1510498
2074000000 0.0271795 -0.1483571 0.9728205 0.1483571 0.9728205 0.1483571 0.0271795 -0.1483571
2095000000 0.0263659 -0.1456985 0.9736341 0.1456985 0.9736341 0.1456985 0.0263659 -0.1456985
2116000000 0.0255786 -0.1430730 0.9744214 0.1430730 0.9744214 0.1430730 0.0255786 -0.1430730
2137000000 0.0248165 -0.1404800 0.9751835 0.1404800 0.9751835 0.1404800 0.0248165 -0.1404800
2158000000 0.0240788 -0.1379187 0.9759212 0.1379187 0.9759212 0.1379187 0.0240788 -0.1379187
2179000000 0.0233648 -0.1353883 0.9766352 0.1353883 0.9766352 0.1353883 0.0233648 -0.1353883
2200000000 0.0226735 -0.1328880 0.9773265 0.1328880 0.9773265 0.1328880 0.0226735 -0.1328880
2221000000 0.0220043 -0.1304172 0.9779957 0.1304172 0.9779957 0.1304172 0.0220043 -0.1304172
2242000000 0.0213563 -0.1279751 0.9786437 0.1279751 0.9786437 0.1279751 0.0213563 -0.1279751
2263000000 0.0207290 -0.1255611 0.9792710 0.1255611 0.9792710 0.1255611 0.0207290 -0.1255611
2284000000 0.0201216 -0.1231745 0.9798784 0.1231745 0.9798784 0.1231745 0.0201216 -0.1231745
2305000000 0.0195335 -0.1208146 0.9804665 0.1208146 0.9804665 0.1208146 0.0195335 -0.1208146
2326000000 0.0189642 -0.1184809 0.9810358 0.1184809 0.9810358 0.1184809 0.0189642 -0.1184809
2347000000 0.0184129 -0.1161728 0.9815871 0.1161728 0.9815871 0.1161728 0.0184129 -0.1161728
2368000000 0.0178791 -0.1138896 0.9821209 0.1138896 0.9821209 0.1138896 0.0178791 -0.1138896
2389000000 0.0173624 -0.1116308 0.9826376 0.1116308 0.9826376 0.1116308 0.0173624 -0.1116308
2410000000 0.0168621 -0.1093959 0.9831379 0.1093959 0.9831379 0.1093959 0.0168621 -0.1093959
2431000000 0.0163779 -0.1071842 0.9836221 0.1071842 0.9836221 0.1071842 0.0163779 -0.1071842
2452000000 0.0159091 -0.1049953 0.9840909 0.1049953 0.9840909 0.1049953 0.0159091 -0.1049953
2473000000 0.0154554 -0.1028286 0.9845446 0.1028286 0.9845446 0.1028286 0.0154554 -0.1028286
2494000000 0.0150163 -0.1006836 0.9849837 0.1006836 0.9849837 0.1006836 0.0150163 -0.1006836
2515000000 0.0145914 -0.0985600 0.9854086 0.0985600 0.9854086 0.0985600 0.0145914 -0.0985600
2536000000 0.0141803 -0.0964571 0.9858197 0.0964571 0.9858197 0.0964571 0.0141803 -0.0964571
2557000000 0.0137826 -0.0943745 0.9862174 0.0943745 0.9862174 0.0943745 0.0137826 -0.0943745
2578000000 0.0133979 -0.0923118 0.9866021 0.0923118 0.9866021 0.0923118 0.0133979 -0.0923118
2599000000 0.0130259 -0.0902685 0.9869741 0.0902685 0.9869741 0.0902685 0.0130259 -0.0902685
2620000000 0.0126662 -0.0882442 0.9873338 0.0882442 0.9873338 0.0882442 0.0126662 -0.0882442
2641000000 0.0123184 -0.0862386 0.9876816 0.0862386 0.9876816 0.0862386 0.0123184 -0.0862386
2662000000 0.0119824 -0.0842511 0.9880176 0.0842511 0.9880176 0.0842511 0.0119824 -0.0842511
2683000000 0.0116577 -0.0822814 0.9883423 0.0822814 0.9883423 0.0822814 0.0116577 -0.0822814
2704000000 0.0113440 -0.0803291 0.9886560 0.0803291 0.9886560 0.0803291 0.0113440 -0.0803291
2725000000 0.0110411 -0.0783938 0.9889589 0.0783938 0.9889589 0.0783938 0.0110411 -0.0783938
2746000000 0.0107487 -0.0764752 0.9892513 0.0764752 0.9892513 0.0764752 0.0107487 -0.0764752
2767000000 0.0104666 -0.0745730 0.9895334 0.0745730 0.9895334 0.0745730 0.0104666 -0.0745730
2788000000 0.0101944 -0.0726867 0.9898056 0.0726867 0.9898056 0.0726867 0.0101944 -0.0726867
2809000000 0.0099319 -0.0708160 0.9900681 0.0708160 0.9900681 0.0708160 0.0099319 -0.0708160
2830000000 0.0096789 -0.0689606 0.9903211 0.0689606 0.9903211 0.0689606 0.0096789 -0.0689606
2851000000 0.0094352 -0.0671202 0.9905648 0.0671202 0.9905648 0.0671202 0.0094352 -0.0671202
2872000000 0.0092006 -0.0652944 0.9907994 0.0652944 0.9907994 0.0652944 0.0092006 -0.0652944
2893000000 0.0089747 -0.0634830 0.9910253 0.0634830 0.9910253 0.0634830 0.0089747 -0.0634830
2914000000 0.0087575 -0.0616856 0.9912425 0.0616856 0.9912425 0.0616856 0.0087575 -0.0616856
2935000000 0.0085487 -0.0599020 0.9914513 0.0599020 0.9914513 0.0599020 0.0085487 -0.0599020
2956000000 0.0083482 -0.0581319 0.9916518 0.0581319 0.9916518 0.0581319 0.0083482 -0.0581319
2977000000 0.0081557 -0.0563749 0.9918443 0.0563749 0.9918443 0.0563749 0.0081557 -0.0563749
2998000000 0.0079711 -0.0546309 0.9920289 0.0546309 0.9920289 0.0546309 0.0079711 -0.0546309
3019000000 0.0077942 -0.0528995 0.9922058 0.0528995 0.9922058 0.0528995 0.0077942 -0.0528995
3040000000 0.0076248 -0.0511805 0.9923752 0.0511805 0.9923752 0.0511805 0.0076248 -0.0511805
3061000000 0.0074628 -0.0494736 0.9925372 0.0494736 0.9925372 0.0494736 0.0074628 -0.0494736
3082000000 0.0073080 -0.0477786 0.9926920 0.0477786 0.9926920 0.0477786 0.0073080 -0.0477786
3103000000 0.0071604 -0.0460953 0.9928396 0.0460953 0.9928396 0.0460953 0.0071604 -0.0460953
3124000000 0.0070196 -0.0444233 0.9929804 0.0444233 0.9929804 0.0444233 0.0070196 -0.0444233
3145000000 0.0068856 -0.0427626 0.9931144 0.0427626 0.9931144 0.0427626 0.0068856 -0.0427626
3166000000 0.0067584 -0.0411127 0.9932416 0.0411127 0.9932416 0.0411127 0.0067584 -0.0411127
3187000000 0.0066376 -0.0394736 0.9933624 0.0394736 0.9933624 0.0394736 0.0066376 -0.0394736
3208000000 0.0065232 -0.0378450 0.9934768 0.0378450 0.9934768 0.0378450 0.0065232 -0.0378450
3229000000 0.0064152 -0.0362267 0.9935848 0.0362267 0.9935848 0.0362267 0.0064152 -0.0362267
3250000000 0.0063133 -0.0346184 0.9936867 0.0346184 0.9936867 0.0346184 0.0063133 -0.0346184
3271000000 0.0062175 -0.0330201 0.9937825 0.0330201 0.9937825 0.0330201 0.0062175 -0.0330201
3292000000 0.0061276 -0.0314313 0.9938724 0.0314313 0.9938724 0.0314313 0.0061276 -0.0314313
3313000000 0.0060436 -0.0298521 0.9939564 0.0298521 0.9939564 0.0298521 0.0060436 -0.0298521
3334000000 0.0059653 -0.0282822 0.9940347 0.0282822 0.9940347 0.0282822 0.0059653 -0.0282822
3355000000 0.0058926 -0.0267213 0.9941074 0.0267213 0.9941074 0.0267213 0.0058926 -0.0267213
3376000000 0.0058256 -0.0251694 0.9941744 0.0251694 0.9941744 0.0251694 0.0058256 -0.0251694
3397000000 0.0057640 -0.0236261 0.9942360 0.0236261 0.9942360 0.0236261 0.0057640 -0.0236261
3418000000 0.0057077 -0.0220915 0.9942923 0.0220915 0.9942923 0.0220915 0.0057077 -0.0220915
3439000000 0.0056568 -0.0205652 0.9943432 0.0205652 0.9943432 0.0205652 0.0056568 -0.0205652
3460000000 0.0056111 -0.0190471 0.9943889 0.0190471 0.9943889 0.0190471 0.0056111 -0.0190471
3481000000 0.0055705 -0.0175370 0.9944295 0.0175370 0.9944295 0.0175370 0.0055705 -0.0175370
3502000000 0.0055350 -0.0160348 0.9944650 0.0160348 0.9944650 0.0160348 0.0055350 -0.0160348
3523000000 0.0055044 -0.0145403 0.9944956 0.0145403 0.9944956 0.0145403 0.0055044 -0.0145403
3544000000 0.0054788 -0.0130534 0.9945212 0.0130534 0.9945212 0.0130534 0.0054788 -0.0130534
3565000000 0.0054580 -0.0115739 0.9945420 0.0115739 0.9945420 0.0115739 0.0054580 -0.0115739
3586000000 0.0054420 -0.0101016 0.9945580 0.0101016 0.9945580 0.0101016 0.0054420 -0.0101016
3607000000 0.0054308 -0.0086364 0.9945692 0.0086364 0.9945692 0.0086364 0.0054308 -0.0086364
3628000000 0.0054241 -0.0071781 0.9945759 0.0071781 0.9945759 0.0071781 0.0054241 -0.0071781
3649000000 0.0054221 -0.0057267 0.9945779 0.0057267 0.9945779 0.0057267 0.0054221 -0.0057267
3670000000 0.0054247 -0.0042819 0.9945753 0.0042819 0.9945753 0.0042819 0.0054247 -0.0042819
3691000000 0.0054317 -0.0028436 0.9945683 0.0028436 0.9945683 0.0028436 0.0054317 -0.0028436
3712000000 0.0054432 -0.0014117 0.9945568 0.0014117 0.9945568 0.0014117 0.0054432 -0.0014117
3733000000 0.0054590 0.0000140 0.9945410 -0.0000140 0.9945410 -0.0000140 0.0054590 0.0000140
3754000000 0.0054792 0.0014335 0.9945208 -0.0014335 0.9945208 -0.0014335 0.0054792 0.0014335
3775000000 0.0055037 0.0028471 0.9944963 -0.0028471 0.9944963 -0.0028471 0.0055037 0.0028471
3796000000 0.0055324 0.0042549 0.9944676 -0.0042549 0.9944676 -0.0042549 0.0055324 0.0042549
3817000000 0.0055654 0.0056569 0.9944346 -0.0056569 0.9944346 -0.0056569 0.0055654 0.0056569
3838000000 0.0056025 0.0070533 0.9943975 -0.0070533 0.9943975 -0.0070533 0.0056025 0.0070533
3859000000 0.0056438 0.0084443 0.9943562 -0.0084443 0.9943562 -0.0084443 0.0056438 0.0084443
3880000000 0.0056892 0.0098299 0.9943108 -0.0098299 0.9943108 -0.0098299 0.0056892 0.0098299
3901000000 0.0057386 0.0112103 0.9942614 -0.0112103 0.9942614 -0.0112103 0.0057386 0.0112103
3922000000 0.0057921 0.0125855 0.9942079 -0.0125855 0.9942079 -0.0125855 0.0057921 0.0125855
3943000000 0.0058495 0.0139558 0.9941505 -0.0139558 0.9941505 -0.0139558 0.0058495 0.0139558
3964000000 0.0059110 0.0153213 0.9940890 -0.0153213 0.9940890 -0.0153213 0.0059110 0.0153213
3985000000 0.0059763 0.0166819 0.9940237 -0.0166819 0.9940237 -0.0166819 0.0059763 0.0166819
4006000000 0.0060456 0.0180379 0.9939544 -0.0180379 0.9939544 -0.0180379 0.0060456 0.0180379
4027000000 0.0061188 0.0193894 0.9938812 -0.0193894 0.9938812 -0.0193894 0.0061188 0.0193894
4048000000 0.0061958 0.0207364 0.9938042 -0.0207364 0.9938042 -0.0207364 0.0061958 0.0207364
4069000000 0.0062767 0.0220792 0.9937233 -0.0220792 0.9937233 -0.0220792 0.0062767 0.0220792
4090000000 0.0063615 0.0234177 0.9936385 -0.0234177 0.9936385 -0.0234177 0.0063615 0.0234177
4111000000 0.0064500 0.0247521 0.9935500 -0.0247521 0.9935500 -0.0247521 0.0064500 0.0247521
4132000000 0.0065423 0.0260825 0.9934577 -0.0260825 0.9934577 -0.0260825 0.0065423 0.0260825
4153000000 0.0066384 0.0274090 0.9933616 -0.0274090 0.9933616 -0.0274090 0.0066384 0.0274090
4174000000 0.0067382 0.0287317 0.9932618 -0.0287317 0.9932618 -0.0287317 0.0067382 0.0287317
4195000000 0.0068418 0.0300508 0.9931582 -0.0300508 0.9931582 -0.0300508 0.0068418 0.0300508
4216000000 0.0069492 0.0313662 0.9930508 -0.0313662 0.9930508 -0.0313662 0.0069492 0.0313662
4237000000 0.0070602 0.0326782 0.9929398 -0.0326782 0.9929398 -0.0326782 0.0070602 0.0326782
4258000000 0.0071750 0.0339868 0.9928250 -0.0339868 0.9928250 -0.0339868 0.0071750 0.0339868
4279000000 0.0072935 0.0352920 0.9927065 -0.0352920 0.9927065 -0.0352920 0.0072935 0.0352920
4300000000 0.0074157 0.0365941 0.9925843 -0.0365941 0.9925843 -0.0365941 0.0074157 0.0365941
4321000000 0.0075416 0.0378931 0.9924584 -0.0378931 0.9924584 -0.0378931 0.0075416 0.0378931
4342000000 0.0076712 0.0391891 0.9923288 -0.0391891 0.9923288 -0.0391891 0.0076712 0.0391891
4363000000 0.0078044 0.0404821 0.9921956 -0.0404821 0.9921956 -0.0404821 0.0078044 0.0404821
4384000000 0.0079414 0.0417724 0.9920586 -0.0417724 0.9920586 -0.0417724 0.0079414 0.0417724
4405000000 0.0080821 0.0430600 0.9919179 -0.0430600 0.9919179 -0.0430600 0.0080821 0.0430600
4426000000 0.0082264 0.0443449 0.9917736 -0.0443449 0.9917736 -0.0443449 0.0082264 0.0443449
4447000000 0.0083745 0.0456273 0.9916255 -0.0456273 0.9916255 -0.0456273 0.0083745 0.0456273
4468000000 0.0085263 0.0469072 0.9914737 -0.0469072 0.9914737 -0.0469072 0.0085263 0.0469072
4489000000 0.0086818 0.0481848 0.9913182 -0.0481848 0.9913182 -0.0481848 0.0086818 0.0481848
4510000000 0.0088410 0.0494602 0.9911590 -0.0494602 0.9911590 -0.0494602 0.0088410 0.0494602
