!Murata Part Number: GRM1882C1H560JA01
!These Parameters are Measured in Series Mode Connection
!Data Generated on Mar 30, 2021
!       o--ll--o
!Port1            Port2
!       o------o
!Operation Temp=25[degC], DC Bias Voltage=0[V]
!Freq. Start=100[MHz] Stop=9[GHz] 401[Steps]
# Hz S RI R 50
!Freq.(Hz) S11(Real) S11(Imag) S21(Real) S21(Imag) S12(Real) S12(Imag) S22(Real) S22(Imag)
100000000 0.0743560 -0.2589698 0.9256440 0.2589698 0.9256440 0.2589698 0.0743560 -0.2589698
121000000 0.0519384 -0.2177917 0.9480616 0.2177917 0.9480616 0.2177917 0.0519384 -0.2177917
142000000 0.0381966 -0.1868159 0.9618034 0.1868159 0.9618034 0.1868159 0.0381966 -0.1868159
163000000 0.0292102 -0.1627820 0.9707898 0.1627820 0.9707898 0.1627820 0.0292102 -0.1627820
184000000 0.0230311 -0.1436138 0.9769689 0.1436138 0.9769689 0.1436138 0.0230311 -0.1436138
205000000 0.0186102 -0.1279611 0.9813898 0.1279611 0.9813898 0.1279611 0.0186102 -0.1279611
226000000 0.0153443 -0.1149198 0.9846557 0.1149198 0.9846557 0.1149198 0.0153443 -0.1149198
247000000 0.0128676 -0.1038656 0.9871324 0.1038656 0.9871324 0.1038656 0.0128676 -0.1038656
268000000 0.0109481 -0.0943560 0.9890519 0.0943560 0.9890519 0.0943560 0.0109481 -0.0943560
289000000 0.0094331 -0.0860691 0.9905669 0.0860691 0.9905669 0.0860691 0.0094331 -0.0860691
310000000 0.0082189 -0.0787659 0.9917811 0.0787659 0.9917811 0.0787659 0.0082189 -0.0787659
331000000 0.0072332 -0.0722652 0.9927668 0.0722652 0.9927668 0.0722652 0.0072332 -0.0722652
352000000 0.0064241 -0.0664274 0.9935759 0.0664274 0.9935759 0.0664274 0.0064241 -0.0664274
373000000 0.0057539 -0.0611435 0.9942461 0.0611435 0.9942461 0.0611435 0.0057539 -0.0611435
394000000 0.0051943 -0.0563266 0.9948057 0.0563266 0.9948057 0.0563266 0.0051943 -0.0563266
415000000 0.0047242 -0.0519073 0.9952758 0.0519073 0.9952758 0.0519073 0.0047242 -0.0519073
436000000 0.0043273 -0.0478291 0.9956727 0.0478291 0.9956727 0.0478291 0.0043273 -0.0478291
457000000 0.0039908 -0.0440457 0.9960092 0.0440457 0.9960092 0.0440457 0.0039908 -0.0440457
478000000 0.0037049 -0.0405185 0.9962951 0.0405185 0.9962951 0.0405185 0.0037049 -0.0405185
499000000 0.0034615 -0.0372158 0.9965385 0.0372158 0.9965385 0.0372158 0.0034615 -0.0372158
520000000 0.0032543 -0.0341104 0.9967457 0.0341104 0.9967457 0.0341104 0.0032543 -0.0341104
541000000 0.0030781 -0.0311795 0.9969219 0.0311795 0.9969219 0.0311795 0.0030781 -0.0311795
562000000 0.0029287 -0.0284038 0.9970713 0.0284038 0.9970713 0.0284038 0.0029287 -0.0284038
583000000 0.0028027 -0.0257664 0.9971973 0.0257664 0.9971973 0.0257664 0.0028027 -0.0257664
604000000 0.0026971 -0.0232530 0.9973029 0.0232530 0.9973029 0.0232530 0.0026971 -0.0232530
625000000 0.0026096 -0.0208510 0.9973904 0.0208510 0.9973904 0.0208510 0.0026096 -0.0208510
646000000 0.0025381 -0.0185496 0.9974619 0.0185496 0.9974619 0.0185496 0.0025381 -0.0185496
667000000 0.0024809 -0.0163391 0.9975191 0.0163391 0.9975191 0.0163391 0.0024809 -0.0163391
688000000 0.0024367 -0.0142113 0.9975633 0.0142113 0.9975633 0.0142113 0.0024367 -0.0142113
709000000 0.0024040 -0.0121587 0.9975960 0.0121587 0.9975960 0.0121587 0.0024040 -0.0121587
730000000 0.0023820 -0.0101746 0.9976180 0.0101746 0.9976180 0.0101746 0.0023820 -0.0101746
751000000 0.0023697 -0.0082534 0.9976303 0.0082534 0.9976303 0.0082534 0.0023697 -0.0082534
772000000 0.0023663 -0.0063896 0.9976337 0.0063896 0.9976337 0.0063896 0.0023663 -0.0063896
793000000 0.0023711 -0.0045787 0.9976289 0.0045787 0.9976289 0.0045787 0.0023711 -0.0045787
814000000 0.0023835 -0.0028164 0.9976165 0.0028164 0.9976165 0.0028164 0.0023835 -0.0028164
835000000 0.0024031 -0.0010990 0.9975969 0.0010990 0.9975969 0.0010990 0.0024031 -0.0010990
856000000 0.0024294 0.0005769 0.9975706 -0.0005769 0.9975706 -0.0005769 0.0024294 0.0005769
877000000 0.0024621 0.0022146 0.9975379 -0.0022146 0.9975379 -0.0022146 0.0024621 0.0022146
898000000 0.0025007 0.0038168 0.9974993 -0.0038168 0.9974993 -0.0038168 0.0025007 0.0038168
919000000 0.0025450 0.0053860 0.9974550 -0.0053860 0.9974550 -0.0053860 0.0025450 0.0053860
940000000 0.0025948 0.0069247 0.9974052 -0.0069247 0.9974052 -0.0069247 0.0025948 0.0069247
961000000 0.0026497 0.0084350 0.9973503 -0.0084350 0.9973503 -0.0084350 0.0026497 0.0084350
982000000 0.0027097 0.0099188 0.9972903 -0.0099188 0.9972903 -0.0099188 0.0027097 0.0099188
1003000000 0.0027746 0.0113780 0.9972254 -0.0113780 0.9972254 -0.0113780 0.0027746 0.0113780
1024000000 0.0028443 0.0128143 0.9971557 -0.0128143 0.9971557 -0.0128143 0.0028443 0.0128143
1045000000 0.0029185 0.0142291 0.9970815 -0.0142291 0.9970815 -0.0142291 0.0029185 0.0142291
1066000000 0.0029973 0.0156240 0.9970027 -0.0156240 0.9970027 -0.0156240 0.0029973 0.0156240
1087000000 0.0030805 0.0170003 0.9969195 -0.0170003 0.9969195 -0.0170003 0.0030805 0.0170003
1108000000 0.0031682 0.0183591 0.9968318 -0.0183591 0.9968318 -0.0183591 0.0031682 0.0183591
1129000000 0.0032602 0.0197017 0.9967398 -0.0197017 0.9967398 -0.0197017 0.0032602 0.0197017
1150000000 0.0033565 0.0210292 0.9966435 -0.0210292 0.9966435 -0.0210292 0.0033565 0.0210292
1171000000 0.0034572 0.0223425 0.9965428 -0.0223425 0.9965428 -0.0223425 0.0034572 0.0223425
1192000000 0.0035623 0.0236426 0.9964377 -0.0236426 0.9964377 -0.0236426 0.0035623 0.0236426
1213000000 0.0036717 0.0249304 0.9963283 -0.0249304 0.9963283 -0.0249304 0.0036717 0.0249304
1234000000 0.0037856 0.0262068 0.9962144 -0.0262068 0.9962144 -0.0262068 0.0037856 0.0262068
1255000000 0.0039039 0.0274724 0.9960961 -0.0274724 0.9960961 -0.0274724 0.0039039 0.0274724
1276000000 0.0040269 0.0287282 0.9959731 -0.0287282 0.9959731 -0.0287282 0.0040269 0.0287282
1297000000 0.0041545 0.0299747 0.9958455 -0.0299747 0.9958455 -0.0299747 0.0041545 0.0299747
1318000000 0.0042870 0.0312127 0.9957130 -0.0312127 0.9957130 -0.0312127 0.0042870 0.0312127
1339000000 0.0044244 0.0324429 0.9955756 -0.0324429 0.9955756 -0.0324429 0.0044244 0.0324429
1360000000 0.0045670 0.0336658 0.9954330 -0.0336658 0.9954330 -0.0336658 0.0045670 0.0336658
1381000000 0.0047150 0.0348820 0.9952850 -0.0348820 0.9952850 -0.0348820 0.0047150 0.0348820
1402000000 0.0048687 0.0360921 0.9951313 -0.0360921 0.9951313 -0.0360921 0.0048687 0.0360921
1423000000 0.0050282 0.0372966 0.9949718 -0.0372966 0.9949718 -0.0372966 0.0050282 0.0372966
1444000000 0.0051940 0.0384960 0.9948060 -0.0384960 0.9948060 -0.0384960 0.0051940 0.0384960
1465000000 0.0053664 0.0396908 0.9946336 -0.0396908 0.9946336 -0.0396908 0.0053664 0.0396908
1486000000 0.0055459 0.0408814 0.9944541 -0.0408814 0.9944541 -0.0408814 0.0055459 0.0408814
1507000000 0.0057331 0.0420683 0.9942669 -0.0420683 0.9942669 -0.0420683 0.0057331 0.0420683
1528000000 0.0059284 0.0432518 0.9940716 -0.0432518 0.9940716 -0.0432518 0.0059284 0.0432518
1549000000 0.0061326 0.0444323 0.9938674 -0.0444323 0.9938674 -0.0444323 0.0061326 0.0444323
1570000000 0.0063464 0.0456099 0.9936536 -0.0456099 0.9936536 -0.0456099 0.0063464 0.0456099
1591000000 0.0065709 0.0467849 0.9934291 -0.0467849 0.9934291 -0.0467849 0.0065709 0.0467849
1612000000 0.0068069 0.0479573 0.9931931 -0.0479573 0.9931931 -0.0479573 0.0068069 0.0479573
1633000000 0.0070557 0.0491271 0.9929443 -0.0491271 0.9929443 -0.0491271 0.0070557 0.0491271
1654000000 0.0073187 0.0502941 0.9926813 -0.0502941 0.9926813 -0.0502941 0.0073187 0.0502941
1675000000 0.0075973 0.0514576 0.9924027 -0.0514576 0.9924027 -0.0514576 0.0075973 0.0514576
1696000000 0.0078934 0.0526171 0.9921066 -0.0526171 0.9921066 -0.0526171 0.0078934 0.0526171
1717000000 0.0082089 0.0537712 0.9917911 -0.0537712 0.9917911 -0.0537712 0.0082089 0.0537712
1738000000 0.0085458 0.0549184 0.9914542 -0.0549184 0.9914542 -0.0549184 0.0085458 0.0549184
1759000000 0.0089065 0.0560561 0.9910935 -0.0560561 0.9910935 -0.0560561 0.0089065 0.0560561
1780000000 0.0092931 0.0571812 0.9907069 -0.0571812 0.9907069 -0.0571812 0.0092931 0.0571812
1801000000 0.0097077 0.0582893 0.9902923 -0.0582893 0.9902923 -0.0582893 0.0097077 0.0582893
1822000000 0.0101521 0.0593748 0.9898479 -0.0593748 0.9898479 -0.0593748 0.0101521 0.0593748
1843000000 0.0106269 0.0604305 0.9893731 -0.0604305 0.9893731 -0.0604305 0.0106269 0.0604305
1864000000 0.0111311 0.0614478 0.9888689 -0.0614478 0.9888689 -0.0614478 0.0111311 0.0614478
1885000000 0.0116615 0.0624165 0.9883385 -0.0624165 0.9883385 -0.0624165 0.0116615 0.0624165
1906000000 0.0122112 0.0633255 0.9877888 -0.0633255 0.9877888 -0.0633255 0.0122112 0.0633255
1927000000 0.0127687 0.0641640 0.9872313 -0.0641640 0.9872313 -0.0641640 0.0127687 0.0641640
1948000000 0.0133171 0.0649235 0.9866829 -0.0649235 0.9866829 -0.0649235 0.0133171 0.0649235
1969000000 0.0138346 0.0656007 0.9861654 -0.0656007 0.9861654 -0.0656007 0.0138346 0.0656007
1990000000 0.0142960 0.0661998 0.9857040 -0.0661998 0.9857040 -0.0661998 0.0142960 0.0661998
2011000000 0.0146767 0.0667352 0.9853233 -0.0667352 0.9853233 -0.0667352 0.0146767 0.0667352
2032000000 0.0149570 0.0672315 0.9850430 -0.0672315 0.9850430 -0.0672315 0.0149570 0.0672315
2053000000 0.0151277 0.0677201 0.9848723 -0.0677201 0.9848723 -0.0677201 0.0151277 0.0677201
2074000000 0.0151920 0.0682341 0.9848080 -0.0682341 0.9848080 -0.0682341 0.0151920 0.0682341
2095000000 0.0151652 0.0688021 0.9848348 -0.0688021 0.9848348 -0.0688021 0.0151652 0.0688021
2116000000 0.0150706 0.0694440 0.9849294 -0.0694440 0.9849294 -0.0694440 0.0150706 0.0694440
2137000000 0.0149343 0.0701688 0.9850657 -0.0701688 0.9850657 -0.0701688 0.0149343 0.0701688
2158000000 0.0147808 0.0709763 0.9852192 -0.0709763 0.9852192 -0.0709763 0.0147808 0.0709763
2179000000 0.0146302 0.0718596 0.9853698 -0.0718596 0.9853698 -0.0718596 0.0146302 0.0718596
2200000000 0.0144966 0.0728081 0.9855034 -0.0728081 0.9855034 -0.0728081 0.0144966 0.0728081
2221000000 0.0143894 0.0738101 0.9856106 -0.0738101 0.9856106 -0.0738101 0.0143894 0.0738101
2242000000 0.0143132 0.0748541 0.9856868 -0.0748541 0.9856868 -0.0748541 0.0143132 0.0748541
2263000000 0.0142700 0.0759303 0.9857300 -0.0759303 0.9857300 -0.0759303 0.0142700 0.0759303
2284000000 0.0142595 0.0770303 0.9857405 -0.0770303 0.9857405 -0.0770303 0.0142595 0.0770303
2305000000 0.0142801 0.0781476 0.9857199 -0.0781476 0.9857199 -0.0781476 0.0142801 0.0781476
2326000000 0.0143297 0.0792770 0.9856703 -0.0792770 0.9856703 -0.0792770 0.0143297 0.0792770
2347000000 0.0144059 0.0804147 0.9855941 -0.0804147 0.9855941 -0.0804147 0.0144059 0.0804147
2368000000 0.0145063 0.0815577 0.9854937 -0.0815577 0.9854937 -0.0815577 0.0145063 0.0815577
2389000000 0.0146285 0.0827039 0.9853715 -0.0827039 0.9853715 -0.0827039 0.0146285 0.0827039
2410000000 0.0147705 0.0838519 0.9852295 -0.0838519 0.9852295 -0.0838519 0.0147705 0.0838519
2431000000 0.0149304 0.0850006 0.9850696 -0.0850006 0.9850696 -0.0850006 0.0149304 0.0850006
2452000000 0.0151064 0.0861492 0.9848936 -0.0861492 0.9848936 -0.0861492 0.0151064 0.0861492
2473000000 0.0152972 0.0872974 0.9847028 -0.0872974 0.9847028 -0.0872974 0.0152972 0.0872974
2494000000 0.0155013 0.0884449 0.9844987 -0.0884449 0.9844987 -0.0884449 0.0155013 0.0884449
2515000000 0.0157179 0.0895915 0.9842821 -0.0895915 0.9842821 -0.0895915 0.0157179 0.0895915
2536000000 0.0159458 0.0907372 0.9840542 -0.0907372 0.9840542 -0.0907372 0.0159458 0.0907372
2557000000 0.0161842 0.0918822 0.9838158 -0.0918822 0.9838158 -0.0918822 0.0161842 0.0918822
2578000000 0.0164326 0.0930263 0.9835674 -0.0930263 0.9835674 -0.0930263 0.0164326 0.0930263
2599000000 0.0166903 0.0941699 0.9833097 -0.0941699 0.9833097 -0.0941699 0.0166903 0.0941699
2620000000 0.0169567 0.0953130 0.9830433 -0.0953130 0.9830433 -0.0953130 0.0169567 0.0953130
2641000000 0.0172315 0.0964558 0.9827685 -0.0964558 0.9827685 -0.0964558 0.0172315 0.0964558
2662000000 0.0175143 0.0975984 0.9824857 -0.0975984 0.9824857 -0.0975984 0.0175143 0.0975984
2683000000 0.0178048 0.0987411 0.9821952 -0.0987411 0.9821952 -0.0987411 0.0178048 0.0987411
2704000000 0.0181028 0.0998841 0.9818972 -0.0998841 0.9818972 -0.0998841 0.0181028 0.0998841
2725000000 0.0184079 0.1010274 0.9815921 -0.1010274 0.9815921 -0.1010274 0.0184079 0.1010274
2746000000 0.0187201 0.1021713 0.9812799 -0.1021713 0.9812799 -0.1021713 0.0187201 0.1021713
2767000000 0.0190392 0.1033159 0.9809608 -0.1033159 0.9809608 -0.1033159 0.0190392 0.1033159
2788000000 0.0193650 0.1044615 0.9806350 -0.1044615 0.9806350 -0.1044615 0.0193650 0.1044615
2809000000 0.0196975 0.1056080 0.9803025 -0.1056080 0.9803025 -0.1056080 0.0196975 0.1056080
2830000000 0.0200366 0.1067558 0.9799634 -0.1067558 0.9799634 -0.1067558 0.0200366 0.1067558
2851000000 0.0203823 0.1079050 0.9796177 -0.1079050 0.9796177 -0.1079050 0.0203823 0.1079050
2872000000 0.0207345 0.1090556 0.9792655 -0.1090556 0.9792655 -0.1090556 0.0207345 0.1090556
2893000000 0.0210931 0.1102079 0.9789069 -0.1102079 0.9789069 -0.1102079 0.0210931 0.1102079
2914000000 0.0214583 0.1113619 0.9785417 -0.1113619 0.9785417 -0.1113619 0.0214583 0.1113619
2935000000 0.0218300 0.1125178 0.9781700 -0.1125178 0.9781700 -0.1125178 0.0218300 0.1125178
2956000000 0.0222082 0.1136757 0.9777918 -0.1136757 0.9777918 -0.1136757 0.0222082 0.1136757
2977000000 0.0225930 0.1148357 0.9774070 -0.1148357 0.9774070 -0.1148357 0.0225930 0.1148357
2998000000 0.0229844 0.1159979 0.9770156 -0.1159979 0.9770156 -0.1159979 0.0229844 0.1159979
3019000000 0.0233824 0.1171624 0.9766176 -0.1171624 0.9766176 -0.1171624 0.0233824 0.1171624
3040000000 0.0237871 0.1183293 0.9762129 -0.1183293 0.9762129 -0.1183293 0.0237871 0.1183293
3061000000 0.0241986 0.1194988 0.9758014 -0.1194988 0.9758014 -0.1194988 0.0241986 0.1194988
3082000000 0.0246170 0.1206708 0.9753830 -0.1206708 0.9753830 -0.1206708 0.0246170 0.1206708
3103000000 0.0250422 0.1218454 0.9749578 -0.1218454 0.9749578 -0.1218454 0.0250422 0.1218454
3124000000 0.0254745 0.1230228 0.9745255 -0.1230228 0.9745255 -0.1230228 0.0254745 0.1230228
3145000000 0.0259140 0.1242030 0.9740860 -0.1242030 0.9740860 -0.1242030 0.0259140 0.1242030
3166000000 0.0263606 0.1253860 0.9736394 -0.1253860 0.9736394 -0.1253860 0.0263606 0.1253860
3187000000 0.0268146 0.1265720 0.9731854 -0.1265720 0.9731854 -0.1265720 0.0268146 0.1265720
3208000000 0.0272761 0.1277610 0.9727239 -0.1277610 0.9727239 -0.1277610 0.0272761 0.1277610
3229000000 0.0277451 0.1289530 0.9722549 -0.1289530 0.9722549 -0.1289530 0.0277451 0.1289530
3250000000 0.0282218 0.1301480 0.9717782 -0.1301480 0.9717782 -0.1301480 0.0282218 0.1301480
3271000000 0.0287063 0.1313462 0.9712937 -0.1313462 0.9712937 -0.1313462 0.0287063 0.1313462
3292000000 0.0291988 0.1325475 0.9708012 -0.1325475 0.9708012 -0.1325475 0.0291988 0.1325475
3313000000 0.0296994 0.1337520 0.9703006 -0.1337520 0.9703006 -0.1337520 0.0296994 0.1337520
3334000000 0.0302083 0.1349596 0.9697917 -0.1349596 0.9697917 -0.1349596 0.0302083 0.1349596
3355000000 0.0307257 0.1361704 0.9692743 -0.1361704 0.9692743 -0.1361704 0.0307257 0.1361704
3376000000 0.0312516 0.1373844 0.9687484 -0.1373844 0.9687484 -0.1373844 0.0312516 0.1373844
3397000000 0.0317862 0.1386016 0.9682138 -0.1386016 0.9682138 -0.1386016 0.0317862 0.1386016
3418000000 0.0323298 0.1398219 0.9676702 -0.1398219 0.9676702 -0.1398219 0.0323298 0.1398219
3439000000 0.0328825 0.1410454 0.9671175 -0.1410454 0.9671175 -0.1410454 0.0328825 0.1410454
3460000000 0.0334444 0.1422719 0.9665556 -0.1422719 0.9665556 -0.1422719 0.0334444 0.1422719
3481000000 0.0340159 0.1435015 0.9659841 -0.1435015 0.9659841 -0.1435015 0.0340159 0.1435015
3502000000 0.0345969 0.1447340 0.9654031 -0.1447340 0.9654031 -0.1447340 0.0345969 0.1447340
3523000000 0.0351878 0.1459695 0.9648122 -0.1459695 0.9648122 -0.1459695 0.0351878 0.1459695
3544000000 0.0357888 0.1472077 0.9642112 -0.1472077 0.9642112 -0.1472077 0.0357888 0.1472077
3565000000 0.0364000 0.1484487 0.9636000 -0.1484487 0.9636000 -0.1484487 0.0364000 0.1484487
3586000000 0.0370216 0.1496923 0.9629784 -0.1496923 0.9629784 -0.1496923 0.0370216 0.1496923
3607000000 0.0376538 0.1509383 0.9623462 -0.1509383 0.9623462 -0.1509383 0.0376538 0.1509383
3628000000 0.0382969 0.1521866 0.9617031 -0.1521866 0.9617031 -0.1521866 0.0382969 0.1521866
3649000000 0.0389510 0.1534370 0.9610490 -0.1534370 0.9610490 -0.1534370 0.0389510 0.1534370
3670000000 0.0396164 0.1546894 0.9603836 -0.1546894 0.9603836 -0.1546894 0.0396164 0.1546894
3691000000 0.0402931 0.1559436 0.9597069 -0.1559436 0.9597069 -0.1559436 0.0402931 0.1559436
3712000000 0.0409814 0.1571992 0.9590186 -0.1571992 0.9590186 -0.1571992 0.0409814 0.1571992
3733000000 0.0416815 0.1584560 0.9583185 -0.1584560 0.9583185 -0.1584560 0.0416815 0.1584560
3754000000 0.0423935 0.1597138 0.9576065 -0.1597138 0.9576065 -0.1597138 0.0423935 0.1597138
3775000000 0.0431177 0.1609723 0.9568823 -0.1609723 0.9568823 -0.1609723 0.0431177 0.1609723
3796000000 0.0438540 0.1622310 0.9561460 -0.1622310 0.9561460 -0.1622310 0.0438540 0.1622310
3817000000 0.0446027 0.1634897 0.9553973 -0.1634897 0.9553973 -0.1634897 0.0446027 0.1634897
3838000000 0.0453638 0.1647479 0.9546362 -0.1647479 0.9546362 -0.1647479 0.0453638 0.1647479
3859000000 0.0461374 0.1660052 0.9538626 -0.1660052 0.9538626 -0.1660052 0.0461374 0.1660052
3880000000 0.0469235 0.1672613 0.9530765 -0.1672613 0.9530765 -0.1672613 0.0469235 0.1672613
3901000000 0.0477222 0.1685155 0.9522778 -0.1685155 0.9522778 -0.1685155 0.0477222 0.1685155
3922000000 0.0485333 0.1697674 0.9514667 -0.1697674 0.9514667 -0.1697674 0.0485333 0.1697674
3943000000 0.0493569 0.1710165 0.9506431 -0.1710165 0.9506431 -0.1710165 0.0493569 0.1710165
3964000000 0.0501927 0.1722621 0.9498073 -0.1722621 0.9498073 -0.1722621 0.0501927 0.1722621
3985000000 0.0510405 0.1735038 0.9489595 -0.1735038 0.9489595 -0.1735038 0.0510405 0.1735038
4006000000 0.0519001 0.1747410 0.9480999 -0.1747410 0.9480999 -0.1747410 0.0519001 0.1747410
4027000000 0.0527711 0.1759730 0.9472289 -0.1759730 0.9472289 -0.1759730 0.0527711 0.1759730
4048000000 0.0536531 0.1771993 0.9463469 -0.1771993 0.9463469 -0.1771993 0.0536531 0.1771993
4069000000 0.0545456 0.1784192 0.9454544 -0.1784192 0.9454544 -0.1784192 0.0545456 0.1784192
4090000000 0.0554479 0.1796323 0.9445521 -0.1796323 0.9445521 -0.1796323 0.0554479 0.1796323
4111000000 0.0563594 0.1808378 0.9436406 -0.1808378 0.9436406 -0.1808378 0.0563594 0.1808378
4132000000 0.0572792 0.1820354 0.9427208 -0.1820354 0.9427208 -0.1820354 0.0572792 0.1820354
4153000000 0.0582064 0.1832246 0.9417936 -0.1832246 0.9417936 -0.1832246 0.0582064 0.1832246
4174000000 0.0591400 0.1844049 0.9408600 -0.1844049 0.9408600 -0.1844049 0.0591400 0.1844049
4195000000 0.0600789 0.1855762 0.9399211 -0.1855762 0.9399211 -0.1855762 0.0600789 0.1855762
4216000000 0.0610217 0.1867382 0.9389783 -0.1867382 0.9389783 -0.1867382 0.0610217 0.1867382
4237000000 0.0619673 0.1878910 0.9380327 -0.1878910 0.9380327 -0.1878910 0.0619673 0.1878910
4258000000 0.0629141 0.1890345 0.9370859 -0.1890345 0.9370859 -0.1890345 0.0629141 0.1890345
4279000000 0.0638608 0.1901692 0.9361392 -0.1901692 0.9361392 -0.1901692 0.0638608 0.1901692
4300000000 0.0648057 0.1912955 0.9351943 -0.1912955 0.9351943 -0.1912955 0.0648057 0.1912955
4321000000 0.0657474 0.1924140 0.9342526 -0.1924140 0.9342526 -0.1924140 0.0657474 0.1924140
4342000000 0.0666843 0.1935258 0.9333157 -0.1935258 0.9333157 -0.1935258 0.0666843 0.1935258
4363000000 0.0676149 0.1946318 0.9323851 -0.1946318 0.9323851 -0.1946318 0.0676149 0.1946318
4384000000 0.0685379 0.1957337 0.9314621 -0.1957337 0.9314621 -0.1957337 0.0685379 0.1957337
4405000000 0.0694519 0.1968328 0.9305481 -0.1968328 0.9305481 -0.1968328 0.0694519 0.1968328
4426000000 0.0703558 0.1979311 0.9296442 -0.1979311 0.9296442 -0.1979311 0.0703558 0.1979311
4447000000 0.0712486 0.1990306 0.9287514 -0.1990306 0.9287514 -0.1990306 0.0712486 0.1990306
4468000000 0.0721297 0.2001336 0.9278703 -0.2001336 0.9278703 -0.2001336 0.0721297 0.2001336
4489000000 0.0729986 0.2012423 0.9270014 -0.2012423 0.9270014 -0.2012423 0.0729986 0.2012423
4510000000 0.0738551 0.2023594 0.9261449 -0.2023594 0.9261449 -0.2023594 0.0738551 0.2023594
