!Murata Part Number: GRM1882C1H6R4DA01
!These Parameters are Measured in Series Mode Connection
!Data Generated on Mar 30, 2021
!       o--ll--o
!Port1            Port2
!       o------o
!Operation Temp=25[degC], DC Bias Voltage=0[V]
!Freq. Start=100[MHz] Stop=9[GHz] 401[Steps]
# Hz S RI R 50
!Freq.(Hz) S11(Real) S11(Imag) S21(Real) S21(Imag) S12(Real) S12(Imag) S22(Real) S22(Imag)
100000000 0.8603550 -0.3463805 0.1396450 0.3463805 0.1396450 0.3463805 0.8603550 -0.3463805
121000000 0.8078017 -0.3937314 0.1921983 0.3937314 0.1921983 0.3937314 0.8078017 -0.3937314
142000000 0.7529275 -0.4309490 0.2470725 0.4309490 0.2470725 0.4309490 0.7529275 -0.4309490
163000000 0.6977910 -0.4587864 0.3022090 0.4587864 0.3022090 0.4587864 0.6977910 -0.4587864
184000000 0.6439580 -0.4783246 0.3560420 0.4783246 0.3560420 0.4783246 0.6439580 -0.4783246
205000000 0.5925201 -0.4907821 0.4074799 0.4907821 0.4074799 0.4907821 0.5925201 -0.4907821
226000000 0.5441616 -0.4973764 0.4558384 0.4973764 0.4558384 0.4973764 0.5441616 -0.4973764
247000000 0.4992449 -0.4992376 0.5007551 0.4992376 0.5007551 0.4992376 0.4992449 -0.4992376
268000000 0.4578949 -0.4973640 0.5421051 0.4973640 0.5421051 0.4973640 0.4578949 -0.4973640
289000000 0.4200720 -0.4926059 0.5799280 0.4926059 0.5799280 0.4926059 0.4200720 -0.4926059
310000000 0.3856302 -0.4856695 0.6143698 0.4856695 0.6143698 0.4856695 0.3856302 -0.4856695
331000000 0.3543604 -0.4771290 0.6456396 0.4771290 0.6456396 0.4771290 0.3543604 -0.4771290
352000000 0.3260220 -0.4674443 0.6739780 0.4674443 0.6739780 0.4674443 0.3260220 -0.4674443
373000000 0.3003635 -0.4569786 0.6996365 0.4569786 0.6996365 0.4569786 0.3003635 -0.4569786
394000000 0.2771362 -0.4460158 0.7228638 0.4460158 0.7228638 0.4460158 0.2771362 -0.4460158
415000000 0.2561031 -0.4347750 0.7438969 0.4347750 0.7438969 0.4347750 0.2561031 -0.4347750
436000000 0.2370430 -0.4234242 0.7629570 0.4234242 0.7629570 0.4234242 0.2370430 -0.4234242
457000000 0.2197529 -0.4120901 0.7802471 0.4120901 0.7802471 0.4120901 0.2197529 -0.4120901
478000000 0.2040488 -0.4008673 0.7959512 0.4008673 0.7959512 0.4008673 0.2040488 -0.4008673
499000000 0.1897648 -0.3898252 0.8102352 0.3898252 0.8102352 0.3898252 0.1897648 -0.3898252
520000000 0.1767525 -0.3790137 0.8232475 0.3790137 0.8232475 0.3790137 0.1767525 -0.3790137
541000000 0.1648794 -0.3684672 0.8351206 0.3684672 0.8351206 0.3684672 0.1648794 -0.3684672
562000000 0.1540277 -0.3582085 0.8459723 0.3582085 0.8459723 0.3582085 0.1540277 -0.3582085
583000000 0.1440929 -0.3482517 0.8559071 0.3482517 0.8559071 0.3482517 0.1440929 -0.3482517
604000000 0.1349819 -0.3386036 0.8650181 0.3386036 0.8650181 0.3386036 0.1349819 -0.3386036
625000000 0.1266122 -0.3292662 0.8733878 0.3292662 0.8733878 0.3292662 0.1266122 -0.3292662
646000000 0.1189107 -0.3202375 0.8810893 0.3202375 0.8810893 0.3202375 0.1189107 -0.3202375
667000000 0.1118124 -0.3115126 0.8881876 0.3115126 0.8881876 0.3115126 0.1118124 -0.3115126
688000000 0.1052593 -0.3030849 0.8947407 0.3030849 0.8947407 0.3030849 0.1052593 -0.3030849
709000000 0.0992000 -0.2949459 0.9008000 0.2949459 0.9008000 0.2949459 0.0992000 -0.2949459
730000000 0.0935888 -0.2870863 0.9064112 0.2870863 0.9064112 0.2870863 0.0935888 -0.2870863
751000000 0.0883845 -0.2794964 0.9116155 0.2794964 0.9116155 0.2794964 0.0883845 -0.2794964
772000000 0.0835508 -0.2721658 0.9164492 0.2721658 0.9164492 0.2721658 0.0835508 -0.2721658
793000000 0.0790547 -0.2650843 0.9209453 0.2650843 0.9209453 0.2650843 0.0790547 -0.2650843
814000000 0.0748672 -0.2582414 0.9251328 0.2582414 0.9251328 0.2582414 0.0748672 -0.2582414
835000000 0.0709617 -0.2516271 0.9290383 0.2516271 0.9290383 0.2516271 0.0709617 -0.2516271
856000000 0.0673146 -0.2452313 0.9326854 0.2452313 0.9326854 0.2452313 0.0673146 -0.2452313
877000000 0.0639046 -0.2390443 0.9360954 0.2390443 0.9360954 0.2390443 0.0639046 -0.2390443
898000000 0.0607126 -0.2330568 0.9392874 0.2330568 0.9392874 0.2330568 0.0607126 -0.2330568
919000000 0.0577210 -0.2272598 0.9422790 0.2272598 0.9422790 0.2272598 0.0577210 -0.2272598
940000000 0.0549143 -0.2216446 0.9450857 0.2216446 0.9450857 0.2216446 0.0549143 -0.2216446
961000000 0.0522781 -0.2162029 0.9477219 0.2162029 0.9477219 0.2162029 0.0522781 -0.2162029
982000000 0.0497995 -0.2109269 0.9502005 0.2109269 0.9502005 0.2109269 0.0497995 -0.2109269
1003000000 0.0474669 -0.2058091 0.9525331 0.2058091 0.9525331 0.2058091 0.0474669 -0.2058091
1024000000 0.0452695 -0.2008422 0.9547305 0.2008422 0.9547305 0.2008422 0.0452695 -0.2008422
1045000000 0.0431975 -0.1960194 0.9568025 0.1960194 0.9568025 0.1960194 0.0431975 -0.1960194
1066000000 0.0412421 -0.1913343 0.9587579 0.1913343 0.9587579 0.1913343 0.0412421 -0.1913343
1087000000 0.0393952 -0.1867807 0.9606048 0.1867807 0.9606048 0.1867807 0.0393952 -0.1867807
1108000000 0.0376493 -0.1823528 0.9623507 0.1823528 0.9623507 0.1823528 0.0376493 -0.1823528
1129000000 0.0359976 -0.1780449 0.9640024 0.1780449 0.9640024 0.1780449 0.0359976 -0.1780449
1150000000 0.0344338 -0.1738520 0.9655662 0.1738520 0.9655662 0.1738520 0.0344338 -0.1738520
1171000000 0.0329522 -0.1697689 0.9670478 0.1697689 0.9670478 0.1697689 0.0329522 -0.1697689
1192000000 0.0315474 -0.1657909 0.9684526 0.1657909 0.9684526 0.1657909 0.0315474 -0.1657909
1213000000 0.0302147 -0.1619136 0.9697853 0.1619136 0.9697853 0.1619136 0.0302147 -0.1619136
1234000000 0.0289495 -0.1581327 0.9710505 0.1581327 0.9710505 0.1581327 0.0289495 -0.1581327
1255000000 0.0277477 -0.1544441 0.9722523 0.1544441 0.9722523 0.1544441 0.0277477 -0.1544441
1276000000 0.0266054 -0.1508440 0.9733946 0.1508440 0.9733946 0.1508440 0.0266054 -0.1508440
1297000000 0.0255191 -0.1473287 0.9744809 0.1473287 0.9744809 0.1473287 0.0255191 -0.1473287
1318000000 0.0244855 -0.1438948 0.9755145 0.1438948 0.9755145 0.1438948 0.0244855 -0.1438948
1339000000 0.0235016 -0.1405390 0.9764984 0.1405390 0.9764984 0.1405390 0.0235016 -0.1405390
1360000000 0.0225645 -0.1372582 0.9774355 0.1372582 0.9774355 0.1372582 0.0225645 -0.1372582
1381000000 0.0216716 -0.1340494 0.9783284 0.1340494 0.9783284 0.1340494 0.0216716 -0.1340494
1402000000 0.0208205 -0.1309097 0.9791795 0.1309097 0.9791795 0.1309097 0.0208205 -0.1309097
1423000000 0.0200088 -0.1278364 0.9799912 0.1278364 0.9799912 0.1278364 0.0200088 -0.1278364
1444000000 0.0192345 -0.1248271 0.9807655 0.1248271 0.9807655 0.1248271 0.0192345 -0.1248271
1465000000 0.0184956 -0.1218793 0.9815044 0.1218793 0.9815044 0.1218793 0.0184956 -0.1218793
1486000000 0.0177902 -0.1189906 0.9822098 0.1189906 0.9822098 0.1189906 0.0177902 -0.1189906
1507000000 0.0171166 -0.1161588 0.9828834 0.1161588 0.9828834 0.1161588 0.0171166 -0.1161588
1528000000 0.0164733 -0.1133819 0.9835267 0.1133819 0.9835267 0.1133819 0.0164733 -0.1133819
1549000000 0.0158586 -0.1106577 0.9841414 0.1106577 0.9841414 0.1106577 0.0158586 -0.1106577
1570000000 0.0152712 -0.1079845 0.9847288 0.1079845 0.9847288 0.1079845 0.0152712 -0.1079845
1591000000 0.0147097 -0.1053603 0.9852903 0.1053603 0.9852903 0.1053603 0.0147097 -0.1053603
1612000000 0.0141730 -0.1027834 0.9858270 0.1027834 0.9858270 0.1027834 0.0141730 -0.1027834
1633000000 0.0136598 -0.1002522 0.9863402 0.1002522 0.9863402 0.1002522 0.0136598 -0.1002522
1654000000 0.0131690 -0.0977650 0.9868310 0.0977650 0.9868310 0.0977650 0.0131690 -0.0977650
1675000000 0.0126997 -0.0953203 0.9873003 0.0953203 0.9873003 0.0953203 0.0126997 -0.0953203
1696000000 0.0122508 -0.0929166 0.9877492 0.0929166 0.9877492 0.0929166 0.0122508 -0.0929166
1717000000 0.0118215 -0.0905526 0.9881785 0.0905526 0.9881785 0.0905526 0.0118215 -0.0905526
1738000000 0.0114108 -0.0882269 0.9885892 0.0882269 0.9885892 0.0882269 0.0114108 -0.0882269
1759000000 0.0110180 -0.0859382 0.9889820 0.0859382 0.9889820 0.0859382 0.0110180 -0.0859382
1780000000 0.0106424 -0.0836853 0.9893576 0.0836853 0.9893576 0.0836853 0.0106424 -0.0836853
1801000000 0.0102831 -0.0814671 0.9897169 0.0814671 0.9897169 0.0814671 0.0102831 -0.0814671
1822000000 0.0099395 -0.0792823 0.9900605 0.0792823 0.9900605 0.0792823 0.0099395 -0.0792823
1843000000 0.0096110 -0.0771299 0.9903890 0.0771299 0.9903890 0.0771299 0.0096110 -0.0771299
1864000000 0.0092969 -0.0750090 0.9907031 0.0750090 0.9907031 0.0750090 0.0092969 -0.0750090
1885000000 0.0089967 -0.0729184 0.9910033 0.0729184 0.9910033 0.0729184 0.0089967 -0.0729184
1906000000 0.0087098 -0.0708572 0.9912902 0.0708572 0.9912902 0.0708572 0.0087098 -0.0708572
1927000000 0.0084358 -0.0688245 0.9915642 0.0688245 0.9915642 0.0688245 0.0084358 -0.0688245
1948000000 0.0081741 -0.0668194 0.9918259 0.0668194 0.9918259 0.0668194 0.0081741 -0.0668194
1969000000 0.0079243 -0.0648411 0.9920757 0.0648411 0.9920757 0.0648411 0.0079243 -0.0648411
1990000000 0.0076859 -0.0628888 0.9923141 0.0628888 0.9923141 0.0628888 0.0076859 -0.0628888
2011000000 0.0074585 -0.0609616 0.9925415 0.0609616 0.9925415 0.0609616 0.0074585 -0.0609616
2032000000 0.0072418 -0.0590588 0.9927582 0.0590588 0.9927582 0.0590588 0.0072418 -0.0590588
2053000000 0.0070353 -0.0571797 0.9929647 0.0571797 0.9929647 0.0571797 0.0070353 -0.0571797
2074000000 0.0068386 -0.0553235 0.9931614 0.0553235 0.9931614 0.0553235 0.0068386 -0.0553235
2095000000 0.0066516 -0.0534897 0.9933484 0.0534897 0.9933484 0.0534897 0.0066516 -0.0534897
2116000000 0.0064737 -0.0516775 0.9935263 0.0516775 0.9935263 0.0516775 0.0064737 -0.0516775
2137000000 0.0063048 -0.0498863 0.9936952 0.0498863 0.9936952 0.0498863 0.0063048 -0.0498863
2158000000 0.0061445 -0.0481156 0.9938555 0.0481156 0.9938555 0.0481156 0.0061445 -0.0481156
2179000000 0.0059926 -0.0463647 0.9940074 0.0463647 0.9940074 0.0463647 0.0059926 -0.0463647
2200000000 0.0058487 -0.0446330 0.9941513 0.0446330 0.9941513 0.0446330 0.0058487 -0.0446330
2221000000 0.0057127 -0.0429201 0.9942873 0.0429201 0.9942873 0.0429201 0.0057127 -0.0429201
2242000000 0.0055843 -0.0412254 0.9944157 0.0412254 0.9944157 0.0412254 0.0055843 -0.0412254
2263000000 0.0054633 -0.0395483 0.9945367 0.0395483 0.9945367 0.0395483 0.0054633 -0.0395483
2284000000 0.0053494 -0.0378885 0.9946506 0.0378885 0.9946506 0.0378885 0.0053494 -0.0378885
2305000000 0.0052424 -0.0362454 0.9947576 0.0362454 0.9947576 0.0362454 0.0052424 -0.0362454
2326000000 0.0051422 -0.0346185 0.9948578 0.0346185 0.9948578 0.0346185 0.0051422 -0.0346185
2347000000 0.0050486 -0.0330075 0.9949514 0.0330075 0.9949514 0.0330075 0.0050486 -0.0330075
2368000000 0.0049613 -0.0314119 0.9950387 0.0314119 0.9950387 0.0314119 0.0049613 -0.0314119
2389000000 0.0048802 -0.0298313 0.9951198 0.0298313 0.9951198 0.0298313 0.0048802 -0.0298313
2410000000 0.0048052 -0.0282652 0.9951948 0.0282652 0.9951948 0.0282652 0.0048052 -0.0282652
2431000000 0.0047360 -0.0267134 0.9952640 0.0267134 0.9952640 0.0267134 0.0047360 -0.0267134
2452000000 0.0046726 -0.0251753 0.9953274 0.0251753 0.9953274 0.0251753 0.0046726 -0.0251753
2473000000 0.0046147 -0.0236507 0.9953853 0.0236507 0.9953853 0.0236507 0.0046147 -0.0236507
2494000000 0.0045623 -0.0221392 0.9954377 0.0221392 0.9954377 0.0221392 0.0045623 -0.0221392
2515000000 0.0045153 -0.0206405 0.9954847 0.0206405 0.9954847 0.0206405 0.0045153 -0.0206405
2536000000 0.0044734 -0.0191541 0.9955266 0.0191541 0.9955266 0.0191541 0.0044734 -0.0191541
2557000000 0.0044365 -0.0176799 0.9955635 0.0176799 0.9955635 0.0176799 0.0044365 -0.0176799
2578000000 0.0044046 -0.0162174 0.9955954 0.0162174 0.9955954 0.0162174 0.0044046 -0.0162174
2599000000 0.0043776 -0.0147665 0.9956224 0.0147665 0.9956224 0.0147665 0.0043776 -0.0147665
2620000000 0.0043553 -0.0133267 0.9956447 0.0133267 0.9956447 0.0133267 0.0043553 -0.0133267
2641000000 0.0043377 -0.0118978 0.9956623 0.0118978 0.9956623 0.0118978 0.0043377 -0.0118978
2662000000 0.0043246 -0.0104795 0.9956754 0.0104795 0.9956754 0.0104795 0.0043246 -0.0104795
2683000000 0.0043159 -0.0090716 0.9956841 0.0090716 0.9956841 0.0090716 0.0043159 -0.0090716
2704000000 0.0043116 -0.0076738 0.9956884 0.0076738 0.9956884 0.0076738 0.0043116 -0.0076738
2725000000 0.0043116 -0.0062858 0.9956884 0.0062858 0.9956884 0.0062858 0.0043116 -0.0062858
2746000000 0.0043158 -0.0049074 0.9956842 0.0049074 0.9956842 0.0049074 0.0043158 -0.0049074
2767000000 0.0043241 -0.0035383 0.9956759 0.0035383 0.9956759 0.0035383 0.0043241 -0.0035383
2788000000 0.0043364 -0.0021783 0.9956636 0.0021783 0.9956636 0.0021783 0.0043364 -0.0021783
2809000000 0.0043527 -0.0008272 0.9956473 0.0008272 0.9956473 0.0008272 0.0043527 -0.0008272
2830000000 0.0043730 0.0005152 0.9956270 -0.0005152 0.9956270 -0.0005152 0.0043730 0.0005152
2851000000 0.0043971 0.0018492 0.9956029 -0.0018492 0.9956029 -0.0018492 0.0043971 0.0018492
2872000000 0.0044249 0.0031750 0.9955751 -0.0031750 0.9955751 -0.0031750 0.0044249 0.0031750
2893000000 0.0044565 0.0044928 0.9955435 -0.0044928 0.9955435 -0.0044928 0.0044565 0.0044928
2914000000 0.0044918 0.0058027 0.9955082 -0.0058027 0.9955082 -0.0058027 0.0044918 0.0058027
2935000000 0.0045307 0.0071051 0.9954693 -0.0071051 0.9954693 -0.0071051 0.0045307 0.0071051
2956000000 0.0045731 0.0084000 0.9954269 -0.0084000 0.9954269 -0.0084000 0.0045731 0.0084000
2977000000 0.0046191 0.0096876 0.9953809 -0.0096876 0.9953809 -0.0096876 0.0046191 0.0096876
2998000000 0.0046685 0.0109683 0.9953315 -0.0109683 0.9953315 -0.0109683 0.0046685 0.0109683
3019000000 0.0047214 0.0122420 0.9952786 -0.0122420 0.9952786 -0.0122420 0.0047214 0.0122420
3040000000 0.0047776 0.0135090 0.9952224 -0.0135090 0.9952224 -0.0135090 0.0047776 0.0135090
3061000000 0.0048372 0.0147695 0.9951628 -0.0147695 0.9951628 -0.0147695 0.0048372 0.0147695
3082000000 0.0049001 0.0160236 0.9950999 -0.0160236 0.9950999 -0.0160236 0.0049001 0.0160236
3103000000 0.0049662 0.0172715 0.9950338 -0.0172715 0.9950338 -0.0172715 0.0049662 0.0172715
3124000000 0.0050357 0.0185133 0.9949643 -0.0185133 0.9949643 -0.0185133 0.0050357 0.0185133
3145000000 0.0051083 0.0197493 0.9948917 -0.0197493 0.9948917 -0.0197493 0.0051083 0.0197493
3166000000 0.0051840 0.0209795 0.9948160 -0.0209795 0.9948160 -0.0209795 0.0051840 0.0209795
3187000000 0.0052630 0.0222041 0.9947370 -0.0222041 0.9947370 -0.0222041 0.0052630 0.0222041
3208000000 0.0053450 0.0234232 0.9946550 -0.0234232 0.9946550 -0.0234232 0.0053450 0.0234232
3229000000 0.0054302 0.0246371 0.9945698 -0.0246371 0.9945698 -0.0246371 0.0054302 0.0246371
3250000000 0.0055184 0.0258458 0.9944816 -0.0258458 0.9944816 -0.0258458 0.0055184 0.0258458
3271000000 0.0056096 0.0270494 0.9943904 -0.0270494 0.9943904 -0.0270494 0.0056096 0.0270494
3292000000 0.0057039 0.0282481 0.9942961 -0.0282481 0.9942961 -0.0282481 0.0057039 0.0282481
3313000000 0.0058012 0.0294421 0.9941988 -0.0294421 0.9941988 -0.0294421 0.0058012 0.0294421
3334000000 0.0059015 0.0306315 0.9940985 -0.0306315 0.9940985 -0.0306315 0.0059015 0.0306315
3355000000 0.0060048 0.0318163 0.9939952 -0.0318163 0.9939952 -0.0318163 0.0060048 0.0318163
3376000000 0.0061110 0.0329967 0.9938890 -0.0329967 0.9938890 -0.0329967 0.0061110 0.0329967
3397000000 0.0062201 0.0341729 0.9937799 -0.0341729 0.9937799 -0.0341729 0.0062201 0.0341729
3418000000 0.0063322 0.0353449 0.9936678 -0.0353449 0.9936678 -0.0353449 0.0063322 0.0353449
3439000000 0.0064472 0.0365129 0.9935528 -0.0365129 0.9935528 -0.0365129 0.0064472 0.0365129
3460000000 0.0065651 0.0376769 0.9934349 -0.0376769 0.9934349 -0.0376769 0.0065651 0.0376769
3481000000 0.0066860 0.0388372 0.9933140 -0.0388372 0.9933140 -0.0388372 0.0066860 0.0388372
3502000000 0.0068097 0.0399938 0.9931903 -0.0399938 0.9931903 -0.0399938 0.0068097 0.0399938
3523000000 0.0069363 0.0411468 0.9930637 -0.0411468 0.9930637 -0.0411468 0.0069363 0.0411468
3544000000 0.0070657 0.0422963 0.9929343 -0.0422963 0.9929343 -0.0422963 0.0070657 0.0422963
3565000000 0.0071981 0.0434425 0.9928019 -0.0434425 0.9928019 -0.0434425 0.0071981 0.0434425
3586000000 0.0073333 0.0445854 0.9926667 -0.0445854 0.9926667 -0.0445854 0.0073333 0.0445854
3607000000 0.0074714 0.0457251 0.9925286 -0.0457251 0.9925286 -0.0457251 0.0074714 0.0457251
3628000000 0.0076124 0.0468618 0.9923876 -0.0468618 0.9923876 -0.0468618 0.0076124 0.0468618
3649000000 0.0077563 0.0479955 0.9922437 -0.0479955 0.9922437 -0.0479955 0.0077563 0.0479955
3670000000 0.0079030 0.0491264 0.9920970 -0.0491264 0.9920970 -0.0491264 0.0079030 0.0491264
3691000000 0.0080526 0.0502545 0.9919474 -0.0502545 0.9919474 -0.0502545 0.0080526 0.0502545
3712000000 0.0082051 0.0513799 0.9917949 -0.0513799 0.9917949 -0.0513799 0.0082051 0.0513799
3733000000 0.0083605 0.0525028 0.9916395 -0.0525028 0.9916395 -0.0525028 0.0083605 0.0525028
3754000000 0.0085188 0.0536233 0.9914812 -0.0536233 0.9914812 -0.0536233 0.0085188 0.0536233
3775000000 0.0086800 0.0547413 0.9913200 -0.0547413 0.9913200 -0.0547413 0.0086800 0.0547413
3796000000 0.0088440 0.0558571 0.9911560 -0.0558571 0.9911560 -0.0558571 0.0088440 0.0558571
3817000000 0.0090111 0.0569706 0.9909889 -0.0569706 0.9909889 -0.0569706 0.0090111 0.0569706
3838000000 0.0091810 0.0580821 0.9908190 -0.0580821 0.9908190 -0.0580821 0.0091810 0.0580821
3859000000 0.0093539 0.0591915 0.9906461 -0.0591915 0.9906461 -0.0591915 0.0093539 0.0591915
3880000000 0.0095297 0.0602991 0.9904703 -0.0602991 0.9904703 -0.0602991 0.0095297 0.0602991
3901000000 0.0097085 0.0614048 0.9902915 -0.0614048 0.9902915 -0.0614048 0.0097085 0.0614048
3922000000 0.0098903 0.0625087 0.9901097 -0.0625087 0.9901097 -0.0625087 0.0098903 0.0625087
3943000000 0.0100751 0.0636110 0.9899249 -0.0636110 0.9899249 -0.0636110 0.0100751 0.0636110
3964000000 0.0102630 0.0647117 0.9897370 -0.0647117 0.9897370 -0.0647117 0.0102630 0.0647117
3985000000 0.0104538 0.0658109 0.9895462 -0.0658109 0.9895462 -0.0658109 0.0104538 0.0658109
4006000000 0.0106477 0.0669088 0.9893523 -0.0669088 0.9893523 -0.0669088 0.0106477 0.0669088
4027000000 0.0108447 0.0680053 0.9891553 -0.0680053 0.9891553 -0.0680053 0.0108447 0.0680053
4048000000 0.0110449 0.0691006 0.9889551 -0.0691006 0.9889551 -0.0691006 0.0110449 0.0691006
4069000000 0.0112481 0.0701947 0.9887519 -0.0701947 0.9887519 -0.0701947 0.0112481 0.0701947
4090000000 0.0114545 0.0712878 0.9885455 -0.0712878 0.9885455 -0.0712878 0.0114545 0.0712878
4111000000 0.0116641 0.0723799 0.9883359 -0.0723799 0.9883359 -0.0723799 0.0116641 0.0723799
4132000000 0.0118768 0.0734711 0.9881232 -0.0734711 0.9881232 -0.0734711 0.0118768 0.0734711
4153000000 0.0120929 0.0745614 0.9879071 -0.0745614 0.9879071 -0.0745614 0.0120929 0.0745614
4174000000 0.0123122 0.0756511 0.9876878 -0.0756511 0.9876878 -0.0756511 0.0123122 0.0756511
4195000000 0.0125348 0.0767401 0.9874652 -0.0767401 0.9874652 -0.0767401 0.0125348 0.0767401
4216000000 0.0127607 0.0778286 0.9872393 -0.0778286 0.9872393 -0.0778286 0.0127607 0.0778286
4237000000 0.0129900 0.0789165 0.9870100 -0.0789165 0.9870100 -0.0789165 0.0129900 0.0789165
4258000000 0.0132227 0.0800041 0.9867773 -0.0800041 0.9867773 -0.0800041 0.0132227 0.0800041
4279000000 0.0134589 0.0810914 0.9865411 -0.0810914 0.9865411 -0.0810914 0.0134589 0.0810914
4300000000 0.0136986 0.0821785 0.9863014 -0.0821785 0.9863014 -0.0821785 0.0136986 0.0821785
4321000000 0.0139418 0.0832654 0.9860582 -0.0832654 0.9860582 -0.0832654 0.0139418 0.0832654
4342000000 0.0141886 0.0843522 0.9858114 -0.0843522 0.9858114 -0.0843522 0.0141886 0.0843522
4363000000 0.0144390 0.0854391 0.9855610 -0.0854391 0.9855610 -0.0854391 0.0144390 0.0854391
4384000000 0.0146931 0.0865261 0.9853069 -0.0865261 0.9853069 -0.0865261 0.0146931 0.0865261
4405000000 0.0149509 0.0876133 0.9850491 -0.0876133 0.9850491 -0.0876133 0.0149509 0.0876133
4426000000 0.0152124 0.0887008 0.9847876 -0.0887008 0.9847876 -0.0887008 0.0152124 0.0887008
4447000000 0.0154778 0.0897886 0.9845222 -0.0897886 0.9845222 -0.0897886 0.0154778 0.0897886
4468000000 0.0157471 0.0908770 0.9842529 -0.0908770 0.9842529 -0.0908770 0.0157471 0.0908770
4489000000 0.0160204 0.0919659 0.9839796 -0.0919659 0.9839796 -0.0919659 0.0160204 0.0919659
4510000000 0.0162977 0.0930554 0.9837023 -0.0930554 0.9837023 -0.0930554 0.0162977 0.0930554
