!Murata Part Number: GRM1885C2A2R0WA01
!These Parameters are Measured in Series Mode Connection
!Data Generated on Mar 30, 2021
!       o--ll--o
!Port1            Port2
!       o------o
!Operation Temp=25[degC], DC Bias Voltage=0[V]
!Freq. Start=100[MHz] Stop=9[GHz] 401[Steps]
# Hz S RI R 50
!Freq.(Hz) S11(Real) S11(Imag) S21(Real) S21(Imag) S12(Real) S12(Imag) S22(Real) S22(Imag)
100000000 0.9844102 -0.1237634 0.0155898 0.1237634 0.0155898 0.1237634 0.9844102 -0.1237634
121000000 0.9773264 -0.1487073 0.0226736 0.1487073 0.0226736 0.1487073 0.9773264 -0.1487073
142000000 0.9690187 -0.1730744 0.0309813 0.1730744 0.0309813 0.1730744 0.9690187 -0.1730744
163000000 0.9595478 -0.1967818 0.0404522 0.1967818 0.0404522 0.1967818 0.9595478 -0.1967818
184000000 0.9489810 -0.2197538 0.0510190 0.2197538 0.0510190 0.2197538 0.9489810 -0.2197538
205000000 0.9373918 -0.2419235 0.0626082 0.2419235 0.0626082 0.2419235 0.9373918 -0.2419235
226000000 0.9248582 -0.2632327 0.0751418 0.2632327 0.0751418 0.2632327 0.9248582 -0.2632327
247000000 0.9114618 -0.2836321 0.0885382 0.2836321 0.0885382 0.2836321 0.9114618 -0.2836321
268000000 0.8972863 -0.3030818 0.1027137 0.3030818 0.1027137 0.3030818 0.8972863 -0.3030818
289000000 0.8824161 -0.3215510 0.1175839 0.3215510 0.1175839 0.3215510 0.8824161 -0.3215510
310000000 0.8669361 -0.3390176 0.1330639 0.3390176 0.1330639 0.3390176 0.8669361 -0.3390176
331000000 0.8509297 -0.3554678 0.1490703 0.3554678 0.1490703 0.3554678 0.8509297 -0.3554678
352000000 0.8344784 -0.3708957 0.1655216 0.3708957 0.1655216 0.3708957 0.8344784 -0.3708957
373000000 0.8176611 -0.3853029 0.1823389 0.3853029 0.1823389 0.3853029 0.8176611 -0.3853029
394000000 0.8005533 -0.3986972 0.1994467 0.3986972 0.1994467 0.3986972 0.8005533 -0.3986972
415000000 0.7832268 -0.4110925 0.2167732 0.4110925 0.2167732 0.4110925 0.7832268 -0.4110925
436000000 0.7657490 -0.4225080 0.2342510 0.4225080 0.2342510 0.4225080 0.7657490 -0.4225080
457000000 0.7481828 -0.4329671 0.2518172 0.4329671 0.2518172 0.4329671 0.7481828 -0.4329671
478000000 0.7305866 -0.4424972 0.2694134 0.4424972 0.2694134 0.4424972 0.7305866 -0.4424972
499000000 0.7130139 -0.4511287 0.2869861 0.4511287 0.2869861 0.4511287 0.7130139 -0.4511287
520000000 0.6955134 -0.4588947 0.3044866 0.4588947 0.3044866 0.4588947 0.6955134 -0.4588947
541000000 0.6781291 -0.4658300 0.3218709 0.4658300 0.3218709 0.4658300 0.6781291 -0.4658300
562000000 0.6609006 -0.4719708 0.3390994 0.4719708 0.3390994 0.4719708 0.6609006 -0.4719708
583000000 0.6438629 -0.4773545 0.3561371 0.4773545 0.3561371 0.4773545 0.6438629 -0.4773545
604000000 0.6270468 -0.4820186 0.3729532 0.4820186 0.3729532 0.4820186 0.6270468 -0.4820186
625000000 0.6104791 -0.4860010 0.3895209 0.4860010 0.3895209 0.4860010 0.6104791 -0.4860010
646000000 0.5941829 -0.4893393 0.4058171 0.4893393 0.4058171 0.4893393 0.5941829 -0.4893393
667000000 0.5781778 -0.4920705 0.4218222 0.4920705 0.4218222 0.4920705 0.5781778 -0.4920705
688000000 0.5624800 -0.4942311 0.4375200 0.4942311 0.4375200 0.4942311 0.5624800 -0.4942311
709000000 0.5471029 -0.4958566 0.4528971 0.4958566 0.4528971 0.4958566 0.5471029 -0.4958566
730000000 0.5320571 -0.4969814 0.4679429 0.4969814 0.4679429 0.4969814 0.5320571 -0.4969814
751000000 0.5173509 -0.4976386 0.4826491 0.4976386 0.4826491 0.4976386 0.5173509 -0.4976386
772000000 0.5029900 -0.4978603 0.4970100 0.4978603 0.4970100 0.4978603 0.5029900 -0.4978603
793000000 0.4889785 -0.4976770 0.5110215 0.4976770 0.5110215 0.4976770 0.4889785 -0.4976770
814000000 0.4753185 -0.4971180 0.5246815 0.4971180 0.5246815 0.4971180 0.4753185 -0.4971180
835000000 0.4620106 -0.4962111 0.5379894 0.4962111 0.5379894 0.4962111 0.4620106 -0.4962111
856000000 0.4490538 -0.4949827 0.5509462 0.4949827 0.5509462 0.4949827 0.4490538 -0.4949827
877000000 0.4364463 -0.4934578 0.5635537 0.4934578 0.5635537 0.4934578 0.4364463 -0.4934578
898000000 0.4241847 -0.4916600 0.5758153 0.4916600 0.5758153 0.4916600 0.4241847 -0.4916600
919000000 0.4122652 -0.4896116 0.5877348 0.4896116 0.5877348 0.4896116 0.4122652 -0.4896116
940000000 0.4006830 -0.4873335 0.5993170 0.4873335 0.5993170 0.4873335 0.4006830 -0.4873335
961000000 0.3894325 -0.4848454 0.6105675 0.4848454 0.6105675 0.4848454 0.3894325 -0.4848454
982000000 0.3785078 -0.4821658 0.6214922 0.4821658 0.6214922 0.4821658 0.3785078 -0.4821658
1003000000 0.3679024 -0.4793118 0.6320976 0.4793118 0.6320976 0.4793118 0.3679024 -0.4793118
1024000000 0.3576095 -0.4762997 0.6423905 0.4762997 0.6423905 0.4762997 0.3576095 -0.4762997
1045000000 0.3476219 -0.4731444 0.6523781 0.4731444 0.6523781 0.4731444 0.3476219 -0.4731444
1066000000 0.3379325 -0.4698600 0.6620675 0.4698600 0.6620675 0.4698600 0.3379325 -0.4698600
1087000000 0.3285336 -0.4664595 0.6714664 0.4664595 0.6714664 0.4664595 0.3285336 -0.4664595
1108000000 0.3194177 -0.4629552 0.6805823 0.4629552 0.6805823 0.4629552 0.3194177 -0.4629552
1129000000 0.3105771 -0.4593582 0.6894229 0.4593582 0.6894229 0.4593582 0.3105771 -0.4593582
1150000000 0.3020043 -0.4556791 0.6979957 0.4556791 0.6979957 0.4556791 0.3020043 -0.4556791
1171000000 0.2936916 -0.4519275 0.7063084 0.4519275 0.7063084 0.4519275 0.2936916 -0.4519275
1192000000 0.2856313 -0.4481125 0.7143687 0.4481125 0.7143687 0.4481125 0.2856313 -0.4481125
1213000000 0.2778160 -0.4442424 0.7221840 0.4442424 0.7221840 0.4442424 0.2778160 -0.4442424
1234000000 0.2702382 -0.4403248 0.7297618 0.4403248 0.7297618 0.4403248 0.2702382 -0.4403248
1255000000 0.2628908 -0.4363668 0.7371092 0.4363668 0.7371092 0.4363668 0.2628908 -0.4363668
1276000000 0.2557664 -0.4323750 0.7442336 0.4323750 0.7442336 0.4323750 0.2557664 -0.4323750
1297000000 0.2488581 -0.4283554 0.7511419 0.4283554 0.7511419 0.4283554 0.2488581 -0.4283554
1318000000 0.2421591 -0.4243135 0.7578409 0.4243135 0.7578409 0.4243135 0.2421591 -0.4243135
1339000000 0.2356625 -0.4202545 0.7643375 0.4202545 0.7643375 0.4202545 0.2356625 -0.4202545
1360000000 0.2293619 -0.4161831 0.7706381 0.4161831 0.7706381 0.4161831 0.2293619 -0.4161831
1381000000 0.2232508 -0.4121035 0.7767492 0.4121035 0.7767492 0.4121035 0.2232508 -0.4121035
1402000000 0.2173232 -0.4080198 0.7826768 0.4080198 0.7826768 0.4080198 0.2173232 -0.4080198
1423000000 0.2115730 -0.4039354 0.7884270 0.4039354 0.7884270 0.4039354 0.2115730 -0.4039354
1444000000 0.2059942 -0.3998537 0.7940058 0.3998537 0.7940058 0.3998537 0.2059942 -0.3998537
1465000000 0.2005814 -0.3957778 0.7994186 0.3957778 0.7994186 0.3957778 0.2005814 -0.3957778
1486000000 0.1953289 -0.3917104 0.8046711 0.3917104 0.8046711 0.3917104 0.1953289 -0.3917104
1507000000 0.1902315 -0.3876539 0.8097685 0.3876539 0.8097685 0.3876539 0.1902315 -0.3876539
1528000000 0.1852840 -0.3836107 0.8147160 0.3836107 0.8147160 0.3836107 0.1852840 -0.3836107
1549000000 0.1804814 -0.3795828 0.8195186 0.3795828 0.8195186 0.3795828 0.1804814 -0.3795828
1570000000 0.1758189 -0.3755721 0.8241811 0.3755721 0.8241811 0.3755721 0.1758189 -0.3755721
1591000000 0.1712919 -0.3715802 0.8287081 0.3715802 0.8287081 0.3715802 0.1712919 -0.3715802
1612000000 0.1668959 -0.3676087 0.8331041 0.3676087 0.8331041 0.3676087 0.1668959 -0.3676087
1633000000 0.1626265 -0.3636590 0.8373735 0.3636590 0.8373735 0.3636590 0.1626265 -0.3636590
1654000000 0.1584795 -0.3597323 0.8415205 0.3597323 0.8415205 0.3597323 0.1584795 -0.3597323
1675000000 0.1544510 -0.3558296 0.8455490 0.3558296 0.8455490 0.3558296 0.1544510 -0.3558296
1696000000 0.1505369 -0.3519519 0.8494631 0.3519519 0.8494631 0.3519519 0.1505369 -0.3519519
1717000000 0.1467336 -0.3481001 0.8532664 0.3481001 0.8532664 0.3481001 0.1467336 -0.3481001
1738000000 0.1430374 -0.3442749 0.8569626 0.3442749 0.8569626 0.3442749 0.1430374 -0.3442749
1759000000 0.1394448 -0.3404770 0.8605552 0.3404770 0.8605552 0.3404770 0.1394448 -0.3404770
1780000000 0.1359525 -0.3367069 0.8640475 0.3367069 0.8640475 0.3367069 0.1359525 -0.3367069
1801000000 0.1325571 -0.3329651 0.8674429 0.3329651 0.8674429 0.3329651 0.1325571 -0.3329651
1822000000 0.1292556 -0.3292521 0.8707444 0.3292521 0.8707444 0.3292521 0.1292556 -0.3292521
1843000000 0.1260449 -0.3255682 0.8739551 0.3255682 0.8739551 0.3255682 0.1260449 -0.3255682
1864000000 0.1229221 -0.3219136 0.8770779 0.3219136 0.8770779 0.3219136 0.1229221 -0.3219136
1885000000 0.1198845 -0.3182886 0.8801155 0.3182886 0.8801155 0.3182886 0.1198845 -0.3182886
1906000000 0.1169292 -0.3146933 0.8830708 0.3146933 0.8830708 0.3146933 0.1169292 -0.3146933
1927000000 0.1140537 -0.3111279 0.8859463 0.3111279 0.8859463 0.3111279 0.1140537 -0.3111279
1948000000 0.1112555 -0.3075925 0.8887445 0.3075925 0.8887445 0.3075925 0.1112555 -0.3075925
1969000000 0.1085321 -0.3040870 0.8914679 0.3040870 0.8914679 0.3040870 0.1085321 -0.3040870
1990000000 0.1058812 -0.3006115 0.8941188 0.3006115 0.8941188 0.3006115 0.1058812 -0.3006115
2011000000 0.1033006 -0.2971659 0.8966994 0.2971659 0.8966994 0.2971659 0.1033006 -0.2971659
2032000000 0.1007881 -0.2937502 0.8992119 0.2937502 0.8992119 0.2937502 0.1007881 -0.2937502
2053000000 0.0983415 -0.2903642 0.9016585 0.2903642 0.9016585 0.2903642 0.0983415 -0.2903642
2074000000 0.0959589 -0.2870079 0.9040411 0.2870079 0.9040411 0.2870079 0.0959589 -0.2870079
2095000000 0.0936384 -0.2836811 0.9063616 0.2836811 0.9063616 0.2836811 0.0936384 -0.2836811
2116000000 0.0913779 -0.2803837 0.9086221 0.2803837 0.9086221 0.2803837 0.0913779 -0.2803837
2137000000 0.0891758 -0.2771154 0.9108242 0.2771154 0.9108242 0.2771154 0.0891758 -0.2771154
2158000000 0.0870303 -0.2738760 0.9129697 0.2738760 0.9129697 0.2738760 0.0870303 -0.2738760
2179000000 0.0849397 -0.2706654 0.9150603 0.2706654 0.9150603 0.2706654 0.0849397 -0.2706654
2200000000 0.0829023 -0.2674833 0.9170977 0.2674833 0.9170977 0.2674833 0.0829023 -0.2674833
2221000000 0.0809167 -0.2643294 0.9190833 0.2643294 0.9190833 0.2643294 0.0809167 -0.2643294
2242000000 0.0789812 -0.2612036 0.9210188 0.2612036 0.9210188 0.2612036 0.0789812 -0.2612036
2263000000 0.0770944 -0.2581055 0.9229056 0.2581055 0.9229056 0.2581055 0.0770944 -0.2581055
2284000000 0.0752550 -0.2550349 0.9247450 0.2550349 0.9247450 0.2550349 0.0752550 -0.2550349
2305000000 0.0734615 -0.2519915 0.9265385 0.2519915 0.9265385 0.2519915 0.0734615 -0.2519915
2326000000 0.0717127 -0.2489749 0.9282873 0.2489749 0.9282873 0.2489749 0.0717127 -0.2489749
2347000000 0.0700072 -0.2459850 0.9299928 0.2459850 0.9299928 0.2459850 0.0700072 -0.2459850
2368000000 0.0683439 -0.2430214 0.9316561 0.2430214 0.9316561 0.2430214 0.0683439 -0.2430214
2389000000 0.0667215 -0.2400839 0.9332785 0.2400839 0.9332785 0.2400839 0.0667215 -0.2400839
2410000000 0.0651389 -0.2371720 0.9348611 0.2371720 0.9348611 0.2371720 0.0651389 -0.2371720
2431000000 0.0635951 -0.2342855 0.9364049 0.2342855 0.9364049 0.2342855 0.0635951 -0.2342855
2452000000 0.0620889 -0.2314242 0.9379111 0.2314242 0.9379111 0.2314242 0.0620889 -0.2314242
2473000000 0.0606193 -0.2285876 0.9393807 0.2285876 0.9393807 0.2285876 0.0606193 -0.2285876
2494000000 0.0591854 -0.2257756 0.9408146 0.2257756 0.9408146 0.2257756 0.0591854 -0.2257756
2515000000 0.0577860 -0.2229877 0.9422140 0.2229877 0.9422140 0.2229877 0.0577860 -0.2229877
2536000000 0.0564205 -0.2202236 0.9435795 0.2202236 0.9435795 0.2202236 0.0564205 -0.2202236
2557000000 0.0550877 -0.2174831 0.9449123 0.2174831 0.9449123 0.2174831 0.0550877 -0.2174831
2578000000 0.0537869 -0.2147659 0.9462131 0.2147659 0.9462131 0.2147659 0.0537869 -0.2147659
2599000000 0.0525172 -0.2120715 0.9474828 0.2120715 0.9474828 0.2120715 0.0525172 -0.2120715
2620000000 0.0512778 -0.2093998 0.9487222 0.2093998 0.9487222 0.2093998 0.0512778 -0.2093998
2641000000 0.0500679 -0.2067504 0.9499321 0.2067504 0.9499321 0.2067504 0.0500679 -0.2067504
2662000000 0.0488868 -0.2041231 0.9511132 0.2041231 0.9511132 0.2041231 0.0488868 -0.2041231
2683000000 0.0477336 -0.2015174 0.9522664 0.2015174 0.9522664 0.2015174 0.0477336 -0.2015174
2704000000 0.0466078 -0.1989331 0.9533922 0.1989331 0.9533922 0.1989331 0.0466078 -0.1989331
2725000000 0.0455085 -0.1963699 0.9544915 0.1963699 0.9544915 0.1963699 0.0455085 -0.1963699
2746000000 0.0444352 -0.1938276 0.9555648 0.1938276 0.9555648 0.1938276 0.0444352 -0.1938276
2767000000 0.0433872 -0.1913058 0.9566128 0.1913058 0.9566128 0.1913058 0.0433872 -0.1913058
2788000000 0.0423638 -0.1888042 0.9576362 0.1888042 0.9576362 0.1888042 0.0423638 -0.1888042
2809000000 0.0413645 -0.1863225 0.9586355 0.1863225 0.9586355 0.1863225 0.0413645 -0.1863225
2830000000 0.0403886 -0.1838605 0.9596114 0.1838605 0.9596114 0.1838605 0.0403886 -0.1838605
2851000000 0.0394356 -0.1814179 0.9605644 0.1814179 0.9605644 0.1814179 0.0394356 -0.1814179
2872000000 0.0385050 -0.1789943 0.9614950 0.1789943 0.9614950 0.1789943 0.0385050 -0.1789943
2893000000 0.0375961 -0.1765896 0.9624039 0.1765896 0.9624039 0.1765896 0.0375961 -0.1765896
2914000000 0.0367086 -0.1742035 0.9632914 0.1742035 0.9632914 0.1742035 0.0367086 -0.1742035
2935000000 0.0358418 -0.1718356 0.9641582 0.1718356 0.9641582 0.1718356 0.0358418 -0.1718356
2956000000 0.0349953 -0.1694857 0.9650047 0.1694857 0.9650047 0.1694857 0.0349953 -0.1694857
2977000000 0.0341687 -0.1671536 0.9658313 0.1671536 0.9658313 0.1671536 0.0341687 -0.1671536
2998000000 0.0333614 -0.1648389 0.9666386 0.1648389 0.9666386 0.1648389 0.0333614 -0.1648389
3019000000 0.0325730 -0.1625415 0.9674270 0.1625415 0.9674270 0.1625415 0.0325730 -0.1625415
3040000000 0.0318031 -0.1602611 0.9681969 0.1602611 0.9681969 0.1602611 0.0318031 -0.1602611
3061000000 0.0310513 -0.1579974 0.9689487 0.1579974 0.9689487 0.1579974 0.0310513 -0.1579974
3082000000 0.0303171 -0.1557502 0.9696829 0.1557502 0.9696829 0.1557502 0.0303171 -0.1557502
3103000000 0.0296002 -0.1535192 0.9703998 0.1535192 0.9703998 0.1535192 0.0296002 -0.1535192
3124000000 0.0289002 -0.1513043 0.9710998 0.1513043 0.9710998 0.1513043 0.0289002 -0.1513043
3145000000 0.0282167 -0.1491051 0.9717833 0.1491051 0.9717833 0.1491051 0.0282167 -0.1491051
3166000000 0.0275493 -0.1469214 0.9724507 0.1469214 0.9724507 0.1469214 0.0275493 -0.1469214
3187000000 0.0268978 -0.1447531 0.9731022 0.1447531 0.9731022 0.1447531 0.0268978 -0.1447531
3208000000 0.0262617 -0.1425998 0.9737383 0.1425998 0.9737383 0.1425998 0.0262617 -0.1425998
3229000000 0.0256408 -0.1404614 0.9743592 0.1404614 0.9743592 0.1404614 0.0256408 -0.1404614
3250000000 0.0250347 -0.1383376 0.9749653 0.1383376 0.9749653 0.1383376 0.0250347 -0.1383376
3271000000 0.0244431 -0.1362282 0.9755569 0.1362282 0.9755569 0.1362282 0.0244431 -0.1362282
3292000000 0.0238657 -0.1341331 0.9761343 0.1341331 0.9761343 0.1341331 0.0238657 -0.1341331
3313000000 0.0233022 -0.1320519 0.9766978 0.1320519 0.9766978 0.1320519 0.0233022 -0.1320519
3334000000 0.0227524 -0.1299845 0.9772476 0.1299845 0.9772476 0.1299845 0.0227524 -0.1299845
3355000000 0.0222159 -0.1279307 0.9777841 0.1279307 0.9777841 0.1279307 0.0222159 -0.1279307
3376000000 0.0216925 -0.1258903 0.9783075 0.1258903 0.9783075 0.1258903 0.0216925 -0.1258903
3397000000 0.0211819 -0.1238630 0.9788181 0.1238630 0.9788181 0.1238630 0.0211819 -0.1238630
3418000000 0.0206839 -0.1218488 0.9793161 0.1218488 0.9793161 0.1218488 0.0206839 -0.1218488
3439000000 0.0201982 -0.1198473 0.9798018 0.1198473 0.9798018 0.1198473 0.0201982 -0.1198473
3460000000 0.0197246 -0.1178584 0.9802754 0.1178584 0.9802754 0.1178584 0.0197246 -0.1178584
3481000000 0.0192628 -0.1158820 0.9807372 0.1158820 0.9807372 0.1158820 0.0192628 -0.1158820
3502000000 0.0188127 -0.1139177 0.9811873 0.1139177 0.9811873 0.1139177 0.0188127 -0.1139177
3523000000 0.0183740 -0.1119656 0.9816260 0.1119656 0.9816260 0.1119656 0.0183740 -0.1119656
3544000000 0.0179464 -0.1100253 0.9820536 0.1100253 0.9820536 0.1100253 0.0179464 -0.1100253
3565000000 0.0175299 -0.1080967 0.9824701 0.1080967 0.9824701 0.1080967 0.0175299 -0.1080967
3586000000 0.0171241 -0.1061796 0.9828759 0.1061796 0.9828759 0.1061796 0.0171241 -0.1061796
3607000000 0.0167290 -0.1042738 0.9832710 0.1042738 0.9832710 0.1042738 0.0167290 -0.1042738
3628000000 0.0163442 -0.1023793 0.9836558 0.1023793 0.9836558 0.1023793 0.0163442 -0.1023793
3649000000 0.0159696 -0.1004957 0.9840304 0.1004957 0.9840304 0.1004957 0.0159696 -0.1004957
3670000000 0.0156051 -0.0986230 0.9843949 0.0986230 0.9843949 0.0986230 0.0156051 -0.0986230
3691000000 0.0152504 -0.0967610 0.9847496 0.0967610 0.9847496 0.0967610 0.0152504 -0.0967610
3712000000 0.0149054 -0.0949095 0.9850946 0.0949095 0.9850946 0.0949095 0.0149054 -0.0949095
3733000000 0.0145699 -0.0930684 0.9854301 0.0930684 0.9854301 0.0930684 0.0145699 -0.0930684
3754000000 0.0142438 -0.0912375 0.9857562 0.0912375 0.9857562 0.0912375 0.0142438 -0.0912375
3775000000 0.0139269 -0.0894167 0.9860731 0.0894167 0.9860731 0.0894167 0.0139269 -0.0894167
3796000000 0.0136190 -0.0876058 0.9863810 0.0876058 0.9863810 0.0876058 0.0136190 -0.0876058
3817000000 0.0133200 -0.0858046 0.9866800 0.0858046 0.9866800 0.0858046 0.0133200 -0.0858046
3838000000 0.0130298 -0.0840131 0.9869702 0.0840131 0.9869702 0.0840131 0.0130298 -0.0840131
3859000000 0.0127482 -0.0822310 0.9872518 0.0822310 0.9872518 0.0822310 0.0127482 -0.0822310
3880000000 0.0124750 -0.0804583 0.9875250 0.0804583 0.9875250 0.0804583 0.0124750 -0.0804583
3901000000 0.0122103 -0.0786948 0.9877897 0.0786948 0.9877897 0.0786948 0.0122103 -0.0786948
3922000000 0.0119537 -0.0769403 0.9880463 0.0769403 0.9880463 0.0769403 0.0119537 -0.0769403
3943000000 0.0117052 -0.0751948 0.9882948 0.0751948 0.9882948 0.0751948 0.0117052 -0.0751948
3964000000 0.0114647 -0.0734580 0.9885353 0.0734580 0.9885353 0.0734580 0.0114647 -0.0734580
3985000000 0.0112320 -0.0717299 0.9887680 0.0717299 0.9887680 0.0717299 0.0112320 -0.0717299
4006000000 0.0110071 -0.0700103 0.9889929 0.0700103 0.9889929 0.0700103 0.0110071 -0.0700103
4027000000 0.0107897 -0.0682991 0.9892103 0.0682991 0.9892103 0.0682991 0.0107897 -0.0682991
4048000000 0.0105799 -0.0665962 0.9894201 0.0665962 0.9894201 0.0665962 0.0105799 -0.0665962
4069000000 0.0103775 -0.0649014 0.9896225 0.0649014 0.9896225 0.0649014 0.0103775 -0.0649014
4090000000 0.0101824 -0.0632146 0.9898176 0.0632146 0.9898176 0.0632146 0.0101824 -0.0632146
4111000000 0.0099945 -0.0615357 0.9900055 0.0615357 0.9900055 0.0615357 0.0099945 -0.0615357
4132000000 0.0098137 -0.0598646 0.9901863 0.0598646 0.9901863 0.0598646 0.0098137 -0.0598646
4153000000 0.0096399 -0.0582012 0.9903601 0.0582012 0.9903601 0.0582012 0.0096399 -0.0582012
4174000000 0.0094731 -0.0565453 0.9905269 0.0565453 0.9905269 0.0565453 0.0094731 -0.0565453
4195000000 0.0093130 -0.0548968 0.9906870 0.0548968 0.9906870 0.0548968 0.0093130 -0.0548968
4216000000 0.0091597 -0.0532557 0.9908403 0.0532557 0.9908403 0.0532557 0.0091597 -0.0532557
4237000000 0.0090131 -0.0516217 0.9909869 0.0516217 0.9909869 0.0516217 0.0090131 -0.0516217
4258000000 0.0088731 -0.0499948 0.9911269 0.0499948 0.9911269 0.0499948 0.0088731 -0.0499948
4279000000 0.0087395 -0.0483749 0.9912605 0.0483749 0.9912605 0.0483749 0.0087395 -0.0483749
4300000000 0.0086124 -0.0467618 0.9913876 0.0467618 0.9913876 0.0467618 0.0086124 -0.0467618
4321000000 0.0084916 -0.0451555 0.9915084 0.0451555 0.9915084 0.0451555 0.0084916 -0.0451555
4342000000 0.0083771 -0.0435559 0.9916229 0.0435559 0.9916229 0.0435559 0.0083771 -0.0435559
4363000000 0.0082688 -0.0419628 0.9917312 0.0419628 0.9917312 0.0419628 0.0082688 -0.0419628
4384000000 0.0081666 -0.0403762 0.9918334 0.0403762 0.9918334 0.0403762 0.0081666 -0.0403762
4405000000 0.0080705 -0.0387959 0.9919295 0.0387959 0.9919295 0.0387959 0.0080705 -0.0387959
4426000000 0.0079805 -0.0372218 0.9920195 0.0372218 0.9920195 0.0372218 0.0079805 -0.0372218
4447000000 0.0078963 -0.0356538 0.9921037 0.0356538 0.9921037 0.0356538 0.0078963 -0.0356538
4468000000 0.0078181 -0.0340920 0.9921819 0.0340920 0.9921819 0.0340920 0.0078181 -0.0340920
4489000000 0.0077457 -0.0325360 0.9922543 0.0325360 0.9922543 0.0325360 0.0077457 -0.0325360
4510000000 0.0076790 -0.0309859 0.9923210 0.0309859 0.9923210 0.0309859 0.0076790 -0.0309859
