!Murata Part Number: GRM1883C2A2R3CA01
!These Parameters are Measured in Series Mode Connection
!Data Generated on Mar 30, 2021
!       o--ll--o
!Port1            Port2
!       o------o
!Operation Temp=25[degC], DC Bias Voltage=0[V]
!Freq. Start=100[MHz] Stop=9[GHz] 401[Steps]
# Hz S RI R 50
!Freq.(Hz) S11(Real) S11(Imag) S21(Real) S21(Imag) S12(Real) S12(Imag) S22(Real) S22(Imag)
100000000 0.9794862 -0.1416225 0.0205138 0.1416225 0.0205138 0.1416225 0.9794862 -0.1416225
121000000 0.9702323 -0.1697839 0.0297677 0.1697839 0.0297677 0.1697839 0.9702323 -0.1697839
142000000 0.9594321 -0.1970861 0.0405679 0.1970861 0.0405679 0.1970861 0.9594321 -0.1970861
163000000 0.9471881 -0.2234143 0.0528119 0.2234143 0.0528119 0.2234143 0.9471881 -0.2234143
184000000 0.9336124 -0.2486681 0.0663876 0.2486681 0.0663876 0.2486681 0.9336124 -0.2486681
205000000 0.9188251 -0.2727626 0.0811749 0.2727626 0.0811749 0.2727626 0.9188251 -0.2727626
226000000 0.9029515 -0.2956288 0.0970485 0.2956288 0.0970485 0.2956288 0.9029515 -0.2956288
247000000 0.8861195 -0.3172137 0.1138805 0.3172137 0.1138805 0.3172137 0.8861195 -0.3172137
268000000 0.8684580 -0.3374795 0.1315420 0.3374795 0.1315420 0.3374795 0.8684580 -0.3374795
289000000 0.8500942 -0.3564034 0.1499058 0.3564034 0.1499058 0.3564034 0.8500942 -0.3564034
310000000 0.8311523 -0.3739765 0.1688477 0.3739765 0.1688477 0.3739765 0.8311523 -0.3739765
331000000 0.8117514 -0.3902024 0.1882486 0.3902024 0.1882486 0.3902024 0.8117514 -0.3902024
352000000 0.7920050 -0.4050962 0.2079950 0.4050962 0.2079950 0.4050962 0.7920050 -0.4050962
373000000 0.7720193 -0.4186826 0.2279807 0.4186826 0.2279807 0.4186826 0.7720193 -0.4186826
394000000 0.7518930 -0.4309950 0.2481070 0.4309950 0.2481070 0.4309950 0.7518930 -0.4309950
415000000 0.7317167 -0.4420739 0.2682833 0.4420739 0.2682833 0.4420739 0.7317167 -0.4420739
436000000 0.7115723 -0.4519654 0.2884277 0.4519654 0.2884277 0.4519654 0.7115723 -0.4519654
457000000 0.6915339 -0.4607199 0.3084661 0.4607199 0.3084661 0.4607199 0.6915339 -0.4607199
478000000 0.6716668 -0.4683913 0.3283332 0.4683913 0.3283332 0.4683913 0.6716668 -0.4683913
499000000 0.6520286 -0.4750356 0.3479714 0.4750356 0.3479714 0.4750356 0.6520286 -0.4750356
520000000 0.6326694 -0.4807101 0.3673306 0.4807101 0.3673306 0.4807101 0.6326694 -0.4807101
541000000 0.6136316 -0.4854723 0.3863684 0.4854723 0.3863684 0.4854723 0.6136316 -0.4854723
562000000 0.5949514 -0.4893799 0.4050486 0.4893799 0.4050486 0.4893799 0.5949514 -0.4893799
583000000 0.5766585 -0.4924894 0.4233415 0.4924894 0.4233415 0.4924894 0.5766585 -0.4924894
604000000 0.5587770 -0.4948562 0.4412230 0.4948562 0.4412230 0.4948562 0.5587770 -0.4948562
625000000 0.5413259 -0.4965340 0.4586741 0.4965340 0.4586741 0.4965340 0.5413259 -0.4965340
646000000 0.5243196 -0.4975744 0.4756804 0.4975744 0.4756804 0.4975744 0.5243196 -0.4975744
667000000 0.5077684 -0.4980270 0.4922316 0.4980270 0.4922316 0.4980270 0.5077684 -0.4980270
688000000 0.4916787 -0.4979390 0.5083213 0.4979390 0.5083213 0.4979390 0.4916787 -0.4979390
709000000 0.4760540 -0.4973551 0.5239460 0.4973551 0.5239460 0.4973551 0.4760540 -0.4973551
730000000 0.4608949 -0.4963175 0.5391051 0.4963175 0.5391051 0.4963175 0.4608949 -0.4963175
751000000 0.4461996 -0.4948662 0.5538004 0.4948662 0.5538004 0.4948662 0.4461996 -0.4948662
772000000 0.4319644 -0.4930383 0.5680356 0.4930383 0.5680356 0.4930383 0.4319644 -0.4930383
793000000 0.4181835 -0.4908688 0.5818165 0.4908688 0.5818165 0.4908688 0.4181835 -0.4908688
814000000 0.4048500 -0.4883901 0.5951500 0.4883901 0.5951500 0.4883901 0.4048500 -0.4883901
835000000 0.3919557 -0.4856327 0.6080443 0.4856327 0.6080443 0.4856327 0.3919557 -0.4856327
856000000 0.3794914 -0.4826245 0.6205086 0.4826245 0.6205086 0.4826245 0.3794914 -0.4826245
877000000 0.3674470 -0.4793917 0.6325530 0.4793917 0.6325530 0.4793917 0.3674470 -0.4793917
898000000 0.3558119 -0.4759583 0.6441881 0.4759583 0.6441881 0.4759583 0.3558119 -0.4759583
919000000 0.3445752 -0.4723464 0.6554248 0.4723464 0.6554248 0.4723464 0.3445752 -0.4723464
940000000 0.3337255 -0.4685765 0.6662745 0.4685765 0.6662745 0.4685765 0.3337255 -0.4685765
961000000 0.3232512 -0.4646676 0.6767488 0.4646676 0.6767488 0.4646676 0.3232512 -0.4646676
982000000 0.3131406 -0.4606367 0.6868594 0.4606367 0.6868594 0.4606367 0.3131406 -0.4606367
1003000000 0.3033821 -0.4564999 0.6966179 0.4564999 0.6966179 0.4564999 0.3033821 -0.4564999
1024000000 0.2939639 -0.4522716 0.7060361 0.4522716 0.7060361 0.4522716 0.2939639 -0.4522716
1045000000 0.2848746 -0.4479650 0.7151254 0.4479650 0.7151254 0.4479650 0.2848746 -0.4479650
1066000000 0.2761027 -0.4435924 0.7238973 0.4435924 0.7238973 0.4435924 0.2761027 -0.4435924
1087000000 0.2676371 -0.4391647 0.7323629 0.4391647 0.7323629 0.4391647 0.2676371 -0.4391647
1108000000 0.2594667 -0.4346922 0.7405333 0.4346922 0.7405333 0.4346922 0.2594667 -0.4346922
1129000000 0.2515809 -0.4301838 0.7484191 0.4301838 0.7484191 0.4301838 0.2515809 -0.4301838
1150000000 0.2439692 -0.4256481 0.7560308 0.4256481 0.7560308 0.4256481 0.2439692 -0.4256481
1171000000 0.2366214 -0.4210925 0.7633786 0.4210925 0.7633786 0.4210925 0.2366214 -0.4210925
1192000000 0.2295277 -0.4165239 0.7704723 0.4165239 0.7704723 0.4165239 0.2295277 -0.4165239
1213000000 0.2226785 -0.4119485 0.7773215 0.4119485 0.7773215 0.4119485 0.2226785 -0.4119485
1234000000 0.2160646 -0.4073720 0.7839354 0.4073720 0.7839354 0.4073720 0.2160646 -0.4073720
1255000000 0.2096770 -0.4027993 0.7903230 0.4027993 0.7903230 0.4027993 0.2096770 -0.4027993
1276000000 0.2035071 -0.3982350 0.7964929 0.3982350 0.7964929 0.3982350 0.2035071 -0.3982350
1297000000 0.1975465 -0.3936832 0.8024535 0.3936832 0.8024535 0.3936832 0.1975465 -0.3936832
1318000000 0.1917874 -0.3891477 0.8082126 0.3891477 0.8082126 0.3891477 0.1917874 -0.3891477
1339000000 0.1862219 -0.3846315 0.8137781 0.3846315 0.8137781 0.3846315 0.1862219 -0.3846315
1360000000 0.1808427 -0.3801378 0.8191573 0.3801378 0.8191573 0.3801378 0.1808427 -0.3801378
1381000000 0.1756426 -0.3756690 0.8243574 0.3756690 0.8243574 0.3756690 0.1756426 -0.3756690
1402000000 0.1706147 -0.3712276 0.8293853 0.3712276 0.8293853 0.3712276 0.1706147 -0.3712276
1423000000 0.1657525 -0.3668154 0.8342475 0.3668154 0.8342475 0.3668154 0.1657525 -0.3668154
1444000000 0.1610497 -0.3624343 0.8389503 0.3624343 0.8389503 0.3624343 0.1610497 -0.3624343
1465000000 0.1565001 -0.3580859 0.8434999 0.3580859 0.8434999 0.3580859 0.1565001 -0.3580859
1486000000 0.1520981 -0.3537715 0.8479019 0.3537715 0.8479019 0.3537715 0.1520981 -0.3537715
1507000000 0.1478379 -0.3494924 0.8521621 0.3494924 0.8521621 0.3494924 0.1478379 -0.3494924
1528000000 0.1437143 -0.3452494 0.8562857 0.3452494 0.8562857 0.3452494 0.1437143 -0.3452494
1549000000 0.1397221 -0.3410434 0.8602779 0.3410434 0.8602779 0.3410434 0.1397221 -0.3410434
1570000000 0.1358563 -0.3368752 0.8641437 0.3368752 0.8641437 0.3368752 0.1358563 -0.3368752
1591000000 0.1321124 -0.3327453 0.8678876 0.3327453 0.8678876 0.3327453 0.1321124 -0.3327453
1612000000 0.1284858 -0.3286542 0.8715142 0.3286542 0.8715142 0.3286542 0.1284858 -0.3286542
1633000000 0.1249720 -0.3246022 0.8750280 0.3246022 0.8750280 0.3246022 0.1249720 -0.3246022
1654000000 0.1215671 -0.3205897 0.8784329 0.3205897 0.8784329 0.3205897 0.1215671 -0.3205897
1675000000 0.1182669 -0.3166167 0.8817331 0.3166167 0.8817331 0.3166167 0.1182669 -0.3166167
1696000000 0.1150677 -0.3126834 0.8849323 0.3126834 0.8849323 0.3126834 0.1150677 -0.3126834
1717000000 0.1119659 -0.3087898 0.8880341 0.3087898 0.8880341 0.3087898 0.1119659 -0.3087898
1738000000 0.1089579 -0.3049359 0.8910421 0.3049359 0.8910421 0.3049359 0.1089579 -0.3049359
1759000000 0.1060403 -0.3011217 0.8939597 0.3011217 0.8939597 0.3011217 0.1060403 -0.3011217
1780000000 0.1032100 -0.2973468 0.8967900 0.2973468 0.8967900 0.2973468 0.1032100 -0.2973468
1801000000 0.1004639 -0.2936113 0.8995361 0.2936113 0.8995361 0.2936113 0.1004639 -0.2936113
1822000000 0.0977989 -0.2899147 0.9022011 0.2899147 0.9022011 0.2899147 0.0977989 -0.2899147
1843000000 0.0952123 -0.2862570 0.9047877 0.2862570 0.9047877 0.2862570 0.0952123 -0.2862570
1864000000 0.0927014 -0.2826378 0.9072986 0.2826378 0.9072986 0.2826378 0.0927014 -0.2826378
1885000000 0.0902634 -0.2790567 0.9097366 0.2790567 0.9097366 0.2790567 0.0902634 -0.2790567
1906000000 0.0878960 -0.2755134 0.9121040 0.2755134 0.9121040 0.2755134 0.0878960 -0.2755134
1927000000 0.0855967 -0.2720076 0.9144033 0.2720076 0.9144033 0.2720076 0.0855967 -0.2720076
1948000000 0.0833631 -0.2685389 0.9166369 0.2685389 0.9166369 0.2685389 0.0833631 -0.2685389
1969000000 0.0811932 -0.2651068 0.9188068 0.2651068 0.9188068 0.2651068 0.0811932 -0.2651068
1990000000 0.0790847 -0.2617109 0.9209153 0.2617109 0.9209153 0.2617109 0.0790847 -0.2617109
2011000000 0.0770356 -0.2583509 0.9229644 0.2583509 0.9229644 0.2583509 0.0770356 -0.2583509
2032000000 0.0750440 -0.2550262 0.9249560 0.2550262 0.9249560 0.2550262 0.0750440 -0.2550262
2053000000 0.0731080 -0.2517365 0.9268920 0.2517365 0.9268920 0.2517365 0.0731080 -0.2517365
2074000000 0.0712257 -0.2484812 0.9287743 0.2484812 0.9287743 0.2484812 0.0712257 -0.2484812
2095000000 0.0693954 -0.2452599 0.9306046 0.2452599 0.9306046 0.2452599 0.0693954 -0.2452599
2116000000 0.0676155 -0.2420721 0.9323845 0.2420721 0.9323845 0.2420721 0.0676155 -0.2420721
2137000000 0.0658843 -0.2389174 0.9341157 0.2389174 0.9341157 0.2389174 0.0658843 -0.2389174
2158000000 0.0642003 -0.2357952 0.9357997 0.2357952 0.9357997 0.2357952 0.0642003 -0.2357952
2179000000 0.0625621 -0.2327052 0.9374379 0.2327052 0.9374379 0.2327052 0.0625621 -0.2327052
2200000000 0.0609681 -0.2296468 0.9390319 0.2296468 0.9390319 0.2296468 0.0609681 -0.2296468
2221000000 0.0594170 -0.2266196 0.9405830 0.2266196 0.9405830 0.2266196 0.0594170 -0.2266196
2242000000 0.0579076 -0.2236231 0.9420924 0.2236231 0.9420924 0.2236231 0.0579076 -0.2236231
2263000000 0.0564384 -0.2206568 0.9435616 0.2206568 0.9435616 0.2206568 0.0564384 -0.2206568
2284000000 0.0550084 -0.2177202 0.9449916 0.2177202 0.9449916 0.2177202 0.0550084 -0.2177202
2305000000 0.0536162 -0.2148129 0.9463838 0.2148129 0.9463838 0.2148129 0.0536162 -0.2148129
2326000000 0.0522609 -0.2119345 0.9477391 0.2119345 0.9477391 0.2119345 0.0522609 -0.2119345
2347000000 0.0509412 -0.2090844 0.9490588 0.2090844 0.9490588 0.2090844 0.0509412 -0.2090844
2368000000 0.0496561 -0.2062623 0.9503439 0.2062623 0.9503439 0.2062623 0.0496561 -0.2062623
2389000000 0.0484047 -0.2034676 0.9515953 0.2034676 0.9515953 0.2034676 0.0484047 -0.2034676
2410000000 0.0471860 -0.2006999 0.9528140 0.2006999 0.9528140 0.2006999 0.0471860 -0.2006999
2431000000 0.0459989 -0.1979589 0.9540011 0.1979589 0.9540011 0.1979589 0.0459989 -0.1979589
2452000000 0.0448426 -0.1952440 0.9551574 0.1952440 0.9551574 0.1952440 0.0448426 -0.1952440
2473000000 0.0437163 -0.1925548 0.9562837 0.1925548 0.9562837 0.1925548 0.0437163 -0.1925548
2494000000 0.0426190 -0.1898909 0.9573810 0.1898909 0.9573810 0.1898909 0.0426190 -0.1898909
2515000000 0.0415500 -0.1872519 0.9584500 0.1872519 0.9584500 0.1872519 0.0415500 -0.1872519
2536000000 0.0405085 -0.1846373 0.9594915 0.1846373 0.9594915 0.1846373 0.0405085 -0.1846373
2557000000 0.0394937 -0.1820469 0.9605063 0.1820469 0.9605063 0.1820469 0.0394937 -0.1820469
2578000000 0.0385048 -0.1794800 0.9614952 0.1794800 0.9614952 0.1794800 0.0385048 -0.1794800
2599000000 0.0375413 -0.1769365 0.9624587 0.1769365 0.9624587 0.1769365 0.0375413 -0.1769365
2620000000 0.0366023 -0.1744158 0.9633977 0.1744158 0.9633977 0.1744158 0.0366023 -0.1744158
2641000000 0.0356873 -0.1719177 0.9643127 0.1719177 0.9643127 0.1719177 0.0356873 -0.1719177
2662000000 0.0347956 -0.1694417 0.9652044 0.1694417 0.9652044 0.1694417 0.0347956 -0.1694417
2683000000 0.0339266 -0.1669874 0.9660734 0.1669874 0.9660734 0.1669874 0.0339266 -0.1669874
2704000000 0.0330797 -0.1645545 0.9669203 0.1645545 0.9669203 0.1645545 0.0330797 -0.1645545
2725000000 0.0322543 -0.1621426 0.9677457 0.1621426 0.9677457 0.1621426 0.0322543 -0.1621426
2746000000 0.0314499 -0.1597514 0.9685501 0.1597514 0.9685501 0.1597514 0.0314499 -0.1597514
2767000000 0.0306659 -0.1573806 0.9693341 0.1573806 0.9693341 0.1573806 0.0306659 -0.1573806
2788000000 0.0299019 -0.1550297 0.9700981 0.1550297 0.9700981 0.1550297 0.0299019 -0.1550297
2809000000 0.0291572 -0.1526985 0.9708428 0.1526985 0.9708428 0.1526985 0.0291572 -0.1526985
2830000000 0.0284315 -0.1503866 0.9715685 0.1503866 0.9715685 0.1503866 0.0284315 -0.1503866
2851000000 0.0277243 -0.1480937 0.9722757 0.1480937 0.9722757 0.1480937 0.0277243 -0.1480937
2872000000 0.0270351 -0.1458195 0.9729649 0.1458195 0.9729649 0.1458195 0.0270351 -0.1458195
2893000000 0.0263634 -0.1435636 0.9736366 0.1435636 0.9736366 0.1435636 0.0263634 -0.1435636
2914000000 0.0257089 -0.1413258 0.9742911 0.1413258 0.9742911 0.1413258 0.0257089 -0.1413258
2935000000 0.0250712 -0.1391058 0.9749288 0.1391058 0.9749288 0.1391058 0.0250712 -0.1391058
2956000000 0.0244498 -0.1369032 0.9755502 0.1369032 0.9755502 0.1369032 0.0244498 -0.1369032
2977000000 0.0238443 -0.1347178 0.9761557 0.1347178 0.9761557 0.1347178 0.0238443 -0.1347178
2998000000 0.0232544 -0.1325493 0.9767456 0.1325493 0.9767456 0.1325493 0.0232544 -0.1325493
3019000000 0.0226798 -0.1303974 0.9773202 0.1303974 0.9773202 0.1303974 0.0226798 -0.1303974
3040000000 0.0221200 -0.1282618 0.9778800 0.1282618 0.9778800 0.1282618 0.0221200 -0.1282618
3061000000 0.0215748 -0.1261423 0.9784252 0.1261423 0.9784252 0.1261423 0.0215748 -0.1261423
3082000000 0.0210438 -0.1240385 0.9789562 0.1240385 0.9789562 0.1240385 0.0210438 -0.1240385
3103000000 0.0205267 -0.1219503 0.9794733 0.1219503 0.9794733 0.1219503 0.0205267 -0.1219503
3124000000 0.0200231 -0.1198773 0.9799769 0.1198773 0.9799769 0.1198773 0.0200231 -0.1198773
3145000000 0.0195329 -0.1178193 0.9804671 0.1178193 0.9804671 0.1178193 0.0195329 -0.1178193
3166000000 0.0190556 -0.1157761 0.9809444 0.1157761 0.9809444 0.1157761 0.0190556 -0.1157761
3187000000 0.0185911 -0.1137474 0.9814089 0.1137474 0.9814089 0.1137474 0.0185911 -0.1137474
3208000000 0.0181390 -0.1117330 0.9818610 0.1117330 0.9818610 0.1117330 0.0181390 -0.1117330
3229000000 0.0176991 -0.1097327 0.9823009 0.1097327 0.9823009 0.1097327 0.0176991 -0.1097327
3250000000 0.0172712 -0.1077461 0.9827288 0.1077461 0.9827288 0.1077461 0.0172712 -0.1077461
3271000000 0.0168549 -0.1057732 0.9831451 0.1057732 0.9831451 0.1057732 0.0168549 -0.1057732
3292000000 0.0164500 -0.1038135 0.9835500 0.1038135 0.9835500 0.1038135 0.0164500 -0.1038135
3313000000 0.0160564 -0.1018671 0.9839436 0.1018671 0.9839436 0.1018671 0.0160564 -0.1018671
3334000000 0.0156738 -0.0999335 0.9843262 0.0999335 0.9843262 0.0999335 0.0156738 -0.0999335
3355000000 0.0153019 -0.0980127 0.9846981 0.0980127 0.9846981 0.0980127 0.0153019 -0.0980127
3376000000 0.0149405 -0.0961044 0.9850595 0.0961044 0.9850595 0.0961044 0.0149405 -0.0961044
3397000000 0.0145895 -0.0942084 0.9854105 0.0942084 0.9854105 0.0942084 0.0145895 -0.0942084
3418000000 0.0142487 -0.0923245 0.9857513 0.0923245 0.9857513 0.0923245 0.0142487 -0.0923245
3439000000 0.0139177 -0.0904524 0.9860823 0.0904524 0.9860823 0.0904524 0.0139177 -0.0904524
3460000000 0.0135966 -0.0885921 0.9864034 0.0885921 0.9864034 0.0885921 0.0135966 -0.0885921
3481000000 0.0132850 -0.0867433 0.9867150 0.0867433 0.9867150 0.0867433 0.0132850 -0.0867433
3502000000 0.0129828 -0.0849059 0.9870172 0.0849059 0.9870172 0.0849059 0.0129828 -0.0849059
3523000000 0.0126899 -0.0830796 0.9873101 0.0830796 0.9873101 0.0830796 0.0126899 -0.0830796
3544000000 0.0124060 -0.0812642 0.9875940 0.0812642 0.9875940 0.0812642 0.0124060 -0.0812642
3565000000 0.0121310 -0.0794596 0.9878690 0.0794596 0.9878690 0.0794596 0.0121310 -0.0794596
3586000000 0.0118647 -0.0776657 0.9881353 0.0776657 0.9881353 0.0776657 0.0118647 -0.0776657
3607000000 0.0116071 -0.0758822 0.9883929 0.0758822 0.9883929 0.0758822 0.0116071 -0.0758822
3628000000 0.0113578 -0.0741089 0.9886422 0.0741089 0.9886422 0.0741089 0.0113578 -0.0741089
3649000000 0.0111169 -0.0723458 0.9888831 0.0723458 0.9888831 0.0723458 0.0111169 -0.0723458
3670000000 0.0108841 -0.0705926 0.9891159 0.0705926 0.9891159 0.0705926 0.0108841 -0.0705926
3691000000 0.0106593 -0.0688491 0.9893407 0.0688491 0.9893407 0.0688491 0.0106593 -0.0688491
3712000000 0.0104424 -0.0671153 0.9895576 0.0671153 0.9895576 0.0671153 0.0104424 -0.0671153
3733000000 0.0102332 -0.0653910 0.9897668 0.0653910 0.9897668 0.0653910 0.0102332 -0.0653910
3754000000 0.0100317 -0.0636759 0.9899683 0.0636759 0.9899683 0.0636759 0.0100317 -0.0636759
3775000000 0.0098377 -0.0619701 0.9901623 0.0619701 0.9901623 0.0619701 0.0098377 -0.0619701
3796000000 0.0096511 -0.0602732 0.9903489 0.0602732 0.9903489 0.0602732 0.0096511 -0.0602732
3817000000 0.0094717 -0.0585852 0.9905283 0.0585852 0.9905283 0.0585852 0.0094717 -0.0585852
3838000000 0.0092995 -0.0569059 0.9907005 0.0569059 0.9907005 0.0569059 0.0092995 -0.0569059
3859000000 0.0091344 -0.0552352 0.9908656 0.0552352 0.9908656 0.0552352 0.0091344 -0.0552352
3880000000 0.0089762 -0.0535730 0.9910238 0.0535730 0.9910238 0.0535730 0.0089762 -0.0535730
3901000000 0.0088249 -0.0519190 0.9911751 0.0519190 0.9911751 0.0519190 0.0088249 -0.0519190
3922000000 0.0086803 -0.0502732 0.9913197 0.0502732 0.9913197 0.0502732 0.0086803 -0.0502732
3943000000 0.0085424 -0.0486355 0.9914576 0.0486355 0.9914576 0.0486355 0.0085424 -0.0486355
3964000000 0.0084110 -0.0470057 0.9915890 0.0470057 0.9915890 0.0470057 0.0084110 -0.0470057
3985000000 0.0082861 -0.0453836 0.9917139 0.0453836 0.9917139 0.0453836 0.0082861 -0.0453836
4006000000 0.0081676 -0.0437692 0.9918324 0.0437692 0.9918324 0.0437692 0.0081676 -0.0437692
4027000000 0.0080554 -0.0421623 0.9919446 0.0421623 0.9919446 0.0421623 0.0080554 -0.0421623
4048000000 0.0079494 -0.0405628 0.9920506 0.0405628 0.9920506 0.0405628 0.0079494 -0.0405628
4069000000 0.0078496 -0.0389706 0.9921504 0.0389706 0.9921504 0.0389706 0.0078496 -0.0389706
4090000000 0.0077558 -0.0373855 0.9922442 0.0373855 0.9922442 0.0373855 0.0077558 -0.0373855
4111000000 0.0076680 -0.0358075 0.9923320 0.0358075 0.9923320 0.0358075 0.0076680 -0.0358075
4132000000 0.0075862 -0.0342365 0.9924138 0.0342365 0.9924138 0.0342365 0.0075862 -0.0342365
4153000000 0.0075101 -0.0326722 0.9924899 0.0326722 0.9924899 0.0326722 0.0075101 -0.0326722
4174000000 0.0074399 -0.0311146 0.9925601 0.0311146 0.9925601 0.0311146 0.0074399 -0.0311146
4195000000 0.0073753 -0.0295637 0.9926247 0.0295637 0.9926247 0.0295637 0.0073753 -0.0295637
4216000000 0.0073164 -0.0280192 0.9926836 0.0280192 0.9926836 0.0280192 0.0073164 -0.0280192
4237000000 0.0072631 -0.0264810 0.9927369 0.0264810 0.9927369 0.0264810 0.0072631 -0.0264810
4258000000 0.0072153 -0.0249492 0.9927847 0.0249492 0.9927847 0.0249492 0.0072153 -0.0249492
4279000000 0.0071730 -0.0234235 0.9928270 0.0234235 0.9928270 0.0234235 0.0071730 -0.0234235
4300000000 0.0071361 -0.0219038 0.9928639 0.0219038 0.9928639 0.0219038 0.0071361 -0.0219038
4321000000 0.0071045 -0.0203901 0.9928955 0.0203901 0.9928955 0.0203901 0.0071045 -0.0203901
4342000000 0.0070782 -0.0188822 0.9929218 0.0188822 0.9929218 0.0188822 0.0070782 -0.0188822
4363000000 0.0070572 -0.0173801 0.9929428 0.0173801 0.9929428 0.0173801 0.0070572 -0.0173801
4384000000 0.0070415 -0.0158837 0.9929585 0.0158837 0.9929585 0.0158837 0.0070415 -0.0158837
4405000000 0.0070308 -0.0143928 0.9929692 0.0143928 0.9929692 0.0143928 0.0070308 -0.0143928
4426000000 0.0070253 -0.0129074 0.9929747 0.0129074 0.9929747 0.0129074 0.0070253 -0.0129074
4447000000 0.0070248 -0.0114273 0.9929752 0.0114273 0.9929752 0.0114273 0.0070248 -0.0114273
4468000000 0.0070294 -0.0099525 0.9929706 0.0099525 0.9929706 0.0099525 0.0070294 -0.0099525
4489000000 0.0070390 -0.0084829 0.9929610 0.0084829 0.9929610 0.0084829 0.0070390 -0.0084829
4510000000 0.0070535 -0.0070184 0.9929465 0.0070184 0.9929465 0.0070184 0.0070535 -0.0070184
