!Murata Part Number: GRM1885C1H8R0BA01
!These Parameters are Measured in Series Mode Connection
!Data Generated on Mar 30, 2021
!       o--ll--o
!Port1            Port2
!       o------o
!Operation Temp=25[degC], DC Bias Voltage=0[V]
!Freq. Start=100[MHz] Stop=9[GHz] 401[Steps]
# Hz S RI R 50
!Freq.(Hz) S11(Real) S11(Imag) S21(Real) S21(Imag) S12(Real) S12(Imag) S22(Real) S22(Imag)
100000000 0.7976205 -0.4014827 0.2023795 0.4014827 0.2023795 0.4014827 0.7976205 -0.4014827
121000000 0.7288539 -0.4441889 0.2711461 0.4441889 0.2711461 0.4441889 0.7288539 -0.4441889
142000000 0.6608436 -0.4729836 0.3391564 0.4729836 0.3391564 0.4729836 0.6608436 -0.4729836
163000000 0.5961083 -0.4901539 0.4038917 0.4901539 0.4038917 0.4901539 0.5961083 -0.4901539
184000000 0.5361200 -0.4980820 0.4638800 0.4980820 0.4638800 0.4980820 0.5361200 -0.4980820
205000000 0.4815533 -0.4989522 0.5184467 0.4989522 0.5184467 0.4989522 0.4815533 -0.4989522
226000000 0.4325395 -0.4946183 0.5674605 0.4946183 0.5674605 0.4946183 0.4325395 -0.4946183
247000000 0.3888739 -0.4865756 0.6111261 0.4865756 0.6111261 0.4865756 0.3888739 -0.4865756
268000000 0.3501682 -0.4759878 0.6498318 0.4759878 0.6498318 0.4759878 0.3501682 -0.4759878
289000000 0.3159519 -0.4637371 0.6840481 0.4637371 0.6840481 0.4637371 0.3159519 -0.4637371
310000000 0.2857353 -0.4504789 0.7142647 0.4504789 0.7142647 0.4504789 0.2857353 -0.4504789
331000000 0.2590458 -0.4366917 0.7409542 0.4366917 0.7409542 0.4366917 0.2590458 -0.4366917
352000000 0.2354469 -0.4227190 0.7645531 0.4227190 0.7645531 0.4227190 0.2354469 -0.4227190
373000000 0.2145463 -0.4088033 0.7854537 0.4088033 0.7854537 0.4088033 0.2145463 -0.4088033
394000000 0.1959970 -0.3951122 0.8040030 0.3951122 0.8040030 0.3951122 0.1959970 -0.3951122
415000000 0.1794959 -0.3817581 0.8205041 0.3817581 0.8205041 0.3817581 0.1794959 -0.3817581
436000000 0.1647797 -0.3688133 0.8352203 0.3688133 0.8352203 0.3688133 0.1647797 -0.3688133
457000000 0.1516209 -0.3563210 0.8483791 0.3563210 0.8483791 0.3563210 0.1516209 -0.3563210
478000000 0.1398234 -0.3443040 0.8601766 0.3443040 0.8601766 0.3443040 0.1398234 -0.3443040
499000000 0.1292181 -0.3327699 0.8707819 0.3327699 0.8707819 0.3327699 0.1292181 -0.3327699
520000000 0.1196594 -0.3217163 0.8803406 0.3217163 0.8803406 0.3217163 0.1196594 -0.3217163
541000000 0.1110216 -0.3111336 0.8889784 0.3111336 0.8889784 0.3111336 0.1110216 -0.3111336
562000000 0.1031963 -0.3010076 0.8968037 0.3010076 0.8968037 0.3010076 0.1031963 -0.3010076
583000000 0.0960896 -0.2913211 0.9039104 0.2913211 0.9039104 0.2913211 0.0960896 -0.2913211
604000000 0.0896202 -0.2820550 0.9103798 0.2820550 0.9103798 0.2820550 0.0896202 -0.2820550
625000000 0.0837174 -0.2731896 0.9162826 0.2731896 0.9162826 0.2731896 0.0837174 -0.2731896
646000000 0.0783196 -0.2647046 0.9216804 0.2647046 0.9216804 0.2647046 0.0783196 -0.2647046
667000000 0.0733731 -0.2565803 0.9266269 0.2565803 0.9266269 0.2565803 0.0733731 -0.2565803
688000000 0.0688308 -0.2487971 0.9311692 0.2487971 0.9311692 0.2487971 0.0688308 -0.2487971
709000000 0.0646516 -0.2413362 0.9353484 0.2413362 0.9353484 0.2413362 0.0646516 -0.2413362
730000000 0.0607992 -0.2341796 0.9392008 0.2341796 0.9392008 0.2341796 0.0607992 -0.2341796
751000000 0.0572416 -0.2273104 0.9427584 0.2273104 0.9427584 0.2273104 0.0572416 -0.2273104
772000000 0.0539506 -0.2207121 0.9460494 0.2207121 0.9460494 0.2207121 0.0539506 -0.2207121
793000000 0.0509011 -0.2143696 0.9490989 0.2143696 0.9490989 0.2143696 0.0509011 -0.2143696
814000000 0.0480709 -0.2082683 0.9519291 0.2082683 0.9519291 0.2082683 0.0480709 -0.2082683
835000000 0.0454403 -0.2023948 0.9545597 0.2023948 0.9545597 0.2023948 0.0454403 -0.2023948
856000000 0.0429917 -0.1967363 0.9570083 0.1967363 0.9570083 0.1967363 0.0429917 -0.1967363
877000000 0.0407093 -0.1912809 0.9592907 0.1912809 0.9592907 0.1912809 0.0407093 -0.1912809
898000000 0.0385789 -0.1860173 0.9614211 0.1860173 0.9614211 0.1860173 0.0385789 -0.1860173
919000000 0.0365880 -0.1809352 0.9634120 0.1809352 0.9634120 0.1809352 0.0365880 -0.1809352
940000000 0.0347251 -0.1760247 0.9652749 0.1760247 0.9652749 0.1760247 0.0347251 -0.1760247
961000000 0.0329801 -0.1712767 0.9670199 0.1712767 0.9670199 0.1712767 0.0329801 -0.1712767
982000000 0.0313436 -0.1666824 0.9686564 0.1666824 0.9686564 0.1666824 0.0313436 -0.1666824
1003000000 0.0298072 -0.1622340 0.9701928 0.1622340 0.9701928 0.1622340 0.0298072 -0.1622340
1024000000 0.0283634 -0.1579237 0.9716366 0.1579237 0.9716366 0.1579237 0.0283634 -0.1579237
1045000000 0.0270054 -0.1537446 0.9729946 0.1537446 0.9729946 0.1537446 0.0270054 -0.1537446
1066000000 0.0257267 -0.1496900 0.9742733 0.1496900 0.9742733 0.1496900 0.0257267 -0.1496900
1087000000 0.0245219 -0.1457537 0.9754781 0.1457537 0.9754781 0.1457537 0.0245219 -0.1457537
1108000000 0.0233855 -0.1419299 0.9766145 0.1419299 0.9766145 0.1419299 0.0233855 -0.1419299
1129000000 0.0223130 -0.1382130 0.9776870 0.1382130 0.9776870 0.1382130 0.0223130 -0.1382130
1150000000 0.0213000 -0.1345979 0.9787000 0.1345979 0.9787000 0.1345979 0.0213000 -0.1345979
1171000000 0.0203425 -0.1310797 0.9796575 0.1310797 0.9796575 0.1310797 0.0203425 -0.1310797
1192000000 0.0194368 -0.1276539 0.9805632 0.1276539 0.9805632 0.1276539 0.0194368 -0.1276539
1213000000 0.0185797 -0.1243162 0.9814203 0.1243162 0.9814203 0.1243162 0.0185797 -0.1243162
1234000000 0.0177679 -0.1210626 0.9822321 0.1210626 0.9822321 0.1210626 0.0177679 -0.1210626
1255000000 0.0169988 -0.1178891 0.9830012 0.1178891 0.9830012 0.1178891 0.0169988 -0.1178891
1276000000 0.0162697 -0.1147923 0.9837303 0.1147923 0.9837303 0.1147923 0.0162697 -0.1147923
1297000000 0.0155781 -0.1117687 0.9844219 0.1117687 0.9844219 0.1117687 0.0155781 -0.1117687
1318000000 0.0149218 -0.1088151 0.9850782 0.1088151 0.9850782 0.1088151 0.0149218 -0.1088151
1339000000 0.0142989 -0.1059285 0.9857011 0.1059285 0.9857011 0.1059285 0.0142989 -0.1059285
1360000000 0.0137073 -0.1031060 0.9862927 0.1031060 0.9862927 0.1031060 0.0137073 -0.1031060
1381000000 0.0131453 -0.1003449 0.9868547 0.1003449 0.9868547 0.1003449 0.0131453 -0.1003449
1402000000 0.0126113 -0.0976427 0.9873887 0.0976427 0.9873887 0.0976427 0.0126113 -0.0976427
1423000000 0.0121036 -0.0949968 0.9878964 0.0949968 0.9878964 0.0949968 0.0121036 -0.0949968
1444000000 0.0116210 -0.0924050 0.9883790 0.0924050 0.9883790 0.0924050 0.0116210 -0.0924050
1465000000 0.0111621 -0.0898650 0.9888379 0.0898650 0.9888379 0.0898650 0.0111621 -0.0898650
1486000000 0.0107256 -0.0873749 0.9892744 0.0873749 0.9892744 0.0873749 0.0107256 -0.0873749
1507000000 0.0103104 -0.0849326 0.9896896 0.0849326 0.9896896 0.0849326 0.0103104 -0.0849326
1528000000 0.0099154 -0.0825363 0.9900846 0.0825363 0.9900846 0.0825363 0.0099154 -0.0825363
1549000000 0.0095396 -0.0801841 0.9904604 0.0801841 0.9904604 0.0801841 0.0095396 -0.0801841
1570000000 0.0091821 -0.0778744 0.9908179 0.0778744 0.9908179 0.0778744 0.0091821 -0.0778744
1591000000 0.0088420 -0.0756056 0.9911580 0.0756056 0.9911580 0.0756056 0.0088420 -0.0756056
1612000000 0.0085185 -0.0733761 0.9914815 0.0733761 0.9914815 0.0733761 0.0085185 -0.0733761
1633000000 0.0082108 -0.0711844 0.9917892 0.0711844 0.9917892 0.0711844 0.0082108 -0.0711844
1654000000 0.0079182 -0.0690291 0.9920818 0.0690291 0.9920818 0.0690291 0.0079182 -0.0690291
1675000000 0.0076400 -0.0669090 0.9923600 0.0669090 0.9923600 0.0669090 0.0076400 -0.0669090
1696000000 0.0073756 -0.0648226 0.9926244 0.0648226 0.9926244 0.0648226 0.0073756 -0.0648226
1717000000 0.0071244 -0.0627689 0.9928756 0.0627689 0.9928756 0.0627689 0.0071244 -0.0627689
1738000000 0.0068858 -0.0607467 0.9931142 0.0607467 0.9931142 0.0607467 0.0068858 -0.0607467
1759000000 0.0066592 -0.0587547 0.9933408 0.0587547 0.9933408 0.0587547 0.0066592 -0.0587547
1780000000 0.0064443 -0.0567921 0.9935557 0.0567921 0.9935557 0.0567921 0.0064443 -0.0567921
1801000000 0.0062404 -0.0548576 0.9937596 0.0548576 0.9937596 0.0548576 0.0062404 -0.0548576
1822000000 0.0060472 -0.0529505 0.9939528 0.0529505 0.9939528 0.0529505 0.0060472 -0.0529505
1843000000 0.0058643 -0.0510697 0.9941357 0.0510697 0.9941357 0.0510697 0.0058643 -0.0510697
1864000000 0.0056913 -0.0492143 0.9943087 0.0492143 0.9943087 0.0492143 0.0056913 -0.0492143
1885000000 0.0055277 -0.0473835 0.9944723 0.0473835 0.9944723 0.0473835 0.0055277 -0.0473835
1906000000 0.0053733 -0.0455764 0.9946267 0.0455764 0.9946267 0.0455764 0.0053733 -0.0455764
1927000000 0.0052277 -0.0437923 0.9947723 0.0437923 0.9947723 0.0437923 0.0052277 -0.0437923
1948000000 0.0050905 -0.0420304 0.9949095 0.0420304 0.9949095 0.0420304 0.0050905 -0.0420304
1969000000 0.0049616 -0.0402900 0.9950384 0.0402900 0.9950384 0.0402900 0.0049616 -0.0402900
1990000000 0.0048406 -0.0385703 0.9951594 0.0385703 0.9951594 0.0385703 0.0048406 -0.0385703
2011000000 0.0047272 -0.0368707 0.9952728 0.0368707 0.9952728 0.0368707 0.0047272 -0.0368707
2032000000 0.0046212 -0.0351906 0.9953788 0.0351906 0.9953788 0.0351906 0.0046212 -0.0351906
2053000000 0.0045224 -0.0335293 0.9954776 0.0335293 0.9954776 0.0335293 0.0045224 -0.0335293
2074000000 0.0044305 -0.0318861 0.9955695 0.0318861 0.9955695 0.0318861 0.0044305 -0.0318861
2095000000 0.0043453 -0.0302606 0.9956547 0.0302606 0.9956547 0.0302606 0.0043453 -0.0302606
2116000000 0.0042667 -0.0286522 0.9957333 0.0286522 0.9957333 0.0286522 0.0042667 -0.0286522
2137000000 0.0041943 -0.0270603 0.9958057 0.0270603 0.9958057 0.0270603 0.0041943 -0.0270603
2158000000 0.0041281 -0.0254844 0.9958719 0.0254844 0.9958719 0.0254844 0.0041281 -0.0254844
2179000000 0.0040679 -0.0239240 0.9959321 0.0239240 0.9959321 0.0239240 0.0040679 -0.0239240
2200000000 0.0040135 -0.0223787 0.9959865 0.0223787 0.9959865 0.0223787 0.0040135 -0.0223787
2221000000 0.0039647 -0.0208478 0.9960353 0.0208478 0.9960353 0.0208478 0.0039647 -0.0208478
2242000000 0.0039214 -0.0193311 0.9960786 0.0193311 0.9960786 0.0193311 0.0039214 -0.0193311
2263000000 0.0038835 -0.0178280 0.9961165 0.0178280 0.9961165 0.0178280 0.0038835 -0.0178280
2284000000 0.0038508 -0.0163382 0.9961492 0.0163382 0.9961492 0.0163382 0.0038508 -0.0163382
2305000000 0.0038232 -0.0148612 0.9961768 0.0148612 0.9961768 0.0148612 0.0038232 -0.0148612
2326000000 0.0038006 -0.0133966 0.9961994 0.0133966 0.9961994 0.0133966 0.0038006 -0.0133966
2347000000 0.0037829 -0.0119441 0.9962171 0.0119441 0.9962171 0.0119441 0.0037829 -0.0119441
2368000000 0.0037699 -0.0105032 0.9962301 0.0105032 0.9962301 0.0105032 0.0037699 -0.0105032
2389000000 0.0037616 -0.0090736 0.9962384 0.0090736 0.9962384 0.0090736 0.0037616 -0.0090736
2410000000 0.0037579 -0.0076550 0.9962421 0.0076550 0.9962421 0.0076550 0.0037579 -0.0076550
2431000000 0.0037586 -0.0062470 0.9962414 0.0062470 0.9962414 0.0062470 0.0037586 -0.0062470
2452000000 0.0037637 -0.0048492 0.9962363 0.0048492 0.9962363 0.0048492 0.0037637 -0.0048492
2473000000 0.0037731 -0.0034615 0.9962269 0.0034615 0.9962269 0.0034615 0.0037731 -0.0034615
2494000000 0.0037868 -0.0020834 0.9962132 0.0020834 0.9962132 0.0020834 0.0037868 -0.0020834
2515000000 0.0038046 -0.0007146 0.9961954 0.0007146 0.9961954 0.0007146 0.0038046 -0.0007146
2536000000 0.0038265 0.0006451 0.9961735 -0.0006451 0.9961735 -0.0006451 0.0038265 0.0006451
2557000000 0.0038524 0.0019961 0.9961476 -0.0019961 0.9961476 -0.0019961 0.0038524 0.0019961
2578000000 0.0038823 0.0033386 0.9961177 -0.0033386 0.9961177 -0.0033386 0.0038823 0.0033386
2599000000 0.0039160 0.0046728 0.9960840 -0.0046728 0.9960840 -0.0046728 0.0039160 0.0046728
2620000000 0.0039537 0.0059991 0.9960463 -0.0059991 0.9960463 -0.0059991 0.0039537 0.0059991
2641000000 0.0039951 0.0073178 0.9960049 -0.0073178 0.9960049 -0.0073178 0.0039951 0.0073178
2662000000 0.0040403 0.0086290 0.9959597 -0.0086290 0.9959597 -0.0086290 0.0040403 0.0086290
2683000000 0.0040892 0.0099330 0.9959108 -0.0099330 0.9959108 -0.0099330 0.0040892 0.0099330
2704000000 0.0041418 0.0112301 0.9958582 -0.0112301 0.9958582 -0.0112301 0.0041418 0.0112301
2725000000 0.0041980 0.0125205 0.9958020 -0.0125205 0.9958020 -0.0125205 0.0041980 0.0125205
2746000000 0.0042579 0.0138044 0.9957421 -0.0138044 0.9957421 -0.0138044 0.0042579 0.0138044
2767000000 0.0043213 0.0150820 0.9956787 -0.0150820 0.9956787 -0.0150820 0.0043213 0.0150820
2788000000 0.0043882 0.0163537 0.9956118 -0.0163537 0.9956118 -0.0163537 0.0043882 0.0163537
2809000000 0.0044586 0.0176195 0.9955414 -0.0176195 0.9955414 -0.0176195 0.0044586 0.0176195
2830000000 0.0045326 0.0188797 0.9954674 -0.0188797 0.9954674 -0.0188797 0.0045326 0.0188797
2851000000 0.0046100 0.0201346 0.9953900 -0.0201346 0.9953900 -0.0201346 0.0046100 0.0201346
2872000000 0.0046909 0.0213842 0.9953091 -0.0213842 0.9953091 -0.0213842 0.0046909 0.0213842
2893000000 0.0047752 0.0226289 0.9952248 -0.0226289 0.9952248 -0.0226289 0.0047752 0.0226289
2914000000 0.0048629 0.0238688 0.9951371 -0.0238688 0.9951371 -0.0238688 0.0048629 0.0238688
2935000000 0.0049541 0.0251041 0.9950459 -0.0251041 0.9950459 -0.0251041 0.0049541 0.0251041
2956000000 0.0050486 0.0263350 0.9949514 -0.0263350 0.9949514 -0.0263350 0.0050486 0.0263350
2977000000 0.0051466 0.0275617 0.9948534 -0.0275617 0.9948534 -0.0275617 0.0051466 0.0275617
2998000000 0.0052479 0.0287844 0.9947521 -0.0287844 0.9947521 -0.0287844 0.0052479 0.0287844
3019000000 0.0053527 0.0300033 0.9946473 -0.0300033 0.9946473 -0.0300033 0.0053527 0.0300033
3040000000 0.0054609 0.0312185 0.9945391 -0.0312185 0.9945391 -0.0312185 0.0054609 0.0312185
3061000000 0.0055724 0.0324303 0.9944276 -0.0324303 0.9944276 -0.0324303 0.0055724 0.0324303
3082000000 0.0056874 0.0336387 0.9943126 -0.0336387 0.9943126 -0.0336387 0.0056874 0.0336387
3103000000 0.0058058 0.0348441 0.9941942 -0.0348441 0.9941942 -0.0348441 0.0058058 0.0348441
3124000000 0.0059277 0.0360465 0.9940723 -0.0360465 0.9940723 -0.0360465 0.0059277 0.0360465
3145000000 0.0060529 0.0372461 0.9939471 -0.0372461 0.9939471 -0.0372461 0.0060529 0.0372461
3166000000 0.0061817 0.0384432 0.9938183 -0.0384432 0.9938183 -0.0384432 0.0061817 0.0384432
3187000000 0.0063139 0.0396378 0.9936861 -0.0396378 0.9936861 -0.0396378 0.0063139 0.0396378
3208000000 0.0064497 0.0408302 0.9935503 -0.0408302 0.9935503 -0.0408302 0.0064497 0.0408302
3229000000 0.0065890 0.0420206 0.9934110 -0.0420206 0.9934110 -0.0420206 0.0065890 0.0420206
3250000000 0.0067318 0.0432090 0.9932682 -0.0432090 0.9932682 -0.0432090 0.0067318 0.0432090
3271000000 0.0068782 0.0443957 0.9931218 -0.0443957 0.9931218 -0.0443957 0.0068782 0.0443957
3292000000 0.0070283 0.0455808 0.9929717 -0.0455808 0.9929717 -0.0455808 0.0070283 0.0455808
3313000000 0.0071820 0.0467645 0.9928180 -0.0467645 0.9928180 -0.0467645 0.0071820 0.0467645
3334000000 0.0073394 0.0479470 0.9926606 -0.0479470 0.9926606 -0.0479470 0.0073394 0.0479470
3355000000 0.0075006 0.0491285 0.9924994 -0.0491285 0.9924994 -0.0491285 0.0075006 0.0491285
3376000000 0.0076655 0.0503090 0.9923345 -0.0503090 0.9923345 -0.0503090 0.0076655 0.0503090
3397000000 0.0078343 0.0514889 0.9921657 -0.0514889 0.9921657 -0.0514889 0.0078343 0.0514889
3418000000 0.0080070 0.0526682 0.9919930 -0.0526682 0.9919930 -0.0526682 0.0080070 0.0526682
3439000000 0.0081837 0.0538472 0.9918163 -0.0538472 0.9918163 -0.0538472 0.0081837 0.0538472
3460000000 0.0083643 0.0550260 0.9916357 -0.0550260 0.9916357 -0.0550260 0.0083643 0.0550260
3481000000 0.0085490 0.0562048 0.9914510 -0.0562048 0.9914510 -0.0562048 0.0085490 0.0562048
3502000000 0.0087379 0.0573838 0.9912621 -0.0573838 0.9912621 -0.0573838 0.0087379 0.0573838
3523000000 0.0089310 0.0585631 0.9910690 -0.0585631 0.9910690 -0.0585631 0.0089310 0.0585631
3544000000 0.0091284 0.0597430 0.9908716 -0.0597430 0.9908716 -0.0597430 0.0091284 0.0597430
3565000000 0.0093302 0.0609236 0.9906698 -0.0609236 0.9906698 -0.0609236 0.0093302 0.0609236
3586000000 0.0095365 0.0621052 0.9904635 -0.0621052 0.9904635 -0.0621052 0.0095365 0.0621052
3607000000 0.0097473 0.0632878 0.9902527 -0.0632878 0.9902527 -0.0632878 0.0097473 0.0632878
3628000000 0.0099628 0.0644718 0.9900372 -0.0644718 0.9900372 -0.0644718 0.0099628 0.0644718
3649000000 0.0101831 0.0656574 0.9898169 -0.0656574 0.9898169 -0.0656574 0.0101831 0.0656574
3670000000 0.0104083 0.0668446 0.9895917 -0.0668446 0.9895917 -0.0668446 0.0104083 0.0668446
3691000000 0.0106385 0.0680338 0.9893615 -0.0680338 0.9893615 -0.0680338 0.0106385 0.0680338
3712000000 0.0108739 0.0692252 0.9891261 -0.0692252 0.9891261 -0.0692252 0.0108739 0.0692252
3733000000 0.0111145 0.0704189 0.9888855 -0.0704189 0.9888855 -0.0704189 0.0111145 0.0704189
3754000000 0.0113606 0.0716153 0.9886394 -0.0716153 0.9886394 -0.0716153 0.0113606 0.0716153
3775000000 0.0116122 0.0728145 0.9883878 -0.0728145 0.9883878 -0.0728145 0.0116122 0.0728145
3796000000 0.0118697 0.0740168 0.9881303 -0.0740168 0.9881303 -0.0740168 0.0118697 0.0740168
3817000000 0.0121330 0.0752224 0.9878670 -0.0752224 0.9878670 -0.0752224 0.0121330 0.0752224
3838000000 0.0124025 0.0764317 0.9875975 -0.0764317 0.9875975 -0.0764317 0.0124025 0.0764317
3859000000 0.0126782 0.0776448 0.9873218 -0.0776448 0.9873218 -0.0776448 0.0126782 0.0776448
3880000000 0.0129605 0.0788620 0.9870395 -0.0788620 0.9870395 -0.0788620 0.0129605 0.0788620
3901000000 0.0132496 0.0800837 0.9867504 -0.0800837 0.9867504 -0.0800837 0.0132496 0.0800837
3922000000 0.0135457 0.0813101 0.9864543 -0.0813101 0.9864543 -0.0813101 0.0135457 0.0813101
3943000000 0.0138491 0.0825416 0.9861509 -0.0825416 0.9861509 -0.0825416 0.0138491 0.0825416
3964000000 0.0141600 0.0837784 0.9858400 -0.0837784 0.9858400 -0.0837784 0.0141600 0.0837784
3985000000 0.0144787 0.0850209 0.9855213 -0.0850209 0.9855213 -0.0850209 0.0144787 0.0850209
4006000000 0.0148057 0.0862694 0.9851943 -0.0862694 0.9851943 -0.0862694 0.0148057 0.0862694
4027000000 0.0151411 0.0875243 0.9848589 -0.0875243 0.9848589 -0.0875243 0.0151411 0.0875243
4048000000 0.0154855 0.0887860 0.9845145 -0.0887860 0.9845145 -0.0887860 0.0154855 0.0887860
4069000000 0.0158391 0.0900549 0.9841609 -0.0900549 0.9841609 -0.0900549 0.0158391 0.0900549
4090000000 0.0162025 0.0913314 0.9837975 -0.0913314 0.9837975 -0.0913314 0.0162025 0.0913314
4111000000 0.0165761 0.0926159 0.9834239 -0.0926159 0.9834239 -0.0926159 0.0165761 0.0926159
4132000000 0.0169604 0.0939088 0.9830396 -0.0939088 0.9830396 -0.0939088 0.0169604 0.0939088
4153000000 0.0173559 0.0952108 0.9826441 -0.0952108 0.9826441 -0.0952108 0.0173559 0.0952108
4174000000 0.0177632 0.0965222 0.9822368 -0.0965222 0.9822368 -0.0965222 0.0177632 0.0965222
4195000000 0.0181831 0.0978435 0.9818169 -0.0978435 0.9818169 -0.0978435 0.0181831 0.0978435
4216000000 0.0186161 0.0991755 0.9813839 -0.0991755 0.9813839 -0.0991755 0.0186161 0.0991755
4237000000 0.0190631 0.1005185 0.9809369 -0.1005185 0.9809369 -0.1005185 0.0190631 0.1005185
4258000000 0.0195248 0.1018733 0.9804752 -0.1018733 0.9804752 -0.1018733 0.0195248 0.1018733
4279000000 0.0200023 0.1032405 0.9799977 -0.1032405 0.9799977 -0.1032405 0.0200023 0.1032405
4300000000 0.0204963 0.1046207 0.9795037 -0.1046207 0.9795037 -0.1046207 0.0204963 0.1046207
4321000000 0.0210082 0.1060148 0.9789918 -0.1060148 0.9789918 -0.1060148 0.0210082 0.1060148
4342000000 0.0215390 0.1074234 0.9784610 -0.1074234 0.9784610 -0.1074234 0.0215390 0.1074234
4363000000 0.0220900 0.1088474 0.9779100 -0.1088474 0.9779100 -0.1088474 0.0220900 0.1088474
4384000000 0.0226628 0.1102876 0.9773372 -0.1102876 0.9773372 -0.1102876 0.0226628 0.1102876
4405000000 0.0232589 0.1117449 0.9767411 -0.1117449 0.9767411 -0.1117449 0.0232589 0.1117449
4426000000 0.0238801 0.1132202 0.9761199 -0.1132202 0.9761199 -0.1132202 0.0238801 0.1132202
4447000000 0.0245283 0.1147146 0.9754717 -0.1147146 0.9754717 -0.1147146 0.0245283 0.1147146
4468000000 0.0252057 0.1162290 0.9747943 -0.1162290 0.9747943 -0.1162290 0.0252057 0.1162290
4489000000 0.0259149 0.1177645 0.9740851 -0.1177645 0.9740851 -0.1177645 0.0259149 0.1177645
4510000000 0.0266584 0.1193223 0.9733416 -0.1193223 0.9733416 -0.1193223 0.0266584 0.1193223
