!Murata Part Number: GRM1884C2AR80WA01
!These Parameters are Measured in Series Mode Connection
!Data Generated on Mar 30, 2021
!       o--ll--o
!Port1            Port2
!       o------o
!Operation Temp=25[degC], DC Bias Voltage=0[V]
!Freq. Start=100[MHz] Stop=9[GHz] 401[Steps]
# Hz S RI R 50
!Freq.(Hz) S11(Real) S11(Imag) S21(Real) S21(Imag) S12(Real) S12(Imag) S22(Real) S22(Imag)
100000000 0.9974697 -0.0501492 0.0025303 0.0501492 0.0025303 0.0501492 0.9974697 -0.0501492
121000000 0.9962987 -0.0606154 0.0037013 0.0606154 0.0037013 0.0606154 0.9962987 -0.0606154
142000000 0.9949080 -0.0710445 0.0050920 0.0710445 0.0050920 0.0710445 0.9949080 -0.0710445
163000000 0.9932990 -0.0814303 0.0067010 0.0814303 0.0067010 0.0814303 0.9932990 -0.0814303
184000000 0.9914733 -0.0917664 0.0085267 0.0917664 0.0085267 0.0917664 0.9914733 -0.0917664
205000000 0.9894330 -0.1020468 0.0105670 0.1020468 0.0105670 0.1020468 0.9894330 -0.1020468
226000000 0.9871801 -0.1122653 0.0128199 0.1122653 0.0128199 0.1122653 0.9871801 -0.1122653
247000000 0.9847170 -0.1224158 0.0152830 0.1224158 0.0152830 0.1224158 0.9847170 -0.1224158
268000000 0.9820464 -0.1324925 0.0179536 0.1324925 0.0179536 0.1324925 0.9820464 -0.1324925
289000000 0.9791710 -0.1424896 0.0208290 0.1424896 0.0208290 0.1424896 0.9791710 -0.1424896
310000000 0.9760940 -0.1524013 0.0239060 0.1524013 0.0239060 0.1524013 0.9760940 -0.1524013
331000000 0.9728185 -0.1622222 0.0271815 0.1622222 0.0271815 0.1622222 0.9728185 -0.1622222
352000000 0.9693481 -0.1719468 0.0306519 0.1719468 0.0306519 0.1719468 0.9693481 -0.1719468
373000000 0.9656864 -0.1815701 0.0343136 0.1815701 0.0343136 0.1815701 0.9656864 -0.1815701
394000000 0.9618372 -0.1910868 0.0381628 0.1910868 0.0381628 0.1910868 0.9618372 -0.1910868
415000000 0.9578046 -0.2004921 0.0421954 0.2004921 0.0421954 0.2004921 0.9578046 -0.2004921
436000000 0.9535928 -0.2097814 0.0464072 0.2097814 0.0464072 0.2097814 0.9535928 -0.2097814
457000000 0.9492060 -0.2189501 0.0507940 0.2189501 0.0507940 0.2189501 0.9492060 -0.2189501
478000000 0.9446488 -0.2279940 0.0553512 0.2279940 0.0553512 0.2279940 0.9446488 -0.2279940
499000000 0.9399258 -0.2369091 0.0600742 0.2369091 0.0600742 0.2369091 0.9399258 -0.2369091
520000000 0.9350416 -0.2456913 0.0649584 0.2456913 0.0649584 0.2456913 0.9350416 -0.2456913
541000000 0.9300012 -0.2543371 0.0699988 0.2543371 0.0699988 0.2543371 0.9300012 -0.2543371
562000000 0.9248095 -0.2628431 0.0751905 0.2628431 0.0751905 0.2628431 0.9248095 -0.2628431
583000000 0.9194714 -0.2712060 0.0805286 0.2712060 0.0805286 0.2712060 0.9194714 -0.2712060
604000000 0.9139921 -0.2794229 0.0860079 0.2794229 0.0860079 0.2794229 0.9139921 -0.2794229
625000000 0.9083767 -0.2874909 0.0916233 0.2874909 0.0916233 0.2874909 0.9083767 -0.2874909
646000000 0.9026303 -0.2954075 0.0973697 0.2954075 0.0973697 0.2954075 0.9026303 -0.2954075
667000000 0.8967583 -0.3031705 0.1032417 0.3031705 0.1032417 0.3031705 0.8967583 -0.3031705
688000000 0.8907657 -0.3107775 0.1092343 0.3107775 0.1092343 0.3107775 0.8907657 -0.3107775
709000000 0.8846580 -0.3182269 0.1153420 0.3182269 0.1153420 0.3182269 0.8846580 -0.3182269
730000000 0.8784403 -0.3255168 0.1215597 0.3255168 0.1215597 0.3255168 0.8784403 -0.3255168
751000000 0.8721180 -0.3326458 0.1278820 0.3326458 0.1278820 0.3326458 0.8721180 -0.3326458
772000000 0.8656962 -0.3396127 0.1343038 0.3396127 0.1343038 0.3396127 0.8656962 -0.3396127
793000000 0.8591802 -0.3464163 0.1408198 0.3464163 0.1408198 0.3464163 0.8591802 -0.3464163
814000000 0.8525752 -0.3530558 0.1474248 0.3530558 0.1474248 0.3530558 0.8525752 -0.3530558
835000000 0.8458863 -0.3595305 0.1541137 0.3595305 0.1541137 0.3595305 0.8458863 -0.3595305
856000000 0.8391186 -0.3658399 0.1608814 0.3658399 0.1608814 0.3658399 0.8391186 -0.3658399
877000000 0.8322772 -0.3719836 0.1677228 0.3719836 0.1677228 0.3719836 0.8322772 -0.3719836
898000000 0.8253670 -0.3779616 0.1746330 0.3779616 0.1746330 0.3779616 0.8253670 -0.3779616
919000000 0.8183930 -0.3837739 0.1816070 0.3837739 0.1816070 0.3837739 0.8183930 -0.3837739
940000000 0.8113601 -0.3894206 0.1886399 0.3894206 0.1886399 0.3894206 0.8113601 -0.3894206
961000000 0.8042729 -0.3949022 0.1957271 0.3949022 0.1957271 0.3949022 0.8042729 -0.3949022
982000000 0.7971362 -0.4002190 0.2028638 0.4002190 0.2028638 0.4002190 0.7971362 -0.4002190
1003000000 0.7899546 -0.4053719 0.2100454 0.4053719 0.2100454 0.4053719 0.7899546 -0.4053719
1024000000 0.7827325 -0.4103614 0.2172675 0.4103614 0.2172675 0.4103614 0.7827325 -0.4103614
1045000000 0.7754744 -0.4151887 0.2245256 0.4151887 0.2245256 0.4151887 0.7754744 -0.4151887
1066000000 0.7681845 -0.4198546 0.2318155 0.4198546 0.2318155 0.4198546 0.7681845 -0.4198546
1087000000 0.7608672 -0.4243604 0.2391328 0.4243604 0.2391328 0.4243604 0.7608672 -0.4243604
1108000000 0.7535264 -0.4287073 0.2464736 0.4287073 0.2464736 0.4287073 0.7535264 -0.4287073
1129000000 0.7461662 -0.4328968 0.2538338 0.4328968 0.2538338 0.4328968 0.7461662 -0.4328968
1150000000 0.7387905 -0.4369302 0.2612095 0.4369302 0.2612095 0.4369302 0.7387905 -0.4369302
1171000000 0.7314029 -0.4408092 0.2685971 0.4408092 0.2685971 0.4408092 0.7314029 -0.4408092
1192000000 0.7240073 -0.4445354 0.2759927 0.4445354 0.2759927 0.4445354 0.7240073 -0.4445354
1213000000 0.7166071 -0.4481106 0.2833929 0.4481106 0.2833929 0.4481106 0.7166071 -0.4481106
1234000000 0.7092058 -0.4515366 0.2907942 0.4515366 0.2907942 0.4515366 0.7092058 -0.4515366
1255000000 0.7018067 -0.4548152 0.2981933 0.4548152 0.2981933 0.4548152 0.7018067 -0.4548152
1276000000 0.6944130 -0.4579485 0.3055870 0.4579485 0.3055870 0.4579485 0.6944130 -0.4579485
1297000000 0.6870278 -0.4609383 0.3129722 0.4609383 0.3129722 0.4609383 0.6870278 -0.4609383
1318000000 0.6796542 -0.4637869 0.3203458 0.4637869 0.3203458 0.4637869 0.6796542 -0.4637869
1339000000 0.6722949 -0.4664962 0.3277051 0.4664962 0.3277051 0.4664962 0.6722949 -0.4664962
1360000000 0.6649527 -0.4690685 0.3350473 0.4690685 0.3350473 0.4690685 0.6649527 -0.4690685
1381000000 0.6576304 -0.4715059 0.3423696 0.4715059 0.3423696 0.4715059 0.6576304 -0.4715059
1402000000 0.6503304 -0.4738106 0.3496696 0.4738106 0.3496696 0.4738106 0.6503304 -0.4738106
1423000000 0.6430551 -0.4759850 0.3569449 0.4759850 0.3569449 0.4759850 0.6430551 -0.4759850
1444000000 0.6358070 -0.4780313 0.3641930 0.4780313 0.3641930 0.4780313 0.6358070 -0.4780313
1465000000 0.6285882 -0.4799517 0.3714118 0.4799517 0.3714118 0.4799517 0.6285882 -0.4799517
1486000000 0.6214008 -0.4817486 0.3785992 0.4817486 0.3785992 0.4817486 0.6214008 -0.4817486
1507000000 0.6142470 -0.4834243 0.3857530 0.4834243 0.3857530 0.4834243 0.6142470 -0.4834243
1528000000 0.6071285 -0.4849812 0.3928715 0.4849812 0.3928715 0.4849812 0.6071285 -0.4849812
1549000000 0.6000473 -0.4864216 0.3999527 0.4864216 0.3999527 0.4864216 0.6000473 -0.4864216
1570000000 0.5930051 -0.4877479 0.4069949 0.4877479 0.4069949 0.4877479 0.5930051 -0.4877479
1591000000 0.5860035 -0.4889623 0.4139965 0.4889623 0.4139965 0.4889623 0.5860035 -0.4889623
1612000000 0.5790441 -0.4900672 0.4209559 0.4900672 0.4209559 0.4900672 0.5790441 -0.4900672
1633000000 0.5721283 -0.4910650 0.4278717 0.4910650 0.4278717 0.4910650 0.5721283 -0.4910650
1654000000 0.5652575 -0.4919580 0.4347425 0.4919580 0.4347425 0.4919580 0.5652575 -0.4919580
1675000000 0.5584330 -0.4927485 0.4415670 0.4927485 0.4415670 0.4927485 0.5584330 -0.4927485
1696000000 0.5516561 -0.4934388 0.4483439 0.4934388 0.4483439 0.4934388 0.5516561 -0.4934388
1717000000 0.5449278 -0.4940312 0.4550722 0.4940312 0.4550722 0.4940312 0.5449278 -0.4940312
1738000000 0.5382492 -0.4945279 0.4617508 0.4945279 0.4617508 0.4945279 0.5382492 -0.4945279
1759000000 0.5316214 -0.4949312 0.4683786 0.4949312 0.4683786 0.4949312 0.5316214 -0.4949312
1780000000 0.5250451 -0.4952434 0.4749549 0.4952434 0.4749549 0.4952434 0.5250451 -0.4952434
1801000000 0.5185214 -0.4954666 0.4814786 0.4954666 0.4814786 0.4954666 0.5185214 -0.4954666
1822000000 0.5120509 -0.4956031 0.4879491 0.4956031 0.4879491 0.4956031 0.5120509 -0.4956031
1843000000 0.5056343 -0.4956549 0.4943657 0.4956549 0.4943657 0.4956549 0.5056343 -0.4956549
1864000000 0.4992724 -0.4956242 0.5007276 0.4956242 0.5007276 0.4956242 0.4992724 -0.4956242
1885000000 0.4929656 -0.4955132 0.5070344 0.4955132 0.5070344 0.4955132 0.4929656 -0.4955132
1906000000 0.4867146 -0.4953239 0.5132854 0.4953239 0.5132854 0.4953239 0.4867146 -0.4953239
1927000000 0.4805199 -0.4950583 0.5194801 0.4950583 0.5194801 0.4950583 0.4805199 -0.4950583
1948000000 0.4743817 -0.4947184 0.5256183 0.4947184 0.5256183 0.4947184 0.4743817 -0.4947184
1969000000 0.4683006 -0.4943063 0.5316994 0.4943063 0.5316994 0.4943063 0.4683006 -0.4943063
1990000000 0.4622769 -0.4938239 0.5377231 0.4938239 0.5377231 0.4938239 0.4622769 -0.4938239
2011000000 0.4563107 -0.4932731 0.5436893 0.4932731 0.5436893 0.4932731 0.4563107 -0.4932731
2032000000 0.4504024 -0.4926558 0.5495976 0.4926558 0.5495976 0.4926558 0.4504024 -0.4926558
2053000000 0.4445522 -0.4919739 0.5554478 0.4919739 0.5554478 0.4919739 0.4445522 -0.4919739
2074000000 0.4387602 -0.4912292 0.5612398 0.4912292 0.5612398 0.4912292 0.4387602 -0.4912292
2095000000 0.4330264 -0.4904235 0.5669736 0.4904235 0.5669736 0.4904235 0.4330264 -0.4904235
2116000000 0.4273510 -0.4895586 0.5726490 0.4895586 0.5726490 0.4895586 0.4273510 -0.4895586
2137000000 0.4217341 -0.4886361 0.5782659 0.4886361 0.5782659 0.4886361 0.4217341 -0.4886361
2158000000 0.4161755 -0.4876578 0.5838245 0.4876578 0.5838245 0.4876578 0.4161755 -0.4876578
2179000000 0.4106753 -0.4866253 0.5893247 0.4866253 0.5893247 0.4866253 0.4106753 -0.4866253
2200000000 0.4052335 -0.4855403 0.5947665 0.4855403 0.5947665 0.4855403 0.4052335 -0.4855403
2221000000 0.3998498 -0.4844043 0.6001502 0.4844043 0.6001502 0.4844043 0.3998498 -0.4844043
2242000000 0.3945243 -0.4832189 0.6054757 0.4832189 0.6054757 0.4832189 0.3945243 -0.4832189
2263000000 0.3892567 -0.4819857 0.6107433 0.4819857 0.6107433 0.4819857 0.3892567 -0.4819857
2284000000 0.3840469 -0.4807060 0.6159531 0.4807060 0.6159531 0.4807060 0.3840469 -0.4807060
2305000000 0.3788947 -0.4793815 0.6211053 0.4793815 0.6211053 0.4793815 0.3788947 -0.4793815
2326000000 0.3737998 -0.4780135 0.6262002 0.4780135 0.6262002 0.4780135 0.3737998 -0.4780135
2347000000 0.3687621 -0.4766034 0.6312379 0.4766034 0.6312379 0.4766034 0.3687621 -0.4766034
2368000000 0.3637813 -0.4751526 0.6362187 0.4751526 0.6362187 0.4751526 0.3637813 -0.4751526
2389000000 0.3588570 -0.4736625 0.6411430 0.4736625 0.6411430 0.4736625 0.3588570 -0.4736625
2410000000 0.3539890 -0.4721342 0.6460110 0.4721342 0.6460110 0.4721342 0.3539890 -0.4721342
2431000000 0.3491770 -0.4705691 0.6508230 0.4705691 0.6508230 0.4705691 0.3491770 -0.4705691
2452000000 0.3444207 -0.4689685 0.6555793 0.4689685 0.6555793 0.4689685 0.3444207 -0.4689685
2473000000 0.3397197 -0.4673335 0.6602803 0.4673335 0.6602803 0.4673335 0.3397197 -0.4673335
2494000000 0.3350737 -0.4656654 0.6649263 0.4656654 0.6649263 0.4656654 0.3350737 -0.4656654
2515000000 0.3304822 -0.4639653 0.6695178 0.4639653 0.6695178 0.4639653 0.3304822 -0.4639653
2536000000 0.3259449 -0.4622343 0.6740551 0.4622343 0.6740551 0.4622343 0.3259449 -0.4622343
2557000000 0.3214615 -0.4604735 0.6785385 0.4604735 0.6785385 0.4604735 0.3214615 -0.4604735
2578000000 0.3170315 -0.4586839 0.6829685 0.4586839 0.6829685 0.4586839 0.3170315 -0.4586839
2599000000 0.3126545 -0.4568668 0.6873455 0.4568668 0.6873455 0.4568668 0.3126545 -0.4568668
2620000000 0.3083300 -0.4550229 0.6916700 0.4550229 0.6916700 0.4550229 0.3083300 -0.4550229
2641000000 0.3040578 -0.4531535 0.6959422 0.4531535 0.6959422 0.4531535 0.3040578 -0.4531535
2662000000 0.2998373 -0.4512593 0.7001627 0.4512593 0.7001627 0.4512593 0.2998373 -0.4512593
2683000000 0.2956680 -0.4493414 0.7043320 0.4493414 0.7043320 0.4493414 0.2956680 -0.4493414
2704000000 0.2915497 -0.4474006 0.7084503 0.4474006 0.7084503 0.4474006 0.2915497 -0.4474006
2725000000 0.2874817 -0.4454379 0.7125183 0.4454379 0.7125183 0.4454379 0.2874817 -0.4454379
2746000000 0.2834636 -0.4434542 0.7165364 0.4434542 0.7165364 0.4434542 0.2834636 -0.4434542
2767000000 0.2794951 -0.4414502 0.7205049 0.4414502 0.7205049 0.4414502 0.2794951 -0.4414502
2788000000 0.2755755 -0.4394268 0.7244245 0.4394268 0.7244245 0.4394268 0.2755755 -0.4394268
2809000000 0.2717045 -0.4373848 0.7282955 0.4373848 0.7282955 0.4373848 0.2717045 -0.4373848
2830000000 0.2678816 -0.4353250 0.7321184 0.4353250 0.7321184 0.4353250 0.2678816 -0.4353250
2851000000 0.2641063 -0.4332481 0.7358937 0.4332481 0.7358937 0.4332481 0.2641063 -0.4332481
2872000000 0.2603782 -0.4311549 0.7396218 0.4311549 0.7396218 0.4311549 0.2603782 -0.4311549
2893000000 0.2566967 -0.4290461 0.7433033 0.4290461 0.7433033 0.4290461 0.2566967 -0.4290461
2914000000 0.2530614 -0.4269224 0.7469386 0.4269224 0.7469386 0.4269224 0.2530614 -0.4269224
2935000000 0.2494719 -0.4247844 0.7505281 0.4247844 0.7505281 0.4247844 0.2494719 -0.4247844
2956000000 0.2459276 -0.4226329 0.7540724 0.4226329 0.7540724 0.4226329 0.2459276 -0.4226329
2977000000 0.2424280 -0.4204684 0.7575720 0.4204684 0.7575720 0.4204684 0.2424280 -0.4204684
2998000000 0.2389728 -0.4182916 0.7610272 0.4182916 0.7610272 0.4182916 0.2389728 -0.4182916
3019000000 0.2355614 -0.4161031 0.7644386 0.4161031 0.7644386 0.4161031 0.2355614 -0.4161031
3040000000 0.2321933 -0.4139034 0.7678067 0.4139034 0.7678067 0.4139034 0.2321933 -0.4139034
3061000000 0.2288681 -0.4116932 0.7711319 0.4116932 0.7711319 0.4116932 0.2288681 -0.4116932
3082000000 0.2255853 -0.4094730 0.7744147 0.4094730 0.7744147 0.4094730 0.2255853 -0.4094730
3103000000 0.2223445 -0.4072433 0.7776555 0.4072433 0.7776555 0.4072433 0.2223445 -0.4072433
3124000000 0.2191451 -0.4050046 0.7808549 0.4050046 0.7808549 0.4050046 0.2191451 -0.4050046
3145000000 0.2159868 -0.4027575 0.7840132 0.4027575 0.7840132 0.4027575 0.2159868 -0.4027575
3166000000 0.2128690 -0.4005025 0.7871310 0.4005025 0.7871310 0.4005025 0.2128690 -0.4005025
3187000000 0.2097912 -0.3982400 0.7902088 0.3982400 0.7902088 0.3982400 0.2097912 -0.3982400
3208000000 0.2067531 -0.3959705 0.7932469 0.3959705 0.7932469 0.3959705 0.2067531 -0.3959705
3229000000 0.2037542 -0.3936944 0.7962458 0.3936944 0.7962458 0.3936944 0.2037542 -0.3936944
3250000000 0.2007940 -0.3914122 0.7992060 0.3914122 0.7992060 0.3914122 0.2007940 -0.3914122
3271000000 0.1978721 -0.3891243 0.8021279 0.3891243 0.8021279 0.3891243 0.1978721 -0.3891243
3292000000 0.1949880 -0.3868310 0.8050120 0.3868310 0.8050120 0.3868310 0.1949880 -0.3868310
3313000000 0.1921413 -0.3845329 0.8078587 0.3845329 0.8078587 0.3845329 0.1921413 -0.3845329
3334000000 0.1893315 -0.3822303 0.8106685 0.3822303 0.8106685 0.3822303 0.1893315 -0.3822303
3355000000 0.1865583 -0.3799235 0.8134417 0.3799235 0.8134417 0.3799235 0.1865583 -0.3799235
3376000000 0.1838211 -0.3776130 0.8161789 0.3776130 0.8161789 0.3776130 0.1838211 -0.3776130
3397000000 0.1811196 -0.3752990 0.8188804 0.3752990 0.8188804 0.3752990 0.1811196 -0.3752990
3418000000 0.1784533 -0.3729819 0.8215467 0.3729819 0.8215467 0.3729819 0.1784533 -0.3729819
3439000000 0.1758218 -0.3706621 0.8241782 0.3706621 0.8241782 0.3706621 0.1758218 -0.3706621
3460000000 0.1732248 -0.3683398 0.8267752 0.3683398 0.8267752 0.3683398 0.1732248 -0.3683398
3481000000 0.1706617 -0.3660154 0.8293383 0.3660154 0.8293383 0.3660154 0.1706617 -0.3660154
3502000000 0.1681321 -0.3636891 0.8318679 0.3636891 0.8318679 0.3636891 0.1681321 -0.3636891
3523000000 0.1656358 -0.3613613 0.8343642 0.3613613 0.8343642 0.3613613 0.1656358 -0.3613613
3544000000 0.1631722 -0.3590323 0.8368278 0.3590323 0.8368278 0.3590323 0.1631722 -0.3590323
3565000000 0.1607410 -0.3567022 0.8392590 0.3567022 0.8392590 0.3567022 0.1607410 -0.3567022
3586000000 0.1583417 -0.3543715 0.8416583 0.3543715 0.8416583 0.3543715 0.1583417 -0.3543715
3607000000 0.1559740 -0.3520402 0.8440260 0.3520402 0.8440260 0.3520402 0.1559740 -0.3520402
3628000000 0.1536376 -0.3497087 0.8463624 0.3497087 0.8463624 0.3497087 0.1536376 -0.3497087
3649000000 0.1513319 -0.3473773 0.8486681 0.3473773 0.8486681 0.3473773 0.1513319 -0.3473773
3670000000 0.1490567 -0.3450460 0.8509433 0.3450460 0.8509433 0.3450460 0.1490567 -0.3450460
3691000000 0.1468116 -0.3427152 0.8531884 0.3427152 0.8531884 0.3427152 0.1468116 -0.3427152
3712000000 0.1445962 -0.3403851 0.8554038 0.3403851 0.8554038 0.3403851 0.1445962 -0.3403851
3733000000 0.1424101 -0.3380559 0.8575899 0.3380559 0.8575899 0.3380559 0.1424101 -0.3380559
3754000000 0.1402530 -0.3357278 0.8597470 0.3357278 0.8597470 0.3357278 0.1402530 -0.3357278
3775000000 0.1381246 -0.3334009 0.8618754 0.3334009 0.8618754 0.3334009 0.1381246 -0.3334009
3796000000 0.1360244 -0.3310755 0.8639756 0.3310755 0.8639756 0.3310755 0.1360244 -0.3310755
3817000000 0.1339521 -0.3287518 0.8660479 0.3287518 0.8660479 0.3287518 0.1339521 -0.3287518
3838000000 0.1319075 -0.3264299 0.8680925 0.3264299 0.8680925 0.3264299 0.1319075 -0.3264299
3859000000 0.1298901 -0.3241100 0.8701099 0.3241100 0.8701099 0.3241100 0.1298901 -0.3241100
3880000000 0.1278995 -0.3217922 0.8721005 0.3217922 0.8721005 0.3217922 0.1278995 -0.3217922
3901000000 0.1259356 -0.3194767 0.8740644 0.3194767 0.8740644 0.3194767 0.1259356 -0.3194767
3922000000 0.1239979 -0.3171637 0.8760021 0.3171637 0.8760021 0.3171637 0.1239979 -0.3171637
3943000000 0.1220862 -0.3148534 0.8779138 0.3148534 0.8779138 0.3148534 0.1220862 -0.3148534
3964000000 0.1202001 -0.3125457 0.8797999 0.3125457 0.8797999 0.3125457 0.1202001 -0.3125457
3985000000 0.1183392 -0.3102410 0.8816608 0.3102410 0.8816608 0.3102410 0.1183392 -0.3102410
4006000000 0.1165034 -0.3079393 0.8834966 0.3079393 0.8834966 0.3079393 0.1165034 -0.3079393
4027000000 0.1146922 -0.3056407 0.8853078 0.3056407 0.8853078 0.3056407 0.1146922 -0.3056407
4048000000 0.1129055 -0.3033454 0.8870945 0.3033454 0.8870945 0.3033454 0.1129055 -0.3033454
4069000000 0.1111427 -0.3010535 0.8888573 0.3010535 0.8888573 0.3010535 0.1111427 -0.3010535
4090000000 0.1094038 -0.2987651 0.8905962 0.2987651 0.8905962 0.2987651 0.1094038 -0.2987651
4111000000 0.1076884 -0.2964803 0.8923116 0.2964803 0.8923116 0.2964803 0.1076884 -0.2964803
4132000000 0.1059962 -0.2941993 0.8940038 0.2941993 0.8940038 0.2941993 0.1059962 -0.2941993
4153000000 0.1043269 -0.2919220 0.8956731 0.2919220 0.8956731 0.2919220 0.1043269 -0.2919220
4174000000 0.1026802 -0.2896487 0.8973198 0.2896487 0.8973198 0.2896487 0.1026802 -0.2896487
4195000000 0.1010559 -0.2873793 0.8989441 0.2873793 0.8989441 0.2873793 0.1010559 -0.2873793
4216000000 0.0994537 -0.2851141 0.9005463 0.2851141 0.9005463 0.2851141 0.0994537 -0.2851141
4237000000 0.0978733 -0.2828530 0.9021267 0.2828530 0.9021267 0.2828530 0.0978733 -0.2828530
4258000000 0.0963145 -0.2805962 0.9036855 0.2805962 0.9036855 0.2805962 0.0963145 -0.2805962
4279000000 0.0947769 -0.2783438 0.9052231 0.2783438 0.9052231 0.2783438 0.0947769 -0.2783438
4300000000 0.0932604 -0.2760958 0.9067396 0.2760958 0.9067396 0.2760958 0.0932604 -0.2760958
4321000000 0.0917647 -0.2738522 0.9082353 0.2738522 0.9082353 0.2738522 0.0917647 -0.2738522
4342000000 0.0902895 -0.2716133 0.9097105 0.2716133 0.9097105 0.2716133 0.0902895 -0.2716133
4363000000 0.0888346 -0.2693789 0.9111654 0.2693789 0.9111654 0.2693789 0.0888346 -0.2693789
4384000000 0.0873997 -0.2671493 0.9126003 0.2671493 0.9126003 0.2671493 0.0873997 -0.2671493
4405000000 0.0859846 -0.2649244 0.9140154 0.2649244 0.9140154 0.2649244 0.0859846 -0.2649244
4426000000 0.0845890 -0.2627044 0.9154110 0.2627044 0.9154110 0.2627044 0.0845890 -0.2627044
4447000000 0.0832128 -0.2604892 0.9167872 0.2604892 0.9167872 0.2604892 0.0832128 -0.2604892
4468000000 0.0818556 -0.2582789 0.9181444 0.2582789 0.9181444 0.2582789 0.0818556 -0.2582789
4489000000 0.0805173 -0.2560736 0.9194827 0.2560736 0.9194827 0.2560736 0.0805173 -0.2560736
4510000000 0.0791977 -0.2538733 0.9208023 0.2538733 0.9208023 0.2538733 0.0791977 -0.2538733
