!Murata Part Number: GRM1882C1H180JA01
!These Parameters are Measured in Series Mode Connection
!Data Generated on Mar 30, 2021
!       o--ll--o
!Port1            Port2
!       o------o
!Operation Temp=25[degC], DC Bias Voltage=0[V]
!Freq. Start=100[MHz] Stop=9[GHz] 401[Steps]
# Hz S RI R 50
!Freq.(Hz) S11(Real) S11(Imag) S21(Real) S21(Imag) S12(Real) S12(Imag) S22(Real) S22(Imag)
100000000 0.4370387 -0.4945878 0.5629613 0.4945878 0.5629613 0.4945878 0.4370387 -0.4945878
121000000 0.3460372 -0.4739615 0.6539628 0.4739615 0.6539628 0.4739615 0.3460372 -0.4739615
142000000 0.2770742 -0.4454922 0.7229258 0.4454922 0.7229258 0.4454922 0.2770742 -0.4454922
163000000 0.2248422 -0.4150927 0.7751578 0.4150927 0.7751578 0.4150927 0.2248422 -0.4150927
184000000 0.1849471 -0.3855369 0.8150529 0.3855369 0.8150529 0.3855369 0.1849471 -0.3855369
205000000 0.1540996 -0.3579857 0.8459004 0.3579857 0.8459004 0.3579857 0.1540996 -0.3579857
226000000 0.1299235 -0.3328108 0.8700765 0.3328108 0.8700765 0.3328108 0.1299235 -0.3328108
247000000 0.1107190 -0.3100155 0.8892810 0.3100155 0.8892810 0.3100155 0.1107190 -0.3100155
268000000 0.0952663 -0.2894433 0.9047337 0.2894433 0.9047337 0.2894433 0.0952663 -0.2894433
289000000 0.0826822 -0.2708804 0.9173178 0.2708804 0.9173178 0.2708804 0.0826822 -0.2708804
310000000 0.0723205 -0.2541033 0.9276795 0.2541033 0.9276795 0.2541033 0.0723205 -0.2541033
331000000 0.0637017 -0.2389003 0.9362983 0.2389003 0.9362983 0.2389003 0.0637017 -0.2389003
352000000 0.0564661 -0.2250806 0.9435339 0.2250806 0.9435339 0.2250806 0.0564661 -0.2250806
373000000 0.0503403 -0.2124755 0.9496597 0.2124755 0.9496597 0.2124755 0.0503403 -0.2124755
394000000 0.0451140 -0.2009382 0.9548860 0.2009382 0.9548860 0.2009382 0.0451140 -0.2009382
415000000 0.0406237 -0.1903416 0.9593763 0.1903416 0.9593763 0.1903416 0.0406237 -0.1903416
436000000 0.0367407 -0.1805761 0.9632593 0.1805761 0.9632593 0.1805761 0.0367407 -0.1805761
457000000 0.0333632 -0.1715469 0.9666368 0.1715469 0.9666368 0.1715469 0.0333632 -0.1715469
478000000 0.0304095 -0.1631721 0.9695905 0.1631721 0.9695905 0.1631721 0.0304095 -0.1631721
499000000 0.0278134 -0.1553809 0.9721866 0.1553809 0.9721866 0.1553809 0.0278134 -0.1553809
520000000 0.0255213 -0.1481118 0.9744787 0.1481118 0.9744787 0.1481118 0.0255213 -0.1481118
541000000 0.0234891 -0.1413112 0.9765109 0.1413112 0.9765109 0.1413112 0.0234891 -0.1413112
562000000 0.0216802 -0.1349324 0.9783198 0.1349324 0.9783198 0.1349324 0.0216802 -0.1349324
583000000 0.0200644 -0.1289343 0.9799356 0.1289343 0.9799356 0.1289343 0.0200644 -0.1289343
604000000 0.0186163 -0.1232810 0.9813837 0.1232810 0.9813837 0.1232810 0.0186163 -0.1232810
625000000 0.0173146 -0.1179406 0.9826854 0.1179406 0.9826854 0.1179406 0.0173146 -0.1179406
646000000 0.0161412 -0.1128852 0.9838588 0.1128852 0.9838588 0.1128852 0.0161412 -0.1128852
667000000 0.0150806 -0.1080897 0.9849194 0.1080897 0.9849194 0.1080897 0.0150806 -0.1080897
688000000 0.0141198 -0.1035320 0.9858802 0.1035320 0.9858802 0.1035320 0.0141198 -0.1035320
709000000 0.0132474 -0.0991923 0.9867526 0.0991923 0.9867526 0.0991923 0.0132474 -0.0991923
730000000 0.0124538 -0.0950530 0.9875462 0.0950530 0.9875462 0.0950530 0.0124538 -0.0950530
751000000 0.0117306 -0.0910980 0.9882694 0.0910980 0.9882694 0.0910980 0.0117306 -0.0910980
772000000 0.0110703 -0.0873132 0.9889297 0.0873132 0.9889297 0.0873132 0.0110703 -0.0873132
793000000 0.0104667 -0.0836857 0.9895333 0.0836857 0.9895333 0.0836857 0.0104667 -0.0836857
814000000 0.0099141 -0.0802038 0.9900859 0.0802038 0.9900859 0.0802038 0.0099141 -0.0802038
835000000 0.0094076 -0.0768569 0.9905924 0.0768569 0.9905924 0.0768569 0.0094076 -0.0768569
856000000 0.0089429 -0.0736355 0.9910571 0.0736355 0.9910571 0.0736355 0.0089429 -0.0736355
877000000 0.0085163 -0.0705309 0.9914837 0.0705309 0.9914837 0.0705309 0.0085163 -0.0705309
898000000 0.0081243 -0.0675351 0.9918757 0.0675351 0.9918757 0.0675351 0.0081243 -0.0675351
919000000 0.0077639 -0.0646409 0.9922361 0.0646409 0.9922361 0.0646409 0.0077639 -0.0646409
940000000 0.0074324 -0.0618415 0.9925676 0.0618415 0.9925676 0.0618415 0.0074324 -0.0618415
961000000 0.0071275 -0.0591310 0.9928725 0.0591310 0.9928725 0.0591310 0.0071275 -0.0591310
982000000 0.0068471 -0.0565037 0.9931529 0.0565037 0.9931529 0.0565037 0.0068471 -0.0565037
1003000000 0.0065892 -0.0539544 0.9934108 0.0539544 0.9934108 0.0539544 0.0065892 -0.0539544
1024000000 0.0063521 -0.0514785 0.9936479 0.0514785 0.9936479 0.0514785 0.0063521 -0.0514785
1045000000 0.0061343 -0.0490716 0.9938657 0.0490716 0.9938657 0.0490716 0.0061343 -0.0490716
1066000000 0.0059344 -0.0467295 0.9940656 0.0467295 0.9940656 0.0467295 0.0059344 -0.0467295
1087000000 0.0057511 -0.0444485 0.9942489 0.0444485 0.9942489 0.0444485 0.0057511 -0.0444485
1108000000 0.0055832 -0.0422252 0.9944168 0.0422252 0.9944168 0.0422252 0.0055832 -0.0422252
1129000000 0.0054298 -0.0400563 0.9945702 0.0400563 0.9945702 0.0400563 0.0054298 -0.0400563
1150000000 0.0052900 -0.0379389 0.9947100 0.0379389 0.9947100 0.0379389 0.0052900 -0.0379389
1171000000 0.0051627 -0.0358701 0.9948373 0.0358701 0.9948373 0.0358701 0.0051627 -0.0358701
1192000000 0.0050474 -0.0338473 0.9949526 0.0338473 0.9949526 0.0338473 0.0050474 -0.0338473
1213000000 0.0049432 -0.0318681 0.9950568 0.0318681 0.9950568 0.0318681 0.0049432 -0.0318681
1234000000 0.0048496 -0.0299302 0.9951504 0.0299302 0.9951504 0.0299302 0.0048496 -0.0299302
1255000000 0.0047659 -0.0280315 0.9952341 0.0280315 0.9952341 0.0280315 0.0047659 -0.0280315
1276000000 0.0046917 -0.0261700 0.9953083 0.0261700 0.9953083 0.0261700 0.0046917 -0.0261700
1297000000 0.0046263 -0.0243438 0.9953737 0.0243438 0.9953737 0.0243438 0.0046263 -0.0243438
1318000000 0.0045694 -0.0225512 0.9954306 0.0225512 0.9954306 0.0225512 0.0045694 -0.0225512
1339000000 0.0045205 -0.0207906 0.9954795 0.0207906 0.9954795 0.0207906 0.0045205 -0.0207906
1360000000 0.0044794 -0.0190603 0.9955206 0.0190603 0.9955206 0.0190603 0.0044794 -0.0190603
1381000000 0.0044455 -0.0173589 0.9955545 0.0173589 0.9955545 0.0173589 0.0044455 -0.0173589
1402000000 0.0044186 -0.0156851 0.9955814 0.0156851 0.9955814 0.0156851 0.0044186 -0.0156851
1423000000 0.0043984 -0.0140375 0.9956016 0.0140375 0.9956016 0.0140375 0.0043984 -0.0140375
1444000000 0.0043847 -0.0124150 0.9956153 0.0124150 0.9956153 0.0124150 0.0043847 -0.0124150
1465000000 0.0043771 -0.0108163 0.9956229 0.0108163 0.9956229 0.0108163 0.0043771 -0.0108163
1486000000 0.0043755 -0.0092404 0.9956245 0.0092404 0.9956245 0.0092404 0.0043755 -0.0092404
1507000000 0.0043797 -0.0076862 0.9956203 0.0076862 0.9956203 0.0076862 0.0043797 -0.0076862
1528000000 0.0043894 -0.0061528 0.9956106 0.0061528 0.9956106 0.0061528 0.0043894 -0.0061528
1549000000 0.0044044 -0.0046392 0.9955956 0.0046392 0.9955956 0.0046392 0.0044044 -0.0046392
1570000000 0.0044247 -0.0031445 0.9955753 0.0031445 0.9955753 0.0031445 0.0044247 -0.0031445
1591000000 0.0044501 -0.0016679 0.9955499 0.0016679 0.9955499 0.0016679 0.0044501 -0.0016679
1612000000 0.0044804 -0.0002086 0.9955196 0.0002086 0.9955196 0.0002086 0.0044804 -0.0002086
1633000000 0.0045154 0.0012341 0.9954846 -0.0012341 0.9954846 -0.0012341 0.0045154 0.0012341
1654000000 0.0045552 0.0026611 0.9954448 -0.0026611 0.9954448 -0.0026611 0.0045552 0.0026611
1675000000 0.0045996 0.0040729 0.9954004 -0.0040729 0.9954004 -0.0040729 0.0045996 0.0040729
1696000000 0.0046485 0.0054703 0.9953515 -0.0054703 0.9953515 -0.0054703 0.0046485 0.0054703
1717000000 0.0047018 0.0068538 0.9952982 -0.0068538 0.9952982 -0.0068538 0.0047018 0.0068538
1738000000 0.0047594 0.0082241 0.9952406 -0.0082241 0.9952406 -0.0082241 0.0047594 0.0082241
1759000000 0.0048213 0.0095818 0.9951787 -0.0095818 0.9951787 -0.0095818 0.0048213 0.0095818
1780000000 0.0048874 0.0109273 0.9951126 -0.0109273 0.9951126 -0.0109273 0.0048874 0.0109273
1801000000 0.0049577 0.0122613 0.9950423 -0.0122613 0.9950423 -0.0122613 0.0049577 0.0122613
1822000000 0.0050321 0.0135842 0.9949679 -0.0135842 0.9949679 -0.0135842 0.0050321 0.0135842
1843000000 0.0051106 0.0148965 0.9948894 -0.0148965 0.9948894 -0.0148965 0.0051106 0.0148965
1864000000 0.0051931 0.0161987 0.9948069 -0.0161987 0.9948069 -0.0161987 0.0051931 0.0161987
1885000000 0.0052797 0.0174912 0.9947203 -0.0174912 0.9947203 -0.0174912 0.0052797 0.0174912
1906000000 0.0053703 0.0187744 0.9946297 -0.0187744 0.9946297 -0.0187744 0.0053703 0.0187744
1927000000 0.0054649 0.0200488 0.9945351 -0.0200488 0.9945351 -0.0200488 0.0054649 0.0200488
1948000000 0.0055634 0.0213148 0.9944366 -0.0213148 0.9944366 -0.0213148 0.0055634 0.0213148
1969000000 0.0056660 0.0225727 0.9943340 -0.0225727 0.9943340 -0.0225727 0.0056660 0.0225727
1990000000 0.0057726 0.0238229 0.9942274 -0.0238229 0.9942274 -0.0238229 0.0057726 0.0238229
2011000000 0.0058832 0.0250657 0.9941168 -0.0250657 0.9941168 -0.0250657 0.0058832 0.0250657
2032000000 0.0059978 0.0263016 0.9940022 -0.0263016 0.9940022 -0.0263016 0.0059978 0.0263016
2053000000 0.0061164 0.0275307 0.9938836 -0.0275307 0.9938836 -0.0275307 0.0061164 0.0275307
2074000000 0.0062392 0.0287535 0.9937608 -0.0287535 0.9937608 -0.0287535 0.0062392 0.0287535
2095000000 0.0063660 0.0299703 0.9936340 -0.0299703 0.9936340 -0.0299703 0.0063660 0.0299703
2116000000 0.0064970 0.0311813 0.9935030 -0.0311813 0.9935030 -0.0311813 0.0064970 0.0311813
2137000000 0.0066322 0.0323868 0.9933678 -0.0323868 0.9933678 -0.0323868 0.0066322 0.0323868
2158000000 0.0067716 0.0335871 0.9932284 -0.0335871 0.9932284 -0.0335871 0.0067716 0.0335871
2179000000 0.0069154 0.0347826 0.9930846 -0.0347826 0.9930846 -0.0347826 0.0069154 0.0347826
2200000000 0.0070635 0.0359733 0.9929365 -0.0359733 0.9929365 -0.0359733 0.0070635 0.0359733
2221000000 0.0072160 0.0371596 0.9927840 -0.0371596 0.9927840 -0.0371596 0.0072160 0.0371596
2242000000 0.0073730 0.0383418 0.9926270 -0.0383418 0.9926270 -0.0383418 0.0073730 0.0383418
2263000000 0.0075346 0.0395200 0.9924654 -0.0395200 0.9924654 -0.0395200 0.0075346 0.0395200
2284000000 0.0077009 0.0406946 0.9922991 -0.0406946 0.9922991 -0.0406946 0.0077009 0.0406946
2305000000 0.0078720 0.0418656 0.9921280 -0.0418656 0.9921280 -0.0418656 0.0078720 0.0418656
2326000000 0.0080479 0.0430333 0.9919521 -0.0430333 0.9919521 -0.0430333 0.0080479 0.0430333
2347000000 0.0082288 0.0441980 0.9917712 -0.0441980 0.9917712 -0.0441980 0.0082288 0.0441980
2368000000 0.0084149 0.0453598 0.9915851 -0.0453598 0.9915851 -0.0453598 0.0084149 0.0453598
2389000000 0.0086061 0.0465189 0.9913939 -0.0465189 0.9913939 -0.0465189 0.0086061 0.0465189
2410000000 0.0088027 0.0476756 0.9911973 -0.0476756 0.9911973 -0.0476756 0.0088027 0.0476756
2431000000 0.0090048 0.0488298 0.9909952 -0.0488298 0.9909952 -0.0488298 0.0090048 0.0488298
2452000000 0.0092126 0.0499820 0.9907874 -0.0499820 0.9907874 -0.0499820 0.0092126 0.0499820
2473000000 0.0094262 0.0511321 0.9905738 -0.0511321 0.9905738 -0.0511321 0.0094262 0.0511321
2494000000 0.0096458 0.0522804 0.9903542 -0.0522804 0.9903542 -0.0522804 0.0096458 0.0522804
2515000000 0.0098716 0.0534270 0.9901284 -0.0534270 0.9901284 -0.0534270 0.0098716 0.0534270
2536000000 0.0101038 0.0545720 0.9898962 -0.0545720 0.9898962 -0.0545720 0.0101038 0.0545720
2557000000 0.0103426 0.0557156 0.9896574 -0.0557156 0.9896574 -0.0557156 0.0103426 0.0557156
2578000000 0.0105882 0.0568578 0.9894118 -0.0568578 0.9894118 -0.0568578 0.0105882 0.0568578
2599000000 0.0108408 0.0579988 0.9891592 -0.0579988 0.9891592 -0.0579988 0.0108408 0.0579988
2620000000 0.0111008 0.0591387 0.9888992 -0.0591387 0.9888992 -0.0591387 0.0111008 0.0591387
2641000000 0.0113684 0.0602775 0.9886316 -0.0602775 0.9886316 -0.0602775 0.0113684 0.0602775
2662000000 0.0116438 0.0614153 0.9883562 -0.0614153 0.9883562 -0.0614153 0.0116438 0.0614153
2683000000 0.0119273 0.0625522 0.9880727 -0.0625522 0.9880727 -0.0625522 0.0119273 0.0625522
2704000000 0.0122194 0.0636882 0.9877806 -0.0636882 0.9877806 -0.0636882 0.0122194 0.0636882
2725000000 0.0125202 0.0648233 0.9874798 -0.0648233 0.9874798 -0.0648233 0.0125202 0.0648233
2746000000 0.0128303 0.0659574 0.9871697 -0.0659574 0.9871697 -0.0659574 0.0128303 0.0659574
2767000000 0.0131498 0.0670907 0.9868502 -0.0670907 0.9868502 -0.0670907 0.0131498 0.0670907
2788000000 0.0134794 0.0682230 0.9865206 -0.0682230 0.9865206 -0.0682230 0.0134794 0.0682230
2809000000 0.0138192 0.0693542 0.9861808 -0.0693542 0.9861808 -0.0693542 0.0138192 0.0693542
2830000000 0.0141699 0.0704842 0.9858301 -0.0704842 0.9858301 -0.0704842 0.0141699 0.0704842
2851000000 0.0145319 0.0716129 0.9854681 -0.0716129 0.9854681 -0.0716129 0.0145319 0.0716129
2872000000 0.0149056 0.0727401 0.9850944 -0.0727401 0.9850944 -0.0727401 0.0149056 0.0727401
2893000000 0.0152915 0.0738655 0.9847085 -0.0738655 0.9847085 -0.0738655 0.0152915 0.0738655
2914000000 0.0156903 0.0749889 0.9843097 -0.0749889 0.9843097 -0.0749889 0.0156903 0.0749889
2935000000 0.0161024 0.0761099 0.9838976 -0.0761099 0.9838976 -0.0761099 0.0161024 0.0761099
2956000000 0.0165284 0.0772281 0.9834716 -0.0772281 0.9834716 -0.0772281 0.0165284 0.0772281
2977000000 0.0169689 0.0783431 0.9830311 -0.0783431 0.9830311 -0.0783431 0.0169689 0.0783431
2998000000 0.0174245 0.0794543 0.9825755 -0.0794543 0.9825755 -0.0794543 0.0174245 0.0794543
3019000000 0.0178958 0.0805611 0.9821042 -0.0805611 0.9821042 -0.0805611 0.0178958 0.0805611
3040000000 0.0183835 0.0816627 0.9816165 -0.0816627 0.9816165 -0.0816627 0.0183835 0.0816627
3061000000 0.0188881 0.0827584 0.9811119 -0.0827584 0.9811119 -0.0827584 0.0188881 0.0827584
3082000000 0.0194104 0.0838472 0.9805896 -0.0838472 0.9805896 -0.0838472 0.0194104 0.0838472
3103000000 0.0199508 0.0849280 0.9800492 -0.0849280 0.9800492 -0.0849280 0.0199508 0.0849280
3124000000 0.0205100 0.0859997 0.9794900 -0.0859997 0.9794900 -0.0859997 0.0205100 0.0859997
3145000000 0.0210884 0.0870608 0.9789116 -0.0870608 0.9789116 -0.0870608 0.0210884 0.0870608
3166000000 0.0216865 0.0881100 0.9783135 -0.0881100 0.9783135 -0.0881100 0.0216865 0.0881100
3187000000 0.0223048 0.0891454 0.9776952 -0.0891454 0.9776952 -0.0891454 0.0223048 0.0891454
3208000000 0.0229433 0.0901653 0.9770567 -0.0901653 0.9770567 -0.0901653 0.0229433 0.0901653
3229000000 0.0236023 0.0911676 0.9763977 -0.0911676 0.9763977 -0.0911676 0.0236023 0.0911676
3250000000 0.0242817 0.0921502 0.9757183 -0.0921502 0.9757183 -0.0921502 0.0242817 0.0921502
3271000000 0.0249811 0.0931106 0.9750189 -0.0931106 0.9750189 -0.0931106 0.0249811 0.0931106
3292000000 0.0257000 0.0940462 0.9743000 -0.0940462 0.9743000 -0.0940462 0.0257000 0.0940462
3313000000 0.0264375 0.0949543 0.9735625 -0.0949543 0.9735625 -0.0949543 0.0264375 0.0949543
3334000000 0.0271923 0.0958320 0.9728077 -0.0958320 0.9728077 -0.0958320 0.0271923 0.0958320
3355000000 0.0279628 0.0966764 0.9720372 -0.0966764 0.9720372 -0.0966764 0.0279628 0.0966764
3376000000 0.0287467 0.0974844 0.9712533 -0.0974844 0.9712533 -0.0974844 0.0287467 0.0974844
3397000000 0.0295414 0.0982531 0.9704586 -0.0982531 0.9704586 -0.0982531 0.0295414 0.0982531
3418000000 0.0303434 0.0989797 0.9696566 -0.0989797 0.9696566 -0.0989797 0.0303434 0.0989797
3439000000 0.0311490 0.0996614 0.9688510 -0.0996614 0.9688510 -0.0996614 0.0311490 0.0996614
3460000000 0.0319535 0.1002959 0.9680465 -0.1002959 0.9680465 -0.1002959 0.0319535 0.1002959
3481000000 0.0327516 0.1008815 0.9672484 -0.1008815 0.9672484 -0.1008815 0.0327516 0.1008815
3502000000 0.0335377 0.1014170 0.9664623 -0.1014170 0.9664623 -0.1014170 0.0335377 0.1014170
3523000000 0.0343052 0.1019020 0.9656948 -0.1019020 0.9656948 -0.1019020 0.0343052 0.1019020
3544000000 0.0350475 0.1023370 0.9649525 -0.1023370 0.9649525 -0.1023370 0.0350475 0.1023370
3565000000 0.0357576 0.1027237 0.9642424 -0.1027237 0.9642424 -0.1027237 0.0357576 0.1027237
3586000000 0.0364285 0.1030650 0.9635715 -0.1030650 0.9635715 -0.1030650 0.0364285 0.1030650
3607000000 0.0370531 0.1033650 0.9629469 -0.1033650 0.9629469 -0.1033650 0.0370531 0.1033650
3628000000 0.0376253 0.1036290 0.9623747 -0.1036290 0.9623747 -0.1036290 0.0376253 0.1036290
3649000000 0.0381393 0.1038638 0.9618607 -0.1038638 0.9618607 -0.1038638 0.0381393 0.1038638
3670000000 0.0385905 0.1040770 0.9614095 -0.1040770 0.9614095 -0.1040770 0.0385905 0.1040770
3691000000 0.0389756 0.1042771 0.9610244 -0.1042771 0.9610244 -0.1042771 0.0389756 0.1042771
3712000000 0.0392926 0.1044734 0.9607074 -0.1044734 0.9607074 -0.1044734 0.0392926 0.1044734
3733000000 0.0395413 0.1046754 0.9604587 -0.1046754 0.9604587 -0.1046754 0.0395413 0.1046754
3754000000 0.0397230 0.1048924 0.9602770 -0.1048924 0.9602770 -0.1048924 0.0397230 0.1048924
3775000000 0.0398404 0.1051335 0.9601596 -0.1051335 0.9601596 -0.1051335 0.0398404 0.1051335
3796000000 0.0398980 0.1054070 0.9601020 -0.1054070 0.9601020 -0.1054070 0.0398980 0.1054070
3817000000 0.0399013 0.1057204 0.9600987 -0.1057204 0.9600987 -0.1057204 0.0399013 0.1057204
3838000000 0.0398568 0.1060798 0.9601432 -0.1060798 0.9601432 -0.1060798 0.0398568 0.1060798
3859000000 0.0397717 0.1064901 0.9602283 -0.1064901 0.9602283 -0.1064901 0.0397717 0.1064901
3880000000 0.0396537 0.1069550 0.9603463 -0.1069550 0.9603463 -0.1069550 0.0396537 0.1069550
3901000000 0.0395105 0.1074766 0.9604895 -0.1074766 0.9604895 -0.1074766 0.0395105 0.1074766
3922000000 0.0393498 0.1080558 0.9606502 -0.1080558 0.9606502 -0.1080558 0.0393498 0.1080558
3943000000 0.0391788 0.1086927 0.9608212 -0.1086927 0.9608212 -0.1086927 0.0391788 0.1086927
3964000000 0.0390043 0.1093859 0.9609957 -0.1093859 0.9609957 -0.1093859 0.0390043 0.1093859
3985000000 0.0388324 0.1101337 0.9611676 -0.1101337 0.9611676 -0.1101337 0.0388324 0.1101337
4006000000 0.0386686 0.1109334 0.9613314 -0.1109334 0.9613314 -0.1109334 0.0386686 0.1109334
4027000000 0.0385178 0.1117820 0.9614822 -0.1117820 0.9614822 -0.1117820 0.0385178 0.1117820
4048000000 0.0383838 0.1126762 0.9616162 -0.1126762 0.9616162 -0.1126762 0.0383838 0.1126762
4069000000 0.0382702 0.1136125 0.9617298 -0.1136125 0.9617298 -0.1136125 0.0382702 0.1136125
4090000000 0.0381795 0.1145872 0.9618205 -0.1145872 0.9618205 -0.1145872 0.0381795 0.1145872
4111000000 0.0381140 0.1155969 0.9618860 -0.1155969 0.9618860 -0.1155969 0.0381140 0.1155969
4132000000 0.0380753 0.1166381 0.9619247 -0.1166381 0.9619247 -0.1166381 0.0380753 0.1166381
4153000000 0.0380646 0.1177073 0.9619354 -0.1177073 0.9619354 -0.1177073 0.0380646 0.1177073
4174000000 0.0380827 0.1188016 0.9619173 -0.1188016 0.9619173 -0.1188016 0.0380827 0.1188016
4195000000 0.0381301 0.1199178 0.9618699 -0.1199178 0.9618699 -0.1199178 0.0381301 0.1199178
4216000000 0.0382069 0.1210532 0.9617931 -0.1210532 0.9617931 -0.1210532 0.0382069 0.1210532
4237000000 0.0383134 0.1222054 0.9616866 -0.1222054 0.9616866 -0.1222054 0.0383134 0.1222054
4258000000 0.0384492 0.1233720 0.9615508 -0.1233720 0.9615508 -0.1233720 0.0384492 0.1233720
4279000000 0.0386141 0.1245507 0.9613859 -0.1245507 0.9613859 -0.1245507 0.0386141 0.1245507
4300000000 0.0388078 0.1257398 0.9611922 -0.1257398 0.9611922 -0.1257398 0.0388078 0.1257398
4321000000 0.0390298 0.1269374 0.9609702 -0.1269374 0.9609702 -0.1269374 0.0390298 0.1269374
4342000000 0.0392796 0.1281419 0.9607204 -0.1281419 0.9607204 -0.1281419 0.0392796 0.1281419
4363000000 0.0395567 0.1293518 0.9604433 -0.1293518 0.9604433 -0.1293518 0.0395567 0.1293518
4384000000 0.0398605 0.1305658 0.9601395 -0.1305658 0.9601395 -0.1305658 0.0398605 0.1305658
4405000000 0.0401906 0.1317826 0.9598094 -0.1317826 0.9598094 -0.1317826 0.0401906 0.1317826
4426000000 0.0405463 0.1330012 0.9594537 -0.1330012 0.9594537 -0.1330012 0.0405463 0.1330012
4447000000 0.0409273 0.1342205 0.9590727 -0.1342205 0.9590727 -0.1342205 0.0409273 0.1342205
4468000000 0.0413329 0.1354394 0.9586671 -0.1354394 0.9586671 -0.1354394 0.0413329 0.1354394
4489000000 0.0417627 0.1366571 0.9582373 -0.1366571 0.9582373 -0.1366571 0.0417627 0.1366571
4510000000 0.0422163 0.1378728 0.9577837 -0.1378728 0.9577837 -0.1378728 0.0422163 0.1378728
