!Murata Part Number: GRM1885C2A9R4BA01
!These Parameters are Measured in Series Mode Connection
!Data Generated on Mar 30, 2021
!       o--ll--o
!Port1            Port2
!       o------o
!Operation Temp=25[degC], DC Bias Voltage=0[V]
!Freq. Start=100[MHz] Stop=9[GHz] 401[Steps]
# Hz S RI R 50
!Freq.(Hz) S11(Real) S11(Imag) S21(Real) S21(Imag) S12(Real) S12(Imag) S22(Real) S22(Imag)
100000000 0.7405084 -0.4380486 0.2594916 0.4380486 0.2594916 0.4380486 0.7405084 -0.4380486
121000000 0.6605476 -0.4731380 0.3394524 0.4731380 0.3394524 0.4731380 0.6605476 -0.4731380
142000000 0.5850993 -0.4922343 0.4149007 0.4922343 0.4149007 0.4922343 0.5850993 -0.4922343
163000000 0.5164198 -0.4991672 0.4835802 0.4991672 0.4835802 0.4991672 0.5164198 -0.4991672
184000000 0.4553385 -0.4973381 0.5446615 0.4973381 0.5446615 0.4973381 0.4553385 -0.4973381
205000000 0.4017978 -0.4894906 0.5982022 0.4894906 0.5982022 0.4894906 0.4017978 -0.4894906
226000000 0.3552638 -0.4777070 0.6447362 0.4777070 0.6447362 0.4777070 0.3552638 -0.4777070
247000000 0.3149940 -0.4635049 0.6850060 0.4635049 0.6850060 0.4635049 0.3149940 -0.4635049
268000000 0.2801967 -0.4479572 0.7198033 0.4479572 0.7198033 0.4479572 0.2801967 -0.4479572
289000000 0.2501142 -0.4318047 0.7498858 0.4318047 0.7498858 0.4318047 0.2501142 -0.4318047
310000000 0.2240618 -0.4155469 0.7759382 0.4155469 0.7759382 0.4155469 0.2240618 -0.4155469
331000000 0.2014406 -0.3995125 0.7985594 0.3995125 0.7985594 0.3995125 0.2014406 -0.3995125
352000000 0.1817367 -0.3839104 0.8182633 0.3839104 0.8182633 0.3839104 0.1817367 -0.3839104
373000000 0.1645143 -0.3688666 0.8354857 0.3688666 0.8354857 0.3688666 0.1645143 -0.3688666
394000000 0.1494062 -0.3544506 0.8505938 0.3544506 0.8505938 0.3544506 0.1494062 -0.3544506
415000000 0.1361037 -0.3406938 0.8638963 0.3406938 0.8638963 0.3406938 0.1361037 -0.3406938
436000000 0.1243477 -0.3276019 0.8756523 0.3276019 0.8756523 0.3276019 0.1243477 -0.3276019
457000000 0.1139209 -0.3151642 0.8860791 0.3151642 0.8860791 0.3151642 0.1139209 -0.3151642
478000000 0.1046401 -0.3033596 0.8953599 0.3033596 0.8953599 0.3033596 0.1046401 -0.3033596
499000000 0.0963512 -0.2921606 0.9036488 0.2921606 0.9036488 0.2921606 0.0963512 -0.2921606
520000000 0.0889237 -0.2815363 0.9110763 0.2815363 0.9110763 0.2815363 0.0889237 -0.2815363
541000000 0.0822471 -0.2714546 0.9177529 0.2714546 0.9177529 0.2714546 0.0822471 -0.2714546
562000000 0.0762272 -0.2618829 0.9237728 0.2618829 0.9237728 0.2618829 0.0762272 -0.2618829
583000000 0.0707838 -0.2527895 0.9292162 0.2527895 0.9292162 0.2527895 0.0707838 -0.2527895
604000000 0.0658481 -0.2441437 0.9341519 0.2441437 0.9341519 0.2441437 0.0658481 -0.2441437
625000000 0.0613609 -0.2359163 0.9386391 0.2359163 0.9386391 0.2359163 0.0613609 -0.2359163
646000000 0.0572712 -0.2280799 0.9427288 0.2280799 0.9427288 0.2280799 0.0572712 -0.2280799
667000000 0.0535350 -0.2206087 0.9464650 0.2206087 0.9464650 0.2206087 0.0535350 -0.2206087
688000000 0.0501140 -0.2134786 0.9498860 0.2134786 0.9498860 0.2134786 0.0501140 -0.2134786
709000000 0.0469748 -0.2066672 0.9530252 0.2066672 0.9530252 0.2066672 0.0469748 -0.2066672
730000000 0.0440882 -0.2001538 0.9559118 0.2001538 0.9559118 0.2001538 0.0440882 -0.2001538
751000000 0.0414288 -0.1939189 0.9585712 0.1939189 0.9585712 0.1939189 0.0414288 -0.1939189
772000000 0.0389742 -0.1879448 0.9610258 0.1879448 0.9610258 0.1879448 0.0389742 -0.1879448
793000000 0.0367045 -0.1822148 0.9632955 0.1822148 0.9632955 0.1822148 0.0367045 -0.1822148
814000000 0.0346023 -0.1767138 0.9653977 0.1767138 0.9653977 0.1767138 0.0346023 -0.1767138
835000000 0.0326522 -0.1714274 0.9673478 0.1714274 0.9673478 0.1714274 0.0326522 -0.1714274
856000000 0.0308403 -0.1663426 0.9691597 0.1663426 0.9691597 0.1663426 0.0308403 -0.1663426
877000000 0.0291545 -0.1614472 0.9708455 0.1614472 0.9708455 0.1614472 0.0291545 -0.1614472
898000000 0.0275839 -0.1567298 0.9724161 0.1567298 0.9724161 0.1567298 0.0275839 -0.1567298
919000000 0.0261187 -0.1521802 0.9738813 0.1521802 0.9738813 0.1521802 0.0261187 -0.1521802
940000000 0.0247501 -0.1477885 0.9752499 0.1477885 0.9752499 0.1477885 0.0247501 -0.1477885
961000000 0.0234702 -0.1435458 0.9765298 0.1435458 0.9765298 0.1435458 0.0234702 -0.1435458
982000000 0.0222720 -0.1394436 0.9777280 0.1394436 0.9777280 0.1394436 0.0222720 -0.1394436
1003000000 0.0211491 -0.1354742 0.9788509 0.1354742 0.9788509 0.1354742 0.0211491 -0.1354742
1024000000 0.0200957 -0.1316303 0.9799043 0.1316303 0.9799043 0.1316303 0.0200957 -0.1316303
1045000000 0.0191066 -0.1279052 0.9808934 0.1279052 0.9808934 0.1279052 0.0191066 -0.1279052
1066000000 0.0181771 -0.1242926 0.9818229 0.1242926 0.9818229 0.1242926 0.0181771 -0.1242926
1087000000 0.0173027 -0.1207866 0.9826973 0.1207866 0.9826973 0.1207866 0.0173027 -0.1207866
1108000000 0.0164797 -0.1173816 0.9835203 0.1173816 0.9835203 0.1173816 0.0164797 -0.1173816
1129000000 0.0157043 -0.1140726 0.9842957 0.1140726 0.9842957 0.1140726 0.0157043 -0.1140726
1150000000 0.0149734 -0.1108547 0.9850266 0.1108547 0.9850266 0.1108547 0.0149734 -0.1108547
1171000000 0.0142840 -0.1077235 0.9857160 0.1077235 0.9857160 0.1077235 0.0142840 -0.1077235
1192000000 0.0136333 -0.1046747 0.9863667 0.1046747 0.9863667 0.1046747 0.0136333 -0.1046747
1213000000 0.0130188 -0.1017043 0.9869812 0.1017043 0.9869812 0.1017043 0.0130188 -0.1017043
1234000000 0.0124383 -0.0988086 0.9875617 0.0988086 0.9875617 0.0988086 0.0124383 -0.0988086
1255000000 0.0118895 -0.0959842 0.9881105 0.0959842 0.9881105 0.0959842 0.0118895 -0.0959842
1276000000 0.0113705 -0.0932277 0.9886295 0.0932277 0.9886295 0.0932277 0.0113705 -0.0932277
1297000000 0.0108796 -0.0905361 0.9891204 0.0905361 0.9891204 0.0905361 0.0108796 -0.0905361
1318000000 0.0104151 -0.0879064 0.9895849 0.0879064 0.9895849 0.0879064 0.0104151 -0.0879064
1339000000 0.0099754 -0.0853358 0.9900246 0.0853358 0.9900246 0.0853358 0.0099754 -0.0853358
1360000000 0.0095591 -0.0828218 0.9904409 0.0828218 0.9904409 0.0828218 0.0095591 -0.0828218
1381000000 0.0091649 -0.0803620 0.9908351 0.0803620 0.9908351 0.0803620 0.0091649 -0.0803620
1402000000 0.0087915 -0.0779539 0.9912085 0.0779539 0.9912085 0.0779539 0.0087915 -0.0779539
1423000000 0.0084379 -0.0755955 0.9915621 0.0755955 0.9915621 0.0755955 0.0084379 -0.0755955
1444000000 0.0081030 -0.0732846 0.9918970 0.0732846 0.9918970 0.0732846 0.0081030 -0.0732846
1465000000 0.0077857 -0.0710193 0.9922143 0.0710193 0.9922143 0.0710193 0.0077857 -0.0710193
1486000000 0.0074853 -0.0687977 0.9925147 0.0687977 0.9925147 0.0687977 0.0074853 -0.0687977
1507000000 0.0072008 -0.0666180 0.9927992 0.0666180 0.9927992 0.0666180 0.0072008 -0.0666180
1528000000 0.0069314 -0.0644787 0.9930686 0.0644787 0.9930686 0.0644787 0.0069314 -0.0644787
1549000000 0.0066764 -0.0623780 0.9933236 0.0623780 0.9933236 0.0623780 0.0066764 -0.0623780
1570000000 0.0064351 -0.0603145 0.9935649 0.0603145 0.9935649 0.0603145 0.0064351 -0.0603145
1591000000 0.0062069 -0.0582868 0.9937931 0.0582868 0.9937931 0.0582868 0.0062069 -0.0582868
1612000000 0.0059912 -0.0562934 0.9940088 0.0562934 0.9940088 0.0562934 0.0059912 -0.0562934
1633000000 0.0057873 -0.0543331 0.9942127 0.0543331 0.9942127 0.0543331 0.0057873 -0.0543331
1654000000 0.0055948 -0.0524046 0.9944052 0.0524046 0.9944052 0.0524046 0.0055948 -0.0524046
1675000000 0.0054131 -0.0505068 0.9945869 0.0505068 0.9945869 0.0505068 0.0054131 -0.0505068
1696000000 0.0052418 -0.0486386 0.9947582 0.0486386 0.9947582 0.0486386 0.0052418 -0.0486386
1717000000 0.0050804 -0.0467988 0.9949196 0.0467988 0.9949196 0.0467988 0.0050804 -0.0467988
1738000000 0.0049286 -0.0449864 0.9950714 0.0449864 0.9950714 0.0449864 0.0049286 -0.0449864
1759000000 0.0047859 -0.0432004 0.9952141 0.0432004 0.9952141 0.0432004 0.0047859 -0.0432004
1780000000 0.0046520 -0.0414400 0.9953480 0.0414400 0.9953480 0.0414400 0.0046520 -0.0414400
1801000000 0.0045266 -0.0397042 0.9954734 0.0397042 0.9954734 0.0397042 0.0045266 -0.0397042
1822000000 0.0044092 -0.0379922 0.9955908 0.0379922 0.9955908 0.0379922 0.0044092 -0.0379922
1843000000 0.0042996 -0.0363031 0.9957004 0.0363031 0.9957004 0.0363031 0.0042996 -0.0363031
1864000000 0.0041975 -0.0346361 0.9958025 0.0346361 0.9958025 0.0346361 0.0041975 -0.0346361
1885000000 0.0041027 -0.0329906 0.9958973 0.0329906 0.9958973 0.0329906 0.0041027 -0.0329906
1906000000 0.0040148 -0.0313657 0.9959852 0.0313657 0.9959852 0.0313657 0.0040148 -0.0313657
1927000000 0.0039337 -0.0297609 0.9960663 0.0297609 0.9960663 0.0297609 0.0039337 -0.0297609
1948000000 0.0038591 -0.0281753 0.9961409 0.0281753 0.9961409 0.0281753 0.0038591 -0.0281753
1969000000 0.0037908 -0.0266085 0.9962092 0.0266085 0.9962092 0.0266085 0.0037908 -0.0266085
1990000000 0.0037286 -0.0250597 0.9962714 0.0250597 0.9962714 0.0250597 0.0037286 -0.0250597
2011000000 0.0036722 -0.0235284 0.9963278 0.0235284 0.9963278 0.0235284 0.0036722 -0.0235284
2032000000 0.0036216 -0.0220140 0.9963784 0.0220140 0.9963784 0.0220140 0.0036216 -0.0220140
2053000000 0.0035765 -0.0205160 0.9964235 0.0205160 0.9964235 0.0205160 0.0035765 -0.0205160
2074000000 0.0035368 -0.0190339 0.9964632 0.0190339 0.9964632 0.0190339 0.0035368 -0.0190339
2095000000 0.0035023 -0.0175670 0.9964977 0.0175670 0.9964977 0.0175670 0.0035023 -0.0175670
2116000000 0.0034728 -0.0161151 0.9965272 0.0161151 0.9965272 0.0161151 0.0034728 -0.0161151
2137000000 0.0034483 -0.0146775 0.9965517 0.0146775 0.9965517 0.0146775 0.0034483 -0.0146775
2158000000 0.0034286 -0.0132539 0.9965714 0.0132539 0.9965714 0.0132539 0.0034286 -0.0132539
2179000000 0.0034135 -0.0118437 0.9965865 0.0118437 0.9965865 0.0118437 0.0034135 -0.0118437
2200000000 0.0034030 -0.0104467 0.9965970 0.0104467 0.9965970 0.0104467 0.0034030 -0.0104467
2221000000 0.0033970 -0.0090623 0.9966030 0.0090623 0.9966030 0.0090623 0.0033970 -0.0090623
2242000000 0.0033953 -0.0076902 0.9966047 0.0076902 0.9966047 0.0076902 0.0033953 -0.0076902
2263000000 0.0033978 -0.0063300 0.9966022 0.0063300 0.9966022 0.0063300 0.0033978 -0.0063300
2284000000 0.0034045 -0.0049813 0.9965955 0.0049813 0.9965955 0.0049813 0.0034045 -0.0049813
2305000000 0.0034152 -0.0036438 0.9965848 0.0036438 0.9965848 0.0036438 0.0034152 -0.0036438
2326000000 0.0034298 -0.0023171 0.9965702 0.0023171 0.9965702 0.0023171 0.0034298 -0.0023171
2347000000 0.0034484 -0.0010009 0.9965516 0.0010009 0.9965516 0.0010009 0.0034484 -0.0010009
2368000000 0.0034708 0.0003051 0.9965292 -0.0003051 0.9965292 -0.0003051 0.0034708 0.0003051
2389000000 0.0034969 0.0016013 0.9965031 -0.0016013 0.9965031 -0.0016013 0.0034969 0.0016013
2410000000 0.0035267 0.0028879 0.9964733 -0.0028879 0.9964733 -0.0028879 0.0035267 0.0028879
2431000000 0.0035600 0.0041652 0.9964400 -0.0041652 0.9964400 -0.0041652 0.0035600 0.0041652
2452000000 0.0035970 0.0054336 0.9964030 -0.0054336 0.9964030 -0.0054336 0.0035970 0.0054336
2473000000 0.0036374 0.0066932 0.9963626 -0.0066932 0.9963626 -0.0066932 0.0036374 0.0066932
2494000000 0.0036812 0.0079445 0.9963188 -0.0079445 0.9963188 -0.0079445 0.0036812 0.0079445
2515000000 0.0037285 0.0091875 0.9962715 -0.0091875 0.9962715 -0.0091875 0.0037285 0.0091875
2536000000 0.0037790 0.0104227 0.9962210 -0.0104227 0.9962210 -0.0104227 0.0037790 0.0104227
2557000000 0.0038329 0.0116502 0.9961671 -0.0116502 0.9961671 -0.0116502 0.0038329 0.0116502
2578000000 0.0038900 0.0128704 0.9961100 -0.0128704 0.9961100 -0.0128704 0.0038900 0.0128704
2599000000 0.0039504 0.0140833 0.9960496 -0.0140833 0.9960496 -0.0140833 0.0039504 0.0140833
2620000000 0.0040139 0.0152893 0.9959861 -0.0152893 0.9959861 -0.0152893 0.0040139 0.0152893
2641000000 0.0040806 0.0164885 0.9959194 -0.0164885 0.9959194 -0.0164885 0.0040806 0.0164885
2662000000 0.0041504 0.0176813 0.9958496 -0.0176813 0.9958496 -0.0176813 0.0041504 0.0176813
2683000000 0.0042233 0.0188678 0.9957767 -0.0188678 0.9957767 -0.0188678 0.0042233 0.0188678
2704000000 0.0042993 0.0200482 0.9957007 -0.0200482 0.9957007 -0.0200482 0.0042993 0.0200482
2725000000 0.0043783 0.0212228 0.9956217 -0.0212228 0.9956217 -0.0212228 0.0043783 0.0212228
2746000000 0.0044603 0.0223917 0.9955397 -0.0223917 0.9955397 -0.0223917 0.0044603 0.0223917
2767000000 0.0045454 0.0235551 0.9954546 -0.0235551 0.9954546 -0.0235551 0.0045454 0.0235551
2788000000 0.0046334 0.0247132 0.9953666 -0.0247132 0.9953666 -0.0247132 0.0046334 0.0247132
2809000000 0.0047244 0.0258663 0.9952756 -0.0258663 0.9952756 -0.0258663 0.0047244 0.0258663
2830000000 0.0048184 0.0270145 0.9951816 -0.0270145 0.9951816 -0.0270145 0.0048184 0.0270145
2851000000 0.0049154 0.0281580 0.9950846 -0.0281580 0.9950846 -0.0281580 0.0049154 0.0281580
2872000000 0.0050153 0.0292969 0.9949847 -0.0292969 0.9949847 -0.0292969 0.0050153 0.0292969
2893000000 0.0051182 0.0304315 0.9948818 -0.0304315 0.9948818 -0.0304315 0.0051182 0.0304315
2914000000 0.0052240 0.0315619 0.9947760 -0.0315619 0.9947760 -0.0315619 0.0052240 0.0315619
2935000000 0.0053328 0.0326884 0.9946672 -0.0326884 0.9946672 -0.0326884 0.0053328 0.0326884
2956000000 0.0054446 0.0338110 0.9945554 -0.0338110 0.9945554 -0.0338110 0.0054446 0.0338110
2977000000 0.0055593 0.0349299 0.9944407 -0.0349299 0.9944407 -0.0349299 0.0055593 0.0349299
2998000000 0.0056770 0.0360454 0.9943230 -0.0360454 0.9943230 -0.0360454 0.0056770 0.0360454
3019000000 0.0057976 0.0371576 0.9942024 -0.0371576 0.9942024 -0.0371576 0.0057976 0.0371576
3040000000 0.0059213 0.0382665 0.9940787 -0.0382665 0.9940787 -0.0382665 0.0059213 0.0382665
3061000000 0.0060479 0.0393726 0.9939521 -0.0393726 0.9939521 -0.0393726 0.0060479 0.0393726
3082000000 0.0061776 0.0404757 0.9938224 -0.0404757 0.9938224 -0.0404757 0.0061776 0.0404757
3103000000 0.0063104 0.0415763 0.9936896 -0.0415763 0.9936896 -0.0415763 0.0063104 0.0415763
3124000000 0.0064462 0.0426743 0.9935538 -0.0426743 0.9935538 -0.0426743 0.0064462 0.0426743
3145000000 0.0065851 0.0437700 0.9934149 -0.0437700 0.9934149 -0.0437700 0.0065851 0.0437700
3166000000 0.0067271 0.0448635 0.9932729 -0.0448635 0.9932729 -0.0448635 0.0067271 0.0448635
3187000000 0.0068723 0.0459549 0.9931277 -0.0459549 0.9931277 -0.0459549 0.0068723 0.0459549
3208000000 0.0070207 0.0470446 0.9929793 -0.0470446 0.9929793 -0.0470446 0.0070207 0.0470446
3229000000 0.0071723 0.0481325 0.9928277 -0.0481325 0.9928277 -0.0481325 0.0071723 0.0481325
3250000000 0.0073271 0.0492190 0.9926729 -0.0492190 0.9926729 -0.0492190 0.0073271 0.0492190
3271000000 0.0074853 0.0503040 0.9925147 -0.0503040 0.9925147 -0.0503040 0.0074853 0.0503040
3292000000 0.0076468 0.0513879 0.9923532 -0.0513879 0.9923532 -0.0513879 0.0076468 0.0513879
3313000000 0.0078118 0.0524707 0.9921882 -0.0524707 0.9921882 -0.0524707 0.0078118 0.0524707
3334000000 0.0079802 0.0535527 0.9920198 -0.0535527 0.9920198 -0.0535527 0.0079802 0.0535527
3355000000 0.0081521 0.0546340 0.9918479 -0.0546340 0.9918479 -0.0546340 0.0081521 0.0546340
3376000000 0.0083277 0.0557148 0.9916723 -0.0557148 0.9916723 -0.0557148 0.0083277 0.0557148
3397000000 0.0085069 0.0567952 0.9914931 -0.0567952 0.9914931 -0.0567952 0.0085069 0.0567952
3418000000 0.0086898 0.0578755 0.9913102 -0.0578755 0.9913102 -0.0578755 0.0086898 0.0578755
3439000000 0.0088765 0.0589558 0.9911235 -0.0589558 0.9911235 -0.0589558 0.0088765 0.0589558
3460000000 0.0090671 0.0600363 0.9909329 -0.0600363 0.9909329 -0.0600363 0.0090671 0.0600363
3481000000 0.0092617 0.0611173 0.9907383 -0.0611173 0.9907383 -0.0611173 0.0092617 0.0611173
3502000000 0.0094604 0.0621988 0.9905396 -0.0621988 0.9905396 -0.0621988 0.0094604 0.0621988
3523000000 0.0096633 0.0632811 0.9903367 -0.0632811 0.9903367 -0.0632811 0.0096633 0.0632811
3544000000 0.0098705 0.0643644 0.9901295 -0.0643644 0.9901295 -0.0643644 0.0098705 0.0643644
3565000000 0.0100821 0.0654488 0.9899179 -0.0654488 0.9899179 -0.0654488 0.0100821 0.0654488
3586000000 0.0102983 0.0665348 0.9897017 -0.0665348 0.9897017 -0.0665348 0.0102983 0.0665348
3607000000 0.0105191 0.0676223 0.9894809 -0.0676223 0.9894809 -0.0676223 0.0105191 0.0676223
3628000000 0.0107448 0.0687117 0.9892552 -0.0687117 0.9892552 -0.0687117 0.0107448 0.0687117
3649000000 0.0109755 0.0698033 0.9890245 -0.0698033 0.9890245 -0.0698033 0.0109755 0.0698033
3670000000 0.0112113 0.0708972 0.9887887 -0.0708972 0.9887887 -0.0708972 0.0112113 0.0708972
3691000000 0.0114525 0.0719936 0.9885475 -0.0719936 0.9885475 -0.0719936 0.0114525 0.0719936
3712000000 0.0116992 0.0730930 0.9883008 -0.0730930 0.9883008 -0.0730930 0.0116992 0.0730930
3733000000 0.0119517 0.0741955 0.9880483 -0.0741955 0.9880483 -0.0741955 0.0119517 0.0741955
3754000000 0.0122101 0.0753015 0.9877899 -0.0753015 0.9877899 -0.0753015 0.0122101 0.0753015
3775000000 0.0124748 0.0764112 0.9875252 -0.0764112 0.9875252 -0.0764112 0.0124748 0.0764112
3796000000 0.0127460 0.0775249 0.9872540 -0.0775249 0.9872540 -0.0775249 0.0127460 0.0775249
3817000000 0.0130239 0.0786430 0.9869761 -0.0786430 0.9869761 -0.0786430 0.0130239 0.0786430
3838000000 0.0133090 0.0797658 0.9866910 -0.0797658 0.9866910 -0.0797658 0.0133090 0.0797658
3859000000 0.0136015 0.0808937 0.9863985 -0.0808937 0.9863985 -0.0808937 0.0136015 0.0808937
3880000000 0.0139017 0.0820270 0.9860983 -0.0820270 0.9860983 -0.0820270 0.0139017 0.0820270
3901000000 0.0142102 0.0831662 0.9857898 -0.0831662 0.9857898 -0.0831662 0.0142102 0.0831662
3922000000 0.0145273 0.0843116 0.9854727 -0.0843116 0.9854727 -0.0843116 0.0145273 0.0843116
3943000000 0.0148536 0.0854638 0.9851464 -0.0854638 0.9851464 -0.0854638 0.0148536 0.0854638
3964000000 0.0151894 0.0866231 0.9848106 -0.0866231 0.9848106 -0.0866231 0.0151894 0.0866231
3985000000 0.0155354 0.0877900 0.9844646 -0.0877900 0.9844646 -0.0877900 0.0155354 0.0877900
4006000000 0.0158923 0.0889651 0.9841077 -0.0889651 0.9841077 -0.0889651 0.0158923 0.0889651
4027000000 0.0162606 0.0901489 0.9837394 -0.0901489 0.9837394 -0.0901489 0.0162606 0.0901489
4048000000 0.0166412 0.0913421 0.9833588 -0.0913421 0.9833588 -0.0913421 0.0166412 0.0913421
4069000000 0.0170348 0.0925451 0.9829652 -0.0925451 0.9829652 -0.0925451 0.0170348 0.0925451
4090000000 0.0174424 0.0937587 0.9825576 -0.0937587 0.9825576 -0.0937587 0.0174424 0.0937587
4111000000 0.0178649 0.0949835 0.9821351 -0.0949835 0.9821351 -0.0949835 0.0178649 0.0949835
4132000000 0.0183036 0.0962202 0.9816964 -0.0962202 0.9816964 -0.0962202 0.0183036 0.0962202
4153000000 0.0187596 0.0974697 0.9812404 -0.0974697 0.9812404 -0.0974697 0.0187596 0.0974697
4174000000 0.0192342 0.0987328 0.9807658 -0.0987328 0.9807658 -0.0987328 0.0192342 0.0987328
4195000000 0.0197292 0.1000102 0.9802708 -0.1000102 0.9802708 -0.1000102 0.0197292 0.1000102
4216000000 0.0202461 0.1013030 0.9797539 -0.1013030 0.9797539 -0.1013030 0.0202461 0.1013030
4237000000 0.0207870 0.1026121 0.9792130 -0.1026121 0.9792130 -0.1026121 0.0207870 0.1026121
4258000000 0.0213539 0.1039384 0.9786461 -0.1039384 0.9786461 -0.1039384 0.0213539 0.1039384
4279000000 0.0219494 0.1052830 0.9780506 -0.1052830 0.9780506 -0.1052830 0.0219494 0.1052830
4300000000 0.0225763 0.1066471 0.9774237 -0.1066471 0.9774237 -0.1066471 0.0225763 0.1066471
4321000000 0.0232376 0.1080317 0.9767624 -0.1080317 0.9767624 -0.1080317 0.0232376 0.1080317
4342000000 0.0239370 0.1094380 0.9760630 -0.1094380 0.9760630 -0.1094380 0.0239370 0.1094380
4363000000 0.0246785 0.1108672 0.9753215 -0.1108672 0.9753215 -0.1108672 0.0246785 0.1108672
4384000000 0.0254669 0.1123204 0.9745331 -0.1123204 0.9745331 -0.1123204 0.0254669 0.1123204
4405000000 0.0263075 0.1137986 0.9736925 -0.1137986 0.9736925 -0.1137986 0.0263075 0.1137986
4426000000 0.0272064 0.1153029 0.9727936 -0.1153029 0.9727936 -0.1153029 0.0272064 0.1153029
4447000000 0.0281709 0.1168340 0.9718291 -0.1168340 0.9718291 -0.1168340 0.0281709 0.1168340
4468000000 0.0292091 0.1183925 0.9707909 -0.1183925 0.9707909 -0.1183925 0.0292091 0.1183925
4489000000 0.0303306 0.1199785 0.9696694 -0.1199785 0.9696694 -0.1199785 0.0303306 0.1199785
4510000000 0.0315465 0.1215916 0.9684535 -0.1215916 0.9684535 -0.1215916 0.0315465 0.1215916
