!Murata Part Number: GRM1885C2A9R2WA01
!These Parameters are Measured in Series Mode Connection
!Data Generated on Mar 30, 2021
!       o--ll--o
!Port1            Port2
!       o------o
!Operation Temp=25[degC], DC Bias Voltage=0[V]
!Freq. Start=100[MHz] Stop=9[GHz] 401[Steps]
# Hz S RI R 50
!Freq.(Hz) S11(Real) S11(Imag) S21(Real) S21(Imag) S12(Real) S12(Imag) S22(Real) S22(Imag)
100000000 0.7487003 -0.4334599 0.2512997 0.4334599 0.2512997 0.4334599 0.7487003 -0.4334599
121000000 0.6701460 -0.4697827 0.3298540 0.4697827 0.3298540 0.4697827 0.6701460 -0.4697827
142000000 0.5955332 -0.4903280 0.4044668 0.4903280 0.4044668 0.4903280 0.5955332 -0.4903280
163000000 0.5271950 -0.4987088 0.4728050 0.4987088 0.4728050 0.4987088 0.5271950 -0.4987088
184000000 0.4660784 -0.4981990 0.5339216 0.4981990 0.5339216 0.4981990 0.4660784 -0.4981990
205000000 0.4122423 -0.4914839 0.5877577 0.4914839 0.5877577 0.4914839 0.4122423 -0.4914839
226000000 0.3652491 -0.4806328 0.6347509 0.4806328 0.6347509 0.4806328 0.3652491 -0.4806328
247000000 0.3244291 -0.4671742 0.6755709 0.4671742 0.6755709 0.4671742 0.3244291 -0.4671742
268000000 0.2890412 -0.4522036 0.7109588 0.4522036 0.7109588 0.4522036 0.2890412 -0.4522036
289000000 0.2583616 -0.4364873 0.7416384 0.4364873 0.7416384 0.4364873 0.2583616 -0.4364873
310000000 0.2317269 -0.4205500 0.7682731 0.4205500 0.7682731 0.4205500 0.2317269 -0.4205500
331000000 0.2085508 -0.4047425 0.7914492 0.4047425 0.7914492 0.4047425 0.2085508 -0.4047425
352000000 0.1883260 -0.3892925 0.8116740 0.3892925 0.8116740 0.3892925 0.1883260 -0.3892925
373000000 0.1706195 -0.3743418 0.8293805 0.3743418 0.8293805 0.3743418 0.1706195 -0.3743418
394000000 0.1550644 -0.3599727 0.8449356 0.3599727 0.8449356 0.3599727 0.1550644 -0.3599727
415000000 0.1413511 -0.3462266 0.8586489 0.3462266 0.8586489 0.3462266 0.1413511 -0.3462266
436000000 0.1292185 -0.3331177 0.8707815 0.3331177 0.8707815 0.3331177 0.1292185 -0.3331177
457000000 0.1184469 -0.3206416 0.8815531 0.3206416 0.8815531 0.3206416 0.1184469 -0.3206416
478000000 0.1088507 -0.3087823 0.8911493 0.3087823 0.8911493 0.3087823 0.1088507 -0.3087823
499000000 0.1002732 -0.2975165 0.8997268 0.2975165 0.8997268 0.2975165 0.1002732 -0.2975165
520000000 0.0925817 -0.2868166 0.9074183 0.2868166 0.9074183 0.2868166 0.0925817 -0.2868166
541000000 0.0856632 -0.2766528 0.9143368 0.2766528 0.9143368 0.2766528 0.0856632 -0.2766528
562000000 0.0794215 -0.2669946 0.9205785 0.2669946 0.9205785 0.2669946 0.0794215 -0.2669946
583000000 0.0737745 -0.2578118 0.9262255 0.2578118 0.9262255 0.2578118 0.0737745 -0.2578118
604000000 0.0686516 -0.2490749 0.9313484 0.2490749 0.9313484 0.2490749 0.0686516 -0.2490749
625000000 0.0639922 -0.2407559 0.9360078 0.2407559 0.9360078 0.2407559 0.0639922 -0.2407559
646000000 0.0597437 -0.2328278 0.9402563 0.2328278 0.9402563 0.2328278 0.0597437 -0.2328278
667000000 0.0558610 -0.2252656 0.9441390 0.2252656 0.9441390 0.2252656 0.0558610 -0.2252656
688000000 0.0523044 -0.2180456 0.9476956 0.2180456 0.9476956 0.2180456 0.0523044 -0.2180456
709000000 0.0490397 -0.2111456 0.9509603 0.2111456 0.9509603 0.2111456 0.0490397 -0.2111456
730000000 0.0460368 -0.2045453 0.9539632 0.2045453 0.9539632 0.2045453 0.0460368 -0.2045453
751000000 0.0432694 -0.1982253 0.9567306 0.1982253 0.9567306 0.1982253 0.0432694 -0.1982253
772000000 0.0407143 -0.1921680 0.9592857 0.1921680 0.9592857 0.1921680 0.0407143 -0.1921680
793000000 0.0383510 -0.1863569 0.9616490 0.1863569 0.9616490 0.1863569 0.0383510 -0.1863569
814000000 0.0361616 -0.1807768 0.9638384 0.1807768 0.9638384 0.1807768 0.0361616 -0.1807768
835000000 0.0341300 -0.1754134 0.9658700 0.1754134 0.9658700 0.1754134 0.0341300 -0.1754134
856000000 0.0322420 -0.1702538 0.9677580 0.1702538 0.9677580 0.1702538 0.0322420 -0.1702538
877000000 0.0304850 -0.1652855 0.9695150 0.1652855 0.9695150 0.1652855 0.0304850 -0.1652855
898000000 0.0288475 -0.1604975 0.9711525 0.1604975 0.9711525 0.1604975 0.0288475 -0.1604975
919000000 0.0273196 -0.1558792 0.9726804 0.1558792 0.9726804 0.1558792 0.0273196 -0.1558792
940000000 0.0258920 -0.1514208 0.9741080 0.1514208 0.9741080 0.1514208 0.0258920 -0.1514208
961000000 0.0245567 -0.1471132 0.9754433 0.1471132 0.9754433 0.1471132 0.0245567 -0.1471132
982000000 0.0233064 -0.1429482 0.9766936 0.1429482 0.9766936 0.1429482 0.0233064 -0.1429482
1003000000 0.0221343 -0.1389177 0.9778657 0.1389177 0.9778657 0.1389177 0.0221343 -0.1389177
1024000000 0.0210345 -0.1350146 0.9789655 0.1350146 0.9789655 0.1350146 0.0210345 -0.1350146
1045000000 0.0200015 -0.1312319 0.9799985 0.1312319 0.9799985 0.1312319 0.0200015 -0.1312319
1066000000 0.0190305 -0.1275634 0.9809695 0.1275634 0.9809695 0.1275634 0.0190305 -0.1275634
1087000000 0.0181169 -0.1240031 0.9818831 0.1240031 0.9818831 0.1240031 0.0181169 -0.1240031
1108000000 0.0172567 -0.1205454 0.9827433 0.1205454 0.9827433 0.1205454 0.0172567 -0.1205454
1129000000 0.0164461 -0.1171852 0.9835539 0.1171852 0.9835539 0.1171852 0.0164461 -0.1171852
1150000000 0.0156818 -0.1139176 0.9843182 0.1139176 0.9843182 0.1139176 0.0156818 -0.1139176
1171000000 0.0149607 -0.1107380 0.9850393 0.1107380 0.9850393 0.1107380 0.0149607 -0.1107380
1192000000 0.0142798 -0.1076422 0.9857202 0.1076422 0.9857202 0.1076422 0.0142798 -0.1076422
1213000000 0.0136366 -0.1046261 0.9863634 0.1046261 0.9863634 0.1046261 0.0136366 -0.1046261
1234000000 0.0130287 -0.1016860 0.9869713 0.1016860 0.9869713 0.1016860 0.0130287 -0.1016860
1255000000 0.0124539 -0.0988183 0.9875461 0.0988183 0.9875461 0.0988183 0.0124539 -0.0988183
1276000000 0.0119101 -0.0960197 0.9880899 0.0960197 0.9880899 0.0960197 0.0119101 -0.0960197
1297000000 0.0113955 -0.0932871 0.9886045 0.0932871 0.9886045 0.0932871 0.0113955 -0.0932871
1318000000 0.0109083 -0.0906176 0.9890917 0.0906176 0.9890917 0.0906176 0.0109083 -0.0906176
1339000000 0.0104470 -0.0880082 0.9895530 0.0880082 0.9895530 0.0880082 0.0104470 -0.0880082
1360000000 0.0100100 -0.0854564 0.9899900 0.0854564 0.9899900 0.0854564 0.0100100 -0.0854564
1381000000 0.0095961 -0.0829597 0.9904039 0.0829597 0.9904039 0.0829597 0.0095961 -0.0829597
1402000000 0.0092038 -0.0805158 0.9907962 0.0805158 0.9907962 0.0805158 0.0092038 -0.0805158
1423000000 0.0088321 -0.0781223 0.9911679 0.0781223 0.9911679 0.0781223 0.0088321 -0.0781223
1444000000 0.0084798 -0.0757773 0.9915202 0.0757773 0.9915202 0.0757773 0.0084798 -0.0757773
1465000000 0.0081459 -0.0734787 0.9918541 0.0734787 0.9918541 0.0734787 0.0081459 -0.0734787
1486000000 0.0078295 -0.0712247 0.9921705 0.0712247 0.9921705 0.0712247 0.0078295 -0.0712247
1507000000 0.0075296 -0.0690134 0.9924704 0.0690134 0.9924704 0.0690134 0.0075296 -0.0690134
1528000000 0.0072455 -0.0668431 0.9927545 0.0668431 0.9927545 0.0668431 0.0072455 -0.0668431
1549000000 0.0069763 -0.0647123 0.9930237 0.0647123 0.9930237 0.0647123 0.0069763 -0.0647123
1570000000 0.0067215 -0.0626193 0.9932785 0.0626193 0.9932785 0.0626193 0.0067215 -0.0626193
1591000000 0.0064801 -0.0605628 0.9935199 0.0605628 0.9935199 0.0605628 0.0064801 -0.0605628
1612000000 0.0062518 -0.0585413 0.9937482 0.0585413 0.9937482 0.0585413 0.0062518 -0.0585413
1633000000 0.0060358 -0.0565536 0.9939642 0.0565536 0.9939642 0.0565536 0.0060358 -0.0565536
1654000000 0.0058315 -0.0545983 0.9941685 0.0545983 0.9941685 0.0545983 0.0058315 -0.0545983
1675000000 0.0056386 -0.0526742 0.9943614 0.0526742 0.9943614 0.0526742 0.0056386 -0.0526742
1696000000 0.0054564 -0.0507803 0.9945436 0.0507803 0.9945436 0.0507803 0.0054564 -0.0507803
1717000000 0.0052846 -0.0489154 0.9947154 0.0489154 0.9947154 0.0489154 0.0052846 -0.0489154
1738000000 0.0051226 -0.0470785 0.9948774 0.0470785 0.9948774 0.0470785 0.0051226 -0.0470785
1759000000 0.0049702 -0.0452685 0.9950298 0.0452685 0.9950298 0.0452685 0.0049702 -0.0452685
1780000000 0.0048268 -0.0434846 0.9951732 0.0434846 0.9951732 0.0434846 0.0048268 -0.0434846
1801000000 0.0046922 -0.0417258 0.9953078 0.0417258 0.9953078 0.0417258 0.0046922 -0.0417258
1822000000 0.0045660 -0.0399912 0.9954340 0.0399912 0.9954340 0.0399912 0.0045660 -0.0399912
1843000000 0.0044479 -0.0382800 0.9955521 0.0382800 0.9955521 0.0382800 0.0044479 -0.0382800
1864000000 0.0043376 -0.0365915 0.9956624 0.0365915 0.9956624 0.0365915 0.0043376 -0.0365915
1885000000 0.0042348 -0.0349248 0.9957652 0.0349248 0.9957652 0.0349248 0.0042348 -0.0349248
1906000000 0.0041392 -0.0332791 0.9958608 0.0332791 0.9958608 0.0332791 0.0041392 -0.0332791
1927000000 0.0040506 -0.0316539 0.9959494 0.0316539 0.9959494 0.0316539 0.0040506 -0.0316539
1948000000 0.0039687 -0.0300485 0.9960313 0.0300485 0.9960313 0.0300485 0.0039687 -0.0300485
1969000000 0.0038934 -0.0284621 0.9961066 0.0284621 0.9961066 0.0284621 0.0038934 -0.0284621
1990000000 0.0038243 -0.0268941 0.9961757 0.0268941 0.9961757 0.0268941 0.0038243 -0.0268941
2011000000 0.0037613 -0.0253440 0.9962387 0.0253440 0.9962387 0.0253440 0.0037613 -0.0253440
2032000000 0.0037043 -0.0238112 0.9962957 0.0238112 0.9962957 0.0238112 0.0037043 -0.0238112
2053000000 0.0036530 -0.0222951 0.9963470 0.0222951 0.9963470 0.0222951 0.0036530 -0.0222951
2074000000 0.0036072 -0.0207952 0.9963928 0.0207952 0.9963928 0.0207952 0.0036072 -0.0207952
2095000000 0.0035668 -0.0193110 0.9964332 0.0193110 0.9964332 0.0193110 0.0035668 -0.0193110
2116000000 0.0035317 -0.0178419 0.9964683 0.0178419 0.9964683 0.0178419 0.0035317 -0.0178419
2137000000 0.0035016 -0.0163875 0.9964984 0.0163875 0.9964984 0.0163875 0.0035016 -0.0163875
2158000000 0.0034765 -0.0149474 0.9965235 0.0149474 0.9965235 0.0149474 0.0034765 -0.0149474
2179000000 0.0034562 -0.0135211 0.9965438 0.0135211 0.9965438 0.0135211 0.0034562 -0.0135211
2200000000 0.0034407 -0.0121081 0.9965593 0.0121081 0.9965593 0.0121081 0.0034407 -0.0121081
2221000000 0.0034296 -0.0107081 0.9965704 0.0107081 0.9965704 0.0107081 0.0034296 -0.0107081
2242000000 0.0034231 -0.0093206 0.9965769 0.0093206 0.9965769 0.0093206 0.0034231 -0.0093206
2263000000 0.0034209 -0.0079453 0.9965791 0.0079453 0.9965791 0.0079453 0.0034209 -0.0079453
2284000000 0.0034230 -0.0065818 0.9965770 0.0065818 0.9965770 0.0065818 0.0034230 -0.0065818
2305000000 0.0034293 -0.0052297 0.9965707 0.0052297 0.9965707 0.0052297 0.0034293 -0.0052297
2326000000 0.0034396 -0.0038887 0.9965604 0.0038887 0.9965604 0.0038887 0.0034396 -0.0038887
2347000000 0.0034540 -0.0025584 0.9965460 0.0025584 0.9965460 0.0025584 0.0034540 -0.0025584
2368000000 0.0034722 -0.0012385 0.9965278 0.0012385 0.9965278 0.0012385 0.0034722 -0.0012385
2389000000 0.0034943 0.0000713 0.9965057 -0.0000713 0.9965057 -0.0000713 0.0034943 0.0000713
2410000000 0.0035202 0.0013713 0.9964798 -0.0013713 0.9964798 -0.0013713 0.0035202 0.0013713
2431000000 0.0035497 0.0026619 0.9964503 -0.0026619 0.9964503 -0.0026619 0.0035497 0.0026619
2452000000 0.0035829 0.0039432 0.9964171 -0.0039432 0.9964171 -0.0039432 0.0035829 0.0039432
2473000000 0.0036197 0.0052157 0.9963803 -0.0052157 0.9963803 -0.0052157 0.0036197 0.0052157
2494000000 0.0036600 0.0064795 0.9963400 -0.0064795 0.9963400 -0.0064795 0.0036600 0.0064795
2515000000 0.0037038 0.0077350 0.9962962 -0.0077350 0.9962962 -0.0077350 0.0037038 0.0077350
2536000000 0.0037510 0.0089824 0.9962490 -0.0089824 0.9962490 -0.0089824 0.0037510 0.0089824
2557000000 0.0038016 0.0102219 0.9961984 -0.0102219 0.9961984 -0.0102219 0.0038016 0.0102219
2578000000 0.0038555 0.0114539 0.9961445 -0.0114539 0.9961445 -0.0114539 0.0038555 0.0114539
2599000000 0.0039126 0.0126784 0.9960874 -0.0126784 0.9960874 -0.0126784 0.0039126 0.0126784
2620000000 0.0039731 0.0138959 0.9960269 -0.0138959 0.9960269 -0.0138959 0.0039731 0.0138959
2641000000 0.0040367 0.0151065 0.9959633 -0.0151065 0.9959633 -0.0151065 0.0040367 0.0151065
2662000000 0.0041036 0.0163104 0.9958964 -0.0163104 0.9958964 -0.0163104 0.0041036 0.0163104
2683000000 0.0041736 0.0175079 0.9958264 -0.0175079 0.9958264 -0.0175079 0.0041736 0.0175079
2704000000 0.0042467 0.0186991 0.9957533 -0.0186991 0.9957533 -0.0186991 0.0042467 0.0186991
2725000000 0.0043230 0.0198843 0.9956770 -0.0198843 0.9956770 -0.0198843 0.0043230 0.0198843
2746000000 0.0044023 0.0210638 0.9955977 -0.0210638 0.9955977 -0.0210638 0.0044023 0.0210638
2767000000 0.0044847 0.0222375 0.9955153 -0.0222375 0.9955153 -0.0222375 0.0044847 0.0222375
2788000000 0.0045702 0.0234059 0.9954298 -0.0234059 0.9954298 -0.0234059 0.0045702 0.0234059
2809000000 0.0046587 0.0245691 0.9953413 -0.0245691 0.9953413 -0.0245691 0.0046587 0.0245691
2830000000 0.0047502 0.0257272 0.9952498 -0.0257272 0.9952498 -0.0257272 0.0047502 0.0257272
2851000000 0.0048447 0.0268805 0.9951553 -0.0268805 0.9951553 -0.0268805 0.0048447 0.0268805
2872000000 0.0049422 0.0280291 0.9950578 -0.0280291 0.9950578 -0.0280291 0.0049422 0.0280291
2893000000 0.0050427 0.0291733 0.9949573 -0.0291733 0.9949573 -0.0291733 0.0050427 0.0291733
2914000000 0.0051463 0.0303131 0.9948537 -0.0303131 0.9948537 -0.0303131 0.0051463 0.0303131
2935000000 0.0052528 0.0314488 0.9947472 -0.0314488 0.9947472 -0.0314488 0.0052528 0.0314488
2956000000 0.0053623 0.0325806 0.9946377 -0.0325806 0.9946377 -0.0325806 0.0053623 0.0325806
2977000000 0.0054749 0.0337086 0.9945251 -0.0337086 0.9945251 -0.0337086 0.0054749 0.0337086
2998000000 0.0055904 0.0348330 0.9944096 -0.0348330 0.9944096 -0.0348330 0.0055904 0.0348330
3019000000 0.0057090 0.0359540 0.9942910 -0.0359540 0.9942910 -0.0359540 0.0057090 0.0359540
3040000000 0.0058306 0.0370717 0.9941694 -0.0370717 0.9941694 -0.0370717 0.0058306 0.0370717
3061000000 0.0059552 0.0381863 0.9940448 -0.0381863 0.9940448 -0.0381863 0.0059552 0.0381863
3082000000 0.0060829 0.0392980 0.9939171 -0.0392980 0.9939171 -0.0392980 0.0060829 0.0392980
3103000000 0.0062137 0.0404069 0.9937863 -0.0404069 0.9937863 -0.0404069 0.0062137 0.0404069
3124000000 0.0063476 0.0415132 0.9936524 -0.0415132 0.9936524 -0.0415132 0.0063476 0.0415132
3145000000 0.0064846 0.0426170 0.9935154 -0.0426170 0.9935154 -0.0426170 0.0064846 0.0426170
3166000000 0.0066248 0.0437186 0.9933752 -0.0437186 0.9933752 -0.0437186 0.0066248 0.0437186
3187000000 0.0067682 0.0448181 0.9932318 -0.0448181 0.9932318 -0.0448181 0.0067682 0.0448181
3208000000 0.0069148 0.0459156 0.9930852 -0.0459156 0.9930852 -0.0459156 0.0069148 0.0459156
3229000000 0.0070646 0.0470114 0.9929354 -0.0470114 0.9929354 -0.0470114 0.0070646 0.0470114
3250000000 0.0072177 0.0481055 0.9927823 -0.0481055 0.9927823 -0.0481055 0.0072177 0.0481055
3271000000 0.0073742 0.0491982 0.9926258 -0.0491982 0.9926258 -0.0491982 0.0073742 0.0491982
3292000000 0.0075340 0.0502896 0.9924660 -0.0502896 0.9924660 -0.0502896 0.0075340 0.0502896
3313000000 0.0076973 0.0513799 0.9923027 -0.0513799 0.9923027 -0.0513799 0.0076973 0.0513799
3334000000 0.0078641 0.0524692 0.9921359 -0.0524692 0.9921359 -0.0524692 0.0078641 0.0524692
3355000000 0.0080344 0.0535578 0.9919656 -0.0535578 0.9919656 -0.0535578 0.0080344 0.0535578
3376000000 0.0082083 0.0546458 0.9917917 -0.0546458 0.9917917 -0.0546458 0.0082083 0.0546458
3397000000 0.0083860 0.0557334 0.9916140 -0.0557334 0.9916140 -0.0557334 0.0083860 0.0557334
3418000000 0.0085673 0.0568207 0.9914327 -0.0568207 0.9914327 -0.0568207 0.0085673 0.0568207
3439000000 0.0087525 0.0579080 0.9912475 -0.0579080 0.9912475 -0.0579080 0.0087525 0.0579080
3460000000 0.0089416 0.0589954 0.9910584 -0.0589954 0.9910584 -0.0589954 0.0089416 0.0589954
3481000000 0.0091348 0.0600831 0.9908652 -0.0600831 0.9908652 -0.0600831 0.0091348 0.0600831
3502000000 0.0093320 0.0611714 0.9906680 -0.0611714 0.9906680 -0.0611714 0.0093320 0.0611714
3523000000 0.0095334 0.0622604 0.9904666 -0.0622604 0.9904666 -0.0622604 0.0095334 0.0622604
3544000000 0.0097392 0.0633503 0.9902608 -0.0633503 0.9902608 -0.0633503 0.0097392 0.0633503
3565000000 0.0099494 0.0644413 0.9900506 -0.0644413 0.9900506 -0.0644413 0.0099494 0.0644413
3586000000 0.0101641 0.0655337 0.9898359 -0.0655337 0.9898359 -0.0655337 0.0101641 0.0655337
3607000000 0.0103836 0.0666277 0.9896164 -0.0666277 0.9896164 -0.0666277 0.0103836 0.0666277
3628000000 0.0106079 0.0677235 0.9893921 -0.0677235 0.9893921 -0.0677235 0.0106079 0.0677235
3649000000 0.0108372 0.0688213 0.9891628 -0.0688213 0.9891628 -0.0688213 0.0108372 0.0688213
3670000000 0.0110716 0.0699214 0.9889284 -0.0699214 0.9889284 -0.0699214 0.0110716 0.0699214
3691000000 0.0113115 0.0710241 0.9886885 -0.0710241 0.9886885 -0.0710241 0.0113115 0.0710241
3712000000 0.0115569 0.0721296 0.9884431 -0.0721296 0.9884431 -0.0721296 0.0115569 0.0721296
3733000000 0.0118080 0.0732382 0.9881920 -0.0732382 0.9881920 -0.0732382 0.0118080 0.0732382
3754000000 0.0120652 0.0743501 0.9879348 -0.0743501 0.9879348 -0.0743501 0.0120652 0.0743501
3775000000 0.0123285 0.0754658 0.9876715 -0.0754658 0.9876715 -0.0754658 0.0123285 0.0754658
3796000000 0.0125984 0.0765854 0.9874016 -0.0765854 0.9874016 -0.0765854 0.0125984 0.0765854
3817000000 0.0128751 0.0777094 0.9871249 -0.0777094 0.9871249 -0.0777094 0.0128751 0.0777094
3838000000 0.0131589 0.0788380 0.9868411 -0.0788380 0.9868411 -0.0788380 0.0131589 0.0788380
3859000000 0.0134501 0.0799717 0.9865499 -0.0799717 0.9865499 -0.0799717 0.0134501 0.0799717
3880000000 0.0137491 0.0811107 0.9862509 -0.0811107 0.9862509 -0.0811107 0.0137491 0.0811107
3901000000 0.0140564 0.0822556 0.9859436 -0.0822556 0.9859436 -0.0822556 0.0140564 0.0822556
3922000000 0.0143722 0.0834067 0.9856278 -0.0834067 0.9856278 -0.0834067 0.0143722 0.0834067
3943000000 0.0146972 0.0845644 0.9853028 -0.0845644 0.9853028 -0.0845644 0.0146972 0.0845644
3964000000 0.0150318 0.0857293 0.9849682 -0.0857293 0.9849682 -0.0857293 0.0150318 0.0857293
3985000000 0.0153766 0.0869017 0.9846234 -0.0869017 0.9846234 -0.0869017 0.0153766 0.0869017
4006000000 0.0157322 0.0880823 0.9842678 -0.0880823 0.9842678 -0.0880823 0.0157322 0.0880823
4027000000 0.0160993 0.0892716 0.9839007 -0.0892716 0.9839007 -0.0892716 0.0160993 0.0892716
4048000000 0.0164786 0.0904702 0.9835214 -0.0904702 0.9835214 -0.0904702 0.0164786 0.0904702
4069000000 0.0168710 0.0916786 0.9831290 -0.0916786 0.9831290 -0.0916786 0.0168710 0.0916786
4090000000 0.0172773 0.0928975 0.9827227 -0.0928975 0.9827227 -0.0928975 0.0172773 0.0928975
4111000000 0.0176986 0.0941277 0.9823014 -0.0941277 0.9823014 -0.0941277 0.0176986 0.0941277
4132000000 0.0181360 0.0953698 0.9818640 -0.0953698 0.9818640 -0.0953698 0.0181360 0.0953698
4153000000 0.0185907 0.0966246 0.9814093 -0.0966246 0.9814093 -0.0966246 0.0185907 0.0966246
4174000000 0.0190642 0.0978929 0.9809358 -0.0978929 0.9809358 -0.0978929 0.0190642 0.0978929
4195000000 0.0195579 0.0991757 0.9804421 -0.0991757 0.9804421 -0.0991757 0.0195579 0.0991757
4216000000 0.0200735 0.1004737 0.9799265 -0.1004737 0.9799265 -0.1004737 0.0200735 0.1004737
4237000000 0.0206131 0.1017880 0.9793869 -0.1017880 0.9793869 -0.1017880 0.0206131 0.1017880
4258000000 0.0211788 0.1031196 0.9788212 -0.1031196 0.9788212 -0.1031196 0.0211788 0.1031196
4279000000 0.0217730 0.1044695 0.9782270 -0.1044695 0.9782270 -0.1044695 0.0217730 0.1044695
4300000000 0.0223985 0.1058388 0.9776015 -0.1058388 0.9776015 -0.1058388 0.0223985 0.1058388
4321000000 0.0230585 0.1072287 0.9769415 -0.1072287 0.9769415 -0.1072287 0.0230585 0.1072287
4342000000 0.0237565 0.1086404 0.9762435 -0.1086404 0.9762435 -0.1086404 0.0237565 0.1086404
4363000000 0.0244967 0.1100749 0.9755033 -0.1100749 0.9755033 -0.1100749 0.0244967 0.1100749
4384000000 0.0252837 0.1115334 0.9747163 -0.1115334 0.9747163 -0.1115334 0.0252837 0.1115334
4405000000 0.0261229 0.1130170 0.9738771 -0.1130170 0.9738771 -0.1130170 0.0261229 0.1130170
4426000000 0.0270205 0.1145267 0.9729795 -0.1145267 0.9729795 -0.1145267 0.0270205 0.1145267
4447000000 0.0279835 0.1160633 0.9720165 -0.1160633 0.9720165 -0.1160633 0.0279835 0.1160633
4468000000 0.0290203 0.1176274 0.9709797 -0.1176274 0.9709797 -0.1176274 0.0290203 0.1176274
4489000000 0.0301404 0.1192191 0.9698596 -0.1192191 0.9698596 -0.1192191 0.0301404 0.1192191
4510000000 0.0313549 0.1208380 0.9686451 -0.1208380 0.9686451 -0.1208380 0.0313549 0.1208380
