!Murata Part Number: GRM1882C2A8R7DA01
!These Parameters are Measured in Series Mode Connection
!Data Generated on Mar 30, 2021
!       o--ll--o
!Port1            Port2
!       o------o
!Operation Temp=25[degC], DC Bias Voltage=0[V]
!Freq. Start=100[MHz] Stop=9[GHz] 401[Steps]
# Hz S RI R 50
!Freq.(Hz) S11(Real) S11(Imag) S21(Real) S21(Imag) S12(Real) S12(Imag) S22(Real) S22(Imag)
100000000 0.7691342 -0.4210745 0.2308658 0.4210745 0.2308658 0.4210745 0.7691342 -0.4210745
121000000 0.6943665 -0.4602840 0.3056335 0.4602840 0.3056335 0.4602840 0.6943665 -0.4602840
142000000 0.6221516 -0.4843725 0.3778484 0.4843725 0.3778484 0.4843725 0.6221516 -0.4843725
163000000 0.5549596 -0.4964001 0.4450404 0.4964001 0.4450404 0.4964001 0.5549596 -0.4964001
184000000 0.4939979 -0.4992927 0.5060021 0.4992927 0.5060021 0.4992927 0.4939979 -0.4992927
205000000 0.4396037 -0.4955585 0.5603963 0.4955585 0.5603963 0.4955585 0.4396037 -0.4955585
226000000 0.3915819 -0.4872064 0.6084181 0.4872064 0.6084181 0.4872064 0.3915819 -0.4872064
247000000 0.3494526 -0.4757743 0.6505474 0.4757743 0.6505474 0.4757743 0.3494526 -0.4757743
268000000 0.3126126 -0.4624020 0.6873874 0.4624020 0.6873874 0.4624020 0.3126126 -0.4624020
289000000 0.2804335 -0.4479145 0.7195665 0.4479145 0.7195665 0.4479145 0.2804335 -0.4479145
310000000 0.2523142 -0.4328962 0.7476858 0.4328962 0.7476858 0.4328962 0.2523142 -0.4328962
331000000 0.2277071 -0.4177536 0.7722929 0.4177536 0.7722929 0.4177536 0.2277071 -0.4177536
352000000 0.2061274 -0.4027629 0.7938726 0.4027629 0.7938726 0.4027629 0.2061274 -0.4027629
373000000 0.1871534 -0.3881073 0.8128466 0.3881073 0.8128466 0.3881073 0.1871534 -0.3881073
394000000 0.1704220 -0.3739029 0.8295780 0.3739029 0.8295780 0.3739029 0.1704220 -0.3739029
415000000 0.1556229 -0.3602191 0.8443771 0.3602191 0.8443771 0.3602191 0.1556229 -0.3602191
436000000 0.1424918 -0.3470923 0.8575082 0.3470923 0.8575082 0.3470923 0.1424918 -0.3470923
457000000 0.1308040 -0.3345363 0.8691960 0.3345363 0.8691960 0.3345363 0.1308040 -0.3345363
478000000 0.1203681 -0.3225495 0.8796319 0.3225495 0.8796319 0.3225495 0.1203681 -0.3225495
499000000 0.1110214 -0.3111201 0.8889786 0.3111201 0.8889786 0.3111201 0.1110214 -0.3111201
520000000 0.1026251 -0.3002294 0.8973749 0.3002294 0.8973749 0.3002294 0.1026251 -0.3002294
541000000 0.0950607 -0.2898551 0.9049393 0.2898551 0.9049393 0.2898551 0.0950607 -0.2898551
562000000 0.0882266 -0.2799723 0.9117734 0.2799723 0.9117734 0.2799723 0.0882266 -0.2799723
583000000 0.0820357 -0.2705554 0.9179643 0.2705554 0.9179643 0.2705554 0.0820357 -0.2705554
604000000 0.0764130 -0.2615784 0.9235870 0.2615784 0.9235870 0.2615784 0.0764130 -0.2615784
625000000 0.0712934 -0.2530161 0.9287066 0.2530161 0.9287066 0.2530161 0.0712934 -0.2530161
646000000 0.0666210 -0.2448439 0.9333790 0.2448439 0.9333790 0.2448439 0.0666210 -0.2448439
667000000 0.0623471 -0.2370381 0.9376529 0.2370381 0.9376529 0.2370381 0.0623471 -0.2370381
688000000 0.0584290 -0.2295766 0.9415710 0.2295766 0.9415710 0.2295766 0.0584290 -0.2295766
709000000 0.0548297 -0.2224383 0.9451703 0.2224383 0.9451703 0.2224383 0.0548297 -0.2224383
730000000 0.0515167 -0.2156033 0.9484833 0.2156033 0.9484833 0.2156033 0.0515167 -0.2156033
751000000 0.0484615 -0.2090532 0.9515385 0.2090532 0.9515385 0.2090532 0.0484615 -0.2090532
772000000 0.0456390 -0.2027705 0.9543610 0.2027705 0.9543610 0.2027705 0.0456390 -0.2027705
793000000 0.0430268 -0.1967391 0.9569732 0.1967391 0.9569732 0.1967391 0.0430268 -0.1967391
814000000 0.0406054 -0.1909439 0.9593946 0.1909439 0.9593946 0.1909439 0.0406054 -0.1909439
835000000 0.0383573 -0.1853709 0.9616427 0.1853709 0.9616427 0.1853709 0.0383573 -0.1853709
856000000 0.0362669 -0.1800069 0.9637331 0.1800069 0.9637331 0.1800069 0.0362669 -0.1800069
877000000 0.0343205 -0.1748398 0.9656795 0.1748398 0.9656795 0.1748398 0.0343205 -0.1748398
898000000 0.0325057 -0.1698583 0.9674943 0.1698583 0.9674943 0.1698583 0.0325057 -0.1698583
919000000 0.0308113 -0.1650517 0.9691887 0.1650517 0.9691887 0.1650517 0.0308113 -0.1650517
940000000 0.0292275 -0.1604103 0.9707725 0.1604103 0.9707725 0.1604103 0.0292275 -0.1604103
961000000 0.0277453 -0.1559248 0.9722547 0.1559248 0.9722547 0.1559248 0.0277453 -0.1559248
982000000 0.0263565 -0.1515868 0.9736435 0.1515868 0.9736435 0.1515868 0.0263565 -0.1515868
1003000000 0.0250541 -0.1473882 0.9749459 0.1473882 0.9749459 0.1473882 0.0250541 -0.1473882
1024000000 0.0238312 -0.1433217 0.9761688 0.1433217 0.9761688 0.1433217 0.0238312 -0.1433217
1045000000 0.0226821 -0.1393802 0.9773179 0.1393802 0.9773179 0.1393802 0.0226821 -0.1393802
1066000000 0.0216012 -0.1355572 0.9783988 0.1355572 0.9783988 0.1355572 0.0216012 -0.1355572
1087000000 0.0205836 -0.1318467 0.9794164 0.1318467 0.9794164 0.1318467 0.0205836 -0.1318467
1108000000 0.0196249 -0.1282431 0.9803751 0.1282431 0.9803751 0.1282431 0.0196249 -0.1282431
1129000000 0.0187209 -0.1247408 0.9812791 0.1247408 0.9812791 0.1247408 0.0187209 -0.1247408
1150000000 0.0178679 -0.1213351 0.9821321 0.1213351 0.9821321 0.1213351 0.0178679 -0.1213351
1171000000 0.0170625 -0.1180211 0.9829375 0.1180211 0.9829375 0.1180211 0.0170625 -0.1180211
1192000000 0.0163016 -0.1147945 0.9836984 0.1147945 0.9836984 0.1147945 0.0163016 -0.1147945
1213000000 0.0155821 -0.1116511 0.9844179 0.1116511 0.9844179 0.1116511 0.0155821 -0.1116511
1234000000 0.0149016 -0.1085870 0.9850984 0.1085870 0.9850984 0.1085870 0.0149016 -0.1085870
1255000000 0.0142576 -0.1055987 0.9857424 0.1055987 0.9857424 0.1055987 0.0142576 -0.1055987
1276000000 0.0136477 -0.1026826 0.9863523 0.1026826 0.9863523 0.1026826 0.0136477 -0.1026826
1297000000 0.0130700 -0.0998354 0.9869300 0.0998354 0.9869300 0.0998354 0.0130700 -0.0998354
1318000000 0.0125226 -0.0970542 0.9874774 0.0970542 0.9874774 0.0970542 0.0125226 -0.0970542
1339000000 0.0120036 -0.0943361 0.9879964 0.0943361 0.9879964 0.0943361 0.0120036 -0.0943361
1360000000 0.0115115 -0.0916782 0.9884885 0.0916782 0.9884885 0.0916782 0.0115115 -0.0916782
1381000000 0.0110447 -0.0890781 0.9889553 0.0890781 0.9889553 0.0890781 0.0110447 -0.0890781
1402000000 0.0106018 -0.0865333 0.9893982 0.0865333 0.9893982 0.0865333 0.0106018 -0.0865333
1423000000 0.0101814 -0.0840414 0.9898186 0.0840414 0.9898186 0.0840414 0.0101814 -0.0840414
1444000000 0.0097825 -0.0816004 0.9902175 0.0816004 0.9902175 0.0816004 0.0097825 -0.0816004
1465000000 0.0094039 -0.0792080 0.9905961 0.0792080 0.9905961 0.0792080 0.0094039 -0.0792080
1486000000 0.0090444 -0.0768625 0.9909556 0.0768625 0.9909556 0.0768625 0.0090444 -0.0768625
1507000000 0.0087031 -0.0745618 0.9912969 0.0745618 0.9912969 0.0745618 0.0087031 -0.0745618
1528000000 0.0083792 -0.0723042 0.9916208 0.0723042 0.9916208 0.0723042 0.0083792 -0.0723042
1549000000 0.0080717 -0.0700881 0.9919283 0.0700881 0.9919283 0.0700881 0.0080717 -0.0700881
1570000000 0.0077798 -0.0679118 0.9922202 0.0679118 0.9922202 0.0679118 0.0077798 -0.0679118
1591000000 0.0075029 -0.0657738 0.9924971 0.0657738 0.9924971 0.0657738 0.0075029 -0.0657738
1612000000 0.0072401 -0.0636727 0.9927599 0.0636727 0.9927599 0.0636727 0.0072401 -0.0636727
1633000000 0.0069909 -0.0616071 0.9930091 0.0616071 0.9930091 0.0616071 0.0069909 -0.0616071
1654000000 0.0067546 -0.0595756 0.9932454 0.0595756 0.9932454 0.0595756 0.0067546 -0.0595756
1675000000 0.0065307 -0.0575771 0.9934693 0.0575771 0.9934693 0.0575771 0.0065307 -0.0575771
1696000000 0.0063185 -0.0556103 0.9936815 0.0556103 0.9936815 0.0556103 0.0063185 -0.0556103
1717000000 0.0061177 -0.0536741 0.9938823 0.0536741 0.9938823 0.0536741 0.0061177 -0.0536741
1738000000 0.0059277 -0.0517674 0.9940723 0.0517674 0.9940723 0.0517674 0.0059277 -0.0517674
1759000000 0.0057480 -0.0498892 0.9942520 0.0498892 0.9942520 0.0498892 0.0057480 -0.0498892
1780000000 0.0055783 -0.0480384 0.9944217 0.0480384 0.9944217 0.0480384 0.0055783 -0.0480384
1801000000 0.0054182 -0.0462141 0.9945818 0.0462141 0.9945818 0.0462141 0.0054182 -0.0462141
1822000000 0.0052672 -0.0444154 0.9947328 0.0444154 0.9947328 0.0444154 0.0052672 -0.0444154
1843000000 0.0051250 -0.0426415 0.9948750 0.0426415 0.9948750 0.0426415 0.0051250 -0.0426415
1864000000 0.0049913 -0.0408914 0.9950087 0.0408914 0.9950087 0.0408914 0.0049913 -0.0408914
1885000000 0.0048658 -0.0391645 0.9951342 0.0391645 0.9951342 0.0391645 0.0048658 -0.0391645
1906000000 0.0047481 -0.0374598 0.9952519 0.0374598 0.9952519 0.0374598 0.0047481 -0.0374598
1927000000 0.0046381 -0.0357768 0.9953619 0.0357768 0.9953619 0.0357768 0.0046381 -0.0357768
1948000000 0.0045353 -0.0341146 0.9954647 0.0341146 0.9954647 0.0341146 0.0045353 -0.0341146
1969000000 0.0044396 -0.0324726 0.9955604 0.0324726 0.9955604 0.0324726 0.0044396 -0.0324726
1990000000 0.0043507 -0.0308501 0.9956493 0.0308501 0.9956493 0.0308501 0.0043507 -0.0308501
2011000000 0.0042685 -0.0292466 0.9957315 0.0292466 0.9957315 0.0292466 0.0042685 -0.0292466
2032000000 0.0041926 -0.0276614 0.9958074 0.0276614 0.9958074 0.0276614 0.0041926 -0.0276614
2053000000 0.0041229 -0.0260939 0.9958771 0.0260939 0.9958771 0.0260939 0.0041229 -0.0260939
2074000000 0.0040592 -0.0245436 0.9959408 0.0245436 0.9959408 0.0245436 0.0040592 -0.0245436
2095000000 0.0040013 -0.0230100 0.9959987 0.0230100 0.9959987 0.0230100 0.0040013 -0.0230100
2116000000 0.0039491 -0.0214924 0.9960509 0.0214924 0.9960509 0.0214924 0.0039491 -0.0214924
2137000000 0.0039023 -0.0199905 0.9960977 0.0199905 0.9960977 0.0199905 0.0039023 -0.0199905
2158000000 0.0038609 -0.0185037 0.9961391 0.0185037 0.9961391 0.0185037 0.0038609 -0.0185037
2179000000 0.0038247 -0.0170316 0.9961753 0.0170316 0.9961753 0.0170316 0.0038247 -0.0170316
2200000000 0.0037935 -0.0155737 0.9962065 0.0155737 0.9962065 0.0155737 0.0037935 -0.0155737
2221000000 0.0037672 -0.0141296 0.9962328 0.0141296 0.9962328 0.0141296 0.0037672 -0.0141296
2242000000 0.0037457 -0.0126988 0.9962543 0.0126988 0.9962543 0.0126988 0.0037457 -0.0126988
2263000000 0.0037288 -0.0112810 0.9962712 0.0112810 0.9962712 0.0112810 0.0037288 -0.0112810
2284000000 0.0037166 -0.0098758 0.9962834 0.0098758 0.9962834 0.0098758 0.0037166 -0.0098758
2305000000 0.0037088 -0.0084828 0.9962912 0.0084828 0.9962912 0.0084828 0.0037088 -0.0084828
2326000000 0.0037053 -0.0071016 0.9962947 0.0071016 0.9962947 0.0071016 0.0037053 -0.0071016
2347000000 0.0037061 -0.0057318 0.9962939 0.0057318 0.9962939 0.0057318 0.0037061 -0.0057318
2368000000 0.0037111 -0.0043732 0.9962889 0.0043732 0.9962889 0.0043732 0.0037111 -0.0043732
2389000000 0.0037201 -0.0030254 0.9962799 0.0030254 0.9962799 0.0030254 0.0037201 -0.0030254
2410000000 0.0037332 -0.0016880 0.9962668 0.0016880 0.9962668 0.0016880 0.0037332 -0.0016880
2431000000 0.0037502 -0.0003608 0.9962498 0.0003608 0.9962498 0.0003608 0.0037502 -0.0003608
2452000000 0.0037711 0.0009566 0.9962289 -0.0009566 0.9962289 -0.0009566 0.0037711 0.0009566
2473000000 0.0037957 0.0022644 0.9962043 -0.0022644 0.9962043 -0.0022644 0.0037957 0.0022644
2494000000 0.0038241 0.0035630 0.9961759 -0.0035630 0.9961759 -0.0035630 0.0038241 0.0035630
2515000000 0.0038562 0.0048525 0.9961438 -0.0048525 0.9961438 -0.0048525 0.0038562 0.0048525
2536000000 0.0038919 0.0061334 0.9961081 -0.0061334 0.9961081 -0.0061334 0.0038919 0.0061334
2557000000 0.0039311 0.0074059 0.9960689 -0.0074059 0.9960689 -0.0074059 0.0039311 0.0074059
2578000000 0.0039739 0.0086701 0.9960261 -0.0086701 0.9960261 -0.0086701 0.0039739 0.0086701
2599000000 0.0040201 0.0099265 0.9959799 -0.0099265 0.9959799 -0.0099265 0.0040201 0.0099265
2620000000 0.0040698 0.0111751 0.9959302 -0.0111751 0.9959302 -0.0111751 0.0040698 0.0111751
2641000000 0.0041229 0.0124163 0.9958771 -0.0124163 0.9958771 -0.0124163 0.0041229 0.0124163
2662000000 0.0041793 0.0136503 0.9958207 -0.0136503 0.9958207 -0.0136503 0.0041793 0.0136503
2683000000 0.0042391 0.0148774 0.9957609 -0.0148774 0.9957609 -0.0148774 0.0042391 0.0148774
2704000000 0.0043021 0.0160976 0.9956979 -0.0160976 0.9956979 -0.0160976 0.0043021 0.0160976
2725000000 0.0043684 0.0173114 0.9956316 -0.0173114 0.9956316 -0.0173114 0.0043684 0.0173114
2746000000 0.0044380 0.0185188 0.9955620 -0.0185188 0.9955620 -0.0185188 0.0044380 0.0185188
2767000000 0.0045108 0.0197201 0.9954892 -0.0197201 0.9954892 -0.0197201 0.0045108 0.0197201
2788000000 0.0045868 0.0209156 0.9954132 -0.0209156 0.9954132 -0.0209156 0.0045868 0.0209156
2809000000 0.0046660 0.0221053 0.9953340 -0.0221053 0.9953340 -0.0221053 0.0046660 0.0221053
2830000000 0.0047484 0.0232895 0.9952516 -0.0232895 0.9952516 -0.0232895 0.0047484 0.0232895
2851000000 0.0048339 0.0244684 0.9951661 -0.0244684 0.9951661 -0.0244684 0.0048339 0.0244684
2872000000 0.0049226 0.0256422 0.9950774 -0.0256422 0.9950774 -0.0256422 0.0049226 0.0256422
2893000000 0.0050145 0.0268111 0.9949855 -0.0268111 0.9949855 -0.0268111 0.0050145 0.0268111
2914000000 0.0051095 0.0279753 0.9948905 -0.0279753 0.9948905 -0.0279753 0.0051095 0.0279753
2935000000 0.0052077 0.0291349 0.9947923 -0.0291349 0.9947923 -0.0291349 0.0052077 0.0291349
2956000000 0.0053090 0.0302902 0.9946910 -0.0302902 0.9946910 -0.0302902 0.0053090 0.0302902
2977000000 0.0054135 0.0314412 0.9945865 -0.0314412 0.9945865 -0.0314412 0.0054135 0.0314412
2998000000 0.0055211 0.0325883 0.9944789 -0.0325883 0.9944789 -0.0325883 0.0055211 0.0325883
3019000000 0.0056319 0.0337315 0.9943681 -0.0337315 0.9943681 -0.0337315 0.0056319 0.0337315
3040000000 0.0057460 0.0348711 0.9942540 -0.0348711 0.9942540 -0.0348711 0.0057460 0.0348711
3061000000 0.0058632 0.0360072 0.9941368 -0.0360072 0.9941368 -0.0360072 0.0058632 0.0360072
3082000000 0.0059837 0.0371400 0.9940163 -0.0371400 0.9940163 -0.0371400 0.0059837 0.0371400
3103000000 0.0061074 0.0382696 0.9938926 -0.0382696 0.9938926 -0.0382696 0.0061074 0.0382696
3124000000 0.0062344 0.0393963 0.9937656 -0.0393963 0.9937656 -0.0393963 0.0062344 0.0393963
3145000000 0.0063647 0.0405202 0.9936353 -0.0405202 0.9936353 -0.0405202 0.0063647 0.0405202
3166000000 0.0064983 0.0416414 0.9935017 -0.0416414 0.9935017 -0.0416414 0.0064983 0.0416414
3187000000 0.0066354 0.0427602 0.9933646 -0.0427602 0.9933646 -0.0427602 0.0066354 0.0427602
3208000000 0.0067758 0.0438767 0.9932242 -0.0438767 0.9932242 -0.0438767 0.0067758 0.0438767
3229000000 0.0069197 0.0449911 0.9930803 -0.0449911 0.9930803 -0.0449911 0.0069197 0.0449911
3250000000 0.0070671 0.0461035 0.9929329 -0.0461035 0.9929329 -0.0461035 0.0070671 0.0461035
3271000000 0.0072180 0.0472141 0.9927820 -0.0472141 0.9927820 -0.0472141 0.0072180 0.0472141
3292000000 0.0073726 0.0483232 0.9926274 -0.0483232 0.9926274 -0.0483232 0.0073726 0.0483232
3313000000 0.0075308 0.0494308 0.9924692 -0.0494308 0.9924692 -0.0494308 0.0075308 0.0494308
3334000000 0.0076927 0.0505371 0.9923073 -0.0505371 0.9923073 -0.0505371 0.0076927 0.0505371
3355000000 0.0078585 0.0516424 0.9921415 -0.0516424 0.9921415 -0.0516424 0.0078585 0.0516424
3376000000 0.0080281 0.0527467 0.9919719 -0.0527467 0.9919719 -0.0527467 0.0080281 0.0527467
3397000000 0.0082016 0.0538504 0.9917984 -0.0538504 0.9917984 -0.0538504 0.0082016 0.0538504
3418000000 0.0083792 0.0549534 0.9916208 -0.0549534 0.9916208 -0.0549534 0.0083792 0.0549534
3439000000 0.0085609 0.0560562 0.9914391 -0.0560562 0.9914391 -0.0560562 0.0085609 0.0560562
3460000000 0.0087468 0.0571587 0.9912532 -0.0571587 0.9912532 -0.0571587 0.0087468 0.0571587
3481000000 0.0089370 0.0582613 0.9910630 -0.0582613 0.9910630 -0.0582613 0.0089370 0.0582613
3502000000 0.0091317 0.0593641 0.9908683 -0.0593641 0.9908683 -0.0593641 0.0091317 0.0593641
3523000000 0.0093309 0.0604672 0.9906691 -0.0604672 0.9906691 -0.0604672 0.0093309 0.0604672
3544000000 0.0095347 0.0615710 0.9904653 -0.0615710 0.9904653 -0.0615710 0.0095347 0.0615710
3565000000 0.0097434 0.0626756 0.9902566 -0.0626756 0.9902566 -0.0626756 0.0097434 0.0626756
3586000000 0.0099569 0.0637813 0.9900431 -0.0637813 0.9900431 -0.0637813 0.0099569 0.0637813
3607000000 0.0101756 0.0648882 0.9898244 -0.0648882 0.9898244 -0.0648882 0.0101756 0.0648882
3628000000 0.0103996 0.0659966 0.9896004 -0.0659966 0.9896004 -0.0659966 0.0103996 0.0659966
3649000000 0.0106289 0.0671066 0.9893711 -0.0671066 0.9893711 -0.0671066 0.0106289 0.0671066
3670000000 0.0108639 0.0682186 0.9891361 -0.0682186 0.9891361 -0.0682186 0.0108639 0.0682186
3691000000 0.0111047 0.0693328 0.9888953 -0.0693328 0.9888953 -0.0693328 0.0111047 0.0693328
3712000000 0.0113515 0.0704494 0.9886485 -0.0704494 0.9886485 -0.0704494 0.0113515 0.0704494
3733000000 0.0116046 0.0715687 0.9883954 -0.0715687 0.9883954 -0.0715687 0.0116046 0.0715687
3754000000 0.0118642 0.0726909 0.9881358 -0.0726909 0.9881358 -0.0726909 0.0118642 0.0726909
3775000000 0.0121305 0.0738164 0.9878695 -0.0738164 0.9878695 -0.0738164 0.0121305 0.0738164
3796000000 0.0124039 0.0749454 0.9875961 -0.0749454 0.9875961 -0.0749454 0.0124039 0.0749454
3817000000 0.0126846 0.0760782 0.9873154 -0.0760782 0.9873154 -0.0760782 0.0126846 0.0760782
3838000000 0.0129730 0.0772151 0.9870270 -0.0772151 0.9870270 -0.0772151 0.0129730 0.0772151
3859000000 0.0132694 0.0783564 0.9867306 -0.0783564 0.9867306 -0.0783564 0.0132694 0.0783564
3880000000 0.0135742 0.0795025 0.9864258 -0.0795025 0.9864258 -0.0795025 0.0135742 0.0795025
3901000000 0.0138879 0.0806538 0.9861121 -0.0806538 0.9861121 -0.0806538 0.0138879 0.0806538
3922000000 0.0142107 0.0818105 0.9857893 -0.0818105 0.9857893 -0.0818105 0.0142107 0.0818105
3943000000 0.0145433 0.0829730 0.9854567 -0.0829730 0.9854567 -0.0829730 0.0145433 0.0829730
3964000000 0.0148862 0.0841418 0.9851138 -0.0841418 0.9851138 -0.0841418 0.0148862 0.0841418
3985000000 0.0152398 0.0853173 0.9847602 -0.0853173 0.9847602 -0.0853173 0.0152398 0.0853173
4006000000 0.0156049 0.0864998 0.9843951 -0.0864998 0.9843951 -0.0864998 0.0156049 0.0864998
4027000000 0.0159820 0.0876898 0.9840180 -0.0876898 0.9840180 -0.0876898 0.0159820 0.0876898
4048000000 0.0163718 0.0888878 0.9836282 -0.0888878 0.9836282 -0.0888878 0.0163718 0.0888878
4069000000 0.0167753 0.0900942 0.9832247 -0.0900942 0.9832247 -0.0900942 0.0167753 0.0900942
4090000000 0.0171931 0.0913096 0.9828069 -0.0913096 0.9828069 -0.0913096 0.0171931 0.0913096
4111000000 0.0176263 0.0925344 0.9823737 -0.0925344 0.9823737 -0.0925344 0.0176263 0.0925344
4132000000 0.0180758 0.0937693 0.9819242 -0.0937693 0.9819242 -0.0937693 0.0180758 0.0937693
4153000000 0.0185427 0.0950147 0.9814573 -0.0950147 0.9814573 -0.0950147 0.0185427 0.0950147
4174000000 0.0190284 0.0962713 0.9809716 -0.0962713 0.9809716 -0.0962713 0.0190284 0.0962713
4195000000 0.0195341 0.0975396 0.9804659 -0.0975396 0.9804659 -0.0975396 0.0195341 0.0975396
4216000000 0.0200612 0.0988204 0.9799388 -0.0988204 0.9799388 -0.0988204 0.0200612 0.0988204
4237000000 0.0206115 0.1001141 0.9793885 -0.1001141 0.9793885 -0.1001141 0.0206115 0.1001141
4258000000 0.0211867 0.1014215 0.9788133 -0.1014215 0.9788133 -0.1014215 0.0211867 0.1014215
4279000000 0.0217887 0.1027432 0.9782113 -0.1027432 0.9782113 -0.1027432 0.0217887 0.1027432
4300000000 0.0224199 0.1040799 0.9775801 -0.1040799 0.9775801 -0.1040799 0.0224199 0.1040799
4321000000 0.0230827 0.1054322 0.9769173 -0.1054322 0.9769173 -0.1054322 0.0230827 0.1054322
4342000000 0.0237797 0.1068009 0.9762203 -0.1068009 0.9762203 -0.1068009 0.0237797 0.1068009
4363000000 0.0245140 0.1081864 0.9754860 -0.1081864 0.9754860 -0.1081864 0.0245140 0.1081864
4384000000 0.0252890 0.1095894 0.9747110 -0.1095894 0.9747110 -0.1095894 0.0252890 0.1095894
4405000000 0.0261085 0.1110104 0.9738915 -0.1110104 0.9738915 -0.1110104 0.0261085 0.1110104
4426000000 0.0269767 0.1124497 0.9730233 -0.1124497 0.9730233 -0.1124497 0.0269767 0.1124497
4447000000 0.0278984 0.1139077 0.9721016 -0.1139077 0.9721016 -0.1139077 0.0278984 0.1139077
4468000000 0.0288789 0.1153844 0.9711211 -0.1153844 0.9711211 -0.1153844 0.0288789 0.1153844
4489000000 0.0299241 0.1168797 0.9700759 -0.1168797 0.9700759 -0.1168797 0.0299241 0.1168797
4510000000 0.0310410 0.1183929 0.9689590 -0.1183929 0.9689590 -0.1183929 0.0310410 0.1183929
