!Murata Part Number: GRM1883U1H152JA01
!These Parameters are Measured in Series Mode Connection
!Data Generated on Mar 30, 2021
!       o--ll--o
!Port1            Port2
!       o------o
!Operation Temp=25[degC], DC Bias Voltage=0[V]
!Freq. Start=1000[kHz] Stop=6[GHz] 401[Steps]
# Hz S RI R 50
!Freq.(Hz) S11(Real) S11(Imag) S21(Real) S21(Imag) S12(Real) S12(Imag) S22(Real) S22(Imag)
1000000 0.5326698 -0.4988317 0.4673302 0.4988317 0.4673302 0.4988317 0.5326698 -0.4988317
1021987 0.5218294 -0.4994212 0.4781706 0.4994212 0.4781706 0.4994212 0.5218294 -0.4994212
1044457 0.5109684 -0.4997754 0.4890316 0.4997754 0.4890316 0.4997754 0.5109684 -0.4997754
1067422 0.5000972 -0.4998934 0.4999028 0.4998934 0.4999028 0.4998934 0.5000972 -0.4998934
1090891 0.4892259 -0.4997750 0.5107741 0.4997750 0.5107741 0.4997750 0.4892259 -0.4997750
1114877 0.4783649 -0.4994204 0.5216351 0.4994204 0.5216351 0.4994204 0.4783649 -0.4994204
1139390 0.4675243 -0.4988304 0.5324757 0.4988304 0.5324757 0.4988304 0.4675243 -0.4988304
1164441 0.4567144 -0.4980065 0.5432856 0.4980065 0.5432856 0.4980065 0.4567144 -0.4980065
1190044 0.4459452 -0.4969506 0.5540548 0.4969506 0.5540548 0.4969506 0.4459452 -0.4969506
1216210 0.4352266 -0.4956652 0.5647734 0.4956652 0.5647734 0.4956652 0.4352266 -0.4956652
1242950 0.4245682 -0.4941531 0.5754318 0.4941531 0.5754318 0.4941531 0.4245682 -0.4941531
1270279 0.4139797 -0.4924180 0.5860203 0.4924180 0.5860203 0.4924180 0.4139797 -0.4924180
1298209 0.4034701 -0.4904638 0.5965299 0.4904638 0.5965299 0.4904638 0.4034701 -0.4904638
1326753 0.3930485 -0.4882949 0.6069515 0.4882949 0.6069515 0.4882949 0.3930485 -0.4882949
1355924 0.3827234 -0.4859162 0.6172766 0.4859162 0.6172766 0.4859162 0.3827234 -0.4859162
1385737 0.3725032 -0.4833329 0.6274968 0.4833329 0.6274968 0.4833329 0.3725032 -0.4833329
1416205 0.3623958 -0.4805508 0.6376042 0.4805508 0.6376042 0.4805508 0.3623958 -0.4805508
1447343 0.3524087 -0.4775758 0.6475913 0.4775758 0.6475913 0.4775758 0.3524087 -0.4775758
1479166 0.3425491 -0.4744143 0.6574509 0.4744143 0.6574509 0.4744143 0.3425491 -0.4744143
1511688 0.3328237 -0.4710729 0.6671763 0.4710729 0.6671763 0.4710729 0.3328237 -0.4710729
1544926 0.3232388 -0.4675586 0.6767612 0.4675586 0.6767612 0.4675586 0.3232388 -0.4675586
1578894 0.3138001 -0.4638784 0.6861999 0.4638784 0.6861999 0.4638784 0.3138001 -0.4638784
1613609 0.3045132 -0.4600396 0.6954868 0.4600396 0.6954868 0.4600396 0.3045132 -0.4600396
1649087 0.2953829 -0.4560498 0.7046171 0.4560498 0.7046171 0.4560498 0.2953829 -0.4560498
1685346 0.2864138 -0.4519166 0.7135862 0.4519166 0.7135862 0.4519166 0.2864138 -0.4519166
1722402 0.2776098 -0.4476476 0.7223902 0.4476476 0.7223902 0.4476476 0.2776098 -0.4476476
1760272 0.2689746 -0.4432507 0.7310254 0.4432507 0.7310254 0.4432507 0.2689746 -0.4432507
1798975 0.2605113 -0.4387337 0.7394887 0.4387337 0.7394887 0.4387337 0.2605113 -0.4387337
1838529 0.2522225 -0.4341044 0.7477775 0.4341044 0.7477775 0.4341044 0.2522225 -0.4341044
1878953 0.2441105 -0.4293706 0.7558895 0.4293706 0.7558895 0.4293706 0.2441105 -0.4293706
1920266 0.2361771 -0.4245402 0.7638229 0.4245402 0.7638229 0.4245402 0.2361771 -0.4245402
1962487 0.2284239 -0.4196207 0.7715761 0.4196207 0.7715761 0.4196207 0.2284239 -0.4196207
2005636 0.2208516 -0.4146200 0.7791484 0.4146200 0.7791484 0.4146200 0.2208516 -0.4146200
2049734 0.2134611 -0.4095454 0.7865389 0.4095454 0.7865389 0.4095454 0.2134611 -0.4095454
2094801 0.2062526 -0.4044043 0.7937474 0.4044043 0.7937474 0.4044043 0.2062526 -0.4044043
2140860 0.1992261 -0.3992041 0.8007739 0.3992041 0.8007739 0.3992041 0.1992261 -0.3992041
2187931 0.1923810 -0.3939517 0.8076190 0.3939517 0.8076190 0.3939517 0.1923810 -0.3939517
2236037 0.1857167 -0.3886540 0.8142833 0.3886540 0.8142833 0.3886540 0.1857167 -0.3886540
2285201 0.1792323 -0.3833178 0.8207677 0.3833178 0.8207677 0.3833178 0.1792323 -0.3833178
2335446 0.1729263 -0.3779496 0.8270737 0.3779496 0.8270737 0.3779496 0.1729263 -0.3779496
2386795 0.1667973 -0.3725557 0.8332027 0.3725557 0.8332027 0.3725557 0.1667973 -0.3725557
2439274 0.1608434 -0.3671420 0.8391566 0.3671420 0.8391566 0.3671420 0.1608434 -0.3671420
2492906 0.1550626 -0.3617146 0.8449374 0.3617146 0.8449374 0.3617146 0.1550626 -0.3617146
2547717 0.1494529 -0.3562789 0.8505471 0.3562789 0.8505471 0.3562789 0.1494529 -0.3562789
2603734 0.1440116 -0.3508405 0.8559884 0.3508405 0.8559884 0.3508405 0.1440116 -0.3508405
2660982 0.1387363 -0.3454043 0.8612637 0.3454043 0.8612637 0.3454043 0.1387363 -0.3454043
2719490 0.1336243 -0.3399754 0.8663757 0.3399754 0.8663757 0.3399754 0.1336243 -0.3399754
2779283 0.1286726 -0.3345584 0.8713274 0.3345584 0.8713274 0.3345584 0.1286726 -0.3345584
2840391 0.1238785 -0.3291578 0.8761215 0.3291578 0.8761215 0.3291578 0.1238785 -0.3291578
2902843 0.1192386 -0.3237778 0.8807614 0.3237778 0.8807614 0.3237778 0.1192386 -0.3237778
2966668 0.1147500 -0.3184222 0.8852500 0.3184222 0.8852500 0.3184222 0.1147500 -0.3184222
3031896 0.1104094 -0.3130949 0.8895906 0.3130949 0.8895906 0.3130949 0.1104094 -0.3130949
3098558 0.1062135 -0.3077994 0.8937865 0.3077994 0.8937865 0.3077994 0.1062135 -0.3077994
3166686 0.1021589 -0.3025390 0.8978411 0.3025390 0.8978411 0.3025390 0.1021589 -0.3025390
3236312 0.0982423 -0.2973167 0.9017577 0.2973167 0.9017577 0.2973167 0.0982423 -0.2973167
3307469 0.0944602 -0.2921354 0.9055398 0.2921354 0.9055398 0.2921354 0.0944602 -0.2921354
3380190 0.0908093 -0.2869978 0.9091907 0.2869978 0.9091907 0.2869978 0.0908093 -0.2869978
3454511 0.0872861 -0.2819063 0.9127139 0.2819063 0.9127139 0.2819063 0.0872861 -0.2819063
3530465 0.0838872 -0.2768632 0.9161128 0.2768632 0.9161128 0.2768632 0.0838872 -0.2768632
3608090 0.0806091 -0.2718707 0.9193909 0.2718707 0.9193909 0.2718707 0.0806091 -0.2718707
3687421 0.0774486 -0.2669305 0.9225514 0.2669305 0.9225514 0.2669305 0.0774486 -0.2669305
3768496 0.0744021 -0.2620445 0.9255979 0.2620445 0.9255979 0.2620445 0.0744021 -0.2620445
3851354 0.0714664 -0.2572142 0.9285336 0.2572142 0.9285336 0.2572142 0.0714664 -0.2572142
3936034 0.0686382 -0.2524410 0.9313618 0.2524410 0.9313618 0.2524410 0.0686382 -0.2524410
4022575 0.0659142 -0.2477262 0.9340858 0.2477262 0.9340858 0.2477262 0.0659142 -0.2477262
4111020 0.0632911 -0.2430709 0.9367089 0.2430709 0.9367089 0.2430709 0.0632911 -0.2430709
4201409 0.0607659 -0.2384762 0.9392341 0.2384762 0.9392341 0.2384762 0.0607659 -0.2384762
4293785 0.0583354 -0.2339427 0.9416646 0.2339427 0.9416646 0.2339427 0.0583354 -0.2339427
4388193 0.0559965 -0.2294714 0.9440035 0.2294714 0.9440035 0.2294714 0.0559965 -0.2294714
4484676 0.0537463 -0.2250628 0.9462537 0.2250628 0.9462537 0.2250628 0.0537463 -0.2250628
4583281 0.0515818 -0.2207173 0.9484182 0.2207173 0.9484182 0.2207173 0.0515818 -0.2207173
4684054 0.0495001 -0.2164355 0.9504999 0.2164355 0.9504999 0.2164355 0.0495001 -0.2164355
4787042 0.0474985 -0.2122175 0.9525015 0.2122175 0.9525015 0.2122175 0.0474985 -0.2122175
4892295 0.0455742 -0.2080637 0.9544258 0.2080637 0.9544258 0.2080637 0.0455742 -0.2080637
4999862 0.0437245 -0.2039740 0.9562755 0.2039740 0.9562755 0.2039740 0.0437245 -0.2039740
5109794 0.0419468 -0.1999487 0.9580532 0.1999487 0.9580532 0.1999487 0.0419468 -0.1999487
5222143 0.0402386 -0.1959875 0.9597614 0.1959875 0.9597614 0.1959875 0.0402386 -0.1959875
5336962 0.0385973 -0.1920905 0.9614027 0.1920905 0.9614027 0.1920905 0.0385973 -0.1920905
5454306 0.0370207 -0.1882574 0.9629793 0.1882574 0.9629793 0.1882574 0.0370207 -0.1882574
5574230 0.0355064 -0.1844881 0.9644936 0.1844881 0.9644936 0.1844881 0.0355064 -0.1844881
5696791 0.0340521 -0.1807821 0.9659479 0.1807821 0.9659479 0.1807821 0.0340521 -0.1807821
5822046 0.0326555 -0.1771392 0.9673445 0.1771392 0.9673445 0.1771392 0.0326555 -0.1771392
5950055 0.0313147 -0.1735590 0.9686853 0.1735590 0.9686853 0.1735590 0.0313147 -0.1735590
6080879 0.0300274 -0.1700410 0.9699726 0.1700410 0.9699726 0.1700410 0.0300274 -0.1700410
6214580 0.0287918 -0.1665847 0.9712082 0.1665847 0.9712082 0.1665847 0.0287918 -0.1665847
6351220 0.0276058 -0.1631897 0.9723942 0.1631897 0.9723942 0.1631897 0.0276058 -0.1631897
6490864 0.0264676 -0.1598553 0.9735324 0.1598553 0.9735324 0.1598553 0.0264676 -0.1598553
6633579 0.0253754 -0.1565810 0.9746246 0.1565810 0.9746246 0.1565810 0.0253754 -0.1565810
6779431 0.0243273 -0.1533662 0.9756727 0.1533662 0.9756727 0.1533662 0.0243273 -0.1533662
6928491 0.0233218 -0.1502102 0.9766782 0.1502102 0.9766782 0.1502102 0.0233218 -0.1502102
7080828 0.0223572 -0.1471123 0.9776428 0.1471123 0.9776428 0.1471123 0.0223572 -0.1471123
7236514 0.0214319 -0.1440720 0.9785681 0.1440720 0.9785681 0.1440720 0.0214319 -0.1440720
7395623 0.0205443 -0.1410884 0.9794557 0.1410884 0.9794557 0.1410884 0.0205443 -0.1410884
7558231 0.0196931 -0.1381608 0.9803069 0.1381608 0.9803069 0.1381608 0.0196931 -0.1381608
7724414 0.0188767 -0.1352885 0.9811233 0.1352885 0.9811233 0.1352885 0.0188767 -0.1352885
7894251 0.0180938 -0.1324708 0.9819062 0.1324708 0.9819062 0.1324708 0.0180938 -0.1324708
8067822 0.0173431 -0.1297070 0.9826569 0.1297070 0.9826569 0.1297070 0.0173431 -0.1297070
8245209 0.0166233 -0.1269961 0.9833767 0.1269961 0.9833767 0.1269961 0.0166233 -0.1269961
8426497 0.0159332 -0.1243375 0.9840668 0.1243375 0.9840668 0.1243375 0.0159332 -0.1243375
8611770 0.0152716 -0.1217304 0.9847284 0.1217304 0.9847284 0.1217304 0.0152716 -0.1217304
8801117 0.0146374 -0.1191740 0.9853626 0.1191740 0.9853626 0.1191740 0.0146374 -0.1191740
8994628 0.0140294 -0.1166676 0.9859706 0.1166676 0.9859706 0.1166676 0.0140294 -0.1166676
9192393 0.0134467 -0.1142102 0.9865533 0.1142102 0.9865533 0.1142102 0.0134467 -0.1142102
9394506 0.0128881 -0.1118012 0.9871119 0.1118012 0.9871119 0.1118012 0.0128881 -0.1118012
9601063 0.0123528 -0.1094398 0.9876472 0.1094398 0.9876472 0.1094398 0.0123528 -0.1094398
9812162 0.0118397 -0.1071251 0.9881603 0.1071251 0.9881603 0.1071251 0.0118397 -0.1071251
10027902 0.0113481 -0.1048564 0.9886519 0.1048564 0.9886519 0.1048564 0.0113481 -0.1048564
10248386 0.0108769 -0.1026329 0.9891231 0.1026329 0.9891231 0.1026329 0.0108769 -0.1026329
10473717 0.0104255 -0.1004538 0.9895745 0.1004538 0.9895745 0.1004538 0.0104255 -0.1004538
10704003 0.0099929 -0.0983183 0.9900071 0.0983183 0.9900071 0.0983183 0.0099929 -0.0983183
10939352 0.0095784 -0.0962258 0.9904216 0.0962258 0.9904216 0.0962258 0.0095784 -0.0962258
11179876 0.0091813 -0.0941753 0.9908187 0.0941753 0.9908187 0.0941753 0.0091813 -0.0941753
11425688 0.0088009 -0.0921662 0.9911991 0.0921662 0.9911991 0.0921662 0.0088009 -0.0921662
11676904 0.0084364 -0.0901978 0.9915636 0.0901978 0.9915636 0.0901978 0.0084364 -0.0901978
11933645 0.0080872 -0.0882691 0.9919128 0.0882691 0.9919128 0.0882691 0.0080872 -0.0882691
12196030 0.0077528 -0.0863797 0.9922472 0.0863797 0.9922472 0.0863797 0.0077528 -0.0863797
12464184 0.0074324 -0.0845286 0.9925676 0.0845286 0.9925676 0.0845286 0.0074324 -0.0845286
12738235 0.0071256 -0.0827152 0.9928744 0.0827152 0.9928744 0.0827152 0.0071256 -0.0827152
13018310 0.0068317 -0.0809387 0.9931683 0.0809387 0.9931683 0.0809387 0.0068317 -0.0809387
13304544 0.0065502 -0.0791986 0.9934498 0.0791986 0.9934498 0.0791986 0.0065502 -0.0791986
13597071 0.0062806 -0.0774940 0.9937194 0.0774940 0.9937194 0.0774940 0.0062806 -0.0774940
13896030 0.0060224 -0.0758242 0.9939776 0.0758242 0.9939776 0.0758242 0.0060224 -0.0758242
14201563 0.0057752 -0.0741887 0.9942248 0.0741887 0.9942248 0.0741887 0.0057752 -0.0741887
14513813 0.0055384 -0.0725868 0.9944616 0.0725868 0.9944616 0.0725868 0.0055384 -0.0725868
14832928 0.0053118 -0.0710177 0.9946882 0.0710177 0.9946882 0.0710177 0.0053118 -0.0710177
15159060 0.0050947 -0.0694808 0.9949053 0.0694808 0.9949053 0.0694808 0.0050947 -0.0694808
15492362 0.0048869 -0.0679756 0.9951131 0.0679756 0.9951131 0.0679756 0.0048869 -0.0679756
15832993 0.0046879 -0.0665013 0.9953121 0.0665013 0.9953121 0.0665013 0.0046879 -0.0665013
16181113 0.0044974 -0.0650574 0.9955026 0.0650574 0.9955026 0.0650574 0.0044974 -0.0650574
16536888 0.0043151 -0.0636432 0.9956849 0.0636432 0.9956849 0.0636432 0.0043151 -0.0636432
16900485 0.0041405 -0.0622582 0.9958595 0.0622582 0.9958595 0.0622582 0.0041405 -0.0622582
17272076 0.0039734 -0.0609017 0.9960266 0.0609017 0.9960266 0.0609017 0.0039734 -0.0609017
17651837 0.0038135 -0.0595731 0.9961865 0.0595731 0.9961865 0.0595731 0.0038135 -0.0595731
18039948 0.0036604 -0.0582720 0.9963396 0.0582720 0.9963396 0.0582720 0.0036604 -0.0582720
18436593 0.0035139 -0.0569977 0.9964861 0.0569977 0.9964861 0.0569977 0.0035139 -0.0569977
18841959 0.0033737 -0.0557497 0.9966263 0.0557497 0.9966263 0.0557497 0.0033737 -0.0557497
19256237 0.0032395 -0.0545274 0.9967605 0.0545274 0.9967605 0.0545274 0.0032395 -0.0545274
19679624 0.0031111 -0.0533304 0.9968889 0.0533304 0.9968889 0.0533304 0.0031111 -0.0533304
20112321 0.0029883 -0.0521580 0.9970117 0.0521580 0.9970117 0.0521580 0.0029883 -0.0521580
20554530 0.0028707 -0.0510098 0.9971293 0.0510098 0.9971293 0.0510098 0.0028707 -0.0510098
21006463 0.0027583 -0.0498852 0.9972417 0.0498852 0.9972417 0.0498852 0.0027583 -0.0498852
21468333 0.0026507 -0.0487838 0.9973493 0.0487838 0.9973493 0.0487838 0.0026507 -0.0487838
21940357 0.0025479 -0.0477051 0.9974521 0.0477051 0.9974521 0.0477051 0.0025479 -0.0477051
22422760 0.0024494 -0.0466486 0.9975506 0.0466486 0.9975506 0.0466486 0.0024494 -0.0466486
22915770 0.0023553 -0.0456138 0.9976447 0.0456138 0.9976447 0.0456138 0.0023553 -0.0456138
23419619 0.0022653 -0.0446003 0.9977347 0.0446003 0.9977347 0.0446003 0.0022653 -0.0446003
23934547 0.0021792 -0.0436076 0.9978208 0.0436076 0.9978208 0.0436076 0.0021792 -0.0436076
24460796 0.0020969 -0.0426353 0.9979031 0.0426353 0.9979031 0.0426353 0.0020969 -0.0426353
24998616 0.0020183 -0.0416829 0.9979817 0.0416829 0.9979817 0.0416829 0.0020183 -0.0416829
25548261 0.0019430 -0.0407499 0.9980570 0.0407499 0.9980570 0.0407499 0.0019430 -0.0407499
26109991 0.0018711 -0.0398361 0.9981289 0.0398361 0.9981289 0.0398361 0.0018711 -0.0398361
26684072 0.0018024 -0.0389409 0.9981976 0.0389409 0.9981976 0.0389409 0.0018024 -0.0389409
27270775 0.0017367 -0.0380640 0.9982633 0.0380640 0.9982633 0.0380640 0.0017367 -0.0380640
27870378 0.0016739 -0.0372050 0.9983261 0.0372050 0.9983261 0.0372050 0.0016739 -0.0372050
28483164 0.0016140 -0.0363634 0.9983860 0.0363634 0.9983860 0.0363634 0.0016140 -0.0363634
29109424 0.0015567 -0.0355389 0.9984433 0.0355389 0.9984433 0.0355389 0.0015567 -0.0355389
29749453 0.0015019 -0.0347312 0.9984981 0.0347312 0.9984981 0.0347312 0.0015019 -0.0347312
30403555 0.0014497 -0.0339397 0.9985503 0.0339397 0.9985503 0.0339397 0.0014497 -0.0339397
31072038 0.0013997 -0.0331643 0.9986003 0.0331643 0.9986003 0.0331643 0.0013997 -0.0331643
31755220 0.0013520 -0.0324044 0.9986480 0.0324044 0.9986480 0.0324044 0.0013520 -0.0324044
32453422 0.0013065 -0.0316599 0.9986935 0.0316599 0.9986935 0.0316599 0.0013065 -0.0316599
33166976 0.0012630 -0.0309303 0.9987370 0.0309303 0.9987370 0.0309303 0.0012630 -0.0309303
33896219 0.0012215 -0.0302152 0.9987785 0.0302152 0.9987785 0.0302152 0.0012215 -0.0302152
34641496 0.0011819 -0.0295145 0.9988181 0.0295145 0.9988181 0.0295145 0.0011819 -0.0295145
35403159 0.0011442 -0.0288277 0.9988558 0.0288277 0.9988558 0.0288277 0.0011442 -0.0288277
36181569 0.0011081 -0.0281545 0.9988919 0.0281545 0.9988919 0.0281545 0.0011081 -0.0281545
36977093 0.0010737 -0.0274946 0.9989263 0.0274946 0.9989263 0.0274946 0.0010737 -0.0274946
37790109 0.0010409 -0.0268477 0.9989591 0.0268477 0.9989591 0.0268477 0.0010409 -0.0268477
38621001 0.0010096 -0.0262135 0.9989904 0.0262135 0.9989904 0.0262135 0.0010096 -0.0262135
39470161 0.0009798 -0.0255918 0.9990202 0.0255918 0.9990202 0.0255918 0.0009798 -0.0255918
40337993 0.0009514 -0.0249821 0.9990486 0.0249821 0.9990486 0.0249821 0.0009514 -0.0249821
41224905 0.0009243 -0.0243843 0.9990757 0.0243843 0.9990757 0.0243843 0.0009243 -0.0243843
42131317 0.0008985 -0.0237981 0.9991015 0.0237981 0.9991015 0.0237981 0.0008985 -0.0237981
43057659 0.0008739 -0.0232231 0.9991261 0.0232231 0.9991261 0.0232231 0.0008739 -0.0232231
44004369 0.0008504 -0.0226591 0.9991496 0.0226591 0.9991496 0.0226591 0.0008504 -0.0226591
44971893 0.0008281 -0.0221059 0.9991719 0.0221059 0.9991719 0.0221059 0.0008281 -0.0221059
45960691 0.0008069 -0.0215632 0.9991931 0.0215632 0.9991931 0.0215632 0.0008069 -0.0215632
46971230 0.0007867 -0.0210307 0.9992133 0.0210307 0.9992133 0.0210307 0.0007867 -0.0210307
48003987 0.0007675 -0.0205083 0.9992325 0.0205083 0.9992325 0.0205083 0.0007675 -0.0205083
49059451 0.0007492 -0.0199955 0.9992508 0.0199955 0.9992508 0.0199955 0.0007492 -0.0199955
50138122 0.0007319 -0.0194922 0.9992681 0.0194922 0.9992681 0.0194922 0.0007319 -0.0194922
51240510 0.0007154 -0.0189982 0.9992846 0.0189982 0.9992846 0.0189982 0.0007154 -0.0189982
52367136 0.0006997 -0.0185132 0.9993003 0.0185132 0.9993003 0.0185132 0.0006997 -0.0185132
53518533 0.0006848 -0.0180371 0.9993152 0.0180371 0.9993152 0.0180371 0.0006848 -0.0180371
54695245 0.0006707 -0.0175694 0.9993293 0.0175694 0.9993293 0.0175694 0.0006707 -0.0175694
55897831 0.0006574 -0.0171102 0.9993426 0.0171102 0.9993426 0.0171102 0.0006574 -0.0171102
57126857 0.0006447 -0.0166590 0.9993553 0.0166590 0.9993553 0.0166590 0.0006447 -0.0166590
58382906 0.0006327 -0.0162158 0.9993673 0.0162158 0.9993673 0.0162158 0.0006327 -0.0162158
59666572 0.0006213 -0.0157803 0.9993787 0.0157803 0.9993787 0.0157803 0.0006213 -0.0157803
60978462 0.0006106 -0.0153523 0.9993894 0.0153523 0.9993894 0.0153523 0.0006106 -0.0153523
62319196 0.0006005 -0.0149316 0.9993995 0.0149316 0.9993995 0.0149316 0.0006005 -0.0149316
63689409 0.0005910 -0.0145179 0.9994090 0.0145179 0.9994090 0.0145179 0.0005910 -0.0145179
65089750 0.0005820 -0.0141112 0.9994180 0.0141112 0.9994180 0.0141112 0.0005820 -0.0141112
66520879 0.0005735 -0.0137112 0.9994265 0.0137112 0.9994265 0.0137112 0.0005735 -0.0137112
67983474 0.0005656 -0.0133177 0.9994344 0.0133177 0.9994344 0.0133177 0.0005656 -0.0133177
69478228 0.0005582 -0.0129305 0.9994418 0.0129305 0.9994418 0.0129305 0.0005582 -0.0129305
71005847 0.0005512 -0.0125494 0.9994488 0.0125494 0.9994488 0.0125494 0.0005512 -0.0125494
72567054 0.0005447 -0.0121744 0.9994553 0.0121744 0.9994553 0.0121744 0.0005447 -0.0121744
74162587 0.0005387 -0.0118050 0.9994613 0.0118050 0.9994613 0.0118050 0.0005387 -0.0118050
75793201 0.0005331 -0.0114413 0.9994669 0.0114413 0.9994669 0.0114413 0.0005331 -0.0114413
77459667 0.0005279 -0.0110831 0.9994721 0.0110831 0.9994721 0.0110831 0.0005279 -0.0110831
79162774 0.0005232 -0.0107300 0.9994768 0.0107300 0.9994768 0.0107300 0.0005232 -0.0107300
80903327 0.0005188 -0.0103821 0.9994812 0.0103821 0.9994812 0.0103821 0.0005188 -0.0103821
82682150 0.0005149 -0.0100391 0.9994851 0.0100391 0.9994851 0.0100391 0.0005149 -0.0100391
84500083 0.0005113 -0.0097008 0.9994887 0.0097008 0.9994887 0.0097008 0.0005113 -0.0097008
86357988 0.0005081 -0.0093671 0.9994919 0.0093671 0.9994919 0.0093671 0.0005081 -0.0093671
88256743 0.0005053 -0.0090378 0.9994947 0.0090378 0.9994947 0.0090378 0.0005053 -0.0090378
90197245 0.0005029 -0.0087129 0.9994971 0.0087129 0.9994971 0.0087129 0.0005029 -0.0087129
92180413 0.0005008 -0.0083920 0.9994992 0.0083920 0.9994992 0.0083920 0.0005008 -0.0083920
94207185 0.0004990 -0.0080751 0.9995010 0.0080751 0.9995010 0.0080751 0.0004990 -0.0080751
96278520 0.0004976 -0.0077620 0.9995024 0.0077620 0.9995024 0.0077620 0.0004976 -0.0077620
98395398 0.0004966 -0.0074525 0.9995034 0.0074525 0.9995034 0.0074525 0.0004966 -0.0074525
100558819 0.0004959 -0.0071465 0.9995041 0.0071465 0.9995041 0.0071465 0.0004959 -0.0071465
102769807 0.0004955 -0.0068439 0.9995045 0.0068439 0.9995045 0.0068439 0.0004955 -0.0068439
105029408 0.0004955 -0.0065445 0.9995045 0.0065445 0.9995045 0.0065445 0.0004955 -0.0065445
107338692 0.0004958 -0.0062482 0.9995042 0.0062482 0.9995042 0.0062482 0.0004958 -0.0062482
