!Murata Part Number: GRM1887U1H272JA01
!These Parameters are Measured in Series Mode Connection
!Data Generated on Mar 30, 2021
!       o--ll--o
!Port1            Port2
!       o------o
!Operation Temp=25[degC], DC Bias Voltage=0[V]
!Freq. Start=1000[kHz] Stop=6[GHz] 401[Steps]
# Hz S RI R 50
!Freq.(Hz) S11(Real) S11(Imag) S21(Real) S21(Imag) S12(Real) S12(Imag) S22(Real) S22(Imag)
1000000 0.2668228 -0.4421161 0.7331772 0.4421161 0.7331772 0.4421161 0.2668228 -0.4421161
1021987 0.2584041 -0.4375703 0.7415959 0.4375703 0.7415959 0.4375703 0.2584041 -0.4375703
1044457 0.2501605 -0.4329143 0.7498395 0.4329143 0.7498395 0.4329143 0.2501605 -0.4329143
1067422 0.2420942 -0.4281558 0.7579058 0.4281558 0.7579058 0.4281558 0.2420942 -0.4281558
1090891 0.2342070 -0.4233026 0.7657930 0.4233026 0.7657930 0.4233026 0.2342070 -0.4233026
1114877 0.2265001 -0.4183624 0.7734999 0.4183624 0.7734999 0.4183624 0.2265001 -0.4183624
1139390 0.2189744 -0.4133428 0.7810256 0.4133428 0.7810256 0.4133428 0.2189744 -0.4133428
1164441 0.2116306 -0.4082513 0.7883694 0.4082513 0.7883694 0.4082513 0.2116306 -0.4082513
1190044 0.2044688 -0.4030952 0.7955312 0.4030952 0.7955312 0.4030952 0.2044688 -0.4030952
1216210 0.1974889 -0.3978818 0.8025111 0.3978818 0.8025111 0.3978818 0.1974889 -0.3978818
1242950 0.1906903 -0.3926180 0.8093097 0.3926180 0.8093097 0.3926180 0.1906903 -0.3926180
1270279 0.1840722 -0.3873107 0.8159278 0.3873107 0.8159278 0.3873107 0.1840722 -0.3873107
1298209 0.1776337 -0.3819665 0.8223663 0.3819665 0.8223663 0.3819665 0.1776337 -0.3819665
1326753 0.1713732 -0.3765920 0.8286268 0.3765920 0.8286268 0.3765920 0.1713732 -0.3765920
1355924 0.1652893 -0.3711933 0.8347107 0.3711933 0.8347107 0.3711933 0.1652893 -0.3711933
1385737 0.1593800 -0.3657765 0.8406200 0.3657765 0.8406200 0.3657765 0.1593800 -0.3657765
1416205 0.1536433 -0.3603473 0.8463567 0.3603473 0.8463567 0.3603473 0.1536433 -0.3603473
1447343 0.1480769 -0.3549113 0.8519231 0.3549113 0.8519231 0.3549113 0.1480769 -0.3549113
1479166 0.1426784 -0.3494739 0.8573216 0.3494739 0.8573216 0.3494739 0.1426784 -0.3494739
1511688 0.1374452 -0.3440401 0.8625548 0.3440401 0.8625548 0.3440401 0.1374452 -0.3440401
1544926 0.1323746 -0.3386147 0.8676254 0.3386147 0.8676254 0.3386147 0.1323746 -0.3386147
1578894 0.1274635 -0.3332025 0.8725365 0.3332025 0.8725365 0.3332025 0.1274635 -0.3332025
1613609 0.1227092 -0.3278077 0.8772908 0.3278077 0.8772908 0.3278077 0.1227092 -0.3278077
1649087 0.1181084 -0.3224345 0.8818916 0.3224345 0.8818916 0.3224345 0.1181084 -0.3224345
1685346 0.1136580 -0.3170869 0.8863420 0.3170869 0.8863420 0.3170869 0.1136580 -0.3170869
1722402 0.1093548 -0.3117684 0.8906452 0.3117684 0.8906452 0.3117684 0.1093548 -0.3117684
1760272 0.1051953 -0.3064826 0.8948047 0.3064826 0.8948047 0.3064826 0.1051953 -0.3064826
1798975 0.1011764 -0.3012327 0.8988236 0.3012327 0.8988236 0.3012327 0.1011764 -0.3012327
1838529 0.0972945 -0.2960217 0.9027055 0.2960217 0.9027055 0.2960217 0.0972945 -0.2960217
1878953 0.0935463 -0.2908524 0.9064537 0.2908524 0.9064537 0.2908524 0.0935463 -0.2908524
1920266 0.0899284 -0.2857275 0.9100716 0.2857275 0.9100716 0.2857275 0.0899284 -0.2857275
1962487 0.0864374 -0.2806493 0.9135626 0.2806493 0.9135626 0.2806493 0.0864374 -0.2806493
2005636 0.0830697 -0.2756201 0.9169303 0.2756201 0.9169303 0.2756201 0.0830697 -0.2756201
2049734 0.0798220 -0.2706419 0.9201780 0.2706419 0.9201780 0.2706419 0.0798220 -0.2706419
2094801 0.0766909 -0.2657166 0.9233091 0.2657166 0.9233091 0.2657166 0.0766909 -0.2657166
2140860 0.0736731 -0.2608459 0.9263269 0.2608459 0.9263269 0.2608459 0.0736731 -0.2608459
2187931 0.0707652 -0.2560313 0.9292348 0.2560313 0.9292348 0.2560313 0.0707652 -0.2560313
2236037 0.0679639 -0.2512741 0.9320361 0.2512741 0.9320361 0.2512741 0.0679639 -0.2512741
2285201 0.0652660 -0.2465757 0.9347340 0.2465757 0.9347340 0.2465757 0.0652660 -0.2465757
2335446 0.0626682 -0.2419371 0.9373318 0.2419371 0.9373318 0.2419371 0.0626682 -0.2419371
2386795 0.0601675 -0.2373593 0.9398325 0.2373593 0.9398325 0.2373593 0.0601675 -0.2373593
2439274 0.0577606 -0.2328430 0.9422394 0.2328430 0.9422394 0.2328430 0.0577606 -0.2328430
2492906 0.0554447 -0.2283890 0.9445553 0.2283890 0.9445553 0.2283890 0.0554447 -0.2283890
2547717 0.0532166 -0.2239978 0.9467834 0.2239978 0.9467834 0.2239978 0.0532166 -0.2239978
2603734 0.0510735 -0.2196700 0.9489265 0.2196700 0.9489265 0.2196700 0.0510735 -0.2196700
2660982 0.0490125 -0.2154059 0.9509875 0.2154059 0.9509875 0.2154059 0.0490125 -0.2154059
2719490 0.0470308 -0.2112057 0.9529692 0.2112057 0.9529692 0.2112057 0.0470308 -0.2112057
2779283 0.0451257 -0.2070698 0.9548743 0.2070698 0.9548743 0.2070698 0.0451257 -0.2070698
2840391 0.0432946 -0.2029981 0.9567054 0.2029981 0.9567054 0.2029981 0.0432946 -0.2029981
2902843 0.0415348 -0.1989907 0.9584652 0.1989907 0.9584652 0.1989907 0.0415348 -0.1989907
2966668 0.0398439 -0.1950475 0.9601561 0.1950475 0.9601561 0.1950475 0.0398439 -0.1950475
3031896 0.0382193 -0.1911684 0.9617807 0.1911684 0.9617807 0.1911684 0.0382193 -0.1911684
3098558 0.0366587 -0.1873533 0.9633413 0.1873533 0.9633413 0.1873533 0.0366587 -0.1873533
3166686 0.0351598 -0.1836018 0.9648402 0.1836018 0.9648402 0.1836018 0.0351598 -0.1836018
3236312 0.0337204 -0.1799136 0.9662796 0.1799136 0.9662796 0.1799136 0.0337204 -0.1799136
3307469 0.0323381 -0.1762885 0.9676619 0.1762885 0.9676619 0.1762885 0.0323381 -0.1762885
3380190 0.0310110 -0.1727260 0.9689890 0.1727260 0.9689890 0.1727260 0.0310110 -0.1727260
3454511 0.0297370 -0.1692256 0.9702630 0.1692256 0.9702630 0.1692256 0.0297370 -0.1692256
3530465 0.0285141 -0.1657868 0.9714859 0.1657868 0.9714859 0.1657868 0.0285141 -0.1657868
3608090 0.0273403 -0.1624092 0.9726597 0.1624092 0.9726597 0.1624092 0.0273403 -0.1624092
3687421 0.0262139 -0.1590921 0.9737861 0.1590921 0.9737861 0.1590921 0.0262139 -0.1590921
3768496 0.0251329 -0.1558349 0.9748671 0.1558349 0.9748671 0.1558349 0.0251329 -0.1558349
3851354 0.0240958 -0.1526371 0.9759042 0.1526371 0.9759042 0.1526371 0.0240958 -0.1526371
3936034 0.0231007 -0.1494980 0.9768993 0.1494980 0.9768993 0.1494980 0.0231007 -0.1494980
4022575 0.0221460 -0.1464170 0.9778540 0.1464170 0.9778540 0.1464170 0.0221460 -0.1464170
4111020 0.0212303 -0.1433932 0.9787697 0.1433932 0.9787697 0.1433932 0.0212303 -0.1433932
4201409 0.0203519 -0.1404261 0.9796481 0.1404261 0.9796481 0.1404261 0.0203519 -0.1404261
4293785 0.0195095 -0.1375148 0.9804905 0.1375148 0.9804905 0.1375148 0.0195095 -0.1375148
4388193 0.0187015 -0.1346587 0.9812985 0.1346587 0.9812985 0.1346587 0.0187015 -0.1346587
4484676 0.0179268 -0.1318571 0.9820732 0.1318571 0.9820732 0.1318571 0.0179268 -0.1318571
4583281 0.0171838 -0.1291091 0.9828162 0.1291091 0.9828162 0.1291091 0.0171838 -0.1291091
4684054 0.0164714 -0.1264139 0.9835286 0.1264139 0.9835286 0.1264139 0.0164714 -0.1264139
4787042 0.0157884 -0.1237709 0.9842116 0.1237709 0.9842116 0.1237709 0.0157884 -0.1237709
4892295 0.0151336 -0.1211792 0.9848664 0.1211792 0.9848664 0.1211792 0.0151336 -0.1211792
4999862 0.0145059 -0.1186380 0.9854941 0.1186380 0.9854941 0.1186380 0.0145059 -0.1186380
5109794 0.0139041 -0.1161467 0.9860959 0.1161467 0.9860959 0.1161467 0.0139041 -0.1161467
5222143 0.0133273 -0.1137042 0.9866727 0.1137042 0.9866727 0.1137042 0.0133273 -0.1137042
5336962 0.0127744 -0.1113100 0.9872256 0.1113100 0.9872256 0.1113100 0.0127744 -0.1113100
5454306 0.0122445 -0.1089632 0.9877555 0.1089632 0.9877555 0.1089632 0.0122445 -0.1089632
5574230 0.0117366 -0.1066629 0.9882634 0.1066629 0.9882634 0.1066629 0.0117366 -0.1066629
5696791 0.0112498 -0.1044085 0.9887502 0.1044085 0.9887502 0.1044085 0.0112498 -0.1044085
5822046 0.0107834 -0.1021992 0.9892166 0.1021992 0.9892166 0.1021992 0.0107834 -0.1021992
5950055 0.0103364 -0.1000341 0.9896636 0.1000341 0.9896636 0.1000341 0.0103364 -0.1000341
6080879 0.0099080 -0.0979125 0.9900920 0.0979125 0.9900920 0.0979125 0.0099080 -0.0979125
6214580 0.0094976 -0.0958337 0.9905024 0.0958337 0.9905024 0.0958337 0.0094976 -0.0958337
6351220 0.0091043 -0.0937968 0.9908957 0.0937968 0.9908957 0.0937968 0.0091043 -0.0937968
6490864 0.0087275 -0.0918012 0.9912725 0.0918012 0.9912725 0.0918012 0.0087275 -0.0918012
6633579 0.0083665 -0.0898460 0.9916335 0.0898460 0.9916335 0.0898460 0.0083665 -0.0898460
6779431 0.0080206 -0.0879305 0.9919794 0.0879305 0.9919794 0.0879305 0.0080206 -0.0879305
6928491 0.0076893 -0.0860540 0.9923107 0.0860540 0.9923107 0.0860540 0.0076893 -0.0860540
7080828 0.0073718 -0.0842158 0.9926282 0.0842158 0.9926282 0.0842158 0.0073718 -0.0842158
7236514 0.0070678 -0.0824152 0.9929322 0.0824152 0.9929322 0.0824152 0.0070678 -0.0824152
7395623 0.0067765 -0.0806514 0.9932235 0.0806514 0.9932235 0.0806514 0.0067765 -0.0806514
7558231 0.0064974 -0.0789237 0.9935026 0.0789237 0.9935026 0.0789237 0.0064974 -0.0789237
7724414 0.0062301 -0.0772315 0.9937699 0.0772315 0.9937699 0.0772315 0.0062301 -0.0772315
7894251 0.0059741 -0.0755740 0.9940259 0.0755740 0.9940259 0.0755740 0.0059741 -0.0755740
8067822 0.0057289 -0.0739507 0.9942711 0.0739507 0.9942711 0.0739507 0.0057289 -0.0739507
8245209 0.0054941 -0.0723608 0.9945059 0.0723608 0.9945059 0.0723608 0.0054941 -0.0723608
8426497 0.0052692 -0.0708036 0.9947308 0.0708036 0.9947308 0.0708036 0.0052692 -0.0708036
8611770 0.0050537 -0.0692786 0.9949463 0.0692786 0.9949463 0.0692786 0.0050537 -0.0692786
8801117 0.0048474 -0.0677851 0.9951526 0.0677851 0.9951526 0.0677851 0.0048474 -0.0677851
8994628 0.0046499 -0.0663225 0.9953501 0.0663225 0.9953501 0.0663225 0.0046499 -0.0663225
9192393 0.0044607 -0.0648901 0.9955393 0.0648901 0.9955393 0.0648901 0.0044607 -0.0648901
9394506 0.0042795 -0.0634873 0.9957205 0.0634873 0.9957205 0.0634873 0.0042795 -0.0634873
9601063 0.0041060 -0.0621136 0.9958940 0.0621136 0.9958940 0.0621136 0.0041060 -0.0621136
9812162 0.0039399 -0.0607684 0.9960601 0.0607684 0.9960601 0.0607684 0.0039399 -0.0607684
10027902 0.0037809 -0.0594510 0.9962191 0.0594510 0.9962191 0.0594510 0.0037809 -0.0594510
10248386 0.0036286 -0.0581610 0.9963714 0.0581610 0.9963714 0.0581610 0.0036286 -0.0581610
10473717 0.0034828 -0.0568977 0.9965172 0.0568977 0.9965172 0.0568977 0.0034828 -0.0568977
10704003 0.0033432 -0.0556607 0.9966568 0.0556607 0.9966568 0.0556607 0.0033432 -0.0556607
10939352 0.0032095 -0.0544493 0.9967905 0.0544493 0.9967905 0.0544493 0.0032095 -0.0544493
11179876 0.0030816 -0.0532630 0.9969184 0.0532630 0.9969184 0.0532630 0.0030816 -0.0532630
11425688 0.0029592 -0.0521014 0.9970408 0.0521014 0.9970408 0.0521014 0.0029592 -0.0521014
11676904 0.0028419 -0.0509638 0.9971581 0.0509638 0.9971581 0.0509638 0.0028419 -0.0509638
11933645 0.0027297 -0.0498499 0.9972703 0.0498499 0.9972703 0.0498499 0.0027297 -0.0498499
12196030 0.0026224 -0.0487591 0.9973776 0.0487591 0.9973776 0.0487591 0.0026224 -0.0487591
12464184 0.0025196 -0.0476909 0.9974804 0.0476909 0.9974804 0.0476909 0.0025196 -0.0476909
12738235 0.0024212 -0.0466448 0.9975788 0.0466448 0.9975788 0.0466448 0.0024212 -0.0466448
13018310 0.0023271 -0.0456204 0.9976729 0.0456204 0.9976729 0.0456204 0.0023271 -0.0456204
13304544 0.0022370 -0.0446173 0.9977630 0.0446173 0.9977630 0.0446173 0.0022370 -0.0446173
13597071 0.0021509 -0.0436349 0.9978491 0.0436349 0.9978491 0.0436349 0.0021509 -0.0436349
13896030 0.0020684 -0.0426729 0.9979316 0.0426729 0.9979316 0.0426729 0.0020684 -0.0426729
14201563 0.0019895 -0.0417308 0.9980105 0.0417308 0.9980105 0.0417308 0.0019895 -0.0417308
14513813 0.0019141 -0.0408081 0.9980859 0.0408081 0.9980859 0.0408081 0.0019141 -0.0408081
14832928 0.0018419 -0.0399045 0.9981581 0.0399045 0.9981581 0.0399045 0.0018419 -0.0399045
15159060 0.0017729 -0.0390195 0.9982271 0.0390195 0.9982271 0.0390195 0.0017729 -0.0390195
15492362 0.0017069 -0.0381528 0.9982931 0.0381528 0.9982931 0.0381528 0.0017069 -0.0381528
15832993 0.0016438 -0.0373039 0.9983562 0.0373039 0.9983562 0.0373039 0.0016438 -0.0373039
16181113 0.0015835 -0.0364725 0.9984165 0.0364725 0.9984165 0.0364725 0.0015835 -0.0364725
16536888 0.0015258 -0.0356582 0.9984742 0.0356582 0.9984742 0.0356582 0.0015258 -0.0356582
16900485 0.0014707 -0.0348606 0.9985293 0.0348606 0.9985293 0.0348606 0.0014707 -0.0348606
17272076 0.0014180 -0.0340794 0.9985820 0.0340794 0.9985820 0.0340794 0.0014180 -0.0340794
17651837 0.0013676 -0.0333141 0.9986324 0.0333141 0.9986324 0.0333141 0.0013676 -0.0333141
18039948 0.0013195 -0.0325645 0.9986805 0.0325645 0.9986805 0.0325645 0.0013195 -0.0325645
18436593 0.0012736 -0.0318302 0.9987264 0.0318302 0.9987264 0.0318302 0.0012736 -0.0318302
18841959 0.0012297 -0.0311109 0.9987703 0.0311109 0.9987703 0.0311109 0.0012297 -0.0311109
19256237 0.0011878 -0.0304062 0.9988122 0.0304062 0.9988122 0.0304062 0.0011878 -0.0304062
19679624 0.0011478 -0.0297158 0.9988522 0.0297158 0.9988522 0.0297158 0.0011478 -0.0297158
20112321 0.0011097 -0.0290394 0.9988903 0.0290394 0.9988903 0.0290394 0.0011097 -0.0290394
20554530 0.0010733 -0.0283767 0.9989267 0.0283767 0.9989267 0.0283767 0.0010733 -0.0283767
21006463 0.0010385 -0.0277274 0.9989615 0.0277274 0.9989615 0.0277274 0.0010385 -0.0277274
21468333 0.0010054 -0.0270911 0.9989946 0.0270911 0.9989946 0.0270911 0.0010054 -0.0270911
21940357 0.0009738 -0.0264677 0.9990262 0.0264677 0.9990262 0.0264677 0.0009738 -0.0264677
22422760 0.0009437 -0.0258567 0.9990563 0.0258567 0.9990563 0.0258567 0.0009437 -0.0258567
22915770 0.0009151 -0.0252580 0.9990849 0.0252580 0.9990849 0.0252580 0.0009151 -0.0252580
23419619 0.0008878 -0.0246712 0.9991122 0.0246712 0.9991122 0.0246712 0.0008878 -0.0246712
23934547 0.0008618 -0.0240960 0.9991382 0.0240960 0.9991382 0.0240960 0.0008618 -0.0240960
24460796 0.0008370 -0.0235323 0.9991630 0.0235323 0.9991630 0.0235323 0.0008370 -0.0235323
24998616 0.0008135 -0.0229797 0.9991865 0.0229797 0.9991865 0.0229797 0.0008135 -0.0229797
25548261 0.0007912 -0.0224381 0.9992088 0.0224381 0.9992088 0.0224381 0.0007912 -0.0224381
26109991 0.0007699 -0.0219070 0.9992301 0.0219070 0.9992301 0.0219070 0.0007699 -0.0219070
26684072 0.0007498 -0.0213864 0.9992502 0.0213864 0.9992502 0.0213864 0.0007498 -0.0213864
27270775 0.0007306 -0.0208759 0.9992694 0.0208759 0.9992694 0.0208759 0.0007306 -0.0208759
27870378 0.0007125 -0.0203753 0.9992875 0.0203753 0.9992875 0.0203753 0.0007125 -0.0203753
28483164 0.0006953 -0.0198844 0.9993047 0.0198844 0.9993047 0.0198844 0.0006953 -0.0198844
29109424 0.0006790 -0.0194030 0.9993210 0.0194030 0.9993210 0.0194030 0.0006790 -0.0194030
29749453 0.0006636 -0.0189308 0.9993364 0.0189308 0.9993364 0.0189308 0.0006636 -0.0189308
30403555 0.0006490 -0.0184676 0.9993510 0.0184676 0.9993510 0.0184676 0.0006490 -0.0184676
31072038 0.0006352 -0.0180133 0.9993648 0.0180133 0.9993648 0.0180133 0.0006352 -0.0180133
31755220 0.0006222 -0.0175675 0.9993778 0.0175675 0.9993778 0.0175675 0.0006222 -0.0175675
32453422 0.0006100 -0.0171301 0.9993900 0.0171301 0.9993900 0.0171301 0.0006100 -0.0171301
33166976 0.0005984 -0.0167010 0.9994016 0.0167010 0.9994016 0.0167010 0.0005984 -0.0167010
33896219 0.0005876 -0.0162798 0.9994124 0.0162798 0.9994124 0.0162798 0.0005876 -0.0162798
34641496 0.0005774 -0.0158663 0.9994226 0.0158663 0.9994226 0.0158663 0.0005774 -0.0158663
35403159 0.0005678 -0.0154605 0.9994322 0.0154605 0.9994322 0.0154605 0.0005678 -0.0154605
36181569 0.0005589 -0.0150621 0.9994411 0.0150621 0.9994411 0.0150621 0.0005589 -0.0150621
36977093 0.0005505 -0.0146710 0.9994495 0.0146710 0.9994495 0.0146710 0.0005505 -0.0146710
37790109 0.0005427 -0.0142868 0.9994573 0.0142868 0.9994573 0.0142868 0.0005427 -0.0142868
38621001 0.0005354 -0.0139096 0.9994646 0.0139096 0.9994646 0.0139096 0.0005354 -0.0139096
39470161 0.0005287 -0.0135390 0.9994713 0.0135390 0.9994713 0.0135390 0.0005287 -0.0135390
40337993 0.0005224 -0.0131749 0.9994776 0.0131749 0.9994776 0.0131749 0.0005224 -0.0131749
41224905 0.0005166 -0.0128172 0.9994834 0.0128172 0.9994834 0.0128172 0.0005166 -0.0128172
42131317 0.0005113 -0.0124657 0.9994887 0.0124657 0.9994887 0.0124657 0.0005113 -0.0124657
43057659 0.0005064 -0.0121202 0.9994936 0.0121202 0.9994936 0.0121202 0.0005064 -0.0121202
44004369 0.0005019 -0.0117805 0.9994981 0.0117805 0.9994981 0.0117805 0.0005019 -0.0117805
44971893 0.0004978 -0.0114465 0.9995022 0.0114465 0.9995022 0.0114465 0.0004978 -0.0114465
45960691 0.0004942 -0.0111181 0.9995058 0.0111181 0.9995058 0.0111181 0.0004942 -0.0111181
46971230 0.0004908 -0.0107950 0.9995092 0.0107950 0.9995092 0.0107950 0.0004908 -0.0107950
48003987 0.0004879 -0.0104772 0.9995121 0.0104772 0.9995121 0.0104772 0.0004879 -0.0104772
49059451 0.0004853 -0.0101645 0.9995147 0.0101645 0.9995147 0.0101645 0.0004853 -0.0101645
50138122 0.0004830 -0.0098566 0.9995170 0.0098566 0.9995170 0.0098566 0.0004830 -0.0098566
51240510 0.0004810 -0.0095536 0.9995190 0.0095536 0.9995190 0.0095536 0.0004810 -0.0095536
52367136 0.0004793 -0.0092552 0.9995207 0.0092552 0.9995207 0.0092552 0.0004793 -0.0092552
53518533 0.0004779 -0.0089613 0.9995221 0.0089613 0.9995221 0.0089613 0.0004779 -0.0089613
54695245 0.0004768 -0.0086718 0.9995232 0.0086718 0.9995232 0.0086718 0.0004768 -0.0086718
55897831 0.0004760 -0.0083865 0.9995240 0.0083865 0.9995240 0.0083865 0.0004760 -0.0083865
57126857 0.0004754 -0.0081053 0.9995246 0.0081053 0.9995246 0.0081053 0.0004754 -0.0081053
58382906 0.0004751 -0.0078280 0.9995249 0.0078280 0.9995249 0.0078280 0.0004751 -0.0078280
59666572 0.0004750 -0.0075546 0.9995250 0.0075546 0.9995250 0.0075546 0.0004750 -0.0075546
60978462 0.0004751 -0.0072849 0.9995249 0.0072849 0.9995249 0.0072849 0.0004751 -0.0072849
62319196 0.0004755 -0.0070187 0.9995245 0.0070187 0.9995245 0.0070187 0.0004755 -0.0070187
63689409 0.0004761 -0.0067559 0.9995239 0.0067559 0.9995239 0.0067559 0.0004761 -0.0067559
65089750 0.0004769 -0.0064964 0.9995231 0.0064964 0.9995231 0.0064964 0.0004769 -0.0064964
66520879 0.0004779 -0.0062402 0.9995221 0.0062402 0.9995221 0.0062402 0.0004779 -0.0062402
67983474 0.0004791 -0.0059869 0.9995209 0.0059869 0.9995209 0.0059869 0.0004791 -0.0059869
69478228 0.0004805 -0.0057367 0.9995195 0.0057367 0.9995195 0.0057367 0.0004805 -0.0057367
71005847 0.0004821 -0.0054892 0.9995179 0.0054892 0.9995179 0.0054892 0.0004821 -0.0054892
72567054 0.0004839 -0.0052444 0.9995161 0.0052444 0.9995161 0.0052444 0.0004839 -0.0052444
74162587 0.0004859 -0.0050022 0.9995141 0.0050022 0.9995141 0.0050022 0.0004859 -0.0050022
75793201 0.0004881 -0.0047624 0.9995119 0.0047624 0.9995119 0.0047624 0.0004881 -0.0047624
77459667 0.0004904 -0.0045250 0.9995096 0.0045250 0.9995096 0.0045250 0.0004904 -0.0045250
79162774 0.0004930 -0.0042898 0.9995070 0.0042898 0.9995070 0.0042898 0.0004930 -0.0042898
80903327 0.0004957 -0.0040567 0.9995043 0.0040567 0.9995043 0.0040567 0.0004957 -0.0040567
82682150 0.0004986 -0.0038256 0.9995014 0.0038256 0.9995014 0.0038256 0.0004986 -0.0038256
84500083 0.0005017 -0.0035964 0.9994983 0.0035964 0.9994983 0.0035964 0.0005017 -0.0035964
86357988 0.0005050 -0.0033689 0.9994950 0.0033689 0.9994950 0.0033689 0.0005050 -0.0033689
88256743 0.0005084 -0.0031431 0.9994916 0.0031431 0.9994916 0.0031431 0.0005084 -0.0031431
90197245 0.0005121 -0.0029188 0.9994879 0.0029188 0.9994879 0.0029188 0.0005121 -0.0029188
92180413 0.0005160 -0.0026960 0.9994840 0.0026960 0.9994840 0.0026960 0.0005160 -0.0026960
94207185 0.0005200 -0.0024745 0.9994800 0.0024745 0.9994800 0.0024745 0.0005200 -0.0024745
96278520 0.0005243 -0.0022542 0.9994757 0.0022542 0.9994757 0.0022542 0.0005243 -0.0022542
98395398 0.0005287 -0.0020350 0.9994713 0.0020350 0.9994713 0.0020350 0.0005287 -0.0020350
100558819 0.0005334 -0.0018169 0.9994666 0.0018169 0.9994666 0.0018169 0.0005334 -0.0018169
102769807 0.0005383 -0.0015996 0.9994617 0.0015996 0.9994617 0.0015996 0.0005383 -0.0015996
105029408 0.0005435 -0.0013830 0.9994565 0.0013830 0.9994565 0.0013830 0.0005435 -0.0013830
107338692 0.0005488 -0.0011672 0.9994512 0.0011672 0.9994512 0.0011672 0.0005488 -0.0011672
