!Murata Part Number: GRM1885C1H301GA01
!These Parameters are Measured in Series Mode Connection
!Data Generated on Mar 30, 2021
!       o--ll--o
!Port1            Port2
!       o------o
!Operation Temp=25[degC], DC Bias Voltage=0[V]
!Freq. Start=100[MHz] Stop=9[GHz] 401[Steps]
# Hz S RI R 50
!Freq.(Hz) S11(Real) S11(Imag) S21(Real) S21(Imag) S12(Real) S12(Imag) S22(Real) S22(Imag)
100000000 0.0031879 -0.0493200 0.9968121 0.0493200 0.9968121 0.0493200 0.0031879 -0.0493200
121000000 0.0023138 -0.0394424 0.9976862 0.0394424 0.9976862 0.0394424 0.0023138 -0.0394424
142000000 0.0018048 -0.0322525 0.9981952 0.0322525 0.9981952 0.0322525 0.0018048 -0.0322525
163000000 0.0014871 -0.0267169 0.9985129 0.0267169 0.9985129 0.0267169 0.0014871 -0.0267169
184000000 0.0012798 -0.0222711 0.9987202 0.0222711 0.9987202 0.0222711 0.0012798 -0.0222711
205000000 0.0011411 -0.0185810 0.9988589 0.0185810 0.9988589 0.0185810 0.0011411 -0.0185810
226000000 0.0010477 -0.0154362 0.9989523 0.0154362 0.9989523 0.0154362 0.0010477 -0.0154362
247000000 0.0009858 -0.0126976 0.9990142 0.0126976 0.9990142 0.0126976 0.0009858 -0.0126976
268000000 0.0009467 -0.0102694 0.9990533 0.0102694 0.9990533 0.0102694 0.0009467 -0.0102694
289000000 0.0009247 -0.0080837 0.9990753 0.0080837 0.9990753 0.0080837 0.0009247 -0.0080837
310000000 0.0009163 -0.0060910 0.9990837 0.0060910 0.9990837 0.0060910 0.0009163 -0.0060910
331000000 0.0009188 -0.0042540 0.9990812 0.0042540 0.9990812 0.0042540 0.0009188 -0.0042540
352000000 0.0009304 -0.0025444 0.9990696 0.0025444 0.9990696 0.0025444 0.0009304 -0.0025444
373000000 0.0009498 -0.0009404 0.9990502 0.0009404 0.9990502 0.0009404 0.0009498 -0.0009404
394000000 0.0009763 0.0005756 0.9990237 -0.0005756 0.9990237 -0.0005756 0.0009763 0.0005756
415000000 0.0010090 0.0020174 0.9989910 -0.0020174 0.9989910 -0.0020174 0.0010090 0.0020174
436000000 0.0010477 0.0033965 0.9989523 -0.0033965 0.9989523 -0.0033965 0.0010477 0.0033965
457000000 0.0010921 0.0047220 0.9989079 -0.0047220 0.9989079 -0.0047220 0.0010921 0.0047220
478000000 0.0011420 0.0060018 0.9988580 -0.0060018 0.9988580 -0.0060018 0.0011420 0.0060018
499000000 0.0011975 0.0072426 0.9988025 -0.0072426 0.9988025 -0.0072426 0.0011975 0.0072426
520000000 0.0012587 0.0084499 0.9987413 -0.0084499 0.9987413 -0.0084499 0.0012587 0.0084499
541000000 0.0013258 0.0096287 0.9986742 -0.0096287 0.9986742 -0.0096287 0.0013258 0.0096287
562000000 0.0013994 0.0107834 0.9986006 -0.0107834 0.9986006 -0.0107834 0.0013994 0.0107834
583000000 0.0014799 0.0119179 0.9985201 -0.0119179 0.9985201 -0.0119179 0.0014799 0.0119179
604000000 0.0015682 0.0130358 0.9984318 -0.0130358 0.9984318 -0.0130358 0.0015682 0.0130358
625000000 0.0016655 0.0141406 0.9983345 -0.0141406 0.9983345 -0.0141406 0.0016655 0.0141406
646000000 0.0017734 0.0152355 0.9982266 -0.0152355 0.9982266 -0.0152355 0.0017734 0.0152355
667000000 0.0018941 0.0163239 0.9981059 -0.0163239 0.9981059 -0.0163239 0.0018941 0.0163239
688000000 0.0020308 0.0174089 0.9979692 -0.0174089 0.9979692 -0.0174089 0.0020308 0.0174089
709000000 0.0021881 0.0184938 0.9978119 -0.0184938 0.9978119 -0.0184938 0.0021881 0.0184938
730000000 0.0023726 0.0195817 0.9976274 -0.0195817 0.9976274 -0.0195817 0.0023726 0.0195817
751000000 0.0025943 0.0206747 0.9974057 -0.0206747 0.9974057 -0.0206747 0.0025943 0.0206747
772000000 0.0028684 0.0217728 0.9971316 -0.0217728 0.9971316 -0.0217728 0.0028684 0.0217728
793000000 0.0032173 0.0228701 0.9967827 -0.0228701 0.9967827 -0.0228701 0.0032173 0.0228701
814000000 0.0036733 0.0239466 0.9963267 -0.0239466 0.9963267 -0.0239466 0.0036733 0.0239466
835000000 0.0042743 0.0249505 0.9957257 -0.0249505 0.9957257 -0.0249505 0.0042743 0.0249505
856000000 0.0050360 0.0257710 0.9949640 -0.0257710 0.9949640 -0.0257710 0.0050360 0.0257710
877000000 0.0058654 0.0262384 0.9941346 -0.0262384 0.9941346 -0.0262384 0.0058654 0.0262384
898000000 0.0064621 0.0262759 0.9935379 -0.0262759 0.9935379 -0.0262759 0.0064621 0.0262759
919000000 0.0065093 0.0261624 0.9934907 -0.0261624 0.9934907 -0.0261624 0.0065093 0.0261624
940000000 0.0061003 0.0263433 0.9938997 -0.0263433 0.9938997 -0.0263433 0.0061003 0.0263433
961000000 0.0055947 0.0269439 0.9944053 -0.0269439 0.9944053 -0.0269439 0.0055947 0.0269439
982000000 0.0052099 0.0278245 0.9947901 -0.0278245 0.9947901 -0.0278245 0.0052099 0.0278245
1003000000 0.0049871 0.0288362 0.9950129 -0.0288362 0.9950129 -0.0288362 0.0049871 0.0288362
1024000000 0.0049010 0.0298952 0.9950990 -0.0298952 0.9950990 -0.0298952 0.0049010 0.0298952
1045000000 0.0049198 0.0309637 0.9950802 -0.0309637 0.9950802 -0.0309637 0.0049198 0.0309637
1066000000 0.0050192 0.0320266 0.9949808 -0.0320266 0.9949808 -0.0320266 0.0050192 0.0320266
1087000000 0.0051841 0.0330788 0.9948159 -0.0330788 0.9948159 -0.0330788 0.0051841 0.0330788
1108000000 0.0054061 0.0341186 0.9945939 -0.0341186 0.9945939 -0.0341186 0.0054061 0.0341186
1129000000 0.0056815 0.0351452 0.9943185 -0.0351452 0.9943185 -0.0351452 0.0056815 0.0351452
1150000000 0.0060101 0.0361572 0.9939899 -0.0361572 0.9939899 -0.0361572 0.0060101 0.0361572
1171000000 0.0063941 0.0371517 0.9936059 -0.0371517 0.9936059 -0.0371517 0.0063941 0.0371517
1192000000 0.0068372 0.0381236 0.9931628 -0.0381236 0.9931628 -0.0381236 0.0068372 0.0381236
1213000000 0.0073443 0.0390645 0.9926557 -0.0390645 0.9926557 -0.0390645 0.0073443 0.0390645
1234000000 0.0079204 0.0399627 0.9920796 -0.0399627 0.9920796 -0.0399627 0.0079204 0.0399627
1255000000 0.0085688 0.0408011 0.9914312 -0.0408011 0.9914312 -0.0408011 0.0085688 0.0408011
1276000000 0.0092891 0.0415574 0.9907109 -0.0415574 0.9907109 -0.0415574 0.0092891 0.0415574
1297000000 0.0100742 0.0422038 0.9899258 -0.0422038 0.9899258 -0.0422038 0.0100742 0.0422038
1318000000 0.0109053 0.0427090 0.9890947 -0.0427090 0.9890947 -0.0427090 0.0109053 0.0427090
1339000000 0.0117483 0.0430428 0.9882517 -0.0430428 0.9882517 -0.0430428 0.0117483 0.0430428
1360000000 0.0125512 0.0431845 0.9874488 -0.0431845 0.9874488 -0.0431845 0.0125512 0.0431845
1381000000 0.0132472 0.0431347 0.9867528 -0.0431347 0.9867528 -0.0431347 0.0132472 0.0431347
1402000000 0.0137661 0.0429247 0.9862339 -0.0429247 0.9862339 -0.0429247 0.0137661 0.0429247
1423000000 0.0140527 0.0426188 0.9859473 -0.0426188 0.9859473 -0.0426188 0.0140527 0.0426188
1444000000 0.0140844 0.0423035 0.9859156 -0.0423035 0.9859156 -0.0423035 0.0140844 0.0423035
1465000000 0.0138797 0.0420659 0.9861203 -0.0420659 0.9861203 -0.0420659 0.0138797 0.0420659
1486000000 0.0134909 0.0419723 0.9865091 -0.0419723 0.9865091 -0.0419723 0.0134909 0.0419723
1507000000 0.0129860 0.0420567 0.9870140 -0.0420567 0.9870140 -0.0420567 0.0129860 0.0420567
1528000000 0.0124305 0.0423223 0.9875695 -0.0423223 0.9875695 -0.0423223 0.0124305 0.0423223
1549000000 0.0118766 0.0427511 0.9881234 -0.0427511 0.9881234 -0.0427511 0.0118766 0.0427511
1570000000 0.0113592 0.0433146 0.9886408 -0.0433146 0.9886408 -0.0433146 0.0113592 0.0433146
1591000000 0.0108978 0.0439826 0.9891022 -0.0439826 0.9891022 -0.0439826 0.0108978 0.0439826
1612000000 0.0105005 0.0447274 0.9894995 -0.0447274 0.9894995 -0.0447274 0.0105005 0.0447274
1633000000 0.0101684 0.0455264 0.9898316 -0.0455264 0.9898316 -0.0455264 0.0101684 0.0455264
1654000000 0.0098981 0.0463619 0.9901019 -0.0463619 0.9901019 -0.0463619 0.0098981 0.0463619
1675000000 0.0096842 0.0472206 0.9903158 -0.0472206 0.9903158 -0.0472206 0.0096842 0.0472206
1696000000 0.0095207 0.0480929 0.9904793 -0.0480929 0.9904793 -0.0480929 0.0095207 0.0480929
1717000000 0.0094017 0.0489721 0.9905983 -0.0489721 0.9905983 -0.0489721 0.0094017 0.0489721
1738000000 0.0093216 0.0498532 0.9906784 -0.0498532 0.9906784 -0.0498532 0.0093216 0.0498532
1759000000 0.0092753 0.0507331 0.9907247 -0.0507331 0.9907247 -0.0507331 0.0092753 0.0507331
1780000000 0.0092587 0.0516095 0.9907413 -0.0516095 0.9907413 -0.0516095 0.0092587 0.0516095
1801000000 0.0092680 0.0524809 0.9907320 -0.0524809 0.9907320 -0.0524809 0.0092680 0.0524809
1822000000 0.0092999 0.0533465 0.9907001 -0.0533465 0.9907001 -0.0533465 0.0092999 0.0533465
1843000000 0.0093518 0.0542057 0.9906482 -0.0542057 0.9906482 -0.0542057 0.0093518 0.0542057
1864000000 0.0094214 0.0550582 0.9905786 -0.0550582 0.9905786 -0.0550582 0.0094214 0.0550582
1885000000 0.0095068 0.0559040 0.9904932 -0.0559040 0.9904932 -0.0559040 0.0095068 0.0559040
1906000000 0.0096063 0.0567429 0.9903937 -0.0567429 0.9903937 -0.0567429 0.0096063 0.0567429
1927000000 0.0097186 0.0575752 0.9902814 -0.0575752 0.9902814 -0.0575752 0.0097186 0.0575752
1948000000 0.0098423 0.0584008 0.9901577 -0.0584008 0.9901577 -0.0584008 0.0098423 0.0584008
1969000000 0.0099766 0.0592199 0.9900234 -0.0592199 0.9900234 -0.0592199 0.0099766 0.0592199
1990000000 0.0101204 0.0600326 0.9898796 -0.0600326 0.9898796 -0.0600326 0.0101204 0.0600326
2011000000 0.0102730 0.0608390 0.9897270 -0.0608390 0.9897270 -0.0608390 0.0102730 0.0608390
2032000000 0.0104338 0.0616393 0.9895662 -0.0616393 0.9895662 -0.0616393 0.0104338 0.0616393
2053000000 0.0106022 0.0624335 0.9893978 -0.0624335 0.9893978 -0.0624335 0.0106022 0.0624335
2074000000 0.0107775 0.0632216 0.9892225 -0.0632216 0.9892225 -0.0632216 0.0107775 0.0632216
2095000000 0.0109593 0.0640039 0.9890407 -0.0640039 0.9890407 -0.0640039 0.0109593 0.0640039
2116000000 0.0111472 0.0647802 0.9888528 -0.0647802 0.9888528 -0.0647802 0.0111472 0.0647802
2137000000 0.0113406 0.0655506 0.9886594 -0.0655506 0.9886594 -0.0655506 0.0113406 0.0655506
2158000000 0.0115392 0.0663151 0.9884608 -0.0663151 0.9884608 -0.0663151 0.0115392 0.0663151
2179000000 0.0117426 0.0670737 0.9882574 -0.0670737 0.9882574 -0.0670737 0.0117426 0.0670737
2200000000 0.0119502 0.0678264 0.9880498 -0.0678264 0.9880498 -0.0678264 0.0119502 0.0678264
2221000000 0.0121618 0.0685732 0.9878382 -0.0685732 0.9878382 -0.0685732 0.0121618 0.0685732
2242000000 0.0123769 0.0693140 0.9876231 -0.0693140 0.9876231 -0.0693140 0.0123769 0.0693140
2263000000 0.0125951 0.0700488 0.9874049 -0.0700488 0.9874049 -0.0700488 0.0125951 0.0700488
2284000000 0.0128159 0.0707777 0.9871841 -0.0707777 0.9871841 -0.0707777 0.0128159 0.0707777
2305000000 0.0130388 0.0715007 0.9869612 -0.0715007 0.9869612 -0.0715007 0.0130388 0.0715007
2326000000 0.0132634 0.0722177 0.9867366 -0.0722177 0.9867366 -0.0722177 0.0132634 0.0722177
2347000000 0.0134892 0.0729289 0.9865108 -0.0729289 0.9865108 -0.0729289 0.0134892 0.0729289
2368000000 0.0137157 0.0736343 0.9862843 -0.0736343 0.9862843 -0.0736343 0.0137157 0.0736343
2389000000 0.0139424 0.0743342 0.9860576 -0.0743342 0.9860576 -0.0743342 0.0139424 0.0743342
2410000000 0.0141688 0.0750287 0.9858312 -0.0750287 0.9858312 -0.0750287 0.0141688 0.0750287
2431000000 0.0143943 0.0757179 0.9856057 -0.0757179 0.9856057 -0.0757179 0.0143943 0.0757179
2452000000 0.0146184 0.0764023 0.9853816 -0.0764023 0.9853816 -0.0764023 0.0146184 0.0764023
2473000000 0.0148408 0.0770821 0.9851592 -0.0770821 0.9851592 -0.0770821 0.0148408 0.0770821
2494000000 0.0150609 0.0777578 0.9849391 -0.0777578 0.9849391 -0.0777578 0.0150609 0.0777578
2515000000 0.0152783 0.0784297 0.9847217 -0.0784297 0.9847217 -0.0784297 0.0152783 0.0784297
2536000000 0.0154926 0.0790984 0.9845074 -0.0790984 0.9845074 -0.0790984 0.0154926 0.0790984
2557000000 0.0157035 0.0797644 0.9842965 -0.0797644 0.9842965 -0.0797644 0.0157035 0.0797644
2578000000 0.0159108 0.0804283 0.9840892 -0.0804283 0.9840892 -0.0804283 0.0159108 0.0804283
2599000000 0.0161142 0.0810906 0.9838858 -0.0810906 0.9838858 -0.0810906 0.0161142 0.0810906
2620000000 0.0163136 0.0817520 0.9836864 -0.0817520 0.9836864 -0.0817520 0.0163136 0.0817520
2641000000 0.0165089 0.0824131 0.9834911 -0.0824131 0.9834911 -0.0824131 0.0165089 0.0824131
2662000000 0.0167002 0.0830744 0.9832998 -0.0830744 0.9832998 -0.0830744 0.0167002 0.0830744
2683000000 0.0168875 0.0837367 0.9831125 -0.0837367 0.9831125 -0.0837367 0.0168875 0.0837367
2704000000 0.0170710 0.0844005 0.9829290 -0.0844005 0.9829290 -0.0844005 0.0170710 0.0844005
2725000000 0.0172508 0.0850664 0.9827492 -0.0850664 0.9827492 -0.0850664 0.0172508 0.0850664
2746000000 0.0174273 0.0857348 0.9825727 -0.0857348 0.9825727 -0.0857348 0.0174273 0.0857348
2767000000 0.0176007 0.0864062 0.9823993 -0.0864062 0.9823993 -0.0864062 0.0176007 0.0864062
2788000000 0.0177714 0.0870811 0.9822286 -0.0870811 0.9822286 -0.0870811 0.0177714 0.0870811
2809000000 0.0179398 0.0877598 0.9820602 -0.0877598 0.9820602 -0.0877598 0.0179398 0.0877598
2830000000 0.0181062 0.0884425 0.9818938 -0.0884425 0.9818938 -0.0884425 0.0181062 0.0884425
2851000000 0.0182711 0.0891297 0.9817289 -0.0891297 0.9817289 -0.0891297 0.0182711 0.0891297
2872000000 0.0184349 0.0898214 0.9815651 -0.0898214 0.9815651 -0.0898214 0.0184349 0.0898214
2893000000 0.0185980 0.0905178 0.9814020 -0.0905178 0.9814020 -0.0905178 0.0185980 0.0905178
2914000000 0.0187608 0.0912189 0.9812392 -0.0912189 0.9812392 -0.0912189 0.0187608 0.0912189
2935000000 0.0189238 0.0919249 0.9810762 -0.0919249 0.9810762 -0.0919249 0.0189238 0.0919249
2956000000 0.0190872 0.0926358 0.9809128 -0.0926358 0.9809128 -0.0926358 0.0190872 0.0926358
2977000000 0.0192515 0.0933515 0.9807485 -0.0933515 0.9807485 -0.0933515 0.0192515 0.0933515
2998000000 0.0194170 0.0940719 0.9805830 -0.0940719 0.9805830 -0.0940719 0.0194170 0.0940719
3019000000 0.0195839 0.0947970 0.9804161 -0.0947970 0.9804161 -0.0947970 0.0195839 0.0947970
3040000000 0.0197527 0.0955268 0.9802473 -0.0955268 0.9802473 -0.0955268 0.0197527 0.0955268
3061000000 0.0199234 0.0962610 0.9800766 -0.0962610 0.9800766 -0.0962610 0.0199234 0.0962610
3082000000 0.0200963 0.0969995 0.9799037 -0.0969995 0.9799037 -0.0969995 0.0200963 0.0969995
3103000000 0.0202717 0.0977422 0.9797283 -0.0977422 0.9797283 -0.0977422 0.0202717 0.0977422
3124000000 0.0204497 0.0984891 0.9795503 -0.0984891 0.9795503 -0.0984891 0.0204497 0.0984891
3145000000 0.0206305 0.0992398 0.9793695 -0.0992398 0.9793695 -0.0992398 0.0206305 0.0992398
3166000000 0.0208141 0.0999943 0.9791859 -0.0999943 0.9791859 -0.0999943 0.0208141 0.0999943
3187000000 0.0210007 0.1007525 0.9789993 -0.1007525 0.9789993 -0.1007525 0.0210007 0.1007525
3208000000 0.0211904 0.1015141 0.9788096 -0.1015141 0.9788096 -0.1015141 0.0211904 0.1015141
3229000000 0.0213833 0.1022792 0.9786167 -0.1022792 0.9786167 -0.1022792 0.0213833 0.1022792
3250000000 0.0215794 0.1030474 0.9784206 -0.1030474 0.9784206 -0.1030474 0.0215794 0.1030474
3271000000 0.0217787 0.1038188 0.9782213 -0.1038188 0.9782213 -0.1038188 0.0217787 0.1038188
3292000000 0.0219814 0.1045933 0.9780186 -0.1045933 0.9780186 -0.1045933 0.0219814 0.1045933
3313000000 0.0221873 0.1053706 0.9778127 -0.1053706 0.9778127 -0.1053706 0.0221873 0.1053706
3334000000 0.0223967 0.1061508 0.9776033 -0.1061508 0.9776033 -0.1061508 0.0223967 0.1061508
3355000000 0.0226093 0.1069336 0.9773907 -0.1069336 0.9773907 -0.1069336 0.0226093 0.1069336
3376000000 0.0228254 0.1077192 0.9771746 -0.1077192 0.9771746 -0.1077192 0.0228254 0.1077192
3397000000 0.0230448 0.1085073 0.9769552 -0.1085073 0.9769552 -0.1085073 0.0230448 0.1085073
3418000000 0.0232675 0.1092979 0.9767325 -0.1092979 0.9767325 -0.1092979 0.0232675 0.1092979
3439000000 0.0234936 0.1100909 0.9765064 -0.1100909 0.9765064 -0.1100909 0.0234936 0.1100909
3460000000 0.0237231 0.1108864 0.9762769 -0.1108864 0.9762769 -0.1108864 0.0237231 0.1108864
3481000000 0.0239558 0.1116841 0.9760442 -0.1116841 0.9760442 -0.1116841 0.0239558 0.1116841
3502000000 0.0241919 0.1124843 0.9758081 -0.1124843 0.9758081 -0.1124843 0.0241919 0.1124843
3523000000 0.0244313 0.1132866 0.9755687 -0.1132866 0.9755687 -0.1132866 0.0244313 0.1132866
3544000000 0.0246740 0.1140913 0.9753260 -0.1140913 0.9753260 -0.1140913 0.0246740 0.1140913
3565000000 0.0249199 0.1148981 0.9750801 -0.1148981 0.9750801 -0.1148981 0.0249199 0.1148981
3586000000 0.0251691 0.1157072 0.9748309 -0.1157072 0.9748309 -0.1157072 0.0251691 0.1157072
3607000000 0.0254215 0.1165184 0.9745785 -0.1165184 0.9745785 -0.1165184 0.0254215 0.1165184
3628000000 0.0256772 0.1173319 0.9743228 -0.1173319 0.9743228 -0.1173319 0.0256772 0.1173319
3649000000 0.0259360 0.1181475 0.9740640 -0.1181475 0.9740640 -0.1181475 0.0259360 0.1181475
3670000000 0.0261981 0.1189653 0.9738019 -0.1189653 0.9738019 -0.1189653 0.0261981 0.1189653
3691000000 0.0264633 0.1197852 0.9735367 -0.1197852 0.9735367 -0.1197852 0.0264633 0.1197852
3712000000 0.0267318 0.1206074 0.9732682 -0.1206074 0.9732682 -0.1206074 0.0267318 0.1206074
3733000000 0.0270034 0.1214317 0.9729966 -0.1214317 0.9729966 -0.1214317 0.0270034 0.1214317
3754000000 0.0272781 0.1222582 0.9727219 -0.1222582 0.9727219 -0.1222582 0.0272781 0.1222582
3775000000 0.0275561 0.1230870 0.9724439 -0.1230870 0.9724439 -0.1230870 0.0275561 0.1230870
3796000000 0.0278371 0.1239179 0.9721629 -0.1239179 0.9721629 -0.1239179 0.0278371 0.1239179
3817000000 0.0281214 0.1247511 0.9718786 -0.1247511 0.9718786 -0.1247511 0.0281214 0.1247511
3838000000 0.0284087 0.1255866 0.9715913 -0.1255866 0.9715913 -0.1255866 0.0284087 0.1255866
3859000000 0.0286993 0.1264243 0.9713007 -0.1264243 0.9713007 -0.1264243 0.0286993 0.1264243
3880000000 0.0289930 0.1272643 0.9710070 -0.1272643 0.9710070 -0.1272643 0.0289930 0.1272643
3901000000 0.0292898 0.1281067 0.9707102 -0.1281067 0.9707102 -0.1281067 0.0292898 0.1281067
3922000000 0.0295898 0.1289514 0.9704102 -0.1289514 0.9704102 -0.1289514 0.0295898 0.1289514
3943000000 0.0298930 0.1297985 0.9701070 -0.1297985 0.9701070 -0.1297985 0.0298930 0.1297985
3964000000 0.0301993 0.1306479 0.9698007 -0.1306479 0.9698007 -0.1306479 0.0301993 0.1306479
3985000000 0.0305089 0.1314998 0.9694911 -0.1314998 0.9694911 -0.1314998 0.0305089 0.1314998
4006000000 0.0308216 0.1323542 0.9691784 -0.1323542 0.9691784 -0.1323542 0.0308216 0.1323542
4027000000 0.0311375 0.1332110 0.9688625 -0.1332110 0.9688625 -0.1332110 0.0311375 0.1332110
4048000000 0.0314567 0.1340704 0.9685433 -0.1340704 0.9685433 -0.1340704 0.0314567 0.1340704
4069000000 0.0317791 0.1349323 0.9682209 -0.1349323 0.9682209 -0.1349323 0.0317791 0.1349323
4090000000 0.0321048 0.1357968 0.9678952 -0.1357968 0.9678952 -0.1357968 0.0321048 0.1357968
4111000000 0.0324337 0.1366639 0.9675663 -0.1366639 0.9675663 -0.1366639 0.0324337 0.1366639
4132000000 0.0327659 0.1375337 0.9672341 -0.1375337 0.9672341 -0.1375337 0.0327659 0.1375337
4153000000 0.0331015 0.1384062 0.9668985 -0.1384062 0.9668985 -0.1384062 0.0331015 0.1384062
4174000000 0.0334404 0.1392813 0.9665596 -0.1392813 0.9665596 -0.1392813 0.0334404 0.1392813
4195000000 0.0337826 0.1401593 0.9662174 -0.1401593 0.9662174 -0.1401593 0.0337826 0.1401593
4216000000 0.0341282 0.1410400 0.9658718 -0.1410400 0.9658718 -0.1410400 0.0341282 0.1410400
4237000000 0.0344772 0.1419235 0.9655228 -0.1419235 0.9655228 -0.1419235 0.0344772 0.1419235
4258000000 0.0348297 0.1428100 0.9651703 -0.1428100 0.9651703 -0.1428100 0.0348297 0.1428100
4279000000 0.0351856 0.1436993 0.9648144 -0.1436993 0.9648144 -0.1436993 0.0351856 0.1436993
4300000000 0.0355450 0.1445916 0.9644550 -0.1445916 0.9644550 -0.1445916 0.0355450 0.1445916
4321000000 0.0359080 0.1454868 0.9640920 -0.1454868 0.9640920 -0.1454868 0.0359080 0.1454868
4342000000 0.0362745 0.1463851 0.9637255 -0.1463851 0.9637255 -0.1463851 0.0362745 0.1463851
4363000000 0.0366446 0.1472864 0.9633554 -0.1472864 0.9633554 -0.1472864 0.0366446 0.1472864
4384000000 0.0370183 0.1481908 0.9629817 -0.1481908 0.9629817 -0.1481908 0.0370183 0.1481908
4405000000 0.0373957 0.1490984 0.9626043 -0.1490984 0.9626043 -0.1490984 0.0373957 0.1490984
4426000000 0.0377768 0.1500092 0.9622232 -0.1500092 0.9622232 -0.1500092 0.0377768 0.1500092
4447000000 0.0381616 0.1509231 0.9618384 -0.1509231 0.9618384 -0.1509231 0.0381616 0.1509231
4468000000 0.0385502 0.1518404 0.9614498 -0.1518404 0.9614498 -0.1518404 0.0385502 0.1518404
4489000000 0.0389426 0.1527609 0.9610574 -0.1527609 0.9610574 -0.1527609 0.0389426 0.1527609
4510000000 0.0393389 0.1536848 0.9606611 -0.1536848 0.9606611 -0.1536848 0.0393389 0.1536848
