!Murata Part Number: GRM1883C1H2R9WA01
!These Parameters are Measured in Series Mode Connection
!Data Generated on Mar 30, 2021
!       o--ll--o
!Port1            Port2
!       o------o
!Operation Temp=25[degC], DC Bias Voltage=0[V]
!Freq. Start=100[MHz] Stop=9[GHz] 401[Steps]
# Hz S RI R 50
!Freq.(Hz) S11(Real) S11(Imag) S21(Real) S21(Imag) S12(Real) S12(Imag) S22(Real) S22(Imag)
100000000 0.9677695 -0.1764596 0.0322305 0.1764596 0.0322305 0.1764596 0.9677695 -0.1764596
121000000 0.9534743 -0.2104265 0.0465257 0.2104265 0.0465257 0.2104265 0.9534743 -0.2104265
142000000 0.9369785 -0.2427607 0.0630215 0.2427607 0.0630215 0.2427607 0.9369785 -0.2427607
163000000 0.9185175 -0.2732815 0.0814825 0.2732815 0.0814825 0.2732815 0.9185175 -0.2732815
184000000 0.8983416 -0.3018482 0.1016584 0.3018482 0.1016584 0.3018482 0.8983416 -0.3018482
205000000 0.8767076 -0.3283599 0.1232924 0.3283599 0.1232924 0.3283599 0.8767076 -0.3283599
226000000 0.8538724 -0.3527542 0.1461276 0.3527542 0.1461276 0.3527542 0.8538724 -0.3527542
247000000 0.8300869 -0.3750047 0.1699131 0.3750047 0.1699131 0.3750047 0.8300869 -0.3750047
268000000 0.8055906 -0.3951177 0.1944094 0.3951177 0.1944094 0.3951177 0.8055906 -0.3951177
289000000 0.7806077 -0.4131274 0.2193923 0.4131274 0.2193923 0.4131274 0.7806077 -0.4131274
310000000 0.7553443 -0.4290921 0.2446557 0.4290921 0.2446557 0.4290921 0.7553443 -0.4290921
331000000 0.7299862 -0.4430895 0.2700138 0.4430895 0.2700138 0.4430895 0.7299862 -0.4430895
352000000 0.7046983 -0.4552120 0.2953017 0.4552120 0.2953017 0.4552120 0.7046983 -0.4552120
373000000 0.6796245 -0.4655632 0.3203755 0.4655632 0.3203755 0.4655632 0.6796245 -0.4655632
394000000 0.6548875 -0.4742536 0.3451125 0.4742536 0.3451125 0.4742536 0.6548875 -0.4742536
415000000 0.6305909 -0.4813981 0.3694091 0.4813981 0.3694091 0.4813981 0.6305909 -0.4813981
436000000 0.6068194 -0.4871126 0.3931806 0.4871126 0.3931806 0.4871126 0.6068194 -0.4871126
457000000 0.5836411 -0.4915123 0.4163589 0.4915123 0.4163589 0.4915123 0.5836411 -0.4915123
478000000 0.5611089 -0.4947097 0.4388911 0.4947097 0.4388911 0.4947097 0.5611089 -0.4947097
499000000 0.5392623 -0.4968134 0.4607377 0.4968134 0.4607377 0.4968134 0.5392623 -0.4968134
520000000 0.5181290 -0.4979268 0.4818710 0.4979268 0.4818710 0.4979268 0.5181290 -0.4979268
541000000 0.4977263 -0.4981478 0.5022737 0.4981478 0.5022737 0.4981478 0.4977263 -0.4981478
562000000 0.4780632 -0.4975681 0.5219368 0.4975681 0.5219368 0.4975681 0.4780632 -0.4975681
583000000 0.4591410 -0.4962733 0.5408590 0.4962733 0.5408590 0.4962733 0.4591410 -0.4962733
604000000 0.4409552 -0.4943422 0.5590448 0.4943422 0.5590448 0.4943422 0.4409552 -0.4943422
625000000 0.4234963 -0.4918479 0.5765037 0.4918479 0.5765037 0.4918479 0.4234963 -0.4918479
646000000 0.4067507 -0.4888571 0.5932493 0.4888571 0.5932493 0.4888571 0.4067507 -0.4888571
667000000 0.3907019 -0.4854307 0.6092981 0.4854307 0.6092981 0.4854307 0.3907019 -0.4854307
688000000 0.3753305 -0.4816241 0.6246695 0.4816241 0.6246695 0.4816241 0.3753305 -0.4816241
709000000 0.3606159 -0.4774877 0.6393841 0.4774877 0.6393841 0.4774877 0.3606159 -0.4774877
730000000 0.3465358 -0.4730667 0.6534642 0.4730667 0.6534642 0.4730667 0.3465358 -0.4730667
751000000 0.3330673 -0.4684021 0.6669327 0.4684021 0.6669327 0.4684021 0.3330673 -0.4684021
772000000 0.3201868 -0.4635308 0.6798132 0.4635308 0.6798132 0.4635308 0.3201868 -0.4635308
793000000 0.3078709 -0.4584857 0.6921291 0.4584857 0.6921291 0.4584857 0.3078709 -0.4584857
814000000 0.2960958 -0.4532964 0.7039042 0.4532964 0.7039042 0.4532964 0.2960958 -0.4532964
835000000 0.2848384 -0.4479892 0.7151616 0.4479892 0.7151616 0.4479892 0.2848384 -0.4479892
856000000 0.2740758 -0.4425877 0.7259242 0.4425877 0.7259242 0.4425877 0.2740758 -0.4425877
877000000 0.2637857 -0.4371127 0.7362143 0.4371127 0.7362143 0.4371127 0.2637857 -0.4371127
898000000 0.2539464 -0.4315828 0.7460536 0.4315828 0.7460536 0.4315828 0.2539464 -0.4315828
919000000 0.2445370 -0.4260145 0.7554630 0.4260145 0.7554630 0.4260145 0.2445370 -0.4260145
940000000 0.2355372 -0.4204222 0.7644628 0.4204222 0.7644628 0.4204222 0.2355372 -0.4204222
961000000 0.2269276 -0.4148188 0.7730724 0.4148188 0.7730724 0.4148188 0.2269276 -0.4148188
982000000 0.2186897 -0.4092155 0.7813103 0.4092155 0.7813103 0.4092155 0.2186897 -0.4092155
1003000000 0.2108054 -0.4036221 0.7891946 0.4036221 0.7891946 0.4036221 0.2108054 -0.4036221
1024000000 0.2032578 -0.3980473 0.7967422 0.3980473 0.7967422 0.3980473 0.2032578 -0.3980473
1045000000 0.1960306 -0.3924986 0.8039694 0.3924986 0.8039694 0.3924986 0.1960306 -0.3924986
1066000000 0.1891083 -0.3869825 0.8108917 0.3869825 0.8108917 0.3869825 0.1891083 -0.3869825
1087000000 0.1824761 -0.3815046 0.8175239 0.3815046 0.8175239 0.3815046 0.1824761 -0.3815046
1108000000 0.1761200 -0.3760698 0.8238800 0.3760698 0.8238800 0.3760698 0.1761200 -0.3760698
1129000000 0.1700266 -0.3706823 0.8299734 0.3706823 0.8299734 0.3706823 0.1700266 -0.3706823
1150000000 0.1641834 -0.3653455 0.8358166 0.3653455 0.8358166 0.3653455 0.1641834 -0.3653455
1171000000 0.1585782 -0.3600623 0.8414218 0.3600623 0.8414218 0.3600623 0.1585782 -0.3600623
1192000000 0.1531998 -0.3548354 0.8468002 0.3548354 0.8468002 0.3548354 0.1531998 -0.3548354
1213000000 0.1480372 -0.3496666 0.8519628 0.3496666 0.8519628 0.3496666 0.1480372 -0.3496666
1234000000 0.1430803 -0.3445575 0.8569197 0.3445575 0.8569197 0.3445575 0.1430803 -0.3445575
1255000000 0.1383193 -0.3395096 0.8616807 0.3395096 0.8616807 0.3395096 0.1383193 -0.3395096
1276000000 0.1337450 -0.3345237 0.8662550 0.3345237 0.8662550 0.3345237 0.1337450 -0.3345237
1297000000 0.1293487 -0.3296006 0.8706513 0.3296006 0.8706513 0.3296006 0.1293487 -0.3296006
1318000000 0.1251222 -0.3247407 0.8748778 0.3247407 0.8748778 0.3247407 0.1251222 -0.3247407
1339000000 0.1210575 -0.3199442 0.8789425 0.3199442 0.8789425 0.3199442 0.1210575 -0.3199442
1360000000 0.1171473 -0.3152114 0.8828527 0.3152114 0.8828527 0.3152114 0.1171473 -0.3152114
1381000000 0.1133845 -0.3105420 0.8866155 0.3105420 0.8866155 0.3105420 0.1133845 -0.3105420
1402000000 0.1097625 -0.3059359 0.8902375 0.3059359 0.8902375 0.3059359 0.1097625 -0.3059359
1423000000 0.1062750 -0.3013927 0.8937250 0.3013927 0.8937250 0.3013927 0.1062750 -0.3013927
1444000000 0.1029158 -0.2969120 0.8970842 0.2969120 0.8970842 0.2969120 0.1029158 -0.2969120
1465000000 0.0996795 -0.2924932 0.9003205 0.2924932 0.9003205 0.2924932 0.0996795 -0.2924932
1486000000 0.0965604 -0.2881357 0.9034396 0.2881357 0.9034396 0.2881357 0.0965604 -0.2881357
1507000000 0.0935537 -0.2838388 0.9064463 0.2838388 0.9064463 0.2838388 0.0935537 -0.2838388
1528000000 0.0906543 -0.2796018 0.9093457 0.2796018 0.9093457 0.2796018 0.0906543 -0.2796018
1549000000 0.0878577 -0.2754239 0.9121423 0.2754239 0.9121423 0.2754239 0.0878577 -0.2754239
1570000000 0.0851595 -0.2713042 0.9148405 0.2713042 0.9148405 0.2713042 0.0851595 -0.2713042
1591000000 0.0825556 -0.2672419 0.9174444 0.2672419 0.9174444 0.2672419 0.0825556 -0.2672419
1612000000 0.0800419 -0.2632360 0.9199581 0.2632360 0.9199581 0.2632360 0.0800419 -0.2632360
1633000000 0.0776148 -0.2592858 0.9223852 0.2592858 0.9223852 0.2592858 0.0776148 -0.2592858
1654000000 0.0752706 -0.2553902 0.9247294 0.2553902 0.9247294 0.2553902 0.0752706 -0.2553902
1675000000 0.0730060 -0.2515483 0.9269940 0.2515483 0.9269940 0.2515483 0.0730060 -0.2515483
1696000000 0.0708178 -0.2477591 0.9291822 0.2477591 0.9291822 0.2477591 0.0708178 -0.2477591
1717000000 0.0687029 -0.2440218 0.9312971 0.2440218 0.9312971 0.2440218 0.0687029 -0.2440218
1738000000 0.0666583 -0.2403353 0.9333417 0.2403353 0.9333417 0.2403353 0.0666583 -0.2403353
1759000000 0.0646813 -0.2366987 0.9353187 0.2366987 0.9353187 0.2366987 0.0646813 -0.2366987
1780000000 0.0627693 -0.2331111 0.9372307 0.2331111 0.9372307 0.2331111 0.0627693 -0.2331111
1801000000 0.0609196 -0.2295714 0.9390804 0.2295714 0.9390804 0.2295714 0.0609196 -0.2295714
1822000000 0.0591299 -0.2260789 0.9408701 0.2260789 0.9408701 0.2260789 0.0591299 -0.2260789
1843000000 0.0573980 -0.2226325 0.9426020 0.2226325 0.9426020 0.2226325 0.0573980 -0.2226325
1864000000 0.0557216 -0.2192313 0.9442784 0.2192313 0.9442784 0.2192313 0.0557216 -0.2192313
1885000000 0.0540986 -0.2158744 0.9459014 0.2158744 0.9459014 0.2158744 0.0540986 -0.2158744
1906000000 0.0525271 -0.2125609 0.9474729 0.2125609 0.9474729 0.2125609 0.0525271 -0.2125609
1927000000 0.0510051 -0.2092900 0.9489949 0.2092900 0.9489949 0.2092900 0.0510051 -0.2092900
1948000000 0.0495308 -0.2060608 0.9504692 0.2060608 0.9504692 0.2060608 0.0495308 -0.2060608
1969000000 0.0481026 -0.2028724 0.9518974 0.2028724 0.9518974 0.2028724 0.0481026 -0.2028724
1990000000 0.0467187 -0.1997240 0.9532813 0.1997240 0.9532813 0.1997240 0.0467187 -0.1997240
2011000000 0.0453776 -0.1966147 0.9546224 0.1966147 0.9546224 0.1966147 0.0453776 -0.1966147
2032000000 0.0440777 -0.1935438 0.9559223 0.1935438 0.9559223 0.1935438 0.0440777 -0.1935438
2053000000 0.0428177 -0.1905104 0.9571823 0.1905104 0.9571823 0.1905104 0.0428177 -0.1905104
2074000000 0.0415961 -0.1875138 0.9584039 0.1875138 0.9584039 0.1875138 0.0415961 -0.1875138
2095000000 0.0404116 -0.1845533 0.9595884 0.1845533 0.9595884 0.1845533 0.0404116 -0.1845533
2116000000 0.0392629 -0.1816280 0.9607371 0.1816280 0.9607371 0.1816280 0.0392629 -0.1816280
2137000000 0.0381489 -0.1787372 0.9618511 0.1787372 0.9618511 0.1787372 0.0381489 -0.1787372
2158000000 0.0370683 -0.1758802 0.9629317 0.1758802 0.9629317 0.1758802 0.0370683 -0.1758802
2179000000 0.0360201 -0.1730563 0.9639799 0.1730563 0.9639799 0.1730563 0.0360201 -0.1730563
2200000000 0.0350032 -0.1702649 0.9649968 0.1702649 0.9649968 0.1702649 0.0350032 -0.1702649
2221000000 0.0340165 -0.1675051 0.9659835 0.1675051 0.9659835 0.1675051 0.0340165 -0.1675051
2242000000 0.0330592 -0.1647765 0.9669408 0.1647765 0.9669408 0.1647765 0.0330592 -0.1647765
2263000000 0.0321301 -0.1620783 0.9678699 0.1620783 0.9678699 0.1620783 0.0321301 -0.1620783
2284000000 0.0312286 -0.1594100 0.9687714 0.1594100 0.9687714 0.1594100 0.0312286 -0.1594100
2305000000 0.0303536 -0.1567708 0.9696464 0.1567708 0.9696464 0.1567708 0.0303536 -0.1567708
2326000000 0.0295044 -0.1541602 0.9704956 0.1541602 0.9704956 0.1541602 0.0295044 -0.1541602
2347000000 0.0286801 -0.1515777 0.9713199 0.1515777 0.9713199 0.1515777 0.0286801 -0.1515777
2368000000 0.0278800 -0.1490226 0.9721200 0.1490226 0.9721200 0.1490226 0.0278800 -0.1490226
2389000000 0.0271034 -0.1464943 0.9728966 0.1464943 0.9728966 0.1464943 0.0271034 -0.1464943
2410000000 0.0263495 -0.1439924 0.9736505 0.1439924 0.9736505 0.1439924 0.0263495 -0.1439924
2431000000 0.0256177 -0.1415162 0.9743823 0.1415162 0.9743823 0.1415162 0.0256177 -0.1415162
2452000000 0.0249073 -0.1390653 0.9750927 0.1390653 0.9750927 0.1390653 0.0249073 -0.1390653
2473000000 0.0242177 -0.1366392 0.9757823 0.1366392 0.9757823 0.1366392 0.0242177 -0.1366392
2494000000 0.0235483 -0.1342373 0.9764517 0.1342373 0.9764517 0.1342373 0.0235483 -0.1342373
2515000000 0.0228985 -0.1318591 0.9771015 0.1318591 0.9771015 0.1318591 0.0228985 -0.1318591
2536000000 0.0222678 -0.1295043 0.9777322 0.1295043 0.9777322 0.1295043 0.0222678 -0.1295043
2557000000 0.0216555 -0.1271723 0.9783445 0.1271723 0.9783445 0.1271723 0.0216555 -0.1271723
2578000000 0.0210612 -0.1248626 0.9789388 0.1248626 0.9789388 0.1248626 0.0210612 -0.1248626
2599000000 0.0204845 -0.1225748 0.9795155 0.1225748 0.9795155 0.1225748 0.0204845 -0.1225748
2620000000 0.0199247 -0.1203085 0.9800753 0.1203085 0.9800753 0.1203085 0.0199247 -0.1203085
2641000000 0.0193815 -0.1180633 0.9806185 0.1180633 0.9806185 0.1180633 0.0193815 -0.1180633
2662000000 0.0188544 -0.1158387 0.9811456 0.1158387 0.9811456 0.1158387 0.0188544 -0.1158387
2683000000 0.0183429 -0.1136343 0.9816571 0.1136343 0.9816571 0.1136343 0.0183429 -0.1136343
2704000000 0.0178467 -0.1114498 0.9821533 0.1114498 0.9821533 0.1114498 0.0178467 -0.1114498
2725000000 0.0173654 -0.1092847 0.9826346 0.1092847 0.9826346 0.1092847 0.0173654 -0.1092847
2746000000 0.0168985 -0.1071387 0.9831015 0.1071387 0.9831015 0.1071387 0.0168985 -0.1071387
2767000000 0.0164458 -0.1050114 0.9835542 0.1050114 0.9835542 0.1050114 0.0164458 -0.1050114
2788000000 0.0160067 -0.1029024 0.9839933 0.1029024 0.9839933 0.1029024 0.0160067 -0.1029024
2809000000 0.0155811 -0.1008114 0.9844189 0.1008114 0.9844189 0.1008114 0.0155811 -0.1008114
2830000000 0.0151685 -0.0987381 0.9848315 0.0987381 0.9848315 0.0987381 0.0151685 -0.0987381
2851000000 0.0147687 -0.0966820 0.9852313 0.0966820 0.9852313 0.0966820 0.0147687 -0.0966820
2872000000 0.0143813 -0.0946429 0.9856187 0.0946429 0.9856187 0.0946429 0.0143813 -0.0946429
2893000000 0.0140060 -0.0926205 0.9859940 0.0926205 0.9859940 0.0926205 0.0140060 -0.0926205
2914000000 0.0136426 -0.0906144 0.9863574 0.0906144 0.9863574 0.0906144 0.0136426 -0.0906144
2935000000 0.0132907 -0.0886243 0.9867093 0.0886243 0.9867093 0.0886243 0.0132907 -0.0886243
2956000000 0.0129500 -0.0866499 0.9870500 0.0866499 0.9870500 0.0866499 0.0129500 -0.0866499
2977000000 0.0126205 -0.0846909 0.9873795 0.0846909 0.9873795 0.0846909 0.0126205 -0.0846909
2998000000 0.0123016 -0.0827471 0.9876984 0.0827471 0.9876984 0.0827471 0.0123016 -0.0827471
3019000000 0.0119933 -0.0808181 0.9880067 0.0808181 0.9880067 0.0808181 0.0119933 -0.0808181
3040000000 0.0116953 -0.0789037 0.9883047 0.0789037 0.9883047 0.0789037 0.0116953 -0.0789037
3061000000 0.0114074 -0.0770036 0.9885926 0.0770036 0.9885926 0.0770036 0.0114074 -0.0770036
3082000000 0.0111292 -0.0751175 0.9888708 0.0751175 0.9888708 0.0751175 0.0111292 -0.0751175
3103000000 0.0108607 -0.0732453 0.9891393 0.0732453 0.9891393 0.0732453 0.0108607 -0.0732453
3124000000 0.0106016 -0.0713865 0.9893984 0.0713865 0.9893984 0.0713865 0.0106016 -0.0713865
3145000000 0.0103518 -0.0695410 0.9896482 0.0695410 0.9896482 0.0695410 0.0103518 -0.0695410
3166000000 0.0101109 -0.0677086 0.9898891 0.0677086 0.9898891 0.0677086 0.0101109 -0.0677086
3187000000 0.0098789 -0.0658889 0.9901211 0.0658889 0.9901211 0.0658889 0.0098789 -0.0658889
3208000000 0.0096556 -0.0640818 0.9903444 0.0640818 0.9903444 0.0640818 0.0096556 -0.0640818
3229000000 0.0094407 -0.0622870 0.9905593 0.0622870 0.9905593 0.0622870 0.0094407 -0.0622870
3250000000 0.0092341 -0.0605044 0.9907659 0.0605044 0.9907659 0.0605044 0.0092341 -0.0605044
3271000000 0.0090357 -0.0587336 0.9909643 0.0587336 0.9909643 0.0587336 0.0090357 -0.0587336
3292000000 0.0088452 -0.0569745 0.9911548 0.0569745 0.9911548 0.0569745 0.0088452 -0.0569745
3313000000 0.0086626 -0.0552269 0.9913374 0.0552269 0.9913374 0.0552269 0.0086626 -0.0552269
3334000000 0.0084877 -0.0534905 0.9915123 0.0534905 0.9915123 0.0534905 0.0084877 -0.0534905
3355000000 0.0083203 -0.0517652 0.9916797 0.0517652 0.9916797 0.0517652 0.0083203 -0.0517652
3376000000 0.0081603 -0.0500508 0.9918397 0.0500508 0.9918397 0.0500508 0.0081603 -0.0500508
3397000000 0.0080075 -0.0483470 0.9919925 0.0483470 0.9919925 0.0483470 0.0080075 -0.0483470
3418000000 0.0078619 -0.0466537 0.9921381 0.0466537 0.9921381 0.0466537 0.0078619 -0.0466537
3439000000 0.0077233 -0.0449707 0.9922767 0.0449707 0.9922767 0.0449707 0.0077233 -0.0449707
3460000000 0.0075916 -0.0432977 0.9924084 0.0432977 0.9924084 0.0432977 0.0075916 -0.0432977
3481000000 0.0074666 -0.0416347 0.9925334 0.0416347 0.9925334 0.0416347 0.0074666 -0.0416347
3502000000 0.0073483 -0.0399815 0.9926517 0.0399815 0.9926517 0.0399815 0.0073483 -0.0399815
3523000000 0.0072365 -0.0383379 0.9927635 0.0383379 0.9927635 0.0383379 0.0072365 -0.0383379
3544000000 0.0071312 -0.0367036 0.9928688 0.0367036 0.9928688 0.0367036 0.0071312 -0.0367036
3565000000 0.0070321 -0.0350786 0.9929679 0.0350786 0.9929679 0.0350786 0.0070321 -0.0350786
3586000000 0.0069393 -0.0334627 0.9930607 0.0334627 0.9930607 0.0334627 0.0069393 -0.0334627
3607000000 0.0068526 -0.0318557 0.9931474 0.0318557 0.9931474 0.0318557 0.0068526 -0.0318557
3628000000 0.0067720 -0.0302574 0.9932280 0.0302574 0.9932280 0.0302574 0.0067720 -0.0302574
3649000000 0.0066972 -0.0286678 0.9933028 0.0286678 0.9933028 0.0286678 0.0066972 -0.0286678
3670000000 0.0066283 -0.0270866 0.9933717 0.0270866 0.9933717 0.0270866 0.0066283 -0.0270866
3691000000 0.0065652 -0.0255138 0.9934348 0.0255138 0.9934348 0.0255138 0.0065652 -0.0255138
3712000000 0.0065078 -0.0239491 0.9934922 0.0239491 0.9934922 0.0239491 0.0065078 -0.0239491
3733000000 0.0064559 -0.0223924 0.9935441 0.0223924 0.9935441 0.0223924 0.0064559 -0.0223924
3754000000 0.0064096 -0.0208436 0.9935904 0.0208436 0.9935904 0.0208436 0.0064096 -0.0208436
3775000000 0.0063687 -0.0193025 0.9936313 0.0193025 0.9936313 0.0193025 0.0063687 -0.0193025
3796000000 0.0063332 -0.0177691 0.9936668 0.0177691 0.9936668 0.0177691 0.0063332 -0.0177691
3817000000 0.0063030 -0.0162431 0.9936970 0.0162431 0.9936970 0.0162431 0.0063030 -0.0162431
3838000000 0.0062780 -0.0147244 0.9937220 0.0147244 0.9937220 0.0147244 0.0062780 -0.0147244
3859000000 0.0062581 -0.0132130 0.9937419 0.0132130 0.9937419 0.0132130 0.0062581 -0.0132130
3880000000 0.0062434 -0.0117087 0.9937566 0.0117087 0.9937566 0.0117087 0.0062434 -0.0117087
3901000000 0.0062337 -0.0102113 0.9937663 0.0102113 0.9937663 0.0102113 0.0062337 -0.0102113
3922000000 0.0062290 -0.0087207 0.9937710 0.0087207 0.9937710 0.0087207 0.0062290 -0.0087207
3943000000 0.0062292 -0.0072369 0.9937708 0.0072369 0.9937708 0.0072369 0.0062292 -0.0072369
3964000000 0.0062343 -0.0057596 0.9937657 0.0057596 0.9937657 0.0057596 0.0062343 -0.0057596
3985000000 0.0062442 -0.0042888 0.9937558 0.0042888 0.9937558 0.0042888 0.0062442 -0.0042888
4006000000 0.0062589 -0.0028244 0.9937411 0.0028244 0.9937411 0.0028244 0.0062589 -0.0028244
4027000000 0.0062783 -0.0013662 0.9937217 0.0013662 0.9937217 0.0013662 0.0062783 -0.0013662
4048000000 0.0063023 0.0000858 0.9936977 -0.0000858 0.9936977 -0.0000858 0.0063023 0.0000858
4069000000 0.0063310 0.0015318 0.9936690 -0.0015318 0.9936690 -0.0015318 0.0063310 0.0015318
4090000000 0.0063642 0.0029719 0.9936358 -0.0029719 0.9936358 -0.0029719 0.0063642 0.0029719
4111000000 0.0064020 0.0044061 0.9935980 -0.0044061 0.9935980 -0.0044061 0.0064020 0.0044061
4132000000 0.0064443 0.0058347 0.9935557 -0.0058347 0.9935557 -0.0058347 0.0064443 0.0058347
4153000000 0.0064910 0.0072577 0.9935090 -0.0072577 0.9935090 -0.0072577 0.0064910 0.0072577
4174000000 0.0065421 0.0086751 0.9934579 -0.0086751 0.9934579 -0.0086751 0.0065421 0.0086751
4195000000 0.0065976 0.0100872 0.9934024 -0.0100872 0.9934024 -0.0100872 0.0065976 0.0100872
4216000000 0.0066575 0.0114940 0.9933425 -0.0114940 0.9933425 -0.0114940 0.0066575 0.0114940
4237000000 0.0067217 0.0128955 0.9932783 -0.0128955 0.9932783 -0.0128955 0.0067217 0.0128955
4258000000 0.0067902 0.0142920 0.9932098 -0.0142920 0.9932098 -0.0142920 0.0067902 0.0142920
4279000000 0.0068629 0.0156835 0.9931371 -0.0156835 0.9931371 -0.0156835 0.0068629 0.0156835
4300000000 0.0069398 0.0170700 0.9930602 -0.0170700 0.9930602 -0.0170700 0.0069398 0.0170700
4321000000 0.0070210 0.0184517 0.9929790 -0.0184517 0.9929790 -0.0184517 0.0070210 0.0184517
4342000000 0.0071063 0.0198287 0.9928937 -0.0198287 0.9928937 -0.0198287 0.0071063 0.0198287
4363000000 0.0071958 0.0212011 0.9928042 -0.0212011 0.9928042 -0.0212011 0.0071958 0.0212011
4384000000 0.0072894 0.0225689 0.9927106 -0.0225689 0.9927106 -0.0225689 0.0072894 0.0225689
4405000000 0.0073871 0.0239323 0.9926129 -0.0239323 0.9926129 -0.0239323 0.0073871 0.0239323
4426000000 0.0074889 0.0252912 0.9925111 -0.0252912 0.9925111 -0.0252912 0.0074889 0.0252912
4447000000 0.0075948 0.0266459 0.9924052 -0.0266459 0.9924052 -0.0266459 0.0075948 0.0266459
4468000000 0.0077047 0.0279964 0.9922953 -0.0279964 0.9922953 -0.0279964 0.0077047 0.0279964
4489000000 0.0078186 0.0293428 0.9921814 -0.0293428 0.9921814 -0.0293428 0.0078186 0.0293428
4510000000 0.0079366 0.0306852 0.9920634 -0.0306852 0.9920634 -0.0306852 0.0079366 0.0306852
