!Murata Part Number: GRM1885C2A4R9CA01
!These Parameters are Measured in Series Mode Connection
!Data Generated on Mar 30, 2021
!       o--ll--o
!Port1            Port2
!       o------o
!Operation Temp=25[degC], DC Bias Voltage=0[V]
!Freq. Start=100[MHz] Stop=9[GHz] 401[Steps]
# Hz S RI R 50
!Freq.(Hz) S11(Real) S11(Imag) S21(Real) S21(Imag) S12(Real) S12(Imag) S22(Real) S22(Imag)
100000000 0.9131335 -0.2814068 0.0868665 0.2814068 0.0868665 0.2814068 0.9131335 -0.2814068
121000000 0.8776370 -0.3274055 0.1223630 0.3274055 0.1223630 0.3274055 0.8776370 -0.3274055
142000000 0.8387537 -0.3673845 0.1612463 0.3673845 0.1612463 0.3673845 0.8387537 -0.3673845
163000000 0.7976722 -0.4012797 0.2023278 0.4012797 0.2023278 0.4012797 0.7976722 -0.4012797
184000000 0.7554648 -0.4292662 0.2445352 0.4292662 0.2445352 0.4292662 0.7554648 -0.4292662
205000000 0.7130485 -0.4516974 0.2869515 0.4516974 0.2869515 0.4516974 0.7130485 -0.4516974
226000000 0.6711691 -0.4690447 0.3288309 0.4690447 0.3288309 0.4690447 0.6711691 -0.4690447
247000000 0.6304032 -0.4818442 0.3695968 0.4818442 0.3695968 0.4818442 0.6304032 -0.4818442
268000000 0.5911724 -0.4906537 0.4088276 0.4906537 0.4088276 0.4906537 0.5911724 -0.4906537
289000000 0.5537635 -0.4960213 0.4462365 0.4960213 0.4462365 0.4960213 0.5537635 -0.4960213
310000000 0.5183521 -0.4984637 0.4816479 0.4984637 0.4816479 0.4984637 0.5183521 -0.4984637
331000000 0.4850254 -0.4984539 0.5149746 0.4984539 0.5149746 0.4984539 0.4850254 -0.4984539
352000000 0.4538025 -0.4964147 0.5461975 0.4964147 0.5461975 0.4964147 0.4538025 -0.4964147
373000000 0.4246530 -0.4927168 0.5753470 0.4927168 0.5753470 0.4927168 0.4246530 -0.4927168
394000000 0.3975109 -0.4876813 0.6024891 0.4876813 0.6024891 0.4876813 0.3975109 -0.4876813
415000000 0.3722870 -0.4815823 0.6277130 0.4815823 0.6277130 0.4815823 0.3722870 -0.4815823
436000000 0.3488775 -0.4746518 0.6511225 0.4746518 0.6511225 0.4746518 0.3488775 -0.4746518
457000000 0.3271711 -0.4670844 0.6728289 0.4670844 0.6728289 0.4670844 0.3271711 -0.4670844
478000000 0.3070537 -0.4590424 0.6929463 0.4590424 0.6929463 0.4590424 0.3070537 -0.4590424
499000000 0.2884122 -0.4506599 0.7115878 0.4506599 0.7115878 0.4506599 0.2884122 -0.4506599
520000000 0.2711369 -0.4420473 0.7288631 0.4420473 0.7288631 0.4420473 0.2711369 -0.4420473
541000000 0.2551229 -0.4332946 0.7448771 0.4332946 0.7448771 0.4332946 0.2551229 -0.4332946
562000000 0.2402711 -0.4244753 0.7597289 0.4244753 0.7597289 0.4244753 0.2402711 -0.4244753
583000000 0.2264889 -0.4156483 0.7735111 0.4156483 0.7735111 0.4156483 0.2264889 -0.4156483
604000000 0.2136903 -0.4068610 0.7863097 0.4068610 0.7863097 0.4068610 0.2136903 -0.4068610
625000000 0.2017956 -0.3981510 0.7982044 0.3981510 0.7982044 0.3981510 0.2017956 -0.3981510
646000000 0.1907314 -0.3895478 0.8092686 0.3895478 0.8092686 0.3895478 0.1907314 -0.3895478
667000000 0.1804306 -0.3810741 0.8195694 0.3810741 0.8195694 0.3810741 0.1804306 -0.3810741
688000000 0.1708313 -0.3727474 0.8291687 0.3727474 0.8291687 0.3727474 0.1708313 -0.3727474
709000000 0.1618771 -0.3645805 0.8381229 0.3645805 0.8381229 0.3645805 0.1618771 -0.3645805
730000000 0.1535166 -0.3565826 0.8464834 0.3565826 0.8464834 0.3565826 0.1535166 -0.3565826
751000000 0.1457026 -0.3487599 0.8542974 0.3487599 0.8542974 0.3487599 0.1457026 -0.3487599
772000000 0.1383921 -0.3411163 0.8616079 0.3411163 0.8616079 0.3411163 0.1383921 -0.3411163
793000000 0.1315460 -0.3336537 0.8684540 0.3336537 0.8684540 0.3336537 0.1315460 -0.3336537
814000000 0.1251284 -0.3263723 0.8748716 0.3263723 0.8748716 0.3263723 0.1251284 -0.3263723
835000000 0.1191067 -0.3192712 0.8808933 0.3192712 0.8808933 0.3192712 0.1191067 -0.3192712
856000000 0.1134510 -0.3123484 0.8865490 0.3123484 0.8865490 0.3123484 0.1134510 -0.3123484
877000000 0.1081341 -0.3056013 0.8918659 0.3056013 0.8918659 0.3056013 0.1081341 -0.3056013
898000000 0.1031311 -0.2990266 0.8968689 0.2990266 0.8968689 0.2990266 0.1031311 -0.2990266
919000000 0.0984191 -0.2926205 0.9015809 0.2926205 0.9015809 0.2926205 0.0984191 -0.2926205
940000000 0.0939773 -0.2863788 0.9060227 0.2863788 0.9060227 0.2863788 0.0939773 -0.2863788
961000000 0.0897865 -0.2802974 0.9102135 0.2802974 0.9102135 0.2802974 0.0897865 -0.2802974
982000000 0.0858292 -0.2743716 0.9141708 0.2743716 0.9141708 0.2743716 0.0858292 -0.2743716
1003000000 0.0820892 -0.2685970 0.9179108 0.2685970 0.9179108 0.2685970 0.0820892 -0.2685970
1024000000 0.0785519 -0.2629689 0.9214481 0.2629689 0.9214481 0.2629689 0.0785519 -0.2629689
1045000000 0.0752035 -0.2574828 0.9247965 0.2574828 0.9247965 0.2574828 0.0752035 -0.2574828
1066000000 0.0720316 -0.2521339 0.9279684 0.2521339 0.9279684 0.2521339 0.0720316 -0.2521339
1087000000 0.0690246 -0.2469179 0.9309754 0.2469179 0.9309754 0.2469179 0.0690246 -0.2469179
1108000000 0.0661719 -0.2418303 0.9338281 0.2418303 0.9338281 0.2418303 0.0661719 -0.2418303
1129000000 0.0634637 -0.2368666 0.9365363 0.2368666 0.9365363 0.2368666 0.0634637 -0.2368666
1150000000 0.0608909 -0.2320227 0.9391091 0.2320227 0.9391091 0.2320227 0.0608909 -0.2320227
1171000000 0.0584450 -0.2272945 0.9415550 0.2272945 0.9415550 0.2272945 0.0584450 -0.2272945
1192000000 0.0561184 -0.2226779 0.9438816 0.2226779 0.9438816 0.2226779 0.0561184 -0.2226779
1213000000 0.0539039 -0.2181690 0.9460961 0.2181690 0.9460961 0.2181690 0.0539039 -0.2181690
1234000000 0.0517947 -0.2137641 0.9482053 0.2137641 0.9482053 0.2137641 0.0517947 -0.2137641
1255000000 0.0497847 -0.2094596 0.9502153 0.2094596 0.9502153 0.2094596 0.0497847 -0.2094596
1276000000 0.0478682 -0.2052519 0.9521318 0.2052519 0.9521318 0.2052519 0.0478682 -0.2052519
1297000000 0.0460398 -0.2011377 0.9539602 0.2011377 0.9539602 0.2011377 0.0460398 -0.2011377
1318000000 0.0442945 -0.1971136 0.9557055 0.1971136 0.9557055 0.1971136 0.0442945 -0.1971136
1339000000 0.0426277 -0.1931767 0.9573723 0.1931767 0.9573723 0.1931767 0.0426277 -0.1931767
1360000000 0.0410350 -0.1893238 0.9589650 0.1893238 0.9589650 0.1893238 0.0410350 -0.1893238
1381000000 0.0395126 -0.1855520 0.9604874 0.1855520 0.9604874 0.1855520 0.0395126 -0.1855520
1402000000 0.0380565 -0.1818586 0.9619435 0.1818586 0.9619435 0.1818586 0.0380565 -0.1818586
1423000000 0.0366633 -0.1782408 0.9633367 0.1782408 0.9633367 0.1782408 0.0366633 -0.1782408
1444000000 0.0353297 -0.1746962 0.9646703 0.1746962 0.9646703 0.1746962 0.0353297 -0.1746962
1465000000 0.0340526 -0.1712221 0.9659474 0.1712221 0.9659474 0.1712221 0.0340526 -0.1712221
1486000000 0.0328292 -0.1678163 0.9671708 0.1678163 0.9671708 0.1678163 0.0328292 -0.1678163
1507000000 0.0316567 -0.1644764 0.9683433 0.1644764 0.9683433 0.1644764 0.0316567 -0.1644764
1528000000 0.0305327 -0.1612002 0.9694673 0.1612002 0.9694673 0.1612002 0.0305327 -0.1612002
1549000000 0.0294547 -0.1579857 0.9705453 0.1579857 0.9705453 0.1579857 0.0294547 -0.1579857
1570000000 0.0284205 -0.1548308 0.9715795 0.1548308 0.9715795 0.1548308 0.0284205 -0.1548308
1591000000 0.0274281 -0.1517335 0.9725719 0.1517335 0.9725719 0.1517335 0.0274281 -0.1517335
1612000000 0.0264754 -0.1486920 0.9735246 0.1486920 0.9735246 0.1486920 0.0264754 -0.1486920
1633000000 0.0255606 -0.1457045 0.9744394 0.1457045 0.9744394 0.1457045 0.0255606 -0.1457045
1654000000 0.0246819 -0.1427692 0.9753181 0.1427692 0.9753181 0.1427692 0.0246819 -0.1427692
1675000000 0.0238378 -0.1398845 0.9761622 0.1398845 0.9761622 0.1398845 0.0238378 -0.1398845
1696000000 0.0230266 -0.1370488 0.9769734 0.1370488 0.9769734 0.1370488 0.0230266 -0.1370488
1717000000 0.0222469 -0.1342605 0.9777531 0.1342605 0.9777531 0.1342605 0.0222469 -0.1342605
1738000000 0.0214974 -0.1315182 0.9785026 0.1315182 0.9785026 0.1315182 0.0214974 -0.1315182
1759000000 0.0207766 -0.1288204 0.9792234 0.1288204 0.9792234 0.1288204 0.0207766 -0.1288204
1780000000 0.0200835 -0.1261657 0.9799165 0.1261657 0.9799165 0.1261657 0.0200835 -0.1261657
1801000000 0.0194167 -0.1235529 0.9805833 0.1235529 0.9805833 0.1235529 0.0194167 -0.1235529
1822000000 0.0187753 -0.1209807 0.9812247 0.1209807 0.9812247 0.1209807 0.0187753 -0.1209807
1843000000 0.0181581 -0.1184478 0.9818419 0.1184478 0.9818419 0.1184478 0.0181581 -0.1184478
1864000000 0.0175642 -0.1159531 0.9824358 0.1159531 0.9824358 0.1159531 0.0175642 -0.1159531
1885000000 0.0169926 -0.1134955 0.9830074 0.1134955 0.9830074 0.1134955 0.0169926 -0.1134955
1906000000 0.0164425 -0.1110738 0.9835575 0.1110738 0.9835575 0.1110738 0.0164425 -0.1110738
1927000000 0.0159130 -0.1086869 0.9840870 0.1086869 0.9840870 0.1086869 0.0159130 -0.1086869
1948000000 0.0154033 -0.1063340 0.9845967 0.1063340 0.9845967 0.1063340 0.0154033 -0.1063340
1969000000 0.0149126 -0.1040140 0.9850874 0.1040140 0.9850874 0.1040140 0.0149126 -0.1040140
1990000000 0.0144403 -0.1017259 0.9855597 0.1017259 0.9855597 0.1017259 0.0144403 -0.1017259
2011000000 0.0139856 -0.0994688 0.9860144 0.0994688 0.9860144 0.0994688 0.0139856 -0.0994688
2032000000 0.0135479 -0.0972419 0.9864521 0.0972419 0.9864521 0.0972419 0.0135479 -0.0972419
2053000000 0.0131265 -0.0950444 0.9868735 0.0950444 0.9868735 0.0950444 0.0131265 -0.0950444
2074000000 0.0127210 -0.0928753 0.9872790 0.0928753 0.9872790 0.0928753 0.0127210 -0.0928753
2095000000 0.0123306 -0.0907339 0.9876694 0.0907339 0.9876694 0.0907339 0.0123306 -0.0907339
2116000000 0.0119550 -0.0886195 0.9880450 0.0886195 0.9880450 0.0886195 0.0119550 -0.0886195
2137000000 0.0115935 -0.0865312 0.9884065 0.0865312 0.9884065 0.0865312 0.0115935 -0.0865312
2158000000 0.0112457 -0.0844685 0.9887543 0.0844685 0.9887543 0.0844685 0.0112457 -0.0844685
2179000000 0.0109111 -0.0824305 0.9890889 0.0824305 0.9890889 0.0824305 0.0109111 -0.0824305
2200000000 0.0105893 -0.0804167 0.9894107 0.0804167 0.9894107 0.0804167 0.0105893 -0.0804167
2221000000 0.0102799 -0.0784264 0.9897201 0.0784264 0.9897201 0.0784264 0.0102799 -0.0784264
2242000000 0.0099824 -0.0764589 0.9900176 0.0764589 0.9900176 0.0764589 0.0099824 -0.0764589
2263000000 0.0096965 -0.0745137 0.9903035 0.0745137 0.9903035 0.0745137 0.0096965 -0.0745137
2284000000 0.0094218 -0.0725901 0.9905782 0.0725901 0.9905782 0.0725901 0.0094218 -0.0725901
2305000000 0.0091580 -0.0706877 0.9908420 0.0706877 0.9908420 0.0706877 0.0091580 -0.0706877
2326000000 0.0089046 -0.0688058 0.9910954 0.0688058 0.9910954 0.0688058 0.0089046 -0.0688058
2347000000 0.0086615 -0.0669439 0.9913385 0.0669439 0.9913385 0.0669439 0.0086615 -0.0669439
2368000000 0.0084283 -0.0651016 0.9915717 0.0651016 0.9915717 0.0651016 0.0084283 -0.0651016
2389000000 0.0082046 -0.0632782 0.9917954 0.0632782 0.9917954 0.0632782 0.0082046 -0.0632782
2410000000 0.0079903 -0.0614734 0.9920097 0.0614734 0.9920097 0.0614734 0.0079903 -0.0614734
2431000000 0.0077850 -0.0596866 0.9922150 0.0596866 0.9922150 0.0596866 0.0077850 -0.0596866
2452000000 0.0075885 -0.0579175 0.9924115 0.0579175 0.9924115 0.0579175 0.0075885 -0.0579175
2473000000 0.0074006 -0.0561655 0.9925994 0.0561655 0.9925994 0.0561655 0.0074006 -0.0561655
2494000000 0.0072210 -0.0544302 0.9927790 0.0544302 0.9927790 0.0544302 0.0072210 -0.0544302
2515000000 0.0070494 -0.0527113 0.9929506 0.0527113 0.9929506 0.0527113 0.0070494 -0.0527113
2536000000 0.0068858 -0.0510082 0.9931142 0.0510082 0.9931142 0.0510082 0.0068858 -0.0510082
2557000000 0.0067298 -0.0493207 0.9932702 0.0493207 0.9932702 0.0493207 0.0067298 -0.0493207
2578000000 0.0065812 -0.0476484 0.9934188 0.0476484 0.9934188 0.0476484 0.0065812 -0.0476484
2599000000 0.0064399 -0.0459908 0.9935601 0.0459908 0.9935601 0.0459908 0.0064399 -0.0459908
2620000000 0.0063057 -0.0443476 0.9936943 0.0443476 0.9936943 0.0443476 0.0063057 -0.0443476
2641000000 0.0061784 -0.0427185 0.9938216 0.0427185 0.9938216 0.0427185 0.0061784 -0.0427185
2662000000 0.0060579 -0.0411031 0.9939421 0.0411031 0.9939421 0.0411031 0.0060579 -0.0411031
2683000000 0.0059439 -0.0395011 0.9940561 0.0395011 0.9940561 0.0395011 0.0059439 -0.0395011
2704000000 0.0058364 -0.0379122 0.9941636 0.0379122 0.9941636 0.0379122 0.0058364 -0.0379122
2725000000 0.0057351 -0.0363360 0.9942649 0.0363360 0.9942649 0.0363360 0.0057351 -0.0363360
2746000000 0.0056400 -0.0347723 0.9943600 0.0347723 0.9943600 0.0347723 0.0056400 -0.0347723
2767000000 0.0055509 -0.0332208 0.9944491 0.0332208 0.9944491 0.0332208 0.0055509 -0.0332208
2788000000 0.0054676 -0.0316811 0.9945324 0.0316811 0.9945324 0.0316811 0.0054676 -0.0316811
2809000000 0.0053901 -0.0301530 0.9946099 0.0301530 0.9946099 0.0301530 0.0053901 -0.0301530
2830000000 0.0053182 -0.0286362 0.9946818 0.0286362 0.9946818 0.0286362 0.0053182 -0.0286362
2851000000 0.0052518 -0.0271305 0.9947482 0.0271305 0.9947482 0.0271305 0.0052518 -0.0271305
2872000000 0.0051908 -0.0256356 0.9948092 0.0256356 0.9948092 0.0256356 0.0051908 -0.0256356
2893000000 0.0051351 -0.0241512 0.9948649 0.0241512 0.9948649 0.0241512 0.0051351 -0.0241512
2914000000 0.0050846 -0.0226771 0.9949154 0.0226771 0.9949154 0.0226771 0.0050846 -0.0226771
2935000000 0.0050391 -0.0212130 0.9949609 0.0212130 0.9949609 0.0212130 0.0050391 -0.0212130
2956000000 0.0049987 -0.0197587 0.9950013 0.0197587 0.9950013 0.0197587 0.0049987 -0.0197587
2977000000 0.0049631 -0.0183140 0.9950369 0.0183140 0.9950369 0.0183140 0.0049631 -0.0183140
2998000000 0.0049324 -0.0168787 0.9950676 0.0168787 0.9950676 0.0168787 0.0049324 -0.0168787
3019000000 0.0049063 -0.0154525 0.9950937 0.0154525 0.9950937 0.0154525 0.0049063 -0.0154525
3040000000 0.0048850 -0.0140353 0.9951150 0.0140353 0.9951150 0.0140353 0.0048850 -0.0140353
3061000000 0.0048682 -0.0126267 0.9951318 0.0126267 0.9951318 0.0126267 0.0048682 -0.0126267
3082000000 0.0048558 -0.0112267 0.9951442 0.0112267 0.9951442 0.0112267 0.0048558 -0.0112267
3103000000 0.0048480 -0.0098349 0.9951520 0.0098349 0.9951520 0.0098349 0.0048480 -0.0098349
3124000000 0.0048444 -0.0084513 0.9951556 0.0084513 0.9951556 0.0084513 0.0048444 -0.0084513
3145000000 0.0048452 -0.0070756 0.9951548 0.0070756 0.9951548 0.0070756 0.0048452 -0.0070756
3166000000 0.0048502 -0.0057076 0.9951498 0.0057076 0.9951498 0.0057076 0.0048502 -0.0057076
3187000000 0.0048594 -0.0043472 0.9951406 0.0043472 0.9951406 0.0043472 0.0048594 -0.0043472
3208000000 0.0048727 -0.0029942 0.9951273 0.0029942 0.9951273 0.0029942 0.0048727 -0.0029942
3229000000 0.0048900 -0.0016483 0.9951100 0.0016483 0.9951100 0.0016483 0.0048900 -0.0016483
3250000000 0.0049114 -0.0003095 0.9950886 0.0003095 0.9950886 0.0003095 0.0049114 -0.0003095
3271000000 0.0049368 0.0010224 0.9950632 -0.0010224 0.9950632 -0.0010224 0.0049368 0.0010224
3292000000 0.0049660 0.0023477 0.9950340 -0.0023477 0.9950340 -0.0023477 0.0049660 0.0023477
3313000000 0.0049991 0.0036665 0.9950009 -0.0036665 0.9950009 -0.0036665 0.0049991 0.0036665
3334000000 0.0050361 0.0049789 0.9949639 -0.0049789 0.9949639 -0.0049789 0.0050361 0.0049789
3355000000 0.0050769 0.0062850 0.9949231 -0.0062850 0.9949231 -0.0062850 0.0050769 0.0062850
3376000000 0.0051214 0.0075851 0.9948786 -0.0075851 0.9948786 -0.0075851 0.0051214 0.0075851
3397000000 0.0051696 0.0088793 0.9948304 -0.0088793 0.9948304 -0.0088793 0.0051696 0.0088793
3418000000 0.0052215 0.0101678 0.9947785 -0.0101678 0.9947785 -0.0101678 0.0052215 0.0101678
3439000000 0.0052770 0.0114506 0.9947230 -0.0114506 0.9947230 -0.0114506 0.0052770 0.0114506
3460000000 0.0053362 0.0127279 0.9946638 -0.0127279 0.9946638 -0.0127279 0.0053362 0.0127279
3481000000 0.0053990 0.0140000 0.9946010 -0.0140000 0.9946010 -0.0140000 0.0053990 0.0140000
3502000000 0.0054653 0.0152668 0.9945347 -0.0152668 0.9945347 -0.0152668 0.0054653 0.0152668
3523000000 0.0055352 0.0165285 0.9944648 -0.0165285 0.9944648 -0.0165285 0.0055352 0.0165285
3544000000 0.0056086 0.0177854 0.9943914 -0.0177854 0.9943914 -0.0177854 0.0056086 0.0177854
3565000000 0.0056856 0.0190374 0.9943144 -0.0190374 0.9943144 -0.0190374 0.0056856 0.0190374
3586000000 0.0057660 0.0202848 0.9942340 -0.0202848 0.9942340 -0.0202848 0.0057660 0.0202848
3607000000 0.0058498 0.0215276 0.9941502 -0.0215276 0.9941502 -0.0215276 0.0058498 0.0215276
3628000000 0.0059371 0.0227661 0.9940629 -0.0227661 0.9940629 -0.0227661 0.0059371 0.0227661
3649000000 0.0060279 0.0240002 0.9939721 -0.0240002 0.9939721 -0.0240002 0.0060279 0.0240002
3670000000 0.0061220 0.0252302 0.9938780 -0.0252302 0.9938780 -0.0252302 0.0061220 0.0252302
3691000000 0.0062196 0.0264561 0.9937804 -0.0264561 0.9937804 -0.0264561 0.0062196 0.0264561
3712000000 0.0063206 0.0276781 0.9936794 -0.0276781 0.9936794 -0.0276781 0.0063206 0.0276781
3733000000 0.0064250 0.0288963 0.9935750 -0.0288963 0.9935750 -0.0288963 0.0064250 0.0288963
3754000000 0.0065328 0.0301108 0.9934672 -0.0301108 0.9934672 -0.0301108 0.0065328 0.0301108
3775000000 0.0066440 0.0313218 0.9933560 -0.0313218 0.9933560 -0.0313218 0.0066440 0.0313218
3796000000 0.0067585 0.0325292 0.9932415 -0.0325292 0.9932415 -0.0325292 0.0067585 0.0325292
3817000000 0.0068764 0.0337334 0.9931236 -0.0337334 0.9931236 -0.0337334 0.0068764 0.0337334
3838000000 0.0069978 0.0349343 0.9930022 -0.0349343 0.9930022 -0.0349343 0.0069978 0.0349343
3859000000 0.0071225 0.0361320 0.9928775 -0.0361320 0.9928775 -0.0361320 0.0071225 0.0361320
3880000000 0.0072506 0.0373268 0.9927494 -0.0373268 0.9927494 -0.0373268 0.0072506 0.0373268
3901000000 0.0073821 0.0385186 0.9926179 -0.0385186 0.9926179 -0.0385186 0.0073821 0.0385186
3922000000 0.0075170 0.0397077 0.9924830 -0.0397077 0.9924830 -0.0397077 0.0075170 0.0397077
3943000000 0.0076553 0.0408940 0.9923447 -0.0408940 0.9923447 -0.0408940 0.0076553 0.0408940
3964000000 0.0077970 0.0420778 0.9922030 -0.0420778 0.9922030 -0.0420778 0.0077970 0.0420778
3985000000 0.0079422 0.0432591 0.9920578 -0.0432591 0.9920578 -0.0432591 0.0079422 0.0432591
4006000000 0.0080909 0.0444380 0.9919091 -0.0444380 0.9919091 -0.0444380 0.0080909 0.0444380
4027000000 0.0082429 0.0456147 0.9917571 -0.0456147 0.9917571 -0.0456147 0.0082429 0.0456147
4048000000 0.0083985 0.0467892 0.9916015 -0.0467892 0.9916015 -0.0467892 0.0083985 0.0467892
4069000000 0.0085576 0.0479616 0.9914424 -0.0479616 0.9914424 -0.0479616 0.0085576 0.0479616
4090000000 0.0087202 0.0491321 0.9912798 -0.0491321 0.9912798 -0.0491321 0.0087202 0.0491321
4111000000 0.0088864 0.0503007 0.9911136 -0.0503007 0.9911136 -0.0503007 0.0088864 0.0503007
4132000000 0.0090561 0.0514675 0.9909439 -0.0514675 0.9909439 -0.0514675 0.0090561 0.0514675
4153000000 0.0092294 0.0526328 0.9907706 -0.0526328 0.9907706 -0.0526328 0.0092294 0.0526328
4174000000 0.0094064 0.0537964 0.9905936 -0.0537964 0.9905936 -0.0537964 0.0094064 0.0537964
4195000000 0.0095870 0.0549586 0.9904130 -0.0549586 0.9904130 -0.0549586 0.0095870 0.0549586
4216000000 0.0097713 0.0561195 0.9902287 -0.0561195 0.9902287 -0.0561195 0.0097713 0.0561195
4237000000 0.0099593 0.0572791 0.9900407 -0.0572791 0.9900407 -0.0572791 0.0099593 0.0572791
4258000000 0.0101511 0.0584376 0.9898489 -0.0584376 0.9898489 -0.0584376 0.0101511 0.0584376
4279000000 0.0103467 0.0595951 0.9896533 -0.0595951 0.9896533 -0.0595951 0.0103467 0.0595951
4300000000 0.0105461 0.0607516 0.9894539 -0.0607516 0.9894539 -0.0607516 0.0105461 0.0607516
4321000000 0.0107494 0.0619073 0.9892506 -0.0619073 0.9892506 -0.0619073 0.0107494 0.0619073
4342000000 0.0109567 0.0630622 0.9890433 -0.0630622 0.9890433 -0.0630622 0.0109567 0.0630622
4363000000 0.0111679 0.0642166 0.9888321 -0.0642166 0.9888321 -0.0642166 0.0111679 0.0642166
4384000000 0.0113832 0.0653704 0.9886168 -0.0653704 0.9886168 -0.0653704 0.0113832 0.0653704
4405000000 0.0116025 0.0665238 0.9883975 -0.0665238 0.9883975 -0.0665238 0.0116025 0.0665238
4426000000 0.0118260 0.0676769 0.9881740 -0.0676769 0.9881740 -0.0676769 0.0118260 0.0676769
4447000000 0.0120537 0.0688298 0.9879463 -0.0688298 0.9879463 -0.0688298 0.0120537 0.0688298
4468000000 0.0122857 0.0699826 0.9877143 -0.0699826 0.9877143 -0.0699826 0.0122857 0.0699826
4489000000 0.0125220 0.0711354 0.9874780 -0.0711354 0.9874780 -0.0711354 0.0125220 0.0711354
4510000000 0.0127627 0.0722883 0.9872373 -0.0722883 0.9872373 -0.0722883 0.0127627 0.0722883
