!Murata Part Number: GRM1885C1H390JA01
!These Parameters are Measured in Series Mode Connection
!Data Generated on Mar 30, 2021
!       o--ll--o
!Port1            Port2
!       o------o
!Operation Temp=25[degC], DC Bias Voltage=0[V]
!Freq. Start=100[MHz] Stop=9[GHz] 401[Steps]
# Hz S RI R 50
!Freq.(Hz) S11(Real) S11(Imag) S21(Real) S21(Imag) S12(Real) S12(Imag) S22(Real) S22(Imag)
100000000 0.1419870 -0.3468161 0.8580130 0.3468161 0.8580130 0.3468161 0.1419870 -0.3468161
121000000 0.1013616 -0.2991107 0.8986384 0.2991107 0.8986384 0.2991107 0.1013616 -0.2991107
142000000 0.0755313 -0.2610697 0.9244687 0.2610697 0.9244687 0.2610697 0.0755313 -0.2610697
163000000 0.0582356 -0.2305242 0.9417644 0.2305242 0.9417644 0.2305242 0.0582356 -0.2305242
184000000 0.0461471 -0.2056453 0.9538529 0.2056453 0.9538529 0.2056453 0.0461471 -0.2056453
205000000 0.0373938 -0.1850639 0.9626062 0.1850639 0.9626062 0.1850639 0.0373938 -0.1850639
226000000 0.0308660 -0.1677822 0.9691340 0.1677822 0.9691340 0.1677822 0.0308660 -0.1677822
247000000 0.0258763 -0.1530720 0.9741237 0.1530720 0.9741237 0.1530720 0.0258763 -0.1530720
268000000 0.0219816 -0.1403961 0.9780184 0.1403961 0.9780184 0.1403961 0.0219816 -0.1403961
289000000 0.0188867 -0.1293526 0.9811133 0.1293526 0.9811133 0.1293526 0.0188867 -0.1293526
310000000 0.0163893 -0.1196362 0.9836107 0.1196362 0.9836107 0.1196362 0.0163893 -0.1196362
331000000 0.0143468 -0.1110119 0.9856532 0.1110119 0.9856532 0.1110119 0.0143468 -0.1110119
352000000 0.0126569 -0.1032958 0.9873431 0.1032958 0.9873431 0.1032958 0.0126569 -0.1032958
373000000 0.0112442 -0.0963426 0.9887558 0.0963426 0.9887558 0.0963426 0.0112442 -0.0963426
394000000 0.0100526 -0.0900362 0.9899474 0.0900362 0.9899474 0.0900362 0.0100526 -0.0900362
415000000 0.0090396 -0.0842823 0.9909604 0.0842823 0.9909604 0.0842823 0.0090396 -0.0842823
436000000 0.0081723 -0.0790041 0.9918277 0.0790041 0.9918277 0.0790041 0.0081723 -0.0790041
457000000 0.0074251 -0.0741381 0.9925749 0.0741381 0.9925749 0.0741381 0.0074251 -0.0741381
478000000 0.0067780 -0.0696316 0.9932220 0.0696316 0.9932220 0.0696316 0.0067780 -0.0696316
499000000 0.0062148 -0.0654404 0.9937852 0.0654404 0.9937852 0.0654404 0.0062148 -0.0654404
520000000 0.0057226 -0.0615271 0.9942774 0.0615271 0.9942774 0.0615271 0.0057226 -0.0615271
541000000 0.0052910 -0.0578601 0.9947090 0.0578601 0.9947090 0.0578601 0.0052910 -0.0578601
562000000 0.0049113 -0.0544123 0.9950887 0.0544123 0.9950887 0.0544123 0.0049113 -0.0544123
583000000 0.0045765 -0.0511603 0.9954235 0.0511603 0.9954235 0.0511603 0.0045765 -0.0511603
604000000 0.0042806 -0.0480839 0.9957194 0.0480839 0.9957194 0.0480839 0.0042806 -0.0480839
625000000 0.0040189 -0.0451656 0.9959811 0.0451656 0.9959811 0.0451656 0.0040189 -0.0451656
646000000 0.0037870 -0.0423902 0.9962130 0.0423902 0.9962130 0.0423902 0.0037870 -0.0423902
667000000 0.0035816 -0.0397441 0.9964184 0.0397441 0.9964184 0.0397441 0.0035816 -0.0397441
688000000 0.0033996 -0.0372157 0.9966004 0.0372157 0.9966004 0.0372157 0.0033996 -0.0372157
709000000 0.0032386 -0.0347944 0.9967614 0.0347944 0.9967614 0.0347944 0.0032386 -0.0347944
730000000 0.0030964 -0.0324709 0.9969036 0.0324709 0.9969036 0.0324709 0.0030964 -0.0324709
751000000 0.0029710 -0.0302370 0.9970290 0.0302370 0.9970290 0.0302370 0.0029710 -0.0302370
772000000 0.0028609 -0.0280854 0.9971391 0.0280854 0.9971391 0.0280854 0.0028609 -0.0280854
793000000 0.0027646 -0.0260094 0.9972354 0.0260094 0.9972354 0.0260094 0.0027646 -0.0260094
814000000 0.0026810 -0.0240030 0.9973190 0.0240030 0.9973190 0.0240030 0.0026810 -0.0240030
835000000 0.0026089 -0.0220609 0.9973911 0.0220609 0.9973911 0.0220609 0.0026089 -0.0220609
856000000 0.0025474 -0.0201782 0.9974526 0.0201782 0.9974526 0.0201782 0.0025474 -0.0201782
877000000 0.0024958 -0.0183506 0.9975042 0.0183506 0.9975042 0.0183506 0.0024958 -0.0183506
898000000 0.0024533 -0.0165741 0.9975467 0.0165741 0.9975467 0.0165741 0.0024533 -0.0165741
919000000 0.0024192 -0.0148449 0.9975808 0.0148449 0.9975808 0.0148449 0.0024192 -0.0148449
940000000 0.0023930 -0.0131598 0.9976070 0.0131598 0.9976070 0.0131598 0.0023930 -0.0131598
961000000 0.0023742 -0.0115158 0.9976258 0.0115158 0.9976258 0.0115158 0.0023742 -0.0115158
982000000 0.0023624 -0.0099100 0.9976376 0.0099100 0.9976376 0.0099100 0.0023624 -0.0099100
1003000000 0.0023572 -0.0083398 0.9976428 0.0083398 0.9976428 0.0083398 0.0023572 -0.0083398
1024000000 0.0023582 -0.0068030 0.9976418 0.0068030 0.9976418 0.0068030 0.0023582 -0.0068030
1045000000 0.0023652 -0.0052972 0.9976348 0.0052972 0.9976348 0.0052972 0.0023652 -0.0052972
1066000000 0.0023779 -0.0038205 0.9976221 0.0038205 0.9976221 0.0038205 0.0023779 -0.0038205
1087000000 0.0023961 -0.0023710 0.9976039 0.0023710 0.9976039 0.0023710 0.0023961 -0.0023710
1108000000 0.0024195 -0.0009470 0.9975805 0.0009470 0.9975805 0.0009470 0.0024195 -0.0009470
1129000000 0.0024480 0.0004532 0.9975520 -0.0004532 0.9975520 -0.0004532 0.0024480 0.0004532
1150000000 0.0024815 0.0018311 0.9975185 -0.0018311 0.9975185 -0.0018311 0.0024815 0.0018311
1171000000 0.0025199 0.0031881 0.9974801 -0.0031881 0.9974801 -0.0031881 0.0025199 0.0031881
1192000000 0.0025629 0.0045256 0.9974371 -0.0045256 0.9974371 -0.0045256 0.0025629 0.0045256
1213000000 0.0026107 0.0058447 0.9973893 -0.0058447 0.9973893 -0.0058447 0.0026107 0.0058447
1234000000 0.0026631 0.0071467 0.9973369 -0.0071467 0.9973369 -0.0071467 0.0026631 0.0071467
1255000000 0.0027200 0.0084327 0.9972800 -0.0084327 0.9972800 -0.0084327 0.0027200 0.0084327
1276000000 0.0027815 0.0097037 0.9972185 -0.0097037 0.9972185 -0.0097037 0.0027815 0.0097037
1297000000 0.0028475 0.0109608 0.9971525 -0.0109608 0.9971525 -0.0109608 0.0028475 0.0109608
1318000000 0.0029181 0.0122048 0.9970819 -0.0122048 0.9970819 -0.0122048 0.0029181 0.0122048
1339000000 0.0029934 0.0134366 0.9970066 -0.0134366 0.9970066 -0.0134366 0.0029934 0.0134366
1360000000 0.0030733 0.0146572 0.9969267 -0.0146572 0.9969267 -0.0146572 0.0030733 0.0146572
1381000000 0.0031580 0.0158673 0.9968420 -0.0158673 0.9968420 -0.0158673 0.0031580 0.0158673
1402000000 0.0032475 0.0170678 0.9967525 -0.0170678 0.9967525 -0.0170678 0.0032475 0.0170678
1423000000 0.0033420 0.0182593 0.9966580 -0.0182593 0.9966580 -0.0182593 0.0033420 0.0182593
1444000000 0.0034416 0.0194427 0.9965584 -0.0194427 0.9965584 -0.0194427 0.0034416 0.0194427
1465000000 0.0035465 0.0206185 0.9964535 -0.0206185 0.9964535 -0.0206185 0.0035465 0.0206185
1486000000 0.0036569 0.0217876 0.9963431 -0.0217876 0.9963431 -0.0217876 0.0036569 0.0217876
1507000000 0.0037730 0.0229506 0.9962270 -0.0229506 0.9962270 -0.0229506 0.0037730 0.0229506
1528000000 0.0038952 0.0241081 0.9961048 -0.0241081 0.9961048 -0.0241081 0.0038952 0.0241081
1549000000 0.0040236 0.0252607 0.9959764 -0.0252607 0.9959764 -0.0252607 0.0040236 0.0252607
1570000000 0.0041588 0.0264091 0.9958412 -0.0264091 0.9958412 -0.0264091 0.0041588 0.0264091
1591000000 0.0043010 0.0275540 0.9956990 -0.0275540 0.9956990 -0.0275540 0.0043010 0.0275540
1612000000 0.0044507 0.0286958 0.9955493 -0.0286958 0.9955493 -0.0286958 0.0044507 0.0286958
1633000000 0.0046085 0.0298352 0.9953915 -0.0298352 0.9953915 -0.0298352 0.0046085 0.0298352
1654000000 0.0047749 0.0309727 0.9952251 -0.0309727 0.9952251 -0.0309727 0.0047749 0.0309727
1675000000 0.0049507 0.0321090 0.9950493 -0.0321090 0.9950493 -0.0321090 0.0049507 0.0321090
1696000000 0.0051365 0.0332444 0.9948635 -0.0332444 0.9948635 -0.0332444 0.0051365 0.0332444
1717000000 0.0053333 0.0343797 0.9946667 -0.0343797 0.9946667 -0.0343797 0.0053333 0.0343797
1738000000 0.0055421 0.0355152 0.9944579 -0.0355152 0.9944579 -0.0355152 0.0055421 0.0355152
1759000000 0.0057640 0.0366514 0.9942360 -0.0366514 0.9942360 -0.0366514 0.0057640 0.0366514
1780000000 0.0060004 0.0377887 0.9939996 -0.0377887 0.9939996 -0.0377887 0.0060004 0.0377887
1801000000 0.0062527 0.0389275 0.9937473 -0.0389275 0.9937473 -0.0389275 0.0062527 0.0389275
1822000000 0.0065227 0.0400679 0.9934773 -0.0400679 0.9934773 -0.0400679 0.0065227 0.0400679
1843000000 0.0068125 0.0412101 0.9931875 -0.0412101 0.9931875 -0.0412101 0.0068125 0.0412101
1864000000 0.0071242 0.0423540 0.9928758 -0.0423540 0.9928758 -0.0423540 0.0071242 0.0423540
1885000000 0.0074605 0.0434993 0.9925395 -0.0434993 0.9925395 -0.0434993 0.0074605 0.0434993
1906000000 0.0078244 0.0446454 0.9921756 -0.0446454 0.9921756 -0.0446454 0.0078244 0.0446454
1927000000 0.0082194 0.0457912 0.9917806 -0.0457912 0.9917806 -0.0457912 0.0082194 0.0457912
1948000000 0.0086493 0.0469351 0.9913507 -0.0469351 0.9913507 -0.0469351 0.0086493 0.0469351
1969000000 0.0091186 0.0480748 0.9908814 -0.0480748 0.9908814 -0.0480748 0.0091186 0.0480748
1990000000 0.0096320 0.0492068 0.9903680 -0.0492068 0.9903680 -0.0492068 0.0096320 0.0492068
2011000000 0.0101949 0.0503265 0.9898051 -0.0503265 0.9898051 -0.0503265 0.0101949 0.0503265
2032000000 0.0108129 0.0514275 0.9891871 -0.0514275 0.9891871 -0.0514275 0.0108129 0.0514275
2053000000 0.0114916 0.0525013 0.9885084 -0.0525013 0.9885084 -0.0525013 0.0114916 0.0525013
2074000000 0.0122361 0.0535365 0.9877639 -0.0535365 0.9877639 -0.0535365 0.0122361 0.0535365
2095000000 0.0130506 0.0545186 0.9869494 -0.0545186 0.9869494 -0.0545186 0.0130506 0.0545186
2116000000 0.0139365 0.0554294 0.9860635 -0.0554294 0.9860635 -0.0554294 0.0139365 0.0554294
2137000000 0.0148913 0.0562466 0.9851087 -0.0562466 0.9851087 -0.0562466 0.0148913 0.0562466
2158000000 0.0159064 0.0569446 0.9840936 -0.0569446 0.9840936 -0.0569446 0.0159064 0.0569446
2179000000 0.0169638 0.0574954 0.9830362 -0.0574954 0.9830362 -0.0574954 0.0169638 0.0574954
2200000000 0.0180344 0.0578723 0.9819656 -0.0578723 0.9819656 -0.0578723 0.0180344 0.0578723
2221000000 0.0190755 0.0580546 0.9809245 -0.0580546 0.9809245 -0.0580546 0.0190755 0.0580546
2242000000 0.0200323 0.0580343 0.9799677 -0.0580343 0.9799677 -0.0580343 0.0200323 0.0580343
2263000000 0.0208421 0.0578236 0.9791579 -0.0578236 0.9791579 -0.0578236 0.0208421 0.0578236
2284000000 0.0214441 0.0574596 0.9785559 -0.0574596 0.9785559 -0.0574596 0.0214441 0.0574596
2305000000 0.0217914 0.0570037 0.9782086 -0.0570037 0.9782086 -0.0570037 0.0217914 0.0570037
2326000000 0.0218625 0.0565343 0.9781375 -0.0565343 0.9781375 -0.0565343 0.0218625 0.0565343
2347000000 0.0216674 0.0561325 0.9783326 -0.0561325 0.9783326 -0.0561325 0.0216674 0.0561325
2368000000 0.0212450 0.0558681 0.9787550 -0.0558681 0.9787550 -0.0558681 0.0212450 0.0558681
2389000000 0.0206533 0.0557881 0.9793467 -0.0557881 0.9793467 -0.0557881 0.0206533 0.0557881
2410000000 0.0199569 0.0559138 0.9800431 -0.0559138 0.9800431 -0.0559138 0.0199569 0.0559138
2431000000 0.0192156 0.0562434 0.9807844 -0.0562434 0.9807844 -0.0562434 0.0192156 0.0562434
2452000000 0.0184780 0.0567592 0.9815220 -0.0567592 0.9815220 -0.0567592 0.0184780 0.0567592
2473000000 0.0177787 0.0574350 0.9822213 -0.0574350 0.9822213 -0.0574350 0.0177787 0.0574350
2494000000 0.0171399 0.0582415 0.9828601 -0.0582415 0.9828601 -0.0582415 0.0171399 0.0582415
2515000000 0.0165733 0.0591511 0.9834267 -0.0591511 0.9834267 -0.0591511 0.0165733 0.0591511
2536000000 0.0160831 0.0601391 0.9839169 -0.0601391 0.9839169 -0.0601391 0.0160831 0.0601391
2557000000 0.0156686 0.0611853 0.9843314 -0.0611853 0.9843314 -0.0611853 0.0156686 0.0611853
2578000000 0.0153261 0.0622734 0.9846739 -0.0622734 0.9846739 -0.0622734 0.0153261 0.0622734
2599000000 0.0150505 0.0633906 0.9849495 -0.0633906 0.9849495 -0.0633906 0.0150505 0.0633906
2620000000 0.0148357 0.0645273 0.9851643 -0.0645273 0.9851643 -0.0645273 0.0148357 0.0645273
2641000000 0.0146760 0.0656762 0.9853240 -0.0656762 0.9853240 -0.0656762 0.0146760 0.0656762
2662000000 0.0145656 0.0668322 0.9854344 -0.0668322 0.9854344 -0.0668322 0.0145656 0.0668322
2683000000 0.0144995 0.0679912 0.9855005 -0.0679912 0.9855005 -0.0679912 0.0144995 0.0679912
2704000000 0.0144729 0.0691506 0.9855271 -0.0691506 0.9855271 -0.0691506 0.0144729 0.0691506
2725000000 0.0144818 0.0703086 0.9855182 -0.0703086 0.9855182 -0.0703086 0.0144818 0.0703086
2746000000 0.0145226 0.0714638 0.9854774 -0.0714638 0.9854774 -0.0714638 0.0145226 0.0714638
2767000000 0.0145921 0.0726154 0.9854079 -0.0726154 0.9854079 -0.0726154 0.0145921 0.0726154
2788000000 0.0146878 0.0737630 0.9853122 -0.0737630 0.9853122 -0.0737630 0.0146878 0.0737630
2809000000 0.0148072 0.0749064 0.9851928 -0.0749064 0.9851928 -0.0749064 0.0148072 0.0749064
2830000000 0.0149485 0.0760455 0.9850515 -0.0760455 0.9850515 -0.0760455 0.0149485 0.0760455
2851000000 0.0151098 0.0771803 0.9848902 -0.0771803 0.9848902 -0.0771803 0.0151098 0.0771803
2872000000 0.0152899 0.0783111 0.9847101 -0.0783111 0.9847101 -0.0783111 0.0152899 0.0783111
2893000000 0.0154874 0.0794381 0.9845126 -0.0794381 0.9845126 -0.0794381 0.0154874 0.0794381
2914000000 0.0157013 0.0805614 0.9842987 -0.0805614 0.9842987 -0.0805614 0.0157013 0.0805614
2935000000 0.0159308 0.0816814 0.9840692 -0.0816814 0.9840692 -0.0816814 0.0159308 0.0816814
2956000000 0.0161751 0.0827984 0.9838249 -0.0827984 0.9838249 -0.0827984 0.0161751 0.0827984
2977000000 0.0164337 0.0839126 0.9835663 -0.0839126 0.9835663 -0.0839126 0.0164337 0.0839126
2998000000 0.0167059 0.0850242 0.9832941 -0.0850242 0.9832941 -0.0850242 0.0167059 0.0850242
3019000000 0.0169915 0.0861335 0.9830085 -0.0861335 0.9830085 -0.0861335 0.0169915 0.0861335
3040000000 0.0172900 0.0872409 0.9827100 -0.0872409 0.9827100 -0.0872409 0.0172900 0.0872409
3061000000 0.0176013 0.0883464 0.9823987 -0.0883464 0.9823987 -0.0883464 0.0176013 0.0883464
3082000000 0.0179252 0.0894503 0.9820748 -0.0894503 0.9820748 -0.0894503 0.0179252 0.0894503
3103000000 0.0182614 0.0905527 0.9817386 -0.0905527 0.9817386 -0.0905527 0.0182614 0.0905527
3124000000 0.0186101 0.0916539 0.9813899 -0.0916539 0.9813899 -0.0916539 0.0186101 0.0916539
3145000000 0.0189710 0.0927540 0.9810290 -0.0927540 0.9810290 -0.0927540 0.0189710 0.0927540
3166000000 0.0193443 0.0938530 0.9806557 -0.0938530 0.9806557 -0.0938530 0.0193443 0.0938530
3187000000 0.0197300 0.0949511 0.9802700 -0.0949511 0.9802700 -0.0949511 0.0197300 0.0949511
3208000000 0.0201282 0.0960483 0.9798718 -0.0960483 0.9798718 -0.0960483 0.0201282 0.0960483
3229000000 0.0205390 0.0971447 0.9794610 -0.0971447 0.9794610 -0.0971447 0.0205390 0.0971447
3250000000 0.0209626 0.0982403 0.9790374 -0.0982403 0.9790374 -0.0982403 0.0209626 0.0982403
3271000000 0.0213991 0.0993350 0.9786009 -0.0993350 0.9786009 -0.0993350 0.0213991 0.0993350
3292000000 0.0218487 0.1004288 0.9781513 -0.1004288 0.9781513 -0.1004288 0.0218487 0.1004288
3313000000 0.0223118 0.1015217 0.9776882 -0.1015217 0.9776882 -0.1015217 0.0223118 0.1015217
3334000000 0.0227884 0.1026135 0.9772116 -0.1026135 0.9772116 -0.1026135 0.0227884 0.1026135
3355000000 0.0232790 0.1037040 0.9767210 -0.1037040 0.9767210 -0.1037040 0.0232790 0.1037040
3376000000 0.0237837 0.1047932 0.9762163 -0.1047932 0.9762163 -0.1047932 0.0237837 0.1047932
3397000000 0.0243030 0.1058808 0.9756970 -0.1058808 0.9756970 -0.1058808 0.0243030 0.1058808
3418000000 0.0248371 0.1069664 0.9751629 -0.1069664 0.9751629 -0.1069664 0.0248371 0.1069664
3439000000 0.0253863 0.1080500 0.9746137 -0.1080500 0.9746137 -0.1080500 0.0253863 0.1080500
3460000000 0.0259511 0.1091310 0.9740489 -0.1091310 0.9740489 -0.1091310 0.0259511 0.1091310
3481000000 0.0265317 0.1102091 0.9734683 -0.1102091 0.9734683 -0.1102091 0.0265317 0.1102091
3502000000 0.0271286 0.1112840 0.9728714 -0.1112840 0.9728714 -0.1112840 0.0271286 0.1112840
3523000000 0.0277420 0.1123549 0.9722580 -0.1123549 0.9722580 -0.1123549 0.0277420 0.1123549
3544000000 0.0283725 0.1134216 0.9716275 -0.1134216 0.9716275 -0.1134216 0.0283725 0.1134216
3565000000 0.0290203 0.1144832 0.9709797 -0.1144832 0.9709797 -0.1144832 0.0290203 0.1144832
3586000000 0.0296857 0.1155392 0.9703143 -0.1155392 0.9703143 -0.1155392 0.0296857 0.1155392
3607000000 0.0303692 0.1165888 0.9696308 -0.1165888 0.9696308 -0.1165888 0.0303692 0.1165888
3628000000 0.0310711 0.1176312 0.9689289 -0.1176312 0.9689289 -0.1176312 0.0310711 0.1176312
3649000000 0.0317917 0.1186656 0.9682083 -0.1186656 0.9682083 -0.1186656 0.0317917 0.1186656
3670000000 0.0325312 0.1196909 0.9674688 -0.1196909 0.9674688 -0.1196909 0.0325312 0.1196909
3691000000 0.0332898 0.1207061 0.9667102 -0.1207061 0.9667102 -0.1207061 0.0332898 0.1207061
3712000000 0.0340678 0.1217101 0.9659322 -0.1217101 0.9659322 -0.1217101 0.0340678 0.1217101
3733000000 0.0348653 0.1227016 0.9651347 -0.1227016 0.9651347 -0.1227016 0.0348653 0.1227016
3754000000 0.0356823 0.1236794 0.9643177 -0.1236794 0.9643177 -0.1236794 0.0356823 0.1236794
3775000000 0.0365189 0.1246421 0.9634811 -0.1246421 0.9634811 -0.1246421 0.0365189 0.1246421
3796000000 0.0373748 0.1255881 0.9626252 -0.1255881 0.9626252 -0.1255881 0.0373748 0.1255881
3817000000 0.0382498 0.1265160 0.9617502 -0.1265160 0.9617502 -0.1265160 0.0382498 0.1265160
3838000000 0.0391437 0.1274240 0.9608563 -0.1274240 0.9608563 -0.1274240 0.0391437 0.1274240
3859000000 0.0400557 0.1283104 0.9599443 -0.1283104 0.9599443 -0.1283104 0.0400557 0.1283104
3880000000 0.0409854 0.1291733 0.9590146 -0.1291733 0.9590146 -0.1291733 0.0409854 0.1291733
3901000000 0.0419318 0.1300110 0.9580682 -0.1300110 0.9580682 -0.1300110 0.0419318 0.1300110
3922000000 0.0428939 0.1308215 0.9571061 -0.1308215 0.9571061 -0.1308215 0.0428939 0.1308215
3943000000 0.0438704 0.1316028 0.9561296 -0.1316028 0.9561296 -0.1316028 0.0438704 0.1316028
3964000000 0.0448597 0.1323529 0.9551403 -0.1323529 0.9551403 -0.1323529 0.0448597 0.1323529
3985000000 0.0458600 0.1330699 0.9541400 -0.1330699 0.9541400 -0.1330699 0.0458600 0.1330699
4006000000 0.0468693 0.1337519 0.9531307 -0.1337519 0.9531307 -0.1337519 0.0468693 0.1337519
4027000000 0.0478852 0.1343970 0.9521148 -0.1343970 0.9521148 -0.1343970 0.0478852 0.1343970
4048000000 0.0489050 0.1350035 0.9510950 -0.1350035 0.9510950 -0.1350035 0.0489050 0.1350035
4069000000 0.0499256 0.1355699 0.9500744 -0.1355699 0.9500744 -0.1355699 0.0499256 0.1355699
4090000000 0.0509439 0.1360947 0.9490561 -0.1360947 0.9490561 -0.1360947 0.0509439 0.1360947
4111000000 0.0519561 0.1365769 0.9480439 -0.1365769 0.9480439 -0.1365769 0.0519561 0.1365769
4132000000 0.0529583 0.1370158 0.9470417 -0.1370158 0.9470417 -0.1370158 0.0529583 0.1370158
4153000000 0.0539463 0.1374110 0.9460537 -0.1374110 0.9460537 -0.1374110 0.0539463 0.1374110
4174000000 0.0549156 0.1377624 0.9450844 -0.1377624 0.9450844 -0.1377624 0.0549156 0.1377624
4195000000 0.0558617 0.1380707 0.9441383 -0.1380707 0.9441383 -0.1380707 0.0558617 0.1380707
4216000000 0.0567797 0.1383370 0.9432203 -0.1383370 0.9432203 -0.1383370 0.0567797 0.1383370
4237000000 0.0576649 0.1385629 0.9423351 -0.1385629 0.9423351 -0.1385629 0.0576649 0.1385629
4258000000 0.0585125 0.1387507 0.9414875 -0.1387507 0.9414875 -0.1387507 0.0585125 0.1387507
4279000000 0.0593177 0.1389034 0.9406823 -0.1389034 0.9406823 -0.1389034 0.0593177 0.1389034
4300000000 0.0600761 0.1390245 0.9399239 -0.1390245 0.9399239 -0.1390245 0.0600761 0.1390245
4321000000 0.0607835 0.1391183 0.9392165 -0.1391183 0.9392165 -0.1391183 0.0607835 0.1391183
4342000000 0.0614363 0.1391896 0.9385637 -0.1391896 0.9385637 -0.1391896 0.0614363 0.1391896
4363000000 0.0620311 0.1392438 0.9379689 -0.1392438 0.9379689 -0.1392438 0.0620311 0.1392438
4384000000 0.0625655 0.1392867 0.9374345 -0.1392867 0.9374345 -0.1392867 0.0625655 0.1392867
4405000000 0.0630375 0.1393246 0.9369625 -0.1393246 0.9369625 -0.1393246 0.0630375 0.1393246
4426000000 0.0634461 0.1393640 0.9365539 -0.1393640 0.9365539 -0.1393640 0.0634461 0.1393640
4447000000 0.0637908 0.1394116 0.9362092 -0.1394116 0.9362092 -0.1394116 0.0637908 0.1394116
4468000000 0.0640724 0.1394740 0.9359276 -0.1394740 0.9359276 -0.1394740 0.0640724 0.1394740
4489000000 0.0642920 0.1395580 0.9357080 -0.1395580 0.9357080 -0.1395580 0.0642920 0.1395580
4510000000 0.0644519 0.1396700 0.9355481 -0.1396700 0.9355481 -0.1396700 0.0644519 0.1396700
