!Murata Part Number: GRM1883C2A3R0CA01
!These Parameters are Measured in Series Mode Connection
!Data Generated on Mar 30, 2021
!       o--ll--o
!Port1            Port2
!       o------o
!Operation Temp=25[degC], DC Bias Voltage=0[V]
!Freq. Start=100[MHz] Stop=9[GHz] 401[Steps]
# Hz S RI R 50
!Freq.(Hz) S11(Real) S11(Imag) S21(Real) S21(Imag) S12(Real) S12(Imag) S22(Real) S22(Imag)
100000000 0.9655847 -0.1821362 0.0344153 0.1821362 0.0344153 0.1821362 0.9655847 -0.1821362
121000000 0.9503691 -0.2169803 0.0496309 0.2169803 0.0496309 0.2169803 0.9503691 -0.2169803
142000000 0.9328483 -0.2500352 0.0671517 0.2500352 0.0671517 0.2500352 0.9328483 -0.2500352
163000000 0.9132873 -0.2811104 0.0867127 0.2811104 0.0867127 0.2811104 0.9132873 -0.2811104
184000000 0.8919656 -0.3100614 0.1080344 0.3100614 0.1080344 0.3100614 0.8919656 -0.3100614
205000000 0.8691685 -0.3367890 0.1308315 0.3367890 0.1308315 0.3367890 0.8691685 -0.3367890
226000000 0.8451788 -0.3612376 0.1548212 0.3612376 0.1548212 0.3612376 0.8451788 -0.3612376
247000000 0.8202704 -0.3833913 0.1797296 0.3833913 0.1797296 0.3833913 0.8202704 -0.3833913
268000000 0.7947020 -0.4032698 0.2052980 0.4032698 0.2052980 0.4032698 0.7947020 -0.4032698
289000000 0.7687138 -0.4209229 0.2312862 0.4209229 0.2312862 0.4209229 0.7687138 -0.4209229
310000000 0.7425236 -0.4364258 0.2574764 0.4364258 0.2574764 0.4364258 0.7425236 -0.4364258
331000000 0.7163259 -0.4498730 0.2836741 0.4498730 0.2836741 0.4498730 0.7163259 -0.4498730
352000000 0.6902906 -0.4613739 0.3097094 0.4613739 0.3097094 0.4613739 0.6902906 -0.4613739
373000000 0.6645639 -0.4710482 0.3354361 0.4710482 0.3354361 0.4710482 0.6645639 -0.4710482
394000000 0.6392685 -0.4790213 0.3607315 0.4790213 0.3607315 0.4790213 0.6392685 -0.4790213
415000000 0.6145059 -0.4854216 0.3854941 0.4854216 0.3854941 0.4854216 0.6145059 -0.4854216
436000000 0.5903572 -0.4903771 0.4096428 0.4903771 0.4096428 0.4903771 0.5903572 -0.4903771
457000000 0.5668858 -0.4940135 0.4331142 0.4940135 0.4331142 0.4940135 0.5668858 -0.4940135
478000000 0.5441392 -0.4964521 0.4558608 0.4964521 0.4558608 0.4964521 0.5441392 -0.4964521
499000000 0.5221506 -0.4978089 0.4778494 0.4978089 0.4778494 0.4978089 0.5221506 -0.4978089
520000000 0.5009414 -0.4981935 0.4990586 0.4981935 0.4990586 0.4981935 0.5009414 -0.4981935
541000000 0.4805227 -0.4977086 0.5194773 0.4977086 0.5194773 0.4977086 0.4805227 -0.4977086
562000000 0.4608972 -0.4964497 0.5391028 0.4964497 0.5391028 0.4964497 0.4608972 -0.4964497
583000000 0.4420601 -0.4945048 0.5579399 0.4945048 0.5579399 0.4945048 0.4420601 -0.4945048
604000000 0.4240013 -0.4919551 0.5759987 0.4919551 0.5759987 0.4919551 0.4240013 -0.4919551
625000000 0.4067057 -0.4888746 0.5932943 0.4888746 0.5932943 0.4888746 0.4067057 -0.4888746
646000000 0.3901548 -0.4853306 0.6098452 0.4853306 0.6098452 0.4853306 0.3901548 -0.4853306
667000000 0.3743273 -0.4813841 0.6256727 0.4813841 0.6256727 0.4813841 0.3743273 -0.4813841
688000000 0.3592000 -0.4770903 0.6408000 0.4770903 0.6408000 0.4770903 0.3592000 -0.4770903
709000000 0.3447481 -0.4724990 0.6552519 0.4724990 0.6552519 0.4724990 0.3447481 -0.4724990
730000000 0.3309461 -0.4676545 0.6690539 0.4676545 0.6690539 0.4676545 0.3309461 -0.4676545
751000000 0.3177678 -0.4625968 0.6822322 0.4625968 0.6822322 0.4625968 0.3177678 -0.4625968
772000000 0.3051873 -0.4573616 0.6948127 0.4573616 0.6948127 0.4573616 0.3051873 -0.4573616
793000000 0.2931783 -0.4519806 0.7068217 0.4519806 0.7068217 0.4519806 0.2931783 -0.4519806
814000000 0.2817153 -0.4464820 0.7182847 0.4464820 0.7182847 0.4464820 0.2817153 -0.4464820
835000000 0.2707732 -0.4408908 0.7292268 0.4408908 0.7292268 0.4408908 0.2707732 -0.4408908
856000000 0.2603274 -0.4352292 0.7396726 0.4352292 0.7396726 0.4352292 0.2603274 -0.4352292
877000000 0.2503544 -0.4295167 0.7496456 0.4295167 0.7496456 0.4295167 0.2503544 -0.4295167
898000000 0.2408312 -0.4237706 0.7591688 0.4237706 0.7591688 0.4237706 0.2408312 -0.4237706
919000000 0.2317358 -0.4180059 0.7682642 0.4180059 0.7682642 0.4180059 0.2317358 -0.4180059
940000000 0.2230471 -0.4122361 0.7769529 0.4122361 0.7769529 0.4122361 0.2230471 -0.4122361
961000000 0.2147451 -0.4064725 0.7852549 0.4064725 0.7852549 0.4064725 0.2147451 -0.4064725
982000000 0.2068104 -0.4007254 0.7931896 0.4007254 0.7931896 0.4007254 0.2068104 -0.4007254
1003000000 0.1992247 -0.3950035 0.8007753 0.3950035 0.8007753 0.3950035 0.1992247 -0.3950035
1024000000 0.1919704 -0.3893144 0.8080296 0.3893144 0.8080296 0.3893144 0.1919704 -0.3893144
1045000000 0.1850311 -0.3836647 0.8149689 0.3836647 0.8149689 0.3836647 0.1850311 -0.3836647
1066000000 0.1783909 -0.3780599 0.8216091 0.3780599 0.8216091 0.3780599 0.1783909 -0.3780599
1087000000 0.1720350 -0.3725047 0.8279650 0.3725047 0.8279650 0.3725047 0.1720350 -0.3725047
1108000000 0.1659490 -0.3670032 0.8340510 0.3670032 0.8340510 0.3670032 0.1659490 -0.3670032
1129000000 0.1601196 -0.3615589 0.8398804 0.3615589 0.8398804 0.3615589 0.1601196 -0.3615589
1150000000 0.1545341 -0.3561743 0.8454659 0.3561743 0.8454659 0.3561743 0.1545341 -0.3561743
1171000000 0.1491805 -0.3508519 0.8508195 0.3508519 0.8508195 0.3508519 0.1491805 -0.3508519
1192000000 0.1440473 -0.3455935 0.8559527 0.3455935 0.8559527 0.3455935 0.1440473 -0.3455935
1213000000 0.1391237 -0.3404005 0.8608763 0.3404005 0.8608763 0.3404005 0.1391237 -0.3404005
1234000000 0.1343997 -0.3352739 0.8656003 0.3352739 0.8656003 0.3352739 0.1343997 -0.3352739
1255000000 0.1298655 -0.3302146 0.8701345 0.3302146 0.8701345 0.3302146 0.1298655 -0.3302146
1276000000 0.1255120 -0.3252230 0.8744880 0.3252230 0.8744880 0.3252230 0.1255120 -0.3252230
1297000000 0.1213306 -0.3202994 0.8786694 0.3202994 0.8786694 0.3202994 0.1213306 -0.3202994
1318000000 0.1173131 -0.3154438 0.8826869 0.3154438 0.8826869 0.3154438 0.1173131 -0.3154438
1339000000 0.1134518 -0.3106562 0.8865482 0.3106562 0.8865482 0.3106562 0.1134518 -0.3106562
1360000000 0.1097395 -0.3059363 0.8902605 0.3059363 0.8902605 0.3059363 0.1097395 -0.3059363
1381000000 0.1061691 -0.3012836 0.8938309 0.3012836 0.8938309 0.3012836 0.1061691 -0.3012836
1402000000 0.1027342 -0.2966976 0.8972658 0.2966976 0.8972658 0.2966976 0.1027342 -0.2966976
1423000000 0.0994286 -0.2921777 0.9005714 0.2921777 0.9005714 0.2921777 0.0994286 -0.2921777
1444000000 0.0962464 -0.2877232 0.9037536 0.2877232 0.9037536 0.2877232 0.0962464 -0.2877232
1465000000 0.0931820 -0.2833332 0.9068180 0.2833332 0.9068180 0.2833332 0.0931820 -0.2833332
1486000000 0.0902303 -0.2790069 0.9097697 0.2790069 0.9097697 0.2790069 0.0902303 -0.2790069
1507000000 0.0873861 -0.2747435 0.9126139 0.2747435 0.9126139 0.2747435 0.0873861 -0.2747435
1528000000 0.0846448 -0.2705420 0.9153552 0.2705420 0.9153552 0.2705420 0.0846448 -0.2705420
1549000000 0.0820019 -0.2664014 0.9179981 0.2664014 0.9179981 0.2664014 0.0820019 -0.2664014
1570000000 0.0794532 -0.2623206 0.9205468 0.2623206 0.9205468 0.2623206 0.0794532 -0.2623206
1591000000 0.0769945 -0.2582988 0.9230055 0.2582988 0.9230055 0.2582988 0.0769945 -0.2582988
1612000000 0.0746222 -0.2543348 0.9253778 0.2543348 0.9253778 0.2543348 0.0746222 -0.2543348
1633000000 0.0723325 -0.2504276 0.9276675 0.2504276 0.9276675 0.2504276 0.0723325 -0.2504276
1654000000 0.0701221 -0.2465761 0.9298779 0.2465761 0.9298779 0.2465761 0.0701221 -0.2465761
1675000000 0.0679876 -0.2427793 0.9320124 0.2427793 0.9320124 0.2427793 0.0679876 -0.2427793
1696000000 0.0659258 -0.2390362 0.9340742 0.2390362 0.9340742 0.2390362 0.0659258 -0.2390362
1717000000 0.0639340 -0.2353456 0.9360660 0.2353456 0.9360660 0.2353456 0.0639340 -0.2353456
1738000000 0.0620092 -0.2317065 0.9379908 0.2317065 0.9379908 0.2317065 0.0620092 -0.2317065
1759000000 0.0601487 -0.2281180 0.9398513 0.2281180 0.9398513 0.2281180 0.0601487 -0.2281180
1780000000 0.0583501 -0.2245789 0.9416499 0.2245789 0.9416499 0.2245789 0.0583501 -0.2245789
1801000000 0.0566108 -0.2210883 0.9433892 0.2210883 0.9433892 0.2210883 0.0566108 -0.2210883
1822000000 0.0549287 -0.2176451 0.9450713 0.2176451 0.9450713 0.2176451 0.0549287 -0.2176451
1843000000 0.0533014 -0.2142483 0.9466986 0.2142483 0.9466986 0.2142483 0.0533014 -0.2142483
1864000000 0.0517268 -0.2108971 0.9482732 0.2108971 0.9482732 0.2108971 0.0517268 -0.2108971
1885000000 0.0502031 -0.2075903 0.9497969 0.2075903 0.9497969 0.2075903 0.0502031 -0.2075903
1906000000 0.0487282 -0.2043271 0.9512718 0.2043271 0.9512718 0.2043271 0.0487282 -0.2043271
1927000000 0.0473004 -0.2011066 0.9526996 0.2011066 0.9526996 0.2011066 0.0473004 -0.2011066
1948000000 0.0459179 -0.1979278 0.9540821 0.1979278 0.9540821 0.1979278 0.0459179 -0.1979278
1969000000 0.0445791 -0.1947899 0.9554209 0.1947899 0.9554209 0.1947899 0.0445791 -0.1947899
1990000000 0.0432823 -0.1916919 0.9567177 0.1916919 0.9567177 0.1916919 0.0432823 -0.1916919
2011000000 0.0420261 -0.1886330 0.9579739 0.1886330 0.9579739 0.1886330 0.0420261 -0.1886330
2032000000 0.0408090 -0.1856124 0.9591910 0.1856124 0.9591910 0.1856124 0.0408090 -0.1856124
2053000000 0.0396297 -0.1826293 0.9603703 0.1826293 0.9603703 0.1826293 0.0396297 -0.1826293
2074000000 0.0384868 -0.1796828 0.9615132 0.1796828 0.9615132 0.1796828 0.0384868 -0.1796828
2095000000 0.0373791 -0.1767722 0.9626209 0.1767722 0.9626209 0.1767722 0.0373791 -0.1767722
2116000000 0.0363053 -0.1738966 0.9636947 0.1738966 0.9636947 0.1738966 0.0363053 -0.1738966
2137000000 0.0352643 -0.1710554 0.9647357 0.1710554 0.9647357 0.1710554 0.0352643 -0.1710554
2158000000 0.0342550 -0.1682477 0.9657450 0.1682477 0.9657450 0.1682477 0.0342550 -0.1682477
2179000000 0.0332764 -0.1654730 0.9667236 0.1654730 0.9667236 0.1654730 0.0332764 -0.1654730
2200000000 0.0323273 -0.1627304 0.9676727 0.1627304 0.9676727 0.1627304 0.0323273 -0.1627304
2221000000 0.0314070 -0.1600193 0.9685930 0.1600193 0.9685930 0.1600193 0.0314070 -0.1600193
2242000000 0.0305143 -0.1573390 0.9694857 0.1573390 0.9694857 0.1573390 0.0305143 -0.1573390
2263000000 0.0296485 -0.1546889 0.9703515 0.1546889 0.9703515 0.1546889 0.0296485 -0.1546889
2284000000 0.0288086 -0.1520683 0.9711914 0.1520683 0.9711914 0.1520683 0.0288086 -0.1520683
2305000000 0.0279939 -0.1494766 0.9720061 0.1494766 0.9720061 0.1494766 0.0279939 -0.1494766
2326000000 0.0272035 -0.1469132 0.9727965 0.1469132 0.9727965 0.1469132 0.0272035 -0.1469132
2347000000 0.0264368 -0.1443775 0.9735632 0.1443775 0.9735632 0.1443775 0.0264368 -0.1443775
2368000000 0.0256929 -0.1418688 0.9743071 0.1418688 0.9743071 0.1418688 0.0256929 -0.1418688
2389000000 0.0249712 -0.1393868 0.9750288 0.1393868 0.9750288 0.1393868 0.0249712 -0.1393868
2410000000 0.0242710 -0.1369307 0.9757290 0.1369307 0.9757290 0.1369307 0.0242710 -0.1369307
2431000000 0.0235917 -0.1345000 0.9764083 0.1345000 0.9764083 0.1345000 0.0235917 -0.1345000
2452000000 0.0229326 -0.1320943 0.9770674 0.1320943 0.9770674 0.1320943 0.0229326 -0.1320943
2473000000 0.0222932 -0.1297130 0.9777068 0.1297130 0.9777068 0.1297130 0.0222932 -0.1297130
2494000000 0.0216729 -0.1273556 0.9783271 0.1273556 0.9783271 0.1273556 0.0216729 -0.1273556
2515000000 0.0210711 -0.1250215 0.9789289 0.1250215 0.9789289 0.1250215 0.0210711 -0.1250215
2536000000 0.0204872 -0.1227105 0.9795128 0.1227105 0.9795128 0.1227105 0.0204872 -0.1227105
2557000000 0.0199209 -0.1204218 0.9800791 0.1204218 0.9800791 0.1204218 0.0199209 -0.1204218
2578000000 0.0193716 -0.1181552 0.9806284 0.1181552 0.9806284 0.1181552 0.0193716 -0.1181552
2599000000 0.0188388 -0.1159101 0.9811612 0.1159101 0.9811612 0.1159101 0.0188388 -0.1159101
2620000000 0.0183221 -0.1136862 0.9816779 0.1136862 0.9816779 0.1136862 0.0183221 -0.1136862
2641000000 0.0178210 -0.1114830 0.9821790 0.1114830 0.9821790 0.1114830 0.0178210 -0.1114830
2662000000 0.0173351 -0.1093000 0.9826649 0.1093000 0.9826649 0.1093000 0.0173351 -0.1093000
2683000000 0.0168641 -0.1071369 0.9831359 0.1071369 0.9831359 0.1071369 0.0168641 -0.1071369
2704000000 0.0164075 -0.1049933 0.9835925 0.1049933 0.9835925 0.1049933 0.0164075 -0.1049933
2725000000 0.0159649 -0.1028688 0.9840351 0.1028688 0.9840351 0.1028688 0.0159649 -0.1028688
2746000000 0.0155359 -0.1007630 0.9844641 0.1007630 0.9844641 0.1007630 0.0155359 -0.1007630
2767000000 0.0151203 -0.0986756 0.9848797 0.0986756 0.9848797 0.0986756 0.0151203 -0.0986756
2788000000 0.0147177 -0.0966061 0.9852823 0.0966061 0.9852823 0.0966061 0.0147177 -0.0966061
2809000000 0.0143278 -0.0945543 0.9856722 0.0945543 0.9856722 0.0945543 0.0143278 -0.0945543
2830000000 0.0139502 -0.0925198 0.9860498 0.0925198 0.9860498 0.0925198 0.0139502 -0.0925198
2851000000 0.0135846 -0.0905022 0.9864154 0.0905022 0.9864154 0.0905022 0.0135846 -0.0905022
2872000000 0.0132308 -0.0885013 0.9867692 0.0885013 0.9867692 0.0885013 0.0132308 -0.0885013
2893000000 0.0128885 -0.0865166 0.9871115 0.0865166 0.9871115 0.0865166 0.0128885 -0.0865166
2914000000 0.0125573 -0.0845480 0.9874427 0.0845480 0.9874427 0.0845480 0.0125573 -0.0845480
2935000000 0.0122371 -0.0825950 0.9877629 0.0825950 0.9877629 0.0825950 0.0122371 -0.0825950
2956000000 0.0119275 -0.0806575 0.9880725 0.0806575 0.9880725 0.0806575 0.0119275 -0.0806575
2977000000 0.0116284 -0.0787350 0.9883716 0.0787350 0.9883716 0.0787350 0.0116284 -0.0787350
2998000000 0.0113394 -0.0768273 0.9886606 0.0768273 0.9886606 0.0768273 0.0113394 -0.0768273
3019000000 0.0110604 -0.0749342 0.9889396 0.0749342 0.9889396 0.0749342 0.0110604 -0.0749342
3040000000 0.0107911 -0.0730553 0.9892089 0.0730553 0.9892089 0.0730553 0.0107911 -0.0730553
3061000000 0.0105314 -0.0711904 0.9894686 0.0711904 0.9894686 0.0711904 0.0105314 -0.0711904
3082000000 0.0102810 -0.0693392 0.9897190 0.0693392 0.9897190 0.0693392 0.0102810 -0.0693392
3103000000 0.0100396 -0.0675015 0.9899604 0.0675015 0.9899604 0.0675015 0.0100396 -0.0675015
3124000000 0.0098072 -0.0656770 0.9901928 0.0656770 0.9901928 0.0656770 0.0098072 -0.0656770
3145000000 0.0095835 -0.0638655 0.9904165 0.0638655 0.9904165 0.0638655 0.0095835 -0.0638655
3166000000 0.0093684 -0.0620667 0.9906316 0.0620667 0.9906316 0.0620667 0.0093684 -0.0620667
3187000000 0.0091616 -0.0602804 0.9908384 0.0602804 0.9908384 0.0602804 0.0091616 -0.0602804
3208000000 0.0089630 -0.0585063 0.9910370 0.0585063 0.9910370 0.0585063 0.0089630 -0.0585063
3229000000 0.0087724 -0.0567443 0.9912276 0.0567443 0.9912276 0.0567443 0.0087724 -0.0567443
3250000000 0.0085898 -0.0549942 0.9914102 0.0549942 0.9914102 0.0549942 0.0085898 -0.0549942
3271000000 0.0084148 -0.0532556 0.9915852 0.0532556 0.9915852 0.0532556 0.0084148 -0.0532556
3292000000 0.0082474 -0.0515284 0.9917526 0.0515284 0.9917526 0.0515284 0.0082474 -0.0515284
3313000000 0.0080875 -0.0498124 0.9919125 0.0498124 0.9919125 0.0498124 0.0080875 -0.0498124
3334000000 0.0079348 -0.0481074 0.9920652 0.0481074 0.9920652 0.0481074 0.0079348 -0.0481074
3355000000 0.0077893 -0.0464131 0.9922107 0.0464131 0.9922107 0.0464131 0.0077893 -0.0464131
3376000000 0.0076507 -0.0447295 0.9923493 0.0447295 0.9923493 0.0447295 0.0076507 -0.0447295
3397000000 0.0075191 -0.0430562 0.9924809 0.0430562 0.9924809 0.0430562 0.0075191 -0.0430562
3418000000 0.0073943 -0.0413932 0.9926057 0.0413932 0.9926057 0.0413932 0.0073943 -0.0413932
3439000000 0.0072761 -0.0397402 0.9927239 0.0397402 0.9927239 0.0397402 0.0072761 -0.0397402
3460000000 0.0071644 -0.0380970 0.9928356 0.0380970 0.9928356 0.0380970 0.0071644 -0.0380970
3481000000 0.0070592 -0.0364635 0.9929408 0.0364635 0.9929408 0.0364635 0.0070592 -0.0364635
3502000000 0.0069603 -0.0348395 0.9930397 0.0348395 0.9930397 0.0348395 0.0069603 -0.0348395
3523000000 0.0068675 -0.0332248 0.9931325 0.0332248 0.9931325 0.0332248 0.0068675 -0.0332248
3544000000 0.0067809 -0.0316193 0.9932191 0.0316193 0.9932191 0.0316193 0.0067809 -0.0316193
3565000000 0.0067004 -0.0300228 0.9932996 0.0300228 0.9932996 0.0300228 0.0067004 -0.0300228
3586000000 0.0066257 -0.0284351 0.9933743 0.0284351 0.9933743 0.0284351 0.0066257 -0.0284351
3607000000 0.0065569 -0.0268561 0.9934431 0.0268561 0.9934431 0.0268561 0.0065569 -0.0268561
3628000000 0.0064937 -0.0252856 0.9935063 0.0252856 0.9935063 0.0252856 0.0064937 -0.0252856
3649000000 0.0064363 -0.0237235 0.9935637 0.0237235 0.9935637 0.0237235 0.0064363 -0.0237235
3670000000 0.0063844 -0.0221696 0.9936156 0.0221696 0.9936156 0.0221696 0.0063844 -0.0221696
3691000000 0.0063380 -0.0206238 0.9936620 0.0206238 0.9936620 0.0206238 0.0063380 -0.0206238
3712000000 0.0062970 -0.0190860 0.9937030 0.0190860 0.9937030 0.0190860 0.0062970 -0.0190860
3733000000 0.0062614 -0.0175559 0.9937386 0.0175559 0.9937386 0.0175559 0.0062614 -0.0175559
3754000000 0.0062310 -0.0160335 0.9937690 0.0160335 0.9937690 0.0160335 0.0062310 -0.0160335
3775000000 0.0062058 -0.0145186 0.9937942 0.0145186 0.9937942 0.0145186 0.0062058 -0.0145186
3796000000 0.0061858 -0.0130111 0.9938142 0.0130111 0.9938142 0.0130111 0.0061858 -0.0130111
3817000000 0.0061708 -0.0115109 0.9938292 0.0115109 0.9938292 0.0115109 0.0061708 -0.0115109
3838000000 0.0061608 -0.0100178 0.9938392 0.0100178 0.9938392 0.0100178 0.0061608 -0.0100178
3859000000 0.0061557 -0.0085317 0.9938443 0.0085317 0.9938443 0.0085317 0.0061557 -0.0085317
3880000000 0.0061555 -0.0070525 0.9938445 0.0070525 0.9938445 0.0070525 0.0061555 -0.0070525
3901000000 0.0061601 -0.0055800 0.9938399 0.0055800 0.9938399 0.0055800 0.0061601 -0.0055800
3922000000 0.0061695 -0.0041141 0.9938305 0.0041141 0.9938305 0.0041141 0.0061695 -0.0041141
3943000000 0.0061836 -0.0026548 0.9938164 0.0026548 0.9938164 0.0026548 0.0061836 -0.0026548
3964000000 0.0062024 -0.0012019 0.9937976 0.0012019 0.9937976 0.0012019 0.0062024 -0.0012019
3985000000 0.0062258 0.0002447 0.9937742 -0.0002447 0.9937742 -0.0002447 0.0062258 0.0002447
4006000000 0.0062537 0.0016852 0.9937463 -0.0016852 0.9937463 -0.0016852 0.0062537 0.0016852
4027000000 0.0062862 0.0031196 0.9937138 -0.0031196 0.9937138 -0.0031196 0.0062862 0.0031196
4048000000 0.0063231 0.0045481 0.9936769 -0.0045481 0.9936769 -0.0045481 0.0063231 0.0045481
4069000000 0.0063645 0.0059707 0.9936355 -0.0059707 0.9936355 -0.0059707 0.0063645 0.0059707
4090000000 0.0064103 0.0073876 0.9935897 -0.0073876 0.9935897 -0.0073876 0.0064103 0.0073876
4111000000 0.0064604 0.0087988 0.9935396 -0.0087988 0.9935396 -0.0087988 0.0064604 0.0087988
4132000000 0.0065148 0.0102046 0.9934852 -0.0102046 0.9934852 -0.0102046 0.0065148 0.0102046
4153000000 0.0065735 0.0116049 0.9934265 -0.0116049 0.9934265 -0.0116049 0.0065735 0.0116049
4174000000 0.0066365 0.0129998 0.9933635 -0.0129998 0.9933635 -0.0129998 0.0066365 0.0129998
4195000000 0.0067037 0.0143896 0.9932963 -0.0143896 0.9932963 -0.0143896 0.0067037 0.0143896
4216000000 0.0067750 0.0157742 0.9932250 -0.0157742 0.9932250 -0.0157742 0.0067750 0.0157742
4237000000 0.0068506 0.0171538 0.9931494 -0.0171538 0.9931494 -0.0171538 0.0068506 0.0171538
4258000000 0.0069302 0.0185284 0.9930698 -0.0185284 0.9930698 -0.0185284 0.0069302 0.0185284
4279000000 0.0070139 0.0198982 0.9929861 -0.0198982 0.9929861 -0.0198982 0.0070139 0.0198982
4300000000 0.0071018 0.0212633 0.9928982 -0.0212633 0.9928982 -0.0212633 0.0071018 0.0212633
4321000000 0.0071936 0.0226237 0.9928064 -0.0226237 0.9928064 -0.0226237 0.0071936 0.0226237
4342000000 0.0072895 0.0239795 0.9927105 -0.0239795 0.9927105 -0.0239795 0.0072895 0.0239795
4363000000 0.0073895 0.0253308 0.9926105 -0.0253308 0.9926105 -0.0253308 0.0073895 0.0253308
4384000000 0.0074934 0.0266778 0.9925066 -0.0266778 0.9925066 -0.0266778 0.0074934 0.0266778
4405000000 0.0076012 0.0280204 0.9923988 -0.0280204 0.9923988 -0.0280204 0.0076012 0.0280204
4426000000 0.0077131 0.0293588 0.9922869 -0.0293588 0.9922869 -0.0293588 0.0077131 0.0293588
4447000000 0.0078288 0.0306931 0.9921712 -0.0306931 0.9921712 -0.0306931 0.0078288 0.0306931
4468000000 0.0079485 0.0320233 0.9920515 -0.0320233 0.9920515 -0.0320233 0.0079485 0.0320233
4489000000 0.0080721 0.0333495 0.9919279 -0.0333495 0.9919279 -0.0333495 0.0080721 0.0333495
4510000000 0.0081996 0.0346719 0.9918004 -0.0346719 0.9918004 -0.0346719 0.0081996 0.0346719
