!Murata Part Number: GRM1884C1H1R5WA01
!These Parameters are Measured in Series Mode Connection
!Data Generated on Mar 30, 2021
!       o--ll--o
!Port1            Port2
!       o------o
!Operation Temp=25[degC], DC Bias Voltage=0[V]
!Freq. Start=100[MHz] Stop=9[GHz] 401[Steps]
# Hz S RI R 50
!Freq.(Hz) S11(Real) S11(Imag) S21(Real) S21(Imag) S12(Real) S12(Imag) S22(Real) S22(Imag)
100000000 0.9911701 -0.0934514 0.0088299 0.0934514 0.0088299 0.0934514 0.9911701 -0.0934514
121000000 0.9871190 -0.1126335 0.0128810 0.1126335 0.0128810 0.1126335 0.9871190 -0.1126335
142000000 0.9823363 -0.1315675 0.0176637 0.1315675 0.0176637 0.1315675 0.9823363 -0.1315675
163000000 0.9768416 -0.1502142 0.0231584 0.1502142 0.0231584 0.1502142 0.9768416 -0.1502142
184000000 0.9706573 -0.1685363 0.0293427 0.1685363 0.0293427 0.1685363 0.9706573 -0.1685363
205000000 0.9638080 -0.1864985 0.0361920 0.1864985 0.0361920 0.1864985 0.9638080 -0.1864985
226000000 0.9563209 -0.2040677 0.0436791 0.2040677 0.0436791 0.2040677 0.9563209 -0.2040677
247000000 0.9482253 -0.2212135 0.0517747 0.2212135 0.0517747 0.2212135 0.9482253 -0.2212135
268000000 0.9395520 -0.2379079 0.0604480 0.2379079 0.0604480 0.2379079 0.9395520 -0.2379079
289000000 0.9303335 -0.2541260 0.0696665 0.2541260 0.0696665 0.2541260 0.9303335 -0.2541260
310000000 0.9206034 -0.2698455 0.0793966 0.2698455 0.0793966 0.2698455 0.9206034 -0.2698455
331000000 0.9103963 -0.2850469 0.0896037 0.2850469 0.0896037 0.2850469 0.9103963 -0.2850469
352000000 0.8997473 -0.2997137 0.1002527 0.2997137 0.1002527 0.2997137 0.8997473 -0.2997137
373000000 0.8886919 -0.3138322 0.1113081 0.3138322 0.1113081 0.3138322 0.8886919 -0.3138322
394000000 0.8772656 -0.3273916 0.1227344 0.3273916 0.1227344 0.3273916 0.8772656 -0.3273916
415000000 0.8655040 -0.3403836 0.1344960 0.3403836 0.1344960 0.3403836 0.8655040 -0.3403836
436000000 0.8534419 -0.3528027 0.1465581 0.3528027 0.1465581 0.3528027 0.8534419 -0.3528027
457000000 0.8411139 -0.3646456 0.1588861 0.3646456 0.1588861 0.3646456 0.8411139 -0.3646456
478000000 0.8285536 -0.3759116 0.1714464 0.3759116 0.1714464 0.3759116 0.8285536 -0.3759116
499000000 0.8157937 -0.3866020 0.1842063 0.3866020 0.1842063 0.3866020 0.8157937 -0.3866020
520000000 0.8028659 -0.3967203 0.1971341 0.3967203 0.1971341 0.3967203 0.8028659 -0.3967203
541000000 0.7898006 -0.4062717 0.2101994 0.4062717 0.2101994 0.4062717 0.7898006 -0.4062717
562000000 0.7766271 -0.4152633 0.2233729 0.4152633 0.2233729 0.4152633 0.7766271 -0.4152633
583000000 0.7633733 -0.4237034 0.2366267 0.4237034 0.2366267 0.4237034 0.7633733 -0.4237034
604000000 0.7500654 -0.4316020 0.2499346 0.4316020 0.2499346 0.4316020 0.7500654 -0.4316020
625000000 0.7367286 -0.4389701 0.2632714 0.4389701 0.2632714 0.4389701 0.7367286 -0.4389701
646000000 0.7233862 -0.4458200 0.2766138 0.4458200 0.2766138 0.4458200 0.7233862 -0.4458200
667000000 0.7100604 -0.4521646 0.2899396 0.4521646 0.2899396 0.4521646 0.7100604 -0.4521646
688000000 0.6967716 -0.4580177 0.3032284 0.4580177 0.3032284 0.4580177 0.6967716 -0.4580177
709000000 0.6835388 -0.4633938 0.3164612 0.4633938 0.3164612 0.4633938 0.6835388 -0.4633938
730000000 0.6703797 -0.4683077 0.3296203 0.4683077 0.3296203 0.4683077 0.6703797 -0.4683077
751000000 0.6573104 -0.4727749 0.3426896 0.4727749 0.3426896 0.4727749 0.6573104 -0.4727749
772000000 0.6443457 -0.4768108 0.3556543 0.4768108 0.3556543 0.4768108 0.6443457 -0.4768108
793000000 0.6314992 -0.4804314 0.3685008 0.4804314 0.3685008 0.4804314 0.6314992 -0.4804314
814000000 0.6187829 -0.4836523 0.3812171 0.4836523 0.3812171 0.4836523 0.6187829 -0.4836523
835000000 0.6062079 -0.4864895 0.3937921 0.4864895 0.3937921 0.4864895 0.6062079 -0.4864895
856000000 0.5937840 -0.4889587 0.4062160 0.4889587 0.4062160 0.4889587 0.5937840 -0.4889587
877000000 0.5815199 -0.4910756 0.4184801 0.4910756 0.4184801 0.4910756 0.5815199 -0.4910756
898000000 0.5694232 -0.4928556 0.4305768 0.4928556 0.4305768 0.4928556 0.5694232 -0.4928556
919000000 0.5575005 -0.4943140 0.4424995 0.4943140 0.4424995 0.4943140 0.5575005 -0.4943140
940000000 0.5457577 -0.4954656 0.4542423 0.4954656 0.4542423 0.4954656 0.5457577 -0.4954656
961000000 0.5341995 -0.4963252 0.4658005 0.4963252 0.4658005 0.4963252 0.5341995 -0.4963252
982000000 0.5228301 -0.4969069 0.4771699 0.4969069 0.4771699 0.4969069 0.5228301 -0.4969069
1003000000 0.5116527 -0.4972246 0.4883473 0.4972246 0.4883473 0.4972246 0.5116527 -0.4972246
1024000000 0.5006699 -0.4972918 0.4993301 0.4972918 0.4993301 0.4972918 0.5006699 -0.4972918
1045000000 0.4898838 -0.4971215 0.5101162 0.4971215 0.5101162 0.4971215 0.4898838 -0.4971215
1066000000 0.4792956 -0.4967265 0.5207044 0.4967265 0.5207044 0.4967265 0.4792956 -0.4967265
1087000000 0.4689063 -0.4961188 0.5310937 0.4961188 0.5310937 0.4961188 0.4689063 -0.4961188
1108000000 0.4587161 -0.4953103 0.5412839 0.4953103 0.5412839 0.4953103 0.4587161 -0.4953103
1129000000 0.4487250 -0.4943123 0.5512750 0.4943123 0.5512750 0.4943123 0.4487250 -0.4943123
1150000000 0.4389324 -0.4931356 0.5610676 0.4931356 0.5610676 0.4931356 0.4389324 -0.4931356
1171000000 0.4293374 -0.4917908 0.5706626 0.4917908 0.5706626 0.4917908 0.4293374 -0.4917908
1192000000 0.4199389 -0.4902879 0.5800611 0.4902879 0.5800611 0.4902879 0.4199389 -0.4902879
1213000000 0.4107353 -0.4886364 0.5892647 0.4886364 0.5892647 0.4886364 0.4107353 -0.4886364
1234000000 0.4017248 -0.4868454 0.5982752 0.4868454 0.5982752 0.4868454 0.4017248 -0.4868454
1255000000 0.3929054 -0.4849239 0.6070946 0.4849239 0.6070946 0.4849239 0.3929054 -0.4849239
1276000000 0.3842749 -0.4828801 0.6157251 0.4828801 0.6157251 0.4828801 0.3842749 -0.4828801
1297000000 0.3758308 -0.4807220 0.6241692 0.4807220 0.6241692 0.4807220 0.3758308 -0.4807220
1318000000 0.3675706 -0.4784573 0.6324294 0.4784573 0.6324294 0.4784573 0.3675706 -0.4784573
1339000000 0.3594915 -0.4760930 0.6405085 0.4760930 0.6405085 0.4760930 0.3594915 -0.4760930
1360000000 0.3515908 -0.4736363 0.6484092 0.4736363 0.6484092 0.4736363 0.3515908 -0.4736363
1381000000 0.3438656 -0.4710935 0.6561344 0.4710935 0.6561344 0.4710935 0.3438656 -0.4710935
1402000000 0.3363127 -0.4684708 0.6636873 0.4684708 0.6636873 0.4684708 0.3363127 -0.4684708
1423000000 0.3289292 -0.4657743 0.6710708 0.4657743 0.6710708 0.4657743 0.3289292 -0.4657743
1444000000 0.3217119 -0.4630094 0.6782881 0.4630094 0.6782881 0.4630094 0.3217119 -0.4630094
1465000000 0.3146577 -0.4601815 0.6853423 0.4601815 0.6853423 0.4601815 0.3146577 -0.4601815
1486000000 0.3077633 -0.4572955 0.6922367 0.4572955 0.6922367 0.4572955 0.3077633 -0.4572955
1507000000 0.3010257 -0.4543563 0.6989743 0.4543563 0.6989743 0.4543563 0.3010257 -0.4543563
1528000000 0.2944415 -0.4513683 0.7055585 0.4513683 0.7055585 0.4513683 0.2944415 -0.4513683
1549000000 0.2880076 -0.4483358 0.7119924 0.4483358 0.7119924 0.4483358 0.2880076 -0.4483358
1570000000 0.2817207 -0.4452627 0.7182793 0.4452627 0.7182793 0.4452627 0.2817207 -0.4452627
1591000000 0.2755777 -0.4421529 0.7244223 0.4421529 0.7244223 0.4421529 0.2755777 -0.4421529
1612000000 0.2695755 -0.4390100 0.7304245 0.4390100 0.7304245 0.4390100 0.2695755 -0.4390100
1633000000 0.2637108 -0.4358374 0.7362892 0.4358374 0.7362892 0.4358374 0.2637108 -0.4358374
1654000000 0.2579807 -0.4326381 0.7420193 0.4326381 0.7420193 0.4326381 0.2579807 -0.4326381
1675000000 0.2523819 -0.4294153 0.7476181 0.4294153 0.7476181 0.4294153 0.2523819 -0.4294153
1696000000 0.2469116 -0.4261717 0.7530884 0.4261717 0.7530884 0.4261717 0.2469116 -0.4261717
1717000000 0.2415667 -0.4229100 0.7584333 0.4229100 0.7584333 0.4229100 0.2415667 -0.4229100
1738000000 0.2363442 -0.4196327 0.7636558 0.4196327 0.7636558 0.4196327 0.2363442 -0.4196327
1759000000 0.2312414 -0.4163422 0.7687586 0.4163422 0.7687586 0.4163422 0.2312414 -0.4163422
1780000000 0.2262553 -0.4130406 0.7737447 0.4130406 0.7737447 0.4130406 0.2262553 -0.4130406
1801000000 0.2213831 -0.4097301 0.7786169 0.4097301 0.7786169 0.4097301 0.2213831 -0.4097301
1822000000 0.2166222 -0.4064127 0.7833778 0.4064127 0.7833778 0.4064127 0.2166222 -0.4064127
1843000000 0.2119699 -0.4030900 0.7880301 0.4030900 0.7880301 0.4030900 0.2119699 -0.4030900
1864000000 0.2074234 -0.3997640 0.7925766 0.3997640 0.7925766 0.3997640 0.2074234 -0.3997640
1885000000 0.2029803 -0.3964360 0.7970197 0.3964360 0.7970197 0.3964360 0.2029803 -0.3964360
1906000000 0.1986380 -0.3931078 0.8013620 0.3931078 0.8013620 0.3931078 0.1986380 -0.3931078
1927000000 0.1943941 -0.3897806 0.8056059 0.3897806 0.8056059 0.3897806 0.1943941 -0.3897806
1948000000 0.1902462 -0.3864559 0.8097538 0.3864559 0.8097538 0.3864559 0.1902462 -0.3864559
1969000000 0.1861918 -0.3831347 0.8138082 0.3831347 0.8138082 0.3831347 0.1861918 -0.3831347
1990000000 0.1822287 -0.3798184 0.8177713 0.3798184 0.8177713 0.3798184 0.1822287 -0.3798184
2011000000 0.1783547 -0.3765079 0.8216453 0.3765079 0.8216453 0.3765079 0.1783547 -0.3765079
2032000000 0.1745676 -0.3732043 0.8254324 0.3732043 0.8254324 0.3732043 0.1745676 -0.3732043
2053000000 0.1708651 -0.3699084 0.8291349 0.3699084 0.8291349 0.3699084 0.1708651 -0.3699084
2074000000 0.1672453 -0.3666212 0.8327547 0.3666212 0.8327547 0.3666212 0.1672453 -0.3666212
2095000000 0.1637062 -0.3633434 0.8362938 0.3633434 0.8362938 0.3633434 0.1637062 -0.3633434
2116000000 0.1602456 -0.3600758 0.8397544 0.3600758 0.8397544 0.3600758 0.1602456 -0.3600758
2137000000 0.1568617 -0.3568191 0.8431383 0.3568191 0.8431383 0.3568191 0.1568617 -0.3568191
2158000000 0.1535526 -0.3535740 0.8464474 0.3535740 0.8464474 0.3535740 0.1535526 -0.3535740
2179000000 0.1503164 -0.3503409 0.8496836 0.3503409 0.8496836 0.3503409 0.1503164 -0.3503409
2200000000 0.1471515 -0.3471205 0.8528485 0.3471205 0.8528485 0.3471205 0.1471515 -0.3471205
2221000000 0.1440559 -0.3439133 0.8559441 0.3439133 0.8559441 0.3439133 0.1440559 -0.3439133
2242000000 0.1410281 -0.3407197 0.8589719 0.3407197 0.8589719 0.3407197 0.1410281 -0.3407197
2263000000 0.1380664 -0.3375401 0.8619336 0.3375401 0.8619336 0.3375401 0.1380664 -0.3375401
2284000000 0.1351691 -0.3343749 0.8648309 0.3343749 0.8648309 0.3343749 0.1351691 -0.3343749
2305000000 0.1323348 -0.3312245 0.8676652 0.3312245 0.8676652 0.3312245 0.1323348 -0.3312245
2326000000 0.1295618 -0.3280892 0.8704382 0.3280892 0.8704382 0.3280892 0.1295618 -0.3280892
2347000000 0.1268487 -0.3249693 0.8731513 0.3249693 0.8731513 0.3249693 0.1268487 -0.3249693
2368000000 0.1241941 -0.3218650 0.8758059 0.3218650 0.8758059 0.3218650 0.1241941 -0.3218650
2389000000 0.1215964 -0.3187766 0.8784036 0.3187766 0.8784036 0.3187766 0.1215964 -0.3187766
2410000000 0.1190545 -0.3157043 0.8809455 0.3157043 0.8809455 0.3157043 0.1190545 -0.3157043
2431000000 0.1165669 -0.3126482 0.8834331 0.3126482 0.8834331 0.3126482 0.1165669 -0.3126482
2452000000 0.1141324 -0.3096086 0.8858676 0.3096086 0.8858676 0.3096086 0.1141324 -0.3096086
2473000000 0.1117496 -0.3065855 0.8882504 0.3065855 0.8882504 0.3065855 0.1117496 -0.3065855
2494000000 0.1094174 -0.3035791 0.8905826 0.3035791 0.8905826 0.3035791 0.1094174 -0.3035791
2515000000 0.1071345 -0.3005895 0.8928655 0.3005895 0.8928655 0.3005895 0.1071345 -0.3005895
2536000000 0.1048998 -0.2976167 0.8951002 0.2976167 0.8951002 0.2976167 0.1048998 -0.2976167
2557000000 0.1027122 -0.2946610 0.8972878 0.2946610 0.8972878 0.2946610 0.1027122 -0.2946610
2578000000 0.1005706 -0.2917222 0.8994294 0.2917222 0.8994294 0.2917222 0.1005706 -0.2917222
2599000000 0.0984738 -0.2888004 0.9015262 0.2888004 0.9015262 0.2888004 0.0984738 -0.2888004
2620000000 0.0964209 -0.2858957 0.9035791 0.2858957 0.9035791 0.2858957 0.0964209 -0.2858957
2641000000 0.0944109 -0.2830081 0.9055891 0.2830081 0.9055891 0.2830081 0.0944109 -0.2830081
2662000000 0.0924427 -0.2801376 0.9075573 0.2801376 0.9075573 0.2801376 0.0924427 -0.2801376
2683000000 0.0905153 -0.2772842 0.9094847 0.2772842 0.9094847 0.2772842 0.0905153 -0.2772842
2704000000 0.0886280 -0.2744478 0.9113720 0.2744478 0.9113720 0.2744478 0.0886280 -0.2744478
2725000000 0.0867797 -0.2716284 0.9132203 0.2716284 0.9132203 0.2716284 0.0867797 -0.2716284
2746000000 0.0849695 -0.2688260 0.9150305 0.2688260 0.9150305 0.2688260 0.0849695 -0.2688260
2767000000 0.0831966 -0.2660406 0.9168034 0.2660406 0.9168034 0.2660406 0.0831966 -0.2660406
2788000000 0.0814602 -0.2632721 0.9185398 0.2632721 0.9185398 0.2632721 0.0814602 -0.2632721
2809000000 0.0797595 -0.2605204 0.9202405 0.2605204 0.9202405 0.2605204 0.0797595 -0.2605204
2830000000 0.0780936 -0.2577854 0.9219064 0.2577854 0.9219064 0.2577854 0.0780936 -0.2577854
2851000000 0.0764617 -0.2550672 0.9235383 0.2550672 0.9235383 0.2550672 0.0764617 -0.2550672
2872000000 0.0748632 -0.2523655 0.9251368 0.2523655 0.9251368 0.2523655 0.0748632 -0.2523655
2893000000 0.0732973 -0.2496804 0.9267027 0.2496804 0.9267027 0.2496804 0.0732973 -0.2496804
2914000000 0.0717633 -0.2470118 0.9282367 0.2470118 0.9282367 0.2470118 0.0717633 -0.2470118
2935000000 0.0702604 -0.2443595 0.9297396 0.2443595 0.9297396 0.2443595 0.0702604 -0.2443595
2956000000 0.0687881 -0.2417234 0.9312119 0.2417234 0.9312119 0.2417234 0.0687881 -0.2417234
2977000000 0.0673456 -0.2391035 0.9326544 0.2391035 0.9326544 0.2391035 0.0673456 -0.2391035
2998000000 0.0659323 -0.2364996 0.9340677 0.2364996 0.9340677 0.2364996 0.0659323 -0.2364996
3019000000 0.0645476 -0.2339117 0.9354524 0.2339117 0.9354524 0.2339117 0.0645476 -0.2339117
3040000000 0.0631909 -0.2313396 0.9368091 0.2313396 0.9368091 0.2313396 0.0631909 -0.2313396
3061000000 0.0618615 -0.2287832 0.9381385 0.2287832 0.9381385 0.2287832 0.0618615 -0.2287832
3082000000 0.0605590 -0.2262425 0.9394410 0.2262425 0.9394410 0.2262425 0.0605590 -0.2262425
3103000000 0.0592827 -0.2237172 0.9407173 0.2237172 0.9407173 0.2237172 0.0592827 -0.2237172
3124000000 0.0580321 -0.2212072 0.9419679 0.2212072 0.9419679 0.2212072 0.0580321 -0.2212072
3145000000 0.0568066 -0.2187125 0.9431934 0.2187125 0.9431934 0.2187125 0.0568066 -0.2187125
3166000000 0.0556058 -0.2162330 0.9443942 0.2162330 0.9443942 0.2162330 0.0556058 -0.2162330
3187000000 0.0544292 -0.2137684 0.9455708 0.2137684 0.9455708 0.2137684 0.0544292 -0.2137684
3208000000 0.0532761 -0.2113187 0.9467239 0.2113187 0.9467239 0.2113187 0.0532761 -0.2113187
3229000000 0.0521463 -0.2088837 0.9478537 0.2088837 0.9478537 0.2088837 0.0521463 -0.2088837
3250000000 0.0510391 -0.2064633 0.9489609 0.2064633 0.9489609 0.2064633 0.0510391 -0.2064633
3271000000 0.0499541 -0.2040575 0.9500459 0.2040575 0.9500459 0.2040575 0.0499541 -0.2040575
3292000000 0.0488910 -0.2016660 0.9511090 0.2016660 0.9511090 0.2016660 0.0488910 -0.2016660
3313000000 0.0478492 -0.1992887 0.9521508 0.1992887 0.9521508 0.1992887 0.0478492 -0.1992887
3334000000 0.0468283 -0.1969255 0.9531717 0.1969255 0.9531717 0.1969255 0.0468283 -0.1969255
3355000000 0.0458279 -0.1945763 0.9541721 0.1945763 0.9541721 0.1945763 0.0458279 -0.1945763
3376000000 0.0448477 -0.1922409 0.9551523 0.1922409 0.9551523 0.1922409 0.0448477 -0.1922409
3397000000 0.0438872 -0.1899192 0.9561128 0.1899192 0.9561128 0.1899192 0.0438872 -0.1899192
3418000000 0.0429460 -0.1876111 0.9570540 0.1876111 0.9570540 0.1876111 0.0429460 -0.1876111
3439000000 0.0420238 -0.1853165 0.9579762 0.1853165 0.9579762 0.1853165 0.0420238 -0.1853165
3460000000 0.0411202 -0.1830352 0.9588798 0.1830352 0.9588798 0.1830352 0.0411202 -0.1830352
3481000000 0.0402348 -0.1807670 0.9597652 0.1807670 0.9597652 0.1807670 0.0402348 -0.1807670
3502000000 0.0393674 -0.1785120 0.9606326 0.1785120 0.9606326 0.1785120 0.0393674 -0.1785120
3523000000 0.0385175 -0.1762698 0.9614825 0.1762698 0.9614825 0.1762698 0.0385175 -0.1762698
3544000000 0.0376848 -0.1740405 0.9623152 0.1740405 0.9623152 0.1740405 0.0376848 -0.1740405
3565000000 0.0368691 -0.1718238 0.9631309 0.1718238 0.9631309 0.1718238 0.0368691 -0.1718238
3586000000 0.0360699 -0.1696197 0.9639301 0.1696197 0.9639301 0.1696197 0.0360699 -0.1696197
3607000000 0.0352871 -0.1674280 0.9647129 0.1674280 0.9647129 0.1674280 0.0352871 -0.1674280
3628000000 0.0345202 -0.1652486 0.9654798 0.1652486 0.9654798 0.1652486 0.0345202 -0.1652486
3649000000 0.0337690 -0.1630814 0.9662310 0.1630814 0.9662310 0.1630814 0.0337690 -0.1630814
3670000000 0.0330333 -0.1609262 0.9669667 0.1609262 0.9669667 0.1609262 0.0330333 -0.1609262
3691000000 0.0323127 -0.1587829 0.9676873 0.1587829 0.9676873 0.1587829 0.0323127 -0.1587829
3712000000 0.0316070 -0.1566514 0.9683930 0.1566514 0.9683930 0.1566514 0.0316070 -0.1566514
3733000000 0.0309158 -0.1545316 0.9690842 0.1545316 0.9690842 0.1545316 0.0309158 -0.1545316
3754000000 0.0302391 -0.1524234 0.9697609 0.1524234 0.9697609 0.1524234 0.0302391 -0.1524234
3775000000 0.0295764 -0.1503266 0.9704236 0.1503266 0.9704236 0.1503266 0.0295764 -0.1503266
3796000000 0.0289275 -0.1482411 0.9710725 0.1482411 0.9710725 0.1482411 0.0289275 -0.1482411
3817000000 0.0282923 -0.1461668 0.9717077 0.1461668 0.9717077 0.1461668 0.0282923 -0.1461668
3838000000 0.0276704 -0.1441036 0.9723296 0.1441036 0.9723296 0.1441036 0.0276704 -0.1441036
3859000000 0.0270617 -0.1420514 0.9729383 0.1420514 0.9729383 0.1420514 0.0270617 -0.1420514
3880000000 0.0264659 -0.1400099 0.9735341 0.1400099 0.9735341 0.1400099 0.0264659 -0.1400099
3901000000 0.0258828 -0.1379793 0.9741172 0.1379793 0.9741172 0.1379793 0.0258828 -0.1379793
3922000000 0.0253121 -0.1359592 0.9746879 0.1359592 0.9746879 0.1359592 0.0253121 -0.1359592
3943000000 0.0247538 -0.1339496 0.9752462 0.1339496 0.9752462 0.1339496 0.0247538 -0.1339496
3964000000 0.0242075 -0.1319505 0.9757925 0.1319505 0.9757925 0.1319505 0.0242075 -0.1319505
3985000000 0.0236731 -0.1299616 0.9763269 0.1299616 0.9763269 0.1299616 0.0236731 -0.1299616
4006000000 0.0231504 -0.1279828 0.9768496 0.1279828 0.9768496 0.1279828 0.0231504 -0.1279828
4027000000 0.0226391 -0.1260142 0.9773609 0.1260142 0.9773609 0.1260142 0.0226391 -0.1260142
4048000000 0.0221392 -0.1240554 0.9778608 0.1240554 0.9778608 0.1240554 0.0221392 -0.1240554
4069000000 0.0216504 -0.1221066 0.9783496 0.1221066 0.9783496 0.1221066 0.0216504 -0.1221066
4090000000 0.0211725 -0.1201674 0.9788275 0.1201674 0.9788275 0.1201674 0.0211725 -0.1201674
4111000000 0.0207054 -0.1182379 0.9792946 0.1182379 0.9792946 0.1182379 0.0207054 -0.1182379
4132000000 0.0202489 -0.1163179 0.9797511 0.1163179 0.9797511 0.1163179 0.0202489 -0.1163179
4153000000 0.0198028 -0.1144074 0.9801972 0.1144074 0.9801972 0.1144074 0.0198028 -0.1144074
4174000000 0.0193671 -0.1125061 0.9806329 0.1125061 0.9806329 0.1125061 0.0193671 -0.1125061
4195000000 0.0189414 -0.1106141 0.9810586 0.1106141 0.9810586 0.1106141 0.0189414 -0.1106141
4216000000 0.0185257 -0.1087312 0.9814743 0.1087312 0.9814743 0.1087312 0.0185257 -0.1087312
4237000000 0.0181198 -0.1068573 0.9818802 0.1068573 0.9818802 0.1068573 0.0181198 -0.1068573
4258000000 0.0177235 -0.1049924 0.9822765 0.1049924 0.9822765 0.1049924 0.0177235 -0.1049924
4279000000 0.0173368 -0.1031362 0.9826632 0.1031362 0.9826632 0.1031362 0.0173368 -0.1031362
4300000000 0.0169595 -0.1012888 0.9830405 0.1012888 0.9830405 0.1012888 0.0169595 -0.1012888
4321000000 0.0165914 -0.0994500 0.9834086 0.0994500 0.9834086 0.0994500 0.0165914 -0.0994500
4342000000 0.0162324 -0.0976198 0.9837676 0.0976198 0.9837676 0.0976198 0.0162324 -0.0976198
4363000000 0.0158823 -0.0957980 0.9841177 0.0957980 0.9841177 0.0957980 0.0158823 -0.0957980
4384000000 0.0155411 -0.0939846 0.9844589 0.0939846 0.9844589 0.0939846 0.0155411 -0.0939846
4405000000 0.0152087 -0.0921794 0.9847913 0.0921794 0.9847913 0.0921794 0.0152087 -0.0921794
4426000000 0.0148848 -0.0903824 0.9851152 0.0903824 0.9851152 0.0903824 0.0148848 -0.0903824
4447000000 0.0145694 -0.0885934 0.9854306 0.0885934 0.9854306 0.0885934 0.0145694 -0.0885934
4468000000 0.0142624 -0.0868125 0.9857376 0.0868125 0.9857376 0.0868125 0.0142624 -0.0868125
4489000000 0.0139636 -0.0850394 0.9860364 0.0850394 0.9860364 0.0850394 0.0139636 -0.0850394
4510000000 0.0136730 -0.0832742 0.9863270 0.0832742 0.9863270 0.0832742 0.0136730 -0.0832742
