!Murata Part Number: GRM1885C2A1R3CA01
!These Parameters are Measured in Series Mode Connection
!Data Generated on Mar 30, 2021
!       o--ll--o
!Port1            Port2
!       o------o
!Operation Temp=25[degC], DC Bias Voltage=0[V]
!Freq. Start=100[MHz] Stop=9[GHz] 401[Steps]
# Hz S RI R 50
!Freq.(Hz) S11(Real) S11(Imag) S21(Real) S21(Imag) S12(Real) S12(Imag) S22(Real) S22(Imag)
100000000 0.9933554 -0.0811621 0.0066446 0.0811621 0.0066446 0.0811621 0.9933554 -0.0811621
121000000 0.9902987 -0.0979170 0.0097013 0.0979170 0.0097013 0.0979170 0.9902987 -0.0979170
142000000 0.9866833 -0.1145094 0.0133167 0.1145094 0.0133167 0.1145094 0.9866833 -0.1145094
163000000 0.9825203 -0.1309132 0.0174797 0.1309132 0.0174797 0.1309132 0.9825203 -0.1309132
184000000 0.9778227 -0.1471033 0.0221773 0.1471033 0.0221773 0.1471033 0.9778227 -0.1471033
205000000 0.9726047 -0.1630553 0.0273953 0.1630553 0.0273953 0.1630553 0.9726047 -0.1630553
226000000 0.9668821 -0.1787465 0.0331179 0.1787465 0.0331179 0.1787465 0.9668821 -0.1787465
247000000 0.9606718 -0.1941551 0.0393282 0.1941551 0.0393282 0.1941551 0.9606718 -0.1941551
268000000 0.9539920 -0.2092607 0.0460080 0.2092607 0.0460080 0.2092607 0.9539920 -0.2092607
289000000 0.9468619 -0.2240445 0.0531381 0.2240445 0.0531381 0.2240445 0.9468619 -0.2240445
310000000 0.9393014 -0.2384889 0.0606986 0.2384889 0.0606986 0.2384889 0.9393014 -0.2384889
331000000 0.9313315 -0.2525780 0.0686685 0.2525780 0.0686685 0.2525780 0.9313315 -0.2525780
352000000 0.9229736 -0.2662975 0.0770264 0.2662975 0.0770264 0.2662975 0.9229736 -0.2662975
373000000 0.9142497 -0.2796345 0.0857503 0.2796345 0.0857503 0.2796345 0.9142497 -0.2796345
394000000 0.9051820 -0.2925776 0.0948180 0.2925776 0.0948180 0.2925776 0.9051820 -0.2925776
415000000 0.8957933 -0.3051173 0.1042067 0.3051173 0.1042067 0.3051173 0.8957933 -0.3051173
436000000 0.8861062 -0.3172452 0.1138938 0.3172452 0.1138938 0.3172452 0.8861062 -0.3172452
457000000 0.8761433 -0.3289546 0.1238567 0.3289546 0.1238567 0.3289546 0.8761433 -0.3289546
478000000 0.8659274 -0.3402405 0.1340726 0.3402405 0.1340726 0.3402405 0.8659274 -0.3402405
499000000 0.8554808 -0.3510988 0.1445192 0.3510988 0.1445192 0.3510988 0.8554808 -0.3510988
520000000 0.8448257 -0.3615272 0.1551743 0.3615272 0.1551743 0.3615272 0.8448257 -0.3615272
541000000 0.8339837 -0.3715244 0.1660163 0.3715244 0.1660163 0.3715244 0.8339837 -0.3715244
562000000 0.8229761 -0.3810905 0.1770239 0.3810905 0.1770239 0.3810905 0.8229761 -0.3810905
583000000 0.8118238 -0.3902268 0.1881762 0.3902268 0.1881762 0.3902268 0.8118238 -0.3902268
604000000 0.8005467 -0.3989355 0.1994533 0.3989355 0.1994533 0.3989355 0.8005467 -0.3989355
625000000 0.7891644 -0.4072199 0.2108356 0.4072199 0.2108356 0.4072199 0.7891644 -0.4072199
646000000 0.7776958 -0.4150844 0.2223042 0.4150844 0.2223042 0.4150844 0.7776958 -0.4150844
667000000 0.7661588 -0.4225339 0.2338412 0.4225339 0.2338412 0.4225339 0.7661588 -0.4225339
688000000 0.7545708 -0.4295744 0.2454292 0.4295744 0.2454292 0.4295744 0.7545708 -0.4295744
709000000 0.7429484 -0.4362124 0.2570516 0.4362124 0.2570516 0.4362124 0.7429484 -0.4362124
730000000 0.7313072 -0.4424553 0.2686928 0.4424553 0.2686928 0.4424553 0.7313072 -0.4424553
751000000 0.7196623 -0.4483108 0.2803377 0.4483108 0.2803377 0.4483108 0.7196623 -0.4483108
772000000 0.7080277 -0.4537871 0.2919723 0.4537871 0.2919723 0.4537871 0.7080277 -0.4537871
793000000 0.6964168 -0.4588931 0.3035832 0.4588931 0.3035832 0.4588931 0.6964168 -0.4588931
814000000 0.6848420 -0.4636377 0.3151580 0.4636377 0.3151580 0.4636377 0.6848420 -0.4636377
835000000 0.6733150 -0.4680304 0.3266850 0.4680304 0.3266850 0.4680304 0.6733150 -0.4680304
856000000 0.6618469 -0.4720807 0.3381531 0.4720807 0.3381531 0.4720807 0.6618469 -0.4720807
877000000 0.6504478 -0.4757986 0.3495522 0.4757986 0.3495522 0.4757986 0.6504478 -0.4757986
898000000 0.6391270 -0.4791939 0.3608730 0.4791939 0.3608730 0.4791939 0.6391270 -0.4791939
919000000 0.6278932 -0.4822767 0.3721068 0.4822767 0.3721068 0.4822767 0.6278932 -0.4822767
940000000 0.6167546 -0.4850572 0.3832454 0.4850572 0.3832454 0.4850572 0.6167546 -0.4850572
961000000 0.6057182 -0.4875454 0.3942818 0.4875454 0.3942818 0.4875454 0.6057182 -0.4875454
982000000 0.5947909 -0.4897515 0.4052091 0.4897515 0.4052091 0.4897515 0.5947909 -0.4897515
1003000000 0.5839786 -0.4916855 0.4160214 0.4916855 0.4160214 0.4916855 0.5839786 -0.4916855
1024000000 0.5732868 -0.4933574 0.4267132 0.4933574 0.4267132 0.4933574 0.5732868 -0.4933574
1045000000 0.5627204 -0.4947771 0.4372796 0.4947771 0.4372796 0.4947771 0.5627204 -0.4947771
1066000000 0.5522836 -0.4959543 0.4477164 0.4959543 0.4477164 0.4959543 0.5522836 -0.4959543
1087000000 0.5419803 -0.4968986 0.4580197 0.4968986 0.4580197 0.4968986 0.5419803 -0.4968986
1108000000 0.5318139 -0.4976194 0.4681861 0.4976194 0.4681861 0.4976194 0.5318139 -0.4976194
1129000000 0.5217871 -0.4981259 0.4782129 0.4981259 0.4782129 0.4981259 0.5217871 -0.4981259
1150000000 0.5119025 -0.4984273 0.4880975 0.4984273 0.4880975 0.4984273 0.5119025 -0.4984273
1171000000 0.5021620 -0.4985322 0.4978380 0.4985322 0.4978380 0.4985322 0.5021620 -0.4985322
1192000000 0.4925674 -0.4984494 0.5074326 0.4984494 0.5074326 0.4984494 0.4925674 -0.4984494
1213000000 0.4831199 -0.4981871 0.5168801 0.4981871 0.5168801 0.4981871 0.4831199 -0.4981871
1234000000 0.4738206 -0.4977536 0.5261794 0.4977536 0.5261794 0.4977536 0.4738206 -0.4977536
1255000000 0.4646701 -0.4971568 0.5353299 0.4971568 0.5353299 0.4971568 0.4646701 -0.4971568
1276000000 0.4556688 -0.4964044 0.5443312 0.4964044 0.5443312 0.4964044 0.4556688 -0.4964044
1297000000 0.4468168 -0.4955037 0.5531832 0.4955037 0.5531832 0.4955037 0.4468168 -0.4955037
1318000000 0.4381141 -0.4944619 0.5618859 0.4944619 0.5618859 0.4944619 0.4381141 -0.4944619
1339000000 0.4295602 -0.4932862 0.5704398 0.4932862 0.5704398 0.4932862 0.4295602 -0.4932862
1360000000 0.4211548 -0.4919831 0.5788452 0.4919831 0.5788452 0.4919831 0.4211548 -0.4919831
1381000000 0.4128970 -0.4905591 0.5871030 0.4905591 0.5871030 0.4905591 0.4128970 -0.4905591
1402000000 0.4047859 -0.4890205 0.5952141 0.4890205 0.5952141 0.4890205 0.4047859 -0.4890205
1423000000 0.3968206 -0.4873733 0.6031794 0.4873733 0.6031794 0.4873733 0.3968206 -0.4873733
1444000000 0.3889998 -0.4856233 0.6110002 0.4856233 0.6110002 0.4856233 0.3889998 -0.4856233
1465000000 0.3813223 -0.4837761 0.6186777 0.4837761 0.6186777 0.4837761 0.3813223 -0.4837761
1486000000 0.3737865 -0.4818371 0.6262135 0.4818371 0.6262135 0.4818371 0.3737865 -0.4818371
1507000000 0.3663910 -0.4798112 0.6336090 0.4798112 0.6336090 0.4798112 0.3663910 -0.4798112
1528000000 0.3591342 -0.4777036 0.6408658 0.4777036 0.6408658 0.4777036 0.3591342 -0.4777036
1549000000 0.3520144 -0.4755189 0.6479856 0.4755189 0.6479856 0.4755189 0.3520144 -0.4755189
1570000000 0.3450297 -0.4732616 0.6549703 0.4732616 0.6549703 0.4732616 0.3450297 -0.4732616
1591000000 0.3381785 -0.4709361 0.6618215 0.4709361 0.6618215 0.4709361 0.3381785 -0.4709361
1612000000 0.3314588 -0.4685466 0.6685412 0.4685466 0.6685412 0.4685466 0.3314588 -0.4685466
1633000000 0.3248687 -0.4660970 0.6751313 0.4660970 0.6751313 0.4660970 0.3248687 -0.4660970
1654000000 0.3184063 -0.4635912 0.6815937 0.4635912 0.6815937 0.4635912 0.3184063 -0.4635912
1675000000 0.3120695 -0.4610327 0.6879305 0.4610327 0.6879305 0.4610327 0.3120695 -0.4610327
1696000000 0.3058563 -0.4584250 0.6941437 0.4584250 0.6941437 0.4584250 0.3058563 -0.4584250
1717000000 0.2997649 -0.4557715 0.7002351 0.4557715 0.7002351 0.4557715 0.2997649 -0.4557715
1738000000 0.2937930 -0.4530753 0.7062070 0.4530753 0.7062070 0.4530753 0.2937930 -0.4530753
1759000000 0.2879386 -0.4503395 0.7120614 0.4503395 0.7120614 0.4503395 0.2879386 -0.4503395
1780000000 0.2821998 -0.4475669 0.7178002 0.4475669 0.7178002 0.4475669 0.2821998 -0.4475669
1801000000 0.2765744 -0.4447602 0.7234256 0.4447602 0.7234256 0.4447602 0.2765744 -0.4447602
1822000000 0.2710604 -0.4419221 0.7289396 0.4419221 0.7289396 0.4419221 0.2710604 -0.4419221
1843000000 0.2656557 -0.4390552 0.7343443 0.4390552 0.7343443 0.4390552 0.2656557 -0.4390552
1864000000 0.2603584 -0.4361616 0.7396416 0.4361616 0.7396416 0.4361616 0.2603584 -0.4361616
1885000000 0.2551665 -0.4332438 0.7448335 0.4332438 0.7448335 0.4332438 0.2551665 -0.4332438
1906000000 0.2500778 -0.4303038 0.7499222 0.4303038 0.7499222 0.4303038 0.2500778 -0.4303038
1927000000 0.2450905 -0.4273438 0.7549095 0.4273438 0.7549095 0.4273438 0.2450905 -0.4273438
1948000000 0.2402026 -0.4243656 0.7597974 0.4243656 0.7597974 0.4243656 0.2402026 -0.4243656
1969000000 0.2354121 -0.4213710 0.7645879 0.4213710 0.7645879 0.4213710 0.2354121 -0.4213710
1990000000 0.2307171 -0.4183620 0.7692829 0.4183620 0.7692829 0.4183620 0.2307171 -0.4183620
2011000000 0.2261158 -0.4153400 0.7738842 0.4153400 0.7738842 0.4153400 0.2261158 -0.4153400
2032000000 0.2216062 -0.4123067 0.7783938 0.4123067 0.7783938 0.4123067 0.2216062 -0.4123067
2053000000 0.2171865 -0.4092637 0.7828135 0.4092637 0.7828135 0.4092637 0.2171865 -0.4092637
2074000000 0.2128549 -0.4062122 0.7871451 0.4062122 0.7871451 0.4062122 0.2128549 -0.4062122
2095000000 0.2086096 -0.4031537 0.7913904 0.4031537 0.7913904 0.4031537 0.2086096 -0.4031537
2116000000 0.2044488 -0.4000895 0.7955512 0.4000895 0.7955512 0.4000895 0.2044488 -0.4000895
2137000000 0.2003708 -0.3970207 0.7996292 0.3970207 0.7996292 0.3970207 0.2003708 -0.3970207
2158000000 0.1963740 -0.3939485 0.8036260 0.3939485 0.8036260 0.3939485 0.1963740 -0.3939485
2179000000 0.1924566 -0.3908740 0.8075434 0.3908740 0.8075434 0.3908740 0.1924566 -0.3908740
2200000000 0.1886170 -0.3877982 0.8113830 0.3877982 0.8113830 0.3877982 0.1886170 -0.3877982
2221000000 0.1848536 -0.3847221 0.8151464 0.3847221 0.8151464 0.3847221 0.1848536 -0.3847221
2242000000 0.1811647 -0.3816466 0.8188353 0.3816466 0.8188353 0.3816466 0.1811647 -0.3816466
2263000000 0.1775489 -0.3785725 0.8224511 0.3785725 0.8224511 0.3785725 0.1775489 -0.3785725
2284000000 0.1740047 -0.3755007 0.8259953 0.3755007 0.8259953 0.3755007 0.1740047 -0.3755007
2305000000 0.1705304 -0.3724320 0.8294696 0.3724320 0.8294696 0.3724320 0.1705304 -0.3724320
2326000000 0.1671248 -0.3693671 0.8328752 0.3693671 0.8328752 0.3693671 0.1671248 -0.3693671
2347000000 0.1637862 -0.3663066 0.8362138 0.3663066 0.8362138 0.3663066 0.1637862 -0.3663066
2368000000 0.1605134 -0.3632512 0.8394866 0.3632512 0.8394866 0.3632512 0.1605134 -0.3632512
2389000000 0.1573050 -0.3602016 0.8426950 0.3602016 0.8426950 0.3602016 0.1573050 -0.3602016
2410000000 0.1541596 -0.3571582 0.8458404 0.3571582 0.8458404 0.3571582 0.1541596 -0.3571582
2431000000 0.1510758 -0.3541217 0.8489242 0.3541217 0.8489242 0.3541217 0.1510758 -0.3541217
2452000000 0.1480525 -0.3510924 0.8519475 0.3510924 0.8519475 0.3510924 0.1480525 -0.3510924
2473000000 0.1450883 -0.3480710 0.8549117 0.3480710 0.8549117 0.3480710 0.1450883 -0.3480710
2494000000 0.1421820 -0.3450578 0.8578180 0.3450578 0.8578180 0.3450578 0.1421820 -0.3450578
2515000000 0.1393324 -0.3420533 0.8606676 0.3420533 0.8606676 0.3420533 0.1393324 -0.3420533
2536000000 0.1365383 -0.3390578 0.8634617 0.3390578 0.8634617 0.3390578 0.1365383 -0.3390578
2557000000 0.1337986 -0.3360716 0.8662014 0.3360716 0.8662014 0.3360716 0.1337986 -0.3360716
2578000000 0.1311121 -0.3330953 0.8688879 0.3330953 0.8688879 0.3330953 0.1311121 -0.3330953
2599000000 0.1284778 -0.3301289 0.8715222 0.3301289 0.8715222 0.3301289 0.1284778 -0.3301289
2620000000 0.1258944 -0.3271729 0.8741056 0.3271729 0.8741056 0.3271729 0.1258944 -0.3271729
2641000000 0.1233611 -0.3242276 0.8766389 0.3242276 0.8766389 0.3242276 0.1233611 -0.3242276
2662000000 0.1208768 -0.3212930 0.8791232 0.3212930 0.8791232 0.3212930 0.1208768 -0.3212930
2683000000 0.1184403 -0.3183696 0.8815597 0.3183696 0.8815597 0.3183696 0.1184403 -0.3183696
2704000000 0.1160509 -0.3154574 0.8839491 0.3154574 0.8839491 0.3154574 0.1160509 -0.3154574
2725000000 0.1137075 -0.3125568 0.8862925 0.3125568 0.8862925 0.3125568 0.1137075 -0.3125568
2746000000 0.1114091 -0.3096678 0.8885909 0.3096678 0.8885909 0.3096678 0.1114091 -0.3096678
2767000000 0.1091548 -0.3067907 0.8908452 0.3067907 0.8908452 0.3067907 0.1091548 -0.3067907
2788000000 0.1069438 -0.3039256 0.8930562 0.3039256 0.8930562 0.3039256 0.1069438 -0.3039256
2809000000 0.1047752 -0.3010726 0.8952248 0.3010726 0.8952248 0.3010726 0.1047752 -0.3010726
2830000000 0.1026481 -0.2982318 0.8973519 0.2982318 0.8973519 0.2982318 0.1026481 -0.2982318
2851000000 0.1005616 -0.2954035 0.8994384 0.2954035 0.8994384 0.2954035 0.1005616 -0.2954035
2872000000 0.0985150 -0.2925875 0.9014850 0.2925875 0.9014850 0.2925875 0.0985150 -0.2925875
2893000000 0.0965075 -0.2897842 0.9034925 0.2897842 0.9034925 0.2897842 0.0965075 -0.2897842
2914000000 0.0945382 -0.2869934 0.9054618 0.2869934 0.9054618 0.2869934 0.0945382 -0.2869934
2935000000 0.0926064 -0.2842154 0.9073936 0.2842154 0.9073936 0.2842154 0.0926064 -0.2842154
2956000000 0.0907114 -0.2814501 0.9092886 0.2814501 0.9092886 0.2814501 0.0907114 -0.2814501
2977000000 0.0888524 -0.2786976 0.9111476 0.2786976 0.9111476 0.2786976 0.0888524 -0.2786976
2998000000 0.0870288 -0.2759580 0.9129712 0.2759580 0.9129712 0.2759580 0.0870288 -0.2759580
3019000000 0.0852398 -0.2732312 0.9147602 0.2732312 0.9147602 0.2732312 0.0852398 -0.2732312
3040000000 0.0834847 -0.2705173 0.9165153 0.2705173 0.9165153 0.2705173 0.0834847 -0.2705173
3061000000 0.0817629 -0.2678164 0.9182371 0.2678164 0.9182371 0.2678164 0.0817629 -0.2678164
3082000000 0.0800738 -0.2651283 0.9199262 0.2651283 0.9199262 0.2651283 0.0800738 -0.2651283
3103000000 0.0784166 -0.2624532 0.9215834 0.2624532 0.9215834 0.2624532 0.0784166 -0.2624532
3124000000 0.0767908 -0.2597911 0.9232092 0.2597911 0.9232092 0.2597911 0.0767908 -0.2597911
3145000000 0.0751959 -0.2571418 0.9248041 0.2571418 0.9248041 0.2571418 0.0751959 -0.2571418
3166000000 0.0736311 -0.2545055 0.9263689 0.2545055 0.9263689 0.2545055 0.0736311 -0.2545055
3187000000 0.0720959 -0.2518820 0.9279041 0.2518820 0.9279041 0.2518820 0.0720959 -0.2518820
3208000000 0.0705898 -0.2492714 0.9294102 0.2492714 0.9294102 0.2492714 0.0705898 -0.2492714
3229000000 0.0691122 -0.2466737 0.9308878 0.2466737 0.9308878 0.2466737 0.0691122 -0.2466737
3250000000 0.0676626 -0.2440888 0.9323374 0.2440888 0.9323374 0.2440888 0.0676626 -0.2440888
3271000000 0.0662404 -0.2415166 0.9337596 0.2415166 0.9337596 0.2415166 0.0662404 -0.2415166
3292000000 0.0648451 -0.2389572 0.9351549 0.2389572 0.9351549 0.2389572 0.0648451 -0.2389572
3313000000 0.0634762 -0.2364105 0.9365238 0.2364105 0.9365238 0.2364105 0.0634762 -0.2364105
3334000000 0.0621333 -0.2338764 0.9378667 0.2338764 0.9378667 0.2338764 0.0621333 -0.2338764
3355000000 0.0608159 -0.2313549 0.9391841 0.2313549 0.9391841 0.2313549 0.0608159 -0.2313549
3376000000 0.0595234 -0.2288459 0.9404766 0.2288459 0.9404766 0.2288459 0.0595234 -0.2288459
3397000000 0.0582555 -0.2263495 0.9417445 0.2263495 0.9417445 0.2263495 0.0582555 -0.2263495
3418000000 0.0570116 -0.2238655 0.9429884 0.2238655 0.9429884 0.2238655 0.0570116 -0.2238655
3439000000 0.0557914 -0.2213938 0.9442086 0.2213938 0.9442086 0.2213938 0.0557914 -0.2213938
3460000000 0.0545944 -0.2189345 0.9454056 0.2189345 0.9454056 0.2189345 0.0545944 -0.2189345
3481000000 0.0534202 -0.2164874 0.9465798 0.2164874 0.9465798 0.2164874 0.0534202 -0.2164874
3502000000 0.0522684 -0.2140525 0.9477316 0.2140525 0.9477316 0.2140525 0.0522684 -0.2140525
3523000000 0.0511387 -0.2116297 0.9488613 0.2116297 0.9488613 0.2116297 0.0511387 -0.2116297
3544000000 0.0500305 -0.2092190 0.9499695 0.2092190 0.9499695 0.2092190 0.0500305 -0.2092190
3565000000 0.0489435 -0.2068203 0.9510565 0.2068203 0.9510565 0.2068203 0.0489435 -0.2068203
3586000000 0.0478774 -0.2044334 0.9521226 0.2044334 0.9521226 0.2044334 0.0478774 -0.2044334
3607000000 0.0468318 -0.2020584 0.9531682 0.2020584 0.9531682 0.2020584 0.0468318 -0.2020584
3628000000 0.0458063 -0.1996951 0.9541937 0.1996951 0.9541937 0.1996951 0.0458063 -0.1996951
3649000000 0.0448007 -0.1973436 0.9551993 0.1973436 0.9551993 0.1973436 0.0448007 -0.1973436
3670000000 0.0438144 -0.1950036 0.9561856 0.1950036 0.9561856 0.1950036 0.0438144 -0.1950036
3691000000 0.0428473 -0.1926752 0.9571527 0.1926752 0.9571527 0.1926752 0.0428473 -0.1926752
3712000000 0.0418989 -0.1903582 0.9581011 0.1903582 0.9581011 0.1903582 0.0418989 -0.1903582
3733000000 0.0409691 -0.1880526 0.9590309 0.1880526 0.9590309 0.1880526 0.0409691 -0.1880526
3754000000 0.0400573 -0.1857583 0.9599427 0.1857583 0.9599427 0.1857583 0.0400573 -0.1857583
3775000000 0.0391635 -0.1834752 0.9608365 0.1834752 0.9608365 0.1834752 0.0391635 -0.1834752
3796000000 0.0382872 -0.1812032 0.9617128 0.1812032 0.9617128 0.1812032 0.0382872 -0.1812032
3817000000 0.0374281 -0.1789423 0.9625719 0.1789423 0.9625719 0.1789423 0.0374281 -0.1789423
3838000000 0.0365861 -0.1766924 0.9634139 0.1766924 0.9634139 0.1766924 0.0365861 -0.1766924
3859000000 0.0357607 -0.1744534 0.9642393 0.1744534 0.9642393 0.1744534 0.0357607 -0.1744534
3880000000 0.0349518 -0.1722252 0.9650482 0.1722252 0.9650482 0.1722252 0.0349518 -0.1722252
3901000000 0.0341590 -0.1700077 0.9658410 0.1700077 0.9658410 0.1700077 0.0341590 -0.1700077
3922000000 0.0333822 -0.1678009 0.9666178 0.1678009 0.9666178 0.1678009 0.0333822 -0.1678009
3943000000 0.0326210 -0.1656047 0.9673790 0.1656047 0.9673790 0.1656047 0.0326210 -0.1656047
3964000000 0.0318752 -0.1634189 0.9681248 0.1634189 0.9681248 0.1634189 0.0318752 -0.1634189
3985000000 0.0311445 -0.1612435 0.9688555 0.1612435 0.9688555 0.1612435 0.0311445 -0.1612435
4006000000 0.0304287 -0.1590785 0.9695713 0.1590785 0.9695713 0.1590785 0.0304287 -0.1590785
4027000000 0.0297277 -0.1569237 0.9702723 0.1569237 0.9702723 0.1569237 0.0297277 -0.1569237
4048000000 0.0290411 -0.1547791 0.9709589 0.1547791 0.9709589 0.1547791 0.0290411 -0.1547791
4069000000 0.0283687 -0.1526446 0.9716313 0.1526446 0.9716313 0.1526446 0.0283687 -0.1526446
4090000000 0.0277103 -0.1505201 0.9722897 0.1505201 0.9722897 0.1505201 0.0277103 -0.1505201
4111000000 0.0270657 -0.1484055 0.9729343 0.1484055 0.9729343 0.1484055 0.0270657 -0.1484055
4132000000 0.0264347 -0.1463007 0.9735653 0.1463007 0.9735653 0.1463007 0.0264347 -0.1463007
4153000000 0.0258171 -0.1442057 0.9741829 0.1442057 0.9741829 0.1442057 0.0258171 -0.1442057
4174000000 0.0252127 -0.1421204 0.9747873 0.1421204 0.9747873 0.1421204 0.0252127 -0.1421204
4195000000 0.0246212 -0.1400447 0.9753788 0.1400447 0.9753788 0.1400447 0.0246212 -0.1400447
4216000000 0.0240426 -0.1379785 0.9759574 0.1379785 0.9759574 0.1379785 0.0240426 -0.1379785
4237000000 0.0234765 -0.1359218 0.9765235 0.1359218 0.9765235 0.1359218 0.0234765 -0.1359218
4258000000 0.0229229 -0.1338744 0.9770771 0.1338744 0.9770771 0.1338744 0.0229229 -0.1338744
4279000000 0.0223815 -0.1318363 0.9776185 0.1318363 0.9776185 0.1318363 0.0223815 -0.1318363
4300000000 0.0218521 -0.1298075 0.9781479 0.1298075 0.9781479 0.1298075 0.0218521 -0.1298075
4321000000 0.0213347 -0.1277877 0.9786653 0.1277877 0.9786653 0.1277877 0.0213347 -0.1277877
4342000000 0.0208290 -0.1257771 0.9791710 0.1257771 0.9791710 0.1257771 0.0208290 -0.1257771
4363000000 0.0203348 -0.1237754 0.9796652 0.1237754 0.9796652 0.1237754 0.0203348 -0.1237754
4384000000 0.0198520 -0.1217826 0.9801480 0.1217826 0.9801480 0.1217826 0.0198520 -0.1217826
4405000000 0.0193804 -0.1197987 0.9806196 0.1197987 0.9806196 0.1197987 0.0193804 -0.1197987
4426000000 0.0189199 -0.1178235 0.9810801 0.1178235 0.9810801 0.1178235 0.0189199 -0.1178235
4447000000 0.0184704 -0.1158571 0.9815296 0.1158571 0.9815296 0.1158571 0.0184704 -0.1158571
4468000000 0.0180316 -0.1138992 0.9819684 0.1138992 0.9819684 0.1138992 0.0180316 -0.1138992
4489000000 0.0176034 -0.1119499 0.9823966 0.1119499 0.9823966 0.1119499 0.0176034 -0.1119499
4510000000 0.0171857 -0.1100090 0.9828143 0.1100090 0.9828143 0.1100090 0.0171857 -0.1100090
