!Murata Part Number: GRM1883C2A3R9CA01
!These Parameters are Measured in Series Mode Connection
!Data Generated on Mar 30, 2021
!       o--ll--o
!Port1            Port2
!       o------o
!Operation Temp=25[degC], DC Bias Voltage=0[V]
!Freq. Start=100[MHz] Stop=9[GHz] 401[Steps]
# Hz S RI R 50
!Freq.(Hz) S11(Real) S11(Imag) S21(Real) S21(Imag) S12(Real) S12(Imag) S22(Real) S22(Imag)
100000000 0.9431759 -0.2313081 0.0568241 0.2313081 0.0568241 0.2313081 0.9431759 -0.2313081
121000000 0.9188776 -0.2727717 0.0811224 0.2727717 0.0811224 0.2727717 0.9188776 -0.2727717
142000000 0.8914969 -0.3107048 0.1085031 0.3107048 0.1085031 0.3107048 0.8914969 -0.3107048
163000000 0.8616600 -0.3448822 0.1383400 0.3448822 0.1383400 0.3448822 0.8616600 -0.3448822
184000000 0.8299847 -0.3752018 0.1700153 0.3752018 0.1700153 0.3752018 0.8299847 -0.3752018
205000000 0.7970562 -0.4016711 0.2029438 0.4016711 0.2029438 0.4016711 0.7970562 -0.4016711
226000000 0.7634086 -0.4243885 0.2365914 0.4243885 0.2365914 0.4243885 0.7634086 -0.4243885
247000000 0.7295138 -0.4435245 0.2704862 0.4435245 0.2704862 0.4435245 0.7295138 -0.4435245
268000000 0.6957754 -0.4593016 0.3042246 0.4593016 0.3042246 0.4593016 0.6957754 -0.4593016
289000000 0.6625280 -0.4719766 0.3374720 0.4719766 0.3374720 0.4719766 0.6625280 -0.4719766
310000000 0.6300401 -0.4818250 0.3699599 0.4818250 0.3699599 0.4818250 0.6300401 -0.4818250
331000000 0.5985190 -0.4891286 0.4014810 0.4891286 0.4014810 0.4891286 0.5985190 -0.4891286
352000000 0.5681178 -0.4941653 0.4318822 0.4941653 0.4318822 0.4941653 0.5681178 -0.4941653
373000000 0.5389429 -0.4972022 0.4610571 0.4972022 0.4610571 0.4972022 0.5389429 -0.4972022
394000000 0.5110609 -0.4984905 0.4889391 0.4984905 0.4889391 0.4984905 0.5110609 -0.4984905
415000000 0.4845063 -0.4982628 0.5154937 0.4982628 0.5154937 0.4982628 0.4845063 -0.4982628
436000000 0.4592875 -0.4967310 0.5407125 0.4967310 0.5407125 0.4967310 0.4592875 -0.4967310
457000000 0.4353925 -0.4940865 0.5646075 0.4940865 0.5646075 0.4940865 0.4353925 -0.4940865
478000000 0.4127939 -0.4905002 0.5872061 0.4905002 0.5872061 0.4905002 0.4127939 -0.4905002
499000000 0.3914528 -0.4861237 0.6085472 0.4861237 0.6085472 0.4861237 0.3914528 -0.4861237
520000000 0.3713220 -0.4810903 0.6286780 0.4810903 0.6286780 0.4810903 0.3713220 -0.4810903
541000000 0.3523492 -0.4755166 0.6476508 0.4755166 0.6476508 0.4755166 0.3523492 -0.4755166
562000000 0.3344788 -0.4695043 0.6655212 0.4695043 0.6655212 0.4695043 0.3344788 -0.4695043
583000000 0.3176534 -0.4631412 0.6823466 0.4631412 0.6823466 0.4631412 0.3176534 -0.4631412
604000000 0.3018157 -0.4565033 0.6981843 0.4565033 0.6981843 0.4565033 0.3018157 -0.4565033
625000000 0.2869088 -0.4496556 0.7130912 0.4496556 0.7130912 0.4496556 0.2869088 -0.4496556
646000000 0.2728773 -0.4426541 0.7271227 0.4426541 0.7271227 0.4426541 0.2728773 -0.4426541
667000000 0.2596679 -0.4355461 0.7403321 0.4355461 0.7403321 0.4355461 0.2596679 -0.4355461
688000000 0.2472291 -0.4283722 0.7527709 0.4283722 0.7527709 0.4283722 0.2472291 -0.4283722
709000000 0.2355124 -0.4211664 0.7644876 0.4211664 0.7644876 0.4211664 0.2355124 -0.4211664
730000000 0.2244716 -0.4139575 0.7755284 0.4139575 0.7755284 0.4139575 0.2244716 -0.4139575
751000000 0.2140631 -0.4067696 0.7859369 0.4067696 0.7859369 0.4067696 0.2140631 -0.4067696
772000000 0.2042459 -0.3996227 0.7957541 0.3996227 0.7957541 0.3996227 0.2042459 -0.3996227
793000000 0.1949818 -0.3925335 0.8050182 0.3925335 0.8050182 0.3925335 0.1949818 -0.3925335
814000000 0.1862347 -0.3855156 0.8137653 0.3855156 0.8137653 0.3855156 0.1862347 -0.3855156
835000000 0.1779712 -0.3785801 0.8220288 0.3785801 0.8220288 0.3785801 0.1779712 -0.3785801
856000000 0.1701600 -0.3717360 0.8298400 0.3717360 0.8298400 0.3717360 0.1701600 -0.3717360
877000000 0.1627719 -0.3649903 0.8372281 0.3649903 0.8372281 0.3649903 0.1627719 -0.3649903
898000000 0.1557797 -0.3583485 0.8442203 0.3583485 0.8442203 0.3583485 0.1557797 -0.3583485
919000000 0.1491582 -0.3518147 0.8508418 0.3518147 0.8508418 0.3518147 0.1491582 -0.3518147
940000000 0.1428839 -0.3453921 0.8571161 0.3453921 0.8571161 0.3453921 0.1428839 -0.3453921
961000000 0.1369350 -0.3390825 0.8630650 0.3390825 0.8630650 0.3390825 0.1369350 -0.3390825
982000000 0.1312910 -0.3328872 0.8687090 0.3328872 0.8687090 0.3328872 0.1312910 -0.3328872
1003000000 0.1259331 -0.3268068 0.8740669 0.3268068 0.8740669 0.3268068 0.1259331 -0.3268068
1024000000 0.1208438 -0.3208413 0.8791562 0.3208413 0.8791562 0.3208413 0.1208438 -0.3208413
1045000000 0.1160066 -0.3149900 0.8839934 0.3149900 0.8839934 0.3149900 0.1160066 -0.3149900
1066000000 0.1114064 -0.3092521 0.8885936 0.3092521 0.8885936 0.3092521 0.1114064 -0.3092521
1087000000 0.1070290 -0.3036264 0.8929710 0.3036264 0.8929710 0.3036264 0.1070290 -0.3036264
1108000000 0.1028611 -0.2981112 0.8971389 0.2981112 0.8971389 0.2981112 0.1028611 -0.2981112
1129000000 0.0988906 -0.2927050 0.9011094 0.2927050 0.9011094 0.2927050 0.0988906 -0.2927050
1150000000 0.0951060 -0.2874058 0.9048940 0.2874058 0.9048940 0.2874058 0.0951060 -0.2874058
1171000000 0.0914965 -0.2822116 0.9085035 0.2822116 0.9085035 0.2822116 0.0914965 -0.2822116
1192000000 0.0880523 -0.2771202 0.9119477 0.2771202 0.9119477 0.2771202 0.0880523 -0.2771202
1213000000 0.0847641 -0.2721293 0.9152359 0.2721293 0.9152359 0.2721293 0.0847641 -0.2721293
1234000000 0.0816231 -0.2672369 0.9183769 0.2672369 0.9183769 0.2672369 0.0816231 -0.2672369
1255000000 0.0786213 -0.2624405 0.9213787 0.2624405 0.9213787 0.2624405 0.0786213 -0.2624405
1276000000 0.0757512 -0.2577377 0.9242488 0.2577377 0.9242488 0.2577377 0.0757512 -0.2577377
1297000000 0.0730055 -0.2531264 0.9269945 0.2531264 0.9269945 0.2531264 0.0730055 -0.2531264
1318000000 0.0703777 -0.2486041 0.9296223 0.2486041 0.9296223 0.2486041 0.0703777 -0.2486041
1339000000 0.0678615 -0.2441686 0.9321385 0.2441686 0.9321385 0.2441686 0.0678615 -0.2441686
1360000000 0.0654512 -0.2398176 0.9345488 0.2398176 0.9345488 0.2398176 0.0654512 -0.2398176
1381000000 0.0631413 -0.2355488 0.9368587 0.2355488 0.9368587 0.2355488 0.0631413 -0.2355488
1402000000 0.0609267 -0.2313600 0.9390733 0.2313600 0.9390733 0.2313600 0.0609267 -0.2313600
1423000000 0.0588026 -0.2272490 0.9411974 0.2272490 0.9411974 0.2272490 0.0588026 -0.2272490
1444000000 0.0567643 -0.2232138 0.9432357 0.2232138 0.9432357 0.2232138 0.0567643 -0.2232138
1465000000 0.0548079 -0.2192521 0.9451921 0.2192521 0.9451921 0.2192521 0.0548079 -0.2192521
1486000000 0.0529291 -0.2153621 0.9470709 0.2153621 0.9470709 0.2153621 0.0529291 -0.2153621
1507000000 0.0511243 -0.2115416 0.9488757 0.2115416 0.9488757 0.2115416 0.0511243 -0.2115416
1528000000 0.0493900 -0.2077888 0.9506100 0.2077888 0.9506100 0.2077888 0.0493900 -0.2077888
1549000000 0.0477228 -0.2041018 0.9522772 0.2041018 0.9522772 0.2041018 0.0477228 -0.2041018
1570000000 0.0461195 -0.2004787 0.9538805 0.2004787 0.9538805 0.2004787 0.0461195 -0.2004787
1591000000 0.0445773 -0.1969177 0.9554227 0.1969177 0.9554227 0.1969177 0.0445773 -0.1969177
1612000000 0.0430933 -0.1934171 0.9569067 0.1934171 0.9569067 0.1934171 0.0430933 -0.1934171
1633000000 0.0416650 -0.1899753 0.9583350 0.1899753 0.9583350 0.1899753 0.0416650 -0.1899753
1654000000 0.0402897 -0.1865905 0.9597103 0.1865905 0.9597103 0.1865905 0.0402897 -0.1865905
1675000000 0.0389653 -0.1832613 0.9610347 0.1832613 0.9610347 0.1832613 0.0389653 -0.1832613
1696000000 0.0376894 -0.1799859 0.9623106 0.1799859 0.9623106 0.1799859 0.0376894 -0.1799859
1717000000 0.0364599 -0.1767631 0.9635401 0.1767631 0.9635401 0.1767631 0.0364599 -0.1767631
1738000000 0.0352749 -0.1735912 0.9647251 0.1735912 0.9647251 0.1735912 0.0352749 -0.1735912
1759000000 0.0341324 -0.1704689 0.9658676 0.1704689 0.9658676 0.1704689 0.0341324 -0.1704689
1780000000 0.0330308 -0.1673949 0.9669692 0.1673949 0.9669692 0.1673949 0.0330308 -0.1673949
1801000000 0.0319683 -0.1643678 0.9680317 0.1643678 0.9680317 0.1643678 0.0319683 -0.1643678
1822000000 0.0309432 -0.1613863 0.9690568 0.1613863 0.9690568 0.1613863 0.0309432 -0.1613863
1843000000 0.0299542 -0.1584492 0.9700458 0.1584492 0.9700458 0.1584492 0.0299542 -0.1584492
1864000000 0.0289996 -0.1555554 0.9710004 0.1555554 0.9710004 0.1555554 0.0289996 -0.1555554
1885000000 0.0280782 -0.1527035 0.9719218 0.1527035 0.9719218 0.1527035 0.0280782 -0.1527035
1906000000 0.0271887 -0.1498926 0.9728113 0.1498926 0.9728113 0.1498926 0.0271887 -0.1498926
1927000000 0.0263298 -0.1471215 0.9736702 0.1471215 0.9736702 0.1471215 0.0263298 -0.1471215
1948000000 0.0255004 -0.1443891 0.9744996 0.1443891 0.9744996 0.1443891 0.0255004 -0.1443891
1969000000 0.0246992 -0.1416944 0.9753008 0.1416944 0.9753008 0.1416944 0.0246992 -0.1416944
1990000000 0.0239253 -0.1390365 0.9760747 0.1390365 0.9760747 0.1390365 0.0239253 -0.1390365
2011000000 0.0231777 -0.1364144 0.9768223 0.1364144 0.9768223 0.1364144 0.0231777 -0.1364144
2032000000 0.0224553 -0.1338271 0.9775447 0.1338271 0.9775447 0.1338271 0.0224553 -0.1338271
2053000000 0.0217573 -0.1312738 0.9782427 0.1312738 0.9782427 0.1312738 0.0217573 -0.1312738
2074000000 0.0210827 -0.1287535 0.9789173 0.1287535 0.9789173 0.1287535 0.0210827 -0.1287535
2095000000 0.0204308 -0.1262654 0.9795692 0.1262654 0.9795692 0.1262654 0.0204308 -0.1262654
2116000000 0.0198007 -0.1238087 0.9801993 0.1238087 0.9801993 0.1238087 0.0198007 -0.1238087
2137000000 0.0191917 -0.1213826 0.9808083 0.1213826 0.9808083 0.1213826 0.0191917 -0.1213826
2158000000 0.0186030 -0.1189863 0.9813970 0.1189863 0.9813970 0.1189863 0.0186030 -0.1189863
2179000000 0.0180340 -0.1166191 0.9819660 0.1166191 0.9819660 0.1166191 0.0180340 -0.1166191
2200000000 0.0174839 -0.1142802 0.9825161 0.1142802 0.9825161 0.1142802 0.0174839 -0.1142802
2221000000 0.0169522 -0.1119689 0.9830478 0.1119689 0.9830478 0.1119689 0.0169522 -0.1119689
2242000000 0.0164382 -0.1096846 0.9835618 0.1096846 0.9835618 0.1096846 0.0164382 -0.1096846
2263000000 0.0159414 -0.1074265 0.9840586 0.1074265 0.9840586 0.1074265 0.0159414 -0.1074265
2284000000 0.0154612 -0.1051941 0.9845388 0.1051941 0.9845388 0.1051941 0.0154612 -0.1051941
2305000000 0.0149971 -0.1029867 0.9850029 0.1029867 0.9850029 0.1029867 0.0149971 -0.1029867
2326000000 0.0145485 -0.1008037 0.9854515 0.1008037 0.9854515 0.1008037 0.0145485 -0.1008037
2347000000 0.0141151 -0.0986444 0.9858849 0.0986444 0.9858849 0.0986444 0.0141151 -0.0986444
2368000000 0.0136962 -0.0965085 0.9863038 0.0965085 0.9863038 0.0965085 0.0136962 -0.0965085
2389000000 0.0132914 -0.0943951 0.9867086 0.0943951 0.9867086 0.0943951 0.0132914 -0.0943951
2410000000 0.0129005 -0.0923040 0.9870995 0.0923040 0.9870995 0.0923040 0.0129005 -0.0923040
2431000000 0.0125228 -0.0902344 0.9874772 0.0902344 0.9874772 0.0902344 0.0125228 -0.0902344
2452000000 0.0121581 -0.0881859 0.9878419 0.0881859 0.9878419 0.0881859 0.0121581 -0.0881859
2473000000 0.0118059 -0.0861580 0.9881941 0.0861580 0.9881941 0.0861580 0.0118059 -0.0861580
2494000000 0.0114659 -0.0841503 0.9885341 0.0841503 0.9885341 0.0841503 0.0114659 -0.0841503
2515000000 0.0111377 -0.0821621 0.9888623 0.0821621 0.9888623 0.0821621 0.0111377 -0.0821621
2536000000 0.0108210 -0.0801932 0.9891790 0.0801932 0.9891790 0.0801932 0.0108210 -0.0801932
2557000000 0.0105155 -0.0782430 0.9894845 0.0782430 0.9894845 0.0782430 0.0105155 -0.0782430
2578000000 0.0102209 -0.0763111 0.9897791 0.0763111 0.9897791 0.0763111 0.0102209 -0.0763111
2599000000 0.0099369 -0.0743972 0.9900631 0.0743972 0.9900631 0.0743972 0.0099369 -0.0743972
2620000000 0.0096631 -0.0725006 0.9903369 0.0725006 0.9903369 0.0725006 0.0096631 -0.0725006
2641000000 0.0093994 -0.0706212 0.9906006 0.0706212 0.9906006 0.0706212 0.0093994 -0.0706212
2662000000 0.0091454 -0.0687585 0.9908546 0.0687585 0.9908546 0.0687585 0.0091454 -0.0687585
2683000000 0.0089010 -0.0669121 0.9910990 0.0669121 0.9910990 0.0669121 0.0089010 -0.0669121
2704000000 0.0086658 -0.0650816 0.9913342 0.0650816 0.9913342 0.0650816 0.0086658 -0.0650816
2725000000 0.0084396 -0.0632667 0.9915604 0.0632667 0.9915604 0.0632667 0.0084396 -0.0632667
2746000000 0.0082222 -0.0614671 0.9917778 0.0614671 0.9917778 0.0614671 0.0082222 -0.0614671
2767000000 0.0080134 -0.0596824 0.9919866 0.0596824 0.9919866 0.0596824 0.0080134 -0.0596824
2788000000 0.0078130 -0.0579122 0.9921870 0.0579122 0.9921870 0.0579122 0.0078130 -0.0579122
2809000000 0.0076208 -0.0561563 0.9923792 0.0561563 0.9923792 0.0561563 0.0076208 -0.0561563
2830000000 0.0074365 -0.0544143 0.9925635 0.0544143 0.9925635 0.0544143 0.0074365 -0.0544143
2851000000 0.0072600 -0.0526860 0.9927400 0.0526860 0.9927400 0.0526860 0.0072600 -0.0526860
2872000000 0.0070912 -0.0509709 0.9929088 0.0509709 0.9929088 0.0509709 0.0070912 -0.0509709
2893000000 0.0069298 -0.0492690 0.9930702 0.0492690 0.9930702 0.0492690 0.0069298 -0.0492690
2914000000 0.0067756 -0.0475797 0.9932244 0.0475797 0.9932244 0.0475797 0.0067756 -0.0475797
2935000000 0.0066286 -0.0459029 0.9933714 0.0459029 0.9933714 0.0459029 0.0066286 -0.0459029
2956000000 0.0064886 -0.0442383 0.9935114 0.0442383 0.9935114 0.0442383 0.0064886 -0.0442383
2977000000 0.0063554 -0.0425857 0.9936446 0.0425857 0.9936446 0.0425857 0.0063554 -0.0425857
2998000000 0.0062288 -0.0409447 0.9937712 0.0409447 0.9937712 0.0409447 0.0062288 -0.0409447
3019000000 0.0061088 -0.0393151 0.9938912 0.0393151 0.9938912 0.0393151 0.0061088 -0.0393151
3040000000 0.0059952 -0.0376967 0.9940048 0.0376967 0.9940048 0.0376967 0.0059952 -0.0376967
3061000000 0.0058878 -0.0360892 0.9941122 0.0360892 0.9941122 0.0360892 0.0058878 -0.0360892
3082000000 0.0057867 -0.0344924 0.9942133 0.0344924 0.9942133 0.0344924 0.0057867 -0.0344924
3103000000 0.0056915 -0.0329061 0.9943085 0.0329061 0.9943085 0.0329061 0.0056915 -0.0329061
3124000000 0.0056023 -0.0313300 0.9943977 0.0313300 0.9943977 0.0313300 0.0056023 -0.0313300
3145000000 0.0055188 -0.0297640 0.9944812 0.0297640 0.9944812 0.0297640 0.0055188 -0.0297640
3166000000 0.0054411 -0.0282077 0.9945589 0.0282077 0.9945589 0.0282077 0.0054411 -0.0282077
3187000000 0.0053690 -0.0266610 0.9946310 0.0266610 0.9946310 0.0266610 0.0053690 -0.0266610
3208000000 0.0053024 -0.0251237 0.9946976 0.0251237 0.9946976 0.0251237 0.0053024 -0.0251237
3229000000 0.0052411 -0.0235955 0.9947589 0.0235955 0.9947589 0.0235955 0.0052411 -0.0235955
3250000000 0.0051852 -0.0220764 0.9948148 0.0220764 0.9948148 0.0220764 0.0051852 -0.0220764
3271000000 0.0051346 -0.0205660 0.9948654 0.0205660 0.9948654 0.0205660 0.0051346 -0.0205660
3292000000 0.0050890 -0.0190642 0.9949110 0.0190642 0.9949110 0.0190642 0.0050890 -0.0190642
3313000000 0.0050485 -0.0175708 0.9949515 0.0175708 0.9949515 0.0175708 0.0050485 -0.0175708
3334000000 0.0050131 -0.0160856 0.9949869 0.0160856 0.9949869 0.0160856 0.0050131 -0.0160856
3355000000 0.0049825 -0.0146085 0.9950175 0.0146085 0.9950175 0.0146085 0.0049825 -0.0146085
3376000000 0.0049567 -0.0131393 0.9950433 0.0131393 0.9950433 0.0131393 0.0049567 -0.0131393
3397000000 0.0049357 -0.0116777 0.9950643 0.0116777 0.9950643 0.0116777 0.0049357 -0.0116777
3418000000 0.0049195 -0.0102237 0.9950805 0.0102237 0.9950805 0.0102237 0.0049195 -0.0102237
3439000000 0.0049078 -0.0087770 0.9950922 0.0087770 0.9950922 0.0087770 0.0049078 -0.0087770
3460000000 0.0049007 -0.0073376 0.9950993 0.0073376 0.9950993 0.0073376 0.0049007 -0.0073376
3481000000 0.0048981 -0.0059051 0.9951019 0.0059051 0.9951019 0.0059051 0.0048981 -0.0059051
3502000000 0.0049000 -0.0044796 0.9951000 0.0044796 0.9951000 0.0044796 0.0049000 -0.0044796
3523000000 0.0049063 -0.0030607 0.9950937 0.0030607 0.9950937 0.0030607 0.0049063 -0.0030607
3544000000 0.0049169 -0.0016485 0.9950831 0.0016485 0.9950831 0.0016485 0.0049169 -0.0016485
3565000000 0.0049319 -0.0002427 0.9950681 0.0002427 0.9950681 0.0002427 0.0049319 -0.0002427
3586000000 0.0049511 0.0011569 0.9950489 -0.0011569 0.9950489 -0.0011569 0.0049511 0.0011569
3607000000 0.0049744 0.0025503 0.9950256 -0.0025503 0.9950256 -0.0025503 0.0049744 0.0025503
3628000000 0.0050020 0.0039377 0.9949980 -0.0039377 0.9949980 -0.0039377 0.0050020 0.0039377
3649000000 0.0050336 0.0053193 0.9949664 -0.0053193 0.9949664 -0.0053193 0.0050336 0.0053193
3670000000 0.0050694 0.0066951 0.9949306 -0.0066951 0.9949306 -0.0066951 0.0050694 0.0066951
3691000000 0.0051092 0.0080654 0.9948908 -0.0080654 0.9948908 -0.0080654 0.0051092 0.0080654
3712000000 0.0051530 0.0094302 0.9948470 -0.0094302 0.9948470 -0.0094302 0.0051530 0.0094302
3733000000 0.0052007 0.0107897 0.9947993 -0.0107897 0.9947993 -0.0107897 0.0052007 0.0107897
3754000000 0.0052524 0.0121440 0.9947476 -0.0121440 0.9947476 -0.0121440 0.0052524 0.0121440
3775000000 0.0053080 0.0134932 0.9946920 -0.0134932 0.9946920 -0.0134932 0.0053080 0.0134932
3796000000 0.0053675 0.0148376 0.9946325 -0.0148376 0.9946325 -0.0148376 0.0053675 0.0148376
3817000000 0.0054308 0.0161770 0.9945692 -0.0161770 0.9945692 -0.0161770 0.0054308 0.0161770
3838000000 0.0054980 0.0175118 0.9945020 -0.0175118 0.9945020 -0.0175118 0.0054980 0.0175118
3859000000 0.0055690 0.0188421 0.9944310 -0.0188421 0.9944310 -0.0188421 0.0055690 0.0188421
3880000000 0.0056437 0.0201678 0.9943563 -0.0201678 0.9943563 -0.0201678 0.0056437 0.0201678
3901000000 0.0057223 0.0214892 0.9942777 -0.0214892 0.9942777 -0.0214892 0.0057223 0.0214892
3922000000 0.0058045 0.0228065 0.9941955 -0.0228065 0.9941955 -0.0228065 0.0058045 0.0228065
3943000000 0.0058905 0.0241196 0.9941095 -0.0241196 0.9941095 -0.0241196 0.0058905 0.0241196
3964000000 0.0059802 0.0254287 0.9940198 -0.0254287 0.9940198 -0.0254287 0.0059802 0.0254287
3985000000 0.0060736 0.0267339 0.9939264 -0.0267339 0.9939264 -0.0267339 0.0060736 0.0267339
4006000000 0.0061707 0.0280353 0.9938293 -0.0280353 0.9938293 -0.0280353 0.0061707 0.0280353
4027000000 0.0062714 0.0293331 0.9937286 -0.0293331 0.9937286 -0.0293331 0.0062714 0.0293331
4048000000 0.0063758 0.0306274 0.9936242 -0.0306274 0.9936242 -0.0306274 0.0063758 0.0306274
4069000000 0.0064839 0.0319182 0.9935161 -0.0319182 0.9935161 -0.0319182 0.0064839 0.0319182
4090000000 0.0065956 0.0332056 0.9934044 -0.0332056 0.9934044 -0.0332056 0.0065956 0.0332056
4111000000 0.0067110 0.0344898 0.9932890 -0.0344898 0.9932890 -0.0344898 0.0067110 0.0344898
4132000000 0.0068300 0.0357709 0.9931700 -0.0357709 0.9931700 -0.0357709 0.0068300 0.0357709
4153000000 0.0069526 0.0370489 0.9930474 -0.0370489 0.9930474 -0.0370489 0.0069526 0.0370489
4174000000 0.0070789 0.0383241 0.9929211 -0.0383241 0.9929211 -0.0383241 0.0070789 0.0383241
4195000000 0.0072088 0.0395964 0.9927912 -0.0395964 0.9927912 -0.0395964 0.0072088 0.0395964
4216000000 0.0073424 0.0408659 0.9926576 -0.0408659 0.9926576 -0.0408659 0.0073424 0.0408659
4237000000 0.0074796 0.0421329 0.9925204 -0.0421329 0.9925204 -0.0421329 0.0074796 0.0421329
4258000000 0.0076204 0.0433973 0.9923796 -0.0433973 0.9923796 -0.0433973 0.0076204 0.0433973
4279000000 0.0077649 0.0446593 0.9922351 -0.0446593 0.9922351 -0.0446593 0.0077649 0.0446593
4300000000 0.0079131 0.0459190 0.9920869 -0.0459190 0.9920869 -0.0459190 0.0079131 0.0459190
4321000000 0.0080649 0.0471765 0.9919351 -0.0471765 0.9919351 -0.0471765 0.0080649 0.0471765
4342000000 0.0082205 0.0484318 0.9917795 -0.0484318 0.9917795 -0.0484318 0.0082205 0.0484318
4363000000 0.0083797 0.0496851 0.9916203 -0.0496851 0.9916203 -0.0496851 0.0083797 0.0496851
4384000000 0.0085427 0.0509364 0.9914573 -0.0509364 0.9914573 -0.0509364 0.0085427 0.0509364
4405000000 0.0087093 0.0521859 0.9912907 -0.0521859 0.9912907 -0.0521859 0.0087093 0.0521859
4426000000 0.0088798 0.0534337 0.9911202 -0.0534337 0.9911202 -0.0534337 0.0088798 0.0534337
4447000000 0.0090540 0.0546798 0.9909460 -0.0546798 0.9909460 -0.0546798 0.0090540 0.0546798
4468000000 0.0092320 0.0559243 0.9907680 -0.0559243 0.9907680 -0.0559243 0.0092320 0.0559243
4489000000 0.0094138 0.0571674 0.9905862 -0.0571674 0.9905862 -0.0571674 0.0094138 0.0571674
4510000000 0.0095994 0.0584091 0.9904006 -0.0584091 0.9904006 -0.0584091 0.0095994 0.0584091
