!Murata Part Number: GRM1885C2A121JA01
!These Parameters are Measured in Series Mode Connection
!Data Generated on Mar 30, 2021
!       o--ll--o
!Port1            Port2
!       o------o
!Operation Temp=25[degC], DC Bias Voltage=0[V]
!Freq. Start=100[MHz] Stop=9[GHz] 401[Steps]
# Hz S RI R 50
!Freq.(Hz) S11(Real) S11(Imag) S21(Real) S21(Imag) S12(Real) S12(Imag) S22(Real) S22(Imag)
100000000 0.0174759 -0.1264148 0.9825241 0.1264148 0.9825241 0.1264148 0.0174759 -0.1264148
121000000 0.0120821 -0.1036057 0.9879179 0.1036057 0.9879179 0.1036057 0.0120821 -0.1036057
142000000 0.0088782 -0.0871019 0.9911218 0.0871019 0.9911218 0.0871019 0.0088782 -0.0871019
163000000 0.0068275 -0.0745505 0.9931725 0.0745505 0.9931725 0.0745505 0.0068275 -0.0745505
184000000 0.0054409 -0.0646335 0.9945591 0.0646335 0.9945591 0.0646335 0.0054409 -0.0646335
205000000 0.0044638 -0.0565575 0.9955362 0.0565575 0.9955362 0.0565575 0.0044638 -0.0565575
226000000 0.0037532 -0.0498176 0.9962468 0.0498176 0.9962468 0.0498176 0.0037532 -0.0498176
247000000 0.0032236 -0.0440775 0.9967764 0.0440775 0.9967764 0.0440775 0.0032236 -0.0440775
268000000 0.0028216 -0.0391048 0.9971784 0.0391048 0.9971784 0.0391048 0.0028216 -0.0391048
289000000 0.0025122 -0.0347335 0.9974878 0.0347335 0.9974878 0.0347335 0.0025122 -0.0347335
310000000 0.0022721 -0.0308424 0.9977279 0.0308424 0.9977279 0.0308424 0.0022721 -0.0308424
331000000 0.0020848 -0.0273406 0.9979152 0.0273406 0.9979152 0.0273406 0.0020848 -0.0273406
352000000 0.0019387 -0.0241587 0.9980613 0.0241587 0.9980613 0.0241587 0.0019387 -0.0241587
373000000 0.0018254 -0.0212429 0.9981746 0.0212429 0.9981746 0.0212429 0.0018254 -0.0212429
394000000 0.0017387 -0.0185507 0.9982613 0.0185507 0.9982613 0.0185507 0.0017387 -0.0185507
415000000 0.0016738 -0.0160481 0.9983262 0.0160481 0.9983262 0.0160481 0.0016738 -0.0160481
436000000 0.0016272 -0.0137077 0.9983728 0.0137077 0.9983728 0.0137077 0.0016272 -0.0137077
457000000 0.0015959 -0.0115072 0.9984041 0.0115072 0.9984041 0.0115072 0.0015959 -0.0115072
478000000 0.0015780 -0.0094279 0.9984220 0.0094279 0.9984220 0.0094279 0.0015780 -0.0094279
499000000 0.0015716 -0.0074545 0.9984284 0.0074545 0.9984284 0.0074545 0.0015716 -0.0074545
520000000 0.0015753 -0.0055740 0.9984247 0.0055740 0.9984247 0.0055740 0.0015753 -0.0055740
541000000 0.0015882 -0.0037755 0.9984118 0.0037755 0.9984118 0.0037755 0.0015882 -0.0037755
562000000 0.0016092 -0.0020496 0.9983908 0.0020496 0.9983908 0.0020496 0.0016092 -0.0020496
583000000 0.0016376 -0.0003884 0.9983624 0.0003884 0.9983624 0.0003884 0.0016376 -0.0003884
604000000 0.0016729 0.0012151 0.9983271 -0.0012151 0.9983271 -0.0012151 0.0016729 0.0012151
625000000 0.0017146 0.0027668 0.9982854 -0.0027668 0.9982854 -0.0027668 0.0017146 0.0027668
646000000 0.0017622 0.0042720 0.9982378 -0.0042720 0.9982378 -0.0042720 0.0017622 0.0042720
667000000 0.0018155 0.0057353 0.9981845 -0.0057353 0.9981845 -0.0057353 0.0018155 0.0057353
688000000 0.0018743 0.0071606 0.9981257 -0.0071606 0.9981257 -0.0071606 0.0018743 0.0071606
709000000 0.0019383 0.0085516 0.9980617 -0.0085516 0.9980617 -0.0085516 0.0019383 0.0085516
730000000 0.0020073 0.0099114 0.9979927 -0.0099114 0.9979927 -0.0099114 0.0020073 0.0099114
751000000 0.0020813 0.0112429 0.9979187 -0.0112429 0.9979187 -0.0112429 0.0020813 0.0112429
772000000 0.0021602 0.0125485 0.9978398 -0.0125485 0.9978398 -0.0125485 0.0021602 0.0125485
793000000 0.0022440 0.0138306 0.9977560 -0.0138306 0.9977560 -0.0138306 0.0022440 0.0138306
814000000 0.0023326 0.0150912 0.9976674 -0.0150912 0.9976674 -0.0150912 0.0023326 0.0150912
835000000 0.0024260 0.0163323 0.9975740 -0.0163323 0.9975740 -0.0163323 0.0024260 0.0163323
856000000 0.0025245 0.0175554 0.9974755 -0.0175554 0.9974755 -0.0175554 0.0025245 0.0175554
877000000 0.0026280 0.0187622 0.9973720 -0.0187622 0.9973720 -0.0187622 0.0026280 0.0187622
898000000 0.0027366 0.0199541 0.9972634 -0.0199541 0.9972634 -0.0199541 0.0027366 0.0199541
919000000 0.0028506 0.0211324 0.9971494 -0.0211324 0.9971494 -0.0211324 0.0028506 0.0211324
940000000 0.0029702 0.0222983 0.9970298 -0.0222983 0.9970298 -0.0222983 0.0029702 0.0222983
961000000 0.0030956 0.0234530 0.9969044 -0.0234530 0.9969044 -0.0234530 0.0030956 0.0234530
982000000 0.0032271 0.0245974 0.9967729 -0.0245974 0.9967729 -0.0245974 0.0032271 0.0245974
1003000000 0.0033651 0.0257326 0.9966349 -0.0257326 0.9966349 -0.0257326 0.0033651 0.0257326
1024000000 0.0035101 0.0268594 0.9964899 -0.0268594 0.9964899 -0.0268594 0.0035101 0.0268594
1045000000 0.0036626 0.0279786 0.9963374 -0.0279786 0.9963374 -0.0279786 0.0036626 0.0279786
1066000000 0.0038232 0.0290909 0.9961768 -0.0290909 0.9961768 -0.0290909 0.0038232 0.0290909
1087000000 0.0039927 0.0301971 0.9960073 -0.0301971 0.9960073 -0.0301971 0.0039927 0.0301971
1108000000 0.0041719 0.0312975 0.9958281 -0.0312975 0.9958281 -0.0312975 0.0041719 0.0312975
1129000000 0.0043619 0.0323927 0.9956381 -0.0323927 0.9956381 -0.0323927 0.0043619 0.0323927
1150000000 0.0045639 0.0334829 0.9954361 -0.0334829 0.9954361 -0.0334829 0.0045639 0.0334829
1171000000 0.0047793 0.0345681 0.9952207 -0.0345681 0.9952207 -0.0345681 0.0047793 0.0345681
1192000000 0.0050098 0.0356480 0.9949902 -0.0356480 0.9949902 -0.0356480 0.0050098 0.0356480
1213000000 0.0052573 0.0367219 0.9947427 -0.0367219 0.9947427 -0.0367219 0.0052573 0.0367219
1234000000 0.0055238 0.0377886 0.9944762 -0.0377886 0.9944762 -0.0377886 0.0055238 0.0377886
1255000000 0.0058117 0.0388462 0.9941883 -0.0388462 0.9941883 -0.0388462 0.0058117 0.0388462
1276000000 0.0061234 0.0398917 0.9938766 -0.0398917 0.9938766 -0.0398917 0.0061234 0.0398917
1297000000 0.0064610 0.0409209 0.9935390 -0.0409209 0.9935390 -0.0409209 0.0064610 0.0409209
1318000000 0.0068260 0.0419280 0.9931740 -0.0419280 0.9931740 -0.0419280 0.0068260 0.0419280
1339000000 0.0072187 0.0429053 0.9927813 -0.0429053 0.9927813 -0.0429053 0.0072187 0.0429053
1360000000 0.0076368 0.0438435 0.9923632 -0.0438435 0.9923632 -0.0438435 0.0076368 0.0438435
1381000000 0.0080743 0.0447322 0.9919257 -0.0447322 0.9919257 -0.0447322 0.0080743 0.0447322
1402000000 0.0085202 0.0455611 0.9914798 -0.0455611 0.9914798 -0.0455611 0.0085202 0.0455611
1423000000 0.0089572 0.0463231 0.9910428 -0.0463231 0.9910428 -0.0463231 0.0089572 0.0463231
1444000000 0.0093633 0.0470180 0.9906367 -0.0470180 0.9906367 -0.0470180 0.0093633 0.0470180
1465000000 0.0097149 0.0476555 0.9902851 -0.0476555 0.9902851 -0.0476555 0.0097149 0.0476555
1486000000 0.0099924 0.0482564 0.9900076 -0.0482564 0.9900076 -0.0482564 0.0099924 0.0482564
1507000000 0.0101869 0.0488496 0.9898131 -0.0488496 0.9898131 -0.0488496 0.0101869 0.0488496
1528000000 0.0103028 0.0494656 0.9896972 -0.0494656 0.9896972 -0.0494656 0.0103028 0.0494656
1549000000 0.0103569 0.0501287 0.9896431 -0.0501287 0.9896431 -0.0501287 0.0103569 0.0501287
1570000000 0.0103724 0.0508527 0.9896276 -0.0508527 0.9896276 -0.0508527 0.0103724 0.0508527
1591000000 0.0103727 0.0516407 0.9896273 -0.0516407 0.9896273 -0.0516407 0.0103727 0.0516407
1612000000 0.0103774 0.0524878 0.9896226 -0.0524878 0.9896226 -0.0524878 0.0103774 0.0524878
1633000000 0.0104004 0.0533848 0.9895996 -0.0533848 0.9895996 -0.0533848 0.0104004 0.0533848
1654000000 0.0104501 0.0543211 0.9895499 -0.0543211 0.9895499 -0.0543211 0.0104501 0.0543211
1675000000 0.0105308 0.0552867 0.9894692 -0.0552867 0.9894692 -0.0552867 0.0105308 0.0552867
1696000000 0.0106439 0.0562732 0.9893561 -0.0562732 0.9893561 -0.0562732 0.0106439 0.0562732
1717000000 0.0107893 0.0572738 0.9892107 -0.0572738 0.9892107 -0.0572738 0.0107893 0.0572738
1738000000 0.0109658 0.0582833 0.9890342 -0.0582833 0.9890342 -0.0582833 0.0109658 0.0582833
1759000000 0.0111721 0.0592976 0.9888279 -0.0592976 0.9888279 -0.0592976 0.0111721 0.0592976
1780000000 0.0114068 0.0603138 0.9885932 -0.0603138 0.9885932 -0.0603138 0.0114068 0.0603138
1801000000 0.0116686 0.0613294 0.9883314 -0.0613294 0.9883314 -0.0613294 0.0116686 0.0613294
1822000000 0.0119567 0.0623428 0.9880433 -0.0623428 0.9880433 -0.0623428 0.0119567 0.0623428
1843000000 0.0122702 0.0633523 0.9877298 -0.0633523 0.9877298 -0.0633523 0.0122702 0.0633523
1864000000 0.0126087 0.0643565 0.9873913 -0.0643565 0.9873913 -0.0643565 0.0126087 0.0643565
1885000000 0.0129720 0.0653542 0.9870280 -0.0653542 0.9870280 -0.0653542 0.0129720 0.0653542
1906000000 0.0133599 0.0663439 0.9866401 -0.0663439 0.9866401 -0.0663439 0.0133599 0.0663439
1927000000 0.0137725 0.0673243 0.9862275 -0.0673243 0.9862275 -0.0673243 0.0137725 0.0673243
1948000000 0.0142102 0.0682936 0.9857898 -0.0682936 0.9857898 -0.0682936 0.0142102 0.0682936
1969000000 0.0146731 0.0692500 0.9853269 -0.0692500 0.9853269 -0.0692500 0.0146731 0.0692500
1990000000 0.0151614 0.0701915 0.9848386 -0.0701915 0.9848386 -0.0701915 0.0151614 0.0701915
2011000000 0.0156755 0.0711156 0.9843245 -0.0711156 0.9843245 -0.0711156 0.0156755 0.0711156
2032000000 0.0162154 0.0720195 0.9837846 -0.0720195 0.9837846 -0.0720195 0.0162154 0.0720195
2053000000 0.0167809 0.0729002 0.9832191 -0.0729002 0.9832191 -0.0729002 0.0167809 0.0729002
2074000000 0.0173715 0.0737541 0.9826285 -0.0737541 0.9826285 -0.0737541 0.0173715 0.0737541
2095000000 0.0179863 0.0745774 0.9820137 -0.0745774 0.9820137 -0.0745774 0.0179863 0.0745774
2116000000 0.0186239 0.0753660 0.9813761 -0.0753660 0.9813761 -0.0753660 0.0186239 0.0753660
2137000000 0.0192819 0.0761153 0.9807181 -0.0761153 0.9807181 -0.0761153 0.0192819 0.0761153
2158000000 0.0199574 0.0768207 0.9800426 -0.0768207 0.9800426 -0.0768207 0.0199574 0.0768207
2179000000 0.0206461 0.0774777 0.9793539 -0.0774777 0.9793539 -0.0774777 0.0206461 0.0774777
2200000000 0.0213430 0.0780817 0.9786570 -0.0780817 0.9786570 -0.0780817 0.0213430 0.0780817
2221000000 0.0220414 0.0786289 0.9779586 -0.0786289 0.9779586 -0.0786289 0.0220414 0.0786289
2242000000 0.0227337 0.0791159 0.9772663 -0.0791159 0.9772663 -0.0791159 0.0227337 0.0791159
2263000000 0.0234111 0.0795409 0.9765889 -0.0795409 0.9765889 -0.0795409 0.0234111 0.0795409
2284000000 0.0240635 0.0799034 0.9759365 -0.0799034 0.9759365 -0.0799034 0.0240635 0.0799034
2305000000 0.0246804 0.0802049 0.9753196 -0.0802049 0.9753196 -0.0802049 0.0246804 0.0802049
2326000000 0.0252510 0.0804491 0.9747490 -0.0804491 0.9747490 -0.0804491 0.0252510 0.0804491
2347000000 0.0257648 0.0806423 0.9742352 -0.0806423 0.9742352 -0.0806423 0.0257648 0.0806423
2368000000 0.0262123 0.0807929 0.9737877 -0.0807929 0.9737877 -0.0807929 0.0262123 0.0807929
2389000000 0.0265857 0.0809117 0.9734143 -0.0809117 0.9734143 -0.0809117 0.0265857 0.0809117
2410000000 0.0268795 0.0810113 0.9731205 -0.0810113 0.9731205 -0.0810113 0.0268795 0.0810113
2431000000 0.0270910 0.0811052 0.9729090 -0.0811052 0.9729090 -0.0811052 0.0270910 0.0811052
2452000000 0.0272203 0.0812075 0.9727797 -0.0812075 0.9727797 -0.0812075 0.0272203 0.0812075
2473000000 0.0272708 0.0813316 0.9727292 -0.0813316 0.9727292 -0.0813316 0.0272708 0.0813316
2494000000 0.0272483 0.0814898 0.9727517 -0.0814898 0.9727517 -0.0814898 0.0272483 0.0814898
2515000000 0.0271610 0.0816925 0.9728390 -0.0816925 0.9728390 -0.0816925 0.0271610 0.0816925
2536000000 0.0270185 0.0819480 0.9729815 -0.0819480 0.9729815 -0.0819480 0.0270185 0.0819480
2557000000 0.0268315 0.0822620 0.9731685 -0.0822620 0.9731685 -0.0822620 0.0268315 0.0822620
2578000000 0.0266108 0.0826378 0.9733892 -0.0826378 0.9733892 -0.0826378 0.0266108 0.0826378
2599000000 0.0263670 0.0830764 0.9736330 -0.0830764 0.9736330 -0.0830764 0.0263670 0.0830764
2620000000 0.0261100 0.0835770 0.9738900 -0.0835770 0.9738900 -0.0835770 0.0261100 0.0835770
2641000000 0.0258483 0.0841374 0.9741517 -0.0841374 0.9741517 -0.0841374 0.0258483 0.0841374
2662000000 0.0255895 0.0847539 0.9744105 -0.0847539 0.9744105 -0.0847539 0.0255895 0.0847539
2683000000 0.0253398 0.0854224 0.9746602 -0.0854224 0.9746602 -0.0854224 0.0253398 0.0854224
2704000000 0.0251040 0.0861383 0.9748960 -0.0861383 0.9748960 -0.0861383 0.0251040 0.0861383
2725000000 0.0248861 0.0868966 0.9751139 -0.0868966 0.9751139 -0.0868966 0.0248861 0.0868966
2746000000 0.0246888 0.0876926 0.9753112 -0.0876926 0.9753112 -0.0876926 0.0246888 0.0876926
2767000000 0.0245139 0.0885218 0.9754861 -0.0885218 0.9754861 -0.0885218 0.0245139 0.0885218
2788000000 0.0243627 0.0893797 0.9756373 -0.0893797 0.9756373 -0.0893797 0.0243627 0.0893797
2809000000 0.0242356 0.0902626 0.9757644 -0.0902626 0.9757644 -0.0902626 0.0242356 0.0902626
2830000000 0.0241327 0.0911667 0.9758673 -0.0911667 0.9758673 -0.0911667 0.0241327 0.0911667
2851000000 0.0240539 0.0920890 0.9759461 -0.0920890 0.9759461 -0.0920890 0.0240539 0.0920890
2872000000 0.0239985 0.0930266 0.9760015 -0.0930266 0.9760015 -0.0930266 0.0239985 0.0930266
2893000000 0.0239658 0.0939770 0.9760342 -0.0939770 0.9760342 -0.0939770 0.0239658 0.0939770
2914000000 0.0239550 0.0949381 0.9760450 -0.0949381 0.9760450 -0.0949381 0.0239550 0.0949381
2935000000 0.0239652 0.0959081 0.9760348 -0.0959081 0.9760348 -0.0959081 0.0239652 0.0959081
2956000000 0.0239953 0.0968854 0.9760047 -0.0968854 0.9760047 -0.0968854 0.0239953 0.0968854
2977000000 0.0240444 0.0978687 0.9759556 -0.0978687 0.9759556 -0.0978687 0.0240444 0.0978687
2998000000 0.0241115 0.0988567 0.9758885 -0.0988567 0.9758885 -0.0988567 0.0241115 0.0988567
3019000000 0.0241957 0.0998486 0.9758043 -0.0998486 0.9758043 -0.0998486 0.0241957 0.0998486
3040000000 0.0242961 0.1008436 0.9757039 -0.1008436 0.9757039 -0.1008436 0.0242961 0.1008436
3061000000 0.0244117 0.1018410 0.9755883 -0.1018410 0.9755883 -0.1018410 0.0244117 0.1018410
3082000000 0.0245418 0.1028403 0.9754582 -0.1028403 0.9754582 -0.1028403 0.0245418 0.1028403
3103000000 0.0246855 0.1038409 0.9753145 -0.1038409 0.9753145 -0.1038409 0.0246855 0.1038409
3124000000 0.0248422 0.1048426 0.9751578 -0.1048426 0.9751578 -0.1048426 0.0248422 0.1048426
3145000000 0.0250111 0.1058450 0.9749889 -0.1058450 0.9749889 -0.1058450 0.0250111 0.1058450
3166000000 0.0251917 0.1068480 0.9748083 -0.1068480 0.9748083 -0.1068480 0.0251917 0.1068480
3187000000 0.0253832 0.1078513 0.9746168 -0.1078513 0.9746168 -0.1078513 0.0253832 0.1078513
3208000000 0.0255853 0.1088548 0.9744147 -0.1088548 0.9744147 -0.1088548 0.0255853 0.1088548
3229000000 0.0257973 0.1098584 0.9742027 -0.1098584 0.9742027 -0.1098584 0.0257973 0.1098584
3250000000 0.0260189 0.1108620 0.9739811 -0.1108620 0.9739811 -0.1108620 0.0260189 0.1108620
3271000000 0.0262496 0.1118657 0.9737504 -0.1118657 0.9737504 -0.1118657 0.0262496 0.1118657
3292000000 0.0264890 0.1128694 0.9735110 -0.1128694 0.9735110 -0.1128694 0.0264890 0.1128694
3313000000 0.0267367 0.1138730 0.9732633 -0.1138730 0.9732633 -0.1138730 0.0267367 0.1138730
3334000000 0.0269924 0.1148767 0.9730076 -0.1148767 0.9730076 -0.1148767 0.0269924 0.1148767
3355000000 0.0272559 0.1158804 0.9727441 -0.1158804 0.9727441 -0.1158804 0.0272559 0.1158804
3376000000 0.0275268 0.1168842 0.9724732 -0.1168842 0.9724732 -0.1168842 0.0275268 0.1168842
3397000000 0.0278049 0.1178881 0.9721951 -0.1178881 0.9721951 -0.1178881 0.0278049 0.1178881
3418000000 0.0280899 0.1188923 0.9719101 -0.1188923 0.9719101 -0.1188923 0.0280899 0.1188923
3439000000 0.0283816 0.1198967 0.9716184 -0.1198967 0.9716184 -0.1198967 0.0283816 0.1198967
3460000000 0.0286799 0.1209014 0.9713201 -0.1209014 0.9713201 -0.1209014 0.0286799 0.1209014
3481000000 0.0289846 0.1219065 0.9710154 -0.1219065 0.9710154 -0.1219065 0.0289846 0.1219065
3502000000 0.0292955 0.1229121 0.9707045 -0.1229121 0.9707045 -0.1229121 0.0292955 0.1229121
3523000000 0.0296124 0.1239182 0.9703876 -0.1239182 0.9703876 -0.1239182 0.0296124 0.1239182
3544000000 0.0299352 0.1249250 0.9700648 -0.1249250 0.9700648 -0.1249250 0.0299352 0.1249250
3565000000 0.0302639 0.1259325 0.9697361 -0.1259325 0.9697361 -0.1259325 0.0302639 0.1259325
3586000000 0.0305982 0.1269408 0.9694018 -0.1269408 0.9694018 -0.1269408 0.0305982 0.1269408
3607000000 0.0309381 0.1279500 0.9690619 -0.1279500 0.9690619 -0.1279500 0.0309381 0.1279500
3628000000 0.0312836 0.1289601 0.9687164 -0.1289601 0.9687164 -0.1289601 0.0312836 0.1289601
3649000000 0.0316345 0.1299712 0.9683655 -0.1299712 0.9683655 -0.1299712 0.0316345 0.1299712
3670000000 0.0319907 0.1309835 0.9680093 -0.1309835 0.9680093 -0.1309835 0.0319907 0.1309835
3691000000 0.0323522 0.1319970 0.9676478 -0.1319970 0.9676478 -0.1319970 0.0323522 0.1319970
3712000000 0.0327190 0.1330118 0.9672810 -0.1330118 0.9672810 -0.1330118 0.0327190 0.1330118
3733000000 0.0330910 0.1340279 0.9669090 -0.1340279 0.9669090 -0.1340279 0.0330910 0.1340279
3754000000 0.0334681 0.1350455 0.9665319 -0.1350455 0.9665319 -0.1350455 0.0334681 0.1350455
3775000000 0.0338503 0.1360645 0.9661497 -0.1360645 0.9661497 -0.1360645 0.0338503 0.1360645
3796000000 0.0342377 0.1370852 0.9657623 -0.1370852 0.9657623 -0.1370852 0.0342377 0.1370852
3817000000 0.0346301 0.1381076 0.9653699 -0.1381076 0.9653699 -0.1381076 0.0346301 0.1381076
3838000000 0.0350276 0.1391317 0.9649724 -0.1391317 0.9649724 -0.1391317 0.0350276 0.1391317
3859000000 0.0354300 0.1401576 0.9645700 -0.1401576 0.9645700 -0.1401576 0.0354300 0.1401576
3880000000 0.0358376 0.1411854 0.9641624 -0.1411854 0.9641624 -0.1411854 0.0358376 0.1411854
3901000000 0.0362501 0.1422153 0.9637499 -0.1422153 0.9637499 -0.1422153 0.0362501 0.1422153
3922000000 0.0366677 0.1432471 0.9633323 -0.1432471 0.9633323 -0.1432471 0.0366677 0.1432471
3943000000 0.0370903 0.1442811 0.9629097 -0.1442811 0.9629097 -0.1442811 0.0370903 0.1442811
3964000000 0.0375179 0.1453172 0.9624821 -0.1453172 0.9624821 -0.1453172 0.0375179 0.1453172
3985000000 0.0379506 0.1463557 0.9620494 -0.1463557 0.9620494 -0.1463557 0.0379506 0.1463557
4006000000 0.0383883 0.1473964 0.9616117 -0.1473964 0.9616117 -0.1473964 0.0383883 0.1473964
4027000000 0.0388311 0.1484396 0.9611689 -0.1484396 0.9611689 -0.1484396 0.0388311 0.1484396
4048000000 0.0392791 0.1494852 0.9607209 -0.1494852 0.9607209 -0.1494852 0.0392791 0.1494852
4069000000 0.0397321 0.1505334 0.9602679 -0.1505334 0.9602679 -0.1505334 0.0397321 0.1505334
4090000000 0.0401903 0.1515841 0.9598097 -0.1515841 0.9598097 -0.1515841 0.0401903 0.1515841
4111000000 0.0406536 0.1526376 0.9593464 -0.1526376 0.9593464 -0.1526376 0.0406536 0.1526376
4132000000 0.0411222 0.1536937 0.9588778 -0.1536937 0.9588778 -0.1536937 0.0411222 0.1536937
4153000000 0.0415960 0.1547527 0.9584040 -0.1547527 0.9584040 -0.1547527 0.0415960 0.1547527
4174000000 0.0420751 0.1558145 0.9579249 -0.1558145 0.9579249 -0.1558145 0.0420751 0.1558145
4195000000 0.0425595 0.1568793 0.9574405 -0.1568793 0.9574405 -0.1568793 0.0425595 0.1568793
4216000000 0.0430493 0.1579470 0.9569507 -0.1579470 0.9569507 -0.1579470 0.0430493 0.1579470
4237000000 0.0435444 0.1590178 0.9564556 -0.1590178 0.9564556 -0.1590178 0.0435444 0.1590178
4258000000 0.0440451 0.1600917 0.9559549 -0.1600917 0.9559549 -0.1600917 0.0440451 0.1600917
4279000000 0.0445512 0.1611688 0.9554488 -0.1611688 0.9554488 -0.1611688 0.0445512 0.1611688
4300000000 0.0450629 0.1622491 0.9549371 -0.1622491 0.9549371 -0.1622491 0.0450629 0.1622491
4321000000 0.0455802 0.1633328 0.9544198 -0.1633328 0.9544198 -0.1633328 0.0455802 0.1633328
4342000000 0.0461032 0.1644197 0.9538968 -0.1644197 0.9538968 -0.1644197 0.0461032 0.1644197
4363000000 0.0466319 0.1655102 0.9533681 -0.1655102 0.9533681 -0.1655102 0.0466319 0.1655102
4384000000 0.0471663 0.1666040 0.9528337 -0.1666040 0.9528337 -0.1666040 0.0471663 0.1666040
4405000000 0.0477066 0.1677015 0.9522934 -0.1677015 0.9522934 -0.1677015 0.0477066 0.1677015
4426000000 0.0482529 0.1688025 0.9517471 -0.1688025 0.9517471 -0.1688025 0.0482529 0.1688025
4447000000 0.0488051 0.1699071 0.9511949 -0.1699071 0.9511949 -0.1699071 0.0488051 0.1699071
4468000000 0.0493633 0.1710155 0.9506367 -0.1710155 0.9506367 -0.1710155 0.0493633 0.1710155
4489000000 0.0499277 0.1721276 0.9500723 -0.1721276 0.9500723 -0.1721276 0.0499277 0.1721276
4510000000 0.0504983 0.1732436 0.9495017 -0.1732436 0.9495017 -0.1732436 0.0504983 0.1732436
