!Murata Part Number: GRM1883C1H3R7CA01
!These Parameters are Measured in Series Mode Connection
!Data Generated on Mar 30, 2021
!       o--ll--o
!Port1            Port2
!       o------o
!Operation Temp=25[degC], DC Bias Voltage=0[V]
!Freq. Start=100[MHz] Stop=9[GHz] 401[Steps]
# Hz S RI R 50
!Freq.(Hz) S11(Real) S11(Imag) S21(Real) S21(Imag) S12(Real) S12(Imag) S22(Real) S22(Imag)
100000000 0.9485703 -0.2206946 0.0514297 0.2206946 0.0514297 0.2206946 0.9485703 -0.2206946
121000000 0.9264018 -0.2608924 0.0735982 0.2608924 0.0735982 0.2608924 0.9264018 -0.2608924
142000000 0.9012919 -0.2979969 0.0987081 0.2979969 0.0987081 0.2979969 0.9012919 -0.2979969
163000000 0.8737716 -0.3317800 0.1262284 0.3317800 0.1262284 0.3317800 0.8737716 -0.3317800
184000000 0.8443731 -0.3621162 0.1556269 0.3621162 0.1556269 0.3621162 0.8443731 -0.3621162
205000000 0.8136092 -0.3889731 0.1863908 0.3889731 0.1863908 0.3889731 0.8136092 -0.3889731
226000000 0.7819579 -0.4123991 0.2180421 0.4123991 0.2180421 0.4123991 0.7819579 -0.4123991
247000000 0.7498508 -0.4325085 0.2501492 0.4325085 0.2501492 0.4325085 0.7498508 -0.4325085
268000000 0.7176667 -0.4494664 0.2823333 0.4494664 0.2823333 0.4494664 0.7176667 -0.4494664
289000000 0.6857285 -0.4634741 0.3142715 0.4634741 0.3142715 0.4634741 0.6857285 -0.4634741
310000000 0.6543044 -0.4747564 0.3456956 0.4747564 0.3456956 0.4747564 0.6543044 -0.4747564
331000000 0.6236099 -0.4835503 0.3763901 0.4835503 0.3763901 0.4835503 0.6236099 -0.4835503
352000000 0.5938124 -0.4900958 0.4061876 0.4900958 0.4061876 0.4900958 0.5938124 -0.4900958
373000000 0.5650367 -0.4946287 0.4349633 0.4946287 0.4349633 0.4946287 0.5650367 -0.4946287
394000000 0.5373703 -0.4973757 0.4626297 0.4973757 0.4626297 0.4973757 0.5373703 -0.4973757
415000000 0.5108694 -0.4985507 0.4891306 0.4985507 0.4891306 0.4985507 0.5108694 -0.4985507
436000000 0.4855638 -0.4983521 0.5144362 0.4983521 0.5144362 0.4983521 0.4855638 -0.4983521
457000000 0.4614622 -0.4969623 0.5385378 0.4969623 0.5385378 0.4969623 0.4614622 -0.4969623
478000000 0.4385563 -0.4945466 0.5614437 0.4945466 0.5614437 0.4945466 0.4385563 -0.4945466
499000000 0.4168249 -0.4912541 0.5831751 0.4912541 0.5831751 0.4912541 0.4168249 -0.4912541
520000000 0.3962366 -0.4872177 0.6037634 0.4872177 0.6037634 0.4872177 0.3962366 -0.4872177
541000000 0.3767530 -0.4825557 0.6232470 0.4825557 0.6232470 0.4825557 0.3767530 -0.4825557
562000000 0.3583306 -0.4773722 0.6416694 0.4773722 0.6416694 0.4773722 0.3583306 -0.4773722
583000000 0.3409227 -0.4717588 0.6590773 0.4717588 0.6590773 0.4717588 0.3409227 -0.4717588
604000000 0.3244809 -0.4657955 0.6755191 0.4657955 0.6755191 0.4657955 0.3244809 -0.4657955
625000000 0.3089559 -0.4595521 0.6910441 0.4595521 0.6910441 0.4595521 0.3089559 -0.4595521
646000000 0.2942988 -0.4530890 0.7057012 0.4530890 0.7057012 0.4530890 0.2942988 -0.4530890
667000000 0.2804614 -0.4464584 0.7195386 0.4464584 0.7195386 0.4464584 0.2804614 -0.4464584
688000000 0.2673969 -0.4397053 0.7326031 0.4397053 0.7326031 0.4397053 0.2673969 -0.4397053
709000000 0.2550601 -0.4328684 0.7449399 0.4328684 0.7449399 0.4328684 0.2550601 -0.4328684
730000000 0.2434077 -0.4259808 0.7565923 0.4259808 0.7565923 0.4259808 0.2434077 -0.4259808
751000000 0.2323985 -0.4190705 0.7676015 0.4190705 0.7676015 0.4190705 0.2323985 -0.4190705
772000000 0.2219933 -0.4121614 0.7780067 0.4121614 0.7780067 0.4121614 0.2219933 -0.4121614
793000000 0.2121551 -0.4052738 0.7878449 0.4052738 0.7878449 0.4052738 0.2121551 -0.4052738
814000000 0.2028489 -0.3984246 0.7971511 0.3984246 0.7971511 0.3984246 0.2028489 -0.3984246
835000000 0.1940419 -0.3916279 0.8059581 0.3916279 0.8059581 0.3916279 0.1940419 -0.3916279
856000000 0.1857033 -0.3848955 0.8142967 0.3848955 0.8142967 0.3848955 0.1857033 -0.3848955
877000000 0.1778042 -0.3782371 0.8221958 0.3782371 0.8221958 0.3782371 0.1778042 -0.3782371
898000000 0.1703174 -0.3716605 0.8296826 0.3716605 0.8296826 0.3716605 0.1703174 -0.3716605
919000000 0.1632178 -0.3651719 0.8367822 0.3651719 0.8367822 0.3651719 0.1632178 -0.3651719
940000000 0.1564816 -0.3587765 0.8435184 0.3587765 0.8435184 0.3587765 0.1564816 -0.3587765
961000000 0.1500867 -0.3524780 0.8499133 0.3524780 0.8499133 0.3524780 0.1500867 -0.3524780
982000000 0.1440125 -0.3462793 0.8559875 0.3462793 0.8559875 0.3462793 0.1440125 -0.3462793
1003000000 0.1382398 -0.3401825 0.8617602 0.3401825 0.8617602 0.3401825 0.1382398 -0.3401825
1024000000 0.1327505 -0.3341887 0.8672495 0.3341887 0.8672495 0.3341887 0.1327505 -0.3341887
1045000000 0.1275279 -0.3282989 0.8724721 0.3282989 0.8724721 0.3282989 0.1275279 -0.3282989
1066000000 0.1225564 -0.3225130 0.8774436 0.3225130 0.8774436 0.3225130 0.1225564 -0.3225130
1087000000 0.1178212 -0.3168310 0.8821788 0.3168310 0.8821788 0.3168310 0.1178212 -0.3168310
1108000000 0.1133088 -0.3112522 0.8866912 0.3112522 0.8866912 0.3112522 0.1133088 -0.3112522
1129000000 0.1090064 -0.3057758 0.8909936 0.3057758 0.8909936 0.3057758 0.1090064 -0.3057758
1150000000 0.1049022 -0.3004005 0.8950978 0.3004005 0.8950978 0.3004005 0.1049022 -0.3004005
1171000000 0.1009848 -0.2951250 0.8990152 0.2951250 0.8990152 0.2951250 0.1009848 -0.2951250
1192000000 0.0972441 -0.2899479 0.9027559 0.2899479 0.9027559 0.2899479 0.0972441 -0.2899479
1213000000 0.0936702 -0.2848674 0.9063298 0.2848674 0.9063298 0.2848674 0.0936702 -0.2848674
1234000000 0.0902540 -0.2798818 0.9097460 0.2798818 0.9097460 0.2798818 0.0902540 -0.2798818
1255000000 0.0869871 -0.2749892 0.9130129 0.2749892 0.9130129 0.2749892 0.0869871 -0.2749892
1276000000 0.0838613 -0.2701878 0.9161387 0.2701878 0.9161387 0.2701878 0.0838613 -0.2701878
1297000000 0.0808694 -0.2654755 0.9191306 0.2654755 0.9191306 0.2654755 0.0808694 -0.2654755
1318000000 0.0780042 -0.2608504 0.9219958 0.2608504 0.9219958 0.2608504 0.0780042 -0.2608504
1339000000 0.0752591 -0.2563106 0.9247409 0.2563106 0.9247409 0.2563106 0.0752591 -0.2563106
1360000000 0.0726281 -0.2518539 0.9273719 0.2518539 0.9273719 0.2518539 0.0726281 -0.2518539
1381000000 0.0701053 -0.2474784 0.9298947 0.2474784 0.9298947 0.2474784 0.0701053 -0.2474784
1402000000 0.0676853 -0.2431821 0.9323147 0.2431821 0.9323147 0.2431821 0.0676853 -0.2431821
1423000000 0.0653630 -0.2389630 0.9346370 0.2389630 0.9346370 0.2389630 0.0653630 -0.2389630
1444000000 0.0631335 -0.2348192 0.9368665 0.2348192 0.9368665 0.2348192 0.0631335 -0.2348192
1465000000 0.0609924 -0.2307488 0.9390076 0.2307488 0.9390076 0.2307488 0.0609924 -0.2307488
1486000000 0.0589353 -0.2267498 0.9410647 0.2267498 0.9410647 0.2267498 0.0589353 -0.2267498
1507000000 0.0569583 -0.2228205 0.9430417 0.2228205 0.9430417 0.2228205 0.0569583 -0.2228205
1528000000 0.0550576 -0.2189589 0.9449424 0.2189589 0.9449424 0.2189589 0.0550576 -0.2189589
1549000000 0.0532296 -0.2151634 0.9467704 0.2151634 0.9467704 0.2151634 0.0532296 -0.2151634
1570000000 0.0514711 -0.2114322 0.9485289 0.2114322 0.9485289 0.2114322 0.0514711 -0.2114322
1591000000 0.0497787 -0.2077635 0.9502213 0.2077635 0.9502213 0.2077635 0.0497787 -0.2077635
1612000000 0.0481495 -0.2041557 0.9518505 0.2041557 0.9518505 0.2041557 0.0481495 -0.2041557
1633000000 0.0465807 -0.2006073 0.9534193 0.2006073 0.9534193 0.2006073 0.0465807 -0.2006073
1654000000 0.0450696 -0.1971165 0.9549304 0.1971165 0.9549304 0.1971165 0.0450696 -0.1971165
1675000000 0.0436136 -0.1936820 0.9563864 0.1936820 0.9563864 0.1936820 0.0436136 -0.1936820
1696000000 0.0422105 -0.1903021 0.9577895 0.1903021 0.9577895 0.1903021 0.0422105 -0.1903021
1717000000 0.0408578 -0.1869755 0.9591422 0.1869755 0.9591422 0.1869755 0.0408578 -0.1869755
1738000000 0.0395535 -0.1837007 0.9604465 0.1837007 0.9604465 0.1837007 0.0395535 -0.1837007
1759000000 0.0382956 -0.1804764 0.9617044 0.1804764 0.9617044 0.1804764 0.0382956 -0.1804764
1780000000 0.0370821 -0.1773012 0.9629179 0.1773012 0.9629179 0.1773012 0.0370821 -0.1773012
1801000000 0.0359111 -0.1741738 0.9640889 0.1741738 0.9640889 0.1741738 0.0359111 -0.1741738
1822000000 0.0347810 -0.1710930 0.9652190 0.1710930 0.9652190 0.1710930 0.0347810 -0.1710930
1843000000 0.0336900 -0.1680575 0.9663100 0.1680575 0.9663100 0.1680575 0.0336900 -0.1680575
1864000000 0.0326367 -0.1650662 0.9673633 0.1650662 0.9673633 0.1650662 0.0326367 -0.1650662
1885000000 0.0316196 -0.1621179 0.9683804 0.1621179 0.9683804 0.1621179 0.0316196 -0.1621179
1906000000 0.0306372 -0.1592114 0.9693628 0.1592114 0.9693628 0.1592114 0.0306372 -0.1592114
1927000000 0.0296881 -0.1563458 0.9703119 0.1563458 0.9703119 0.1563458 0.0296881 -0.1563458
1948000000 0.0287712 -0.1535200 0.9712288 0.1535200 0.9712288 0.1535200 0.0287712 -0.1535200
1969000000 0.0278852 -0.1507329 0.9721148 0.1507329 0.9721148 0.1507329 0.0278852 -0.1507329
1990000000 0.0270289 -0.1479835 0.9729711 0.1479835 0.9729711 0.1479835 0.0270289 -0.1479835
2011000000 0.0262012 -0.1452709 0.9737988 0.1452709 0.9737988 0.1452709 0.0262012 -0.1452709
2032000000 0.0254011 -0.1425941 0.9745989 0.1425941 0.9745989 0.1425941 0.0254011 -0.1425941
2053000000 0.0246276 -0.1399523 0.9753724 0.1399523 0.9753724 0.1399523 0.0246276 -0.1399523
2074000000 0.0238797 -0.1373446 0.9761203 0.1373446 0.9761203 0.1373446 0.0238797 -0.1373446
2095000000 0.0231566 -0.1347701 0.9768434 0.1347701 0.9768434 0.1347701 0.0231566 -0.1347701
2116000000 0.0224572 -0.1322279 0.9775428 0.1322279 0.9775428 0.1322279 0.0224572 -0.1322279
2137000000 0.0217809 -0.1297173 0.9782191 0.1297173 0.9782191 0.1297173 0.0217809 -0.1297173
2158000000 0.0211267 -0.1272376 0.9788733 0.1272376 0.9788733 0.1272376 0.0211267 -0.1272376
2179000000 0.0204941 -0.1247878 0.9795059 0.1247878 0.9795059 0.1247878 0.0204941 -0.1247878
2200000000 0.0198821 -0.1223674 0.9801179 0.1223674 0.9801179 0.1223674 0.0198821 -0.1223674
2221000000 0.0192902 -0.1199756 0.9807098 0.1199756 0.9807098 0.1199756 0.0192902 -0.1199756
2242000000 0.0187177 -0.1176117 0.9812823 0.1176117 0.9812823 0.1176117 0.0187177 -0.1176117
2263000000 0.0181639 -0.1152750 0.9818361 0.1152750 0.9818361 0.1152750 0.0181639 -0.1152750
2284000000 0.0176282 -0.1129648 0.9823718 0.1129648 0.9823718 0.1129648 0.0176282 -0.1129648
2305000000 0.0171100 -0.1106807 0.9828900 0.1106807 0.9828900 0.1106807 0.0171100 -0.1106807
2326000000 0.0166089 -0.1084218 0.9833911 0.1084218 0.9833911 0.1084218 0.0166089 -0.1084218
2347000000 0.0161242 -0.1061877 0.9838758 0.1061877 0.9838758 0.1061877 0.0161242 -0.1061877
2368000000 0.0156555 -0.1039777 0.9843445 0.1039777 0.9843445 0.1039777 0.0156555 -0.1039777
2389000000 0.0152022 -0.1017913 0.9847978 0.1017913 0.9847978 0.1017913 0.0152022 -0.1017913
2410000000 0.0147639 -0.0996279 0.9852361 0.0996279 0.9852361 0.0996279 0.0147639 -0.0996279
2431000000 0.0143401 -0.0974870 0.9856599 0.0974870 0.9856599 0.0974870 0.0143401 -0.0974870
2452000000 0.0139305 -0.0953681 0.9860695 0.0953681 0.9860695 0.0953681 0.0139305 -0.0953681
2473000000 0.0135345 -0.0932707 0.9864655 0.0932707 0.9864655 0.0932707 0.0135345 -0.0932707
2494000000 0.0131518 -0.0911942 0.9868482 0.0911942 0.9868482 0.0911942 0.0131518 -0.0911942
2515000000 0.0127820 -0.0891382 0.9872180 0.0891382 0.9872180 0.0891382 0.0127820 -0.0891382
2536000000 0.0124248 -0.0871023 0.9875752 0.0871023 0.9875752 0.0871023 0.0124248 -0.0871023
2557000000 0.0120797 -0.0850859 0.9879203 0.0850859 0.9879203 0.0850859 0.0120797 -0.0850859
2578000000 0.0117465 -0.0830886 0.9882535 0.0830886 0.9882535 0.0830886 0.0117465 -0.0830886
2599000000 0.0114248 -0.0811101 0.9885752 0.0811101 0.9885752 0.0811101 0.0114248 -0.0811101
2620000000 0.0111143 -0.0791499 0.9888857 0.0791499 0.9888857 0.0791499 0.0111143 -0.0791499
2641000000 0.0108148 -0.0772075 0.9891852 0.0772075 0.9891852 0.0772075 0.0108148 -0.0772075
2662000000 0.0105258 -0.0752827 0.9894742 0.0752827 0.9894742 0.0752827 0.0105258 -0.0752827
2683000000 0.0102472 -0.0733749 0.9897528 0.0733749 0.9897528 0.0733749 0.0102472 -0.0733749
2704000000 0.0099786 -0.0714839 0.9900214 0.0714839 0.9900214 0.0714839 0.0099786 -0.0714839
2725000000 0.0097199 -0.0696092 0.9902801 0.0696092 0.9902801 0.0696092 0.0097199 -0.0696092
2746000000 0.0094707 -0.0677505 0.9905293 0.0677505 0.9905293 0.0677505 0.0094707 -0.0677505
2767000000 0.0092309 -0.0659075 0.9907691 0.0659075 0.9907691 0.0659075 0.0092309 -0.0659075
2788000000 0.0090001 -0.0640798 0.9909999 0.0640798 0.9909999 0.0640798 0.0090001 -0.0640798
2809000000 0.0087782 -0.0622671 0.9912218 0.0622671 0.9912218 0.0622671 0.0087782 -0.0622671
2830000000 0.0085650 -0.0604691 0.9914350 0.0604691 0.9914350 0.0604691 0.0085650 -0.0604691
2851000000 0.0083602 -0.0586854 0.9916398 0.0586854 0.9916398 0.0586854 0.0083602 -0.0586854
2872000000 0.0081637 -0.0569157 0.9918363 0.0569157 0.9918363 0.0569157 0.0081637 -0.0569157
2893000000 0.0079752 -0.0551598 0.9920248 0.0551598 0.9920248 0.0551598 0.0079752 -0.0551598
2914000000 0.0077946 -0.0534173 0.9922054 0.0534173 0.9922054 0.0534173 0.0077946 -0.0534173
2935000000 0.0076217 -0.0516881 0.9923783 0.0516881 0.9923783 0.0516881 0.0076217 -0.0516881
2956000000 0.0074564 -0.0499717 0.9925436 0.0499717 0.9925436 0.0499717 0.0074564 -0.0499717
2977000000 0.0072984 -0.0482679 0.9927016 0.0482679 0.9927016 0.0482679 0.0072984 -0.0482679
2998000000 0.0071476 -0.0465764 0.9928524 0.0465764 0.9928524 0.0465764 0.0071476 -0.0465764
3019000000 0.0070038 -0.0448971 0.9929962 0.0448971 0.9929962 0.0448971 0.0070038 -0.0448971
3040000000 0.0068670 -0.0432296 0.9931330 0.0432296 0.9931330 0.0432296 0.0068670 -0.0432296
3061000000 0.0067369 -0.0415737 0.9932631 0.0415737 0.9932631 0.0415737 0.0067369 -0.0415737
3082000000 0.0066134 -0.0399292 0.9933866 0.0399292 0.9933866 0.0399292 0.0066134 -0.0399292
3103000000 0.0064964 -0.0382957 0.9935036 0.0382957 0.9935036 0.0382957 0.0064964 -0.0382957
3124000000 0.0063858 -0.0366732 0.9936142 0.0366732 0.9936142 0.0366732 0.0063858 -0.0366732
3145000000 0.0062814 -0.0350613 0.9937186 0.0350613 0.9937186 0.0350613 0.0062814 -0.0350613
3166000000 0.0061831 -0.0334599 0.9938169 0.0334599 0.9938169 0.0334599 0.0061831 -0.0334599
3187000000 0.0060908 -0.0318686 0.9939092 0.0318686 0.9939092 0.0318686 0.0060908 -0.0318686
3208000000 0.0060045 -0.0302874 0.9939955 0.0302874 0.9939955 0.0302874 0.0060045 -0.0302874
3229000000 0.0059239 -0.0287160 0.9940761 0.0287160 0.9940761 0.0287160 0.0059239 -0.0287160
3250000000 0.0058489 -0.0271542 0.9941511 0.0271542 0.9941511 0.0271542 0.0058489 -0.0271542
3271000000 0.0057796 -0.0256018 0.9942204 0.0256018 0.9942204 0.0256018 0.0057796 -0.0256018
3292000000 0.0057157 -0.0240586 0.9942843 0.0240586 0.9942843 0.0240586 0.0057157 -0.0240586
3313000000 0.0056572 -0.0225244 0.9943428 0.0225244 0.9943428 0.0225244 0.0056572 -0.0225244
3334000000 0.0056040 -0.0209991 0.9943960 0.0209991 0.9943960 0.0209991 0.0056040 -0.0209991
3355000000 0.0055561 -0.0194824 0.9944439 0.0194824 0.9944439 0.0194824 0.0055561 -0.0194824
3376000000 0.0055132 -0.0179742 0.9944868 0.0179742 0.9944868 0.0179742 0.0055132 -0.0179742
3397000000 0.0054754 -0.0164743 0.9945246 0.0164743 0.9945246 0.0164743 0.0054754 -0.0164743
3418000000 0.0054426 -0.0149825 0.9945574 0.0149825 0.9945574 0.0149825 0.0054426 -0.0149825
3439000000 0.0054147 -0.0134987 0.9945853 0.0134987 0.9945853 0.0134987 0.0054147 -0.0134987
3460000000 0.0053916 -0.0120226 0.9946084 0.0120226 0.9946084 0.0120226 0.0053916 -0.0120226
3481000000 0.0053732 -0.0105542 0.9946268 0.0105542 0.9946268 0.0105542 0.0053732 -0.0105542
3502000000 0.0053596 -0.0090933 0.9946404 0.0090933 0.9946404 0.0090933 0.0053596 -0.0090933
3523000000 0.0053505 -0.0076397 0.9946495 0.0076397 0.9946495 0.0076397 0.0053505 -0.0076397
3544000000 0.0053460 -0.0061932 0.9946540 0.0061932 0.9946540 0.0061932 0.0053460 -0.0061932
3565000000 0.0053461 -0.0047538 0.9946539 0.0047538 0.9946539 0.0047538 0.0053461 -0.0047538
3586000000 0.0053505 -0.0033212 0.9946495 0.0033212 0.9946495 0.0033212 0.0053505 -0.0033212
3607000000 0.0053594 -0.0018953 0.9946406 0.0018953 0.9946406 0.0018953 0.0053594 -0.0018953
3628000000 0.0053726 -0.0004761 0.9946274 0.0004761 0.9946274 0.0004761 0.0053726 -0.0004761
3649000000 0.0053900 0.0009368 0.9946100 -0.0009368 0.9946100 -0.0009368 0.0053900 0.0009368
3670000000 0.0054117 0.0023433 0.9945883 -0.0023433 0.9945883 -0.0023433 0.0054117 0.0023433
3691000000 0.0054376 0.0037437 0.9945624 -0.0037437 0.9945624 -0.0037437 0.0054376 0.0037437
3712000000 0.0054677 0.0051381 0.9945323 -0.0051381 0.9945323 -0.0051381 0.0054677 0.0051381
3733000000 0.0055018 0.0065265 0.9944982 -0.0065265 0.9944982 -0.0065265 0.0055018 0.0065265
3754000000 0.0055400 0.0079092 0.9944600 -0.0079092 0.9944600 -0.0079092 0.0055400 0.0079092
3775000000 0.0055823 0.0092862 0.9944177 -0.0092862 0.9944177 -0.0092862 0.0055823 0.0092862
3796000000 0.0056285 0.0106577 0.9943715 -0.0106577 0.9943715 -0.0106577 0.0056285 0.0106577
3817000000 0.0056786 0.0120238 0.9943214 -0.0120238 0.9943214 -0.0120238 0.0056786 0.0120238
3838000000 0.0057327 0.0133847 0.9942673 -0.0133847 0.9942673 -0.0133847 0.0057327 0.0133847
3859000000 0.0057906 0.0147404 0.9942094 -0.0147404 0.9942094 -0.0147404 0.0057906 0.0147404
3880000000 0.0058524 0.0160910 0.9941476 -0.0160910 0.9941476 -0.0160910 0.0058524 0.0160910
3901000000 0.0059181 0.0174367 0.9940819 -0.0174367 0.9940819 -0.0174367 0.0059181 0.0174367
3922000000 0.0059875 0.0187777 0.9940125 -0.0187777 0.9940125 -0.0187777 0.0059875 0.0187777
3943000000 0.0060606 0.0201139 0.9939394 -0.0201139 0.9939394 -0.0201139 0.0060606 0.0201139
3964000000 0.0061376 0.0214455 0.9938624 -0.0214455 0.9938624 -0.0214455 0.0061376 0.0214455
3985000000 0.0062182 0.0227727 0.9937818 -0.0227727 0.9937818 -0.0227727 0.0062182 0.0227727
4006000000 0.0063025 0.0240955 0.9936975 -0.0240955 0.9936975 -0.0240955 0.0063025 0.0240955
4027000000 0.0063906 0.0254140 0.9936094 -0.0254140 0.9936094 -0.0254140 0.0063906 0.0254140
4048000000 0.0064822 0.0267284 0.9935178 -0.0267284 0.9935178 -0.0267284 0.0064822 0.0267284
4069000000 0.0065775 0.0280388 0.9934225 -0.0280388 0.9934225 -0.0280388 0.0065775 0.0280388
4090000000 0.0066765 0.0293452 0.9933235 -0.0293452 0.9933235 -0.0293452 0.0066765 0.0293452
4111000000 0.0067790 0.0306478 0.9932210 -0.0306478 0.9932210 -0.0306478 0.0067790 0.0306478
4132000000 0.0068852 0.0319466 0.9931148 -0.0319466 0.9931148 -0.0319466 0.0068852 0.0319466
4153000000 0.0069949 0.0332418 0.9930051 -0.0332418 0.9930051 -0.0332418 0.0069949 0.0332418
4174000000 0.0071082 0.0345335 0.9928918 -0.0345335 0.9928918 -0.0345335 0.0071082 0.0345335
4195000000 0.0072251 0.0358217 0.9927749 -0.0358217 0.9927749 -0.0358217 0.0072251 0.0358217
4216000000 0.0073455 0.0371066 0.9926545 -0.0371066 0.9926545 -0.0371066 0.0073455 0.0371066
4237000000 0.0074695 0.0383882 0.9925305 -0.0383882 0.9925305 -0.0383882 0.0074695 0.0383882
4258000000 0.0075970 0.0396667 0.9924030 -0.0396667 0.9924030 -0.0396667 0.0075970 0.0396667
4279000000 0.0077281 0.0409421 0.9922719 -0.0409421 0.9922719 -0.0409421 0.0077281 0.0409421
4300000000 0.0078627 0.0422145 0.9921373 -0.0422145 0.9921373 -0.0422145 0.0078627 0.0422145
4321000000 0.0080009 0.0434841 0.9919991 -0.0434841 0.9919991 -0.0434841 0.0080009 0.0434841
4342000000 0.0081426 0.0447509 0.9918574 -0.0447509 0.9918574 -0.0447509 0.0081426 0.0447509
4363000000 0.0082878 0.0460151 0.9917122 -0.0460151 0.9917122 -0.0460151 0.0082878 0.0460151
4384000000 0.0084366 0.0472766 0.9915634 -0.0472766 0.9915634 -0.0472766 0.0084366 0.0472766
4405000000 0.0085889 0.0485357 0.9914111 -0.0485357 0.9914111 -0.0485357 0.0085889 0.0485357
4426000000 0.0087448 0.0497923 0.9912552 -0.0497923 0.9912552 -0.0497923 0.0087448 0.0497923
4447000000 0.0089042 0.0510466 0.9910958 -0.0510466 0.9910958 -0.0510466 0.0089042 0.0510466
4468000000 0.0090673 0.0522987 0.9909327 -0.0522987 0.9909327 -0.0522987 0.0090673 0.0522987
4489000000 0.0092338 0.0535486 0.9907662 -0.0535486 0.9907662 -0.0535486 0.0092338 0.0535486
4510000000 0.0094040 0.0547965 0.9905960 -0.0547965 0.9905960 -0.0547965 0.0094040 0.0547965
