!Murata Part Number: GRM1885C2E470JW07
!These Parameters are Measured in Series Mode Connection
!Data Generated on Mar 30, 2021
!       o--ll--o
!Port1            Port2
!       o------o
!Operation Temp=25[degC], DC Bias Voltage=0[V]
!Freq. Start=1000[kHz] Stop=3[GHz] 401[Steps]
# Hz S RI R 50
!Freq.(Hz) S11(Real) S11(Imag) S21(Real) S21(Imag) S12(Real) S12(Imag) S22(Real) S22(Imag)
1000000 0.9991239 -0.0295048 0.0008761 0.0295048 0.0008761 0.0295048 0.9991239 -0.0295048
8497500 0.9405391 -0.2358728 0.0594609 0.2358728 0.0594609 0.2358728 0.9405391 -0.2358728
15995000 0.8173558 -0.3854500 0.1826442 0.3854500 0.1826442 0.3854500 0.8173558 -0.3854500
23492500 0.6751643 -0.4672387 0.3248357 0.4672387 0.3248357 0.4672387 0.6751643 -0.4672387
30990000 0.5445861 -0.4968492 0.4554139 0.4968492 0.4554139 0.4968492 0.5445861 -0.4968492
38487500 0.4368460 -0.4947691 0.5631540 0.4947691 0.5631540 0.4947691 0.4368460 -0.4947691
45985000 0.3521014 -0.4763300 0.6478986 0.4763300 0.6478986 0.4763300 0.3521014 -0.4763300
53482500 0.2865749 -0.4507903 0.7134251 0.4507903 0.7134251 0.4507903 0.2865749 -0.4507903
60980000 0.2359753 -0.4231528 0.7640247 0.4231528 0.7640247 0.4231528 0.2359753 -0.4231528
68477500 0.1966464 -0.3959188 0.8033536 0.3959188 0.8033536 0.3959188 0.1966464 -0.3959188
75975000 0.1657662 -0.3702307 0.8342338 0.3702307 0.8342338 0.3702307 0.1657662 -0.3702307
83472500 0.1412380 -0.3465259 0.8587620 0.3465259 0.8587620 0.3465259 0.1412380 -0.3465259
90970000 0.1215240 -0.3248887 0.8784760 0.3248887 0.8784760 0.3248887 0.1215240 -0.3248887
98467500 0.1054966 -0.3052364 0.8945034 0.3052364 0.8945034 0.3052364 0.1054966 -0.3052364
105965000 0.0923242 -0.2874147 0.9076758 0.2874147 0.9076758 0.2874147 0.0923242 -0.2874147
113462500 0.0813881 -0.2712463 0.9186119 0.2712463 0.9186119 0.2712463 0.0813881 -0.2712463
120960000 0.0722229 -0.2565545 0.9277771 0.2565545 0.9277771 0.2565545 0.0722229 -0.2565545
128457500 0.0644751 -0.2431745 0.9355249 0.2431745 0.9355249 0.2431745 0.0644751 -0.2431745
135955000 0.0578730 -0.2309574 0.9421270 0.2309574 0.9421270 0.2309574 0.0578730 -0.2309574
143452500 0.0522057 -0.2197707 0.9477943 0.2197707 0.9477943 0.2197707 0.0522057 -0.2197707
150950000 0.0473078 -0.2094983 0.9526922 0.2094983 0.9526922 0.2094983 0.0473078 -0.2094983
158447500 0.0430483 -0.2000385 0.9569517 0.2000385 0.9569517 0.2000385 0.0430483 -0.2000385
165945000 0.0393225 -0.1913026 0.9606775 0.1913026 0.9606775 0.1913026 0.0393225 -0.1913026
173442500 0.0360461 -0.1832133 0.9639539 0.1832133 0.9639539 0.1832133 0.0360461 -0.1832133
180940000 0.0331506 -0.1757032 0.9668494 0.1757032 0.9668494 0.1757032 0.0331506 -0.1757032
188437500 0.0305799 -0.1687131 0.9694201 0.1687131 0.9694201 0.1687131 0.0305799 -0.1687131
195935000 0.0282878 -0.1621915 0.9717122 0.1621915 0.9717122 0.1621915 0.0282878 -0.1621915
203432500 0.0262359 -0.1560930 0.9737641 0.1560930 0.9737641 0.1560930 0.0262359 -0.1560930
210930000 0.0243922 -0.1503776 0.9756078 0.1503776 0.9756078 0.1503776 0.0243922 -0.1503776
218427500 0.0227298 -0.1450101 0.9772702 0.1450101 0.9772702 0.1450101 0.0227298 -0.1450101
225925000 0.0212259 -0.1399592 0.9787741 0.1399592 0.9787741 0.1399592 0.0212259 -0.1399592
233422500 0.0198613 -0.1351973 0.9801387 0.1351973 0.9801387 0.1351973 0.0198613 -0.1351973
240920000 0.0186195 -0.1306997 0.9813805 0.1306997 0.9813805 0.1306997 0.0186195 -0.1306997
248417500 0.0174863 -0.1264444 0.9825137 0.1264444 0.9825137 0.1264444 0.0174863 -0.1264444
255915000 0.0164497 -0.1224117 0.9835503 0.1224117 0.9835503 0.1224117 0.0164497 -0.1224117
263412500 0.0154992 -0.1185840 0.9845008 0.1185840 0.9845008 0.1185840 0.0154992 -0.1185840
270910000 0.0146255 -0.1149455 0.9853745 0.1149455 0.9853745 0.1149455 0.0146255 -0.1149455
278407500 0.0138208 -0.1114817 0.9861792 0.1114817 0.9861792 0.1114817 0.0138208 -0.1114817
285905000 0.0130782 -0.1081797 0.9869218 0.1081797 0.9869218 0.1081797 0.0130782 -0.1081797
293402500 0.0123914 -0.1050280 0.9876086 0.1050280 0.9876086 0.1050280 0.0123914 -0.1050280
300900000 0.0117553 -0.1020158 0.9882447 0.1020158 0.9882447 0.1020158 0.0117553 -0.1020158
308397500 0.0111649 -0.0991335 0.9888351 0.0991335 0.9888351 0.0991335 0.0111649 -0.0991335
315895000 0.0106161 -0.0963723 0.9893839 0.0963723 0.9893839 0.0963723 0.0106161 -0.0963723
323392500 0.0101053 -0.0937242 0.9898947 0.0937242 0.9898947 0.0937242 0.0101053 -0.0937242
330890000 0.0096290 -0.0911818 0.9903710 0.0911818 0.9903710 0.0911818 0.0096290 -0.0911818
338387500 0.0091844 -0.0887384 0.9908156 0.0887384 0.9908156 0.0887384 0.0091844 -0.0887384
345885000 0.0087687 -0.0863878 0.9912313 0.0863878 0.9912313 0.0863878 0.0087687 -0.0863878
353382500 0.0083796 -0.0841243 0.9916204 0.0841243 0.9916204 0.0841243 0.0083796 -0.0841243
360880000 0.0080150 -0.0819428 0.9919850 0.0819428 0.9919850 0.0819428 0.0080150 -0.0819428
368377500 0.0076729 -0.0798383 0.9923271 0.0798383 0.9923271 0.0798383 0.0076729 -0.0798383
375875000 0.0073516 -0.0778065 0.9926484 0.0778065 0.9926484 0.0778065 0.0073516 -0.0778065
383372500 0.0070494 -0.0758432 0.9929506 0.0758432 0.9929506 0.0758432 0.0070494 -0.0758432
390870000 0.0067651 -0.0739445 0.9932349 0.0739445 0.9932349 0.0739445 0.0067651 -0.0739445
398367500 0.0064973 -0.0721070 0.9935027 0.0721070 0.9935027 0.0721070 0.0064973 -0.0721070
405865000 0.0062447 -0.0703274 0.9937553 0.0703274 0.9937553 0.0703274 0.0062447 -0.0703274
413362500 0.0060064 -0.0686026 0.9939936 0.0686026 0.9939936 0.0686026 0.0060064 -0.0686026
420860000 0.0057814 -0.0669297 0.9942186 0.0669297 0.9942186 0.0669297 0.0057814 -0.0669297
428357500 0.0055687 -0.0653061 0.9944313 0.0653061 0.9944313 0.0653061 0.0055687 -0.0653061
435855000 0.0053676 -0.0637293 0.9946324 0.0637293 0.9946324 0.0637293 0.0053676 -0.0637293
443352500 0.0051772 -0.0621970 0.9948228 0.0621970 0.9948228 0.0621970 0.0051772 -0.0621970
450850000 0.0049969 -0.0607070 0.9950031 0.0607070 0.9950031 0.0607070 0.0049969 -0.0607070
458347500 0.0048261 -0.0592574 0.9951739 0.0592574 0.9951739 0.0592574 0.0048261 -0.0592574
465845000 0.0046641 -0.0578461 0.9953359 0.0578461 0.9953359 0.0578461 0.0046641 -0.0578461
473342500 0.0045105 -0.0564714 0.9954895 0.0564714 0.9954895 0.0564714 0.0045105 -0.0564714
480840000 0.0043647 -0.0551316 0.9956353 0.0551316 0.9956353 0.0551316 0.0043647 -0.0551316
488337500 0.0042263 -0.0538252 0.9957737 0.0538252 0.9957737 0.0538252 0.0042263 -0.0538252
495835000 0.0040948 -0.0525507 0.9959052 0.0525507 0.9959052 0.0525507 0.0040948 -0.0525507
503332500 0.0039699 -0.0513066 0.9960301 0.0513066 0.9960301 0.0513066 0.0039699 -0.0513066
510830000 0.0038511 -0.0500916 0.9961489 0.0500916 0.9961489 0.0500916 0.0038511 -0.0500916
518327500 0.0037382 -0.0489046 0.9962618 0.0489046 0.9962618 0.0489046 0.0037382 -0.0489046
525825000 0.0036308 -0.0477443 0.9963692 0.0477443 0.9963692 0.0477443 0.0036308 -0.0477443
533322500 0.0035286 -0.0466096 0.9964714 0.0466096 0.9964714 0.0466096 0.0035286 -0.0466096
540820000 0.0034313 -0.0454995 0.9965687 0.0454995 0.9965687 0.0454995 0.0034313 -0.0454995
548317500 0.0033388 -0.0444130 0.9966612 0.0444130 0.9966612 0.0444130 0.0033388 -0.0444130
555815000 0.0032507 -0.0433491 0.9967493 0.0433491 0.9967493 0.0433491 0.0032507 -0.0433491
563312500 0.0031668 -0.0423070 0.9968332 0.0423070 0.9968332 0.0423070 0.0031668 -0.0423070
570810000 0.0030870 -0.0412858 0.9969130 0.0412858 0.9969130 0.0412858 0.0030870 -0.0412858
578307500 0.0030109 -0.0402846 0.9969891 0.0402846 0.9969891 0.0402846 0.0030109 -0.0402846
585805000 0.0029385 -0.0393028 0.9970615 0.0393028 0.9970615 0.0393028 0.0029385 -0.0393028
593302500 0.0028696 -0.0383396 0.9971304 0.0383396 0.9971304 0.0383396 0.0028696 -0.0383396
600800000 0.0028040 -0.0373944 0.9971960 0.0373944 0.9971960 0.0373944 0.0028040 -0.0373944
608297500 0.0027415 -0.0364664 0.9972585 0.0364664 0.9972585 0.0364664 0.0027415 -0.0364664
615795000 0.0026821 -0.0355550 0.9973179 0.0355550 0.9973179 0.0355550 0.0026821 -0.0355550
623292500 0.0026255 -0.0346597 0.9973745 0.0346597 0.9973745 0.0346597 0.0026255 -0.0346597
630790000 0.0025717 -0.0337799 0.9974283 0.0337799 0.9974283 0.0337799 0.0025717 -0.0337799
638287500 0.0025205 -0.0329150 0.9974795 0.0329150 0.9974795 0.0329150 0.0025205 -0.0329150
645785000 0.0024718 -0.0320646 0.9975282 0.0320646 0.9975282 0.0320646 0.0024718 -0.0320646
653282500 0.0024256 -0.0312280 0.9975744 0.0312280 0.9975744 0.0312280 0.0024256 -0.0312280
660780000 0.0023816 -0.0304050 0.9976184 0.0304050 0.9976184 0.0304050 0.0023816 -0.0304050
668277500 0.0023399 -0.0295949 0.9976601 0.0295949 0.9976601 0.0295949 0.0023399 -0.0295949
675775000 0.0023003 -0.0287975 0.9976997 0.0287975 0.9976997 0.0287975 0.0023003 -0.0287975
683272500 0.0022628 -0.0280122 0.9977372 0.0280122 0.9977372 0.0280122 0.0022628 -0.0280122
690770000 0.0022272 -0.0272386 0.9977728 0.0272386 0.9977728 0.0272386 0.0022272 -0.0272386
698267500 0.0021935 -0.0264765 0.9978065 0.0264765 0.9978065 0.0264765 0.0021935 -0.0264765
705765000 0.0021617 -0.0257254 0.9978383 0.0257254 0.9978383 0.0257254 0.0021617 -0.0257254
713262500 0.0021316 -0.0249850 0.9978684 0.0249850 0.9978684 0.0249850 0.0021316 -0.0249850
720760000 0.0021032 -0.0242550 0.9978968 0.0242550 0.9978968 0.0242550 0.0021032 -0.0242550
728257500 0.0020764 -0.0235350 0.9979236 0.0235350 0.9979236 0.0235350 0.0020764 -0.0235350
735755000 0.0020512 -0.0228247 0.9979488 0.0228247 0.9979488 0.0228247 0.0020512 -0.0228247
743252500 0.0020275 -0.0221238 0.9979725 0.0221238 0.9979725 0.0221238 0.0020275 -0.0221238
750750000 0.0020052 -0.0214322 0.9979948 0.0214322 0.9979948 0.0214322 0.0020052 -0.0214322
758247500 0.0019844 -0.0207493 0.9980156 0.0207493 0.9980156 0.0207493 0.0019844 -0.0207493
765745000 0.0019650 -0.0200752 0.9980350 0.0200752 0.9980350 0.0200752 0.0019650 -0.0200752
773242500 0.0019469 -0.0194094 0.9980531 0.0194094 0.9980531 0.0194094 0.0019469 -0.0194094
780740000 0.0019300 -0.0187517 0.9980700 0.0187517 0.9980700 0.0187517 0.0019300 -0.0187517
788237500 0.0019144 -0.0181019 0.9980856 0.0181019 0.9980856 0.0181019 0.0019144 -0.0181019
795735000 0.0019000 -0.0174598 0.9981000 0.0174598 0.9981000 0.0174598 0.0019000 -0.0174598
803232500 0.0018868 -0.0168251 0.9981132 0.0168251 0.9981132 0.0168251 0.0018868 -0.0168251
810730000 0.0018747 -0.0161977 0.9981253 0.0161977 0.9981253 0.0161977 0.0018747 -0.0161977
818227500 0.0018637 -0.0155773 0.9981363 0.0155773 0.9981363 0.0155773 0.0018637 -0.0155773
825725000 0.0018537 -0.0149638 0.9981463 0.0149638 0.9981463 0.0149638 0.0018537 -0.0149638
833222500 0.0018448 -0.0143570 0.9981552 0.0143570 0.9981552 0.0143570 0.0018448 -0.0143570
840720000 0.0018369 -0.0137566 0.9981631 0.0137566 0.9981631 0.0137566 0.0018369 -0.0137566
848217500 0.0018300 -0.0131625 0.9981700 0.0131625 0.9981700 0.0131625 0.0018300 -0.0131625
855715000 0.0018240 -0.0125746 0.9981760 0.0125746 0.9981760 0.0125746 0.0018240 -0.0125746
863212500 0.0018189 -0.0119927 0.9981811 0.0119927 0.9981811 0.0119927 0.0018189 -0.0119927
870710000 0.0018148 -0.0114166 0.9981852 0.0114166 0.9981852 0.0114166 0.0018148 -0.0114166
878207500 0.0018115 -0.0108461 0.9981885 0.0108461 0.9981885 0.0108461 0.0018115 -0.0108461
885705000 0.0018091 -0.0102812 0.9981909 0.0102812 0.9981909 0.0102812 0.0018091 -0.0102812
893202500 0.0018075 -0.0097217 0.9981925 0.0097217 0.9981925 0.0097217 0.0018075 -0.0097217
900700000 0.0018068 -0.0091674 0.9981932 0.0091674 0.9981932 0.0091674 0.0018068 -0.0091674
908197500 0.0018068 -0.0086183 0.9981932 0.0086183 0.9981932 0.0086183 0.0018068 -0.0086183
915695000 0.0018076 -0.0080741 0.9981924 0.0080741 0.9981924 0.0080741 0.0018076 -0.0080741
923192500 0.0018092 -0.0075347 0.9981908 0.0075347 0.9981908 0.0075347 0.0018092 -0.0075347
930690000 0.0018115 -0.0070001 0.9981885 0.0070001 0.9981885 0.0070001 0.0018115 -0.0070001
938187500 0.0018145 -0.0064702 0.9981855 0.0064702 0.9981855 0.0064702 0.0018145 -0.0064702
945685000 0.0018183 -0.0059447 0.9981817 0.0059447 0.9981817 0.0059447 0.0018183 -0.0059447
953182500 0.0018227 -0.0054236 0.9981773 0.0054236 0.9981773 0.0054236 0.0018227 -0.0054236
960680000 0.0018278 -0.0049069 0.9981722 0.0049069 0.9981722 0.0049069 0.0018278 -0.0049069
968177500 0.0018336 -0.0043942 0.9981664 0.0043942 0.9981664 0.0043942 0.0018336 -0.0043942
975675000 0.0018401 -0.0038857 0.9981599 0.0038857 0.9981599 0.0038857 0.0018401 -0.0038857
983172500 0.0018472 -0.0033812 0.9981528 0.0033812 0.9981528 0.0033812 0.0018472 -0.0033812
990670000 0.0018549 -0.0028806 0.9981451 0.0028806 0.9981451 0.0028806 0.0018549 -0.0028806
998167500 0.0018633 -0.0023837 0.9981367 0.0023837 0.9981367 0.0023837 0.0018633 -0.0023837
1005665000 0.0018722 -0.0018906 0.9981278 0.0018906 0.9981278 0.0018906 0.0018722 -0.0018906
1013162500 0.0018818 -0.0014010 0.9981182 0.0014010 0.9981182 0.0014010 0.0018818 -0.0014010
1020660000 0.0018920 -0.0009150 0.9981080 0.0009150 0.9981080 0.0009150 0.0018920 -0.0009150
1028157500 0.0019027 -0.0004325 0.9980973 0.0004325 0.9980973 0.0004325 0.0019027 -0.0004325
1035655000 0.0019140 0.0000467 0.9980860 -0.0000467 0.9980860 -0.0000467 0.0019140 0.0000467
1043152500 0.0019259 0.0005225 0.9980741 -0.0005225 0.9980741 -0.0005225 0.0019259 0.0005225
1050650000 0.0019383 0.0009952 0.9980617 -0.0009952 0.9980617 -0.0009952 0.0019383 0.0009952
1058147500 0.0019513 0.0014647 0.9980487 -0.0014647 0.9980487 -0.0014647 0.0019513 0.0014647
1065645000 0.0019648 0.0019312 0.9980352 -0.0019312 0.9980352 -0.0019312 0.0019648 0.0019312
1073142500 0.0019788 0.0023947 0.9980212 -0.0023947 0.9980212 -0.0023947 0.0019788 0.0023947
1080640000 0.0019934 0.0028552 0.9980066 -0.0028552 0.9980066 -0.0028552 0.0019934 0.0028552
1088137500 0.0020085 0.0033129 0.9979915 -0.0033129 0.9979915 -0.0033129 0.0020085 0.0033129
1095635000 0.0020241 0.0037678 0.9979759 -0.0037678 0.9979759 -0.0037678 0.0020241 0.0037678
1103132500 0.0020403 0.0042200 0.9979597 -0.0042200 0.9979597 -0.0042200 0.0020403 0.0042200
1110630000 0.0020569 0.0046695 0.9979431 -0.0046695 0.9979431 -0.0046695 0.0020569 0.0046695
1118127500 0.0020741 0.0051164 0.9979259 -0.0051164 0.9979259 -0.0051164 0.0020741 0.0051164
1125625000 0.0020917 0.0055608 0.9979083 -0.0055608 0.9979083 -0.0055608 0.0020917 0.0055608
1133122500 0.0021098 0.0060027 0.9978902 -0.0060027 0.9978902 -0.0060027 0.0021098 0.0060027
1140620000 0.0021285 0.0064421 0.9978715 -0.0064421 0.9978715 -0.0064421 0.0021285 0.0064421
1148117500 0.0021476 0.0068792 0.9978524 -0.0068792 0.9978524 -0.0068792 0.0021476 0.0068792
1155615000 0.0021672 0.0073140 0.9978328 -0.0073140 0.9978328 -0.0073140 0.0021672 0.0073140
1163112500 0.0021872 0.0077466 0.9978128 -0.0077466 0.9978128 -0.0077466 0.0021872 0.0077466
1170610000 0.0022078 0.0081769 0.9977922 -0.0081769 0.9977922 -0.0081769 0.0022078 0.0081769
1178107500 0.0022288 0.0086051 0.9977712 -0.0086051 0.9977712 -0.0086051 0.0022288 0.0086051
1185605000 0.0022503 0.0090312 0.9977497 -0.0090312 0.9977497 -0.0090312 0.0022503 0.0090312
1193102500 0.0022723 0.0094552 0.9977277 -0.0094552 0.9977277 -0.0094552 0.0022723 0.0094552
1200600000 0.0022948 0.0098772 0.9977052 -0.0098772 0.9977052 -0.0098772 0.0022948 0.0098772
1208097500 0.0023177 0.0102973 0.9976823 -0.0102973 0.9976823 -0.0102973 0.0023177 0.0102973
1215595000 0.0023411 0.0107155 0.9976589 -0.0107155 0.9976589 -0.0107155 0.0023411 0.0107155
1223092500 0.0023650 0.0111319 0.9976350 -0.0111319 0.9976350 -0.0111319 0.0023650 0.0111319
1230590000 0.0023893 0.0115464 0.9976107 -0.0115464 0.9976107 -0.0115464 0.0023893 0.0115464
1238087500 0.0024141 0.0119592 0.9975859 -0.0119592 0.9975859 -0.0119592 0.0024141 0.0119592
1245585000 0.0024394 0.0123703 0.9975606 -0.0123703 0.9975606 -0.0123703 0.0024394 0.0123703
1253082500 0.0024652 0.0127797 0.9975348 -0.0127797 0.9975348 -0.0127797 0.0024652 0.0127797
1260580000 0.0024914 0.0131875 0.9975086 -0.0131875 0.9975086 -0.0131875 0.0024914 0.0131875
1268077500 0.0025181 0.0135937 0.9974819 -0.0135937 0.9974819 -0.0135937 0.0025181 0.0135937
1275575000 0.0025453 0.0139983 0.9974547 -0.0139983 0.9974547 -0.0139983 0.0025453 0.0139983
1283072500 0.0025730 0.0144015 0.9974270 -0.0144015 0.9974270 -0.0144015 0.0025730 0.0144015
1290570000 0.0026012 0.0148032 0.9973988 -0.0148032 0.9973988 -0.0148032 0.0026012 0.0148032
1298067500 0.0026299 0.0152035 0.9973701 -0.0152035 0.9973701 -0.0152035 0.0026299 0.0152035
1305565000 0.0026591 0.0156025 0.9973409 -0.0156025 0.9973409 -0.0156025 0.0026591 0.0156025
1313062500 0.0026887 0.0160001 0.9973113 -0.0160001 0.9973113 -0.0160001 0.0026887 0.0160001
1320560000 0.0027189 0.0163965 0.9972811 -0.0163965 0.9972811 -0.0163965 0.0027189 0.0163965
1328057500 0.0027496 0.0167916 0.9972504 -0.0167916 0.9972504 -0.0167916 0.0027496 0.0167916
1335555000 0.0027808 0.0171855 0.9972192 -0.0171855 0.9972192 -0.0171855 0.0027808 0.0171855
1343052500 0.0028125 0.0175783 0.9971875 -0.0175783 0.9971875 -0.0175783 0.0028125 0.0175783
1350550000 0.0028448 0.0179699 0.9971552 -0.0179699 0.9971552 -0.0179699 0.0028448 0.0179699
1358047500 0.0028776 0.0183605 0.9971224 -0.0183605 0.9971224 -0.0183605 0.0028776 0.0183605
1365545000 0.0029109 0.0187500 0.9970891 -0.0187500 0.9970891 -0.0187500 0.0029109 0.0187500
1373042500 0.0029448 0.0191386 0.9970552 -0.0191386 0.9970552 -0.0191386 0.0029448 0.0191386
1380540000 0.0029793 0.0195262 0.9970207 -0.0195262 0.9970207 -0.0195262 0.0029793 0.0195262
1388037500 0.0030144 0.0199128 0.9969856 -0.0199128 0.9969856 -0.0199128 0.0030144 0.0199128
1395535000 0.0030500 0.0202987 0.9969500 -0.0202987 0.9969500 -0.0202987 0.0030500 0.0202987
1403032500 0.0030863 0.0206836 0.9969137 -0.0206836 0.9969137 -0.0206836 0.0030863 0.0206836
1410530000 0.0031231 0.0210678 0.9968769 -0.0210678 0.9968769 -0.0210678 0.0031231 0.0210678
1418027500 0.0031606 0.0214513 0.9968394 -0.0214513 0.9968394 -0.0214513 0.0031606 0.0214513
1425525000 0.0031987 0.0218341 0.9968013 -0.0218341 0.9968013 -0.0218341 0.0031987 0.0218341
1433022500 0.0032375 0.0222162 0.9967625 -0.0222162 0.9967625 -0.0222162 0.0032375 0.0222162
1440520000 0.0032770 0.0225977 0.9967230 -0.0225977 0.9967230 -0.0225977 0.0032770 0.0225977
1448017500 0.0033171 0.0229786 0.9966829 -0.0229786 0.9966829 -0.0229786 0.0033171 0.0229786
1455515000 0.0033580 0.0233590 0.9966420 -0.0233590 0.9966420 -0.0233590 0.0033580 0.0233590
1463012500 0.0033996 0.0237389 0.9966004 -0.0237389 0.9966004 -0.0237389 0.0033996 0.0237389
1470510000 0.0034420 0.0241184 0.9965580 -0.0241184 0.9965580 -0.0241184 0.0034420 0.0241184
1478007500 0.0034851 0.0244975 0.9965149 -0.0244975 0.9965149 -0.0244975 0.0034851 0.0244975
1485505000 0.0035290 0.0248763 0.9964710 -0.0248763 0.9964710 -0.0248763 0.0035290 0.0248763
1493002500 0.0035738 0.0252548 0.9964262 -0.0252548 0.9964262 -0.0252548 0.0035738 0.0252548
1500500000 0.0036194 0.0256330 0.9963806 -0.0256330 0.9963806 -0.0256330 0.0036194 0.0256330
1507997500 0.0036659 0.0260111 0.9963341 -0.0260111 0.9963341 -0.0260111 0.0036659 0.0260111
1515495000 0.0037134 0.0263890 0.9962866 -0.0263890 0.9962866 -0.0263890 0.0037134 0.0263890
1522992500 0.0037617 0.0267668 0.9962383 -0.0267668 0.9962383 -0.0267668 0.0037617 0.0267668
1530490000 0.0038111 0.0271446 0.9961889 -0.0271446 0.9961889 -0.0271446 0.0038111 0.0271446
1537987500 0.0038615 0.0275224 0.9961385 -0.0275224 0.9961385 -0.0275224 0.0038615 0.0275224
1545485000 0.0039130 0.0279003 0.9960870 -0.0279003 0.9960870 -0.0279003 0.0039130 0.0279003
1552982500 0.0039656 0.0282783 0.9960344 -0.0282783 0.9960344 -0.0282783 0.0039656 0.0282783
1560480000 0.0040193 0.0286565 0.9959807 -0.0286565 0.9959807 -0.0286565 0.0040193 0.0286565
1567977500 0.0040743 0.0290350 0.9959257 -0.0290350 0.9959257 -0.0290350 0.0040743 0.0290350
1575475000 0.0041305 0.0294138 0.9958695 -0.0294138 0.9958695 -0.0294138 0.0041305 0.0294138
1582972500 0.0041881 0.0297930 0.9958119 -0.0297930 0.9958119 -0.0297930 0.0041881 0.0297930
