!Murata Part Number: GRM1882C2A471JA01
!These Parameters are Measured in Series Mode Connection
!Data Generated on Mar 30, 2021
!       o--ll--o
!Port1            Port2
!       o------o
!Operation Temp=25[degC], DC Bias Voltage=0[V]
!Freq. Start=100[MHz] Stop=9[GHz] 401[Steps]
# Hz S RI R 50
!Freq.(Hz) S11(Real) S11(Imag) S21(Real) S21(Imag) S12(Real) S12(Imag) S22(Real) S22(Imag)
100000000 0.0015082 -0.0306240 0.9984918 0.0306240 0.9984918 0.0306240 0.0015082 -0.0306240
121000000 0.0011595 -0.0240988 0.9988405 0.0240988 0.9988405 0.0240988 0.0011595 -0.0240988
142000000 0.0009620 -0.0193001 0.9990380 0.0193001 0.9990380 0.0193001 0.0009620 -0.0193001
163000000 0.0008446 -0.0155610 0.9991554 0.0155610 0.9991554 0.0155610 0.0008446 -0.0155610
184000000 0.0007744 -0.0125179 0.9992256 0.0125179 0.9992256 0.0125179 0.0007744 -0.0125179
205000000 0.0007344 -0.0099560 0.9992656 0.0099560 0.9992656 0.0099560 0.0007344 -0.0099560
226000000 0.0007154 -0.0077398 0.9992846 0.0077398 0.9992846 0.0077398 0.0007154 -0.0077398
247000000 0.0007120 -0.0057794 0.9992880 0.0057794 0.9992880 0.0057794 0.0007120 -0.0057794
268000000 0.0007211 -0.0040130 0.9992789 0.0040130 0.9992789 0.0040130 0.0007211 -0.0040130
289000000 0.0007409 -0.0023961 0.9992591 0.0023961 0.9992591 0.0023961 0.0007409 -0.0023961
310000000 0.0007705 -0.0008959 0.9992295 0.0008959 0.9992295 0.0008959 0.0007705 -0.0008959
331000000 0.0008098 0.0005125 0.9991902 -0.0005125 0.9991902 -0.0005125 0.0008098 0.0005125
352000000 0.0008592 0.0018490 0.9991408 -0.0018490 0.9991408 -0.0018490 0.0008592 0.0018490
373000000 0.0009200 0.0031294 0.9990800 -0.0031294 0.9990800 -0.0031294 0.0009200 0.0031294
394000000 0.0009942 0.0043677 0.9990058 -0.0043677 0.9990058 -0.0043677 0.0009942 0.0043677
415000000 0.0010850 0.0055758 0.9989150 -0.0055758 0.9989150 -0.0055758 0.0010850 0.0055758
436000000 0.0011977 0.0067652 0.9988023 -0.0067652 0.9988023 -0.0067652 0.0011977 0.0067652
457000000 0.0013402 0.0079473 0.9986598 -0.0079473 0.9986598 -0.0079473 0.0013402 0.0079473
478000000 0.0015259 0.0091334 0.9984741 -0.0091334 0.9984741 -0.0091334 0.0015259 0.0091334
499000000 0.0017769 0.0103347 0.9982231 -0.0103347 0.9982231 -0.0103347 0.0017769 0.0103347
520000000 0.0021314 0.0115592 0.9978686 -0.0115592 0.9978686 -0.0115592 0.0021314 0.0115592
541000000 0.0026561 0.0128009 0.9973439 -0.0128009 0.9973439 -0.0128009 0.0026561 0.0128009
562000000 0.0034636 0.0140039 0.9965364 -0.0140039 0.9965364 -0.0140039 0.0034636 0.0140039
583000000 0.0046970 0.0149616 0.9953030 -0.0149616 0.9953030 -0.0149616 0.0046970 0.0149616
604000000 0.0063035 0.0151598 0.9936965 -0.0151598 0.9936965 -0.0151598 0.0063035 0.0151598
625000000 0.0074181 0.0141404 0.9925819 -0.0141404 0.9925819 -0.0141404 0.0074181 0.0141404
646000000 0.0069676 0.0128773 0.9930324 -0.0128773 0.9930324 -0.0128773 0.0069676 0.0128773
667000000 0.0056629 0.0126906 0.9943371 -0.0126906 0.9943371 -0.0126906 0.0056629 0.0126906
688000000 0.0045607 0.0133927 0.9954393 -0.0133927 0.9954393 -0.0133927 0.0045607 0.0133927
709000000 0.0038727 0.0144380 0.9961273 -0.0144380 0.9961273 -0.0144380 0.0038727 0.0144380
730000000 0.0034940 0.0155621 0.9965060 -0.0155621 0.9965060 -0.0155621 0.0034940 0.0155621
751000000 0.0033162 0.0166780 0.9966838 -0.0166780 0.9966838 -0.0166780 0.0033162 0.0166780
772000000 0.0032714 0.0177643 0.9967286 -0.0177643 0.9967286 -0.0177643 0.0032714 0.0177643
793000000 0.0033219 0.0188202 0.9966781 -0.0188202 0.9966781 -0.0188202 0.0033219 0.0188202
814000000 0.0034484 0.0198496 0.9965516 -0.0198496 0.9965516 -0.0198496 0.0034484 0.0198496
835000000 0.0036424 0.0208566 0.9963576 -0.0208566 0.9963576 -0.0208566 0.0036424 0.0208566
856000000 0.0039028 0.0218429 0.9960972 -0.0218429 0.9960972 -0.0218429 0.0039028 0.0218429
877000000 0.0042332 0.0228074 0.9957668 -0.0228074 0.9957668 -0.0228074 0.0042332 0.0228074
898000000 0.0046413 0.0237441 0.9953587 -0.0237441 0.9953587 -0.0237441 0.0046413 0.0237441
919000000 0.0051370 0.0246411 0.9948630 -0.0246411 0.9948630 -0.0246411 0.0051370 0.0246411
940000000 0.0057306 0.0254772 0.9942694 -0.0254772 0.9942694 -0.0254772 0.0057306 0.0254772
961000000 0.0064284 0.0262199 0.9935716 -0.0262199 0.9935716 -0.0262199 0.0064284 0.0262199
982000000 0.0072252 0.0268231 0.9927748 -0.0268231 0.9927748 -0.0268231 0.0072252 0.0268231
1003000000 0.0080932 0.0272303 0.9919068 -0.0272303 0.9919068 -0.0272303 0.0080932 0.0272303
1024000000 0.0089684 0.0273868 0.9910316 -0.0273868 0.9910316 -0.0273868 0.0089684 0.0273868
1045000000 0.0097459 0.0272662 0.9902541 -0.0272662 0.9902541 -0.0272662 0.0097459 0.0272662
1066000000 0.0102983 0.0269036 0.9897017 -0.0269036 0.9897017 -0.0269036 0.0102983 0.0269036
1087000000 0.0105235 0.0264104 0.9894765 -0.0264104 0.9894765 -0.0264104 0.0105235 0.0264104
1108000000 0.0103969 0.0259440 0.9896031 -0.0259440 0.9896031 -0.0259440 0.0103969 0.0259440
1129000000 0.0099836 0.0256446 0.9900164 -0.0256446 0.9900164 -0.0256446 0.0099836 0.0256446
1150000000 0.0094000 0.0255857 0.9906000 -0.0255857 0.9906000 -0.0255857 0.0094000 0.0255857
1171000000 0.0087609 0.0257711 0.9912391 -0.0257711 0.9912391 -0.0257711 0.0087609 0.0257711
1192000000 0.0081477 0.0261614 0.9918523 -0.0261614 0.9918523 -0.0261614 0.0081477 0.0261614
1213000000 0.0076048 0.0267035 0.9923952 -0.0267035 0.9923952 -0.0267035 0.0076048 0.0267035
1234000000 0.0071487 0.0273486 0.9928513 -0.0273486 0.9928513 -0.0273486 0.0071487 0.0273486
1255000000 0.0067794 0.0280586 0.9932206 -0.0280586 0.9932206 -0.0280586 0.0067794 0.0280586
1276000000 0.0064897 0.0288063 0.9935103 -0.0288063 0.9935103 -0.0288063 0.0064897 0.0288063
1297000000 0.0062692 0.0295731 0.9937308 -0.0295731 0.9937308 -0.0295731 0.0062692 0.0295731
1318000000 0.0061078 0.0303470 0.9938922 -0.0303470 0.9938922 -0.0303470 0.0061078 0.0303470
1339000000 0.0059962 0.0311204 0.9940038 -0.0311204 0.9940038 -0.0311204 0.0059962 0.0311204
1360000000 0.0059263 0.0318885 0.9940737 -0.0318885 0.9940737 -0.0318885 0.0059263 0.0318885
1381000000 0.0058918 0.0326484 0.9941082 -0.0326484 0.9941082 -0.0326484 0.0058918 0.0326484
1402000000 0.0058870 0.0333985 0.9941130 -0.0333985 0.9941130 -0.0333985 0.0058870 0.0333985
1423000000 0.0059078 0.0341377 0.9940922 -0.0341377 0.9940922 -0.0341377 0.0059078 0.0341377
1444000000 0.0059504 0.0348658 0.9940496 -0.0348658 0.9940496 -0.0348658 0.0059504 0.0348658
1465000000 0.0060119 0.0355823 0.9939881 -0.0355823 0.9939881 -0.0355823 0.0060119 0.0355823
1486000000 0.0060899 0.0362873 0.9939101 -0.0362873 0.9939101 -0.0362873 0.0060899 0.0362873
1507000000 0.0061824 0.0369807 0.9938176 -0.0369807 0.9938176 -0.0369807 0.0061824 0.0369807
1528000000 0.0062876 0.0376626 0.9937124 -0.0376626 0.9937124 -0.0376626 0.0062876 0.0376626
1549000000 0.0064042 0.0383330 0.9935958 -0.0383330 0.9935958 -0.0383330 0.0064042 0.0383330
1570000000 0.0065306 0.0389919 0.9934694 -0.0389919 0.9934694 -0.0389919 0.0065306 0.0389919
1591000000 0.0066658 0.0396393 0.9933342 -0.0396393 0.9933342 -0.0396393 0.0066658 0.0396393
1612000000 0.0068087 0.0402752 0.9931913 -0.0402752 0.9931913 -0.0402752 0.0068087 0.0402752
1633000000 0.0069581 0.0408995 0.9930419 -0.0408995 0.9930419 -0.0408995 0.0069581 0.0408995
1654000000 0.0071130 0.0415122 0.9928870 -0.0415122 0.9928870 -0.0415122 0.0071130 0.0415122
1675000000 0.0072724 0.0421131 0.9927276 -0.0421131 0.9927276 -0.0421131 0.0072724 0.0421131
1696000000 0.0074353 0.0427024 0.9925647 -0.0427024 0.9925647 -0.0427024 0.0074353 0.0427024
1717000000 0.0076005 0.0432801 0.9923995 -0.0432801 0.9923995 -0.0432801 0.0076005 0.0432801
1738000000 0.0077671 0.0438462 0.9922329 -0.0438462 0.9922329 -0.0438462 0.0077671 0.0438462
1759000000 0.0079339 0.0444008 0.9920661 -0.0444008 0.9920661 -0.0444008 0.0079339 0.0444008
1780000000 0.0080998 0.0449444 0.9919002 -0.0449444 0.9919002 -0.0449444 0.0080998 0.0449444
1801000000 0.0082638 0.0454771 0.9917362 -0.0454771 0.9917362 -0.0454771 0.0082638 0.0454771
1822000000 0.0084247 0.0459995 0.9915753 -0.0459995 0.9915753 -0.0459995 0.0084247 0.0459995
1843000000 0.0085816 0.0465122 0.9914184 -0.0465122 0.9914184 -0.0465122 0.0085816 0.0465122
1864000000 0.0087334 0.0470159 0.9912666 -0.0470159 0.9912666 -0.0470159 0.0087334 0.0470159
1885000000 0.0088793 0.0475115 0.9911207 -0.0475115 0.9911207 -0.0475115 0.0088793 0.0475115
1906000000 0.0090184 0.0479998 0.9909816 -0.0479998 0.9909816 -0.0479998 0.0090184 0.0479998
1927000000 0.0091501 0.0484819 0.9908499 -0.0484819 0.9908499 -0.0484819 0.0091501 0.0484819
1948000000 0.0092739 0.0489590 0.9907261 -0.0489590 0.9907261 -0.0489590 0.0092739 0.0489590
1969000000 0.0093894 0.0494321 0.9906106 -0.0494321 0.9906106 -0.0494321 0.0093894 0.0494321
1990000000 0.0094965 0.0499026 0.9905035 -0.0499026 0.9905035 -0.0499026 0.0094965 0.0499026
2011000000 0.0095950 0.0503715 0.9904050 -0.0503715 0.9904050 -0.0503715 0.0095950 0.0503715
2032000000 0.0096851 0.0508401 0.9903149 -0.0508401 0.9903149 -0.0508401 0.0096851 0.0508401
2053000000 0.0097671 0.0513094 0.9902329 -0.0513094 0.9902329 -0.0513094 0.0097671 0.0513094
2074000000 0.0098414 0.0517804 0.9901586 -0.0517804 0.9901586 -0.0517804 0.0098414 0.0517804
2095000000 0.0099085 0.0522540 0.9900915 -0.0522540 0.9900915 -0.0522540 0.0099085 0.0522540
2116000000 0.0099691 0.0527311 0.9900309 -0.0527311 0.9900309 -0.0527311 0.0099691 0.0527311
2137000000 0.0100239 0.0532124 0.9899761 -0.0532124 0.9899761 -0.0532124 0.0100239 0.0532124
2158000000 0.0100735 0.0536983 0.9899265 -0.0536983 0.9899265 -0.0536983 0.0100735 0.0536983
2179000000 0.0101188 0.0541893 0.9898812 -0.0541893 0.9898812 -0.0541893 0.0101188 0.0541893
2200000000 0.0101606 0.0546857 0.9898394 -0.0546857 0.9898394 -0.0546857 0.0101606 0.0546857
2221000000 0.0101995 0.0551876 0.9898005 -0.0551876 0.9898005 -0.0551876 0.0101995 0.0551876
2242000000 0.0102364 0.0556953 0.9897636 -0.0556953 0.9897636 -0.0556953 0.0102364 0.0556953
2263000000 0.0102719 0.0562086 0.9897281 -0.0562086 0.9897281 -0.0562086 0.0102719 0.0562086
2284000000 0.0103066 0.0567275 0.9896934 -0.0567275 0.9896934 -0.0567275 0.0103066 0.0567275
2305000000 0.0103412 0.0572519 0.9896588 -0.0572519 0.9896588 -0.0572519 0.0103412 0.0572519
2326000000 0.0103761 0.0577816 0.9896239 -0.0577816 0.9896239 -0.0577816 0.0103761 0.0577816
2347000000 0.0104120 0.0583163 0.9895880 -0.0583163 0.9895880 -0.0583163 0.0104120 0.0583163
2368000000 0.0104490 0.0588557 0.9895510 -0.0588557 0.9895510 -0.0588557 0.0104490 0.0588557
2389000000 0.0104877 0.0593997 0.9895123 -0.0593997 0.9895123 -0.0593997 0.0104877 0.0593997
2410000000 0.0105283 0.0599478 0.9894717 -0.0599478 0.9894717 -0.0599478 0.0105283 0.0599478
2431000000 0.0105710 0.0604998 0.9894290 -0.0604998 0.9894290 -0.0604998 0.0105710 0.0604998
2452000000 0.0106161 0.0610555 0.9893839 -0.0610555 0.9893839 -0.0610555 0.0106161 0.0610555
2473000000 0.0106637 0.0616144 0.9893363 -0.0616144 0.9893363 -0.0616144 0.0106637 0.0616144
2494000000 0.0107140 0.0621764 0.9892860 -0.0621764 0.9892860 -0.0621764 0.0107140 0.0621764
2515000000 0.0107670 0.0627411 0.9892330 -0.0627411 0.9892330 -0.0627411 0.0107670 0.0627411
2536000000 0.0108229 0.0633084 0.9891771 -0.0633084 0.9891771 -0.0633084 0.0108229 0.0633084
2557000000 0.0108816 0.0638779 0.9891184 -0.0638779 0.9891184 -0.0638779 0.0108816 0.0638779
2578000000 0.0109432 0.0644494 0.9890568 -0.0644494 0.9890568 -0.0644494 0.0109432 0.0644494
2599000000 0.0110076 0.0650227 0.9889924 -0.0650227 0.9889924 -0.0650227 0.0110076 0.0650227
2620000000 0.0110749 0.0655977 0.9889251 -0.0655977 0.9889251 -0.0655977 0.0110749 0.0655977
2641000000 0.0111451 0.0661741 0.9888549 -0.0661741 0.9888549 -0.0661741 0.0111451 0.0661741
2662000000 0.0112180 0.0667518 0.9887820 -0.0667518 0.9887820 -0.0667518 0.0112180 0.0667518
2683000000 0.0112937 0.0673306 0.9887063 -0.0673306 0.9887063 -0.0673306 0.0112937 0.0673306
2704000000 0.0113721 0.0679105 0.9886279 -0.0679105 0.9886279 -0.0679105 0.0113721 0.0679105
2725000000 0.0114532 0.0684911 0.9885468 -0.0684911 0.9885468 -0.0684911 0.0114532 0.0684911
2746000000 0.0115369 0.0690726 0.9884631 -0.0690726 0.9884631 -0.0690726 0.0115369 0.0690726
2767000000 0.0116230 0.0696547 0.9883770 -0.0696547 0.9883770 -0.0696547 0.0116230 0.0696547
2788000000 0.0117117 0.0702374 0.9882883 -0.0702374 0.9882883 -0.0702374 0.0117117 0.0702374
2809000000 0.0118027 0.0708206 0.9881973 -0.0708206 0.9881973 -0.0708206 0.0118027 0.0708206
2830000000 0.0118961 0.0714042 0.9881039 -0.0714042 0.9881039 -0.0714042 0.0118961 0.0714042
2851000000 0.0119918 0.0719882 0.9880082 -0.0719882 0.9880082 -0.0719882 0.0119918 0.0719882
2872000000 0.0120897 0.0725725 0.9879103 -0.0725725 0.9879103 -0.0725725 0.0120897 0.0725725
2893000000 0.0121897 0.0731571 0.9878103 -0.0731571 0.9878103 -0.0731571 0.0121897 0.0731571
2914000000 0.0122918 0.0737418 0.9877082 -0.0737418 0.9877082 -0.0737418 0.0122918 0.0737418
2935000000 0.0123960 0.0743268 0.9876040 -0.0743268 0.9876040 -0.0743268 0.0123960 0.0743268
2956000000 0.0125021 0.0749119 0.9874979 -0.0749119 0.9874979 -0.0749119 0.0125021 0.0749119
2977000000 0.0126102 0.0754971 0.9873898 -0.0754971 0.9873898 -0.0754971 0.0126102 0.0754971
2998000000 0.0127201 0.0760825 0.9872799 -0.0760825 0.9872799 -0.0760825 0.0127201 0.0760825
3019000000 0.0128318 0.0766679 0.9871682 -0.0766679 0.9871682 -0.0766679 0.0128318 0.0766679
3040000000 0.0129453 0.0772534 0.9870547 -0.0772534 0.9870547 -0.0772534 0.0129453 0.0772534
3061000000 0.0130605 0.0778390 0.9869395 -0.0778390 0.9869395 -0.0778390 0.0130605 0.0778390
3082000000 0.0131774 0.0784247 0.9868226 -0.0784247 0.9868226 -0.0784247 0.0131774 0.0784247
3103000000 0.0132960 0.0790104 0.9867040 -0.0790104 0.9867040 -0.0790104 0.0132960 0.0790104
3124000000 0.0134161 0.0795961 0.9865839 -0.0795961 0.9865839 -0.0795961 0.0134161 0.0795961
3145000000 0.0135377 0.0801819 0.9864623 -0.0801819 0.9864623 -0.0801819 0.0135377 0.0801819
3166000000 0.0136609 0.0807678 0.9863391 -0.0807678 0.9863391 -0.0807678 0.0136609 0.0807678
3187000000 0.0137855 0.0813537 0.9862145 -0.0813537 0.9862145 -0.0813537 0.0137855 0.0813537
3208000000 0.0139116 0.0819397 0.9860884 -0.0819397 0.9860884 -0.0819397 0.0139116 0.0819397
3229000000 0.0140391 0.0825258 0.9859609 -0.0825258 0.9859609 -0.0825258 0.0140391 0.0825258
3250000000 0.0141680 0.0831119 0.9858320 -0.0831119 0.9858320 -0.0831119 0.0141680 0.0831119
3271000000 0.0142983 0.0836982 0.9857017 -0.0836982 0.9857017 -0.0836982 0.0142983 0.0836982
3292000000 0.0144298 0.0842845 0.9855702 -0.0842845 0.9855702 -0.0842845 0.0144298 0.0842845
3313000000 0.0145627 0.0848710 0.9854373 -0.0848710 0.9854373 -0.0848710 0.0145627 0.0848710
3334000000 0.0146968 0.0854576 0.9853032 -0.0854576 0.9853032 -0.0854576 0.0146968 0.0854576
3355000000 0.0148322 0.0860443 0.9851678 -0.0860443 0.9851678 -0.0860443 0.0148322 0.0860443
3376000000 0.0149688 0.0866311 0.9850312 -0.0866311 0.9850312 -0.0866311 0.0149688 0.0866311
3397000000 0.0151066 0.0872182 0.9848934 -0.0872182 0.9848934 -0.0872182 0.0151066 0.0872182
3418000000 0.0152456 0.0878054 0.9847544 -0.0878054 0.9847544 -0.0878054 0.0152456 0.0878054
3439000000 0.0153857 0.0883928 0.9846143 -0.0883928 0.9846143 -0.0883928 0.0153857 0.0883928
3460000000 0.0155270 0.0889804 0.9844730 -0.0889804 0.9844730 -0.0889804 0.0155270 0.0889804
3481000000 0.0156695 0.0895683 0.9843305 -0.0895683 0.9843305 -0.0895683 0.0156695 0.0895683
3502000000 0.0158131 0.0901564 0.9841869 -0.0901564 0.9841869 -0.0901564 0.0158131 0.0901564
3523000000 0.0159577 0.0907447 0.9840423 -0.0907447 0.9840423 -0.0907447 0.0159577 0.0907447
3544000000 0.0161035 0.0913334 0.9838965 -0.0913334 0.9838965 -0.0913334 0.0161035 0.0913334
3565000000 0.0162504 0.0919223 0.9837496 -0.0919223 0.9837496 -0.0919223 0.0162504 0.0919223
3586000000 0.0163983 0.0925116 0.9836017 -0.0925116 0.9836017 -0.0925116 0.0163983 0.0925116
3607000000 0.0165473 0.0931012 0.9834527 -0.0931012 0.9834527 -0.0931012 0.0165473 0.0931012
3628000000 0.0166973 0.0936911 0.9833027 -0.0936911 0.9833027 -0.0936911 0.0166973 0.0936911
3649000000 0.0168484 0.0942814 0.9831516 -0.0942814 0.9831516 -0.0942814 0.0168484 0.0942814
3670000000 0.0170005 0.0948721 0.9829995 -0.0948721 0.9829995 -0.0948721 0.0170005 0.0948721
3691000000 0.0171536 0.0954632 0.9828464 -0.0954632 0.9828464 -0.0954632 0.0171536 0.0954632
3712000000 0.0173077 0.0960548 0.9826923 -0.0960548 0.9826923 -0.0960548 0.0173077 0.0960548
3733000000 0.0174629 0.0966468 0.9825371 -0.0966468 0.9825371 -0.0966468 0.0174629 0.0966468
3754000000 0.0176190 0.0972392 0.9823810 -0.0972392 0.9823810 -0.0972392 0.0176190 0.0972392
3775000000 0.0177762 0.0978321 0.9822238 -0.0978321 0.9822238 -0.0978321 0.0177762 0.0978321
3796000000 0.0179343 0.0984256 0.9820657 -0.0984256 0.9820657 -0.0984256 0.0179343 0.0984256
3817000000 0.0180934 0.0990196 0.9819066 -0.0990196 0.9819066 -0.0990196 0.0180934 0.0990196
3838000000 0.0182536 0.0996141 0.9817464 -0.0996141 0.9817464 -0.0996141 0.0182536 0.0996141
3859000000 0.0184147 0.1002092 0.9815853 -0.1002092 0.9815853 -0.1002092 0.0184147 0.1002092
3880000000 0.0185767 0.1008048 0.9814233 -0.1008048 0.9814233 -0.1008048 0.0185767 0.1008048
3901000000 0.0187398 0.1014011 0.9812602 -0.1014011 0.9812602 -0.1014011 0.0187398 0.1014011
3922000000 0.0189039 0.1019980 0.9810961 -0.1019980 0.9810961 -0.1019980 0.0189039 0.1019980
3943000000 0.0190689 0.1025955 0.9809311 -0.1025955 0.9809311 -0.1025955 0.0190689 0.1025955
3964000000 0.0192349 0.1031937 0.9807651 -0.1031937 0.9807651 -0.1031937 0.0192349 0.1031937
3985000000 0.0194018 0.1037926 0.9805982 -0.1037926 0.9805982 -0.1037926 0.0194018 0.1037926
4006000000 0.0195698 0.1043922 0.9804302 -0.1043922 0.9804302 -0.1043922 0.0195698 0.1043922
4027000000 0.0197387 0.1049925 0.9802613 -0.1049925 0.9802613 -0.1049925 0.0197387 0.1049925
4048000000 0.0199086 0.1055936 0.9800914 -0.1055936 0.9800914 -0.1055936 0.0199086 0.1055936
4069000000 0.0200795 0.1061954 0.9799205 -0.1061954 0.9799205 -0.1061954 0.0200795 0.1061954
4090000000 0.0202514 0.1067980 0.9797486 -0.1067980 0.9797486 -0.1067980 0.0202514 0.1067980
4111000000 0.0204242 0.1074015 0.9795758 -0.1074015 0.9795758 -0.1074015 0.0204242 0.1074015
4132000000 0.0205980 0.1080057 0.9794020 -0.1080057 0.9794020 -0.1080057 0.0205980 0.1080057
4153000000 0.0207729 0.1086108 0.9792271 -0.1086108 0.9792271 -0.1086108 0.0207729 0.1086108
4174000000 0.0209487 0.1092168 0.9790513 -0.1092168 0.9790513 -0.1092168 0.0209487 0.1092168
4195000000 0.0211255 0.1098237 0.9788745 -0.1098237 0.9788745 -0.1098237 0.0211255 0.1098237
4216000000 0.0213033 0.1104315 0.9786967 -0.1104315 0.9786967 -0.1104315 0.0213033 0.1104315
4237000000 0.0214821 0.1110402 0.9785179 -0.1110402 0.9785179 -0.1110402 0.0214821 0.1110402
4258000000 0.0216620 0.1116499 0.9783380 -0.1116499 0.9783380 -0.1116499 0.0216620 0.1116499
4279000000 0.0218428 0.1122606 0.9781572 -0.1122606 0.9781572 -0.1122606 0.0218428 0.1122606
4300000000 0.0220247 0.1128723 0.9779753 -0.1128723 0.9779753 -0.1128723 0.0220247 0.1128723
4321000000 0.0222076 0.1134849 0.9777924 -0.1134849 0.9777924 -0.1134849 0.0222076 0.1134849
4342000000 0.0223915 0.1140987 0.9776085 -0.1140987 0.9776085 -0.1140987 0.0223915 0.1140987
4363000000 0.0225764 0.1147135 0.9774236 -0.1147135 0.9774236 -0.1147135 0.0225764 0.1147135
4384000000 0.0227625 0.1153294 0.9772375 -0.1153294 0.9772375 -0.1153294 0.0227625 0.1153294
4405000000 0.0229495 0.1159464 0.9770505 -0.1159464 0.9770505 -0.1159464 0.0229495 0.1159464
4426000000 0.0231376 0.1165645 0.9768624 -0.1165645 0.9768624 -0.1165645 0.0231376 0.1165645
4447000000 0.0233268 0.1171838 0.9766732 -0.1171838 0.9766732 -0.1171838 0.0233268 0.1171838
4468000000 0.0235171 0.1178042 0.9764829 -0.1178042 0.9764829 -0.1178042 0.0235171 0.1178042
4489000000 0.0237084 0.1184259 0.9762916 -0.1184259 0.9762916 -0.1184259 0.0237084 0.1184259
4510000000 0.0239009 0.1190488 0.9760991 -0.1190488 0.9760991 -0.1190488 0.0239009 0.1190488
