!Murata Part Number: GRM1857U1H332JA44
!These Parameters are Measured in Series Mode Connection
!Data Generated on Mar 30, 2021
!       o--ll--o
!Port1            Port2
!       o------o
!Operation Temp=25[degC], DC Bias Voltage=0[V]
!Freq. Start=1000[kHz] Stop=6[GHz] 401[Steps]
# Hz S RI R 50
!Freq.(Hz) S11(Real) S11(Imag) S21(Real) S21(Imag) S12(Real) S12(Imag) S22(Real) S22(Imag)
1000000 0.1890125 -0.3913126 0.8109875 0.3913126 0.8109875 0.3913126 0.1890125 -0.3913126
1021987 0.1824397 -0.3859960 0.8175603 0.3859960 0.8175603 0.3859960 0.1824397 -0.3859960
1044457 0.1760460 -0.3806441 0.8239540 0.3806441 0.8239540 0.3806441 0.1760460 -0.3806441
1067422 0.1698300 -0.3752635 0.8301700 0.3752635 0.8301700 0.3752635 0.1698300 -0.3752635
1090891 0.1637901 -0.3698603 0.8362099 0.3698603 0.8362099 0.3698603 0.1637901 -0.3698603
1114877 0.1579244 -0.3644404 0.8420756 0.3644404 0.8420756 0.3644404 0.1579244 -0.3644404
1139390 0.1522306 -0.3590096 0.8477694 0.3590096 0.8477694 0.3590096 0.1522306 -0.3590096
1164441 0.1467067 -0.3535734 0.8532933 0.3535734 0.8532933 0.3535734 0.1467067 -0.3535734
1190044 0.1413500 -0.3481370 0.8586500 0.3481370 0.8586500 0.3481370 0.1413500 -0.3481370
1216210 0.1361578 -0.3427056 0.8638422 0.3427056 0.8638422 0.3427056 0.1361578 -0.3427056
1242950 0.1311276 -0.3372837 0.8688724 0.3372837 0.8688724 0.3372837 0.1311276 -0.3372837
1270279 0.1262562 -0.3318761 0.8737438 0.3318761 0.8737438 0.3318761 0.1262562 -0.3318761
1298209 0.1215407 -0.3264871 0.8784593 0.3264871 0.8784593 0.3264871 0.1215407 -0.3264871
1326753 0.1169780 -0.3211207 0.8830220 0.3211207 0.8830220 0.3211207 0.1169780 -0.3211207
1355924 0.1125648 -0.3157807 0.8874352 0.3157807 0.8874352 0.3157807 0.1125648 -0.3157807
1385737 0.1082980 -0.3104709 0.8917020 0.3104709 0.8917020 0.3104709 0.1082980 -0.3104709
1416205 0.1041742 -0.3051945 0.8958258 0.3051945 0.8958258 0.3051945 0.1041742 -0.3051945
1447343 0.1001900 -0.2999549 0.8998100 0.2999549 0.8998100 0.2999549 0.1001900 -0.2999549
1479166 0.0963420 -0.2947549 0.9036580 0.2947549 0.9036580 0.2947549 0.0963420 -0.2947549
1511688 0.0926269 -0.2895973 0.9073731 0.2895973 0.9073731 0.2895973 0.0926269 -0.2895973
1544926 0.0890411 -0.2844847 0.9109589 0.2844847 0.9109589 0.2844847 0.0890411 -0.2844847
1578894 0.0855813 -0.2794194 0.9144187 0.2794194 0.9144187 0.2794194 0.0855813 -0.2794194
1613609 0.0822441 -0.2744037 0.9177559 0.2744037 0.9177559 0.2744037 0.0822441 -0.2744037
1649087 0.0790260 -0.2694395 0.9209740 0.2694395 0.9209740 0.2694395 0.0790260 -0.2694395
1685346 0.0759237 -0.2645286 0.9240763 0.2645286 0.9240763 0.2645286 0.0759237 -0.2645286
1722402 0.0729338 -0.2596728 0.9270662 0.2596728 0.9270662 0.2596728 0.0729338 -0.2596728
1760272 0.0700530 -0.2548734 0.9299470 0.2548734 0.9299470 0.2548734 0.0700530 -0.2548734
1798975 0.0672779 -0.2501319 0.9327221 0.2501319 0.9327221 0.2501319 0.0672779 -0.2501319
1838529 0.0646055 -0.2454493 0.9353945 0.2454493 0.9353945 0.2454493 0.0646055 -0.2454493
1878953 0.0620323 -0.2408269 0.9379677 0.2408269 0.9379677 0.2408269 0.0620323 -0.2408269
1920266 0.0595554 -0.2362654 0.9404446 0.2362654 0.9404446 0.2362654 0.0595554 -0.2362654
1962487 0.0571717 -0.2317657 0.9428283 0.2317657 0.9428283 0.2317657 0.0571717 -0.2317657
2005636 0.0548781 -0.2273285 0.9451219 0.2273285 0.9451219 0.2273285 0.0548781 -0.2273285
2049734 0.0526716 -0.2229543 0.9473284 0.2229543 0.9473284 0.2229543 0.0526716 -0.2229543
2094801 0.0505493 -0.2186435 0.9494507 0.2186435 0.9494507 0.2186435 0.0505493 -0.2186435
2140860 0.0485085 -0.2143966 0.9514915 0.2143966 0.9514915 0.2143966 0.0485085 -0.2143966
2187931 0.0465463 -0.2102137 0.9534537 0.2102137 0.9534537 0.2102137 0.0465463 -0.2102137
2236037 0.0446600 -0.2060950 0.9553400 0.2060950 0.9553400 0.2060950 0.0446600 -0.2060950
2285201 0.0428470 -0.2020407 0.9571530 0.2020407 0.9571530 0.2020407 0.0428470 -0.2020407
2335446 0.0411048 -0.1980506 0.9588952 0.1980506 0.9588952 0.1980506 0.0411048 -0.1980506
2386795 0.0394307 -0.1941248 0.9605693 0.1941248 0.9605693 0.1941248 0.0394307 -0.1941248
2439274 0.0378224 -0.1902631 0.9621776 0.1902631 0.9621776 0.1902631 0.0378224 -0.1902631
2492906 0.0362775 -0.1864653 0.9637225 0.1864653 0.9637225 0.1864653 0.0362775 -0.1864653
2547717 0.0347937 -0.1827310 0.9652063 0.1827310 0.9652063 0.1827310 0.0347937 -0.1827310
2603734 0.0333688 -0.1790601 0.9666312 0.1790601 0.9666312 0.1790601 0.0333688 -0.1790601
2660982 0.0320006 -0.1754521 0.9679994 0.1754521 0.9679994 0.1754521 0.0320006 -0.1754521
2719490 0.0306870 -0.1719067 0.9693130 0.1719067 0.9693130 0.1719067 0.0306870 -0.1719067
2779283 0.0294259 -0.1684232 0.9705741 0.1684232 0.9705741 0.1684232 0.0294259 -0.1684232
2840391 0.0282155 -0.1650014 0.9717845 0.1650014 0.9717845 0.1650014 0.0282155 -0.1650014
2902843 0.0270538 -0.1616405 0.9729462 0.1616405 0.9729462 0.1616405 0.0270538 -0.1616405
2966668 0.0259389 -0.1583401 0.9740611 0.1583401 0.9740611 0.1583401 0.0259389 -0.1583401
3031896 0.0248691 -0.1550995 0.9751309 0.1550995 0.9751309 0.1550995 0.0248691 -0.1550995
3098558 0.0238426 -0.1519181 0.9761574 0.1519181 0.9761574 0.1519181 0.0238426 -0.1519181
3166686 0.0228577 -0.1487953 0.9771423 0.1487953 0.9771423 0.1487953 0.0228577 -0.1487953
3236312 0.0219130 -0.1457304 0.9780870 0.1457304 0.9780870 0.1457304 0.0219130 -0.1457304
3307469 0.0210067 -0.1427226 0.9789933 0.1427226 0.9789933 0.1427226 0.0210067 -0.1427226
3380190 0.0201375 -0.1397713 0.9798625 0.1397713 0.9798625 0.1397713 0.0201375 -0.1397713
3454511 0.0193038 -0.1368758 0.9806962 0.1368758 0.9806962 0.1368758 0.0193038 -0.1368758
3530465 0.0185042 -0.1340353 0.9814958 0.1340353 0.9814958 0.1340353 0.0185042 -0.1340353
3608090 0.0177375 -0.1312491 0.9822625 0.1312491 0.9822625 0.1312491 0.0177375 -0.1312491
3687421 0.0170023 -0.1285163 0.9829977 0.1285163 0.9829977 0.1285163 0.0170023 -0.1285163
3768496 0.0162974 -0.1258363 0.9837026 0.1258363 0.9837026 0.1258363 0.0162974 -0.1258363
3851354 0.0156215 -0.1232082 0.9843785 0.1232082 0.9843785 0.1232082 0.0156215 -0.1232082
3936034 0.0149735 -0.1206314 0.9850265 0.1206314 0.9850265 0.1206314 0.0149735 -0.1206314
4022575 0.0143523 -0.1181049 0.9856477 0.1181049 0.9856477 0.1181049 0.0143523 -0.1181049
4111020 0.0137568 -0.1156280 0.9862432 0.1156280 0.9862432 0.1156280 0.0137568 -0.1156280
4201409 0.0131861 -0.1131999 0.9868139 0.1131999 0.9868139 0.1131999 0.0131861 -0.1131999
4293785 0.0126389 -0.1108199 0.9873611 0.1108199 0.9873611 0.1108199 0.0126389 -0.1108199
4388193 0.0121146 -0.1084871 0.9878854 0.1084871 0.9878854 0.1084871 0.0121146 -0.1084871
4484676 0.0116120 -0.1062008 0.9883880 0.1062008 0.9883880 0.1062008 0.0116120 -0.1062008
4583281 0.0111303 -0.1039602 0.9888697 0.1039602 0.9888697 0.1039602 0.0111303 -0.1039602
4684054 0.0106687 -0.1017644 0.9893313 0.1017644 0.9893313 0.1017644 0.0106687 -0.1017644
4787042 0.0102264 -0.0996128 0.9897736 0.0996128 0.9897736 0.0996128 0.0102264 -0.0996128
4892295 0.0098025 -0.0975046 0.9901975 0.0975046 0.9901975 0.0975046 0.0098025 -0.0975046
4999862 0.0093964 -0.0954389 0.9906036 0.0954389 0.9906036 0.0954389 0.0093964 -0.0954389
5109794 0.0090072 -0.0934151 0.9909928 0.0934151 0.9909928 0.0934151 0.0090072 -0.0934151
5222143 0.0086343 -0.0914324 0.9913657 0.0914324 0.9913657 0.0914324 0.0086343 -0.0914324
5336962 0.0082771 -0.0894900 0.9917229 0.0894900 0.9917229 0.0894900 0.0082771 -0.0894900
5454306 0.0079348 -0.0875872 0.9920652 0.0875872 0.9920652 0.0875872 0.0079348 -0.0875872
5574230 0.0076068 -0.0857233 0.9923932 0.0857233 0.9923932 0.0857233 0.0076068 -0.0857233
5696791 0.0072927 -0.0838976 0.9927073 0.0838976 0.9927073 0.0838976 0.0072927 -0.0838976
5822046 0.0069917 -0.0821092 0.9930083 0.0821092 0.9930083 0.0821092 0.0069917 -0.0821092
5950055 0.0067034 -0.0803576 0.9932966 0.0803576 0.9932966 0.0803576 0.0067034 -0.0803576
6080879 0.0064272 -0.0786421 0.9935728 0.0786421 0.9935728 0.0786421 0.0064272 -0.0786421
6214580 0.0061627 -0.0769619 0.9938373 0.0769619 0.9938373 0.0769619 0.0061627 -0.0769619
6351220 0.0059093 -0.0753163 0.9940907 0.0753163 0.9940907 0.0753163 0.0059093 -0.0753163
6490864 0.0056665 -0.0737048 0.9943335 0.0737048 0.9943335 0.0737048 0.0056665 -0.0737048
6633579 0.0054340 -0.0721265 0.9945660 0.0721265 0.9945660 0.0721265 0.0054340 -0.0721265
6779431 0.0052114 -0.0705810 0.9947886 0.0705810 0.9947886 0.0705810 0.0052114 -0.0705810
6928491 0.0049981 -0.0690675 0.9950019 0.0690675 0.9950019 0.0690675 0.0049981 -0.0690675
7080828 0.0047938 -0.0675855 0.9952062 0.0675855 0.9952062 0.0675855 0.0047938 -0.0675855
7236514 0.0045982 -0.0661342 0.9954018 0.0661342 0.9954018 0.0661342 0.0045982 -0.0661342
7395623 0.0044108 -0.0647131 0.9955892 0.0647131 0.9955892 0.0647131 0.0044108 -0.0647131
7558231 0.0042314 -0.0633216 0.9957686 0.0633216 0.9957686 0.0633216 0.0042314 -0.0633216
7724414 0.0040596 -0.0619590 0.9959404 0.0619590 0.9959404 0.0619590 0.0040596 -0.0619590
7894251 0.0038950 -0.0606249 0.9961050 0.0606249 0.9961050 0.0606249 0.0038950 -0.0606249
8067822 0.0037375 -0.0593186 0.9962625 0.0593186 0.9962625 0.0593186 0.0037375 -0.0593186
8245209 0.0035866 -0.0580395 0.9964134 0.0580395 0.9964134 0.0580395 0.0035866 -0.0580395
8426497 0.0034421 -0.0567872 0.9965579 0.0567872 0.9965579 0.0567872 0.0034421 -0.0567872
8611770 0.0033037 -0.0555610 0.9966963 0.0555610 0.9966963 0.0555610 0.0033037 -0.0555610
8801117 0.0031713 -0.0543604 0.9968287 0.0543604 0.9968287 0.0543604 0.0031713 -0.0543604
8994628 0.0030445 -0.0531850 0.9969555 0.0531850 0.9969555 0.0531850 0.0030445 -0.0531850
9192393 0.0029230 -0.0520341 0.9970770 0.0520341 0.9970770 0.0520341 0.0029230 -0.0520341
9394506 0.0028068 -0.0509073 0.9971932 0.0509073 0.9971932 0.0509073 0.0028068 -0.0509073
9601063 0.0026955 -0.0498041 0.9973045 0.0498041 0.9973045 0.0498041 0.0026955 -0.0498041
9812162 0.0025889 -0.0487239 0.9974111 0.0487239 0.9974111 0.0487239 0.0025889 -0.0487239
10027902 0.0024869 -0.0476664 0.9975131 0.0476664 0.9975131 0.0476664 0.0024869 -0.0476664
10248386 0.0023893 -0.0466310 0.9976107 0.0466310 0.9976107 0.0466310 0.0023893 -0.0466310
10473717 0.0022958 -0.0456173 0.9977042 0.0456173 0.9977042 0.0456173 0.0022958 -0.0456173
10704003 0.0022063 -0.0446248 0.9977937 0.0446248 0.9977937 0.0446248 0.0022063 -0.0446248
10939352 0.0021207 -0.0436531 0.9978793 0.0436531 0.9978793 0.0436531 0.0021207 -0.0436531
11179876 0.0020387 -0.0427017 0.9979613 0.0427017 0.9979613 0.0427017 0.0020387 -0.0427017
11425688 0.0019603 -0.0417703 0.9980397 0.0417703 0.9980397 0.0417703 0.0019603 -0.0417703
11676904 0.0018852 -0.0408583 0.9981148 0.0408583 0.9981148 0.0408583 0.0018852 -0.0408583
11933645 0.0018134 -0.0399654 0.9981866 0.0399654 0.9981866 0.0399654 0.0018134 -0.0399654
12196030 0.0017446 -0.0390911 0.9982554 0.0390911 0.9982554 0.0390911 0.0017446 -0.0390911
12464184 0.0016789 -0.0382351 0.9983211 0.0382351 0.9983211 0.0382351 0.0016789 -0.0382351
12738235 0.0016159 -0.0373970 0.9983841 0.0373970 0.9983841 0.0373970 0.0016159 -0.0373970
13018310 0.0015557 -0.0365764 0.9984443 0.0365764 0.9984443 0.0365764 0.0015557 -0.0365764
13304544 0.0014981 -0.0357729 0.9985019 0.0357729 0.9985019 0.0357729 0.0014981 -0.0357729
13597071 0.0014431 -0.0349862 0.9985569 0.0349862 0.9985569 0.0349862 0.0014431 -0.0349862
13896030 0.0013904 -0.0342159 0.9986096 0.0342159 0.9986096 0.0342159 0.0013904 -0.0342159
14201563 0.0013400 -0.0334616 0.9986600 0.0334616 0.9986600 0.0334616 0.0013400 -0.0334616
14513813 0.0012918 -0.0327230 0.9987082 0.0327230 0.9987082 0.0327230 0.0012918 -0.0327230
14832928 0.0012457 -0.0319998 0.9987543 0.0319998 0.9987543 0.0319998 0.0012457 -0.0319998
15159060 0.0012017 -0.0312916 0.9987983 0.0312916 0.9987983 0.0312916 0.0012017 -0.0312916
15492362 0.0011596 -0.0305981 0.9988404 0.0305981 0.9988404 0.0305981 0.0011596 -0.0305981
15832993 0.0011194 -0.0299190 0.9988806 0.0299190 0.9988806 0.0299190 0.0011194 -0.0299190
16181113 0.0010809 -0.0292540 0.9989191 0.0292540 0.9989191 0.0292540 0.0010809 -0.0292540
16536888 0.0010442 -0.0286027 0.9989558 0.0286027 0.9989558 0.0286027 0.0010442 -0.0286027
16900485 0.0010091 -0.0279649 0.9989909 0.0279649 0.9989909 0.0279649 0.0010091 -0.0279649
17272076 0.0009756 -0.0273403 0.9990244 0.0273403 0.9990244 0.0273403 0.0009756 -0.0273403
17651837 0.0009436 -0.0267285 0.9990564 0.0267285 0.9990564 0.0267285 0.0009436 -0.0267285
18039948 0.0009130 -0.0261294 0.9990870 0.0261294 0.9990870 0.0261294 0.0009130 -0.0261294
18436593 0.0008838 -0.0255425 0.9991162 0.0255425 0.9991162 0.0255425 0.0008838 -0.0255425
18841959 0.0008560 -0.0249677 0.9991440 0.0249677 0.9991440 0.0249677 0.0008560 -0.0249677
19256237 0.0008295 -0.0244047 0.9991705 0.0244047 0.9991705 0.0244047 0.0008295 -0.0244047
19679624 0.0008041 -0.0238532 0.9991959 0.0238532 0.9991959 0.0238532 0.0008041 -0.0238532
20112321 0.0007800 -0.0233130 0.9992200 0.0233130 0.9992200 0.0233130 0.0007800 -0.0233130
20554530 0.0007570 -0.0227838 0.9992430 0.0227838 0.9992430 0.0227838 0.0007570 -0.0227838
21006463 0.0007350 -0.0222653 0.9992650 0.0222653 0.9992650 0.0222653 0.0007350 -0.0222653
21468333 0.0007142 -0.0217574 0.9992858 0.0217574 0.9992858 0.0217574 0.0007142 -0.0217574
21940357 0.0006943 -0.0212598 0.9993057 0.0212598 0.9993057 0.0212598 0.0006943 -0.0212598
22422760 0.0006753 -0.0207723 0.9993247 0.0207723 0.9993247 0.0207723 0.0006753 -0.0207723
22915770 0.0006573 -0.0202946 0.9993427 0.0202946 0.9993427 0.0202946 0.0006573 -0.0202946
23419619 0.0006402 -0.0198265 0.9993598 0.0198265 0.9993598 0.0198265 0.0006402 -0.0198265
23934547 0.0006240 -0.0193678 0.9993760 0.0193678 0.9993760 0.0193678 0.0006240 -0.0193678
24460796 0.0006085 -0.0189183 0.9993915 0.0189183 0.9993915 0.0189183 0.0006085 -0.0189183
24998616 0.0005938 -0.0184778 0.9994062 0.0184778 0.9994062 0.0184778 0.0005938 -0.0184778
25548261 0.0005799 -0.0180461 0.9994201 0.0180461 0.9994201 0.0180461 0.0005799 -0.0180461
26109991 0.0005667 -0.0176229 0.9994333 0.0176229 0.9994333 0.0176229 0.0005667 -0.0176229
26684072 0.0005542 -0.0172081 0.9994458 0.0172081 0.9994458 0.0172081 0.0005542 -0.0172081
27270775 0.0005424 -0.0168015 0.9994576 0.0168015 0.9994576 0.0168015 0.0005424 -0.0168015
27870378 0.0005312 -0.0164029 0.9994688 0.0164029 0.9994688 0.0164029 0.0005312 -0.0164029
28483164 0.0005207 -0.0160121 0.9994793 0.0160121 0.9994793 0.0160121 0.0005207 -0.0160121
29109424 0.0005107 -0.0156289 0.9994893 0.0156289 0.9994893 0.0156289 0.0005107 -0.0156289
29749453 0.0005013 -0.0152532 0.9994987 0.0152532 0.9994987 0.0152532 0.0005013 -0.0152532
30403555 0.0004924 -0.0148848 0.9995076 0.0148848 0.9995076 0.0148848 0.0004924 -0.0148848
31072038 0.0004841 -0.0145235 0.9995159 0.0145235 0.9995159 0.0145235 0.0004841 -0.0145235
31755220 0.0004763 -0.0141691 0.9995237 0.0141691 0.9995237 0.0141691 0.0004763 -0.0141691
32453422 0.0004689 -0.0138215 0.9995311 0.0138215 0.9995311 0.0138215 0.0004689 -0.0138215
33166976 0.0004621 -0.0134805 0.9995379 0.0134805 0.9995379 0.0134805 0.0004621 -0.0134805
33896219 0.0004556 -0.0131460 0.9995444 0.0131460 0.9995444 0.0131460 0.0004556 -0.0131460
34641496 0.0004496 -0.0128177 0.9995504 0.0128177 0.9995504 0.0128177 0.0004496 -0.0128177
35403159 0.0004440 -0.0124956 0.9995560 0.0124956 0.9995560 0.0124956 0.0004440 -0.0124956
36181569 0.0004388 -0.0121795 0.9995612 0.0121795 0.9995612 0.0121795 0.0004388 -0.0121795
36977093 0.0004340 -0.0118693 0.9995660 0.0118693 0.9995660 0.0118693 0.0004340 -0.0118693
37790109 0.0004296 -0.0115647 0.9995704 0.0115647 0.9995704 0.0115647 0.0004296 -0.0115647
38621001 0.0004255 -0.0112657 0.9995745 0.0112657 0.9995745 0.0112657 0.0004255 -0.0112657
39470161 0.0004217 -0.0109722 0.9995783 0.0109722 0.9995783 0.0109722 0.0004217 -0.0109722
40337993 0.0004182 -0.0106839 0.9995818 0.0106839 0.9995818 0.0106839 0.0004182 -0.0106839
41224905 0.0004151 -0.0104008 0.9995849 0.0104008 0.9995849 0.0104008 0.0004151 -0.0104008
42131317 0.0004123 -0.0101227 0.9995877 0.0101227 0.9995877 0.0101227 0.0004123 -0.0101227
43057659 0.0004097 -0.0098495 0.9995903 0.0098495 0.9995903 0.0098495 0.0004097 -0.0098495
44004369 0.0004074 -0.0095810 0.9995926 0.0095810 0.9995926 0.0095810 0.0004074 -0.0095810
44971893 0.0004054 -0.0093172 0.9995946 0.0093172 0.9995946 0.0093172 0.0004054 -0.0093172
45960691 0.0004036 -0.0090578 0.9995964 0.0090578 0.9995964 0.0090578 0.0004036 -0.0090578
46971230 0.0004020 -0.0088029 0.9995980 0.0088029 0.9995980 0.0088029 0.0004020 -0.0088029
48003987 0.0004007 -0.0085522 0.9995993 0.0085522 0.9995993 0.0085522 0.0004007 -0.0085522
49059451 0.0003996 -0.0083057 0.9996004 0.0083057 0.9996004 0.0083057 0.0003996 -0.0083057
50138122 0.0003988 -0.0080632 0.9996012 0.0080632 0.9996012 0.0080632 0.0003988 -0.0080632
51240510 0.0003981 -0.0078246 0.9996019 0.0078246 0.9996019 0.0078246 0.0003981 -0.0078246
52367136 0.0003976 -0.0075899 0.9996024 0.0075899 0.9996024 0.0075899 0.0003976 -0.0075899
53518533 0.0003973 -0.0073588 0.9996027 0.0073588 0.9996027 0.0073588 0.0003973 -0.0073588
54695245 0.0003972 -0.0071313 0.9996028 0.0071313 0.9996028 0.0071313 0.0003972 -0.0071313
55897831 0.0003972 -0.0069072 0.9996028 0.0069072 0.9996028 0.0069072 0.0003972 -0.0069072
57126857 0.0003974 -0.0066865 0.9996026 0.0066865 0.9996026 0.0066865 0.0003974 -0.0066865
58382906 0.0003978 -0.0064691 0.9996022 0.0064691 0.9996022 0.0064691 0.0003978 -0.0064691
59666572 0.0003983 -0.0062548 0.9996017 0.0062548 0.9996017 0.0062548 0.0003983 -0.0062548
60978462 0.0003990 -0.0060436 0.9996010 0.0060436 0.9996010 0.0060436 0.0003990 -0.0060436
62319196 0.0003998 -0.0058354 0.9996002 0.0058354 0.9996002 0.0058354 0.0003998 -0.0058354
63689409 0.0004007 -0.0056299 0.9995993 0.0056299 0.9995993 0.0056299 0.0004007 -0.0056299
65089750 0.0004018 -0.0054273 0.9995982 0.0054273 0.9995982 0.0054273 0.0004018 -0.0054273
66520879 0.0004031 -0.0052272 0.9995969 0.0052272 0.9995969 0.0052272 0.0004031 -0.0052272
67983474 0.0004044 -0.0050298 0.9995956 0.0050298 0.9995956 0.0050298 0.0004044 -0.0050298
69478228 0.0004059 -0.0048347 0.9995941 0.0048347 0.9995941 0.0048347 0.0004059 -0.0048347
71005847 0.0004075 -0.0046421 0.9995925 0.0046421 0.9995925 0.0046421 0.0004075 -0.0046421
72567054 0.0004092 -0.0044517 0.9995908 0.0044517 0.9995908 0.0044517 0.0004092 -0.0044517
74162587 0.0004110 -0.0042635 0.9995890 0.0042635 0.9995890 0.0042635 0.0004110 -0.0042635
75793201 0.0004130 -0.0040773 0.9995870 0.0040773 0.9995870 0.0040773 0.0004130 -0.0040773
77459667 0.0004151 -0.0038932 0.9995849 0.0038932 0.9995849 0.0038932 0.0004151 -0.0038932
79162774 0.0004173 -0.0037110 0.9995827 0.0037110 0.9995827 0.0037110 0.0004173 -0.0037110
80903327 0.0004196 -0.0035305 0.9995804 0.0035305 0.9995804 0.0035305 0.0004196 -0.0035305
82682150 0.0004220 -0.0033518 0.9995780 0.0033518 0.9995780 0.0033518 0.0004220 -0.0033518
84500083 0.0004245 -0.0031748 0.9995755 0.0031748 0.9995755 0.0031748 0.0004245 -0.0031748
86357988 0.0004272 -0.0029992 0.9995728 0.0029992 0.9995728 0.0029992 0.0004272 -0.0029992
88256743 0.0004300 -0.0028252 0.9995700 0.0028252 0.9995700 0.0028252 0.0004300 -0.0028252
90197245 0.0004329 -0.0026525 0.9995671 0.0026525 0.9995671 0.0026525 0.0004329 -0.0026525
92180413 0.0004360 -0.0024811 0.9995640 0.0024811 0.9995640 0.0024811 0.0004360 -0.0024811
94207185 0.0004392 -0.0023109 0.9995608 0.0023109 0.9995608 0.0023109 0.0004392 -0.0023109
96278520 0.0004425 -0.0021418 0.9995575 0.0021418 0.9995575 0.0021418 0.0004425 -0.0021418
98395398 0.0004459 -0.0019738 0.9995541 0.0019738 0.9995541 0.0019738 0.0004459 -0.0019738
100558819 0.0004495 -0.0018067 0.9995505 0.0018067 0.9995505 0.0018067 0.0004495 -0.0018067
102769807 0.0004533 -0.0016405 0.9995467 0.0016405 0.9995467 0.0016405 0.0004533 -0.0016405
105029408 0.0004572 -0.0014751 0.9995428 0.0014751 0.9995428 0.0014751 0.0004572 -0.0014751
107338692 0.0004613 -0.0013103 0.9995387 0.0013103 0.9995387 0.0013103 0.0004613 -0.0013103
