!Murata Part Number: GRM1882C1H222JA01
!These Parameters are Measured in Series Mode Connection
!Data Generated on Mar 30, 2021
!       o--ll--o
!Port1            Port2
!       o------o
!Operation Temp=25[degC], DC Bias Voltage=0[V]
!Freq. Start=1000[kHz] Stop=6[GHz] 401[Steps]
# Hz S RI R 50
!Freq.(Hz) S11(Real) S11(Imag) S21(Real) S21(Imag) S12(Real) S12(Imag) S22(Real) S22(Imag)
1000000 0.3439135 -0.4749009 0.6560865 0.4749009 0.6560865 0.4749009 0.3439135 -0.4749009
1021987 0.3341686 -0.4715848 0.6658314 0.4715848 0.6658314 0.4715848 0.3341686 -0.4715848
1044457 0.3245633 -0.4680947 0.6754367 0.4680947 0.6754367 0.4680947 0.3245633 -0.4680947
1067422 0.3151036 -0.4644378 0.6848964 0.4644378 0.6848964 0.4644378 0.3151036 -0.4644378
1090891 0.3057948 -0.4606213 0.6942052 0.4606213 0.6942052 0.4606213 0.3057948 -0.4606213
1114877 0.2966420 -0.4566527 0.7033580 0.4566527 0.7033580 0.4566527 0.2966420 -0.4566527
1139390 0.2876498 -0.4525396 0.7123502 0.4525396 0.7123502 0.4525396 0.2876498 -0.4525396
1164441 0.2788221 -0.4482896 0.7211779 0.4482896 0.7211779 0.4482896 0.2788221 -0.4482896
1190044 0.2701628 -0.4439107 0.7298372 0.4439107 0.7298372 0.4439107 0.2701628 -0.4439107
1216210 0.2616749 -0.4394105 0.7383251 0.4394105 0.7383251 0.4394105 0.2616749 -0.4394105
1242950 0.2533612 -0.4347970 0.7466388 0.4347970 0.7466388 0.4347970 0.2533612 -0.4347970
1270279 0.2452240 -0.4300779 0.7547760 0.4300779 0.7547760 0.4300779 0.2452240 -0.4300779
1298209 0.2372653 -0.4252611 0.7627347 0.4252611 0.7627347 0.4252611 0.2372653 -0.4252611
1326753 0.2294864 -0.4203542 0.7705136 0.4203542 0.7705136 0.4203542 0.2294864 -0.4203542
1355924 0.2218885 -0.4153649 0.7781115 0.4153649 0.7781115 0.4153649 0.2218885 -0.4153649
1385737 0.2144722 -0.4103007 0.7855278 0.4103007 0.7855278 0.4103007 0.2144722 -0.4103007
1416205 0.2072379 -0.4051691 0.7927621 0.4051691 0.7927621 0.4051691 0.2072379 -0.4051691
1447343 0.2001856 -0.3999773 0.7998144 0.3999773 0.7998144 0.3999773 0.2001856 -0.3999773
1479166 0.1933149 -0.3947323 0.8066851 0.3947323 0.8066851 0.3947323 0.1933149 -0.3947323
1511688 0.1866251 -0.3894412 0.8133749 0.3894412 0.8133749 0.3894412 0.1866251 -0.3894412
1544926 0.1801152 -0.3841106 0.8198848 0.3841106 0.8198848 0.3841106 0.1801152 -0.3841106
1578894 0.1737841 -0.3787471 0.8262159 0.3787471 0.8262159 0.3787471 0.1737841 -0.3787471
1613609 0.1676301 -0.3733569 0.8323699 0.3733569 0.8323699 0.3733569 0.1676301 -0.3733569
1649087 0.1616516 -0.3679463 0.8383484 0.3679463 0.8383484 0.3679463 0.1616516 -0.3679463
1685346 0.1558464 -0.3625211 0.8441536 0.3625211 0.8441536 0.3625211 0.1558464 -0.3625211
1722402 0.1502126 -0.3570869 0.8497874 0.3570869 0.8497874 0.3570869 0.1502126 -0.3570869
1760272 0.1447476 -0.3516492 0.8552524 0.3516492 0.8552524 0.3516492 0.1447476 -0.3516492
1798975 0.1394490 -0.3462131 0.8605510 0.3462131 0.8605510 0.3462131 0.1394490 -0.3462131
1838529 0.1343140 -0.3407836 0.8656860 0.3407836 0.8656860 0.3407836 0.1343140 -0.3407836
1878953 0.1293399 -0.3353654 0.8706601 0.3353654 0.8706601 0.3353654 0.1293399 -0.3353654
1920266 0.1245236 -0.3299629 0.8754764 0.3299629 0.8754764 0.3299629 0.1245236 -0.3299629
1962487 0.1198621 -0.3245805 0.8801379 0.3245805 0.8801379 0.3245805 0.1198621 -0.3245805
2005636 0.1153523 -0.3192220 0.8846477 0.3192220 0.8846477 0.3192220 0.1153523 -0.3192220
2049734 0.1109909 -0.3138913 0.8890091 0.3138913 0.8890091 0.3138913 0.1109909 -0.3138913
2094801 0.1067747 -0.3085920 0.8932253 0.3085920 0.8932253 0.3085920 0.1067747 -0.3085920
2140860 0.1027003 -0.3033272 0.8972997 0.3033272 0.8972997 0.3033272 0.1027003 -0.3033272
2187931 0.0987644 -0.2981002 0.9012356 0.2981002 0.9012356 0.2981002 0.0987644 -0.2981002
2236037 0.0949635 -0.2929139 0.9050365 0.2929139 0.9050365 0.2929139 0.0949635 -0.2929139
2285201 0.0912942 -0.2877709 0.9087058 0.2877709 0.9087058 0.2877709 0.0912942 -0.2877709
2335446 0.0877531 -0.2826737 0.9122469 0.2826737 0.9122469 0.2826737 0.0877531 -0.2826737
2386795 0.0843368 -0.2776246 0.9156632 0.2776246 0.9156632 0.2776246 0.0843368 -0.2776246
2439274 0.0810418 -0.2726258 0.9189582 0.2726258 0.9189582 0.2726258 0.0810418 -0.2726258
2492906 0.0778648 -0.2676791 0.9221352 0.2676791 0.9221352 0.2676791 0.0778648 -0.2676791
2547717 0.0748024 -0.2627864 0.9251976 0.2627864 0.9251976 0.2627864 0.0748024 -0.2627864
2603734 0.0718512 -0.2579492 0.9281488 0.2579492 0.9281488 0.2579492 0.0718512 -0.2579492
2660982 0.0690079 -0.2531690 0.9309921 0.2531690 0.9309921 0.2531690 0.0690079 -0.2531690
2719490 0.0662693 -0.2484470 0.9337307 0.2484470 0.9337307 0.2484470 0.0662693 -0.2484470
2779283 0.0636321 -0.2437844 0.9363679 0.2437844 0.9363679 0.2437844 0.0636321 -0.2437844
2840391 0.0610932 -0.2391822 0.9389068 0.2391822 0.9389068 0.2391822 0.0610932 -0.2391822
2902843 0.0586494 -0.2346413 0.9413506 0.2346413 0.9413506 0.2346413 0.0586494 -0.2346413
2966668 0.0562977 -0.2301624 0.9437023 0.2301624 0.9437023 0.2301624 0.0562977 -0.2301624
3031896 0.0540350 -0.2257461 0.9459650 0.2257461 0.9459650 0.2257461 0.0540350 -0.2257461
3098558 0.0518585 -0.2213930 0.9481415 0.2213930 0.9481415 0.2213930 0.0518585 -0.2213930
3166686 0.0497652 -0.2171035 0.9502348 0.2171035 0.9502348 0.2171035 0.0497652 -0.2171035
3236312 0.0477523 -0.2128779 0.9522477 0.2128779 0.9522477 0.2128779 0.0477523 -0.2128779
3307469 0.0458172 -0.2087164 0.9541828 0.2087164 0.9541828 0.2087164 0.0458172 -0.2087164
3380190 0.0439570 -0.2046191 0.9560430 0.2046191 0.9560430 0.2046191 0.0439570 -0.2046191
3454511 0.0421691 -0.2005861 0.9578309 0.2005861 0.9578309 0.2005861 0.0421691 -0.2005861
3530465 0.0404511 -0.1966174 0.9595489 0.1966174 0.9595489 0.1966174 0.0404511 -0.1966174
3608090 0.0388005 -0.1927128 0.9611995 0.1927128 0.9611995 0.1927128 0.0388005 -0.1927128
3687421 0.0372148 -0.1888723 0.9627852 0.1888723 0.9627852 0.1888723 0.0372148 -0.1888723
3768496 0.0356917 -0.1850955 0.9643083 0.1850955 0.9643083 0.1850955 0.0356917 -0.1850955
3851354 0.0342289 -0.1813823 0.9657711 0.1813823 0.9657711 0.1813823 0.0342289 -0.1813823
3936034 0.0328242 -0.1777322 0.9671758 0.1777322 0.9671758 0.1777322 0.0328242 -0.1777322
4022575 0.0314754 -0.1741448 0.9685246 0.1741448 0.9685246 0.1741448 0.0314754 -0.1741448
4111020 0.0301806 -0.1706198 0.9698194 0.1706198 0.9698194 0.1706198 0.0301806 -0.1706198
4201409 0.0289376 -0.1671566 0.9710624 0.1671566 0.9710624 0.1671566 0.0289376 -0.1671566
4293785 0.0277445 -0.1637548 0.9722555 0.1637548 0.9722555 0.1637548 0.0277445 -0.1637548
4388193 0.0265995 -0.1604137 0.9734005 0.1604137 0.9734005 0.1604137 0.0265995 -0.1604137
4484676 0.0255007 -0.1571329 0.9744993 0.1571329 0.9744993 0.1571329 0.0255007 -0.1571329
4583281 0.0244464 -0.1539116 0.9755536 0.1539116 0.9755536 0.1539116 0.0244464 -0.1539116
4684054 0.0234348 -0.1507493 0.9765652 0.1507493 0.9765652 0.1507493 0.0234348 -0.1507493
4787042 0.0224643 -0.1476453 0.9775357 0.1476453 0.9775357 0.1476453 0.0224643 -0.1476453
4892295 0.0215333 -0.1445989 0.9784667 0.1445989 0.9784667 0.1445989 0.0215333 -0.1445989
4999862 0.0206402 -0.1416095 0.9793598 0.1416095 0.9793598 0.1416095 0.0206402 -0.1416095
5109794 0.0197837 -0.1386762 0.9802163 0.1386762 0.9802163 0.1386762 0.0197837 -0.1386762
5222143 0.0189622 -0.1357984 0.9810378 0.1357984 0.9810378 0.1357984 0.0189622 -0.1357984
5336962 0.0181745 -0.1329752 0.9818255 0.1329752 0.9818255 0.1329752 0.0181745 -0.1329752
5454306 0.0174190 -0.1302061 0.9825810 0.1302061 0.9825810 0.1302061 0.0174190 -0.1302061
5574230 0.0166947 -0.1274901 0.9833053 0.1274901 0.9833053 0.1274901 0.0166947 -0.1274901
5696791 0.0160002 -0.1248266 0.9839998 0.1248266 0.9839998 0.1248266 0.0160002 -0.1248266
5822046 0.0153343 -0.1222147 0.9846657 0.1222147 0.9846657 0.1222147 0.0153343 -0.1222147
5950055 0.0146960 -0.1196537 0.9853040 0.1196537 0.9853040 0.1196537 0.0146960 -0.1196537
6080879 0.0140841 -0.1171427 0.9859159 0.1171427 0.9859159 0.1171427 0.0140841 -0.1171427
6214580 0.0134975 -0.1146811 0.9865025 0.1146811 0.9865025 0.1146811 0.0134975 -0.1146811
6351220 0.0129352 -0.1122679 0.9870648 0.1122679 0.9870648 0.1122679 0.0129352 -0.1122679
6490864 0.0123963 -0.1099025 0.9876037 0.1099025 0.9876037 0.1099025 0.0123963 -0.1099025
6633579 0.0118798 -0.1075840 0.9881202 0.1075840 0.9881202 0.1075840 0.0118798 -0.1075840
6779431 0.0113848 -0.1053117 0.9886152 0.1053117 0.9886152 0.1053117 0.0113848 -0.1053117
6928491 0.0109104 -0.1030847 0.9890896 0.1030847 0.9890896 0.1030847 0.0109104 -0.1030847
7080828 0.0104558 -0.1009023 0.9895442 0.1009023 0.9895442 0.1009023 0.0104558 -0.1009023
7236514 0.0100202 -0.0987637 0.9899798 0.0987637 0.9899798 0.0987637 0.0100202 -0.0987637
7395623 0.0096028 -0.0966681 0.9903972 0.0966681 0.9903972 0.0966681 0.0096028 -0.0966681
7558231 0.0092028 -0.0946149 0.9907972 0.0946149 0.9907972 0.0946149 0.0092028 -0.0946149
7724414 0.0088196 -0.0926031 0.9911804 0.0926031 0.9911804 0.0926031 0.0088196 -0.0926031
7894251 0.0084524 -0.0906321 0.9915476 0.0906321 0.9915476 0.0906321 0.0084524 -0.0906321
8067822 0.0081006 -0.0887012 0.9918994 0.0887012 0.9918994 0.0887012 0.0081006 -0.0887012
8245209 0.0077636 -0.0868095 0.9922364 0.0868095 0.9922364 0.0868095 0.0077636 -0.0868095
8426497 0.0074408 -0.0849565 0.9925592 0.0849565 0.9925592 0.0849565 0.0074408 -0.0849565
8611770 0.0071315 -0.0831412 0.9928685 0.0831412 0.9928685 0.0831412 0.0071315 -0.0831412
8801117 0.0068352 -0.0813631 0.9931648 0.0813631 0.9931648 0.0813631 0.0068352 -0.0813631
8994628 0.0065514 -0.0796214 0.9934486 0.0796214 0.9934486 0.0796214 0.0065514 -0.0796214
9192393 0.0062796 -0.0779155 0.9937204 0.0779155 0.9937204 0.0779155 0.0062796 -0.0779155
9394506 0.0060192 -0.0762446 0.9939808 0.0762446 0.9939808 0.0762446 0.0060192 -0.0762446
9601063 0.0057698 -0.0746081 0.9942302 0.0746081 0.9942302 0.0746081 0.0057698 -0.0746081
9812162 0.0055310 -0.0730052 0.9944690 0.0730052 0.9944690 0.0730052 0.0055310 -0.0730052
10027902 0.0053022 -0.0714355 0.9946978 0.0714355 0.9946978 0.0714355 0.0053022 -0.0714355
10248386 0.0050831 -0.0698981 0.9949169 0.0698981 0.9949169 0.0698981 0.0050831 -0.0698981
10473717 0.0048733 -0.0683925 0.9951267 0.0683925 0.9951267 0.0683925 0.0048733 -0.0683925
10704003 0.0046724 -0.0669180 0.9953276 0.0669180 0.9953276 0.0669180 0.0046724 -0.0669180
10939352 0.0044799 -0.0654740 0.9955201 0.0654740 0.9955201 0.0654740 0.0044799 -0.0654740
11179876 0.0042957 -0.0640599 0.9957043 0.0640599 0.9957043 0.0640599 0.0042957 -0.0640599
11425688 0.0041193 -0.0626751 0.9958807 0.0626751 0.9958807 0.0626751 0.0041193 -0.0626751
11676904 0.0039503 -0.0613190 0.9960497 0.0613190 0.9960497 0.0613190 0.0039503 -0.0613190
11933645 0.0037886 -0.0599911 0.9962114 0.0599911 0.9962114 0.0599911 0.0037886 -0.0599911
12196030 0.0036337 -0.0586907 0.9963663 0.0586907 0.9963663 0.0586907 0.0036337 -0.0586907
12464184 0.0034854 -0.0574173 0.9965146 0.0574173 0.9965146 0.0574173 0.0034854 -0.0574173
12738235 0.0033435 -0.0561703 0.9966565 0.0561703 0.9966565 0.0561703 0.0033435 -0.0561703
13018310 0.0032076 -0.0549492 0.9967924 0.0549492 0.9967924 0.0549492 0.0032076 -0.0549492
13304544 0.0030775 -0.0537535 0.9969225 0.0537535 0.9969225 0.0537535 0.0030775 -0.0537535
13597071 0.0029530 -0.0525826 0.9970470 0.0525826 0.9970470 0.0525826 0.0029530 -0.0525826
13896030 0.0028338 -0.0514361 0.9971662 0.0514361 0.9971662 0.0514361 0.0028338 -0.0514361
14201563 0.0027197 -0.0503134 0.9972803 0.0503134 0.9972803 0.0503134 0.0027197 -0.0503134
14513813 0.0026105 -0.0492140 0.9973895 0.0492140 0.9973895 0.0492140 0.0026105 -0.0492140
14832928 0.0025060 -0.0481374 0.9974940 0.0481374 0.9974940 0.0481374 0.0025060 -0.0481374
15159060 0.0024060 -0.0470832 0.9975940 0.0470832 0.9975940 0.0470832 0.0024060 -0.0470832
15492362 0.0023103 -0.0460508 0.9976897 0.0460508 0.9976897 0.0460508 0.0023103 -0.0460508
15832993 0.0022187 -0.0450399 0.9977813 0.0450399 0.9977813 0.0450399 0.0022187 -0.0450399
16181113 0.0021311 -0.0440500 0.9978689 0.0440500 0.9978689 0.0440500 0.0021311 -0.0440500
16536888 0.0020473 -0.0430806 0.9979527 0.0430806 0.9979527 0.0430806 0.0020473 -0.0430806
16900485 0.0019671 -0.0421313 0.9980329 0.0421313 0.9980329 0.0421313 0.0019671 -0.0421313
17272076 0.0018903 -0.0412016 0.9981097 0.0412016 0.9981097 0.0412016 0.0018903 -0.0412016
17651837 0.0018170 -0.0402912 0.9981830 0.0402912 0.9981830 0.0402912 0.0018170 -0.0402912
18039948 0.0017468 -0.0393996 0.9982532 0.0393996 0.9982532 0.0393996 0.0017468 -0.0393996
18436593 0.0016797 -0.0385264 0.9983203 0.0385264 0.9983203 0.0385264 0.0016797 -0.0385264
18841959 0.0016155 -0.0376713 0.9983845 0.0376713 0.9983845 0.0376713 0.0016155 -0.0376713
19256237 0.0015541 -0.0368338 0.9984459 0.0368338 0.9984459 0.0368338 0.0015541 -0.0368338
19679624 0.0014955 -0.0360136 0.9985045 0.0360136 0.9985045 0.0360136 0.0014955 -0.0360136
20112321 0.0014394 -0.0352103 0.9985606 0.0352103 0.9985606 0.0352103 0.0014394 -0.0352103
20554530 0.0013858 -0.0344235 0.9986142 0.0344235 0.9986142 0.0344235 0.0013858 -0.0344235
21006463 0.0013346 -0.0336528 0.9986654 0.0336528 0.9986654 0.0336528 0.0013346 -0.0336528
21468333 0.0012856 -0.0328980 0.9987144 0.0328980 0.9987144 0.0328980 0.0012856 -0.0328980
21940357 0.0012389 -0.0321586 0.9987611 0.0321586 0.9987611 0.0321586 0.0012389 -0.0321586
22422760 0.0011942 -0.0314343 0.9988058 0.0314343 0.9988058 0.0314343 0.0011942 -0.0314343
22915770 0.0011515 -0.0307249 0.9988485 0.0307249 0.9988485 0.0307249 0.0011515 -0.0307249
23419619 0.0011108 -0.0300299 0.9988892 0.0300299 0.9988892 0.0300299 0.0011108 -0.0300299
23934547 0.0010719 -0.0293490 0.9989281 0.0293490 0.9989281 0.0293490 0.0010719 -0.0293490
24460796 0.0010348 -0.0286820 0.9989652 0.0286820 0.9989652 0.0286820 0.0010348 -0.0286820
24998616 0.0009994 -0.0280286 0.9990006 0.0280286 0.9990006 0.0280286 0.0009994 -0.0280286
25548261 0.0009655 -0.0273883 0.9990345 0.0273883 0.9990345 0.0273883 0.0009655 -0.0273883
26109991 0.0009333 -0.0267610 0.9990667 0.0267610 0.9990667 0.0267610 0.0009333 -0.0267610
26684072 0.0009025 -0.0261463 0.9990975 0.0261463 0.9990975 0.0261463 0.0009025 -0.0261463
27270775 0.0008732 -0.0255440 0.9991268 0.0255440 0.9991268 0.0255440 0.0008732 -0.0255440
27870378 0.0008453 -0.0249538 0.9991547 0.0249538 0.9991547 0.0249538 0.0008453 -0.0249538
28483164 0.0008186 -0.0243753 0.9991814 0.0243753 0.9991814 0.0243753 0.0008186 -0.0243753
29109424 0.0007933 -0.0238085 0.9992067 0.0238085 0.9992067 0.0238085 0.0007933 -0.0238085
29749453 0.0007691 -0.0232528 0.9992309 0.0232528 0.9992309 0.0232528 0.0007691 -0.0232528
30403555 0.0007461 -0.0227083 0.9992539 0.0227083 0.9992539 0.0227083 0.0007461 -0.0227083
31072038 0.0007242 -0.0221745 0.9992758 0.0221745 0.9992758 0.0221745 0.0007242 -0.0221745
31755220 0.0007033 -0.0216512 0.9992967 0.0216512 0.9992967 0.0216512 0.0007033 -0.0216512
32453422 0.0006835 -0.0211381 0.9993165 0.0211381 0.9993165 0.0211381 0.0006835 -0.0211381
33166976 0.0006647 -0.0206352 0.9993353 0.0206352 0.9993353 0.0206352 0.0006647 -0.0206352
33896219 0.0006468 -0.0201420 0.9993532 0.0201420 0.9993532 0.0201420 0.0006468 -0.0201420
34641496 0.0006298 -0.0196584 0.9993702 0.0196584 0.9993702 0.0196584 0.0006298 -0.0196584
35403159 0.0006136 -0.0191842 0.9993864 0.0191842 0.9993864 0.0191842 0.0006136 -0.0191842
36181569 0.0005983 -0.0187191 0.9994017 0.0187191 0.9994017 0.0187191 0.0005983 -0.0187191
36977093 0.0005837 -0.0182629 0.9994163 0.0182629 0.9994163 0.0182629 0.0005837 -0.0182629
37790109 0.0005700 -0.0178154 0.9994300 0.0178154 0.9994300 0.0178154 0.0005700 -0.0178154
38621001 0.0005569 -0.0173764 0.9994431 0.0173764 0.9994431 0.0173764 0.0005569 -0.0173764
39470161 0.0005445 -0.0169457 0.9994555 0.0169457 0.9994555 0.0169457 0.0005445 -0.0169457
40337993 0.0005328 -0.0165231 0.9994672 0.0165231 0.9994672 0.0165231 0.0005328 -0.0165231
41224905 0.0005217 -0.0161083 0.9994783 0.0161083 0.9994783 0.0161083 0.0005217 -0.0161083
42131317 0.0005113 -0.0157013 0.9994887 0.0157013 0.9994887 0.0157013 0.0005113 -0.0157013
43057659 0.0005014 -0.0153017 0.9994986 0.0153017 0.9994986 0.0153017 0.0005014 -0.0153017
44004369 0.0004920 -0.0149095 0.9995080 0.0149095 0.9995080 0.0149095 0.0004920 -0.0149095
44971893 0.0004832 -0.0145244 0.9995168 0.0145244 0.9995168 0.0145244 0.0004832 -0.0145244
45960691 0.0004749 -0.0141462 0.9995251 0.0141462 0.9995251 0.0141462 0.0004749 -0.0141462
46971230 0.0004671 -0.0137749 0.9995329 0.0137749 0.9995329 0.0137749 0.0004671 -0.0137749
48003987 0.0004598 -0.0134101 0.9995402 0.0134101 0.9995402 0.0134101 0.0004598 -0.0134101
49059451 0.0004528 -0.0130517 0.9995472 0.0130517 0.9995472 0.0130517 0.0004528 -0.0130517
50138122 0.0004464 -0.0126996 0.9995536 0.0126996 0.9995536 0.0126996 0.0004464 -0.0126996
51240510 0.0004403 -0.0123535 0.9995597 0.0123535 0.9995597 0.0123535 0.0004403 -0.0123535
52367136 0.0004346 -0.0120134 0.9995654 0.0120134 0.9995654 0.0120134 0.0004346 -0.0120134
53518533 0.0004293 -0.0116790 0.9995707 0.0116790 0.9995707 0.0116790 0.0004293 -0.0116790
54695245 0.0004243 -0.0113503 0.9995757 0.0113503 0.9995757 0.0113503 0.0004243 -0.0113503
55897831 0.0004197 -0.0110269 0.9995803 0.0110269 0.9995803 0.0110269 0.0004197 -0.0110269
57126857 0.0004154 -0.0107089 0.9995846 0.0107089 0.9995846 0.0107089 0.0004154 -0.0107089
58382906 0.0004114 -0.0103960 0.9995886 0.0103960 0.9995886 0.0103960 0.0004114 -0.0103960
59666572 0.0004078 -0.0100881 0.9995922 0.0100881 0.9995922 0.0100881 0.0004078 -0.0100881
60978462 0.0004044 -0.0097850 0.9995956 0.0097850 0.9995956 0.0097850 0.0004044 -0.0097850
62319196 0.0004013 -0.0094866 0.9995987 0.0094866 0.9995987 0.0094866 0.0004013 -0.0094866
63689409 0.0003984 -0.0091928 0.9996016 0.0091928 0.9996016 0.0091928 0.0003984 -0.0091928
65089750 0.0003958 -0.0089033 0.9996042 0.0089033 0.9996042 0.0089033 0.0003958 -0.0089033
66520879 0.0003935 -0.0086182 0.9996065 0.0086182 0.9996065 0.0086182 0.0003935 -0.0086182
67983474 0.0003913 -0.0083371 0.9996087 0.0083371 0.9996087 0.0083371 0.0003913 -0.0083371
69478228 0.0003894 -0.0080601 0.9996106 0.0080601 0.9996106 0.0080601 0.0003894 -0.0080601
71005847 0.0003878 -0.0077869 0.9996122 0.0077869 0.9996122 0.0077869 0.0003878 -0.0077869
72567054 0.0003863 -0.0075174 0.9996137 0.0075174 0.9996137 0.0075174 0.0003863 -0.0075174
74162587 0.0003851 -0.0072515 0.9996149 0.0072515 0.9996149 0.0072515 0.0003851 -0.0072515
75793201 0.0003840 -0.0069891 0.9996160 0.0069891 0.9996160 0.0069891 0.0003840 -0.0069891
77459667 0.0003832 -0.0067300 0.9996168 0.0067300 0.9996168 0.0067300 0.0003832 -0.0067300
79162774 0.0003825 -0.0064741 0.9996175 0.0064741 0.9996175 0.0064741 0.0003825 -0.0064741
80903327 0.0003820 -0.0062213 0.9996180 0.0062213 0.9996180 0.0062213 0.0003820 -0.0062213
82682150 0.0003817 -0.0059715 0.9996183 0.0059715 0.9996183 0.0059715 0.0003817 -0.0059715
84500083 0.0003816 -0.0057245 0.9996184 0.0057245 0.9996184 0.0057245 0.0003816 -0.0057245
86357988 0.0003817 -0.0054802 0.9996183 0.0054802 0.9996183 0.0054802 0.0003817 -0.0054802
88256743 0.0003819 -0.0052385 0.9996181 0.0052385 0.9996181 0.0052385 0.0003819 -0.0052385
90197245 0.0003823 -0.0049993 0.9996177 0.0049993 0.9996177 0.0049993 0.0003823 -0.0049993
92180413 0.0003829 -0.0047624 0.9996171 0.0047624 0.9996171 0.0047624 0.0003829 -0.0047624
94207185 0.0003836 -0.0045278 0.9996164 0.0045278 0.9996164 0.0045278 0.0003836 -0.0045278
96278520 0.0003845 -0.0042953 0.9996155 0.0042953 0.9996155 0.0042953 0.0003845 -0.0042953
98395398 0.0003856 -0.0040647 0.9996144 0.0040647 0.9996144 0.0040647 0.0003856 -0.0040647
100558819 0.0003869 -0.0038361 0.9996131 0.0038361 0.9996131 0.0038361 0.0003869 -0.0038361
102769807 0.0003883 -0.0036092 0.9996117 0.0036092 0.9996117 0.0036092 0.0003883 -0.0036092
105029408 0.0003900 -0.0033840 0.9996100 0.0033840 0.9996100 0.0033840 0.0003900 -0.0033840
107338692 0.0003918 -0.0031603 0.9996082 0.0031603 0.9996082 0.0031603 0.0003918 -0.0031603
