!Murata Part Number: GRM1885C1H302JA01
!These Parameters are Measured in Series Mode Connection
!Data Generated on Mar 30, 2021
!       o--ll--o
!Port1            Port2
!       o------o
!Operation Temp=25[degC], DC Bias Voltage=0[V]
!Freq. Start=1000[kHz] Stop=6[GHz] 401[Steps]
# Hz S RI R 50
!Freq.(Hz) S11(Real) S11(Imag) S21(Real) S21(Imag) S12(Real) S12(Imag) S22(Real) S22(Imag)
1000000 0.2118585 -0.4085358 0.7881415 0.4085358 0.7881415 0.4085358 0.2118585 -0.4085358
1021987 0.2046880 -0.4033821 0.7953120 0.4033821 0.7953120 0.4033821 0.2046880 -0.4033821
1044457 0.1976993 -0.3981707 0.8023007 0.3981707 0.8023007 0.3981707 0.1976993 -0.3981707
1067422 0.1908920 -0.3929087 0.8091080 0.3929087 0.8091080 0.3929087 0.1908920 -0.3929087
1090891 0.1842654 -0.3876029 0.8157346 0.3876029 0.8157346 0.3876029 0.1842654 -0.3876029
1114877 0.1778183 -0.3822600 0.8221817 0.3822600 0.8221817 0.3822600 0.1778183 -0.3822600
1139390 0.1715494 -0.3768864 0.8284506 0.3768864 0.8284506 0.3768864 0.1715494 -0.3768864
1164441 0.1654571 -0.3714883 0.8345429 0.3714883 0.8345429 0.3714883 0.1654571 -0.3714883
1190044 0.1595396 -0.3660719 0.8404604 0.3660719 0.8404604 0.3660719 0.1595396 -0.3660719
1216210 0.1537948 -0.3606429 0.8462052 0.3606429 0.8462052 0.3606429 0.1537948 -0.3606429
1242950 0.1482204 -0.3552069 0.8517796 0.3552069 0.8517796 0.3552069 0.1482204 -0.3552069
1270279 0.1428140 -0.3497692 0.8571860 0.3497692 0.8571860 0.3497692 0.1428140 -0.3497692
1298209 0.1375731 -0.3443349 0.8624269 0.3443349 0.8624269 0.3443349 0.1375731 -0.3443349
1326753 0.1324949 -0.3389089 0.8675051 0.3389089 0.8675051 0.3389089 0.1324949 -0.3389089
1355924 0.1275764 -0.3334958 0.8724236 0.3334958 0.8724236 0.3334958 0.1275764 -0.3334958
1385737 0.1228148 -0.3281000 0.8771852 0.3281000 0.8771852 0.3281000 0.1228148 -0.3281000
1416205 0.1182069 -0.3227256 0.8817931 0.3227256 0.8817931 0.3227256 0.1182069 -0.3227256
1447343 0.1137495 -0.3173766 0.8862505 0.3173766 0.8862505 0.3173766 0.1137495 -0.3173766
1479166 0.1094394 -0.3120566 0.8905606 0.3120566 0.8905606 0.3120566 0.1094394 -0.3120566
1511688 0.1052733 -0.3067692 0.8947267 0.3067692 0.8947267 0.3067692 0.1052733 -0.3067692
1544926 0.1012479 -0.3015175 0.8987521 0.3015175 0.8987521 0.3015175 0.1012479 -0.3015175
1578894 0.0973597 -0.2963047 0.9026403 0.2963047 0.9026403 0.2963047 0.0973597 -0.2963047
1613609 0.0936054 -0.2911334 0.9063946 0.2911334 0.9063946 0.2911334 0.0936054 -0.2911334
1649087 0.0899815 -0.2860064 0.9100185 0.2860064 0.9100185 0.2860064 0.0899815 -0.2860064
1685346 0.0864846 -0.2809261 0.9135154 0.2809261 0.9135154 0.2809261 0.0864846 -0.2809261
1722402 0.0831113 -0.2758947 0.9168887 0.2758947 0.9168887 0.2758947 0.0831113 -0.2758947
1760272 0.0798581 -0.2709142 0.9201419 0.2709142 0.9201419 0.2709142 0.0798581 -0.2709142
1798975 0.0767218 -0.2659866 0.9232782 0.2659866 0.9232782 0.2659866 0.0767218 -0.2659866
1838529 0.0736988 -0.2611134 0.9263012 0.2611134 0.9263012 0.2611134 0.0736988 -0.2611134
1878953 0.0707859 -0.2562964 0.9292141 0.2562964 0.9292141 0.2562964 0.0707859 -0.2562964
1920266 0.0679797 -0.2515368 0.9320203 0.2515368 0.9320203 0.2515368 0.0679797 -0.2515368
1962487 0.0652771 -0.2468359 0.9347229 0.2468359 0.9347229 0.2468359 0.0652771 -0.2468359
2005636 0.0626748 -0.2421947 0.9373252 0.2421947 0.9373252 0.2421947 0.0626748 -0.2421947
2049734 0.0601697 -0.2376143 0.9398303 0.2376143 0.9398303 0.2376143 0.0601697 -0.2376143
2094801 0.0577586 -0.2330955 0.9422414 0.2330955 0.9422414 0.2330955 0.0577586 -0.2330955
2140860 0.0554386 -0.2286389 0.9445614 0.2286389 0.9445614 0.2286389 0.0554386 -0.2286389
2187931 0.0532065 -0.2242452 0.9467935 0.2242452 0.9467935 0.2242452 0.0532065 -0.2242452
2236037 0.0510596 -0.2199148 0.9489404 0.2199148 0.9489404 0.2199148 0.0510596 -0.2199148
2285201 0.0489949 -0.2156481 0.9510051 0.2156481 0.9510051 0.2156481 0.0489949 -0.2156481
2335446 0.0470097 -0.2114455 0.9529903 0.2114455 0.9529903 0.2114455 0.0470097 -0.2114455
2386795 0.0451012 -0.2073070 0.9548988 0.2073070 0.9548988 0.2073070 0.0451012 -0.2073070
2439274 0.0432668 -0.2032328 0.9567332 0.2032328 0.9567332 0.2032328 0.0432668 -0.2032328
2492906 0.0415039 -0.1992229 0.9584961 0.1992229 0.9584961 0.1992229 0.0415039 -0.1992229
2547717 0.0398099 -0.1952773 0.9601901 0.1952773 0.9601901 0.1952773 0.0398099 -0.1952773
2603734 0.0381824 -0.1913958 0.9618176 0.1913958 0.9618176 0.1913958 0.0381824 -0.1913958
2660982 0.0366190 -0.1875783 0.9633810 0.1875783 0.9633810 0.1875783 0.0366190 -0.1875783
2719490 0.0351174 -0.1838245 0.9648826 0.1838245 0.9648826 0.1838245 0.0351174 -0.1838245
2779283 0.0336754 -0.1801341 0.9663246 0.1801341 0.9663246 0.1801341 0.0336754 -0.1801341
2840391 0.0322907 -0.1765067 0.9677093 0.1765067 0.9677093 0.1765067 0.0322907 -0.1765067
2902843 0.0309612 -0.1729420 0.9690388 0.1729420 0.9690388 0.1729420 0.0309612 -0.1729420
2966668 0.0296849 -0.1694395 0.9703151 0.1694395 0.9703151 0.1694395 0.0296849 -0.1694395
3031896 0.0284598 -0.1659986 0.9715402 0.1659986 0.9715402 0.1659986 0.0284598 -0.1659986
3098558 0.0272839 -0.1626190 0.9727161 0.1626190 0.9727161 0.1626190 0.0272839 -0.1626190
3166686 0.0261555 -0.1592999 0.9738445 0.1592999 0.9738445 0.1592999 0.0261555 -0.1592999
3236312 0.0250726 -0.1560409 0.9749274 0.1560409 0.9749274 0.1560409 0.0250726 -0.1560409
3307469 0.0240336 -0.1528412 0.9759664 0.1528412 0.9759664 0.1528412 0.0240336 -0.1528412
3380190 0.0230368 -0.1497004 0.9769632 0.1497004 0.9769632 0.1497004 0.0230368 -0.1497004
3454511 0.0220805 -0.1466176 0.9779195 0.1466176 0.9779195 0.1466176 0.0220805 -0.1466176
3530465 0.0211632 -0.1435922 0.9788368 0.1435922 0.9788368 0.1435922 0.0211632 -0.1435922
3608090 0.0202833 -0.1406234 0.9797167 0.1406234 0.9797167 0.1406234 0.0202833 -0.1406234
3687421 0.0194394 -0.1377107 0.9805606 0.1377107 0.9805606 0.1377107 0.0194394 -0.1377107
3768496 0.0186301 -0.1348532 0.9813699 0.1348532 0.9813699 0.1348532 0.0186301 -0.1348532
3851354 0.0178540 -0.1320501 0.9821460 0.1320501 0.9821460 0.1320501 0.0178540 -0.1320501
3936034 0.0171099 -0.1293008 0.9828901 0.1293008 0.9828901 0.1293008 0.0171099 -0.1293008
4022575 0.0163963 -0.1266045 0.9836037 0.1266045 0.9836037 0.1266045 0.0163963 -0.1266045
4111020 0.0157122 -0.1239603 0.9842878 0.1239603 0.9842878 0.1239603 0.0157122 -0.1239603
4201409 0.0150564 -0.1213676 0.9849436 0.1213676 0.9849436 0.1213676 0.0150564 -0.1213676
4293785 0.0144276 -0.1188254 0.9855724 0.1188254 0.9855724 0.1188254 0.0144276 -0.1188254
4388193 0.0138250 -0.1163331 0.9861750 0.1163331 0.9861750 0.1163331 0.0138250 -0.1163331
4484676 0.0132473 -0.1138899 0.9867527 0.1138899 0.9867527 0.1138899 0.0132473 -0.1138899
4583281 0.0126935 -0.1114949 0.9873065 0.1114949 0.9873065 0.1114949 0.0126935 -0.1114949
4684054 0.0121628 -0.1091474 0.9878372 0.1091474 0.9878372 0.1091474 0.0121628 -0.1091474
4787042 0.0116542 -0.1068466 0.9883458 0.1068466 0.9883458 0.1068466 0.0116542 -0.1068466
4892295 0.0111668 -0.1045918 0.9888332 0.1045918 0.9888332 0.1045918 0.0111668 -0.1045918
4999862 0.0106997 -0.1023820 0.9893003 0.1023820 0.9893003 0.1023820 0.0106997 -0.1023820
5109794 0.0102521 -0.1002166 0.9897479 0.1002166 0.9897479 0.1002166 0.0102521 -0.1002166
5222143 0.0098233 -0.0980948 0.9901767 0.0980948 0.9901767 0.0980948 0.0098233 -0.0980948
5336962 0.0094123 -0.0960158 0.9905877 0.0960158 0.9905877 0.0960158 0.0094123 -0.0960158
5454306 0.0090186 -0.0939789 0.9909814 0.0939789 0.9909814 0.0939789 0.0090186 -0.0939789
5574230 0.0086414 -0.0919833 0.9913586 0.0919833 0.9913586 0.0919833 0.0086414 -0.0919833
5696791 0.0082800 -0.0900282 0.9917200 0.0900282 0.9917200 0.0900282 0.0082800 -0.0900282
5822046 0.0079338 -0.0881130 0.9920662 0.0881130 0.9920662 0.0881130 0.0079338 -0.0881130
5950055 0.0076021 -0.0862369 0.9923979 0.0862369 0.9923979 0.0862369 0.0076021 -0.0862369
6080879 0.0072844 -0.0843991 0.9927156 0.0843991 0.9927156 0.0843991 0.0072844 -0.0843991
6214580 0.0069800 -0.0825990 0.9930200 0.0825990 0.9930200 0.0825990 0.0069800 -0.0825990
6351220 0.0066885 -0.0808358 0.9933115 0.0808358 0.9933115 0.0808358 0.0066885 -0.0808358
6490864 0.0064093 -0.0791089 0.9935907 0.0791089 0.9935907 0.0791089 0.0064093 -0.0791089
6633579 0.0061418 -0.0774175 0.9938582 0.0774175 0.9938582 0.0774175 0.0061418 -0.0774175
6779431 0.0058857 -0.0757610 0.9941143 0.0757610 0.9941143 0.0757610 0.0058857 -0.0757610
6928491 0.0056403 -0.0741387 0.9943597 0.0741387 0.9943597 0.0741387 0.0056403 -0.0741387
7080828 0.0054054 -0.0725499 0.9945946 0.0725499 0.9945946 0.0725499 0.0054054 -0.0725499
7236514 0.0051803 -0.0709940 0.9948197 0.0709940 0.9948197 0.0709940 0.0051803 -0.0709940
7395623 0.0049649 -0.0694703 0.9950351 0.0694703 0.9950351 0.0694703 0.0049649 -0.0694703
7558231 0.0047585 -0.0679783 0.9952415 0.0679783 0.9952415 0.0679783 0.0047585 -0.0679783
7724414 0.0045609 -0.0665172 0.9954391 0.0665172 0.9954391 0.0665172 0.0045609 -0.0665172
7894251 0.0043717 -0.0650865 0.9956283 0.0650865 0.9956283 0.0650865 0.0043717 -0.0650865
8067822 0.0041905 -0.0636856 0.9958095 0.0636856 0.9958095 0.0636856 0.0041905 -0.0636856
8245209 0.0040170 -0.0623138 0.9959830 0.0623138 0.9959830 0.0623138 0.0040170 -0.0623138
8426497 0.0038509 -0.0609706 0.9961491 0.0609706 0.9961491 0.0609706 0.0038509 -0.0609706
8611770 0.0036919 -0.0596554 0.9963081 0.0596554 0.9963081 0.0596554 0.0036919 -0.0596554
8801117 0.0035396 -0.0583676 0.9964604 0.0583676 0.9964604 0.0583676 0.0035396 -0.0583676
8994628 0.0033938 -0.0571067 0.9966062 0.0571067 0.9966062 0.0571067 0.0033938 -0.0571067
9192393 0.0032542 -0.0558722 0.9967458 0.0558722 0.9967458 0.0558722 0.0032542 -0.0558722
9394506 0.0031206 -0.0546634 0.9968794 0.0546634 0.9968794 0.0546634 0.0031206 -0.0546634
9601063 0.0029927 -0.0534799 0.9970073 0.0534799 0.9970073 0.0534799 0.0029927 -0.0534799
9812162 0.0028703 -0.0523211 0.9971297 0.0523211 0.9971297 0.0523211 0.0028703 -0.0523211
10027902 0.0027530 -0.0511866 0.9972470 0.0511866 0.9972470 0.0511866 0.0027530 -0.0511866
10248386 0.0026408 -0.0500758 0.9973592 0.0500758 0.9973592 0.0500758 0.0026408 -0.0500758
10473717 0.0025334 -0.0489882 0.9974666 0.0489882 0.9974666 0.0489882 0.0025334 -0.0489882
10704003 0.0024306 -0.0479234 0.9975694 0.0479234 0.9975694 0.0479234 0.0024306 -0.0479234
10939352 0.0023322 -0.0468809 0.9976678 0.0468809 0.9976678 0.0468809 0.0023322 -0.0468809
11179876 0.0022381 -0.0458602 0.9977619 0.0458602 0.9977619 0.0458602 0.0022381 -0.0458602
11425688 0.0021479 -0.0448608 0.9978521 0.0448608 0.9978521 0.0448608 0.0021479 -0.0448608
11676904 0.0020617 -0.0438823 0.9979383 0.0438823 0.9979383 0.0438823 0.0020617 -0.0438823
11933645 0.0019791 -0.0429243 0.9980209 0.0429243 0.9980209 0.0429243 0.0019791 -0.0429243
12196030 0.0019001 -0.0419864 0.9980999 0.0419864 0.9980999 0.0419864 0.0019001 -0.0419864
12464184 0.0018245 -0.0410680 0.9981755 0.0410680 0.9981755 0.0410680 0.0018245 -0.0410680
12738235 0.0017521 -0.0401688 0.9982479 0.0401688 0.9982479 0.0401688 0.0017521 -0.0401688
13018310 0.0016829 -0.0392885 0.9983171 0.0392885 0.9983171 0.0392885 0.0016829 -0.0392885
13304544 0.0016166 -0.0384265 0.9983834 0.0384265 0.9983834 0.0384265 0.0016166 -0.0384265
13597071 0.0015533 -0.0375825 0.9984467 0.0375825 0.9984467 0.0375825 0.0015533 -0.0375825
13896030 0.0014926 -0.0367561 0.9985074 0.0367561 0.9985074 0.0367561 0.0014926 -0.0367561
14201563 0.0014346 -0.0359469 0.9985654 0.0359469 0.9985654 0.0359469 0.0014346 -0.0359469
14513813 0.0013791 -0.0351546 0.9986209 0.0351546 0.9986209 0.0351546 0.0013791 -0.0351546
14832928 0.0013260 -0.0343787 0.9986740 0.0343787 0.9986740 0.0343787 0.0013260 -0.0343787
15159060 0.0012752 -0.0336190 0.9987248 0.0336190 0.9987248 0.0336190 0.0012752 -0.0336190
15492362 0.0012266 -0.0328751 0.9987734 0.0328751 0.9987734 0.0328751 0.0012266 -0.0328751
15832993 0.0011801 -0.0321467 0.9988199 0.0321467 0.9988199 0.0321467 0.0011801 -0.0321467
16181113 0.0011356 -0.0314333 0.9988644 0.0314333 0.9988644 0.0314333 0.0011356 -0.0314333
16536888 0.0010931 -0.0307347 0.9989069 0.0307347 0.9989069 0.0307347 0.0010931 -0.0307347
16900485 0.0010524 -0.0300506 0.9989476 0.0300506 0.9989476 0.0300506 0.0010524 -0.0300506
17272076 0.0010135 -0.0293806 0.9989865 0.0293806 0.9989865 0.0293806 0.0010135 -0.0293806
17651837 0.0009764 -0.0287244 0.9990236 0.0287244 0.9990236 0.0287244 0.0009764 -0.0287244
18039948 0.0009408 -0.0280818 0.9990592 0.0280818 0.9990592 0.0280818 0.0009408 -0.0280818
18436593 0.0009068 -0.0274524 0.9990932 0.0274524 0.9990932 0.0274524 0.0009068 -0.0274524
18841959 0.0008743 -0.0268359 0.9991257 0.0268359 0.9991257 0.0268359 0.0008743 -0.0268359
19256237 0.0008433 -0.0262321 0.9991567 0.0262321 0.9991567 0.0262321 0.0008433 -0.0262321
19679624 0.0008136 -0.0256406 0.9991864 0.0256406 0.9991864 0.0256406 0.0008136 -0.0256406
20112321 0.0007852 -0.0250612 0.9992148 0.0250612 0.9992148 0.0250612 0.0007852 -0.0250612
20554530 0.0007581 -0.0244937 0.9992419 0.0244937 0.9992419 0.0244937 0.0007581 -0.0244937
21006463 0.0007322 -0.0239377 0.9992678 0.0239377 0.9992678 0.0239377 0.0007322 -0.0239377
21468333 0.0007075 -0.0233929 0.9992925 0.0233929 0.9992925 0.0233929 0.0007075 -0.0233929
21940357 0.0006839 -0.0228593 0.9993161 0.0228593 0.9993161 0.0228593 0.0006839 -0.0228593
22422760 0.0006613 -0.0223364 0.9993387 0.0223364 0.9993387 0.0223364 0.0006613 -0.0223364
22915770 0.0006398 -0.0218241 0.9993602 0.0218241 0.9993602 0.0218241 0.0006398 -0.0218241
23419619 0.0006192 -0.0213220 0.9993808 0.0213220 0.9993808 0.0213220 0.0006192 -0.0213220
23934547 0.0005996 -0.0208301 0.9994004 0.0208301 0.9994004 0.0208301 0.0005996 -0.0208301
24460796 0.0005809 -0.0203480 0.9994191 0.0203480 0.9994191 0.0203480 0.0005809 -0.0203480
24998616 0.0005631 -0.0198755 0.9994369 0.0198755 0.9994369 0.0198755 0.0005631 -0.0198755
25548261 0.0005461 -0.0194124 0.9994539 0.0194124 0.9994539 0.0194124 0.0005461 -0.0194124
26109991 0.0005298 -0.0189585 0.9994702 0.0189585 0.9994702 0.0189585 0.0005298 -0.0189585
26684072 0.0005144 -0.0185135 0.9994856 0.0185135 0.9994856 0.0185135 0.0005144 -0.0185135
27270775 0.0004997 -0.0180773 0.9995003 0.0180773 0.9995003 0.0180773 0.0004997 -0.0180773
27870378 0.0004856 -0.0176497 0.9995144 0.0176497 0.9995144 0.0176497 0.0004856 -0.0176497
28483164 0.0004723 -0.0172304 0.9995277 0.0172304 0.9995277 0.0172304 0.0004723 -0.0172304
29109424 0.0004596 -0.0168193 0.9995404 0.0168193 0.9995404 0.0168193 0.0004596 -0.0168193
29749453 0.0004476 -0.0164161 0.9995524 0.0164161 0.9995524 0.0164161 0.0004476 -0.0164161
30403555 0.0004361 -0.0160207 0.9995639 0.0160207 0.9995639 0.0160207 0.0004361 -0.0160207
31072038 0.0004252 -0.0156329 0.9995748 0.0156329 0.9995748 0.0156329 0.0004252 -0.0156329
31755220 0.0004149 -0.0152525 0.9995851 0.0152525 0.9995851 0.0152525 0.0004149 -0.0152525
32453422 0.0004051 -0.0148793 0.9995949 0.0148793 0.9995949 0.0148793 0.0004051 -0.0148793
33166976 0.0003958 -0.0145132 0.9996042 0.0145132 0.9996042 0.0145132 0.0003958 -0.0145132
33896219 0.0003871 -0.0141540 0.9996129 0.0141540 0.9996129 0.0141540 0.0003871 -0.0141540
34641496 0.0003788 -0.0138015 0.9996212 0.0138015 0.9996212 0.0138015 0.0003788 -0.0138015
35403159 0.0003709 -0.0134555 0.9996291 0.0134555 0.9996291 0.0134555 0.0003709 -0.0134555
36181569 0.0003635 -0.0131159 0.9996365 0.0131159 0.9996365 0.0131159 0.0003635 -0.0131159
36977093 0.0003566 -0.0127826 0.9996434 0.0127826 0.9996434 0.0127826 0.0003566 -0.0127826
37790109 0.0003500 -0.0124553 0.9996500 0.0124553 0.9996500 0.0124553 0.0003500 -0.0124553
38621001 0.0003438 -0.0121340 0.9996562 0.0121340 0.9996562 0.0121340 0.0003438 -0.0121340
39470161 0.0003381 -0.0118184 0.9996619 0.0118184 0.9996619 0.0118184 0.0003381 -0.0118184
40337993 0.0003327 -0.0115084 0.9996673 0.0115084 0.9996673 0.0115084 0.0003327 -0.0115084
41224905 0.0003276 -0.0112039 0.9996724 0.0112039 0.9996724 0.0112039 0.0003276 -0.0112039
42131317 0.0003229 -0.0109047 0.9996771 0.0109047 0.9996771 0.0109047 0.0003229 -0.0109047
43057659 0.0003186 -0.0106108 0.9996814 0.0106108 0.9996814 0.0106108 0.0003186 -0.0106108
44004369 0.0003145 -0.0103218 0.9996855 0.0103218 0.9996855 0.0103218 0.0003145 -0.0103218
44971893 0.0003108 -0.0100378 0.9996892 0.0100378 0.9996892 0.0100378 0.0003108 -0.0100378
45960691 0.0003074 -0.0097586 0.9996926 0.0097586 0.9996926 0.0097586 0.0003074 -0.0097586
46971230 0.0003043 -0.0094840 0.9996957 0.0094840 0.9996957 0.0094840 0.0003043 -0.0094840
48003987 0.0003015 -0.0092140 0.9996985 0.0092140 0.9996985 0.0092140 0.0003015 -0.0092140
49059451 0.0002989 -0.0089483 0.9997011 0.0089483 0.9997011 0.0089483 0.0002989 -0.0089483
50138122 0.0002966 -0.0086870 0.9997034 0.0086870 0.9997034 0.0086870 0.0002966 -0.0086870
51240510 0.0002946 -0.0084297 0.9997054 0.0084297 0.9997054 0.0084297 0.0002946 -0.0084297
52367136 0.0002929 -0.0081765 0.9997071 0.0081765 0.9997071 0.0081765 0.0002929 -0.0081765
53518533 0.0002913 -0.0079272 0.9997087 0.0079272 0.9997087 0.0079272 0.0002913 -0.0079272
54695245 0.0002901 -0.0076817 0.9997099 0.0076817 0.9997099 0.0076817 0.0002901 -0.0076817
55897831 0.0002891 -0.0074399 0.9997109 0.0074399 0.9997109 0.0074399 0.0002891 -0.0074399
57126857 0.0002883 -0.0072016 0.9997117 0.0072016 0.9997117 0.0072016 0.0002883 -0.0072016
58382906 0.0002877 -0.0069668 0.9997123 0.0069668 0.9997123 0.0069668 0.0002877 -0.0069668
59666572 0.0002873 -0.0067353 0.9997127 0.0067353 0.9997127 0.0067353 0.0002873 -0.0067353
60978462 0.0002872 -0.0065070 0.9997128 0.0065070 0.9997128 0.0065070 0.0002872 -0.0065070
62319196 0.0002873 -0.0062819 0.9997127 0.0062819 0.9997127 0.0062819 0.0002873 -0.0062819
63689409 0.0002876 -0.0060597 0.9997124 0.0060597 0.9997124 0.0060597 0.0002876 -0.0060597
65089750 0.0002881 -0.0058405 0.9997119 0.0058405 0.9997119 0.0058405 0.0002881 -0.0058405
66520879 0.0002888 -0.0056241 0.9997112 0.0056241 0.9997112 0.0056241 0.0002888 -0.0056241
67983474 0.0002897 -0.0054103 0.9997103 0.0054103 0.9997103 0.0054103 0.0002897 -0.0054103
69478228 0.0002908 -0.0051992 0.9997092 0.0051992 0.9997092 0.0051992 0.0002908 -0.0051992
71005847 0.0002921 -0.0049905 0.9997079 0.0049905 0.9997079 0.0049905 0.0002921 -0.0049905
72567054 0.0002936 -0.0047842 0.9997064 0.0047842 0.9997064 0.0047842 0.0002936 -0.0047842
74162587 0.0002953 -0.0045802 0.9997047 0.0045802 0.9997047 0.0045802 0.0002953 -0.0045802
75793201 0.0002972 -0.0043784 0.9997028 0.0043784 0.9997028 0.0043784 0.0002972 -0.0043784
77459667 0.0002993 -0.0041787 0.9997007 0.0041787 0.9997007 0.0041787 0.0002993 -0.0041787
79162774 0.0003016 -0.0039809 0.9996984 0.0039809 0.9996984 0.0039809 0.0003016 -0.0039809
80903327 0.0003041 -0.0037851 0.9996959 0.0037851 0.9996959 0.0037851 0.0003041 -0.0037851
82682150 0.0003068 -0.0035911 0.9996932 0.0035911 0.9996932 0.0035911 0.0003068 -0.0035911
84500083 0.0003097 -0.0033987 0.9996903 0.0033987 0.9996903 0.0033987 0.0003097 -0.0033987
86357988 0.0003127 -0.0032079 0.9996873 0.0032079 0.9996873 0.0032079 0.0003127 -0.0032079
88256743 0.0003160 -0.0030187 0.9996840 0.0030187 0.9996840 0.0030187 0.0003160 -0.0030187
90197245 0.0003195 -0.0028308 0.9996805 0.0028308 0.9996805 0.0028308 0.0003195 -0.0028308
92180413 0.0003232 -0.0026443 0.9996768 0.0026443 0.9996768 0.0026443 0.0003232 -0.0026443
94207185 0.0003272 -0.0024590 0.9996728 0.0024590 0.9996728 0.0024590 0.0003272 -0.0024590
96278520 0.0003313 -0.0022748 0.9996687 0.0022748 0.9996687 0.0022748 0.0003313 -0.0022748
98395398 0.0003357 -0.0020916 0.9996643 0.0020916 0.9996643 0.0020916 0.0003357 -0.0020916
100558819 0.0003403 -0.0019093 0.9996597 0.0019093 0.9996597 0.0019093 0.0003403 -0.0019093
102769807 0.0003452 -0.0017278 0.9996548 0.0017278 0.9996548 0.0017278 0.0003452 -0.0017278
105029408 0.0003503 -0.0015471 0.9996497 0.0015471 0.9996497 0.0015471 0.0003503 -0.0015471
107338692 0.0003556 -0.0013669 0.9996444 0.0013669 0.9996444 0.0013669 0.0003556 -0.0013669
