!Murata Part Number: GRM1885C2A102JA01
!These Parameters are Measured in Series Mode Connection
!Data Generated on Mar 30, 2021
!       o--ll--o
!Port1            Port2
!       o------o
!Operation Temp=25[degC], DC Bias Voltage=0[V]
!Freq. Start=1000[kHz] Stop=6[GHz] 401[Steps]
# Hz S RI R 50
!Freq.(Hz) S11(Real) S11(Imag) S21(Real) S21(Imag) S12(Real) S12(Imag) S22(Real) S22(Imag)
1000000 0.7187106 -0.4495644 0.2812894 0.4495644 0.2812894 0.4495644 0.7187106 -0.4495644
1021987 0.7098342 -0.4537734 0.2901658 0.4537734 0.2901658 0.4537734 0.7098342 -0.4537734
1044457 0.7007943 -0.4578433 0.2992057 0.4578433 0.2992057 0.4578433 0.7007943 -0.4578433
1067422 0.6915951 -0.4617664 0.3084049 0.4617664 0.3084049 0.4617664 0.6915951 -0.4617664
1090891 0.6822414 -0.4655353 0.3177586 0.4655353 0.3177586 0.4655353 0.6822414 -0.4655353
1114877 0.6727383 -0.4691424 0.3272617 0.4691424 0.3272617 0.4691424 0.6727383 -0.4691424
1139390 0.6630913 -0.4725805 0.3369087 0.4725805 0.3369087 0.4725805 0.6630913 -0.4725805
1164441 0.6533066 -0.4758426 0.3466934 0.4758426 0.3466934 0.4758426 0.6533066 -0.4758426
1190044 0.6433905 -0.4789220 0.3566095 0.4789220 0.3566095 0.4789220 0.6433905 -0.4789220
1216210 0.6333499 -0.4818120 0.3666501 0.4818120 0.3666501 0.4818120 0.6333499 -0.4818120
1242950 0.6231923 -0.4845065 0.3768077 0.4845065 0.3768077 0.4845065 0.6231923 -0.4845065
1270279 0.6129253 -0.4869997 0.3870747 0.4869997 0.3870747 0.4869997 0.6129253 -0.4869997
1298209 0.6025570 -0.4892860 0.3974430 0.4892860 0.3974430 0.4892860 0.6025570 -0.4892860
1326753 0.5920958 -0.4913603 0.4079042 0.4913603 0.4079042 0.4913603 0.5920958 -0.4913603
1355924 0.5815505 -0.4932179 0.4184495 0.4932179 0.4184495 0.4932179 0.5815505 -0.4932179
1385737 0.5709302 -0.4948547 0.4290698 0.4948547 0.4290698 0.4948547 0.5709302 -0.4948547
1416205 0.5602441 -0.4962668 0.4397559 0.4962668 0.4397559 0.4962668 0.5602441 -0.4962668
1447343 0.5495020 -0.4974509 0.4504980 0.4974509 0.4504980 0.4974509 0.5495020 -0.4974509
1479166 0.5387136 -0.4984044 0.4612864 0.4984044 0.4612864 0.4984044 0.5387136 -0.4984044
1511688 0.5278888 -0.4991249 0.4721112 0.4991249 0.4721112 0.4991249 0.5278888 -0.4991249
1544926 0.5170378 -0.4996108 0.4829622 0.4996108 0.4829622 0.4996108 0.5170378 -0.4996108
1578894 0.5061707 -0.4998609 0.4938293 0.4998609 0.4938293 0.4998609 0.5061707 -0.4998609
1613609 0.4952979 -0.4998746 0.5047021 0.4998746 0.5047021 0.4998746 0.4952979 -0.4998746
1649087 0.4844295 -0.4996520 0.5155705 0.4996520 0.5155705 0.4996520 0.4844295 -0.4996520
1685346 0.4735759 -0.4991934 0.5264241 0.4991934 0.5264241 0.4991934 0.4735759 -0.4991934
1722402 0.4627473 -0.4985001 0.5372527 0.4985001 0.5372527 0.4985001 0.4627473 -0.4985001
1760272 0.4519538 -0.4975735 0.5480462 0.4975735 0.5480462 0.4975735 0.4519538 -0.4975735
1798975 0.4412053 -0.4964160 0.5587947 0.4964160 0.5587947 0.4964160 0.4412053 -0.4964160
1838529 0.4305117 -0.4950301 0.5694883 0.4950301 0.5694883 0.4950301 0.4305117 -0.4950301
1878953 0.4198826 -0.4934192 0.5801174 0.4934192 0.5801174 0.4934192 0.4198826 -0.4934192
1920266 0.4093273 -0.4915868 0.5906727 0.4915868 0.5906727 0.4915868 0.4093273 -0.4915868
1962487 0.3988551 -0.4895372 0.6011449 0.4895372 0.6011449 0.4895372 0.3988551 -0.4895372
2005636 0.3884746 -0.4872750 0.6115254 0.4872750 0.6115254 0.4872750 0.3884746 -0.4872750
2049734 0.3781944 -0.4848052 0.6218056 0.4848052 0.6218056 0.4848052 0.3781944 -0.4848052
2094801 0.3680226 -0.4821334 0.6319774 0.4821334 0.6319774 0.4821334 0.3680226 -0.4821334
2140860 0.3579669 -0.4792652 0.6420331 0.4792652 0.6420331 0.4792652 0.3579669 -0.4792652
2187931 0.3480348 -0.4762070 0.6519652 0.4762070 0.6519652 0.4762070 0.3480348 -0.4762070
2236037 0.3382331 -0.4729651 0.6617669 0.4729651 0.6617669 0.4729651 0.3382331 -0.4729651
2285201 0.3285685 -0.4695463 0.6714315 0.4695463 0.6714315 0.4695463 0.3285685 -0.4695463
2335446 0.3190469 -0.4659577 0.6809531 0.4659577 0.6809531 0.4659577 0.3190469 -0.4659577
2386795 0.3096741 -0.4622063 0.6903259 0.4622063 0.6903259 0.4622063 0.3096741 -0.4622063
2439274 0.3004553 -0.4582997 0.6995447 0.4582997 0.6995447 0.4582997 0.3004553 -0.4582997
2492906 0.2913951 -0.4542454 0.7086049 0.4542454 0.7086049 0.4542454 0.2913951 -0.4542454
2547717 0.2824980 -0.4500510 0.7175020 0.4500510 0.7175020 0.4500510 0.2824980 -0.4500510
2603734 0.2737676 -0.4457242 0.7262324 0.4457242 0.7262324 0.4457242 0.2737676 -0.4457242
2660982 0.2652074 -0.4412730 0.7347926 0.4412730 0.7347926 0.4412730 0.2652074 -0.4412730
2719490 0.2568203 -0.4367051 0.7431797 0.4367051 0.7431797 0.4367051 0.2568203 -0.4367051
2779283 0.2486088 -0.4320283 0.7513912 0.4320283 0.7513912 0.4320283 0.2486088 -0.4320283
2840391 0.2405750 -0.4272505 0.7594250 0.4272505 0.7594250 0.4272505 0.2405750 -0.4272505
2902843 0.2327205 -0.4223794 0.7672795 0.4223794 0.7672795 0.4223794 0.2327205 -0.4223794
2966668 0.2250465 -0.4174227 0.7749535 0.4174227 0.7749535 0.4174227 0.2250465 -0.4174227
3031896 0.2175540 -0.4123879 0.7824460 0.4123879 0.7824460 0.4123879 0.2175540 -0.4123879
3098558 0.2102434 -0.4072826 0.7897566 0.4072826 0.7897566 0.4072826 0.2102434 -0.4072826
3166686 0.2031147 -0.4021140 0.7968853 0.4021140 0.7968853 0.4021140 0.2031147 -0.4021140
3236312 0.1961679 -0.3968893 0.8038321 0.3968893 0.8038321 0.3968893 0.1961679 -0.3968893
3307469 0.1894023 -0.3916155 0.8105977 0.3916155 0.8105977 0.3916155 0.1894023 -0.3916155
3380190 0.1828171 -0.3862995 0.8171829 0.3862995 0.8171829 0.3862995 0.1828171 -0.3862995
3454511 0.1764112 -0.3809478 0.8235888 0.3809478 0.8235888 0.3809478 0.1764112 -0.3809478
3530465 0.1701831 -0.3755668 0.8298169 0.3755668 0.8298169 0.3755668 0.1701831 -0.3755668
3608090 0.1641312 -0.3701628 0.8358688 0.3701628 0.8358688 0.3701628 0.1641312 -0.3701628
3687421 0.1582536 -0.3647417 0.8417464 0.3647417 0.8417464 0.3647417 0.1582536 -0.3647417
3768496 0.1525482 -0.3593092 0.8474518 0.3593092 0.8474518 0.3593092 0.1525482 -0.3593092
3851354 0.1470127 -0.3538710 0.8529873 0.3538710 0.8529873 0.3538710 0.1470127 -0.3538710
3936034 0.1416446 -0.3484322 0.8583554 0.3484322 0.8583554 0.3484322 0.1416446 -0.3484322
4022575 0.1364414 -0.3429979 0.8635586 0.3429979 0.8635586 0.3429979 0.1364414 -0.3429979
4111020 0.1314002 -0.3375730 0.8685998 0.3375730 0.8685998 0.3375730 0.1314002 -0.3375730
4201409 0.1265180 -0.3321619 0.8734820 0.3321619 0.8734820 0.3321619 0.1265180 -0.3321619
4293785 0.1217920 -0.3267691 0.8782080 0.3267691 0.8782080 0.3267691 0.1217920 -0.3267691
4388193 0.1172190 -0.3213985 0.8827810 0.3213985 0.8827810 0.3213985 0.1172190 -0.3213985
4484676 0.1127958 -0.3160542 0.8872042 0.3160542 0.8872042 0.3160542 0.1127958 -0.3160542
4583281 0.1085192 -0.3107396 0.8914808 0.3107396 0.8914808 0.3107396 0.1085192 -0.3107396
4684054 0.1043857 -0.3054583 0.8956143 0.3054583 0.8956143 0.3054583 0.1043857 -0.3054583
4787042 0.1003922 -0.3002135 0.8996078 0.3002135 0.8996078 0.3002135 0.1003922 -0.3002135
4892295 0.0965351 -0.2950080 0.9034649 0.2950080 0.9034649 0.2950080 0.0965351 -0.2950080
4999862 0.0928110 -0.2898448 0.9071890 0.2898448 0.9071890 0.2898448 0.0928110 -0.2898448
5109794 0.0892166 -0.2847263 0.9107834 0.2847263 0.9107834 0.2847263 0.0892166 -0.2847263
5222143 0.0857485 -0.2796550 0.9142515 0.2796550 0.9142515 0.2796550 0.0857485 -0.2796550
5336962 0.0824031 -0.2746330 0.9175969 0.2746330 0.9175969 0.2746330 0.0824031 -0.2746330
5454306 0.0791771 -0.2696623 0.9208229 0.2696623 0.9208229 0.2696623 0.0791771 -0.2696623
5574230 0.0760671 -0.2647448 0.9239329 0.2647448 0.9239329 0.2647448 0.0760671 -0.2647448
5696791 0.0730697 -0.2598822 0.9269303 0.2598822 0.9269303 0.2598822 0.0730697 -0.2598822
5822046 0.0701816 -0.2550759 0.9298184 0.2550759 0.9298184 0.2550759 0.0701816 -0.2550759
5950055 0.0673996 -0.2503273 0.9326004 0.2503273 0.9326004 0.2503273 0.0673996 -0.2503273
6080879 0.0647203 -0.2456376 0.9352797 0.2456376 0.9352797 0.2456376 0.0647203 -0.2456376
6214580 0.0621406 -0.2410078 0.9378594 0.2410078 0.9378594 0.2410078 0.0621406 -0.2410078
6351220 0.0596574 -0.2364389 0.9403426 0.2364389 0.9403426 0.2364389 0.0596574 -0.2364389
6490864 0.0572675 -0.2319316 0.9427325 0.2319316 0.9427325 0.2319316 0.0572675 -0.2319316
6633579 0.0549680 -0.2274867 0.9450320 0.2274867 0.9450320 0.2274867 0.0549680 -0.2274867
6779431 0.0527558 -0.2231047 0.9472442 0.2231047 0.9472442 0.2231047 0.0527558 -0.2231047
6928491 0.0506281 -0.2187861 0.9493719 0.2187861 0.9493719 0.2187861 0.0506281 -0.2187861
7080828 0.0485819 -0.2145312 0.9514181 0.2145312 0.9514181 0.2145312 0.0485819 -0.2145312
7236514 0.0466146 -0.2103403 0.9533854 0.2103403 0.9533854 0.2103403 0.0466146 -0.2103403
7395623 0.0447234 -0.2062136 0.9552766 0.2062136 0.9552766 0.2062136 0.0447234 -0.2062136
7558231 0.0429057 -0.2021510 0.9570943 0.2021510 0.9570943 0.2021510 0.0429057 -0.2021510
7724414 0.0411589 -0.1981527 0.9588411 0.1981527 0.9588411 0.1981527 0.0411589 -0.1981527
7894251 0.0394804 -0.1942186 0.9605196 0.1942186 0.9605196 0.1942186 0.0394804 -0.1942186
8067822 0.0378679 -0.1903485 0.9621321 0.1903485 0.9621321 0.1903485 0.0378679 -0.1903485
8245209 0.0363190 -0.1865422 0.9636810 0.1865422 0.9636810 0.1865422 0.0363190 -0.1865422
8426497 0.0348313 -0.1827994 0.9651687 0.1827994 0.9651687 0.1827994 0.0348313 -0.1827994
8611770 0.0334027 -0.1791200 0.9665973 0.1791200 0.9665973 0.1791200 0.0334027 -0.1791200
8801117 0.0320309 -0.1755033 0.9679691 0.1755033 0.9679691 0.1755033 0.0320309 -0.1755033
8994628 0.0307139 -0.1719492 0.9692861 0.1719492 0.9692861 0.1719492 0.0307139 -0.1719492
9192393 0.0294496 -0.1684570 0.9705504 0.1684570 0.9705504 0.1684570 0.0294496 -0.1684570
9394506 0.0282360 -0.1650263 0.9717640 0.1650263 0.9717640 0.1650263 0.0282360 -0.1650263
9601063 0.0270713 -0.1616566 0.9729287 0.1616566 0.9729287 0.1616566 0.0270713 -0.1616566
9812162 0.0259536 -0.1583473 0.9740464 0.1583473 0.9740464 0.1583473 0.0259536 -0.1583473
10027902 0.0248810 -0.1550977 0.9751190 0.1550977 0.9751190 0.1550977 0.0248810 -0.1550977
10248386 0.0238519 -0.1519073 0.9761481 0.1519073 0.9761481 0.1519073 0.0238519 -0.1519073
10473717 0.0228646 -0.1487754 0.9771354 0.1487754 0.9771354 0.1487754 0.0228646 -0.1487754
10704003 0.0219175 -0.1457013 0.9780825 0.1457013 0.9780825 0.1457013 0.0219175 -0.1457013
10939352 0.0210090 -0.1426844 0.9789910 0.1426844 0.9789910 0.1426844 0.0210090 -0.1426844
11179876 0.0201377 -0.1397239 0.9798623 0.1397239 0.9798623 0.1397239 0.0201377 -0.1397239
11425688 0.0193020 -0.1368191 0.9806980 0.1368191 0.9806980 0.1368191 0.0193020 -0.1368191
11676904 0.0185005 -0.1339692 0.9814995 0.1339692 0.9814995 0.1339692 0.0185005 -0.1339692
11933645 0.0177320 -0.1311735 0.9822680 0.1311735 0.9822680 0.1311735 0.0177320 -0.1311735
12196030 0.0169951 -0.1284313 0.9830049 0.1284313 0.9830049 0.1284313 0.0169951 -0.1284313
12464184 0.0162886 -0.1257417 0.9837114 0.1257417 0.9837114 0.1257417 0.0162886 -0.1257417
12738235 0.0156112 -0.1231040 0.9843888 0.1231040 0.9843888 0.1231040 0.0156112 -0.1231040
13018310 0.0149619 -0.1205174 0.9850381 0.1205174 0.9850381 0.1205174 0.0149619 -0.1205174
13304544 0.0143394 -0.1179811 0.9856606 0.1179811 0.9856606 0.1179811 0.0143394 -0.1179811
13597071 0.0137427 -0.1154944 0.9862573 0.1154944 0.9862573 0.1154944 0.0137427 -0.1154944
13896030 0.0131708 -0.1130564 0.9868292 0.1130564 0.9868292 0.1130564 0.0131708 -0.1130564
14201563 0.0126226 -0.1106664 0.9873774 0.1106664 0.9873774 0.1106664 0.0126226 -0.1106664
14513813 0.0120973 -0.1083235 0.9879027 0.1083235 0.9879027 0.1083235 0.0120973 -0.1083235
14832928 0.0115938 -0.1060270 0.9884062 0.1060270 0.9884062 0.1060270 0.0115938 -0.1060270
15159060 0.0111114 -0.1037761 0.9888886 0.1037761 0.9888886 0.1037761 0.0111114 -0.1037761
15492362 0.0106491 -0.1015700 0.9893509 0.1015700 0.9893509 0.1015700 0.0106491 -0.1015700
15832993 0.0102061 -0.0994080 0.9897939 0.0994080 0.9897939 0.0994080 0.0102061 -0.0994080
16181113 0.0097817 -0.0972892 0.9902183 0.0972892 0.9902183 0.0972892 0.0097817 -0.0972892
16536888 0.0093751 -0.0952129 0.9906249 0.0952129 0.9906249 0.0952129 0.0093751 -0.0952129
16900485 0.0089855 -0.0931783 0.9910145 0.0931783 0.9910145 0.0931783 0.0089855 -0.0931783
17272076 0.0086123 -0.0911847 0.9913877 0.0911847 0.9913877 0.0911847 0.0086123 -0.0911847
17651837 0.0082548 -0.0892314 0.9917452 0.0892314 0.9917452 0.0892314 0.0082548 -0.0892314
18039948 0.0079123 -0.0873175 0.9920877 0.0873175 0.9920877 0.0873175 0.0079123 -0.0873175
18436593 0.0075842 -0.0854424 0.9924158 0.0854424 0.9924158 0.0854424 0.0075842 -0.0854424
18841959 0.0072700 -0.0836053 0.9927300 0.0836053 0.9927300 0.0836053 0.0072700 -0.0836053
19256237 0.0069691 -0.0818056 0.9930309 0.0818056 0.9930309 0.0818056 0.0069691 -0.0818056
19679624 0.0066808 -0.0800424 0.9933192 0.0800424 0.9933192 0.0800424 0.0066808 -0.0800424
20112321 0.0064048 -0.0783152 0.9935952 0.0783152 0.9935952 0.0783152 0.0064048 -0.0783152
20554530 0.0061404 -0.0766231 0.9938596 0.0766231 0.9938596 0.0766231 0.0061404 -0.0766231
21006463 0.0058873 -0.0749656 0.9941127 0.0749656 0.9941127 0.0749656 0.0058873 -0.0749656
21468333 0.0056449 -0.0733419 0.9943551 0.0733419 0.9943551 0.0733419 0.0056449 -0.0733419
21940357 0.0054128 -0.0717515 0.9945872 0.0717515 0.9945872 0.0717515 0.0054128 -0.0717515
22422760 0.0051906 -0.0701935 0.9948094 0.0701935 0.9948094 0.0701935 0.0051906 -0.0701935
22915770 0.0049778 -0.0686675 0.9950222 0.0686675 0.9950222 0.0686675 0.0049778 -0.0686675
23419619 0.0047741 -0.0671727 0.9952259 0.0671727 0.9952259 0.0671727 0.0047741 -0.0671727
23934547 0.0045791 -0.0657085 0.9954209 0.0657085 0.9954209 0.0657085 0.0045791 -0.0657085
24460796 0.0043924 -0.0642744 0.9956076 0.0642744 0.9956076 0.0642744 0.0043924 -0.0642744
24998616 0.0042138 -0.0628696 0.9957862 0.0628696 0.9957862 0.0628696 0.0042138 -0.0628696
25548261 0.0040427 -0.0614937 0.9959573 0.0614937 0.9959573 0.0614937 0.0040427 -0.0614937
26109991 0.0038790 -0.0601460 0.9961210 0.0601460 0.9961210 0.0601460 0.0038790 -0.0601460
26684072 0.0037224 -0.0588259 0.9962776 0.0588259 0.9962776 0.0588259 0.0037224 -0.0588259
27270775 0.0035725 -0.0575329 0.9964275 0.0575329 0.9964275 0.0575329 0.0035725 -0.0575329
27870378 0.0034290 -0.0562665 0.9965710 0.0562665 0.9965710 0.0562665 0.0034290 -0.0562665
28483164 0.0032917 -0.0550260 0.9967083 0.0550260 0.9967083 0.0550260 0.0032917 -0.0550260
29109424 0.0031604 -0.0538109 0.9968396 0.0538109 0.9968396 0.0538109 0.0031604 -0.0538109
29749453 0.0030347 -0.0526207 0.9969653 0.0526207 0.9969653 0.0526207 0.0030347 -0.0526207
30403555 0.0029145 -0.0514549 0.9970855 0.0514549 0.9970855 0.0514549 0.0029145 -0.0514549
31072038 0.0027995 -0.0503129 0.9972005 0.0503129 0.9972005 0.0503129 0.0027995 -0.0503129
31755220 0.0026895 -0.0491943 0.9973105 0.0491943 0.9973105 0.0491943 0.0026895 -0.0491943
32453422 0.0025843 -0.0480986 0.9974157 0.0480986 0.9974157 0.0480986 0.0025843 -0.0480986
33166976 0.0024837 -0.0470252 0.9975163 0.0470252 0.9975163 0.0470252 0.0024837 -0.0470252
33896219 0.0023875 -0.0459738 0.9976125 0.0459738 0.9976125 0.0459738 0.0023875 -0.0459738
34641496 0.0022955 -0.0449437 0.9977045 0.0449437 0.9977045 0.0449437 0.0022955 -0.0449437
35403159 0.0022075 -0.0439346 0.9977925 0.0439346 0.9977925 0.0439346 0.0022075 -0.0439346
36181569 0.0021235 -0.0429461 0.9978765 0.0429461 0.9978765 0.0429461 0.0021235 -0.0429461
36977093 0.0020431 -0.0419776 0.9979569 0.0419776 0.9979569 0.0419776 0.0020431 -0.0419776
37790109 0.0019663 -0.0410288 0.9980337 0.0410288 0.9980337 0.0410288 0.0019663 -0.0410288
38621001 0.0018928 -0.0400991 0.9981072 0.0400991 0.9981072 0.0400991 0.0018928 -0.0400991
39470161 0.0018227 -0.0391883 0.9981773 0.0391883 0.9981773 0.0391883 0.0018227 -0.0391883
40337993 0.0017556 -0.0382958 0.9982444 0.0382958 0.9982444 0.0382958 0.0017556 -0.0382958
41224905 0.0016916 -0.0374213 0.9983084 0.0374213 0.9983084 0.0374213 0.0016916 -0.0374213
42131317 0.0016304 -0.0365644 0.9983696 0.0365644 0.9983696 0.0365644 0.0016304 -0.0365644
43057659 0.0015720 -0.0357246 0.9984280 0.0357246 0.9984280 0.0357246 0.0015720 -0.0357246
44004369 0.0015162 -0.0349017 0.9984838 0.0349017 0.9984838 0.0349017 0.0015162 -0.0349017
44971893 0.0014629 -0.0340952 0.9985371 0.0340952 0.9985371 0.0340952 0.0014629 -0.0340952
45960691 0.0014120 -0.0333047 0.9985880 0.0333047 0.9985880 0.0333047 0.0014120 -0.0333047
46971230 0.0013635 -0.0325299 0.9986365 0.0325299 0.9986365 0.0325299 0.0013635 -0.0325299
48003987 0.0013171 -0.0317705 0.9986829 0.0317705 0.9986829 0.0317705 0.0013171 -0.0317705
49059451 0.0012729 -0.0310260 0.9987271 0.0310260 0.9987271 0.0310260 0.0012729 -0.0310260
50138122 0.0012307 -0.0302962 0.9987693 0.0302962 0.9987693 0.0302962 0.0012307 -0.0302962
51240510 0.0011904 -0.0295807 0.9988096 0.0295807 0.9988096 0.0295807 0.0011904 -0.0295807
52367136 0.0011521 -0.0288792 0.9988479 0.0288792 0.9988479 0.0288792 0.0011521 -0.0288792
53518533 0.0011154 -0.0281913 0.9988846 0.0281913 0.9988846 0.0281913 0.0011154 -0.0281913
54695245 0.0010805 -0.0275168 0.9989195 0.0275168 0.9989195 0.0275168 0.0010805 -0.0275168
55897831 0.0010473 -0.0268552 0.9989527 0.0268552 0.9989527 0.0268552 0.0010473 -0.0268552
57126857 0.0010156 -0.0262064 0.9989844 0.0262064 0.9989844 0.0262064 0.0010156 -0.0262064
58382906 0.0009854 -0.0255700 0.9990146 0.0255700 0.9990146 0.0255700 0.0009854 -0.0255700
59666572 0.0009566 -0.0249457 0.9990434 0.0249457 0.9990434 0.0249457 0.0009566 -0.0249457
60978462 0.0009292 -0.0243332 0.9990708 0.0243332 0.9990708 0.0243332 0.0009292 -0.0243332
62319196 0.0009031 -0.0237322 0.9990969 0.0237322 0.9990969 0.0237322 0.0009031 -0.0237322
63689409 0.0008783 -0.0231425 0.9991217 0.0231425 0.9991217 0.0231425 0.0008783 -0.0231425
65089750 0.0008547 -0.0225638 0.9991453 0.0225638 0.9991453 0.0225638 0.0008547 -0.0225638
66520879 0.0008322 -0.0219958 0.9991678 0.0219958 0.9991678 0.0219958 0.0008322 -0.0219958
67983474 0.0008109 -0.0214382 0.9991891 0.0214382 0.9991891 0.0214382 0.0008109 -0.0214382
69478228 0.0007906 -0.0208908 0.9992094 0.0208908 0.9992094 0.0208908 0.0007906 -0.0208908
71005847 0.0007713 -0.0203533 0.9992287 0.0203533 0.9992287 0.0203533 0.0007713 -0.0203533
72567054 0.0007531 -0.0198254 0.9992469 0.0198254 0.9992469 0.0198254 0.0007531 -0.0198254
74162587 0.0007357 -0.0193070 0.9992643 0.0193070 0.9992643 0.0193070 0.0007357 -0.0193070
75793201 0.0007193 -0.0187977 0.9992807 0.0187977 0.9992807 0.0187977 0.0007193 -0.0187977
77459667 0.0007037 -0.0182974 0.9992963 0.0182974 0.9992963 0.0182974 0.0007037 -0.0182974
79162774 0.0006889 -0.0178057 0.9993111 0.0178057 0.9993111 0.0178057 0.0006889 -0.0178057
80903327 0.0006749 -0.0173225 0.9993251 0.0173225 0.9993251 0.0173225 0.0006749 -0.0173225
82682150 0.0006617 -0.0168475 0.9993383 0.0168475 0.9993383 0.0168475 0.0006617 -0.0168475
84500083 0.0006493 -0.0163805 0.9993507 0.0163805 0.9993507 0.0163805 0.0006493 -0.0163805
86357988 0.0006375 -0.0159212 0.9993625 0.0159212 0.9993625 0.0159212 0.0006375 -0.0159212
88256743 0.0006264 -0.0154695 0.9993736 0.0154695 0.9993736 0.0154695 0.0006264 -0.0154695
90197245 0.0006160 -0.0150252 0.9993840 0.0150252 0.9993840 0.0150252 0.0006160 -0.0150252
92180413 0.0006062 -0.0145879 0.9993938 0.0145879 0.9993938 0.0145879 0.0006062 -0.0145879
94207185 0.0005971 -0.0141576 0.9994029 0.0141576 0.9994029 0.0141576 0.0005971 -0.0141576
96278520 0.0005885 -0.0137340 0.9994115 0.0137340 0.9994115 0.0137340 0.0005885 -0.0137340
98395398 0.0005805 -0.0133169 0.9994195 0.0133169 0.9994195 0.0133169 0.0005805 -0.0133169
100558819 0.0005730 -0.0129060 0.9994270 0.0129060 0.9994270 0.0129060 0.0005730 -0.0129060
102769807 0.0005661 -0.0125013 0.9994339 0.0125013 0.9994339 0.0125013 0.0005661 -0.0125013
105029408 0.0005597 -0.0121025 0.9994403 0.0121025 0.9994403 0.0121025 0.0005597 -0.0121025
107338692 0.0005538 -0.0117093 0.9994462 0.0117093 0.9994462 0.0117093 0.0005538 -0.0117093
