!Murata Part Number: GRM1882C2A8R9BA01
!These Parameters are Measured in Series Mode Connection
!Data Generated on Mar 30, 2021
!       o--ll--o
!Port1            Port2
!       o------o
!Operation Temp=25[degC], DC Bias Voltage=0[V]
!Freq. Start=100[MHz] Stop=9[GHz] 401[Steps]
# Hz S RI R 50
!Freq.(Hz) S11(Real) S11(Imag) S21(Real) S21(Imag) S12(Real) S12(Imag) S22(Real) S22(Imag)
100000000 0.7609554 -0.4261847 0.2390446 0.4261847 0.2390446 0.4261847 0.7609554 -0.4261847
121000000 0.6846192 -0.4642696 0.3153808 0.4642696 0.3153808 0.4642696 0.6846192 -0.4642696
142000000 0.6113842 -0.4869475 0.3886158 0.4869475 0.3886158 0.4869475 0.6113842 -0.4869475
163000000 0.5436767 -0.4975014 0.4563233 0.4975014 0.4563233 0.4975014 0.5436767 -0.4975014
184000000 0.4826070 -0.4990023 0.5173930 0.4990023 0.5173930 0.4990023 0.4826070 -0.4990023
205000000 0.4284037 -0.4940357 0.5715963 0.4940357 0.5715963 0.4940357 0.4284037 -0.4940357
226000000 0.3807749 -0.4846402 0.6192251 0.4846402 0.6192251 0.4846402 0.3807749 -0.4846402
247000000 0.3391628 -0.4723543 0.6608372 0.4723543 0.6608372 0.4723543 0.3391628 -0.4723543
268000000 0.3029070 -0.4583028 0.6970930 0.4583028 0.6970930 0.4583028 0.3029070 -0.4583028
289000000 0.2713385 -0.4432886 0.7286615 0.4432886 0.7286615 0.4432886 0.2713385 -0.4432886
310000000 0.2438290 -0.4278729 0.7561710 0.4278729 0.7561710 0.4278729 0.2438290 -0.4278729
331000000 0.2198137 -0.4124399 0.7801863 0.4124399 0.7801863 0.4124399 0.2198137 -0.4124399
352000000 0.1987974 -0.3972463 0.8012026 0.3972463 0.8012026 0.3972463 0.1987974 -0.3972463
373000000 0.1803527 -0.3824580 0.8196473 0.3824580 0.8196473 0.3824580 0.1803527 -0.3824580
394000000 0.1641143 -0.3681773 0.8358857 0.3681773 0.8358857 0.3681773 0.1641143 -0.3681773
415000000 0.1497715 -0.3544617 0.8502285 0.3544617 0.8502285 0.3544617 0.1497715 -0.3544617
436000000 0.1370610 -0.3413381 0.8629390 0.3413381 0.8629390 0.3413381 0.1370610 -0.3413381
457000000 0.1257598 -0.3288128 0.8742402 0.3288128 0.8742402 0.3288128 0.1257598 -0.3288128
478000000 0.1156787 -0.3168778 0.8843213 0.3168778 0.8843213 0.3168778 0.1156787 -0.3168778
499000000 0.1066573 -0.3055163 0.8933427 0.3055163 0.8933427 0.3055163 0.1066573 -0.3055163
520000000 0.0985593 -0.2947058 0.9014407 0.2947058 0.9014407 0.2947058 0.0985593 -0.2947058
541000000 0.0912683 -0.2844207 0.9087317 0.2844207 0.9087317 0.2844207 0.0912683 -0.2844207
562000000 0.0846850 -0.2746336 0.9153150 0.2746336 0.9153150 0.2746336 0.0846850 -0.2746336
583000000 0.0787244 -0.2653168 0.9212756 0.2653168 0.9212756 0.2653168 0.0787244 -0.2653168
604000000 0.0733131 -0.2564430 0.9266869 0.2564430 0.9266869 0.2564430 0.0733131 -0.2564430
625000000 0.0683881 -0.2479854 0.9316119 0.2479854 0.9316119 0.2479854 0.0683881 -0.2479854
646000000 0.0638949 -0.2399186 0.9361051 0.2399186 0.9361051 0.2399186 0.0638949 -0.2399186
667000000 0.0597860 -0.2322182 0.9402140 0.2322182 0.9402140 0.2322182 0.0597860 -0.2322182
688000000 0.0560204 -0.2248613 0.9439796 0.2248613 0.9439796 0.2248613 0.0560204 -0.2248613
709000000 0.0525620 -0.2178264 0.9474380 0.2178264 0.9474380 0.2178264 0.0525620 -0.2178264
730000000 0.0493795 -0.2110933 0.9506205 0.2110933 0.9506205 0.2110933 0.0493795 -0.2110933
751000000 0.0464452 -0.2046433 0.9535548 0.2046433 0.9535548 0.2046433 0.0464452 -0.2046433
772000000 0.0437347 -0.1984587 0.9562653 0.1984587 0.9562653 0.1984587 0.0437347 -0.1984587
793000000 0.0412267 -0.1925233 0.9587733 0.1925233 0.9587733 0.1925233 0.0412267 -0.1925233
814000000 0.0389022 -0.1868219 0.9610978 0.1868219 0.9610978 0.1868219 0.0389022 -0.1868219
835000000 0.0367444 -0.1813403 0.9632556 0.1813403 0.9632556 0.1813403 0.0367444 -0.1813403
856000000 0.0347383 -0.1760655 0.9652617 0.1760655 0.9652617 0.1760655 0.0347383 -0.1760655
877000000 0.0328705 -0.1709853 0.9671295 0.1709853 0.9671295 0.1709853 0.0328705 -0.1709853
898000000 0.0311291 -0.1660883 0.9688709 0.1660883 0.9688709 0.1660883 0.0311291 -0.1660883
919000000 0.0295035 -0.1613640 0.9704965 0.1613640 0.9704965 0.1613640 0.0295035 -0.1613640
940000000 0.0279840 -0.1568026 0.9720160 0.1568026 0.9720160 0.1568026 0.0279840 -0.1568026
961000000 0.0265622 -0.1523949 0.9734378 0.1523949 0.9734378 0.1523949 0.0265622 -0.1523949
982000000 0.0252301 -0.1481325 0.9747699 0.1481325 0.9747699 0.1481325 0.0252301 -0.1481325
1003000000 0.0239809 -0.1440075 0.9760191 0.1440075 0.9760191 0.1440075 0.0239809 -0.1440075
1024000000 0.0228082 -0.1400124 0.9771918 0.1400124 0.9771918 0.1400124 0.0228082 -0.1400124
1045000000 0.0217062 -0.1361403 0.9782938 0.1361403 0.9782938 0.1361403 0.0217062 -0.1361403
1066000000 0.0206697 -0.1323849 0.9793303 0.1323849 0.9793303 0.1323849 0.0206697 -0.1323849
1087000000 0.0196940 -0.1287400 0.9803060 0.1287400 0.9803060 0.1287400 0.0196940 -0.1287400
1108000000 0.0187748 -0.1252001 0.9812252 0.1252001 0.9812252 0.1252001 0.0187748 -0.1252001
1129000000 0.0179082 -0.1217599 0.9820918 0.1217599 0.9820918 0.1217599 0.0179082 -0.1217599
1150000000 0.0170905 -0.1184144 0.9829095 0.1184144 0.9829095 0.1184144 0.0170905 -0.1184144
1171000000 0.0163185 -0.1151591 0.9836815 0.1151591 0.9836815 0.1151591 0.0163185 -0.1151591
1192000000 0.0155891 -0.1119895 0.9844109 0.1119895 0.9844109 0.1119895 0.0155891 -0.1119895
1213000000 0.0148996 -0.1089015 0.9851004 0.1089015 0.9851004 0.1089015 0.0148996 -0.1089015
1234000000 0.0142475 -0.1058914 0.9857525 0.1058914 0.9857525 0.1058914 0.0142475 -0.1058914
1255000000 0.0136303 -0.1029555 0.9863697 0.1029555 0.9863697 0.1029555 0.0136303 -0.1029555
1276000000 0.0130460 -0.1000904 0.9869540 0.1000904 0.9869540 0.1000904 0.0130460 -0.1000904
1297000000 0.0124926 -0.0972929 0.9875074 0.0972929 0.9875074 0.0972929 0.0124926 -0.0972929
1318000000 0.0119682 -0.0945600 0.9880318 0.0945600 0.9880318 0.0945600 0.0119682 -0.0945600
1339000000 0.0114711 -0.0918888 0.9885289 0.0918888 0.9885289 0.0918888 0.0114711 -0.0918888
1360000000 0.0109998 -0.0892767 0.9890002 0.0892767 0.9890002 0.0892767 0.0109998 -0.0892767
1381000000 0.0105528 -0.0867211 0.9894472 0.0867211 0.9894472 0.0867211 0.0105528 -0.0867211
1402000000 0.0101288 -0.0842197 0.9898712 0.0842197 0.9898712 0.0842197 0.0101288 -0.0842197
1423000000 0.0097264 -0.0817700 0.9902736 0.0817700 0.9902736 0.0817700 0.0097264 -0.0817700
1444000000 0.0093446 -0.0793700 0.9906554 0.0793700 0.9906554 0.0793700 0.0093446 -0.0793700
1465000000 0.0089823 -0.0770176 0.9910177 0.0770176 0.9910177 0.0770176 0.0089823 -0.0770176
1486000000 0.0086384 -0.0747110 0.9913616 0.0747110 0.9913616 0.0747110 0.0086384 -0.0747110
1507000000 0.0083120 -0.0724482 0.9916880 0.0724482 0.9916880 0.0724482 0.0083120 -0.0724482
1528000000 0.0080022 -0.0702275 0.9919978 0.0702275 0.9919978 0.0702275 0.0080022 -0.0702275
1549000000 0.0077082 -0.0680473 0.9922918 0.0680473 0.9922918 0.0680473 0.0077082 -0.0680473
1570000000 0.0074293 -0.0659059 0.9925707 0.0659059 0.9925707 0.0659059 0.0074293 -0.0659059
1591000000 0.0071647 -0.0638020 0.9928353 0.0638020 0.9928353 0.0638020 0.0071647 -0.0638020
1612000000 0.0069137 -0.0617340 0.9930863 0.0617340 0.9930863 0.0617340 0.0069137 -0.0617340
1633000000 0.0066758 -0.0597006 0.9933242 0.0597006 0.9933242 0.0597006 0.0066758 -0.0597006
1654000000 0.0064503 -0.0577005 0.9935497 0.0577005 0.9935497 0.0577005 0.0064503 -0.0577005
1675000000 0.0062366 -0.0557325 0.9937634 0.0557325 0.9937634 0.0557325 0.0062366 -0.0557325
1696000000 0.0060344 -0.0537954 0.9939656 0.0537954 0.9939656 0.0537954 0.0060344 -0.0537954
1717000000 0.0058430 -0.0518881 0.9941570 0.0518881 0.9941570 0.0518881 0.0058430 -0.0518881
1738000000 0.0056620 -0.0500095 0.9943380 0.0500095 0.9943380 0.0500095 0.0056620 -0.0500095
1759000000 0.0054910 -0.0481585 0.9945090 0.0481585 0.9945090 0.0481585 0.0054910 -0.0481585
1780000000 0.0053296 -0.0463343 0.9946704 0.0463343 0.9946704 0.0463343 0.0053296 -0.0463343
1801000000 0.0051774 -0.0445358 0.9948226 0.0445358 0.9948226 0.0445358 0.0051774 -0.0445358
1822000000 0.0050341 -0.0427622 0.9949659 0.0427622 0.9949659 0.0427622 0.0050341 -0.0427622
1843000000 0.0048992 -0.0410126 0.9951008 0.0410126 0.9951008 0.0410126 0.0048992 -0.0410126
1864000000 0.0047725 -0.0392862 0.9952275 0.0392862 0.9952275 0.0392862 0.0047725 -0.0392862
1885000000 0.0046537 -0.0375821 0.9953463 0.0375821 0.9953463 0.0375821 0.0046537 -0.0375821
1906000000 0.0045425 -0.0358997 0.9954575 0.0358997 0.9954575 0.0358997 0.0045425 -0.0358997
1927000000 0.0044386 -0.0342382 0.9955614 0.0342382 0.9955614 0.0342382 0.0044386 -0.0342382
1948000000 0.0043418 -0.0325969 0.9956582 0.0325969 0.9956582 0.0325969 0.0043418 -0.0325969
1969000000 0.0042518 -0.0309752 0.9957482 0.0309752 0.9957482 0.0309752 0.0042518 -0.0309752
1990000000 0.0041685 -0.0293723 0.9958315 0.0293723 0.9958315 0.0293723 0.0041685 -0.0293723
2011000000 0.0040915 -0.0277877 0.9959085 0.0277877 0.9959085 0.0277877 0.0040915 -0.0277877
2032000000 0.0040207 -0.0262208 0.9959793 0.0262208 0.9959793 0.0262208 0.0040207 -0.0262208
2053000000 0.0039559 -0.0246710 0.9960441 0.0246710 0.9960441 0.0246710 0.0039559 -0.0246710
2074000000 0.0038969 -0.0231377 0.9961031 0.0231377 0.9961031 0.0231377 0.0038969 -0.0231377
2095000000 0.0038436 -0.0216205 0.9961564 0.0216205 0.9961564 0.0216205 0.0038436 -0.0216205
2116000000 0.0037957 -0.0201188 0.9962043 0.0201188 0.9962043 0.0201188 0.0037957 -0.0201188
2137000000 0.0037532 -0.0186320 0.9962468 0.0186320 0.9962468 0.0186320 0.0037532 -0.0186320
2158000000 0.0037158 -0.0171599 0.9962842 0.0171599 0.9962842 0.0171599 0.0037158 -0.0171599
2179000000 0.0036835 -0.0157017 0.9963165 0.0157017 0.9963165 0.0157017 0.0036835 -0.0157017
2200000000 0.0036561 -0.0142572 0.9963439 0.0142572 0.9963439 0.0142572 0.0036561 -0.0142572
2221000000 0.0036335 -0.0128259 0.9963665 0.0128259 0.9963665 0.0128259 0.0036335 -0.0128259
2242000000 0.0036156 -0.0114074 0.9963844 0.0114074 0.9963844 0.0114074 0.0036156 -0.0114074
2263000000 0.0036022 -0.0100013 0.9963978 0.0100013 0.9963978 0.0100013 0.0036022 -0.0100013
2284000000 0.0035933 -0.0086071 0.9964067 0.0086071 0.9964067 0.0086071 0.0035933 -0.0086071
2305000000 0.0035887 -0.0072246 0.9964113 0.0072246 0.9964113 0.0072246 0.0035887 -0.0072246
2326000000 0.0035884 -0.0058533 0.9964116 0.0058533 0.9964116 0.0058533 0.0035884 -0.0058533
2347000000 0.0035923 -0.0044929 0.9964077 0.0044929 0.9964077 0.0044929 0.0035923 -0.0044929
2368000000 0.0036003 -0.0031430 0.9963997 0.0031430 0.9963997 0.0031430 0.0036003 -0.0031430
2389000000 0.0036123 -0.0018034 0.9963877 0.0018034 0.9963877 0.0018034 0.0036123 -0.0018034
2410000000 0.0036282 -0.0004736 0.9963718 0.0004736 0.9963718 0.0004736 0.0036282 -0.0004736
2431000000 0.0036481 0.0008466 0.9963519 -0.0008466 0.9963519 -0.0008466 0.0036481 0.0008466
2452000000 0.0036717 0.0021575 0.9963283 -0.0021575 0.9963283 -0.0021575 0.0036717 0.0021575
2473000000 0.0036991 0.0034595 0.9963009 -0.0034595 0.9963009 -0.0034595 0.0036991 0.0034595
2494000000 0.0037301 0.0047527 0.9962699 -0.0047527 0.9962699 -0.0047527 0.0037301 0.0047527
2515000000 0.0037648 0.0060376 0.9962352 -0.0060376 0.9962352 -0.0060376 0.0037648 0.0060376
2536000000 0.0038031 0.0073144 0.9961969 -0.0073144 0.9961969 -0.0073144 0.0038031 0.0073144
2557000000 0.0038450 0.0085833 0.9961550 -0.0085833 0.9961550 -0.0085833 0.0038450 0.0085833
2578000000 0.0038903 0.0098446 0.9961097 -0.0098446 0.9961097 -0.0098446 0.0038903 0.0098446
2599000000 0.0039391 0.0110985 0.9960609 -0.0110985 0.9960609 -0.0110985 0.0039391 0.0110985
2620000000 0.0039913 0.0123454 0.9960087 -0.0123454 0.9960087 -0.0123454 0.0039913 0.0123454
2641000000 0.0040469 0.0135855 0.9959531 -0.0135855 0.9959531 -0.0135855 0.0040469 0.0135855
2662000000 0.0041059 0.0148189 0.9958941 -0.0148189 0.9958941 -0.0148189 0.0041059 0.0148189
2683000000 0.0041682 0.0160459 0.9958318 -0.0160459 0.9958318 -0.0160459 0.0041682 0.0160459
2704000000 0.0042339 0.0172669 0.9957661 -0.0172669 0.9957661 -0.0172669 0.0042339 0.0172669
2725000000 0.0043028 0.0184819 0.9956972 -0.0184819 0.9956972 -0.0184819 0.0043028 0.0184819
2746000000 0.0043750 0.0196912 0.9956250 -0.0196912 0.9956250 -0.0196912 0.0043750 0.0196912
2767000000 0.0044504 0.0208950 0.9955496 -0.0208950 0.9955496 -0.0208950 0.0044504 0.0208950
2788000000 0.0045291 0.0220936 0.9954709 -0.0220936 0.9954709 -0.0220936 0.0045291 0.0220936
2809000000 0.0046110 0.0232871 0.9953890 -0.0232871 0.9953890 -0.0232871 0.0046110 0.0232871
2830000000 0.0046962 0.0244757 0.9953038 -0.0244757 0.9953038 -0.0244757 0.0046962 0.0244757
2851000000 0.0047846 0.0256598 0.9952154 -0.0256598 0.9952154 -0.0256598 0.0047846 0.0256598
2872000000 0.0048762 0.0268393 0.9951238 -0.0268393 0.9951238 -0.0268393 0.0048762 0.0268393
2893000000 0.0049710 0.0280147 0.9950290 -0.0280147 0.9950290 -0.0280147 0.0049710 0.0280147
2914000000 0.0050691 0.0291859 0.9949309 -0.0291859 0.9949309 -0.0291859 0.0050691 0.0291859
2935000000 0.0051704 0.0303533 0.9948296 -0.0303533 0.9948296 -0.0303533 0.0051704 0.0303533
2956000000 0.0052750 0.0315171 0.9947250 -0.0315171 0.9947250 -0.0315171 0.0052750 0.0315171
2977000000 0.0053828 0.0326774 0.9946172 -0.0326774 0.9946172 -0.0326774 0.0053828 0.0326774
2998000000 0.0054939 0.0338344 0.9945061 -0.0338344 0.9945061 -0.0338344 0.0054939 0.0338344
3019000000 0.0056083 0.0349883 0.9943917 -0.0349883 0.9943917 -0.0349883 0.0056083 0.0349883
3040000000 0.0057260 0.0361393 0.9942740 -0.0361393 0.9942740 -0.0361393 0.0057260 0.0361393
3061000000 0.0058471 0.0372876 0.9941529 -0.0372876 0.9941529 -0.0372876 0.0058471 0.0372876
3082000000 0.0059715 0.0384334 0.9940285 -0.0384334 0.9940285 -0.0384334 0.0059715 0.0384334
3103000000 0.0060993 0.0395768 0.9939007 -0.0395768 0.9939007 -0.0395768 0.0060993 0.0395768
3124000000 0.0062306 0.0407181 0.9937694 -0.0407181 0.9937694 -0.0407181 0.0062306 0.0407181
3145000000 0.0063654 0.0418574 0.9936346 -0.0418574 0.9936346 -0.0418574 0.0063654 0.0418574
3166000000 0.0065037 0.0429949 0.9934963 -0.0429949 0.9934963 -0.0429949 0.0065037 0.0429949
3187000000 0.0066456 0.0441308 0.9933544 -0.0441308 0.9933544 -0.0441308 0.0066456 0.0441308
3208000000 0.0067911 0.0452654 0.9932089 -0.0452654 0.9932089 -0.0452654 0.0067911 0.0452654
3229000000 0.0069403 0.0463987 0.9930597 -0.0463987 0.9930597 -0.0463987 0.0069403 0.0463987
3250000000 0.0070932 0.0475310 0.9929068 -0.0475310 0.9929068 -0.0475310 0.0070932 0.0475310
3271000000 0.0072499 0.0486625 0.9927501 -0.0486625 0.9927501 -0.0486625 0.0072499 0.0486625
3292000000 0.0074106 0.0497933 0.9925894 -0.0497933 0.9925894 -0.0497933 0.0074106 0.0497933
3313000000 0.0075751 0.0509237 0.9924249 -0.0509237 0.9924249 -0.0509237 0.0075751 0.0509237
3334000000 0.0077438 0.0520539 0.9922562 -0.0520539 0.9922562 -0.0520539 0.0077438 0.0520539
3355000000 0.0079165 0.0531841 0.9920835 -0.0531841 0.9920835 -0.0531841 0.0079165 0.0531841
3376000000 0.0080935 0.0543145 0.9919065 -0.0543145 0.9919065 -0.0543145 0.0080935 0.0543145
3397000000 0.0082747 0.0554452 0.9917253 -0.0554452 0.9917253 -0.0554452 0.0082747 0.0554452
3418000000 0.0084605 0.0565766 0.9915395 -0.0565766 0.9915395 -0.0565766 0.0084605 0.0565766
3439000000 0.0086507 0.0577089 0.9913493 -0.0577089 0.9913493 -0.0577089 0.0086507 0.0577089
3460000000 0.0088457 0.0588422 0.9911543 -0.0588422 0.9911543 -0.0588422 0.0088457 0.0588422
3481000000 0.0090454 0.0599768 0.9909546 -0.0599768 0.9909546 -0.0599768 0.0090454 0.0599768
3502000000 0.0092501 0.0611130 0.9907499 -0.0611130 0.9907499 -0.0611130 0.0092501 0.0611130
3523000000 0.0094599 0.0622509 0.9905401 -0.0622509 0.9905401 -0.0622509 0.0094599 0.0622509
3544000000 0.0096749 0.0633909 0.9903251 -0.0633909 0.9903251 -0.0633909 0.0096749 0.0633909
3565000000 0.0098954 0.0645332 0.9901046 -0.0645332 0.9901046 -0.0645332 0.0098954 0.0645332
3586000000 0.0101215 0.0656780 0.9898785 -0.0656780 0.9898785 -0.0656780 0.0101215 0.0656780
3607000000 0.0103534 0.0668258 0.9896466 -0.0668258 0.9896466 -0.0668258 0.0103534 0.0668258
3628000000 0.0105914 0.0679766 0.9894086 -0.0679766 0.9894086 -0.0679766 0.0105914 0.0679766
3649000000 0.0108357 0.0691309 0.9891643 -0.0691309 0.9891643 -0.0691309 0.0108357 0.0691309
3670000000 0.0110865 0.0702890 0.9889135 -0.0702890 0.9889135 -0.0702890 0.0110865 0.0702890
3691000000 0.0113442 0.0714511 0.9886558 -0.0714511 0.9886558 -0.0714511 0.0113442 0.0714511
3712000000 0.0116089 0.0726176 0.9883911 -0.0726176 0.9883911 -0.0726176 0.0116089 0.0726176
3733000000 0.0118811 0.0737889 0.9881189 -0.0737889 0.9881189 -0.0737889 0.0118811 0.0737889
3754000000 0.0121610 0.0749653 0.9878390 -0.0749653 0.9878390 -0.0749653 0.0121610 0.0749653
3775000000 0.0124490 0.0761473 0.9875510 -0.0761473 0.9875510 -0.0761473 0.0124490 0.0761473
3796000000 0.0127456 0.0773351 0.9872544 -0.0773351 0.9872544 -0.0773351 0.0127456 0.0773351
3817000000 0.0130511 0.0785292 0.9869489 -0.0785292 0.9869489 -0.0785292 0.0130511 0.0785292
3838000000 0.0133661 0.0797302 0.9866339 -0.0797302 0.9866339 -0.0797302 0.0133661 0.0797302
3859000000 0.0136910 0.0809383 0.9863090 -0.0809383 0.9863090 -0.0809383 0.0136910 0.0809383
3880000000 0.0140264 0.0821541 0.9859736 -0.0821541 0.9859736 -0.0821541 0.0140264 0.0821541
3901000000 0.0143729 0.0833782 0.9856271 -0.0833782 0.9856271 -0.0833782 0.0143729 0.0833782
3922000000 0.0147312 0.0846109 0.9852688 -0.0846109 0.9852688 -0.0846109 0.0147312 0.0846109
3943000000 0.0151020 0.0858530 0.9848980 -0.0858530 0.9848980 -0.0858530 0.0151020 0.0858530
3964000000 0.0154861 0.0871049 0.9845139 -0.0871049 0.9845139 -0.0871049 0.0154861 0.0871049
3985000000 0.0158844 0.0883674 0.9841156 -0.0883674 0.9841156 -0.0883674 0.0158844 0.0883674
4006000000 0.0162977 0.0896410 0.9837023 -0.0896410 0.9837023 -0.0896410 0.0162977 0.0896410
4027000000 0.0167273 0.0909264 0.9832727 -0.0909264 0.9832727 -0.0909264 0.0167273 0.0909264
4048000000 0.0171741 0.0922245 0.9828259 -0.0922245 0.9828259 -0.0922245 0.0171741 0.0922245
4069000000 0.0176396 0.0935358 0.9823604 -0.0935358 0.9823604 -0.0935358 0.0176396 0.0935358
4090000000 0.0181252 0.0948613 0.9818748 -0.0948613 0.9818748 -0.0948613 0.0181252 0.0948613
4111000000 0.0186323 0.0962017 0.9813677 -0.0962017 0.9813677 -0.0962017 0.0186323 0.0962017
4132000000 0.0191628 0.0975579 0.9808372 -0.0975579 0.9808372 -0.0975579 0.0191628 0.0975579
4153000000 0.0197187 0.0989309 0.9802813 -0.0989309 0.9802813 -0.0989309 0.0197187 0.0989309
4174000000 0.0203020 0.1003216 0.9796980 -0.1003216 0.9796980 -0.1003216 0.0203020 0.1003216
4195000000 0.0209154 0.1017310 0.9790846 -0.1017310 0.9790846 -0.1017310 0.0209154 0.1017310
4216000000 0.0215614 0.1031601 0.9784386 -0.1031601 0.9784386 -0.1031601 0.0215614 0.1031601
4237000000 0.0222433 0.1046100 0.9777567 -0.1046100 0.9777567 -0.1046100 0.0222433 0.1046100
4258000000 0.0229644 0.1060816 0.9770356 -0.1060816 0.9770356 -0.1060816 0.0229644 0.1060816
4279000000 0.0237288 0.1075761 0.9762712 -0.1075761 0.9762712 -0.1075761 0.0237288 0.1075761
4300000000 0.0245409 0.1090944 0.9754591 -0.1090944 0.9754591 -0.1090944 0.0245409 0.1090944
4321000000 0.0254058 0.1106374 0.9745942 -0.1106374 0.9745942 -0.1106374 0.0254058 0.1106374
4342000000 0.0263292 0.1122061 0.9736708 -0.1122061 0.9736708 -0.1122061 0.0263292 0.1122061
4363000000 0.0273178 0.1138010 0.9726822 -0.1138010 0.9726822 -0.1138010 0.0273178 0.1138010
4384000000 0.0283791 0.1154227 0.9716209 -0.1154227 0.9716209 -0.1154227 0.0283791 0.1154227
4405000000 0.0295217 0.1170711 0.9704783 -0.1170711 0.9704783 -0.1170711 0.0295217 0.1170711
4426000000 0.0307557 0.1187457 0.9692443 -0.1187457 0.9692443 -0.1187457 0.0307557 0.1187457
4447000000 0.0320924 0.1204456 0.9679076 -0.1204456 0.9679076 -0.1204456 0.0320924 0.1204456
4468000000 0.0335449 0.1221684 0.9664551 -0.1221684 0.9664551 -0.1221684 0.0335449 0.1221684
4489000000 0.0351285 0.1239108 0.9648715 -0.1239108 0.9648715 -0.1239108 0.0351285 0.1239108
4510000000 0.0368605 0.1256675 0.9631395 -0.1256675 0.9631395 -0.1256675 0.0368605 0.1256675
