!Murata Part Number: GRM1885C2A5R4WA01
!These Parameters are Measured in Series Mode Connection
!Data Generated on Mar 30, 2021
!       o--ll--o
!Port1            Port2
!       o------o
!Operation Temp=25[degC], DC Bias Voltage=0[V]
!Freq. Start=100[MHz] Stop=9[GHz] 401[Steps]
# Hz S RI R 50
!Freq.(Hz) S11(Real) S11(Imag) S21(Real) S21(Imag) S12(Real) S12(Imag) S22(Real) S22(Imag)
100000000 0.8964764 -0.3044318 0.1035236 0.3044318 0.1035236 0.3044318 0.8964764 -0.3044318
121000000 0.8552706 -0.3515725 0.1447294 0.3515725 0.1447294 0.3515725 0.8552706 -0.3515725
142000000 0.8108333 -0.3913392 0.1891667 0.3913392 0.1891667 0.3913392 0.8108333 -0.3913392
163000000 0.7646557 -0.4238644 0.2353443 0.4238644 0.2353443 0.4238644 0.7646557 -0.4238644
184000000 0.7180135 -0.4495687 0.2819865 0.4495687 0.2819865 0.4495687 0.7180135 -0.4495687
205000000 0.6719328 -0.4690613 0.3280672 0.4690613 0.3280672 0.4690613 0.6719328 -0.4690613
226000000 0.6271911 -0.4830523 0.3728089 0.4830523 0.3728089 0.4830523 0.6271911 -0.4830523
247000000 0.5843389 -0.4922829 0.4156611 0.4922829 0.4156611 0.4922829 0.5843389 -0.4922829
268000000 0.5437339 -0.4974762 0.4562661 0.4974762 0.4562661 0.4974762 0.5437339 -0.4974762
289000000 0.5055780 -0.4993049 0.4944220 0.4993049 0.4944220 0.4993049 0.5055780 -0.4993049
310000000 0.4699537 -0.4983739 0.5300463 0.4983739 0.5300463 0.4983739 0.4699537 -0.4983739
331000000 0.4368554 -0.4952137 0.5631446 0.4952137 0.5631446 0.4952137 0.4368554 -0.4952137
352000000 0.4062160 -0.4902801 0.5937840 0.4902801 0.5937840 0.4902801 0.4062160 -0.4902801
373000000 0.3779276 -0.4839588 0.6220724 0.4839588 0.6220724 0.4839588 0.3779276 -0.4839588
394000000 0.3518574 -0.4765720 0.6481426 0.4765720 0.6481426 0.4765720 0.3518574 -0.4765720
415000000 0.3278595 -0.4683860 0.6721405 0.4683860 0.6721405 0.4683860 0.3278595 -0.4683860
436000000 0.3057834 -0.4596191 0.6942166 0.4596191 0.6942166 0.4596191 0.3057834 -0.4596191
457000000 0.2854796 -0.4504486 0.7145204 0.4504486 0.7145204 0.4504486 0.2854796 -0.4504486
478000000 0.2668035 -0.4410178 0.7331965 0.4410178 0.7331965 0.4410178 0.2668035 -0.4410178
499000000 0.2496180 -0.4314411 0.7503820 0.4314411 0.7503820 0.4314411 0.2496180 -0.4314411
520000000 0.2337948 -0.4218099 0.7662052 0.4218099 0.7662052 0.4218099 0.2337948 -0.4218099
541000000 0.2192147 -0.4121959 0.7807853 0.4121959 0.7807853 0.4121959 0.2192147 -0.4121959
562000000 0.2057682 -0.4026553 0.7942318 0.4026553 0.7942318 0.4026553 0.2057682 -0.4026553
583000000 0.1933547 -0.3932313 0.8066453 0.3932313 0.8066453 0.3932313 0.1933547 -0.3932313
604000000 0.1818830 -0.3839569 0.8181170 0.3839569 0.8181170 0.3839569 0.1818830 -0.3839569
625000000 0.1712696 -0.3748566 0.8287304 0.3748566 0.8287304 0.3748566 0.1712696 -0.3748566
646000000 0.1614393 -0.3659482 0.8385607 0.3659482 0.8385607 0.3659482 0.1614393 -0.3659482
667000000 0.1523235 -0.3572441 0.8476765 0.3572441 0.8476765 0.3572441 0.1523235 -0.3572441
688000000 0.1438604 -0.3487524 0.8561396 0.3487524 0.8561396 0.3487524 0.1438604 -0.3487524
709000000 0.1359939 -0.3404778 0.8640061 0.3404778 0.8640061 0.3404778 0.1359939 -0.3404778
730000000 0.1286734 -0.3324221 0.8713266 0.3324221 0.8713266 0.3324221 0.1286734 -0.3324221
751000000 0.1218530 -0.3245851 0.8781470 0.3245851 0.8781470 0.3245851 0.1218530 -0.3245851
772000000 0.1154912 -0.3169650 0.8845088 0.3169650 0.8845088 0.3169650 0.1154912 -0.3169650
793000000 0.1095504 -0.3095587 0.8904496 0.3095587 0.8904496 0.3095587 0.1095504 -0.3095587
814000000 0.1039966 -0.3023621 0.8960034 0.3023621 0.8960034 0.3023621 0.1039966 -0.3023621
835000000 0.0987989 -0.2953703 0.9012011 0.2953703 0.9012011 0.2953703 0.0987989 -0.2953703
856000000 0.0939292 -0.2885779 0.9060708 0.2885779 0.9060708 0.2885779 0.0939292 -0.2885779
877000000 0.0893621 -0.2819794 0.9106379 0.2819794 0.9106379 0.2819794 0.0893621 -0.2819794
898000000 0.0850744 -0.2755687 0.9149256 0.2755687 0.9149256 0.2755687 0.0850744 -0.2755687
919000000 0.0810449 -0.2693398 0.9189551 0.2693398 0.9189551 0.2693398 0.0810449 -0.2693398
940000000 0.0772545 -0.2632866 0.9227455 0.2632866 0.9227455 0.2632866 0.0772545 -0.2632866
961000000 0.0736856 -0.2574029 0.9263144 0.2574029 0.9263144 0.2574029 0.0736856 -0.2574029
982000000 0.0703222 -0.2516827 0.9296778 0.2516827 0.9296778 0.2516827 0.0703222 -0.2516827
1003000000 0.0671497 -0.2461201 0.9328503 0.2461201 0.9328503 0.2461201 0.0671497 -0.2461201
1024000000 0.0641545 -0.2407092 0.9358455 0.2407092 0.9358455 0.2407092 0.0641545 -0.2407092
1045000000 0.0613246 -0.2354443 0.9386754 0.2354443 0.9386754 0.2354443 0.0613246 -0.2354443
1066000000 0.0586485 -0.2303199 0.9413515 0.2303199 0.9413515 0.2303199 0.0586485 -0.2303199
1087000000 0.0561158 -0.2253307 0.9438842 0.2253307 0.9438842 0.2253307 0.0561158 -0.2253307
1108000000 0.0537172 -0.2204715 0.9462828 0.2204715 0.9462828 0.2204715 0.0537172 -0.2204715
1129000000 0.0514438 -0.2157373 0.9485562 0.2157373 0.9485562 0.2157373 0.0514438 -0.2157373
1150000000 0.0492876 -0.2111234 0.9507124 0.2111234 0.9507124 0.2111234 0.0492876 -0.2111234
1171000000 0.0472410 -0.2066250 0.9527590 0.2066250 0.9527590 0.2066250 0.0472410 -0.2066250
1192000000 0.0452972 -0.2022378 0.9547028 0.2022378 0.9547028 0.2022378 0.0452972 -0.2022378
1213000000 0.0434500 -0.1979575 0.9565500 0.1979575 0.9565500 0.1979575 0.0434500 -0.1979575
1234000000 0.0416933 -0.1937801 0.9583067 0.1937801 0.9583067 0.1937801 0.0416933 -0.1937801
1255000000 0.0400217 -0.1897015 0.9599783 0.1897015 0.9599783 0.1897015 0.0400217 -0.1897015
1276000000 0.0384302 -0.1857181 0.9615698 0.1857181 0.9615698 0.1857181 0.0384302 -0.1857181
1297000000 0.0369141 -0.1818262 0.9630859 0.1818262 0.9630859 0.1818262 0.0369141 -0.1818262
1318000000 0.0354691 -0.1780225 0.9645309 0.1780225 0.9645309 0.1780225 0.0354691 -0.1780225
1339000000 0.0340910 -0.1743036 0.9659090 0.1743036 0.9659090 0.1743036 0.0340910 -0.1743036
1360000000 0.0327763 -0.1706663 0.9672237 0.1706663 0.9672237 0.1706663 0.0327763 -0.1706663
1381000000 0.0315212 -0.1671077 0.9684788 0.1671077 0.9684788 0.1671077 0.0315212 -0.1671077
1402000000 0.0303227 -0.1636249 0.9696773 0.1636249 0.9696773 0.1636249 0.0303227 -0.1636249
1423000000 0.0291775 -0.1602150 0.9708225 0.1602150 0.9708225 0.1602150 0.0291775 -0.1602150
1444000000 0.0280830 -0.1568755 0.9719170 0.1568755 0.9719170 0.1568755 0.0280830 -0.1568755
1465000000 0.0270364 -0.1536037 0.9729636 0.1536037 0.9729636 0.1536037 0.0270364 -0.1536037
1486000000 0.0260353 -0.1503974 0.9739647 0.1503974 0.9739647 0.1503974 0.0260353 -0.1503974
1507000000 0.0250772 -0.1472541 0.9749228 0.1472541 0.9749228 0.1472541 0.0250772 -0.1472541
1528000000 0.0241602 -0.1441716 0.9758398 0.1441716 0.9758398 0.1441716 0.0241602 -0.1441716
1549000000 0.0232820 -0.1411478 0.9767180 0.1411478 0.9767180 0.1411478 0.0232820 -0.1411478
1570000000 0.0224409 -0.1381806 0.9775591 0.1381806 0.9775591 0.1381806 0.0224409 -0.1381806
1591000000 0.0216349 -0.1352681 0.9783651 0.1352681 0.9783651 0.1352681 0.0216349 -0.1352681
1612000000 0.0208625 -0.1324085 0.9791375 0.1324085 0.9791375 0.1324085 0.0208625 -0.1324085
1633000000 0.0201220 -0.1295998 0.9798780 0.1295998 0.9798780 0.1295998 0.0201220 -0.1295998
1654000000 0.0194120 -0.1268404 0.9805880 0.1268404 0.9805880 0.1268404 0.0194120 -0.1268404
1675000000 0.0187311 -0.1241286 0.9812689 0.1241286 0.9812689 0.1241286 0.0187311 -0.1241286
1696000000 0.0180778 -0.1214629 0.9819222 0.1214629 0.9819222 0.1214629 0.0180778 -0.1214629
1717000000 0.0174511 -0.1188416 0.9825489 0.1188416 0.9825489 0.1188416 0.0174511 -0.1188416
1738000000 0.0168496 -0.1162634 0.9831504 0.1162634 0.9831504 0.1162634 0.0168496 -0.1162634
1759000000 0.0162724 -0.1137268 0.9837276 0.1137268 0.9837276 0.1137268 0.0162724 -0.1137268
1780000000 0.0157184 -0.1112305 0.9842816 0.1112305 0.9842816 0.1112305 0.0157184 -0.1112305
1801000000 0.0151865 -0.1087731 0.9848135 0.1087731 0.9848135 0.1087731 0.0151865 -0.1087731
1822000000 0.0146759 -0.1063535 0.9853241 0.1063535 0.9853241 0.1063535 0.0146759 -0.1063535
1843000000 0.0141856 -0.1039704 0.9858144 0.1039704 0.9858144 0.1039704 0.0141856 -0.1039704
1864000000 0.0137150 -0.1016227 0.9862850 0.1016227 0.9862850 0.1016227 0.0137150 -0.1016227
1885000000 0.0132630 -0.0993092 0.9867370 0.0993092 0.9867370 0.0993092 0.0132630 -0.0993092
1906000000 0.0128291 -0.0970289 0.9871709 0.0970289 0.9871709 0.0970289 0.0128291 -0.0970289
1927000000 0.0124125 -0.0947808 0.9875875 0.0947808 0.9875875 0.0947808 0.0124125 -0.0947808
1948000000 0.0120125 -0.0925638 0.9879875 0.0925638 0.9879875 0.0925638 0.0120125 -0.0925638
1969000000 0.0116286 -0.0903770 0.9883714 0.0903770 0.9883714 0.0903770 0.0116286 -0.0903770
1990000000 0.0112600 -0.0882195 0.9887400 0.0882195 0.9887400 0.0882195 0.0112600 -0.0882195
2011000000 0.0109063 -0.0860903 0.9890937 0.0860903 0.9890937 0.0860903 0.0109063 -0.0860903
2032000000 0.0105668 -0.0839887 0.9894332 0.0839887 0.9894332 0.0839887 0.0105668 -0.0839887
2053000000 0.0102412 -0.0819139 0.9897588 0.0819139 0.9897588 0.0819139 0.0102412 -0.0819139
2074000000 0.0099288 -0.0798649 0.9900712 0.0798649 0.9900712 0.0798649 0.0099288 -0.0798649
2095000000 0.0096292 -0.0778410 0.9903708 0.0778410 0.9903708 0.0778410 0.0096292 -0.0778410
2116000000 0.0093421 -0.0758416 0.9906579 0.0758416 0.9906579 0.0758416 0.0093421 -0.0758416
2137000000 0.0090669 -0.0738658 0.9909331 0.0738658 0.9909331 0.0738658 0.0090669 -0.0738658
2158000000 0.0088032 -0.0719130 0.9911968 0.0719130 0.9911968 0.0719130 0.0088032 -0.0719130
2179000000 0.0085508 -0.0699825 0.9914492 0.0699825 0.9914492 0.0699825 0.0085508 -0.0699825
2200000000 0.0083091 -0.0680737 0.9916909 0.0680737 0.9916909 0.0680737 0.0083091 -0.0680737
2221000000 0.0080780 -0.0661859 0.9919220 0.0661859 0.9919220 0.0661859 0.0080780 -0.0661859
2242000000 0.0078569 -0.0643185 0.9921431 0.0643185 0.9921431 0.0643185 0.0078569 -0.0643185
2263000000 0.0076458 -0.0624710 0.9923542 0.0624710 0.9923542 0.0624710 0.0076458 -0.0624710
2284000000 0.0074441 -0.0606427 0.9925559 0.0606427 0.9925559 0.0606427 0.0074441 -0.0606427
2305000000 0.0072517 -0.0588331 0.9927483 0.0588331 0.9927483 0.0588331 0.0072517 -0.0588331
2326000000 0.0070683 -0.0570418 0.9929317 0.0570418 0.9929317 0.0570418 0.0070683 -0.0570418
2347000000 0.0068936 -0.0552681 0.9931064 0.0552681 0.9931064 0.0552681 0.0068936 -0.0552681
2368000000 0.0067274 -0.0535116 0.9932726 0.0535116 0.9932726 0.0535116 0.0067274 -0.0535116
2389000000 0.0065695 -0.0517717 0.9934305 0.0517717 0.9934305 0.0517717 0.0065695 -0.0517717
2410000000 0.0064196 -0.0500481 0.9935804 0.0500481 0.9935804 0.0500481 0.0064196 -0.0500481
2431000000 0.0062774 -0.0483402 0.9937226 0.0483402 0.9937226 0.0483402 0.0062774 -0.0483402
2452000000 0.0061429 -0.0466476 0.9938571 0.0466476 0.9938571 0.0466476 0.0061429 -0.0466476
2473000000 0.0060158 -0.0449699 0.9939842 0.0449699 0.9939842 0.0449699 0.0060158 -0.0449699
2494000000 0.0058959 -0.0433067 0.9941041 0.0433067 0.9941041 0.0433067 0.0058959 -0.0433067
2515000000 0.0057830 -0.0416575 0.9942170 0.0416575 0.9942170 0.0416575 0.0057830 -0.0416575
2536000000 0.0056770 -0.0400220 0.9943230 0.0400220 0.9943230 0.0400220 0.0056770 -0.0400220
2557000000 0.0055778 -0.0383998 0.9944222 0.0383998 0.9944222 0.0383998 0.0055778 -0.0383998
2578000000 0.0054851 -0.0367904 0.9945149 0.0367904 0.9945149 0.0367904 0.0054851 -0.0367904
2599000000 0.0053988 -0.0351937 0.9946012 0.0351937 0.9946012 0.0351937 0.0053988 -0.0351937
2620000000 0.0053188 -0.0336090 0.9946812 0.0336090 0.9946812 0.0336090 0.0053188 -0.0336090
2641000000 0.0052449 -0.0320363 0.9947551 0.0320363 0.9947551 0.0320363 0.0052449 -0.0320363
2662000000 0.0051770 -0.0304750 0.9948230 0.0304750 0.9948230 0.0304750 0.0051770 -0.0304750
2683000000 0.0051150 -0.0289249 0.9948850 0.0289249 0.9948850 0.0289249 0.0051150 -0.0289249
2704000000 0.0050588 -0.0273857 0.9949412 0.0273857 0.9949412 0.0273857 0.0050588 -0.0273857
2725000000 0.0050083 -0.0258571 0.9949917 0.0258571 0.9949917 0.0258571 0.0050083 -0.0258571
2746000000 0.0049633 -0.0243387 0.9950367 0.0243387 0.9950367 0.0243387 0.0049633 -0.0243387
2767000000 0.0049238 -0.0228302 0.9950762 0.0228302 0.9950762 0.0228302 0.0049238 -0.0228302
2788000000 0.0048897 -0.0213315 0.9951103 0.0213315 0.9951103 0.0213315 0.0048897 -0.0213315
2809000000 0.0048608 -0.0198421 0.9951392 0.0198421 0.9951392 0.0198421 0.0048608 -0.0198421
2830000000 0.0048371 -0.0183618 0.9951629 0.0183618 0.9951629 0.0183618 0.0048371 -0.0183618
2851000000 0.0048185 -0.0168904 0.9951815 0.0168904 0.9951815 0.0168904 0.0048185 -0.0168904
2872000000 0.0048050 -0.0154275 0.9951950 0.0154275 0.9951950 0.0154275 0.0048050 -0.0154275
2893000000 0.0047964 -0.0139730 0.9952036 0.0139730 0.9952036 0.0139730 0.0047964 -0.0139730
2914000000 0.0047927 -0.0125266 0.9952073 0.0125266 0.9952073 0.0125266 0.0047927 -0.0125266
2935000000 0.0047938 -0.0110880 0.9952062 0.0110880 0.9952062 0.0110880 0.0047938 -0.0110880
2956000000 0.0047996 -0.0096570 0.9952004 0.0096570 0.9952004 0.0096570 0.0047996 -0.0096570
2977000000 0.0048102 -0.0082334 0.9951898 0.0082334 0.9951898 0.0082334 0.0048102 -0.0082334
2998000000 0.0048254 -0.0068169 0.9951746 0.0068169 0.9951746 0.0068169 0.0048254 -0.0068169
3019000000 0.0048453 -0.0054073 0.9951547 0.0054073 0.9951547 0.0054073 0.0048453 -0.0054073
3040000000 0.0048696 -0.0040044 0.9951304 0.0040044 0.9951304 0.0040044 0.0048696 -0.0040044
3061000000 0.0048985 -0.0026079 0.9951015 0.0026079 0.9951015 0.0026079 0.0048985 -0.0026079
3082000000 0.0049318 -0.0012177 0.9950682 0.0012177 0.9950682 0.0012177 0.0049318 -0.0012177
3103000000 0.0049695 0.0001664 0.9950305 -0.0001664 0.9950305 -0.0001664 0.0049695 0.0001664
3124000000 0.0050117 0.0015447 0.9949883 -0.0015447 0.9949883 -0.0015447 0.0050117 0.0015447
3145000000 0.0050581 0.0029173 0.9949419 -0.0029173 0.9949419 -0.0029173 0.0050581 0.0029173
3166000000 0.0051089 0.0042845 0.9948911 -0.0042845 0.9948911 -0.0042845 0.0051089 0.0042845
3187000000 0.0051640 0.0056464 0.9948360 -0.0056464 0.9948360 -0.0056464 0.0051640 0.0056464
3208000000 0.0052234 0.0070033 0.9947766 -0.0070033 0.9947766 -0.0070033 0.0052234 0.0070033
3229000000 0.0052869 0.0083553 0.9947131 -0.0083553 0.9947131 -0.0083553 0.0052869 0.0083553
3250000000 0.0053548 0.0097026 0.9946452 -0.0097026 0.9946452 -0.0097026 0.0053548 0.0097026
3271000000 0.0054268 0.0110454 0.9945732 -0.0110454 0.9945732 -0.0110454 0.0054268 0.0110454
3292000000 0.0055030 0.0123839 0.9944970 -0.0123839 0.9944970 -0.0123839 0.0055030 0.0123839
3313000000 0.0055834 0.0137182 0.9944166 -0.0137182 0.9944166 -0.0137182 0.0055834 0.0137182
3334000000 0.0056680 0.0150485 0.9943320 -0.0150485 0.9943320 -0.0150485 0.0056680 0.0150485
3355000000 0.0057567 0.0163750 0.9942433 -0.0163750 0.9942433 -0.0163750 0.0057567 0.0163750
3376000000 0.0058496 0.0176979 0.9941504 -0.0176979 0.9941504 -0.0176979 0.0058496 0.0176979
3397000000 0.0059467 0.0190174 0.9940533 -0.0190174 0.9940533 -0.0190174 0.0059467 0.0190174
3418000000 0.0060479 0.0203335 0.9939521 -0.0203335 0.9939521 -0.0203335 0.0060479 0.0203335
3439000000 0.0061533 0.0216465 0.9938467 -0.0216465 0.9938467 -0.0216465 0.0061533 0.0216465
3460000000 0.0062628 0.0229565 0.9937372 -0.0229565 0.9937372 -0.0229565 0.0062628 0.0229565
3481000000 0.0063765 0.0242637 0.9936235 -0.0242637 0.9936235 -0.0242637 0.0063765 0.0242637
3502000000 0.0064944 0.0255682 0.9935056 -0.0255682 0.9935056 -0.0255682 0.0064944 0.0255682
3523000000 0.0066165 0.0268703 0.9933835 -0.0268703 0.9933835 -0.0268703 0.0066165 0.0268703
3544000000 0.0067428 0.0281700 0.9932572 -0.0281700 0.9932572 -0.0281700 0.0067428 0.0281700
3565000000 0.0068733 0.0294675 0.9931267 -0.0294675 0.9931267 -0.0294675 0.0068733 0.0294675
3586000000 0.0070080 0.0307630 0.9929920 -0.0307630 0.9929920 -0.0307630 0.0070080 0.0307630
3607000000 0.0071471 0.0320567 0.9928529 -0.0320567 0.9928529 -0.0320567 0.0071471 0.0320567
3628000000 0.0072904 0.0333485 0.9927096 -0.0333485 0.9927096 -0.0333485 0.0072904 0.0333485
3649000000 0.0074380 0.0346389 0.9925620 -0.0346389 0.9925620 -0.0346389 0.0074380 0.0346389
3670000000 0.0075900 0.0359278 0.9924100 -0.0359278 0.9924100 -0.0359278 0.0075900 0.0359278
3691000000 0.0077463 0.0372154 0.9922537 -0.0372154 0.9922537 -0.0372154 0.0077463 0.0372154
3712000000 0.0079071 0.0385019 0.9920929 -0.0385019 0.9920929 -0.0385019 0.0079071 0.0385019
3733000000 0.0080723 0.0397874 0.9919277 -0.0397874 0.9919277 -0.0397874 0.0080723 0.0397874
3754000000 0.0082420 0.0410721 0.9917580 -0.0410721 0.9917580 -0.0410721 0.0082420 0.0410721
3775000000 0.0084162 0.0423562 0.9915838 -0.0423562 0.9915838 -0.0423562 0.0084162 0.0423562
3796000000 0.0085950 0.0436397 0.9914050 -0.0436397 0.9914050 -0.0436397 0.0085950 0.0436397
3817000000 0.0087785 0.0449228 0.9912215 -0.0449228 0.9912215 -0.0449228 0.0087785 0.0449228
3838000000 0.0089666 0.0462056 0.9910334 -0.0462056 0.9910334 -0.0462056 0.0089666 0.0462056
3859000000 0.0091594 0.0474884 0.9908406 -0.0474884 0.9908406 -0.0474884 0.0091594 0.0474884
3880000000 0.0093571 0.0487713 0.9906429 -0.0487713 0.9906429 -0.0487713 0.0093571 0.0487713
3901000000 0.0095595 0.0500544 0.9904405 -0.0500544 0.9904405 -0.0500544 0.0095595 0.0500544
3922000000 0.0097669 0.0513378 0.9902331 -0.0513378 0.9902331 -0.0513378 0.0097669 0.0513378
3943000000 0.0099793 0.0526217 0.9900207 -0.0526217 0.9900207 -0.0526217 0.0099793 0.0526217
3964000000 0.0101967 0.0539063 0.9898033 -0.0539063 0.9898033 -0.0539063 0.0101967 0.0539063
3985000000 0.0104192 0.0551918 0.9895808 -0.0551918 0.9895808 -0.0551918 0.0104192 0.0551918
4006000000 0.0106470 0.0564781 0.9893530 -0.0564781 0.9893530 -0.0564781 0.0106470 0.0564781
4027000000 0.0108800 0.0577656 0.9891200 -0.0577656 0.9891200 -0.0577656 0.0108800 0.0577656
4048000000 0.0111184 0.0590544 0.9888816 -0.0590544 0.9888816 -0.0590544 0.0111184 0.0590544
4069000000 0.0113623 0.0603445 0.9886377 -0.0603445 0.9886377 -0.0603445 0.0113623 0.0603445
4090000000 0.0116117 0.0616363 0.9883883 -0.0616363 0.9883883 -0.0616363 0.0116117 0.0616363
4111000000 0.0118668 0.0629297 0.9881332 -0.0629297 0.9881332 -0.0629297 0.0118668 0.0629297
4132000000 0.0121277 0.0642251 0.9878723 -0.0642251 0.9878723 -0.0642251 0.0121277 0.0642251
4153000000 0.0123944 0.0655225 0.9876056 -0.0655225 0.9876056 -0.0655225 0.0123944 0.0655225
4174000000 0.0126671 0.0668221 0.9873329 -0.0668221 0.9873329 -0.0668221 0.0126671 0.0668221
4195000000 0.0129459 0.0681241 0.9870541 -0.0681241 0.9870541 -0.0681241 0.0129459 0.0681241
4216000000 0.0132309 0.0694286 0.9867691 -0.0694286 0.9867691 -0.0694286 0.0132309 0.0694286
4237000000 0.0135223 0.0707358 0.9864777 -0.0707358 0.9864777 -0.0707358 0.0135223 0.0707358
4258000000 0.0138202 0.0720459 0.9861798 -0.0720459 0.9861798 -0.0720459 0.0138202 0.0720459
4279000000 0.0141247 0.0733590 0.9858753 -0.0733590 0.9858753 -0.0733590 0.0141247 0.0733590
4300000000 0.0144360 0.0746753 0.9855640 -0.0746753 0.9855640 -0.0746753 0.0144360 0.0746753
4321000000 0.0147542 0.0759951 0.9852458 -0.0759951 0.9852458 -0.0759951 0.0147542 0.0759951
4342000000 0.0150796 0.0773183 0.9849204 -0.0773183 0.9849204 -0.0773183 0.0150796 0.0773183
4363000000 0.0154122 0.0786453 0.9845878 -0.0786453 0.9845878 -0.0786453 0.0154122 0.0786453
4384000000 0.0157523 0.0799762 0.9842477 -0.0799762 0.9842477 -0.0799762 0.0157523 0.0799762
4405000000 0.0161001 0.0813113 0.9838999 -0.0813113 0.9838999 -0.0813113 0.0161001 0.0813113
4426000000 0.0164556 0.0826506 0.9835444 -0.0826506 0.9835444 -0.0826506 0.0164556 0.0826506
4447000000 0.0168193 0.0839944 0.9831807 -0.0839944 0.9831807 -0.0839944 0.0168193 0.0839944
4468000000 0.0171912 0.0853429 0.9828088 -0.0853429 0.9828088 -0.0853429 0.0171912 0.0853429
4489000000 0.0175716 0.0866962 0.9824284 -0.0866962 0.9824284 -0.0866962 0.0175716 0.0866962
4510000000 0.0179607 0.0880547 0.9820393 -0.0880547 0.9820393 -0.0880547 0.0179607 0.0880547
