!Murata Part Number: GRM1885C1H5R3WA01
!These Parameters are Measured in Series Mode Connection
!Data Generated on Mar 30, 2021
!       o--ll--o
!Port1            Port2
!       o------o
!Operation Temp=25[degC], DC Bias Voltage=0[V]
!Freq. Start=100[MHz] Stop=9[GHz] 401[Steps]
# Hz S RI R 50
!Freq.(Hz) S11(Real) S11(Imag) S21(Real) S21(Imag) S12(Real) S12(Imag) S22(Real) S22(Imag)
100000000 0.8998977 -0.2999305 0.1001023 0.2999305 0.1001023 0.2999305 0.8998977 -0.2999305
121000000 0.8598427 -0.3468996 0.1401573 0.3468996 0.1401573 0.3468996 0.8598427 -0.3468996
142000000 0.8165106 -0.3867710 0.1834894 0.3867710 0.1834894 0.3867710 0.8165106 -0.3867710
163000000 0.7713317 -0.4196322 0.2286683 0.4196322 0.2286683 0.4196322 0.7713317 -0.4196322
184000000 0.7255423 -0.4458499 0.2744577 0.4458499 0.2744577 0.4458499 0.7255423 -0.4458499
205000000 0.6801495 -0.4659786 0.3198505 0.4659786 0.3198505 0.4659786 0.6801495 -0.4659786
226000000 0.6359279 -0.4806787 0.3640721 0.4806787 0.3640721 0.4806787 0.6359279 -0.4806787
247000000 0.5934366 -0.4906496 0.4065634 0.4906496 0.4065634 0.4906496 0.5934366 -0.4906496
268000000 0.5530489 -0.4965817 0.4469511 0.4965817 0.4469511 0.4965817 0.5530489 -0.4965817
289000000 0.5149864 -0.4991237 0.4850136 0.4991237 0.4850136 0.4991237 0.5149864 -0.4991237
310000000 0.4793517 -0.4988644 0.5206483 0.4988644 0.5206483 0.4988644 0.4793517 -0.4988644
331000000 0.4461590 -0.4963243 0.5538410 0.4963243 0.5538410 0.4963243 0.4461590 -0.4963243
352000000 0.4153592 -0.4919540 0.5846408 0.4919540 0.5846408 0.4919540 0.4153592 -0.4919540
373000000 0.3868601 -0.4861377 0.6131399 0.4861377 0.6131399 0.4861377 0.3868601 -0.4861377
394000000 0.3605424 -0.4791984 0.6394576 0.4791984 0.6394576 0.4791984 0.3605424 -0.4791984
415000000 0.3362711 -0.4714053 0.6637289 0.4714053 0.6637289 0.4714053 0.3362711 -0.4714053
436000000 0.3139049 -0.4629800 0.6860951 0.4629800 0.6860951 0.4629800 0.3139049 -0.4629800
457000000 0.2933014 -0.4541040 0.7066986 0.4541040 0.7066986 0.4541040 0.2933014 -0.4541040
478000000 0.2743219 -0.4449249 0.7256781 0.4449249 0.7256781 0.4449249 0.2743219 -0.4449249
499000000 0.2568336 -0.4355616 0.7431664 0.4355616 0.7431664 0.4355616 0.2568336 -0.4355616
520000000 0.2407114 -0.4261093 0.7592886 0.4261093 0.7592886 0.4261093 0.2407114 -0.4261093
541000000 0.2258387 -0.4166438 0.7741613 0.4166438 0.7741613 0.4166438 0.2258387 -0.4166438
562000000 0.2121077 -0.4072247 0.7878923 0.4072247 0.7878923 0.4072247 0.2121077 -0.4072247
583000000 0.1994191 -0.3978987 0.8005809 0.3978987 0.8005809 0.3978987 0.1994191 -0.3978987
604000000 0.1876824 -0.3887014 0.8123176 0.3887014 0.8123176 0.3887014 0.1876824 -0.3887014
625000000 0.1768147 -0.3796602 0.8231853 0.3796602 0.8231853 0.3796602 0.1768147 -0.3796602
646000000 0.1667408 -0.3707951 0.8332592 0.3707951 0.8332592 0.3707951 0.1667408 -0.3707951
667000000 0.1573924 -0.3621205 0.8426076 0.3621205 0.8426076 0.3621205 0.1573924 -0.3621205
688000000 0.1487073 -0.3536465 0.8512927 0.3536465 0.8512927 0.3536465 0.1487073 -0.3536465
709000000 0.1406294 -0.3453792 0.8593706 0.3453792 0.8593706 0.3453792 0.1406294 -0.3453792
730000000 0.1331076 -0.3373219 0.8668924 0.3373219 0.8668924 0.3373219 0.1331076 -0.3373219
751000000 0.1260958 -0.3294757 0.8739042 0.3294757 0.8739042 0.3294757 0.1260958 -0.3294757
772000000 0.1195520 -0.3218399 0.8804480 0.3218399 0.8804480 0.3218399 0.1195520 -0.3218399
793000000 0.1134383 -0.3144122 0.8865617 0.3144122 0.8865617 0.3144122 0.1134383 -0.3144122
814000000 0.1077201 -0.3071893 0.8922799 0.3071893 0.8922799 0.3071893 0.1077201 -0.3071893
835000000 0.1023662 -0.3001673 0.8976338 0.3001673 0.8976338 0.3001673 0.1023662 -0.3001673
856000000 0.0973482 -0.2933412 0.9026518 0.2933412 0.9026518 0.2933412 0.0973482 -0.2933412
877000000 0.0926400 -0.2867061 0.9073600 0.2867061 0.9073600 0.2867061 0.0926400 -0.2867061
898000000 0.0882182 -0.2802564 0.9117818 0.2802564 0.9117818 0.2802564 0.0882182 -0.2802564
919000000 0.0840612 -0.2739865 0.9159388 0.2739865 0.9159388 0.2739865 0.0840612 -0.2739865
940000000 0.0801496 -0.2678907 0.9198504 0.2678907 0.9198504 0.2678907 0.0801496 -0.2678907
961000000 0.0764654 -0.2619631 0.9235346 0.2619631 0.9235346 0.2619631 0.0764654 -0.2619631
982000000 0.0729922 -0.2561980 0.9270078 0.2561980 0.9270078 0.2561980 0.0729922 -0.2561980
1003000000 0.0697152 -0.2505896 0.9302848 0.2505896 0.9302848 0.2505896 0.0697152 -0.2505896
1024000000 0.0666205 -0.2451324 0.9333795 0.2451324 0.9333795 0.2451324 0.0666205 -0.2451324
1045000000 0.0636956 -0.2398208 0.9363044 0.2398208 0.9363044 0.2398208 0.0636956 -0.2398208
1066000000 0.0609290 -0.2346495 0.9390710 0.2346495 0.9390710 0.2346495 0.0609290 -0.2346495
1087000000 0.0583102 -0.2296132 0.9416898 0.2296132 0.9416898 0.2296132 0.0583102 -0.2296132
1108000000 0.0558292 -0.2247070 0.9441708 0.2247070 0.9441708 0.2247070 0.0558292 -0.2247070
1129000000 0.0534772 -0.2199260 0.9465228 0.2199260 0.9465228 0.2199260 0.0534772 -0.2199260
1150000000 0.0512458 -0.2152653 0.9487542 0.2152653 0.9487542 0.2152653 0.0512458 -0.2152653
1171000000 0.0491274 -0.2107205 0.9508726 0.2107205 0.9508726 0.2107205 0.0491274 -0.2107205
1192000000 0.0471151 -0.2062873 0.9528849 0.2062873 0.9528849 0.2062873 0.0471151 -0.2062873
1213000000 0.0452021 -0.2019613 0.9547979 0.2019613 0.9547979 0.2019613 0.0452021 -0.2019613
1234000000 0.0433826 -0.1977386 0.9566174 0.1977386 0.9566174 0.1977386 0.0433826 -0.1977386
1255000000 0.0416508 -0.1936153 0.9583492 0.1936153 0.9583492 0.1936153 0.0416508 -0.1936153
1276000000 0.0400017 -0.1895877 0.9599983 0.1895877 0.9599983 0.1895877 0.0400017 -0.1895877
1297000000 0.0384303 -0.1856521 0.9615697 0.1856521 0.9615697 0.1856521 0.0384303 -0.1856521
1318000000 0.0369323 -0.1818052 0.9630677 0.1818052 0.9630677 0.1818052 0.0369323 -0.1818052
1339000000 0.0355035 -0.1780438 0.9644965 0.1780438 0.9644965 0.1780438 0.0355035 -0.1780438
1360000000 0.0341399 -0.1743646 0.9658601 0.1743646 0.9658601 0.1743646 0.0341399 -0.1743646
1381000000 0.0328380 -0.1707646 0.9671620 0.1707646 0.9671620 0.1707646 0.0328380 -0.1707646
1402000000 0.0315944 -0.1672410 0.9684056 0.1672410 0.9684056 0.1672410 0.0315944 -0.1672410
1423000000 0.0304060 -0.1637910 0.9695940 0.1637910 0.9695940 0.1637910 0.0304060 -0.1637910
1444000000 0.0292699 -0.1604119 0.9707301 0.1604119 0.9707301 0.1604119 0.0292699 -0.1604119
1465000000 0.0281833 -0.1571013 0.9718167 0.1571013 0.9718167 0.1571013 0.0281833 -0.1571013
1486000000 0.0271436 -0.1538567 0.9728564 0.1538567 0.9728564 0.1538567 0.0271436 -0.1538567
1507000000 0.0261485 -0.1506757 0.9738515 0.1506757 0.9738515 0.1506757 0.0261485 -0.1506757
1528000000 0.0251957 -0.1475561 0.9748043 0.1475561 0.9748043 0.1475561 0.0251957 -0.1475561
1549000000 0.0242831 -0.1444959 0.9757169 0.1444959 0.9757169 0.1444959 0.0242831 -0.1444959
1570000000 0.0234088 -0.1414928 0.9765912 0.1414928 0.9765912 0.1414928 0.0234088 -0.1414928
1591000000 0.0225708 -0.1385451 0.9774292 0.1385451 0.9774292 0.1385451 0.0225708 -0.1385451
1612000000 0.0217676 -0.1356507 0.9782324 0.1356507 0.9782324 0.1356507 0.0217676 -0.1356507
1633000000 0.0209973 -0.1328080 0.9790027 0.1328080 0.9790027 0.1328080 0.0209973 -0.1328080
1654000000 0.0202585 -0.1300150 0.9797415 0.1300150 0.9797415 0.1300150 0.0202585 -0.1300150
1675000000 0.0195497 -0.1272703 0.9804503 0.1272703 0.9804503 0.1272703 0.0195497 -0.1272703
1696000000 0.0188696 -0.1245721 0.9811304 0.1245721 0.9811304 0.1245721 0.0188696 -0.1245721
1717000000 0.0182169 -0.1219190 0.9817831 0.1219190 0.9817831 0.1219190 0.0182169 -0.1219190
1738000000 0.0175904 -0.1193094 0.9824096 0.1193094 0.9824096 0.1193094 0.0175904 -0.1193094
1759000000 0.0169889 -0.1167420 0.9830111 0.1167420 0.9830111 0.1167420 0.0169889 -0.1167420
1780000000 0.0164114 -0.1142154 0.9835886 0.1142154 0.9835886 0.1142154 0.0164114 -0.1142154
1801000000 0.0158568 -0.1117282 0.9841432 0.1117282 0.9841432 0.1117282 0.0158568 -0.1117282
1822000000 0.0153242 -0.1092793 0.9846758 0.1092793 0.9846758 0.1092793 0.0153242 -0.1092793
1843000000 0.0148126 -0.1068674 0.9851874 0.1068674 0.9851874 0.1068674 0.0148126 -0.1068674
1864000000 0.0143213 -0.1044913 0.9856787 0.1044913 0.9856787 0.1044913 0.0143213 -0.1044913
1885000000 0.0138493 -0.1021500 0.9861507 0.1021500 0.9861507 0.1021500 0.0138493 -0.1021500
1906000000 0.0133960 -0.0998422 0.9866040 0.0998422 0.9866040 0.0998422 0.0133960 -0.0998422
1927000000 0.0129605 -0.0975671 0.9870395 0.0975671 0.9870395 0.0975671 0.0129605 -0.0975671
1948000000 0.0125423 -0.0953236 0.9874577 0.0953236 0.9874577 0.0953236 0.0125423 -0.0953236
1969000000 0.0121406 -0.0931107 0.9878594 0.0931107 0.9878594 0.0931107 0.0121406 -0.0931107
1990000000 0.0117549 -0.0909276 0.9882451 0.0909276 0.9882451 0.0909276 0.0117549 -0.0909276
2011000000 0.0113844 -0.0887732 0.9886156 0.0887732 0.9886156 0.0887732 0.0113844 -0.0887732
2032000000 0.0110288 -0.0866467 0.9889712 0.0866467 0.9889712 0.0866467 0.0110288 -0.0866467
2053000000 0.0106873 -0.0845474 0.9893127 0.0845474 0.9893127 0.0845474 0.0106873 -0.0845474
2074000000 0.0103597 -0.0824744 0.9896403 0.0824744 0.9896403 0.0824744 0.0103597 -0.0824744
2095000000 0.0100452 -0.0804268 0.9899548 0.0804268 0.9899548 0.0804268 0.0100452 -0.0804268
2116000000 0.0097436 -0.0784041 0.9902564 0.0784041 0.9902564 0.0784041 0.0097436 -0.0784041
2137000000 0.0094543 -0.0764054 0.9905457 0.0764054 0.9905457 0.0764054 0.0094543 -0.0764054
2158000000 0.0091769 -0.0744300 0.9908231 0.0744300 0.9908231 0.0744300 0.0091769 -0.0744300
2179000000 0.0089112 -0.0724773 0.9910888 0.0724773 0.9910888 0.0724773 0.0089112 -0.0724773
2200000000 0.0086565 -0.0705465 0.9913435 0.0705465 0.9913435 0.0705465 0.0086565 -0.0705465
2221000000 0.0084127 -0.0686372 0.9915873 0.0686372 0.9915873 0.0686372 0.0084127 -0.0686372
2242000000 0.0081794 -0.0667486 0.9918206 0.0667486 0.9918206 0.0667486 0.0081794 -0.0667486
2263000000 0.0079563 -0.0648802 0.9920437 0.0648802 0.9920437 0.0648802 0.0079563 -0.0648802
2284000000 0.0077430 -0.0630313 0.9922570 0.0630313 0.9922570 0.0630313 0.0077430 -0.0630313
2305000000 0.0075392 -0.0612015 0.9924608 0.0612015 0.9924608 0.0612015 0.0075392 -0.0612015
2326000000 0.0073447 -0.0593901 0.9926553 0.0593901 0.9926553 0.0593901 0.0073447 -0.0593901
2347000000 0.0071592 -0.0575968 0.9928408 0.0575968 0.9928408 0.0575968 0.0071592 -0.0575968
2368000000 0.0069824 -0.0558208 0.9930176 0.0558208 0.9930176 0.0558208 0.0069824 -0.0558208
2389000000 0.0068142 -0.0540619 0.9931858 0.0540619 0.9931858 0.0540619 0.0068142 -0.0540619
2410000000 0.0066542 -0.0523194 0.9933458 0.0523194 0.9933458 0.0523194 0.0066542 -0.0523194
2431000000 0.0065023 -0.0505930 0.9934977 0.0505930 0.9934977 0.0505930 0.0065023 -0.0505930
2452000000 0.0063582 -0.0488821 0.9936418 0.0488821 0.9936418 0.0488821 0.0063582 -0.0488821
2473000000 0.0062217 -0.0471864 0.9937783 0.0471864 0.9937783 0.0471864 0.0062217 -0.0471864
2494000000 0.0060927 -0.0455054 0.9939073 0.0455054 0.9939073 0.0455054 0.0060927 -0.0455054
2515000000 0.0059709 -0.0438387 0.9940291 0.0438387 0.9940291 0.0438387 0.0059709 -0.0438387
2536000000 0.0058563 -0.0421859 0.9941437 0.0421859 0.9941437 0.0421859 0.0058563 -0.0421859
2557000000 0.0057485 -0.0405466 0.9942515 0.0405466 0.9942515 0.0405466 0.0057485 -0.0405466
2578000000 0.0056475 -0.0389205 0.9943525 0.0389205 0.9943525 0.0389205 0.0056475 -0.0389205
2599000000 0.0055530 -0.0373071 0.9944470 0.0373071 0.9944470 0.0373071 0.0055530 -0.0373071
2620000000 0.0054651 -0.0357062 0.9945349 0.0357062 0.9945349 0.0357062 0.0054651 -0.0357062
2641000000 0.0053834 -0.0341173 0.9946166 0.0341173 0.9946166 0.0341173 0.0053834 -0.0341173
2662000000 0.0053080 -0.0325401 0.9946920 0.0325401 0.9946920 0.0325401 0.0053080 -0.0325401
2683000000 0.0052385 -0.0309744 0.9947615 0.0309744 0.9947615 0.0309744 0.0052385 -0.0309744
2704000000 0.0051751 -0.0294197 0.9948249 0.0294197 0.9948249 0.0294197 0.0051751 -0.0294197
2725000000 0.0051174 -0.0278757 0.9948826 0.0278757 0.9948826 0.0278757 0.0051174 -0.0278757
2746000000 0.0050654 -0.0263422 0.9949346 0.0263422 0.9949346 0.0263422 0.0050654 -0.0263422
2767000000 0.0050191 -0.0248189 0.9949809 0.0248189 0.9949809 0.0248189 0.0050191 -0.0248189
2788000000 0.0049783 -0.0233054 0.9950217 0.0233054 0.9950217 0.0233054 0.0049783 -0.0233054
2809000000 0.0049428 -0.0218015 0.9950572 0.0218015 0.9950572 0.0218015 0.0049428 -0.0218015
2830000000 0.0049127 -0.0203070 0.9950873 0.0203070 0.9950873 0.0203070 0.0049127 -0.0203070
2851000000 0.0048878 -0.0188214 0.9951122 0.0188214 0.9951122 0.0188214 0.0048878 -0.0188214
2872000000 0.0048681 -0.0173446 0.9951319 0.0173446 0.9951319 0.0173446 0.0048681 -0.0173446
2893000000 0.0048535 -0.0158763 0.9951465 0.0158763 0.9951465 0.0158763 0.0048535 -0.0158763
2914000000 0.0048438 -0.0144163 0.9951562 0.0144163 0.9951562 0.0144163 0.0048438 -0.0144163
2935000000 0.0048391 -0.0129642 0.9951609 0.0129642 0.9951609 0.0129642 0.0048391 -0.0129642
2956000000 0.0048393 -0.0115199 0.9951607 0.0115199 0.9951607 0.0115199 0.0048393 -0.0115199
2977000000 0.0048443 -0.0100832 0.9951557 0.0100832 0.9951557 0.0100832 0.0048443 -0.0100832
2998000000 0.0048540 -0.0086537 0.9951460 0.0086537 0.9951460 0.0086537 0.0048540 -0.0086537
3019000000 0.0048684 -0.0072313 0.9951316 0.0072313 0.9951316 0.0072313 0.0048684 -0.0072313
3040000000 0.0048875 -0.0058158 0.9951125 0.0058158 0.9951125 0.0058158 0.0048875 -0.0058158
3061000000 0.0049112 -0.0044068 0.9950888 0.0044068 0.9950888 0.0044068 0.0049112 -0.0044068
3082000000 0.0049394 -0.0030043 0.9950606 0.0030043 0.9950606 0.0030043 0.0049394 -0.0030043
3103000000 0.0049721 -0.0016080 0.9950279 0.0016080 0.9950279 0.0016080 0.0049721 -0.0016080
3124000000 0.0050093 -0.0002176 0.9949907 0.0002176 0.9949907 0.0002176 0.0050093 -0.0002176
3145000000 0.0050509 0.0011669 0.9949491 -0.0011669 0.9949491 -0.0011669 0.0050509 0.0011669
3166000000 0.0050970 0.0025459 0.9949030 -0.0025459 0.9949030 -0.0025459 0.0050970 0.0025459
3187000000 0.0051474 0.0039195 0.9948526 -0.0039195 0.9948526 -0.0039195 0.0051474 0.0039195
3208000000 0.0052022 0.0052879 0.9947978 -0.0052879 0.9947978 -0.0052879 0.0052022 0.0052879
3229000000 0.0052612 0.0066513 0.9947388 -0.0066513 0.9947388 -0.0066513 0.0052612 0.0066513
3250000000 0.0053246 0.0080099 0.9946754 -0.0080099 0.9946754 -0.0080099 0.0053246 0.0080099
3271000000 0.0053923 0.0093638 0.9946077 -0.0093638 0.9946077 -0.0093638 0.0053923 0.0093638
3292000000 0.0054642 0.0107133 0.9945358 -0.0107133 0.9945358 -0.0107133 0.0054642 0.0107133
3313000000 0.0055404 0.0120585 0.9944596 -0.0120585 0.9944596 -0.0120585 0.0055404 0.0120585
3334000000 0.0056208 0.0133997 0.9943792 -0.0133997 0.9943792 -0.0133997 0.0056208 0.0133997
3355000000 0.0057055 0.0147369 0.9942945 -0.0147369 0.9942945 -0.0147369 0.0057055 0.0147369
3376000000 0.0057943 0.0160703 0.9942057 -0.0160703 0.9942057 -0.0160703 0.0057943 0.0160703
3397000000 0.0058874 0.0174002 0.9941126 -0.0174002 0.9941126 -0.0174002 0.0058874 0.0174002
3418000000 0.0059847 0.0187267 0.9940153 -0.0187267 0.9940153 -0.0187267 0.0059847 0.0187267
3439000000 0.0060863 0.0200499 0.9939137 -0.0200499 0.9939137 -0.0200499 0.0060863 0.0200499
3460000000 0.0061920 0.0213700 0.9938080 -0.0213700 0.9938080 -0.0213700 0.0061920 0.0213700
3481000000 0.0063020 0.0226872 0.9936980 -0.0226872 0.9936980 -0.0226872 0.0063020 0.0226872
3502000000 0.0064162 0.0240017 0.9935838 -0.0240017 0.9935838 -0.0240017 0.0064162 0.0240017
3523000000 0.0065347 0.0253136 0.9934653 -0.0253136 0.9934653 -0.0253136 0.0065347 0.0253136
3544000000 0.0066574 0.0266230 0.9933426 -0.0266230 0.9933426 -0.0266230 0.0066574 0.0266230
3565000000 0.0067844 0.0279302 0.9932156 -0.0279302 0.9932156 -0.0279302 0.0067844 0.0279302
3586000000 0.0069157 0.0292352 0.9930843 -0.0292352 0.9930843 -0.0292352 0.0069157 0.0292352
3607000000 0.0070513 0.0305383 0.9929487 -0.0305383 0.9929487 -0.0305383 0.0070513 0.0305383
3628000000 0.0071912 0.0318395 0.9928088 -0.0318395 0.9928088 -0.0318395 0.0071912 0.0318395
3649000000 0.0073355 0.0331391 0.9926645 -0.0331391 0.9926645 -0.0331391 0.0073355 0.0331391
3670000000 0.0074842 0.0344371 0.9925158 -0.0344371 0.9925158 -0.0344371 0.0074842 0.0344371
3691000000 0.0076373 0.0357339 0.9923627 -0.0357339 0.9923627 -0.0357339 0.0076373 0.0357339
3712000000 0.0077948 0.0370294 0.9922052 -0.0370294 0.9922052 -0.0370294 0.0077948 0.0370294
3733000000 0.0079569 0.0383238 0.9920431 -0.0383238 0.9920431 -0.0383238 0.0079569 0.0383238
3754000000 0.0081235 0.0396173 0.9918765 -0.0396173 0.9918765 -0.0396173 0.0081235 0.0396173
3775000000 0.0082946 0.0409101 0.9917054 -0.0409101 0.9917054 -0.0409101 0.0082946 0.0409101
3796000000 0.0084704 0.0422023 0.9915296 -0.0422023 0.9915296 -0.0422023 0.0084704 0.0422023
3817000000 0.0086508 0.0434940 0.9913492 -0.0434940 0.9913492 -0.0434940 0.0086508 0.0434940
3838000000 0.0088359 0.0447854 0.9911641 -0.0447854 0.9911641 -0.0447854 0.0088359 0.0447854
3859000000 0.0090258 0.0460766 0.9909742 -0.0460766 0.9909742 -0.0460766 0.0090258 0.0460766
3880000000 0.0092205 0.0473679 0.9907795 -0.0473679 0.9907795 -0.0473679 0.0092205 0.0473679
3901000000 0.0094201 0.0486593 0.9905799 -0.0486593 0.9905799 -0.0486593 0.0094201 0.0486593
3922000000 0.0096247 0.0499509 0.9903753 -0.0499509 0.9903753 -0.0499509 0.0096247 0.0499509
3943000000 0.0098342 0.0512430 0.9901658 -0.0512430 0.9901658 -0.0512430 0.0098342 0.0512430
3964000000 0.0100489 0.0525357 0.9899511 -0.0525357 0.9899511 -0.0525357 0.0100489 0.0525357
3985000000 0.0102687 0.0538291 0.9897313 -0.0538291 0.9897313 -0.0538291 0.0102687 0.0538291
4006000000 0.0104937 0.0551235 0.9895063 -0.0551235 0.9895063 -0.0551235 0.0104937 0.0551235
4027000000 0.0107241 0.0564189 0.9892759 -0.0564189 0.9892759 -0.0564189 0.0107241 0.0564189
4048000000 0.0109598 0.0577154 0.9890402 -0.0577154 0.9890402 -0.0577154 0.0109598 0.0577154
4069000000 0.0112010 0.0590134 0.9887990 -0.0590134 0.9887990 -0.0590134 0.0112010 0.0590134
4090000000 0.0114478 0.0603128 0.9885522 -0.0603128 0.9885522 -0.0603128 0.0114478 0.0603128
4111000000 0.0117003 0.0616140 0.9882997 -0.0616140 0.9882997 -0.0616140 0.0117003 0.0616140
4132000000 0.0119586 0.0629169 0.9880414 -0.0629169 0.9880414 -0.0629169 0.0119586 0.0629169
4153000000 0.0122228 0.0642219 0.9877772 -0.0642219 0.9877772 -0.0642219 0.0122228 0.0642219
4174000000 0.0124930 0.0655290 0.9875070 -0.0655290 0.9875070 -0.0655290 0.0124930 0.0655290
4195000000 0.0127693 0.0668384 0.9872307 -0.0668384 0.9872307 -0.0668384 0.0127693 0.0668384
4216000000 0.0130518 0.0681503 0.9869482 -0.0681503 0.9869482 -0.0681503 0.0130518 0.0681503
4237000000 0.0133407 0.0694648 0.9866593 -0.0694648 0.9866593 -0.0694648 0.0133407 0.0694648
4258000000 0.0136362 0.0707822 0.9863638 -0.0707822 0.9863638 -0.0707822 0.0136362 0.0707822
4279000000 0.0139383 0.0721025 0.9860617 -0.0721025 0.9860617 -0.0721025 0.0139383 0.0721025
4300000000 0.0142472 0.0734260 0.9857528 -0.0734260 0.9857528 -0.0734260 0.0142472 0.0734260
4321000000 0.0145631 0.0747529 0.9854369 -0.0747529 0.9854369 -0.0747529 0.0145631 0.0747529
4342000000 0.0148861 0.0760832 0.9851139 -0.0760832 0.9851139 -0.0760832 0.0148861 0.0760832
4363000000 0.0152164 0.0774173 0.9847836 -0.0774173 0.9847836 -0.0774173 0.0152164 0.0774173
4384000000 0.0155541 0.0787552 0.9844459 -0.0787552 0.9844459 -0.0787552 0.0155541 0.0787552
4405000000 0.0158996 0.0800971 0.9841004 -0.0800971 0.9841004 -0.0800971 0.0158996 0.0800971
4426000000 0.0162528 0.0814434 0.9837472 -0.0814434 0.9837472 -0.0814434 0.0162528 0.0814434
4447000000 0.0166142 0.0827941 0.9833858 -0.0827941 0.9833858 -0.0827941 0.0166142 0.0827941
4468000000 0.0169838 0.0841494 0.9830162 -0.0841494 0.9830162 -0.0841494 0.0169838 0.0841494
4489000000 0.0173620 0.0855095 0.9826380 -0.0855095 0.9826380 -0.0855095 0.0173620 0.0855095
4510000000 0.0177488 0.0868747 0.9822512 -0.0868747 0.9822512 -0.0868747 0.0177488 0.0868747
