!Murata Part Number: GRM1883C2A3R8WA01
!These Parameters are Measured in Series Mode Connection
!Data Generated on Mar 30, 2021
!       o--ll--o
!Port1            Port2
!       o------o
!Operation Temp=25[degC], DC Bias Voltage=0[V]
!Freq. Start=100[MHz] Stop=9[GHz] 401[Steps]
# Hz S RI R 50
!Freq.(Hz) S11(Real) S11(Imag) S21(Real) S21(Imag) S12(Real) S12(Imag) S22(Real) S22(Imag)
100000000 0.9458991 -0.2260237 0.0541009 0.2260237 0.0541009 0.2260237 0.9458991 -0.2260237
121000000 0.9226711 -0.2668677 0.0773289 0.2668677 0.0773289 0.2668677 0.9226711 -0.2668677
142000000 0.8964285 -0.3044019 0.1035715 0.3044019 0.1035715 0.3044019 0.8964285 -0.3044019
163000000 0.8677494 -0.3383984 0.1322506 0.3383984 0.1322506 0.3383984 0.8677494 -0.3383984
184000000 0.8372087 -0.3687422 0.1627913 0.3687422 0.1627913 0.3687422 0.8372087 -0.3687422
205000000 0.8053558 -0.3954200 0.1946442 0.3954200 0.1946442 0.3954200 0.8053558 -0.3954200
226000000 0.7726975 -0.4185042 0.2273025 0.4185042 0.2273025 0.4185042 0.7726975 -0.4185042
247000000 0.7396863 -0.4381369 0.2603137 0.4381369 0.2603137 0.4381369 0.7396863 -0.4381369
268000000 0.7067141 -0.4545117 0.2932859 0.4545117 0.2932859 0.4545117 0.7067141 -0.4545117
289000000 0.6741108 -0.4678578 0.3258892 0.4678578 0.3258892 0.4678578 0.6741108 -0.4678578
310000000 0.6421450 -0.4784257 0.3578550 0.4784257 0.3578550 0.4784257 0.6421450 -0.4784257
331000000 0.6110286 -0.4864751 0.3889714 0.4864751 0.3889714 0.4864751 0.6110286 -0.4864751
352000000 0.5809223 -0.4922655 0.4190777 0.4922655 0.4190777 0.4922655 0.5809223 -0.4922655
373000000 0.5519417 -0.4960489 0.4480583 0.4960489 0.4480583 0.4960489 0.5519417 -0.4960489
394000000 0.5241639 -0.4980646 0.4758361 0.4980646 0.4758361 0.4980646 0.5241639 -0.4980646
415000000 0.4976341 -0.4985361 0.5023659 0.4985361 0.5023659 0.4985361 0.4976341 -0.4985361
436000000 0.4723712 -0.4976691 0.5276288 0.4976691 0.5276288 0.4976691 0.4723712 -0.4976691
457000000 0.4483736 -0.4956506 0.5516264 0.4956506 0.5516264 0.4956506 0.4483736 -0.4956506
478000000 0.4256230 -0.4926488 0.5743770 0.4926488 0.5743770 0.4926488 0.4256230 -0.4926488
499000000 0.4040892 -0.4888142 0.5959108 0.4888142 0.5959108 0.4888142 0.4040892 -0.4888142
520000000 0.3837327 -0.4842801 0.6162673 0.4842801 0.6162673 0.4842801 0.3837327 -0.4842801
541000000 0.3645081 -0.4791637 0.6354919 0.4791637 0.6354919 0.4791637 0.3645081 -0.4791637
562000000 0.3463655 -0.4735681 0.6536345 0.4735681 0.6536345 0.4735681 0.3463655 -0.4735681
583000000 0.3292530 -0.4675829 0.6707470 0.4675829 0.6707470 0.4675829 0.3292530 -0.4675829
604000000 0.3131172 -0.4612860 0.6868828 0.4612860 0.6868828 0.4612860 0.3131172 -0.4612860
625000000 0.2979053 -0.4547448 0.7020947 0.4547448 0.7020947 0.4547448 0.2979053 -0.4547448
646000000 0.2835650 -0.4480173 0.7164350 0.4480173 0.7164350 0.4480173 0.2835650 -0.4480173
667000000 0.2700453 -0.4411535 0.7299547 0.4411535 0.7299547 0.4411535 0.2700453 -0.4411535
688000000 0.2572972 -0.4341959 0.7427028 0.4341959 0.7427028 0.4341959 0.2572972 -0.4341959
709000000 0.2452738 -0.4271808 0.7547262 0.4271808 0.7547262 0.4271808 0.2452738 -0.4271808
730000000 0.2339302 -0.4201390 0.7660698 0.4201390 0.7660698 0.4201390 0.2339302 -0.4201390
751000000 0.2232241 -0.4130968 0.7767759 0.4130968 0.7767759 0.4130968 0.2232241 -0.4130968
772000000 0.2131154 -0.4060758 0.7868846 0.4060758 0.7868846 0.4060758 0.2131154 -0.4060758
793000000 0.2035665 -0.3990947 0.7964335 0.3990947 0.7964335 0.3990947 0.2035665 -0.3990947
814000000 0.1945418 -0.3921685 0.8054582 0.3921685 0.8054582 0.3921685 0.1945418 -0.3921685
835000000 0.1860082 -0.3853099 0.8139918 0.3853099 0.8139918 0.3853099 0.1860082 -0.3853099
856000000 0.1779348 -0.3785292 0.8220652 0.3785292 0.8220652 0.3785292 0.1779348 -0.3785292
877000000 0.1702923 -0.3718347 0.8297077 0.3718347 0.8297077 0.3718347 0.1702923 -0.3718347
898000000 0.1630538 -0.3652331 0.8369462 0.3652331 0.8369462 0.3652331 0.1630538 -0.3652331
919000000 0.1561940 -0.3587297 0.8438060 0.3587297 0.8438060 0.3587297 0.1561940 -0.3587297
940000000 0.1496893 -0.3523283 0.8503107 0.3523283 0.8503107 0.3523283 0.1496893 -0.3523283
961000000 0.1435178 -0.3460319 0.8564822 0.3460319 0.8564822 0.3460319 0.1435178 -0.3460319
982000000 0.1376589 -0.3398425 0.8623411 0.3398425 0.8623411 0.3398425 0.1376589 -0.3398425
1003000000 0.1320936 -0.3337614 0.8679064 0.3337614 0.8679064 0.3337614 0.1320936 -0.3337614
1024000000 0.1268042 -0.3277893 0.8731958 0.3277893 0.8731958 0.3277893 0.1268042 -0.3277893
1045000000 0.1217741 -0.3219262 0.8782259 0.3219262 0.8782259 0.3219262 0.1217741 -0.3219262
1066000000 0.1169878 -0.3161718 0.8830122 0.3161718 0.8830122 0.3161718 0.1169878 -0.3161718
1087000000 0.1124310 -0.3105252 0.8875690 0.3105252 0.8875690 0.3105252 0.1124310 -0.3105252
1108000000 0.1080902 -0.3049856 0.8919098 0.3049856 0.8919098 0.3049856 0.1080902 -0.3049856
1129000000 0.1039530 -0.2995514 0.8960470 0.2995514 0.8960470 0.2995514 0.1039530 -0.2995514
1150000000 0.1000077 -0.2942213 0.8999923 0.2942213 0.8999923 0.2942213 0.1000077 -0.2942213
1171000000 0.0962434 -0.2889936 0.9037566 0.2889936 0.9037566 0.2889936 0.0962434 -0.2889936
1192000000 0.0926500 -0.2838663 0.9073500 0.2838663 0.9073500 0.2838663 0.0926500 -0.2838663
1213000000 0.0892178 -0.2788376 0.9107822 0.2788376 0.9107822 0.2788376 0.0892178 -0.2788376
1234000000 0.0859381 -0.2739054 0.9140619 0.2739054 0.9140619 0.2739054 0.0859381 -0.2739054
1255000000 0.0828026 -0.2690677 0.9171974 0.2690677 0.9171974 0.2690677 0.0828026 -0.2690677
1276000000 0.0798033 -0.2643224 0.9201967 0.2643224 0.9201967 0.2643224 0.0798033 -0.2643224
1297000000 0.0769332 -0.2596672 0.9230668 0.2596672 0.9230668 0.2596672 0.0769332 -0.2596672
1318000000 0.0741853 -0.2551001 0.9258147 0.2551001 0.9258147 0.2551001 0.0741853 -0.2551001
1339000000 0.0715534 -0.2506189 0.9284466 0.2506189 0.9284466 0.2506189 0.0715534 -0.2506189
1360000000 0.0690313 -0.2462215 0.9309687 0.2462215 0.9309687 0.2462215 0.0690313 -0.2462215
1381000000 0.0666134 -0.2419058 0.9333866 0.2419058 0.9333866 0.2419058 0.0666134 -0.2419058
1402000000 0.0642946 -0.2376695 0.9357054 0.2376695 0.9357054 0.2376695 0.0642946 -0.2376695
1423000000 0.0620698 -0.2335108 0.9379302 0.2335108 0.9379302 0.2335108 0.0620698 -0.2335108
1444000000 0.0599343 -0.2294274 0.9400657 0.2294274 0.9400657 0.2294274 0.0599343 -0.2294274
1465000000 0.0578839 -0.2254175 0.9421161 0.2254175 0.9421161 0.2254175 0.0578839 -0.2254175
1486000000 0.0559144 -0.2214791 0.9440856 0.2214791 0.9440856 0.2214791 0.0559144 -0.2214791
1507000000 0.0540218 -0.2176102 0.9459782 0.2176102 0.9459782 0.2176102 0.0540218 -0.2176102
1528000000 0.0522026 -0.2138090 0.9477974 0.2138090 0.9477974 0.2138090 0.0522026 -0.2138090
1549000000 0.0504533 -0.2100736 0.9495467 0.2100736 0.9495467 0.2100736 0.0504533 -0.2100736
1570000000 0.0487707 -0.2064022 0.9512293 0.2064022 0.9512293 0.2064022 0.0487707 -0.2064022
1591000000 0.0471516 -0.2027932 0.9528484 0.2027932 0.9528484 0.2027932 0.0471516 -0.2027932
1612000000 0.0455933 -0.1992447 0.9544067 0.1992447 0.9544067 0.1992447 0.0455933 -0.1992447
1633000000 0.0440930 -0.1957552 0.9559070 0.1957552 0.9559070 0.1957552 0.0440930 -0.1957552
1654000000 0.0426480 -0.1923231 0.9573520 0.1923231 0.9573520 0.1923231 0.0426480 -0.1923231
1675000000 0.0412560 -0.1889467 0.9587440 0.1889467 0.9587440 0.1889467 0.0412560 -0.1889467
1696000000 0.0399146 -0.1856246 0.9600854 0.1856246 0.9600854 0.1856246 0.0399146 -0.1856246
1717000000 0.0386218 -0.1823553 0.9613782 0.1823553 0.9613782 0.1823553 0.0386218 -0.1823553
1738000000 0.0373753 -0.1791374 0.9626247 0.1791374 0.9626247 0.1791374 0.0373753 -0.1791374
1759000000 0.0361732 -0.1759694 0.9638268 0.1759694 0.9638268 0.1759694 0.0361732 -0.1759694
1780000000 0.0350138 -0.1728500 0.9649862 0.1728500 0.9649862 0.1728500 0.0350138 -0.1728500
1801000000 0.0338952 -0.1697780 0.9661048 0.1697780 0.9661048 0.1697780 0.0338952 -0.1697780
1822000000 0.0328157 -0.1667521 0.9671843 0.1667521 0.9671843 0.1667521 0.0328157 -0.1667521
1843000000 0.0317738 -0.1637709 0.9682262 0.1637709 0.9682262 0.1637709 0.0317738 -0.1637709
1864000000 0.0307680 -0.1608334 0.9692320 0.1608334 0.9692320 0.1608334 0.0307680 -0.1608334
1885000000 0.0297968 -0.1579383 0.9702032 0.1579383 0.9702032 0.1579383 0.0297968 -0.1579383
1906000000 0.0288590 -0.1550846 0.9711410 0.1550846 0.9711410 0.1550846 0.0288590 -0.1550846
1927000000 0.0279531 -0.1522712 0.9720469 0.1522712 0.9720469 0.1522712 0.0279531 -0.1522712
1948000000 0.0270780 -0.1494970 0.9729220 0.1494970 0.9729220 0.1494970 0.0270780 -0.1494970
1969000000 0.0262325 -0.1467609 0.9737675 0.1467609 0.9737675 0.1467609 0.0262325 -0.1467609
1990000000 0.0254154 -0.1440620 0.9745846 0.1440620 0.9745846 0.1440620 0.0254154 -0.1440620
2011000000 0.0246258 -0.1413994 0.9753742 0.1413994 0.9753742 0.1413994 0.0246258 -0.1413994
2032000000 0.0238627 -0.1387720 0.9761373 0.1387720 0.9761373 0.1387720 0.0238627 -0.1387720
2053000000 0.0231249 -0.1361791 0.9768751 0.1361791 0.9768751 0.1361791 0.0231249 -0.1361791
2074000000 0.0224118 -0.1336196 0.9775882 0.1336196 0.9775882 0.1336196 0.0224118 -0.1336196
2095000000 0.0217223 -0.1310928 0.9782777 0.1310928 0.9782777 0.1310928 0.0217223 -0.1310928
2116000000 0.0210556 -0.1285979 0.9789444 0.1285979 0.9789444 0.1285979 0.0210556 -0.1285979
2137000000 0.0204109 -0.1261340 0.9795891 0.1261340 0.9795891 0.1261340 0.0204109 -0.1261340
2158000000 0.0197875 -0.1237003 0.9802125 0.1237003 0.9802125 0.1237003 0.0197875 -0.1237003
2179000000 0.0191847 -0.1212961 0.9808153 0.1212961 0.9808153 0.1212961 0.0191847 -0.1212961
2200000000 0.0186017 -0.1189207 0.9813983 0.1189207 0.9813983 0.1189207 0.0186017 -0.1189207
2221000000 0.0180380 -0.1165734 0.9819620 0.1165734 0.9819620 0.1165734 0.0180380 -0.1165734
2242000000 0.0174927 -0.1142534 0.9825073 0.1142534 0.9825073 0.1142534 0.0174927 -0.1142534
2263000000 0.0169654 -0.1119601 0.9830346 0.1119601 0.9830346 0.1119601 0.0169654 -0.1119601
2284000000 0.0164555 -0.1096929 0.9835445 0.1096929 0.9835445 0.1096929 0.0164555 -0.1096929
2305000000 0.0159624 -0.1074511 0.9840376 0.1074511 0.9840376 0.1074511 0.0159624 -0.1074511
2326000000 0.0154855 -0.1052341 0.9845145 0.1052341 0.9845145 0.1052341 0.0154855 -0.1052341
2347000000 0.0150245 -0.1030413 0.9849755 0.1030413 0.9849755 0.1030413 0.0150245 -0.1030413
2368000000 0.0145787 -0.1008721 0.9854213 0.1008721 0.9854213 0.1008721 0.0145787 -0.1008721
2389000000 0.0141477 -0.0987260 0.9858523 0.0987260 0.9858523 0.0987260 0.0141477 -0.0987260
2410000000 0.0137310 -0.0966025 0.9862690 0.0966025 0.9862690 0.0966025 0.0137310 -0.0966025
2431000000 0.0133283 -0.0945009 0.9866717 0.0945009 0.9866717 0.0945009 0.0133283 -0.0945009
2452000000 0.0129391 -0.0924208 0.9870609 0.0924208 0.9870609 0.0924208 0.0129391 -0.0924208
2473000000 0.0125631 -0.0903616 0.9874369 0.0903616 0.9874369 0.0903616 0.0125631 -0.0903616
2494000000 0.0121997 -0.0883230 0.9878003 0.0883230 0.9878003 0.0883230 0.0121997 -0.0883230
2515000000 0.0118488 -0.0863043 0.9881512 0.0863043 0.9881512 0.0863043 0.0118488 -0.0863043
2536000000 0.0115098 -0.0843052 0.9884902 0.0843052 0.9884902 0.0843052 0.0115098 -0.0843052
2557000000 0.0111826 -0.0823253 0.9888174 0.0823253 0.9888174 0.0823253 0.0111826 -0.0823253
2578000000 0.0108667 -0.0803639 0.9891333 0.0803639 0.9891333 0.0803639 0.0108667 -0.0803639
2599000000 0.0105619 -0.0784208 0.9894381 0.0784208 0.9894381 0.0784208 0.0105619 -0.0784208
2620000000 0.0102678 -0.0764956 0.9897322 0.0764956 0.9897322 0.0764956 0.0102678 -0.0764956
2641000000 0.0099842 -0.0745877 0.9900158 0.0745877 0.9900158 0.0745877 0.0099842 -0.0745877
2662000000 0.0097107 -0.0726969 0.9902893 0.0726969 0.9902893 0.0726969 0.0097107 -0.0726969
2683000000 0.0094472 -0.0708227 0.9905528 0.0708227 0.9905528 0.0708227 0.0094472 -0.0708227
2704000000 0.0091934 -0.0689648 0.9908066 0.0689648 0.9908066 0.0689648 0.0091934 -0.0689648
2725000000 0.0089490 -0.0671228 0.9910510 0.0671228 0.9910510 0.0671228 0.0089490 -0.0671228
2746000000 0.0087138 -0.0652963 0.9912862 0.0652963 0.9912862 0.0652963 0.0087138 -0.0652963
2767000000 0.0084875 -0.0634851 0.9915125 0.0634851 0.9915125 0.0634851 0.0084875 -0.0634851
2788000000 0.0082700 -0.0616887 0.9917300 0.0616887 0.9917300 0.0616887 0.0082700 -0.0616887
2809000000 0.0080610 -0.0599069 0.9919390 0.0599069 0.9919390 0.0599069 0.0080610 -0.0599069
2830000000 0.0078603 -0.0581393 0.9921397 0.0581393 0.9921397 0.0581393 0.0078603 -0.0581393
2851000000 0.0076678 -0.0563856 0.9923322 0.0563856 0.9923322 0.0563856 0.0076678 -0.0563856
2872000000 0.0074832 -0.0546455 0.9925168 0.0546455 0.9925168 0.0546455 0.0074832 -0.0546455
2893000000 0.0073064 -0.0529187 0.9926936 0.0529187 0.9926936 0.0529187 0.0073064 -0.0529187
2914000000 0.0071372 -0.0512050 0.9928628 0.0512050 0.9928628 0.0512050 0.0071372 -0.0512050
2935000000 0.0069754 -0.0495040 0.9930246 0.0495040 0.9930246 0.0495040 0.0069754 -0.0495040
2956000000 0.0068208 -0.0478155 0.9931792 0.0478155 0.9931792 0.0478155 0.0068208 -0.0478155
2977000000 0.0066734 -0.0461391 0.9933266 0.0461391 0.9933266 0.0461391 0.0066734 -0.0461391
2998000000 0.0065328 -0.0444747 0.9934672 0.0444747 0.9934672 0.0444747 0.0065328 -0.0444747
3019000000 0.0063992 -0.0428220 0.9936008 0.0428220 0.9936008 0.0428220 0.0063992 -0.0428220
3040000000 0.0062721 -0.0411806 0.9937279 0.0411806 0.9937279 0.0411806 0.0062721 -0.0411806
3061000000 0.0061516 -0.0395505 0.9938484 0.0395505 0.9938484 0.0395505 0.0061516 -0.0395505
3082000000 0.0060375 -0.0379313 0.9939625 0.0379313 0.9939625 0.0379313 0.0060375 -0.0379313
3103000000 0.0059297 -0.0363228 0.9940703 0.0363228 0.9940703 0.0363228 0.0059297 -0.0363228
3124000000 0.0058280 -0.0347248 0.9941720 0.0347248 0.9941720 0.0347248 0.0058280 -0.0347248
3145000000 0.0057324 -0.0331370 0.9942676 0.0331370 0.9942676 0.0331370 0.0057324 -0.0331370
3166000000 0.0056427 -0.0315592 0.9943573 0.0315592 0.9943573 0.0315592 0.0056427 -0.0315592
3187000000 0.0055588 -0.0299913 0.9944412 0.0299913 0.9944412 0.0299913 0.0055588 -0.0299913
3208000000 0.0054807 -0.0284329 0.9945193 0.0284329 0.9945193 0.0284329 0.0054807 -0.0284329
3229000000 0.0054081 -0.0268840 0.9945919 0.0268840 0.9945919 0.0268840 0.0054081 -0.0268840
3250000000 0.0053411 -0.0253442 0.9946589 0.0253442 0.9946589 0.0253442 0.0053411 -0.0253442
3271000000 0.0052795 -0.0238134 0.9947205 0.0238134 0.9947205 0.0238134 0.0052795 -0.0238134
3292000000 0.0052232 -0.0222915 0.9947768 0.0222915 0.9947768 0.0222915 0.0052232 -0.0222915
3313000000 0.0051722 -0.0207781 0.9948278 0.0207781 0.9948278 0.0207781 0.0051722 -0.0207781
3334000000 0.0051264 -0.0192732 0.9948736 0.0192732 0.9948736 0.0192732 0.0051264 -0.0192732
3355000000 0.0050856 -0.0177765 0.9949144 0.0177765 0.9949144 0.0177765 0.0050856 -0.0177765
3376000000 0.0050499 -0.0162879 0.9949501 0.0162879 0.9949501 0.0162879 0.0050499 -0.0162879
3397000000 0.0050190 -0.0148072 0.9949810 0.0148072 0.9949810 0.0148072 0.0050190 -0.0148072
3418000000 0.0049931 -0.0133342 0.9950069 0.0133342 0.9950069 0.0133342 0.0049931 -0.0133342
3439000000 0.0049719 -0.0118687 0.9950281 0.0118687 0.9950281 0.0118687 0.0049719 -0.0118687
3460000000 0.0049555 -0.0104106 0.9950445 0.0104106 0.9950445 0.0104106 0.0049555 -0.0104106
3481000000 0.0049438 -0.0089598 0.9950562 0.0089598 0.9950562 0.0089598 0.0049438 -0.0089598
3502000000 0.0049366 -0.0075160 0.9950634 0.0075160 0.9950634 0.0075160 0.0049366 -0.0075160
3523000000 0.0049340 -0.0060791 0.9950660 0.0060791 0.9950660 0.0060791 0.0049340 -0.0060791
3544000000 0.0049359 -0.0046489 0.9950641 0.0046489 0.9950641 0.0046489 0.0049359 -0.0046489
3565000000 0.0049423 -0.0032254 0.9950577 0.0032254 0.9950577 0.0032254 0.0049423 -0.0032254
3586000000 0.0049530 -0.0018083 0.9950470 0.0018083 0.9950470 0.0018083 0.0049530 -0.0018083
3607000000 0.0049681 -0.0003975 0.9950319 0.0003975 0.9950319 0.0003975 0.0049681 -0.0003975
3628000000 0.0049874 0.0010071 0.9950126 -0.0010071 0.9950126 -0.0010071 0.0049874 0.0010071
3649000000 0.0050110 0.0024058 0.9949890 -0.0024058 0.9949890 -0.0024058 0.0050110 0.0024058
3670000000 0.0050388 0.0037985 0.9949612 -0.0037985 0.9949612 -0.0037985 0.0050388 0.0037985
3691000000 0.0050708 0.0051855 0.9949292 -0.0051855 0.9949292 -0.0051855 0.0050708 0.0051855
3712000000 0.0051069 0.0065669 0.9948931 -0.0065669 0.9948931 -0.0065669 0.0051069 0.0065669
3733000000 0.0051471 0.0079428 0.9948529 -0.0079428 0.9948529 -0.0079428 0.0051471 0.0079428
3754000000 0.0051913 0.0093134 0.9948087 -0.0093134 0.9948087 -0.0093134 0.0051913 0.0093134
3775000000 0.0052396 0.0106788 0.9947604 -0.0106788 0.9947604 -0.0106788 0.0052396 0.0106788
3796000000 0.0052919 0.0120390 0.9947081 -0.0120390 0.9947081 -0.0120390 0.0052919 0.0120390
3817000000 0.0053481 0.0133944 0.9946519 -0.0133944 0.9946519 -0.0133944 0.0053481 0.0133944
3838000000 0.0054083 0.0147449 0.9945917 -0.0147449 0.9945917 -0.0147449 0.0054083 0.0147449
3859000000 0.0054723 0.0160906 0.9945277 -0.0160906 0.9945277 -0.0160906 0.0054723 0.0160906
3880000000 0.0055403 0.0174318 0.9944597 -0.0174318 0.9944597 -0.0174318 0.0055403 0.0174318
3901000000 0.0056121 0.0187685 0.9943879 -0.0187685 0.9943879 -0.0187685 0.0056121 0.0187685
3922000000 0.0056877 0.0201009 0.9943123 -0.0201009 0.9943123 -0.0201009 0.0056877 0.0201009
3943000000 0.0057672 0.0214290 0.9942328 -0.0214290 0.9942328 -0.0214290 0.0057672 0.0214290
3964000000 0.0058504 0.0227530 0.9941496 -0.0227530 0.9941496 -0.0227530 0.0058504 0.0227530
3985000000 0.0059375 0.0240730 0.9940625 -0.0240730 0.9940625 -0.0240730 0.0059375 0.0240730
4006000000 0.0060283 0.0253891 0.9939717 -0.0253891 0.9939717 -0.0253891 0.0060283 0.0253891
4027000000 0.0061229 0.0267014 0.9938771 -0.0267014 0.9938771 -0.0267014 0.0061229 0.0267014
4048000000 0.0062212 0.0280100 0.9937788 -0.0280100 0.9937788 -0.0280100 0.0062212 0.0280100
4069000000 0.0063233 0.0293150 0.9936767 -0.0293150 0.9936767 -0.0293150 0.0063233 0.0293150
4090000000 0.0064291 0.0306166 0.9935709 -0.0306166 0.9935709 -0.0306166 0.0064291 0.0306166
4111000000 0.0065387 0.0319149 0.9934613 -0.0319149 0.9934613 -0.0319149 0.0065387 0.0319149
4132000000 0.0066519 0.0332099 0.9933481 -0.0332099 0.9933481 -0.0332099 0.0066519 0.0332099
4153000000 0.0067689 0.0345017 0.9932311 -0.0345017 0.9932311 -0.0345017 0.0067689 0.0345017
4174000000 0.0068895 0.0357905 0.9931105 -0.0357905 0.9931105 -0.0357905 0.0068895 0.0357905
4195000000 0.0070139 0.0370764 0.9929861 -0.0370764 0.9929861 -0.0370764 0.0070139 0.0370764
4216000000 0.0071420 0.0383594 0.9928580 -0.0383594 0.9928580 -0.0383594 0.0071420 0.0383594
4237000000 0.0072738 0.0396398 0.9927262 -0.0396398 0.9927262 -0.0396398 0.0072738 0.0396398
4258000000 0.0074094 0.0409174 0.9925906 -0.0409174 0.9925906 -0.0409174 0.0074094 0.0409174
4279000000 0.0075486 0.0421926 0.9924514 -0.0421926 0.9924514 -0.0421926 0.0075486 0.0421926
4300000000 0.0076916 0.0434653 0.9923084 -0.0434653 0.9923084 -0.0434653 0.0076916 0.0434653
4321000000 0.0078383 0.0447357 0.9921617 -0.0447357 0.9921617 -0.0447357 0.0078383 0.0447357
4342000000 0.0079888 0.0460039 0.9920112 -0.0460039 0.9920112 -0.0460039 0.0079888 0.0460039
4363000000 0.0081430 0.0472699 0.9918570 -0.0472699 0.9918570 -0.0472699 0.0081430 0.0472699
4384000000 0.0083011 0.0485339 0.9916989 -0.0485339 0.9916989 -0.0485339 0.0083011 0.0485339
4405000000 0.0084629 0.0497960 0.9915371 -0.0497960 0.9915371 -0.0497960 0.0084629 0.0497960
4426000000 0.0086285 0.0510562 0.9913715 -0.0510562 0.9913715 -0.0510562 0.0086285 0.0510562
4447000000 0.0087979 0.0523147 0.9912021 -0.0523147 0.9912021 -0.0523147 0.0087979 0.0523147
4468000000 0.0089712 0.0535715 0.9910288 -0.0535715 0.9910288 -0.0535715 0.0089712 0.0535715
4489000000 0.0091483 0.0548268 0.9908517 -0.0548268 0.9908517 -0.0548268 0.0091483 0.0548268
4510000000 0.0093293 0.0560806 0.9906707 -0.0560806 0.9906707 -0.0560806 0.0093293 0.0560806
