!Murata Part Number: GRM1882C1H103JA01
!These Parameters are Measured in Series Mode Connection
!Data Generated on Mar 30, 2021
!       o--ll--o
!Port1            Port2
!       o------o
!Operation Temp=25[degC], DC Bias Voltage=0[V]
!Freq. Start=1000[kHz] Stop=6[GHz] 401[Steps]
# Hz S RI R 50
!Freq.(Hz) S11(Real) S11(Imag) S21(Real) S21(Imag) S12(Real) S12(Imag) S22(Real) S22(Imag)
1000000 0.0253707 -0.1570586 0.9746293 0.1570586 0.9746293 0.1570586 0.0253707 -0.1570586
1021987 0.0243191 -0.1538440 0.9756809 0.1538440 0.9756809 0.1538440 0.0243191 -0.1538440
1044457 0.0233101 -0.1506884 0.9766899 0.1506884 0.9766899 0.1506884 0.0233101 -0.1506884
1067422 0.0223421 -0.1475910 0.9776579 0.1475910 0.9776579 0.1475910 0.0223421 -0.1475910
1090891 0.0214135 -0.1445514 0.9785865 0.1445514 0.9785865 0.1445514 0.0214135 -0.1445514
1114877 0.0205228 -0.1415686 0.9794772 0.1415686 0.9794772 0.1415686 0.0205228 -0.1415686
1139390 0.0196685 -0.1386421 0.9803315 0.1386421 0.9803315 0.1386421 0.0196685 -0.1386421
1164441 0.0188492 -0.1357710 0.9811508 0.1357710 0.9811508 0.1357710 0.0188492 -0.1357710
1190044 0.0180634 -0.1329547 0.9819366 0.1329547 0.9819366 0.1329547 0.0180634 -0.1329547
1216210 0.0173099 -0.1301923 0.9826901 0.1301923 0.9826901 0.1301923 0.0173099 -0.1301923
1242950 0.0165874 -0.1274832 0.9834126 0.1274832 0.9834126 0.1274832 0.0165874 -0.1274832
1270279 0.0158947 -0.1248266 0.9841053 0.1248266 0.9841053 0.1248266 0.0158947 -0.1248266
1298209 0.0152305 -0.1222216 0.9847695 0.1222216 0.9847695 0.1222216 0.0152305 -0.1222216
1326753 0.0145937 -0.1196675 0.9854063 0.1196675 0.9854063 0.1196675 0.0145937 -0.1196675
1355924 0.0139833 -0.1171635 0.9860167 0.1171635 0.9860167 0.1171635 0.0139833 -0.1171635
1385737 0.0133982 -0.1147089 0.9866018 0.1147089 0.9866018 0.1147089 0.0133982 -0.1147089
1416205 0.0128373 -0.1123027 0.9871627 0.1123027 0.9871627 0.1123027 0.0128373 -0.1123027
1447343 0.0122997 -0.1099444 0.9877003 0.1099444 0.9877003 0.1099444 0.0122997 -0.1099444
1479166 0.0117845 -0.1076330 0.9882155 0.1076330 0.9882155 0.1076330 0.0117845 -0.1076330
1511688 0.0112906 -0.1053678 0.9887094 0.1053678 0.9887094 0.1053678 0.0112906 -0.1053678
1544926 0.0108174 -0.1031480 0.9891826 0.1031480 0.9891826 0.1031480 0.0108174 -0.1031480
1578894 0.0103638 -0.1009728 0.9896362 0.1009728 0.9896362 0.1009728 0.0103638 -0.1009728
1613609 0.0099292 -0.0988415 0.9900708 0.0988415 0.9900708 0.0988415 0.0099292 -0.0988415
1649087 0.0095127 -0.0967533 0.9904873 0.0967533 0.9904873 0.0967533 0.0095127 -0.0967533
1685346 0.0091136 -0.0947074 0.9908864 0.0947074 0.9908864 0.0947074 0.0091136 -0.0947074
1722402 0.0087312 -0.0927031 0.9912688 0.0927031 0.9912688 0.0927031 0.0087312 -0.0927031
1760272 0.0083648 -0.0907396 0.9916352 0.0907396 0.9916352 0.0907396 0.0083648 -0.0907396
1798975 0.0080138 -0.0888162 0.9919862 0.0888162 0.9919862 0.0888162 0.0080138 -0.0888162
1838529 0.0076774 -0.0869322 0.9923226 0.0869322 0.9923226 0.0869322 0.0076774 -0.0869322
1878953 0.0073552 -0.0850868 0.9926448 0.0850868 0.9926448 0.0850868 0.0073552 -0.0850868
1920266 0.0070465 -0.0832793 0.9929535 0.0832793 0.9929535 0.0832793 0.0070465 -0.0832793
1962487 0.0067507 -0.0815090 0.9932493 0.0815090 0.9932493 0.0815090 0.0067507 -0.0815090
2005636 0.0064674 -0.0797752 0.9935326 0.0797752 0.9935326 0.0797752 0.0064674 -0.0797752
2049734 0.0061960 -0.0780772 0.9938040 0.0780772 0.9938040 0.0780772 0.0061960 -0.0780772
2094801 0.0059360 -0.0764144 0.9940640 0.0764144 0.9940640 0.0764144 0.0059360 -0.0764144
2140860 0.0056870 -0.0747860 0.9943130 0.0747860 0.9943130 0.0747860 0.0056870 -0.0747860
2187931 0.0054484 -0.0731913 0.9945516 0.0731913 0.9945516 0.0731913 0.0054484 -0.0731913
2236037 0.0052199 -0.0716299 0.9947801 0.0716299 0.9947801 0.0716299 0.0052199 -0.0716299
2285201 0.0050010 -0.0701009 0.9949990 0.0701009 0.9949990 0.0701009 0.0050010 -0.0701009
2335446 0.0047914 -0.0686037 0.9952086 0.0686037 0.9952086 0.0686037 0.0047914 -0.0686037
2386795 0.0045906 -0.0671378 0.9954094 0.0671378 0.9954094 0.0671378 0.0045906 -0.0671378
2439274 0.0043983 -0.0657025 0.9956017 0.0657025 0.9956017 0.0657025 0.0043983 -0.0657025
2492906 0.0042141 -0.0642972 0.9957859 0.0642972 0.9957859 0.0642972 0.0042141 -0.0642972
2547717 0.0040376 -0.0629213 0.9959624 0.0629213 0.9959624 0.0629213 0.0040376 -0.0629213
2603734 0.0038687 -0.0615742 0.9961313 0.0615742 0.9961313 0.0615742 0.0038687 -0.0615742
2660982 0.0037069 -0.0602553 0.9962931 0.0602553 0.9962931 0.0602553 0.0037069 -0.0602553
2719490 0.0035519 -0.0589642 0.9964481 0.0589642 0.9964481 0.0589642 0.0035519 -0.0589642
2779283 0.0034035 -0.0577001 0.9965965 0.0577001 0.9965965 0.0577001 0.0034035 -0.0577001
2840391 0.0032613 -0.0564626 0.9967387 0.0564626 0.9967387 0.0564626 0.0032613 -0.0564626
2902843 0.0031252 -0.0552511 0.9968748 0.0552511 0.9968748 0.0552511 0.0031252 -0.0552511
2966668 0.0029949 -0.0540651 0.9970051 0.0540651 0.9970051 0.0540651 0.0029949 -0.0540651
3031896 0.0028701 -0.0529041 0.9971299 0.0529041 0.9971299 0.0529041 0.0028701 -0.0529041
3098558 0.0027505 -0.0517676 0.9972495 0.0517676 0.9972495 0.0517676 0.0027505 -0.0517676
3166686 0.0026361 -0.0506550 0.9973639 0.0506550 0.9973639 0.0506550 0.0026361 -0.0506550
3236312 0.0025265 -0.0495659 0.9974735 0.0495659 0.9974735 0.0495659 0.0025265 -0.0495659
3307469 0.0024215 -0.0484998 0.9975785 0.0484998 0.9975785 0.0484998 0.0024215 -0.0484998
3380190 0.0023210 -0.0474561 0.9976790 0.0474561 0.9976790 0.0474561 0.0023210 -0.0474561
3454511 0.0022248 -0.0464345 0.9977752 0.0464345 0.9977752 0.0464345 0.0022248 -0.0464345
3530465 0.0021326 -0.0454345 0.9978674 0.0454345 0.9978674 0.0454345 0.0021326 -0.0454345
3608090 0.0020444 -0.0444557 0.9979556 0.0444557 0.9979556 0.0444557 0.0020444 -0.0444557
3687421 0.0019599 -0.0434975 0.9980401 0.0434975 0.9980401 0.0434975 0.0019599 -0.0434975
3768496 0.0018791 -0.0425596 0.9981209 0.0425596 0.9981209 0.0425596 0.0018791 -0.0425596
3851354 0.0018016 -0.0416415 0.9981984 0.0416415 0.9981984 0.0416415 0.0018016 -0.0416415
3936034 0.0017275 -0.0407429 0.9982725 0.0407429 0.9982725 0.0407429 0.0017275 -0.0407429
4022575 0.0016565 -0.0398633 0.9983435 0.0398633 0.9983435 0.0398633 0.0016565 -0.0398633
4111020 0.0015885 -0.0390023 0.9984115 0.0390023 0.9984115 0.0390023 0.0015885 -0.0390023
4201409 0.0015235 -0.0381595 0.9984765 0.0381595 0.9984765 0.0381595 0.0015235 -0.0381595
4293785 0.0014612 -0.0373345 0.9985388 0.0373345 0.9985388 0.0373345 0.0014612 -0.0373345
4388193 0.0014016 -0.0365270 0.9985984 0.0365270 0.9985984 0.0365270 0.0014016 -0.0365270
4484676 0.0013445 -0.0357367 0.9986555 0.0357367 0.9986555 0.0357367 0.0013445 -0.0357367
4583281 0.0012899 -0.0349630 0.9987101 0.0349630 0.9987101 0.0349630 0.0012899 -0.0349630
4684054 0.0012376 -0.0342057 0.9987624 0.0342057 0.9987624 0.0342057 0.0012376 -0.0342057
4787042 0.0011875 -0.0334645 0.9988125 0.0334645 0.9988125 0.0334645 0.0011875 -0.0334645
4892295 0.0011396 -0.0327389 0.9988604 0.0327389 0.9988604 0.0327389 0.0011396 -0.0327389
4999862 0.0010937 -0.0320287 0.9989063 0.0320287 0.9989063 0.0320287 0.0010937 -0.0320287
5109794 0.0010498 -0.0313336 0.9989502 0.0313336 0.9989502 0.0313336 0.0010498 -0.0313336
5222143 0.0010078 -0.0306531 0.9989922 0.0306531 0.9989922 0.0306531 0.0010078 -0.0306531
5336962 0.0009676 -0.0299870 0.9990324 0.0299870 0.9990324 0.0299870 0.0009676 -0.0299870
5454306 0.0009292 -0.0293350 0.9990708 0.0293350 0.9990708 0.0293350 0.0009292 -0.0293350
5574230 0.0008923 -0.0286968 0.9991077 0.0286968 0.9991077 0.0286968 0.0008923 -0.0286968
5696791 0.0008571 -0.0280721 0.9991429 0.0280721 0.9991429 0.0280721 0.0008571 -0.0280721
5822046 0.0008234 -0.0274606 0.9991766 0.0274606 0.9991766 0.0274606 0.0008234 -0.0274606
5950055 0.0007912 -0.0268620 0.9992088 0.0268620 0.9992088 0.0268620 0.0007912 -0.0268620
6080879 0.0007603 -0.0262761 0.9992397 0.0262761 0.9992397 0.0262761 0.0007603 -0.0262761
6214580 0.0007308 -0.0257025 0.9992692 0.0257025 0.9992692 0.0257025 0.0007308 -0.0257025
6351220 0.0007026 -0.0251410 0.9992974 0.0251410 0.9992974 0.0251410 0.0007026 -0.0251410
6490864 0.0006756 -0.0245913 0.9993244 0.0245913 0.9993244 0.0245913 0.0006756 -0.0245913
6633579 0.0006498 -0.0240533 0.9993502 0.0240533 0.9993502 0.0240533 0.0006498 -0.0240533
6779431 0.0006251 -0.0235265 0.9993749 0.0235265 0.9993749 0.0235265 0.0006251 -0.0235265
6928491 0.0006015 -0.0230109 0.9993985 0.0230109 0.9993985 0.0230109 0.0006015 -0.0230109
7080828 0.0005789 -0.0225061 0.9994211 0.0225061 0.9994211 0.0225061 0.0005789 -0.0225061
7236514 0.0005573 -0.0220119 0.9994427 0.0220119 0.9994427 0.0220119 0.0005573 -0.0220119
7395623 0.0005367 -0.0215281 0.9994633 0.0215281 0.9994633 0.0215281 0.0005367 -0.0215281
7558231 0.0005170 -0.0210544 0.9994830 0.0210544 0.9994830 0.0210544 0.0005170 -0.0210544
7724414 0.0004981 -0.0205907 0.9995019 0.0205907 0.9995019 0.0205907 0.0004981 -0.0205907
7894251 0.0004801 -0.0201367 0.9995199 0.0201367 0.9995199 0.0201367 0.0004801 -0.0201367
8067822 0.0004629 -0.0196922 0.9995371 0.0196922 0.9995371 0.0196922 0.0004629 -0.0196922
8245209 0.0004465 -0.0192571 0.9995535 0.0192571 0.9995535 0.0192571 0.0004465 -0.0192571
8426497 0.0004308 -0.0188310 0.9995692 0.0188310 0.9995692 0.0188310 0.0004308 -0.0188310
8611770 0.0004159 -0.0184138 0.9995841 0.0184138 0.9995841 0.0184138 0.0004159 -0.0184138
8801117 0.0004016 -0.0180053 0.9995984 0.0180053 0.9995984 0.0180053 0.0004016 -0.0180053
8994628 0.0003879 -0.0176053 0.9996121 0.0176053 0.9996121 0.0176053 0.0003879 -0.0176053
9192393 0.0003749 -0.0172136 0.9996251 0.0172136 0.9996251 0.0172136 0.0003749 -0.0172136
9394506 0.0003625 -0.0168301 0.9996375 0.0168301 0.9996375 0.0168301 0.0003625 -0.0168301
9601063 0.0003507 -0.0164546 0.9996493 0.0164546 0.9996493 0.0164546 0.0003507 -0.0164546
9812162 0.0003394 -0.0160868 0.9996606 0.0160868 0.9996606 0.0160868 0.0003394 -0.0160868
10027902 0.0003287 -0.0157266 0.9996713 0.0157266 0.9996713 0.0157266 0.0003287 -0.0157266
10248386 0.0003184 -0.0153739 0.9996816 0.0153739 0.9996816 0.0153739 0.0003184 -0.0153739
10473717 0.0003087 -0.0150285 0.9996913 0.0150285 0.9996913 0.0150285 0.0003087 -0.0150285
10704003 0.0002994 -0.0146902 0.9997006 0.0146902 0.9997006 0.0146902 0.0002994 -0.0146902
10939352 0.0002906 -0.0143588 0.9997094 0.0143588 0.9997094 0.0143588 0.0002906 -0.0143588
11179876 0.0002822 -0.0140343 0.9997178 0.0140343 0.9997178 0.0140343 0.0002822 -0.0140343
11425688 0.0002742 -0.0137164 0.9997258 0.0137164 0.9997258 0.0137164 0.0002742 -0.0137164
11676904 0.0002666 -0.0134050 0.9997334 0.0134050 0.9997334 0.0134050 0.0002666 -0.0134050
11933645 0.0002594 -0.0131000 0.9997406 0.0131000 0.9997406 0.0131000 0.0002594 -0.0131000
12196030 0.0002526 -0.0128012 0.9997474 0.0128012 0.9997474 0.0128012 0.0002526 -0.0128012
12464184 0.0002461 -0.0125084 0.9997539 0.0125084 0.9997539 0.0125084 0.0002461 -0.0125084
12738235 0.0002400 -0.0122216 0.9997600 0.0122216 0.9997600 0.0122216 0.0002400 -0.0122216
13018310 0.0002342 -0.0119407 0.9997658 0.0119407 0.9997658 0.0119407 0.0002342 -0.0119407
13304544 0.0002286 -0.0116653 0.9997714 0.0116653 0.9997714 0.0116653 0.0002286 -0.0116653
13597071 0.0002234 -0.0113956 0.9997766 0.0113956 0.9997766 0.0113956 0.0002234 -0.0113956
13896030 0.0002185 -0.0111312 0.9997815 0.0111312 0.9997815 0.0111312 0.0002185 -0.0111312
14201563 0.0002139 -0.0108722 0.9997861 0.0108722 0.9997861 0.0108722 0.0002139 -0.0108722
14513813 0.0002095 -0.0106183 0.9997905 0.0106183 0.9997905 0.0106183 0.0002095 -0.0106183
14832928 0.0002054 -0.0103695 0.9997946 0.0103695 0.9997946 0.0103695 0.0002054 -0.0103695
15159060 0.0002015 -0.0101256 0.9997985 0.0101256 0.9997985 0.0101256 0.0002015 -0.0101256
15492362 0.0001979 -0.0098865 0.9998021 0.0098865 0.9998021 0.0098865 0.0001979 -0.0098865
15832993 0.0001944 -0.0096522 0.9998056 0.0096522 0.9998056 0.0096522 0.0001944 -0.0096522
16181113 0.0001912 -0.0094224 0.9998088 0.0094224 0.9998088 0.0094224 0.0001912 -0.0094224
16536888 0.0001882 -0.0091972 0.9998118 0.0091972 0.9998118 0.0091972 0.0001882 -0.0091972
16900485 0.0001855 -0.0089763 0.9998145 0.0089763 0.9998145 0.0089763 0.0001855 -0.0089763
17272076 0.0001828 -0.0087597 0.9998172 0.0087597 0.9998172 0.0087597 0.0001828 -0.0087597
17651837 0.0001804 -0.0085473 0.9998196 0.0085473 0.9998196 0.0085473 0.0001804 -0.0085473
18039948 0.0001782 -0.0083390 0.9998218 0.0083390 0.9998218 0.0083390 0.0001782 -0.0083390
18436593 0.0001761 -0.0081347 0.9998239 0.0081347 0.9998239 0.0081347 0.0001761 -0.0081347
18841959 0.0001742 -0.0079342 0.9998258 0.0079342 0.9998258 0.0079342 0.0001742 -0.0079342
19256237 0.0001724 -0.0077376 0.9998276 0.0077376 0.9998276 0.0077376 0.0001724 -0.0077376
19679624 0.0001708 -0.0075446 0.9998292 0.0075446 0.9998292 0.0075446 0.0001708 -0.0075446
20112321 0.0001693 -0.0073553 0.9998307 0.0073553 0.9998307 0.0073553 0.0001693 -0.0073553
20554530 0.0001680 -0.0071695 0.9998320 0.0071695 0.9998320 0.0071695 0.0001680 -0.0071695
21006463 0.0001668 -0.0069871 0.9998332 0.0069871 0.9998332 0.0069871 0.0001668 -0.0069871
21468333 0.0001657 -0.0068080 0.9998343 0.0068080 0.9998343 0.0068080 0.0001657 -0.0068080
21940357 0.0001648 -0.0066322 0.9998352 0.0066322 0.9998352 0.0066322 0.0001648 -0.0066322
22422760 0.0001639 -0.0064596 0.9998361 0.0064596 0.9998361 0.0064596 0.0001639 -0.0064596
22915770 0.0001632 -0.0062901 0.9998368 0.0062901 0.9998368 0.0062901 0.0001632 -0.0062901
23419619 0.0001626 -0.0061236 0.9998374 0.0061236 0.9998374 0.0061236 0.0001626 -0.0061236
23934547 0.0001621 -0.0059600 0.9998379 0.0059600 0.9998379 0.0059600 0.0001621 -0.0059600
24460796 0.0001617 -0.0057993 0.9998383 0.0057993 0.9998383 0.0057993 0.0001617 -0.0057993
24998616 0.0001614 -0.0056414 0.9998386 0.0056414 0.9998386 0.0056414 0.0001614 -0.0056414
25548261 0.0001611 -0.0054861 0.9998389 0.0054861 0.9998389 0.0054861 0.0001611 -0.0054861
26109991 0.0001610 -0.0053335 0.9998390 0.0053335 0.9998390 0.0053335 0.0001610 -0.0053335
26684072 0.0001610 -0.0051835 0.9998390 0.0051835 0.9998390 0.0051835 0.0001610 -0.0051835
27270775 0.0001610 -0.0050359 0.9998390 0.0050359 0.9998390 0.0050359 0.0001610 -0.0050359
27870378 0.0001611 -0.0048907 0.9998389 0.0048907 0.9998389 0.0048907 0.0001611 -0.0048907
28483164 0.0001613 -0.0047479 0.9998387 0.0047479 0.9998387 0.0047479 0.0001613 -0.0047479
29109424 0.0001616 -0.0046074 0.9998384 0.0046074 0.9998384 0.0046074 0.0001616 -0.0046074
29749453 0.0001620 -0.0044691 0.9998380 0.0044691 0.9998380 0.0044691 0.0001620 -0.0044691
30403555 0.0001624 -0.0043329 0.9998376 0.0043329 0.9998376 0.0043329 0.0001624 -0.0043329
31072038 0.0001629 -0.0041987 0.9998371 0.0041987 0.9998371 0.0041987 0.0001629 -0.0041987
31755220 0.0001635 -0.0040666 0.9998365 0.0040666 0.9998365 0.0040666 0.0001635 -0.0040666
32453422 0.0001642 -0.0039364 0.9998358 0.0039364 0.9998358 0.0039364 0.0001642 -0.0039364
33166976 0.0001649 -0.0038081 0.9998351 0.0038081 0.9998351 0.0038081 0.0001649 -0.0038081
33896219 0.0001657 -0.0036816 0.9998343 0.0036816 0.9998343 0.0036816 0.0001657 -0.0036816
34641496 0.0001665 -0.0035569 0.9998335 0.0035569 0.9998335 0.0035569 0.0001665 -0.0035569
35403159 0.0001675 -0.0034339 0.9998325 0.0034339 0.9998325 0.0034339 0.0001675 -0.0034339
36181569 0.0001685 -0.0033125 0.9998315 0.0033125 0.9998315 0.0033125 0.0001685 -0.0033125
36977093 0.0001696 -0.0031926 0.9998304 0.0031926 0.9998304 0.0031926 0.0001696 -0.0031926
37790109 0.0001707 -0.0030743 0.9998293 0.0030743 0.9998293 0.0030743 0.0001707 -0.0030743
38621001 0.0001719 -0.0029574 0.9998281 0.0029574 0.9998281 0.0029574 0.0001719 -0.0029574
39470161 0.0001732 -0.0028419 0.9998268 0.0028419 0.9998268 0.0028419 0.0001732 -0.0028419
40337993 0.0001746 -0.0027278 0.9998254 0.0027278 0.9998254 0.0027278 0.0001746 -0.0027278
41224905 0.0001761 -0.0026149 0.9998239 0.0026149 0.9998239 0.0026149 0.0001761 -0.0026149
42131317 0.0001776 -0.0025033 0.9998224 0.0025033 0.9998224 0.0025033 0.0001776 -0.0025033
43057659 0.0001792 -0.0023928 0.9998208 0.0023928 0.9998208 0.0023928 0.0001792 -0.0023928
44004369 0.0001809 -0.0022834 0.9998191 0.0022834 0.9998191 0.0022834 0.0001809 -0.0022834
44971893 0.0001827 -0.0021751 0.9998173 0.0021751 0.9998173 0.0021751 0.0001827 -0.0021751
45960691 0.0001846 -0.0020677 0.9998154 0.0020677 0.9998154 0.0020677 0.0001846 -0.0020677
46971230 0.0001866 -0.0019613 0.9998134 0.0019613 0.9998134 0.0019613 0.0001866 -0.0019613
48003987 0.0001887 -0.0018558 0.9998113 0.0018558 0.9998113 0.0018558 0.0001887 -0.0018558
49059451 0.0001908 -0.0017512 0.9998092 0.0017512 0.9998092 0.0017512 0.0001908 -0.0017512
50138122 0.0001931 -0.0016472 0.9998069 0.0016472 0.9998069 0.0016472 0.0001931 -0.0016472
51240510 0.0001955 -0.0015440 0.9998045 0.0015440 0.9998045 0.0015440 0.0001955 -0.0015440
52367136 0.0001981 -0.0014415 0.9998019 0.0014415 0.9998019 0.0014415 0.0001981 -0.0014415
53518533 0.0002007 -0.0013396 0.9997993 0.0013396 0.9997993 0.0013396 0.0002007 -0.0013396
54695245 0.0002035 -0.0012382 0.9997965 0.0012382 0.9997965 0.0012382 0.0002035 -0.0012382
55897831 0.0002064 -0.0011373 0.9997936 0.0011373 0.9997936 0.0011373 0.0002064 -0.0011373
57126857 0.0002095 -0.0010368 0.9997905 0.0010368 0.9997905 0.0010368 0.0002095 -0.0010368
58382906 0.0002127 -0.0009367 0.9997873 0.0009367 0.9997873 0.0009367 0.0002127 -0.0009367
59666572 0.0002160 -0.0008369 0.9997840 0.0008369 0.9997840 0.0008369 0.0002160 -0.0008369
60978462 0.0002196 -0.0007373 0.9997804 0.0007373 0.9997804 0.0007373 0.0002196 -0.0007373
62319196 0.0002233 -0.0006379 0.9997767 0.0006379 0.9997767 0.0006379 0.0002233 -0.0006379
63689409 0.0002273 -0.0005387 0.9997727 0.0005387 0.9997727 0.0005387 0.0002273 -0.0005387
65089750 0.0002314 -0.0004395 0.9997686 0.0004395 0.9997686 0.0004395 0.0002314 -0.0004395
66520879 0.0002358 -0.0003403 0.9997642 0.0003403 0.9997642 0.0003403 0.0002358 -0.0003403
67983474 0.0002404 -0.0002409 0.9997596 0.0002409 0.9997596 0.0002409 0.0002404 -0.0002409
69478228 0.0002453 -0.0001415 0.9997547 0.0001415 0.9997547 0.0001415 0.0002453 -0.0001415
71005847 0.0002505 -0.0000418 0.9997495 0.0000418 0.9997495 0.0000418 0.0002505 -0.0000418
72567054 0.0002560 0.0000583 0.9997440 -0.0000583 0.9997440 -0.0000583 0.0002560 0.0000583
74162587 0.0002618 0.0001587 0.9997382 -0.0001587 0.9997382 -0.0001587 0.0002618 0.0001587
75793201 0.0002680 0.0002597 0.9997320 -0.0002597 0.9997320 -0.0002597 0.0002680 0.0002597
77459667 0.0002746 0.0003612 0.9997254 -0.0003612 0.9997254 -0.0003612 0.0002746 0.0003612
79162774 0.0002816 0.0004635 0.9997184 -0.0004635 0.9997184 -0.0004635 0.0002816 0.0004635
80903327 0.0002892 0.0005666 0.9997108 -0.0005666 0.9997108 -0.0005666 0.0002892 0.0005666
82682150 0.0002972 0.0006706 0.9997028 -0.0006706 0.9997028 -0.0006706 0.0002972 0.0006706
84500083 0.0003059 0.0007757 0.9996941 -0.0007757 0.9996941 -0.0007757 0.0003059 0.0007757
86357988 0.0003153 0.0008820 0.9996847 -0.0008820 0.9996847 -0.0008820 0.0003153 0.0008820
88256743 0.0003255 0.0009897 0.9996745 -0.0009897 0.9996745 -0.0009897 0.0003255 0.0009897
90197245 0.0003365 0.0010990 0.9996635 -0.0010990 0.9996635 -0.0010990 0.0003365 0.0010990
92180413 0.0003486 0.0012101 0.9996514 -0.0012101 0.9996514 -0.0012101 0.0003486 0.0012101
94207185 0.0003620 0.0013233 0.9996380 -0.0013233 0.9996380 -0.0013233 0.0003620 0.0013233
96278520 0.0003768 0.0014387 0.9996232 -0.0014387 0.9996232 -0.0014387 0.0003768 0.0014387
98395398 0.0003932 0.0015568 0.9996068 -0.0015568 0.9996068 -0.0015568 0.0003932 0.0015568
100558819 0.0004118 0.0016779 0.9995882 -0.0016779 0.9995882 -0.0016779 0.0004118 0.0016779
102769807 0.0004329 0.0018024 0.9995671 -0.0018024 0.9995671 -0.0018024 0.0004329 0.0018024
105029408 0.0004572 0.0019309 0.9995428 -0.0019309 0.9995428 -0.0019309 0.0004572 0.0019309
107338692 0.0004855 0.0020638 0.9995145 -0.0020638 0.9995145 -0.0020638 0.0004855 0.0020638
