!Murata Part Number: GRM1885C2A220JA01
!These Parameters are Measured in Series Mode Connection
!Data Generated on Mar 30, 2021
!       o--ll--o
!Port1            Port2
!       o------o
!Operation Temp=25[degC], DC Bias Voltage=0[V]
!Freq. Start=100[MHz] Stop=9[GHz] 401[Steps]
# Hz S RI R 50
!Freq.(Hz) S11(Real) S11(Imag) S21(Real) S21(Imag) S12(Real) S12(Imag) S22(Real) S22(Imag)
100000000 0.3419154 -0.4729113 0.6580846 0.4729113 0.6580846 0.4729113 0.3419154 -0.4729113
121000000 0.2614565 -0.4376800 0.7385435 0.4376800 0.7385435 0.4376800 0.2614565 -0.4376800
142000000 0.2040241 -0.4009275 0.7959759 0.4009275 0.7959759 0.4009275 0.2040241 -0.4009275
163000000 0.1624023 -0.3664454 0.8375977 0.3664454 0.8375977 0.3664454 0.1624023 -0.3664454
184000000 0.1316386 -0.3354043 0.8683614 0.3354043 0.8683614 0.3354043 0.1316386 -0.3354043
205000000 0.1084343 -0.3079110 0.8915657 0.3079110 0.8915657 0.3079110 0.1084343 -0.3079110
226000000 0.0905914 -0.2836805 0.9094086 0.2836805 0.9094086 0.2836805 0.0905914 -0.2836805
247000000 0.0766262 -0.2623152 0.9233738 0.2623152 0.9233738 0.2623152 0.0766262 -0.2623152
268000000 0.0655200 -0.2434167 0.9344800 0.2434167 0.9344800 0.2434167 0.0655200 -0.2434167
289000000 0.0565599 -0.2266257 0.9434401 0.2266257 0.9434401 0.2266257 0.0565599 -0.2266257
310000000 0.0492378 -0.2116326 0.9507622 0.2116326 0.9507622 0.2116326 0.0492378 -0.2116326
331000000 0.0431850 -0.1981758 0.9568150 0.1981758 0.9568150 0.1981758 0.0431850 -0.1981758
352000000 0.0381296 -0.1860362 0.9618704 0.1860362 0.9618704 0.1860362 0.0381296 -0.1860362
373000000 0.0338679 -0.1750309 0.9661321 0.1750309 0.9661321 0.1750309 0.0338679 -0.1750309
394000000 0.0302452 -0.1650069 0.9697548 0.1650069 0.9697548 0.1650069 0.0302452 -0.1650069
415000000 0.0271422 -0.1558361 0.9728578 0.1558361 0.9728578 0.1558361 0.0271422 -0.1558361
436000000 0.0244662 -0.1474105 0.9755338 0.1474105 0.9755338 0.1474105 0.0244662 -0.1474105
457000000 0.0221442 -0.1396390 0.9778558 0.1396390 0.9778558 0.1396390 0.0221442 -0.1396390
478000000 0.0201179 -0.1324442 0.9798821 0.1324442 0.9798821 0.1324442 0.0201179 -0.1324442
499000000 0.0183406 -0.1257600 0.9816594 0.1257600 0.9816594 0.1257600 0.0183406 -0.1257600
520000000 0.0167745 -0.1195300 0.9832255 0.1195300 0.9832255 0.1195300 0.0167745 -0.1195300
541000000 0.0153886 -0.1137052 0.9846114 0.1137052 0.9846114 0.1137052 0.0153886 -0.1137052
562000000 0.0141574 -0.1082436 0.9858426 0.1082436 0.9858426 0.1082436 0.0141574 -0.1082436
583000000 0.0130599 -0.1031086 0.9869401 0.1031086 0.9869401 0.1031086 0.0130599 -0.1031086
604000000 0.0120784 -0.0982681 0.9879216 0.0982681 0.9879216 0.0982681 0.0120784 -0.0982681
625000000 0.0111981 -0.0936942 0.9888019 0.0936942 0.9888019 0.0936942 0.0111981 -0.0936942
646000000 0.0104066 -0.0893623 0.9895934 0.0893623 0.9895934 0.0893623 0.0104066 -0.0893623
667000000 0.0096932 -0.0852507 0.9903068 0.0852507 0.9903068 0.0852507 0.0096932 -0.0852507
688000000 0.0090489 -0.0813402 0.9909511 0.0813402 0.9909511 0.0813402 0.0090489 -0.0813402
709000000 0.0084659 -0.0776136 0.9915341 0.0776136 0.9915341 0.0776136 0.0084659 -0.0776136
730000000 0.0079376 -0.0740558 0.9920624 0.0740558 0.9920624 0.0740558 0.0079376 -0.0740558
751000000 0.0074582 -0.0706531 0.9925418 0.0706531 0.9925418 0.0706531 0.0074582 -0.0706531
772000000 0.0070227 -0.0673934 0.9929773 0.0673934 0.9929773 0.0673934 0.0070227 -0.0673934
793000000 0.0066266 -0.0642657 0.9933734 0.0642657 0.9933734 0.0642657 0.0066266 -0.0642657
814000000 0.0062662 -0.0612600 0.9937338 0.0612600 0.9937338 0.0612600 0.0062662 -0.0612600
835000000 0.0059381 -0.0583675 0.9940619 0.0583675 0.9940619 0.0583675 0.0059381 -0.0583675
856000000 0.0056394 -0.0555801 0.9943606 0.0555801 0.9943606 0.0555801 0.0056394 -0.0555801
877000000 0.0053674 -0.0528904 0.9946326 0.0528904 0.9946326 0.0528904 0.0053674 -0.0528904
898000000 0.0051198 -0.0502917 0.9948802 0.0502917 0.9948802 0.0502917 0.0051198 -0.0502917
919000000 0.0048945 -0.0477780 0.9951055 0.0477780 0.9951055 0.0477780 0.0048945 -0.0477780
940000000 0.0046898 -0.0453437 0.9953102 0.0453437 0.9953102 0.0453437 0.0046898 -0.0453437
961000000 0.0045040 -0.0429836 0.9954960 0.0429836 0.9954960 0.0429836 0.0045040 -0.0429836
982000000 0.0043355 -0.0406932 0.9956645 0.0406932 0.9956645 0.0406932 0.0043355 -0.0406932
1003000000 0.0041832 -0.0384680 0.9958168 0.0384680 0.9958168 0.0384680 0.0041832 -0.0384680
1024000000 0.0040458 -0.0363042 0.9959542 0.0363042 0.9959542 0.0363042 0.0040458 -0.0363042
1045000000 0.0039223 -0.0341982 0.9960777 0.0341982 0.9960777 0.0341982 0.0039223 -0.0341982
1066000000 0.0038116 -0.0321464 0.9961884 0.0321464 0.9961884 0.0321464 0.0038116 -0.0321464
1087000000 0.0037129 -0.0301460 0.9962871 0.0301460 0.9962871 0.0301460 0.0037129 -0.0301460
1108000000 0.0036255 -0.0281938 0.9963745 0.0281938 0.9963745 0.0281938 0.0036255 -0.0281938
1129000000 0.0035485 -0.0262873 0.9964515 0.0262873 0.9964515 0.0262873 0.0035485 -0.0262873
1150000000 0.0034814 -0.0244240 0.9965186 0.0244240 0.9965186 0.0244240 0.0034814 -0.0244240
1171000000 0.0034236 -0.0226016 0.9965764 0.0226016 0.9965764 0.0226016 0.0034236 -0.0226016
1192000000 0.0033744 -0.0208179 0.9966256 0.0208179 0.9966256 0.0208179 0.0033744 -0.0208179
1213000000 0.0033335 -0.0190709 0.9966665 0.0190709 0.9966665 0.0190709 0.0033335 -0.0190709
1234000000 0.0033003 -0.0173588 0.9966997 0.0173588 0.9966997 0.0173588 0.0033003 -0.0173588
1255000000 0.0032745 -0.0156797 0.9967255 0.0156797 0.9967255 0.0156797 0.0032745 -0.0156797
1276000000 0.0032556 -0.0140321 0.9967444 0.0140321 0.9967444 0.0140321 0.0032556 -0.0140321
1297000000 0.0032433 -0.0124143 0.9967567 0.0124143 0.9967567 0.0124143 0.0032433 -0.0124143
1318000000 0.0032372 -0.0108250 0.9967628 0.0108250 0.9967628 0.0108250 0.0032372 -0.0108250
1339000000 0.0032372 -0.0092629 0.9967628 0.0092629 0.9967628 0.0092629 0.0032372 -0.0092629
1360000000 0.0032429 -0.0077265 0.9967571 0.0077265 0.9967571 0.0077265 0.0032429 -0.0077265
1381000000 0.0032540 -0.0062147 0.9967460 0.0062147 0.9967460 0.0062147 0.0032540 -0.0062147
1402000000 0.0032703 -0.0047265 0.9967297 0.0047265 0.9967297 0.0047265 0.0032703 -0.0047265
1423000000 0.0032917 -0.0032606 0.9967083 0.0032606 0.9967083 0.0032606 0.0032917 -0.0032606
1444000000 0.0033178 -0.0018162 0.9966822 0.0018162 0.9966822 0.0018162 0.0033178 -0.0018162
1465000000 0.0033486 -0.0003922 0.9966514 0.0003922 0.9966514 0.0003922 0.0033486 -0.0003922
1486000000 0.0033838 0.0010122 0.9966162 -0.0010122 0.9966162 -0.0010122 0.0033838 0.0010122
1507000000 0.0034233 0.0023980 0.9965767 -0.0023980 0.9965767 -0.0023980 0.0034233 0.0023980
1528000000 0.0034670 0.0037658 0.9965330 -0.0037658 0.9965330 -0.0037658 0.0034670 0.0037658
1549000000 0.0035147 0.0051165 0.9964853 -0.0051165 0.9964853 -0.0051165 0.0035147 0.0051165
1570000000 0.0035663 0.0064508 0.9964337 -0.0064508 0.9964337 -0.0064508 0.0035663 0.0064508
1591000000 0.0036217 0.0077694 0.9963783 -0.0077694 0.9963783 -0.0077694 0.0036217 0.0077694
1612000000 0.0036808 0.0090729 0.9963192 -0.0090729 0.9963192 -0.0090729 0.0036808 0.0090729
1633000000 0.0037435 0.0103620 0.9962565 -0.0103620 0.9962565 -0.0103620 0.0037435 0.0103620
1654000000 0.0038097 0.0116373 0.9961903 -0.0116373 0.9961903 -0.0116373 0.0038097 0.0116373
1675000000 0.0038793 0.0128994 0.9961207 -0.0128994 0.9961207 -0.0128994 0.0038793 0.0128994
1696000000 0.0039522 0.0141487 0.9960478 -0.0141487 0.9960478 -0.0141487 0.0039522 0.0141487
1717000000 0.0040285 0.0153858 0.9959715 -0.0153858 0.9959715 -0.0153858 0.0040285 0.0153858
1738000000 0.0041079 0.0166113 0.9958921 -0.0166113 0.9958921 -0.0166113 0.0041079 0.0166113
1759000000 0.0041906 0.0178255 0.9958094 -0.0178255 0.9958094 -0.0178255 0.0041906 0.0178255
1780000000 0.0042764 0.0190290 0.9957236 -0.0190290 0.9957236 -0.0190290 0.0042764 0.0190290
1801000000 0.0043653 0.0202222 0.9956347 -0.0202222 0.9956347 -0.0202222 0.0043653 0.0202222
1822000000 0.0044572 0.0214055 0.9955428 -0.0214055 0.9955428 -0.0214055 0.0044572 0.0214055
1843000000 0.0045522 0.0225793 0.9954478 -0.0225793 0.9954478 -0.0225793 0.0045522 0.0225793
1864000000 0.0046502 0.0237439 0.9953498 -0.0237439 0.9953498 -0.0237439 0.0046502 0.0237439
1885000000 0.0047512 0.0248999 0.9952488 -0.0248999 0.9952488 -0.0248999 0.0047512 0.0248999
1906000000 0.0048551 0.0260474 0.9951449 -0.0260474 0.9951449 -0.0260474 0.0048551 0.0260474
1927000000 0.0049620 0.0271870 0.9950380 -0.0271870 0.9950380 -0.0271870 0.0049620 0.0271870
1948000000 0.0050719 0.0283188 0.9949281 -0.0283188 0.9949281 -0.0283188 0.0050719 0.0283188
1969000000 0.0051848 0.0294433 0.9948152 -0.0294433 0.9948152 -0.0294433 0.0051848 0.0294433
1990000000 0.0053007 0.0305607 0.9946993 -0.0305607 0.9946993 -0.0305607 0.0053007 0.0305607
2011000000 0.0054196 0.0316714 0.9945804 -0.0316714 0.9945804 -0.0316714 0.0054196 0.0316714
2032000000 0.0055415 0.0327757 0.9944585 -0.0327757 0.9944585 -0.0327757 0.0055415 0.0327757
2053000000 0.0056665 0.0338738 0.9943335 -0.0338738 0.9943335 -0.0338738 0.0056665 0.0338738
2074000000 0.0057946 0.0349659 0.9942054 -0.0349659 0.9942054 -0.0349659 0.0057946 0.0349659
2095000000 0.0059259 0.0360525 0.9940741 -0.0360525 0.9940741 -0.0360525 0.0059259 0.0360525
2116000000 0.0060603 0.0371337 0.9939397 -0.0371337 0.9939397 -0.0371337 0.0060603 0.0371337
2137000000 0.0061980 0.0382098 0.9938020 -0.0382098 0.9938020 -0.0382098 0.0061980 0.0382098
2158000000 0.0063390 0.0392811 0.9936610 -0.0392811 0.9936610 -0.0392811 0.0063390 0.0392811
2179000000 0.0064835 0.0403477 0.9935165 -0.0403477 0.9935165 -0.0403477 0.0064835 0.0403477
2200000000 0.0066314 0.0414100 0.9933686 -0.0414100 0.9933686 -0.0414100 0.0066314 0.0414100
2221000000 0.0067830 0.0424682 0.9932170 -0.0424682 0.9932170 -0.0424682 0.0067830 0.0424682
2242000000 0.0069382 0.0435224 0.9930618 -0.0435224 0.9930618 -0.0435224 0.0069382 0.0435224
2263000000 0.0070973 0.0445729 0.9929027 -0.0445729 0.9929027 -0.0445729 0.0070973 0.0445729
2284000000 0.0072604 0.0456199 0.9927396 -0.0456199 0.9927396 -0.0456199 0.0072604 0.0456199
2305000000 0.0074277 0.0466637 0.9925723 -0.0466637 0.9925723 -0.0466637 0.0074277 0.0466637
2326000000 0.0075993 0.0477044 0.9924007 -0.0477044 0.9924007 -0.0477044 0.0075993 0.0477044
2347000000 0.0077753 0.0487422 0.9922247 -0.0487422 0.9922247 -0.0487422 0.0077753 0.0487422
2368000000 0.0079562 0.0497773 0.9920438 -0.0497773 0.9920438 -0.0497773 0.0079562 0.0497773
2389000000 0.0081420 0.0508098 0.9918580 -0.0508098 0.9918580 -0.0508098 0.0081420 0.0508098
2410000000 0.0083330 0.0518400 0.9916670 -0.0518400 0.9916670 -0.0518400 0.0083330 0.0518400
2431000000 0.0085297 0.0528680 0.9914703 -0.0528680 0.9914703 -0.0528680 0.0085297 0.0528680
2452000000 0.0087322 0.0538939 0.9912678 -0.0538939 0.9912678 -0.0538939 0.0087322 0.0538939
2473000000 0.0089409 0.0549178 0.9910591 -0.0549178 0.9910591 -0.0549178 0.0089409 0.0549178
2494000000 0.0091564 0.0559398 0.9908436 -0.0559398 0.9908436 -0.0559398 0.0091564 0.0559398
2515000000 0.0093790 0.0569600 0.9906210 -0.0569600 0.9906210 -0.0569600 0.0093790 0.0569600
2536000000 0.0096092 0.0579785 0.9903908 -0.0579785 0.9903908 -0.0579785 0.0096092 0.0579785
2557000000 0.0098476 0.0589951 0.9901524 -0.0589951 0.9901524 -0.0589951 0.0098476 0.0589951
2578000000 0.0100949 0.0600099 0.9899051 -0.0600099 0.9899051 -0.0600099 0.0100949 0.0600099
2599000000 0.0103517 0.0610227 0.9896483 -0.0610227 0.9896483 -0.0610227 0.0103517 0.0610227
2620000000 0.0106188 0.0620333 0.9893812 -0.0620333 0.9893812 -0.0620333 0.0106188 0.0620333
2641000000 0.0108971 0.0630414 0.9891029 -0.0630414 0.9891029 -0.0630414 0.0108971 0.0630414
2662000000 0.0111874 0.0640464 0.9888126 -0.0640464 0.9888126 -0.0640464 0.0111874 0.0640464
2683000000 0.0114908 0.0650480 0.9885092 -0.0650480 0.9885092 -0.0650480 0.0114908 0.0650480
2704000000 0.0118084 0.0660452 0.9881916 -0.0660452 0.9881916 -0.0660452 0.0118084 0.0660452
2725000000 0.0121413 0.0670371 0.9878587 -0.0670371 0.9878587 -0.0670371 0.0121413 0.0670371
2746000000 0.0124907 0.0680223 0.9875093 -0.0680223 0.9875093 -0.0680223 0.0124907 0.0680223
2767000000 0.0128578 0.0689993 0.9871422 -0.0689993 0.9871422 -0.0689993 0.0128578 0.0689993
2788000000 0.0132438 0.0699660 0.9867562 -0.0699660 0.9867562 -0.0699660 0.0132438 0.0699660
2809000000 0.0136498 0.0709200 0.9863502 -0.0709200 0.9863502 -0.0709200 0.0136498 0.0709200
2830000000 0.0140768 0.0718581 0.9859232 -0.0718581 0.9859232 -0.0718581 0.0140768 0.0718581
2851000000 0.0145253 0.0727767 0.9854747 -0.0727767 0.9854747 -0.0727767 0.0145253 0.0727767
2872000000 0.0149953 0.0736715 0.9850047 -0.0736715 0.9850047 -0.0736715 0.0149953 0.0736715
2893000000 0.0154861 0.0745375 0.9845139 -0.0745375 0.9845139 -0.0745375 0.0154861 0.0745375
2914000000 0.0159959 0.0753690 0.9840041 -0.0753690 0.9840041 -0.0753690 0.0159959 0.0753690
2935000000 0.0165214 0.0761601 0.9834786 -0.0761601 0.9834786 -0.0761601 0.0165214 0.0761601
2956000000 0.0170578 0.0769046 0.9829422 -0.0769046 0.9829422 -0.0769046 0.0170578 0.0769046
2977000000 0.0175979 0.0775966 0.9824021 -0.0775966 0.9824021 -0.0775966 0.0175979 0.0775966
2998000000 0.0181322 0.0782314 0.9818678 -0.0782314 0.9818678 -0.0782314 0.0181322 0.0782314
3019000000 0.0186490 0.0788062 0.9813510 -0.0788062 0.9813510 -0.0788062 0.0186490 0.0788062
3040000000 0.0191350 0.0793212 0.9808650 -0.0793212 0.9808650 -0.0793212 0.0191350 0.0793212
3061000000 0.0195755 0.0797806 0.9804245 -0.0797806 0.9804245 -0.0797806 0.0195755 0.0797806
3082000000 0.0199568 0.0801930 0.9800432 -0.0801930 0.9800432 -0.0801930 0.0199568 0.0801930
3103000000 0.0202670 0.0805715 0.9797330 -0.0805715 0.9797330 -0.0805715 0.0202670 0.0805715
3124000000 0.0204983 0.0809327 0.9795017 -0.0809327 0.9795017 -0.0809327 0.0204983 0.0809327
3145000000 0.0206480 0.0812956 0.9793520 -0.0812956 0.9793520 -0.0812956 0.0206480 0.0812956
3166000000 0.0207193 0.0816791 0.9792807 -0.0816791 0.9792807 -0.0816791 0.0207193 0.0816791
3187000000 0.0207206 0.0820998 0.9792794 -0.0820998 0.9792794 -0.0820998 0.0207206 0.0820998
3208000000 0.0206643 0.0825710 0.9793357 -0.0825710 0.9793357 -0.0825710 0.0206643 0.0825710
3229000000 0.0205653 0.0831011 0.9794347 -0.0831011 0.9794347 -0.0831011 0.0205653 0.0831011
3250000000 0.0204387 0.0836939 0.9795613 -0.0836939 0.9795613 -0.0836939 0.0204387 0.0836939
3271000000 0.0202988 0.0843489 0.9797012 -0.0843489 0.9797012 -0.0843489 0.0202988 0.0843489
3292000000 0.0201580 0.0850627 0.9798420 -0.0850627 0.9798420 -0.0850627 0.0201580 0.0850627
3313000000 0.0200259 0.0858296 0.9799741 -0.0858296 0.9799741 -0.0858296 0.0200259 0.0858296
3334000000 0.0199098 0.0866429 0.9800902 -0.0866429 0.9800902 -0.0866429 0.0199098 0.0866429
3355000000 0.0198147 0.0874956 0.9801853 -0.0874956 0.9801853 -0.0874956 0.0198147 0.0874956
3376000000 0.0197435 0.0883810 0.9802565 -0.0883810 0.9802565 -0.0883810 0.0197435 0.0883810
3397000000 0.0196978 0.0892928 0.9803022 -0.0892928 0.9803022 -0.0892928 0.0196978 0.0892928
3418000000 0.0196779 0.0902257 0.9803221 -0.0902257 0.9803221 -0.0902257 0.0196779 0.0902257
3439000000 0.0196833 0.0911749 0.9803167 -0.0911749 0.9803167 -0.0911749 0.0196833 0.0911749
3460000000 0.0197133 0.0921365 0.9802867 -0.0921365 0.9802867 -0.0921365 0.0197133 0.0921365
3481000000 0.0197664 0.0931074 0.9802336 -0.0931074 0.9802336 -0.0931074 0.0197664 0.0931074
3502000000 0.0198413 0.0940850 0.9801587 -0.0940850 0.9801587 -0.0940850 0.0198413 0.0940850
3523000000 0.0199365 0.0950671 0.9800635 -0.0950671 0.9800635 -0.0950671 0.0199365 0.0950671
3544000000 0.0200507 0.0960522 0.9799493 -0.0960522 0.9799493 -0.0960522 0.0200507 0.0960522
3565000000 0.0201823 0.0970389 0.9798177 -0.0970389 0.9798177 -0.0970389 0.0201823 0.0970389
3586000000 0.0203301 0.0980262 0.9796699 -0.0980262 0.9796699 -0.0980262 0.0203301 0.0980262
3607000000 0.0204930 0.0990135 0.9795070 -0.0990135 0.9795070 -0.0990135 0.0204930 0.0990135
3628000000 0.0206698 0.1000002 0.9793302 -0.1000002 0.9793302 -0.1000002 0.0206698 0.1000002
3649000000 0.0208595 0.1009858 0.9791405 -0.1009858 0.9791405 -0.1009858 0.0208595 0.1009858
3670000000 0.0210613 0.1019700 0.9789387 -0.1019700 0.9789387 -0.1019700 0.0210613 0.1019700
3691000000 0.0212744 0.1029527 0.9787256 -0.1029527 0.9787256 -0.1029527 0.0212744 0.1029527
3712000000 0.0214980 0.1039336 0.9785020 -0.1039336 0.9785020 -0.1039336 0.0214980 0.1039336
3733000000 0.0217316 0.1049128 0.9782684 -0.1049128 0.9782684 -0.1049128 0.0217316 0.1049128
3754000000 0.0219747 0.1058902 0.9780253 -0.1058902 0.9780253 -0.1058902 0.0219747 0.1058902
3775000000 0.0222267 0.1068658 0.9777733 -0.1068658 0.9777733 -0.1068658 0.0222267 0.1068658
3796000000 0.0224872 0.1078396 0.9775128 -0.1078396 0.9775128 -0.1078396 0.0224872 0.1078396
3817000000 0.0227558 0.1088117 0.9772442 -0.1088117 0.9772442 -0.1088117 0.0227558 0.1088117
3838000000 0.0230323 0.1097821 0.9769677 -0.1097821 0.9769677 -0.1097821 0.0230323 0.1097821
3859000000 0.0233163 0.1107508 0.9766837 -0.1107508 0.9766837 -0.1107508 0.0233163 0.1107508
3880000000 0.0236077 0.1117181 0.9763923 -0.1117181 0.9763923 -0.1117181 0.0236077 0.1117181
3901000000 0.0239062 0.1126838 0.9760938 -0.1126838 0.9760938 -0.1126838 0.0239062 0.1126838
3922000000 0.0242115 0.1136481 0.9757885 -0.1136481 0.9757885 -0.1136481 0.0242115 0.1136481
3943000000 0.0245237 0.1146112 0.9754763 -0.1146112 0.9754763 -0.1146112 0.0245237 0.1146112
3964000000 0.0248425 0.1155729 0.9751575 -0.1155729 0.9751575 -0.1155729 0.0248425 0.1155729
3985000000 0.0251679 0.1165334 0.9748321 -0.1165334 0.9748321 -0.1165334 0.0251679 0.1165334
4006000000 0.0254997 0.1174929 0.9745003 -0.1174929 0.9745003 -0.1174929 0.0254997 0.1174929
4027000000 0.0258379 0.1184512 0.9741621 -0.1184512 0.9741621 -0.1184512 0.0258379 0.1184512
4048000000 0.0261825 0.1194085 0.9738175 -0.1194085 0.9738175 -0.1194085 0.0261825 0.1194085
4069000000 0.0265333 0.1203649 0.9734667 -0.1203649 0.9734667 -0.1203649 0.0265333 0.1203649
4090000000 0.0268904 0.1213204 0.9731096 -0.1213204 0.9731096 -0.1213204 0.0268904 0.1213204
4111000000 0.0272538 0.1222749 0.9727462 -0.1222749 0.9727462 -0.1222749 0.0272538 0.1222749
4132000000 0.0276234 0.1232287 0.9723766 -0.1232287 0.9723766 -0.1232287 0.0276234 0.1232287
4153000000 0.0279993 0.1241816 0.9720007 -0.1241816 0.9720007 -0.1241816 0.0279993 0.1241816
4174000000 0.0283815 0.1251337 0.9716185 -0.1251337 0.9716185 -0.1251337 0.0283815 0.1251337
4195000000 0.0287699 0.1260851 0.9712301 -0.1260851 0.9712301 -0.1260851 0.0287699 0.1260851
4216000000 0.0291647 0.1270357 0.9708353 -0.1270357 0.9708353 -0.1270357 0.0291647 0.1270357
4237000000 0.0295659 0.1279856 0.9704341 -0.1279856 0.9704341 -0.1279856 0.0295659 0.1279856
4258000000 0.0299734 0.1289347 0.9700266 -0.1289347 0.9700266 -0.1289347 0.0299734 0.1289347
4279000000 0.0303874 0.1298831 0.9696126 -0.1298831 0.9696126 -0.1298831 0.0303874 0.1298831
4300000000 0.0308080 0.1308307 0.9691920 -0.1308307 0.9691920 -0.1308307 0.0308080 0.1308307
4321000000 0.0312350 0.1317775 0.9687650 -0.1317775 0.9687650 -0.1317775 0.0312350 0.1317775
4342000000 0.0316687 0.1327235 0.9683313 -0.1327235 0.9683313 -0.1327235 0.0316687 0.1327235
4363000000 0.0321092 0.1336686 0.9678908 -0.1336686 0.9678908 -0.1336686 0.0321092 0.1336686
4384000000 0.0325563 0.1346129 0.9674437 -0.1346129 0.9674437 -0.1346129 0.0325563 0.1346129
4405000000 0.0330103 0.1355562 0.9669897 -0.1355562 0.9669897 -0.1355562 0.0330103 0.1355562
4426000000 0.0334712 0.1364986 0.9665288 -0.1364986 0.9665288 -0.1364986 0.0334712 0.1364986
4447000000 0.0339392 0.1374399 0.9660608 -0.1374399 0.9660608 -0.1374399 0.0339392 0.1374399
4468000000 0.0344141 0.1383801 0.9655859 -0.1383801 0.9655859 -0.1383801 0.0344141 0.1383801
4489000000 0.0348963 0.1393191 0.9651037 -0.1393191 0.9651037 -0.1393191 0.0348963 0.1393191
4510000000 0.0353856 0.1402569 0.9646144 -0.1402569 0.9646144 -0.1402569 0.0353856 0.1402569
