!Murata Part Number: GRM32B7U3A122JW31
!These Parameters are Measured in Series Mode Connection
!Data Generated on Mar 30, 2021
!       o--ll--o
!Port1            Port2
!       o------o
!Operation Temp=25[degC], DC Bias Voltage=0[V]
!Freq. Start=1000[kHz] Stop=3[GHz] 401[Steps]
# Hz S RI R 50
!Freq.(Hz) S11(Real) S11(Imag) S21(Real) S21(Imag) S12(Real) S12(Imag) S22(Real) S22(Imag)
1000000 0.6288574 -0.4830931 0.3711426 0.4830931 0.3711426 0.4830931 0.6288574 -0.4830931
1020218 0.6194666 -0.4855002 0.3805334 0.4855002 0.3805334 0.4855002 0.6194666 -0.4855002
1040844 0.6099856 -0.4877350 0.3900144 0.4877350 0.3900144 0.4877350 0.6099856 -0.4877350
1061887 0.6004206 -0.4897934 0.3995794 0.4897934 0.3995794 0.4897934 0.6004206 -0.4897934
1083356 0.5907785 -0.4916713 0.4092215 0.4916713 0.4092215 0.4916713 0.5907785 -0.4916713
1105259 0.5810660 -0.4933652 0.4189340 0.4933652 0.4189340 0.4933652 0.5810660 -0.4933652
1127605 0.5712903 -0.4948719 0.4287097 0.4948719 0.4287097 0.4948719 0.5712903 -0.4948719
1150402 0.5614586 -0.4961884 0.4385414 0.4961884 0.4385414 0.4961884 0.5614586 -0.4961884
1173660 0.5515784 -0.4973121 0.4484216 0.4973121 0.4484216 0.4973121 0.5515784 -0.4973121
1197389 0.5416572 -0.4982407 0.4583428 0.4982407 0.4583428 0.4982407 0.5416572 -0.4982407
1221597 0.5317029 -0.4989726 0.4682971 0.4989726 0.4682971 0.4989726 0.5317029 -0.4989726
1246295 0.5217233 -0.4995061 0.4782767 0.4995061 0.4782767 0.4995061 0.5217233 -0.4995061
1271492 0.5117263 -0.4998403 0.4882737 0.4998403 0.4882737 0.4998403 0.5117263 -0.4998403
1297199 0.5017199 -0.4999744 0.4982801 0.4999744 0.4982801 0.4999744 0.5017199 -0.4999744
1323425 0.4917121 -0.4999082 0.5082879 0.4999082 0.5082879 0.4999082 0.4917121 -0.4999082
1350181 0.4817109 -0.4996418 0.5182891 0.4996418 0.5182891 0.4996418 0.4817109 -0.4996418
1377479 0.4717243 -0.4991758 0.5282757 0.4991758 0.5282757 0.4991758 0.4717243 -0.4991758
1405328 0.4617603 -0.4985110 0.5382397 0.4985110 0.5382397 0.4985110 0.4617603 -0.4985110
1433740 0.4518267 -0.4976489 0.5481733 0.4976489 0.5481733 0.4976489 0.4518267 -0.4976489
1462727 0.4419313 -0.4965910 0.5580687 0.4965910 0.5580687 0.4965910 0.4419313 -0.4965910
1492300 0.4320818 -0.4953395 0.5679182 0.4953395 0.5679182 0.4953395 0.4320818 -0.4953395
1522470 0.4222856 -0.4938969 0.5777144 0.4938969 0.5777144 0.4938969 0.4222856 -0.4938969
1553251 0.4125502 -0.4922660 0.5874498 0.4922660 0.5874498 0.4922660 0.4125502 -0.4922660
1584654 0.4028826 -0.4904498 0.5971174 0.4904498 0.5971174 0.4904498 0.4028826 -0.4904498
1616692 0.3932900 -0.4884520 0.6067100 0.4884520 0.6067100 0.4884520 0.3932900 -0.4884520
1649378 0.3837788 -0.4862762 0.6162212 0.4862762 0.6162212 0.4862762 0.3837788 -0.4862762
1682724 0.3743558 -0.4839267 0.6256442 0.4839267 0.6256442 0.4839267 0.3743558 -0.4839267
1716745 0.3650270 -0.4814077 0.6349730 0.4814077 0.6349730 0.4814077 0.3650270 -0.4814077
1751453 0.3557984 -0.4787239 0.6442016 0.4787239 0.6442016 0.4787239 0.3557984 -0.4787239
1786863 0.3466757 -0.4758801 0.6533243 0.4758801 0.6533243 0.4758801 0.3466757 -0.4758801
1822989 0.3376643 -0.4728815 0.6623357 0.4728815 0.6623357 0.4728815 0.3376643 -0.4728815
1859846 0.3287692 -0.4697333 0.6712308 0.4697333 0.6712308 0.4697333 0.3287692 -0.4697333
1897447 0.3199952 -0.4664410 0.6800048 0.4664410 0.6800048 0.4664410 0.3199952 -0.4664410
1935809 0.3113467 -0.4630103 0.6886533 0.4630103 0.6886533 0.4630103 0.3113467 -0.4630103
1974946 0.3028278 -0.4594467 0.6971722 0.4594467 0.6971722 0.4594467 0.3028278 -0.4594467
2014875 0.2944422 -0.4557563 0.7055578 0.4557563 0.7055578 0.4557563 0.2944422 -0.4557563
2055611 0.2861935 -0.4519449 0.7138065 0.4519449 0.7138065 0.4519449 0.2861935 -0.4519449
2097170 0.2780848 -0.4480186 0.7219152 0.4480186 0.7219152 0.4480186 0.2780848 -0.4480186
2139570 0.2701188 -0.4439834 0.7298812 0.4439834 0.7298812 0.4439834 0.2701188 -0.4439834
2182827 0.2622981 -0.4398455 0.7377019 0.4398455 0.7377019 0.4398455 0.2622981 -0.4398455
2226959 0.2546247 -0.4356109 0.7453753 0.4356109 0.7453753 0.4356109 0.2546247 -0.4356109
2271982 0.2471006 -0.4312858 0.7528994 0.4312858 0.7528994 0.4312858 0.2471006 -0.4312858
2317916 0.2397272 -0.4268762 0.7602728 0.4268762 0.7602728 0.4268762 0.2397272 -0.4268762
2364779 0.2325059 -0.4223882 0.7674941 0.4223882 0.7674941 0.4223882 0.2325059 -0.4223882
2412589 0.2254376 -0.4178277 0.7745624 0.4178277 0.7745624 0.4178277 0.2254376 -0.4178277
2461366 0.2185228 -0.4132007 0.7814772 0.4132007 0.7814772 0.4132007 0.2185228 -0.4132007
2511129 0.2117622 -0.4085130 0.7882378 0.4085130 0.7882378 0.4085130 0.2117622 -0.4085130
2561897 0.2051557 -0.4037702 0.7948443 0.4037702 0.7948443 0.4037702 0.2051557 -0.4037702
2613693 0.1987033 -0.3989781 0.8012967 0.3989781 0.8012967 0.3989781 0.1987033 -0.3989781
2666535 0.1924047 -0.3941422 0.8075953 0.3941422 0.8075953 0.3941422 0.1924047 -0.3941422
2720446 0.1862593 -0.3892678 0.8137407 0.3892678 0.8137407 0.3892678 0.1862593 -0.3892678
2775447 0.1802663 -0.3843601 0.8197337 0.3843601 0.8197337 0.3843601 0.1802663 -0.3843601
2831560 0.1744247 -0.3794242 0.8255753 0.3794242 0.8255753 0.3794242 0.1744247 -0.3794242
2888807 0.1687334 -0.3744652 0.8312666 0.3744652 0.8312666 0.3744652 0.1687334 -0.3744652
2947212 0.1631910 -0.3694877 0.8368090 0.3694877 0.8368090 0.3694877 0.1631910 -0.3694877
3006797 0.1577960 -0.3644964 0.8422040 0.3644964 0.8422040 0.3644964 0.1577960 -0.3644964
3067588 0.1525468 -0.3594958 0.8474532 0.3594958 0.8474532 0.3594958 0.1525468 -0.3594958
3129607 0.1474416 -0.3544902 0.8525584 0.3544902 0.8525584 0.3544902 0.1474416 -0.3544902
3192880 0.1424785 -0.3494836 0.8575215 0.3494836 0.8575215 0.3494836 0.1424785 -0.3494836
3257432 0.1376554 -0.3444801 0.8623446 0.3444801 0.8623446 0.3444801 0.1376554 -0.3444801
3323290 0.1329702 -0.3394835 0.8670298 0.3394835 0.8670298 0.3394835 0.1329702 -0.3394835
3390478 0.1284206 -0.3344973 0.8715794 0.3344973 0.8715794 0.3344973 0.1284206 -0.3344973
3459026 0.1240043 -0.3295250 0.8759957 0.3295250 0.8759957 0.3295250 0.1240043 -0.3295250
3528959 0.1197190 -0.3245699 0.8802810 0.3245699 0.8802810 0.3245699 0.1197190 -0.3245699
3600306 0.1155622 -0.3196351 0.8844378 0.3196351 0.8844378 0.3196351 0.1155622 -0.3196351
3673095 0.1115314 -0.3147235 0.8884686 0.3147235 0.8884686 0.3147235 0.1115314 -0.3147235
3747356 0.1076240 -0.3098380 0.8923760 0.3098380 0.8923760 0.3098380 0.1076240 -0.3098380
3823119 0.1038374 -0.3049812 0.8961626 0.3049812 0.8961626 0.3049812 0.1038374 -0.3049812
3900413 0.1001690 -0.3001554 0.8998310 0.3001554 0.8998310 0.3001554 0.1001690 -0.3001554
3979270 0.0966161 -0.2953631 0.9033839 0.2953631 0.9033839 0.2953631 0.0966161 -0.2953631
4059721 0.0931762 -0.2906064 0.9068238 0.2906064 0.9068238 0.2906064 0.0931762 -0.2906064
4141799 0.0898465 -0.2858874 0.9101535 0.2858874 0.9101535 0.2858874 0.0898465 -0.2858874
4225536 0.0866243 -0.2812078 0.9133757 0.2812078 0.9133757 0.2812078 0.0866243 -0.2812078
4310966 0.0835070 -0.2765695 0.9164930 0.2765695 0.9164930 0.2765695 0.0835070 -0.2765695
4398124 0.0804920 -0.2719741 0.9195080 0.2719741 0.9195080 0.2719741 0.0804920 -0.2719741
4487043 0.0775765 -0.2674230 0.9224235 0.2674230 0.9224235 0.2674230 0.0775765 -0.2674230
4577760 0.0747579 -0.2629176 0.9252421 0.2629176 0.9252421 0.2629176 0.0747579 -0.2629176
4670311 0.0720337 -0.2584592 0.9279663 0.2584592 0.9279663 0.2584592 0.0720337 -0.2584592
4764734 0.0694013 -0.2540489 0.9305987 0.2540489 0.9305987 0.2540489 0.0694013 -0.2540489
4861065 0.0668580 -0.2496877 0.9331420 0.2496877 0.9331420 0.2496877 0.0668580 -0.2496877
4959344 0.0644014 -0.2453765 0.9355986 0.2453765 0.9355986 0.2453765 0.0644014 -0.2453765
5059610 0.0620291 -0.2411162 0.9379709 0.2411162 0.9379709 0.2411162 0.0620291 -0.2411162
5161903 0.0597384 -0.2369074 0.9402616 0.2369074 0.9402616 0.2369074 0.0597384 -0.2369074
5266264 0.0575271 -0.2327507 0.9424729 0.2327507 0.9424729 0.2327507 0.0575271 -0.2327507
5372736 0.0553927 -0.2286469 0.9446073 0.2286469 0.9446073 0.2286469 0.0553927 -0.2286469
5481359 0.0533330 -0.2245961 0.9466670 0.2245961 0.9466670 0.2245961 0.0533330 -0.2245961
5592179 0.0513457 -0.2205990 0.9486543 0.2205990 0.9486543 0.2205990 0.0513457 -0.2205990
5705239 0.0494284 -0.2166557 0.9505716 0.2166557 0.9505716 0.2166557 0.0494284 -0.2166557
5820586 0.0475791 -0.2127665 0.9524209 0.2127665 0.9524209 0.2127665 0.0475791 -0.2127665
5938264 0.0457956 -0.2089316 0.9542044 0.2089316 0.9542044 0.2089316 0.0457956 -0.2089316
6058321 0.0440757 -0.2051510 0.9559243 0.2051510 0.9559243 0.2051510 0.0440757 -0.2051510
6180806 0.0424176 -0.2014249 0.9575824 0.2014249 0.9575824 0.2014249 0.0424176 -0.2014249
6305767 0.0408190 -0.1977531 0.9591810 0.1977531 0.9591810 0.1977531 0.0408190 -0.1977531
6433254 0.0392782 -0.1941357 0.9607218 0.1941357 0.9607218 0.1941357 0.0392782 -0.1941357
6563319 0.0377932 -0.1905726 0.9622068 0.1905726 0.9622068 0.1905726 0.0377932 -0.1905726
6696013 0.0363621 -0.1870635 0.9636379 0.1870635 0.9636379 0.1870635 0.0363621 -0.1870635
6831390 0.0349832 -0.1836083 0.9650168 0.1836083 0.9650168 0.1836083 0.0349832 -0.1836083
6969505 0.0336546 -0.1802067 0.9663454 0.1802067 0.9663454 0.1802067 0.0336546 -0.1802067
7110411 0.0323748 -0.1768585 0.9676252 0.1768585 0.9676252 0.1768585 0.0323748 -0.1768585
7254166 0.0311420 -0.1735633 0.9688580 0.1735633 0.9688580 0.1735633 0.0311420 -0.1735633
7400828 0.0299546 -0.1703208 0.9700454 0.1703208 0.9700454 0.1703208 0.0299546 -0.1703208
7550455 0.0288111 -0.1671306 0.9711889 0.1671306 0.9711889 0.1671306 0.0288111 -0.1671306
7703107 0.0277100 -0.1639924 0.9722900 0.1639924 0.9722900 0.1639924 0.0277100 -0.1639924
7858845 0.0266497 -0.1609056 0.9733503 0.1609056 0.9733503 0.1609056 0.0266497 -0.1609056
8017732 0.0256288 -0.1578699 0.9743712 0.1578699 0.9743712 0.1578699 0.0256288 -0.1578699
8179831 0.0246461 -0.1548847 0.9753539 0.1548847 0.9753539 0.1548847 0.0246461 -0.1548847
8345207 0.0237000 -0.1519496 0.9763000 0.1519496 0.9763000 0.1519496 0.0237000 -0.1519496
8513927 0.0227893 -0.1490640 0.9772107 0.1490640 0.9772107 0.1490640 0.0227893 -0.1490640
8686058 0.0219128 -0.1462275 0.9780872 0.1462275 0.9780872 0.1462275 0.0219128 -0.1462275
8861669 0.0210692 -0.1434395 0.9789308 0.1434395 0.9789308 0.1434395 0.0210692 -0.1434395
9040831 0.0202574 -0.1406994 0.9797426 0.1406994 0.9797426 0.1406994 0.0202574 -0.1406994
9223615 0.0194761 -0.1380067 0.9805239 0.1380067 0.9805239 0.1380067 0.0194761 -0.1380067
9410094 0.0187244 -0.1353608 0.9812756 0.1353608 0.9812756 0.1353608 0.0187244 -0.1353608
9600343 0.0180011 -0.1327611 0.9819989 0.1327611 0.9819989 0.1327611 0.0180011 -0.1327611
9794439 0.0173052 -0.1302070 0.9826948 0.1302070 0.9826948 0.1302070 0.0173052 -0.1302070
9992459 0.0166357 -0.1276980 0.9833643 0.1276980 0.9833643 0.1276980 0.0166357 -0.1276980
10194482 0.0159917 -0.1252334 0.9840083 0.1252334 0.9840083 0.1252334 0.0159917 -0.1252334
10400590 0.0153721 -0.1228126 0.9846279 0.1228126 0.9846279 0.1228126 0.0153721 -0.1228126
10610865 0.0147762 -0.1204350 0.9852238 0.1204350 0.9852238 0.1204350 0.0147762 -0.1204350
10825391 0.0142030 -0.1181000 0.9857970 0.1181000 0.9857970 0.1181000 0.0142030 -0.1181000
11044254 0.0136516 -0.1158070 0.9863484 0.1158070 0.9863484 0.1158070 0.0136516 -0.1158070
11267542 0.0131214 -0.1135554 0.9868786 0.1135554 0.9868786 0.1135554 0.0131214 -0.1135554
11495344 0.0126114 -0.1113445 0.9873886 0.1113445 0.9873886 0.1113445 0.0126114 -0.1113445
11727752 0.0121210 -0.1091737 0.9878790 0.1091737 0.9878790 0.1091737 0.0121210 -0.1091737
11964859 0.0116494 -0.1070425 0.9883506 0.1070425 0.9883506 0.1070425 0.0116494 -0.1070425
12206760 0.0111960 -0.1049502 0.9888040 0.1049502 0.9888040 0.1049502 0.0111960 -0.1049502
12453551 0.0107599 -0.1028962 0.9892401 0.1028962 0.9892401 0.1028962 0.0107599 -0.1028962
12705331 0.0103407 -0.1008798 0.9896593 0.1008798 0.9896593 0.1008798 0.0103407 -0.1008798
12962202 0.0099376 -0.0989006 0.9900624 0.0989006 0.9900624 0.0989006 0.0099376 -0.0989006
13224267 0.0095500 -0.0969578 0.9904500 0.0969578 0.9904500 0.0969578 0.0095500 -0.0969578
13491630 0.0091774 -0.0950510 0.9908226 0.0950510 0.9908226 0.0950510 0.0091774 -0.0950510
13764398 0.0088192 -0.0931794 0.9911808 0.0931794 0.9911808 0.0931794 0.0088192 -0.0931794
14042680 0.0084749 -0.0913425 0.9915251 0.0913425 0.9915251 0.0913425 0.0084749 -0.0913425
14326589 0.0081439 -0.0895397 0.9918561 0.0895397 0.9918561 0.0895397 0.0081439 -0.0895397
14616238 0.0078257 -0.0877705 0.9921743 0.0877705 0.9921743 0.0877705 0.0078257 -0.0877705
14911743 0.0075198 -0.0860342 0.9924802 0.0860342 0.9924802 0.0860342 0.0075198 -0.0860342
15213223 0.0072259 -0.0843304 0.9927741 0.0843304 0.9927741 0.0843304 0.0072259 -0.0843304
15520797 0.0069433 -0.0826583 0.9930567 0.0826583 0.9930567 0.0826583 0.0069433 -0.0826583
15834590 0.0066717 -0.0810176 0.9933283 0.0810176 0.9933283 0.0810176 0.0066717 -0.0810176
16154727 0.0064107 -0.0794075 0.9935893 0.0794075 0.9935893 0.0794075 0.0064107 -0.0794075
16481337 0.0061599 -0.0778277 0.9938401 0.0778277 0.9938401 0.0778277 0.0061599 -0.0778277
16814550 0.0059188 -0.0762775 0.9940812 0.0762775 0.9940812 0.0762775 0.0059188 -0.0762775
17154499 0.0056871 -0.0747564 0.9943129 0.0747564 0.9943129 0.0747564 0.0056871 -0.0747564
17501322 0.0054645 -0.0732640 0.9945355 0.0732640 0.9945355 0.0732640 0.0054645 -0.0732640
17855156 0.0052506 -0.0717996 0.9947494 0.0717996 0.9947494 0.0717996 0.0052506 -0.0717996
18216144 0.0050451 -0.0703627 0.9949549 0.0703627 0.9949549 0.0703627 0.0050451 -0.0703627
18584431 0.0048476 -0.0689529 0.9951524 0.0689529 0.9951524 0.0689529 0.0048476 -0.0689529
18960163 0.0046578 -0.0675697 0.9953422 0.0675697 0.9953422 0.0675697 0.0046578 -0.0675697
19343491 0.0044755 -0.0662126 0.9955245 0.0662126 0.9955245 0.0662126 0.0044755 -0.0662126
19734570 0.0043003 -0.0648810 0.9956997 0.0648810 0.9956997 0.0648810 0.0043003 -0.0648810
20133555 0.0041321 -0.0635745 0.9958679 0.0635745 0.9958679 0.0635745 0.0041321 -0.0635745
20540607 0.0039704 -0.0622927 0.9960296 0.0622927 0.9960296 0.0622927 0.0039704 -0.0622927
20955888 0.0038151 -0.0610351 0.9961849 0.0610351 0.9961849 0.0610351 0.0038151 -0.0610351
21379566 0.0036660 -0.0598012 0.9963340 0.0598012 0.9963340 0.0598012 0.0036660 -0.0598012
21811809 0.0035227 -0.0585905 0.9964773 0.0585905 0.9964773 0.0585905 0.0035227 -0.0585905
22252791 0.0033851 -0.0574027 0.9966149 0.0574027 0.9966149 0.0574027 0.0033851 -0.0574027
22702688 0.0032529 -0.0562373 0.9967471 0.0562373 0.9967471 0.0562373 0.0032529 -0.0562373
23161682 0.0031260 -0.0550939 0.9968740 0.0550939 0.9968740 0.0550939 0.0031260 -0.0550939
23629955 0.0030041 -0.0539720 0.9969959 0.0539720 0.9969959 0.0539720 0.0030041 -0.0539720
24107696 0.0028870 -0.0528712 0.9971130 0.0528712 0.9971130 0.0528712 0.0028870 -0.0528712
24595095 0.0027746 -0.0517911 0.9972254 0.0517911 0.9972254 0.0517911 0.0027746 -0.0517911
25092348 0.0026667 -0.0507314 0.9973333 0.0507314 0.9973333 0.0507314 0.0026667 -0.0507314
25599655 0.0025630 -0.0496915 0.9974370 0.0496915 0.9974370 0.0496915 0.0025630 -0.0496915
26117218 0.0024635 -0.0486713 0.9975365 0.0486713 0.9975365 0.0486713 0.0024635 -0.0486713
26645245 0.0023680 -0.0476701 0.9976320 0.0476701 0.9976320 0.0476701 0.0023680 -0.0476701
27183947 0.0022763 -0.0466877 0.9977237 0.0466877 0.9977237 0.0466877 0.0022763 -0.0466877
27733541 0.0021883 -0.0457237 0.9978117 0.0457237 0.9978117 0.0457237 0.0021883 -0.0457237
28294246 0.0021039 -0.0447778 0.9978961 0.0447778 0.9978961 0.0447778 0.0021039 -0.0447778
28866287 0.0020228 -0.0438495 0.9979772 0.0438495 0.9979772 0.0438495 0.0020228 -0.0438495
29449894 0.0019450 -0.0429386 0.9980550 0.0429386 0.9980550 0.0429386 0.0019450 -0.0429386
30045299 0.0018703 -0.0420446 0.9981297 0.0420446 0.9981297 0.0420446 0.0018703 -0.0420446
30652742 0.0017987 -0.0411673 0.9982013 0.0411673 0.9982013 0.0411673 0.0017987 -0.0411673
31272467 0.0017299 -0.0403062 0.9982701 0.0403062 0.9982701 0.0403062 0.0017299 -0.0403062
31904720 0.0016640 -0.0394612 0.9983360 0.0394612 0.9983360 0.0394612 0.0016640 -0.0394612
32549757 0.0016008 -0.0386317 0.9983992 0.0386317 0.9983992 0.0386317 0.0016008 -0.0386317
33207834 0.0015401 -0.0378177 0.9984599 0.0378177 0.9984599 0.0378177 0.0015401 -0.0378177
33879216 0.0014819 -0.0370186 0.9985181 0.0370186 0.9985181 0.0370186 0.0014819 -0.0370186
34564172 0.0014261 -0.0362342 0.9985739 0.0362342 0.9985739 0.0362342 0.0014261 -0.0362342
35262976 0.0013726 -0.0354642 0.9986274 0.0354642 0.9986274 0.0354642 0.0013726 -0.0354642
35975908 0.0013213 -0.0347084 0.9986787 0.0347084 0.9986787 0.0347084 0.0013213 -0.0347084
36703254 0.0012722 -0.0339663 0.9987278 0.0339663 0.9987278 0.0339663 0.0012722 -0.0339663
37445305 0.0012250 -0.0332378 0.9987750 0.0332378 0.9987750 0.0332378 0.0012250 -0.0332378
38202358 0.0011799 -0.0325225 0.9988201 0.0325225 0.9988201 0.0325225 0.0011799 -0.0325225
38974717 0.0011366 -0.0318202 0.9988634 0.0318202 0.9988634 0.0318202 0.0011366 -0.0318202
39762692 0.0010951 -0.0311305 0.9989049 0.0311305 0.9989049 0.0311305 0.0010951 -0.0311305
40566597 0.0010554 -0.0304533 0.9989446 0.0304533 0.9989446 0.0304533 0.0010554 -0.0304533
41386756 0.0010174 -0.0297883 0.9989826 0.0297883 0.9989826 0.0297883 0.0010174 -0.0297883
42223496 0.0009809 -0.0291351 0.9990191 0.0291351 0.9990191 0.0291351 0.0009809 -0.0291351
43077153 0.0009460 -0.0284936 0.9990540 0.0284936 0.9990540 0.0284936 0.0009460 -0.0284936
43948069 0.0009127 -0.0278635 0.9990873 0.0278635 0.9990873 0.0278635 0.0009127 -0.0278635
44836592 0.0008807 -0.0272445 0.9991193 0.0272445 0.9991193 0.0272445 0.0008807 -0.0272445
45743080 0.0008501 -0.0266364 0.9991499 0.0266364 0.9991499 0.0266364 0.0008501 -0.0266364
46667894 0.0008209 -0.0260390 0.9991791 0.0260390 0.9991791 0.0260390 0.0008209 -0.0260390
47611406 0.0007929 -0.0254519 0.9992071 0.0254519 0.9992071 0.0254519 0.0007929 -0.0254519
48573993 0.0007661 -0.0248751 0.9992339 0.0248751 0.9992339 0.0248751 0.0007661 -0.0248751
49556042 0.0007405 -0.0243083 0.9992595 0.0243083 0.9992595 0.0243083 0.0007405 -0.0243083
50557945 0.0007161 -0.0237511 0.9992839 0.0237511 0.9992839 0.0237511 0.0007161 -0.0237511
51580105 0.0006927 -0.0232035 0.9993073 0.0232035 0.9993073 0.0232035 0.0006927 -0.0232035
52622929 0.0006704 -0.0226652 0.9993296 0.0226652 0.9993296 0.0226652 0.0006704 -0.0226652
53686838 0.0006491 -0.0221360 0.9993509 0.0221360 0.9993509 0.0221360 0.0006491 -0.0221360
54772256 0.0006288 -0.0216157 0.9993712 0.0216157 0.9993712 0.0216157 0.0006288 -0.0216157
55879618 0.0006094 -0.0211040 0.9993906 0.0211040 0.9993906 0.0211040 0.0006094 -0.0211040
57009369 0.0005909 -0.0206008 0.9994091 0.0206008 0.9994091 0.0206008 0.0005909 -0.0206008
58161960 0.0005733 -0.0201058 0.9994267 0.0201058 0.9994267 0.0201058 0.0005733 -0.0201058
59337855 0.0005565 -0.0196190 0.9994435 0.0196190 0.9994435 0.0196190 0.0005565 -0.0196190
60537522 0.0005405 -0.0191399 0.9994595 0.0191399 0.9994595 0.0191399 0.0005405 -0.0191399
61761445 0.0005253 -0.0186686 0.9994747 0.0186686 0.9994747 0.0186686 0.0005253 -0.0186686
63010112 0.0005108 -0.0182048 0.9994892 0.0182048 0.9994892 0.0182048 0.0005108 -0.0182048
64284024 0.0004971 -0.0177482 0.9995029 0.0177482 0.9995029 0.0177482 0.0004971 -0.0177482
65583691 0.0004840 -0.0172988 0.9995160 0.0172988 0.9995160 0.0172988 0.0004840 -0.0172988
66909635 0.0004717 -0.0168563 0.9995283 0.0168563 0.9995283 0.0168563 0.0004717 -0.0168563
68262386 0.0004599 -0.0164205 0.9995401 0.0164205 0.9995401 0.0164205 0.0004599 -0.0164205
69642486 0.0004488 -0.0159914 0.9995512 0.0159914 0.9995512 0.0159914 0.0004488 -0.0159914
71050488 0.0004383 -0.0155686 0.9995617 0.0155686 0.9995617 0.0155686 0.0004383 -0.0155686
72486957 0.0004284 -0.0151521 0.9995716 0.0151521 0.9995716 0.0151521 0.0004284 -0.0151521
73952468 0.0004191 -0.0147416 0.9995809 0.0147416 0.9995809 0.0147416 0.0004191 -0.0147416
