!Murata Part Number: GRM32D7U2J822JW31
!These Parameters are Measured in Series Mode Connection
!Data Generated on Mar 30, 2021
!       o--ll--o
!Port1            Port2
!       o------o
!Operation Temp=25[degC], DC Bias Voltage=0[V]
!Freq. Start=1000[kHz] Stop=3[GHz] 401[Steps]
# Hz S RI R 50
!Freq.(Hz) S11(Real) S11(Imag) S21(Real) S21(Imag) S12(Real) S12(Imag) S22(Real) S22(Imag)
1000000 0.0358811 -0.1858830 0.9641189 0.1858830 0.9641189 0.1858830 0.0358811 -0.1858830
1020218 0.0345226 -0.1824542 0.9654774 0.1824542 0.9654774 0.1824542 0.0345226 -0.1824542
1040844 0.0332137 -0.1790790 0.9667863 0.1790790 0.9667863 0.1790790 0.0332137 -0.1790790
1061887 0.0319529 -0.1757571 0.9680471 0.1757571 0.9680471 0.1757571 0.0319529 -0.1757571
1083356 0.0307385 -0.1724882 0.9692615 0.1724882 0.9692615 0.1724882 0.0307385 -0.1724882
1105259 0.0295688 -0.1692720 0.9704312 0.1692720 0.9704312 0.1692720 0.0295688 -0.1692720
1127605 0.0284424 -0.1661080 0.9715576 0.1661080 0.9715576 0.1661080 0.0284424 -0.1661080
1150402 0.0273577 -0.1629958 0.9726423 0.1629958 0.9726423 0.1629958 0.0273577 -0.1629958
1173660 0.0263133 -0.1599351 0.9736867 0.1599351 0.9736867 0.1599351 0.0263133 -0.1599351
1197389 0.0253077 -0.1569253 0.9746923 0.1569253 0.9746923 0.1569253 0.0253077 -0.1569253
1221597 0.0243397 -0.1539659 0.9756603 0.1539659 0.9756603 0.1539659 0.0243397 -0.1539659
1246295 0.0234078 -0.1510566 0.9765922 0.1510566 0.9765922 0.1510566 0.0234078 -0.1510566
1271492 0.0225109 -0.1481967 0.9774891 0.1481967 0.9774891 0.1481967 0.0225109 -0.1481967
1297199 0.0216475 -0.1453857 0.9783525 0.1453857 0.9783525 0.1453857 0.0216475 -0.1453857
1323425 0.0208166 -0.1426231 0.9791834 0.1426231 0.9791834 0.1426231 0.0208166 -0.1426231
1350181 0.0200170 -0.1399083 0.9799830 0.1399083 0.9799830 0.1399083 0.0200170 -0.1399083
1377479 0.0192476 -0.1372408 0.9807524 0.1372408 0.9807524 0.1372408 0.0192476 -0.1372408
1405328 0.0185072 -0.1346200 0.9814928 0.1346200 0.9814928 0.1346200 0.0185072 -0.1346200
1433740 0.0177948 -0.1320453 0.9822052 0.1320453 0.9822052 0.1320453 0.0177948 -0.1320453
1462727 0.0171093 -0.1295161 0.9828907 0.1295161 0.9828907 0.1295161 0.0171093 -0.1295161
1492300 0.0164499 -0.1270318 0.9835501 0.1270318 0.9835501 0.1270318 0.0164499 -0.1270318
1522470 0.0158155 -0.1245918 0.9841845 0.1245918 0.9841845 0.1245918 0.0158155 -0.1245918
1553251 0.0152053 -0.1221955 0.9847947 0.1221955 0.9847947 0.1221955 0.0152053 -0.1221955
1584654 0.0146183 -0.1198423 0.9853817 0.1198423 0.9853817 0.1198423 0.0146183 -0.1198423
1616692 0.0140536 -0.1175316 0.9859464 0.1175316 0.9859464 0.1175316 0.0140536 -0.1175316
1649378 0.0135105 -0.1152628 0.9864895 0.1152628 0.9864895 0.1152628 0.0135105 -0.1152628
1682724 0.0129882 -0.1130353 0.9870118 0.1130353 0.9870118 0.1130353 0.0129882 -0.1130353
1716745 0.0124858 -0.1108483 0.9875142 0.1108483 0.9875142 0.1108483 0.0124858 -0.1108483
1751453 0.0120027 -0.1087015 0.9879973 0.1087015 0.9879973 0.1087015 0.0120027 -0.1087015
1786863 0.0115380 -0.1065940 0.9884620 0.1065940 0.9884620 0.1065940 0.0115380 -0.1065940
1822989 0.0110912 -0.1045254 0.9889088 0.1045254 0.9889088 0.1045254 0.0110912 -0.1045254
1859846 0.0106616 -0.1024949 0.9893384 0.1024949 0.9893384 0.1024949 0.0106616 -0.1024949
1897447 0.0102485 -0.1005021 0.9897515 0.1005021 0.9897515 0.1005021 0.0102485 -0.1005021
1935809 0.0098512 -0.0985463 0.9901488 0.0985463 0.9901488 0.0985463 0.0098512 -0.0985463
1974946 0.0094693 -0.0966268 0.9905307 0.0966268 0.9905307 0.0966268 0.0094693 -0.0966268
2014875 0.0091020 -0.0947432 0.9908980 0.0947432 0.9908980 0.0947432 0.0091020 -0.0947432
2055611 0.0087489 -0.0928948 0.9912511 0.0928948 0.9912511 0.0928948 0.0087489 -0.0928948
2097170 0.0084095 -0.0910811 0.9915905 0.0910811 0.9915905 0.0910811 0.0084095 -0.0910811
2139570 0.0080831 -0.0893014 0.9919169 0.0893014 0.9919169 0.0893014 0.0080831 -0.0893014
2182827 0.0077694 -0.0875552 0.9922306 0.0875552 0.9922306 0.0875552 0.0077694 -0.0875552
2226959 0.0074677 -0.0858419 0.9925323 0.0858419 0.9925323 0.0858419 0.0074677 -0.0858419
2271982 0.0071778 -0.0841610 0.9928222 0.0841610 0.9928222 0.0841610 0.0071778 -0.0841610
2317916 0.0068990 -0.0825119 0.9931010 0.0825119 0.9931010 0.0825119 0.0068990 -0.0825119
2364779 0.0066311 -0.0808940 0.9933689 0.0808940 0.9933689 0.0808940 0.0066311 -0.0808940
2412589 0.0063735 -0.0793068 0.9936265 0.0793068 0.9936265 0.0793068 0.0063735 -0.0793068
2461366 0.0061260 -0.0777498 0.9938740 0.0777498 0.9938740 0.0777498 0.0061260 -0.0777498
2511129 0.0058880 -0.0762225 0.9941120 0.0762225 0.9941120 0.0762225 0.0058880 -0.0762225
2561897 0.0056592 -0.0747242 0.9943408 0.0747242 0.9943408 0.0747242 0.0056592 -0.0747242
2613693 0.0054394 -0.0732546 0.9945606 0.0732546 0.9945606 0.0732546 0.0054394 -0.0732546
2666535 0.0052281 -0.0718130 0.9947719 0.0718130 0.9947719 0.0718130 0.0052281 -0.0718130
2720446 0.0050250 -0.0703990 0.9949750 0.0703990 0.9949750 0.0703990 0.0050250 -0.0703990
2775447 0.0048297 -0.0690121 0.9951703 0.0690121 0.9951703 0.0690121 0.0048297 -0.0690121
2831560 0.0046421 -0.0676517 0.9953579 0.0676517 0.9953579 0.0676517 0.0046421 -0.0676517
2888807 0.0044618 -0.0663175 0.9955382 0.0663175 0.9955382 0.0663175 0.0044618 -0.0663175
2947212 0.0042885 -0.0650089 0.9957115 0.0650089 0.9957115 0.0650089 0.0042885 -0.0650089
3006797 0.0041220 -0.0637255 0.9958780 0.0637255 0.9958780 0.0637255 0.0041220 -0.0637255
3067588 0.0039619 -0.0624668 0.9960381 0.0624668 0.9960381 0.0624668 0.0039619 -0.0624668
3129607 0.0038081 -0.0612323 0.9961919 0.0612323 0.9961919 0.0612323 0.0038081 -0.0612323
3192880 0.0036602 -0.0600216 0.9963398 0.0600216 0.9963398 0.0600216 0.0036602 -0.0600216
3257432 0.0035182 -0.0588342 0.9964818 0.0588342 0.9964818 0.0588342 0.0035182 -0.0588342
3323290 0.0033817 -0.0576698 0.9966183 0.0576698 0.9966183 0.0576698 0.0033817 -0.0576698
3390478 0.0032505 -0.0565279 0.9967495 0.0565279 0.9967495 0.0565279 0.0032505 -0.0565279
3459026 0.0031244 -0.0554080 0.9968756 0.0554080 0.9968756 0.0554080 0.0031244 -0.0554080
3528959 0.0030033 -0.0543097 0.9969967 0.0543097 0.9969967 0.0543097 0.0030033 -0.0543097
3600306 0.0028868 -0.0532327 0.9971132 0.0532327 0.9971132 0.0532327 0.0028868 -0.0532327
3673095 0.0027750 -0.0521766 0.9972250 0.0521766 0.9972250 0.0521766 0.0027750 -0.0521766
3747356 0.0026675 -0.0511409 0.9973325 0.0511409 0.9973325 0.0511409 0.0026675 -0.0511409
3823119 0.0025642 -0.0501252 0.9974358 0.0501252 0.9974358 0.0501252 0.0025642 -0.0501252
3900413 0.0024650 -0.0491293 0.9975350 0.0491293 0.9975350 0.0491293 0.0024650 -0.0491293
3979270 0.0023696 -0.0481526 0.9976304 0.0481526 0.9976304 0.0481526 0.0023696 -0.0481526
4059721 0.0022780 -0.0471949 0.9977220 0.0471949 0.9977220 0.0471949 0.0022780 -0.0471949
4141799 0.0021899 -0.0462557 0.9978101 0.0462557 0.9978101 0.0462557 0.0021899 -0.0462557
4225536 0.0021053 -0.0453347 0.9978947 0.0453347 0.9978947 0.0453347 0.0021053 -0.0453347
4310966 0.0020241 -0.0444316 0.9979759 0.0444316 0.9979759 0.0444316 0.0020241 -0.0444316
4398124 0.0019460 -0.0435461 0.9980540 0.0435461 0.9980540 0.0435461 0.0019460 -0.0435461
4487043 0.0018710 -0.0426777 0.9981290 0.0426777 0.9981290 0.0426777 0.0018710 -0.0426777
4577760 0.0017989 -0.0418261 0.9982011 0.0418261 0.9982011 0.0418261 0.0017989 -0.0418261
4670311 0.0017296 -0.0409911 0.9982704 0.0409911 0.9982704 0.0409911 0.0017296 -0.0409911
4764734 0.0016631 -0.0401723 0.9983369 0.0401723 0.9983369 0.0401723 0.0016631 -0.0401723
4861065 0.0015992 -0.0393693 0.9984008 0.0393693 0.9984008 0.0393693 0.0015992 -0.0393693
4959344 0.0015378 -0.0385819 0.9984622 0.0385819 0.9984622 0.0385819 0.0015378 -0.0385819
5059610 0.0014788 -0.0378099 0.9985212 0.0378099 0.9985212 0.0378099 0.0014788 -0.0378099
5161903 0.0014221 -0.0370527 0.9985779 0.0370527 0.9985779 0.0370527 0.0014221 -0.0370527
5266264 0.0013677 -0.0363103 0.9986323 0.0363103 0.9986323 0.0363103 0.0013677 -0.0363103
5372736 0.0013154 -0.0355823 0.9986846 0.0355823 0.9986846 0.0355823 0.0013154 -0.0355823
5481359 0.0012651 -0.0348683 0.9987349 0.0348683 0.9987349 0.0348683 0.0012651 -0.0348683
5592179 0.0012169 -0.0341683 0.9987831 0.0341683 0.9987831 0.0341683 0.0012169 -0.0341683
5705239 0.0011705 -0.0334817 0.9988295 0.0334817 0.9988295 0.0334817 0.0011705 -0.0334817
5820586 0.0011260 -0.0328085 0.9988740 0.0328085 0.9988740 0.0328085 0.0011260 -0.0328085
5938264 0.0010833 -0.0321483 0.9989167 0.0321483 0.9989167 0.0321483 0.0010833 -0.0321483
6058321 0.0010422 -0.0315009 0.9989578 0.0315009 0.9989578 0.0315009 0.0010422 -0.0315009
6180806 0.0010028 -0.0308660 0.9989972 0.0308660 0.9989972 0.0308660 0.0010028 -0.0308660
6305767 0.0009649 -0.0302433 0.9990351 0.0302433 0.9990351 0.0302433 0.0009649 -0.0302433
6433254 0.0009285 -0.0296327 0.9990715 0.0296327 0.9990715 0.0296327 0.0009285 -0.0296327
6563319 0.0008936 -0.0290339 0.9991064 0.0290339 0.9991064 0.0290339 0.0008936 -0.0290339
6696013 0.0008600 -0.0284467 0.9991400 0.0284467 0.9991400 0.0284467 0.0008600 -0.0284467
6831390 0.0008278 -0.0278708 0.9991722 0.0278708 0.9991722 0.0278708 0.0008278 -0.0278708
6969505 0.0007969 -0.0273059 0.9992031 0.0273059 0.9992031 0.0273059 0.0007969 -0.0273059
7110411 0.0007672 -0.0267520 0.9992328 0.0267520 0.9992328 0.0267520 0.0007672 -0.0267520
7254166 0.0007386 -0.0262087 0.9992614 0.0262087 0.9992614 0.0262087 0.0007386 -0.0262087
7400828 0.0007113 -0.0256759 0.9992887 0.0256759 0.9992887 0.0256759 0.0007113 -0.0256759
7550455 0.0006850 -0.0251533 0.9993150 0.0251533 0.9993150 0.0251533 0.0006850 -0.0251533
7703107 0.0006597 -0.0246407 0.9993403 0.0246407 0.9993403 0.0246407 0.0006597 -0.0246407
7858845 0.0006355 -0.0241380 0.9993645 0.0241380 0.9993645 0.0241380 0.0006355 -0.0241380
8017732 0.0006123 -0.0236449 0.9993877 0.0236449 0.9993877 0.0236449 0.0006123 -0.0236449
8179831 0.0005900 -0.0231612 0.9994100 0.0231612 0.9994100 0.0231612 0.0005900 -0.0231612
8345207 0.0005686 -0.0226868 0.9994314 0.0226868 0.9994314 0.0226868 0.0005686 -0.0226868
8513927 0.0005480 -0.0222214 0.9994520 0.0222214 0.9994520 0.0222214 0.0005480 -0.0222214
8686058 0.0005283 -0.0217650 0.9994717 0.0217650 0.9994717 0.0217650 0.0005283 -0.0217650
8861669 0.0005094 -0.0213172 0.9994906 0.0213172 0.9994906 0.0213172 0.0005094 -0.0213172
9040831 0.0004912 -0.0208779 0.9995088 0.0208779 0.9995088 0.0208779 0.0004912 -0.0208779
9223615 0.0004738 -0.0204470 0.9995262 0.0204470 0.9995262 0.0204470 0.0004738 -0.0204470
9410094 0.0004571 -0.0200242 0.9995429 0.0200242 0.9995429 0.0200242 0.0004571 -0.0200242
9600343 0.0004411 -0.0196095 0.9995589 0.0196095 0.9995589 0.0196095 0.0004411 -0.0196095
9794439 0.0004257 -0.0192026 0.9995743 0.0192026 0.9995743 0.0192026 0.0004257 -0.0192026
9992459 0.0004110 -0.0188034 0.9995890 0.0188034 0.9995890 0.0188034 0.0004110 -0.0188034
10194482 0.0003969 -0.0184117 0.9996031 0.0184117 0.9996031 0.0184117 0.0003969 -0.0184117
10400590 0.0003834 -0.0180273 0.9996166 0.0180273 0.9996166 0.0180273 0.0003834 -0.0180273
10610865 0.0003704 -0.0176502 0.9996296 0.0176502 0.9996296 0.0176502 0.0003704 -0.0176502
10825391 0.0003579 -0.0172802 0.9996421 0.0172802 0.9996421 0.0172802 0.0003579 -0.0172802
11044254 0.0003460 -0.0169171 0.9996540 0.0169171 0.9996540 0.0169171 0.0003460 -0.0169171
11267542 0.0003346 -0.0165607 0.9996654 0.0165607 0.9996654 0.0165607 0.0003346 -0.0165607
11495344 0.0003237 -0.0162110 0.9996763 0.0162110 0.9996763 0.0162110 0.0003237 -0.0162110
11727752 0.0003132 -0.0158678 0.9996868 0.0158678 0.9996868 0.0158678 0.0003132 -0.0158678
11964859 0.0003032 -0.0155309 0.9996968 0.0155309 0.9996968 0.0155309 0.0003032 -0.0155309
12206760 0.0002936 -0.0152002 0.9997064 0.0152002 0.9997064 0.0152002 0.0002936 -0.0152002
12453551 0.0002844 -0.0148757 0.9997156 0.0148757 0.9997156 0.0148757 0.0002844 -0.0148757
12705331 0.0002756 -0.0145571 0.9997244 0.0145571 0.9997244 0.0145571 0.0002756 -0.0145571
12962202 0.0002672 -0.0142443 0.9997328 0.0142443 0.9997328 0.0142443 0.0002672 -0.0142443
13224267 0.0002591 -0.0139373 0.9997409 0.0139373 0.9997409 0.0139373 0.0002591 -0.0139373
13491630 0.0002514 -0.0136359 0.9997486 0.0136359 0.9997486 0.0136359 0.0002514 -0.0136359
13764398 0.0002441 -0.0133399 0.9997559 0.0133399 0.9997559 0.0133399 0.0002441 -0.0133399
14042680 0.0002370 -0.0130492 0.9997630 0.0130492 0.9997630 0.0130492 0.0002370 -0.0130492
14326589 0.0002303 -0.0127639 0.9997697 0.0127639 0.9997697 0.0127639 0.0002303 -0.0127639
14616238 0.0002239 -0.0124836 0.9997761 0.0124836 0.9997761 0.0124836 0.0002239 -0.0124836
14911743 0.0002178 -0.0122083 0.9997822 0.0122083 0.9997822 0.0122083 0.0002178 -0.0122083
15213223 0.0002119 -0.0119380 0.9997881 0.0119380 0.9997881 0.0119380 0.0002119 -0.0119380
15520797 0.0002063 -0.0116724 0.9997937 0.0116724 0.9997937 0.0116724 0.0002063 -0.0116724
15834590 0.0002010 -0.0114115 0.9997990 0.0114115 0.9997990 0.0114115 0.0002010 -0.0114115
16154727 0.0001959 -0.0111552 0.9998041 0.0111552 0.9998041 0.0111552 0.0001959 -0.0111552
16481337 0.0001911 -0.0109034 0.9998089 0.0109034 0.9998089 0.0109034 0.0001911 -0.0109034
16814550 0.0001865 -0.0106560 0.9998135 0.0106560 0.9998135 0.0106560 0.0001865 -0.0106560
17154499 0.0001821 -0.0104128 0.9998179 0.0104128 0.9998179 0.0104128 0.0001821 -0.0104128
17501322 0.0001779 -0.0101738 0.9998221 0.0101738 0.9998221 0.0101738 0.0001779 -0.0101738
17855156 0.0001739 -0.0099389 0.9998261 0.0099389 0.9998261 0.0099389 0.0001739 -0.0099389
18216144 0.0001702 -0.0097080 0.9998298 0.0097080 0.9998298 0.0097080 0.0001702 -0.0097080
18584431 0.0001666 -0.0094810 0.9998334 0.0094810 0.9998334 0.0094810 0.0001666 -0.0094810
18960163 0.0001632 -0.0092578 0.9998368 0.0092578 0.9998368 0.0092578 0.0001632 -0.0092578
19343491 0.0001600 -0.0090383 0.9998400 0.0090383 0.9998400 0.0090383 0.0001600 -0.0090383
19734570 0.0001569 -0.0088225 0.9998431 0.0088225 0.9998431 0.0088225 0.0001569 -0.0088225
20133555 0.0001540 -0.0086102 0.9998460 0.0086102 0.9998460 0.0086102 0.0001540 -0.0086102
20540607 0.0001513 -0.0084013 0.9998487 0.0084013 0.9998487 0.0084013 0.0001513 -0.0084013
20955888 0.0001488 -0.0081959 0.9998512 0.0081959 0.9998512 0.0081959 0.0001488 -0.0081959
21379566 0.0001463 -0.0079937 0.9998537 0.0079937 0.9998537 0.0079937 0.0001463 -0.0079937
21811809 0.0001440 -0.0077947 0.9998560 0.0077947 0.9998560 0.0077947 0.0001440 -0.0077947
22252791 0.0001419 -0.0075988 0.9998581 0.0075988 0.9998581 0.0075988 0.0001419 -0.0075988
22702688 0.0001399 -0.0074060 0.9998601 0.0074060 0.9998601 0.0074060 0.0001399 -0.0074060
23161682 0.0001380 -0.0072162 0.9998620 0.0072162 0.9998620 0.0072162 0.0001380 -0.0072162
23629955 0.0001363 -0.0070292 0.9998637 0.0070292 0.9998637 0.0070292 0.0001363 -0.0070292
24107696 0.0001346 -0.0068451 0.9998654 0.0068451 0.9998654 0.0068451 0.0001346 -0.0068451
24595095 0.0001331 -0.0066637 0.9998669 0.0066637 0.9998669 0.0066637 0.0001331 -0.0066637
25092348 0.0001317 -0.0064850 0.9998683 0.0064850 0.9998683 0.0064850 0.0001317 -0.0064850
25599655 0.0001304 -0.0063089 0.9998696 0.0063089 0.9998696 0.0063089 0.0001304 -0.0063089
26117218 0.0001293 -0.0061352 0.9998707 0.0061352 0.9998707 0.0061352 0.0001293 -0.0061352
26645245 0.0001282 -0.0059641 0.9998718 0.0059641 0.9998718 0.0059641 0.0001282 -0.0059641
27183947 0.0001272 -0.0057953 0.9998728 0.0057953 0.9998728 0.0057953 0.0001272 -0.0057953
27733541 0.0001264 -0.0056288 0.9998736 0.0056288 0.9998736 0.0056288 0.0001264 -0.0056288
28294246 0.0001256 -0.0054646 0.9998744 0.0054646 0.9998744 0.0054646 0.0001256 -0.0054646
28866287 0.0001249 -0.0053025 0.9998751 0.0053025 0.9998751 0.0053025 0.0001249 -0.0053025
29449894 0.0001244 -0.0051426 0.9998756 0.0051426 0.9998756 0.0051426 0.0001244 -0.0051426
30045299 0.0001239 -0.0049847 0.9998761 0.0049847 0.9998761 0.0049847 0.0001239 -0.0049847
30652742 0.0001235 -0.0048287 0.9998765 0.0048287 0.9998765 0.0048287 0.0001235 -0.0048287
31272467 0.0001232 -0.0046747 0.9998768 0.0046747 0.9998768 0.0046747 0.0001232 -0.0046747
31904720 0.0001230 -0.0045225 0.9998770 0.0045225 0.9998770 0.0045225 0.0001230 -0.0045225
32549757 0.0001229 -0.0043721 0.9998771 0.0043721 0.9998771 0.0043721 0.0001229 -0.0043721
33207834 0.0001229 -0.0042234 0.9998771 0.0042234 0.9998771 0.0042234 0.0001229 -0.0042234
33879216 0.0001230 -0.0040764 0.9998770 0.0040764 0.9998770 0.0040764 0.0001230 -0.0040764
34564172 0.0001232 -0.0039309 0.9998768 0.0039309 0.9998768 0.0039309 0.0001232 -0.0039309
35262976 0.0001234 -0.0037870 0.9998766 0.0037870 0.9998766 0.0037870 0.0001234 -0.0037870
35975908 0.0001238 -0.0036446 0.9998762 0.0036446 0.9998762 0.0036446 0.0001238 -0.0036446
36703254 0.0001242 -0.0035035 0.9998758 0.0035035 0.9998758 0.0035035 0.0001242 -0.0035035
37445305 0.0001247 -0.0033638 0.9998753 0.0033638 0.9998753 0.0033638 0.0001247 -0.0033638
38202358 0.0001253 -0.0032254 0.9998747 0.0032254 0.9998747 0.0032254 0.0001253 -0.0032254
38974717 0.0001261 -0.0030882 0.9998739 0.0030882 0.9998739 0.0030882 0.0001261 -0.0030882
39762692 0.0001269 -0.0029521 0.9998731 0.0029521 0.9998731 0.0029521 0.0001269 -0.0029521
40566597 0.0001278 -0.0028171 0.9998722 0.0028171 0.9998722 0.0028171 0.0001278 -0.0028171
41386756 0.0001288 -0.0026832 0.9998712 0.0026832 0.9998712 0.0026832 0.0001288 -0.0026832
42223496 0.0001299 -0.0025503 0.9998701 0.0025503 0.9998701 0.0025503 0.0001299 -0.0025503
43077153 0.0001311 -0.0024182 0.9998689 0.0024182 0.9998689 0.0024182 0.0001311 -0.0024182
43948069 0.0001324 -0.0022871 0.9998676 0.0022871 0.9998676 0.0022871 0.0001324 -0.0022871
44836592 0.0001339 -0.0021567 0.9998661 0.0021567 0.9998661 0.0021567 0.0001339 -0.0021567
45743080 0.0001354 -0.0020270 0.9998646 0.0020270 0.9998646 0.0020270 0.0001354 -0.0020270
46667894 0.0001371 -0.0018980 0.9998629 0.0018980 0.9998629 0.0018980 0.0001371 -0.0018980
47611406 0.0001389 -0.0017696 0.9998611 0.0017696 0.9998611 0.0017696 0.0001389 -0.0017696
48573993 0.0001408 -0.0016417 0.9998592 0.0016417 0.9998592 0.0016417 0.0001408 -0.0016417
49556042 0.0001428 -0.0015143 0.9998572 0.0015143 0.9998572 0.0015143 0.0001428 -0.0015143
50557945 0.0001450 -0.0013873 0.9998550 0.0013873 0.9998550 0.0013873 0.0001450 -0.0013873
51580105 0.0001473 -0.0012606 0.9998527 0.0012606 0.9998527 0.0012606 0.0001473 -0.0012606
52622929 0.0001498 -0.0011341 0.9998502 0.0011341 0.9998502 0.0011341 0.0001498 -0.0011341
53686838 0.0001524 -0.0010079 0.9998476 0.0010079 0.9998476 0.0010079 0.0001524 -0.0010079
54772256 0.0001552 -0.0008818 0.9998448 0.0008818 0.9998448 0.0008818 0.0001552 -0.0008818
55879618 0.0001581 -0.0007557 0.9998419 0.0007557 0.9998419 0.0007557 0.0001581 -0.0007557
57009369 0.0001613 -0.0006296 0.9998387 0.0006296 0.9998387 0.0006296 0.0001613 -0.0006296
58161960 0.0001646 -0.0005033 0.9998354 0.0005033 0.9998354 0.0005033 0.0001646 -0.0005033
59337855 0.0001682 -0.0003769 0.9998318 0.0003769 0.9998318 0.0003769 0.0001682 -0.0003769
60537522 0.0001719 -0.0002502 0.9998281 0.0002502 0.9998281 0.0002502 0.0001719 -0.0002502
61761445 0.0001759 -0.0001230 0.9998241 0.0001230 0.9998241 0.0001230 0.0001759 -0.0001230
63010112 0.0001802 0.0000046 0.9998198 -0.0000046 0.9998198 -0.0000046 0.0001802 0.0000046
64284024 0.0001847 0.0001328 0.9998153 -0.0001328 0.9998153 -0.0001328 0.0001847 0.0001328
65583691 0.0001895 0.0002617 0.9998105 -0.0002617 0.9998105 -0.0002617 0.0001895 0.0002617
66909635 0.0001946 0.0003914 0.9998054 -0.0003914 0.9998054 -0.0003914 0.0001946 0.0003914
68262386 0.0002000 0.0005220 0.9998000 -0.0005220 0.9998000 -0.0005220 0.0002000 0.0005220
69642486 0.0002058 0.0006538 0.9997942 -0.0006538 0.9997942 -0.0006538 0.0002058 0.0006538
71050488 0.0002120 0.0007867 0.9997880 -0.0007867 0.9997880 -0.0007867 0.0002120 0.0007867
72486957 0.0002186 0.0009210 0.9997814 -0.0009210 0.9997814 -0.0009210 0.0002186 0.0009210
73952468 0.0002258 0.0010569 0.9997742 -0.0010569 0.9997742 -0.0010569 0.0002258 0.0010569
