!Murata Part Number: GRM32Q7U2J682JW31
!These Parameters are Measured in Series Mode Connection
!Data Generated on Mar 30, 2021
!       o--ll--o
!Port1            Port2
!       o------o
!Operation Temp=25[degC], DC Bias Voltage=0[V]
!Freq. Start=1000[kHz] Stop=3[GHz] 401[Steps]
# Hz S RI R 50
!Freq.(Hz) S11(Real) S11(Imag) S21(Real) S21(Imag) S12(Real) S12(Imag) S22(Real) S22(Imag)
1000000 0.0523569 -0.2226495 0.9476431 0.2226495 0.9476431 0.2226495 0.0523569 -0.2226495
1020218 0.0504068 -0.2186848 0.9495932 0.2186848 0.9495932 0.2186848 0.0504068 -0.2186848
1040844 0.0485256 -0.2147740 0.9514744 0.2147740 0.9514744 0.2147740 0.0485256 -0.2147740
1061887 0.0467112 -0.2109176 0.9532888 0.2109176 0.9532888 0.2109176 0.0467112 -0.2109176
1083356 0.0449615 -0.2071155 0.9550385 0.2071155 0.9550385 0.2071155 0.0449615 -0.2071155
1105259 0.0432744 -0.2033679 0.9567256 0.2033679 0.9567256 0.2033679 0.0432744 -0.2033679
1127605 0.0416479 -0.1996748 0.9583521 0.1996748 0.9583521 0.1996748 0.0416479 -0.1996748
1150402 0.0400800 -0.1960362 0.9599200 0.1960362 0.9599200 0.1960362 0.0400800 -0.1960362
1173660 0.0385688 -0.1924520 0.9614312 0.1924520 0.9614312 0.1924520 0.0385688 -0.1924520
1197389 0.0371124 -0.1889219 0.9628876 0.1889219 0.9628876 0.1889219 0.0371124 -0.1889219
1221597 0.0357090 -0.1854460 0.9642910 0.1854460 0.9642910 0.1854460 0.0357090 -0.1854460
1246295 0.0343567 -0.1820238 0.9656433 0.1820238 0.9656433 0.1820238 0.0343567 -0.1820238
1271492 0.0330540 -0.1786553 0.9669460 0.1786553 0.9669460 0.1786553 0.0330540 -0.1786553
1297199 0.0317991 -0.1753400 0.9682009 0.1753400 0.9682009 0.1753400 0.0317991 -0.1753400
1323425 0.0305904 -0.1720776 0.9694096 0.1720776 0.9694096 0.1720776 0.0305904 -0.1720776
1350181 0.0294262 -0.1688679 0.9705738 0.1688679 0.9705738 0.1688679 0.0294262 -0.1688679
1377479 0.0283051 -0.1657104 0.9716949 0.1657104 0.9716949 0.1657104 0.0283051 -0.1657104
1405328 0.0272255 -0.1626046 0.9727745 0.1626046 0.9727745 0.1626046 0.0272255 -0.1626046
1433740 0.0261861 -0.1595502 0.9738139 0.1595502 0.9738139 0.1595502 0.0261861 -0.1595502
1462727 0.0251853 -0.1565467 0.9748147 0.1565467 0.9748147 0.1565467 0.0251853 -0.1565467
1492300 0.0242219 -0.1535936 0.9757781 0.1535936 0.9757781 0.1535936 0.0242219 -0.1535936
1522470 0.0232945 -0.1506903 0.9767055 0.1506903 0.9767055 0.1506903 0.0232945 -0.1506903
1553251 0.0224018 -0.1478365 0.9775982 0.1478365 0.9775982 0.1478365 0.0224018 -0.1478365
1584654 0.0215426 -0.1450316 0.9784574 0.1450316 0.9784574 0.1450316 0.0215426 -0.1450316
1616692 0.0207157 -0.1422749 0.9792843 0.1422749 0.9792843 0.1422749 0.0207157 -0.1422749
1649378 0.0199199 -0.1395660 0.9800801 0.1395660 0.9800801 0.1395660 0.0199199 -0.1395660
1682724 0.0191542 -0.1369043 0.9808458 0.1369043 0.9808458 0.1369043 0.0191542 -0.1369043
1716745 0.0184173 -0.1342892 0.9815827 0.1342892 0.9815827 0.1342892 0.0184173 -0.1342892
1751453 0.0177084 -0.1317201 0.9822916 0.1317201 0.9822916 0.1317201 0.0177084 -0.1317201
1786863 0.0170263 -0.1291965 0.9829737 0.1291965 0.9829737 0.1291965 0.0170263 -0.1291965
1822989 0.0163700 -0.1267177 0.9836300 0.1267177 0.9836300 0.1267177 0.0163700 -0.1267177
1859846 0.0157387 -0.1242831 0.9842613 0.1242831 0.9842613 0.1242831 0.0157387 -0.1242831
1897447 0.0151314 -0.1218922 0.9848686 0.1218922 0.9848686 0.1218922 0.0151314 -0.1218922
1935809 0.0145472 -0.1195442 0.9854528 0.1195442 0.9854528 0.1195442 0.0145472 -0.1195442
1974946 0.0139853 -0.1172387 0.9860147 0.1172387 0.9860147 0.1172387 0.0139853 -0.1172387
2014875 0.0134449 -0.1149750 0.9865551 0.1149750 0.9865551 0.1149750 0.0134449 -0.1149750
2055611 0.0129251 -0.1127524 0.9870749 0.1127524 0.9870749 0.1127524 0.0129251 -0.1127524
2097170 0.0124252 -0.1105705 0.9875748 0.1105705 0.9875748 0.1105705 0.0124252 -0.1105705
2139570 0.0119444 -0.1084284 0.9880556 0.1084284 0.9880556 0.1084284 0.0119444 -0.1084284
2182827 0.0114820 -0.1063258 0.9885180 0.1063258 0.9885180 0.1063258 0.0114820 -0.1063258
2226959 0.0110374 -0.1042618 0.9889626 0.1042618 0.9889626 0.1042618 0.0110374 -0.1042618
2271982 0.0106099 -0.1022360 0.9893901 0.1022360 0.9893901 0.1022360 0.0106099 -0.1022360
2317916 0.0101988 -0.1002477 0.9898012 0.1002477 0.9898012 0.1002477 0.0101988 -0.1002477
2364779 0.0098035 -0.0982963 0.9901965 0.0982963 0.9901965 0.0982963 0.0098035 -0.0982963
2412589 0.0094234 -0.0963813 0.9905766 0.0963813 0.9905766 0.0963813 0.0094234 -0.0963813
2461366 0.0090580 -0.0945020 0.9909420 0.0945020 0.9909420 0.0945020 0.0090580 -0.0945020
2511129 0.0087066 -0.0926578 0.9912934 0.0926578 0.9912934 0.0926578 0.0087066 -0.0926578
2561897 0.0083688 -0.0908482 0.9916312 0.0908482 0.9916312 0.0908482 0.0083688 -0.0908482
2613693 0.0080440 -0.0890726 0.9919560 0.0890726 0.9919560 0.0890726 0.0080440 -0.0890726
2666535 0.0077318 -0.0873304 0.9922682 0.0873304 0.9922682 0.0873304 0.0077318 -0.0873304
2720446 0.0074317 -0.0856211 0.9925683 0.0856211 0.9925683 0.0856211 0.0074317 -0.0856211
2775447 0.0071432 -0.0839440 0.9928568 0.0839440 0.9928568 0.0839440 0.0071432 -0.0839440
2831560 0.0068658 -0.0822987 0.9931342 0.0822987 0.9931342 0.0822987 0.0068658 -0.0822987
2888807 0.0065992 -0.0806845 0.9934008 0.0806845 0.9934008 0.0806845 0.0065992 -0.0806845
2947212 0.0063429 -0.0791010 0.9936571 0.0791010 0.9936571 0.0791010 0.0063429 -0.0791010
3006797 0.0060965 -0.0775476 0.9939035 0.0775476 0.9939035 0.0775476 0.0060965 -0.0775476
3067588 0.0058597 -0.0760237 0.9941403 0.0760237 0.9941403 0.0760237 0.0058597 -0.0760237
3129607 0.0056321 -0.0745289 0.9943679 0.0745289 0.9943679 0.0745289 0.0056321 -0.0745289
3192880 0.0054133 -0.0730626 0.9945867 0.0730626 0.9945867 0.0730626 0.0054133 -0.0730626
3257432 0.0052030 -0.0716243 0.9947970 0.0716243 0.9947970 0.0716243 0.0052030 -0.0716243
3323290 0.0050009 -0.0702136 0.9949991 0.0702136 0.9949991 0.0702136 0.0050009 -0.0702136
3390478 0.0048067 -0.0688298 0.9951933 0.0688298 0.9951933 0.0688298 0.0048067 -0.0688298
3459026 0.0046200 -0.0674726 0.9953800 0.0674726 0.9953800 0.0674726 0.0046200 -0.0674726
3528959 0.0044405 -0.0661414 0.9955595 0.0661414 0.9955595 0.0661414 0.0044405 -0.0661414
3600306 0.0042681 -0.0648358 0.9957319 0.0648358 0.9957319 0.0648358 0.0042681 -0.0648358
3673095 0.0041023 -0.0635553 0.9958977 0.0635553 0.9958977 0.0635553 0.0041023 -0.0635553
3747356 0.0039430 -0.0622994 0.9960570 0.0622994 0.9960570 0.0622994 0.0039430 -0.0622994
3823119 0.0037900 -0.0610677 0.9962100 0.0610677 0.9962100 0.0610677 0.0037900 -0.0610677
3900413 0.0036429 -0.0598597 0.9963571 0.0598597 0.9963571 0.0598597 0.0036429 -0.0598597
3979270 0.0035015 -0.0586750 0.9964985 0.0586750 0.9964985 0.0586750 0.0035015 -0.0586750
4059721 0.0033656 -0.0575132 0.9966344 0.0575132 0.9966344 0.0575132 0.0033656 -0.0575132
4141799 0.0032351 -0.0563738 0.9967649 0.0563738 0.9967649 0.0563738 0.0032351 -0.0563738
4225536 0.0031096 -0.0552564 0.9968904 0.0552564 0.9968904 0.0552564 0.0031096 -0.0552564
4310966 0.0029891 -0.0541606 0.9970109 0.0541606 0.9970109 0.0541606 0.0029891 -0.0541606
4398124 0.0028732 -0.0530860 0.9971268 0.0530860 0.9971268 0.0530860 0.0028732 -0.0530860
4487043 0.0027619 -0.0520321 0.9972381 0.0520321 0.9972381 0.0520321 0.0027619 -0.0520321
4577760 0.0026549 -0.0509987 0.9973451 0.0509987 0.9973451 0.0509987 0.0026549 -0.0509987
4670311 0.0025521 -0.0499852 0.9974479 0.0499852 0.9974479 0.0499852 0.0025521 -0.0499852
4764734 0.0024534 -0.0489914 0.9975466 0.0489914 0.9975466 0.0489914 0.0024534 -0.0489914
4861065 0.0023584 -0.0480169 0.9976416 0.0480169 0.9976416 0.0480169 0.0023584 -0.0480169
4959344 0.0022673 -0.0470612 0.9977327 0.0470612 0.9977327 0.0470612 0.0022673 -0.0470612
5059610 0.0021796 -0.0461240 0.9978204 0.0461240 0.9978204 0.0461240 0.0021796 -0.0461240
5161903 0.0020954 -0.0452050 0.9979046 0.0452050 0.9979046 0.0452050 0.0020954 -0.0452050
5266264 0.0020145 -0.0443038 0.9979855 0.0443038 0.9979855 0.0443038 0.0020145 -0.0443038
5372736 0.0019368 -0.0434201 0.9980632 0.0434201 0.9980632 0.0434201 0.0019368 -0.0434201
5481359 0.0018621 -0.0425535 0.9981379 0.0425535 0.9981379 0.0425535 0.0018621 -0.0425535
5592179 0.0017904 -0.0417037 0.9982096 0.0417037 0.9982096 0.0417037 0.0017904 -0.0417037
5705239 0.0017215 -0.0408703 0.9982785 0.0408703 0.9982785 0.0408703 0.0017215 -0.0408703
5820586 0.0016552 -0.0400532 0.9983448 0.0400532 0.9983448 0.0400532 0.0016552 -0.0400532
5938264 0.0015916 -0.0392518 0.9984084 0.0392518 0.9984084 0.0392518 0.0015916 -0.0392518
6058321 0.0015305 -0.0384660 0.9984695 0.0384660 0.9984695 0.0384660 0.0015305 -0.0384660
6180806 0.0014717 -0.0376954 0.9985283 0.0376954 0.9985283 0.0376954 0.0014717 -0.0376954
6305767 0.0014153 -0.0369398 0.9985847 0.0369398 0.9985847 0.0369398 0.0014153 -0.0369398
6433254 0.0013611 -0.0361988 0.9986389 0.0361988 0.9986389 0.0361988 0.0013611 -0.0361988
6563319 0.0013090 -0.0354721 0.9986910 0.0354721 0.9986910 0.0354721 0.0013090 -0.0354721
6696013 0.0012590 -0.0347595 0.9987410 0.0347595 0.9987410 0.0347595 0.0012590 -0.0347595
6831390 0.0012110 -0.0340607 0.9987890 0.0340607 0.9987890 0.0340607 0.0012110 -0.0340607
6969505 0.0011648 -0.0333754 0.9988352 0.0333754 0.9988352 0.0333754 0.0011648 -0.0333754
7110411 0.0011205 -0.0327034 0.9988795 0.0327034 0.9988795 0.0327034 0.0011205 -0.0327034
7254166 0.0010779 -0.0320444 0.9989221 0.0320444 0.9989221 0.0320444 0.0010779 -0.0320444
7400828 0.0010370 -0.0313981 0.9989630 0.0313981 0.9989630 0.0313981 0.0010370 -0.0313981
7550455 0.0009977 -0.0307642 0.9990023 0.0307642 0.9990023 0.0307642 0.0009977 -0.0307642
7703107 0.0009599 -0.0301426 0.9990401 0.0301426 0.9990401 0.0301426 0.0009599 -0.0301426
7858845 0.0009237 -0.0295330 0.9990763 0.0295330 0.9990763 0.0295330 0.0009237 -0.0295330
8017732 0.0008889 -0.0289352 0.9991111 0.0289352 0.9991111 0.0289352 0.0008889 -0.0289352
8179831 0.0008555 -0.0283488 0.9991445 0.0283488 0.9991445 0.0283488 0.0008555 -0.0283488
8345207 0.0008233 -0.0277738 0.9991767 0.0277738 0.9991767 0.0277738 0.0008233 -0.0277738
8513927 0.0007925 -0.0272098 0.9992075 0.0272098 0.9992075 0.0272098 0.0007925 -0.0272098
8686058 0.0007629 -0.0266566 0.9992371 0.0266566 0.9992371 0.0266566 0.0007629 -0.0266566
8861669 0.0007345 -0.0261141 0.9992655 0.0261141 0.9992655 0.0261141 0.0007345 -0.0261141
9040831 0.0007072 -0.0255820 0.9992928 0.0255820 0.9992928 0.0255820 0.0007072 -0.0255820
9223615 0.0006810 -0.0250601 0.9993190 0.0250601 0.9993190 0.0250601 0.0006810 -0.0250601
9410094 0.0006558 -0.0245481 0.9993442 0.0245481 0.9993442 0.0245481 0.0006558 -0.0245481
9600343 0.0006316 -0.0240460 0.9993684 0.0240460 0.9993684 0.0240460 0.0006316 -0.0240460
9794439 0.0006084 -0.0235534 0.9993916 0.0235534 0.9993916 0.0235534 0.0006084 -0.0235534
9992459 0.0005862 -0.0230703 0.9994138 0.0230703 0.9994138 0.0230703 0.0005862 -0.0230703
10194482 0.0005648 -0.0225963 0.9994352 0.0225963 0.9994352 0.0225963 0.0005648 -0.0225963
10400590 0.0005443 -0.0221314 0.9994557 0.0221314 0.9994557 0.0221314 0.0005443 -0.0221314
10610865 0.0005246 -0.0216753 0.9994754 0.0216753 0.9994754 0.0216753 0.0005246 -0.0216753
10825391 0.0005057 -0.0212279 0.9994943 0.0212279 0.9994943 0.0212279 0.0005057 -0.0212279
11044254 0.0004876 -0.0207889 0.9995124 0.0207889 0.9995124 0.0207889 0.0004876 -0.0207889
11267542 0.0004702 -0.0203582 0.9995298 0.0203582 0.9995298 0.0203582 0.0004702 -0.0203582
11495344 0.0004535 -0.0199357 0.9995465 0.0199357 0.9995465 0.0199357 0.0004535 -0.0199357
11727752 0.0004375 -0.0195212 0.9995625 0.0195212 0.9995625 0.0195212 0.0004375 -0.0195212
11964859 0.0004221 -0.0191144 0.9995779 0.0191144 0.9995779 0.0191144 0.0004221 -0.0191144
12206760 0.0004074 -0.0187153 0.9995926 0.0187153 0.9995926 0.0187153 0.0004074 -0.0187153
12453551 0.0003933 -0.0183237 0.9996067 0.0183237 0.9996067 0.0183237 0.0003933 -0.0183237
12705331 0.0003797 -0.0179394 0.9996203 0.0179394 0.9996203 0.0179394 0.0003797 -0.0179394
12962202 0.0003667 -0.0175622 0.9996333 0.0175622 0.9996333 0.0175622 0.0003667 -0.0175622
13224267 0.0003543 -0.0171921 0.9996457 0.0171921 0.9996457 0.0171921 0.0003543 -0.0171921
13491630 0.0003424 -0.0168289 0.9996576 0.0168289 0.9996576 0.0168289 0.0003424 -0.0168289
13764398 0.0003309 -0.0164724 0.9996691 0.0164724 0.9996691 0.0164724 0.0003309 -0.0164724
14042680 0.0003200 -0.0161225 0.9996800 0.0161225 0.9996800 0.0161225 0.0003200 -0.0161225
14326589 0.0003095 -0.0157790 0.9996905 0.0157790 0.9996905 0.0157790 0.0003095 -0.0157790
14616238 0.0002994 -0.0154419 0.9997006 0.0154419 0.9997006 0.0154419 0.0002994 -0.0154419
14911743 0.0002898 -0.0151109 0.9997102 0.0151109 0.9997102 0.0151109 0.0002898 -0.0151109
15213223 0.0002806 -0.0147860 0.9997194 0.0147860 0.9997194 0.0147860 0.0002806 -0.0147860
15520797 0.0002718 -0.0144671 0.9997282 0.0144671 0.9997282 0.0144671 0.0002718 -0.0144671
15834590 0.0002633 -0.0141539 0.9997367 0.0141539 0.9997367 0.0141539 0.0002633 -0.0141539
16154727 0.0002552 -0.0138463 0.9997448 0.0138463 0.9997448 0.0138463 0.0002552 -0.0138463
16481337 0.0002475 -0.0135443 0.9997525 0.0135443 0.9997525 0.0135443 0.0002475 -0.0135443
16814550 0.0002401 -0.0132478 0.9997599 0.0132478 0.9997599 0.0132478 0.0002401 -0.0132478
17154499 0.0002331 -0.0129565 0.9997669 0.0129565 0.9997669 0.0129565 0.0002331 -0.0129565
17501322 0.0002263 -0.0126705 0.9997737 0.0126705 0.9997737 0.0126705 0.0002263 -0.0126705
17855156 0.0002199 -0.0123895 0.9997801 0.0123895 0.9997801 0.0123895 0.0002199 -0.0123895
18216144 0.0002138 -0.0121134 0.9997862 0.0121134 0.9997862 0.0121134 0.0002138 -0.0121134
18584431 0.0002079 -0.0118423 0.9997921 0.0118423 0.9997921 0.0118423 0.0002079 -0.0118423
18960163 0.0002023 -0.0115758 0.9997977 0.0115758 0.9997977 0.0115758 0.0002023 -0.0115758
19343491 0.0001970 -0.0113140 0.9998030 0.0113140 0.9998030 0.0113140 0.0001970 -0.0113140
19734570 0.0001919 -0.0110568 0.9998081 0.0110568 0.9998081 0.0110568 0.0001919 -0.0110568
20133555 0.0001871 -0.0108039 0.9998129 0.0108039 0.9998129 0.0108039 0.0001871 -0.0108039
20540607 0.0001825 -0.0105554 0.9998175 0.0105554 0.9998175 0.0105554 0.0001825 -0.0105554
20955888 0.0001781 -0.0103112 0.9998219 0.0103112 0.9998219 0.0103112 0.0001781 -0.0103112
21379566 0.0001740 -0.0100710 0.9998260 0.0100710 0.9998260 0.0100710 0.0001740 -0.0100710
21811809 0.0001701 -0.0098349 0.9998299 0.0098349 0.9998299 0.0098349 0.0001701 -0.0098349
22252791 0.0001663 -0.0096027 0.9998337 0.0096027 0.9998337 0.0096027 0.0001663 -0.0096027
22702688 0.0001628 -0.0093744 0.9998372 0.0093744 0.9998372 0.0093744 0.0001628 -0.0093744
23161682 0.0001595 -0.0091498 0.9998405 0.0091498 0.9998405 0.0091498 0.0001595 -0.0091498
23629955 0.0001563 -0.0089289 0.9998437 0.0089289 0.9998437 0.0089289 0.0001563 -0.0089289
24107696 0.0001534 -0.0087115 0.9998466 0.0087115 0.9998466 0.0087115 0.0001534 -0.0087115
24595095 0.0001506 -0.0084977 0.9998494 0.0084977 0.9998494 0.0084977 0.0001506 -0.0084977
25092348 0.0001480 -0.0082872 0.9998520 0.0082872 0.9998520 0.0082872 0.0001480 -0.0082872
25599655 0.0001456 -0.0080800 0.9998544 0.0080800 0.9998544 0.0080800 0.0001456 -0.0080800
26117218 0.0001433 -0.0078761 0.9998567 0.0078761 0.9998567 0.0078761 0.0001433 -0.0078761
26645245 0.0001412 -0.0076753 0.9998588 0.0076753 0.9998588 0.0076753 0.0001412 -0.0076753
27183947 0.0001392 -0.0074776 0.9998608 0.0074776 0.9998608 0.0074776 0.0001392 -0.0074776
27733541 0.0001374 -0.0072829 0.9998626 0.0072829 0.9998626 0.0072829 0.0001374 -0.0072829
28294246 0.0001357 -0.0070911 0.9998643 0.0070911 0.9998643 0.0070911 0.0001357 -0.0070911
28866287 0.0001342 -0.0069021 0.9998658 0.0069021 0.9998658 0.0069021 0.0001342 -0.0069021
29449894 0.0001328 -0.0067158 0.9998672 0.0067158 0.9998672 0.0067158 0.0001328 -0.0067158
30045299 0.0001316 -0.0065322 0.9998684 0.0065322 0.9998684 0.0065322 0.0001316 -0.0065322
30652742 0.0001305 -0.0063512 0.9998695 0.0063512 0.9998695 0.0063512 0.0001305 -0.0063512
31272467 0.0001295 -0.0061728 0.9998705 0.0061728 0.9998705 0.0061728 0.0001295 -0.0061728
31904720 0.0001287 -0.0059968 0.9998713 0.0059968 0.9998713 0.0059968 0.0001287 -0.0059968
32549757 0.0001280 -0.0058231 0.9998720 0.0058231 0.9998720 0.0058231 0.0001280 -0.0058231
33207834 0.0001274 -0.0056518 0.9998726 0.0056518 0.9998726 0.0056518 0.0001274 -0.0056518
33879216 0.0001269 -0.0054827 0.9998731 0.0054827 0.9998731 0.0054827 0.0001269 -0.0054827
34564172 0.0001266 -0.0053158 0.9998734 0.0053158 0.9998734 0.0053158 0.0001266 -0.0053158
35262976 0.0001264 -0.0051510 0.9998736 0.0051510 0.9998736 0.0051510 0.0001264 -0.0051510
35975908 0.0001264 -0.0049881 0.9998736 0.0049881 0.9998736 0.0049881 0.0001264 -0.0049881
36703254 0.0001265 -0.0048273 0.9998735 0.0048273 0.9998735 0.0048273 0.0001265 -0.0048273
37445305 0.0001267 -0.0046683 0.9998733 0.0046683 0.9998733 0.0046683 0.0001267 -0.0046683
38202358 0.0001270 -0.0045112 0.9998730 0.0045112 0.9998730 0.0045112 0.0001270 -0.0045112
38974717 0.0001274 -0.0043558 0.9998726 0.0043558 0.9998726 0.0043558 0.0001274 -0.0043558
39762692 0.0001280 -0.0042021 0.9998720 0.0042021 0.9998720 0.0042021 0.0001280 -0.0042021
40566597 0.0001287 -0.0040500 0.9998713 0.0040500 0.9998713 0.0040500 0.0001287 -0.0040500
41386756 0.0001296 -0.0038994 0.9998704 0.0038994 0.9998704 0.0038994 0.0001296 -0.0038994
42223496 0.0001306 -0.0037504 0.9998694 0.0037504 0.9998694 0.0037504 0.0001306 -0.0037504
43077153 0.0001317 -0.0036028 0.9998683 0.0036028 0.9998683 0.0036028 0.0001317 -0.0036028
43948069 0.0001329 -0.0034565 0.9998671 0.0034565 0.9998671 0.0034565 0.0001329 -0.0034565
44836592 0.0001343 -0.0033116 0.9998657 0.0033116 0.9998657 0.0033116 0.0001343 -0.0033116
45743080 0.0001359 -0.0031678 0.9998641 0.0031678 0.9998641 0.0031678 0.0001359 -0.0031678
46667894 0.0001376 -0.0030252 0.9998624 0.0030252 0.9998624 0.0030252 0.0001376 -0.0030252
47611406 0.0001394 -0.0028838 0.9998606 0.0028838 0.9998606 0.0028838 0.0001394 -0.0028838
48573993 0.0001414 -0.0027433 0.9998586 0.0027433 0.9998586 0.0027433 0.0001414 -0.0027433
49556042 0.0001436 -0.0026038 0.9998564 0.0026038 0.9998564 0.0026038 0.0001436 -0.0026038
50557945 0.0001459 -0.0024653 0.9998541 0.0024653 0.9998541 0.0024653 0.0001459 -0.0024653
51580105 0.0001484 -0.0023275 0.9998516 0.0023275 0.9998516 0.0023275 0.0001484 -0.0023275
52622929 0.0001511 -0.0021905 0.9998489 0.0021905 0.9998489 0.0021905 0.0001511 -0.0021905
53686838 0.0001539 -0.0020542 0.9998461 0.0020542 0.9998461 0.0020542 0.0001539 -0.0020542
54772256 0.0001570 -0.0019186 0.9998430 0.0019186 0.9998430 0.0019186 0.0001570 -0.0019186
55879618 0.0001602 -0.0017835 0.9998398 0.0017835 0.9998398 0.0017835 0.0001602 -0.0017835
57009369 0.0001637 -0.0016488 0.9998363 0.0016488 0.9998363 0.0016488 0.0001637 -0.0016488
58161960 0.0001673 -0.0015146 0.9998327 0.0015146 0.9998327 0.0015146 0.0001673 -0.0015146
59337855 0.0001712 -0.0013808 0.9998288 0.0013808 0.9998288 0.0013808 0.0001712 -0.0013808
60537522 0.0001754 -0.0012472 0.9998246 0.0012472 0.9998246 0.0012472 0.0001754 -0.0012472
61761445 0.0001797 -0.0011137 0.9998203 0.0011137 0.9998203 0.0011137 0.0001797 -0.0011137
63010112 0.0001844 -0.0009804 0.9998156 0.0009804 0.9998156 0.0009804 0.0001844 -0.0009804
64284024 0.0001893 -0.0008471 0.9998107 0.0008471 0.9998107 0.0008471 0.0001893 -0.0008471
65583691 0.0001945 -0.0007137 0.9998055 0.0007137 0.9998055 0.0007137 0.0001945 -0.0007137
66909635 0.0002000 -0.0005802 0.9998000 0.0005802 0.9998000 0.0005802 0.0002000 -0.0005802
68262386 0.0002058 -0.0004464 0.9997942 0.0004464 0.9997942 0.0004464 0.0002058 -0.0004464
69642486 0.0002120 -0.0003123 0.9997880 0.0003123 0.9997880 0.0003123 0.0002120 -0.0003123
71050488 0.0002186 -0.0001777 0.9997814 0.0001777 0.9997814 0.0001777 0.0002186 -0.0001777
72486957 0.0002255 -0.0000426 0.9997745 0.0000426 0.9997745 0.0000426 0.0002255 -0.0000426
73952468 0.0002329 0.0000932 0.9997671 -0.0000932 0.9997671 -0.0000932 0.0002329 0.0000932
