!Murata Part Number: GRM32B7U2J562JW31
!These Parameters are Measured in Series Mode Connection
!Data Generated on Mar 30, 2021
!       o--ll--o
!Port1            Port2
!       o------o
!Operation Temp=25[degC], DC Bias Voltage=0[V]
!Freq. Start=1000[kHz] Stop=3[GHz] 401[Steps]
# Hz S RI R 50
!Freq.(Hz) S11(Real) S11(Imag) S21(Real) S21(Imag) S12(Real) S12(Imag) S22(Real) S22(Imag)
1000000 0.0739951 -0.2616687 0.9260049 0.2616687 0.9260049 0.2616687 0.0739951 -0.2616687
1020218 0.0712994 -0.2572282 0.9287006 0.2572282 0.9287006 0.2572282 0.0712994 -0.2572282
1040844 0.0686947 -0.2528362 0.9313053 0.2528362 0.9313053 0.2528362 0.0686947 -0.2528362
1061887 0.0661784 -0.2484937 0.9338216 0.2484937 0.9338216 0.2484937 0.0661784 -0.2484937
1083356 0.0637481 -0.2442015 0.9362519 0.2442015 0.9362519 0.2442015 0.0637481 -0.2442015
1105259 0.0614011 -0.2399604 0.9385989 0.2399604 0.9385989 0.2399604 0.0614011 -0.2399604
1127605 0.0591351 -0.2357711 0.9408649 0.2357711 0.9408649 0.2357711 0.0591351 -0.2357711
1150402 0.0569477 -0.2316342 0.9430523 0.2316342 0.9430523 0.2316342 0.0569477 -0.2316342
1173660 0.0548366 -0.2275503 0.9451634 0.2275503 0.9451634 0.2275503 0.0548366 -0.2275503
1197389 0.0527993 -0.2235198 0.9472007 0.2235198 0.9472007 0.2235198 0.0527993 -0.2235198
1221597 0.0508338 -0.2195429 0.9491662 0.2195429 0.9491662 0.2195429 0.0508338 -0.2195429
1246295 0.0489376 -0.2156201 0.9510624 0.2156201 0.9510624 0.2156201 0.0489376 -0.2156201
1271492 0.0471087 -0.2117515 0.9528913 0.2117515 0.9528913 0.2117515 0.0471087 -0.2117515
1297199 0.0453450 -0.2079373 0.9546550 0.2079373 0.9546550 0.2079373 0.0453450 -0.2079373
1323425 0.0436443 -0.2041775 0.9563557 0.2041775 0.9563557 0.2041775 0.0436443 -0.2041775
1350181 0.0420046 -0.2004722 0.9579954 0.2004722 0.9579954 0.2004722 0.0420046 -0.2004722
1377479 0.0404239 -0.1968214 0.9595761 0.1968214 0.9595761 0.1968214 0.0404239 -0.1968214
1405328 0.0389004 -0.1932250 0.9610996 0.1932250 0.9610996 0.1932250 0.0389004 -0.1932250
1433740 0.0374321 -0.1896828 0.9625679 0.1896828 0.9625679 0.1896828 0.0374321 -0.1896828
1462727 0.0360171 -0.1861947 0.9639829 0.1861947 0.9639829 0.1861947 0.0360171 -0.1861947
1492300 0.0346538 -0.1827605 0.9653462 0.1827605 0.9653462 0.1827605 0.0346538 -0.1827605
1522470 0.0333403 -0.1793800 0.9666597 0.1793800 0.9666597 0.1793800 0.0333403 -0.1793800
1553251 0.0320750 -0.1760528 0.9679250 0.1760528 0.9679250 0.1760528 0.0320750 -0.1760528
1584654 0.0308563 -0.1727786 0.9691437 0.1727786 0.9691437 0.1727786 0.0308563 -0.1727786
1616692 0.0296824 -0.1695570 0.9703176 0.1695570 0.9703176 0.1695570 0.0296824 -0.1695570
1649378 0.0285520 -0.1663878 0.9714480 0.1663878 0.9714480 0.1663878 0.0285520 -0.1663878
1682724 0.0274634 -0.1632704 0.9725366 0.1632704 0.9725366 0.1632704 0.0274634 -0.1632704
1716745 0.0264152 -0.1602045 0.9735848 0.1602045 0.9735848 0.1602045 0.0264152 -0.1602045
1751453 0.0254061 -0.1571896 0.9745939 0.1571896 0.9745939 0.1571896 0.0254061 -0.1571896
1786863 0.0244345 -0.1542251 0.9755655 0.1542251 0.9755655 0.1542251 0.0244345 -0.1542251
1822989 0.0234993 -0.1513107 0.9765007 0.1513107 0.9765007 0.1513107 0.0234993 -0.1513107
1859846 0.0225991 -0.1484458 0.9774009 0.1484458 0.9774009 0.1484458 0.0225991 -0.1484458
1897447 0.0217326 -0.1456298 0.9782674 0.1456298 0.9782674 0.1456298 0.0217326 -0.1456298
1935809 0.0208987 -0.1428623 0.9791013 0.1428623 0.9791013 0.1428623 0.0208987 -0.1428623
1974946 0.0200962 -0.1401426 0.9799038 0.1401426 0.9799038 0.1401426 0.0200962 -0.1401426
2014875 0.0193239 -0.1374702 0.9806761 0.1374702 0.9806761 0.1374702 0.0193239 -0.1374702
2055611 0.0185808 -0.1348446 0.9814192 0.1348446 0.9814192 0.1348446 0.0185808 -0.1348446
2097170 0.0178658 -0.1322652 0.9821342 0.1322652 0.9821342 0.1322652 0.0178658 -0.1322652
2139570 0.0171779 -0.1297312 0.9828221 0.1297312 0.9828221 0.1297312 0.0171779 -0.1297312
2182827 0.0165160 -0.1272423 0.9834840 0.1272423 0.9834840 0.1272423 0.0165160 -0.1272423
2226959 0.0158793 -0.1247977 0.9841207 0.1247977 0.9841207 0.1247977 0.0158793 -0.1247977
2271982 0.0152668 -0.1223968 0.9847332 0.1223968 0.9847332 0.1223968 0.0152668 -0.1223968
2317916 0.0146776 -0.1200391 0.9853224 0.1200391 0.9853224 0.1200391 0.0146776 -0.1200391
2364779 0.0141109 -0.1177240 0.9858891 0.1177240 0.9858891 0.1177240 0.0141109 -0.1177240
2412589 0.0135658 -0.1154507 0.9864342 0.1154507 0.9864342 0.1154507 0.0135658 -0.1154507
2461366 0.0130415 -0.1132188 0.9869585 0.1132188 0.9869585 0.1132188 0.0130415 -0.1132188
2511129 0.0125373 -0.1110276 0.9874627 0.1110276 0.9874627 0.1110276 0.0125373 -0.1110276
2561897 0.0120523 -0.1088764 0.9879477 0.1088764 0.9879477 0.1088764 0.0120523 -0.1088764
2613693 0.0115860 -0.1067647 0.9884140 0.1067647 0.9884140 0.1067647 0.0115860 -0.1067647
2666535 0.0111375 -0.1046919 0.9888625 0.1046919 0.9888625 0.1046919 0.0111375 -0.1046919
2720446 0.0107063 -0.1026573 0.9892937 0.1026573 0.9892937 0.1026573 0.0107063 -0.1026573
2775447 0.0102916 -0.1006604 0.9897084 0.1006604 0.9897084 0.1006604 0.0102916 -0.1006604
2831560 0.0098929 -0.0987005 0.9901071 0.0987005 0.9901071 0.0987005 0.0098929 -0.0987005
2888807 0.0095095 -0.0967771 0.9904905 0.0967771 0.9904905 0.0967771 0.0095095 -0.0967771
2947212 0.0091409 -0.0948895 0.9908591 0.0948895 0.9908591 0.0948895 0.0091409 -0.0948895
3006797 0.0087865 -0.0930372 0.9912135 0.0930372 0.9912135 0.0930372 0.0087865 -0.0930372
3067588 0.0084458 -0.0912196 0.9915542 0.0912196 0.9915542 0.0912196 0.0084458 -0.0912196
3129607 0.0081182 -0.0894361 0.9918818 0.0894361 0.9918818 0.0894361 0.0081182 -0.0894361
3192880 0.0078032 -0.0876861 0.9921968 0.0876861 0.9921968 0.0876861 0.0078032 -0.0876861
3257432 0.0075005 -0.0859691 0.9924995 0.0859691 0.9924995 0.0859691 0.0075005 -0.0859691
3323290 0.0072094 -0.0842844 0.9927906 0.0842844 0.9927906 0.0842844 0.0072094 -0.0842844
3390478 0.0069297 -0.0826316 0.9930703 0.0826316 0.9930703 0.0826316 0.0069297 -0.0826316
3459026 0.0066607 -0.0810101 0.9933393 0.0810101 0.9933393 0.0810101 0.0066607 -0.0810101
3528959 0.0064022 -0.0794194 0.9935978 0.0794194 0.9935978 0.0794194 0.0064022 -0.0794194
3600306 0.0061536 -0.0778588 0.9938464 0.0778588 0.9938464 0.0778588 0.0061536 -0.0778588
3673095 0.0059148 -0.0763279 0.9940852 0.0763279 0.9940852 0.0763279 0.0059148 -0.0763279
3747356 0.0056852 -0.0748262 0.9943148 0.0748262 0.9943148 0.0748262 0.0056852 -0.0748262
3823119 0.0054645 -0.0733530 0.9945355 0.0733530 0.9945355 0.0733530 0.0054645 -0.0733530
3900413 0.0052524 -0.0719080 0.9947476 0.0719080 0.9947476 0.0719080 0.0052524 -0.0719080
3979270 0.0050485 -0.0704907 0.9949515 0.0704907 0.9949515 0.0704907 0.0050485 -0.0704907
4059721 0.0048525 -0.0691004 0.9951475 0.0691004 0.9951475 0.0691004 0.0048525 -0.0691004
4141799 0.0046642 -0.0677367 0.9953358 0.0677367 0.9953358 0.0677367 0.0046642 -0.0677367
4225536 0.0044832 -0.0663992 0.9955168 0.0663992 0.9955168 0.0663992 0.0044832 -0.0663992
4310966 0.0043092 -0.0650873 0.9956908 0.0650873 0.9956908 0.0650873 0.0043092 -0.0650873
4398124 0.0041420 -0.0638006 0.9958580 0.0638006 0.9958580 0.0638006 0.0041420 -0.0638006
4487043 0.0039814 -0.0625387 0.9960186 0.0625387 0.9960186 0.0625387 0.0039814 -0.0625387
4577760 0.0038269 -0.0613010 0.9961731 0.0613010 0.9961731 0.0613010 0.0038269 -0.0613010
4670311 0.0036785 -0.0600871 0.9963215 0.0600871 0.9963215 0.0600871 0.0036785 -0.0600871
4764734 0.0035359 -0.0588966 0.9964641 0.0588966 0.9964641 0.0588966 0.0035359 -0.0588966
4861065 0.0033989 -0.0577290 0.9966011 0.0577290 0.9966011 0.0577290 0.0033989 -0.0577290
4959344 0.0032672 -0.0565839 0.9967328 0.0565839 0.9967328 0.0565839 0.0032672 -0.0565839
5059610 0.0031406 -0.0554609 0.9968594 0.0554609 0.9968594 0.0554609 0.0031406 -0.0554609
5161903 0.0030190 -0.0543596 0.9969810 0.0543596 0.9969810 0.0543596 0.0030190 -0.0543596
5266264 0.0029021 -0.0532796 0.9970979 0.0532796 0.9970979 0.0532796 0.0029021 -0.0532796
5372736 0.0027898 -0.0522203 0.9972102 0.0522203 0.9972102 0.0522203 0.0027898 -0.0522203
5481359 0.0026819 -0.0511816 0.9973181 0.0511816 0.9973181 0.0511816 0.0026819 -0.0511816
5592179 0.0025782 -0.0501629 0.9974218 0.0501629 0.9974218 0.0501629 0.0025782 -0.0501629
5705239 0.0024786 -0.0491639 0.9975214 0.0491639 0.9975214 0.0491639 0.0024786 -0.0491639
5820586 0.0023829 -0.0481843 0.9976171 0.0481843 0.9976171 0.0481843 0.0023829 -0.0481843
5938264 0.0022909 -0.0472235 0.9977091 0.0472235 0.9977091 0.0472235 0.0022909 -0.0472235
6058321 0.0022025 -0.0462814 0.9977975 0.0462814 0.9977975 0.0462814 0.0022025 -0.0462814
6180806 0.0021176 -0.0453574 0.9978824 0.0453574 0.9978824 0.0453574 0.0021176 -0.0453574
6305767 0.0020360 -0.0444514 0.9979640 0.0444514 0.9979640 0.0444514 0.0020360 -0.0444514
6433254 0.0019576 -0.0435628 0.9980424 0.0435628 0.9980424 0.0435628 0.0019576 -0.0435628
6563319 0.0018822 -0.0426915 0.9981178 0.0426915 0.9981178 0.0426915 0.0018822 -0.0426915
6696013 0.0018099 -0.0418369 0.9981901 0.0418369 0.9981901 0.0418369 0.0018099 -0.0418369
6831390 0.0017403 -0.0409990 0.9982597 0.0409990 0.9982597 0.0409990 0.0017403 -0.0409990
6969505 0.0016735 -0.0401772 0.9983265 0.0401772 0.9983265 0.0401772 0.0016735 -0.0401772
7110411 0.0016094 -0.0393713 0.9983906 0.0393713 0.9983906 0.0393713 0.0016094 -0.0393713
7254166 0.0015477 -0.0385809 0.9984523 0.0385809 0.9984523 0.0385809 0.0015477 -0.0385809
7400828 0.0014885 -0.0378059 0.9985115 0.0378059 0.9985115 0.0378059 0.0014885 -0.0378059
7550455 0.0014316 -0.0370458 0.9985684 0.0370458 0.9985684 0.0370458 0.0014316 -0.0370458
7703107 0.0013769 -0.0363004 0.9986231 0.0363004 0.9986231 0.0363004 0.0013769 -0.0363004
7858845 0.0013244 -0.0355694 0.9986756 0.0355694 0.9986756 0.0355694 0.0013244 -0.0355694
8017732 0.0012740 -0.0348525 0.9987260 0.0348525 0.9987260 0.0348525 0.0012740 -0.0348525
8179831 0.0012255 -0.0341494 0.9987745 0.0341494 0.9987745 0.0341494 0.0012255 -0.0341494
8345207 0.0011790 -0.0334598 0.9988210 0.0334598 0.9988210 0.0334598 0.0011790 -0.0334598
8513927 0.0011343 -0.0327836 0.9988657 0.0327836 0.9988657 0.0327836 0.0011343 -0.0327836
8686058 0.0010913 -0.0321204 0.9989087 0.0321204 0.9989087 0.0321204 0.0010913 -0.0321204
8861669 0.0010501 -0.0314699 0.9989499 0.0314699 0.9989499 0.0314699 0.0010501 -0.0314699
9040831 0.0010105 -0.0308319 0.9989895 0.0308319 0.9989895 0.0308319 0.0010105 -0.0308319
9223615 0.0009724 -0.0302062 0.9990276 0.0302062 0.9990276 0.0302062 0.0009724 -0.0302062
9410094 0.0009359 -0.0295925 0.9990641 0.0295925 0.9990641 0.0295925 0.0009359 -0.0295925
9600343 0.0009008 -0.0289906 0.9990992 0.0289906 0.9990992 0.0289906 0.0009008 -0.0289906
9794439 0.0008671 -0.0284002 0.9991329 0.0284002 0.9991329 0.0284002 0.0008671 -0.0284002
9992459 0.0008348 -0.0278211 0.9991652 0.0278211 0.9991652 0.0278211 0.0008348 -0.0278211
10194482 0.0008037 -0.0272531 0.9991963 0.0272531 0.9991963 0.0272531 0.0008037 -0.0272531
10400590 0.0007739 -0.0266960 0.9992261 0.0266960 0.9992261 0.0266960 0.0007739 -0.0266960
10610865 0.0007452 -0.0261495 0.9992548 0.0261495 0.9992548 0.0261495 0.0007452 -0.0261495
10825391 0.0007177 -0.0256134 0.9992823 0.0256134 0.9992823 0.0256134 0.0007177 -0.0256134
11044254 0.0006914 -0.0250875 0.9993086 0.0250875 0.9993086 0.0250875 0.0006914 -0.0250875
11267542 0.0006660 -0.0245716 0.9993340 0.0245716 0.9993340 0.0245716 0.0006660 -0.0245716
11495344 0.0006417 -0.0240655 0.9993583 0.0240655 0.9993583 0.0240655 0.0006417 -0.0240655
11727752 0.0006184 -0.0235690 0.9993816 0.0235690 0.9993816 0.0235690 0.0006184 -0.0235690
11964859 0.0005960 -0.0230820 0.9994040 0.0230820 0.9994040 0.0230820 0.0005960 -0.0230820
12206760 0.0005745 -0.0226041 0.9994255 0.0226041 0.9994255 0.0226041 0.0005745 -0.0226041
12453551 0.0005539 -0.0221353 0.9994461 0.0221353 0.9994461 0.0221353 0.0005539 -0.0221353
12705331 0.0005341 -0.0216752 0.9994659 0.0216752 0.9994659 0.0216752 0.0005341 -0.0216752
12962202 0.0005151 -0.0212239 0.9994849 0.0212239 0.9994849 0.0212239 0.0005151 -0.0212239
13224267 0.0004969 -0.0207810 0.9995031 0.0207810 0.9995031 0.0207810 0.0004969 -0.0207810
13491630 0.0004795 -0.0203464 0.9995205 0.0203464 0.9995205 0.0203464 0.0004795 -0.0203464
13764398 0.0004628 -0.0199200 0.9995372 0.0199200 0.9995372 0.0199200 0.0004628 -0.0199200
14042680 0.0004467 -0.0195015 0.9995533 0.0195015 0.9995533 0.0195015 0.0004467 -0.0195015
14326589 0.0004313 -0.0190908 0.9995687 0.0190908 0.9995687 0.0190908 0.0004313 -0.0190908
14616238 0.0004166 -0.0186878 0.9995834 0.0186878 0.9995834 0.0186878 0.0004166 -0.0186878
14911743 0.0004025 -0.0182922 0.9995975 0.0182922 0.9995975 0.0182922 0.0004025 -0.0182922
15213223 0.0003890 -0.0179039 0.9996110 0.0179039 0.9996110 0.0179039 0.0003890 -0.0179039
15520797 0.0003760 -0.0175228 0.9996240 0.0175228 0.9996240 0.0175228 0.0003760 -0.0175228
15834590 0.0003636 -0.0171487 0.9996364 0.0171487 0.9996364 0.0171487 0.0003636 -0.0171487
16154727 0.0003517 -0.0167815 0.9996483 0.0167815 0.9996483 0.0167815 0.0003517 -0.0167815
16481337 0.0003403 -0.0164209 0.9996597 0.0164209 0.9996597 0.0164209 0.0003403 -0.0164209
16814550 0.0003295 -0.0160670 0.9996705 0.0160670 0.9996705 0.0160670 0.0003295 -0.0160670
17154499 0.0003191 -0.0157195 0.9996809 0.0157195 0.9996809 0.0157195 0.0003191 -0.0157195
17501322 0.0003091 -0.0153783 0.9996909 0.0153783 0.9996909 0.0153783 0.0003091 -0.0153783
17855156 0.0002996 -0.0150432 0.9997004 0.0150432 0.9997004 0.0150432 0.0002996 -0.0150432
18216144 0.0002905 -0.0147142 0.9997095 0.0147142 0.9997095 0.0147142 0.0002905 -0.0147142
18584431 0.0002818 -0.0143911 0.9997182 0.0143911 0.9997182 0.0143911 0.0002818 -0.0143911
18960163 0.0002735 -0.0140737 0.9997265 0.0140737 0.9997265 0.0140737 0.0002735 -0.0140737
19343491 0.0002656 -0.0137620 0.9997344 0.0137620 0.9997344 0.0137620 0.0002656 -0.0137620
19734570 0.0002581 -0.0134558 0.9997419 0.0134558 0.9997419 0.0134558 0.0002581 -0.0134558
20133555 0.0002509 -0.0131550 0.9997491 0.0131550 0.9997491 0.0131550 0.0002509 -0.0131550
20540607 0.0002441 -0.0128594 0.9997559 0.0128594 0.9997559 0.0128594 0.0002441 -0.0128594
20955888 0.0002375 -0.0125690 0.9997625 0.0125690 0.9997625 0.0125690 0.0002375 -0.0125690
21379566 0.0002313 -0.0122837 0.9997687 0.0122837 0.9997687 0.0122837 0.0002313 -0.0122837
21811809 0.0002254 -0.0120033 0.9997746 0.0120033 0.9997746 0.0120033 0.0002254 -0.0120033
22252791 0.0002198 -0.0117277 0.9997802 0.0117277 0.9997802 0.0117277 0.0002198 -0.0117277
22702688 0.0002145 -0.0114569 0.9997855 0.0114569 0.9997855 0.0114569 0.0002145 -0.0114569
23161682 0.0002095 -0.0111906 0.9997905 0.0111906 0.9997905 0.0111906 0.0002095 -0.0111906
23629955 0.0002047 -0.0109288 0.9997953 0.0109288 0.9997953 0.0109288 0.0002047 -0.0109288
24107696 0.0002002 -0.0106714 0.9997998 0.0106714 0.9997998 0.0106714 0.0002002 -0.0106714
24595095 0.0001959 -0.0104183 0.9998041 0.0104183 0.9998041 0.0104183 0.0001959 -0.0104183
25092348 0.0001919 -0.0101694 0.9998081 0.0101694 0.9998081 0.0101694 0.0001919 -0.0101694
25599655 0.0001881 -0.0099246 0.9998119 0.0099246 0.9998119 0.0099246 0.0001881 -0.0099246
26117218 0.0001845 -0.0096838 0.9998155 0.0096838 0.9998155 0.0096838 0.0001845 -0.0096838
26645245 0.0001812 -0.0094468 0.9998188 0.0094468 0.9998188 0.0094468 0.0001812 -0.0094468
27183947 0.0001780 -0.0092137 0.9998220 0.0092137 0.9998220 0.0092137 0.0001780 -0.0092137
27733541 0.0001751 -0.0089843 0.9998249 0.0089843 0.9998249 0.0089843 0.0001751 -0.0089843
28294246 0.0001724 -0.0087585 0.9998276 0.0087585 0.9998276 0.0087585 0.0001724 -0.0087585
28866287 0.0001698 -0.0085362 0.9998302 0.0085362 0.9998302 0.0085362 0.0001698 -0.0085362
29449894 0.0001675 -0.0083173 0.9998325 0.0083173 0.9998325 0.0083173 0.0001675 -0.0083173
30045299 0.0001653 -0.0081018 0.9998347 0.0081018 0.9998347 0.0081018 0.0001653 -0.0081018
30652742 0.0001633 -0.0078895 0.9998367 0.0078895 0.9998367 0.0078895 0.0001633 -0.0078895
31272467 0.0001615 -0.0076805 0.9998385 0.0076805 0.9998385 0.0076805 0.0001615 -0.0076805
31904720 0.0001598 -0.0074745 0.9998402 0.0074745 0.9998402 0.0074745 0.0001598 -0.0074745
32549757 0.0001583 -0.0072715 0.9998417 0.0072715 0.9998417 0.0072715 0.0001583 -0.0072715
33207834 0.0001569 -0.0070715 0.9998431 0.0070715 0.9998431 0.0070715 0.0001569 -0.0070715
33879216 0.0001557 -0.0068742 0.9998443 0.0068742 0.9998443 0.0068742 0.0001557 -0.0068742
34564172 0.0001547 -0.0066798 0.9998453 0.0066798 0.9998453 0.0066798 0.0001547 -0.0066798
35262976 0.0001538 -0.0064880 0.9998462 0.0064880 0.9998462 0.0064880 0.0001538 -0.0064880
35975908 0.0001530 -0.0062989 0.9998470 0.0062989 0.9998470 0.0062989 0.0001530 -0.0062989
36703254 0.0001524 -0.0061123 0.9998476 0.0061123 0.9998476 0.0061123 0.0001524 -0.0061123
37445305 0.0001519 -0.0059281 0.9998481 0.0059281 0.9998481 0.0059281 0.0001519 -0.0059281
38202358 0.0001516 -0.0057463 0.9998484 0.0057463 0.9998484 0.0057463 0.0001516 -0.0057463
38974717 0.0001513 -0.0055668 0.9998487 0.0055668 0.9998487 0.0055668 0.0001513 -0.0055668
39762692 0.0001512 -0.0053896 0.9998488 0.0053896 0.9998488 0.0053896 0.0001512 -0.0053896
40566597 0.0001513 -0.0052145 0.9998487 0.0052145 0.9998487 0.0052145 0.0001513 -0.0052145
41386756 0.0001514 -0.0050414 0.9998486 0.0050414 0.9998486 0.0050414 0.0001514 -0.0050414
42223496 0.0001517 -0.0048704 0.9998483 0.0048704 0.9998483 0.0048704 0.0001517 -0.0048704
43077153 0.0001521 -0.0047014 0.9998479 0.0047014 0.9998479 0.0047014 0.0001521 -0.0047014
43948069 0.0001526 -0.0045342 0.9998474 0.0045342 0.9998474 0.0045342 0.0001526 -0.0045342
44836592 0.0001532 -0.0043688 0.9998468 0.0043688 0.9998468 0.0043688 0.0001532 -0.0043688
45743080 0.0001540 -0.0042051 0.9998460 0.0042051 0.9998460 0.0042051 0.0001540 -0.0042051
46667894 0.0001548 -0.0040430 0.9998452 0.0040430 0.9998452 0.0040430 0.0001548 -0.0040430
47611406 0.0001558 -0.0038826 0.9998442 0.0038826 0.9998442 0.0038826 0.0001558 -0.0038826
48573993 0.0001569 -0.0037237 0.9998431 0.0037237 0.9998431 0.0037237 0.0001569 -0.0037237
49556042 0.0001581 -0.0035662 0.9998419 0.0035662 0.9998419 0.0035662 0.0001581 -0.0035662
50557945 0.0001595 -0.0034101 0.9998405 0.0034101 0.9998405 0.0034101 0.0001595 -0.0034101
51580105 0.0001609 -0.0032553 0.9998391 0.0032553 0.9998391 0.0032553 0.0001609 -0.0032553
52622929 0.0001625 -0.0031018 0.9998375 0.0031018 0.9998375 0.0031018 0.0001625 -0.0031018
53686838 0.0001642 -0.0029494 0.9998358 0.0029494 0.9998358 0.0029494 0.0001642 -0.0029494
54772256 0.0001660 -0.0027982 0.9998340 0.0027982 0.9998340 0.0027982 0.0001660 -0.0027982
55879618 0.0001679 -0.0026479 0.9998321 0.0026479 0.9998321 0.0026479 0.0001679 -0.0026479
57009369 0.0001700 -0.0024987 0.9998300 0.0024987 0.9998300 0.0024987 0.0001700 -0.0024987
58161960 0.0001722 -0.0023503 0.9998278 0.0023503 0.9998278 0.0023503 0.0001722 -0.0023503
59337855 0.0001745 -0.0022028 0.9998255 0.0022028 0.9998255 0.0022028 0.0001745 -0.0022028
60537522 0.0001770 -0.0020560 0.9998230 0.0020560 0.9998230 0.0020560 0.0001770 -0.0020560
61761445 0.0001796 -0.0019098 0.9998204 0.0019098 0.9998204 0.0019098 0.0001796 -0.0019098
63010112 0.0001824 -0.0017643 0.9998176 0.0017643 0.9998176 0.0017643 0.0001824 -0.0017643
64284024 0.0001853 -0.0016194 0.9998147 0.0016194 0.9998147 0.0016194 0.0001853 -0.0016194
65583691 0.0001884 -0.0014749 0.9998116 0.0014749 0.9998116 0.0014749 0.0001884 -0.0014749
66909635 0.0001916 -0.0013307 0.9998084 0.0013307 0.9998084 0.0013307 0.0001916 -0.0013307
68262386 0.0001950 -0.0011869 0.9998050 0.0011869 0.9998050 0.0011869 0.0001950 -0.0011869
69642486 0.0001986 -0.0010434 0.9998014 0.0010434 0.9998014 0.0010434 0.0001986 -0.0010434
71050488 0.0002024 -0.0008999 0.9997976 0.0008999 0.9997976 0.0008999 0.0002024 -0.0008999
72486957 0.0002063 -0.0007566 0.9997937 0.0007566 0.9997937 0.0007566 0.0002063 -0.0007566
73952468 0.0002105 -0.0006132 0.9997895 0.0006132 0.9997895 0.0006132 0.0002105 -0.0006132
