!Murata Part Number: GRM32A7U3D121JW31
!These Parameters are Measured in Series Mode Connection
!Data Generated on Mar 30, 2021
!       o--ll--o
!Port1            Port2
!       o------o
!Operation Temp=25[degC], DC Bias Voltage=0[V]
!Freq. Start=100[MHz] Stop=3[GHz] 401[Steps]
# Hz S RI R 50
!Freq.(Hz) S11(Real) S11(Imag) S21(Real) S21(Imag) S12(Real) S12(Imag) S22(Real) S22(Imag)
100000000 0.0171791 -0.1268291 0.9828209 0.1268291 0.9828209 0.1268291 0.0171791 -0.1268291
107250000 0.0149593 -0.1180426 0.9850407 0.1180426 0.9850407 0.1180426 0.0149593 -0.1180426
114500000 0.0131410 -0.1102903 0.9868590 0.1102903 0.9868590 0.1102903 0.0131410 -0.1102903
121750000 0.0116335 -0.1033973 0.9883665 0.1033973 0.9883665 0.1033973 0.0116335 -0.1033973
129000000 0.0103702 -0.0972256 0.9896298 0.0972256 0.9896298 0.0972256 0.0103702 -0.0972256
136250000 0.0093014 -0.0916649 0.9906986 0.0916649 0.9906986 0.0916649 0.0093014 -0.0916649
143500000 0.0083895 -0.0866259 0.9916105 0.0866259 0.9916105 0.0866259 0.0083895 -0.0866259
150750000 0.0076054 -0.0820361 0.9923946 0.0820361 0.9923946 0.0820361 0.0076054 -0.0820361
158000000 0.0069265 -0.0778353 0.9930735 0.0778353 0.9930735 0.0778353 0.0069265 -0.0778353
165250000 0.0063351 -0.0739739 0.9936649 0.0739739 0.9936649 0.0739739 0.0063351 -0.0739739
172500000 0.0058169 -0.0704101 0.9941831 0.0704101 0.9941831 0.0704101 0.0058169 -0.0704101
179750000 0.0053605 -0.0671088 0.9946395 0.0671088 0.9946395 0.0671088 0.0053605 -0.0671088
187000000 0.0049567 -0.0640400 0.9950433 0.0640400 0.9950433 0.0640400 0.0049567 -0.0640400
194250000 0.0045977 -0.0611782 0.9954023 0.0611782 0.9954023 0.0611782 0.0045977 -0.0611782
201500000 0.0042774 -0.0585015 0.9957226 0.0585015 0.9957226 0.0585015 0.0042774 -0.0585015
208750000 0.0039906 -0.0559910 0.9960094 0.0559910 0.9960094 0.0559910 0.0039906 -0.0559910
216000000 0.0037328 -0.0536300 0.9962672 0.0536300 0.9962672 0.0536300 0.0037328 -0.0536300
223250000 0.0035005 -0.0514044 0.9964995 0.0514044 0.9964995 0.0514044 0.0035005 -0.0514044
230500000 0.0032905 -0.0493014 0.9967095 0.0493014 0.9967095 0.0493014 0.0032905 -0.0493014
237750000 0.0031002 -0.0473099 0.9968998 0.0473099 0.9968998 0.0473099 0.0031002 -0.0473099
245000000 0.0029273 -0.0454203 0.9970727 0.0454203 0.9970727 0.0454203 0.0029273 -0.0454203
252250000 0.0027700 -0.0436238 0.9972300 0.0436238 0.9972300 0.0436238 0.0027700 -0.0436238
259500000 0.0026264 -0.0419126 0.9973736 0.0419126 0.9973736 0.0419126 0.0026264 -0.0419126
266750000 0.0024952 -0.0402799 0.9975048 0.0402799 0.9975048 0.0402799 0.0024952 -0.0402799
274000000 0.0023751 -0.0387194 0.9976249 0.0387194 0.9976249 0.0387194 0.0023751 -0.0387194
281250000 0.0022650 -0.0372257 0.9977350 0.0372257 0.9977350 0.0372257 0.0022650 -0.0372257
288500000 0.0021640 -0.0357937 0.9978360 0.0357937 0.9978360 0.0357937 0.0021640 -0.0357937
295750000 0.0020711 -0.0344190 0.9979289 0.0344190 0.9979289 0.0344190 0.0020711 -0.0344190
303000000 0.0019857 -0.0330973 0.9980143 0.0330973 0.9980143 0.0330973 0.0019857 -0.0330973
310250000 0.0019070 -0.0318251 0.9980930 0.0318251 0.9980930 0.0318251 0.0019070 -0.0318251
317500000 0.0018346 -0.0305989 0.9981654 0.0305989 0.9981654 0.0305989 0.0018346 -0.0305989
324750000 0.0017678 -0.0294157 0.9982322 0.0294157 0.9982322 0.0294157 0.0017678 -0.0294157
332000000 0.0017062 -0.0282726 0.9982938 0.0282726 0.9982938 0.0282726 0.0017062 -0.0282726
339250000 0.0016494 -0.0271671 0.9983506 0.0271671 0.9983506 0.0271671 0.0016494 -0.0271671
346500000 0.0015971 -0.0260969 0.9984029 0.0260969 0.9984029 0.0260969 0.0015971 -0.0260969
353750000 0.0015488 -0.0250596 0.9984512 0.0250596 0.9984512 0.0250596 0.0015488 -0.0250596
361000000 0.0015042 -0.0240535 0.9984958 0.0240535 0.9984958 0.0240535 0.0015042 -0.0240535
368250000 0.0014632 -0.0230766 0.9985368 0.0230766 0.9985368 0.0230766 0.0014632 -0.0230766
375500000 0.0014254 -0.0221272 0.9985746 0.0221272 0.9985746 0.0221272 0.0014254 -0.0221272
382750000 0.0013906 -0.0212037 0.9986094 0.0212037 0.9986094 0.0212037 0.0013906 -0.0212037
390000000 0.0013587 -0.0203047 0.9986413 0.0203047 0.9986413 0.0203047 0.0013587 -0.0203047
397250000 0.0013294 -0.0194289 0.9986706 0.0194289 0.9986706 0.0194289 0.0013294 -0.0194289
404500000 0.0013025 -0.0185750 0.9986975 0.0185750 0.9986975 0.0185750 0.0013025 -0.0185750
411750000 0.0012780 -0.0177418 0.9987220 0.0177418 0.9987220 0.0177418 0.0012780 -0.0177418
419000000 0.0012557 -0.0169283 0.9987443 0.0169283 0.9987443 0.0169283 0.0012557 -0.0169283
426250000 0.0012354 -0.0161333 0.9987646 0.0161333 0.9987646 0.0161333 0.0012354 -0.0161333
433500000 0.0012171 -0.0153561 0.9987829 0.0153561 0.9987829 0.0153561 0.0012171 -0.0153561
440750000 0.0012005 -0.0145957 0.9987995 0.0145957 0.9987995 0.0145957 0.0012005 -0.0145957
448000000 0.0011857 -0.0138512 0.9988143 0.0138512 0.9988143 0.0138512 0.0011857 -0.0138512
455250000 0.0011726 -0.0131219 0.9988274 0.0131219 0.9988274 0.0131219 0.0011726 -0.0131219
462500000 0.0011610 -0.0124071 0.9988390 0.0124071 0.9988390 0.0124071 0.0011610 -0.0124071
469750000 0.0011508 -0.0117060 0.9988492 0.0117060 0.9988492 0.0117060 0.0011508 -0.0117060
477000000 0.0011421 -0.0110181 0.9988579 0.0110181 0.9988579 0.0110181 0.0011421 -0.0110181
484250000 0.0011347 -0.0103428 0.9988653 0.0103428 0.9988653 0.0103428 0.0011347 -0.0103428
491500000 0.0011286 -0.0096794 0.9988714 0.0096794 0.9988714 0.0096794 0.0011286 -0.0096794
498750000 0.0011237 -0.0090274 0.9988763 0.0090274 0.9988763 0.0090274 0.0011237 -0.0090274
506000000 0.0011200 -0.0083863 0.9988800 0.0083863 0.9988800 0.0083863 0.0011200 -0.0083863
513250000 0.0011174 -0.0077557 0.9988826 0.0077557 0.9988826 0.0077557 0.0011174 -0.0077557
520500000 0.0011158 -0.0071351 0.9988842 0.0071351 0.9988842 0.0071351 0.0011158 -0.0071351
527750000 0.0011153 -0.0065241 0.9988847 0.0065241 0.9988847 0.0065241 0.0011153 -0.0065241
535000000 0.0011158 -0.0059222 0.9988842 0.0059222 0.9988842 0.0059222 0.0011158 -0.0059222
542250000 0.0011173 -0.0053291 0.9988827 0.0053291 0.9988827 0.0053291 0.0011173 -0.0053291
549500000 0.0011197 -0.0047445 0.9988803 0.0047445 0.9988803 0.0047445 0.0011197 -0.0047445
556750000 0.0011230 -0.0041679 0.9988770 0.0041679 0.9988770 0.0041679 0.0011230 -0.0041679
564000000 0.0011272 -0.0035990 0.9988728 0.0035990 0.9988728 0.0035990 0.0011272 -0.0035990
571250000 0.0011322 -0.0030376 0.9988678 0.0030376 0.9988678 0.0030376 0.0011322 -0.0030376
578500000 0.0011380 -0.0024833 0.9988620 0.0024833 0.9988620 0.0024833 0.0011380 -0.0024833
585750000 0.0011446 -0.0019359 0.9988554 0.0019359 0.9988554 0.0019359 0.0011446 -0.0019359
593000000 0.0011520 -0.0013950 0.9988480 0.0013950 0.9988480 0.0013950 0.0011520 -0.0013950
600250000 0.0011602 -0.0008605 0.9988398 0.0008605 0.9988398 0.0008605 0.0011602 -0.0008605
607500000 0.0011690 -0.0003321 0.9988310 0.0003321 0.9988310 0.0003321 0.0011690 -0.0003321
614750000 0.0011786 0.0001905 0.9988214 -0.0001905 0.9988214 -0.0001905 0.0011786 0.0001905
622000000 0.0011890 0.0007074 0.9988110 -0.0007074 0.9988110 -0.0007074 0.0011890 0.0007074
629250000 0.0011999 0.0012189 0.9988001 -0.0012189 0.9988001 -0.0012189 0.0011999 0.0012189
636500000 0.0012116 0.0017252 0.9987884 -0.0017252 0.9987884 -0.0017252 0.0012116 0.0017252
643750000 0.0012239 0.0022265 0.9987761 -0.0022265 0.9987761 -0.0022265 0.0012239 0.0022265
651000000 0.0012369 0.0027230 0.9987631 -0.0027230 0.9987631 -0.0027230 0.0012369 0.0027230
658250000 0.0012505 0.0032147 0.9987495 -0.0032147 0.9987495 -0.0032147 0.0012505 0.0032147
665500000 0.0012648 0.0037020 0.9987352 -0.0037020 0.9987352 -0.0037020 0.0012648 0.0037020
672750000 0.0012797 0.0041850 0.9987203 -0.0041850 0.9987203 -0.0041850 0.0012797 0.0041850
680000000 0.0012952 0.0046638 0.9987048 -0.0046638 0.9987048 -0.0046638 0.0012952 0.0046638
687250000 0.0013112 0.0051386 0.9986888 -0.0051386 0.9986888 -0.0051386 0.0013112 0.0051386
694500000 0.0013279 0.0056095 0.9986721 -0.0056095 0.9986721 -0.0056095 0.0013279 0.0056095
701750000 0.0013452 0.0060767 0.9986548 -0.0060767 0.9986548 -0.0060767 0.0013452 0.0060767
709000000 0.0013631 0.0065403 0.9986369 -0.0065403 0.9986369 -0.0065403 0.0013631 0.0065403
716250000 0.0013815 0.0070004 0.9986185 -0.0070004 0.9986185 -0.0070004 0.0013815 0.0070004
723500000 0.0014006 0.0074572 0.9985994 -0.0074572 0.9985994 -0.0074572 0.0014006 0.0074572
730750000 0.0014202 0.0079107 0.9985798 -0.0079107 0.9985798 -0.0079107 0.0014202 0.0079107
738000000 0.0014403 0.0083612 0.9985597 -0.0083612 0.9985597 -0.0083612 0.0014403 0.0083612
745250000 0.0014611 0.0088086 0.9985389 -0.0088086 0.9985389 -0.0088086 0.0014611 0.0088086
752500000 0.0014824 0.0092532 0.9985176 -0.0092532 0.9985176 -0.0092532 0.0014824 0.0092532
759750000 0.0015042 0.0096950 0.9984958 -0.0096950 0.9984958 -0.0096950 0.0015042 0.0096950
767000000 0.0015267 0.0101340 0.9984733 -0.0101340 0.9984733 -0.0101340 0.0015267 0.0101340
774250000 0.0015496 0.0105705 0.9984504 -0.0105705 0.9984504 -0.0105705 0.0015496 0.0105705
781500000 0.0015732 0.0110045 0.9984268 -0.0110045 0.9984268 -0.0110045 0.0015732 0.0110045
788750000 0.0015973 0.0114361 0.9984027 -0.0114361 0.9984027 -0.0114361 0.0015973 0.0114361
796000000 0.0016220 0.0118654 0.9983780 -0.0118654 0.9983780 -0.0118654 0.0016220 0.0118654
803250000 0.0016472 0.0122925 0.9983528 -0.0122925 0.9983528 -0.0122925 0.0016472 0.0122925
810500000 0.0016730 0.0127174 0.9983270 -0.0127174 0.9983270 -0.0127174 0.0016730 0.0127174
817750000 0.0016994 0.0131402 0.9983006 -0.0131402 0.9983006 -0.0131402 0.0016994 0.0131402
825000000 0.0017263 0.0135611 0.9982737 -0.0135611 0.9982737 -0.0135611 0.0017263 0.0135611
832250000 0.0017538 0.0139800 0.9982462 -0.0139800 0.9982462 -0.0139800 0.0017538 0.0139800
839500000 0.0017819 0.0143971 0.9982181 -0.0143971 0.9982181 -0.0143971 0.0017819 0.0143971
846750000 0.0018106 0.0148124 0.9981894 -0.0148124 0.9981894 -0.0148124 0.0018106 0.0148124
854000000 0.0018398 0.0152260 0.9981602 -0.0152260 0.9981602 -0.0152260 0.0018398 0.0152260
861250000 0.0018696 0.0156380 0.9981304 -0.0156380 0.9981304 -0.0156380 0.0018696 0.0156380
868500000 0.0019000 0.0160484 0.9981000 -0.0160484 0.9981000 -0.0160484 0.0019000 0.0160484
875750000 0.0019310 0.0164574 0.9980690 -0.0164574 0.9980690 -0.0164574 0.0019310 0.0164574
883000000 0.0019626 0.0168648 0.9980374 -0.0168648 0.9980374 -0.0168648 0.0019626 0.0168648
890250000 0.0019948 0.0172709 0.9980052 -0.0172709 0.9980052 -0.0172709 0.0019948 0.0172709
897500000 0.0020276 0.0176757 0.9979724 -0.0176757 0.9979724 -0.0176757 0.0020276 0.0176757
904750000 0.0020611 0.0180793 0.9979389 -0.0180793 0.9979389 -0.0180793 0.0020611 0.0180793
912000000 0.0020951 0.0184816 0.9979049 -0.0184816 0.9979049 -0.0184816 0.0020951 0.0184816
919250000 0.0021298 0.0188828 0.9978702 -0.0188828 0.9978702 -0.0188828 0.0021298 0.0188828
926500000 0.0021651 0.0192828 0.9978349 -0.0192828 0.9978349 -0.0192828 0.0021651 0.0192828
933750000 0.0022011 0.0196819 0.9977989 -0.0196819 0.9977989 -0.0196819 0.0022011 0.0196819
941000000 0.0022377 0.0200799 0.9977623 -0.0200799 0.9977623 -0.0200799 0.0022377 0.0200799
948250000 0.0022750 0.0204771 0.9977250 -0.0204771 0.9977250 -0.0204771 0.0022750 0.0204771
955500000 0.0023130 0.0208733 0.9976870 -0.0208733 0.9976870 -0.0208733 0.0023130 0.0208733
962750000 0.0023517 0.0212687 0.9976483 -0.0212687 0.9976483 -0.0212687 0.0023517 0.0212687
970000000 0.0023910 0.0216633 0.9976090 -0.0216633 0.9976090 -0.0216633 0.0023910 0.0216633
977250000 0.0024311 0.0220572 0.9975689 -0.0220572 0.9975689 -0.0220572 0.0024311 0.0220572
984500000 0.0024719 0.0224504 0.9975281 -0.0224504 0.9975281 -0.0224504 0.0024719 0.0224504
991750000 0.0025134 0.0228430 0.9974866 -0.0228430 0.9974866 -0.0228430 0.0025134 0.0228430
999000000 0.0025557 0.0232350 0.9974443 -0.0232350 0.9974443 -0.0232350 0.0025557 0.0232350
1006250000 0.0025987 0.0236264 0.9974013 -0.0236264 0.9974013 -0.0236264 0.0025987 0.0236264
1013500000 0.0026425 0.0240173 0.9973575 -0.0240173 0.9973575 -0.0240173 0.0026425 0.0240173
1020750000 0.0026871 0.0244077 0.9973129 -0.0244077 0.9973129 -0.0244077 0.0026871 0.0244077
1028000000 0.0027325 0.0247977 0.9972675 -0.0247977 0.9972675 -0.0247977 0.0027325 0.0247977
1035250000 0.0027787 0.0251874 0.9972213 -0.0251874 0.9972213 -0.0251874 0.0027787 0.0251874
1042500000 0.0028258 0.0255767 0.9971742 -0.0255767 0.9971742 -0.0255767 0.0028258 0.0255767
1049750000 0.0028737 0.0259658 0.9971263 -0.0259658 0.9971263 -0.0259658 0.0028737 0.0259658
1057000000 0.0029224 0.0263545 0.9970776 -0.0263545 0.9970776 -0.0263545 0.0029224 0.0263545
1064250000 0.0029721 0.0267431 0.9970279 -0.0267431 0.9970279 -0.0267431 0.0029721 0.0267431
1071500000 0.0030227 0.0271316 0.9969773 -0.0271316 0.9969773 -0.0271316 0.0030227 0.0271316
1078750000 0.0030742 0.0275199 0.9969258 -0.0275199 0.9969258 -0.0275199 0.0030742 0.0275199
1086000000 0.0031267 0.0279081 0.9968733 -0.0279081 0.9968733 -0.0279081 0.0031267 0.0279081
1093250000 0.0031802 0.0282963 0.9968198 -0.0282963 0.9968198 -0.0282963 0.0031802 0.0282963
1100500000 0.0032347 0.0286845 0.9967653 -0.0286845 0.9967653 -0.0286845 0.0032347 0.0286845
1107750000 0.0032902 0.0290727 0.9967098 -0.0290727 0.9967098 -0.0290727 0.0032902 0.0290727
1115000000 0.0033468 0.0294610 0.9966532 -0.0294610 0.9966532 -0.0294610 0.0033468 0.0294610
1122250000 0.0034044 0.0298495 0.9965956 -0.0298495 0.9965956 -0.0298495 0.0034044 0.0298495
1129500000 0.0034632 0.0302381 0.9965368 -0.0302381 0.9965368 -0.0302381 0.0034632 0.0302381
1136750000 0.0035231 0.0306269 0.9964769 -0.0306269 0.9964769 -0.0306269 0.0035231 0.0306269
1144000000 0.0035842 0.0310159 0.9964158 -0.0310159 0.9964158 -0.0310159 0.0035842 0.0310159
1151250000 0.0036465 0.0314053 0.9963535 -0.0314053 0.9963535 -0.0314053 0.0036465 0.0314053
1158500000 0.0037101 0.0317950 0.9962899 -0.0317950 0.9962899 -0.0317950 0.0037101 0.0317950
1165750000 0.0037749 0.0321850 0.9962251 -0.0321850 0.9962251 -0.0321850 0.0037749 0.0321850
1173000000 0.0038411 0.0325754 0.9961589 -0.0325754 0.9961589 -0.0325754 0.0038411 0.0325754
1180250000 0.0039086 0.0329663 0.9960914 -0.0329663 0.9960914 -0.0329663 0.0039086 0.0329663
1187500000 0.0039775 0.0333577 0.9960225 -0.0333577 0.9960225 -0.0333577 0.0039775 0.0333577
1194750000 0.0040479 0.0337496 0.9959521 -0.0337496 0.9959521 -0.0337496 0.0040479 0.0337496
1202000000 0.0041198 0.0341421 0.9958802 -0.0341421 0.9958802 -0.0341421 0.0041198 0.0341421
1209250000 0.0041932 0.0345352 0.9958068 -0.0345352 0.9958068 -0.0345352 0.0041932 0.0345352
1216500000 0.0042682 0.0349290 0.9957318 -0.0349290 0.9957318 -0.0349290 0.0042682 0.0349290
1223750000 0.0043449 0.0353234 0.9956551 -0.0353234 0.9956551 -0.0353234 0.0043449 0.0353234
1231000000 0.0044233 0.0357186 0.9955767 -0.0357186 0.9955767 -0.0357186 0.0044233 0.0357186
1238250000 0.0045034 0.0361145 0.9954966 -0.0361145 0.9954966 -0.0361145 0.0045034 0.0361145
1245500000 0.0045854 0.0365113 0.9954146 -0.0365113 0.9954146 -0.0365113 0.0045854 0.0365113
1252750000 0.0046692 0.0369089 0.9953308 -0.0369089 0.9953308 -0.0369089 0.0046692 0.0369089
1260000000 0.0047551 0.0373074 0.9952449 -0.0373074 0.9952449 -0.0373074 0.0047551 0.0373074
1267250000 0.0048429 0.0377069 0.9951571 -0.0377069 0.9951571 -0.0377069 0.0048429 0.0377069
1274500000 0.0049329 0.0381073 0.9950671 -0.0381073 0.9950671 -0.0381073 0.0049329 0.0381073
1281750000 0.0050251 0.0385088 0.9949749 -0.0385088 0.9949749 -0.0385088 0.0050251 0.0385088
1289000000 0.0051195 0.0389113 0.9948805 -0.0389113 0.9948805 -0.0389113 0.0051195 0.0389113
1296250000 0.0052163 0.0393149 0.9947837 -0.0393149 0.9947837 -0.0393149 0.0052163 0.0393149
1303500000 0.0053155 0.0397196 0.9946845 -0.0397196 0.9946845 -0.0397196 0.0053155 0.0397196
1310750000 0.0054173 0.0401256 0.9945827 -0.0401256 0.9945827 -0.0401256 0.0054173 0.0401256
1318000000 0.0055218 0.0405327 0.9944782 -0.0405327 0.9944782 -0.0405327 0.0055218 0.0405327
1325250000 0.0056290 0.0409411 0.9943710 -0.0409411 0.9943710 -0.0409411 0.0056290 0.0409411
1332500000 0.0057392 0.0413508 0.9942608 -0.0413508 0.9942608 -0.0413508 0.0057392 0.0413508
1339750000 0.0058523 0.0417619 0.9941477 -0.0417619 0.9941477 -0.0417619 0.0058523 0.0417619
1347000000 0.0059686 0.0421743 0.9940314 -0.0421743 0.9940314 -0.0421743 0.0059686 0.0421743
1354250000 0.0060881 0.0425881 0.9939119 -0.0425881 0.9939119 -0.0425881 0.0060881 0.0425881
1361500000 0.0062111 0.0430033 0.9937889 -0.0430033 0.9937889 -0.0430033 0.0062111 0.0430033
1368750000 0.0063376 0.0434199 0.9936624 -0.0434199 0.9936624 -0.0434199 0.0063376 0.0434199
1376000000 0.0064679 0.0438381 0.9935321 -0.0438381 0.9935321 -0.0438381 0.0064679 0.0438381
1383250000 0.0066020 0.0442578 0.9933980 -0.0442578 0.9933980 -0.0442578 0.0066020 0.0442578
1390500000 0.0067403 0.0446790 0.9932597 -0.0446790 0.9932597 -0.0446790 0.0067403 0.0446790
1397750000 0.0068828 0.0451017 0.9931172 -0.0451017 0.9931172 -0.0451017 0.0068828 0.0451017
1405000000 0.0070298 0.0455260 0.9929702 -0.0455260 0.9929702 -0.0455260 0.0070298 0.0455260
1412250000 0.0071815 0.0459518 0.9928185 -0.0459518 0.9928185 -0.0459518 0.0071815 0.0459518
1419500000 0.0073381 0.0463792 0.9926619 -0.0463792 0.9926619 -0.0463792 0.0073381 0.0463792
1426750000 0.0074998 0.0468082 0.9925002 -0.0468082 0.9925002 -0.0468082 0.0074998 0.0468082
1434000000 0.0076670 0.0472387 0.9923330 -0.0472387 0.9923330 -0.0472387 0.0076670 0.0472387
1441250000 0.0078398 0.0476708 0.9921602 -0.0476708 0.9921602 -0.0476708 0.0078398 0.0476708
1448500000 0.0080186 0.0481043 0.9919814 -0.0481043 0.9919814 -0.0481043 0.0080186 0.0481043
1455750000 0.0082036 0.0485393 0.9917964 -0.0485393 0.9917964 -0.0485393 0.0082036 0.0485393
1463000000 0.0083952 0.0489757 0.9916048 -0.0489757 0.9916048 -0.0489757 0.0083952 0.0489757
1470250000 0.0085937 0.0494134 0.9914063 -0.0494134 0.9914063 -0.0494134 0.0085937 0.0494134
1477500000 0.0087995 0.0498523 0.9912005 -0.0498523 0.9912005 -0.0498523 0.0087995 0.0498523
1484750000 0.0090130 0.0502924 0.9909870 -0.0502924 0.9909870 -0.0502924 0.0090130 0.0502924
1492000000 0.0092344 0.0507334 0.9907656 -0.0507334 0.9907656 -0.0507334 0.0092344 0.0507334
1499250000 0.0094644 0.0511754 0.9905356 -0.0511754 0.9905356 -0.0511754 0.0094644 0.0511754
1506500000 0.0097032 0.0516180 0.9902968 -0.0516180 0.9902968 -0.0516180 0.0097032 0.0516180
1513750000 0.0099514 0.0520611 0.9900486 -0.0520611 0.9900486 -0.0520611 0.0099514 0.0520611
1521000000 0.0102094 0.0525044 0.9897906 -0.0525044 0.9897906 -0.0525044 0.0102094 0.0525044
1528250000 0.0104778 0.0529477 0.9895222 -0.0529477 0.9895222 -0.0529477 0.0104778 0.0529477
1535500000 0.0107571 0.0533906 0.9892429 -0.0533906 0.9892429 -0.0533906 0.0107571 0.0533906
1542750000 0.0110478 0.0538328 0.9889522 -0.0538328 0.9889522 -0.0538328 0.0110478 0.0538328
1550000000 0.0113506 0.0542739 0.9886494 -0.0542739 0.9886494 -0.0542739 0.0113506 0.0542739
1557250000 0.0116660 0.0547133 0.9883340 -0.0547133 0.9883340 -0.0547133 0.0116660 0.0547133
1564500000 0.0119947 0.0551505 0.9880053 -0.0551505 0.9880053 -0.0551505 0.0119947 0.0551505
1571750000 0.0123374 0.0555849 0.9876626 -0.0555849 0.9876626 -0.0555849 0.0123374 0.0555849
1579000000 0.0126946 0.0560157 0.9873054 -0.0560157 0.9873054 -0.0560157 0.0126946 0.0560157
1586250000 0.0130670 0.0564423 0.9869330 -0.0564423 0.9869330 -0.0564423 0.0130670 0.0564423
1593500000 0.0134554 0.0568636 0.9865446 -0.0568636 0.9865446 -0.0568636 0.0134554 0.0568636
1600750000 0.0138604 0.0572786 0.9861396 -0.0572786 0.9861396 -0.0572786 0.0138604 0.0572786
1608000000 0.0142826 0.0576863 0.9857174 -0.0576863 0.9857174 -0.0576863 0.0142826 0.0576863
1615250000 0.0147227 0.0580853 0.9852773 -0.0580853 0.9852773 -0.0580853 0.0147227 0.0580853
1622500000 0.0151813 0.0584742 0.9848187 -0.0584742 0.9848187 -0.0584742 0.0151813 0.0584742
1629750000 0.0156590 0.0588514 0.9843410 -0.0588514 0.9843410 -0.0588514 0.0156590 0.0588514
