!Murata Part Number: GRM32D7U3A182JW31
!These Parameters are Measured in Series Mode Connection
!Data Generated on Mar 30, 2021
!       o--ll--o
!Port1            Port2
!       o------o
!Operation Temp=25[degC], DC Bias Voltage=0[V]
!Freq. Start=1000[kHz] Stop=3[GHz] 401[Steps]
# Hz S RI R 50
!Freq.(Hz) S11(Real) S11(Imag) S21(Real) S21(Imag) S12(Real) S12(Imag) S22(Real) S22(Imag)
1000000 0.4433326 -0.4967519 0.5566674 0.4967519 0.5566674 0.4967519 0.4433326 -0.4967519
1020218 0.4334763 -0.4955278 0.5665237 0.4955278 0.5665237 0.4955278 0.4334763 -0.4955278
1040844 0.4236723 -0.4941122 0.5763277 0.4941122 0.5763277 0.4941122 0.4236723 -0.4941122
1061887 0.4139280 -0.4925078 0.5860720 0.4925078 0.5860720 0.4925078 0.4139280 -0.4925078
1083356 0.4042507 -0.4907177 0.5957493 0.4907177 0.5957493 0.4907177 0.4042507 -0.4907177
1105259 0.3946472 -0.4887455 0.6053528 0.4887455 0.6053528 0.4887455 0.3946472 -0.4887455
1127605 0.3851243 -0.4865948 0.6148757 0.4865948 0.6148757 0.4865948 0.3851243 -0.4865948
1150402 0.3756886 -0.4842697 0.6243114 0.4842697 0.6243114 0.4842697 0.3756886 -0.4842697
1173660 0.3663463 -0.4817745 0.6336537 0.4817745 0.6336537 0.4817745 0.3663463 -0.4817745
1197389 0.3571034 -0.4791139 0.6428966 0.4791139 0.6428966 0.4791139 0.3571034 -0.4791139
1221597 0.3479656 -0.4762927 0.6520344 0.4762927 0.6520344 0.4762927 0.3479656 -0.4762927
1246295 0.3389384 -0.4733158 0.6610616 0.4733158 0.6610616 0.4733158 0.3389384 -0.4733158
1271492 0.3300267 -0.4701887 0.6699733 0.4701887 0.6699733 0.4701887 0.3300267 -0.4701887
1297199 0.3212355 -0.4669166 0.6787645 0.4669166 0.6787645 0.4669166 0.3212355 -0.4669166
1323425 0.3125692 -0.4635053 0.6874308 0.4635053 0.6874308 0.4635053 0.3125692 -0.4635053
1350181 0.3040319 -0.4599604 0.6959681 0.4599604 0.6959681 0.4599604 0.3040319 -0.4599604
1377479 0.2956275 -0.4562878 0.7043725 0.4562878 0.7043725 0.4562878 0.2956275 -0.4562878
1405328 0.2873595 -0.4524934 0.7126405 0.4524934 0.7126405 0.4524934 0.2873595 -0.4524934
1433740 0.2792310 -0.4485832 0.7207690 0.4485832 0.7207690 0.4485832 0.2792310 -0.4485832
1462727 0.2712449 -0.4445633 0.7287551 0.4445633 0.7287551 0.4445633 0.2712449 -0.4445633
1492300 0.2634036 -0.4404398 0.7365964 0.4404398 0.7365964 0.4404398 0.2634036 -0.4404398
1522470 0.2557095 -0.4362188 0.7442905 0.4362188 0.7442905 0.4362188 0.2557095 -0.4362188
1553251 0.2481644 -0.4319064 0.7518356 0.4319064 0.7518356 0.4319064 0.2481644 -0.4319064
1584654 0.2407698 -0.4275087 0.7592302 0.4275087 0.7592302 0.4275087 0.2407698 -0.4275087
1616692 0.2335271 -0.4230317 0.7664729 0.4230317 0.7664729 0.4230317 0.2335271 -0.4230317
1649378 0.2264372 -0.4184814 0.7735628 0.4184814 0.7735628 0.4184814 0.2264372 -0.4184814
1682724 0.2195010 -0.4138638 0.7804990 0.4138638 0.7804990 0.4138638 0.2195010 -0.4138638
1716745 0.2127187 -0.4091846 0.7872813 0.4091846 0.7872813 0.4091846 0.2127187 -0.4091846
1751453 0.2060906 -0.4044497 0.7939094 0.4044497 0.7939094 0.4044497 0.2060906 -0.4044497
1786863 0.1996166 -0.3996646 0.8003834 0.3996646 0.8003834 0.3996646 0.1996166 -0.3996646
1822989 0.1932964 -0.3948349 0.8067036 0.3948349 0.8067036 0.3948349 0.1932964 -0.3948349
1859846 0.1871295 -0.3899659 0.8128705 0.3899659 0.8128705 0.3899659 0.1871295 -0.3899659
1897447 0.1811152 -0.3850630 0.8188848 0.3850630 0.8188848 0.3850630 0.1811152 -0.3850630
1935809 0.1752524 -0.3801313 0.8247476 0.3801313 0.8247476 0.3801313 0.1752524 -0.3801313
1974946 0.1695401 -0.3751756 0.8304599 0.3751756 0.8304599 0.3751756 0.1695401 -0.3751756
2014875 0.1639769 -0.3702008 0.8360231 0.3702008 0.8360231 0.3702008 0.1639769 -0.3702008
2055611 0.1585613 -0.3652117 0.8414387 0.3652117 0.8414387 0.3652117 0.1585613 -0.3652117
2097170 0.1532918 -0.3602125 0.8467082 0.3602125 0.8467082 0.3602125 0.1532918 -0.3602125
2139570 0.1481665 -0.3552078 0.8518335 0.3552078 0.8518335 0.3552078 0.1481665 -0.3552078
2182827 0.1431835 -0.3502016 0.8568165 0.3502016 0.8568165 0.3502016 0.1431835 -0.3502016
2226959 0.1383409 -0.3451979 0.8616591 0.3451979 0.8616591 0.3451979 0.1383409 -0.3451979
2271982 0.1336364 -0.3402005 0.8663636 0.3402005 0.8663636 0.3402005 0.1336364 -0.3402005
2317916 0.1290679 -0.3352131 0.8709321 0.3352131 0.8709321 0.3352131 0.1290679 -0.3352131
2364779 0.1246331 -0.3302391 0.8753669 0.3302391 0.8753669 0.3302391 0.1246331 -0.3302391
2412589 0.1203295 -0.3252819 0.8796705 0.3252819 0.8796705 0.3252819 0.1203295 -0.3252819
2461366 0.1161548 -0.3203445 0.8838452 0.3203445 0.8838452 0.3203445 0.1161548 -0.3203445
2511129 0.1121064 -0.3154300 0.8878936 0.3154300 0.8878936 0.3154300 0.1121064 -0.3154300
2561897 0.1081818 -0.3105412 0.8918182 0.3105412 0.8918182 0.3105412 0.1081818 -0.3105412
2613693 0.1043784 -0.3056806 0.8956216 0.3056806 0.8956216 0.3056806 0.1043784 -0.3056806
2666535 0.1006935 -0.3008509 0.8993065 0.3008509 0.8993065 0.3008509 0.1006935 -0.3008509
2720446 0.0971246 -0.2960543 0.9028754 0.2960543 0.9028754 0.2960543 0.0971246 -0.2960543
2775447 0.0936690 -0.2912930 0.9063310 0.2912930 0.9063310 0.2912930 0.0936690 -0.2912930
2831560 0.0903239 -0.2865690 0.9096761 0.2865690 0.9096761 0.2865690 0.0903239 -0.2865690
2888807 0.0870868 -0.2818844 0.9129132 0.2818844 0.9129132 0.2818844 0.0870868 -0.2818844
2947212 0.0839549 -0.2772407 0.9160451 0.2772407 0.9160451 0.2772407 0.0839549 -0.2772407
3006797 0.0809256 -0.2726397 0.9190744 0.2726397 0.9190744 0.2726397 0.0809256 -0.2726397
3067588 0.0779963 -0.2680829 0.9220037 0.2680829 0.9220037 0.2680829 0.0779963 -0.2680829
3129607 0.0751642 -0.2635716 0.9248358 0.2635716 0.9248358 0.2635716 0.0751642 -0.2635716
3192880 0.0724269 -0.2591071 0.9275731 0.2591071 0.9275731 0.2591071 0.0724269 -0.2591071
3257432 0.0697817 -0.2546906 0.9302183 0.2546906 0.9302183 0.2546906 0.0697817 -0.2546906
3323290 0.0672260 -0.2503230 0.9327740 0.2503230 0.9327740 0.2503230 0.0672260 -0.2503230
3390478 0.0647574 -0.2460054 0.9352426 0.2460054 0.9352426 0.2460054 0.0647574 -0.2460054
3459026 0.0623733 -0.2417384 0.9376267 0.2417384 0.9376267 0.2417384 0.0623733 -0.2417384
3528959 0.0600713 -0.2375230 0.9399287 0.2375230 0.9399287 0.2375230 0.0600713 -0.2375230
3600306 0.0578490 -0.2333596 0.9421510 0.2333596 0.9421510 0.2333596 0.0578490 -0.2333596
3673095 0.0557039 -0.2292490 0.9442961 0.2292490 0.9442961 0.2292490 0.0557039 -0.2292490
3747356 0.0536338 -0.2251914 0.9463662 0.2251914 0.9463662 0.2251914 0.0536338 -0.2251914
3823119 0.0516364 -0.2211874 0.9483636 0.2211874 0.9483636 0.2211874 0.0516364 -0.2211874
3900413 0.0497094 -0.2172372 0.9502906 0.2172372 0.9502906 0.2172372 0.0497094 -0.2172372
3979270 0.0478506 -0.2133411 0.9521494 0.2133411 0.9521494 0.2133411 0.0478506 -0.2133411
4059721 0.0460579 -0.2094992 0.9539421 0.2094992 0.9539421 0.2094992 0.0460579 -0.2094992
4141799 0.0443292 -0.2057118 0.9556708 0.2057118 0.9556708 0.2057118 0.0443292 -0.2057118
4225536 0.0426624 -0.2019787 0.9573376 0.2019787 0.9573376 0.2019787 0.0426624 -0.2019787
4310966 0.0410556 -0.1983001 0.9589444 0.1983001 0.9589444 0.1983001 0.0410556 -0.1983001
4398124 0.0395067 -0.1946758 0.9604933 0.1946758 0.9604933 0.1946758 0.0395067 -0.1946758
4487043 0.0380139 -0.1911058 0.9619861 0.1911058 0.9619861 0.1911058 0.0380139 -0.1911058
4577760 0.0365753 -0.1875899 0.9634247 0.1875899 0.9634247 0.1875899 0.0365753 -0.1875899
4670311 0.0351891 -0.1841280 0.9648109 0.1841280 0.9648109 0.1841280 0.0351891 -0.1841280
4764734 0.0338535 -0.1807197 0.9661465 0.1807197 0.9661465 0.1807197 0.0338535 -0.1807197
4861065 0.0325669 -0.1773648 0.9674331 0.1773648 0.9674331 0.1773648 0.0325669 -0.1773648
4959344 0.0313275 -0.1740630 0.9686725 0.1740630 0.9686725 0.1740630 0.0313275 -0.1740630
5059610 0.0301338 -0.1708140 0.9698662 0.1708140 0.9698662 0.1708140 0.0301338 -0.1708140
5161903 0.0289842 -0.1676174 0.9710158 0.1676174 0.9710158 0.1676174 0.0289842 -0.1676174
5266264 0.0278771 -0.1644727 0.9721229 0.1644727 0.9721229 0.1644727 0.0278771 -0.1644727
5372736 0.0268111 -0.1613797 0.9731889 0.1613797 0.9731889 0.1613797 0.0268111 -0.1613797
5481359 0.0257847 -0.1583377 0.9742153 0.1583377 0.9742153 0.1583377 0.0257847 -0.1583377
5592179 0.0247965 -0.1553464 0.9752035 0.1553464 0.9752035 0.1553464 0.0247965 -0.1553464
5705239 0.0238453 -0.1524052 0.9761547 0.1524052 0.9761547 0.1524052 0.0238453 -0.1524052
5820586 0.0229297 -0.1495137 0.9770703 0.1495137 0.9770703 0.1495137 0.0229297 -0.1495137
5938264 0.0220483 -0.1466713 0.9779517 0.1466713 0.9779517 0.1466713 0.0220483 -0.1466713
6058321 0.0212001 -0.1438775 0.9787999 0.1438775 0.9787999 0.1438775 0.0212001 -0.1438775
6180806 0.0203838 -0.1411318 0.9796162 0.1411318 0.9796162 0.1411318 0.0203838 -0.1411318
6305767 0.0195982 -0.1384335 0.9804018 0.1384335 0.9804018 0.1384335 0.0195982 -0.1384335
6433254 0.0188423 -0.1357821 0.9811577 0.1357821 0.9811577 0.1357821 0.0188423 -0.1357821
6563319 0.0181150 -0.1331770 0.9818850 0.1331770 0.9818850 0.1331770 0.0181150 -0.1331770
6696013 0.0174152 -0.1306177 0.9825848 0.1306177 0.9825848 0.1306177 0.0174152 -0.1306177
6831390 0.0167419 -0.1281035 0.9832581 0.1281035 0.9832581 0.1281035 0.0167419 -0.1281035
6969505 0.0160942 -0.1256338 0.9839058 0.1256338 0.9839058 0.1256338 0.0160942 -0.1256338
7110411 0.0154711 -0.1232080 0.9845289 0.1232080 0.9845289 0.1232080 0.0154711 -0.1232080
7254166 0.0148718 -0.1208256 0.9851282 0.1208256 0.9851282 0.1208256 0.0148718 -0.1208256
7400828 0.0142953 -0.1184859 0.9857047 0.1184859 0.9857047 0.1184859 0.0142953 -0.1184859
7550455 0.0137408 -0.1161882 0.9862592 0.1161882 0.9862592 0.1161882 0.0137408 -0.1161882
7703107 0.0132075 -0.1139321 0.9867925 0.1139321 0.9867925 0.1139321 0.0132075 -0.1139321
7858845 0.0126946 -0.1117168 0.9873054 0.1117168 0.9873054 0.1117168 0.0126946 -0.1117168
8017732 0.0122013 -0.1095417 0.9877987 0.1095417 0.9877987 0.1095417 0.0122013 -0.1095417
8179831 0.0117270 -0.1074063 0.9882730 0.1074063 0.9882730 0.1074063 0.0117270 -0.1074063
8345207 0.0112709 -0.1053099 0.9887291 0.1053099 0.9887291 0.1053099 0.0112709 -0.1053099
8513927 0.0108322 -0.1032519 0.9891678 0.1032519 0.9891678 0.1032519 0.0108322 -0.1032519
8686058 0.0104105 -0.1012317 0.9895895 0.1012317 0.9895895 0.1012317 0.0104105 -0.1012317
8861669 0.0100050 -0.0992487 0.9899950 0.0992487 0.9899950 0.0992487 0.0100050 -0.0992487
9040831 0.0096151 -0.0973022 0.9903849 0.0973022 0.9903849 0.0973022 0.0096151 -0.0973022
9223615 0.0092402 -0.0953918 0.9907598 0.0953918 0.9907598 0.0953918 0.0092402 -0.0953918
9410094 0.0088798 -0.0935168 0.9911202 0.0935168 0.9911202 0.0935168 0.0088798 -0.0935168
9600343 0.0085334 -0.0916766 0.9914666 0.0916766 0.9914666 0.0916766 0.0085334 -0.0916766
9794439 0.0082003 -0.0898706 0.9917997 0.0898706 0.9917997 0.0898706 0.0082003 -0.0898706
9992459 0.0078801 -0.0880982 0.9921199 0.0880982 0.9921199 0.0880982 0.0078801 -0.0880982
10194482 0.0075723 -0.0863590 0.9924277 0.0863590 0.9924277 0.0863590 0.0075723 -0.0863590
10400590 0.0072765 -0.0846522 0.9927235 0.0846522 0.9927235 0.0846522 0.0072765 -0.0846522
10610865 0.0069921 -0.0829774 0.9930079 0.0829774 0.9930079 0.0829774 0.0069921 -0.0829774
10825391 0.0067187 -0.0813339 0.9932813 0.0813339 0.9932813 0.0813339 0.0067187 -0.0813339
11044254 0.0064560 -0.0797213 0.9935440 0.0797213 0.9935440 0.0797213 0.0064560 -0.0797213
11267542 0.0062035 -0.0781390 0.9937965 0.0781390 0.9937965 0.0781390 0.0062035 -0.0781390
11495344 0.0059608 -0.0765864 0.9940392 0.0765864 0.9940392 0.0765864 0.0059608 -0.0765864
11727752 0.0057276 -0.0750631 0.9942724 0.0750631 0.9942724 0.0750631 0.0057276 -0.0750631
11964859 0.0055034 -0.0735684 0.9944966 0.0735684 0.9944966 0.0735684 0.0055034 -0.0735684
12206760 0.0052880 -0.0721020 0.9947120 0.0721020 0.9947120 0.0721020 0.0052880 -0.0721020
12453551 0.0050810 -0.0706632 0.9949190 0.0706632 0.9949190 0.0706632 0.0050810 -0.0706632
12705331 0.0048821 -0.0692515 0.9951179 0.0692515 0.9951179 0.0692515 0.0048821 -0.0692515
12962202 0.0046909 -0.0678665 0.9953091 0.0678665 0.9953091 0.0678665 0.0046909 -0.0678665
13224267 0.0045073 -0.0665077 0.9954927 0.0665077 0.9954927 0.0665077 0.0045073 -0.0665077
13491630 0.0043308 -0.0651746 0.9956692 0.0651746 0.9956692 0.0651746 0.0043308 -0.0651746
13764398 0.0041612 -0.0638667 0.9958388 0.0638667 0.9958388 0.0638667 0.0041612 -0.0638667
14042680 0.0039983 -0.0625835 0.9960017 0.0625835 0.9960017 0.0625835 0.0039983 -0.0625835
14326589 0.0038418 -0.0613246 0.9961582 0.0613246 0.9961582 0.0613246 0.0038418 -0.0613246
14616238 0.0036914 -0.0600895 0.9963086 0.0600895 0.9963086 0.0600895 0.0036914 -0.0600895
14911743 0.0035469 -0.0588778 0.9964531 0.0588778 0.9964531 0.0588778 0.0035469 -0.0588778
15213223 0.0034081 -0.0576891 0.9965919 0.0576891 0.9965919 0.0576891 0.0034081 -0.0576891
15520797 0.0032748 -0.0565228 0.9967252 0.0565228 0.9967252 0.0565228 0.0032748 -0.0565228
15834590 0.0031468 -0.0553785 0.9968532 0.0553785 0.9968532 0.0553785 0.0031468 -0.0553785
16154727 0.0030238 -0.0542560 0.9969762 0.0542560 0.9969762 0.0542560 0.0030238 -0.0542560
16481337 0.0029056 -0.0531546 0.9970944 0.0531546 0.9970944 0.0531546 0.0029056 -0.0531546
16814550 0.0027921 -0.0520740 0.9972079 0.0520740 0.9972079 0.0520740 0.0027921 -0.0520740
17154499 0.0026831 -0.0510139 0.9973169 0.0510139 0.9973169 0.0510139 0.0026831 -0.0510139
17501322 0.0025785 -0.0499738 0.9974215 0.0499738 0.9974215 0.0499738 0.0025785 -0.0499738
17855156 0.0024780 -0.0489533 0.9975220 0.0489533 0.9975220 0.0489533 0.0024780 -0.0489533
18216144 0.0023814 -0.0479520 0.9976186 0.0479520 0.9976186 0.0479520 0.0023814 -0.0479520
18584431 0.0022888 -0.0469696 0.9977112 0.0469696 0.9977112 0.0469696 0.0022888 -0.0469696
18960163 0.0021998 -0.0460057 0.9978002 0.0460057 0.9978002 0.0460057 0.0021998 -0.0460057
19343491 0.0021143 -0.0450599 0.9978857 0.0450599 0.9978857 0.0450599 0.0021143 -0.0450599
19734570 0.0020323 -0.0441319 0.9979677 0.0441319 0.9979677 0.0441319 0.0020323 -0.0441319
20133555 0.0019536 -0.0432213 0.9980464 0.0432213 0.9980464 0.0432213 0.0019536 -0.0432213
20540607 0.0018780 -0.0423278 0.9981220 0.0423278 0.9981220 0.0423278 0.0018780 -0.0423278
20955888 0.0018054 -0.0414510 0.9981946 0.0414510 0.9981946 0.0414510 0.0018054 -0.0414510
21379566 0.0017358 -0.0405906 0.9982642 0.0405906 0.9982642 0.0405906 0.0017358 -0.0405906
21811809 0.0016690 -0.0397463 0.9983310 0.0397463 0.9983310 0.0397463 0.0016690 -0.0397463
22252791 0.0016048 -0.0389177 0.9983952 0.0389177 0.9983952 0.0389177 0.0016048 -0.0389177
22702688 0.0015433 -0.0381045 0.9984567 0.0381045 0.9984567 0.0381045 0.0015433 -0.0381045
23161682 0.0014843 -0.0373065 0.9985157 0.0373065 0.9985157 0.0373065 0.0014843 -0.0373065
23629955 0.0014276 -0.0365232 0.9985724 0.0365232 0.9985724 0.0365232 0.0014276 -0.0365232
24107696 0.0013733 -0.0357545 0.9986267 0.0357545 0.9986267 0.0357545 0.0013733 -0.0357545
24595095 0.0013211 -0.0349999 0.9986789 0.0349999 0.9986789 0.0349999 0.0013211 -0.0349999
25092348 0.0012712 -0.0342593 0.9987288 0.0342593 0.9987288 0.0342593 0.0012712 -0.0342593
25599655 0.0012232 -0.0335323 0.9987768 0.0335323 0.9987768 0.0335323 0.0012232 -0.0335323
26117218 0.0011772 -0.0328186 0.9988228 0.0328186 0.9988228 0.0328186 0.0011772 -0.0328186
26645245 0.0011332 -0.0321180 0.9988668 0.0321180 0.9988668 0.0321180 0.0011332 -0.0321180
27183947 0.0010909 -0.0314302 0.9989091 0.0314302 0.9989091 0.0314302 0.0010909 -0.0314302
27733541 0.0010504 -0.0307549 0.9989496 0.0307549 0.9989496 0.0307549 0.0010504 -0.0307549
28294246 0.0010116 -0.0300919 0.9989884 0.0300919 0.9989884 0.0300919 0.0010116 -0.0300919
28866287 0.0009744 -0.0294408 0.9990256 0.0294408 0.9990256 0.0294408 0.0009744 -0.0294408
29449894 0.0009388 -0.0288016 0.9990612 0.0288016 0.9990612 0.0288016 0.0009388 -0.0288016
30045299 0.0009046 -0.0281738 0.9990954 0.0281738 0.9990954 0.0281738 0.0009046 -0.0281738
30652742 0.0008719 -0.0275572 0.9991281 0.0275572 0.9991281 0.0275572 0.0008719 -0.0275572
31272467 0.0008406 -0.0269517 0.9991594 0.0269517 0.9991594 0.0269517 0.0008406 -0.0269517
31904720 0.0008106 -0.0263570 0.9991894 0.0263570 0.9991894 0.0263570 0.0008106 -0.0263570
32549757 0.0007819 -0.0257728 0.9992181 0.0257728 0.9992181 0.0257728 0.0007819 -0.0257728
33207834 0.0007545 -0.0251989 0.9992455 0.0251989 0.9992455 0.0251989 0.0007545 -0.0251989
33879216 0.0007282 -0.0246351 0.9992718 0.0246351 0.9992718 0.0246351 0.0007282 -0.0246351
34564172 0.0007030 -0.0240811 0.9992970 0.0240811 0.9992970 0.0240811 0.0007030 -0.0240811
35262976 0.0006790 -0.0235368 0.9993210 0.0235368 0.9993210 0.0235368 0.0006790 -0.0235368
35975908 0.0006560 -0.0230019 0.9993440 0.0230019 0.9993440 0.0230019 0.0006560 -0.0230019
36703254 0.0006340 -0.0224762 0.9993660 0.0224762 0.9993660 0.0224762 0.0006340 -0.0224762
37445305 0.0006130 -0.0219596 0.9993870 0.0219596 0.9993870 0.0219596 0.0006130 -0.0219596
38202358 0.0005930 -0.0214517 0.9994070 0.0214517 0.9994070 0.0214517 0.0005930 -0.0214517
38974717 0.0005738 -0.0209525 0.9994262 0.0209525 0.9994262 0.0209525 0.0005738 -0.0209525
39762692 0.0005555 -0.0204616 0.9994445 0.0204616 0.9994445 0.0204616 0.0005555 -0.0204616
40566597 0.0005380 -0.0199789 0.9994620 0.0199789 0.9994620 0.0199789 0.0005380 -0.0199789
41386756 0.0005214 -0.0195043 0.9994786 0.0195043 0.9994786 0.0195043 0.0005214 -0.0195043
42223496 0.0005055 -0.0190375 0.9994945 0.0190375 0.9994945 0.0190375 0.0005055 -0.0190375
43077153 0.0004903 -0.0185783 0.9995097 0.0185783 0.9995097 0.0185783 0.0004903 -0.0185783
43948069 0.0004759 -0.0181266 0.9995241 0.0181266 0.9995241 0.0181266 0.0004759 -0.0181266
44836592 0.0004622 -0.0176821 0.9995378 0.0176821 0.9995378 0.0176821 0.0004622 -0.0176821
45743080 0.0004491 -0.0172447 0.9995509 0.0172447 0.9995509 0.0172447 0.0004491 -0.0172447
46667894 0.0004367 -0.0168143 0.9995633 0.0168143 0.9995633 0.0168143 0.0004367 -0.0168143
47611406 0.0004249 -0.0163906 0.9995751 0.0163906 0.9995751 0.0163906 0.0004249 -0.0163906
48573993 0.0004137 -0.0159735 0.9995863 0.0159735 0.9995863 0.0159735 0.0004137 -0.0159735
49556042 0.0004030 -0.0155627 0.9995970 0.0155627 0.9995970 0.0155627 0.0004030 -0.0155627
50557945 0.0003930 -0.0151583 0.9996070 0.0151583 0.9996070 0.0151583 0.0003930 -0.0151583
51580105 0.0003834 -0.0147599 0.9996166 0.0147599 0.9996166 0.0147599 0.0003834 -0.0147599
52622929 0.0003744 -0.0143674 0.9996256 0.0143674 0.9996256 0.0143674 0.0003744 -0.0143674
53686838 0.0003659 -0.0139806 0.9996341 0.0139806 0.9996341 0.0139806 0.0003659 -0.0139806
54772256 0.0003578 -0.0135995 0.9996422 0.0135995 0.9996422 0.0135995 0.0003578 -0.0135995
55879618 0.0003502 -0.0132238 0.9996498 0.0132238 0.9996498 0.0132238 0.0003502 -0.0132238
57009369 0.0003431 -0.0128534 0.9996569 0.0128534 0.9996569 0.0128534 0.0003431 -0.0128534
58161960 0.0003364 -0.0124881 0.9996636 0.0124881 0.9996636 0.0124881 0.0003364 -0.0124881
59337855 0.0003302 -0.0121278 0.9996698 0.0121278 0.9996698 0.0121278 0.0003302 -0.0121278
60537522 0.0003243 -0.0117723 0.9996757 0.0117723 0.9996757 0.0117723 0.0003243 -0.0117723
61761445 0.0003189 -0.0114216 0.9996811 0.0114216 0.9996811 0.0114216 0.0003189 -0.0114216
63010112 0.0003138 -0.0110753 0.9996862 0.0110753 0.9996862 0.0110753 0.0003138 -0.0110753
64284024 0.0003092 -0.0107335 0.9996908 0.0107335 0.9996908 0.0107335 0.0003092 -0.0107335
65583691 0.0003049 -0.0103960 0.9996951 0.0103960 0.9996951 0.0103960 0.0003049 -0.0103960
66909635 0.0003009 -0.0100625 0.9996991 0.0100625 0.9996991 0.0100625 0.0003009 -0.0100625
68262386 0.0002974 -0.0097330 0.9997026 0.0097330 0.9997026 0.0097330 0.0002974 -0.0097330
69642486 0.0002941 -0.0094074 0.9997059 0.0094074 0.9997059 0.0094074 0.0002941 -0.0094074
71050488 0.0002913 -0.0090855 0.9997087 0.0090855 0.9997087 0.0090855 0.0002913 -0.0090855
72486957 0.0002887 -0.0087671 0.9997113 0.0087671 0.9997113 0.0087671 0.0002887 -0.0087671
73952468 0.0002865 -0.0084522 0.9997135 0.0084522 0.9997135 0.0084522 0.0002865 -0.0084522
