!Murata Part Number: GRM32A7U2J152JW31
!These Parameters are Measured in Series Mode Connection
!Data Generated on Mar 30, 2021
!       o--ll--o
!Port1            Port2
!       o------o
!Operation Temp=25[degC], DC Bias Voltage=0[V]
!Freq. Start=1000[kHz] Stop=3[GHz] 401[Steps]
# Hz S RI R 50
!Freq.(Hz) S11(Real) S11(Imag) S21(Real) S21(Imag) S12(Real) S12(Imag) S22(Real) S22(Imag)
1000000 0.5473954 -0.4976856 0.4526046 0.4976856 0.4526046 0.4976856 0.5473954 -0.4976856
1020218 0.5374603 -0.4985305 0.4625397 0.4985305 0.4625397 0.4985305 0.5374603 -0.4985305
1040844 0.5274954 -0.4991779 0.4725046 0.4991779 0.4725046 0.4991779 0.5274954 -0.4991779
1061887 0.5175085 -0.4996265 0.4824915 0.4996265 0.4824915 0.4996265 0.5175085 -0.4996265
1083356 0.5075076 -0.4998754 0.4924924 0.4998754 0.4924924 0.4998754 0.5075076 -0.4998754
1105259 0.4975007 -0.4999241 0.5024993 0.4999241 0.5024993 0.4999241 0.4975007 -0.4999241
1127605 0.4874959 -0.4997726 0.5125041 0.4997726 0.5125041 0.4997726 0.4874959 -0.4997726
1150402 0.4775011 -0.4994211 0.5224989 0.4994211 0.5224989 0.4994211 0.4775011 -0.4994211
1173660 0.4675243 -0.4988703 0.5324757 0.4988703 0.5324757 0.4988703 0.4675243 -0.4988703
1197389 0.4575734 -0.4981213 0.5424266 0.4981213 0.5424266 0.4981213 0.4575734 -0.4981213
1221597 0.4476563 -0.4971756 0.5523437 0.4971756 0.5523437 0.4971756 0.4476563 -0.4971756
1246295 0.4377806 -0.4960351 0.5622194 0.4960351 0.5622194 0.4960351 0.4377806 -0.4960351
1271492 0.4279541 -0.4947020 0.5720459 0.4947020 0.5720459 0.4947020 0.4279541 -0.4947020
1297199 0.4181841 -0.4931790 0.5818159 0.4931790 0.5818159 0.4931790 0.4181841 -0.4931790
1323425 0.4084779 -0.4914689 0.5915221 0.4914689 0.5915221 0.4914689 0.4084779 -0.4914689
1350181 0.3988426 -0.4895752 0.6011574 0.4895752 0.6011574 0.4895752 0.3988426 -0.4895752
1377479 0.3892850 -0.4875013 0.6107150 0.4875013 0.6107150 0.4875013 0.3892850 -0.4875013
1405328 0.3798118 -0.4852513 0.6201882 0.4852513 0.6201882 0.4852513 0.3798118 -0.4852513
1433740 0.3704293 -0.4828293 0.6295707 0.4828293 0.6295707 0.4828293 0.3704293 -0.4828293
1462727 0.3611436 -0.4802399 0.6388564 0.4802399 0.6388564 0.4802399 0.3611436 -0.4802399
1492300 0.3519607 -0.4774877 0.6480393 0.4774877 0.6480393 0.4774877 0.3519607 -0.4774877
1522470 0.3428859 -0.4745778 0.6571141 0.4745778 0.6571141 0.4745778 0.3428859 -0.4745778
1553251 0.3339246 -0.4715152 0.6660754 0.4715152 0.6660754 0.4715152 0.3339246 -0.4715152
1584654 0.3250816 -0.4683055 0.6749184 0.4683055 0.6749184 0.4683055 0.3250816 -0.4683055
1616692 0.3163617 -0.4649540 0.6836383 0.4649540 0.6836383 0.4649540 0.3163617 -0.4649540
1649378 0.3077690 -0.4614664 0.6922310 0.4614664 0.6922310 0.4614664 0.3077690 -0.4614664
1682724 0.2993076 -0.4578487 0.7006924 0.4578487 0.7006924 0.4578487 0.2993076 -0.4578487
1716745 0.2909810 -0.4541066 0.7090190 0.4541066 0.7090190 0.4541066 0.2909810 -0.4541066
1751453 0.2827927 -0.4502461 0.7172073 0.4502461 0.7172073 0.4502461 0.2827927 -0.4502461
1786863 0.2747455 -0.4462733 0.7252545 0.4462733 0.7252545 0.4462733 0.2747455 -0.4462733
1822989 0.2668422 -0.4421943 0.7331578 0.4421943 0.7331578 0.4421943 0.2668422 -0.4421943
1859846 0.2590850 -0.4380151 0.7409150 0.4380151 0.7409150 0.4380151 0.2590850 -0.4380151
1897447 0.2514760 -0.4337419 0.7485240 0.4337419 0.7485240 0.4337419 0.2514760 -0.4337419
1935809 0.2440170 -0.4293808 0.7559830 0.4293808 0.7559830 0.4293808 0.2440170 -0.4293808
1974946 0.2367092 -0.4249378 0.7632908 0.4249378 0.7632908 0.4249378 0.2367092 -0.4249378
2014875 0.2295540 -0.4204190 0.7704460 0.4204190 0.7704460 0.4204190 0.2295540 -0.4204190
2055611 0.2225519 -0.4158302 0.7774481 0.4158302 0.7774481 0.4158302 0.2225519 -0.4158302
2097170 0.2157038 -0.4111774 0.7842962 0.4111774 0.7842962 0.4111774 0.2157038 -0.4111774
2139570 0.2090097 -0.4064664 0.7909903 0.4064664 0.7909903 0.4064664 0.2090097 -0.4064664
2182827 0.2024698 -0.4017029 0.7975302 0.4017029 0.7975302 0.4017029 0.2024698 -0.4017029
2226959 0.1960839 -0.3968923 0.8039161 0.3968923 0.8039161 0.3968923 0.1960839 -0.3968923
2271982 0.1898515 -0.3920402 0.8101485 0.3920402 0.8101485 0.3920402 0.1898515 -0.3920402
2317916 0.1837719 -0.3871519 0.8162281 0.3871519 0.8162281 0.3871519 0.1837719 -0.3871519
2364779 0.1778444 -0.3822325 0.8221556 0.3822325 0.8221556 0.3822325 0.1778444 -0.3822325
2412589 0.1720678 -0.3772871 0.8279322 0.3772871 0.8279322 0.3772871 0.1720678 -0.3772871
2461366 0.1664409 -0.3723206 0.8335591 0.3723206 0.8335591 0.3723206 0.1664409 -0.3723206
2511129 0.1609622 -0.3673377 0.8390378 0.3673377 0.8390378 0.3673377 0.1609622 -0.3673377
2561897 0.1556304 -0.3623429 0.8443696 0.3623429 0.8443696 0.3623429 0.1556304 -0.3623429
2613693 0.1504435 -0.3573407 0.8495565 0.3573407 0.8495565 0.3573407 0.1504435 -0.3573407
2666535 0.1453998 -0.3523352 0.8546002 0.3523352 0.8546002 0.3523352 0.1453998 -0.3523352
2720446 0.1404972 -0.3473305 0.8595028 0.3473305 0.8595028 0.3473305 0.1404972 -0.3473305
2775447 0.1357338 -0.3423305 0.8642662 0.3423305 0.8642662 0.3423305 0.1357338 -0.3423305
2831560 0.1311073 -0.3373389 0.8688927 0.3373389 0.8688927 0.3373389 0.1311073 -0.3373389
2888807 0.1266155 -0.3323594 0.8733845 0.3323594 0.8733845 0.3323594 0.1266155 -0.3323594
2947212 0.1222559 -0.3273951 0.8777441 0.3273951 0.8777441 0.3273951 0.1222559 -0.3273951
3006797 0.1180263 -0.3224494 0.8819737 0.3224494 0.8819737 0.3224494 0.1180263 -0.3224494
3067588 0.1139240 -0.3175252 0.8860760 0.3175252 0.8860760 0.3175252 0.1139240 -0.3175252
3129607 0.1099466 -0.3126256 0.8900534 0.3126256 0.8900534 0.3126256 0.1099466 -0.3126256
3192880 0.1060915 -0.3077531 0.8939085 0.3077531 0.8939085 0.3077531 0.1060915 -0.3077531
3257432 0.1023561 -0.3029104 0.8976439 0.3029104 0.8976439 0.3029104 0.1023561 -0.3029104
3323290 0.0987378 -0.2980997 0.9012622 0.2980997 0.9012622 0.2980997 0.0987378 -0.2980997
3390478 0.0952339 -0.2933235 0.9047661 0.2933235 0.9047661 0.2933235 0.0952339 -0.2933235
3459026 0.0918417 -0.2885838 0.9081583 0.2885838 0.9081583 0.2885838 0.0918417 -0.2885838
3528959 0.0885586 -0.2838826 0.9114414 0.2838826 0.9114414 0.2838826 0.0885586 -0.2838826
3600306 0.0853819 -0.2792216 0.9146181 0.2792216 0.9146181 0.2792216 0.0853819 -0.2792216
3673095 0.0823089 -0.2746026 0.9176911 0.2746026 0.9176911 0.2746026 0.0823089 -0.2746026
3747356 0.0793370 -0.2700271 0.9206630 0.2700271 0.9206630 0.2700271 0.0793370 -0.2700271
3823119 0.0764635 -0.2654966 0.9235365 0.2654966 0.9235365 0.2654966 0.0764635 -0.2654966
3900413 0.0736858 -0.2610123 0.9263142 0.2610123 0.9263142 0.2610123 0.0736858 -0.2610123
3979270 0.0710014 -0.2565755 0.9289986 0.2565755 0.9289986 0.2565755 0.0710014 -0.2565755
4059721 0.0684076 -0.2521872 0.9315924 0.2521872 0.9315924 0.2521872 0.0684076 -0.2521872
4141799 0.0659019 -0.2478485 0.9340981 0.2478485 0.9340981 0.2478485 0.0659019 -0.2478485
4225536 0.0634818 -0.2435601 0.9365182 0.2435601 0.9365182 0.2435601 0.0634818 -0.2435601
4310966 0.0611448 -0.2393230 0.9388552 0.2393230 0.9388552 0.2393230 0.0611448 -0.2393230
4398124 0.0588886 -0.2351376 0.9411114 0.2351376 0.9411114 0.2351376 0.0588886 -0.2351376
4487043 0.0567106 -0.2310047 0.9432894 0.2310047 0.9432894 0.2310047 0.0567106 -0.2310047
4577760 0.0546086 -0.2269247 0.9453914 0.2269247 0.9453914 0.2269247 0.0546086 -0.2269247
4670311 0.0525802 -0.2228981 0.9474198 0.2228981 0.9474198 0.2228981 0.0525802 -0.2228981
4764734 0.0506232 -0.2189252 0.9493768 0.2189252 0.9493768 0.2189252 0.0506232 -0.2189252
4861065 0.0487354 -0.2150063 0.9512646 0.2150063 0.9512646 0.2150063 0.0487354 -0.2150063
4959344 0.0469146 -0.2111415 0.9530854 0.2111415 0.9530854 0.2111415 0.0469146 -0.2111415
5059610 0.0451586 -0.2073311 0.9548414 0.2073311 0.9548414 0.2073311 0.0451586 -0.2073311
5161903 0.0434655 -0.2035751 0.9565345 0.2035751 0.9565345 0.2035751 0.0434655 -0.2035751
5266264 0.0418331 -0.1998736 0.9581669 0.1998736 0.9581669 0.1998736 0.0418331 -0.1998736
5372736 0.0402596 -0.1962264 0.9597404 0.1962264 0.9597404 0.1962264 0.0402596 -0.1962264
5481359 0.0387429 -0.1926336 0.9612571 0.1926336 0.9612571 0.1926336 0.0387429 -0.1926336
5592179 0.0372812 -0.1890949 0.9627188 0.1890949 0.9627188 0.1890949 0.0372812 -0.1890949
5705239 0.0358727 -0.1856102 0.9641273 0.1856102 0.9641273 0.1856102 0.0358727 -0.1856102
5820586 0.0345155 -0.1821793 0.9654845 0.1821793 0.9654845 0.1821793 0.0345155 -0.1821793
5938264 0.0332081 -0.1788020 0.9667919 0.1788020 0.9667919 0.1788020 0.0332081 -0.1788020
6058321 0.0319486 -0.1754779 0.9680514 0.1754779 0.9680514 0.1754779 0.0319486 -0.1754779
6180806 0.0307354 -0.1722067 0.9692646 0.1722067 0.9692646 0.1722067 0.0307354 -0.1722067
6305767 0.0295670 -0.1689880 0.9704330 0.1689880 0.9704330 0.1689880 0.0295670 -0.1689880
6433254 0.0284417 -0.1658215 0.9715583 0.1658215 0.9715583 0.1658215 0.0284417 -0.1658215
6563319 0.0273582 -0.1627068 0.9726418 0.1627068 0.9726418 0.1627068 0.0273582 -0.1627068
6696013 0.0263149 -0.1596434 0.9736851 0.1596434 0.9736851 0.1596434 0.0263149 -0.1596434
6831390 0.0253105 -0.1566308 0.9746895 0.1566308 0.9746895 0.1566308 0.0253105 -0.1566308
6969505 0.0243435 -0.1536686 0.9756565 0.1536686 0.9756565 0.1536686 0.0243435 -0.1536686
7110411 0.0234126 -0.1507562 0.9765874 0.1507562 0.9765874 0.1507562 0.0234126 -0.1507562
7254166 0.0225166 -0.1478932 0.9774834 0.1478932 0.9774834 0.1478932 0.0225166 -0.1478932
7400828 0.0216543 -0.1450791 0.9783457 0.1450791 0.9783457 0.1450791 0.0216543 -0.1450791
7550455 0.0208243 -0.1423132 0.9791757 0.1423132 0.9791757 0.1423132 0.0208243 -0.1423132
7703107 0.0200256 -0.1395950 0.9799744 0.1395950 0.9799744 0.1395950 0.0200256 -0.1395950
7858845 0.0192570 -0.1369240 0.9807430 0.1369240 0.9807430 0.1369240 0.0192570 -0.1369240
8017732 0.0185175 -0.1342995 0.9814825 0.1342995 0.9814825 0.1342995 0.0185175 -0.1342995
8179831 0.0178059 -0.1317211 0.9821941 0.1317211 0.9821941 0.1317211 0.0178059 -0.1317211
8345207 0.0171213 -0.1291880 0.9828787 0.1291880 0.9828787 0.1291880 0.0171213 -0.1291880
8513927 0.0164626 -0.1266997 0.9835374 0.1266997 0.9835374 0.1266997 0.0164626 -0.1266997
8686058 0.0158290 -0.1242556 0.9841710 0.1242556 0.9841710 0.1242556 0.0158290 -0.1242556
8861669 0.0152195 -0.1218551 0.9847805 0.1218551 0.9847805 0.1218551 0.0152195 -0.1218551
9040831 0.0146332 -0.1194976 0.9853668 0.1194976 0.9853668 0.1194976 0.0146332 -0.1194976
9223615 0.0140692 -0.1171824 0.9859308 0.1171824 0.9859308 0.1171824 0.0140692 -0.1171824
9410094 0.0135268 -0.1149090 0.9864732 0.1149090 0.9864732 0.1149090 0.0135268 -0.1149090
9600343 0.0130051 -0.1126767 0.9869949 0.1126767 0.9869949 0.1126767 0.0130051 -0.1126767
9794439 0.0125034 -0.1104849 0.9874966 0.1104849 0.9874966 0.1104849 0.0125034 -0.1104849
9992459 0.0120209 -0.1083330 0.9879791 0.1083330 0.9879791 0.1083330 0.0120209 -0.1083330
10194482 0.0115569 -0.1062203 0.9884431 0.1062203 0.9884431 0.1062203 0.0115569 -0.1062203
10400590 0.0111107 -0.1041464 0.9888893 0.1041464 0.9888893 0.1041464 0.0111107 -0.1041464
10610865 0.0106816 -0.1021105 0.9893184 0.1021105 0.9893184 0.1021105 0.0106816 -0.1021105
10825391 0.0102691 -0.1001121 0.9897309 0.1001121 0.9897309 0.1001121 0.0102691 -0.1001121
11044254 0.0098724 -0.0981505 0.9901276 0.0981505 0.9901276 0.0981505 0.0098724 -0.0981505
11267542 0.0094910 -0.0962252 0.9905090 0.0962252 0.9905090 0.0962252 0.0094910 -0.0962252
11495344 0.0091243 -0.0943355 0.9908757 0.0943355 0.9908757 0.0943355 0.0091243 -0.0943355
11727752 0.0087718 -0.0924809 0.9912282 0.0924809 0.9912282 0.0924809 0.0087718 -0.0924809
11964859 0.0084328 -0.0906608 0.9915672 0.0906608 0.9915672 0.0906608 0.0084328 -0.0906608
12206760 0.0081070 -0.0888746 0.9918930 0.0888746 0.9918930 0.0888746 0.0081070 -0.0888746
12453551 0.0077938 -0.0871217 0.9922062 0.0871217 0.9922062 0.0871217 0.0077938 -0.0871217
12705331 0.0074926 -0.0854015 0.9925074 0.0854015 0.9925074 0.0854015 0.0074926 -0.0854015
12962202 0.0072032 -0.0837136 0.9927968 0.0837136 0.9927968 0.0837136 0.0072032 -0.0837136
13224267 0.0069250 -0.0820573 0.9930750 0.0820573 0.9930750 0.0820573 0.0069250 -0.0820573
13491630 0.0066575 -0.0804320 0.9933425 0.0804320 0.9933425 0.0804320 0.0066575 -0.0804320
13764398 0.0064005 -0.0788373 0.9935995 0.0788373 0.9935995 0.0788373 0.0064005 -0.0788373
14042680 0.0061534 -0.0772725 0.9938466 0.0772725 0.9938466 0.0772725 0.0061534 -0.0772725
14326589 0.0059159 -0.0757372 0.9940841 0.0757372 0.9940841 0.0757372 0.0059159 -0.0757372
14616238 0.0056877 -0.0742309 0.9943123 0.0742309 0.9943123 0.0742309 0.0056877 -0.0742309
14911743 0.0054683 -0.0727529 0.9945317 0.0727529 0.9945317 0.0727529 0.0054683 -0.0727529
15213223 0.0052575 -0.0713028 0.9947425 0.0713028 0.9947425 0.0713028 0.0052575 -0.0713028
15520797 0.0050549 -0.0698801 0.9949451 0.0698801 0.9949451 0.0698801 0.0050549 -0.0698801
15834590 0.0048602 -0.0684843 0.9951398 0.0684843 0.9951398 0.0684843 0.0048602 -0.0684843
16154727 0.0046730 -0.0671148 0.9953270 0.0671148 0.9953270 0.0671148 0.0046730 -0.0671148
16481337 0.0044932 -0.0657713 0.9955068 0.0657713 0.9955068 0.0657713 0.0044932 -0.0657713
16814550 0.0043204 -0.0644532 0.9956796 0.0644532 0.9956796 0.0644532 0.0043204 -0.0644532
17154499 0.0041544 -0.0631600 0.9958456 0.0631600 0.9958456 0.0631600 0.0041544 -0.0631600
17501322 0.0039949 -0.0618913 0.9960051 0.0618913 0.9960051 0.0618913 0.0039949 -0.0618913
17855156 0.0038416 -0.0606466 0.9961584 0.0606466 0.9961584 0.0606466 0.0038416 -0.0606466
18216144 0.0036943 -0.0594255 0.9963057 0.0594255 0.9963057 0.0594255 0.0036943 -0.0594255
18584431 0.0035528 -0.0582275 0.9964472 0.0582275 0.9964472 0.0582275 0.0035528 -0.0582275
18960163 0.0034168 -0.0570522 0.9965832 0.0570522 0.9965832 0.0570522 0.0034168 -0.0570522
19343491 0.0032862 -0.0558991 0.9967138 0.0558991 0.9967138 0.0558991 0.0032862 -0.0558991
19734570 0.0031607 -0.0547678 0.9968393 0.0547678 0.9968393 0.0547678 0.0031607 -0.0547678
20133555 0.0030401 -0.0536580 0.9969599 0.0536580 0.9969599 0.0536580 0.0030401 -0.0536580
20540607 0.0029243 -0.0525691 0.9970757 0.0525691 0.9970757 0.0525691 0.0029243 -0.0525691
20955888 0.0028130 -0.0515009 0.9971870 0.0515009 0.9971870 0.0515009 0.0028130 -0.0515009
21379566 0.0027061 -0.0504528 0.9972939 0.0504528 0.9972939 0.0504528 0.0027061 -0.0504528
21811809 0.0026035 -0.0494245 0.9973965 0.0494245 0.9973965 0.0494245 0.0026035 -0.0494245
22252791 0.0025049 -0.0484156 0.9974951 0.0484156 0.9974951 0.0484156 0.0025049 -0.0484156
22702688 0.0024101 -0.0474257 0.9975899 0.0474257 0.9975899 0.0474257 0.0024101 -0.0474257
23161682 0.0023192 -0.0464545 0.9976808 0.0464545 0.9976808 0.0464545 0.0023192 -0.0464545
23629955 0.0022318 -0.0455016 0.9977682 0.0455016 0.9977682 0.0455016 0.0022318 -0.0455016
24107696 0.0021479 -0.0445666 0.9978521 0.0445666 0.9978521 0.0445666 0.0021479 -0.0445666
24595095 0.0020674 -0.0436491 0.9979326 0.0436491 0.9979326 0.0436491 0.0020674 -0.0436491
25092348 0.0019900 -0.0427489 0.9980100 0.0427489 0.9980100 0.0427489 0.0019900 -0.0427489
25599655 0.0019158 -0.0418656 0.9980842 0.0418656 0.9980842 0.0418656 0.0019158 -0.0418656
26117218 0.0018444 -0.0409988 0.9981556 0.0409988 0.9981556 0.0409988 0.0018444 -0.0409988
26645245 0.0017760 -0.0401482 0.9982240 0.0401482 0.9982240 0.0401482 0.0017760 -0.0401482
27183947 0.0017102 -0.0393135 0.9982898 0.0393135 0.9982898 0.0393135 0.0017102 -0.0393135
27733541 0.0016472 -0.0384943 0.9983528 0.0384943 0.9983528 0.0384943 0.0016472 -0.0384943
28294246 0.0015866 -0.0376904 0.9984134 0.0376904 0.9984134 0.0376904 0.0015866 -0.0376904
28866287 0.0015285 -0.0369014 0.9984715 0.0369014 0.9984715 0.0369014 0.0015285 -0.0369014
29449894 0.0014727 -0.0361271 0.9985273 0.0361271 0.9985273 0.0361271 0.0014727 -0.0361271
30045299 0.0014192 -0.0353671 0.9985808 0.0353671 0.9985808 0.0353671 0.0014192 -0.0353671
30652742 0.0013678 -0.0346211 0.9986322 0.0346211 0.9986322 0.0346211 0.0013678 -0.0346211
31272467 0.0013185 -0.0338889 0.9986815 0.0338889 0.9986815 0.0338889 0.0013185 -0.0338889
31904720 0.0012713 -0.0331701 0.9987287 0.0331701 0.9987287 0.0331701 0.0012713 -0.0331701
32549757 0.0012259 -0.0324645 0.9987741 0.0324645 0.9987741 0.0324645 0.0012259 -0.0324645
33207834 0.0011824 -0.0317719 0.9988176 0.0317719 0.9988176 0.0317719 0.0011824 -0.0317719
33879216 0.0011407 -0.0310919 0.9988593 0.0310919 0.9988593 0.0310919 0.0011407 -0.0310919
34564172 0.0011008 -0.0304242 0.9988992 0.0304242 0.9988992 0.0304242 0.0011008 -0.0304242
35262976 0.0010624 -0.0297687 0.9989376 0.0297687 0.9989376 0.0297687 0.0010624 -0.0297687
35975908 0.0010257 -0.0291251 0.9989743 0.0291251 0.9989743 0.0291251 0.0010257 -0.0291251
36703254 0.0009905 -0.0284930 0.9990095 0.0284930 0.9990095 0.0284930 0.0009905 -0.0284930
37445305 0.0009567 -0.0278724 0.9990433 0.0278724 0.9990433 0.0278724 0.0009567 -0.0278724
38202358 0.0009244 -0.0272628 0.9990756 0.0272628 0.9990756 0.0272628 0.0009244 -0.0272628
38974717 0.0008934 -0.0266642 0.9991066 0.0266642 0.9991066 0.0266642 0.0008934 -0.0266642
39762692 0.0008637 -0.0260761 0.9991363 0.0260761 0.9991363 0.0260761 0.0008637 -0.0260761
40566597 0.0008353 -0.0254986 0.9991647 0.0254986 0.9991647 0.0254986 0.0008353 -0.0254986
41386756 0.0008081 -0.0249312 0.9991919 0.0249312 0.9991919 0.0249312 0.0008081 -0.0249312
42223496 0.0007821 -0.0243738 0.9992179 0.0243738 0.9992179 0.0243738 0.0007821 -0.0243738
43077153 0.0007572 -0.0238261 0.9992428 0.0238261 0.9992428 0.0238261 0.0007572 -0.0238261
43948069 0.0007334 -0.0232880 0.9992666 0.0232880 0.9992666 0.0232880 0.0007334 -0.0232880
44836592 0.0007106 -0.0227592 0.9992894 0.0227592 0.9992894 0.0227592 0.0007106 -0.0227592
45743080 0.0006889 -0.0222395 0.9993111 0.0222395 0.9993111 0.0222395 0.0006889 -0.0222395
46667894 0.0006680 -0.0217287 0.9993320 0.0217287 0.9993320 0.0217287 0.0006680 -0.0217287
47611406 0.0006481 -0.0212267 0.9993519 0.0212267 0.9993519 0.0212267 0.0006481 -0.0212267
48573993 0.0006292 -0.0207332 0.9993708 0.0207332 0.9993708 0.0207332 0.0006292 -0.0207332
49556042 0.0006110 -0.0202480 0.9993890 0.0202480 0.9993890 0.0202480 0.0006110 -0.0202480
50557945 0.0005937 -0.0197709 0.9994063 0.0197709 0.9994063 0.0197709 0.0005937 -0.0197709
51580105 0.0005772 -0.0193018 0.9994228 0.0193018 0.9994228 0.0193018 0.0005772 -0.0193018
52622929 0.0005614 -0.0188404 0.9994386 0.0188404 0.9994386 0.0188404 0.0005614 -0.0188404
53686838 0.0005464 -0.0183867 0.9994536 0.0183867 0.9994536 0.0183867 0.0005464 -0.0183867
54772256 0.0005321 -0.0179403 0.9994679 0.0179403 0.9994679 0.0179403 0.0005321 -0.0179403
55879618 0.0005185 -0.0175011 0.9994815 0.0175011 0.9994815 0.0175011 0.0005185 -0.0175011
57009369 0.0005056 -0.0170690 0.9994944 0.0170690 0.9994944 0.0170690 0.0005056 -0.0170690
58161960 0.0004932 -0.0166438 0.9995068 0.0166438 0.9995068 0.0166438 0.0004932 -0.0166438
59337855 0.0004815 -0.0162253 0.9995185 0.0162253 0.9995185 0.0162253 0.0004815 -0.0162253
60537522 0.0004704 -0.0158133 0.9995296 0.0158133 0.9995296 0.0158133 0.0004704 -0.0158133
61761445 0.0004598 -0.0154077 0.9995402 0.0154077 0.9995402 0.0154077 0.0004598 -0.0154077
63010112 0.0004498 -0.0150083 0.9995502 0.0150083 0.9995502 0.0150083 0.0004498 -0.0150083
64284024 0.0004403 -0.0146150 0.9995597 0.0146150 0.9995597 0.0146150 0.0004403 -0.0146150
65583691 0.0004313 -0.0142276 0.9995687 0.0142276 0.9995687 0.0142276 0.0004313 -0.0142276
66909635 0.0004228 -0.0138459 0.9995772 0.0138459 0.9995772 0.0138459 0.0004228 -0.0138459
68262386 0.0004148 -0.0134698 0.9995852 0.0134698 0.9995852 0.0134698 0.0004148 -0.0134698
69642486 0.0004072 -0.0130992 0.9995928 0.0130992 0.9995928 0.0130992 0.0004072 -0.0130992
71050488 0.0004000 -0.0127339 0.9996000 0.0127339 0.9996000 0.0127339 0.0004000 -0.0127339
72486957 0.0003933 -0.0123737 0.9996067 0.0123737 0.9996067 0.0123737 0.0003933 -0.0123737
73952468 0.0003870 -0.0120186 0.9996130 0.0120186 0.9996130 0.0120186 0.0003870 -0.0120186
