!Murata Part Number: GRM32A7U3D820JW31
!These Parameters are Measured in Series Mode Connection
!Data Generated on Mar 30, 2021
!       o--ll--o
!Port1            Port2
!       o------o
!Operation Temp=25[degC], DC Bias Voltage=0[V]
!Freq. Start=100[MHz] Stop=3[GHz] 401[Steps]
# Hz S RI R 50
!Freq.(Hz) S11(Real) S11(Imag) S21(Real) S21(Imag) S12(Real) S12(Imag) S22(Real) S22(Imag)
100000000 0.0357818 -0.1833823 0.9642182 0.1833823 0.9642182 0.1833823 0.0357818 -0.1833823
107250000 0.0311917 -0.1712935 0.9688083 0.1712935 0.9688083 0.1712935 0.0311917 -0.1712935
114500000 0.0274138 -0.1605636 0.9725862 0.1605636 0.9725862 0.1605636 0.0274138 -0.1605636
121750000 0.0242689 -0.1509784 0.9757311 0.1509784 0.9757311 0.1509784 0.0242689 -0.1509784
129000000 0.0216242 -0.1423648 0.9783758 0.1423648 0.9783758 0.1423648 0.0216242 -0.1423648
136250000 0.0193798 -0.1345821 0.9806202 0.1345821 0.9806202 0.1345821 0.0193798 -0.1345821
143500000 0.0174596 -0.1275146 0.9825404 0.1275146 0.9825404 0.1275146 0.0174596 -0.1275146
150750000 0.0158043 -0.1210666 0.9841957 0.1210666 0.9841957 0.1210666 0.0158043 -0.1210666
158000000 0.0143679 -0.1151585 0.9856321 0.1151585 0.9856321 0.1151585 0.0143679 -0.1151585
165250000 0.0131137 -0.1097237 0.9868863 0.1097237 0.9868863 0.1097237 0.0131137 -0.1097237
172500000 0.0120124 -0.1047057 0.9879876 0.1047057 0.9879876 0.1047057 0.0120124 -0.1047057
179750000 0.0110403 -0.1000565 0.9889597 0.1000565 0.9889597 0.1000565 0.0110403 -0.1000565
187000000 0.0101782 -0.0957354 0.9898218 0.0957354 0.9898218 0.0957354 0.0101782 -0.0957354
194250000 0.0094104 -0.0917071 0.9905896 0.0917071 0.9905896 0.0917071 0.0094104 -0.0917071
201500000 0.0087236 -0.0879413 0.9912764 0.0879413 0.9912764 0.0879413 0.0087236 -0.0879413
208750000 0.0081071 -0.0844116 0.9918929 0.0844116 0.9918929 0.0844116 0.0081071 -0.0844116
216000000 0.0075517 -0.0810951 0.9924483 0.0810951 0.9924483 0.0810951 0.0075517 -0.0810951
223250000 0.0070498 -0.0779716 0.9929502 0.0779716 0.9929502 0.0779716 0.0070498 -0.0779716
230500000 0.0065948 -0.0750235 0.9934052 0.0750235 0.9934052 0.0750235 0.0065948 -0.0750235
237750000 0.0061812 -0.0722352 0.9938188 0.0722352 0.9938188 0.0722352 0.0061812 -0.0722352
245000000 0.0058043 -0.0695929 0.9941957 0.0695929 0.9941957 0.0695929 0.0058043 -0.0695929
252250000 0.0054598 -0.0670842 0.9945402 0.0670842 0.9945402 0.0670842 0.0054598 -0.0670842
259500000 0.0051445 -0.0646983 0.9948555 0.0646983 0.9948555 0.0646983 0.0051445 -0.0646983
266750000 0.0048550 -0.0624253 0.9951450 0.0624253 0.9951450 0.0624253 0.0048550 -0.0624253
274000000 0.0045889 -0.0602564 0.9954111 0.0602564 0.9954111 0.0602564 0.0045889 -0.0602564
281250000 0.0043437 -0.0581838 0.9956563 0.0581838 0.9956563 0.0581838 0.0043437 -0.0581838
288500000 0.0041175 -0.0562004 0.9958825 0.0562004 0.9958825 0.0562004 0.0041175 -0.0562004
295750000 0.0039084 -0.0542996 0.9960916 0.0542996 0.9960916 0.0542996 0.0039084 -0.0542996
303000000 0.0037148 -0.0524756 0.9962852 0.0524756 0.9962852 0.0524756 0.0037148 -0.0524756
310250000 0.0035353 -0.0507231 0.9964647 0.0507231 0.9964647 0.0507231 0.0035353 -0.0507231
317500000 0.0033687 -0.0490374 0.9966313 0.0490374 0.9966313 0.0490374 0.0033687 -0.0490374
324750000 0.0032139 -0.0474139 0.9967861 0.0474139 0.9967861 0.0474139 0.0032139 -0.0474139
332000000 0.0030699 -0.0458487 0.9969301 0.0458487 0.9969301 0.0458487 0.0030699 -0.0458487
339250000 0.0029357 -0.0443380 0.9970643 0.0443380 0.9970643 0.0443380 0.0029357 -0.0443380
346500000 0.0028107 -0.0428785 0.9971893 0.0428785 0.9971893 0.0428785 0.0028107 -0.0428785
353750000 0.0026940 -0.0414671 0.9973060 0.0414671 0.9973060 0.0414671 0.0026940 -0.0414671
361000000 0.0025851 -0.0401008 0.9974149 0.0401008 0.9974149 0.0401008 0.0025851 -0.0401008
368250000 0.0024832 -0.0387771 0.9975168 0.0387771 0.9975168 0.0387771 0.0024832 -0.0387771
375500000 0.0023881 -0.0374935 0.9976119 0.0374935 0.9976119 0.0374935 0.0023881 -0.0374935
382750000 0.0022990 -0.0362477 0.9977010 0.0362477 0.9977010 0.0362477 0.0022990 -0.0362477
390000000 0.0022157 -0.0350376 0.9977843 0.0350376 0.9977843 0.0350376 0.0022157 -0.0350376
397250000 0.0021377 -0.0338613 0.9978623 0.0338613 0.9978623 0.0338613 0.0021377 -0.0338613
404500000 0.0020646 -0.0327169 0.9979354 0.0327169 0.9979354 0.0327169 0.0020646 -0.0327169
411750000 0.0019961 -0.0316029 0.9980039 0.0316029 0.9980039 0.0316029 0.0019961 -0.0316029
419000000 0.0019320 -0.0305175 0.9980680 0.0305175 0.9980680 0.0305175 0.0019320 -0.0305175
426250000 0.0018719 -0.0294595 0.9981281 0.0294595 0.9981281 0.0294595 0.0018719 -0.0294595
433500000 0.0018157 -0.0284273 0.9981843 0.0284273 0.9981843 0.0284273 0.0018157 -0.0284273
440750000 0.0017629 -0.0274197 0.9982371 0.0274197 0.9982371 0.0274197 0.0017629 -0.0274197
448000000 0.0017136 -0.0264356 0.9982864 0.0264356 0.9982864 0.0264356 0.0017136 -0.0264356
455250000 0.0016673 -0.0254738 0.9983327 0.0254738 0.9983327 0.0254738 0.0016673 -0.0254738
462500000 0.0016241 -0.0245332 0.9983759 0.0245332 0.9983759 0.0245332 0.0016241 -0.0245332
469750000 0.0015836 -0.0236128 0.9984164 0.0236128 0.9984164 0.0236128 0.0015836 -0.0236128
477000000 0.0015459 -0.0227118 0.9984541 0.0227118 0.9984541 0.0227118 0.0015459 -0.0227118
484250000 0.0015106 -0.0218293 0.9984894 0.0218293 0.9984894 0.0218293 0.0015106 -0.0218293
491500000 0.0014776 -0.0209644 0.9985224 0.0209644 0.9985224 0.0209644 0.0014776 -0.0209644
498750000 0.0014470 -0.0201163 0.9985530 0.0201163 0.9985530 0.0201163 0.0014470 -0.0201163
506000000 0.0014184 -0.0192844 0.9985816 0.0192844 0.9985816 0.0192844 0.0014184 -0.0192844
513250000 0.0013919 -0.0184680 0.9986081 0.0184680 0.9986081 0.0184680 0.0013919 -0.0184680
520500000 0.0013674 -0.0176663 0.9986326 0.0176663 0.9986326 0.0176663 0.0013674 -0.0176663
527750000 0.0013446 -0.0168788 0.9986554 0.0168788 0.9986554 0.0168788 0.0013446 -0.0168788
535000000 0.0013237 -0.0161049 0.9986763 0.0161049 0.9986763 0.0161049 0.0013237 -0.0161049
542250000 0.0013044 -0.0153441 0.9986956 0.0153441 0.9986956 0.0153441 0.0013044 -0.0153441
549500000 0.0012866 -0.0145958 0.9987134 0.0145958 0.9987134 0.0145958 0.0012866 -0.0145958
556750000 0.0012705 -0.0138595 0.9987295 0.0138595 0.9987295 0.0138595 0.0012705 -0.0138595
564000000 0.0012557 -0.0131347 0.9987443 0.0131347 0.9987443 0.0131347 0.0012557 -0.0131347
571250000 0.0012424 -0.0124210 0.9987576 0.0124210 0.9987576 0.0124210 0.0012424 -0.0124210
578500000 0.0012305 -0.0117181 0.9987695 0.0117181 0.9987695 0.0117181 0.0012305 -0.0117181
585750000 0.0012198 -0.0110253 0.9987802 0.0110253 0.9987802 0.0110253 0.0012198 -0.0110253
593000000 0.0012103 -0.0103425 0.9987897 0.0103425 0.9987897 0.0103425 0.0012103 -0.0103425
600250000 0.0012021 -0.0096692 0.9987979 0.0096692 0.9987979 0.0096692 0.0012021 -0.0096692
607500000 0.0011950 -0.0090051 0.9988050 0.0090051 0.9988050 0.0090051 0.0011950 -0.0090051
614750000 0.0011890 -0.0083498 0.9988110 0.0083498 0.9988110 0.0083498 0.0011890 -0.0083498
622000000 0.0011841 -0.0077030 0.9988159 0.0077030 0.9988159 0.0077030 0.0011841 -0.0077030
629250000 0.0011802 -0.0070644 0.9988198 0.0070644 0.9988198 0.0070644 0.0011802 -0.0070644
636500000 0.0011773 -0.0064338 0.9988227 0.0064338 0.9988227 0.0064338 0.0011773 -0.0064338
643750000 0.0011754 -0.0058108 0.9988246 0.0058108 0.9988246 0.0058108 0.0011754 -0.0058108
651000000 0.0011744 -0.0051952 0.9988256 0.0051952 0.9988256 0.0051952 0.0011744 -0.0051952
658250000 0.0011743 -0.0045867 0.9988257 0.0045867 0.9988257 0.0045867 0.0011743 -0.0045867
665500000 0.0011750 -0.0039851 0.9988250 0.0039851 0.9988250 0.0039851 0.0011750 -0.0039851
672750000 0.0011767 -0.0033901 0.9988233 0.0033901 0.9988233 0.0033901 0.0011767 -0.0033901
680000000 0.0011791 -0.0028016 0.9988209 0.0028016 0.9988209 0.0028016 0.0011791 -0.0028016
687250000 0.0011824 -0.0022193 0.9988176 0.0022193 0.9988176 0.0022193 0.0011824 -0.0022193
694500000 0.0011864 -0.0016430 0.9988136 0.0016430 0.9988136 0.0016430 0.0011864 -0.0016430
701750000 0.0011912 -0.0010726 0.9988088 0.0010726 0.9988088 0.0010726 0.0011912 -0.0010726
709000000 0.0011967 -0.0005077 0.9988033 0.0005077 0.9988033 0.0005077 0.0011967 -0.0005077
716250000 0.0012030 0.0000516 0.9987970 -0.0000516 0.9987970 -0.0000516 0.0012030 0.0000516
723500000 0.0012100 0.0006058 0.9987900 -0.0006058 0.9987900 -0.0006058 0.0012100 0.0006058
730750000 0.0012176 0.0011548 0.9987824 -0.0011548 0.9987824 -0.0011548 0.0012176 0.0011548
738000000 0.0012259 0.0016988 0.9987741 -0.0016988 0.9987741 -0.0016988 0.0012259 0.0016988
745250000 0.0012349 0.0022381 0.9987651 -0.0022381 0.9987651 -0.0022381 0.0012349 0.0022381
752500000 0.0012445 0.0027727 0.9987555 -0.0027727 0.9987555 -0.0027727 0.0012445 0.0027727
759750000 0.0012548 0.0033029 0.9987452 -0.0033029 0.9987452 -0.0033029 0.0012548 0.0033029
767000000 0.0012656 0.0038286 0.9987344 -0.0038286 0.9987344 -0.0038286 0.0012656 0.0038286
774250000 0.0012771 0.0043502 0.9987229 -0.0043502 0.9987229 -0.0043502 0.0012771 0.0043502
781500000 0.0012892 0.0048676 0.9987108 -0.0048676 0.9987108 -0.0048676 0.0012892 0.0048676
788750000 0.0013018 0.0053811 0.9986982 -0.0053811 0.9986982 -0.0053811 0.0013018 0.0053811
796000000 0.0013151 0.0058907 0.9986849 -0.0058907 0.9986849 -0.0058907 0.0013151 0.0058907
803250000 0.0013288 0.0063966 0.9986712 -0.0063966 0.9986712 -0.0063966 0.0013288 0.0063966
810500000 0.0013432 0.0068988 0.9986568 -0.0068988 0.9986568 -0.0068988 0.0013432 0.0068988
817750000 0.0013581 0.0073976 0.9986419 -0.0073976 0.9986419 -0.0073976 0.0013581 0.0073976
825000000 0.0013735 0.0078929 0.9986265 -0.0078929 0.9986265 -0.0078929 0.0013735 0.0078929
832250000 0.0013895 0.0083849 0.9986105 -0.0083849 0.9986105 -0.0083849 0.0013895 0.0083849
839500000 0.0014060 0.0088736 0.9985940 -0.0088736 0.9985940 -0.0088736 0.0014060 0.0088736
846750000 0.0014230 0.0093593 0.9985770 -0.0093593 0.9985770 -0.0093593 0.0014230 0.0093593
854000000 0.0014405 0.0098419 0.9985595 -0.0098419 0.9985595 -0.0098419 0.0014405 0.0098419
861250000 0.0014585 0.0103215 0.9985415 -0.0103215 0.9985415 -0.0103215 0.0014585 0.0103215
868500000 0.0014770 0.0107983 0.9985230 -0.0107983 0.9985230 -0.0107983 0.0014770 0.0107983
875750000 0.0014960 0.0112723 0.9985040 -0.0112723 0.9985040 -0.0112723 0.0014960 0.0112723
883000000 0.0015155 0.0117436 0.9984845 -0.0117436 0.9984845 -0.0117436 0.0015155 0.0117436
890250000 0.0015355 0.0122123 0.9984645 -0.0122123 0.9984645 -0.0122123 0.0015355 0.0122123
897500000 0.0015559 0.0126785 0.9984441 -0.0126785 0.9984441 -0.0126785 0.0015559 0.0126785
904750000 0.0015769 0.0131421 0.9984231 -0.0131421 0.9984231 -0.0131421 0.0015769 0.0131421
912000000 0.0015983 0.0136034 0.9984017 -0.0136034 0.9984017 -0.0136034 0.0015983 0.0136034
919250000 0.0016201 0.0140623 0.9983799 -0.0140623 0.9983799 -0.0140623 0.0016201 0.0140623
926500000 0.0016425 0.0145189 0.9983575 -0.0145189 0.9983575 -0.0145189 0.0016425 0.0145189
933750000 0.0016653 0.0149734 0.9983347 -0.0149734 0.9983347 -0.0149734 0.0016653 0.0149734
941000000 0.0016885 0.0154257 0.9983115 -0.0154257 0.9983115 -0.0154257 0.0016885 0.0154257
948250000 0.0017122 0.0158759 0.9982878 -0.0158759 0.9982878 -0.0158759 0.0017122 0.0158759
955500000 0.0017364 0.0163241 0.9982636 -0.0163241 0.9982636 -0.0163241 0.0017364 0.0163241
962750000 0.0017610 0.0167703 0.9982390 -0.0167703 0.9982390 -0.0167703 0.0017610 0.0167703
970000000 0.0017860 0.0172146 0.9982140 -0.0172146 0.9982140 -0.0172146 0.0017860 0.0172146
977250000 0.0018115 0.0176570 0.9981885 -0.0176570 0.9981885 -0.0176570 0.0018115 0.0176570
984500000 0.0018375 0.0180977 0.9981625 -0.0180977 0.9981625 -0.0180977 0.0018375 0.0180977
991750000 0.0018639 0.0185366 0.9981361 -0.0185366 0.9981361 -0.0185366 0.0018639 0.0185366
999000000 0.0018907 0.0189738 0.9981093 -0.0189738 0.9981093 -0.0189738 0.0018907 0.0189738
1006250000 0.0019180 0.0194093 0.9980820 -0.0194093 0.9980820 -0.0194093 0.0019180 0.0194093
1013500000 0.0019457 0.0198433 0.9980543 -0.0198433 0.9980543 -0.0198433 0.0019457 0.0198433
1020750000 0.0019738 0.0202757 0.9980262 -0.0202757 0.9980262 -0.0202757 0.0019738 0.0202757
1028000000 0.0020024 0.0207065 0.9979976 -0.0207065 0.9979976 -0.0207065 0.0020024 0.0207065
1035250000 0.0020314 0.0211360 0.9979686 -0.0211360 0.9979686 -0.0211360 0.0020314 0.0211360
1042500000 0.0020609 0.0215639 0.9979391 -0.0215639 0.9979391 -0.0215639 0.0020609 0.0215639
1049750000 0.0020908 0.0219905 0.9979092 -0.0219905 0.9979092 -0.0219905 0.0020908 0.0219905
1057000000 0.0021211 0.0224158 0.9978789 -0.0224158 0.9978789 -0.0224158 0.0021211 0.0224158
1064250000 0.0021518 0.0228397 0.9978482 -0.0228397 0.9978482 -0.0228397 0.0021518 0.0228397
1071500000 0.0021830 0.0232624 0.9978170 -0.0232624 0.9978170 -0.0232624 0.0021830 0.0232624
1078750000 0.0022147 0.0236839 0.9977853 -0.0236839 0.9977853 -0.0236839 0.0022147 0.0236839
1086000000 0.0022467 0.0241042 0.9977533 -0.0241042 0.9977533 -0.0241042 0.0022467 0.0241042
1093250000 0.0022793 0.0245233 0.9977207 -0.0245233 0.9977207 -0.0245233 0.0022793 0.0245233
1100500000 0.0023122 0.0249413 0.9976878 -0.0249413 0.9976878 -0.0249413 0.0023122 0.0249413
1107750000 0.0023456 0.0253582 0.9976544 -0.0253582 0.9976544 -0.0253582 0.0023456 0.0253582
1115000000 0.0023794 0.0257741 0.9976206 -0.0257741 0.9976206 -0.0257741 0.0023794 0.0257741
1122250000 0.0024137 0.0261889 0.9975863 -0.0261889 0.9975863 -0.0261889 0.0024137 0.0261889
1129500000 0.0024484 0.0266028 0.9975516 -0.0266028 0.9975516 -0.0266028 0.0024484 0.0266028
1136750000 0.0024835 0.0270158 0.9975165 -0.0270158 0.9975165 -0.0270158 0.0024835 0.0270158
1144000000 0.0025191 0.0274278 0.9974809 -0.0274278 0.9974809 -0.0274278 0.0025191 0.0274278
1151250000 0.0025551 0.0278389 0.9974449 -0.0278389 0.9974449 -0.0278389 0.0025551 0.0278389
1158500000 0.0025916 0.0282492 0.9974084 -0.0282492 0.9974084 -0.0282492 0.0025916 0.0282492
1165750000 0.0026286 0.0286586 0.9973714 -0.0286586 0.9973714 -0.0286586 0.0026286 0.0286586
1173000000 0.0026659 0.0290673 0.9973341 -0.0290673 0.9973341 -0.0290673 0.0026659 0.0290673
1180250000 0.0027038 0.0294751 0.9972962 -0.0294751 0.9972962 -0.0294751 0.0027038 0.0294751
1187500000 0.0027421 0.0298823 0.9972579 -0.0298823 0.9972579 -0.0298823 0.0027421 0.0298823
1194750000 0.0027808 0.0302887 0.9972192 -0.0302887 0.9972192 -0.0302887 0.0027808 0.0302887
1202000000 0.0028200 0.0306944 0.9971800 -0.0306944 0.9971800 -0.0306944 0.0028200 0.0306944
1209250000 0.0028597 0.0310995 0.9971403 -0.0310995 0.9971403 -0.0310995 0.0028597 0.0310995
1216500000 0.0028998 0.0315039 0.9971002 -0.0315039 0.9971002 -0.0315039 0.0028998 0.0315039
1223750000 0.0029404 0.0319077 0.9970596 -0.0319077 0.9970596 -0.0319077 0.0029404 0.0319077
1231000000 0.0029814 0.0323109 0.9970186 -0.0323109 0.9970186 -0.0323109 0.0029814 0.0323109
1238250000 0.0030230 0.0327136 0.9969770 -0.0327136 0.9969770 -0.0327136 0.0030230 0.0327136
1245500000 0.0030650 0.0331157 0.9969350 -0.0331157 0.9969350 -0.0331157 0.0030650 0.0331157
1252750000 0.0031075 0.0335173 0.9968925 -0.0335173 0.9968925 -0.0335173 0.0031075 0.0335173
1260000000 0.0031504 0.0339185 0.9968496 -0.0339185 0.9968496 -0.0339185 0.0031504 0.0339185
1267250000 0.0031939 0.0343191 0.9968061 -0.0343191 0.9968061 -0.0343191 0.0031939 0.0343191
1274500000 0.0032378 0.0347193 0.9967622 -0.0347193 0.9967622 -0.0347193 0.0032378 0.0347193
1281750000 0.0032822 0.0351191 0.9967178 -0.0351191 0.9967178 -0.0351191 0.0032822 0.0351191
1289000000 0.0033272 0.0355185 0.9966728 -0.0355185 0.9966728 -0.0355185 0.0033272 0.0355185
1296250000 0.0033726 0.0359175 0.9966274 -0.0359175 0.9966274 -0.0359175 0.0033726 0.0359175
1303500000 0.0034185 0.0363162 0.9965815 -0.0363162 0.9965815 -0.0363162 0.0034185 0.0363162
1310750000 0.0034649 0.0367145 0.9965351 -0.0367145 0.9965351 -0.0367145 0.0034649 0.0367145
1318000000 0.0035119 0.0371125 0.9964881 -0.0371125 0.9964881 -0.0371125 0.0035119 0.0371125
1325250000 0.0035593 0.0375101 0.9964407 -0.0375101 0.9964407 -0.0375101 0.0035593 0.0375101
1332500000 0.0036073 0.0379076 0.9963927 -0.0379076 0.9963927 -0.0379076 0.0036073 0.0379076
1339750000 0.0036558 0.0383047 0.9963442 -0.0383047 0.9963442 -0.0383047 0.0036558 0.0383047
1347000000 0.0037048 0.0387016 0.9962952 -0.0387016 0.9962952 -0.0387016 0.0037048 0.0387016
1354250000 0.0037544 0.0390983 0.9962456 -0.0390983 0.9962456 -0.0390983 0.0037544 0.0390983
1361500000 0.0038045 0.0394949 0.9961955 -0.0394949 0.9961955 -0.0394949 0.0038045 0.0394949
1368750000 0.0038551 0.0398912 0.9961449 -0.0398912 0.9961449 -0.0398912 0.0038551 0.0398912
1376000000 0.0039063 0.0402873 0.9960937 -0.0402873 0.9960937 -0.0402873 0.0039063 0.0402873
1383250000 0.0039580 0.0406834 0.9960420 -0.0406834 0.9960420 -0.0406834 0.0039580 0.0406834
1390500000 0.0040103 0.0410793 0.9959897 -0.0410793 0.9959897 -0.0410793 0.0040103 0.0410793
1397750000 0.0040632 0.0414750 0.9959368 -0.0414750 0.9959368 -0.0414750 0.0040632 0.0414750
1405000000 0.0041166 0.0418708 0.9958834 -0.0418708 0.9958834 -0.0418708 0.0041166 0.0418708
1412250000 0.0041706 0.0422664 0.9958294 -0.0422664 0.9958294 -0.0422664 0.0041706 0.0422664
1419500000 0.0042252 0.0426620 0.9957748 -0.0426620 0.9957748 -0.0426620 0.0042252 0.0426620
1426750000 0.0042804 0.0430575 0.9957196 -0.0430575 0.9957196 -0.0430575 0.0042804 0.0430575
1434000000 0.0043362 0.0434530 0.9956638 -0.0434530 0.9956638 -0.0434530 0.0043362 0.0434530
1441250000 0.0043926 0.0438485 0.9956074 -0.0438485 0.9956074 -0.0438485 0.0043926 0.0438485
1448500000 0.0044496 0.0442441 0.9955504 -0.0442441 0.9955504 -0.0442441 0.0044496 0.0442441
1455750000 0.0045072 0.0446396 0.9954928 -0.0446396 0.9954928 -0.0446396 0.0045072 0.0446396
1463000000 0.0045654 0.0450353 0.9954346 -0.0450353 0.9954346 -0.0450353 0.0045654 0.0450353
1470250000 0.0046242 0.0454309 0.9953758 -0.0454309 0.9953758 -0.0454309 0.0046242 0.0454309
1477500000 0.0046837 0.0458267 0.9953163 -0.0458267 0.9953163 -0.0458267 0.0046837 0.0458267
1484750000 0.0047439 0.0462226 0.9952561 -0.0462226 0.9952561 -0.0462226 0.0047439 0.0462226
1492000000 0.0048047 0.0466185 0.9951953 -0.0466185 0.9951953 -0.0466185 0.0048047 0.0466185
1499250000 0.0048661 0.0470146 0.9951339 -0.0470146 0.9951339 -0.0470146 0.0048661 0.0470146
1506500000 0.0049282 0.0474109 0.9950718 -0.0474109 0.9950718 -0.0474109 0.0049282 0.0474109
1513750000 0.0049910 0.0478073 0.9950090 -0.0478073 0.9950090 -0.0478073 0.0049910 0.0478073
1521000000 0.0050545 0.0482039 0.9949455 -0.0482039 0.9949455 -0.0482039 0.0050545 0.0482039
1528250000 0.0051187 0.0486007 0.9948813 -0.0486007 0.9948813 -0.0486007 0.0051187 0.0486007
1535500000 0.0051836 0.0489977 0.9948164 -0.0489977 0.9948164 -0.0489977 0.0051836 0.0489977
1542750000 0.0052492 0.0493949 0.9947508 -0.0493949 0.9947508 -0.0493949 0.0052492 0.0493949
1550000000 0.0053155 0.0497923 0.9946845 -0.0497923 0.9946845 -0.0497923 0.0053155 0.0497923
1557250000 0.0053826 0.0501900 0.9946174 -0.0501900 0.9946174 -0.0501900 0.0053826 0.0501900
1564500000 0.0054504 0.0505880 0.9945496 -0.0505880 0.9945496 -0.0505880 0.0054504 0.0505880
1571750000 0.0055190 0.0509863 0.9944810 -0.0509863 0.9944810 -0.0509863 0.0055190 0.0509863
1579000000 0.0055883 0.0513848 0.9944117 -0.0513848 0.9944117 -0.0513848 0.0055883 0.0513848
1586250000 0.0056584 0.0517837 0.9943416 -0.0517837 0.9943416 -0.0517837 0.0056584 0.0517837
1593500000 0.0057293 0.0521829 0.9942707 -0.0521829 0.9942707 -0.0521829 0.0057293 0.0521829
1600750000 0.0058010 0.0525824 0.9941990 -0.0525824 0.9941990 -0.0525824 0.0058010 0.0525824
1608000000 0.0058736 0.0529824 0.9941264 -0.0529824 0.9941264 -0.0529824 0.0058736 0.0529824
1615250000 0.0059469 0.0533826 0.9940531 -0.0533826 0.9940531 -0.0533826 0.0059469 0.0533826
1622500000 0.0060211 0.0537833 0.9939789 -0.0537833 0.9939789 -0.0537833 0.0060211 0.0537833
1629750000 0.0060962 0.0541844 0.9939038 -0.0541844 0.9939038 -0.0541844 0.0060962 0.0541844
