!Murata Part Number: GRM32E7U2J123JW32
!These Parameters are Measured in Series Mode Connection
!Data Generated on Mar 30, 2021
!       o--ll--o
!Port1            Port2
!       o------o
!Operation Temp=25[degC], DC Bias Voltage=0[V]
!Freq. Start=100[kHz] Stop=1000[MHz] 401[Steps]
# Hz S RI R 50
!Freq.(Hz) S11(Real) S11(Imag) S21(Real) S21(Imag) S12(Real) S12(Imag) S22(Real) S22(Imag)
100000 0.6426483 -0.4769430 0.3573517 0.4769430 0.3573517 0.4769430 0.6426483 -0.4769430
102329 0.6320957 -0.4799979 0.3679043 0.4799979 0.3679043 0.4799979 0.6320957 -0.4799979
104713 0.6214118 -0.4828372 0.3785882 0.4828372 0.3785882 0.4828372 0.6214118 -0.4828372
107152 0.6106057 -0.4854538 0.3893943 0.4854538 0.3893943 0.4854538 0.6106057 -0.4854538
109648 0.5996867 -0.4878413 0.4003133 0.4878413 0.4003133 0.4878413 0.5996867 -0.4878413
112202 0.5886647 -0.4899936 0.4113353 0.4899936 0.4113353 0.4899936 0.5886647 -0.4899936
114815 0.5775500 -0.4919053 0.4224500 0.4919053 0.4224500 0.4919053 0.5775500 -0.4919053
117490 0.5663533 -0.4935712 0.4336467 0.4935712 0.4336467 0.4935712 0.5663533 -0.4935712
120226 0.5550855 -0.4949871 0.4449145 0.4949871 0.4449145 0.4949871 0.5550855 -0.4949871
123027 0.5437581 -0.4961492 0.4562419 0.4961492 0.4562419 0.4961492 0.5437581 -0.4961492
125893 0.5323824 -0.4970544 0.4676176 0.4970544 0.4676176 0.4970544 0.5323824 -0.4970544
128825 0.5209703 -0.4977003 0.4790297 0.4977003 0.4790297 0.4977003 0.5209703 -0.4977003
131826 0.5095337 -0.4980849 0.4904663 0.4980849 0.4904663 0.4980849 0.5095337 -0.4980849
134896 0.4980846 -0.4982073 0.5019154 0.4982073 0.5019154 0.4982073 0.4980846 -0.4982073
138038 0.4866351 -0.4980670 0.5133649 0.4980670 0.5133649 0.4980670 0.4866351 -0.4980670
141254 0.4751972 -0.4976644 0.5248028 0.4976644 0.5248028 0.4976644 0.4751972 -0.4976644
144544 0.4637831 -0.4970003 0.5362169 0.4970003 0.5362169 0.4970003 0.4637831 -0.4970003
147911 0.4524046 -0.4960764 0.5475954 0.4960764 0.5475954 0.4960764 0.4524046 -0.4960764
151356 0.4410735 -0.4948952 0.5589265 0.4948952 0.5589265 0.4948952 0.4410735 -0.4948952
154882 0.4298015 -0.4934596 0.5701985 0.4934596 0.5701985 0.4934596 0.4298015 -0.4934596
158489 0.4185999 -0.4917732 0.5814001 0.4917732 0.5814001 0.4917732 0.4185999 -0.4917732
162181 0.4074798 -0.4898404 0.5925202 0.4898404 0.5925202 0.4898404 0.4074798 -0.4898404
165959 0.3964519 -0.4876660 0.6035481 0.4876660 0.6035481 0.4876660 0.3964519 -0.4876660
169824 0.3855266 -0.4852554 0.6144734 0.4852554 0.6144734 0.4852554 0.3855266 -0.4852554
173780 0.3747138 -0.4826146 0.6252862 0.4826146 0.6252862 0.4826146 0.3747138 -0.4826146
177828 0.3640232 -0.4797500 0.6359768 0.4797500 0.6359768 0.4797500 0.3640232 -0.4797500
181970 0.3534637 -0.4766686 0.6465363 0.4766686 0.6465363 0.4766686 0.3534637 -0.4766686
186209 0.3430439 -0.4733777 0.6569561 0.4733777 0.6569561 0.4733777 0.3430439 -0.4733777
190546 0.3327718 -0.4698850 0.6672282 0.4698850 0.6672282 0.4698850 0.3327718 -0.4698850
194984 0.3226551 -0.4661986 0.6773449 0.4661986 0.6773449 0.4661986 0.3226551 -0.4661986
199526 0.3127006 -0.4623267 0.6872994 0.4623267 0.6872994 0.4623267 0.3127006 -0.4623267
204174 0.3029149 -0.4582781 0.6970851 0.4582781 0.6970851 0.4582781 0.3029149 -0.4582781
208930 0.2933036 -0.4540614 0.7066964 0.4540614 0.7066964 0.4540614 0.2933036 -0.4540614
213796 0.2838721 -0.4496857 0.7161279 0.4496857 0.7161279 0.4496857 0.2838721 -0.4496857
218776 0.2746252 -0.4451600 0.7253748 0.4451600 0.7253748 0.4451600 0.2746252 -0.4451600
223872 0.2655669 -0.4404936 0.7344331 0.4404936 0.7344331 0.4404936 0.2655669 -0.4404936
229087 0.2567008 -0.4356956 0.7432992 0.4356956 0.7432992 0.4356956 0.2567008 -0.4356956
234423 0.2480301 -0.4307753 0.7519699 0.4307753 0.7519699 0.4307753 0.2480301 -0.4307753
239883 0.2395571 -0.4257418 0.7604429 0.4257418 0.7604429 0.4257418 0.2395571 -0.4257418
245471 0.2312839 -0.4206044 0.7687161 0.4206044 0.7687161 0.4206044 0.2312839 -0.4206044
251189 0.2232119 -0.4153720 0.7767881 0.4153720 0.7767881 0.4153720 0.2232119 -0.4153720
257040 0.2153421 -0.4100536 0.7846579 0.4100536 0.7846579 0.4100536 0.2153421 -0.4100536
263027 0.2076751 -0.4046579 0.7923249 0.4046579 0.7923249 0.4046579 0.2076751 -0.4046579
269153 0.2002109 -0.3991936 0.7997891 0.3991936 0.7997891 0.3991936 0.2002109 -0.3991936
275423 0.1929492 -0.3936690 0.8070508 0.3936690 0.8070508 0.3936690 0.1929492 -0.3936690
281838 0.1858893 -0.3880923 0.8141107 0.3880923 0.8141107 0.3880923 0.1858893 -0.3880923
288403 0.1790299 -0.3824716 0.8209701 0.3824716 0.8209701 0.3824716 0.1790299 -0.3824716
295121 0.1723697 -0.3768144 0.8276303 0.3768144 0.8276303 0.3768144 0.1723697 -0.3768144
301995 0.1659069 -0.3711283 0.8340931 0.3711283 0.8340931 0.3711283 0.1659069 -0.3711283
309030 0.1596393 -0.3654204 0.8403607 0.3654204 0.8403607 0.3654204 0.1596393 -0.3654204
316228 0.1535646 -0.3596976 0.8464354 0.3596976 0.8464354 0.3596976 0.1535646 -0.3596976
323594 0.1476802 -0.3539665 0.8523198 0.3539665 0.8523198 0.3539665 0.1476802 -0.3539665
331131 0.1419832 -0.3482334 0.8580168 0.3482334 0.8580168 0.3482334 0.1419832 -0.3482334
338844 0.1364705 -0.3425044 0.8635295 0.3425044 0.8635295 0.3425044 0.1364705 -0.3425044
346737 0.1311390 -0.3367851 0.8688610 0.3367851 0.8688610 0.3367851 0.1311390 -0.3367851
354813 0.1259852 -0.3310810 0.8740148 0.3310810 0.8740148 0.3310810 0.1259852 -0.3310810
363078 0.1210055 -0.3253972 0.8789945 0.3253972 0.8789945 0.3253972 0.1210055 -0.3253972
371535 0.1161963 -0.3197386 0.8838037 0.3197386 0.8838037 0.3197386 0.1161963 -0.3197386
380189 0.1115538 -0.3141097 0.8884462 0.3141097 0.8884462 0.3141097 0.1115538 -0.3141097
389045 0.1070743 -0.3085147 0.8929257 0.3085147 0.8929257 0.3085147 0.1070743 -0.3085147
398107 0.1027536 -0.3029577 0.8972464 0.3029577 0.8972464 0.3029577 0.1027536 -0.3029577
407380 0.0985880 -0.2974424 0.9014120 0.2974424 0.9014120 0.2974424 0.0985880 -0.2974424
416869 0.0945733 -0.2919722 0.9054267 0.2919722 0.9054267 0.2919722 0.0945733 -0.2919722
426580 0.0907056 -0.2865503 0.9092944 0.2865503 0.9092944 0.2865503 0.0907056 -0.2865503
436516 0.0869807 -0.2811796 0.9130193 0.2811796 0.9130193 0.2811796 0.0869807 -0.2811796
446684 0.0833948 -0.2758630 0.9166052 0.2758630 0.9166052 0.2758630 0.0833948 -0.2758630
457088 0.0799436 -0.2706027 0.9200564 0.2706027 0.9200564 0.2706027 0.0799436 -0.2706027
467735 0.0766233 -0.2654011 0.9233767 0.2654011 0.9233767 0.2654011 0.0766233 -0.2654011
478630 0.0734298 -0.2602603 0.9265702 0.2602603 0.9265702 0.2602603 0.0734298 -0.2602603
489779 0.0703592 -0.2551820 0.9296408 0.2551820 0.9296408 0.2551820 0.0703592 -0.2551820
501187 0.0674076 -0.2501679 0.9325924 0.2501679 0.9325924 0.2501679 0.0674076 -0.2501679
512861 0.0645712 -0.2452194 0.9354288 0.2452194 0.9354288 0.2452194 0.0645712 -0.2452194
524807 0.0618462 -0.2403378 0.9381538 0.2403378 0.9381538 0.2403378 0.0618462 -0.2403378
537032 0.0592289 -0.2355242 0.9407711 0.2355242 0.9407711 0.2355242 0.0592289 -0.2355242
549541 0.0567156 -0.2307796 0.9432844 0.2307796 0.9432844 0.2307796 0.0567156 -0.2307796
562341 0.0543028 -0.2261048 0.9456972 0.2261048 0.9456972 0.2261048 0.0543028 -0.2261048
575440 0.0519870 -0.2215003 0.9480130 0.2215003 0.9480130 0.2215003 0.0519870 -0.2215003
588844 0.0497647 -0.2169668 0.9502353 0.2169668 0.9502353 0.2169668 0.0497647 -0.2169668
602560 0.0476327 -0.2125045 0.9523673 0.2125045 0.9523673 0.2125045 0.0476327 -0.2125045
616595 0.0455875 -0.2081139 0.9544125 0.2081139 0.9544125 0.2081139 0.0455875 -0.2081139
630957 0.0436262 -0.2037950 0.9563738 0.2037950 0.9563738 0.2037950 0.0436262 -0.2037950
645654 0.0417455 -0.1995479 0.9582545 0.1995479 0.9582545 0.1995479 0.0417455 -0.1995479
660693 0.0399426 -0.1953726 0.9600574 0.1953726 0.9600574 0.1953726 0.0399426 -0.1953726
676083 0.0382144 -0.1912690 0.9617856 0.1912690 0.9617856 0.1912690 0.0382144 -0.1912690
691831 0.0365581 -0.1872368 0.9634419 0.1872368 0.9634419 0.1872368 0.0365581 -0.1872368
707946 0.0349710 -0.1832758 0.9650290 0.1832758 0.9650290 0.1832758 0.0349710 -0.1832758
724436 0.0334504 -0.1793856 0.9665496 0.1793856 0.9665496 0.1793856 0.0334504 -0.1793856
741310 0.0319937 -0.1755658 0.9680063 0.1755658 0.9680063 0.1755658 0.0319937 -0.1755658
758578 0.0305985 -0.1718159 0.9694015 0.1718159 0.9694015 0.1718159 0.0305985 -0.1718159
776247 0.0292623 -0.1681353 0.9707377 0.1681353 0.9707377 0.1681353 0.0292623 -0.1681353
794328 0.0279827 -0.1645236 0.9720173 0.1645236 0.9720173 0.1645236 0.0279827 -0.1645236
812831 0.0267576 -0.1609800 0.9732424 0.1609800 0.9732424 0.1609800 0.0267576 -0.1609800
831764 0.0255847 -0.1575039 0.9744153 0.1575039 0.9744153 0.1575039 0.0255847 -0.1575039
851138 0.0244620 -0.1540946 0.9755380 0.1540946 0.9755380 0.1540946 0.0244620 -0.1540946
870964 0.0233873 -0.1507513 0.9766127 0.1507513 0.9766127 0.1507513 0.0233873 -0.1507513
891251 0.0223588 -0.1474732 0.9776412 0.1474732 0.9776412 0.1474732 0.0223588 -0.1474732
912011 0.0213745 -0.1442596 0.9786255 0.1442596 0.9786255 0.1442596 0.0213745 -0.1442596
933254 0.0204327 -0.1411096 0.9795673 0.1411096 0.9795673 0.1411096 0.0204327 -0.1411096
954993 0.0195316 -0.1380224 0.9804684 0.1380224 0.9804684 0.1380224 0.0195316 -0.1380224
977237 0.0186694 -0.1349972 0.9813306 0.1349972 0.9813306 0.1349972 0.0186694 -0.1349972
1000000 0.0178447 -0.1320329 0.9821553 0.1320329 0.9821553 0.1320329 0.0178447 -0.1320329
1023293 0.0170558 -0.1291288 0.9829442 0.1291288 0.9829442 0.1291288 0.0170558 -0.1291288
1047129 0.0163011 -0.1262839 0.9836989 0.1262839 0.9836989 0.1262839 0.0163011 -0.1262839
1071519 0.0155794 -0.1234974 0.9844206 0.1234974 0.9844206 0.1234974 0.0155794 -0.1234974
1096478 0.0148892 -0.1207682 0.9851108 0.1207682 0.9851108 0.1207682 0.0148892 -0.1207682
1122018 0.0142291 -0.1180956 0.9857709 0.1180956 0.9857709 0.1180956 0.0142291 -0.1180956
1148154 0.0135979 -0.1154785 0.9864021 0.1154785 0.9864021 0.1154785 0.0135979 -0.1154785
1174898 0.0129943 -0.1129160 0.9870057 0.1129160 0.9870057 0.1129160 0.0129943 -0.1129160
1202264 0.0124172 -0.1104072 0.9875828 0.1104072 0.9875828 0.1104072 0.0124172 -0.1104072
1230269 0.0118655 -0.1079512 0.9881345 0.1079512 0.9881345 0.1079512 0.0118655 -0.1079512
1258925 0.0113380 -0.1055470 0.9886620 0.1055470 0.9886620 0.1055470 0.0113380 -0.1055470
1288250 0.0108337 -0.1031937 0.9891663 0.1031937 0.9891663 0.1031937 0.0108337 -0.1031937
1318257 0.0103517 -0.1008905 0.9896483 0.1008905 0.9896483 0.1008905 0.0103517 -0.1008905
1348963 0.0098909 -0.0986363 0.9901091 0.0986363 0.9901091 0.0986363 0.0098909 -0.0986363
1380384 0.0094504 -0.0964303 0.9905496 0.0964303 0.9905496 0.0964303 0.0094504 -0.0964303
1412538 0.0090294 -0.0942716 0.9909706 0.0942716 0.9909706 0.0942716 0.0090294 -0.0942716
1445440 0.0086270 -0.0921593 0.9913730 0.0921593 0.9913730 0.0921593 0.0086270 -0.0921593
1479108 0.0082425 -0.0900925 0.9917575 0.0900925 0.9917575 0.0900925 0.0082425 -0.0900925
1513561 0.0078749 -0.0880703 0.9921251 0.0880703 0.9921251 0.0880703 0.0078749 -0.0880703
1548817 0.0075237 -0.0860919 0.9924763 0.0860919 0.9924763 0.0860919 0.0075237 -0.0860919
1584893 0.0071880 -0.0841564 0.9928120 0.0841564 0.9928120 0.0841564 0.0071880 -0.0841564
1621810 0.0068672 -0.0822629 0.9931328 0.0822629 0.9931328 0.0822629 0.0068672 -0.0822629
1659587 0.0065607 -0.0804107 0.9934393 0.0804107 0.9934393 0.0804107 0.0065607 -0.0804107
1698244 0.0062678 -0.0785989 0.9937322 0.0785989 0.9937322 0.0785989 0.0062678 -0.0785989
1737801 0.0059879 -0.0768266 0.9940121 0.0768266 0.9940121 0.0768266 0.0059879 -0.0768266
1778279 0.0057205 -0.0750932 0.9942795 0.0750932 0.9942795 0.0750932 0.0057205 -0.0750932
1819701 0.0054650 -0.0733977 0.9945350 0.0733977 0.9945350 0.0733977 0.0054650 -0.0733977
1862087 0.0052209 -0.0717395 0.9947791 0.0717395 0.9947791 0.0717395 0.0052209 -0.0717395
1905461 0.0049877 -0.0701177 0.9950123 0.0701177 0.9950123 0.0701177 0.0049877 -0.0701177
1949845 0.0047648 -0.0685316 0.9952352 0.0685316 0.9952352 0.0685316 0.0047648 -0.0685316
1995262 0.0045519 -0.0669805 0.9954481 0.0669805 0.9954481 0.0669805 0.0045519 -0.0669805
2041738 0.0043485 -0.0654636 0.9956515 0.0654636 0.9956515 0.0654636 0.0043485 -0.0654636
2089296 0.0041542 -0.0639802 0.9958458 0.0639802 0.9958458 0.0639802 0.0041542 -0.0639802
2137962 0.0039686 -0.0625295 0.9960314 0.0625295 0.9960314 0.0625295 0.0039686 -0.0625295
2187762 0.0037913 -0.0611110 0.9962087 0.0611110 0.9962087 0.0611110 0.0037913 -0.0611110
2238721 0.0036219 -0.0597239 0.9963781 0.0597239 0.9963781 0.0597239 0.0036219 -0.0597239
2290868 0.0034601 -0.0583676 0.9965399 0.0583676 0.9965399 0.0583676 0.0034601 -0.0583676
2344229 0.0033055 -0.0570413 0.9966945 0.0570413 0.9966945 0.0570413 0.0033055 -0.0570413
2398833 0.0031578 -0.0557445 0.9968422 0.0557445 0.9968422 0.0557445 0.0031578 -0.0557445
2454709 0.0030168 -0.0544765 0.9969832 0.0544765 0.9969832 0.0544765 0.0030168 -0.0544765
2511886 0.0028821 -0.0532367 0.9971179 0.0532367 0.9971179 0.0532367 0.0028821 -0.0532367
2570396 0.0027534 -0.0520245 0.9972466 0.0520245 0.9972466 0.0520245 0.0027534 -0.0520245
2630268 0.0026305 -0.0508393 0.9973695 0.0508393 0.9973695 0.0508393 0.0026305 -0.0508393
2691535 0.0025132 -0.0496804 0.9974868 0.0496804 0.9974868 0.0496804 0.0025132 -0.0496804
2754229 0.0024011 -0.0485474 0.9975989 0.0485474 0.9975989 0.0485474 0.0024011 -0.0485474
2818383 0.0022940 -0.0474396 0.9977060 0.0474396 0.9977060 0.0474396 0.0022940 -0.0474396
2884032 0.0021917 -0.0463565 0.9978083 0.0463565 0.9978083 0.0463565 0.0021917 -0.0463565
2951209 0.0020941 -0.0452975 0.9979059 0.0452975 0.9979059 0.0452975 0.0020941 -0.0452975
3019952 0.0020008 -0.0442622 0.9979992 0.0442622 0.9979992 0.0442622 0.0020008 -0.0442622
3090295 0.0019117 -0.0432500 0.9980883 0.0432500 0.9980883 0.0432500 0.0019117 -0.0432500
3162278 0.0018267 -0.0422603 0.9981733 0.0422603 0.9981733 0.0422603 0.0018267 -0.0422603
3235937 0.0017455 -0.0412928 0.9982545 0.0412928 0.9982545 0.0412928 0.0017455 -0.0412928
3311311 0.0016679 -0.0403468 0.9983321 0.0403468 0.9983321 0.0403468 0.0016679 -0.0403468
3388442 0.0015938 -0.0394219 0.9984062 0.0394219 0.9984062 0.0394219 0.0015938 -0.0394219
3467369 0.0015231 -0.0385177 0.9984769 0.0385177 0.9984769 0.0385177 0.0015231 -0.0385177
3548134 0.0014556 -0.0376337 0.9985444 0.0376337 0.9985444 0.0376337 0.0014556 -0.0376337
3630781 0.0013911 -0.0367694 0.9986089 0.0367694 0.9986089 0.0367694 0.0013911 -0.0367694
3715352 0.0013296 -0.0359244 0.9986704 0.0359244 0.9986704 0.0359244 0.0013296 -0.0359244
3801894 0.0012708 -0.0350982 0.9987292 0.0350982 0.9987292 0.0350982 0.0012708 -0.0350982
3890451 0.0012147 -0.0342904 0.9987853 0.0342904 0.9987853 0.0342904 0.0012147 -0.0342904
3981072 0.0011611 -0.0335007 0.9988389 0.0335007 0.9988389 0.0335007 0.0011611 -0.0335007
4073803 0.0011100 -0.0327286 0.9988900 0.0327286 0.9988900 0.0327286 0.0011100 -0.0327286
4168694 0.0010612 -0.0319737 0.9989388 0.0319737 0.9989388 0.0319737 0.0010612 -0.0319737
4265795 0.0010146 -0.0312356 0.9989854 0.0312356 0.9989854 0.0312356 0.0010146 -0.0312356
4365158 0.0009702 -0.0305139 0.9990298 0.0305139 0.9990298 0.0305139 0.0009702 -0.0305139
4466836 0.0009277 -0.0298084 0.9990723 0.0298084 0.9990723 0.0298084 0.0009277 -0.0298084
4570882 0.0008872 -0.0291185 0.9991128 0.0291185 0.9991128 0.0291185 0.0008872 -0.0291185
4677351 0.0008486 -0.0284439 0.9991514 0.0284439 0.9991514 0.0284439 0.0008486 -0.0284439
4786301 0.0008117 -0.0277844 0.9991883 0.0277844 0.9991883 0.0277844 0.0008117 -0.0277844
4897788 0.0007765 -0.0271395 0.9992235 0.0271395 0.9992235 0.0271395 0.0007765 -0.0271395
5011872 0.0007429 -0.0265089 0.9992571 0.0265089 0.9992571 0.0265089 0.0007429 -0.0265089
5128614 0.0007109 -0.0258923 0.9992891 0.0258923 0.9992891 0.0258923 0.0007109 -0.0258923
5248075 0.0006803 -0.0252893 0.9993197 0.0252893 0.9993197 0.0252893 0.0006803 -0.0252893
5370318 0.0006512 -0.0246997 0.9993488 0.0246997 0.9993488 0.0246997 0.0006512 -0.0246997
5495409 0.0006233 -0.0241232 0.9993767 0.0241232 0.9993767 0.0241232 0.0006233 -0.0241232
5623413 0.0005968 -0.0235594 0.9994032 0.0235594 0.9994032 0.0235594 0.0005968 -0.0235594
5754399 0.0005715 -0.0230080 0.9994285 0.0230080 0.9994285 0.0230080 0.0005715 -0.0230080
5888437 0.0005474 -0.0224689 0.9994526 0.0224689 0.9994526 0.0224689 0.0005474 -0.0224689
6025596 0.0005244 -0.0219416 0.9994756 0.0219416 0.9994756 0.0219416 0.0005244 -0.0219416
6165950 0.0005025 -0.0214259 0.9994975 0.0214259 0.9994975 0.0214259 0.0005025 -0.0214259
6309573 0.0004816 -0.0209215 0.9995184 0.0209215 0.9995184 0.0209215 0.0004816 -0.0209215
6456542 0.0004617 -0.0204282 0.9995383 0.0204282 0.9995383 0.0204282 0.0004617 -0.0204282
6606934 0.0004428 -0.0199457 0.9995572 0.0199457 0.9995572 0.0199457 0.0004428 -0.0199457
6760830 0.0004247 -0.0194738 0.9995753 0.0194738 0.9995753 0.0194738 0.0004247 -0.0194738
6918310 0.0004075 -0.0190122 0.9995925 0.0190122 0.9995925 0.0190122 0.0004075 -0.0190122
7079458 0.0003911 -0.0185607 0.9996089 0.0185607 0.9996089 0.0185607 0.0003911 -0.0185607
7244360 0.0003755 -0.0181190 0.9996245 0.0181190 0.9996245 0.0181190 0.0003755 -0.0181190
7413102 0.0003606 -0.0176869 0.9996394 0.0176869 0.9996394 0.0176869 0.0003606 -0.0176869
7585776 0.0003464 -0.0172642 0.9996536 0.0172642 0.9996536 0.0172642 0.0003464 -0.0172642
7762471 0.0003330 -0.0168506 0.9996670 0.0168506 0.9996670 0.0168506 0.0003330 -0.0168506
7943282 0.0003202 -0.0164460 0.9996798 0.0164460 0.9996798 0.0164460 0.0003202 -0.0164460
8128305 0.0003080 -0.0160501 0.9996920 0.0160501 0.9996920 0.0160501 0.0003080 -0.0160501
8317638 0.0002964 -0.0156627 0.9997036 0.0156627 0.9997036 0.0156627 0.0002964 -0.0156627
8511380 0.0002853 -0.0152836 0.9997147 0.0152836 0.9997147 0.0152836 0.0002853 -0.0152836
8709636 0.0002748 -0.0149127 0.9997252 0.0149127 0.9997252 0.0149127 0.0002748 -0.0149127
8912509 0.0002649 -0.0145496 0.9997351 0.0145496 0.9997351 0.0145496 0.0002649 -0.0145496
9120108 0.0002554 -0.0141943 0.9997446 0.0141943 0.9997446 0.0141943 0.0002554 -0.0141943
9332543 0.0002464 -0.0138466 0.9997536 0.0138466 0.9997536 0.0138466 0.0002464 -0.0138466
9549926 0.0002379 -0.0135062 0.9997621 0.0135062 0.9997621 0.0135062 0.0002379 -0.0135062
9772372 0.0002298 -0.0131729 0.9997702 0.0131729 0.9997702 0.0131729 0.0002298 -0.0131729
10000000 0.0002221 -0.0128467 0.9997779 0.0128467 0.9997779 0.0128467 0.0002221 -0.0128467
10232930 0.0002148 -0.0125273 0.9997852 0.0125273 0.9997852 0.0125273 0.0002148 -0.0125273
10471285 0.0002079 -0.0122145 0.9997921 0.0122145 0.9997921 0.0122145 0.0002079 -0.0122145
10715193 0.0002013 -0.0119083 0.9997987 0.0119083 0.9997987 0.0119083 0.0002013 -0.0119083
10964782 0.0001951 -0.0116084 0.9998049 0.0116084 0.9998049 0.0116084 0.0001951 -0.0116084
11220185 0.0001892 -0.0113146 0.9998108 0.0113146 0.9998108 0.0113146 0.0001892 -0.0113146
11481536 0.0001837 -0.0110269 0.9998163 0.0110269 0.9998163 0.0110269 0.0001837 -0.0110269
11748976 0.0001784 -0.0107451 0.9998216 0.0107451 0.9998216 0.0107451 0.0001784 -0.0107451
12022644 0.0001734 -0.0104689 0.9998266 0.0104689 0.9998266 0.0104689 0.0001734 -0.0104689
12302688 0.0001688 -0.0101984 0.9998312 0.0101984 0.9998312 0.0101984 0.0001688 -0.0101984
12589254 0.0001643 -0.0099332 0.9998357 0.0099332 0.9998357 0.0099332 0.0001643 -0.0099332
12882496 0.0001601 -0.0096734 0.9998399 0.0096734 0.9998399 0.0096734 0.0001601 -0.0096734
13182567 0.0001562 -0.0094186 0.9998438 0.0094186 0.9998438 0.0094186 0.0001562 -0.0094186
13489629 0.0001525 -0.0091689 0.9998475 0.0091689 0.9998475 0.0091689 0.0001525 -0.0091689
13803843 0.0001490 -0.0089241 0.9998510 0.0089241 0.9998510 0.0089241 0.0001490 -0.0089241
14125375 0.0001457 -0.0086841 0.9998543 0.0086841 0.9998543 0.0086841 0.0001457 -0.0086841
14454398 0.0001427 -0.0084486 0.9998573 0.0084486 0.9998573 0.0084486 0.0001427 -0.0084486
14791084 0.0001398 -0.0082177 0.9998602 0.0082177 0.9998602 0.0082177 0.0001398 -0.0082177
