!Murata Part Number: GRM32E5C2J333JWAA
!These Parameters are Measured in Series Mode Connection
!Data Generated on Mar 30, 2021
!       o--ll--o
!Port1            Port2
!       o------o
!Operation Temp=25[degC], DC Bias Voltage=0[V]
!Freq. Start=100[kHz] Stop=1000[MHz] 401[Steps]
# Hz S RI R 50
!Freq.(Hz) S11(Real) S11(Imag) S21(Real) S21(Imag) S12(Real) S12(Imag) S22(Real) S22(Imag)
100000 0.1953693 -0.3960037 0.8046307 0.3960037 0.8046307 0.3960037 0.1953693 -0.3960037
102329 0.1882458 -0.3904281 0.8117542 0.3904281 0.8117542 0.3904281 0.1882458 -0.3904281
104713 0.1813234 -0.3848068 0.8186766 0.3848068 0.8186766 0.3848068 0.1813234 -0.3848068
107152 0.1746007 -0.3791474 0.8253993 0.3791474 0.8253993 0.3791474 0.1746007 -0.3791474
109648 0.1680761 -0.3734575 0.8319239 0.3734575 0.8319239 0.3734575 0.1680761 -0.3734575
112202 0.1617474 -0.3677443 0.8382526 0.3677443 0.8382526 0.3677443 0.1617474 -0.3677443
114815 0.1556123 -0.3620147 0.8443877 0.3620147 0.8443877 0.3620147 0.1556123 -0.3620147
117490 0.1496682 -0.3562754 0.8503318 0.3562754 0.8503318 0.3562754 0.1496682 -0.3562754
120226 0.1439124 -0.3505327 0.8560876 0.3505327 0.8560876 0.3505327 0.1439124 -0.3505327
123027 0.1383419 -0.3447927 0.8616581 0.3447927 0.8616581 0.3447927 0.1383419 -0.3447927
125893 0.1329533 -0.3390612 0.8670467 0.3390612 0.8670467 0.3390612 0.1329533 -0.3390612
128825 0.1277434 -0.3333437 0.8722566 0.3333437 0.8722566 0.3333437 0.1277434 -0.3333437
131826 0.1227087 -0.3276453 0.8772913 0.3276453 0.8772913 0.3276453 0.1227087 -0.3276453
134896 0.1178454 -0.3219709 0.8821546 0.3219709 0.8821546 0.3219709 0.1178454 -0.3219709
138038 0.1131499 -0.3163252 0.8868501 0.3163252 0.8868501 0.3163252 0.1131499 -0.3163252
141254 0.1086183 -0.3107124 0.8913817 0.3107124 0.8913817 0.3107124 0.1086183 -0.3107124
144544 0.1042468 -0.3051367 0.8957532 0.3051367 0.8957532 0.3051367 0.1042468 -0.3051367
147911 0.1000314 -0.2996017 0.8999686 0.2996017 0.8999686 0.2996017 0.1000314 -0.2996017
151356 0.0959680 -0.2941110 0.9040320 0.2941110 0.9040320 0.2941110 0.0959680 -0.2941110
154882 0.0920527 -0.2886679 0.9079473 0.2886679 0.9079473 0.2886679 0.0920527 -0.2886679
158489 0.0882814 -0.2832753 0.9117186 0.2832753 0.9117186 0.2832753 0.0882814 -0.2832753
162181 0.0846501 -0.2779360 0.9153499 0.2779360 0.9153499 0.2779360 0.0846501 -0.2779360
165959 0.0811548 -0.2726525 0.9188452 0.2726525 0.9188452 0.2726525 0.0811548 -0.2726525
169824 0.0777915 -0.2674271 0.9222085 0.2674271 0.9222085 0.2674271 0.0777915 -0.2674271
173780 0.0745561 -0.2622619 0.9254439 0.2622619 0.9254439 0.2622619 0.0745561 -0.2622619
177828 0.0714448 -0.2571589 0.9285552 0.2571589 0.9285552 0.2571589 0.0714448 -0.2571589
181970 0.0684537 -0.2521196 0.9315463 0.2521196 0.9315463 0.2521196 0.0684537 -0.2521196
186209 0.0655788 -0.2471456 0.9344212 0.2471456 0.9344212 0.2471456 0.0655788 -0.2471456
190546 0.0628165 -0.2422381 0.9371835 0.2422381 0.9371835 0.2422381 0.0628165 -0.2422381
194984 0.0601630 -0.2373985 0.9398370 0.2373985 0.9398370 0.2373985 0.0601630 -0.2373985
199526 0.0576146 -0.2326275 0.9423854 0.2326275 0.9423854 0.2326275 0.0576146 -0.2326275
204174 0.0551678 -0.2279261 0.9448322 0.2279261 0.9448322 0.2279261 0.0551678 -0.2279261
208930 0.0528190 -0.2232949 0.9471810 0.2232949 0.9471810 0.2232949 0.0528190 -0.2232949
213796 0.0505648 -0.2187346 0.9494352 0.2187346 0.9494352 0.2187346 0.0505648 -0.2187346
218776 0.0484018 -0.2142455 0.9515982 0.2142455 0.9515982 0.2142455 0.0484018 -0.2142455
223872 0.0463268 -0.2098280 0.9536732 0.2098280 0.9536732 0.2098280 0.0463268 -0.2098280
229087 0.0443366 -0.2054822 0.9556634 0.2054822 0.9556634 0.2054822 0.0443366 -0.2054822
234423 0.0424280 -0.2012083 0.9575720 0.2012083 0.9575720 0.2012083 0.0424280 -0.2012083
239883 0.0405981 -0.1970061 0.9594019 0.1970061 0.9594019 0.1970061 0.0405981 -0.1970061
245471 0.0388439 -0.1928758 0.9611561 0.1928758 0.9611561 0.1928758 0.0388439 -0.1928758
251189 0.0371625 -0.1888170 0.9628375 0.1888170 0.9628375 0.1888170 0.0371625 -0.1888170
257040 0.0355512 -0.1848295 0.9644488 0.1848295 0.9644488 0.1848295 0.0355512 -0.1848295
263027 0.0340072 -0.1809129 0.9659928 0.1809129 0.9659928 0.1809129 0.0340072 -0.1809129
269153 0.0325281 -0.1770670 0.9674719 0.1770670 0.9674719 0.1770670 0.0325281 -0.1770670
275423 0.0311112 -0.1732911 0.9688888 0.1732911 0.9688888 0.1732911 0.0311112 -0.1732911
281838 0.0297541 -0.1695848 0.9702459 0.1695848 0.9702459 0.1695848 0.0297541 -0.1695848
288403 0.0284544 -0.1659476 0.9715456 0.1659476 0.9715456 0.1659476 0.0284544 -0.1659476
295121 0.0272099 -0.1623788 0.9727901 0.1623788 0.9727901 0.1623788 0.0272099 -0.1623788
301995 0.0260184 -0.1588777 0.9739816 0.1588777 0.9739816 0.1588777 0.0260184 -0.1588777
309030 0.0248778 -0.1554437 0.9751222 0.1554437 0.9751222 0.1554437 0.0248778 -0.1554437
316228 0.0237859 -0.1520760 0.9762141 0.1520760 0.9762141 0.1520760 0.0237859 -0.1520760
323594 0.0227408 -0.1487738 0.9772592 0.1487738 0.9772592 0.1487738 0.0227408 -0.1487738
331131 0.0217407 -0.1455364 0.9782593 0.1455364 0.9782593 0.1455364 0.0217407 -0.1455364
338844 0.0207836 -0.1423630 0.9792164 0.1423630 0.9792164 0.1423630 0.0207836 -0.1423630
346737 0.0198678 -0.1392527 0.9801322 0.1392527 0.9801322 0.1392527 0.0198678 -0.1392527
354813 0.0189915 -0.1362046 0.9810085 0.1362046 0.9810085 0.1362046 0.0189915 -0.1362046
363078 0.0181532 -0.1332179 0.9818468 0.1332179 0.9818468 0.1332179 0.0181532 -0.1332179
371535 0.0173513 -0.1302917 0.9826487 0.1302917 0.9826487 0.1302917 0.0173513 -0.1302917
380189 0.0165842 -0.1274251 0.9834158 0.1274251 0.9834158 0.1274251 0.0165842 -0.1274251
389045 0.0158505 -0.1246171 0.9841495 0.1246171 0.9841495 0.1246171 0.0158505 -0.1246171
398107 0.0151488 -0.1218670 0.9848512 0.1218670 0.9848512 0.1218670 0.0151488 -0.1218670
407380 0.0144777 -0.1191737 0.9855223 0.1191737 0.9855223 0.1191737 0.0144777 -0.1191737
416869 0.0138359 -0.1165363 0.9861641 0.1165363 0.9861641 0.1165363 0.0138359 -0.1165363
426580 0.0132222 -0.1139539 0.9867778 0.1139539 0.9867778 0.1139539 0.0132222 -0.1139539
436516 0.0126354 -0.1114255 0.9873646 0.1114255 0.9873646 0.1114255 0.0126354 -0.1114255
446684 0.0120743 -0.1089504 0.9879257 0.1089504 0.9879257 0.1089504 0.0120743 -0.1089504
457088 0.0115379 -0.1065274 0.9884621 0.1065274 0.9884621 0.1065274 0.0115379 -0.1065274
467735 0.0110251 -0.1041557 0.9889749 0.1041557 0.9889749 0.1041557 0.0110251 -0.1041557
478630 0.0105348 -0.1018344 0.9894652 0.1018344 0.9894652 0.1018344 0.0105348 -0.1018344
489779 0.0100662 -0.0995625 0.9899338 0.0995625 0.9899338 0.0995625 0.0100662 -0.0995625
501187 0.0096182 -0.0973392 0.9903818 0.0973392 0.9903818 0.0973392 0.0096182 -0.0973392
512861 0.0091900 -0.0951636 0.9908100 0.0951636 0.9908100 0.0951636 0.0091900 -0.0951636
524807 0.0087807 -0.0930346 0.9912193 0.0930346 0.9912193 0.0930346 0.0087807 -0.0930346
537032 0.0083895 -0.0909516 0.9916105 0.0909516 0.9916105 0.0909516 0.0083895 -0.0909516
549541 0.0080156 -0.0889136 0.9919844 0.0889136 0.9919844 0.0889136 0.0080156 -0.0889136
562341 0.0076583 -0.0869196 0.9923417 0.0869196 0.9923417 0.0869196 0.0076583 -0.0869196
575440 0.0073168 -0.0849690 0.9926832 0.0849690 0.9926832 0.0849690 0.0073168 -0.0849690
588844 0.0069905 -0.0830607 0.9930095 0.0830607 0.9930095 0.0830607 0.0069905 -0.0830607
602560 0.0066786 -0.0811940 0.9933214 0.0811940 0.9933214 0.0811940 0.0066786 -0.0811940
616595 0.0063806 -0.0793681 0.9936194 0.0793681 0.9936194 0.0793681 0.0063806 -0.0793681
630957 0.0060959 -0.0775821 0.9939041 0.0775821 0.9939041 0.0775821 0.0060959 -0.0775821
645654 0.0058238 -0.0758353 0.9941762 0.0758353 0.9941762 0.0758353 0.0058238 -0.0758353
660693 0.0055638 -0.0741267 0.9944362 0.0741267 0.9944362 0.0741267 0.0055638 -0.0741267
676083 0.0053154 -0.0724558 0.9946846 0.0724558 0.9946846 0.0724558 0.0053154 -0.0724558
691831 0.0050780 -0.0708216 0.9949220 0.0708216 0.9949220 0.0708216 0.0050780 -0.0708216
707946 0.0048512 -0.0692234 0.9951488 0.0692234 0.9951488 0.0692234 0.0048512 -0.0692234
724436 0.0046345 -0.0676605 0.9953655 0.0676605 0.9953655 0.0676605 0.0046345 -0.0676605
741310 0.0044275 -0.0661321 0.9955725 0.0661321 0.9955725 0.0661321 0.0044275 -0.0661321
758578 0.0042298 -0.0646376 0.9957702 0.0646376 0.9957702 0.0646376 0.0042298 -0.0646376
776247 0.0040408 -0.0631761 0.9959592 0.0631761 0.9959592 0.0631761 0.0040408 -0.0631761
794328 0.0038603 -0.0617471 0.9961397 0.0617471 0.9961397 0.0617471 0.0038603 -0.0617471
812831 0.0036879 -0.0603498 0.9963121 0.0603498 0.9963121 0.0603498 0.0036879 -0.0603498
831764 0.0035231 -0.0589836 0.9964769 0.0589836 0.9964769 0.0589836 0.0035231 -0.0589836
851138 0.0033658 -0.0576477 0.9966342 0.0576477 0.9966342 0.0576477 0.0033658 -0.0576477
870964 0.0032154 -0.0563416 0.9967846 0.0563416 0.9967846 0.0563416 0.0032154 -0.0563416
891251 0.0030718 -0.0550646 0.9969282 0.0550646 0.9969282 0.0550646 0.0030718 -0.0550646
912011 0.0029346 -0.0538161 0.9970654 0.0538161 0.9970654 0.0538161 0.0029346 -0.0538161
933254 0.0028036 -0.0525954 0.9971964 0.0525954 0.9971964 0.0525954 0.0028036 -0.0525954
954993 0.0026784 -0.0514020 0.9973216 0.0514020 0.9973216 0.0514020 0.0026784 -0.0514020
977237 0.0025588 -0.0502352 0.9974412 0.0502352 0.9974412 0.0502352 0.0025588 -0.0502352
1000000 0.0024446 -0.0490946 0.9975554 0.0490946 0.9975554 0.0490946 0.0024446 -0.0490946
1023293 0.0023355 -0.0479795 0.9976645 0.0479795 0.9976645 0.0479795 0.0023355 -0.0479795
1047129 0.0022313 -0.0468893 0.9977687 0.0468893 0.9977687 0.0468893 0.0022313 -0.0468893
1071519 0.0021318 -0.0458235 0.9978682 0.0458235 0.9978682 0.0458235 0.0021318 -0.0458235
1096478 0.0020368 -0.0447817 0.9979632 0.0447817 0.9979632 0.0447817 0.0020368 -0.0447817
1122018 0.0019460 -0.0437631 0.9980540 0.0437631 0.9980540 0.0437631 0.0019460 -0.0437631
1148154 0.0018592 -0.0427675 0.9981408 0.0427675 0.9981408 0.0427675 0.0018592 -0.0427675
1174898 0.0017764 -0.0417941 0.9982236 0.0417941 0.9982236 0.0417941 0.0017764 -0.0417941
1202264 0.0016973 -0.0408427 0.9983027 0.0408427 0.9983027 0.0408427 0.0016973 -0.0408427
1230269 0.0016217 -0.0399125 0.9983783 0.0399125 0.9983783 0.0399125 0.0016217 -0.0399125
1258925 0.0015496 -0.0390033 0.9984504 0.0390033 0.9984504 0.0390033 0.0015496 -0.0390033
1288250 0.0014807 -0.0381145 0.9985193 0.0381145 0.9985193 0.0381145 0.0014807 -0.0381145
1318257 0.0014148 -0.0372456 0.9985852 0.0372456 0.9985852 0.0372456 0.0014148 -0.0372456
1348963 0.0013520 -0.0363963 0.9986480 0.0363963 0.9986480 0.0363963 0.0013520 -0.0363963
1380384 0.0012919 -0.0355661 0.9987081 0.0355661 0.9987081 0.0355661 0.0012919 -0.0355661
1412538 0.0012346 -0.0347545 0.9987654 0.0347545 0.9987654 0.0347545 0.0012346 -0.0347545
1445440 0.0011799 -0.0339612 0.9988201 0.0339612 0.9988201 0.0339612 0.0011799 -0.0339612
1479108 0.0011276 -0.0331857 0.9988724 0.0331857 0.9988724 0.0331857 0.0011276 -0.0331857
1513561 0.0010776 -0.0324277 0.9989224 0.0324277 0.9989224 0.0324277 0.0010776 -0.0324277
1548817 0.0010300 -0.0316867 0.9989700 0.0316867 0.9989700 0.0316867 0.0010300 -0.0316867
1584893 0.0009844 -0.0309624 0.9990156 0.0309624 0.9990156 0.0309624 0.0009844 -0.0309624
1621810 0.0009409 -0.0302543 0.9990591 0.0302543 0.9990591 0.0302543 0.0009409 -0.0302543
1659587 0.0008994 -0.0295622 0.9991006 0.0295622 0.9991006 0.0295622 0.0008994 -0.0295622
1698244 0.0008598 -0.0288857 0.9991402 0.0288857 0.9991402 0.0288857 0.0008598 -0.0288857
1737801 0.0008219 -0.0282243 0.9991781 0.0282243 0.9991781 0.0282243 0.0008219 -0.0282243
1778279 0.0007858 -0.0275779 0.9992142 0.0275779 0.9992142 0.0275779 0.0007858 -0.0275779
1819701 0.0007513 -0.0269459 0.9992487 0.0269459 0.9992487 0.0269459 0.0007513 -0.0269459
1862087 0.0007183 -0.0263282 0.9992817 0.0263282 0.9992817 0.0263282 0.0007183 -0.0263282
1905461 0.0006869 -0.0257243 0.9993131 0.0257243 0.9993131 0.0257243 0.0006869 -0.0257243
1949845 0.0006568 -0.0251341 0.9993432 0.0251341 0.9993432 0.0251341 0.0006568 -0.0251341
1995262 0.0006282 -0.0245570 0.9993718 0.0245570 0.9993718 0.0245570 0.0006282 -0.0245570
2041738 0.0006008 -0.0239930 0.9993992 0.0239930 0.9993992 0.0239930 0.0006008 -0.0239930
2089296 0.0005747 -0.0234416 0.9994253 0.0234416 0.9994253 0.0234416 0.0005747 -0.0234416
2137962 0.0005497 -0.0229025 0.9994503 0.0229025 0.9994503 0.0229025 0.0005497 -0.0229025
2187762 0.0005259 -0.0223756 0.9994741 0.0223756 0.9994741 0.0223756 0.0005259 -0.0223756
2238721 0.0005032 -0.0218605 0.9994968 0.0218605 0.9994968 0.0218605 0.0005032 -0.0218605
2290868 0.0004815 -0.0213569 0.9995185 0.0213569 0.9995185 0.0213569 0.0004815 -0.0213569
2344229 0.0004608 -0.0208647 0.9995392 0.0208647 0.9995392 0.0208647 0.0004608 -0.0208647
2398833 0.0004411 -0.0203834 0.9995589 0.0203834 0.9995589 0.0203834 0.0004411 -0.0203834
2454709 0.0004222 -0.0199129 0.9995778 0.0199129 0.9995778 0.0199129 0.0004222 -0.0199129
2511886 0.0004042 -0.0194530 0.9995958 0.0194530 0.9995958 0.0194530 0.0004042 -0.0194530
2570396 0.0003871 -0.0190033 0.9996129 0.0190033 0.9996129 0.0190033 0.0003871 -0.0190033
2630268 0.0003707 -0.0185637 0.9996293 0.0185637 0.9996293 0.0185637 0.0003707 -0.0185637
2691535 0.0003551 -0.0181339 0.9996449 0.0181339 0.9996449 0.0181339 0.0003551 -0.0181339
2754229 0.0003402 -0.0177137 0.9996598 0.0177137 0.9996598 0.0177137 0.0003402 -0.0177137
2818383 0.0003260 -0.0173029 0.9996740 0.0173029 0.9996740 0.0173029 0.0003260 -0.0173029
2884032 0.0003125 -0.0169013 0.9996875 0.0169013 0.9996875 0.0169013 0.0003125 -0.0169013
2951209 0.0002995 -0.0165085 0.9997005 0.0165085 0.9997005 0.0165085 0.0002995 -0.0165085
3019952 0.0002872 -0.0161246 0.9997128 0.0161246 0.9997128 0.0161246 0.0002872 -0.0161246
3090295 0.0002755 -0.0157491 0.9997245 0.0157491 0.9997245 0.0157491 0.0002755 -0.0157491
3162278 0.0002643 -0.0153820 0.9997357 0.0153820 0.9997357 0.0153820 0.0002643 -0.0153820
3235937 0.0002536 -0.0150231 0.9997464 0.0150231 0.9997464 0.0150231 0.0002536 -0.0150231
3311311 0.0002435 -0.0146721 0.9997565 0.0146721 0.9997565 0.0146721 0.0002435 -0.0146721
3388442 0.0002338 -0.0143289 0.9997662 0.0143289 0.9997662 0.0143289 0.0002338 -0.0143289
3467369 0.0002246 -0.0139933 0.9997754 0.0139933 0.9997754 0.0139933 0.0002246 -0.0139933
3548134 0.0002158 -0.0136651 0.9997842 0.0136651 0.9997842 0.0136651 0.0002158 -0.0136651
3630781 0.0002074 -0.0133441 0.9997926 0.0133441 0.9997926 0.0133441 0.0002074 -0.0133441
3715352 0.0001995 -0.0130302 0.9998005 0.0130302 0.9998005 0.0130302 0.0001995 -0.0130302
3801894 0.0001919 -0.0127233 0.9998081 0.0127233 0.9998081 0.0127233 0.0001919 -0.0127233
3890451 0.0001847 -0.0124230 0.9998153 0.0124230 0.9998153 0.0124230 0.0001847 -0.0124230
3981072 0.0001778 -0.0121294 0.9998222 0.0121294 0.9998222 0.0121294 0.0001778 -0.0121294
4073803 0.0001713 -0.0118422 0.9998287 0.0118422 0.9998287 0.0118422 0.0001713 -0.0118422
4168694 0.0001651 -0.0115613 0.9998349 0.0115613 0.9998349 0.0115613 0.0001651 -0.0115613
4265795 0.0001592 -0.0112865 0.9998408 0.0112865 0.9998408 0.0112865 0.0001592 -0.0112865
4365158 0.0001536 -0.0110177 0.9998464 0.0110177 0.9998464 0.0110177 0.0001536 -0.0110177
4466836 0.0001483 -0.0107548 0.9998517 0.0107548 0.9998517 0.0107548 0.0001483 -0.0107548
4570882 0.0001432 -0.0104976 0.9998568 0.0104976 0.9998568 0.0104976 0.0001432 -0.0104976
4677351 0.0001385 -0.0102459 0.9998615 0.0102459 0.9998615 0.0102459 0.0001385 -0.0102459
4786301 0.0001339 -0.0099997 0.9998661 0.0099997 0.9998661 0.0099997 0.0001339 -0.0099997
4897788 0.0001296 -0.0097588 0.9998704 0.0097588 0.9998704 0.0097588 0.0001296 -0.0097588
5011872 0.0001255 -0.0095231 0.9998745 0.0095231 0.9998745 0.0095231 0.0001255 -0.0095231
5128614 0.0001217 -0.0092925 0.9998783 0.0092925 0.9998783 0.0092925 0.0001217 -0.0092925
5248075 0.0001180 -0.0090668 0.9998820 0.0090668 0.9998820 0.0090668 0.0001180 -0.0090668
5370318 0.0001145 -0.0088459 0.9998855 0.0088459 0.9998855 0.0088459 0.0001145 -0.0088459
5495409 0.0001113 -0.0086297 0.9998887 0.0086297 0.9998887 0.0086297 0.0001113 -0.0086297
5623413 0.0001082 -0.0084181 0.9998918 0.0084181 0.9998918 0.0084181 0.0001082 -0.0084181
5754399 0.0001053 -0.0082110 0.9998947 0.0082110 0.9998947 0.0082110 0.0001053 -0.0082110
5888437 0.0001025 -0.0080083 0.9998975 0.0080083 0.9998975 0.0080083 0.0001025 -0.0080083
6025596 0.0000999 -0.0078098 0.9999001 0.0078098 0.9999001 0.0078098 0.0000999 -0.0078098
6165950 0.0000975 -0.0076155 0.9999025 0.0076155 0.9999025 0.0076155 0.0000975 -0.0076155
6309573 0.0000952 -0.0074252 0.9999048 0.0074252 0.9999048 0.0074252 0.0000952 -0.0074252
6456542 0.0000930 -0.0072389 0.9999070 0.0072389 0.9999070 0.0072389 0.0000930 -0.0072389
6606934 0.0000909 -0.0070564 0.9999091 0.0070564 0.9999091 0.0070564 0.0000909 -0.0070564
6760830 0.0000890 -0.0068777 0.9999110 0.0068777 0.9999110 0.0068777 0.0000890 -0.0068777
6918310 0.0000872 -0.0067026 0.9999128 0.0067026 0.9999128 0.0067026 0.0000872 -0.0067026
7079458 0.0000856 -0.0065312 0.9999144 0.0065312 0.9999144 0.0065312 0.0000856 -0.0065312
7244360 0.0000840 -0.0063632 0.9999160 0.0063632 0.9999160 0.0063632 0.0000840 -0.0063632
7413102 0.0000825 -0.0061986 0.9999175 0.0061986 0.9999175 0.0061986 0.0000825 -0.0061986
7585776 0.0000812 -0.0060372 0.9999188 0.0060372 0.9999188 0.0060372 0.0000812 -0.0060372
7762471 0.0000799 -0.0058791 0.9999201 0.0058791 0.9999201 0.0058791 0.0000799 -0.0058791
7943282 0.0000787 -0.0057242 0.9999213 0.0057242 0.9999213 0.0057242 0.0000787 -0.0057242
8128305 0.0000777 -0.0055723 0.9999223 0.0055723 0.9999223 0.0055723 0.0000777 -0.0055723
8317638 0.0000767 -0.0054233 0.9999233 0.0054233 0.9999233 0.0054233 0.0000767 -0.0054233
8511380 0.0000757 -0.0052772 0.9999243 0.0052772 0.9999243 0.0052772 0.0000757 -0.0052772
8709636 0.0000749 -0.0051340 0.9999251 0.0051340 0.9999251 0.0051340 0.0000749 -0.0051340
8912509 0.0000741 -0.0049935 0.9999259 0.0049935 0.9999259 0.0049935 0.0000741 -0.0049935
9120108 0.0000734 -0.0048556 0.9999266 0.0048556 0.9999266 0.0048556 0.0000734 -0.0048556
9332543 0.0000728 -0.0047203 0.9999272 0.0047203 0.9999272 0.0047203 0.0000728 -0.0047203
9549926 0.0000722 -0.0045875 0.9999278 0.0045875 0.9999278 0.0045875 0.0000722 -0.0045875
9772372 0.0000717 -0.0044572 0.9999283 0.0044572 0.9999283 0.0044572 0.0000717 -0.0044572
10000000 0.0000712 -0.0043292 0.9999288 0.0043292 0.9999288 0.0043292 0.0000712 -0.0043292
10232930 0.0000709 -0.0042035 0.9999291 0.0042035 0.9999291 0.0042035 0.0000709 -0.0042035
10471285 0.0000705 -0.0040800 0.9999295 0.0040800 0.9999295 0.0040800 0.0000705 -0.0040800
10715193 0.0000702 -0.0039587 0.9999298 0.0039587 0.9999298 0.0039587 0.0000702 -0.0039587
10964782 0.0000700 -0.0038395 0.9999300 0.0038395 0.9999300 0.0038395 0.0000700 -0.0038395
11220185 0.0000698 -0.0037224 0.9999302 0.0037224 0.9999302 0.0037224 0.0000698 -0.0037224
11481536 0.0000697 -0.0036071 0.9999303 0.0036071 0.9999303 0.0036071 0.0000697 -0.0036071
11748976 0.0000696 -0.0034938 0.9999304 0.0034938 0.9999304 0.0034938 0.0000696 -0.0034938
12022644 0.0000696 -0.0033824 0.9999304 0.0033824 0.9999304 0.0033824 0.0000696 -0.0033824
12302688 0.0000696 -0.0032727 0.9999304 0.0032727 0.9999304 0.0032727 0.0000696 -0.0032727
12589254 0.0000697 -0.0031647 0.9999303 0.0031647 0.9999303 0.0031647 0.0000697 -0.0031647
12882496 0.0000698 -0.0030583 0.9999302 0.0030583 0.9999302 0.0030583 0.0000698 -0.0030583
13182567 0.0000699 -0.0029536 0.9999301 0.0029536 0.9999301 0.0029536 0.0000699 -0.0029536
13489629 0.0000701 -0.0028504 0.9999299 0.0028504 0.9999299 0.0028504 0.0000701 -0.0028504
13803843 0.0000704 -0.0027487 0.9999296 0.0027487 0.9999296 0.0027487 0.0000704 -0.0027487
14125375 0.0000707 -0.0026484 0.9999293 0.0026484 0.9999293 0.0026484 0.0000707 -0.0026484
14454398 0.0000710 -0.0025494 0.9999290 0.0025494 0.9999290 0.0025494 0.0000710 -0.0025494
14791084 0.0000714 -0.0024518 0.9999286 0.0024518 0.9999286 0.0024518 0.0000714 -0.0024518
