!Murata Part Number: GRM32A7U3D151JW31
!These Parameters are Measured in Series Mode Connection
!Data Generated on Mar 30, 2021
!       o--ll--o
!Port1            Port2
!       o------o
!Operation Temp=25[degC], DC Bias Voltage=0[V]
!Freq. Start=100[MHz] Stop=3[GHz] 401[Steps]
# Hz S RI R 50
!Freq.(Hz) S11(Real) S11(Imag) S21(Real) S21(Imag) S12(Real) S12(Imag) S22(Real) S22(Imag)
100000000 0.0111067 -0.1015136 0.9888933 0.1015136 0.9888933 0.1015136 0.0111067 -0.1015136
107250000 0.0096707 -0.0943198 0.9903293 0.0943198 0.9903293 0.0943198 0.0096707 -0.0943198
114500000 0.0084965 -0.0879815 0.9915035 0.0879815 0.9915035 0.0879815 0.0084965 -0.0879815
121750000 0.0075245 -0.0823513 0.9924755 0.0823513 0.9924755 0.0823513 0.0075245 -0.0823513
129000000 0.0067111 -0.0773131 0.9932889 0.0773131 0.9932889 0.0773131 0.0067111 -0.0773131
136250000 0.0060239 -0.0727751 0.9939761 0.0727751 0.9939761 0.0727751 0.0060239 -0.0727751
143500000 0.0054383 -0.0686632 0.9945617 0.0686632 0.9945617 0.0686632 0.0054383 -0.0686632
150750000 0.0049355 -0.0649173 0.9950645 0.0649173 0.9950645 0.0649173 0.0049355 -0.0649173
158000000 0.0045007 -0.0614878 0.9954993 0.0614878 0.9954993 0.0614878 0.0045007 -0.0614878
165250000 0.0041225 -0.0583340 0.9958775 0.0583340 0.9958775 0.0583340 0.0041225 -0.0583340
172500000 0.0037916 -0.0554216 0.9962084 0.0554216 0.9962084 0.0554216 0.0037916 -0.0554216
179750000 0.0035006 -0.0527217 0.9964994 0.0527217 0.9964994 0.0527217 0.0035006 -0.0527217
187000000 0.0032436 -0.0502101 0.9967564 0.0502101 0.9967564 0.0502101 0.0032436 -0.0502101
194250000 0.0030156 -0.0478658 0.9969844 0.0478658 0.9969844 0.0478658 0.0030156 -0.0478658
201500000 0.0028126 -0.0456710 0.9971874 0.0456710 0.9971874 0.0456710 0.0028126 -0.0456710
208750000 0.0026312 -0.0436102 0.9973688 0.0436102 0.9973688 0.0436102 0.0026312 -0.0436102
216000000 0.0024686 -0.0416702 0.9975314 0.0416702 0.9975314 0.0416702 0.0024686 -0.0416702
223250000 0.0023224 -0.0398392 0.9976776 0.0398392 0.9976776 0.0398392 0.0023224 -0.0398392
230500000 0.0021907 -0.0381069 0.9978093 0.0381069 0.9978093 0.0381069 0.0021907 -0.0381069
237750000 0.0020718 -0.0364645 0.9979282 0.0364645 0.9979282 0.0364645 0.0020718 -0.0364645
245000000 0.0019642 -0.0349040 0.9980358 0.0349040 0.9980358 0.0349040 0.0019642 -0.0349040
252250000 0.0018666 -0.0334183 0.9981334 0.0334183 0.9981334 0.0334183 0.0018666 -0.0334183
259500000 0.0017780 -0.0320012 0.9982220 0.0320012 0.9982220 0.0320012 0.0017780 -0.0320012
266750000 0.0016974 -0.0306472 0.9983026 0.0306472 0.9983026 0.0306472 0.0016974 -0.0306472
274000000 0.0016241 -0.0293512 0.9983759 0.0293512 0.9983759 0.0293512 0.0016241 -0.0293512
281250000 0.0015574 -0.0281087 0.9984426 0.0281087 0.9984426 0.0281087 0.0015574 -0.0281087
288500000 0.0014965 -0.0269157 0.9985035 0.0269157 0.9985035 0.0269157 0.0014965 -0.0269157
295750000 0.0014410 -0.0257687 0.9985590 0.0257687 0.9985590 0.0257687 0.0014410 -0.0257687
303000000 0.0013904 -0.0246641 0.9986096 0.0246641 0.9986096 0.0246641 0.0013904 -0.0246641
310250000 0.0013443 -0.0235992 0.9986557 0.0235992 0.9986557 0.0235992 0.0013443 -0.0235992
317500000 0.0013022 -0.0225711 0.9986978 0.0225711 0.9986978 0.0225711 0.0013022 -0.0225711
324750000 0.0012640 -0.0215774 0.9987360 0.0215774 0.9987360 0.0215774 0.0012640 -0.0215774
332000000 0.0012291 -0.0206158 0.9987709 0.0206158 0.9987709 0.0206158 0.0012291 -0.0206158
339250000 0.0011975 -0.0196842 0.9988025 0.0196842 0.9988025 0.0196842 0.0011975 -0.0196842
346500000 0.0011688 -0.0187808 0.9988312 0.0187808 0.9988312 0.0187808 0.0011688 -0.0187808
353750000 0.0011428 -0.0179037 0.9988572 0.0179037 0.9988572 0.0179037 0.0011428 -0.0179037
361000000 0.0011194 -0.0170515 0.9988806 0.0170515 0.9988806 0.0170515 0.0011194 -0.0170515
368250000 0.0010984 -0.0162225 0.9989016 0.0162225 0.9989016 0.0162225 0.0010984 -0.0162225
375500000 0.0010796 -0.0154154 0.9989204 0.0154154 0.9989204 0.0154154 0.0010796 -0.0154154
382750000 0.0010629 -0.0146290 0.9989371 0.0146290 0.9989371 0.0146290 0.0010629 -0.0146290
390000000 0.0010481 -0.0138621 0.9989519 0.0138621 0.9989519 0.0138621 0.0010481 -0.0138621
397250000 0.0010351 -0.0131136 0.9989649 0.0131136 0.9989649 0.0131136 0.0010351 -0.0131136
404500000 0.0010239 -0.0123825 0.9989761 0.0123825 0.9989761 0.0123825 0.0010239 -0.0123825
411750000 0.0010142 -0.0116679 0.9989858 0.0116679 0.9989858 0.0116679 0.0010142 -0.0116679
419000000 0.0010062 -0.0109688 0.9989938 0.0109688 0.9989938 0.0109688 0.0010062 -0.0109688
426250000 0.0009995 -0.0102844 0.9990005 0.0102844 0.9990005 0.0102844 0.0009995 -0.0102844
433500000 0.0009943 -0.0096141 0.9990057 0.0096141 0.9990057 0.0096141 0.0009943 -0.0096141
440750000 0.0009904 -0.0089570 0.9990096 0.0089570 0.9990096 0.0089570 0.0009904 -0.0089570
448000000 0.0009878 -0.0083125 0.9990122 0.0083125 0.9990122 0.0083125 0.0009878 -0.0083125
455250000 0.0009863 -0.0076800 0.9990137 0.0076800 0.9990137 0.0076800 0.0009863 -0.0076800
462500000 0.0009861 -0.0070588 0.9990139 0.0070588 0.9990139 0.0070588 0.0009861 -0.0070588
469750000 0.0009869 -0.0064485 0.9990131 0.0064485 0.9990131 0.0064485 0.0009869 -0.0064485
477000000 0.0009888 -0.0058485 0.9990112 0.0058485 0.9990112 0.0058485 0.0009888 -0.0058485
484250000 0.0009917 -0.0052584 0.9990083 0.0052584 0.9990083 0.0052584 0.0009917 -0.0052584
491500000 0.0009956 -0.0046776 0.9990044 0.0046776 0.9990044 0.0046776 0.0009956 -0.0046776
498750000 0.0010005 -0.0041057 0.9989995 0.0041057 0.9989995 0.0041057 0.0010005 -0.0041057
506000000 0.0010063 -0.0035423 0.9989937 0.0035423 0.9989937 0.0035423 0.0010063 -0.0035423
513250000 0.0010129 -0.0029871 0.9989871 0.0029871 0.9989871 0.0029871 0.0010129 -0.0029871
520500000 0.0010205 -0.0024396 0.9989795 0.0024396 0.9989795 0.0024396 0.0010205 -0.0024396
527750000 0.0010289 -0.0018995 0.9989711 0.0018995 0.9989711 0.0018995 0.0010289 -0.0018995
535000000 0.0010382 -0.0013665 0.9989618 0.0013665 0.9989618 0.0013665 0.0010382 -0.0013665
542250000 0.0010483 -0.0008403 0.9989517 0.0008403 0.9989517 0.0008403 0.0010483 -0.0008403
549500000 0.0010592 -0.0003205 0.9989408 0.0003205 0.9989408 0.0003205 0.0010592 -0.0003205
556750000 0.0010708 0.0001931 0.9989292 -0.0001931 0.9989292 -0.0001931 0.0010708 0.0001931
564000000 0.0010832 0.0007008 0.9989168 -0.0007008 0.9989168 -0.0007008 0.0010832 0.0007008
571250000 0.0010964 0.0012028 0.9989036 -0.0012028 0.9989036 -0.0012028 0.0010964 0.0012028
578500000 0.0011104 0.0016995 0.9988896 -0.0016995 0.9988896 -0.0016995 0.0011104 0.0016995
585750000 0.0011250 0.0021909 0.9988750 -0.0021909 0.9988750 -0.0021909 0.0011250 0.0021909
593000000 0.0011404 0.0026774 0.9988596 -0.0026774 0.9988596 -0.0026774 0.0011404 0.0026774
600250000 0.0011566 0.0031592 0.9988434 -0.0031592 0.9988434 -0.0031592 0.0011566 0.0031592
607500000 0.0011734 0.0036364 0.9988266 -0.0036364 0.9988266 -0.0036364 0.0011734 0.0036364
614750000 0.0011909 0.0041093 0.9988091 -0.0041093 0.9988091 -0.0041093 0.0011909 0.0041093
622000000 0.0012092 0.0045780 0.9987908 -0.0045780 0.9987908 -0.0045780 0.0012092 0.0045780
629250000 0.0012282 0.0050427 0.9987718 -0.0050427 0.9987718 -0.0050427 0.0012282 0.0050427
636500000 0.0012478 0.0055037 0.9987522 -0.0055037 0.9987522 -0.0055037 0.0012478 0.0055037
643750000 0.0012682 0.0059610 0.9987318 -0.0059610 0.9987318 -0.0059610 0.0012682 0.0059610
651000000 0.0012893 0.0064148 0.9987107 -0.0064148 0.9987107 -0.0064148 0.0012893 0.0064148
658250000 0.0013110 0.0068653 0.9986890 -0.0068653 0.9986890 -0.0068653 0.0013110 0.0068653
665500000 0.0013335 0.0073126 0.9986665 -0.0073126 0.9986665 -0.0073126 0.0013335 0.0073126
672750000 0.0013567 0.0077569 0.9986433 -0.0077569 0.9986433 -0.0077569 0.0013567 0.0077569
680000000 0.0013806 0.0081982 0.9986194 -0.0081982 0.9986194 -0.0081982 0.0013806 0.0081982
687250000 0.0014052 0.0086369 0.9985948 -0.0086369 0.9985948 -0.0086369 0.0014052 0.0086369
694500000 0.0014306 0.0090728 0.9985694 -0.0090728 0.9985694 -0.0090728 0.0014306 0.0090728
701750000 0.0014567 0.0095062 0.9985433 -0.0095062 0.9985433 -0.0095062 0.0014567 0.0095062
709000000 0.0014835 0.0099373 0.9985165 -0.0099373 0.9985165 -0.0099373 0.0014835 0.0099373
716250000 0.0015110 0.0103660 0.9984890 -0.0103660 0.9984890 -0.0103660 0.0015110 0.0103660
723500000 0.0015393 0.0107926 0.9984607 -0.0107926 0.9984607 -0.0107926 0.0015393 0.0107926
730750000 0.0015684 0.0112171 0.9984316 -0.0112171 0.9984316 -0.0112171 0.0015684 0.0112171
738000000 0.0015982 0.0116397 0.9984018 -0.0116397 0.9984018 -0.0116397 0.0015982 0.0116397
745250000 0.0016288 0.0120604 0.9983712 -0.0120604 0.9983712 -0.0120604 0.0016288 0.0120604
752500000 0.0016603 0.0124794 0.9983397 -0.0124794 0.9983397 -0.0124794 0.0016603 0.0124794
759750000 0.0016925 0.0128967 0.9983075 -0.0128967 0.9983075 -0.0128967 0.0016925 0.0128967
767000000 0.0017255 0.0133124 0.9982745 -0.0133124 0.9982745 -0.0133124 0.0017255 0.0133124
774250000 0.0017594 0.0137267 0.9982406 -0.0137267 0.9982406 -0.0137267 0.0017594 0.0137267
781500000 0.0017942 0.0141396 0.9982058 -0.0141396 0.9982058 -0.0141396 0.0017942 0.0141396
788750000 0.0018298 0.0145512 0.9981702 -0.0145512 0.9981702 -0.0145512 0.0018298 0.0145512
796000000 0.0018663 0.0149616 0.9981337 -0.0149616 0.9981337 -0.0149616 0.0018663 0.0149616
803250000 0.0019037 0.0153709 0.9980963 -0.0153709 0.9980963 -0.0153709 0.0019037 0.0153709
810500000 0.0019420 0.0157792 0.9980580 -0.0157792 0.9980580 -0.0157792 0.0019420 0.0157792
817750000 0.0019813 0.0161865 0.9980187 -0.0161865 0.9980187 -0.0161865 0.0019813 0.0161865
825000000 0.0020216 0.0165930 0.9979784 -0.0165930 0.9979784 -0.0165930 0.0020216 0.0165930
832250000 0.0020629 0.0169987 0.9979371 -0.0169987 0.9979371 -0.0169987 0.0020629 0.0169987
839500000 0.0021052 0.0174037 0.9978948 -0.0174037 0.9978948 -0.0174037 0.0021052 0.0174037
846750000 0.0021485 0.0178080 0.9978515 -0.0178080 0.9978515 -0.0178080 0.0021485 0.0178080
854000000 0.0021930 0.0182118 0.9978070 -0.0182118 0.9978070 -0.0182118 0.0021930 0.0182118
861250000 0.0022385 0.0186152 0.9977615 -0.0186152 0.9977615 -0.0186152 0.0022385 0.0186152
868500000 0.0022852 0.0190181 0.9977148 -0.0190181 0.9977148 -0.0190181 0.0022852 0.0190181
875750000 0.0023331 0.0194208 0.9976669 -0.0194208 0.9976669 -0.0194208 0.0023331 0.0194208
883000000 0.0023822 0.0198232 0.9976178 -0.0198232 0.9976178 -0.0198232 0.0023822 0.0198232
890250000 0.0024325 0.0202254 0.9975675 -0.0202254 0.9975675 -0.0202254 0.0024325 0.0202254
897500000 0.0024841 0.0206275 0.9975159 -0.0206275 0.9975159 -0.0206275 0.0024841 0.0206275
904750000 0.0025371 0.0210296 0.9974629 -0.0210296 0.9974629 -0.0210296 0.0025371 0.0210296
912000000 0.0025915 0.0214318 0.9974085 -0.0214318 0.9974085 -0.0214318 0.0025915 0.0214318
919250000 0.0026473 0.0218341 0.9973527 -0.0218341 0.9973527 -0.0218341 0.0026473 0.0218341
926500000 0.0027045 0.0222366 0.9972955 -0.0222366 0.9972955 -0.0222366 0.0027045 0.0222366
933750000 0.0027633 0.0226394 0.9972367 -0.0226394 0.9972367 -0.0226394 0.0027633 0.0226394
941000000 0.0028237 0.0230425 0.9971763 -0.0230425 0.9971763 -0.0230425 0.0028237 0.0230425
948250000 0.0028858 0.0234460 0.9971142 -0.0234460 0.9971142 -0.0234460 0.0028858 0.0234460
955500000 0.0029495 0.0238501 0.9970505 -0.0238501 0.9970505 -0.0238501 0.0029495 0.0238501
962750000 0.0030150 0.0242547 0.9969850 -0.0242547 0.9969850 -0.0242547 0.0030150 0.0242547
970000000 0.0030824 0.0246600 0.9969176 -0.0246600 0.9969176 -0.0246600 0.0030824 0.0246600
977250000 0.0031517 0.0250660 0.9968483 -0.0250660 0.9968483 -0.0250660 0.0031517 0.0250660
984500000 0.0032229 0.0254728 0.9967771 -0.0254728 0.9967771 -0.0254728 0.0032229 0.0254728
991750000 0.0032963 0.0258804 0.9967037 -0.0258804 0.9967037 -0.0258804 0.0032963 0.0258804
999000000 0.0033718 0.0262890 0.9966282 -0.0262890 0.9966282 -0.0262890 0.0033718 0.0262890
1006250000 0.0034496 0.0266987 0.9965504 -0.0266987 0.9965504 -0.0266987 0.0034496 0.0266987
1013500000 0.0035298 0.0271094 0.9964702 -0.0271094 0.9964702 -0.0271094 0.0035298 0.0271094
1020750000 0.0036124 0.0275214 0.9963876 -0.0275214 0.9963876 -0.0275214 0.0036124 0.0275214
1028000000 0.0036976 0.0279346 0.9963024 -0.0279346 0.9963024 -0.0279346 0.0036976 0.0279346
1035250000 0.0037854 0.0283491 0.9962146 -0.0283491 0.9962146 -0.0283491 0.0037854 0.0283491
1042500000 0.0038761 0.0287651 0.9961239 -0.0287651 0.9961239 -0.0287651 0.0038761 0.0287651
1049750000 0.0039698 0.0291825 0.9960302 -0.0291825 0.9960302 -0.0291825 0.0039698 0.0291825
1057000000 0.0040666 0.0296016 0.9959334 -0.0296016 0.9959334 -0.0296016 0.0040666 0.0296016
1064250000 0.0041666 0.0300222 0.9958334 -0.0300222 0.9958334 -0.0300222 0.0041666 0.0300222
1071500000 0.0042700 0.0304447 0.9957300 -0.0304447 0.9957300 -0.0304447 0.0042700 0.0304447
1078750000 0.0043770 0.0308689 0.9956230 -0.0308689 0.9956230 -0.0308689 0.0043770 0.0308689
1086000000 0.0044877 0.0312950 0.9955123 -0.0312950 0.9955123 -0.0312950 0.0044877 0.0312950
1093250000 0.0046024 0.0317231 0.9953976 -0.0317231 0.9953976 -0.0317231 0.0046024 0.0317231
1100500000 0.0047213 0.0321533 0.9952787 -0.0321533 0.9952787 -0.0321533 0.0047213 0.0321533
1107750000 0.0048446 0.0325856 0.9951554 -0.0325856 0.9951554 -0.0325856 0.0048446 0.0325856
1115000000 0.0049725 0.0330200 0.9950275 -0.0330200 0.9950275 -0.0330200 0.0049725 0.0330200
1122250000 0.0051053 0.0334568 0.9948947 -0.0334568 0.9948947 -0.0334568 0.0051053 0.0334568
1129500000 0.0052432 0.0338958 0.9947568 -0.0338958 0.9947568 -0.0338958 0.0052432 0.0338958
1136750000 0.0053866 0.0343373 0.9946134 -0.0343373 0.9946134 -0.0343373 0.0053866 0.0343373
1144000000 0.0055357 0.0347812 0.9944643 -0.0347812 0.9944643 -0.0347812 0.0055357 0.0347812
1151250000 0.0056909 0.0352276 0.9943091 -0.0352276 0.9943091 -0.0352276 0.0056909 0.0352276
1158500000 0.0058526 0.0356766 0.9941474 -0.0356766 0.9941474 -0.0356766 0.0058526 0.0356766
1165750000 0.0060211 0.0361281 0.9939789 -0.0361281 0.9939789 -0.0361281 0.0060211 0.0361281
1173000000 0.0061968 0.0365823 0.9938032 -0.0365823 0.9938032 -0.0365823 0.0061968 0.0365823
1180250000 0.0063802 0.0370391 0.9936198 -0.0370391 0.9936198 -0.0370391 0.0063802 0.0370391
1187500000 0.0065718 0.0374985 0.9934282 -0.0374985 0.9934282 -0.0374985 0.0065718 0.0374985
1194750000 0.0067720 0.0379605 0.9932280 -0.0379605 0.9932280 -0.0379605 0.0067720 0.0379605
1202000000 0.0069813 0.0384251 0.9930187 -0.0384251 0.9930187 -0.0384251 0.0069813 0.0384251
1209250000 0.0072005 0.0388921 0.9927995 -0.0388921 0.9927995 -0.0388921 0.0072005 0.0388921
1216500000 0.0074300 0.0393616 0.9925700 -0.0393616 0.9925700 -0.0393616 0.0074300 0.0393616
1223750000 0.0076705 0.0398334 0.9923295 -0.0398334 0.9923295 -0.0398334 0.0076705 0.0398334
1231000000 0.0079229 0.0403073 0.9920771 -0.0403073 0.9920771 -0.0403073 0.0079229 0.0403073
1238250000 0.0081877 0.0407831 0.9918123 -0.0407831 0.9918123 -0.0407831 0.0081877 0.0407831
1245500000 0.0084659 0.0412606 0.9915341 -0.0412606 0.9915341 -0.0412606 0.0084659 0.0412606
1252750000 0.0087582 0.0417395 0.9912418 -0.0417395 0.9912418 -0.0417395 0.0087582 0.0417395
1260000000 0.0090657 0.0422193 0.9909343 -0.0422193 0.9909343 -0.0422193 0.0090657 0.0422193
1267250000 0.0093893 0.0426996 0.9906107 -0.0426996 0.9906107 -0.0426996 0.0093893 0.0426996
1274500000 0.0097300 0.0431799 0.9902700 -0.0431799 0.9902700 -0.0431799 0.0097300 0.0431799
1281750000 0.0100890 0.0436595 0.9899110 -0.0436595 0.9899110 -0.0436595 0.0100890 0.0436595
1289000000 0.0104673 0.0441376 0.9895327 -0.0441376 0.9895327 -0.0441376 0.0104673 0.0441376
1296250000 0.0108663 0.0446133 0.9891337 -0.0446133 0.9891337 -0.0446133 0.0108663 0.0446133
1303500000 0.0112872 0.0450855 0.9887128 -0.0450855 0.9887128 -0.0450855 0.0112872 0.0450855
1310750000 0.0117313 0.0455530 0.9882687 -0.0455530 0.9882687 -0.0455530 0.0117313 0.0455530
1318000000 0.0122000 0.0460143 0.9878000 -0.0460143 0.9878000 -0.0460143 0.0122000 0.0460143
1325250000 0.0126945 0.0464676 0.9873055 -0.0464676 0.9873055 -0.0464676 0.0126945 0.0464676
1332500000 0.0132165 0.0469111 0.9867835 -0.0469111 0.9867835 -0.0469111 0.0132165 0.0469111
1339750000 0.0137671 0.0473424 0.9862329 -0.0473424 0.9862329 -0.0473424 0.0137671 0.0473424
1347000000 0.0143476 0.0477590 0.9856524 -0.0477590 0.9856524 -0.0477590 0.0143476 0.0477590
1354250000 0.0149594 0.0481579 0.9850406 -0.0481579 0.9850406 -0.0481579 0.0149594 0.0481579
1361500000 0.0156034 0.0485357 0.9843966 -0.0485357 0.9843966 -0.0485357 0.0156034 0.0485357
1368750000 0.0162805 0.0488887 0.9837195 -0.0488887 0.9837195 -0.0488887 0.0162805 0.0488887
1376000000 0.0169912 0.0492126 0.9830088 -0.0492126 0.9830088 -0.0492126 0.0169912 0.0492126
1383250000 0.0177357 0.0495028 0.9822643 -0.0495028 0.9822643 -0.0495028 0.0177357 0.0495028
1390500000 0.0185136 0.0497539 0.9814864 -0.0497539 0.9814864 -0.0497539 0.0185136 0.0497539
1397750000 0.0193241 0.0499605 0.9806759 -0.0499605 0.9806759 -0.0499605 0.0193241 0.0499605
1405000000 0.0201653 0.0501163 0.9798347 -0.0501163 0.9798347 -0.0501163 0.0201653 0.0501163
1412250000 0.0210345 0.0502151 0.9789655 -0.0502151 0.9789655 -0.0502151 0.0210345 0.0502151
1419500000 0.0219281 0.0502501 0.9780719 -0.0502501 0.9780719 -0.0502501 0.0219281 0.0502501
1426750000 0.0228410 0.0502146 0.9771590 -0.0502146 0.9771590 -0.0502146 0.0228410 0.0502146
1434000000 0.0237668 0.0501021 0.9762332 -0.0501021 0.9762332 -0.0501021 0.0237668 0.0501021
1441250000 0.0246975 0.0499063 0.9753025 -0.0499063 0.9753025 -0.0499063 0.0246975 0.0499063
1448500000 0.0256236 0.0496219 0.9743764 -0.0496219 0.9743764 -0.0496219 0.0256236 0.0496219
1455750000 0.0265341 0.0492445 0.9734659 -0.0492445 0.9734659 -0.0492445 0.0265341 0.0492445
1463000000 0.0274162 0.0487716 0.9725838 -0.0487716 0.9725838 -0.0487716 0.0274162 0.0487716
1470250000 0.0282563 0.0482025 0.9717437 -0.0482025 0.9717437 -0.0482025 0.0282563 0.0482025
1477500000 0.0290396 0.0475389 0.9709604 -0.0475389 0.9709604 -0.0475389 0.0290396 0.0475389
1484750000 0.0297511 0.0467855 0.9702489 -0.0467855 0.9702489 -0.0467855 0.0297511 0.0467855
1492000000 0.0303760 0.0459497 0.9696240 -0.0459497 0.9696240 -0.0459497 0.0303760 0.0459497
1499250000 0.0309004 0.0450424 0.9690996 -0.0450424 0.9690996 -0.0450424 0.0309004 0.0450424
1506500000 0.0313125 0.0440768 0.9686875 -0.0440768 0.9686875 -0.0440768 0.0313125 0.0440768
1513750000 0.0316026 0.0430691 0.9683974 -0.0430691 0.9683974 -0.0430691 0.0316026 0.0430691
1521000000 0.0317643 0.0420372 0.9682357 -0.0420372 0.9682357 -0.0420372 0.0317643 0.0420372
1528250000 0.0317948 0.0410001 0.9682052 -0.0410001 0.9682052 -0.0410001 0.0317948 0.0410001
1535500000 0.0316950 0.0399770 0.9683050 -0.0399770 0.9683050 -0.0399770 0.0316950 0.0399770
1542750000 0.0314693 0.0389867 0.9685307 -0.0389867 0.9685307 -0.0389867 0.0314693 0.0389867
1550000000 0.0311256 0.0380461 0.9688744 -0.0380461 0.9688744 -0.0380461 0.0311256 0.0380461
1557250000 0.0306747 0.0371702 0.9693253 -0.0371702 0.9693253 -0.0371702 0.0306747 0.0371702
1564500000 0.0301295 0.0363711 0.9698705 -0.0363711 0.9698705 -0.0363711 0.0301295 0.0363711
1571750000 0.0295042 0.0356582 0.9704958 -0.0356582 0.9704958 -0.0356582 0.0295042 0.0356582
1579000000 0.0288137 0.0350375 0.9711863 -0.0350375 0.9711863 -0.0350375 0.0288137 0.0350375
1586250000 0.0280730 0.0345123 0.9719270 -0.0345123 0.9719270 -0.0345123 0.0280730 0.0345123
1593500000 0.0272962 0.0340834 0.9727038 -0.0340834 0.9727038 -0.0340834 0.0272962 0.0340834
1600750000 0.0264967 0.0337492 0.9735033 -0.0337492 0.9735033 -0.0337492 0.0264967 0.0337492
1608000000 0.0256862 0.0335062 0.9743138 -0.0335062 0.9743138 -0.0335062 0.0256862 0.0335062
1615250000 0.0248751 0.0333497 0.9751249 -0.0333497 0.9751249 -0.0333497 0.0248751 0.0333497
1622500000 0.0240723 0.0332741 0.9759277 -0.0332741 0.9759277 -0.0332741 0.0240723 0.0332741
1629750000 0.0232849 0.0332730 0.9767151 -0.0332730 0.9767151 -0.0332730 0.0232849 0.0332730
