!Murata Part Number: GRM1555C2A3R0BA01
!These Parameters are Measured in Series Mode Connection
!Data Generated on Mar 30, 2021
!       o--ll--o
!Port1            Port2
!       o------o
!Operation Temp=25[degC], DC Bias Voltage=0[V]
!Freq. Start=100[MHz] Stop=9[GHz] 401[Steps]
# Hz S RI R 50
!Freq.(Hz) S11(Real) S11(Imag) S21(Real) S21(Imag) S12(Real) S12(Imag) S22(Real) S22(Imag)
100000000 0.9655733 -0.1820587 0.0344267 0.1820587 0.0344267 0.1820587 0.9655733 -0.1820587
121000000 0.9503737 -0.2168522 0.0496263 0.2168522 0.0496263 0.2168522 0.9503737 -0.2168522
142000000 0.9328858 -0.2498446 0.0671142 0.2498446 0.0671142 0.2498446 0.9328858 -0.2498446
163000000 0.9133789 -0.2808483 0.0866211 0.2808483 0.0866211 0.2808483 0.9133789 -0.2808483
184000000 0.8921356 -0.3097227 0.1078644 0.3097227 0.1078644 0.3097227 0.8921356 -0.3097227
205000000 0.8694429 -0.3363732 0.1305571 0.3363732 0.1305571 0.3363732 0.8694429 -0.3363732
226000000 0.8455842 -0.3607488 0.1544158 0.3607488 0.1544158 0.3607488 0.8455842 -0.3607488
247000000 0.8208327 -0.3828383 0.1791673 0.3828383 0.1791673 0.3828383 0.8208327 -0.3828383
268000000 0.7954457 -0.4026653 0.2045543 0.4026653 0.2045543 0.4026653 0.7954457 -0.4026653
289000000 0.7696609 -0.4202834 0.2303391 0.4202834 0.2303391 0.4202834 0.7696609 -0.4202834
310000000 0.7436932 -0.4357703 0.2563068 0.4357703 0.2563068 0.4357703 0.7436932 -0.4357703
331000000 0.7177339 -0.4492227 0.2822661 0.4492227 0.2822661 0.4492227 0.7177339 -0.4492227
352000000 0.6919497 -0.4607513 0.3080503 0.4607513 0.3080503 0.4607513 0.6919497 -0.4607513
373000000 0.6664835 -0.4704762 0.3335165 0.4704762 0.3335165 0.4704762 0.6664835 -0.4704762
394000000 0.6414551 -0.4785232 0.3585449 0.4785232 0.3585449 0.4785232 0.6414551 -0.4785232
415000000 0.6169628 -0.4850199 0.3830372 0.4850199 0.3830372 0.4850199 0.6169628 -0.4850199
436000000 0.5930856 -0.4900939 0.4069144 0.4900939 0.4069144 0.4900939 0.5930856 -0.4900939
457000000 0.5698844 -0.4938697 0.4301156 0.4938697 0.4301156 0.4938697 0.5698844 -0.4938697
478000000 0.5474049 -0.4964674 0.4525951 0.4964674 0.4525951 0.4964674 0.5474049 -0.4964674
499000000 0.5256787 -0.4980017 0.4743213 0.4980017 0.4743213 0.4980017 0.5256787 -0.4980017
520000000 0.5047260 -0.4985809 0.4952740 0.4985809 0.4952740 0.4985809 0.5047260 -0.4985809
541000000 0.4845569 -0.4983060 0.5154431 0.4983060 0.5154431 0.4983060 0.4845569 -0.4983060
562000000 0.4651730 -0.4972713 0.5348270 0.4972713 0.5348270 0.4972713 0.4651730 -0.4972713
583000000 0.4465693 -0.4955635 0.5534307 0.4955635 0.5534307 0.4955635 0.4465693 -0.4955635
604000000 0.4287350 -0.4932623 0.5712650 0.4932623 0.5712650 0.4932623 0.4287350 -0.4932623
625000000 0.4116549 -0.4904406 0.5883451 0.4904406 0.5883451 0.4904406 0.4116549 -0.4904406
646000000 0.3953103 -0.4871645 0.6046897 0.4871645 0.6046897 0.4871645 0.3953103 -0.4871645
667000000 0.3796800 -0.4834941 0.6203200 0.4834941 0.6203200 0.4834941 0.3796800 -0.4834941
688000000 0.3647406 -0.4794835 0.6352594 0.4794835 0.6352594 0.4794835 0.3647406 -0.4794835
709000000 0.3504677 -0.4751814 0.6495323 0.4751814 0.6495323 0.4751814 0.3504677 -0.4751814
730000000 0.3368357 -0.4706318 0.6631643 0.4706318 0.6631643 0.4706318 0.3368357 -0.4706318
751000000 0.3238189 -0.4658736 0.6761811 0.4658736 0.6761811 0.4658736 0.3238189 -0.4658736
772000000 0.3113914 -0.4609419 0.6886086 0.4609419 0.6886086 0.4609419 0.3113914 -0.4609419
793000000 0.2995273 -0.4558679 0.7004727 0.4558679 0.7004727 0.4558679 0.2995273 -0.4558679
814000000 0.2882012 -0.4506791 0.7117988 0.4506791 0.7117988 0.4506791 0.2882012 -0.4506791
835000000 0.2773885 -0.4454003 0.7226115 0.4454003 0.7226115 0.4454003 0.2773885 -0.4454003
856000000 0.2670648 -0.4400530 0.7329352 0.4400530 0.7329352 0.4400530 0.2670648 -0.4400530
877000000 0.2572068 -0.4346566 0.7427932 0.4346566 0.7427932 0.4346566 0.2572068 -0.4346566
898000000 0.2477919 -0.4292277 0.7522081 0.4292277 0.7522081 0.4292277 0.2477919 -0.4292277
919000000 0.2387984 -0.4237814 0.7612016 0.4237814 0.7612016 0.4237814 0.2387984 -0.4237814
940000000 0.2302055 -0.4183306 0.7697945 0.4183306 0.7697945 0.4183306 0.2302055 -0.4183306
961000000 0.2219933 -0.4128867 0.7780067 0.4128867 0.7780067 0.4128867 0.2219933 -0.4128867
982000000 0.2141427 -0.4074596 0.7858573 0.4074596 0.7858573 0.4074596 0.2141427 -0.4074596
1003000000 0.2066358 -0.4020578 0.7933642 0.4020578 0.7933642 0.4020578 0.2066358 -0.4020578
1024000000 0.1994551 -0.3966888 0.8005449 0.3966888 0.8005449 0.3966888 0.1994551 -0.3966888
1045000000 0.1925845 -0.3913590 0.8074155 0.3913590 0.8074155 0.3913590 0.1925845 -0.3913590
1066000000 0.1860083 -0.3860739 0.8139917 0.3860739 0.8139917 0.3860739 0.1860083 -0.3860739
1087000000 0.1797118 -0.3808381 0.8202882 0.3808381 0.8202882 0.3808381 0.1797118 -0.3808381
1108000000 0.1736809 -0.3756555 0.8263191 0.3756555 0.8263191 0.3756555 0.1736809 -0.3756555
1129000000 0.1679026 -0.3705295 0.8320974 0.3705295 0.8320974 0.3705295 0.1679026 -0.3705295
1150000000 0.1623641 -0.3654628 0.8376359 0.3654628 0.8376359 0.3654628 0.1623641 -0.3654628
1171000000 0.1570538 -0.3604575 0.8429462 0.3604575 0.8429462 0.3604575 0.1570538 -0.3604575
1192000000 0.1519602 -0.3555155 0.8480398 0.3555155 0.8480398 0.3555155 0.1519602 -0.3555155
1213000000 0.1470729 -0.3506382 0.8529271 0.3506382 0.8529271 0.3506382 0.1470729 -0.3506382
1234000000 0.1423817 -0.3458266 0.8576183 0.3458266 0.8576183 0.3458266 0.1423817 -0.3458266
1255000000 0.1378772 -0.3410814 0.8621228 0.3410814 0.8621228 0.3410814 0.1378772 -0.3410814
1276000000 0.1335503 -0.3364031 0.8664497 0.3364031 0.8664497 0.3364031 0.1335503 -0.3364031
1297000000 0.1293926 -0.3317920 0.8706074 0.3317920 0.8706074 0.3317920 0.1293926 -0.3317920
1318000000 0.1253960 -0.3272482 0.8746040 0.3272482 0.8746040 0.3272482 0.1253960 -0.3272482
1339000000 0.1215529 -0.3227714 0.8784471 0.3227714 0.8784471 0.3227714 0.1215529 -0.3227714
1360000000 0.1178561 -0.3183614 0.8821439 0.3183614 0.8821439 0.3183614 0.1178561 -0.3183614
1381000000 0.1142988 -0.3140177 0.8857012 0.3140177 0.8857012 0.3140177 0.1142988 -0.3140177
1402000000 0.1108745 -0.3097399 0.8891255 0.3097399 0.8891255 0.3097399 0.1108745 -0.3097399
1423000000 0.1075772 -0.3055274 0.8924228 0.3055274 0.8924228 0.3055274 0.1075772 -0.3055274
1444000000 0.1044010 -0.3013793 0.8955990 0.3013793 0.8955990 0.3013793 0.1044010 -0.3013793
1465000000 0.1013405 -0.2972949 0.8986595 0.2972949 0.8986595 0.2972949 0.1013405 -0.2972949
1486000000 0.0983905 -0.2932734 0.9016095 0.2932734 0.9016095 0.2932734 0.0983905 -0.2932734
1507000000 0.0955460 -0.2893139 0.9044540 0.2893139 0.9044540 0.2893139 0.0955460 -0.2893139
1528000000 0.0928025 -0.2854154 0.9071975 0.2854154 0.9071975 0.2854154 0.0928025 -0.2854154
1549000000 0.0901555 -0.2815769 0.9098445 0.2815769 0.9098445 0.2815769 0.0901555 -0.2815769
1570000000 0.0876007 -0.2777976 0.9123993 0.2777976 0.9123993 0.2777976 0.0876007 -0.2777976
1591000000 0.0851343 -0.2740763 0.9148657 0.2740763 0.9148657 0.2740763 0.0851343 -0.2740763
1612000000 0.0827525 -0.2704120 0.9172475 0.2704120 0.9172475 0.2704120 0.0827525 -0.2704120
1633000000 0.0804517 -0.2668037 0.9195483 0.2668037 0.9195483 0.2668037 0.0804517 -0.2668037
1654000000 0.0782284 -0.2632504 0.9217716 0.2632504 0.9217716 0.2632504 0.0782284 -0.2632504
1675000000 0.0760794 -0.2597510 0.9239206 0.2597510 0.9239206 0.2597510 0.0760794 -0.2597510
1696000000 0.0740018 -0.2563045 0.9259982 0.2563045 0.9259982 0.2563045 0.0740018 -0.2563045
1717000000 0.0719925 -0.2529097 0.9280075 0.2529097 0.9280075 0.2529097 0.0719925 -0.2529097
1738000000 0.0700487 -0.2495658 0.9299513 0.2495658 0.9299513 0.2495658 0.0700487 -0.2495658
1759000000 0.0681679 -0.2462716 0.9318321 0.2462716 0.9318321 0.2462716 0.0681679 -0.2462716
1780000000 0.0663476 -0.2430261 0.9336524 0.2430261 0.9336524 0.2430261 0.0663476 -0.2430261
1801000000 0.0645852 -0.2398284 0.9354148 0.2398284 0.9354148 0.2398284 0.0645852 -0.2398284
1822000000 0.0628786 -0.2366774 0.9371214 0.2366774 0.9371214 0.2366774 0.0628786 -0.2366774
1843000000 0.0612256 -0.2335722 0.9387744 0.2335722 0.9387744 0.2335722 0.0612256 -0.2335722
1864000000 0.0596241 -0.2305118 0.9403759 0.2305118 0.9403759 0.2305118 0.0596241 -0.2305118
1885000000 0.0580721 -0.2274952 0.9419279 0.2274952 0.9419279 0.2274952 0.0580721 -0.2274952
1906000000 0.0565678 -0.2245215 0.9434322 0.2245215 0.9434322 0.2245215 0.0565678 -0.2245215
1927000000 0.0551093 -0.2215899 0.9448907 0.2215899 0.9448907 0.2215899 0.0551093 -0.2215899
1948000000 0.0536950 -0.2186993 0.9463050 0.2186993 0.9463050 0.2186993 0.0536950 -0.2186993
1969000000 0.0523232 -0.2158490 0.9476768 0.2158490 0.9476768 0.2158490 0.0523232 -0.2158490
1990000000 0.0509924 -0.2130380 0.9490076 0.2130380 0.9490076 0.2130380 0.0509924 -0.2130380
2011000000 0.0497010 -0.2102655 0.9502990 0.2102655 0.9502990 0.2102655 0.0497010 -0.2102655
2032000000 0.0484477 -0.2075306 0.9515523 0.2075306 0.9515523 0.2075306 0.0484477 -0.2075306
2053000000 0.0472310 -0.2048327 0.9527690 0.2048327 0.9527690 0.2048327 0.0472310 -0.2048327
2074000000 0.0460498 -0.2021708 0.9539502 0.2021708 0.9539502 0.2021708 0.0460498 -0.2021708
2095000000 0.0449026 -0.1995441 0.9550974 0.1995441 0.9550974 0.1995441 0.0449026 -0.1995441
2116000000 0.0437884 -0.1969520 0.9562116 0.1969520 0.9562116 0.1969520 0.0437884 -0.1969520
2137000000 0.0427060 -0.1943937 0.9572940 0.1943937 0.9572940 0.1943937 0.0427060 -0.1943937
2158000000 0.0416543 -0.1918685 0.9583457 0.1918685 0.9583457 0.1918685 0.0416543 -0.1918685
2179000000 0.0406323 -0.1893755 0.9593677 0.1893755 0.9593677 0.1893755 0.0406323 -0.1893755
2200000000 0.0396390 -0.1869142 0.9603610 0.1869142 0.9603610 0.1869142 0.0396390 -0.1869142
2221000000 0.0386733 -0.1844839 0.9613267 0.1844839 0.9613267 0.1844839 0.0386733 -0.1844839
2242000000 0.0377345 -0.1820839 0.9622655 0.1820839 0.9622655 0.1820839 0.0377345 -0.1820839
2263000000 0.0368215 -0.1797135 0.9631785 0.1797135 0.9631785 0.1797135 0.0368215 -0.1797135
2284000000 0.0359336 -0.1773722 0.9640664 0.1773722 0.9640664 0.1773722 0.0359336 -0.1773722
2305000000 0.0350700 -0.1750592 0.9649300 0.1750592 0.9649300 0.1750592 0.0350700 -0.1750592
2326000000 0.0342298 -0.1727741 0.9657702 0.1727741 0.9657702 0.1727741 0.0342298 -0.1727741
2347000000 0.0334123 -0.1705162 0.9665877 0.1705162 0.9665877 0.1705162 0.0334123 -0.1705162
2368000000 0.0326169 -0.1682849 0.9673831 0.1682849 0.9673831 0.1682849 0.0326169 -0.1682849
2389000000 0.0318428 -0.1660797 0.9681572 0.1660797 0.9681572 0.1660797 0.0318428 -0.1660797
2410000000 0.0310893 -0.1639000 0.9689107 0.1639000 0.9689107 0.1639000 0.0310893 -0.1639000
2431000000 0.0303559 -0.1617453 0.9696441 0.1617453 0.9696441 0.1617453 0.0303559 -0.1617453
2452000000 0.0296418 -0.1596151 0.9703582 0.1596151 0.9703582 0.1596151 0.0296418 -0.1596151
2473000000 0.0289466 -0.1575089 0.9710534 0.1575089 0.9710534 0.1575089 0.0289466 -0.1575089
2494000000 0.0282697 -0.1554261 0.9717303 0.1554261 0.9717303 0.1554261 0.0282697 -0.1554261
2515000000 0.0276104 -0.1533663 0.9723896 0.1533663 0.9723896 0.1533663 0.0276104 -0.1533663
2536000000 0.0269684 -0.1513290 0.9730316 0.1513290 0.9730316 0.1513290 0.0269684 -0.1513290
2557000000 0.0263430 -0.1493138 0.9736570 0.1493138 0.9736570 0.1493138 0.0263430 -0.1493138
2578000000 0.0257338 -0.1473201 0.9742662 0.1473201 0.9742662 0.1473201 0.0257338 -0.1473201
2599000000 0.0251404 -0.1453476 0.9748596 0.1453476 0.9748596 0.1453476 0.0251404 -0.1453476
2620000000 0.0245623 -0.1433959 0.9754377 0.1433959 0.9754377 0.1433959 0.0245623 -0.1433959
2641000000 0.0239990 -0.1414644 0.9760010 0.1414644 0.9760010 0.1414644 0.0239990 -0.1414644
2662000000 0.0234501 -0.1395528 0.9765499 0.1395528 0.9765499 0.1395528 0.0234501 -0.1395528
2683000000 0.0229153 -0.1376608 0.9770847 0.1376608 0.9770847 0.1376608 0.0229153 -0.1376608
2704000000 0.0223942 -0.1357878 0.9776058 0.1357878 0.9776058 0.1357878 0.0223942 -0.1357878
2725000000 0.0218863 -0.1339335 0.9781137 0.1339335 0.9781137 0.1339335 0.0218863 -0.1339335
2746000000 0.0213913 -0.1320976 0.9786087 0.1320976 0.9786087 0.1320976 0.0213913 -0.1320976
2767000000 0.0209089 -0.1302797 0.9790911 0.1302797 0.9790911 0.1302797 0.0209089 -0.1302797
2788000000 0.0204388 -0.1284794 0.9795612 0.1284794 0.9795612 0.1284794 0.0204388 -0.1284794
2809000000 0.0199805 -0.1266964 0.9800195 0.1266964 0.9800195 0.1266964 0.0199805 -0.1266964
2830000000 0.0195338 -0.1249304 0.9804662 0.1249304 0.9804662 0.1249304 0.0195338 -0.1249304
2851000000 0.0190985 -0.1231809 0.9809015 0.1231809 0.9809015 0.1231809 0.0190985 -0.1231809
2872000000 0.0186741 -0.1214477 0.9813259 0.1214477 0.9813259 0.1214477 0.0186741 -0.1214477
2893000000 0.0182605 -0.1197305 0.9817395 0.1197305 0.9817395 0.1197305 0.0182605 -0.1197305
2914000000 0.0178573 -0.1180290 0.9821427 0.1180290 0.9821427 0.1180290 0.0178573 -0.1180290
2935000000 0.0174643 -0.1163428 0.9825357 0.1163428 0.9825357 0.1163428 0.0174643 -0.1163428
2956000000 0.0170813 -0.1146717 0.9829187 0.1146717 0.9829187 0.1146717 0.0170813 -0.1146717
2977000000 0.0167079 -0.1130154 0.9832921 0.1130154 0.9832921 0.1130154 0.0167079 -0.1130154
2998000000 0.0163440 -0.1113735 0.9836560 0.1113735 0.9836560 0.1113735 0.0163440 -0.1113735
3019000000 0.0159893 -0.1097459 0.9840107 0.1097459 0.9840107 0.1097459 0.0159893 -0.1097459
3040000000 0.0156436 -0.1081322 0.9843564 0.1081322 0.9843564 0.1081322 0.0156436 -0.1081322
3061000000 0.0153067 -0.1065321 0.9846933 0.1065321 0.9846933 0.1065321 0.0153067 -0.1065321
3082000000 0.0149784 -0.1049455 0.9850216 0.1049455 0.9850216 0.1049455 0.0149784 -0.1049455
3103000000 0.0146585 -0.1033721 0.9853415 0.1033721 0.9853415 0.1033721 0.0146585 -0.1033721
3124000000 0.0143468 -0.1018116 0.9856532 0.1018116 0.9856532 0.1018116 0.0143468 -0.1018116
3145000000 0.0140430 -0.1002638 0.9859570 0.1002638 0.9859570 0.1002638 0.0140430 -0.1002638
3166000000 0.0137471 -0.0987284 0.9862529 0.0987284 0.9862529 0.0987284 0.0137471 -0.0987284
3187000000 0.0134588 -0.0972052 0.9865412 0.0972052 0.9865412 0.0972052 0.0134588 -0.0972052
3208000000 0.0131780 -0.0956940 0.9868220 0.0956940 0.9868220 0.0956940 0.0131780 -0.0956940
3229000000 0.0129046 -0.0941946 0.9870954 0.0941946 0.9870954 0.0941946 0.0129046 -0.0941946
3250000000 0.0126382 -0.0927067 0.9873618 0.0927067 0.9873618 0.0927067 0.0126382 -0.0927067
3271000000 0.0123789 -0.0912302 0.9876211 0.0912302 0.9876211 0.0912302 0.0123789 -0.0912302
3292000000 0.0121264 -0.0897648 0.9878736 0.0897648 0.9878736 0.0897648 0.0121264 -0.0897648
3313000000 0.0118806 -0.0883103 0.9881194 0.0883103 0.9881194 0.0883103 0.0118806 -0.0883103
3334000000 0.0116414 -0.0868665 0.9883586 0.0868665 0.9883586 0.0868665 0.0116414 -0.0868665
3355000000 0.0114086 -0.0854333 0.9885914 0.0854333 0.9885914 0.0854333 0.0114086 -0.0854333
3376000000 0.0111821 -0.0840104 0.9888179 0.0840104 0.9888179 0.0840104 0.0111821 -0.0840104
3397000000 0.0109617 -0.0825976 0.9890383 0.0825976 0.9890383 0.0825976 0.0109617 -0.0825976
3418000000 0.0107474 -0.0811949 0.9892526 0.0811949 0.9892526 0.0811949 0.0107474 -0.0811949
3439000000 0.0105390 -0.0798019 0.9894610 0.0798019 0.9894610 0.0798019 0.0105390 -0.0798019
3460000000 0.0103364 -0.0784185 0.9896636 0.0784185 0.9896636 0.0784185 0.0103364 -0.0784185
3481000000 0.0101395 -0.0770445 0.9898605 0.0770445 0.9898605 0.0770445 0.0101395 -0.0770445
3502000000 0.0099482 -0.0756799 0.9900518 0.0756799 0.9900518 0.0756799 0.0099482 -0.0756799
3523000000 0.0097624 -0.0743243 0.9902376 0.0743243 0.9902376 0.0743243 0.0097624 -0.0743243
3544000000 0.0095819 -0.0729777 0.9904181 0.0729777 0.9904181 0.0729777 0.0095819 -0.0729777
3565000000 0.0094067 -0.0716398 0.9905933 0.0716398 0.9905933 0.0716398 0.0094067 -0.0716398
3586000000 0.0092367 -0.0703106 0.9907633 0.0703106 0.9907633 0.0703106 0.0092367 -0.0703106
3607000000 0.0090717 -0.0689898 0.9909283 0.0689898 0.9909283 0.0689898 0.0090717 -0.0689898
3628000000 0.0089118 -0.0676774 0.9910882 0.0676774 0.9910882 0.0676774 0.0089118 -0.0676774
3649000000 0.0087567 -0.0663731 0.9912433 0.0663731 0.9912433 0.0663731 0.0087567 -0.0663731
3670000000 0.0086065 -0.0650769 0.9913935 0.0650769 0.9913935 0.0650769 0.0086065 -0.0650769
3691000000 0.0084610 -0.0637885 0.9915390 0.0637885 0.9915390 0.0637885 0.0084610 -0.0637885
3712000000 0.0083201 -0.0625079 0.9916799 0.0625079 0.9916799 0.0625079 0.0083201 -0.0625079
3733000000 0.0081838 -0.0612350 0.9918162 0.0612350 0.9918162 0.0612350 0.0081838 -0.0612350
3754000000 0.0080521 -0.0599694 0.9919479 0.0599694 0.9919479 0.0599694 0.0080521 -0.0599694
3775000000 0.0079247 -0.0587113 0.9920753 0.0587113 0.9920753 0.0587113 0.0079247 -0.0587113
3796000000 0.0078017 -0.0574603 0.9921983 0.0574603 0.9921983 0.0574603 0.0078017 -0.0574603
3817000000 0.0076830 -0.0562165 0.9923170 0.0562165 0.9923170 0.0562165 0.0076830 -0.0562165
3838000000 0.0075685 -0.0549796 0.9924315 0.0549796 0.9924315 0.0549796 0.0075685 -0.0549796
3859000000 0.0074581 -0.0537495 0.9925419 0.0537495 0.9925419 0.0537495 0.0074581 -0.0537495
3880000000 0.0073518 -0.0525262 0.9926482 0.0525262 0.9926482 0.0525262 0.0073518 -0.0525262
3901000000 0.0072496 -0.0513095 0.9927504 0.0513095 0.9927504 0.0513095 0.0072496 -0.0513095
3922000000 0.0071513 -0.0500992 0.9928487 0.0500992 0.9928487 0.0500992 0.0071513 -0.0500992
3943000000 0.0070569 -0.0488954 0.9929431 0.0488954 0.9929431 0.0488954 0.0070569 -0.0488954
3964000000 0.0069663 -0.0476978 0.9930337 0.0476978 0.9930337 0.0476978 0.0069663 -0.0476978
3985000000 0.0068796 -0.0465063 0.9931204 0.0465063 0.9931204 0.0465063 0.0068796 -0.0465063
4006000000 0.0067966 -0.0453209 0.9932034 0.0453209 0.9932034 0.0453209 0.0067966 -0.0453209
4027000000 0.0067173 -0.0441414 0.9932827 0.0441414 0.9932827 0.0441414 0.0067173 -0.0441414
4048000000 0.0066416 -0.0429678 0.9933584 0.0429678 0.9933584 0.0429678 0.0066416 -0.0429678
4069000000 0.0065696 -0.0417999 0.9934304 0.0417999 0.9934304 0.0417999 0.0065696 -0.0417999
4090000000 0.0065010 -0.0406376 0.9934990 0.0406376 0.9934990 0.0406376 0.0065010 -0.0406376
4111000000 0.0064360 -0.0394808 0.9935640 0.0394808 0.9935640 0.0394808 0.0064360 -0.0394808
4132000000 0.0063744 -0.0383295 0.9936256 0.0383295 0.9936256 0.0383295 0.0063744 -0.0383295
4153000000 0.0063163 -0.0371835 0.9936837 0.0371835 0.9936837 0.0371835 0.0063163 -0.0371835
4174000000 0.0062615 -0.0360428 0.9937385 0.0360428 0.9937385 0.0360428 0.0062615 -0.0360428
4195000000 0.0062100 -0.0349072 0.9937900 0.0349072 0.9937900 0.0349072 0.0062100 -0.0349072
4216000000 0.0061619 -0.0337766 0.9938381 0.0337766 0.9938381 0.0337766 0.0061619 -0.0337766
4237000000 0.0061170 -0.0326511 0.9938830 0.0326511 0.9938830 0.0326511 0.0061170 -0.0326511
4258000000 0.0060753 -0.0315303 0.9939247 0.0315303 0.9939247 0.0315303 0.0060753 -0.0315303
4279000000 0.0060368 -0.0304144 0.9939632 0.0304144 0.9939632 0.0304144 0.0060368 -0.0304144
4300000000 0.0060014 -0.0293032 0.9939986 0.0293032 0.9939986 0.0293032 0.0060014 -0.0293032
4321000000 0.0059692 -0.0281966 0.9940308 0.0281966 0.9940308 0.0281966 0.0059692 -0.0281966
4342000000 0.0059401 -0.0270946 0.9940599 0.0270946 0.9940599 0.0270946 0.0059401 -0.0270946
4363000000 0.0059140 -0.0259969 0.9940860 0.0259969 0.9940860 0.0259969 0.0059140 -0.0259969
4384000000 0.0058909 -0.0249037 0.9941091 0.0249037 0.9941091 0.0249037 0.0058909 -0.0249037
4405000000 0.0058708 -0.0238148 0.9941292 0.0238148 0.9941292 0.0238148 0.0058708 -0.0238148
4426000000 0.0058537 -0.0227300 0.9941463 0.0227300 0.9941463 0.0227300 0.0058537 -0.0227300
4447000000 0.0058396 -0.0216494 0.9941604 0.0216494 0.9941604 0.0216494 0.0058396 -0.0216494
4468000000 0.0058283 -0.0205729 0.9941717 0.0205729 0.9941717 0.0205729 0.0058283 -0.0205729
4489000000 0.0058200 -0.0195003 0.9941800 0.0195003 0.9941800 0.0195003 0.0058200 -0.0195003
4510000000 0.0058145 -0.0184316 0.9941855 0.0184316 0.9941855 0.0184316 0.0058145 -0.0184316
