!Murata Part Number: GRM1555C1H1R1BA01
!These Parameters are Measured in Series Mode Connection
!Data Generated on Mar 30, 2021
!       o--ll--o
!Port1            Port2
!       o------o
!Operation Temp=25[degC], DC Bias Voltage=0[V]
!Freq. Start=100[MHz] Stop=9[GHz] 401[Steps]
# Hz S RI R 50
!Freq.(Hz) S11(Real) S11(Imag) S21(Real) S21(Imag) S12(Real) S12(Imag) S22(Real) S22(Imag)
100000000 0.9952141 -0.0687904 0.0047859 0.0687904 0.0047859 0.0687904 0.9952141 -0.0687904
121000000 0.9930078 -0.0830553 0.0069922 0.0830553 0.0069922 0.0830553 0.9930078 -0.0830553
142000000 0.9903943 -0.0972181 0.0096057 0.0972181 0.0096057 0.0972181 0.9903943 -0.0972181
163000000 0.9873799 -0.1112622 0.0126201 0.1112622 0.0126201 0.1112622 0.9873799 -0.1112622
184000000 0.9839717 -0.1251712 0.0160283 0.1251712 0.0160283 0.1251712 0.9839717 -0.1251712
205000000 0.9801776 -0.1389295 0.0198224 0.1389295 0.0198224 0.1389295 0.9801776 -0.1389295
226000000 0.9760064 -0.1525218 0.0239936 0.1525218 0.0239936 0.1525218 0.9760064 -0.1525218
247000000 0.9714675 -0.1659338 0.0285325 0.1659338 0.0285325 0.1659338 0.9714675 -0.1659338
268000000 0.9665713 -0.1791514 0.0334287 0.1791514 0.0334287 0.1791514 0.9665713 -0.1791514
289000000 0.9613285 -0.1921616 0.0386715 0.1921616 0.0386715 0.1921616 0.9613285 -0.1921616
310000000 0.9557507 -0.2049520 0.0442493 0.2049520 0.0442493 0.2049520 0.9557507 -0.2049520
331000000 0.9498498 -0.2175110 0.0501502 0.2175110 0.0501502 0.2175110 0.9498498 -0.2175110
352000000 0.9436383 -0.2298276 0.0563617 0.2298276 0.0563617 0.2298276 0.9436383 -0.2298276
373000000 0.9371291 -0.2418920 0.0628709 0.2418920 0.0628709 0.2418920 0.9371291 -0.2418920
394000000 0.9303354 -0.2536948 0.0696646 0.2536948 0.0696646 0.2536948 0.9303354 -0.2536948
415000000 0.9232707 -0.2652278 0.0767293 0.2652278 0.0767293 0.2652278 0.9232707 -0.2652278
436000000 0.9159488 -0.2764835 0.0840512 0.2764835 0.0840512 0.2764835 0.9159488 -0.2764835
457000000 0.9083836 -0.2874550 0.0916164 0.2874550 0.0916164 0.2874550 0.9083836 -0.2874550
478000000 0.9005891 -0.2981367 0.0994109 0.2981367 0.0994109 0.2981367 0.9005891 -0.2981367
499000000 0.8925793 -0.3085233 0.1074207 0.3085233 0.1074207 0.3085233 0.8925793 -0.3085233
520000000 0.8843684 -0.3186108 0.1156316 0.3186108 0.1156316 0.3186108 0.8843684 -0.3186108
541000000 0.8759705 -0.3283956 0.1240295 0.3283956 0.1240295 0.3283956 0.8759705 -0.3283956
562000000 0.8673994 -0.3378751 0.1326006 0.3378751 0.1326006 0.3378751 0.8673994 -0.3378751
583000000 0.8586689 -0.3470474 0.1413311 0.3470474 0.1413311 0.3470474 0.8586689 -0.3470474
604000000 0.8497928 -0.3559111 0.1502072 0.3559111 0.1502072 0.3559111 0.8497928 -0.3559111
625000000 0.8407843 -0.3644657 0.1592157 0.3644657 0.1592157 0.3644657 0.8407843 -0.3644657
646000000 0.8316567 -0.3727113 0.1683433 0.3727113 0.1683433 0.3727113 0.8316567 -0.3727113
667000000 0.8224228 -0.3806487 0.1775772 0.3806487 0.1775772 0.3806487 0.8224228 -0.3806487
688000000 0.8130951 -0.3882792 0.1869049 0.3882792 0.1869049 0.3882792 0.8130951 -0.3882792
709000000 0.8036859 -0.3956045 0.1963141 0.3956045 0.1963141 0.3956045 0.8036859 -0.3956045
730000000 0.7942070 -0.4026272 0.2057930 0.4026272 0.2057930 0.4026272 0.7942070 -0.4026272
751000000 0.7846700 -0.4093499 0.2153300 0.4093499 0.2153300 0.4093499 0.7846700 -0.4093499
772000000 0.7750857 -0.4157761 0.2249143 0.4157761 0.2249143 0.4157761 0.7750857 -0.4157761
793000000 0.7654650 -0.4219094 0.2345350 0.4219094 0.2345350 0.4219094 0.7654650 -0.4219094
814000000 0.7558181 -0.4277539 0.2441819 0.4277539 0.2441819 0.4277539 0.7558181 -0.4277539
835000000 0.7461547 -0.4333141 0.2538453 0.4333141 0.2538453 0.4333141 0.7461547 -0.4333141
856000000 0.7364843 -0.4385947 0.2635157 0.4385947 0.2635157 0.4385947 0.7364843 -0.4385947
877000000 0.7268159 -0.4436007 0.2731841 0.4436007 0.2731841 0.4436007 0.7268159 -0.4436007
898000000 0.7171579 -0.4483373 0.2828421 0.4483373 0.2828421 0.4483373 0.7171579 -0.4483373
919000000 0.7075184 -0.4528100 0.2924816 0.4528100 0.2924816 0.4528100 0.7075184 -0.4528100
940000000 0.6979051 -0.4570246 0.3020949 0.4570246 0.3020949 0.4570246 0.6979051 -0.4570246
961000000 0.6883253 -0.4609867 0.3116747 0.4609867 0.3116747 0.4609867 0.6883253 -0.4609867
982000000 0.6787856 -0.4647024 0.3212144 0.4647024 0.3212144 0.4647024 0.6787856 -0.4647024
1003000000 0.6692926 -0.4681777 0.3307074 0.4681777 0.3307074 0.4681777 0.6692926 -0.4681777
1024000000 0.6598522 -0.4714187 0.3401478 0.4714187 0.3401478 0.4714187 0.6598522 -0.4714187
1045000000 0.6504699 -0.4744317 0.3495301 0.4744317 0.3495301 0.4744317 0.6504699 -0.4744317
1066000000 0.6411512 -0.4772229 0.3588488 0.4772229 0.3588488 0.4772229 0.6411512 -0.4772229
1087000000 0.6319007 -0.4797986 0.3680993 0.4797986 0.3680993 0.4797986 0.6319007 -0.4797986
1108000000 0.6227229 -0.4821650 0.3772771 0.4821650 0.3772771 0.4821650 0.6227229 -0.4821650
1129000000 0.6136220 -0.4843284 0.3863780 0.4843284 0.3863780 0.4843284 0.6136220 -0.4843284
1150000000 0.6046018 -0.4862951 0.3953982 0.4862951 0.3953982 0.4862951 0.6046018 -0.4862951
1171000000 0.5956658 -0.4880711 0.4043342 0.4880711 0.4043342 0.4880711 0.5956658 -0.4880711
1192000000 0.5868171 -0.4896628 0.4131829 0.4896628 0.4131829 0.4896628 0.5868171 -0.4896628
1213000000 0.5780586 -0.4910760 0.4219414 0.4910760 0.4219414 0.4910760 0.5780586 -0.4910760
1234000000 0.5693929 -0.4923170 0.4306071 0.4923170 0.4306071 0.4923170 0.5693929 -0.4923170
1255000000 0.5608222 -0.4933914 0.4391778 0.4933914 0.4391778 0.4933914 0.5608222 -0.4933914
1276000000 0.5523487 -0.4943053 0.4476513 0.4943053 0.4476513 0.4943053 0.5523487 -0.4943053
1297000000 0.5439742 -0.4950643 0.4560258 0.4950643 0.4560258 0.4950643 0.5439742 -0.4950643
1318000000 0.5357002 -0.4956740 0.4642998 0.4956740 0.4642998 0.4956740 0.5357002 -0.4956740
1339000000 0.5275280 -0.4961400 0.4724720 0.4961400 0.4724720 0.4961400 0.5275280 -0.4961400
1360000000 0.5194589 -0.4964677 0.4805411 0.4964677 0.4805411 0.4964677 0.5194589 -0.4964677
1381000000 0.5114938 -0.4966622 0.4885062 0.4966622 0.4885062 0.4966622 0.5114938 -0.4966622
1402000000 0.5036334 -0.4967289 0.4963666 0.4967289 0.4963666 0.4967289 0.5036334 -0.4967289
1423000000 0.4958784 -0.4966727 0.5041216 0.4966727 0.5041216 0.4966727 0.4958784 -0.4966727
1444000000 0.4882291 -0.4964985 0.5117709 0.4964985 0.5117709 0.4964985 0.4882291 -0.4964985
1465000000 0.4806859 -0.4962111 0.5193141 0.4962111 0.5193141 0.4962111 0.4806859 -0.4962111
1486000000 0.4732489 -0.4958152 0.5267511 0.4958152 0.5267511 0.4958152 0.4732489 -0.4958152
1507000000 0.4659180 -0.4953153 0.5340820 0.4953153 0.5340820 0.4953153 0.4659180 -0.4953153
1528000000 0.4586932 -0.4947157 0.5413068 0.4947157 0.5413068 0.4947157 0.4586932 -0.4947157
1549000000 0.4515742 -0.4940208 0.5484258 0.4940208 0.5484258 0.4940208 0.4515742 -0.4940208
1570000000 0.4445607 -0.4932347 0.5554393 0.4932347 0.5554393 0.4932347 0.4445607 -0.4932347
1591000000 0.4376521 -0.4923613 0.5623479 0.4923613 0.5623479 0.4923613 0.4376521 -0.4923613
1612000000 0.4308481 -0.4914047 0.5691519 0.4914047 0.5691519 0.4914047 0.4308481 -0.4914047
1633000000 0.4241479 -0.4903684 0.5758521 0.4903684 0.5758521 0.4903684 0.4241479 -0.4903684
1654000000 0.4175509 -0.4892562 0.5824491 0.4892562 0.5824491 0.4892562 0.4175509 -0.4892562
1675000000 0.4110563 -0.4880717 0.5889437 0.4880717 0.5889437 0.4880717 0.4110563 -0.4880717
1696000000 0.4046632 -0.4868181 0.5953368 0.4868181 0.5953368 0.4868181 0.4046632 -0.4868181
1717000000 0.3983708 -0.4854988 0.6016292 0.4854988 0.6016292 0.4854988 0.3983708 -0.4854988
1738000000 0.3921780 -0.4841169 0.6078220 0.4841169 0.6078220 0.4841169 0.3921780 -0.4841169
1759000000 0.3860840 -0.4826755 0.6139160 0.4826755 0.6139160 0.4826755 0.3860840 -0.4826755
1780000000 0.3800877 -0.4811776 0.6199123 0.4811776 0.6199123 0.4811776 0.3800877 -0.4811776
1801000000 0.3741880 -0.4796260 0.6258120 0.4796260 0.6258120 0.4796260 0.3741880 -0.4796260
1822000000 0.3683837 -0.4780234 0.6316163 0.4780234 0.6316163 0.4780234 0.3683837 -0.4780234
1843000000 0.3626738 -0.4763725 0.6373262 0.4763725 0.6373262 0.4763725 0.3626738 -0.4763725
1864000000 0.3570571 -0.4746758 0.6429429 0.4746758 0.6429429 0.4746758 0.3570571 -0.4746758
1885000000 0.3515324 -0.4729358 0.6484676 0.4729358 0.6484676 0.4729358 0.3515324 -0.4729358
1906000000 0.3460985 -0.4711547 0.6539015 0.4711547 0.6539015 0.4711547 0.3460985 -0.4711547
1927000000 0.3407541 -0.4693350 0.6592459 0.4693350 0.6592459 0.4693350 0.3407541 -0.4693350
1948000000 0.3354980 -0.4674787 0.6645020 0.4674787 0.6645020 0.4674787 0.3354980 -0.4674787
1969000000 0.3303290 -0.4655879 0.6696710 0.4655879 0.6696710 0.4655879 0.3303290 -0.4655879
1990000000 0.3252458 -0.4636647 0.6747542 0.4636647 0.6747542 0.4636647 0.3252458 -0.4636647
2011000000 0.3202471 -0.4617110 0.6797529 0.4617110 0.6797529 0.4617110 0.3202471 -0.4617110
2032000000 0.3153317 -0.4597286 0.6846683 0.4597286 0.6846683 0.4597286 0.3153317 -0.4597286
2053000000 0.3104983 -0.4577192 0.6895017 0.4577192 0.6895017 0.4577192 0.3104983 -0.4577192
2074000000 0.3057456 -0.4556847 0.6942544 0.4556847 0.6942544 0.4556847 0.3057456 -0.4556847
2095000000 0.3010724 -0.4536266 0.6989276 0.4536266 0.6989276 0.4536266 0.3010724 -0.4536266
2116000000 0.2964774 -0.4515465 0.7035226 0.4515465 0.7035226 0.4515465 0.2964774 -0.4515465
2137000000 0.2919594 -0.4494459 0.7080406 0.4494459 0.7080406 0.4494459 0.2919594 -0.4494459
2158000000 0.2875170 -0.4473263 0.7124830 0.4473263 0.7124830 0.4473263 0.2875170 -0.4473263
2179000000 0.2831491 -0.4451889 0.7168509 0.4451889 0.7168509 0.4451889 0.2831491 -0.4451889
2200000000 0.2788544 -0.4430352 0.7211456 0.4430352 0.7211456 0.4430352 0.2788544 -0.4430352
2221000000 0.2746317 -0.4408664 0.7253683 0.4408664 0.7253683 0.4408664 0.2746317 -0.4408664
2242000000 0.2704797 -0.4386837 0.7295203 0.4386837 0.7295203 0.4386837 0.2704797 -0.4386837
2263000000 0.2663973 -0.4364883 0.7336027 0.4364883 0.7336027 0.4364883 0.2663973 -0.4364883
2284000000 0.2623832 -0.4342812 0.7376168 0.4342812 0.7376168 0.4342812 0.2623832 -0.4342812
2305000000 0.2584363 -0.4320635 0.7415637 0.4320635 0.7415637 0.4320635 0.2584363 -0.4320635
2326000000 0.2545555 -0.4298363 0.7454445 0.4298363 0.7454445 0.4298363 0.2545555 -0.4298363
2347000000 0.2507394 -0.4276004 0.7492606 0.4276004 0.7492606 0.4276004 0.2507394 -0.4276004
2368000000 0.2469871 -0.4253569 0.7530129 0.4253569 0.7530129 0.4253569 0.2469871 -0.4253569
2389000000 0.2432974 -0.4231066 0.7567026 0.4231066 0.7567026 0.4231066 0.2432974 -0.4231066
2410000000 0.2396691 -0.4208503 0.7603309 0.4208503 0.7603309 0.4208503 0.2396691 -0.4208503
2431000000 0.2361013 -0.4185889 0.7638987 0.4185889 0.7638987 0.4185889 0.2361013 -0.4185889
2452000000 0.2325927 -0.4163230 0.7674073 0.4163230 0.7674073 0.4163230 0.2325927 -0.4163230
2473000000 0.2291424 -0.4140536 0.7708576 0.4140536 0.7708576 0.4140536 0.2291424 -0.4140536
2494000000 0.2257492 -0.4117811 0.7742508 0.4117811 0.7742508 0.4117811 0.2257492 -0.4117811
2515000000 0.2224122 -0.4095063 0.7775878 0.4095063 0.7775878 0.4095063 0.2224122 -0.4095063
2536000000 0.2191303 -0.4072299 0.7808697 0.4072299 0.7808697 0.4072299 0.2191303 -0.4072299
2557000000 0.2159025 -0.4049523 0.7840975 0.4049523 0.7840975 0.4049523 0.2159025 -0.4049523
2578000000 0.2127279 -0.4026743 0.7872721 0.4026743 0.7872721 0.4026743 0.2127279 -0.4026743
2599000000 0.2096055 -0.4003963 0.7903945 0.4003963 0.7903945 0.4003963 0.2096055 -0.4003963
2620000000 0.2065343 -0.3981189 0.7934657 0.3981189 0.7934657 0.3981189 0.2065343 -0.3981189
2641000000 0.2035133 -0.3958425 0.7964867 0.3958425 0.7964867 0.3958425 0.2035133 -0.3958425
2662000000 0.2005418 -0.3935676 0.7994582 0.3935676 0.7994582 0.3935676 0.2005418 -0.3935676
2683000000 0.1976186 -0.3912947 0.8023814 0.3912947 0.8023814 0.3912947 0.1976186 -0.3912947
2704000000 0.1947431 -0.3890242 0.8052569 0.3890242 0.8052569 0.3890242 0.1947431 -0.3890242
2725000000 0.1919142 -0.3867565 0.8080858 0.3867565 0.8080858 0.3867565 0.1919142 -0.3867565
2746000000 0.1891312 -0.3844919 0.8108688 0.3844919 0.8108688 0.3844919 0.1891312 -0.3844919
2767000000 0.1863932 -0.3822308 0.8136068 0.3822308 0.8136068 0.3822308 0.1863932 -0.3822308
2788000000 0.1836993 -0.3799736 0.8163007 0.3799736 0.8163007 0.3799736 0.1836993 -0.3799736
2809000000 0.1810488 -0.3777205 0.8189512 0.3777205 0.8189512 0.3777205 0.1810488 -0.3777205
2830000000 0.1784409 -0.3754720 0.8215591 0.3754720 0.8215591 0.3754720 0.1784409 -0.3754720
2851000000 0.1758747 -0.3732282 0.8241253 0.3732282 0.8241253 0.3732282 0.1758747 -0.3732282
2872000000 0.1733496 -0.3709894 0.8266504 0.3709894 0.8266504 0.3709894 0.1733496 -0.3709894
2893000000 0.1708647 -0.3687559 0.8291353 0.3687559 0.8291353 0.3687559 0.1708647 -0.3687559
2914000000 0.1684193 -0.3665280 0.8315807 0.3665280 0.8315807 0.3665280 0.1684193 -0.3665280
2935000000 0.1660127 -0.3643058 0.8339873 0.3643058 0.8339873 0.3643058 0.1660127 -0.3643058
2956000000 0.1636442 -0.3620896 0.8363558 0.3620896 0.8363558 0.3620896 0.1636442 -0.3620896
2977000000 0.1613131 -0.3598795 0.8386869 0.3598795 0.8386869 0.3598795 0.1613131 -0.3598795
2998000000 0.1590187 -0.3576758 0.8409813 0.3576758 0.8409813 0.3576758 0.1590187 -0.3576758
3019000000 0.1567603 -0.3554786 0.8432397 0.3554786 0.8432397 0.3554786 0.1567603 -0.3554786
3040000000 0.1545373 -0.3532882 0.8454627 0.3532882 0.8454627 0.3532882 0.1545373 -0.3532882
3061000000 0.1523491 -0.3511045 0.8476509 0.3511045 0.8476509 0.3511045 0.1523491 -0.3511045
3082000000 0.1501949 -0.3489279 0.8498051 0.3489279 0.8498051 0.3489279 0.1501949 -0.3489279
3103000000 0.1480743 -0.3467584 0.8519257 0.3467584 0.8519257 0.3467584 0.1480743 -0.3467584
3124000000 0.1459865 -0.3445961 0.8540135 0.3445961 0.8540135 0.3445961 0.1459865 -0.3445961
3145000000 0.1439309 -0.3424412 0.8560691 0.3424412 0.8560691 0.3424412 0.1439309 -0.3424412
3166000000 0.1419071 -0.3402937 0.8580929 0.3402937 0.8580929 0.3402937 0.1419071 -0.3402937
3187000000 0.1399145 -0.3381538 0.8600855 0.3381538 0.8600855 0.3381538 0.1399145 -0.3381538
3208000000 0.1379523 -0.3360215 0.8620477 0.3360215 0.8620477 0.3360215 0.1379523 -0.3360215
3229000000 0.1360202 -0.3338970 0.8639798 0.3338970 0.8639798 0.3338970 0.1360202 -0.3338970
3250000000 0.1341176 -0.3317803 0.8658824 0.3317803 0.8658824 0.3317803 0.1341176 -0.3317803
3271000000 0.1322440 -0.3296714 0.8677560 0.3296714 0.8677560 0.3296714 0.1322440 -0.3296714
3292000000 0.1303988 -0.3275704 0.8696012 0.3275704 0.8696012 0.3275704 0.1303988 -0.3275704
3313000000 0.1285815 -0.3254775 0.8714185 0.3254775 0.8714185 0.3254775 0.1285815 -0.3254775
3334000000 0.1267917 -0.3233925 0.8732083 0.3233925 0.8732083 0.3233925 0.1267917 -0.3233925
3355000000 0.1250288 -0.3213157 0.8749712 0.3213157 0.8749712 0.3213157 0.1250288 -0.3213157
3376000000 0.1232924 -0.3192469 0.8767076 0.3192469 0.8767076 0.3192469 0.1232924 -0.3192469
3397000000 0.1215820 -0.3171863 0.8784180 0.3171863 0.8784180 0.3171863 0.1215820 -0.3171863
3418000000 0.1198972 -0.3151338 0.8801028 0.3151338 0.8801028 0.3151338 0.1198972 -0.3151338
3439000000 0.1182375 -0.3130895 0.8817625 0.3130895 0.8817625 0.3130895 0.1182375 -0.3130895
3460000000 0.1166024 -0.3110535 0.8833976 0.3110535 0.8833976 0.3110535 0.1166024 -0.3110535
3481000000 0.1149916 -0.3090256 0.8850084 0.3090256 0.8850084 0.3090256 0.1149916 -0.3090256
3502000000 0.1134046 -0.3070059 0.8865954 0.3070059 0.8865954 0.3070059 0.1134046 -0.3070059
3523000000 0.1118410 -0.3049945 0.8881590 0.3049945 0.8881590 0.3049945 0.1118410 -0.3049945
3544000000 0.1103005 -0.3029913 0.8896995 0.3029913 0.8896995 0.3029913 0.1103005 -0.3029913
3565000000 0.1087825 -0.3009963 0.8912175 0.3009963 0.8912175 0.3009963 0.1087825 -0.3009963
3586000000 0.1072867 -0.2990096 0.8927133 0.2990096 0.8927133 0.2990096 0.1072867 -0.2990096
3607000000 0.1058128 -0.2970310 0.8941872 0.2970310 0.8941872 0.2970310 0.1058128 -0.2970310
3628000000 0.1043604 -0.2950606 0.8956396 0.2950606 0.8956396 0.2950606 0.1043604 -0.2950606
3649000000 0.1029290 -0.2930984 0.8970710 0.2930984 0.8970710 0.2930984 0.1029290 -0.2930984
3670000000 0.1015184 -0.2911444 0.8984816 0.2911444 0.8984816 0.2911444 0.1015184 -0.2911444
3691000000 0.1001282 -0.2891985 0.8998718 0.2891985 0.8998718 0.2891985 0.1001282 -0.2891985
3712000000 0.0987581 -0.2872607 0.9012419 0.2872607 0.9012419 0.2872607 0.0987581 -0.2872607
3733000000 0.0974077 -0.2853309 0.9025923 0.2853309 0.9025923 0.2853309 0.0974077 -0.2853309
3754000000 0.0960766 -0.2834093 0.9039234 0.2834093 0.9039234 0.2834093 0.0960766 -0.2834093
3775000000 0.0947646 -0.2814956 0.9052354 0.2814956 0.9052354 0.2814956 0.0947646 -0.2814956
3796000000 0.0934714 -0.2795900 0.9065286 0.2795900 0.9065286 0.2795900 0.0934714 -0.2795900
3817000000 0.0921966 -0.2776923 0.9078034 0.2776923 0.9078034 0.2776923 0.0921966 -0.2776923
3838000000 0.0909399 -0.2758025 0.9090601 0.2758025 0.9090601 0.2758025 0.0909399 -0.2758025
3859000000 0.0897011 -0.2739206 0.9102989 0.2739206 0.9102989 0.2739206 0.0897011 -0.2739206
3880000000 0.0884798 -0.2720465 0.9115202 0.2720465 0.9115202 0.2720465 0.0884798 -0.2720465
3901000000 0.0872757 -0.2701802 0.9127243 0.2701802 0.9127243 0.2701802 0.0872757 -0.2701802
3922000000 0.0860887 -0.2683217 0.9139113 0.2683217 0.9139113 0.2683217 0.0860887 -0.2683217
3943000000 0.0849183 -0.2664709 0.9150817 0.2664709 0.9150817 0.2664709 0.0849183 -0.2664709
3964000000 0.0837644 -0.2646277 0.9162356 0.2646277 0.9162356 0.2646277 0.0837644 -0.2646277
3985000000 0.0826266 -0.2627922 0.9173734 0.2627922 0.9173734 0.2627922 0.0826266 -0.2627922
4006000000 0.0815048 -0.2609642 0.9184952 0.2609642 0.9184952 0.2609642 0.0815048 -0.2609642
4027000000 0.0803986 -0.2591438 0.9196014 0.2591438 0.9196014 0.2591438 0.0803986 -0.2591438
4048000000 0.0793079 -0.2573308 0.9206921 0.2573308 0.9206921 0.2573308 0.0793079 -0.2573308
4069000000 0.0782322 -0.2555252 0.9217678 0.2555252 0.9217678 0.2555252 0.0782322 -0.2555252
4090000000 0.0771716 -0.2537269 0.9228284 0.2537269 0.9228284 0.2537269 0.0771716 -0.2537269
4111000000 0.0761256 -0.2519360 0.9238744 0.2519360 0.9238744 0.2519360 0.0761256 -0.2519360
4132000000 0.0750941 -0.2501524 0.9249059 0.2501524 0.9249059 0.2501524 0.0750941 -0.2501524
4153000000 0.0740768 -0.2483759 0.9259232 0.2483759 0.9259232 0.2483759 0.0740768 -0.2483759
4174000000 0.0730736 -0.2466065 0.9269264 0.2466065 0.9269264 0.2466065 0.0730736 -0.2466065
4195000000 0.0720841 -0.2448443 0.9279159 0.2448443 0.9279159 0.2448443 0.0720841 -0.2448443
4216000000 0.0711083 -0.2430891 0.9288917 0.2430891 0.9288917 0.2430891 0.0711083 -0.2430891
4237000000 0.0701458 -0.2413408 0.9298542 0.2413408 0.9298542 0.2413408 0.0701458 -0.2413408
4258000000 0.0691965 -0.2395995 0.9308035 0.2395995 0.9308035 0.2395995 0.0691965 -0.2395995
4279000000 0.0682602 -0.2378650 0.9317398 0.2378650 0.9317398 0.2378650 0.0682602 -0.2378650
4300000000 0.0673367 -0.2361373 0.9326633 0.2361373 0.9326633 0.2361373 0.0673367 -0.2361373
4321000000 0.0664258 -0.2344163 0.9335742 0.2344163 0.9335742 0.2344163 0.0664258 -0.2344163
4342000000 0.0655273 -0.2327021 0.9344727 0.2327021 0.9344727 0.2327021 0.0655273 -0.2327021
4363000000 0.0646411 -0.2309944 0.9353589 0.2309944 0.9353589 0.2309944 0.0646411 -0.2309944
4384000000 0.0637669 -0.2292933 0.9362331 0.2292933 0.9362331 0.2292933 0.0637669 -0.2292933
4405000000 0.0629045 -0.2275986 0.9370955 0.2275986 0.9370955 0.2275986 0.0629045 -0.2275986
4426000000 0.0620539 -0.2259104 0.9379461 0.2259104 0.9379461 0.2259104 0.0620539 -0.2259104
4447000000 0.0612148 -0.2242286 0.9387852 0.2242286 0.9387852 0.2242286 0.0612148 -0.2242286
4468000000 0.0603870 -0.2225531 0.9396130 0.2225531 0.9396130 0.2225531 0.0603870 -0.2225531
4489000000 0.0595704 -0.2208838 0.9404296 0.2208838 0.9404296 0.2208838 0.0595704 -0.2208838
4510000000 0.0587649 -0.2192207 0.9412351 0.2192207 0.9412351 0.2192207 0.0587649 -0.2192207
