!Murata Part Number: GRM1552C1H240JA01
!These Parameters are Measured in Series Mode Connection
!Data Generated on Mar 30, 2021
!       o--ll--o
!Port1            Port2
!       o------o
!Operation Temp=25[degC], DC Bias Voltage=0[V]
!Freq. Start=100[MHz] Stop=9[GHz] 401[Steps]
# Hz S RI R 50
!Freq.(Hz) S11(Real) S11(Imag) S21(Real) S21(Imag) S12(Real) S12(Imag) S22(Real) S22(Imag)
100000000 0.3042387 -0.4592447 0.6957613 0.4592447 0.6957613 0.4592447 0.3042387 -0.4592447
121000000 0.2296057 -0.4195576 0.7703943 0.4195576 0.7703943 0.4195576 0.2296057 -0.4195576
142000000 0.1775405 -0.3809183 0.8224595 0.3809183 0.8224595 0.3809183 0.1775405 -0.3809183
163000000 0.1404194 -0.3460251 0.8595806 0.3460251 0.8595806 0.3460251 0.1404194 -0.3460251
184000000 0.1133055 -0.3153755 0.8866945 0.3153755 0.8866945 0.3153755 0.1133055 -0.3153755
205000000 0.0930333 -0.2886898 0.9069667 0.2886898 0.9069667 0.2886898 0.0930333 -0.2886898
226000000 0.0775487 -0.2654662 0.9224513 0.2654662 0.9224513 0.2654662 0.0775487 -0.2654662
247000000 0.0654918 -0.2451871 0.9345082 0.2451871 0.9345082 0.2451871 0.0654918 -0.2451871
268000000 0.0559423 -0.2273882 0.9440577 0.2273882 0.9440577 0.2273882 0.0559423 -0.2273882
289000000 0.0482633 -0.2116750 0.9517367 0.2116750 0.9517367 0.2116750 0.0482633 -0.2116750
310000000 0.0420048 -0.1977202 0.9579952 0.1977202 0.9579952 0.1977202 0.0420048 -0.1977202
331000000 0.0368427 -0.1852541 0.9631573 0.1852541 0.9631573 0.1852541 0.0368427 -0.1852541
352000000 0.0325391 -0.1740551 0.9674609 0.1740551 0.9674609 0.1740551 0.0325391 -0.1740551
373000000 0.0289169 -0.1639409 0.9710831 0.1639409 0.9710831 0.1639409 0.0289169 -0.1639409
394000000 0.0258418 -0.1547606 0.9741582 0.1547606 0.9741582 0.1547606 0.0258418 -0.1547606
415000000 0.0232110 -0.1463890 0.9767890 0.1463890 0.9767890 0.1463890 0.0232110 -0.1463890
436000000 0.0209444 -0.1387216 0.9790556 0.1387216 0.9790556 0.1387216 0.0209444 -0.1387216
457000000 0.0189793 -0.1316703 0.9810207 0.1316703 0.9810207 0.1316703 0.0189793 -0.1316703
478000000 0.0172657 -0.1251611 0.9827343 0.1251611 0.9827343 0.1251611 0.0172657 -0.1251611
499000000 0.0157636 -0.1191308 0.9842364 0.1191308 0.9842364 0.1191308 0.0157636 -0.1191308
520000000 0.0144407 -0.1135256 0.9855593 0.1135256 0.9855593 0.1135256 0.0144407 -0.1135256
541000000 0.0132705 -0.1082994 0.9867295 0.1082994 0.9867295 0.1082994 0.0132705 -0.1082994
562000000 0.0122312 -0.1034122 0.9877688 0.1034122 0.9877688 0.1034122 0.0122312 -0.1034122
583000000 0.0113050 -0.0988296 0.9886950 0.0988296 0.9886950 0.0988296 0.0113050 -0.0988296
604000000 0.0104767 -0.0945214 0.9895233 0.0945214 0.9895233 0.0945214 0.0104767 -0.0945214
625000000 0.0097338 -0.0904614 0.9902662 0.0904614 0.9902662 0.0904614 0.0097338 -0.0904614
646000000 0.0090657 -0.0866265 0.9909343 0.0866265 0.9909343 0.0866265 0.0090657 -0.0866265
667000000 0.0084633 -0.0829964 0.9915367 0.0829964 0.9915367 0.0829964 0.0084633 -0.0829964
688000000 0.0079189 -0.0795531 0.9920811 0.0795531 0.9920811 0.0795531 0.0079189 -0.0795531
709000000 0.0074260 -0.0762807 0.9925740 0.0762807 0.9925740 0.0762807 0.0074260 -0.0762807
730000000 0.0069789 -0.0731650 0.9930211 0.0731650 0.9930211 0.0731650 0.0069789 -0.0731650
751000000 0.0065726 -0.0701933 0.9934274 0.0701933 0.9934274 0.0701933 0.0065726 -0.0701933
772000000 0.0062029 -0.0673543 0.9937971 0.0673543 0.9937971 0.0673543 0.0062029 -0.0673543
793000000 0.0058661 -0.0646377 0.9941339 0.0646377 0.9941339 0.0646377 0.0058661 -0.0646377
814000000 0.0055589 -0.0620344 0.9944411 0.0620344 0.9944411 0.0620344 0.0055589 -0.0620344
835000000 0.0052784 -0.0595360 0.9947216 0.0595360 0.9947216 0.0595360 0.0052784 -0.0595360
856000000 0.0050222 -0.0571351 0.9949778 0.0571351 0.9949778 0.0571351 0.0050222 -0.0571351
877000000 0.0047880 -0.0548249 0.9952120 0.0548249 0.9952120 0.0548249 0.0047880 -0.0548249
898000000 0.0045739 -0.0525991 0.9954261 0.0525991 0.9954261 0.0525991 0.0045739 -0.0525991
919000000 0.0043780 -0.0504520 0.9956220 0.0504520 0.9956220 0.0504520 0.0043780 -0.0504520
940000000 0.0041988 -0.0483787 0.9958012 0.0483787 0.9958012 0.0483787 0.0041988 -0.0483787
961000000 0.0040350 -0.0463742 0.9959650 0.0463742 0.9959650 0.0463742 0.0040350 -0.0463742
982000000 0.0038852 -0.0444343 0.9961148 0.0444343 0.9961148 0.0444343 0.0038852 -0.0444343
1003000000 0.0037484 -0.0425550 0.9962516 0.0425550 0.9962516 0.0425550 0.0037484 -0.0425550
1024000000 0.0036235 -0.0407327 0.9963765 0.0407327 0.9963765 0.0407327 0.0036235 -0.0407327
1045000000 0.0035096 -0.0389640 0.9964904 0.0389640 0.9964904 0.0389640 0.0035096 -0.0389640
1066000000 0.0034059 -0.0372457 0.9965941 0.0372457 0.9965941 0.0372457 0.0034059 -0.0372457
1087000000 0.0033117 -0.0355749 0.9966883 0.0355749 0.9966883 0.0355749 0.0033117 -0.0355749
1108000000 0.0032262 -0.0339491 0.9967738 0.0339491 0.9967738 0.0339491 0.0032262 -0.0339491
1129000000 0.0031489 -0.0323657 0.9968511 0.0323657 0.9968511 0.0323657 0.0031489 -0.0323657
1150000000 0.0030791 -0.0308224 0.9969209 0.0308224 0.9969209 0.0308224 0.0030791 -0.0308224
1171000000 0.0030164 -0.0293172 0.9969836 0.0293172 0.9969836 0.0293172 0.0030164 -0.0293172
1192000000 0.0029603 -0.0278479 0.9970397 0.0278479 0.9970397 0.0278479 0.0029603 -0.0278479
1213000000 0.0029104 -0.0264128 0.9970896 0.0264128 0.9970896 0.0264128 0.0029104 -0.0264128
1234000000 0.0028663 -0.0250100 0.9971337 0.0250100 0.9971337 0.0250100 0.0028663 -0.0250100
1255000000 0.0028275 -0.0236381 0.9971725 0.0236381 0.9971725 0.0236381 0.0028275 -0.0236381
1276000000 0.0027939 -0.0222954 0.9972061 0.0222954 0.9972061 0.0222954 0.0027939 -0.0222954
1297000000 0.0027651 -0.0209805 0.9972349 0.0209805 0.9972349 0.0209805 0.0027651 -0.0209805
1318000000 0.0027407 -0.0196922 0.9972593 0.0196922 0.9972593 0.0196922 0.0027407 -0.0196922
1339000000 0.0027206 -0.0184291 0.9972794 0.0184291 0.9972794 0.0184291 0.0027206 -0.0184291
1360000000 0.0027046 -0.0171900 0.9972954 0.0171900 0.9972954 0.0171900 0.0027046 -0.0171900
1381000000 0.0026923 -0.0159740 0.9973077 0.0159740 0.9973077 0.0159740 0.0026923 -0.0159740
1402000000 0.0026835 -0.0147798 0.9973165 0.0147798 0.9973165 0.0147798 0.0026835 -0.0147798
1423000000 0.0026782 -0.0136066 0.9973218 0.0136066 0.9973218 0.0136066 0.0026782 -0.0136066
1444000000 0.0026761 -0.0124534 0.9973239 0.0124534 0.9973239 0.0124534 0.0026761 -0.0124534
1465000000 0.0026771 -0.0113193 0.9973229 0.0113193 0.9973229 0.0113193 0.0026771 -0.0113193
1486000000 0.0026810 -0.0102035 0.9973190 0.0102035 0.9973190 0.0102035 0.0026810 -0.0102035
1507000000 0.0026876 -0.0091052 0.9973124 0.0091052 0.9973124 0.0091052 0.0026876 -0.0091052
1528000000 0.0026969 -0.0080236 0.9973031 0.0080236 0.9973031 0.0080236 0.0026969 -0.0080236
1549000000 0.0027087 -0.0069582 0.9972913 0.0069582 0.9972913 0.0069582 0.0027087 -0.0069582
1570000000 0.0027230 -0.0059081 0.9972770 0.0059081 0.9972770 0.0059081 0.0027230 -0.0059081
1591000000 0.0027395 -0.0048727 0.9972605 0.0048727 0.9972605 0.0048727 0.0027395 -0.0048727
1612000000 0.0027583 -0.0038516 0.9972417 0.0038516 0.9972417 0.0038516 0.0027583 -0.0038516
1633000000 0.0027792 -0.0028440 0.9972208 0.0028440 0.9972208 0.0028440 0.0027792 -0.0028440
1654000000 0.0028021 -0.0018494 0.9971979 0.0018494 0.9971979 0.0018494 0.0028021 -0.0018494
1675000000 0.0028270 -0.0008673 0.9971730 0.0008673 0.9971730 0.0008673 0.0028270 -0.0008673
1696000000 0.0028538 0.0001027 0.9971462 -0.0001027 0.9971462 -0.0001027 0.0028538 0.0001027
1717000000 0.0028824 0.0010612 0.9971176 -0.0010612 0.9971176 -0.0010612 0.0028824 0.0010612
1738000000 0.0029128 0.0020086 0.9970872 -0.0020086 0.9970872 -0.0020086 0.0029128 0.0020086
1759000000 0.0029449 0.0029454 0.9970551 -0.0029454 0.9970551 -0.0029454 0.0029449 0.0029454
1780000000 0.0029787 0.0038719 0.9970213 -0.0038719 0.9970213 -0.0038719 0.0029787 0.0038719
1801000000 0.0030140 0.0047885 0.9969860 -0.0047885 0.9969860 -0.0047885 0.0030140 0.0047885
1822000000 0.0030510 0.0056957 0.9969490 -0.0056957 0.9969490 -0.0056957 0.0030510 0.0056957
1843000000 0.0030894 0.0065937 0.9969106 -0.0065937 0.9969106 -0.0065937 0.0030894 0.0065937
1864000000 0.0031294 0.0074830 0.9968706 -0.0074830 0.9968706 -0.0074830 0.0031294 0.0074830
1885000000 0.0031708 0.0083638 0.9968292 -0.0083638 0.9968292 -0.0083638 0.0031708 0.0083638
1906000000 0.0032136 0.0092364 0.9967864 -0.0092364 0.9967864 -0.0092364 0.0032136 0.0092364
1927000000 0.0032578 0.0101013 0.9967422 -0.0101013 0.9967422 -0.0101013 0.0032578 0.0101013
1948000000 0.0033033 0.0109586 0.9966967 -0.0109586 0.9966967 -0.0109586 0.0033033 0.0109586
1969000000 0.0033502 0.0118087 0.9966498 -0.0118087 0.9966498 -0.0118087 0.0033502 0.0118087
1990000000 0.0033984 0.0126518 0.9966016 -0.0126518 0.9966016 -0.0126518 0.0033984 0.0126518
2011000000 0.0034479 0.0134881 0.9965521 -0.0134881 0.9965521 -0.0134881 0.0034479 0.0134881
2032000000 0.0034987 0.0143180 0.9965013 -0.0143180 0.9965013 -0.0143180 0.0034987 0.0143180
2053000000 0.0035508 0.0151417 0.9964492 -0.0151417 0.9964492 -0.0151417 0.0035508 0.0151417
2074000000 0.0036041 0.0159593 0.9963959 -0.0159593 0.9963959 -0.0159593 0.0036041 0.0159593
2095000000 0.0036586 0.0167712 0.9963414 -0.0167712 0.9963414 -0.0167712 0.0036586 0.0167712
2116000000 0.0037143 0.0175776 0.9962857 -0.0175776 0.9962857 -0.0175776 0.0037143 0.0175776
2137000000 0.0037713 0.0183786 0.9962287 -0.0183786 0.9962287 -0.0183786 0.0037713 0.0183786
2158000000 0.0038295 0.0191744 0.9961705 -0.0191744 0.9961705 -0.0191744 0.0038295 0.0191744
2179000000 0.0038889 0.0199653 0.9961111 -0.0199653 0.9961111 -0.0199653 0.0038889 0.0199653
2200000000 0.0039494 0.0207515 0.9960506 -0.0207515 0.9960506 -0.0207515 0.0039494 0.0207515
2221000000 0.0040112 0.0215330 0.9959888 -0.0215330 0.9959888 -0.0215330 0.0040112 0.0215330
2242000000 0.0040742 0.0223102 0.9959258 -0.0223102 0.9959258 -0.0223102 0.0040742 0.0223102
2263000000 0.0041385 0.0230831 0.9958615 -0.0230831 0.9958615 -0.0230831 0.0041385 0.0230831
2284000000 0.0042039 0.0238520 0.9957961 -0.0238520 0.9957961 -0.0238520 0.0042039 0.0238520
2305000000 0.0042705 0.0246170 0.9957295 -0.0246170 0.9957295 -0.0246170 0.0042705 0.0246170
2326000000 0.0043384 0.0253783 0.9956616 -0.0253783 0.9956616 -0.0253783 0.0043384 0.0253783
2347000000 0.0044075 0.0261360 0.9955925 -0.0261360 0.9955925 -0.0261360 0.0044075 0.0261360
2368000000 0.0044779 0.0268903 0.9955221 -0.0268903 0.9955221 -0.0268903 0.0044779 0.0268903
2389000000 0.0045495 0.0276412 0.9954505 -0.0276412 0.9954505 -0.0276412 0.0045495 0.0276412
2410000000 0.0046224 0.0283891 0.9953776 -0.0283891 0.9953776 -0.0283891 0.0046224 0.0283891
2431000000 0.0046966 0.0291339 0.9953034 -0.0291339 0.9953034 -0.0291339 0.0046966 0.0291339
2452000000 0.0047721 0.0298759 0.9952279 -0.0298759 0.9952279 -0.0298759 0.0047721 0.0298759
2473000000 0.0048490 0.0306152 0.9951510 -0.0306152 0.9951510 -0.0306152 0.0048490 0.0306152
2494000000 0.0049272 0.0313519 0.9950728 -0.0313519 0.9950728 -0.0313519 0.0049272 0.0313519
2515000000 0.0050068 0.0320861 0.9949932 -0.0320861 0.9949932 -0.0320861 0.0050068 0.0320861
2536000000 0.0050879 0.0328180 0.9949121 -0.0328180 0.9949121 -0.0328180 0.0050879 0.0328180
2557000000 0.0051704 0.0335476 0.9948296 -0.0335476 0.9948296 -0.0335476 0.0051704 0.0335476
2578000000 0.0052544 0.0342752 0.9947456 -0.0342752 0.9947456 -0.0342752 0.0052544 0.0342752
2599000000 0.0053399 0.0350008 0.9946601 -0.0350008 0.9946601 -0.0350008 0.0053399 0.0350008
2620000000 0.0054271 0.0357245 0.9945729 -0.0357245 0.9945729 -0.0357245 0.0054271 0.0357245
2641000000 0.0055158 0.0364465 0.9944842 -0.0364465 0.9944842 -0.0364465 0.0055158 0.0364465
2662000000 0.0056062 0.0371669 0.9943938 -0.0371669 0.9943938 -0.0371669 0.0056062 0.0371669
2683000000 0.0056984 0.0378858 0.9943016 -0.0378858 0.9943016 -0.0378858 0.0056984 0.0378858
2704000000 0.0057923 0.0386033 0.9942077 -0.0386033 0.9942077 -0.0386033 0.0057923 0.0386033
2725000000 0.0058881 0.0393195 0.9941119 -0.0393195 0.9941119 -0.0393195 0.0058881 0.0393195
2746000000 0.0059858 0.0400345 0.9940142 -0.0400345 0.9940142 -0.0400345 0.0059858 0.0400345
2767000000 0.0060856 0.0407485 0.9939144 -0.0407485 0.9939144 -0.0407485 0.0060856 0.0407485
2788000000 0.0061874 0.0414615 0.9938126 -0.0414615 0.9938126 -0.0414615 0.0061874 0.0414615
2809000000 0.0062915 0.0421737 0.9937085 -0.0421737 0.9937085 -0.0421737 0.0062915 0.0421737
2830000000 0.0063978 0.0428852 0.9936022 -0.0428852 0.9936022 -0.0428852 0.0063978 0.0428852
2851000000 0.0065065 0.0435960 0.9934935 -0.0435960 0.9934935 -0.0435960 0.0065065 0.0435960
2872000000 0.0066178 0.0443062 0.9933822 -0.0443062 0.9933822 -0.0443062 0.0066178 0.0443062
2893000000 0.0067317 0.0450160 0.9932683 -0.0450160 0.9932683 -0.0450160 0.0067317 0.0450160
2914000000 0.0068484 0.0457255 0.9931516 -0.0457255 0.9931516 -0.0457255 0.0068484 0.0457255
2935000000 0.0069681 0.0464348 0.9930319 -0.0464348 0.9930319 -0.0464348 0.0069681 0.0464348
2956000000 0.0070910 0.0471439 0.9929090 -0.0471439 0.9929090 -0.0471439 0.0070910 0.0471439
2977000000 0.0072171 0.0478529 0.9927829 -0.0478529 0.9927829 -0.0478529 0.0072171 0.0478529
2998000000 0.0073469 0.0485619 0.9926531 -0.0485619 0.9926531 -0.0485619 0.0073469 0.0485619
3019000000 0.0074804 0.0492710 0.9925196 -0.0492710 0.9925196 -0.0492710 0.0074804 0.0492710
3040000000 0.0076180 0.0499803 0.9923820 -0.0499803 0.9923820 -0.0499803 0.0076180 0.0499803
3061000000 0.0077599 0.0506897 0.9922401 -0.0506897 0.9922401 -0.0506897 0.0077599 0.0506897
3082000000 0.0079064 0.0513994 0.9920936 -0.0513994 0.9920936 -0.0513994 0.0079064 0.0513994
3103000000 0.0080580 0.0521094 0.9919420 -0.0521094 0.9919420 -0.0521094 0.0080580 0.0521094
3124000000 0.0082149 0.0528196 0.9917851 -0.0528196 0.9917851 -0.0528196 0.0082149 0.0528196
3145000000 0.0083777 0.0535300 0.9916223 -0.0535300 0.9916223 -0.0535300 0.0083777 0.0535300
3166000000 0.0085467 0.0542406 0.9914533 -0.0542406 0.9914533 -0.0542406 0.0085467 0.0542406
3187000000 0.0087225 0.0549512 0.9912775 -0.0549512 0.9912775 -0.0549512 0.0087225 0.0549512
3208000000 0.0089056 0.0556617 0.9910944 -0.0556617 0.9910944 -0.0556617 0.0089056 0.0556617
3229000000 0.0090967 0.0563719 0.9909033 -0.0563719 0.9909033 -0.0563719 0.0090967 0.0563719
3250000000 0.0092965 0.0570814 0.9907035 -0.0570814 0.9907035 -0.0570814 0.0092965 0.0570814
3271000000 0.0095057 0.0577899 0.9904943 -0.0577899 0.9904943 -0.0577899 0.0095057 0.0577899
3292000000 0.0097250 0.0584969 0.9902750 -0.0584969 0.9902750 -0.0584969 0.0097250 0.0584969
3313000000 0.0099554 0.0592016 0.9900446 -0.0592016 0.9900446 -0.0592016 0.0099554 0.0592016
3334000000 0.0101978 0.0599033 0.9898022 -0.0599033 0.9898022 -0.0599033 0.0101978 0.0599033
3355000000 0.0104530 0.0606008 0.9895470 -0.0606008 0.9895470 -0.0606008 0.0104530 0.0606008
3376000000 0.0107221 0.0612929 0.9892779 -0.0612929 0.9892779 -0.0612929 0.0107221 0.0612929
3397000000 0.0110059 0.0619780 0.9889941 -0.0619780 0.9889941 -0.0619780 0.0110059 0.0619780
3418000000 0.0113053 0.0626540 0.9886947 -0.0626540 0.9886947 -0.0626540 0.0113053 0.0626540
3439000000 0.0116210 0.0633185 0.9883790 -0.0633185 0.9883790 -0.0633185 0.0116210 0.0633185
3460000000 0.0119534 0.0639688 0.9880466 -0.0639688 0.9880466 -0.0639688 0.0119534 0.0639688
3481000000 0.0123026 0.0646015 0.9876974 -0.0646015 0.9876974 -0.0646015 0.0123026 0.0646015
3502000000 0.0126681 0.0652128 0.9873319 -0.0652128 0.9873319 -0.0652128 0.0126681 0.0652128
3523000000 0.0130485 0.0657984 0.9869515 -0.0657984 0.9869515 -0.0657984 0.0130485 0.0657984
3544000000 0.0134417 0.0663537 0.9865583 -0.0663537 0.9865583 -0.0663537 0.0134417 0.0663537
3565000000 0.0138440 0.0668738 0.9861560 -0.0668738 0.9861560 -0.0668738 0.0138440 0.0668738
3586000000 0.0142502 0.0673544 0.9857498 -0.0673544 0.9857498 -0.0673544 0.0142502 0.0673544
3607000000 0.0146538 0.0677914 0.9853462 -0.0677914 0.9853462 -0.0677914 0.0146538 0.0677914
3628000000 0.0150461 0.0681822 0.9849539 -0.0681822 0.9849539 -0.0681822 0.0150461 0.0681822
3649000000 0.0154173 0.0685261 0.9845827 -0.0685261 0.9845827 -0.0685261 0.0154173 0.0685261
3670000000 0.0157565 0.0688252 0.9842435 -0.0688252 0.9842435 -0.0688252 0.0157565 0.0688252
3691000000 0.0160528 0.0690847 0.9839472 -0.0690847 0.9839472 -0.0690847 0.0160528 0.0690847
3712000000 0.0162964 0.0693130 0.9837036 -0.0693130 0.9837036 -0.0693130 0.0162964 0.0693130
3733000000 0.0164797 0.0695217 0.9835203 -0.0695217 0.9835203 -0.0695217 0.0164797 0.0695217
3754000000 0.0165986 0.0697245 0.9834014 -0.0697245 0.9834014 -0.0697245 0.0165986 0.0697245
3775000000 0.0166531 0.0699359 0.9833469 -0.0699359 0.9833469 -0.0699359 0.0166531 0.0699359
3796000000 0.0166473 0.0701696 0.9833527 -0.0701696 0.9833527 -0.0701696 0.0166473 0.0701696
3817000000 0.0165888 0.0704377 0.9834112 -0.0704377 0.9834112 -0.0704377 0.0165888 0.0704377
3838000000 0.0164879 0.0707487 0.9835121 -0.0707487 0.9835121 -0.0707487 0.0164879 0.0707487
3859000000 0.0163558 0.0711081 0.9836442 -0.0711081 0.9836442 -0.0711081 0.0163558 0.0711081
3880000000 0.0162041 0.0715178 0.9837959 -0.0715178 0.9837959 -0.0715178 0.0162041 0.0715178
3901000000 0.0160433 0.0719770 0.9839567 -0.0719770 0.9839567 -0.0719770 0.0160433 0.0719770
3922000000 0.0158822 0.0724828 0.9841178 -0.0724828 0.9841178 -0.0724828 0.0158822 0.0724828
3943000000 0.0157281 0.0730306 0.9842719 -0.0730306 0.9842719 -0.0730306 0.0157281 0.0730306
3964000000 0.0155862 0.0736156 0.9844138 -0.0736156 0.9844138 -0.0736156 0.0155862 0.0736156
3985000000 0.0154602 0.0742323 0.9845398 -0.0742323 0.9845398 -0.0742323 0.0154602 0.0742323
4006000000 0.0153523 0.0748758 0.9846477 -0.0748758 0.9846477 -0.0748758 0.0153523 0.0748758
4027000000 0.0152637 0.0755413 0.9847363 -0.0755413 0.9847363 -0.0755413 0.0152637 0.0755413
4048000000 0.0151948 0.0762247 0.9848052 -0.0762247 0.9848052 -0.0762247 0.0151948 0.0762247
4069000000 0.0151454 0.0769225 0.9848546 -0.0769225 0.9848546 -0.0769225 0.0151454 0.0769225
4090000000 0.0151147 0.0776315 0.9848853 -0.0776315 0.9848853 -0.0776315 0.0151147 0.0776315
4111000000 0.0151019 0.0783493 0.9848981 -0.0783493 0.9848981 -0.0783493 0.0151019 0.0783493
4132000000 0.0151060 0.0790738 0.9848940 -0.0790738 0.9848940 -0.0790738 0.0151060 0.0790738
4153000000 0.0151258 0.0798033 0.9848742 -0.0798033 0.9848742 -0.0798033 0.0151258 0.0798033
4174000000 0.0151604 0.0805366 0.9848396 -0.0805366 0.9848396 -0.0805366 0.0151604 0.0805366
4195000000 0.0152086 0.0812725 0.9847914 -0.0812725 0.9847914 -0.0812725 0.0152086 0.0812725
4216000000 0.0152694 0.0820102 0.9847306 -0.0820102 0.9847306 -0.0820102 0.0152694 0.0820102
4237000000 0.0153420 0.0827491 0.9846580 -0.0827491 0.9846580 -0.0827491 0.0153420 0.0827491
4258000000 0.0154254 0.0834887 0.9845746 -0.0834887 0.9845746 -0.0834887 0.0154254 0.0834887
4279000000 0.0155189 0.0842286 0.9844811 -0.0842286 0.9844811 -0.0842286 0.0155189 0.0842286
4300000000 0.0156218 0.0849685 0.9843782 -0.0849685 0.9843782 -0.0849685 0.0156218 0.0849685
4321000000 0.0157334 0.0857082 0.9842666 -0.0857082 0.9842666 -0.0857082 0.0157334 0.0857082
4342000000 0.0158532 0.0864476 0.9841468 -0.0864476 0.9841468 -0.0864476 0.0158532 0.0864476
4363000000 0.0159806 0.0871867 0.9840194 -0.0871867 0.9840194 -0.0871867 0.0159806 0.0871867
4384000000 0.0161153 0.0879253 0.9838847 -0.0879253 0.9838847 -0.0879253 0.0161153 0.0879253
4405000000 0.0162568 0.0886635 0.9837432 -0.0886635 0.9837432 -0.0886635 0.0162568 0.0886635
4426000000 0.0164047 0.0894013 0.9835953 -0.0894013 0.9835953 -0.0894013 0.0164047 0.0894013
4447000000 0.0165588 0.0901386 0.9834412 -0.0901386 0.9834412 -0.0901386 0.0165588 0.0901386
4468000000 0.0167187 0.0908756 0.9832813 -0.0908756 0.9832813 -0.0908756 0.0167187 0.0908756
4489000000 0.0168843 0.0916123 0.9831157 -0.0916123 0.9831157 -0.0916123 0.0168843 0.0916123
4510000000 0.0170552 0.0923487 0.9829448 -0.0923487 0.9829448 -0.0923487 0.0170552 0.0923487
