!Murata Part Number: GRM1555C2A3R4BA01
!These Parameters are Measured in Series Mode Connection
!Data Generated on Mar 30, 2021
!       o--ll--o
!Port1            Port2
!       o------o
!Operation Temp=25[degC], DC Bias Voltage=0[V]
!Freq. Start=100[MHz] Stop=9[GHz] 401[Steps]
# Hz S RI R 50
!Freq.(Hz) S11(Real) S11(Imag) S21(Real) S21(Imag) S12(Real) S12(Imag) S22(Real) S22(Imag)
100000000 0.9562124 -0.2043441 0.0437876 0.2043441 0.0437876 0.2043441 0.9562124 -0.2043441
121000000 0.9371454 -0.2423646 0.0628546 0.2423646 0.0628546 0.2423646 0.9371454 -0.2423646
142000000 0.9154053 -0.2778823 0.0845947 0.2778823 0.0845947 0.2778823 0.9154053 -0.2778823
163000000 0.8914009 -0.3106814 0.1085991 0.3106814 0.1085991 0.3106814 0.8914009 -0.3106814
184000000 0.8655498 -0.3406221 0.1344502 0.3406221 0.1344502 0.3406221 0.8655498 -0.3406221
205000000 0.8382633 -0.3676366 0.1617367 0.3676366 0.1617367 0.3676366 0.8382633 -0.3676366
226000000 0.8099339 -0.3917211 0.1900661 0.3917211 0.1900661 0.3917211 0.8099339 -0.3917211
247000000 0.7809261 -0.4129271 0.2190739 0.4129271 0.2190739 0.4129271 0.7809261 -0.4129271
268000000 0.7515694 -0.4313510 0.2484306 0.4313510 0.2484306 0.4313510 0.7515694 -0.4313510
289000000 0.7221548 -0.4471246 0.2778452 0.4471246 0.2778452 0.4471246 0.7221548 -0.4471246
310000000 0.6929331 -0.4604047 0.3070669 0.4604047 0.3070669 0.4604047 0.6929331 -0.4604047
331000000 0.6641153 -0.4713651 0.3358847 0.4713651 0.3358847 0.4713651 0.6641153 -0.4713651
352000000 0.6358747 -0.4801890 0.3641253 0.4801890 0.3641253 0.4801890 0.6358747 -0.4801890
373000000 0.6083493 -0.4870626 0.3916507 0.4870626 0.3916507 0.4870626 0.6083493 -0.4870626
394000000 0.5816457 -0.4921701 0.4183543 0.4921701 0.4183543 0.4921701 0.5816457 -0.4921701
415000000 0.5558424 -0.4956904 0.4441576 0.4956904 0.4441576 0.4956904 0.5558424 -0.4956904
436000000 0.5309938 -0.4977941 0.4690062 0.4977941 0.4690062 0.4977941 0.5309938 -0.4977941
457000000 0.5071339 -0.4986412 0.4928661 0.4986412 0.4928661 0.4986412 0.5071339 -0.4986412
478000000 0.4842795 -0.4983809 0.5157205 0.4983809 0.5157205 0.4983809 0.4842795 -0.4983809
499000000 0.4624335 -0.4971503 0.5375665 0.4971503 0.5375665 0.4971503 0.4624335 -0.4971503
520000000 0.4415872 -0.4950747 0.5584128 0.4950747 0.5584128 0.4950747 0.4415872 -0.4950747
541000000 0.4217235 -0.4922677 0.5782765 0.4922677 0.5782765 0.4922677 0.4217235 -0.4922677
562000000 0.4028180 -0.4888314 0.5971820 0.4888314 0.5971820 0.4888314 0.4028180 -0.4888314
583000000 0.3848416 -0.4848576 0.6151584 0.4848576 0.6151584 0.4848576 0.3848416 -0.4848576
604000000 0.3677612 -0.4804282 0.6322388 0.4804282 0.6322388 0.4804282 0.3677612 -0.4804282
625000000 0.3515414 -0.4756158 0.6484586 0.4756158 0.6484586 0.4756158 0.3515414 -0.4756158
646000000 0.3361454 -0.4704846 0.6638546 0.4704846 0.6638546 0.4704846 0.3361454 -0.4704846
667000000 0.3215355 -0.4650915 0.6784645 0.4650915 0.6784645 0.4650915 0.3215355 -0.4650915
688000000 0.3076740 -0.4594863 0.6923260 0.4594863 0.6923260 0.4594863 0.3076740 -0.4594863
709000000 0.2945234 -0.4537126 0.7054766 0.4537126 0.7054766 0.4537126 0.2945234 -0.4537126
730000000 0.2820473 -0.4478088 0.7179527 0.4478088 0.7179527 0.4478088 0.2820473 -0.4478088
751000000 0.2702100 -0.4418080 0.7297900 0.4418080 0.7297900 0.4418080 0.2702100 -0.4418080
772000000 0.2589770 -0.4357393 0.7410230 0.4357393 0.7410230 0.4357393 0.2589770 -0.4357393
793000000 0.2483153 -0.4296277 0.7516847 0.4296277 0.7516847 0.4296277 0.2483153 -0.4296277
814000000 0.2381934 -0.4234949 0.7618066 0.4234949 0.7618066 0.4234949 0.2381934 -0.4234949
835000000 0.2285810 -0.4173594 0.7714190 0.4173594 0.7714190 0.4173594 0.2285810 -0.4173594
856000000 0.2194495 -0.4112373 0.7805505 0.4112373 0.7805505 0.4112373 0.2194495 -0.4112373
877000000 0.2107717 -0.4051423 0.7892283 0.4051423 0.7892283 0.4051423 0.2107717 -0.4051423
898000000 0.2025220 -0.3990859 0.7974780 0.3990859 0.7974780 0.3990859 0.2025220 -0.3990859
919000000 0.1946761 -0.3930779 0.8053239 0.3930779 0.8053239 0.3930779 0.1946761 -0.3930779
940000000 0.1872111 -0.3871266 0.8127889 0.3871266 0.8127889 0.3871266 0.1872111 -0.3871266
961000000 0.1801054 -0.3812389 0.8198946 0.3812389 0.8198946 0.3812389 0.1801054 -0.3812389
982000000 0.1733388 -0.3754204 0.8266612 0.3754204 0.8266612 0.3754204 0.1733388 -0.3754204
1003000000 0.1668921 -0.3696758 0.8331079 0.3696758 0.8331079 0.3696758 0.1668921 -0.3696758
1024000000 0.1607474 -0.3640088 0.8392526 0.3640088 0.8392526 0.3640088 0.1607474 -0.3640088
1045000000 0.1548880 -0.3584223 0.8451120 0.3584223 0.8451120 0.3584223 0.1548880 -0.3584223
1066000000 0.1492978 -0.3529186 0.8507022 0.3529186 0.8507022 0.3529186 0.1492978 -0.3529186
1087000000 0.1439622 -0.3474993 0.8560378 0.3474993 0.8560378 0.3474993 0.1439622 -0.3474993
1108000000 0.1388671 -0.3421655 0.8611329 0.3421655 0.8611329 0.3421655 0.1388671 -0.3421655
1129000000 0.1339994 -0.3369181 0.8660006 0.3369181 0.8660006 0.3369181 0.1339994 -0.3369181
1150000000 0.1293468 -0.3317572 0.8706532 0.3317572 0.8706532 0.3317572 0.1293468 -0.3317572
1171000000 0.1248979 -0.3266829 0.8751021 0.3266829 0.8751021 0.3266829 0.1248979 -0.3266829
1192000000 0.1206417 -0.3216949 0.8793583 0.3216949 0.8793583 0.3216949 0.1206417 -0.3216949
1213000000 0.1165680 -0.3167927 0.8834320 0.3167927 0.8834320 0.3167927 0.1165680 -0.3167927
1234000000 0.1126673 -0.3119755 0.8873327 0.3119755 0.8873327 0.3119755 0.1126673 -0.3119755
1255000000 0.1089307 -0.3072426 0.8910693 0.3072426 0.8910693 0.3072426 0.1089307 -0.3072426
1276000000 0.1053496 -0.3025927 0.8946504 0.3025927 0.8946504 0.3025927 0.1053496 -0.3025927
1297000000 0.1019160 -0.2980249 0.8980840 0.2980249 0.8980840 0.2980249 0.1019160 -0.2980249
1318000000 0.0986226 -0.2935378 0.9013774 0.2935378 0.9013774 0.2935378 0.0986226 -0.2935378
1339000000 0.0954623 -0.2891302 0.9045377 0.2891302 0.9045377 0.2891302 0.0954623 -0.2891302
1360000000 0.0924285 -0.2848006 0.9075715 0.2848006 0.9075715 0.2848006 0.0924285 -0.2848006
1381000000 0.0895149 -0.2805477 0.9104851 0.2805477 0.9104851 0.2805477 0.0895149 -0.2805477
1402000000 0.0867156 -0.2763699 0.9132844 0.2763699 0.9132844 0.2763699 0.0867156 -0.2763699
1423000000 0.0840252 -0.2722658 0.9159748 0.2722658 0.9159748 0.2722658 0.0840252 -0.2722658
1444000000 0.0814383 -0.2682338 0.9185617 0.2682338 0.9185617 0.2682338 0.0814383 -0.2682338
1465000000 0.0789502 -0.2642724 0.9210498 0.2642724 0.9210498 0.2642724 0.0789502 -0.2642724
1486000000 0.0765560 -0.2603802 0.9234440 0.2603802 0.9234440 0.2603802 0.0765560 -0.2603802
1507000000 0.0742515 -0.2565556 0.9257485 0.2565556 0.9257485 0.2565556 0.0742515 -0.2565556
1528000000 0.0720326 -0.2527971 0.9279674 0.2527971 0.9279674 0.2527971 0.0720326 -0.2527971
1549000000 0.0698952 -0.2491031 0.9301048 0.2491031 0.9301048 0.2491031 0.0698952 -0.2491031
1570000000 0.0678357 -0.2454723 0.9321643 0.2454723 0.9321643 0.2454723 0.0678357 -0.2454723
1591000000 0.0658505 -0.2419031 0.9341495 0.2419031 0.9341495 0.2419031 0.0658505 -0.2419031
1612000000 0.0639365 -0.2383942 0.9360635 0.2383942 0.9360635 0.2383942 0.0639365 -0.2383942
1633000000 0.0620904 -0.2349440 0.9379096 0.2349440 0.9379096 0.2349440 0.0620904 -0.2349440
1654000000 0.0603093 -0.2315512 0.9396907 0.2315512 0.9396907 0.2315512 0.0603093 -0.2315512
1675000000 0.0585903 -0.2282144 0.9414097 0.2282144 0.9414097 0.2282144 0.0585903 -0.2282144
1696000000 0.0569309 -0.2249324 0.9430691 0.2249324 0.9430691 0.2249324 0.0569309 -0.2249324
1717000000 0.0553284 -0.2217036 0.9446716 0.2217036 0.9446716 0.2217036 0.0553284 -0.2217036
1738000000 0.0537805 -0.2185270 0.9462195 0.2185270 0.9462195 0.2185270 0.0537805 -0.2185270
1759000000 0.0522848 -0.2154012 0.9477152 0.2154012 0.9477152 0.2154012 0.0522848 -0.2154012
1780000000 0.0508393 -0.2123250 0.9491607 0.2123250 0.9491607 0.2123250 0.0508393 -0.2123250
1801000000 0.0494419 -0.2092972 0.9505581 0.2092972 0.9505581 0.2092972 0.0494419 -0.2092972
1822000000 0.0480907 -0.2063166 0.9519093 0.2063166 0.9519093 0.2063166 0.0480907 -0.2063166
1843000000 0.0467837 -0.2033821 0.9532163 0.2033821 0.9532163 0.2033821 0.0467837 -0.2033821
1864000000 0.0455192 -0.2004925 0.9544808 0.2004925 0.9544808 0.2004925 0.0455192 -0.2004925
1885000000 0.0442955 -0.1976468 0.9557045 0.1976468 0.9557045 0.1976468 0.0442955 -0.1976468
1906000000 0.0431111 -0.1948440 0.9568889 0.1948440 0.9568889 0.1948440 0.0431111 -0.1948440
1927000000 0.0419644 -0.1920829 0.9580356 0.1920829 0.9580356 0.1920829 0.0419644 -0.1920829
1948000000 0.0408540 -0.1893626 0.9591460 0.1893626 0.9591460 0.1893626 0.0408540 -0.1893626
1969000000 0.0397785 -0.1866821 0.9602215 0.1866821 0.9602215 0.1866821 0.0397785 -0.1866821
1990000000 0.0387365 -0.1840404 0.9612635 0.1840404 0.9612635 0.1840404 0.0387365 -0.1840404
2011000000 0.0377268 -0.1814367 0.9622732 0.1814367 0.9622732 0.1814367 0.0377268 -0.1814367
2032000000 0.0367483 -0.1788700 0.9632517 0.1788700 0.9632517 0.1788700 0.0367483 -0.1788700
2053000000 0.0357997 -0.1763394 0.9642003 0.1763394 0.9642003 0.1763394 0.0357997 -0.1763394
2074000000 0.0348801 -0.1738441 0.9651199 0.1738441 0.9651199 0.1738441 0.0348801 -0.1738441
2095000000 0.0339882 -0.1713832 0.9660118 0.1713832 0.9660118 0.1713832 0.0339882 -0.1713832
2116000000 0.0331232 -0.1689560 0.9668768 0.1689560 0.9668768 0.1689560 0.0331232 -0.1689560
2137000000 0.0322841 -0.1665617 0.9677159 0.1665617 0.9677159 0.1665617 0.0322841 -0.1665617
2158000000 0.0314700 -0.1641994 0.9685300 0.1641994 0.9685300 0.1641994 0.0314700 -0.1641994
2179000000 0.0306799 -0.1618685 0.9693201 0.1618685 0.9693201 0.1618685 0.0306799 -0.1618685
2200000000 0.0299132 -0.1595682 0.9700868 0.1595682 0.9700868 0.1595682 0.0299132 -0.1595682
2221000000 0.0291689 -0.1572978 0.9708311 0.1572978 0.9708311 0.1572978 0.0291689 -0.1572978
2242000000 0.0284464 -0.1550566 0.9715536 0.1550566 0.9715536 0.1550566 0.0284464 -0.1550566
2263000000 0.0277448 -0.1528439 0.9722552 0.1528439 0.9722552 0.1528439 0.0277448 -0.1528439
2284000000 0.0270635 -0.1506592 0.9729365 0.1506592 0.9729365 0.1506592 0.0270635 -0.1506592
2305000000 0.0264018 -0.1485018 0.9735982 0.1485018 0.9735982 0.1485018 0.0264018 -0.1485018
2326000000 0.0257591 -0.1463710 0.9742409 0.1463710 0.9742409 0.1463710 0.0257591 -0.1463710
2347000000 0.0251347 -0.1442662 0.9748653 0.1442662 0.9748653 0.1442662 0.0251347 -0.1442662
2368000000 0.0245281 -0.1421869 0.9754719 0.1421869 0.9754719 0.1421869 0.0245281 -0.1421869
2389000000 0.0239387 -0.1401326 0.9760613 0.1401326 0.9760613 0.1401326 0.0239387 -0.1401326
2410000000 0.0233659 -0.1381025 0.9766341 0.1381025 0.9766341 0.1381025 0.0233659 -0.1381025
2431000000 0.0228092 -0.1360963 0.9771908 0.1360963 0.9771908 0.1360963 0.0228092 -0.1360963
2452000000 0.0222682 -0.1341134 0.9777318 0.1341134 0.9777318 0.1341134 0.0222682 -0.1341134
2473000000 0.0217423 -0.1321533 0.9782577 0.1321533 0.9782577 0.1321533 0.0217423 -0.1321533
2494000000 0.0212310 -0.1302154 0.9787690 0.1302154 0.9787690 0.1302154 0.0212310 -0.1302154
2515000000 0.0207340 -0.1282993 0.9792660 0.1282993 0.9792660 0.1282993 0.0207340 -0.1282993
2536000000 0.0202508 -0.1264046 0.9797492 0.1264046 0.9797492 0.1264046 0.0202508 -0.1264046
2557000000 0.0197809 -0.1245307 0.9802191 0.1245307 0.9802191 0.1245307 0.0197809 -0.1245307
2578000000 0.0193240 -0.1226773 0.9806760 0.1226773 0.9806760 0.1226773 0.0193240 -0.1226773
2599000000 0.0188798 -0.1208438 0.9811202 0.1208438 0.9811202 0.1208438 0.0188798 -0.1208438
2620000000 0.0184477 -0.1190299 0.9815523 0.1190299 0.9815523 0.1190299 0.0184477 -0.1190299
2641000000 0.0180276 -0.1172352 0.9819724 0.1172352 0.9819724 0.1172352 0.0180276 -0.1172352
2662000000 0.0176189 -0.1154592 0.9823811 0.1154592 0.9823811 0.1154592 0.0176189 -0.1154592
2683000000 0.0172215 -0.1137015 0.9827785 0.1137015 0.9827785 0.1137015 0.0172215 -0.1137015
2704000000 0.0168350 -0.1119619 0.9831650 0.1119619 0.9831650 0.1119619 0.0168350 -0.1119619
2725000000 0.0164591 -0.1102398 0.9835409 0.1102398 0.9835409 0.1102398 0.0164591 -0.1102398
2746000000 0.0160934 -0.1085349 0.9839066 0.1085349 0.9839066 0.1085349 0.0160934 -0.1085349
2767000000 0.0157378 -0.1068469 0.9842622 0.1068469 0.9842622 0.1068469 0.0157378 -0.1068469
2788000000 0.0153919 -0.1051755 0.9846081 0.1051755 0.9846081 0.1051755 0.0153919 -0.1051755
2809000000 0.0150555 -0.1035202 0.9849445 0.1035202 0.9849445 0.1035202 0.0150555 -0.1035202
2830000000 0.0147283 -0.1018808 0.9852717 0.1018808 0.9852717 0.1018808 0.0147283 -0.1018808
2851000000 0.0144101 -0.1002570 0.9855899 0.1002570 0.9855899 0.1002570 0.0144101 -0.1002570
2872000000 0.0141006 -0.0986484 0.9858994 0.0986484 0.9858994 0.0986484 0.0141006 -0.0986484
2893000000 0.0137996 -0.0970547 0.9862004 0.0970547 0.9862004 0.0970547 0.0137996 -0.0970547
2914000000 0.0135069 -0.0954756 0.9864931 0.0954756 0.9864931 0.0954756 0.0135069 -0.0954756
2935000000 0.0132223 -0.0939109 0.9867777 0.0939109 0.9867777 0.0939109 0.0132223 -0.0939109
2956000000 0.0129456 -0.0923602 0.9870544 0.0923602 0.9870544 0.0923602 0.0129456 -0.0923602
2977000000 0.0126765 -0.0908232 0.9873235 0.0908232 0.9873235 0.0908232 0.0126765 -0.0908232
2998000000 0.0124149 -0.0892998 0.9875851 0.0892998 0.9875851 0.0892998 0.0124149 -0.0892998
3019000000 0.0121606 -0.0877896 0.9878394 0.0877896 0.9878394 0.0877896 0.0121606 -0.0877896
3040000000 0.0119135 -0.0862924 0.9880865 0.0862924 0.9880865 0.0862924 0.0119135 -0.0862924
3061000000 0.0116732 -0.0848078 0.9883268 0.0848078 0.9883268 0.0848078 0.0116732 -0.0848078
3082000000 0.0114398 -0.0833358 0.9885602 0.0833358 0.9885602 0.0833358 0.0114398 -0.0833358
3103000000 0.0112129 -0.0818760 0.9887871 0.0818760 0.9887871 0.0818760 0.0112129 -0.0818760
3124000000 0.0109925 -0.0804282 0.9890075 0.0804282 0.9890075 0.0804282 0.0109925 -0.0804282
3145000000 0.0107784 -0.0789921 0.9892216 0.0789921 0.9892216 0.0789921 0.0107784 -0.0789921
3166000000 0.0105705 -0.0775676 0.9894295 0.0775676 0.9894295 0.0775676 0.0105705 -0.0775676
3187000000 0.0103686 -0.0761544 0.9896314 0.0761544 0.9896314 0.0761544 0.0103686 -0.0761544
3208000000 0.0101725 -0.0747523 0.9898275 0.0747523 0.9898275 0.0747523 0.0101725 -0.0747523
3229000000 0.0099822 -0.0733611 0.9900178 0.0733611 0.9900178 0.0733611 0.0099822 -0.0733611
3250000000 0.0097975 -0.0719806 0.9902025 0.0719806 0.9902025 0.0719806 0.0097975 -0.0719806
3271000000 0.0096183 -0.0706105 0.9903817 0.0706105 0.9903817 0.0706105 0.0096183 -0.0706105
3292000000 0.0094445 -0.0692507 0.9905555 0.0692507 0.9905555 0.0692507 0.0094445 -0.0692507
3313000000 0.0092759 -0.0679011 0.9907241 0.0679011 0.9907241 0.0679011 0.0092759 -0.0679011
3334000000 0.0091125 -0.0665613 0.9908875 0.0665613 0.9908875 0.0665613 0.0091125 -0.0665613
3355000000 0.0089541 -0.0652312 0.9910459 0.0652312 0.9910459 0.0652312 0.0089541 -0.0652312
3376000000 0.0088006 -0.0639107 0.9911994 0.0639107 0.9911994 0.0639107 0.0088006 -0.0639107
3397000000 0.0086519 -0.0625995 0.9913481 0.0625995 0.9913481 0.0625995 0.0086519 -0.0625995
3418000000 0.0085080 -0.0612975 0.9914920 0.0612975 0.9914920 0.0612975 0.0085080 -0.0612975
3439000000 0.0083687 -0.0600046 0.9916313 0.0600046 0.9916313 0.0600046 0.0083687 -0.0600046
3460000000 0.0082339 -0.0587204 0.9917661 0.0587204 0.9917661 0.0587204 0.0082339 -0.0587204
3481000000 0.0081036 -0.0574450 0.9918964 0.0574450 0.9918964 0.0574450 0.0081036 -0.0574450
3502000000 0.0079776 -0.0561780 0.9920224 0.0561780 0.9920224 0.0561780 0.0079776 -0.0561780
3523000000 0.0078558 -0.0549195 0.9921442 0.0549195 0.9921442 0.0549195 0.0078558 -0.0549195
3544000000 0.0077383 -0.0536691 0.9922617 0.0536691 0.9922617 0.0536691 0.0077383 -0.0536691
3565000000 0.0076249 -0.0524268 0.9923751 0.0524268 0.9923751 0.0524268 0.0076249 -0.0524268
3586000000 0.0075154 -0.0511924 0.9924846 0.0511924 0.9924846 0.0511924 0.0075154 -0.0511924
3607000000 0.0074100 -0.0499658 0.9925900 0.0499658 0.9925900 0.0499658 0.0074100 -0.0499658
3628000000 0.0073084 -0.0487468 0.9926916 0.0487468 0.9926916 0.0487468 0.0073084 -0.0487468
3649000000 0.0072106 -0.0475353 0.9927894 0.0475353 0.9927894 0.0475353 0.0072106 -0.0475353
3670000000 0.0071166 -0.0463312 0.9928834 0.0463312 0.9928834 0.0463312 0.0071166 -0.0463312
3691000000 0.0070262 -0.0451342 0.9929738 0.0451342 0.9929738 0.0451342 0.0070262 -0.0451342
3712000000 0.0069394 -0.0439444 0.9930606 0.0439444 0.9930606 0.0439444 0.0069394 -0.0439444
3733000000 0.0068562 -0.0427615 0.9931438 0.0427615 0.9931438 0.0427615 0.0068562 -0.0427615
3754000000 0.0067765 -0.0415854 0.9932235 0.0415854 0.9932235 0.0415854 0.0067765 -0.0415854
3775000000 0.0067002 -0.0404161 0.9932998 0.0404161 0.9932998 0.0404161 0.0067002 -0.0404161
3796000000 0.0066272 -0.0392533 0.9933728 0.0392533 0.9933728 0.0392533 0.0066272 -0.0392533
3817000000 0.0065576 -0.0380970 0.9934424 0.0380970 0.9934424 0.0380970 0.0065576 -0.0380970
3838000000 0.0064912 -0.0369470 0.9935088 0.0369470 0.9935088 0.0369470 0.0064912 -0.0369470
3859000000 0.0064281 -0.0358033 0.9935719 0.0358033 0.9935719 0.0358033 0.0064281 -0.0358033
3880000000 0.0063681 -0.0346657 0.9936319 0.0346657 0.9936319 0.0346657 0.0063681 -0.0346657
3901000000 0.0063112 -0.0335341 0.9936888 0.0335341 0.9936888 0.0335341 0.0063112 -0.0335341
3922000000 0.0062573 -0.0324083 0.9937427 0.0324083 0.9937427 0.0324083 0.0062573 -0.0324083
3943000000 0.0062065 -0.0312884 0.9937935 0.0312884 0.9937935 0.0312884 0.0062065 -0.0312884
3964000000 0.0061586 -0.0301742 0.9938414 0.0301742 0.9938414 0.0301742 0.0061586 -0.0301742
3985000000 0.0061137 -0.0290655 0.9938863 0.0290655 0.9938863 0.0290655 0.0061137 -0.0290655
4006000000 0.0060717 -0.0279623 0.9939283 0.0279623 0.9939283 0.0279623 0.0060717 -0.0279623
4027000000 0.0060324 -0.0268645 0.9939676 0.0268645 0.9939676 0.0268645 0.0060324 -0.0268645
4048000000 0.0059960 -0.0257720 0.9940040 0.0257720 0.9940040 0.0257720 0.0059960 -0.0257720
4069000000 0.0059624 -0.0246846 0.9940376 0.0246846 0.9940376 0.0246846 0.0059624 -0.0246846
4090000000 0.0059315 -0.0236024 0.9940685 0.0236024 0.9940685 0.0236024 0.0059315 -0.0236024
4111000000 0.0059033 -0.0225251 0.9940967 0.0225251 0.9940967 0.0225251 0.0059033 -0.0225251
4132000000 0.0058778 -0.0214527 0.9941222 0.0214527 0.9941222 0.0214527 0.0058778 -0.0214527
4153000000 0.0058548 -0.0203852 0.9941452 0.0203852 0.9941452 0.0203852 0.0058548 -0.0203852
4174000000 0.0058345 -0.0193223 0.9941655 0.0193223 0.9941655 0.0193223 0.0058345 -0.0193223
4195000000 0.0058167 -0.0182641 0.9941833 0.0182641 0.9941833 0.0182641 0.0058167 -0.0182641
4216000000 0.0058015 -0.0172105 0.9941985 0.0172105 0.9941985 0.0172105 0.0058015 -0.0172105
4237000000 0.0057888 -0.0161612 0.9942112 0.0161612 0.9942112 0.0161612 0.0057888 -0.0161612
4258000000 0.0057785 -0.0151164 0.9942215 0.0151164 0.9942215 0.0151164 0.0057785 -0.0151164
4279000000 0.0057707 -0.0140759 0.9942293 0.0140759 0.9942293 0.0140759 0.0057707 -0.0140759
4300000000 0.0057653 -0.0130396 0.9942347 0.0130396 0.9942347 0.0130396 0.0057653 -0.0130396
4321000000 0.0057623 -0.0120074 0.9942377 0.0120074 0.9942377 0.0120074 0.0057623 -0.0120074
4342000000 0.0057617 -0.0109792 0.9942383 0.0109792 0.9942383 0.0109792 0.0057617 -0.0109792
4363000000 0.0057634 -0.0099550 0.9942366 0.0099550 0.9942366 0.0099550 0.0057634 -0.0099550
4384000000 0.0057675 -0.0089348 0.9942325 0.0089348 0.9942325 0.0089348 0.0057675 -0.0089348
4405000000 0.0057739 -0.0079183 0.9942261 0.0079183 0.9942261 0.0079183 0.0057739 -0.0079183
4426000000 0.0057825 -0.0069056 0.9942175 0.0069056 0.9942175 0.0069056 0.0057825 -0.0069056
4447000000 0.0057934 -0.0058965 0.9942066 0.0058965 0.9942066 0.0058965 0.0057934 -0.0058965
4468000000 0.0058065 -0.0048911 0.9941935 0.0048911 0.9941935 0.0048911 0.0058065 -0.0048911
4489000000 0.0058219 -0.0038892 0.9941781 0.0038892 0.9941781 0.0038892 0.0058219 -0.0038892
4510000000 0.0058395 -0.0028907 0.9941605 0.0028907 0.9941605 0.0028907 0.0058395 -0.0028907
