!Murata Part Number: GRM1552C2A180GA01
!These Parameters are Measured in Series Mode Connection
!Data Generated on Mar 30, 2021
!       o--ll--o
!Port1            Port2
!       o------o
!Operation Temp=25[degC], DC Bias Voltage=0[V]
!Freq. Start=100[MHz] Stop=9[GHz] 401[Steps]
# Hz S RI R 50
!Freq.(Hz) S11(Real) S11(Imag) S21(Real) S21(Imag) S12(Real) S12(Imag) S22(Real) S22(Imag)
100000000 0.4375200 -0.4953938 0.5624800 0.4953938 0.5624800 0.4953938 0.4375200 -0.4953938
121000000 0.3465449 -0.4750331 0.6534551 0.4750331 0.6534551 0.4750331 0.3465449 -0.4750331
142000000 0.2775892 -0.4468215 0.7224108 0.4468215 0.7224108 0.4468215 0.2775892 -0.4468215
163000000 0.2253529 -0.4166713 0.7746471 0.4166713 0.7746471 0.4166713 0.2253529 -0.4166713
184000000 0.1854467 -0.3873575 0.8145533 0.3873575 0.8145533 0.3873575 0.1854467 -0.3873575
205000000 0.1545836 -0.3600424 0.8454164 0.3600424 0.8454164 0.3600424 0.1545836 -0.3600424
226000000 0.1303892 -0.3350986 0.8696108 0.3350986 0.8696108 0.3350986 0.1303892 -0.3350986
247000000 0.1111643 -0.3125304 0.8888357 0.3125304 0.8888357 0.3125304 0.1111643 -0.3125304
268000000 0.0956897 -0.2921821 0.9043103 0.2921821 0.9043103 0.2921821 0.0956897 -0.2921821
289000000 0.0830826 -0.2738401 0.9169174 0.2738401 0.9169174 0.2738401 0.0830826 -0.2738401
310000000 0.0726971 -0.2572813 0.9273029 0.2572813 0.9273029 0.2572813 0.0726971 -0.2572813
331000000 0.0640538 -0.2422946 0.9359462 0.2422946 0.9359462 0.2422946 0.0640538 -0.2422946
352000000 0.0567934 -0.2286891 0.9432066 0.2286891 0.9432066 0.2286891 0.0567934 -0.2286891
373000000 0.0506424 -0.2162964 0.9493576 0.2162964 0.9493576 0.2162964 0.0506424 -0.2162964
394000000 0.0453907 -0.2049700 0.9546093 0.2049700 0.9546093 0.2049700 0.0453907 -0.2049700
415000000 0.0408749 -0.1945830 0.9591251 0.1945830 0.9591251 0.1945830 0.0408749 -0.1945830
436000000 0.0369665 -0.1850257 0.9630335 0.1850257 0.9630335 0.1850257 0.0369665 -0.1850257
457000000 0.0335636 -0.1762036 0.9664364 0.1762036 0.9664364 0.1762036 0.0335636 -0.1762036
478000000 0.0305846 -0.1680351 0.9694154 0.1680351 0.9694154 0.1680351 0.0305846 -0.1680351
499000000 0.0279635 -0.1604493 0.9720365 0.1604493 0.9720365 0.1604493 0.0279635 -0.1604493
520000000 0.0256466 -0.1533850 0.9743534 0.1533850 0.9743534 0.1533850 0.0256466 -0.1533850
541000000 0.0235898 -0.1467886 0.9764102 0.1467886 0.9764102 0.1467886 0.0235898 -0.1467886
562000000 0.0217566 -0.1406135 0.9782434 0.1406135 0.9782434 0.1406135 0.0217566 -0.1406135
583000000 0.0201169 -0.1348189 0.9798831 0.1348189 0.9798831 0.1348189 0.0201169 -0.1348189
604000000 0.0186451 -0.1293688 0.9813549 0.1293688 0.9813549 0.1293688 0.0186451 -0.1293688
625000000 0.0173200 -0.1242315 0.9826800 0.1242315 0.9826800 0.1242315 0.0173200 -0.1242315
646000000 0.0161234 -0.1193792 0.9838766 0.1193792 0.9838766 0.1193792 0.0161234 -0.1193792
667000000 0.0150400 -0.1147869 0.9849600 0.1147869 0.9849600 0.1147869 0.0150400 -0.1147869
688000000 0.0140566 -0.1104326 0.9859434 0.1104326 0.9859434 0.1104326 0.0140566 -0.1104326
709000000 0.0131619 -0.1062966 0.9868381 0.1062966 0.9868381 0.1062966 0.0131619 -0.1062966
730000000 0.0123461 -0.1023612 0.9876539 0.1023612 0.9876539 0.1023612 0.0123461 -0.1023612
751000000 0.0116008 -0.0986106 0.9883992 0.0986106 0.9883992 0.0986106 0.0116008 -0.0986106
772000000 0.0109186 -0.0950306 0.9890814 0.0950306 0.9890814 0.0950306 0.0109186 -0.0950306
793000000 0.0102931 -0.0916085 0.9897069 0.0916085 0.9897069 0.0916085 0.0102931 -0.0916085
814000000 0.0097187 -0.0883325 0.9902813 0.0883325 0.9902813 0.0883325 0.0097187 -0.0883325
835000000 0.0091904 -0.0851922 0.9908096 0.0851922 0.9908096 0.0851922 0.0091904 -0.0851922
856000000 0.0087039 -0.0821781 0.9912961 0.0821781 0.9912961 0.0821781 0.0087039 -0.0821781
877000000 0.0082553 -0.0792815 0.9917447 0.0792815 0.9917447 0.0792815 0.0082553 -0.0792815
898000000 0.0078413 -0.0764945 0.9921587 0.0764945 0.9921587 0.0764945 0.0078413 -0.0764945
919000000 0.0074587 -0.0738099 0.9925413 0.0738099 0.9925413 0.0738099 0.0074587 -0.0738099
940000000 0.0071048 -0.0712210 0.9928952 0.0712210 0.9928952 0.0712210 0.0071048 -0.0712210
961000000 0.0067773 -0.0687217 0.9932227 0.0687217 0.9932227 0.0687217 0.0067773 -0.0687217
982000000 0.0064739 -0.0663067 0.9935261 0.0663067 0.9935261 0.0663067 0.0064739 -0.0663067
1003000000 0.0061927 -0.0639706 0.9938073 0.0639706 0.9938073 0.0639706 0.0061927 -0.0639706
1024000000 0.0059320 -0.0617088 0.9940680 0.0617088 0.9940680 0.0617088 0.0059320 -0.0617088
1045000000 0.0056901 -0.0595169 0.9943099 0.0595169 0.9943099 0.0595169 0.0056901 -0.0595169
1066000000 0.0054657 -0.0573908 0.9945343 0.0573908 0.9945343 0.0573908 0.0054657 -0.0573908
1087000000 0.0052574 -0.0553270 0.9947426 0.0553270 0.9947426 0.0553270 0.0052574 -0.0553270
1108000000 0.0050640 -0.0533218 0.9949360 0.0533218 0.9949360 0.0533218 0.0050640 -0.0533218
1129000000 0.0048845 -0.0513721 0.9951155 0.0513721 0.9951155 0.0513721 0.0048845 -0.0513721
1150000000 0.0047180 -0.0494748 0.9952820 0.0494748 0.9952820 0.0494748 0.0047180 -0.0494748
1171000000 0.0045635 -0.0476273 0.9954365 0.0476273 0.9954365 0.0476273 0.0045635 -0.0476273
1192000000 0.0044202 -0.0458269 0.9955798 0.0458269 0.9955798 0.0458269 0.0044202 -0.0458269
1213000000 0.0042874 -0.0440711 0.9957126 0.0440711 0.9957126 0.0440711 0.0042874 -0.0440711
1234000000 0.0041644 -0.0423578 0.9958356 0.0423578 0.9958356 0.0423578 0.0041644 -0.0423578
1255000000 0.0040506 -0.0406848 0.9959494 0.0406848 0.9959494 0.0406848 0.0040506 -0.0406848
1276000000 0.0039454 -0.0390501 0.9960546 0.0390501 0.9960546 0.0390501 0.0039454 -0.0390501
1297000000 0.0038483 -0.0374519 0.9961517 0.0374519 0.9961517 0.0374519 0.0038483 -0.0374519
1318000000 0.0037588 -0.0358884 0.9962412 0.0358884 0.9962412 0.0358884 0.0037588 -0.0358884
1339000000 0.0036765 -0.0343579 0.9963235 0.0343579 0.9963235 0.0343579 0.0036765 -0.0343579
1360000000 0.0036010 -0.0328591 0.9963990 0.0328591 0.9963990 0.0328591 0.0036010 -0.0328591
1381000000 0.0035318 -0.0313903 0.9964682 0.0313903 0.9964682 0.0313903 0.0035318 -0.0313903
1402000000 0.0034687 -0.0299502 0.9965313 0.0299502 0.9965313 0.0299502 0.0034687 -0.0299502
1423000000 0.0034113 -0.0285376 0.9965887 0.0285376 0.9965887 0.0285376 0.0034113 -0.0285376
1444000000 0.0033592 -0.0271512 0.9966408 0.0271512 0.9966408 0.0271512 0.0033592 -0.0271512
1465000000 0.0033124 -0.0257899 0.9966876 0.0257899 0.9966876 0.0257899 0.0033124 -0.0257899
1486000000 0.0032704 -0.0244526 0.9967296 0.0244526 0.9967296 0.0244526 0.0032704 -0.0244526
1507000000 0.0032330 -0.0231383 0.9967670 0.0231383 0.9967670 0.0231383 0.0032330 -0.0231383
1528000000 0.0032001 -0.0218459 0.9967999 0.0218459 0.9967999 0.0218459 0.0032001 -0.0218459
1549000000 0.0031714 -0.0205746 0.9968286 0.0205746 0.9968286 0.0205746 0.0031714 -0.0205746
1570000000 0.0031467 -0.0193235 0.9968533 0.0193235 0.9968533 0.0193235 0.0031467 -0.0193235
1591000000 0.0031259 -0.0180918 0.9968741 0.0180918 0.9968741 0.0180918 0.0031259 -0.0180918
1612000000 0.0031087 -0.0168786 0.9968913 0.0168786 0.9968913 0.0168786 0.0031087 -0.0168786
1633000000 0.0030951 -0.0156833 0.9969049 0.0156833 0.9969049 0.0156833 0.0030951 -0.0156833
1654000000 0.0030849 -0.0145051 0.9969151 0.0145051 0.9969151 0.0145051 0.0030849 -0.0145051
1675000000 0.0030779 -0.0133433 0.9969221 0.0133433 0.9969221 0.0133433 0.0030779 -0.0133433
1696000000 0.0030741 -0.0121973 0.9969259 0.0121973 0.9969259 0.0121973 0.0030741 -0.0121973
1717000000 0.0030733 -0.0110665 0.9969267 0.0110665 0.9969267 0.0110665 0.0030733 -0.0110665
1738000000 0.0030754 -0.0099503 0.9969246 0.0099503 0.9969246 0.0099503 0.0030754 -0.0099503
1759000000 0.0030802 -0.0088481 0.9969198 0.0088481 0.9969198 0.0088481 0.0030802 -0.0088481
1780000000 0.0030879 -0.0077595 0.9969121 0.0077595 0.9969121 0.0077595 0.0030879 -0.0077595
1801000000 0.0030981 -0.0066838 0.9969019 0.0066838 0.9969019 0.0066838 0.0030981 -0.0066838
1822000000 0.0031109 -0.0056205 0.9968891 0.0056205 0.9968891 0.0056205 0.0031109 -0.0056205
1843000000 0.0031261 -0.0045694 0.9968739 0.0045694 0.9968739 0.0045694 0.0031261 -0.0045694
1864000000 0.0031438 -0.0035297 0.9968562 0.0035297 0.9968562 0.0035297 0.0031438 -0.0035297
1885000000 0.0031638 -0.0025013 0.9968362 0.0025013 0.9968362 0.0025013 0.0031638 -0.0025013
1906000000 0.0031861 -0.0014836 0.9968139 0.0014836 0.9968139 0.0014836 0.0031861 -0.0014836
1927000000 0.0032106 -0.0004762 0.9967894 0.0004762 0.9967894 0.0004762 0.0032106 -0.0004762
1948000000 0.0032372 0.0005212 0.9967628 -0.0005212 0.9967628 -0.0005212 0.0032372 0.0005212
1969000000 0.0032660 0.0015091 0.9967340 -0.0015091 0.9967340 -0.0015091 0.0032660 0.0015091
1990000000 0.0032969 0.0024876 0.9967031 -0.0024876 0.9967031 -0.0024876 0.0032969 0.0024876
2011000000 0.0033297 0.0034573 0.9966703 -0.0034573 0.9966703 -0.0034573 0.0033297 0.0034573
2032000000 0.0033646 0.0044183 0.9966354 -0.0044183 0.9966354 -0.0044183 0.0033646 0.0044183
2053000000 0.0034014 0.0053711 0.9965986 -0.0053711 0.9965986 -0.0053711 0.0034014 0.0053711
2074000000 0.0034402 0.0063159 0.9965598 -0.0063159 0.9965598 -0.0063159 0.0034402 0.0063159
2095000000 0.0034809 0.0072530 0.9965191 -0.0072530 0.9965191 -0.0072530 0.0034809 0.0072530
2116000000 0.0035234 0.0081826 0.9964766 -0.0081826 0.9964766 -0.0081826 0.0035234 0.0081826
2137000000 0.0035678 0.0091052 0.9964322 -0.0091052 0.9964322 -0.0091052 0.0035678 0.0091052
2158000000 0.0036140 0.0100208 0.9963860 -0.0100208 0.9963860 -0.0100208 0.0036140 0.0100208
2179000000 0.0036620 0.0109298 0.9963380 -0.0109298 0.9963380 -0.0109298 0.0036620 0.0109298
2200000000 0.0037118 0.0118324 0.9962882 -0.0118324 0.9962882 -0.0118324 0.0037118 0.0118324
2221000000 0.0037634 0.0127289 0.9962366 -0.0127289 0.9962366 -0.0127289 0.0037634 0.0127289
2242000000 0.0038168 0.0136194 0.9961832 -0.0136194 0.9961832 -0.0136194 0.0038168 0.0136194
2263000000 0.0038719 0.0145042 0.9961281 -0.0145042 0.9961281 -0.0145042 0.0038719 0.0145042
2284000000 0.0039287 0.0153835 0.9960713 -0.0153835 0.9960713 -0.0153835 0.0039287 0.0153835
2305000000 0.0039873 0.0162575 0.9960127 -0.0162575 0.9960127 -0.0162575 0.0039873 0.0162575
2326000000 0.0040477 0.0171264 0.9959523 -0.0171264 0.9959523 -0.0171264 0.0040477 0.0171264
2347000000 0.0041097 0.0179904 0.9958903 -0.0179904 0.9958903 -0.0179904 0.0041097 0.0179904
2368000000 0.0041735 0.0188496 0.9958265 -0.0188496 0.9958265 -0.0188496 0.0041735 0.0188496
2389000000 0.0042391 0.0197044 0.9957609 -0.0197044 0.9957609 -0.0197044 0.0042391 0.0197044
2410000000 0.0043064 0.0205548 0.9956936 -0.0205548 0.9956936 -0.0205548 0.0043064 0.0205548
2431000000 0.0043754 0.0214010 0.9956246 -0.0214010 0.9956246 -0.0214010 0.0043754 0.0214010
2452000000 0.0044462 0.0222432 0.9955538 -0.0222432 0.9955538 -0.0222432 0.0044462 0.0222432
2473000000 0.0045187 0.0230816 0.9954813 -0.0230816 0.9954813 -0.0230816 0.0045187 0.0230816
2494000000 0.0045930 0.0239163 0.9954070 -0.0239163 0.9954070 -0.0239163 0.0045930 0.0239163
2515000000 0.0046691 0.0247475 0.9953309 -0.0247475 0.9953309 -0.0247475 0.0046691 0.0247475
2536000000 0.0047471 0.0255753 0.9952529 -0.0255753 0.9952529 -0.0255753 0.0047471 0.0255753
2557000000 0.0048268 0.0263999 0.9951732 -0.0263999 0.9951732 -0.0263999 0.0048268 0.0263999
2578000000 0.0049084 0.0272214 0.9950916 -0.0272214 0.9950916 -0.0272214 0.0049084 0.0272214
2599000000 0.0049918 0.0280400 0.9950082 -0.0280400 0.9950082 -0.0280400 0.0049918 0.0280400
2620000000 0.0050772 0.0288558 0.9949228 -0.0288558 0.9949228 -0.0288558 0.0050772 0.0288558
2641000000 0.0051644 0.0296689 0.9948356 -0.0296689 0.9948356 -0.0296689 0.0051644 0.0296689
2662000000 0.0052536 0.0304796 0.9947464 -0.0304796 0.9947464 -0.0304796 0.0052536 0.0304796
2683000000 0.0053448 0.0312879 0.9946552 -0.0312879 0.9946552 -0.0312879 0.0053448 0.0312879
2704000000 0.0054380 0.0320939 0.9945620 -0.0320939 0.9945620 -0.0320939 0.0054380 0.0320939
2725000000 0.0055332 0.0328979 0.9944668 -0.0328979 0.9944668 -0.0328979 0.0055332 0.0328979
2746000000 0.0056305 0.0336998 0.9943695 -0.0336998 0.9943695 -0.0336998 0.0056305 0.0336998
2767000000 0.0057300 0.0344999 0.9942700 -0.0344999 0.9942700 -0.0344999 0.0057300 0.0344999
2788000000 0.0058316 0.0352983 0.9941684 -0.0352983 0.9941684 -0.0352983 0.0058316 0.0352983
2809000000 0.0059354 0.0360951 0.9940646 -0.0360951 0.9940646 -0.0360951 0.0059354 0.0360951
2830000000 0.0060416 0.0368904 0.9939584 -0.0368904 0.9939584 -0.0368904 0.0060416 0.0368904
2851000000 0.0061501 0.0376844 0.9938499 -0.0376844 0.9938499 -0.0376844 0.0061501 0.0376844
2872000000 0.0062609 0.0384771 0.9937391 -0.0384771 0.9937391 -0.0384771 0.0062609 0.0384771
2893000000 0.0063743 0.0392687 0.9936257 -0.0392687 0.9936257 -0.0392687 0.0063743 0.0392687
2914000000 0.0064901 0.0400593 0.9935099 -0.0400593 0.9935099 -0.0400593 0.0064901 0.0400593
2935000000 0.0066086 0.0408490 0.9933914 -0.0408490 0.9933914 -0.0408490 0.0066086 0.0408490
2956000000 0.0067298 0.0416380 0.9932702 -0.0416380 0.9932702 -0.0416380 0.0067298 0.0416380
2977000000 0.0068538 0.0424263 0.9931462 -0.0424263 0.9931462 -0.0424263 0.0068538 0.0424263
2998000000 0.0069806 0.0432141 0.9930194 -0.0432141 0.9930194 -0.0432141 0.0069806 0.0432141
3019000000 0.0071104 0.0440014 0.9928896 -0.0440014 0.9928896 -0.0440014 0.0071104 0.0440014
3040000000 0.0072433 0.0447885 0.9927567 -0.0447885 0.9927567 -0.0447885 0.0072433 0.0447885
3061000000 0.0073793 0.0455754 0.9926207 -0.0455754 0.9926207 -0.0455754 0.0073793 0.0455754
3082000000 0.0075187 0.0463623 0.9924813 -0.0463623 0.9924813 -0.0463623 0.0075187 0.0463623
3103000000 0.0076615 0.0471492 0.9923385 -0.0471492 0.9923385 -0.0471492 0.0076615 0.0471492
3124000000 0.0078079 0.0479362 0.9921921 -0.0479362 0.9921921 -0.0479362 0.0078079 0.0479362
3145000000 0.0079580 0.0487236 0.9920420 -0.0487236 0.9920420 -0.0487236 0.0079580 0.0487236
3166000000 0.0081120 0.0495113 0.9918880 -0.0495113 0.9918880 -0.0495113 0.0081120 0.0495113
3187000000 0.0082701 0.0502995 0.9917299 -0.0502995 0.9917299 -0.0502995 0.0082701 0.0502995
3208000000 0.0084325 0.0510883 0.9915675 -0.0510883 0.9915675 -0.0510883 0.0084325 0.0510883
3229000000 0.0085993 0.0518778 0.9914007 -0.0518778 0.9914007 -0.0518778 0.0085993 0.0518778
3250000000 0.0087707 0.0526682 0.9912293 -0.0526682 0.9912293 -0.0526682 0.0087707 0.0526682
3271000000 0.0089471 0.0534594 0.9910529 -0.0534594 0.9910529 -0.0534594 0.0089471 0.0534594
3292000000 0.0091286 0.0542517 0.9908714 -0.0542517 0.9908714 -0.0542517 0.0091286 0.0542517
3313000000 0.0093155 0.0550451 0.9906845 -0.0550451 0.9906845 -0.0550451 0.0093155 0.0550451
3334000000 0.0095082 0.0558397 0.9904918 -0.0558397 0.9904918 -0.0558397 0.0095082 0.0558397
3355000000 0.0097069 0.0566356 0.9902931 -0.0566356 0.9902931 -0.0566356 0.0097069 0.0566356
3376000000 0.0099119 0.0574329 0.9900881 -0.0574329 0.9900881 -0.0574329 0.0099119 0.0574329
3397000000 0.0101238 0.0582315 0.9898762 -0.0582315 0.9898762 -0.0582315 0.0101238 0.0582315
3418000000 0.0103427 0.0590317 0.9896573 -0.0590317 0.9896573 -0.0590317 0.0103427 0.0590317
3439000000 0.0105693 0.0598335 0.9894307 -0.0598335 0.9894307 -0.0598335 0.0105693 0.0598335
3460000000 0.0108039 0.0606367 0.9891961 -0.0606367 0.9891961 -0.0606367 0.0108039 0.0606367
3481000000 0.0110470 0.0614416 0.9889530 -0.0614416 0.9889530 -0.0614416 0.0110470 0.0614416
3502000000 0.0112993 0.0622480 0.9887007 -0.0622480 0.9887007 -0.0622480 0.0112993 0.0622480
3523000000 0.0115613 0.0630559 0.9884387 -0.0630559 0.9884387 -0.0630559 0.0115613 0.0630559
3544000000 0.0118337 0.0638653 0.9881663 -0.0638653 0.9881663 -0.0638653 0.0118337 0.0638653
3565000000 0.0121171 0.0646760 0.9878829 -0.0646760 0.9878829 -0.0646760 0.0121171 0.0646760
3586000000 0.0124123 0.0654879 0.9875877 -0.0654879 0.9875877 -0.0654879 0.0124123 0.0654879
3607000000 0.0127202 0.0663007 0.9872798 -0.0663007 0.9872798 -0.0663007 0.0127202 0.0663007
3628000000 0.0130417 0.0671142 0.9869583 -0.0671142 0.9869583 -0.0671142 0.0130417 0.0671142
3649000000 0.0133776 0.0679280 0.9866224 -0.0679280 0.9866224 -0.0679280 0.0133776 0.0679280
3670000000 0.0137292 0.0687416 0.9862708 -0.0687416 0.9862708 -0.0687416 0.0137292 0.0687416
3691000000 0.0140973 0.0695545 0.9859027 -0.0695545 0.9859027 -0.0695545 0.0140973 0.0695545
3712000000 0.0144834 0.0703659 0.9855166 -0.0703659 0.9855166 -0.0703659 0.0144834 0.0703659
3733000000 0.0148885 0.0711751 0.9851115 -0.0711751 0.9851115 -0.0711751 0.0148885 0.0711751
3754000000 0.0153141 0.0719809 0.9846859 -0.0719809 0.9846859 -0.0719809 0.0153141 0.0719809
3775000000 0.0157616 0.0727821 0.9842384 -0.0727821 0.9842384 -0.0727821 0.0157616 0.0727821
3796000000 0.0162325 0.0735773 0.9837675 -0.0735773 0.9837675 -0.0735773 0.0162325 0.0735773
3817000000 0.0167282 0.0743645 0.9832718 -0.0743645 0.9832718 -0.0743645 0.0167282 0.0743645
3838000000 0.0172504 0.0751416 0.9827496 -0.0751416 0.9827496 -0.0751416 0.0172504 0.0751416
3859000000 0.0178004 0.0759062 0.9821996 -0.0759062 0.9821996 -0.0759062 0.0178004 0.0759062
3880000000 0.0183798 0.0766551 0.9816202 -0.0766551 0.9816202 -0.0766551 0.0183798 0.0766551
3901000000 0.0189898 0.0773850 0.9810102 -0.0773850 0.9810102 -0.0773850 0.0189898 0.0773850
3922000000 0.0196315 0.0780917 0.9803685 -0.0780917 0.9803685 -0.0780917 0.0196315 0.0780917
3943000000 0.0203057 0.0787706 0.9796943 -0.0787706 0.9796943 -0.0787706 0.0203057 0.0787706
3964000000 0.0210124 0.0794164 0.9789876 -0.0794164 0.9789876 -0.0794164 0.0210124 0.0794164
3985000000 0.0217514 0.0800231 0.9782486 -0.0800231 0.9782486 -0.0800231 0.0217514 0.0800231
4006000000 0.0225212 0.0805840 0.9774788 -0.0805840 0.9774788 -0.0805840 0.0225212 0.0805840
4027000000 0.0233194 0.0810920 0.9766806 -0.0810920 0.9766806 -0.0810920 0.0233194 0.0810920
4048000000 0.0241421 0.0815394 0.9758579 -0.0815394 0.9758579 -0.0815394 0.0241421 0.0815394
4069000000 0.0249838 0.0819182 0.9750162 -0.0819182 0.9750162 -0.0819182 0.0249838 0.0819182
4090000000 0.0258369 0.0822208 0.9741631 -0.0822208 0.9741631 -0.0822208 0.0258369 0.0822208
4111000000 0.0266916 0.0824400 0.9733084 -0.0824400 0.9733084 -0.0824400 0.0266916 0.0824400
4132000000 0.0275360 0.0825697 0.9724640 -0.0825697 0.9724640 -0.0825697 0.0275360 0.0825697
4153000000 0.0283555 0.0826059 0.9716445 -0.0826059 0.9716445 -0.0826059 0.0283555 0.0826059
4174000000 0.0291340 0.0825471 0.9708660 -0.0825471 0.9708660 -0.0825471 0.0291340 0.0825471
4195000000 0.0298536 0.0823955 0.9701464 -0.0823955 0.9701464 -0.0823955 0.0298536 0.0823955
4216000000 0.0304959 0.0821573 0.9695041 -0.0821573 0.9695041 -0.0821573 0.0304959 0.0821573
4237000000 0.0310431 0.0818431 0.9689569 -0.0818431 0.9689569 -0.0818431 0.0310431 0.0818431
4258000000 0.0314793 0.0814683 0.9685207 -0.0814683 0.9685207 -0.0814683 0.0314793 0.0814683
4279000000 0.0317921 0.0810522 0.9682079 -0.0810522 0.9682079 -0.0810522 0.0317921 0.0810522
4300000000 0.0319736 0.0806173 0.9680264 -0.0806173 0.9680264 -0.0806173 0.0319736 0.0806173
4321000000 0.0320212 0.0801876 0.9679788 -0.0801876 0.9679788 -0.0801876 0.0320212 0.0801876
4342000000 0.0319383 0.0797874 0.9680617 -0.0797874 0.9680617 -0.0797874 0.0319383 0.0797874
4363000000 0.0317336 0.0794390 0.9682664 -0.0794390 0.9682664 -0.0794390 0.0317336 0.0794390
4384000000 0.0314208 0.0791618 0.9685792 -0.0791618 0.9685792 -0.0791618 0.0314208 0.0791618
4405000000 0.0310169 0.0789709 0.9689831 -0.0789709 0.9689831 -0.0789709 0.0310169 0.0789709
4426000000 0.0305406 0.0788766 0.9694594 -0.0788766 0.9694594 -0.0788766 0.0305406 0.0788766
4447000000 0.0300117 0.0788845 0.9699883 -0.0788845 0.9699883 -0.0788845 0.0300117 0.0788845
4468000000 0.0294488 0.0789957 0.9705512 -0.0789957 0.9705512 -0.0789957 0.0294488 0.0789957
4489000000 0.0288693 0.0792078 0.9711307 -0.0792078 0.9711307 -0.0792078 0.0288693 0.0792078
4510000000 0.0282881 0.0795155 0.9717119 -0.0795155 0.9717119 -0.0795155 0.0282881 0.0795155
