!Murata Part Number: GRM1555C1H3R7WA01
!These Parameters are Measured in Series Mode Connection
!Data Generated on Mar 30, 2021
!       o--ll--o
!Port1            Port2
!       o------o
!Operation Temp=25[degC], DC Bias Voltage=0[V]
!Freq. Start=100[MHz] Stop=9[GHz] 401[Steps]
# Hz S RI R 50
!Freq.(Hz) S11(Real) S11(Imag) S21(Real) S21(Imag) S12(Real) S12(Imag) S22(Real) S22(Imag)
100000000 0.9485624 -0.2205979 0.0514376 0.2205979 0.0514376 0.2205979 0.9485624 -0.2205979
121000000 0.9264194 -0.2607353 0.0735806 0.2607353 0.0735806 0.2607353 0.9264194 -0.2607353
142000000 0.9013580 -0.2977676 0.0986420 0.2977676 0.0986420 0.2977676 0.9013580 -0.2977676
163000000 0.8739140 -0.3314718 0.1260860 0.3314718 0.1260860 0.3314718 0.8739140 -0.3314718
184000000 0.8446223 -0.3617284 0.1553777 0.3617284 0.1553777 0.3617284 0.8446223 -0.3617284
205000000 0.8139966 -0.3885119 0.1860034 0.3885119 0.1860034 0.3885119 0.8139966 -0.3885119
226000000 0.7825136 -0.4118768 0.2174864 0.4118768 0.2174864 0.4118768 0.7825136 -0.4118768
247000000 0.7506025 -0.4319431 0.2493975 0.4319431 0.2493975 0.4319431 0.7506025 -0.4319431
268000000 0.7186380 -0.4488805 0.2813620 0.4488805 0.2813620 0.4488805 0.7186380 -0.4488805
289000000 0.6869387 -0.4628936 0.3130613 0.4628936 0.3130613 0.4628936 0.6869387 -0.4628936
310000000 0.6557677 -0.4742094 0.3442323 0.4742094 0.3442323 0.4742094 0.6557677 -0.4742094
331000000 0.6253356 -0.4830656 0.3746644 0.4830656 0.3746644 0.4830656 0.6253356 -0.4830656
352000000 0.5958053 -0.4897021 0.4041947 0.4897021 0.4041947 0.4897021 0.5958053 -0.4897021
373000000 0.5672973 -0.4943538 0.4327027 0.4943538 0.4327027 0.4943538 0.5672973 -0.4943538
394000000 0.5398956 -0.4972459 0.4601044 0.4972459 0.4601044 0.4972459 0.5398956 -0.4972459
415000000 0.5136533 -0.4985900 0.4863467 0.4985900 0.4863467 0.4985900 0.5136533 -0.4985900
436000000 0.4885979 -0.4985825 0.5114021 0.4985825 0.5114021 0.4985825 0.4885979 -0.4985825
457000000 0.4647363 -0.4974032 0.5352637 0.4974032 0.5352637 0.4974032 0.4647363 -0.4974032
478000000 0.4420589 -0.4952152 0.5579411 0.4952152 0.5579411 0.4952152 0.4420589 -0.4952152
499000000 0.4205435 -0.4921651 0.5794565 0.4921651 0.5794565 0.4921651 0.4205435 -0.4921651
520000000 0.4001583 -0.4883838 0.5998417 0.4883838 0.5998417 0.4883838 0.4001583 -0.4883838
541000000 0.3808647 -0.4839874 0.6191353 0.4839874 0.6191353 0.4839874 0.3808647 -0.4839874
562000000 0.3626194 -0.4790783 0.6373806 0.4790783 0.6373806 0.4790783 0.3626194 -0.4790783
583000000 0.3453757 -0.4737463 0.6546243 0.4737463 0.6546243 0.4737463 0.3453757 -0.4737463
604000000 0.3290858 -0.4680700 0.6709142 0.4680700 0.6709142 0.4680700 0.3290858 -0.4680700
625000000 0.3137008 -0.4621179 0.6862992 0.4621179 0.6862992 0.4621179 0.3137008 -0.4621179
646000000 0.2991723 -0.4559494 0.7008277 0.4559494 0.7008277 0.4559494 0.2991723 -0.4559494
667000000 0.2854529 -0.4496156 0.7145471 0.4496156 0.7145471 0.4496156 0.2854529 -0.4496156
688000000 0.2724962 -0.4431609 0.7275038 0.4431609 0.7275038 0.4431609 0.2724962 -0.4431609
709000000 0.2602578 -0.4366232 0.7397422 0.4366232 0.7397422 0.4366232 0.2602578 -0.4366232
730000000 0.2486949 -0.4300349 0.7513051 0.4300349 0.7513051 0.4300349 0.2486949 -0.4300349
751000000 0.2377669 -0.4234238 0.7622331 0.4234238 0.7622331 0.4234238 0.2377669 -0.4234238
772000000 0.2274353 -0.4168133 0.7725647 0.4168133 0.7725647 0.4168133 0.2274353 -0.4168133
793000000 0.2176634 -0.4102233 0.7823366 0.4102233 0.7823366 0.4102233 0.2176634 -0.4102233
814000000 0.2084170 -0.4036705 0.7915830 0.4036705 0.7915830 0.4036705 0.2084170 -0.4036705
835000000 0.1996636 -0.3971690 0.8003364 0.3971690 0.8003364 0.3971690 0.1996636 -0.3971690
856000000 0.1913728 -0.3907302 0.8086272 0.3907302 0.8086272 0.3907302 0.1913728 -0.3907302
877000000 0.1835163 -0.3843637 0.8164837 0.3843637 0.8164837 0.3843637 0.1835163 -0.3843637
898000000 0.1760673 -0.3780773 0.8239327 0.3780773 0.8239327 0.3780773 0.1760673 -0.3780773
919000000 0.1690008 -0.3718774 0.8309992 0.3718774 0.8309992 0.3718774 0.1690008 -0.3718774
940000000 0.1622935 -0.3657687 0.8377065 0.3657687 0.8377065 0.3657687 0.1622935 -0.3657687
961000000 0.1559237 -0.3597552 0.8440763 0.3597552 0.8440763 0.3597552 0.1559237 -0.3597552
982000000 0.1498710 -0.3538396 0.8501290 0.3538396 0.8501290 0.3538396 0.1498710 -0.3538396
1003000000 0.1441164 -0.3480242 0.8558836 0.3480242 0.8558836 0.3480242 0.1441164 -0.3480242
1024000000 0.1386421 -0.3423101 0.8613579 0.3423101 0.8613579 0.3423101 0.1386421 -0.3423101
1045000000 0.1334316 -0.3366982 0.8665684 0.3366982 0.8665684 0.3366982 0.1334316 -0.3366982
1066000000 0.1284694 -0.3311886 0.8715306 0.3311886 0.8715306 0.3311886 0.1284694 -0.3311886
1087000000 0.1237411 -0.3257812 0.8762589 0.3257812 0.8762589 0.3257812 0.1237411 -0.3257812
1108000000 0.1192332 -0.3204754 0.8807668 0.3204754 0.8807668 0.3204754 0.1192332 -0.3204754
1129000000 0.1149330 -0.3152705 0.8850670 0.3152705 0.8850670 0.3152705 0.1149330 -0.3152705
1150000000 0.1108290 -0.3101652 0.8891710 0.3101652 0.8891710 0.3101652 0.1108290 -0.3101652
1171000000 0.1069099 -0.3051583 0.8930901 0.3051583 0.8930901 0.3051583 0.1069099 -0.3051583
1192000000 0.1031656 -0.3002484 0.8968344 0.3002484 0.8968344 0.3002484 0.1031656 -0.3002484
1213000000 0.0995865 -0.2954337 0.9004135 0.2954337 0.9004135 0.2954337 0.0995865 -0.2954337
1234000000 0.0961634 -0.2907126 0.9038366 0.2907126 0.9038366 0.2907126 0.0961634 -0.2907126
1255000000 0.0928881 -0.2860834 0.9071119 0.2860834 0.9071119 0.2860834 0.0928881 -0.2860834
1276000000 0.0897525 -0.2815441 0.9102475 0.2815441 0.9102475 0.2815441 0.0897525 -0.2815441
1297000000 0.0867493 -0.2770928 0.9132507 0.2770928 0.9132507 0.2770928 0.0867493 -0.2770928
1318000000 0.0838716 -0.2727276 0.9161284 0.2727276 0.9161284 0.2727276 0.0838716 -0.2727276
1339000000 0.0811129 -0.2684466 0.9188871 0.2684466 0.9188871 0.2684466 0.0811129 -0.2684466
1360000000 0.0784670 -0.2642478 0.9215330 0.2642478 0.9215330 0.2642478 0.0784670 -0.2642478
1381000000 0.0759281 -0.2601292 0.9240719 0.2601292 0.9240719 0.2601292 0.0759281 -0.2601292
1402000000 0.0734910 -0.2560888 0.9265090 0.2560888 0.9265090 0.2560888 0.0734910 -0.2560888
1423000000 0.0711506 -0.2521249 0.9288494 0.2521249 0.9288494 0.2521249 0.0711506 -0.2521249
1444000000 0.0689020 -0.2482353 0.9310980 0.2482353 0.9310980 0.2482353 0.0689020 -0.2482353
1465000000 0.0667408 -0.2444184 0.9332592 0.2444184 0.9332592 0.2444184 0.0667408 -0.2444184
1486000000 0.0646628 -0.2406721 0.9353372 0.2406721 0.9353372 0.2406721 0.0646628 -0.2406721
1507000000 0.0626639 -0.2369947 0.9373361 0.2369947 0.9373361 0.2369947 0.0626639 -0.2369947
1528000000 0.0607406 -0.2333844 0.9392594 0.2333844 0.9392594 0.2333844 0.0607406 -0.2333844
1549000000 0.0588891 -0.2298395 0.9411109 0.2298395 0.9411109 0.2298395 0.0588891 -0.2298395
1570000000 0.0571062 -0.2263582 0.9428938 0.2263582 0.9428938 0.2263582 0.0571062 -0.2263582
1591000000 0.0553888 -0.2229389 0.9446112 0.2229389 0.9446112 0.2229389 0.0553888 -0.2229389
1612000000 0.0537338 -0.2195799 0.9462662 0.2195799 0.9462662 0.2195799 0.0537338 -0.2195799
1633000000 0.0521385 -0.2162797 0.9478615 0.2162797 0.9478615 0.2162797 0.0521385 -0.2162797
1654000000 0.0506001 -0.2130367 0.9493999 0.2130367 0.9493999 0.2130367 0.0506001 -0.2130367
1675000000 0.0491163 -0.2098494 0.9508837 0.2098494 0.9508837 0.2098494 0.0491163 -0.2098494
1696000000 0.0476845 -0.2067163 0.9523155 0.2067163 0.9523155 0.2067163 0.0476845 -0.2067163
1717000000 0.0463026 -0.2036359 0.9536974 0.2036359 0.9536974 0.2036359 0.0463026 -0.2036359
1738000000 0.0449684 -0.2006070 0.9550316 0.2006070 0.9550316 0.2006070 0.0449684 -0.2006070
1759000000 0.0436800 -0.1976282 0.9563200 0.1976282 0.9563200 0.1976282 0.0436800 -0.1976282
1780000000 0.0424353 -0.1946980 0.9575647 0.1946980 0.9575647 0.1946980 0.0424353 -0.1946980
1801000000 0.0412325 -0.1918154 0.9587675 0.1918154 0.9587675 0.1918154 0.0412325 -0.1918154
1822000000 0.0400701 -0.1889789 0.9599299 0.1889789 0.9599299 0.1889789 0.0400701 -0.1889789
1843000000 0.0389462 -0.1861875 0.9610538 0.1861875 0.9610538 0.1861875 0.0389462 -0.1861875
1864000000 0.0378594 -0.1834400 0.9621406 0.1834400 0.9621406 0.1834400 0.0378594 -0.1834400
1885000000 0.0368081 -0.1807351 0.9631919 0.1807351 0.9631919 0.1807351 0.0368081 -0.1807351
1906000000 0.0357910 -0.1780719 0.9642090 0.1780719 0.9642090 0.1780719 0.0357910 -0.1780719
1927000000 0.0348067 -0.1754492 0.9651933 0.1754492 0.9651933 0.1754492 0.0348067 -0.1754492
1948000000 0.0338540 -0.1728661 0.9661460 0.1728661 0.9661460 0.1728661 0.0338540 -0.1728661
1969000000 0.0329317 -0.1703214 0.9670683 0.1703214 0.9670683 0.1703214 0.0329317 -0.1703214
1990000000 0.0320385 -0.1678143 0.9679615 0.1678143 0.9679615 0.1678143 0.0320385 -0.1678143
2011000000 0.0311734 -0.1653438 0.9688266 0.1653438 0.9688266 0.1653438 0.0311734 -0.1653438
2032000000 0.0303354 -0.1629089 0.9696646 0.1629089 0.9696646 0.1629089 0.0303354 -0.1629089
2053000000 0.0295234 -0.1605088 0.9704766 0.1605088 0.9704766 0.1605088 0.0295234 -0.1605088
2074000000 0.0287365 -0.1581426 0.9712635 0.1581426 0.9712635 0.1581426 0.0287365 -0.1581426
2095000000 0.0279739 -0.1558095 0.9720261 0.1558095 0.9720261 0.1558095 0.0279739 -0.1558095
2116000000 0.0272345 -0.1535087 0.9727655 0.1535087 0.9727655 0.1535087 0.0272345 -0.1535087
2137000000 0.0265176 -0.1512393 0.9734824 0.1512393 0.9734824 0.1512393 0.0265176 -0.1512393
2158000000 0.0258224 -0.1490006 0.9741776 0.1490006 0.9741776 0.1490006 0.0258224 -0.1490006
2179000000 0.0251482 -0.1467918 0.9748518 0.1467918 0.9748518 0.1467918 0.0251482 -0.1467918
2200000000 0.0244942 -0.1446123 0.9755058 0.1446123 0.9755058 0.1446123 0.0244942 -0.1446123
2221000000 0.0238597 -0.1424613 0.9761403 0.1424613 0.9761403 0.1424613 0.0238597 -0.1424613
2242000000 0.0232441 -0.1403382 0.9767559 0.1403382 0.9767559 0.1403382 0.0232441 -0.1403382
2263000000 0.0226467 -0.1382422 0.9773533 0.1382422 0.9773533 0.1382422 0.0226467 -0.1382422
2284000000 0.0220669 -0.1361727 0.9779331 0.1361727 0.9779331 0.1361727 0.0220669 -0.1361727
2305000000 0.0215042 -0.1341292 0.9784958 0.1341292 0.9784958 0.1341292 0.0215042 -0.1341292
2326000000 0.0209580 -0.1321110 0.9790420 0.1321110 0.9790420 0.1321110 0.0209580 -0.1321110
2347000000 0.0204278 -0.1301175 0.9795722 0.1301175 0.9795722 0.1301175 0.0204278 -0.1301175
2368000000 0.0199130 -0.1281481 0.9800870 0.1281481 0.9800870 0.1281481 0.0199130 -0.1281481
2389000000 0.0194131 -0.1262024 0.9805869 0.1262024 0.9805869 0.1262024 0.0194131 -0.1262024
2410000000 0.0189278 -0.1242796 0.9810722 0.1242796 0.9810722 0.1242796 0.0189278 -0.1242796
2431000000 0.0184565 -0.1223794 0.9815435 0.1223794 0.9815435 0.1223794 0.0184565 -0.1223794
2452000000 0.0179988 -0.1205013 0.9820012 0.1205013 0.9820012 0.1205013 0.0179988 -0.1205013
2473000000 0.0175543 -0.1186446 0.9824457 0.1186446 0.9824457 0.1186446 0.0175543 -0.1186446
2494000000 0.0171226 -0.1168089 0.9828774 0.1168089 0.9828774 0.1168089 0.0171226 -0.1168089
2515000000 0.0167033 -0.1149938 0.9832967 0.1149938 0.9832967 0.1149938 0.0167033 -0.1149938
2536000000 0.0162961 -0.1131989 0.9837039 0.1131989 0.9837039 0.1131989 0.0162961 -0.1131989
2557000000 0.0159005 -0.1114235 0.9840995 0.1114235 0.9840995 0.1114235 0.0159005 -0.1114235
2578000000 0.0155163 -0.1096674 0.9844837 0.1096674 0.9844837 0.1096674 0.0155163 -0.1096674
2599000000 0.0151432 -0.1079301 0.9848568 0.1079301 0.9848568 0.1079301 0.0151432 -0.1079301
2620000000 0.0147807 -0.1062113 0.9852193 0.1062113 0.9852193 0.1062113 0.0147807 -0.1062113
2641000000 0.0144287 -0.1045104 0.9855713 0.1045104 0.9855713 0.1045104 0.0144287 -0.1045104
2662000000 0.0140867 -0.1028271 0.9859133 0.1028271 0.9859133 0.1028271 0.0140867 -0.1028271
2683000000 0.0137547 -0.1011610 0.9862453 0.1011610 0.9862453 0.1011610 0.0137547 -0.1011610
2704000000 0.0134321 -0.0995119 0.9865679 0.0995119 0.9865679 0.0995119 0.0134321 -0.0995119
2725000000 0.0131189 -0.0978792 0.9868811 0.0978792 0.9868811 0.0978792 0.0131189 -0.0978792
2746000000 0.0128148 -0.0962627 0.9871852 0.0962627 0.9871852 0.0962627 0.0128148 -0.0962627
2767000000 0.0125195 -0.0946620 0.9874805 0.0946620 0.9874805 0.0946620 0.0125195 -0.0946620
2788000000 0.0122328 -0.0930768 0.9877672 0.0930768 0.9877672 0.0930768 0.0122328 -0.0930768
2809000000 0.0119544 -0.0915068 0.9880456 0.0915068 0.9880456 0.0915068 0.0119544 -0.0915068
2830000000 0.0116842 -0.0899517 0.9883158 0.0899517 0.9883158 0.0899517 0.0116842 -0.0899517
2851000000 0.0114219 -0.0884110 0.9885781 0.0884110 0.9885781 0.0884110 0.0114219 -0.0884110
2872000000 0.0111674 -0.0868847 0.9888326 0.0868847 0.9888326 0.0868847 0.0111674 -0.0868847
2893000000 0.0109205 -0.0853723 0.9890795 0.0853723 0.9890795 0.0853723 0.0109205 -0.0853723
2914000000 0.0106809 -0.0838736 0.9893191 0.0838736 0.9893191 0.0838736 0.0106809 -0.0838736
2935000000 0.0104484 -0.0823882 0.9895516 0.0823882 0.9895516 0.0823882 0.0104484 -0.0823882
2956000000 0.0102230 -0.0809160 0.9897770 0.0809160 0.9897770 0.0809160 0.0102230 -0.0809160
2977000000 0.0100045 -0.0794567 0.9899955 0.0794567 0.9899955 0.0794567 0.0100045 -0.0794567
2998000000 0.0097926 -0.0780100 0.9902074 0.0780100 0.9902074 0.0780100 0.0097926 -0.0780100
3019000000 0.0095872 -0.0765756 0.9904128 0.0765756 0.9904128 0.0765756 0.0095872 -0.0765756
3040000000 0.0093883 -0.0751534 0.9906117 0.0751534 0.9906117 0.0751534 0.0093883 -0.0751534
3061000000 0.0091955 -0.0737430 0.9908045 0.0737430 0.9908045 0.0737430 0.0091955 -0.0737430
3082000000 0.0090089 -0.0723443 0.9909911 0.0723443 0.9909911 0.0723443 0.0090089 -0.0723443
3103000000 0.0088282 -0.0709570 0.9911718 0.0709570 0.9911718 0.0709570 0.0088282 -0.0709570
3124000000 0.0086533 -0.0695809 0.9913467 0.0695809 0.9913467 0.0695809 0.0086533 -0.0695809
3145000000 0.0084841 -0.0682158 0.9915159 0.0682158 0.9915159 0.0682158 0.0084841 -0.0682158
3166000000 0.0083205 -0.0668614 0.9916795 0.0668614 0.9916795 0.0668614 0.0083205 -0.0668614
3187000000 0.0081624 -0.0655176 0.9918376 0.0655176 0.9918376 0.0655176 0.0081624 -0.0655176
3208000000 0.0080096 -0.0641842 0.9919904 0.0641842 0.9919904 0.0641842 0.0080096 -0.0641842
3229000000 0.0078620 -0.0628609 0.9921380 0.0628609 0.9921380 0.0628609 0.0078620 -0.0628609
3250000000 0.0077195 -0.0615476 0.9922805 0.0615476 0.9922805 0.0615476 0.0077195 -0.0615476
3271000000 0.0075821 -0.0602441 0.9924179 0.0602441 0.9924179 0.0602441 0.0075821 -0.0602441
3292000000 0.0074496 -0.0589502 0.9925504 0.0589502 0.9925504 0.0589502 0.0074496 -0.0589502
3313000000 0.0073219 -0.0576656 0.9926781 0.0576656 0.9926781 0.0576656 0.0073219 -0.0576656
3334000000 0.0071990 -0.0563904 0.9928010 0.0563904 0.9928010 0.0563904 0.0071990 -0.0563904
3355000000 0.0070806 -0.0551242 0.9929194 0.0551242 0.9929194 0.0551242 0.0070806 -0.0551242
3376000000 0.0069669 -0.0538669 0.9930331 0.0538669 0.9930331 0.0538669 0.0069669 -0.0538669
3397000000 0.0068576 -0.0526183 0.9931424 0.0526183 0.9931424 0.0526183 0.0068576 -0.0526183
3418000000 0.0067527 -0.0513783 0.9932473 0.0513783 0.9932473 0.0513783 0.0067527 -0.0513783
3439000000 0.0066521 -0.0501467 0.9933479 0.0501467 0.9933479 0.0501467 0.0066521 -0.0501467
3460000000 0.0065557 -0.0489234 0.9934443 0.0489234 0.9934443 0.0489234 0.0065557 -0.0489234
3481000000 0.0064635 -0.0477082 0.9935365 0.0477082 0.9935365 0.0477082 0.0064635 -0.0477082
3502000000 0.0063754 -0.0465009 0.9936246 0.0465009 0.9936246 0.0465009 0.0063754 -0.0465009
3523000000 0.0062913 -0.0453015 0.9937087 0.0453015 0.9937087 0.0453015 0.0062913 -0.0453015
3544000000 0.0062111 -0.0441097 0.9937889 0.0441097 0.9937889 0.0441097 0.0062111 -0.0441097
3565000000 0.0061349 -0.0429255 0.9938651 0.0429255 0.9938651 0.0429255 0.0061349 -0.0429255
3586000000 0.0060624 -0.0417487 0.9939376 0.0417487 0.9939376 0.0417487 0.0060624 -0.0417487
3607000000 0.0059937 -0.0405792 0.9940063 0.0405792 0.9940063 0.0405792 0.0059937 -0.0405792
3628000000 0.0059287 -0.0394168 0.9940713 0.0394168 0.9940713 0.0394168 0.0059287 -0.0394168
3649000000 0.0058674 -0.0382614 0.9941326 0.0382614 0.9941326 0.0382614 0.0058674 -0.0382614
3670000000 0.0058097 -0.0371129 0.9941903 0.0371129 0.9941903 0.0371129 0.0058097 -0.0371129
3691000000 0.0057554 -0.0359712 0.9942446 0.0359712 0.9942446 0.0359712 0.0057554 -0.0359712
3712000000 0.0057047 -0.0348361 0.9942953 0.0348361 0.9942953 0.0348361 0.0057047 -0.0348361
3733000000 0.0056574 -0.0337075 0.9943426 0.0337075 0.9943426 0.0337075 0.0056574 -0.0337075
3754000000 0.0056135 -0.0325854 0.9943865 0.0325854 0.9943865 0.0325854 0.0056135 -0.0325854
3775000000 0.0055730 -0.0314695 0.9944270 0.0314695 0.9944270 0.0314695 0.0055730 -0.0314695
3796000000 0.0055357 -0.0303599 0.9944643 0.0303599 0.9944643 0.0303599 0.0055357 -0.0303599
3817000000 0.0055017 -0.0292563 0.9944983 0.0292563 0.9944983 0.0292563 0.0055017 -0.0292563
3838000000 0.0054710 -0.0281587 0.9945290 0.0281587 0.9945290 0.0281587 0.0054710 -0.0281587
3859000000 0.0054433 -0.0270669 0.9945567 0.0270669 0.9945567 0.0270669 0.0054433 -0.0270669
3880000000 0.0054189 -0.0259809 0.9945811 0.0259809 0.9945811 0.0259809 0.0054189 -0.0259809
3901000000 0.0053975 -0.0249006 0.9946025 0.0249006 0.9946025 0.0249006 0.0053975 -0.0249006
3922000000 0.0053792 -0.0238259 0.9946208 0.0238259 0.9946208 0.0238259 0.0053792 -0.0238259
3943000000 0.0053639 -0.0227566 0.9946361 0.0227566 0.9946361 0.0227566 0.0053639 -0.0227566
3964000000 0.0053516 -0.0216927 0.9946484 0.0216927 0.9946484 0.0216927 0.0053516 -0.0216927
3985000000 0.0053422 -0.0206341 0.9946578 0.0206341 0.9946578 0.0206341 0.0053422 -0.0206341
4006000000 0.0053358 -0.0195807 0.9946642 0.0195807 0.9946642 0.0195807 0.0053358 -0.0195807
4027000000 0.0053323 -0.0185324 0.9946677 0.0185324 0.9946677 0.0185324 0.0053323 -0.0185324
4048000000 0.0053317 -0.0174891 0.9946683 0.0174891 0.9946683 0.0174891 0.0053317 -0.0174891
4069000000 0.0053339 -0.0164507 0.9946661 0.0164507 0.9946661 0.0164507 0.0053339 -0.0164507
4090000000 0.0053389 -0.0154171 0.9946611 0.0154171 0.9946611 0.0154171 0.0053389 -0.0154171
4111000000 0.0053467 -0.0143883 0.9946533 0.0143883 0.9946533 0.0143883 0.0053467 -0.0143883
4132000000 0.0053573 -0.0133642 0.9946427 0.0133642 0.9946427 0.0133642 0.0053573 -0.0133642
4153000000 0.0053706 -0.0123447 0.9946294 0.0123447 0.9946294 0.0123447 0.0053706 -0.0123447
4174000000 0.0053867 -0.0113297 0.9946133 0.0113297 0.9946133 0.0113297 0.0053867 -0.0113297
4195000000 0.0054054 -0.0103192 0.9945946 0.0103192 0.9945946 0.0103192 0.0054054 -0.0103192
4216000000 0.0054268 -0.0093130 0.9945732 0.0093130 0.9945732 0.0093130 0.0054268 -0.0093130
4237000000 0.0054509 -0.0083110 0.9945491 0.0083110 0.9945491 0.0083110 0.0054509 -0.0083110
4258000000 0.0054776 -0.0073133 0.9945224 0.0073133 0.9945224 0.0073133 0.0054776 -0.0073133
4279000000 0.0055070 -0.0063198 0.9944930 0.0063198 0.9944930 0.0063198 0.0055070 -0.0063198
4300000000 0.0055389 -0.0053303 0.9944611 0.0053303 0.9944611 0.0053303 0.0055389 -0.0053303
4321000000 0.0055734 -0.0043448 0.9944266 0.0043448 0.9944266 0.0043448 0.0055734 -0.0043448
4342000000 0.0056105 -0.0033632 0.9943895 0.0033632 0.9943895 0.0033632 0.0056105 -0.0033632
4363000000 0.0056502 -0.0023855 0.9943498 0.0023855 0.9943498 0.0023855 0.0056502 -0.0023855
4384000000 0.0056924 -0.0014116 0.9943076 0.0014116 0.9943076 0.0014116 0.0056924 -0.0014116
4405000000 0.0057371 -0.0004414 0.9942629 0.0004414 0.9942629 0.0004414 0.0057371 -0.0004414
4426000000 0.0057844 0.0005251 0.9942156 -0.0005251 0.9942156 -0.0005251 0.0057844 0.0005251
4447000000 0.0058342 0.0014880 0.9941658 -0.0014880 0.9941658 -0.0014880 0.0058342 0.0014880
4468000000 0.0058864 0.0024473 0.9941136 -0.0024473 0.9941136 -0.0024473 0.0058864 0.0024473
4489000000 0.0059412 0.0034032 0.9940588 -0.0034032 0.9940588 -0.0034032 0.0059412 0.0034032
4510000000 0.0059984 0.0043557 0.9940016 -0.0043557 0.9940016 -0.0043557 0.0059984 0.0043557
