!Murata Part Number: GRM1552C2A9R5BA01
!These Parameters are Measured in Series Mode Connection
!Data Generated on Mar 30, 2021
!       o--ll--o
!Port1            Port2
!       o------o
!Operation Temp=25[degC], DC Bias Voltage=0[V]
!Freq. Start=100[MHz] Stop=9[GHz] 401[Steps]
# Hz S RI R 50
!Freq.(Hz) S11(Real) S11(Imag) S21(Real) S21(Imag) S12(Real) S12(Imag) S22(Real) S22(Imag)
100000000 0.7366332 -0.4399802 0.2633668 0.4399802 0.2633668 0.4399802 0.7366332 -0.4399802
121000000 0.6562075 -0.4743915 0.3437925 0.4743915 0.3437925 0.4743915 0.6562075 -0.4743915
142000000 0.5806251 -0.4927729 0.4193749 0.4927729 0.4193749 0.4927729 0.5806251 -0.4927729
163000000 0.5120741 -0.4990669 0.4879259 0.4990669 0.4879259 0.4990669 0.5120741 -0.4990669
184000000 0.4513010 -0.4967312 0.5486990 0.4967312 0.5486990 0.4967312 0.4513010 -0.4967312
205000000 0.3981751 -0.4885250 0.6018249 0.4885250 0.6018249 0.4885250 0.3981751 -0.4885250
226000000 0.3521057 -0.4765233 0.6478943 0.4765233 0.6478943 0.4765233 0.3521057 -0.4765233
247000000 0.3123118 -0.4622251 0.6876882 0.4622251 0.6876882 0.4622251 0.3123118 -0.4622251
268000000 0.2779768 -0.4466816 0.7220232 0.4466816 0.7220232 0.4466816 0.2779768 -0.4466816
289000000 0.2483289 -0.4306126 0.7516711 0.4306126 0.7516711 0.4306126 0.2483289 -0.4306126
310000000 0.2226762 -0.4144994 0.7773238 0.4144994 0.7773238 0.4144994 0.2226762 -0.4144994
331000000 0.2004174 -0.3986554 0.7995826 0.3986554 0.7995826 0.3986554 0.2004174 -0.3986554
352000000 0.1810391 -0.3832773 0.8189609 0.3832773 0.8189609 0.3832773 0.1810391 -0.3832773
373000000 0.1641072 -0.3684817 0.8358928 0.3684817 0.8358928 0.3684817 0.1641072 -0.3684817
394000000 0.1492573 -0.3543308 0.8507427 0.3543308 0.8507427 0.3543308 0.1492573 -0.3543308
415000000 0.1361838 -0.3408503 0.8638162 0.3408503 0.8638162 0.3408503 0.1361838 -0.3408503
436000000 0.1246307 -0.3280418 0.8753693 0.3280418 0.8753693 0.3280418 0.1246307 -0.3280418
457000000 0.1143836 -0.3158916 0.8856164 0.3158916 0.8856164 0.3158916 0.1143836 -0.3158916
478000000 0.1052621 -0.3043763 0.8947379 0.3043763 0.8947379 0.3043763 0.1052621 -0.3043763
499000000 0.0971145 -0.2934667 0.9028855 0.2934667 0.9028855 0.2934667 0.0971145 -0.2934667
520000000 0.0898125 -0.2831309 0.9101875 0.2831309 0.9101875 0.2831309 0.0898125 -0.2831309
541000000 0.0832474 -0.2733358 0.9167526 0.2733358 0.9167526 0.2733358 0.0832474 -0.2733358
562000000 0.0773270 -0.2640484 0.9226730 0.2640484 0.9226730 0.2640484 0.0773270 -0.2640484
583000000 0.0719723 -0.2552366 0.9280277 0.2552366 0.9280277 0.2552366 0.0719723 -0.2552366
604000000 0.0671159 -0.2468696 0.9328841 0.2468696 0.9328841 0.2468696 0.0671159 -0.2468696
625000000 0.0626997 -0.2389180 0.9373003 0.2389180 0.9373003 0.2389180 0.0626997 -0.2389180
646000000 0.0586738 -0.2313545 0.9413262 0.2313545 0.9413262 0.2313545 0.0586738 -0.2313545
667000000 0.0549948 -0.2241532 0.9450052 0.2241532 0.9450052 0.2241532 0.0549948 -0.2241532
688000000 0.0516252 -0.2172902 0.9483748 0.2172902 0.9483748 0.2172902 0.0516252 -0.2172902
709000000 0.0485322 -0.2107433 0.9514678 0.2107433 0.9514678 0.2107433 0.0485322 -0.2107433
730000000 0.0456874 -0.2044916 0.9543126 0.2044916 0.9543126 0.2044916 0.0456874 -0.2044916
751000000 0.0430656 -0.1985162 0.9569344 0.1985162 0.9569344 0.1985162 0.0430656 -0.1985162
772000000 0.0406449 -0.1927991 0.9593551 0.1927991 0.9593551 0.1927991 0.0406449 -0.1927991
793000000 0.0384058 -0.1873241 0.9615942 0.1873241 0.9615942 0.1873241 0.0384058 -0.1873241
814000000 0.0363312 -0.1820759 0.9636688 0.1820759 0.9636688 0.1820759 0.0363312 -0.1820759
835000000 0.0344059 -0.1770405 0.9655941 0.1770405 0.9655941 0.1770405 0.0344059 -0.1770405
856000000 0.0326164 -0.1722050 0.9673836 0.1722050 0.9673836 0.1722050 0.0326164 -0.1722050
877000000 0.0309507 -0.1675572 0.9690493 0.1675572 0.9690493 0.1675572 0.0309507 -0.1675572
898000000 0.0293981 -0.1630860 0.9706019 0.1630860 0.9706019 0.1630860 0.0293981 -0.1630860
919000000 0.0279489 -0.1587812 0.9720511 0.1587812 0.9720511 0.1587812 0.0279489 -0.1587812
940000000 0.0265945 -0.1546330 0.9734055 0.1546330 0.9734055 0.1546330 0.0265945 -0.1546330
961000000 0.0253273 -0.1506326 0.9746727 0.1506326 0.9746727 0.1506326 0.0253273 -0.1506326
982000000 0.0241401 -0.1467717 0.9758599 0.1467717 0.9758599 0.1467717 0.0241401 -0.1467717
1003000000 0.0230268 -0.1430426 0.9769732 0.1430426 0.9769732 0.1430426 0.0230268 -0.1430426
1024000000 0.0219817 -0.1394382 0.9780183 0.1394382 0.9780183 0.1394382 0.0219817 -0.1394382
1045000000 0.0209995 -0.1359517 0.9790005 0.1359517 0.9790005 0.1359517 0.0209995 -0.1359517
1066000000 0.0200756 -0.1325770 0.9799244 0.1325770 0.9799244 0.1325770 0.0200756 -0.1325770
1087000000 0.0192058 -0.1293083 0.9807942 0.1293083 0.9807942 0.1293083 0.0192058 -0.1293083
1108000000 0.0183862 -0.1261400 0.9816138 0.1261400 0.9816138 0.1261400 0.0183862 -0.1261400
1129000000 0.0176132 -0.1230672 0.9823868 0.1230672 0.9823868 0.1230672 0.0176132 -0.1230672
1150000000 0.0168837 -0.1200850 0.9831163 0.1200850 0.9831163 0.1200850 0.0168837 -0.1200850
1171000000 0.0161946 -0.1171892 0.9838054 0.1171892 0.9838054 0.1171892 0.0161946 -0.1171892
1192000000 0.0155433 -0.1143753 0.9844567 0.1143753 0.9844567 0.1143753 0.0155433 -0.1143753
1213000000 0.0149272 -0.1116397 0.9850728 0.1116397 0.9850728 0.1116397 0.0149272 -0.1116397
1234000000 0.0143442 -0.1089785 0.9856558 0.1089785 0.9856558 0.1089785 0.0143442 -0.1089785
1255000000 0.0137921 -0.1063883 0.9862079 0.1063883 0.9862079 0.1063883 0.0137921 -0.1063883
1276000000 0.0132689 -0.1038660 0.9867311 0.1038660 0.9867311 0.1038660 0.0132689 -0.1038660
1297000000 0.0127729 -0.1014083 0.9872271 0.1014083 0.9872271 0.1014083 0.0127729 -0.1014083
1318000000 0.0123024 -0.0990125 0.9876976 0.0990125 0.9876976 0.0990125 0.0123024 -0.0990125
1339000000 0.0118559 -0.0966758 0.9881441 0.0966758 0.9881441 0.0966758 0.0118559 -0.0966758
1360000000 0.0114320 -0.0943957 0.9885680 0.0943957 0.9885680 0.0943957 0.0114320 -0.0943957
1381000000 0.0110294 -0.0921698 0.9889706 0.0921698 0.9889706 0.0921698 0.0110294 -0.0921698
1402000000 0.0106469 -0.0899957 0.9893531 0.0899957 0.9893531 0.0899957 0.0106469 -0.0899957
1423000000 0.0102832 -0.0878713 0.9897168 0.0878713 0.9897168 0.0878713 0.0102832 -0.0878713
1444000000 0.0099375 -0.0857945 0.9900625 0.0857945 0.9900625 0.0857945 0.0099375 -0.0857945
1465000000 0.0096086 -0.0837635 0.9903914 0.0837635 0.9903914 0.0837635 0.0096086 -0.0837635
1486000000 0.0092958 -0.0817763 0.9907042 0.0817763 0.9907042 0.0817763 0.0092958 -0.0817763
1507000000 0.0089981 -0.0798313 0.9910019 0.0798313 0.9910019 0.0798313 0.0089981 -0.0798313
1528000000 0.0087147 -0.0779267 0.9912853 0.0779267 0.9912853 0.0779267 0.0087147 -0.0779267
1549000000 0.0084449 -0.0760611 0.9915551 0.0760611 0.9915551 0.0760611 0.0084449 -0.0760611
1570000000 0.0081881 -0.0742329 0.9918119 0.0742329 0.9918119 0.0742329 0.0081881 -0.0742329
1591000000 0.0079435 -0.0724407 0.9920565 0.0724407 0.9920565 0.0724407 0.0079435 -0.0724407
1612000000 0.0077106 -0.0706831 0.9922894 0.0706831 0.9922894 0.0706831 0.0077106 -0.0706831
1633000000 0.0074887 -0.0689590 0.9925113 0.0689590 0.9925113 0.0689590 0.0074887 -0.0689590
1654000000 0.0072774 -0.0672670 0.9927226 0.0672670 0.9927226 0.0672670 0.0072774 -0.0672670
1675000000 0.0070761 -0.0656060 0.9929239 0.0656060 0.9929239 0.0656060 0.0070761 -0.0656060
1696000000 0.0068844 -0.0639748 0.9931156 0.0639748 0.9931156 0.0639748 0.0068844 -0.0639748
1717000000 0.0067019 -0.0623725 0.9932981 0.0623725 0.9932981 0.0623725 0.0067019 -0.0623725
1738000000 0.0065280 -0.0607980 0.9934720 0.0607980 0.9934720 0.0607980 0.0065280 -0.0607980
1759000000 0.0063625 -0.0592503 0.9936375 0.0592503 0.9936375 0.0592503 0.0063625 -0.0592503
1780000000 0.0062049 -0.0577286 0.9937951 0.0577286 0.9937951 0.0577286 0.0062049 -0.0577286
1801000000 0.0060549 -0.0562319 0.9939451 0.0562319 0.9939451 0.0562319 0.0060549 -0.0562319
1822000000 0.0059122 -0.0547594 0.9940878 0.0547594 0.9940878 0.0547594 0.0059122 -0.0547594
1843000000 0.0057764 -0.0533102 0.9942236 0.0533102 0.9942236 0.0533102 0.0057764 -0.0533102
1864000000 0.0056473 -0.0518837 0.9943527 0.0518837 0.9943527 0.0518837 0.0056473 -0.0518837
1885000000 0.0055245 -0.0504791 0.9944755 0.0504791 0.9944755 0.0504791 0.0055245 -0.0504791
1906000000 0.0054079 -0.0490957 0.9945921 0.0490957 0.9945921 0.0490957 0.0054079 -0.0490957
1927000000 0.0052972 -0.0477327 0.9947028 0.0477327 0.9947028 0.0477327 0.0052972 -0.0477327
1948000000 0.0051921 -0.0463896 0.9948079 0.0463896 0.9948079 0.0463896 0.0051921 -0.0463896
1969000000 0.0050924 -0.0450656 0.9949076 0.0450656 0.9949076 0.0450656 0.0050924 -0.0450656
1990000000 0.0049978 -0.0437603 0.9950022 0.0437603 0.9950022 0.0437603 0.0049978 -0.0437603
2011000000 0.0049083 -0.0424730 0.9950917 0.0424730 0.9950917 0.0424730 0.0049083 -0.0424730
2032000000 0.0048236 -0.0412032 0.9951764 0.0412032 0.9951764 0.0412032 0.0048236 -0.0412032
2053000000 0.0047435 -0.0399504 0.9952565 0.0399504 0.9952565 0.0399504 0.0047435 -0.0399504
2074000000 0.0046679 -0.0387139 0.9953321 0.0387139 0.9953321 0.0387139 0.0046679 -0.0387139
2095000000 0.0045966 -0.0374934 0.9954034 0.0374934 0.9954034 0.0374934 0.0045966 -0.0374934
2116000000 0.0045294 -0.0362884 0.9954706 0.0362884 0.9954706 0.0362884 0.0045294 -0.0362884
2137000000 0.0044662 -0.0350984 0.9955338 0.0350984 0.9955338 0.0350984 0.0044662 -0.0350984
2158000000 0.0044068 -0.0339229 0.9955932 0.0339229 0.9955932 0.0339229 0.0044068 -0.0339229
2179000000 0.0043512 -0.0327616 0.9956488 0.0327616 0.9956488 0.0327616 0.0043512 -0.0327616
2200000000 0.0042991 -0.0316140 0.9957009 0.0316140 0.9957009 0.0316140 0.0042991 -0.0316140
2221000000 0.0042505 -0.0304798 0.9957495 0.0304798 0.9957495 0.0304798 0.0042505 -0.0304798
2242000000 0.0042053 -0.0293585 0.9957947 0.0293585 0.9957947 0.0293585 0.0042053 -0.0293585
2263000000 0.0041633 -0.0282498 0.9958367 0.0282498 0.9958367 0.0282498 0.0041633 -0.0282498
2284000000 0.0041244 -0.0271534 0.9958756 0.0271534 0.9958756 0.0271534 0.0041244 -0.0271534
2305000000 0.0040886 -0.0260688 0.9959114 0.0260688 0.9959114 0.0260688 0.0040886 -0.0260688
2326000000 0.0040558 -0.0249958 0.9959442 0.0249958 0.9959442 0.0249958 0.0040558 -0.0249958
2347000000 0.0040258 -0.0239341 0.9959742 0.0239341 0.9959742 0.0239341 0.0040258 -0.0239341
2368000000 0.0039985 -0.0228833 0.9960015 0.0228833 0.9960015 0.0228833 0.0039985 -0.0228833
2389000000 0.0039740 -0.0218432 0.9960260 0.0218432 0.9960260 0.0218432 0.0039740 -0.0218432
2410000000 0.0039521 -0.0208134 0.9960479 0.0208134 0.9960479 0.0208134 0.0039521 -0.0208134
2431000000 0.0039327 -0.0197937 0.9960673 0.0197937 0.9960673 0.0197937 0.0039327 -0.0197937
2452000000 0.0039157 -0.0187838 0.9960843 0.0187838 0.9960843 0.0187838 0.0039157 -0.0187838
2473000000 0.0039012 -0.0177835 0.9960988 0.0177835 0.9960988 0.0177835 0.0039012 -0.0177835
2494000000 0.0038890 -0.0167924 0.9961110 0.0167924 0.9961110 0.0167924 0.0038890 -0.0167924
2515000000 0.0038790 -0.0158104 0.9961210 0.0158104 0.9961210 0.0158104 0.0038790 -0.0158104
2536000000 0.0038713 -0.0148372 0.9961287 0.0148372 0.9961287 0.0148372 0.0038713 -0.0148372
2557000000 0.0038657 -0.0138726 0.9961343 0.0138726 0.9961343 0.0138726 0.0038657 -0.0138726
2578000000 0.0038622 -0.0129164 0.9961378 0.0129164 0.9961378 0.0129164 0.0038622 -0.0129164
2599000000 0.0038608 -0.0119683 0.9961392 0.0119683 0.9961392 0.0119683 0.0038608 -0.0119683
2620000000 0.0038614 -0.0110281 0.9961386 0.0110281 0.9961386 0.0110281 0.0038614 -0.0110281
2641000000 0.0038639 -0.0100957 0.9961361 0.0100957 0.9961361 0.0100957 0.0038639 -0.0100957
2662000000 0.0038683 -0.0091708 0.9961317 0.0091708 0.9961317 0.0091708 0.0038683 -0.0091708
2683000000 0.0038746 -0.0082533 0.9961254 0.0082533 0.9961254 0.0082533 0.0038746 -0.0082533
2704000000 0.0038828 -0.0073429 0.9961172 0.0073429 0.9961172 0.0073429 0.0038828 -0.0073429
2725000000 0.0038927 -0.0064395 0.9961073 0.0064395 0.9961073 0.0064395 0.0038927 -0.0064395
2746000000 0.0039043 -0.0055429 0.9960957 0.0055429 0.9960957 0.0055429 0.0039043 -0.0055429
2767000000 0.0039177 -0.0046529 0.9960823 0.0046529 0.9960823 0.0046529 0.0039177 -0.0046529
2788000000 0.0039327 -0.0037694 0.9960673 0.0037694 0.9960673 0.0037694 0.0039327 -0.0037694
2809000000 0.0039494 -0.0028922 0.9960506 0.0028922 0.9960506 0.0028922 0.0039494 -0.0028922
2830000000 0.0039678 -0.0020211 0.9960322 0.0020211 0.9960322 0.0020211 0.0039678 -0.0020211
2851000000 0.0039877 -0.0011560 0.9960123 0.0011560 0.9960123 0.0011560 0.0039877 -0.0011560
2872000000 0.0040091 -0.0002968 0.9959909 0.0002968 0.9959909 0.0002968 0.0040091 -0.0002968
2893000000 0.0040321 0.0005567 0.9959679 -0.0005567 0.9959679 -0.0005567 0.0040321 0.0005567
2914000000 0.0040566 0.0014046 0.9959434 -0.0014046 0.9959434 -0.0014046 0.0040566 0.0014046
2935000000 0.0040826 0.0022472 0.9959174 -0.0022472 0.9959174 -0.0022472 0.0040826 0.0022472
2956000000 0.0041101 0.0030844 0.9958899 -0.0030844 0.9958899 -0.0030844 0.0041101 0.0030844
2977000000 0.0041390 0.0039164 0.9958610 -0.0039164 0.9958610 -0.0039164 0.0041390 0.0039164
2998000000 0.0041693 0.0047435 0.9958307 -0.0047435 0.9958307 -0.0047435 0.0041693 0.0047435
3019000000 0.0042010 0.0055656 0.9957990 -0.0055656 0.9957990 -0.0055656 0.0042010 0.0055656
3040000000 0.0042341 0.0063829 0.9957659 -0.0063829 0.9957659 -0.0063829 0.0042341 0.0063829
3061000000 0.0042686 0.0071955 0.9957314 -0.0071955 0.9957314 -0.0071955 0.0042686 0.0071955
3082000000 0.0043044 0.0080036 0.9956956 -0.0080036 0.9956956 -0.0080036 0.0043044 0.0080036
3103000000 0.0043416 0.0088072 0.9956584 -0.0088072 0.9956584 -0.0088072 0.0043416 0.0088072
3124000000 0.0043801 0.0096065 0.9956199 -0.0096065 0.9956199 -0.0096065 0.0043801 0.0096065
3145000000 0.0044199 0.0104015 0.9955801 -0.0104015 0.9955801 -0.0104015 0.0044199 0.0104015
3166000000 0.0044609 0.0111924 0.9955391 -0.0111924 0.9955391 -0.0111924 0.0044609 0.0111924
3187000000 0.0045033 0.0119793 0.9954967 -0.0119793 0.9954967 -0.0119793 0.0045033 0.0119793
3208000000 0.0045470 0.0127622 0.9954530 -0.0127622 0.9954530 -0.0127622 0.0045470 0.0127622
3229000000 0.0045919 0.0135413 0.9954081 -0.0135413 0.9954081 -0.0135413 0.0045919 0.0135413
3250000000 0.0046381 0.0143166 0.9953619 -0.0143166 0.9953619 -0.0143166 0.0046381 0.0143166
3271000000 0.0046855 0.0150883 0.9953145 -0.0150883 0.9953145 -0.0150883 0.0046855 0.0150883
3292000000 0.0047342 0.0158564 0.9952658 -0.0158564 0.9952658 -0.0158564 0.0047342 0.0158564
3313000000 0.0047841 0.0166211 0.9952159 -0.0166211 0.9952159 -0.0166211 0.0047841 0.0166211
3334000000 0.0048352 0.0173823 0.9951648 -0.0173823 0.9951648 -0.0173823 0.0048352 0.0173823
3355000000 0.0048876 0.0181403 0.9951124 -0.0181403 0.9951124 -0.0181403 0.0048876 0.0181403
3376000000 0.0049412 0.0188950 0.9950588 -0.0188950 0.9950588 -0.0188950 0.0049412 0.0188950
3397000000 0.0049960 0.0196465 0.9950040 -0.0196465 0.9950040 -0.0196465 0.0049960 0.0196465
3418000000 0.0050520 0.0203950 0.9949480 -0.0203950 0.9949480 -0.0203950 0.0050520 0.0203950
3439000000 0.0051092 0.0211405 0.9948908 -0.0211405 0.9948908 -0.0211405 0.0051092 0.0211405
3460000000 0.0051676 0.0218831 0.9948324 -0.0218831 0.9948324 -0.0218831 0.0051676 0.0218831
3481000000 0.0052273 0.0226229 0.9947727 -0.0226229 0.9947727 -0.0226229 0.0052273 0.0226229
3502000000 0.0052881 0.0233598 0.9947119 -0.0233598 0.9947119 -0.0233598 0.0052881 0.0233598
3523000000 0.0053502 0.0240941 0.9946498 -0.0240941 0.9946498 -0.0240941 0.0053502 0.0240941
3544000000 0.0054134 0.0248257 0.9945866 -0.0248257 0.9945866 -0.0248257 0.0054134 0.0248257
3565000000 0.0054779 0.0255548 0.9945221 -0.0255548 0.9945221 -0.0255548 0.0054779 0.0255548
3586000000 0.0055436 0.0262813 0.9944564 -0.0262813 0.9944564 -0.0262813 0.0055436 0.0262813
3607000000 0.0056105 0.0270054 0.9943895 -0.0270054 0.9943895 -0.0270054 0.0056105 0.0270054
3628000000 0.0056786 0.0277272 0.9943214 -0.0277272 0.9943214 -0.0277272 0.0056786 0.0277272
3649000000 0.0057480 0.0284466 0.9942520 -0.0284466 0.9942520 -0.0284466 0.0057480 0.0284466
3670000000 0.0058185 0.0291637 0.9941815 -0.0291637 0.9941815 -0.0291637 0.0058185 0.0291637
3691000000 0.0058903 0.0298787 0.9941097 -0.0298787 0.9941097 -0.0298787 0.0058903 0.0298787
3712000000 0.0059634 0.0305915 0.9940366 -0.0305915 0.9940366 -0.0305915 0.0059634 0.0305915
3733000000 0.0060377 0.0313023 0.9939623 -0.0313023 0.9939623 -0.0313023 0.0060377 0.0313023
3754000000 0.0061132 0.0320110 0.9938868 -0.0320110 0.9938868 -0.0320110 0.0061132 0.0320110
3775000000 0.0061900 0.0327177 0.9938100 -0.0327177 0.9938100 -0.0327177 0.0061900 0.0327177
3796000000 0.0062681 0.0334225 0.9937319 -0.0334225 0.9937319 -0.0334225 0.0062681 0.0334225
3817000000 0.0063474 0.0341255 0.9936526 -0.0341255 0.9936526 -0.0341255 0.0063474 0.0341255
3838000000 0.0064281 0.0348266 0.9935719 -0.0348266 0.9935719 -0.0348266 0.0064281 0.0348266
3859000000 0.0065100 0.0355259 0.9934900 -0.0355259 0.9934900 -0.0355259 0.0065100 0.0355259
3880000000 0.0065932 0.0362235 0.9934068 -0.0362235 0.9934068 -0.0362235 0.0065932 0.0362235
3901000000 0.0066778 0.0369195 0.9933222 -0.0369195 0.9933222 -0.0369195 0.0066778 0.0369195
3922000000 0.0067637 0.0376137 0.9932363 -0.0376137 0.9932363 -0.0376137 0.0067637 0.0376137
3943000000 0.0068509 0.0383065 0.9931491 -0.0383065 0.9931491 -0.0383065 0.0068509 0.0383065
3964000000 0.0069395 0.0389976 0.9930605 -0.0389976 0.9930605 -0.0389976 0.0069395 0.0389976
3985000000 0.0070295 0.0396873 0.9929705 -0.0396873 0.9929705 -0.0396873 0.0070295 0.0396873
4006000000 0.0071208 0.0403754 0.9928792 -0.0403754 0.9928792 -0.0403754 0.0071208 0.0403754
4027000000 0.0072136 0.0410622 0.9927864 -0.0410622 0.9927864 -0.0410622 0.0072136 0.0410622
4048000000 0.0073077 0.0417476 0.9926923 -0.0417476 0.9926923 -0.0417476 0.0073077 0.0417476
4069000000 0.0074033 0.0424316 0.9925967 -0.0424316 0.9925967 -0.0424316 0.0074033 0.0424316
4090000000 0.0075003 0.0431143 0.9924997 -0.0431143 0.9924997 -0.0431143 0.0075003 0.0431143
4111000000 0.0075988 0.0437957 0.9924012 -0.0437957 0.9924012 -0.0437957 0.0075988 0.0437957
4132000000 0.0076988 0.0444759 0.9923012 -0.0444759 0.9923012 -0.0444759 0.0076988 0.0444759
4153000000 0.0078003 0.0451548 0.9921997 -0.0451548 0.9921997 -0.0451548 0.0078003 0.0451548
4174000000 0.0079033 0.0458326 0.9920967 -0.0458326 0.9920967 -0.0458326 0.0079033 0.0458326
4195000000 0.0080079 0.0465092 0.9919921 -0.0465092 0.9919921 -0.0465092 0.0080079 0.0465092
4216000000 0.0081140 0.0471847 0.9918860 -0.0471847 0.9918860 -0.0471847 0.0081140 0.0471847
4237000000 0.0082217 0.0478591 0.9917783 -0.0478591 0.9917783 -0.0478591 0.0082217 0.0478591
4258000000 0.0083310 0.0485324 0.9916690 -0.0485324 0.9916690 -0.0485324 0.0083310 0.0485324
4279000000 0.0084420 0.0492047 0.9915580 -0.0492047 0.9915580 -0.0492047 0.0084420 0.0492047
4300000000 0.0085545 0.0498759 0.9914455 -0.0498759 0.9914455 -0.0498759 0.0085545 0.0498759
4321000000 0.0086688 0.0505462 0.9913312 -0.0505462 0.9913312 -0.0505462 0.0086688 0.0505462
4342000000 0.0087848 0.0512154 0.9912152 -0.0512154 0.9912152 -0.0512154 0.0087848 0.0512154
4363000000 0.0089024 0.0518837 0.9910976 -0.0518837 0.9910976 -0.0518837 0.0089024 0.0518837
4384000000 0.0090219 0.0525510 0.9909781 -0.0525510 0.9909781 -0.0525510 0.0090219 0.0525510
4405000000 0.0091431 0.0532174 0.9908569 -0.0532174 0.9908569 -0.0532174 0.0091431 0.0532174
4426000000 0.0092661 0.0538828 0.9907339 -0.0538828 0.9907339 -0.0538828 0.0092661 0.0538828
4447000000 0.0093909 0.0545474 0.9906091 -0.0545474 0.9906091 -0.0545474 0.0093909 0.0545474
4468000000 0.0095175 0.0552110 0.9904825 -0.0552110 0.9904825 -0.0552110 0.0095175 0.0552110
4489000000 0.0096461 0.0558737 0.9903539 -0.0558737 0.9903539 -0.0558737 0.0096461 0.0558737
4510000000 0.0097765 0.0565356 0.9902235 -0.0565356 0.9902235 -0.0565356 0.0097765 0.0565356
