!Murata Part Number: GRM1552C1H220GA01
!These Parameters are Measured in Series Mode Connection
!Data Generated on Mar 30, 2021
!       o--ll--o
!Port1            Port2
!       o------o
!Operation Temp=25[degC], DC Bias Voltage=0[V]
!Freq. Start=100[MHz] Stop=9[GHz] 401[Steps]
# Hz S RI R 50
!Freq.(Hz) S11(Real) S11(Imag) S21(Real) S21(Imag) S12(Real) S12(Imag) S22(Real) S22(Imag)
100000000 0.3423145 -0.4736463 0.6576855 0.4736463 0.6576855 0.4736463 0.3423145 -0.4736463
121000000 0.2618802 -0.4386389 0.7381198 0.4386389 0.7381198 0.4386389 0.2618802 -0.4386389
142000000 0.2044617 -0.4021051 0.7955383 0.4021051 0.7955383 0.4021051 0.2044617 -0.4021051
163000000 0.1628479 -0.3678371 0.8371521 0.3678371 0.8371521 0.3678371 0.1628479 -0.3678371
184000000 0.1320886 -0.3370064 0.8679114 0.3370064 0.8679114 0.3370064 0.1320886 -0.3370064
205000000 0.1088867 -0.3097211 0.8911133 0.3097211 0.8911133 0.3097211 0.1088867 -0.3097211
226000000 0.0910446 -0.2856965 0.9089554 0.2856965 0.9089554 0.2856965 0.0910446 -0.2856965
247000000 0.0770792 -0.2645358 0.9229208 0.2645358 0.9229208 0.2645358 0.0770792 -0.2645358
268000000 0.0659721 -0.2458408 0.9340279 0.2458408 0.9340279 0.2458408 0.0659721 -0.2458408
289000000 0.0570104 -0.2292526 0.9429896 0.2292526 0.9429896 0.2292526 0.0570104 -0.2292526
310000000 0.0496863 -0.2144617 0.9503137 0.2144617 0.9503137 0.2144617 0.0496863 -0.2144617
331000000 0.0436310 -0.2012068 0.9563690 0.2012068 0.9563690 0.2012068 0.0436310 -0.2012068
352000000 0.0385726 -0.1892688 0.9614274 0.1892688 0.9614274 0.1892688 0.0385726 -0.1892688
373000000 0.0343076 -0.1784650 0.9656924 0.1784650 0.9656924 0.1784650 0.0343076 -0.1784650
394000000 0.0306810 -0.1686424 0.9693190 0.1686424 0.9693190 0.1686424 0.0306810 -0.1686424
415000000 0.0275739 -0.1596730 0.9724261 0.1596730 0.9724261 0.1596730 0.0275739 -0.1596730
436000000 0.0248934 -0.1514489 0.9751066 0.1514489 0.9751066 0.1514489 0.0248934 -0.1514489
457000000 0.0225664 -0.1438791 0.9774336 0.1438791 0.9774336 0.1438791 0.0225664 -0.1438791
478000000 0.0205348 -0.1368861 0.9794652 0.1368861 0.9794652 0.1368861 0.0205348 -0.1368861
499000000 0.0187517 -0.1304039 0.9812483 0.1304039 0.9812483 0.1304039 0.0187517 -0.1304039
520000000 0.0171794 -0.1243760 0.9828206 0.1243760 0.9828206 0.1243760 0.0171794 -0.1243760
541000000 0.0157868 -0.1187537 0.9842132 0.1187537 0.9842132 0.1187537 0.0157868 -0.1187537
562000000 0.0145486 -0.1134948 0.9854514 0.1134948 0.9854514 0.1134948 0.0145486 -0.1134948
583000000 0.0134435 -0.1085628 0.9865565 0.1085628 0.9865565 0.1085628 0.0134435 -0.1085628
604000000 0.0124539 -0.1039256 0.9875461 0.1039256 0.9875461 0.1039256 0.0124539 -0.1039256
625000000 0.0115651 -0.0995553 0.9884349 0.0995553 0.9884349 0.0995553 0.0115651 -0.0995553
646000000 0.0107645 -0.0954274 0.9892355 0.0954274 0.9892355 0.0954274 0.0107645 -0.0954274
667000000 0.0100415 -0.0915201 0.9899585 0.0915201 0.9899585 0.0915201 0.0100415 -0.0915201
688000000 0.0093870 -0.0878141 0.9906130 0.0878141 0.9906130 0.0878141 0.0093870 -0.0878141
709000000 0.0087933 -0.0842925 0.9912067 0.0842925 0.9912067 0.0842925 0.0087933 -0.0842925
730000000 0.0082537 -0.0809400 0.9917463 0.0809400 0.9917463 0.0809400 0.0082537 -0.0809400
751000000 0.0077624 -0.0777430 0.9922376 0.0777430 0.9922376 0.0777430 0.0077624 -0.0777430
772000000 0.0073144 -0.0746894 0.9926856 0.0746894 0.9926856 0.0746894 0.0073144 -0.0746894
793000000 0.0069052 -0.0717680 0.9930948 0.0717680 0.9930948 0.0717680 0.0069052 -0.0717680
814000000 0.0065310 -0.0689692 0.9934690 0.0689692 0.9934690 0.0689692 0.0065310 -0.0689692
835000000 0.0061885 -0.0662838 0.9938115 0.0662838 0.9938115 0.0662838 0.0061885 -0.0662838
856000000 0.0058746 -0.0637039 0.9941254 0.0637039 0.9941254 0.0637039 0.0058746 -0.0637039
877000000 0.0055868 -0.0612221 0.9944132 0.0612221 0.9944132 0.0612221 0.0055868 -0.0612221
898000000 0.0053228 -0.0588317 0.9946772 0.0588317 0.9946772 0.0588317 0.0053228 -0.0588317
919000000 0.0050803 -0.0565266 0.9949197 0.0565266 0.9949197 0.0565266 0.0050803 -0.0565266
940000000 0.0048577 -0.0543013 0.9951423 0.0543013 0.9951423 0.0543013 0.0048577 -0.0543013
961000000 0.0046533 -0.0521506 0.9953467 0.0521506 0.9953467 0.0521506 0.0046533 -0.0521506
982000000 0.0044654 -0.0500699 0.9955346 0.0500699 0.9955346 0.0500699 0.0044654 -0.0500699
1003000000 0.0042930 -0.0480549 0.9957070 0.0480549 0.9957070 0.0480549 0.0042930 -0.0480549
1024000000 0.0041347 -0.0461015 0.9958653 0.0461015 0.9958653 0.0461015 0.0041347 -0.0461015
1045000000 0.0039894 -0.0442063 0.9960106 0.0442063 0.9960106 0.0442063 0.0039894 -0.0442063
1066000000 0.0038563 -0.0423657 0.9961437 0.0423657 0.9961437 0.0423657 0.0038563 -0.0423657
1087000000 0.0037343 -0.0405767 0.9962657 0.0405767 0.9962657 0.0405767 0.0037343 -0.0405767
1108000000 0.0036228 -0.0388364 0.9963772 0.0388364 0.9963772 0.0388364 0.0036228 -0.0388364
1129000000 0.0035209 -0.0371421 0.9964791 0.0371421 0.9964791 0.0371421 0.0035209 -0.0371421
1150000000 0.0034280 -0.0354913 0.9965720 0.0354913 0.9965720 0.0354913 0.0034280 -0.0354913
1171000000 0.0033436 -0.0338817 0.9966564 0.0338817 0.9966564 0.0338817 0.0033436 -0.0338817
1192000000 0.0032670 -0.0323112 0.9967330 0.0323112 0.9967330 0.0323112 0.0032670 -0.0323112
1213000000 0.0031977 -0.0307777 0.9968023 0.0307777 0.9968023 0.0307777 0.0031977 -0.0307777
1234000000 0.0031354 -0.0292794 0.9968646 0.0292794 0.9968646 0.0292794 0.0031354 -0.0292794
1255000000 0.0030795 -0.0278144 0.9969205 0.0278144 0.9969205 0.0278144 0.0030795 -0.0278144
1276000000 0.0030296 -0.0263812 0.9969704 0.0263812 0.9969704 0.0263812 0.0030296 -0.0263812
1297000000 0.0029855 -0.0249782 0.9970145 0.0249782 0.9970145 0.0249782 0.0029855 -0.0249782
1318000000 0.0029468 -0.0236040 0.9970532 0.0236040 0.9970532 0.0236040 0.0029468 -0.0236040
1339000000 0.0029131 -0.0222572 0.9970869 0.0222572 0.9970869 0.0222572 0.0029131 -0.0222572
1360000000 0.0028842 -0.0209365 0.9971158 0.0209365 0.9971158 0.0209365 0.0028842 -0.0209365
1381000000 0.0028598 -0.0196407 0.9971402 0.0196407 0.9971402 0.0196407 0.0028598 -0.0196407
1402000000 0.0028397 -0.0183687 0.9971603 0.0183687 0.9971603 0.0183687 0.0028397 -0.0183687
1423000000 0.0028237 -0.0171195 0.9971763 0.0171195 0.9971763 0.0171195 0.0028237 -0.0171195
1444000000 0.0028116 -0.0158919 0.9971884 0.0158919 0.9971884 0.0158919 0.0028116 -0.0158919
1465000000 0.0028031 -0.0146851 0.9971969 0.0146851 0.9971969 0.0146851 0.0028031 -0.0146851
1486000000 0.0027981 -0.0134982 0.9972019 0.0134982 0.9972019 0.0134982 0.0027981 -0.0134982
1507000000 0.0027965 -0.0123303 0.9972035 0.0123303 0.9972035 0.0123303 0.0027965 -0.0123303
1528000000 0.0027980 -0.0111806 0.9972020 0.0111806 0.9972020 0.0111806 0.0027980 -0.0111806
1549000000 0.0028025 -0.0100483 0.9971975 0.0100483 0.9971975 0.0100483 0.0028025 -0.0100483
1570000000 0.0028100 -0.0089327 0.9971900 0.0089327 0.9971900 0.0089327 0.0028100 -0.0089327
1591000000 0.0028202 -0.0078331 0.9971798 0.0078331 0.9971798 0.0078331 0.0028202 -0.0078331
1612000000 0.0028331 -0.0067489 0.9971669 0.0067489 0.9971669 0.0067489 0.0028331 -0.0067489
1633000000 0.0028486 -0.0056795 0.9971514 0.0056795 0.9971514 0.0056795 0.0028486 -0.0056795
1654000000 0.0028665 -0.0046241 0.9971335 0.0046241 0.9971335 0.0046241 0.0028665 -0.0046241
1675000000 0.0028868 -0.0035824 0.9971132 0.0035824 0.9971132 0.0035824 0.0028868 -0.0035824
1696000000 0.0029094 -0.0025537 0.9970906 0.0025537 0.9970906 0.0025537 0.0029094 -0.0025537
1717000000 0.0029342 -0.0015376 0.9970658 0.0015376 0.9970658 0.0015376 0.0029342 -0.0015376
1738000000 0.0029612 -0.0005335 0.9970388 0.0005335 0.9970388 0.0005335 0.0029612 -0.0005335
1759000000 0.0029902 0.0004591 0.9970098 -0.0004591 0.9970098 -0.0004591 0.0029902 0.0004591
1780000000 0.0030212 0.0014405 0.9969788 -0.0014405 0.9969788 -0.0014405 0.0030212 0.0014405
1801000000 0.0030542 0.0024112 0.9969458 -0.0024112 0.9969458 -0.0024112 0.0030542 0.0024112
1822000000 0.0030891 0.0033716 0.9969109 -0.0033716 0.9969109 -0.0033716 0.0030891 0.0033716
1843000000 0.0031258 0.0043221 0.9968742 -0.0043221 0.9968742 -0.0043221 0.0031258 0.0043221
1864000000 0.0031644 0.0052631 0.9968356 -0.0052631 0.9968356 -0.0052631 0.0031644 0.0052631
1885000000 0.0032047 0.0061949 0.9967953 -0.0061949 0.9967953 -0.0061949 0.0032047 0.0061949
1906000000 0.0032467 0.0071179 0.9967533 -0.0071179 0.9967533 -0.0071179 0.0032467 0.0071179
1927000000 0.0032905 0.0080324 0.9967095 -0.0080324 0.9967095 -0.0080324 0.0032905 0.0080324
1948000000 0.0033358 0.0089387 0.9966642 -0.0089387 0.9966642 -0.0089387 0.0033358 0.0089387
1969000000 0.0033829 0.0098372 0.9966171 -0.0098372 0.9966171 -0.0098372 0.0033829 0.0098372
1990000000 0.0034315 0.0107281 0.9965685 -0.0107281 0.9965685 -0.0107281 0.0034315 0.0107281
2011000000 0.0034817 0.0116117 0.9965183 -0.0116117 0.9965183 -0.0116117 0.0034817 0.0116117
2032000000 0.0035335 0.0124883 0.9964665 -0.0124883 0.9964665 -0.0124883 0.0035335 0.0124883
2053000000 0.0035869 0.0133582 0.9964131 -0.0133582 0.9964131 -0.0133582 0.0035869 0.0133582
2074000000 0.0036417 0.0142215 0.9963583 -0.0142215 0.9963583 -0.0142215 0.0036417 0.0142215
2095000000 0.0036981 0.0150786 0.9963019 -0.0150786 0.9963019 -0.0150786 0.0036981 0.0150786
2116000000 0.0037561 0.0159297 0.9962439 -0.0159297 0.9962439 -0.0159297 0.0037561 0.0159297
2137000000 0.0038155 0.0167750 0.9961845 -0.0167750 0.9961845 -0.0167750 0.0038155 0.0167750
2158000000 0.0038764 0.0176147 0.9961236 -0.0176147 0.9961236 -0.0176147 0.0038764 0.0176147
2179000000 0.0039389 0.0184491 0.9960611 -0.0184491 0.9960611 -0.0184491 0.0039389 0.0184491
2200000000 0.0040028 0.0192783 0.9959972 -0.0192783 0.9959972 -0.0192783 0.0040028 0.0192783
2221000000 0.0040683 0.0201026 0.9959317 -0.0201026 0.9959317 -0.0201026 0.0040683 0.0201026
2242000000 0.0041352 0.0209221 0.9958648 -0.0209221 0.9958648 -0.0209221 0.0041352 0.0209221
2263000000 0.0042037 0.0217370 0.9957963 -0.0217370 0.9957963 -0.0217370 0.0042037 0.0217370
2284000000 0.0042737 0.0225475 0.9957263 -0.0225475 0.9957263 -0.0225475 0.0042737 0.0225475
2305000000 0.0043453 0.0233539 0.9956547 -0.0233539 0.9956547 -0.0233539 0.0043453 0.0233539
2326000000 0.0044184 0.0241561 0.9955816 -0.0241561 0.9955816 -0.0241561 0.0044184 0.0241561
2347000000 0.0044930 0.0249546 0.9955070 -0.0249546 0.9955070 -0.0249546 0.0044930 0.0249546
2368000000 0.0045693 0.0257493 0.9954307 -0.0257493 0.9954307 -0.0257493 0.0045693 0.0257493
2389000000 0.0046472 0.0265404 0.9953528 -0.0265404 0.9953528 -0.0265404 0.0046472 0.0265404
2410000000 0.0047267 0.0273282 0.9952733 -0.0273282 0.9952733 -0.0273282 0.0047267 0.0273282
2431000000 0.0048078 0.0281126 0.9951922 -0.0281126 0.9951922 -0.0281126 0.0048078 0.0281126
2452000000 0.0048907 0.0288940 0.9951093 -0.0288940 0.9951093 -0.0288940 0.0048907 0.0288940
2473000000 0.0049753 0.0296725 0.9950247 -0.0296725 0.9950247 -0.0296725 0.0049753 0.0296725
2494000000 0.0050616 0.0304481 0.9949384 -0.0304481 0.9949384 -0.0304481 0.0050616 0.0304481
2515000000 0.0051497 0.0312210 0.9948503 -0.0312210 0.9948503 -0.0312210 0.0051497 0.0312210
2536000000 0.0052397 0.0319913 0.9947603 -0.0319913 0.9947603 -0.0319913 0.0052397 0.0319913
2557000000 0.0053316 0.0327592 0.9946684 -0.0327592 0.9946684 -0.0327592 0.0053316 0.0327592
2578000000 0.0054254 0.0335248 0.9945746 -0.0335248 0.9945746 -0.0335248 0.0054254 0.0335248
2599000000 0.0055211 0.0342882 0.9944789 -0.0342882 0.9944789 -0.0342882 0.0055211 0.0342882
2620000000 0.0056190 0.0350496 0.9943810 -0.0350496 0.9943810 -0.0350496 0.0056190 0.0350496
2641000000 0.0057189 0.0358090 0.9942811 -0.0358090 0.9942811 -0.0358090 0.0057189 0.0358090
2662000000 0.0058210 0.0365666 0.9941790 -0.0365666 0.9941790 -0.0365666 0.0058210 0.0365666
2683000000 0.0059253 0.0373224 0.9940747 -0.0373224 0.9940747 -0.0373224 0.0059253 0.0373224
2704000000 0.0060320 0.0380767 0.9939680 -0.0380767 0.9939680 -0.0380767 0.0060320 0.0380767
2725000000 0.0061410 0.0388294 0.9938590 -0.0388294 0.9938590 -0.0388294 0.0061410 0.0388294
2746000000 0.0062526 0.0395807 0.9937474 -0.0395807 0.9937474 -0.0395807 0.0062526 0.0395807
2767000000 0.0063667 0.0403307 0.9936333 -0.0403307 0.9936333 -0.0403307 0.0063667 0.0403307
2788000000 0.0064835 0.0410794 0.9935165 -0.0410794 0.9935165 -0.0410794 0.0064835 0.0410794
2809000000 0.0066030 0.0418271 0.9933970 -0.0418271 0.9933970 -0.0418271 0.0066030 0.0418271
2830000000 0.0067255 0.0425737 0.9932745 -0.0425737 0.9932745 -0.0425737 0.0067255 0.0425737
2851000000 0.0068510 0.0433193 0.9931490 -0.0433193 0.9931490 -0.0433193 0.0068510 0.0433193
2872000000 0.0069797 0.0440641 0.9930203 -0.0440641 0.9930203 -0.0440641 0.0069797 0.0440641
2893000000 0.0071116 0.0448080 0.9928884 -0.0448080 0.9928884 -0.0448080 0.0071116 0.0448080
2914000000 0.0072470 0.0455512 0.9927530 -0.0455512 0.9927530 -0.0455512 0.0072470 0.0455512
2935000000 0.0073861 0.0462938 0.9926139 -0.0462938 0.9926139 -0.0462938 0.0073861 0.0462938
2956000000 0.0075289 0.0470357 0.9924711 -0.0470357 0.9924711 -0.0470357 0.0075289 0.0470357
2977000000 0.0076756 0.0477770 0.9923244 -0.0477770 0.9923244 -0.0477770 0.0076756 0.0477770
2998000000 0.0078266 0.0485178 0.9921734 -0.0485178 0.9921734 -0.0485178 0.0078266 0.0485178
3019000000 0.0079819 0.0492580 0.9920181 -0.0492580 0.9920181 -0.0492580 0.0079819 0.0492580
3040000000 0.0081418 0.0499978 0.9918582 -0.0499978 0.9918582 -0.0499978 0.0081418 0.0499978
3061000000 0.0083066 0.0507370 0.9916934 -0.0507370 0.9916934 -0.0507370 0.0083066 0.0507370
3082000000 0.0084765 0.0514757 0.9915235 -0.0514757 0.9915235 -0.0514757 0.0084765 0.0514757
3103000000 0.0086518 0.0522139 0.9913482 -0.0522139 0.9913482 -0.0522139 0.0086518 0.0522139
3124000000 0.0088328 0.0529515 0.9911672 -0.0529515 0.9911672 -0.0529515 0.0088328 0.0529515
3145000000 0.0090198 0.0536883 0.9909802 -0.0536883 0.9909802 -0.0536883 0.0090198 0.0536883
3166000000 0.0092132 0.0544244 0.9907868 -0.0544244 0.9907868 -0.0544244 0.0092132 0.0544244
3187000000 0.0094133 0.0551596 0.9905867 -0.0551596 0.9905867 -0.0551596 0.0094133 0.0551596
3208000000 0.0096204 0.0558937 0.9903796 -0.0558937 0.9903796 -0.0558937 0.0096204 0.0558937
3229000000 0.0098351 0.0566265 0.9901649 -0.0566265 0.9901649 -0.0566265 0.0098351 0.0566265
3250000000 0.0100577 0.0573577 0.9899423 -0.0573577 0.9899423 -0.0573577 0.0100577 0.0573577
3271000000 0.0102886 0.0580871 0.9897114 -0.0580871 0.9897114 -0.0580871 0.0102886 0.0580871
3292000000 0.0105283 0.0588143 0.9894717 -0.0588143 0.9894717 -0.0588143 0.0105283 0.0588143
3313000000 0.0107773 0.0595388 0.9892227 -0.0595388 0.9892227 -0.0595388 0.0107773 0.0595388
3334000000 0.0110361 0.0602601 0.9889639 -0.0602601 0.9889639 -0.0602601 0.0110361 0.0602601
3355000000 0.0113051 0.0609777 0.9886949 -0.0609777 0.9886949 -0.0609777 0.0113051 0.0609777
3376000000 0.0115849 0.0616908 0.9884151 -0.0616908 0.9884151 -0.0616908 0.0115849 0.0616908
3397000000 0.0118760 0.0623986 0.9881240 -0.0623986 0.9881240 -0.0623986 0.0118760 0.0623986
3418000000 0.0121787 0.0631002 0.9878213 -0.0631002 0.9878213 -0.0631002 0.0121787 0.0631002
3439000000 0.0124936 0.0637946 0.9875064 -0.0637946 0.9875064 -0.0637946 0.0124936 0.0637946
3460000000 0.0128209 0.0644805 0.9871791 -0.0644805 0.9871791 -0.0644805 0.0128209 0.0644805
3481000000 0.0131610 0.0651565 0.9868390 -0.0651565 0.9868390 -0.0651565 0.0131610 0.0651565
3502000000 0.0135141 0.0658212 0.9864859 -0.0658212 0.9864859 -0.0658212 0.0135141 0.0658212
3523000000 0.0138800 0.0664727 0.9861200 -0.0664727 0.9861200 -0.0664727 0.0138800 0.0664727
3544000000 0.0142588 0.0671094 0.9857412 -0.0671094 0.9857412 -0.0671094 0.0142588 0.0671094
3565000000 0.0146500 0.0677290 0.9853500 -0.0677290 0.9853500 -0.0677290 0.0146500 0.0677290
3586000000 0.0150528 0.0683294 0.9849472 -0.0683294 0.9849472 -0.0683294 0.0150528 0.0683294
3607000000 0.0154662 0.0689083 0.9845338 -0.0689083 0.9845338 -0.0689083 0.0154662 0.0689083
3628000000 0.0158889 0.0694632 0.9841111 -0.0694632 0.9841111 -0.0694632 0.0158889 0.0694632
3649000000 0.0163188 0.0699918 0.9836812 -0.0699918 0.9836812 -0.0699918 0.0163188 0.0699918
3670000000 0.0167535 0.0704917 0.9832465 -0.0704917 0.9832465 -0.0704917 0.0167535 0.0704917
3691000000 0.0171900 0.0709607 0.9828100 -0.0709607 0.9828100 -0.0709607 0.0171900 0.0709607
3712000000 0.0176246 0.0713969 0.9823754 -0.0713969 0.9823754 -0.0713969 0.0176246 0.0713969
3733000000 0.0180532 0.0717988 0.9819468 -0.0717988 0.9819468 -0.0717988 0.0180532 0.0717988
3754000000 0.0184711 0.0721657 0.9815289 -0.0721657 0.9815289 -0.0721657 0.0184711 0.0721657
3775000000 0.0188729 0.0724975 0.9811271 -0.0724975 0.9811271 -0.0724975 0.0188729 0.0724975
3796000000 0.0192533 0.0727950 0.9807467 -0.0727950 0.9807467 -0.0727950 0.0192533 0.0727950
3817000000 0.0196067 0.0730603 0.9803933 -0.0730603 0.9803933 -0.0730603 0.0196067 0.0730603
3838000000 0.0199274 0.0732964 0.9800726 -0.0732964 0.9800726 -0.0732964 0.0199274 0.0732964
3859000000 0.0202106 0.0735076 0.9797894 -0.0735076 0.9797894 -0.0735076 0.0202106 0.0735076
3880000000 0.0204519 0.0736992 0.9795481 -0.0736992 0.9795481 -0.0736992 0.0204519 0.0736992
3901000000 0.0206478 0.0738774 0.9793522 -0.0738774 0.9793522 -0.0738774 0.0206478 0.0738774
3922000000 0.0207964 0.0740492 0.9792036 -0.0740492 0.9792036 -0.0740492 0.0207964 0.0740492
3943000000 0.0208969 0.0742219 0.9791031 -0.0742219 0.9791031 -0.0742219 0.0208969 0.0742219
3964000000 0.0209499 0.0744028 0.9790501 -0.0744028 0.9790501 -0.0744028 0.0209499 0.0744028
3985000000 0.0209576 0.0745989 0.9790424 -0.0745989 0.9790424 -0.0745989 0.0209576 0.0745989
4006000000 0.0209234 0.0748167 0.9790766 -0.0748167 0.9790766 -0.0748167 0.0209234 0.0748167
4027000000 0.0208516 0.0750614 0.9791484 -0.0750614 0.9791484 -0.0750614 0.0208516 0.0750614
4048000000 0.0207475 0.0753376 0.9792525 -0.0753376 0.9792525 -0.0753376 0.0207475 0.0753376
4069000000 0.0206166 0.0756483 0.9793834 -0.0756483 0.9793834 -0.0756483 0.0206166 0.0756483
4090000000 0.0204648 0.0759957 0.9795352 -0.0759957 0.9795352 -0.0759957 0.0204648 0.0759957
4111000000 0.0202978 0.0763805 0.9797022 -0.0763805 0.9797022 -0.0763805 0.0202978 0.0763805
4132000000 0.0201211 0.0768027 0.9798789 -0.0768027 0.9798789 -0.0768027 0.0201211 0.0768027
4153000000 0.0199396 0.0772613 0.9800604 -0.0772613 0.9800604 -0.0772613 0.0199396 0.0772613
4174000000 0.0197577 0.0777549 0.9802423 -0.0777549 0.9802423 -0.0777549 0.0197577 0.0777549
4195000000 0.0195792 0.0782814 0.9804208 -0.0782814 0.9804208 -0.0782814 0.0195792 0.0782814
4216000000 0.0194072 0.0788384 0.9805928 -0.0788384 0.9805928 -0.0788384 0.0194072 0.0788384
4237000000 0.0192444 0.0794233 0.9807556 -0.0794233 0.9807556 -0.0794233 0.0192444 0.0794233
4258000000 0.0190926 0.0800336 0.9809074 -0.0800336 0.9809074 -0.0800336 0.0190926 0.0800336
4279000000 0.0189534 0.0806666 0.9810466 -0.0806666 0.9810466 -0.0806666 0.0189534 0.0806666
4300000000 0.0188279 0.0813200 0.9811721 -0.0813200 0.9811721 -0.0813200 0.0188279 0.0813200
4321000000 0.0187167 0.0819912 0.9812833 -0.0819912 0.9812833 -0.0819912 0.0187167 0.0819912
4342000000 0.0186202 0.0826783 0.9813798 -0.0826783 0.9813798 -0.0826783 0.0186202 0.0826783
4363000000 0.0185385 0.0833790 0.9814615 -0.0833790 0.9814615 -0.0833790 0.0185385 0.0833790
4384000000 0.0184716 0.0840917 0.9815284 -0.0840917 0.9815284 -0.0840917 0.0184716 0.0840917
4405000000 0.0184193 0.0848147 0.9815807 -0.0848147 0.9815807 -0.0848147 0.0184193 0.0848147
4426000000 0.0183813 0.0855465 0.9816187 -0.0855465 0.9816187 -0.0855465 0.0183813 0.0855465
4447000000 0.0183571 0.0862859 0.9816429 -0.0862859 0.9816429 -0.0862859 0.0183571 0.0862859
4468000000 0.0183462 0.0870318 0.9816538 -0.0870318 0.9816538 -0.0870318 0.0183462 0.0870318
4489000000 0.0183482 0.0877832 0.9816518 -0.0877832 0.9816518 -0.0877832 0.0183482 0.0877832
4510000000 0.0183626 0.0885393 0.9816374 -0.0885393 0.9816374 -0.0885393 0.0183626 0.0885393
