!Murata Part Number: GRM1555C2A4R6CA01
!These Parameters are Measured in Series Mode Connection
!Data Generated on Mar 30, 2021
!       o--ll--o
!Port1            Port2
!       o------o
!Operation Temp=25[degC], DC Bias Voltage=0[V]
!Freq. Start=100[MHz] Stop=9[GHz] 401[Steps]
# Hz S RI R 50
!Freq.(Hz) S11(Real) S11(Imag) S21(Real) S21(Imag) S12(Real) S12(Imag) S22(Real) S22(Imag)
100000000 0.9226777 -0.2667841 0.0773223 0.2667841 0.0773223 0.2667841 0.9226777 -0.2667841
121000000 0.8906699 -0.3116678 0.1093301 0.3116678 0.1093301 0.3116678 0.8906699 -0.3116678
142000000 0.8553245 -0.3513210 0.1446755 0.3513210 0.1446755 0.3513210 0.8553245 -0.3513210
163000000 0.8176511 -0.3856122 0.1823489 0.3856122 0.1823489 0.3856122 0.8176511 -0.3856122
184000000 0.7785832 -0.4146133 0.2214168 0.4146133 0.2214168 0.4146133 0.7785832 -0.4146133
205000000 0.7389426 -0.4385564 0.2610574 0.4385564 0.2610574 0.4385564 0.7389426 -0.4385564
226000000 0.6994211 -0.4577871 0.3005789 0.4577871 0.3005789 0.4577871 0.6994211 -0.4577871
247000000 0.6605761 -0.4727230 0.3394239 0.4727230 0.3394239 0.4727230 0.6605761 -0.4727230
268000000 0.6228365 -0.4838173 0.3771635 0.4838173 0.3771635 0.4838173 0.6228365 -0.4838173
289000000 0.5865155 -0.4915304 0.4134845 0.4915304 0.4134845 0.4915304 0.5865155 -0.4915304
310000000 0.5518267 -0.4963100 0.4481733 0.4963100 0.4481733 0.4963100 0.5518267 -0.4963100
331000000 0.5189014 -0.4985766 0.4810986 0.4985766 0.4810986 0.4985766 0.5189014 -0.4985766
352000000 0.4878047 -0.4987156 0.5121953 0.4987156 0.5121953 0.4987156 0.4878047 -0.4987156
373000000 0.4585505 -0.4970733 0.5414495 0.4970733 0.5414495 0.4970733 0.4585505 -0.4970733
394000000 0.4311146 -0.4939560 0.5688854 0.4939560 0.5688854 0.4939560 0.4311146 -0.4939560
415000000 0.4054450 -0.4896311 0.5945550 0.4896311 0.5945550 0.4896311 0.4054450 -0.4896311
436000000 0.3814708 -0.4843296 0.6185292 0.4843296 0.6185292 0.4843296 0.3814708 -0.4843296
457000000 0.3591089 -0.4782493 0.6408911 0.4782493 0.6408911 0.4782493 0.3591089 -0.4782493
478000000 0.3382690 -0.4715585 0.6617310 0.4715585 0.6617310 0.4715585 0.3382690 -0.4715585
499000000 0.3188582 -0.4643991 0.6811418 0.4643991 0.6811418 0.4643991 0.3188582 -0.4643991
520000000 0.3007828 -0.4568903 0.6992172 0.4568903 0.6992172 0.4568903 0.3007828 -0.4568903
541000000 0.2839515 -0.4491316 0.7160485 0.4491316 0.7160485 0.4491316 0.2839515 -0.4491316
562000000 0.2682760 -0.4412056 0.7317240 0.4412056 0.7317240 0.4412056 0.2682760 -0.4412056
583000000 0.2536720 -0.4331805 0.7463280 0.4331805 0.7463280 0.4331805 0.2536720 -0.4331805
604000000 0.2400601 -0.4251125 0.7599399 0.4251125 0.7599399 0.4251125 0.2400601 -0.4251125
625000000 0.2273659 -0.4170472 0.7726341 0.4170472 0.7726341 0.4170472 0.2273659 -0.4170472
646000000 0.2155198 -0.4090217 0.7844802 0.4090217 0.7844802 0.4090217 0.2155198 -0.4090217
667000000 0.2044574 -0.4010660 0.7955426 0.4010660 0.7955426 0.4010660 0.2044574 -0.4010660
688000000 0.1941188 -0.3932037 0.8058812 0.3932037 0.8058812 0.3932037 0.1941188 -0.3932037
709000000 0.1844491 -0.3854536 0.8155509 0.3854536 0.8155509 0.3854536 0.1844491 -0.3854536
730000000 0.1753975 -0.3778301 0.8246025 0.3778301 0.8246025 0.3778301 0.1753975 -0.3778301
751000000 0.1669171 -0.3703442 0.8330829 0.3703442 0.8330829 0.3703442 0.1669171 -0.3703442
772000000 0.1589652 -0.3630041 0.8410348 0.3630041 0.8410348 0.3630041 0.1589652 -0.3630041
793000000 0.1515021 -0.3558153 0.8484979 0.3558153 0.8484979 0.3558153 0.1515021 -0.3558153
814000000 0.1444919 -0.3487817 0.8555081 0.3487817 0.8555081 0.3487817 0.1444919 -0.3487817
835000000 0.1379010 -0.3419054 0.8620990 0.3419054 0.8620990 0.3419054 0.1379010 -0.3419054
856000000 0.1316992 -0.3351871 0.8683008 0.3351871 0.8683008 0.3351871 0.1316992 -0.3351871
877000000 0.1258583 -0.3286265 0.8741417 0.3286265 0.8741417 0.3286265 0.1258583 -0.3286265
898000000 0.1203527 -0.3222227 0.8796473 0.3222227 0.8796473 0.3222227 0.1203527 -0.3222227
919000000 0.1151587 -0.3159736 0.8848413 0.3159736 0.8848413 0.3159736 0.1151587 -0.3159736
940000000 0.1102545 -0.3098770 0.8897455 0.3098770 0.8897455 0.3098770 0.1102545 -0.3098770
961000000 0.1056203 -0.3039301 0.8943797 0.3039301 0.8943797 0.3039301 0.1056203 -0.3039301
982000000 0.1012376 -0.2981298 0.8987624 0.2981298 0.8987624 0.2981298 0.1012376 -0.2981298
1003000000 0.0970894 -0.2924726 0.9029106 0.2924726 0.9029106 0.2924726 0.0970894 -0.2924726
1024000000 0.0931603 -0.2869552 0.9068397 0.2869552 0.9068397 0.2869552 0.0931603 -0.2869552
1045000000 0.0894357 -0.2815737 0.9105643 0.2815737 0.9105643 0.2815737 0.0894357 -0.2815737
1066000000 0.0859025 -0.2763245 0.9140975 0.2763245 0.9140975 0.2763245 0.0859025 -0.2763245
1087000000 0.0825484 -0.2712039 0.9174516 0.2712039 0.9174516 0.2712039 0.0825484 -0.2712039
1108000000 0.0793619 -0.2662080 0.9206381 0.2662080 0.9206381 0.2662080 0.0793619 -0.2662080
1129000000 0.0763327 -0.2613331 0.9236673 0.2613331 0.9236673 0.2613331 0.0763327 -0.2613331
1150000000 0.0734511 -0.2565754 0.9265489 0.2565754 0.9265489 0.2565754 0.0734511 -0.2565754
1171000000 0.0707080 -0.2519314 0.9292920 0.2519314 0.9292920 0.2519314 0.0707080 -0.2519314
1192000000 0.0680950 -0.2473974 0.9319050 0.2473974 0.9319050 0.2473974 0.0680950 -0.2473974
1213000000 0.0656046 -0.2429700 0.9343954 0.2429700 0.9343954 0.2429700 0.0656046 -0.2429700
1234000000 0.0632294 -0.2386456 0.9367706 0.2386456 0.9367706 0.2386456 0.0632294 -0.2386456
1255000000 0.0609628 -0.2344209 0.9390372 0.2344209 0.9390372 0.2344209 0.0609628 -0.2344209
1276000000 0.0587985 -0.2302927 0.9412015 0.2302927 0.9412015 0.2302927 0.0587985 -0.2302927
1297000000 0.0567309 -0.2262578 0.9432691 0.2262578 0.9432691 0.2262578 0.0567309 -0.2262578
1318000000 0.0547544 -0.2223132 0.9452456 0.2223132 0.9452456 0.2223132 0.0547544 -0.2223132
1339000000 0.0528640 -0.2184559 0.9471360 0.2184559 0.9471360 0.2184559 0.0528640 -0.2184559
1360000000 0.0510551 -0.2146830 0.9489449 0.2146830 0.9489449 0.2146830 0.0510551 -0.2146830
1381000000 0.0493233 -0.2109918 0.9506767 0.2109918 0.9506767 0.2109918 0.0493233 -0.2109918
1402000000 0.0476644 -0.2073796 0.9523356 0.2073796 0.9523356 0.2073796 0.0476644 -0.2073796
1423000000 0.0460747 -0.2038438 0.9539253 0.2038438 0.9539253 0.2038438 0.0460747 -0.2038438
1444000000 0.0445504 -0.2003819 0.9554496 0.2003819 0.9554496 0.2003819 0.0445504 -0.2003819
1465000000 0.0430884 -0.1969915 0.9569116 0.1969915 0.9569116 0.1969915 0.0430884 -0.1969915
1486000000 0.0416854 -0.1936704 0.9583146 0.1936704 0.9583146 0.1936704 0.0416854 -0.1936704
1507000000 0.0403385 -0.1904162 0.9596615 0.1904162 0.9596615 0.1904162 0.0403385 -0.1904162
1528000000 0.0390448 -0.1872268 0.9609552 0.1872268 0.9609552 0.1872268 0.0390448 -0.1872268
1549000000 0.0378018 -0.1841001 0.9621982 0.1841001 0.9621982 0.1841001 0.0378018 -0.1841001
1570000000 0.0366071 -0.1810342 0.9633929 0.1810342 0.9633929 0.1810342 0.0366071 -0.1810342
1591000000 0.0354583 -0.1780271 0.9645417 0.1780271 0.9645417 0.1780271 0.0354583 -0.1780271
1612000000 0.0343532 -0.1750770 0.9656468 0.1750770 0.9656468 0.1750770 0.0343532 -0.1750770
1633000000 0.0332899 -0.1721821 0.9667101 0.1721821 0.9667101 0.1721821 0.0332899 -0.1721821
1654000000 0.0322663 -0.1693406 0.9677337 0.1693406 0.9677337 0.1693406 0.0322663 -0.1693406
1675000000 0.0312807 -0.1665509 0.9687193 0.1665509 0.9687193 0.1665509 0.0312807 -0.1665509
1696000000 0.0303314 -0.1638115 0.9696686 0.1638115 0.9696686 0.1638115 0.0303314 -0.1638115
1717000000 0.0294167 -0.1611207 0.9705833 0.1611207 0.9705833 0.1611207 0.0294167 -0.1611207
1738000000 0.0285351 -0.1584771 0.9714649 0.1584771 0.9714649 0.1584771 0.0285351 -0.1584771
1759000000 0.0276851 -0.1558793 0.9723149 0.1558793 0.9723149 0.1558793 0.0276851 -0.1558793
1780000000 0.0268655 -0.1533258 0.9731345 0.1533258 0.9731345 0.1533258 0.0268655 -0.1533258
1801000000 0.0260749 -0.1508154 0.9739251 0.1508154 0.9739251 0.1508154 0.0260749 -0.1508154
1822000000 0.0253121 -0.1483468 0.9746879 0.1483468 0.9746879 0.1483468 0.0253121 -0.1483468
1843000000 0.0245759 -0.1459188 0.9754241 0.1459188 0.9754241 0.1459188 0.0245759 -0.1459188
1864000000 0.0238652 -0.1435301 0.9761348 0.1435301 0.9761348 0.1435301 0.0238652 -0.1435301
1885000000 0.0231790 -0.1411796 0.9768210 0.1411796 0.9768210 0.1411796 0.0231790 -0.1411796
1906000000 0.0225163 -0.1388662 0.9774837 0.1388662 0.9774837 0.1388662 0.0225163 -0.1388662
1927000000 0.0218762 -0.1365889 0.9781238 0.1365889 0.9781238 0.1365889 0.0218762 -0.1365889
1948000000 0.0212578 -0.1343465 0.9787422 0.1343465 0.9787422 0.1343465 0.0212578 -0.1343465
1969000000 0.0206601 -0.1321382 0.9793399 0.1321382 0.9793399 0.1321382 0.0206601 -0.1321382
1990000000 0.0200825 -0.1299629 0.9799175 0.1299629 0.9799175 0.1299629 0.0200825 -0.1299629
2011000000 0.0195242 -0.1278198 0.9804758 0.1278198 0.9804758 0.1278198 0.0195242 -0.1278198
2032000000 0.0189844 -0.1257079 0.9810156 0.1257079 0.9810156 0.1257079 0.0189844 -0.1257079
2053000000 0.0184624 -0.1236264 0.9815376 0.1236264 0.9815376 0.1236264 0.0184624 -0.1236264
2074000000 0.0179576 -0.1215743 0.9820424 0.1215743 0.9820424 0.1215743 0.0179576 -0.1215743
2095000000 0.0174693 -0.1195510 0.9825307 0.1195510 0.9825307 0.1195510 0.0174693 -0.1195510
2116000000 0.0169970 -0.1175557 0.9830030 0.1175557 0.9830030 0.1175557 0.0169970 -0.1175557
2137000000 0.0165401 -0.1155875 0.9834599 0.1155875 0.9834599 0.1155875 0.0165401 -0.1155875
2158000000 0.0160980 -0.1136458 0.9839020 0.1136458 0.9839020 0.1136458 0.0160980 -0.1136458
2179000000 0.0156703 -0.1117298 0.9843297 0.1117298 0.9843297 0.1117298 0.0156703 -0.1117298
2200000000 0.0152564 -0.1098389 0.9847436 0.1098389 0.9847436 0.1098389 0.0152564 -0.1098389
2221000000 0.0148558 -0.1079724 0.9851442 0.1079724 0.9851442 0.1079724 0.0148558 -0.1079724
2242000000 0.0144681 -0.1061297 0.9855319 0.1061297 0.9855319 0.1061297 0.0144681 -0.1061297
2263000000 0.0140929 -0.1043101 0.9859071 0.1043101 0.9859071 0.1043101 0.0140929 -0.1043101
2284000000 0.0137298 -0.1025130 0.9862702 0.1025130 0.9862702 0.1025130 0.0137298 -0.1025130
2305000000 0.0133783 -0.1007379 0.9866217 0.1007379 0.9866217 0.1007379 0.0133783 -0.1007379
2326000000 0.0130381 -0.0989842 0.9869619 0.0989842 0.9869619 0.0989842 0.0130381 -0.0989842
2347000000 0.0127089 -0.0972513 0.9872911 0.0972513 0.9872911 0.0972513 0.0127089 -0.0972513
2368000000 0.0123902 -0.0955388 0.9876098 0.0955388 0.9876098 0.0955388 0.0123902 -0.0955388
2389000000 0.0120818 -0.0938461 0.9879182 0.0938461 0.9879182 0.0938461 0.0120818 -0.0938461
2410000000 0.0117833 -0.0921726 0.9882167 0.0921726 0.9882167 0.0921726 0.0117833 -0.0921726
2431000000 0.0114944 -0.0905180 0.9885056 0.0905180 0.9885056 0.0905180 0.0114944 -0.0905180
2452000000 0.0112149 -0.0888818 0.9887851 0.0888818 0.9887851 0.0888818 0.0112149 -0.0888818
2473000000 0.0109444 -0.0872634 0.9890556 0.0872634 0.9890556 0.0872634 0.0109444 -0.0872634
2494000000 0.0106828 -0.0856625 0.9893172 0.0856625 0.9893172 0.0856625 0.0106828 -0.0856625
2515000000 0.0104296 -0.0840787 0.9895704 0.0840787 0.9895704 0.0840787 0.0104296 -0.0840787
2536000000 0.0101848 -0.0825114 0.9898152 0.0825114 0.9898152 0.0825114 0.0101848 -0.0825114
2557000000 0.0099480 -0.0809604 0.9900520 0.0809604 0.9900520 0.0809604 0.0099480 -0.0809604
2578000000 0.0097191 -0.0794252 0.9902809 0.0794252 0.9902809 0.0794252 0.0097191 -0.0794252
2599000000 0.0094978 -0.0779054 0.9905022 0.0779054 0.9905022 0.0779054 0.0094978 -0.0779054
2620000000 0.0092839 -0.0764007 0.9907161 0.0764007 0.9907161 0.0764007 0.0092839 -0.0764007
2641000000 0.0090772 -0.0749107 0.9909228 0.0749107 0.9909228 0.0749107 0.0090772 -0.0749107
2662000000 0.0088775 -0.0734351 0.9911225 0.0734351 0.9911225 0.0734351 0.0088775 -0.0734351
2683000000 0.0086846 -0.0719735 0.9913154 0.0719735 0.9913154 0.0719735 0.0086846 -0.0719735
2704000000 0.0084984 -0.0705255 0.9915016 0.0705255 0.9915016 0.0705255 0.0084984 -0.0705255
2725000000 0.0083187 -0.0690910 0.9916813 0.0690910 0.9916813 0.0690910 0.0083187 -0.0690910
2746000000 0.0081453 -0.0676694 0.9918547 0.0676694 0.9918547 0.0676694 0.0081453 -0.0676694
2767000000 0.0079781 -0.0662607 0.9920219 0.0662607 0.9920219 0.0662607 0.0079781 -0.0662607
2788000000 0.0078169 -0.0648643 0.9921831 0.0648643 0.9921831 0.0648643 0.0078169 -0.0648643
2809000000 0.0076615 -0.0634802 0.9923385 0.0634802 0.9923385 0.0634802 0.0076615 -0.0634802
2830000000 0.0075119 -0.0621079 0.9924881 0.0621079 0.9924881 0.0621079 0.0075119 -0.0621079
2851000000 0.0073679 -0.0607472 0.9926321 0.0607472 0.9926321 0.0607472 0.0073679 -0.0607472
2872000000 0.0072293 -0.0593979 0.9927707 0.0593979 0.9927707 0.0593979 0.0072293 -0.0593979
2893000000 0.0070960 -0.0580596 0.9929040 0.0580596 0.9929040 0.0580596 0.0070960 -0.0580596
2914000000 0.0069680 -0.0567321 0.9930320 0.0567321 0.9930320 0.0567321 0.0069680 -0.0567321
2935000000 0.0068451 -0.0554153 0.9931549 0.0554153 0.9931549 0.0554153 0.0068451 -0.0554153
2956000000 0.0067271 -0.0541087 0.9932729 0.0541087 0.9932729 0.0541087 0.0067271 -0.0541087
2977000000 0.0066141 -0.0528123 0.9933859 0.0528123 0.9933859 0.0528123 0.0066141 -0.0528123
2998000000 0.0065058 -0.0515257 0.9934942 0.0515257 0.9934942 0.0515257 0.0065058 -0.0515257
3019000000 0.0064022 -0.0502488 0.9935978 0.0502488 0.9935978 0.0502488 0.0064022 -0.0502488
3040000000 0.0063032 -0.0489813 0.9936968 0.0489813 0.9936968 0.0489813 0.0063032 -0.0489813
3061000000 0.0062087 -0.0477230 0.9937913 0.0477230 0.9937913 0.0477230 0.0062087 -0.0477230
3082000000 0.0061185 -0.0464737 0.9938815 0.0464737 0.9938815 0.0464737 0.0061185 -0.0464737
3103000000 0.0060327 -0.0452332 0.9939673 0.0452332 0.9939673 0.0452332 0.0060327 -0.0452332
3124000000 0.0059512 -0.0440013 0.9940488 0.0440013 0.9940488 0.0440013 0.0059512 -0.0440013
3145000000 0.0058737 -0.0427779 0.9941263 0.0427779 0.9941263 0.0427779 0.0058737 -0.0427779
3166000000 0.0058004 -0.0415626 0.9941996 0.0415626 0.9941996 0.0415626 0.0058004 -0.0415626
3187000000 0.0057311 -0.0403554 0.9942689 0.0403554 0.9942689 0.0403554 0.0057311 -0.0403554
3208000000 0.0056657 -0.0391560 0.9943343 0.0391560 0.9943343 0.0391560 0.0056657 -0.0391560
3229000000 0.0056042 -0.0379644 0.9943958 0.0379644 0.9943958 0.0379644 0.0056042 -0.0379644
3250000000 0.0055465 -0.0367802 0.9944535 0.0367802 0.9944535 0.0367802 0.0055465 -0.0367802
3271000000 0.0054925 -0.0356033 0.9945075 0.0356033 0.9945075 0.0356033 0.0054925 -0.0356033
3292000000 0.0054422 -0.0344336 0.9945578 0.0344336 0.9945578 0.0344336 0.0054422 -0.0344336
3313000000 0.0053955 -0.0332710 0.9946045 0.0332710 0.9946045 0.0332710 0.0053955 -0.0332710
3334000000 0.0053524 -0.0321151 0.9946476 0.0321151 0.9946476 0.0321151 0.0053524 -0.0321151
3355000000 0.0053128 -0.0309660 0.9946872 0.0309660 0.9946872 0.0309660 0.0053128 -0.0309660
3376000000 0.0052767 -0.0298234 0.9947233 0.0298234 0.9947233 0.0298234 0.0052767 -0.0298234
3397000000 0.0052439 -0.0286872 0.9947561 0.0286872 0.9947561 0.0286872 0.0052439 -0.0286872
3418000000 0.0052146 -0.0275573 0.9947854 0.0275573 0.9947854 0.0275573 0.0052146 -0.0275573
3439000000 0.0051885 -0.0264334 0.9948115 0.0264334 0.9948115 0.0264334 0.0051885 -0.0264334
3460000000 0.0051657 -0.0253156 0.9948343 0.0253156 0.9948343 0.0253156 0.0051657 -0.0253156
3481000000 0.0051462 -0.0242035 0.9948538 0.0242035 0.9948538 0.0242035 0.0051462 -0.0242035
3502000000 0.0051298 -0.0230972 0.9948702 0.0230972 0.9948702 0.0230972 0.0051298 -0.0230972
3523000000 0.0051166 -0.0219964 0.9948834 0.0219964 0.9948834 0.0219964 0.0051166 -0.0219964
3544000000 0.0051065 -0.0209010 0.9948935 0.0209010 0.9948935 0.0209010 0.0051065 -0.0209010
3565000000 0.0050995 -0.0198110 0.9949005 0.0198110 0.9949005 0.0198110 0.0050995 -0.0198110
3586000000 0.0050955 -0.0187261 0.9949045 0.0187261 0.9949045 0.0187261 0.0050955 -0.0187261
3607000000 0.0050945 -0.0176463 0.9949055 0.0176463 0.9949055 0.0176463 0.0050945 -0.0176463
3628000000 0.0050965 -0.0165715 0.9949035 0.0165715 0.9949035 0.0165715 0.0050965 -0.0165715
3649000000 0.0051015 -0.0155014 0.9948985 0.0155014 0.9948985 0.0155014 0.0051015 -0.0155014
3670000000 0.0051094 -0.0144361 0.9948906 0.0144361 0.9948906 0.0144361 0.0051094 -0.0144361
3691000000 0.0051201 -0.0133754 0.9948799 0.0133754 0.9948799 0.0133754 0.0051201 -0.0133754
3712000000 0.0051338 -0.0123192 0.9948662 0.0123192 0.9948662 0.0123192 0.0051338 -0.0123192
3733000000 0.0051502 -0.0112673 0.9948498 0.0112673 0.9948498 0.0112673 0.0051502 -0.0112673
3754000000 0.0051695 -0.0102197 0.9948305 0.0102197 0.9948305 0.0102197 0.0051695 -0.0102197
3775000000 0.0051916 -0.0091763 0.9948084 0.0091763 0.9948084 0.0091763 0.0051916 -0.0091763
3796000000 0.0052165 -0.0081369 0.9947835 0.0081369 0.9947835 0.0081369 0.0052165 -0.0081369
3817000000 0.0052441 -0.0071015 0.9947559 0.0071015 0.9947559 0.0071015 0.0052441 -0.0071015
3838000000 0.0052745 -0.0060700 0.9947255 0.0060700 0.9947255 0.0060700 0.0052745 -0.0060700
3859000000 0.0053075 -0.0050422 0.9946925 0.0050422 0.9946925 0.0050422 0.0053075 -0.0050422
3880000000 0.0053433 -0.0040181 0.9946567 0.0040181 0.9946567 0.0040181 0.0053433 -0.0040181
3901000000 0.0053818 -0.0029975 0.9946182 0.0029975 0.9946182 0.0029975 0.0053818 -0.0029975
3922000000 0.0054229 -0.0019805 0.9945771 0.0019805 0.9945771 0.0019805 0.0054229 -0.0019805
3943000000 0.0054667 -0.0009668 0.9945333 0.0009668 0.9945333 0.0009668 0.0054667 -0.0009668
3964000000 0.0055131 0.0000436 0.9944869 -0.0000436 0.9944869 -0.0000436 0.0055131 0.0000436
3985000000 0.0055622 0.0010508 0.9944378 -0.0010508 0.9944378 -0.0010508 0.0055622 0.0010508
4006000000 0.0056139 0.0020548 0.9943861 -0.0020548 0.9943861 -0.0020548 0.0056139 0.0020548
4027000000 0.0056682 0.0030559 0.9943318 -0.0030559 0.9943318 -0.0030559 0.0056682 0.0030559
4048000000 0.0057251 0.0040540 0.9942749 -0.0040540 0.9942749 -0.0040540 0.0057251 0.0040540
4069000000 0.0057846 0.0050492 0.9942154 -0.0050492 0.9942154 -0.0050492 0.0057846 0.0050492
4090000000 0.0058467 0.0060416 0.9941533 -0.0060416 0.9941533 -0.0060416 0.0058467 0.0060416
4111000000 0.0059114 0.0070314 0.9940886 -0.0070314 0.9940886 -0.0070314 0.0059114 0.0070314
4132000000 0.0059786 0.0080186 0.9940214 -0.0080186 0.9940214 -0.0080186 0.0059786 0.0080186
4153000000 0.0060484 0.0090032 0.9939516 -0.0090032 0.9939516 -0.0090032 0.0060484 0.0090032
4174000000 0.0061208 0.0099853 0.9938792 -0.0099853 0.9938792 -0.0099853 0.0061208 0.0099853
4195000000 0.0061958 0.0109651 0.9938042 -0.0109651 0.9938042 -0.0109651 0.0061958 0.0109651
4216000000 0.0062733 0.0119426 0.9937267 -0.0119426 0.9937267 -0.0119426 0.0062733 0.0119426
4237000000 0.0063534 0.0129178 0.9936466 -0.0129178 0.9936466 -0.0129178 0.0063534 0.0129178
4258000000 0.0064361 0.0138909 0.9935639 -0.0138909 0.9935639 -0.0138909 0.0064361 0.0138909
4279000000 0.0065213 0.0148619 0.9934787 -0.0148619 0.9934787 -0.0148619 0.0065213 0.0148619
4300000000 0.0066091 0.0158309 0.9933909 -0.0158309 0.9933909 -0.0158309 0.0066091 0.0158309
4321000000 0.0066994 0.0167980 0.9933006 -0.0167980 0.9933006 -0.0167980 0.0066994 0.0167980
4342000000 0.0067924 0.0177632 0.9932076 -0.0177632 0.9932076 -0.0177632 0.0067924 0.0177632
4363000000 0.0068879 0.0187266 0.9931121 -0.0187266 0.9931121 -0.0187266 0.0068879 0.0187266
4384000000 0.0069859 0.0196883 0.9930141 -0.0196883 0.9930141 -0.0196883 0.0069859 0.0196883
4405000000 0.0070866 0.0206484 0.9929134 -0.0206484 0.9929134 -0.0206484 0.0070866 0.0206484
4426000000 0.0071898 0.0216068 0.9928102 -0.0216068 0.9928102 -0.0216068 0.0071898 0.0216068
4447000000 0.0072957 0.0225638 0.9927043 -0.0225638 0.9927043 -0.0225638 0.0072957 0.0225638
4468000000 0.0074041 0.0235193 0.9925959 -0.0235193 0.9925959 -0.0235193 0.0074041 0.0235193
4489000000 0.0075152 0.0244734 0.9924848 -0.0244734 0.9924848 -0.0244734 0.0075152 0.0244734
4510000000 0.0076288 0.0254262 0.9923712 -0.0254262 0.9923712 -0.0254262 0.0076288 0.0254262
