!Murata Part Number: GRM1555C2A6R7DA01
!These Parameters are Measured in Series Mode Connection
!Data Generated on Mar 30, 2021
!       o--ll--o
!Port1            Port2
!       o------o
!Operation Temp=25[degC], DC Bias Voltage=0[V]
!Freq. Start=100[MHz] Stop=9[GHz] 401[Steps]
# Hz S RI R 50
!Freq.(Hz) S11(Real) S11(Imag) S21(Real) S21(Imag) S12(Real) S12(Imag) S22(Real) S22(Imag)
100000000 0.8490216 -0.3575951 0.1509784 0.3575951 0.1509784 0.3575951 0.8490216 -0.3575951
121000000 0.7933224 -0.4043979 0.2066776 0.4043979 0.2066776 0.4043979 0.7933224 -0.4043979
142000000 0.7357973 -0.4402914 0.2642027 0.4402914 0.2642027 0.4402914 0.7357973 -0.4402914
163000000 0.6786365 -0.4662912 0.3213635 0.4662912 0.3213635 0.4662912 0.6786365 -0.4662912
184000000 0.6234323 -0.4837230 0.3765677 0.4837230 0.3765677 0.4837230 0.6234323 -0.4837230
205000000 0.5712308 -0.4940044 0.4287692 0.4940044 0.4287692 0.4940044 0.5712308 -0.4940044
226000000 0.5226309 -0.4984973 0.4773691 0.4984973 0.4773691 0.4984973 0.5226309 -0.4984973
247000000 0.4778945 -0.4984256 0.5221055 0.4984256 0.5221055 0.4984256 0.4778945 -0.4984256
268000000 0.4370473 -0.4948394 0.5629527 0.4948394 0.5629527 0.4948394 0.4370473 -0.4948394
289000000 0.3999606 -0.4886110 0.6000394 0.4886110 0.6000394 0.4886110 0.3999606 -0.4886110
310000000 0.3664136 -0.4804473 0.6335864 0.4804473 0.6335864 0.4804473 0.3664136 -0.4804473
331000000 0.3361370 -0.4709101 0.6638630 0.4709101 0.6638630 0.4709101 0.3361370 -0.4709101
352000000 0.3088438 -0.4604398 0.6911562 0.4604398 0.6911562 0.4604398 0.3088438 -0.4604398
373000000 0.2842476 -0.4493769 0.7157524 0.4493769 0.7157524 0.4493769 0.2842476 -0.4493769
394000000 0.2620747 -0.4379816 0.7379253 0.4379816 0.7379253 0.4379816 0.2620747 -0.4379816
415000000 0.2420702 -0.4264507 0.7579298 0.4264507 0.7579298 0.4264507 0.2420702 -0.4264507
436000000 0.2240013 -0.4149312 0.7759987 0.4149312 0.7759987 0.4149312 0.2240013 -0.4149312
457000000 0.2076576 -0.4035311 0.7923424 0.4035311 0.7923424 0.4035311 0.2076576 -0.4035311
478000000 0.1928506 -0.3923287 0.8071494 0.3923287 0.8071494 0.3923287 0.1928506 -0.3923287
499000000 0.1794129 -0.3813789 0.8205871 0.3813789 0.8205871 0.3813789 0.1794129 -0.3813789
520000000 0.1671958 -0.3707193 0.8328042 0.3707193 0.8328042 0.3707193 0.1671958 -0.3707193
541000000 0.1560678 -0.3603741 0.8439322 0.3603741 0.8439322 0.3603741 0.1560678 -0.3603741
562000000 0.1459129 -0.3503572 0.8540871 0.3503572 0.8540871 0.3503572 0.1459129 -0.3503572
583000000 0.1366287 -0.3406750 0.8633713 0.3406750 0.8633713 0.3406750 0.1366287 -0.3406750
604000000 0.1281245 -0.3313284 0.8718755 0.3313284 0.8718755 0.3313284 0.1281245 -0.3313284
625000000 0.1203208 -0.3223139 0.8796792 0.3223139 0.8796792 0.3223139 0.1203208 -0.3223139
646000000 0.1131467 -0.3136253 0.8868533 0.3136253 0.8868533 0.3136253 0.1131467 -0.3136253
667000000 0.1065400 -0.3052540 0.8934600 0.3052540 0.8934600 0.3052540 0.1065400 -0.3052540
688000000 0.1004453 -0.2971902 0.8995547 0.2971902 0.8995547 0.2971902 0.1004453 -0.2971902
709000000 0.0948135 -0.2894231 0.9051865 0.2894231 0.9051865 0.2894231 0.0948135 -0.2894231
730000000 0.0896011 -0.2819414 0.9103989 0.2819414 0.9103989 0.2819414 0.0896011 -0.2819414
751000000 0.0847691 -0.2747333 0.9152309 0.2747333 0.9152309 0.2747333 0.0847691 -0.2747333
772000000 0.0802831 -0.2677874 0.9197169 0.2677874 0.9197169 0.2677874 0.0802831 -0.2677874
793000000 0.0761121 -0.2610921 0.9238879 0.2610921 0.9238879 0.2610921 0.0761121 -0.2610921
814000000 0.0722285 -0.2546360 0.9277715 0.2546360 0.9277715 0.2546360 0.0722285 -0.2546360
835000000 0.0686074 -0.2484082 0.9313926 0.2484082 0.9313926 0.2484082 0.0686074 -0.2484082
856000000 0.0652268 -0.2423982 0.9347732 0.2423982 0.9347732 0.2423982 0.0652268 -0.2423982
877000000 0.0620665 -0.2365958 0.9379335 0.2365958 0.9379335 0.2365958 0.0620665 -0.2365958
898000000 0.0591086 -0.2309911 0.9408914 0.2309911 0.9408914 0.2309911 0.0591086 -0.2309911
919000000 0.0563368 -0.2255749 0.9436632 0.2255749 0.9436632 0.2255749 0.0563368 -0.2255749
940000000 0.0537365 -0.2203382 0.9462635 0.2203382 0.9462635 0.2203382 0.0537365 -0.2203382
961000000 0.0512942 -0.2152727 0.9487058 0.2152727 0.9487058 0.2152727 0.0512942 -0.2152727
982000000 0.0489980 -0.2103703 0.9510020 0.2103703 0.9510020 0.2103703 0.0489980 -0.2103703
1003000000 0.0468368 -0.2056233 0.9531632 0.2056233 0.9531632 0.2056233 0.0468368 -0.2056233
1024000000 0.0448008 -0.2010245 0.9551992 0.2010245 0.9551992 0.2010245 0.0448008 -0.2010245
1045000000 0.0428809 -0.1965671 0.9571191 0.1965671 0.9571191 0.1965671 0.0428809 -0.1965671
1066000000 0.0410687 -0.1922446 0.9589313 0.1922446 0.9589313 0.1922446 0.0410687 -0.1922446
1087000000 0.0393567 -0.1880508 0.9606433 0.1880508 0.9606433 0.1880508 0.0393567 -0.1880508
1108000000 0.0377379 -0.1839799 0.9622621 0.1839799 0.9622621 0.1839799 0.0377379 -0.1839799
1129000000 0.0362061 -0.1800265 0.9637939 0.1800265 0.9637939 0.1800265 0.0362061 -0.1800265
1150000000 0.0347554 -0.1761853 0.9652446 0.1761853 0.9652446 0.1761853 0.0347554 -0.1761853
1171000000 0.0333805 -0.1724513 0.9666195 0.1724513 0.9666195 0.1724513 0.0333805 -0.1724513
1192000000 0.0320763 -0.1688199 0.9679237 0.1688199 0.9679237 0.1688199 0.0320763 -0.1688199
1213000000 0.0308385 -0.1652867 0.9691615 0.1652867 0.9691615 0.1652867 0.0308385 -0.1652867
1234000000 0.0296629 -0.1618475 0.9703371 0.1618475 0.9703371 0.1618475 0.0296629 -0.1618475
1255000000 0.0285455 -0.1584983 0.9714545 0.1584983 0.9714545 0.1584983 0.0285455 -0.1584983
1276000000 0.0274828 -0.1552352 0.9725172 0.1552352 0.9725172 0.1552352 0.0274828 -0.1552352
1297000000 0.0264715 -0.1520549 0.9735285 0.1520549 0.9735285 0.1520549 0.0264715 -0.1520549
1318000000 0.0255086 -0.1489538 0.9744914 0.1489538 0.9744914 0.1489538 0.0255086 -0.1489538
1339000000 0.0245912 -0.1459287 0.9754088 0.1459287 0.9754088 0.1459287 0.0245912 -0.1459287
1360000000 0.0237167 -0.1429766 0.9762833 0.1429766 0.9762833 0.1429766 0.0237167 -0.1429766
1381000000 0.0228826 -0.1400946 0.9771174 0.1400946 0.9771174 0.1400946 0.0228826 -0.1400946
1402000000 0.0220868 -0.1372800 0.9779132 0.1372800 0.9779132 0.1372800 0.0220868 -0.1372800
1423000000 0.0213270 -0.1345301 0.9786730 0.1345301 0.9786730 0.1345301 0.0213270 -0.1345301
1444000000 0.0206012 -0.1318423 0.9793988 0.1318423 0.9793988 0.1318423 0.0206012 -0.1318423
1465000000 0.0199078 -0.1292144 0.9800922 0.1292144 0.9800922 0.1292144 0.0199078 -0.1292144
1486000000 0.0192448 -0.1266441 0.9807552 0.1266441 0.9807552 0.1266441 0.0192448 -0.1266441
1507000000 0.0186108 -0.1241293 0.9813892 0.1241293 0.9813892 0.1241293 0.0186108 -0.1241293
1528000000 0.0180042 -0.1216678 0.9819958 0.1216678 0.9819958 0.1216678 0.0180042 -0.1216678
1549000000 0.0174237 -0.1192578 0.9825763 0.1192578 0.9825763 0.1192578 0.0174237 -0.1192578
1570000000 0.0168678 -0.1168973 0.9831322 0.1168973 0.9831322 0.1168973 0.0168678 -0.1168973
1591000000 0.0163354 -0.1145847 0.9836646 0.1145847 0.9836646 0.1145847 0.0163354 -0.1145847
1612000000 0.0158253 -0.1123181 0.9841747 0.1123181 0.9841747 0.1123181 0.0158253 -0.1123181
1633000000 0.0153365 -0.1100961 0.9846635 0.1100961 0.9846635 0.1100961 0.0153365 -0.1100961
1654000000 0.0148678 -0.1079169 0.9851322 0.1079169 0.9851322 0.1079169 0.0148678 -0.1079169
1675000000 0.0144184 -0.1057793 0.9855816 0.1057793 0.9855816 0.1057793 0.0144184 -0.1057793
1696000000 0.0139873 -0.1036816 0.9860127 0.1036816 0.9860127 0.1036816 0.0139873 -0.1036816
1717000000 0.0135738 -0.1016227 0.9864262 0.1016227 0.9864262 0.1016227 0.0135738 -0.1016227
1738000000 0.0131769 -0.0996012 0.9868231 0.0996012 0.9868231 0.0996012 0.0131769 -0.0996012
1759000000 0.0127959 -0.0976158 0.9872041 0.0976158 0.9872041 0.0976158 0.0127959 -0.0976158
1780000000 0.0124301 -0.0956654 0.9875699 0.0956654 0.9875699 0.0956654 0.0124301 -0.0956654
1801000000 0.0120789 -0.0937489 0.9879211 0.0937489 0.9879211 0.0937489 0.0120789 -0.0937489
1822000000 0.0117416 -0.0918651 0.9882584 0.0918651 0.9882584 0.0918651 0.0117416 -0.0918651
1843000000 0.0114176 -0.0900130 0.9885824 0.0900130 0.9885824 0.0900130 0.0114176 -0.0900130
1864000000 0.0111063 -0.0881916 0.9888937 0.0881916 0.9888937 0.0881916 0.0111063 -0.0881916
1885000000 0.0108072 -0.0864000 0.9891928 0.0864000 0.9891928 0.0864000 0.0108072 -0.0864000
1906000000 0.0105197 -0.0846372 0.9894803 0.0846372 0.9894803 0.0846372 0.0105197 -0.0846372
1927000000 0.0102435 -0.0829023 0.9897565 0.0829023 0.9897565 0.0829023 0.0102435 -0.0829023
1948000000 0.0099780 -0.0811945 0.9900220 0.0811945 0.9900220 0.0811945 0.0099780 -0.0811945
1969000000 0.0097228 -0.0795129 0.9902772 0.0795129 0.9902772 0.0795129 0.0097228 -0.0795129
1990000000 0.0094775 -0.0778569 0.9905225 0.0778569 0.9905225 0.0778569 0.0094775 -0.0778569
2011000000 0.0092418 -0.0762256 0.9907582 0.0762256 0.9907582 0.0762256 0.0092418 -0.0762256
2032000000 0.0090151 -0.0746182 0.9909849 0.0746182 0.9909849 0.0746182 0.0090151 -0.0746182
2053000000 0.0087972 -0.0730342 0.9912028 0.0730342 0.9912028 0.0730342 0.0087972 -0.0730342
2074000000 0.0085877 -0.0714727 0.9914123 0.0714727 0.9914123 0.0714727 0.0085877 -0.0714727
2095000000 0.0083864 -0.0699333 0.9916136 0.0699333 0.9916136 0.0699333 0.0083864 -0.0699333
2116000000 0.0081928 -0.0684151 0.9918072 0.0684151 0.9918072 0.0684151 0.0081928 -0.0684151
2137000000 0.0080068 -0.0669177 0.9919932 0.0669177 0.9919932 0.0669177 0.0080068 -0.0669177
2158000000 0.0078280 -0.0654405 0.9921720 0.0654405 0.9921720 0.0654405 0.0078280 -0.0654405
2179000000 0.0076562 -0.0639829 0.9923438 0.0639829 0.9923438 0.0639829 0.0076562 -0.0639829
2200000000 0.0074912 -0.0625443 0.9925088 0.0625443 0.9925088 0.0625443 0.0074912 -0.0625443
2221000000 0.0073326 -0.0611242 0.9926674 0.0611242 0.9926674 0.0611242 0.0073326 -0.0611242
2242000000 0.0071803 -0.0597222 0.9928197 0.0597222 0.9928197 0.0597222 0.0071803 -0.0597222
2263000000 0.0070340 -0.0583377 0.9929660 0.0583377 0.9929660 0.0583377 0.0070340 -0.0583377
2284000000 0.0068936 -0.0569703 0.9931064 0.0569703 0.9931064 0.0569703 0.0068936 -0.0569703
2305000000 0.0067588 -0.0556195 0.9932412 0.0556195 0.9932412 0.0556195 0.0067588 -0.0556195
2326000000 0.0066295 -0.0542848 0.9933705 0.0542848 0.9933705 0.0542848 0.0066295 -0.0542848
2347000000 0.0065054 -0.0529659 0.9934946 0.0529659 0.9934946 0.0529659 0.0065054 -0.0529659
2368000000 0.0063864 -0.0516624 0.9936136 0.0516624 0.9936136 0.0516624 0.0063864 -0.0516624
2389000000 0.0062723 -0.0503738 0.9937277 0.0503738 0.9937277 0.0503738 0.0062723 -0.0503738
2410000000 0.0061630 -0.0490997 0.9938370 0.0490997 0.9938370 0.0490997 0.0061630 -0.0490997
2431000000 0.0060584 -0.0478399 0.9939416 0.0478399 0.9939416 0.0478399 0.0060584 -0.0478399
2452000000 0.0059582 -0.0465938 0.9940418 0.0465938 0.9940418 0.0465938 0.0059582 -0.0465938
2473000000 0.0058623 -0.0453613 0.9941377 0.0453613 0.9941377 0.0453613 0.0058623 -0.0453613
2494000000 0.0057706 -0.0441418 0.9942294 0.0441418 0.9942294 0.0441418 0.0057706 -0.0441418
2515000000 0.0056830 -0.0429352 0.9943170 0.0429352 0.9943170 0.0429352 0.0056830 -0.0429352
2536000000 0.0055993 -0.0417411 0.9944007 0.0417411 0.9944007 0.0417411 0.0055993 -0.0417411
2557000000 0.0055195 -0.0405592 0.9944805 0.0405592 0.9944805 0.0405592 0.0055195 -0.0405592
2578000000 0.0054433 -0.0393891 0.9945567 0.0393891 0.9945567 0.0393891 0.0054433 -0.0393891
2599000000 0.0053708 -0.0382307 0.9946292 0.0382307 0.9946292 0.0382307 0.0053708 -0.0382307
2620000000 0.0053018 -0.0370835 0.9946982 0.0370835 0.9946982 0.0370835 0.0053018 -0.0370835
2641000000 0.0052362 -0.0359474 0.9947638 0.0359474 0.9947638 0.0359474 0.0052362 -0.0359474
2662000000 0.0051739 -0.0348221 0.9948261 0.0348221 0.9948261 0.0348221 0.0051739 -0.0348221
2683000000 0.0051148 -0.0337073 0.9948852 0.0337073 0.9948852 0.0337073 0.0051148 -0.0337073
2704000000 0.0050589 -0.0326028 0.9949411 0.0326028 0.9949411 0.0326028 0.0050589 -0.0326028
2725000000 0.0050060 -0.0315083 0.9949940 0.0315083 0.9949940 0.0315083 0.0050060 -0.0315083
2746000000 0.0049560 -0.0304236 0.9950440 0.0304236 0.9950440 0.0304236 0.0049560 -0.0304236
2767000000 0.0049090 -0.0293485 0.9950910 0.0293485 0.9950910 0.0293485 0.0049090 -0.0293485
2788000000 0.0048647 -0.0282827 0.9951353 0.0282827 0.9951353 0.0282827 0.0048647 -0.0282827
2809000000 0.0048232 -0.0272261 0.9951768 0.0272261 0.9951768 0.0272261 0.0048232 -0.0272261
2830000000 0.0047844 -0.0261783 0.9952156 0.0261783 0.9952156 0.0261783 0.0047844 -0.0261783
2851000000 0.0047482 -0.0251393 0.9952518 0.0251393 0.9952518 0.0251393 0.0047482 -0.0251393
2872000000 0.0047145 -0.0241088 0.9952855 0.0241088 0.9952855 0.0241088 0.0047145 -0.0241088
2893000000 0.0046833 -0.0230866 0.9953167 0.0230866 0.9953167 0.0230866 0.0046833 -0.0230866
2914000000 0.0046545 -0.0220726 0.9953455 0.0220726 0.9953455 0.0220726 0.0046545 -0.0220726
2935000000 0.0046280 -0.0210665 0.9953720 0.0210665 0.9953720 0.0210665 0.0046280 -0.0210665
2956000000 0.0046039 -0.0200681 0.9953961 0.0200681 0.9953961 0.0200681 0.0046039 -0.0200681
2977000000 0.0045820 -0.0190774 0.9954180 0.0190774 0.9954180 0.0190774 0.0045820 -0.0190774
2998000000 0.0045624 -0.0180940 0.9954376 0.0180940 0.9954376 0.0180940 0.0045624 -0.0180940
3019000000 0.0045449 -0.0171180 0.9954551 0.0171180 0.9954551 0.0171180 0.0045449 -0.0171180
3040000000 0.0045294 -0.0161490 0.9954706 0.0161490 0.9954706 0.0161490 0.0045294 -0.0161490
3061000000 0.0045161 -0.0151870 0.9954839 0.0151870 0.9954839 0.0151870 0.0045161 -0.0151870
3082000000 0.0045048 -0.0142317 0.9954952 0.0142317 0.9954952 0.0142317 0.0045048 -0.0142317
3103000000 0.0044954 -0.0132831 0.9955046 0.0132831 0.9955046 0.0132831 0.0044954 -0.0132831
3124000000 0.0044880 -0.0123410 0.9955120 0.0123410 0.9955120 0.0123410 0.0044880 -0.0123410
3145000000 0.0044825 -0.0114052 0.9955175 0.0114052 0.9955175 0.0114052 0.0044825 -0.0114052
3166000000 0.0044789 -0.0104757 0.9955211 0.0104757 0.9955211 0.0104757 0.0044789 -0.0104757
3187000000 0.0044771 -0.0095522 0.9955229 0.0095522 0.9955229 0.0095522 0.0044771 -0.0095522
3208000000 0.0044771 -0.0086347 0.9955229 0.0086347 0.9955229 0.0086347 0.0044771 -0.0086347
3229000000 0.0044788 -0.0077229 0.9955212 0.0077229 0.9955212 0.0077229 0.0044788 -0.0077229
3250000000 0.0044823 -0.0068169 0.9955177 0.0068169 0.9955177 0.0068169 0.0044823 -0.0068169
3271000000 0.0044874 -0.0059164 0.9955126 0.0059164 0.9955126 0.0059164 0.0044874 -0.0059164
3292000000 0.0044943 -0.0050214 0.9955057 0.0050214 0.9955057 0.0050214 0.0044943 -0.0050214
3313000000 0.0045027 -0.0041317 0.9954973 0.0041317 0.9954973 0.0041317 0.0045027 -0.0041317
3334000000 0.0045128 -0.0032471 0.9954872 0.0032471 0.9954872 0.0032471 0.0045128 -0.0032471
3355000000 0.0045245 -0.0023677 0.9954755 0.0023677 0.9954755 0.0023677 0.0045245 -0.0023677
3376000000 0.0045378 -0.0014933 0.9954622 0.0014933 0.9954622 0.0014933 0.0045378 -0.0014933
3397000000 0.0045525 -0.0006237 0.9954475 0.0006237 0.9954475 0.0006237 0.0045525 -0.0006237
3418000000 0.0045688 0.0002411 0.9954312 -0.0002411 0.9954312 -0.0002411 0.0045688 0.0002411
3439000000 0.0045866 0.0011012 0.9954134 -0.0011012 0.9954134 -0.0011012 0.0045866 0.0011012
3460000000 0.0046059 0.0019567 0.9953941 -0.0019567 0.9953941 -0.0019567 0.0046059 0.0019567
3481000000 0.0046266 0.0028078 0.9953734 -0.0028078 0.9953734 -0.0028078 0.0046266 0.0028078
3502000000 0.0046488 0.0036545 0.9953512 -0.0036545 0.9953512 -0.0036545 0.0046488 0.0036545
3523000000 0.0046724 0.0044970 0.9953276 -0.0044970 0.9953276 -0.0044970 0.0046724 0.0044970
3544000000 0.0046973 0.0053353 0.9953027 -0.0053353 0.9953027 -0.0053353 0.0046973 0.0053353
3565000000 0.0047237 0.0061695 0.9952763 -0.0061695 0.9952763 -0.0061695 0.0047237 0.0061695
3586000000 0.0047514 0.0069996 0.9952486 -0.0069996 0.9952486 -0.0069996 0.0047514 0.0069996
3607000000 0.0047805 0.0078259 0.9952195 -0.0078259 0.9952195 -0.0078259 0.0047805 0.0078259
3628000000 0.0048109 0.0086484 0.9951891 -0.0086484 0.9951891 -0.0086484 0.0048109 0.0086484
3649000000 0.0048426 0.0094671 0.9951574 -0.0094671 0.9951574 -0.0094671 0.0048426 0.0094671
3670000000 0.0048757 0.0102821 0.9951243 -0.0102821 0.9951243 -0.0102821 0.0048757 0.0102821
3691000000 0.0049100 0.0110936 0.9950900 -0.0110936 0.9950900 -0.0110936 0.0049100 0.0110936
3712000000 0.0049456 0.0119016 0.9950544 -0.0119016 0.9950544 -0.0119016 0.0049456 0.0119016
3733000000 0.0049826 0.0127062 0.9950174 -0.0127062 0.9950174 -0.0127062 0.0049826 0.0127062
3754000000 0.0050207 0.0135074 0.9949793 -0.0135074 0.9949793 -0.0135074 0.0050207 0.0135074
3775000000 0.0050602 0.0143054 0.9949398 -0.0143054 0.9949398 -0.0143054 0.0050602 0.0143054
3796000000 0.0051008 0.0151002 0.9948992 -0.0151002 0.9948992 -0.0151002 0.0051008 0.0151002
3817000000 0.0051428 0.0158919 0.9948572 -0.0158919 0.9948572 -0.0158919 0.0051428 0.0158919
3838000000 0.0051859 0.0166805 0.9948141 -0.0166805 0.9948141 -0.0166805 0.0051859 0.0166805
3859000000 0.0052303 0.0174662 0.9947697 -0.0174662 0.9947697 -0.0174662 0.0052303 0.0174662
3880000000 0.0052759 0.0182489 0.9947241 -0.0182489 0.9947241 -0.0182489 0.0052759 0.0182489
3901000000 0.0053227 0.0190289 0.9946773 -0.0190289 0.9946773 -0.0190289 0.0053227 0.0190289
3922000000 0.0053707 0.0198060 0.9946293 -0.0198060 0.9946293 -0.0198060 0.0053707 0.0198060
3943000000 0.0054199 0.0205805 0.9945801 -0.0205805 0.9945801 -0.0205805 0.0054199 0.0205805
3964000000 0.0054703 0.0213524 0.9945297 -0.0213524 0.9945297 -0.0213524 0.0054703 0.0213524
3985000000 0.0055219 0.0221217 0.9944781 -0.0221217 0.9944781 -0.0221217 0.0055219 0.0221217
4006000000 0.0055747 0.0228884 0.9944253 -0.0228884 0.9944253 -0.0228884 0.0055747 0.0228884
4027000000 0.0056287 0.0236528 0.9943713 -0.0236528 0.9943713 -0.0236528 0.0056287 0.0236528
4048000000 0.0056839 0.0244147 0.9943161 -0.0244147 0.9943161 -0.0244147 0.0056839 0.0244147
4069000000 0.0057402 0.0251744 0.9942598 -0.0251744 0.9942598 -0.0251744 0.0057402 0.0251744
4090000000 0.0057978 0.0259318 0.9942022 -0.0259318 0.9942022 -0.0259318 0.0057978 0.0259318
4111000000 0.0058565 0.0266870 0.9941435 -0.0266870 0.9941435 -0.0266870 0.0058565 0.0266870
4132000000 0.0059164 0.0274400 0.9940836 -0.0274400 0.9940836 -0.0274400 0.0059164 0.0274400
4153000000 0.0059775 0.0281910 0.9940225 -0.0281910 0.9940225 -0.0281910 0.0059775 0.0281910
4174000000 0.0060398 0.0289400 0.9939602 -0.0289400 0.9939602 -0.0289400 0.0060398 0.0289400
4195000000 0.0061033 0.0296870 0.9938967 -0.0296870 0.9938967 -0.0296870 0.0061033 0.0296870
4216000000 0.0061680 0.0304320 0.9938320 -0.0304320 0.9938320 -0.0304320 0.0061680 0.0304320
4237000000 0.0062339 0.0311753 0.9937661 -0.0311753 0.9937661 -0.0311753 0.0062339 0.0311753
4258000000 0.0063009 0.0319167 0.9936991 -0.0319167 0.9936991 -0.0319167 0.0063009 0.0319167
4279000000 0.0063692 0.0326564 0.9936308 -0.0326564 0.9936308 -0.0326564 0.0063692 0.0326564
4300000000 0.0064387 0.0333944 0.9935613 -0.0333944 0.9935613 -0.0333944 0.0064387 0.0333944
4321000000 0.0065094 0.0341308 0.9934906 -0.0341308 0.9934906 -0.0341308 0.0065094 0.0341308
4342000000 0.0065813 0.0348656 0.9934187 -0.0348656 0.9934187 -0.0348656 0.0065813 0.0348656
4363000000 0.0066544 0.0355988 0.9933456 -0.0355988 0.9933456 -0.0355988 0.0066544 0.0355988
4384000000 0.0067288 0.0363306 0.9932712 -0.0363306 0.9932712 -0.0363306 0.0067288 0.0363306
4405000000 0.0068045 0.0370609 0.9931955 -0.0370609 0.9931955 -0.0370609 0.0068045 0.0370609
4426000000 0.0068813 0.0377899 0.9931187 -0.0377899 0.9931187 -0.0377899 0.0068813 0.0377899
4447000000 0.0069595 0.0385175 0.9930405 -0.0385175 0.9930405 -0.0385175 0.0069595 0.0385175
4468000000 0.0070389 0.0392438 0.9929611 -0.0392438 0.9929611 -0.0392438 0.0070389 0.0392438
4489000000 0.0071196 0.0399689 0.9928804 -0.0399689 0.9928804 -0.0399689 0.0071196 0.0399689
4510000000 0.0072016 0.0406929 0.9927984 -0.0406929 0.9927984 -0.0406929 0.0072016 0.0406929
