!Murata Part Number: GRM1555C2A2R9WA01
!These Parameters are Measured in Series Mode Connection
!Data Generated on Mar 30, 2021
!       o--ll--o
!Port1            Port2
!       o------o
!Operation Temp=25[degC], DC Bias Voltage=0[V]
!Freq. Start=100[MHz] Stop=9[GHz] 401[Steps]
# Hz S RI R 50
!Freq.(Hz) S11(Real) S11(Imag) S21(Real) S21(Imag) S12(Real) S12(Imag) S22(Real) S22(Imag)
100000000 0.9677580 -0.1763871 0.0322420 0.1763871 0.0322420 0.1763871 0.9677580 -0.1763871
121000000 0.9534769 -0.2103063 0.0465231 0.2103063 0.0465231 0.2103063 0.9534769 -0.2103063
142000000 0.9370107 -0.2425812 0.0629893 0.2425812 0.0629893 0.2425812 0.9370107 -0.2425812
163000000 0.9185990 -0.2730337 0.0814010 0.2730337 0.0814010 0.2730337 0.9185990 -0.2730337
184000000 0.8984949 -0.3015263 0.1015051 0.3015263 0.1015051 0.3015263 0.8984949 -0.3015263
205000000 0.8769572 -0.3279622 0.1230428 0.3279622 0.1230428 0.3279622 0.8769572 -0.3279622
226000000 0.8542437 -0.3522836 0.1457563 0.3522836 0.1457563 0.3522836 0.8542437 -0.3522836
247000000 0.8306049 -0.3744683 0.1693951 0.3744683 0.1693951 0.3744683 0.8306049 -0.3744683
268000000 0.8062791 -0.3945263 0.1937209 0.3945263 0.1937209 0.3945263 0.8062791 -0.3945263
289000000 0.7814885 -0.4124954 0.2185115 0.4124954 0.2185115 0.4124954 0.7814885 -0.4124954
310000000 0.7564368 -0.4284367 0.2435632 0.4284367 0.2435632 0.4284367 0.7564368 -0.4284367
331000000 0.7313069 -0.4424299 0.2686931 0.4424299 0.2686931 0.4424299 0.7313069 -0.4424299
352000000 0.7062610 -0.4545691 0.2937390 0.4545691 0.2937390 0.4545691 0.7062610 -0.4545691
373000000 0.6814395 -0.4649584 0.3185605 0.4649584 0.3185605 0.4649584 0.6814395 -0.4649584
394000000 0.6569628 -0.4737089 0.3430372 0.4737089 0.3430372 0.4737089 0.6569628 -0.4737089
415000000 0.6329313 -0.4809353 0.3670687 0.4809353 0.3670687 0.4809353 0.6329313 -0.4809353
436000000 0.6094275 -0.4867530 0.3905725 0.4867530 0.3905725 0.4867530 0.6094275 -0.4867530
457000000 0.5865174 -0.4912765 0.4134826 0.4912765 0.4134826 0.4912765 0.5865174 -0.4912765
478000000 0.5642518 -0.4946172 0.4357482 0.4946172 0.4357482 0.4946172 0.5642518 -0.4946172
499000000 0.5426685 -0.4968826 0.4573315 0.4968826 0.4573315 0.4968826 0.5426685 -0.4968826
520000000 0.5217939 -0.4981750 0.4782061 0.4981750 0.4782061 0.4981750 0.5217939 -0.4981750
541000000 0.5016443 -0.4985909 0.4983557 0.4985909 0.4983557 0.4985909 0.5016443 -0.4985909
562000000 0.4822276 -0.4982207 0.5177724 0.4982207 0.5177724 0.4982207 0.4822276 -0.4982207
583000000 0.4635446 -0.4971488 0.5364554 0.4971488 0.5364554 0.4971488 0.4635446 -0.4971488
604000000 0.4455901 -0.4954529 0.5544099 0.4954529 0.5544099 0.4954529 0.4455901 -0.4954529
625000000 0.4283543 -0.4932047 0.5716457 0.4932047 0.5716457 0.4932047 0.4283543 -0.4932047
646000000 0.4118234 -0.4904699 0.5881766 0.4904699 0.5881766 0.4904699 0.4118234 -0.4904699
667000000 0.3959805 -0.4873084 0.6040195 0.4873084 0.6040195 0.4873084 0.3959805 -0.4873084
688000000 0.3808065 -0.4837747 0.6191935 0.4837747 0.6191935 0.4837747 0.3808065 -0.4837747
709000000 0.3662806 -0.4799180 0.6337194 0.4799180 0.6337194 0.4799180 0.3662806 -0.4799180
730000000 0.3523806 -0.4757830 0.6476194 0.4757830 0.6476194 0.4757830 0.3523806 -0.4757830
751000000 0.3390838 -0.4714100 0.6609162 0.4714100 0.6609162 0.4714100 0.3390838 -0.4714100
772000000 0.3263669 -0.4668349 0.6736331 0.4668349 0.6736331 0.4668349 0.3263669 -0.4668349
793000000 0.3142063 -0.4620902 0.6857937 0.4620902 0.6857937 0.4620902 0.3142063 -0.4620902
814000000 0.3025789 -0.4572049 0.6974211 0.4572049 0.6974211 0.4572049 0.3025789 -0.4572049
835000000 0.2914615 -0.4522048 0.7085385 0.4522048 0.7085385 0.4522048 0.2914615 -0.4522048
856000000 0.2808316 -0.4471130 0.7191684 0.4471130 0.7191684 0.4471130 0.2808316 -0.4471130
877000000 0.2706671 -0.4419500 0.7293329 0.4419500 0.7293329 0.4419500 0.2706671 -0.4419500
898000000 0.2609466 -0.4367339 0.7390534 0.4367339 0.7390534 0.4367339 0.2609466 -0.4367339
919000000 0.2516494 -0.4314809 0.7483506 0.4314809 0.7483506 0.4314809 0.2516494 -0.4314809
940000000 0.2427555 -0.4262052 0.7572445 0.4262052 0.7572445 0.4262052 0.2427555 -0.4262052
961000000 0.2342458 -0.4209194 0.7657542 0.4209194 0.7657542 0.4209194 0.2342458 -0.4209194
982000000 0.2261018 -0.4156343 0.7738982 0.4156343 0.7738982 0.4156343 0.2261018 -0.4156343
1003000000 0.2183060 -0.4103598 0.7816940 0.4103598 0.7816940 0.4103598 0.2183060 -0.4103598
1024000000 0.2108414 -0.4051042 0.7891586 0.4051042 0.7891586 0.4051042 0.2108414 -0.4051042
1045000000 0.2036921 -0.3998749 0.7963079 0.3998749 0.7963079 0.3998749 0.2036921 -0.3998749
1066000000 0.1968428 -0.3946782 0.8031572 0.3946782 0.8031572 0.3946782 0.1968428 -0.3946782
1087000000 0.1902789 -0.3895198 0.8097211 0.3895198 0.8097211 0.3895198 0.1902789 -0.3895198
1108000000 0.1839865 -0.3844042 0.8160135 0.3844042 0.8160135 0.3844042 0.1839865 -0.3844042
1129000000 0.1779525 -0.3793356 0.8220475 0.3793356 0.8220475 0.3793356 0.1779525 -0.3793356
1150000000 0.1721645 -0.3743173 0.8278355 0.3743173 0.8278355 0.3743173 0.1721645 -0.3743173
1171000000 0.1666106 -0.3693523 0.8333894 0.3693523 0.8333894 0.3693523 0.1666106 -0.3693523
1192000000 0.1612796 -0.3644429 0.8387204 0.3644429 0.8387204 0.3644429 0.1612796 -0.3644429
1213000000 0.1561607 -0.3595912 0.8438393 0.3595912 0.8438393 0.3595912 0.1561607 -0.3595912
1234000000 0.1512440 -0.3547986 0.8487560 0.3547986 0.8487560 0.3547986 0.1512440 -0.3547986
1255000000 0.1465198 -0.3500665 0.8534802 0.3500665 0.8534802 0.3500665 0.1465198 -0.3500665
1276000000 0.1419790 -0.3453957 0.8580210 0.3453957 0.8580210 0.3453957 0.1419790 -0.3453957
1297000000 0.1376131 -0.3407870 0.8623869 0.3407870 0.8623869 0.3407870 0.1376131 -0.3407870
1318000000 0.1334139 -0.3362407 0.8665861 0.3362407 0.8665861 0.3362407 0.1334139 -0.3362407
1339000000 0.1293738 -0.3317572 0.8706262 0.3317572 0.8706262 0.3317572 0.1293738 -0.3317572
1360000000 0.1254852 -0.3273365 0.8745148 0.3273365 0.8745148 0.3273365 0.1254852 -0.3273365
1381000000 0.1217415 -0.3229785 0.8782585 0.3229785 0.8782585 0.3229785 0.1217415 -0.3229785
1402000000 0.1181359 -0.3186829 0.8818641 0.3186829 0.8818641 0.3186829 0.1181359 -0.3186829
1423000000 0.1146622 -0.3144495 0.8853378 0.3144495 0.8853378 0.3144495 0.1146622 -0.3144495
1444000000 0.1113145 -0.3102777 0.8886855 0.3102777 0.8886855 0.3102777 0.1113145 -0.3102777
1465000000 0.1080873 -0.3061671 0.8919127 0.3061671 0.8919127 0.3061671 0.1080873 -0.3061671
1486000000 0.1049752 -0.3021169 0.8950248 0.3021169 0.8950248 0.3021169 0.1049752 -0.3021169
1507000000 0.1019731 -0.2981265 0.8980269 0.2981265 0.8980269 0.2981265 0.1019731 -0.2981265
1528000000 0.0990763 -0.2941952 0.9009237 0.2941952 0.9009237 0.2941952 0.0990763 -0.2941952
1549000000 0.0962803 -0.2903222 0.9037197 0.2903222 0.9037197 0.2903222 0.0962803 -0.2903222
1570000000 0.0935807 -0.2865066 0.9064193 0.2865066 0.9064193 0.2865066 0.0935807 -0.2865066
1591000000 0.0909734 -0.2827476 0.9090266 0.2827476 0.9090266 0.2827476 0.0909734 -0.2827476
1612000000 0.0884545 -0.2790443 0.9115455 0.2790443 0.9115455 0.2790443 0.0884545 -0.2790443
1633000000 0.0860203 -0.2753957 0.9139797 0.2753957 0.9139797 0.2753957 0.0860203 -0.2753957
1654000000 0.0836674 -0.2718011 0.9163326 0.2718011 0.9163326 0.2718011 0.0836674 -0.2718011
1675000000 0.0813924 -0.2682594 0.9186076 0.2682594 0.9186076 0.2682594 0.0813924 -0.2682594
1696000000 0.0791920 -0.2647696 0.9208080 0.2647696 0.9208080 0.2647696 0.0791920 -0.2647696
1717000000 0.0770633 -0.2613310 0.9229367 0.2613310 0.9229367 0.2613310 0.0770633 -0.2613310
1738000000 0.0750034 -0.2579424 0.9249966 0.2579424 0.9249966 0.2579424 0.0750034 -0.2579424
1759000000 0.0730096 -0.2546030 0.9269904 0.2546030 0.9269904 0.2546030 0.0730096 -0.2546030
1780000000 0.0710792 -0.2513119 0.9289208 0.2513119 0.9289208 0.2513119 0.0710792 -0.2513119
1801000000 0.0692097 -0.2480680 0.9307903 0.2480680 0.9307903 0.2480680 0.0692097 -0.2480680
1822000000 0.0673988 -0.2448705 0.9326012 0.2448705 0.9326012 0.2448705 0.0673988 -0.2448705
1843000000 0.0656443 -0.2417184 0.9343557 0.2417184 0.9343557 0.2417184 0.0656443 -0.2417184
1864000000 0.0639439 -0.2386109 0.9360561 0.2386109 0.9360561 0.2386109 0.0639439 -0.2386109
1885000000 0.0622956 -0.2355470 0.9377044 0.2355470 0.9377044 0.2355470 0.0622956 -0.2355470
1906000000 0.0606975 -0.2325258 0.9393025 0.2325258 0.9393025 0.2325258 0.0606975 -0.2325258
1927000000 0.0591476 -0.2295466 0.9408524 0.2295466 0.9408524 0.2295466 0.0591476 -0.2295466
1948000000 0.0576443 -0.2266084 0.9423557 0.2266084 0.9423557 0.2266084 0.0576443 -0.2266084
1969000000 0.0561857 -0.2237103 0.9438143 0.2237103 0.9438143 0.2237103 0.0561857 -0.2237103
1990000000 0.0547703 -0.2208517 0.9452297 0.2208517 0.9452297 0.2208517 0.0547703 -0.2208517
2011000000 0.0533964 -0.2180315 0.9466036 0.2180315 0.9466036 0.2180315 0.0533964 -0.2180315
2032000000 0.0520627 -0.2152491 0.9479373 0.2152491 0.9479373 0.2152491 0.0520627 -0.2152491
2053000000 0.0507677 -0.2125036 0.9492323 0.2125036 0.9492323 0.2125036 0.0507677 -0.2125036
2074000000 0.0495100 -0.2097944 0.9504900 0.2097944 0.9504900 0.2097944 0.0495100 -0.2097944
2095000000 0.0482883 -0.2071205 0.9517117 0.2071205 0.9517117 0.2071205 0.0482883 -0.2071205
2116000000 0.0471014 -0.2044813 0.9528986 0.2044813 0.9528986 0.2044813 0.0471014 -0.2044813
2137000000 0.0459480 -0.2018761 0.9540520 0.2018761 0.9540520 0.2018761 0.0459480 -0.2018761
2158000000 0.0448271 -0.1993041 0.9551729 0.1993041 0.9551729 0.1993041 0.0448271 -0.1993041
2179000000 0.0437375 -0.1967647 0.9562625 0.1967647 0.9562625 0.1967647 0.0437375 -0.1967647
2200000000 0.0426782 -0.1942572 0.9573218 0.1942572 0.9573218 0.1942572 0.0426782 -0.1942572
2221000000 0.0416481 -0.1917809 0.9583519 0.1917809 0.9583519 0.1917809 0.0416481 -0.1917809
2242000000 0.0406464 -0.1893351 0.9593536 0.1893351 0.9593536 0.1893351 0.0406464 -0.1893351
2263000000 0.0396720 -0.1869192 0.9603280 0.1869192 0.9603280 0.1869192 0.0396720 -0.1869192
2284000000 0.0387242 -0.1845327 0.9612758 0.1845327 0.9612758 0.1845327 0.0387242 -0.1845327
2305000000 0.0378019 -0.1821748 0.9621981 0.1821748 0.9621981 0.1821748 0.0378019 -0.1821748
2326000000 0.0369045 -0.1798451 0.9630955 0.1798451 0.9630955 0.1798451 0.0369045 -0.1798451
2347000000 0.0360312 -0.1775428 0.9639688 0.1775428 0.9639688 0.1775428 0.0360312 -0.1775428
2368000000 0.0351811 -0.1752675 0.9648189 0.1752675 0.9648189 0.1752675 0.0351811 -0.1752675
2389000000 0.0343535 -0.1730186 0.9656465 0.1730186 0.9656465 0.1730186 0.0343535 -0.1730186
2410000000 0.0335478 -0.1707955 0.9664522 0.1707955 0.9664522 0.1707955 0.0335478 -0.1707955
2431000000 0.0327634 -0.1685978 0.9672366 0.1685978 0.9672366 0.1685978 0.0327634 -0.1685978
2452000000 0.0319994 -0.1664248 0.9680006 0.1664248 0.9680006 0.1664248 0.0319994 -0.1664248
2473000000 0.0312554 -0.1642762 0.9687446 0.1642762 0.9687446 0.1642762 0.0312554 -0.1642762
2494000000 0.0305307 -0.1621513 0.9694693 0.1621513 0.9694693 0.1621513 0.0305307 -0.1621513
2515000000 0.0298247 -0.1600498 0.9701753 0.1600498 0.9701753 0.1600498 0.0298247 -0.1600498
2536000000 0.0291370 -0.1579711 0.9708630 0.1579711 0.9708630 0.1579711 0.0291370 -0.1579711
2557000000 0.0284669 -0.1559148 0.9715331 0.1559148 0.9715331 0.1559148 0.0284669 -0.1559148
2578000000 0.0278140 -0.1538804 0.9721860 0.1538804 0.9721860 0.1538804 0.0278140 -0.1538804
2599000000 0.0271777 -0.1518675 0.9728223 0.1518675 0.9728223 0.1518675 0.0271777 -0.1518675
2620000000 0.0265577 -0.1498757 0.9734423 0.1498757 0.9734423 0.1498757 0.0265577 -0.1498757
2641000000 0.0259534 -0.1479046 0.9740466 0.1479046 0.9740466 0.1479046 0.0259534 -0.1479046
2662000000 0.0253643 -0.1459536 0.9746357 0.1459536 0.9746357 0.1459536 0.0253643 -0.1459536
2683000000 0.0247902 -0.1440225 0.9752098 0.1440225 0.9752098 0.1440225 0.0247902 -0.1440225
2704000000 0.0242305 -0.1421109 0.9757695 0.1421109 0.9757695 0.1421109 0.0242305 -0.1421109
2725000000 0.0236849 -0.1402183 0.9763151 0.1402183 0.9763151 0.1402183 0.0236849 -0.1402183
2746000000 0.0231529 -0.1383444 0.9768471 0.1383444 0.9768471 0.1383444 0.0231529 -0.1383444
2767000000 0.0226343 -0.1364888 0.9773657 0.1364888 0.9773657 0.1364888 0.0226343 -0.1364888
2788000000 0.0221286 -0.1346512 0.9778714 0.1346512 0.9778714 0.1346512 0.0221286 -0.1346512
2809000000 0.0216356 -0.1328311 0.9783644 0.1328311 0.9783644 0.1328311 0.0216356 -0.1328311
2830000000 0.0211548 -0.1310284 0.9788452 0.1310284 0.9788452 0.1310284 0.0211548 -0.1310284
2851000000 0.0206860 -0.1292426 0.9793140 0.1292426 0.9793140 0.1292426 0.0206860 -0.1292426
2872000000 0.0202289 -0.1274734 0.9797711 0.1274734 0.9797711 0.1274734 0.0202289 -0.1274734
2893000000 0.0197831 -0.1257205 0.9802169 0.1257205 0.9802169 0.1257205 0.0197831 -0.1257205
2914000000 0.0193484 -0.1239836 0.9806516 0.1239836 0.9806516 0.1239836 0.0193484 -0.1239836
2935000000 0.0189245 -0.1222624 0.9810755 0.1222624 0.9810755 0.1222624 0.0189245 -0.1222624
2956000000 0.0185111 -0.1205565 0.9814889 0.1205565 0.9814889 0.1205565 0.0185111 -0.1205565
2977000000 0.0181080 -0.1188657 0.9818920 0.1188657 0.9818920 0.1188657 0.0181080 -0.1188657
2998000000 0.0177149 -0.1171898 0.9822851 0.1171898 0.9822851 0.1171898 0.0177149 -0.1171898
3019000000 0.0173316 -0.1155283 0.9826684 0.1155283 0.9826684 0.1155283 0.0173316 -0.1155283
3040000000 0.0169579 -0.1138811 0.9830421 0.1138811 0.9830421 0.1138811 0.0169579 -0.1138811
3061000000 0.0165934 -0.1122479 0.9834066 0.1122479 0.9834066 0.1122479 0.0165934 -0.1122479
3082000000 0.0162380 -0.1106284 0.9837620 0.1106284 0.9837620 0.1106284 0.0162380 -0.1106284
3103000000 0.0158915 -0.1090224 0.9841085 0.1090224 0.9841085 0.1090224 0.0158915 -0.1090224
3124000000 0.0155537 -0.1074296 0.9844463 0.1074296 0.9844463 0.1074296 0.0155537 -0.1074296
3145000000 0.0152244 -0.1058498 0.9847756 0.1058498 0.9847756 0.1058498 0.0152244 -0.1058498
3166000000 0.0149034 -0.1042827 0.9850966 0.1042827 0.9850966 0.1042827 0.0149034 -0.1042827
3187000000 0.0145904 -0.1027281 0.9854096 0.1027281 0.9854096 0.1027281 0.0145904 -0.1027281
3208000000 0.0142854 -0.1011858 0.9857146 0.1011858 0.9857146 0.1011858 0.0142854 -0.1011858
3229000000 0.0139881 -0.0996555 0.9860119 0.0996555 0.9860119 0.0996555 0.0139881 -0.0996555
3250000000 0.0136983 -0.0981371 0.9863017 0.0981371 0.9863017 0.0981371 0.0136983 -0.0981371
3271000000 0.0134160 -0.0966302 0.9865840 0.0966302 0.9865840 0.0966302 0.0134160 -0.0966302
3292000000 0.0131409 -0.0951348 0.9868591 0.0951348 0.9868591 0.0951348 0.0131409 -0.0951348
3313000000 0.0128729 -0.0936506 0.9871271 0.0936506 0.9871271 0.0936506 0.0128729 -0.0936506
3334000000 0.0126119 -0.0921773 0.9873881 0.0921773 0.9873881 0.0921773 0.0126119 -0.0921773
3355000000 0.0123576 -0.0907149 0.9876424 0.0907149 0.9876424 0.0907149 0.0123576 -0.0907149
3376000000 0.0121101 -0.0892630 0.9878899 0.0892630 0.9878899 0.0892630 0.0121101 -0.0892630
3397000000 0.0118690 -0.0878216 0.9881310 0.0878216 0.9881310 0.0878216 0.0118690 -0.0878216
3418000000 0.0116343 -0.0863904 0.9883657 0.0863904 0.9883657 0.0863904 0.0116343 -0.0863904
3439000000 0.0114059 -0.0849692 0.9885941 0.0849692 0.9885941 0.0849692 0.0114059 -0.0849692
3460000000 0.0111836 -0.0835579 0.9888164 0.0835579 0.9888164 0.0835579 0.0111836 -0.0835579
3481000000 0.0109673 -0.0821562 0.9890327 0.0821562 0.9890327 0.0821562 0.0109673 -0.0821562
3502000000 0.0107570 -0.0807641 0.9892430 0.0807641 0.9892430 0.0807641 0.0107570 -0.0807641
3523000000 0.0105524 -0.0793813 0.9894476 0.0793813 0.9894476 0.0793813 0.0105524 -0.0793813
3544000000 0.0103535 -0.0780077 0.9896465 0.0780077 0.9896465 0.0780077 0.0103535 -0.0780077
3565000000 0.0101602 -0.0766432 0.9898398 0.0766432 0.9898398 0.0766432 0.0101602 -0.0766432
3586000000 0.0099723 -0.0752875 0.9900277 0.0752875 0.9900277 0.0752875 0.0099723 -0.0752875
3607000000 0.0097898 -0.0739404 0.9902102 0.0739404 0.9902102 0.0739404 0.0097898 -0.0739404
3628000000 0.0096126 -0.0726020 0.9903874 0.0726020 0.9903874 0.0726020 0.0096126 -0.0726020
3649000000 0.0094405 -0.0712719 0.9905595 0.0712719 0.9905595 0.0712719 0.0094405 -0.0712719
3670000000 0.0092735 -0.0699501 0.9907265 0.0699501 0.9907265 0.0699501 0.0092735 -0.0699501
3691000000 0.0091116 -0.0686364 0.9908884 0.0686364 0.9908884 0.0686364 0.0091116 -0.0686364
3712000000 0.0089545 -0.0673307 0.9910455 0.0673307 0.9910455 0.0673307 0.0089545 -0.0673307
3733000000 0.0088022 -0.0660328 0.9911978 0.0660328 0.9911978 0.0660328 0.0088022 -0.0660328
3754000000 0.0086547 -0.0647426 0.9913453 0.0647426 0.9913453 0.0647426 0.0086547 -0.0647426
3775000000 0.0085119 -0.0634599 0.9914881 0.0634599 0.9914881 0.0634599 0.0085119 -0.0634599
3796000000 0.0083736 -0.0621847 0.9916264 0.0621847 0.9916264 0.0621847 0.0083736 -0.0621847
3817000000 0.0082399 -0.0609167 0.9917601 0.0609167 0.9917601 0.0609167 0.0082399 -0.0609167
3838000000 0.0081106 -0.0596560 0.9918894 0.0596560 0.9918894 0.0596560 0.0081106 -0.0596560
3859000000 0.0079856 -0.0584022 0.9920144 0.0584022 0.9920144 0.0584022 0.0079856 -0.0584022
3880000000 0.0078650 -0.0571554 0.9921350 0.0571554 0.9921350 0.0571554 0.0078650 -0.0571554
3901000000 0.0077486 -0.0559154 0.9922514 0.0559154 0.9922514 0.0559154 0.0077486 -0.0559154
3922000000 0.0076364 -0.0546821 0.9923636 0.0546821 0.9923636 0.0546821 0.0076364 -0.0546821
3943000000 0.0075283 -0.0534553 0.9924717 0.0534553 0.9924717 0.0534553 0.0075283 -0.0534553
3964000000 0.0074242 -0.0522350 0.9925758 0.0522350 0.9925758 0.0522350 0.0074242 -0.0522350
3985000000 0.0073241 -0.0510211 0.9926759 0.0510211 0.9926759 0.0510211 0.0073241 -0.0510211
4006000000 0.0072280 -0.0498133 0.9927720 0.0498133 0.9927720 0.0498133 0.0072280 -0.0498133
4027000000 0.0071357 -0.0486117 0.9928643 0.0486117 0.9928643 0.0486117 0.0071357 -0.0486117
4048000000 0.0070473 -0.0474161 0.9929527 0.0474161 0.9929527 0.0474161 0.0070473 -0.0474161
4069000000 0.0069626 -0.0462264 0.9930374 0.0462264 0.9930374 0.0462264 0.0069626 -0.0462264
4090000000 0.0068817 -0.0450425 0.9931183 0.0450425 0.9931183 0.0450425 0.0068817 -0.0450425
4111000000 0.0068044 -0.0438643 0.9931956 0.0438643 0.9931956 0.0438643 0.0068044 -0.0438643
4132000000 0.0067308 -0.0426918 0.9932692 0.0426918 0.9932692 0.0426918 0.0067308 -0.0426918
4153000000 0.0066607 -0.0415247 0.9933393 0.0415247 0.9933393 0.0415247 0.0066607 -0.0415247
4174000000 0.0065942 -0.0403630 0.9934058 0.0403630 0.9934058 0.0403630 0.0065942 -0.0403630
4195000000 0.0065312 -0.0392067 0.9934688 0.0392067 0.9934688 0.0392067 0.0065312 -0.0392067
4216000000 0.0064716 -0.0380555 0.9935284 0.0380555 0.9935284 0.0380555 0.0064716 -0.0380555
4237000000 0.0064154 -0.0369095 0.9935846 0.0369095 0.9935846 0.0369095 0.0064154 -0.0369095
4258000000 0.0063626 -0.0357685 0.9936374 0.0357685 0.9936374 0.0357685 0.0063626 -0.0357685
4279000000 0.0063132 -0.0346325 0.9936868 0.0346325 0.9936868 0.0346325 0.0063132 -0.0346325
4300000000 0.0062670 -0.0335013 0.9937330 0.0335013 0.9937330 0.0335013 0.0062670 -0.0335013
4321000000 0.0062241 -0.0323750 0.9937759 0.0323750 0.9937759 0.0323750 0.0062241 -0.0323750
4342000000 0.0061844 -0.0312533 0.9938156 0.0312533 0.9938156 0.0312533 0.0061844 -0.0312533
4363000000 0.0061479 -0.0301361 0.9938521 0.0301361 0.9938521 0.0301361 0.0061479 -0.0301361
4384000000 0.0061146 -0.0290236 0.9938854 0.0290236 0.9938854 0.0290236 0.0061146 -0.0290236
4405000000 0.0060844 -0.0279154 0.9939156 0.0279154 0.9939156 0.0279154 0.0060844 -0.0279154
4426000000 0.0060573 -0.0268116 0.9939427 0.0268116 0.9939427 0.0268116 0.0060573 -0.0268116
4447000000 0.0060333 -0.0257121 0.9939667 0.0257121 0.9939667 0.0257121 0.0060333 -0.0257121
4468000000 0.0060123 -0.0246168 0.9939877 0.0246168 0.9939877 0.0246168 0.0060123 -0.0246168
4489000000 0.0059943 -0.0235256 0.9940057 0.0235256 0.9940057 0.0235256 0.0059943 -0.0235256
4510000000 0.0059793 -0.0224385 0.9940207 0.0224385 0.9940207 0.0224385 0.0059793 -0.0224385
