!Murata Part Number: GRM1555C2A9R7CA01
!These Parameters are Measured in Series Mode Connection
!Data Generated on Mar 30, 2021
!       o--ll--o
!Port1            Port2
!       o------o
!Operation Temp=25[degC], DC Bias Voltage=0[V]
!Freq. Start=100[MHz] Stop=9[GHz] 401[Steps]
# Hz S RI R 50
!Freq.(Hz) S11(Real) S11(Imag) S21(Real) S21(Imag) S12(Real) S12(Imag) S22(Real) S22(Imag)
100000000 0.7284648 -0.4442619 0.2715352 0.4442619 0.2715352 0.4442619 0.7284648 -0.4442619
121000000 0.6467381 -0.4773896 0.3532619 0.4773896 0.3532619 0.4773896 0.6467381 -0.4773896
142000000 0.5704331 -0.4943160 0.4295669 0.4943160 0.4295669 0.4943160 0.5704331 -0.4943160
163000000 0.5016417 -0.4991934 0.4983583 0.4991934 0.4983583 0.4991934 0.5016417 -0.4991934
184000000 0.4409831 -0.4955944 0.5590169 0.4955944 0.5590169 0.4955944 0.4409831 -0.4955944
205000000 0.3882073 -0.4863242 0.6117927 0.4863242 0.6117927 0.4863242 0.3882073 -0.4863242
226000000 0.3426293 -0.4734620 0.6573707 0.4734620 0.6573707 0.4734620 0.3426293 -0.4734620
247000000 0.3033995 -0.4584895 0.6966005 0.4584895 0.6966005 0.4584895 0.3033995 -0.4584895
268000000 0.2696547 -0.4424321 0.7303453 0.4424321 0.7303453 0.4424321 0.2696547 -0.4424321
289000000 0.2405931 -0.4259823 0.7594069 0.4259823 0.7594069 0.4259823 0.2405931 -0.4259823
310000000 0.2155051 -0.4095963 0.7844949 0.4095963 0.7844949 0.4095963 0.2155051 -0.4095963
331000000 0.1937793 -0.3935654 0.8062207 0.3935654 0.8062207 0.3935654 0.1937793 -0.3935654
352000000 0.1748973 -0.3780682 0.8251027 0.3780682 0.8251027 0.3780682 0.1748973 -0.3780682
373000000 0.1584238 -0.3632065 0.8415762 0.3632065 0.8415762 0.3632065 0.1584238 -0.3632065
394000000 0.1439949 -0.3490304 0.8560051 0.3490304 0.8560051 0.3490304 0.1439949 -0.3490304
415000000 0.1313066 -0.3355564 0.8686934 0.3355564 0.8686934 0.3355564 0.1313066 -0.3355564
436000000 0.1201054 -0.3227784 0.8798946 0.3227784 0.8798946 0.3227784 0.1201054 -0.3227784
457000000 0.1101793 -0.3106770 0.8898207 0.3106770 0.8898207 0.3106770 0.1101793 -0.3106770
478000000 0.1013507 -0.2992240 0.8986493 0.2992240 0.8986493 0.2992240 0.1013507 -0.2992240
499000000 0.0934704 -0.2883867 0.9065296 0.2883867 0.9065296 0.2883867 0.0934704 -0.2883867
520000000 0.0864126 -0.2781303 0.9135874 0.2781303 0.9135874 0.2781303 0.0864126 -0.2781303
541000000 0.0800708 -0.2684195 0.9199292 0.2684195 0.9199292 0.2684195 0.0800708 -0.2684195
562000000 0.0743547 -0.2592197 0.9256453 0.2592197 0.9256453 0.2592197 0.0743547 -0.2592197
583000000 0.0691873 -0.2504973 0.9308127 0.2504973 0.9308127 0.2504973 0.0691873 -0.2504973
604000000 0.0645029 -0.2422205 0.9354971 0.2422205 0.9354971 0.2422205 0.0645029 -0.2422205
625000000 0.0602448 -0.2343593 0.9397552 0.2343593 0.9397552 0.2343593 0.0602448 -0.2343593
646000000 0.0563644 -0.2268854 0.9436356 0.2268854 0.9436356 0.2268854 0.0563644 -0.2268854
667000000 0.0528197 -0.2197728 0.9471803 0.2197728 0.9471803 0.2197728 0.0528197 -0.2197728
688000000 0.0495741 -0.2129971 0.9504259 0.2129971 0.9504259 0.2129971 0.0495741 -0.2129971
709000000 0.0465959 -0.2065358 0.9534041 0.2065358 0.9534041 0.2065358 0.0465959 -0.2065358
730000000 0.0438574 -0.2003679 0.9561426 0.2003679 0.9561426 0.2003679 0.0438574 -0.2003679
751000000 0.0413343 -0.1944742 0.9586657 0.1944742 0.9586657 0.1944742 0.0413343 -0.1944742
772000000 0.0390053 -0.1888369 0.9609947 0.1888369 0.9609947 0.1888369 0.0390053 -0.1888369
793000000 0.0368515 -0.1834395 0.9631485 0.1834395 0.9631485 0.1834395 0.0368515 -0.1834395
814000000 0.0348565 -0.1782668 0.9651435 0.1782668 0.9651435 0.1782668 0.0348565 -0.1782668
835000000 0.0330054 -0.1733048 0.9669946 0.1733048 0.9669946 0.1733048 0.0330054 -0.1733048
856000000 0.0312853 -0.1685405 0.9687147 0.1685405 0.9687147 0.1685405 0.0312853 -0.1685405
877000000 0.0296845 -0.1639619 0.9703155 0.1639619 0.9703155 0.1639619 0.0296845 -0.1639619
898000000 0.0281927 -0.1595579 0.9718073 0.1595579 0.9718073 0.1595579 0.0281927 -0.1595579
919000000 0.0268006 -0.1553181 0.9731994 0.1553181 0.9731994 0.1553181 0.0268006 -0.1553181
940000000 0.0254998 -0.1512331 0.9745002 0.1512331 0.9745002 0.1512331 0.0254998 -0.1512331
961000000 0.0242830 -0.1472940 0.9757170 0.1472940 0.9757170 0.1472940 0.0242830 -0.1472940
982000000 0.0231433 -0.1434925 0.9768567 0.1434925 0.9768567 0.1434925 0.0231433 -0.1434925
1003000000 0.0220746 -0.1398211 0.9779254 0.1398211 0.9779254 0.1398211 0.0220746 -0.1398211
1024000000 0.0210716 -0.1362726 0.9789284 0.1362726 0.9789284 0.1362726 0.0210716 -0.1362726
1045000000 0.0201293 -0.1328405 0.9798707 0.1328405 0.9798707 0.1328405 0.0201293 -0.1328405
1066000000 0.0192430 -0.1295184 0.9807570 0.1295184 0.9807570 0.1295184 0.0192430 -0.1295184
1087000000 0.0184088 -0.1263008 0.9815912 0.1263008 0.9815912 0.1263008 0.0184088 -0.1263008
1108000000 0.0176229 -0.1231821 0.9823771 0.1231821 0.9823771 0.1231821 0.0176229 -0.1231821
1129000000 0.0168819 -0.1201575 0.9831181 0.1201575 0.9831181 0.1201575 0.0168819 -0.1201575
1150000000 0.0161827 -0.1172221 0.9838173 0.1172221 0.9838173 0.1172221 0.0161827 -0.1172221
1171000000 0.0155224 -0.1143717 0.9844776 0.1143717 0.9844776 0.1143717 0.0155224 -0.1143717
1192000000 0.0148984 -0.1116020 0.9851016 0.1116020 0.9851016 0.1116020 0.0148984 -0.1116020
1213000000 0.0143084 -0.1089092 0.9856916 0.1089092 0.9856916 0.1089092 0.0143084 -0.1089092
1234000000 0.0137501 -0.1062898 0.9862499 0.1062898 0.9862499 0.1062898 0.0137501 -0.1062898
1255000000 0.0132215 -0.1037402 0.9867785 0.1037402 0.9867785 0.1037402 0.0132215 -0.1037402
1276000000 0.0127208 -0.1012572 0.9872792 0.1012572 0.9872792 0.1012572 0.0127208 -0.1012572
1297000000 0.0122463 -0.0988380 0.9877537 0.0988380 0.9877537 0.0988380 0.0122463 -0.0988380
1318000000 0.0117962 -0.0964795 0.9882038 0.0964795 0.9882038 0.0964795 0.0117962 -0.0964795
1339000000 0.0113693 -0.0941792 0.9886307 0.0941792 0.9886307 0.0941792 0.0113693 -0.0941792
1360000000 0.0109641 -0.0919344 0.9890359 0.0919344 0.9890359 0.0919344 0.0109641 -0.0919344
1381000000 0.0105793 -0.0897429 0.9894207 0.0897429 0.9894207 0.0897429 0.0105793 -0.0897429
1402000000 0.0102139 -0.0876024 0.9897861 0.0876024 0.9897861 0.0876024 0.0102139 -0.0876024
1423000000 0.0098666 -0.0855107 0.9901334 0.0855107 0.9901334 0.0855107 0.0098666 -0.0855107
1444000000 0.0095365 -0.0834658 0.9904635 0.0834658 0.9904635 0.0834658 0.0095365 -0.0834658
1465000000 0.0092227 -0.0814659 0.9907773 0.0814659 0.9907773 0.0814659 0.0092227 -0.0814659
1486000000 0.0089243 -0.0795090 0.9910757 0.0795090 0.9910757 0.0795090 0.0089243 -0.0795090
1507000000 0.0086404 -0.0775936 0.9913596 0.0775936 0.9913596 0.0775936 0.0086404 -0.0775936
1528000000 0.0083703 -0.0757179 0.9916297 0.0757179 0.9916297 0.0757179 0.0083703 -0.0757179
1549000000 0.0081133 -0.0738804 0.9918867 0.0738804 0.9918867 0.0738804 0.0081133 -0.0738804
1570000000 0.0078688 -0.0720797 0.9921312 0.0720797 0.9921312 0.0720797 0.0078688 -0.0720797
1591000000 0.0076360 -0.0703143 0.9923640 0.0703143 0.9923640 0.0703143 0.0076360 -0.0703143
1612000000 0.0074144 -0.0685830 0.9925856 0.0685830 0.9925856 0.0685830 0.0074144 -0.0685830
1633000000 0.0072035 -0.0668844 0.9927965 0.0668844 0.9927965 0.0668844 0.0072035 -0.0668844
1654000000 0.0070027 -0.0652174 0.9929973 0.0652174 0.9929973 0.0652174 0.0070027 -0.0652174
1675000000 0.0068116 -0.0635808 0.9931884 0.0635808 0.9931884 0.0635808 0.0068116 -0.0635808
1696000000 0.0066296 -0.0619736 0.9933704 0.0619736 0.9933704 0.0619736 0.0066296 -0.0619736
1717000000 0.0064565 -0.0603947 0.9935435 0.0603947 0.9935435 0.0603947 0.0064565 -0.0603947
1738000000 0.0062918 -0.0588430 0.9937082 0.0588430 0.9937082 0.0588430 0.0062918 -0.0588430
1759000000 0.0061350 -0.0573177 0.9938650 0.0573177 0.9938650 0.0573177 0.0061350 -0.0573177
1780000000 0.0059859 -0.0558178 0.9940141 0.0558178 0.9940141 0.0558178 0.0059859 -0.0558178
1801000000 0.0058441 -0.0543425 0.9941559 0.0543425 0.9941559 0.0543425 0.0058441 -0.0543425
1822000000 0.0057093 -0.0528910 0.9942907 0.0528910 0.9942907 0.0528910 0.0057093 -0.0528910
1843000000 0.0055811 -0.0514624 0.9944189 0.0514624 0.9944189 0.0514624 0.0055811 -0.0514624
1864000000 0.0054594 -0.0500559 0.9945406 0.0500559 0.9945406 0.0500559 0.0054594 -0.0500559
1885000000 0.0053438 -0.0486710 0.9946562 0.0486710 0.9946562 0.0486710 0.0053438 -0.0486710
1906000000 0.0052341 -0.0473068 0.9947659 0.0473068 0.9947659 0.0473068 0.0052341 -0.0473068
1927000000 0.0051301 -0.0459627 0.9948699 0.0459627 0.9948699 0.0459627 0.0051301 -0.0459627
1948000000 0.0050315 -0.0446381 0.9949685 0.0446381 0.9949685 0.0446381 0.0050315 -0.0446381
1969000000 0.0049381 -0.0433323 0.9950619 0.0433323 0.9950619 0.0433323 0.0049381 -0.0433323
1990000000 0.0048496 -0.0420448 0.9951504 0.0420448 0.9951504 0.0420448 0.0048496 -0.0420448
2011000000 0.0047660 -0.0407749 0.9952340 0.0407749 0.9952340 0.0407749 0.0047660 -0.0407749
2032000000 0.0046870 -0.0395222 0.9953130 0.0395222 0.9953130 0.0395222 0.0046870 -0.0395222
2053000000 0.0046125 -0.0382861 0.9953875 0.0382861 0.9953875 0.0382861 0.0046125 -0.0382861
2074000000 0.0045423 -0.0370661 0.9954577 0.0370661 0.9954577 0.0370661 0.0045423 -0.0370661
2095000000 0.0044762 -0.0358618 0.9955238 0.0358618 0.9955238 0.0358618 0.0044762 -0.0358618
2116000000 0.0044141 -0.0346726 0.9955859 0.0346726 0.9955859 0.0346726 0.0044141 -0.0346726
2137000000 0.0043558 -0.0334981 0.9956442 0.0334981 0.9956442 0.0334981 0.0043558 -0.0334981
2158000000 0.0043012 -0.0323379 0.9956988 0.0323379 0.9956988 0.0323379 0.0043012 -0.0323379
2179000000 0.0042502 -0.0311916 0.9957498 0.0311916 0.9957498 0.0311916 0.0042502 -0.0311916
2200000000 0.0042027 -0.0300587 0.9957973 0.0300587 0.9957973 0.0300587 0.0042027 -0.0300587
2221000000 0.0041585 -0.0289389 0.9958415 0.0289389 0.9958415 0.0289389 0.0041585 -0.0289389
2242000000 0.0041175 -0.0278318 0.9958825 0.0278318 0.9958825 0.0278318 0.0041175 -0.0278318
2263000000 0.0040797 -0.0267371 0.9959203 0.0267371 0.9959203 0.0267371 0.0040797 -0.0267371
2284000000 0.0040449 -0.0256544 0.9959551 0.0256544 0.9959551 0.0256544 0.0040449 -0.0256544
2305000000 0.0040130 -0.0245833 0.9959870 0.0245833 0.9959870 0.0245833 0.0040130 -0.0245833
2326000000 0.0039840 -0.0235236 0.9960160 0.0235236 0.9960160 0.0235236 0.0039840 -0.0235236
2347000000 0.0039577 -0.0224749 0.9960423 0.0224749 0.9960423 0.0224749 0.0039577 -0.0224749
2368000000 0.0039341 -0.0214369 0.9960659 0.0214369 0.9960659 0.0214369 0.0039341 -0.0214369
2389000000 0.0039131 -0.0204093 0.9960869 0.0204093 0.9960869 0.0204093 0.0039131 -0.0204093
2410000000 0.0038947 -0.0193919 0.9961053 0.0193919 0.9961053 0.0193919 0.0038947 -0.0193919
2431000000 0.0038786 -0.0183844 0.9961214 0.0183844 0.9961214 0.0183844 0.0038786 -0.0183844
2452000000 0.0038650 -0.0173865 0.9961350 0.0173865 0.9961350 0.0173865 0.0038650 -0.0173865
2473000000 0.0038536 -0.0163979 0.9961464 0.0163979 0.9961464 0.0163979 0.0038536 -0.0163979
2494000000 0.0038445 -0.0154184 0.9961555 0.0154184 0.9961555 0.0154184 0.0038445 -0.0154184
2515000000 0.0038376 -0.0144479 0.9961624 0.0144479 0.9961624 0.0144479 0.0038376 -0.0144479
2536000000 0.0038329 -0.0134859 0.9961671 0.0134859 0.9961671 0.0134859 0.0038329 -0.0134859
2557000000 0.0038302 -0.0125323 0.9961698 0.0125323 0.9961698 0.0125323 0.0038302 -0.0125323
2578000000 0.0038295 -0.0115870 0.9961705 0.0115870 0.9961705 0.0115870 0.0038295 -0.0115870
2599000000 0.0038309 -0.0106496 0.9961691 0.0106496 0.9961691 0.0106496 0.0038309 -0.0106496
2620000000 0.0038341 -0.0097200 0.9961659 0.0097200 0.9961659 0.0097200 0.0038341 -0.0097200
2641000000 0.0038393 -0.0087979 0.9961607 0.0087979 0.9961607 0.0087979 0.0038393 -0.0087979
2662000000 0.0038463 -0.0078833 0.9961537 0.0078833 0.9961537 0.0078833 0.0038463 -0.0078833
2683000000 0.0038551 -0.0069758 0.9961449 0.0069758 0.9961449 0.0069758 0.0038551 -0.0069758
2704000000 0.0038657 -0.0060754 0.9961343 0.0060754 0.9961343 0.0060754 0.0038657 -0.0060754
2725000000 0.0038780 -0.0051817 0.9961220 0.0051817 0.9961220 0.0051817 0.0038780 -0.0051817
2746000000 0.0038920 -0.0042947 0.9961080 0.0042947 0.9961080 0.0042947 0.0038920 -0.0042947
2767000000 0.0039077 -0.0034143 0.9960923 0.0034143 0.9960923 0.0034143 0.0039077 -0.0034143
2788000000 0.0039250 -0.0025401 0.9960750 0.0025401 0.9960750 0.0025401 0.0039250 -0.0025401
2809000000 0.0039438 -0.0016721 0.9960562 0.0016721 0.9960562 0.0016721 0.0039438 -0.0016721
2830000000 0.0039643 -0.0008102 0.9960357 0.0008102 0.9960357 0.0008102 0.0039643 -0.0008102
2851000000 0.0039863 0.0000459 0.9960137 -0.0000459 0.9960137 -0.0000459 0.0039863 0.0000459
2872000000 0.0040098 0.0008963 0.9959902 -0.0008963 0.9959902 -0.0008963 0.0040098 0.0008963
2893000000 0.0040348 0.0017411 0.9959652 -0.0017411 0.9959652 -0.0017411 0.0040348 0.0017411
2914000000 0.0040613 0.0025804 0.9959387 -0.0025804 0.9959387 -0.0025804 0.0040613 0.0025804
2935000000 0.0040892 0.0034145 0.9959108 -0.0034145 0.9959108 -0.0034145 0.0040892 0.0034145
2956000000 0.0041186 0.0042433 0.9958814 -0.0042433 0.9958814 -0.0042433 0.0041186 0.0042433
2977000000 0.0041493 0.0050671 0.9958507 -0.0050671 0.9958507 -0.0050671 0.0041493 0.0050671
2998000000 0.0041815 0.0058860 0.9958185 -0.0058860 0.9958185 -0.0058860 0.0041815 0.0058860
3019000000 0.0042150 0.0067001 0.9957850 -0.0067001 0.9957850 -0.0067001 0.0042150 0.0067001
3040000000 0.0042498 0.0075095 0.9957502 -0.0075095 0.9957502 -0.0075095 0.0042498 0.0075095
3061000000 0.0042860 0.0083143 0.9957140 -0.0083143 0.9957140 -0.0083143 0.0042860 0.0083143
3082000000 0.0043235 0.0091146 0.9956765 -0.0091146 0.9956765 -0.0091146 0.0043235 0.0091146
3103000000 0.0043623 0.0099106 0.9956377 -0.0099106 0.9956377 -0.0099106 0.0043623 0.0099106
3124000000 0.0044024 0.0107024 0.9955976 -0.0107024 0.9955976 -0.0107024 0.0044024 0.0107024
3145000000 0.0044438 0.0114900 0.9955562 -0.0114900 0.9955562 -0.0114900 0.0044438 0.0114900
3166000000 0.0044864 0.0122736 0.9955136 -0.0122736 0.9955136 -0.0122736 0.0044864 0.0122736
3187000000 0.0045303 0.0130532 0.9954697 -0.0130532 0.9954697 -0.0130532 0.0045303 0.0130532
3208000000 0.0045755 0.0138290 0.9954245 -0.0138290 0.9954245 -0.0138290 0.0045755 0.0138290
3229000000 0.0046219 0.0146010 0.9953781 -0.0146010 0.9953781 -0.0146010 0.0046219 0.0146010
3250000000 0.0046695 0.0153694 0.9953305 -0.0153694 0.9953305 -0.0153694 0.0046695 0.0153694
3271000000 0.0047183 0.0161342 0.9952817 -0.0161342 0.9952817 -0.0161342 0.0047183 0.0161342
3292000000 0.0047684 0.0168955 0.9952316 -0.0168955 0.9952316 -0.0168955 0.0047684 0.0168955
3313000000 0.0048197 0.0176534 0.9951803 -0.0176534 0.9951803 -0.0176534 0.0048197 0.0176534
3334000000 0.0048721 0.0184080 0.9951279 -0.0184080 0.9951279 -0.0184080 0.0048721 0.0184080
3355000000 0.0049258 0.0191594 0.9950742 -0.0191594 0.9950742 -0.0191594 0.0049258 0.0191594
3376000000 0.0049807 0.0199076 0.9950193 -0.0199076 0.9950193 -0.0199076 0.0049807 0.0199076
3397000000 0.0050367 0.0206528 0.9949633 -0.0206528 0.9949633 -0.0206528 0.0050367 0.0206528
3418000000 0.0050940 0.0213950 0.9949060 -0.0213950 0.9949060 -0.0213950 0.0050940 0.0213950
3439000000 0.0051524 0.0221342 0.9948476 -0.0221342 0.9948476 -0.0221342 0.0051524 0.0221342
3460000000 0.0052121 0.0228706 0.9947879 -0.0228706 0.9947879 -0.0228706 0.0052121 0.0228706
3481000000 0.0052729 0.0236043 0.9947271 -0.0236043 0.9947271 -0.0236043 0.0052729 0.0236043
3502000000 0.0053349 0.0243352 0.9946651 -0.0243352 0.9946651 -0.0243352 0.0053349 0.0243352
3523000000 0.0053981 0.0250635 0.9946019 -0.0250635 0.9946019 -0.0250635 0.0053981 0.0250635
3544000000 0.0054625 0.0257892 0.9945375 -0.0257892 0.9945375 -0.0257892 0.0054625 0.0257892
3565000000 0.0055281 0.0265124 0.9944719 -0.0265124 0.9944719 -0.0265124 0.0055281 0.0265124
3586000000 0.0055948 0.0272332 0.9944052 -0.0272332 0.9944052 -0.0272332 0.0055948 0.0272332
3607000000 0.0056628 0.0279516 0.9943372 -0.0279516 0.9943372 -0.0279516 0.0056628 0.0279516
3628000000 0.0057320 0.0286677 0.9942680 -0.0286677 0.9942680 -0.0286677 0.0057320 0.0286677
3649000000 0.0058024 0.0293815 0.9941976 -0.0293815 0.9941976 -0.0293815 0.0058024 0.0293815
3670000000 0.0058740 0.0300932 0.9941260 -0.0300932 0.9941260 -0.0300932 0.0058740 0.0300932
3691000000 0.0059468 0.0308027 0.9940532 -0.0308027 0.9940532 -0.0308027 0.0059468 0.0308027
3712000000 0.0060208 0.0315101 0.9939792 -0.0315101 0.9939792 -0.0315101 0.0060208 0.0315101
3733000000 0.0060961 0.0322155 0.9939039 -0.0322155 0.9939039 -0.0322155 0.0060961 0.0322155
3754000000 0.0061726 0.0329189 0.9938274 -0.0329189 0.9938274 -0.0329189 0.0061726 0.0329189
3775000000 0.0062503 0.0336204 0.9937497 -0.0336204 0.9937497 -0.0336204 0.0062503 0.0336204
3796000000 0.0063293 0.0343200 0.9936707 -0.0343200 0.9936707 -0.0343200 0.0063293 0.0343200
3817000000 0.0064096 0.0350178 0.9935904 -0.0350178 0.9935904 -0.0350178 0.0064096 0.0350178
3838000000 0.0064911 0.0357139 0.9935089 -0.0357139 0.9935089 -0.0357139 0.0064911 0.0357139
3859000000 0.0065740 0.0364082 0.9934260 -0.0364082 0.9934260 -0.0364082 0.0065740 0.0364082
3880000000 0.0066581 0.0371008 0.9933419 -0.0371008 0.9933419 -0.0371008 0.0066581 0.0371008
3901000000 0.0067435 0.0377919 0.9932565 -0.0377919 0.9932565 -0.0377919 0.0067435 0.0377919
3922000000 0.0068303 0.0384813 0.9931697 -0.0384813 0.9931697 -0.0384813 0.0068303 0.0384813
3943000000 0.0069183 0.0391692 0.9930817 -0.0391692 0.9930817 -0.0391692 0.0069183 0.0391692
3964000000 0.0070077 0.0398556 0.9929923 -0.0398556 0.9929923 -0.0398556 0.0070077 0.0398556
3985000000 0.0070985 0.0405405 0.9929015 -0.0405405 0.9929015 -0.0405405 0.0070985 0.0405405
4006000000 0.0071907 0.0412240 0.9928093 -0.0412240 0.9928093 -0.0412240 0.0071907 0.0412240
4027000000 0.0072842 0.0419061 0.9927158 -0.0419061 0.9927158 -0.0419061 0.0072842 0.0419061
4048000000 0.0073792 0.0425869 0.9926208 -0.0425869 0.9926208 -0.0425869 0.0073792 0.0425869
4069000000 0.0074755 0.0432664 0.9925245 -0.0432664 0.9925245 -0.0432664 0.0074755 0.0432664
4090000000 0.0075733 0.0439446 0.9924267 -0.0439446 0.9924267 -0.0439446 0.0075733 0.0439446
4111000000 0.0076726 0.0446215 0.9923274 -0.0446215 0.9923274 -0.0446215 0.0076726 0.0446215
4132000000 0.0077733 0.0452973 0.9922267 -0.0452973 0.9922267 -0.0452973 0.0077733 0.0452973
4153000000 0.0078755 0.0459719 0.9921245 -0.0459719 0.9921245 -0.0459719 0.0078755 0.0459719
4174000000 0.0079793 0.0466453 0.9920207 -0.0466453 0.9920207 -0.0466453 0.0079793 0.0466453
4195000000 0.0080845 0.0473176 0.9919155 -0.0473176 0.9919155 -0.0473176 0.0080845 0.0473176
4216000000 0.0081914 0.0479889 0.9918086 -0.0479889 0.9918086 -0.0479889 0.0081914 0.0479889
4237000000 0.0082998 0.0486591 0.9917002 -0.0486591 0.9917002 -0.0486591 0.0082998 0.0486591
4258000000 0.0084098 0.0493282 0.9915902 -0.0493282 0.9915902 -0.0493282 0.0084098 0.0493282
4279000000 0.0085214 0.0499963 0.9914786 -0.0499963 0.9914786 -0.0499963 0.0085214 0.0499963
4300000000 0.0086346 0.0506635 0.9913654 -0.0506635 0.9913654 -0.0506635 0.0086346 0.0506635
4321000000 0.0087495 0.0513296 0.9912505 -0.0513296 0.9912505 -0.0513296 0.0087495 0.0513296
4342000000 0.0088661 0.0519948 0.9911339 -0.0519948 0.9911339 -0.0519948 0.0088661 0.0519948
4363000000 0.0089845 0.0526591 0.9910155 -0.0526591 0.9910155 -0.0526591 0.0089845 0.0526591
4384000000 0.0091045 0.0533225 0.9908955 -0.0533225 0.9908955 -0.0533225 0.0091045 0.0533225
4405000000 0.0092264 0.0539849 0.9907736 -0.0539849 0.9907736 -0.0539849 0.0092264 0.0539849
4426000000 0.0093500 0.0546465 0.9906500 -0.0546465 0.9906500 -0.0546465 0.0093500 0.0546465
4447000000 0.0094754 0.0553072 0.9905246 -0.0553072 0.9905246 -0.0553072 0.0094754 0.0553072
4468000000 0.0096027 0.0559670 0.9903973 -0.0559670 0.9903973 -0.0559670 0.0096027 0.0559670
4489000000 0.0097318 0.0566259 0.9902682 -0.0566259 0.9902682 -0.0566259 0.0097318 0.0566259
4510000000 0.0098628 0.0572840 0.9901372 -0.0572840 0.9901372 -0.0572840 0.0098628 0.0572840
