!Murata Part Number: GRM1552C2A6R3DA01
!These Parameters are Measured in Series Mode Connection
!Data Generated on Mar 30, 2021
!       o--ll--o
!Port1            Port2
!       o------o
!Operation Temp=25[degC], DC Bias Voltage=0[V]
!Freq. Start=100[MHz] Stop=9[GHz] 401[Steps]
# Hz S RI R 50
!Freq.(Hz) S11(Real) S11(Imag) S21(Real) S21(Imag) S12(Real) S12(Imag) S22(Real) S22(Imag)
100000000 0.8641370 -0.3422303 0.1358630 0.3422303 0.1358630 0.3422303 0.8641370 -0.3422303
121000000 0.8127881 -0.3895816 0.1872119 0.3895816 0.1872119 0.3895816 0.8127881 -0.3895816
142000000 0.7590403 -0.4270782 0.2409597 0.4270782 0.2409597 0.4270782 0.7590403 -0.4270782
163000000 0.7048979 -0.4554128 0.2951021 0.4554128 0.2951021 0.4554128 0.7048979 -0.4554128
184000000 0.6518991 -0.4756037 0.3481009 0.4756037 0.3481009 0.4756037 0.6518991 -0.4756037
205000000 0.6011286 -0.4888125 0.3988714 0.4888125 0.3988714 0.4888125 0.6011286 -0.4888125
226000000 0.5532782 -0.4962097 0.4467218 0.4962097 0.4467218 0.4962097 0.5532782 -0.4962097
247000000 0.5087261 -0.4988897 0.4912739 0.4988897 0.4912739 0.4988897 0.5087261 -0.4988897
268000000 0.4676168 -0.4978247 0.5323832 0.4978247 0.5323832 0.4978247 0.4676168 -0.4978247
289000000 0.4299308 -0.4938482 0.5700692 0.4938482 0.5700692 0.4938482 0.4299308 -0.4938482
310000000 0.3955412 -0.4876558 0.6044588 0.4876558 0.6044588 0.4876558 0.3955412 -0.4876558
331000000 0.3642561 -0.4798160 0.6357439 0.4798160 0.6357439 0.4798160 0.3642561 -0.4798160
352000000 0.3358495 -0.4707866 0.6641505 0.4707866 0.6641505 0.4707866 0.3358495 -0.4707866
373000000 0.3100823 -0.4609309 0.6899177 0.4609309 0.6899177 0.4609309 0.3100823 -0.4609309
394000000 0.2867163 -0.4505343 0.7132837 0.4505343 0.7132837 0.4505343 0.2867163 -0.4505343
415000000 0.2655224 -0.4398188 0.7344776 0.4398188 0.7344776 0.4398188 0.2655224 -0.4398188
436000000 0.2462863 -0.4289552 0.7537137 0.4289552 0.7537137 0.4289552 0.2462863 -0.4289552
457000000 0.2288103 -0.4180735 0.7711897 0.4180735 0.7711897 0.4180735 0.2288103 -0.4180735
478000000 0.2129144 -0.4072716 0.7870856 0.4072716 0.7870856 0.4072716 0.2129144 -0.4072716
499000000 0.1984360 -0.3966220 0.8015640 0.3966220 0.8015640 0.3966220 0.1984360 -0.3966220
520000000 0.1852291 -0.3861774 0.8147709 0.3861774 0.8147709 0.3861774 0.1852291 -0.3861774
541000000 0.1731633 -0.3759751 0.8268367 0.3759751 0.8268367 0.3759751 0.1731633 -0.3759751
562000000 0.1621221 -0.3660405 0.8378779 0.3660405 0.8378779 0.3660405 0.1621221 -0.3660405
583000000 0.1520020 -0.3563897 0.8479980 0.3563897 0.8479980 0.3563897 0.1520020 -0.3563897
604000000 0.1427106 -0.3470318 0.8572894 0.3470318 0.8572894 0.3470318 0.1427106 -0.3470318
625000000 0.1341662 -0.3379705 0.8658338 0.3379705 0.8658338 0.3379705 0.1341662 -0.3379705
646000000 0.1262957 -0.3292056 0.8737043 0.3292056 0.8737043 0.3292056 0.1262957 -0.3292056
667000000 0.1190343 -0.3207338 0.8809657 0.3207338 0.8809657 0.3207338 0.1190343 -0.3207338
688000000 0.1123243 -0.3125494 0.8876757 0.3125494 0.8876757 0.3125494 0.1123243 -0.3125494
709000000 0.1061141 -0.3046453 0.8938859 0.3046453 0.8938859 0.3046453 0.1061141 -0.3046453
730000000 0.1003579 -0.2970134 0.8996421 0.2970134 0.8996421 0.2970134 0.1003579 -0.2970134
751000000 0.0950146 -0.2896448 0.9049854 0.2896448 0.9049854 0.2896448 0.0950146 -0.2896448
772000000 0.0900474 -0.2825299 0.9099526 0.2825299 0.9099526 0.2825299 0.0900474 -0.2825299
793000000 0.0854235 -0.2756591 0.9145765 0.2756591 0.9145765 0.2756591 0.0854235 -0.2756591
814000000 0.0811132 -0.2690229 0.9188868 0.2690229 0.9188868 0.2690229 0.0811132 -0.2690229
835000000 0.0770902 -0.2626115 0.9229098 0.2626115 0.9229098 0.2626115 0.0770902 -0.2626115
856000000 0.0733303 -0.2564156 0.9266697 0.2564156 0.9266697 0.2564156 0.0733303 -0.2564156
877000000 0.0698123 -0.2504258 0.9301877 0.2504258 0.9301877 0.2504258 0.0698123 -0.2504258
898000000 0.0665165 -0.2446333 0.9334835 0.2446333 0.9334835 0.2446333 0.0665165 -0.2446333
919000000 0.0634254 -0.2390293 0.9365746 0.2390293 0.9365746 0.2390293 0.0634254 -0.2390293
940000000 0.0605230 -0.2336056 0.9394770 0.2336056 0.9394770 0.2336056 0.0605230 -0.2336056
961000000 0.0577950 -0.2283541 0.9422050 0.2283541 0.9422050 0.2283541 0.0577950 -0.2283541
982000000 0.0552281 -0.2232673 0.9447719 0.2232673 0.9447719 0.2232673 0.0552281 -0.2232673
1003000000 0.0528105 -0.2183378 0.9471895 0.2183378 0.9471895 0.2183378 0.0528105 -0.2183378
1024000000 0.0505313 -0.2135586 0.9494687 0.2135586 0.9494687 0.2135586 0.0505313 -0.2135586
1045000000 0.0483805 -0.2089231 0.9516195 0.2089231 0.9516195 0.2089231 0.0483805 -0.2089231
1066000000 0.0463491 -0.2044250 0.9536509 0.2044250 0.9536509 0.2044250 0.0463491 -0.2044250
1087000000 0.0444288 -0.2000582 0.9555712 0.2000582 0.9555712 0.2000582 0.0444288 -0.2000582
1108000000 0.0426120 -0.1958171 0.9573880 0.1958171 0.9573880 0.1958171 0.0426120 -0.1958171
1129000000 0.0408917 -0.1916962 0.9591083 0.1916962 0.9591083 0.1916962 0.0408917 -0.1916962
1150000000 0.0392615 -0.1876903 0.9607385 0.1876903 0.9607385 0.1876903 0.0392615 -0.1876903
1171000000 0.0377155 -0.1837946 0.9622845 0.1837946 0.9622845 0.1837946 0.0377155 -0.1837946
1192000000 0.0362483 -0.1800044 0.9637517 0.1800044 0.9637517 0.1800044 0.0362483 -0.1800044
1213000000 0.0348550 -0.1763153 0.9651450 0.1763153 0.9651450 0.1763153 0.0348550 -0.1763153
1234000000 0.0335308 -0.1727230 0.9664692 0.1727230 0.9664692 0.1727230 0.0335308 -0.1727230
1255000000 0.0322716 -0.1692236 0.9677284 0.1692236 0.9677284 0.1692236 0.0322716 -0.1692236
1276000000 0.0310734 -0.1658132 0.9689266 0.1658132 0.9689266 0.1658132 0.0310734 -0.1658132
1297000000 0.0299325 -0.1624884 0.9700675 0.1624884 0.9700675 0.1624884 0.0299325 -0.1624884
1318000000 0.0288456 -0.1592456 0.9711544 0.1592456 0.9711544 0.1592456 0.0288456 -0.1592456
1339000000 0.0278095 -0.1560816 0.9721905 0.1560816 0.9721905 0.1560816 0.0278095 -0.1560816
1360000000 0.0268214 -0.1529933 0.9731786 0.1529933 0.9731786 0.1529933 0.0268214 -0.1529933
1381000000 0.0258784 -0.1499777 0.9741216 0.1499777 0.9741216 0.1499777 0.0258784 -0.1499777
1402000000 0.0249781 -0.1470321 0.9750219 0.1470321 0.9750219 0.1470321 0.0249781 -0.1470321
1423000000 0.0241182 -0.1441537 0.9758818 0.1441537 0.9758818 0.1441537 0.0241182 -0.1441537
1444000000 0.0232963 -0.1413401 0.9767037 0.1413401 0.9767037 0.1413401 0.0232963 -0.1413401
1465000000 0.0225106 -0.1385888 0.9774894 0.1385888 0.9774894 0.1385888 0.0225106 -0.1385888
1486000000 0.0217591 -0.1358974 0.9782409 0.1358974 0.9782409 0.1358974 0.0217591 -0.1358974
1507000000 0.0210399 -0.1332639 0.9789601 0.1332639 0.9789601 0.1332639 0.0210399 -0.1332639
1528000000 0.0203515 -0.1306860 0.9796485 0.1306860 0.9796485 0.1306860 0.0203515 -0.1306860
1549000000 0.0196922 -0.1281619 0.9803078 0.1281619 0.9803078 0.1281619 0.0196922 -0.1281619
1570000000 0.0190606 -0.1256895 0.9809394 0.1256895 0.9809394 0.1256895 0.0190606 -0.1256895
1591000000 0.0184553 -0.1232671 0.9815447 0.1232671 0.9815447 0.1232671 0.0184553 -0.1232671
1612000000 0.0178751 -0.1208928 0.9821249 0.1208928 0.9821249 0.1208928 0.0178751 -0.1208928
1633000000 0.0173186 -0.1185651 0.9826814 0.1185651 0.9826814 0.1185651 0.0173186 -0.1185651
1654000000 0.0167849 -0.1162824 0.9832151 0.1162824 0.9832151 0.1162824 0.0167849 -0.1162824
1675000000 0.0162727 -0.1140430 0.9837273 0.1140430 0.9837273 0.1140430 0.0162727 -0.1140430
1696000000 0.0157811 -0.1118456 0.9842189 0.1118456 0.9842189 0.1118456 0.0157811 -0.1118456
1717000000 0.0153092 -0.1096888 0.9846908 0.1096888 0.9846908 0.1096888 0.0153092 -0.1096888
1738000000 0.0148560 -0.1075711 0.9851440 0.1075711 0.9851440 0.1075711 0.0148560 -0.1075711
1759000000 0.0144206 -0.1054915 0.9855794 0.1054915 0.9855794 0.1054915 0.0144206 -0.1054915
1780000000 0.0140024 -0.1034485 0.9859976 0.1034485 0.9859976 0.1034485 0.0140024 -0.1034485
1801000000 0.0136005 -0.1014410 0.9863995 0.1014410 0.9863995 0.1014410 0.0136005 -0.1014410
1822000000 0.0132143 -0.0994680 0.9867857 0.0994680 0.9867857 0.0994680 0.0132143 -0.0994680
1843000000 0.0128429 -0.0975283 0.9871571 0.0975283 0.9871571 0.0975283 0.0128429 -0.0975283
1864000000 0.0124860 -0.0956208 0.9875140 0.0956208 0.9875140 0.0956208 0.0124860 -0.0956208
1885000000 0.0121427 -0.0937446 0.9878573 0.0937446 0.9878573 0.0937446 0.0121427 -0.0937446
1906000000 0.0118125 -0.0918988 0.9881875 0.0918988 0.9881875 0.0918988 0.0118125 -0.0918988
1927000000 0.0114950 -0.0900823 0.9885050 0.0900823 0.9885050 0.0900823 0.0114950 -0.0900823
1948000000 0.0111895 -0.0882944 0.9888105 0.0882944 0.9888105 0.0882944 0.0111895 -0.0882944
1969000000 0.0108956 -0.0865341 0.9891044 0.0865341 0.9891044 0.0865341 0.0108956 -0.0865341
1990000000 0.0106129 -0.0848007 0.9893871 0.0848007 0.9893871 0.0848007 0.0106129 -0.0848007
2011000000 0.0103408 -0.0830933 0.9896592 0.0830933 0.9896592 0.0830933 0.0103408 -0.0830933
2032000000 0.0100791 -0.0814112 0.9899209 0.0814112 0.9899209 0.0814112 0.0100791 -0.0814112
2053000000 0.0098272 -0.0797537 0.9901728 0.0797537 0.9901728 0.0797537 0.0098272 -0.0797537
2074000000 0.0095847 -0.0781201 0.9904153 0.0781201 0.9904153 0.0781201 0.0095847 -0.0781201
2095000000 0.0093515 -0.0765096 0.9906485 0.0765096 0.9906485 0.0765096 0.0093515 -0.0765096
2116000000 0.0091270 -0.0749217 0.9908730 0.0749217 0.9908730 0.0749217 0.0091270 -0.0749217
2137000000 0.0089110 -0.0733556 0.9910890 0.0733556 0.9910890 0.0733556 0.0089110 -0.0733556
2158000000 0.0087032 -0.0718109 0.9912968 0.0718109 0.9912968 0.0718109 0.0087032 -0.0718109
2179000000 0.0085032 -0.0702869 0.9914968 0.0702869 0.9914968 0.0702869 0.0085032 -0.0702869
2200000000 0.0083108 -0.0687830 0.9916892 0.0687830 0.9916892 0.0687830 0.0083108 -0.0687830
2221000000 0.0081257 -0.0672987 0.9918743 0.0672987 0.9918743 0.0672987 0.0081257 -0.0672987
2242000000 0.0079477 -0.0658335 0.9920523 0.0658335 0.9920523 0.0658335 0.0079477 -0.0658335
2263000000 0.0077765 -0.0643868 0.9922235 0.0643868 0.9922235 0.0643868 0.0077765 -0.0643868
2284000000 0.0076118 -0.0629583 0.9923882 0.0629583 0.9923882 0.0629583 0.0076118 -0.0629583
2305000000 0.0074535 -0.0615473 0.9925465 0.0615473 0.9925465 0.0615473 0.0074535 -0.0615473
2326000000 0.0073014 -0.0601534 0.9926986 0.0601534 0.9926986 0.0601534 0.0073014 -0.0601534
2347000000 0.0071551 -0.0587763 0.9928449 0.0587763 0.9928449 0.0587763 0.0071551 -0.0587763
2368000000 0.0070146 -0.0574154 0.9929854 0.0574154 0.9929854 0.0574154 0.0070146 -0.0574154
2389000000 0.0068797 -0.0560704 0.9931203 0.0560704 0.9931203 0.0560704 0.0068797 -0.0560704
2410000000 0.0067501 -0.0547408 0.9932499 0.0547408 0.9932499 0.0547408 0.0067501 -0.0547408
2431000000 0.0066257 -0.0534262 0.9933743 0.0534262 0.9933743 0.0534262 0.0066257 -0.0534262
2452000000 0.0065064 -0.0521264 0.9934936 0.0521264 0.9934936 0.0521264 0.0065064 -0.0521264
2473000000 0.0063919 -0.0508409 0.9936081 0.0508409 0.9936081 0.0508409 0.0063919 -0.0508409
2494000000 0.0062822 -0.0495693 0.9937178 0.0495693 0.9937178 0.0495693 0.0062822 -0.0495693
2515000000 0.0061770 -0.0483113 0.9938230 0.0483113 0.9938230 0.0483113 0.0061770 -0.0483113
2536000000 0.0060763 -0.0470667 0.9939237 0.0470667 0.9939237 0.0470667 0.0060763 -0.0470667
2557000000 0.0059798 -0.0458350 0.9940202 0.0458350 0.9940202 0.0458350 0.0059798 -0.0458350
2578000000 0.0058876 -0.0446159 0.9941124 0.0446159 0.9941124 0.0446159 0.0058876 -0.0446159
2599000000 0.0057994 -0.0434092 0.9942006 0.0434092 0.9942006 0.0434092 0.0057994 -0.0434092
2620000000 0.0057151 -0.0422146 0.9942849 0.0422146 0.9942849 0.0422146 0.0057151 -0.0422146
2641000000 0.0056347 -0.0410317 0.9943653 0.0410317 0.9943653 0.0410317 0.0056347 -0.0410317
2662000000 0.0055580 -0.0398603 0.9944420 0.0398603 0.9944420 0.0398603 0.0055580 -0.0398603
2683000000 0.0054849 -0.0387002 0.9945151 0.0387002 0.9945151 0.0387002 0.0054849 -0.0387002
2704000000 0.0054153 -0.0375510 0.9945847 0.0375510 0.9945847 0.0375510 0.0054153 -0.0375510
2725000000 0.0053492 -0.0364125 0.9946508 0.0364125 0.9946508 0.0364125 0.0053492 -0.0364125
2746000000 0.0052863 -0.0352845 0.9947137 0.0352845 0.9947137 0.0352845 0.0052863 -0.0352845
2767000000 0.0052267 -0.0341667 0.9947733 0.0341667 0.9947733 0.0341667 0.0052267 -0.0341667
2788000000 0.0051703 -0.0330589 0.9948297 0.0330589 0.9948297 0.0330589 0.0051703 -0.0330589
2809000000 0.0051169 -0.0319609 0.9948831 0.0319609 0.9948831 0.0319609 0.0051169 -0.0319609
2830000000 0.0050665 -0.0308724 0.9949335 0.0308724 0.9949335 0.0308724 0.0050665 -0.0308724
2851000000 0.0050190 -0.0297933 0.9949810 0.0297933 0.9949810 0.0297933 0.0050190 -0.0297933
2872000000 0.0049744 -0.0287232 0.9950256 0.0287232 0.9950256 0.0287232 0.0049744 -0.0287232
2893000000 0.0049325 -0.0276621 0.9950675 0.0276621 0.9950675 0.0276621 0.0049325 -0.0276621
2914000000 0.0048933 -0.0266098 0.9951067 0.0266098 0.9951067 0.0266098 0.0048933 -0.0266098
2935000000 0.0048568 -0.0255659 0.9951432 0.0255659 0.9951432 0.0255659 0.0048568 -0.0255659
2956000000 0.0048228 -0.0245304 0.9951772 0.0245304 0.9951772 0.0245304 0.0048228 -0.0245304
2977000000 0.0047914 -0.0235031 0.9952086 0.0235031 0.9952086 0.0235031 0.0047914 -0.0235031
2998000000 0.0047624 -0.0224837 0.9952376 0.0224837 0.9952376 0.0224837 0.0047624 -0.0224837
3019000000 0.0047358 -0.0214722 0.9952642 0.0214722 0.9952642 0.0214722 0.0047358 -0.0214722
3040000000 0.0047115 -0.0204683 0.9952885 0.0204683 0.9952885 0.0204683 0.0047115 -0.0204683
3061000000 0.0046896 -0.0194719 0.9953104 0.0194719 0.9953104 0.0194719 0.0046896 -0.0194719
3082000000 0.0046699 -0.0184828 0.9953301 0.0184828 0.9953301 0.0184828 0.0046699 -0.0184828
3103000000 0.0046523 -0.0175009 0.9953477 0.0175009 0.9953477 0.0175009 0.0046523 -0.0175009
3124000000 0.0046370 -0.0165259 0.9953630 0.0165259 0.9953630 0.0165259 0.0046370 -0.0165259
3145000000 0.0046237 -0.0155579 0.9953763 0.0155579 0.9953763 0.0155579 0.0046237 -0.0155579
3166000000 0.0046125 -0.0145966 0.9953875 0.0145966 0.9953875 0.0145966 0.0046125 -0.0145966
3187000000 0.0046033 -0.0136418 0.9953967 0.0136418 0.9953967 0.0136418 0.0046033 -0.0136418
3208000000 0.0045961 -0.0126935 0.9954039 0.0126935 0.9954039 0.0126935 0.0045961 -0.0126935
3229000000 0.0045908 -0.0117515 0.9954092 0.0117515 0.9954092 0.0117515 0.0045908 -0.0117515
3250000000 0.0045874 -0.0108157 0.9954126 0.0108157 0.9954126 0.0108157 0.0045874 -0.0108157
3271000000 0.0045859 -0.0098859 0.9954141 0.0098859 0.9954141 0.0098859 0.0045859 -0.0098859
3292000000 0.0045862 -0.0089620 0.9954138 0.0089620 0.9954138 0.0089620 0.0045862 -0.0089620
3313000000 0.0045884 -0.0080439 0.9954116 0.0080439 0.9954116 0.0080439 0.0045884 -0.0080439
3334000000 0.0045923 -0.0071316 0.9954077 0.0071316 0.9954077 0.0071316 0.0045923 -0.0071316
3355000000 0.0045979 -0.0062247 0.9954021 0.0062247 0.9954021 0.0062247 0.0045979 -0.0062247
3376000000 0.0046052 -0.0053234 0.9953948 0.0053234 0.9953948 0.0053234 0.0046052 -0.0053234
3397000000 0.0046142 -0.0044273 0.9953858 0.0044273 0.9953858 0.0044273 0.0046142 -0.0044273
3418000000 0.0046249 -0.0035365 0.9953751 0.0035365 0.9953751 0.0035365 0.0046249 -0.0035365
3439000000 0.0046372 -0.0026508 0.9953628 0.0026508 0.9953628 0.0026508 0.0046372 -0.0026508
3460000000 0.0046511 -0.0017701 0.9953489 0.0017701 0.9953489 0.0017701 0.0046511 -0.0017701
3481000000 0.0046665 -0.0008943 0.9953335 0.0008943 0.9953335 0.0008943 0.0046665 -0.0008943
3502000000 0.0046835 -0.0000234 0.9953165 0.0000234 0.9953165 0.0000234 0.0046835 -0.0000234
3523000000 0.0047021 0.0008429 0.9952979 -0.0008429 0.9952979 -0.0008429 0.0047021 0.0008429
3544000000 0.0047221 0.0017045 0.9952779 -0.0017045 0.9952779 -0.0017045 0.0047221 0.0017045
3565000000 0.0047437 0.0025616 0.9952563 -0.0025616 0.9952563 -0.0025616 0.0047437 0.0025616
3586000000 0.0047667 0.0034143 0.9952333 -0.0034143 0.9952333 -0.0034143 0.0047667 0.0034143
3607000000 0.0047911 0.0042626 0.9952089 -0.0042626 0.9952089 -0.0042626 0.0047911 0.0042626
3628000000 0.0048170 0.0051067 0.9951830 -0.0051067 0.9951830 -0.0051067 0.0048170 0.0051067
3649000000 0.0048443 0.0059466 0.9951557 -0.0059466 0.9951557 -0.0059466 0.0048443 0.0059466
3670000000 0.0048730 0.0067825 0.9951270 -0.0067825 0.9951270 -0.0067825 0.0048730 0.0067825
3691000000 0.0049030 0.0076143 0.9950970 -0.0076143 0.9950970 -0.0076143 0.0049030 0.0076143
3712000000 0.0049345 0.0084422 0.9950655 -0.0084422 0.9950655 -0.0084422 0.0049345 0.0084422
3733000000 0.0049672 0.0092663 0.9950328 -0.0092663 0.9950328 -0.0092663 0.0049672 0.0092663
3754000000 0.0050013 0.0100866 0.9949987 -0.0100866 0.9949987 -0.0100866 0.0050013 0.0100866
3775000000 0.0050368 0.0109033 0.9949632 -0.0109033 0.9949632 -0.0109033 0.0050368 0.0109033
3796000000 0.0050735 0.0117163 0.9949265 -0.0117163 0.9949265 -0.0117163 0.0050735 0.0117163
3817000000 0.0051115 0.0125258 0.9948885 -0.0125258 0.9948885 -0.0125258 0.0051115 0.0125258
3838000000 0.0051509 0.0133319 0.9948491 -0.0133319 0.9948491 -0.0133319 0.0051509 0.0133319
3859000000 0.0051915 0.0141346 0.9948085 -0.0141346 0.9948085 -0.0141346 0.0051915 0.0141346
3880000000 0.0052333 0.0149339 0.9947667 -0.0149339 0.9947667 -0.0149339 0.0052333 0.0149339
3901000000 0.0052764 0.0157300 0.9947236 -0.0157300 0.9947236 -0.0157300 0.0052764 0.0157300
3922000000 0.0053208 0.0165229 0.9946792 -0.0165229 0.9946792 -0.0165229 0.0053208 0.0165229
3943000000 0.0053664 0.0173127 0.9946336 -0.0173127 0.9946336 -0.0173127 0.0053664 0.0173127
3964000000 0.0054132 0.0180995 0.9945868 -0.0180995 0.9945868 -0.0180995 0.0054132 0.0180995
3985000000 0.0054613 0.0188833 0.9945387 -0.0188833 0.9945387 -0.0188833 0.0054613 0.0188833
4006000000 0.0055106 0.0196641 0.9944894 -0.0196641 0.9944894 -0.0196641 0.0055106 0.0196641
4027000000 0.0055610 0.0204421 0.9944390 -0.0204421 0.9944390 -0.0204421 0.0055610 0.0204421
4048000000 0.0056127 0.0212173 0.9943873 -0.0212173 0.9943873 -0.0212173 0.0056127 0.0212173
4069000000 0.0056656 0.0219898 0.9943344 -0.0219898 0.9943344 -0.0219898 0.0056656 0.0219898
4090000000 0.0057197 0.0227596 0.9942803 -0.0227596 0.9942803 -0.0227596 0.0057197 0.0227596
4111000000 0.0057749 0.0235268 0.9942251 -0.0235268 0.9942251 -0.0235268 0.0057749 0.0235268
4132000000 0.0058314 0.0242914 0.9941686 -0.0242914 0.9941686 -0.0242914 0.0058314 0.0242914
4153000000 0.0058890 0.0250535 0.9941110 -0.0250535 0.9941110 -0.0250535 0.0058890 0.0250535
4174000000 0.0059478 0.0258131 0.9940522 -0.0258131 0.9940522 -0.0258131 0.0059478 0.0258131
4195000000 0.0060078 0.0265704 0.9939922 -0.0265704 0.9939922 -0.0265704 0.0060078 0.0265704
4216000000 0.0060690 0.0273253 0.9939310 -0.0273253 0.9939310 -0.0273253 0.0060690 0.0273253
4237000000 0.0061313 0.0280779 0.9938687 -0.0280779 0.9938687 -0.0280779 0.0061313 0.0280779
4258000000 0.0061948 0.0288283 0.9938052 -0.0288283 0.9938052 -0.0288283 0.0061948 0.0288283
4279000000 0.0062595 0.0295765 0.9937405 -0.0295765 0.9937405 -0.0295765 0.0062595 0.0295765
4300000000 0.0063254 0.0303226 0.9936746 -0.0303226 0.9936746 -0.0303226 0.0063254 0.0303226
4321000000 0.0063924 0.0310666 0.9936076 -0.0310666 0.9936076 -0.0310666 0.0063924 0.0310666
4342000000 0.0064606 0.0318086 0.9935394 -0.0318086 0.9935394 -0.0318086 0.0064606 0.0318086
4363000000 0.0065300 0.0325486 0.9934700 -0.0325486 0.9934700 -0.0325486 0.0065300 0.0325486
4384000000 0.0066006 0.0332866 0.9933994 -0.0332866 0.9933994 -0.0332866 0.0066006 0.0332866
4405000000 0.0066724 0.0340228 0.9933276 -0.0340228 0.9933276 -0.0340228 0.0066724 0.0340228
4426000000 0.0067453 0.0347571 0.9932547 -0.0347571 0.9932547 -0.0347571 0.0067453 0.0347571
4447000000 0.0068194 0.0354896 0.9931806 -0.0354896 0.9931806 -0.0354896 0.0068194 0.0354896
4468000000 0.0068948 0.0362204 0.9931052 -0.0362204 0.9931052 -0.0362204 0.0068948 0.0362204
4489000000 0.0069713 0.0369494 0.9930287 -0.0369494 0.9930287 -0.0369494 0.0069713 0.0369494
4510000000 0.0070490 0.0376768 0.9929510 -0.0376768 0.9929510 -0.0376768 0.0070490 0.0376768
