!Murata Part Number: GRM1553C1H2R3CA01
!These Parameters are Measured in Series Mode Connection
!Data Generated on Mar 30, 2021
!       o--ll--o
!Port1            Port2
!       o------o
!Operation Temp=25[degC], DC Bias Voltage=0[V]
!Freq. Start=100[MHz] Stop=9[GHz] 401[Steps]
# Hz S RI R 50
!Freq.(Hz) S11(Real) S11(Imag) S21(Real) S21(Imag) S12(Real) S12(Imag) S22(Real) S22(Imag)
100000000 0.9794678 -0.1415809 0.0205322 0.1415809 0.0205322 0.1415809 0.9794678 -0.1415809
121000000 0.9702150 -0.1697139 0.0297850 0.1697139 0.0297850 0.1697139 0.9702150 -0.1697139
142000000 0.9594230 -0.1969798 0.0405770 0.1969798 0.0405770 0.1969798 0.9594230 -0.1969798
163000000 0.9471963 -0.2232642 0.0528037 0.2232642 0.0528037 0.2232642 0.9471963 -0.2232642
184000000 0.9336493 -0.2484683 0.0663507 0.2484683 0.0663507 0.2484683 0.9336493 -0.2484683
205000000 0.9189034 -0.2725088 0.0810966 0.2725088 0.0810966 0.2725088 0.9189034 -0.2725088
226000000 0.9030851 -0.2953185 0.0969149 0.2953185 0.0969149 0.2953185 0.9030851 -0.2953185
247000000 0.8863229 -0.3168463 0.1136771 0.3168463 0.1136771 0.3168463 0.8863229 -0.3168463
268000000 0.8687460 -0.3370566 0.1312540 0.3370566 0.1312540 0.3370566 0.8687460 -0.3370566
289000000 0.8504813 -0.3559286 0.1495187 0.3559286 0.1495187 0.3559286 0.8504813 -0.3559286
310000000 0.8316525 -0.3734550 0.1683475 0.3734550 0.1683475 0.3734550 0.8316525 -0.3734550
331000000 0.8123781 -0.3896411 0.1876219 0.3896411 0.1876219 0.3896411 0.8123781 -0.3896411
352000000 0.7927705 -0.4045032 0.2072295 0.4045032 0.2072295 0.4045032 0.7927705 -0.4045032
373000000 0.7729349 -0.4180674 0.2270651 0.4180674 0.2270651 0.4180674 0.7729349 -0.4180674
394000000 0.7529688 -0.4303679 0.2470312 0.4303679 0.2470312 0.4303679 0.7529688 -0.4303679
415000000 0.7329614 -0.4414458 0.2670386 0.4414458 0.2670386 0.4414458 0.7329614 -0.4414458
436000000 0.7129938 -0.4513478 0.2870062 0.4513478 0.2870062 0.4513478 0.7129938 -0.4513478
457000000 0.6931384 -0.4601248 0.3068616 0.4601248 0.3068616 0.4601248 0.6931384 -0.4601248
478000000 0.6734597 -0.4678308 0.3265403 0.4678308 0.3265403 0.4678308 0.6734597 -0.4678308
499000000 0.6540140 -0.4745217 0.3459860 0.4745217 0.3459860 0.4745217 0.6540140 -0.4745217
520000000 0.6348502 -0.4802548 0.3651498 0.4802548 0.3651498 0.4802548 0.6348502 -0.4802548
541000000 0.6160101 -0.4850877 0.3839899 0.4850877 0.3839899 0.4850877 0.6160101 -0.4850877
562000000 0.5975286 -0.4890774 0.4024714 0.4890774 0.4024714 0.4890774 0.5975286 -0.4890774
583000000 0.5794348 -0.4922804 0.4205652 0.4922804 0.4205652 0.4922804 0.5794348 -0.4922804
604000000 0.5617519 -0.4947516 0.4382481 0.4947516 0.4382481 0.4947516 0.5617519 -0.4947516
625000000 0.5444984 -0.4965443 0.4555016 0.4965443 0.4555016 0.4965443 0.5444984 -0.4965443
646000000 0.5276879 -0.4977097 0.4723121 0.4977097 0.4723121 0.4977097 0.5276879 -0.4977097
667000000 0.5113302 -0.4982969 0.4886698 0.4982969 0.4886698 0.4982969 0.5113302 -0.4982969
688000000 0.4954313 -0.4983525 0.5045687 0.4983525 0.5045687 0.4983525 0.4954313 -0.4983525
709000000 0.4799944 -0.4979209 0.5200056 0.4979209 0.5200056 0.4979209 0.4799944 -0.4979209
730000000 0.4650196 -0.4970439 0.5349804 0.4970439 0.5349804 0.4970439 0.4650196 -0.4970439
751000000 0.4505050 -0.4957607 0.5494950 0.4957607 0.5494950 0.4957607 0.4505050 -0.4957607
772000000 0.4364463 -0.4941083 0.5635537 0.4941083 0.5635537 0.4941083 0.4364463 -0.4941083
793000000 0.4228378 -0.4921209 0.5771622 0.4921209 0.5771622 0.4921209 0.4228378 -0.4921209
814000000 0.4096724 -0.4898308 0.5903276 0.4898308 0.5903276 0.4898308 0.4096724 -0.4898308
835000000 0.3969417 -0.4872677 0.6030583 0.4872677 0.6030583 0.4872677 0.3969417 -0.4872677
856000000 0.3846364 -0.4844595 0.6153636 0.4844595 0.6153636 0.4844595 0.3846364 -0.4844595
877000000 0.3727465 -0.4814316 0.6272535 0.4814316 0.6272535 0.4814316 0.3727465 -0.4814316
898000000 0.3612612 -0.4782079 0.6387388 0.4782079 0.6387388 0.4782079 0.3612612 -0.4782079
919000000 0.3501696 -0.4748101 0.6498304 0.4748101 0.6498304 0.4748101 0.3501696 -0.4748101
940000000 0.3394604 -0.4712584 0.6605396 0.4712584 0.6605396 0.4712584 0.3394604 -0.4712584
961000000 0.3291219 -0.4675713 0.6708781 0.4675713 0.6708781 0.4675713 0.3291219 -0.4675713
982000000 0.3191425 -0.4637658 0.6808575 0.4637658 0.6808575 0.4637658 0.3191425 -0.4637658
1003000000 0.3095106 -0.4598574 0.6904894 0.4598574 0.6904894 0.4598574 0.3095106 -0.4598574
1024000000 0.3002146 -0.4558604 0.6997854 0.4558604 0.6997854 0.4558604 0.3002146 -0.4558604
1045000000 0.2912429 -0.4517879 0.7087571 0.4517879 0.7087571 0.4517879 0.2912429 -0.4517879
1066000000 0.2825844 -0.4476518 0.7174156 0.4476518 0.7174156 0.4476518 0.2825844 -0.4476518
1087000000 0.2742278 -0.4434628 0.7257722 0.4434628 0.7257722 0.4434628 0.2742278 -0.4434628
1108000000 0.2661622 -0.4392309 0.7338378 0.4392309 0.7338378 0.4392309 0.2661622 -0.4392309
1129000000 0.2583771 -0.4349651 0.7416229 0.4349651 0.7416229 0.4349651 0.2583771 -0.4349651
1150000000 0.2508621 -0.4306736 0.7491379 0.4306736 0.7491379 0.4306736 0.2508621 -0.4306736
1171000000 0.2436070 -0.4263637 0.7563930 0.4263637 0.7563930 0.4263637 0.2436070 -0.4263637
1192000000 0.2366022 -0.4220422 0.7633978 0.4220422 0.7633978 0.4220422 0.2366022 -0.4220422
1213000000 0.2298381 -0.4177151 0.7701619 0.4177151 0.7701619 0.4177151 0.2298381 -0.4177151
1234000000 0.2233056 -0.4133880 0.7766944 0.4133880 0.7766944 0.4133880 0.2233056 -0.4133880
1255000000 0.2169958 -0.4090657 0.7830042 0.4090657 0.7830042 0.4090657 0.2169958 -0.4090657
1276000000 0.2109003 -0.4047527 0.7890997 0.4047527 0.7890997 0.4047527 0.2109003 -0.4047527
1297000000 0.2050108 -0.4004530 0.7949892 0.4004530 0.7949892 0.4004530 0.2050108 -0.4004530
1318000000 0.1993193 -0.3961701 0.8006807 0.3961701 0.8006807 0.3961701 0.1993193 -0.3961701
1339000000 0.1938183 -0.3919073 0.8061817 0.3919073 0.8061817 0.3919073 0.1938183 -0.3919073
1360000000 0.1885004 -0.3876675 0.8114996 0.3876675 0.8114996 0.3876675 0.1885004 -0.3876675
1381000000 0.1833586 -0.3834530 0.8166414 0.3834530 0.8166414 0.3834530 0.1833586 -0.3834530
1402000000 0.1783860 -0.3792663 0.8216140 0.3792663 0.8216140 0.3792663 0.1783860 -0.3792663
1423000000 0.1735763 -0.3751091 0.8264237 0.3751091 0.8264237 0.3751091 0.1735763 -0.3751091
1444000000 0.1689231 -0.3709834 0.8310769 0.3709834 0.8310769 0.3709834 0.1689231 -0.3709834
1465000000 0.1644204 -0.3668905 0.8355796 0.3668905 0.8355796 0.3668905 0.1644204 -0.3668905
1486000000 0.1600626 -0.3628319 0.8399374 0.3628319 0.8399374 0.3628319 0.1600626 -0.3628319
1507000000 0.1558441 -0.3588086 0.8441559 0.3588086 0.8441559 0.3588086 0.1558441 -0.3588086
1528000000 0.1517597 -0.3548216 0.8482403 0.3548216 0.8482403 0.3548216 0.1517597 -0.3548216
1549000000 0.1478042 -0.3508717 0.8521958 0.3508717 0.8521958 0.3508717 0.1478042 -0.3508717
1570000000 0.1439728 -0.3469595 0.8560272 0.3469595 0.8560272 0.3469595 0.1439728 -0.3469595
1591000000 0.1402609 -0.3430858 0.8597391 0.3430858 0.8597391 0.3430858 0.1402609 -0.3430858
1612000000 0.1366640 -0.3392507 0.8633360 0.3392507 0.8633360 0.3392507 0.1366640 -0.3392507
1633000000 0.1331778 -0.3354548 0.8668222 0.3354548 0.8668222 0.3354548 0.1331778 -0.3354548
1654000000 0.1297983 -0.3316983 0.8702017 0.3316983 0.8702017 0.3316983 0.1297983 -0.3316983
1675000000 0.1265214 -0.3279813 0.8734786 0.3279813 0.8734786 0.3279813 0.1265214 -0.3279813
1696000000 0.1233436 -0.3243038 0.8766564 0.3243038 0.8766564 0.3243038 0.1233436 -0.3243038
1717000000 0.1202610 -0.3206660 0.8797390 0.3206660 0.8797390 0.3206660 0.1202610 -0.3206660
1738000000 0.1172704 -0.3170677 0.8827296 0.3170677 0.8827296 0.3170677 0.1172704 -0.3170677
1759000000 0.1143684 -0.3135090 0.8856316 0.3135090 0.8856316 0.3135090 0.1143684 -0.3135090
1780000000 0.1115517 -0.3099895 0.8884483 0.3099895 0.8884483 0.3099895 0.1115517 -0.3099895
1801000000 0.1088174 -0.3065092 0.8911826 0.3065092 0.8911826 0.3065092 0.1088174 -0.3065092
1822000000 0.1061626 -0.3030677 0.8938374 0.3030677 0.8938374 0.3030677 0.1061626 -0.3030677
1843000000 0.1035844 -0.2996649 0.8964156 0.2996649 0.8964156 0.2996649 0.1035844 -0.2996649
1864000000 0.1010802 -0.2963005 0.8989198 0.2963005 0.8989198 0.2963005 0.1010802 -0.2963005
1885000000 0.0986473 -0.2929740 0.9013527 0.2929740 0.9013527 0.2929740 0.0986473 -0.2929740
1906000000 0.0962834 -0.2896852 0.9037166 0.2896852 0.9037166 0.2896852 0.0962834 -0.2896852
1927000000 0.0939860 -0.2864337 0.9060140 0.2864337 0.9060140 0.2864337 0.0939860 -0.2864337
1948000000 0.0917529 -0.2832191 0.9082471 0.2832191 0.9082471 0.2832191 0.0917529 -0.2832191
1969000000 0.0895819 -0.2800410 0.9104181 0.2800410 0.9104181 0.2800410 0.0895819 -0.2800410
1990000000 0.0874709 -0.2768990 0.9125291 0.2768990 0.9125291 0.2768990 0.0874709 -0.2768990
2011000000 0.0854178 -0.2737926 0.9145822 0.2737926 0.9145822 0.2737926 0.0854178 -0.2737926
2032000000 0.0834208 -0.2707214 0.9165792 0.2707214 0.9165792 0.2707214 0.0834208 -0.2707214
2053000000 0.0814780 -0.2676850 0.9185220 0.2676850 0.9185220 0.2676850 0.0814780 -0.2676850
2074000000 0.0795876 -0.2646828 0.9204124 0.2646828 0.9204124 0.2646828 0.0795876 -0.2646828
2095000000 0.0777479 -0.2617146 0.9222521 0.2617146 0.9222521 0.2617146 0.0777479 -0.2617146
2116000000 0.0759572 -0.2587797 0.9240428 0.2587797 0.9240428 0.2587797 0.0759572 -0.2587797
2137000000 0.0742140 -0.2558777 0.9257860 0.2558777 0.9257860 0.2558777 0.0742140 -0.2558777
2158000000 0.0725168 -0.2530082 0.9274832 0.2530082 0.9274832 0.2530082 0.0725168 -0.2530082
2179000000 0.0708640 -0.2501706 0.9291360 0.2501706 0.9291360 0.2501706 0.0708640 -0.2501706
2200000000 0.0692543 -0.2473646 0.9307457 0.2473646 0.9307457 0.2473646 0.0692543 -0.2473646
2221000000 0.0676863 -0.2445896 0.9323137 0.2445896 0.9323137 0.2445896 0.0676863 -0.2445896
2242000000 0.0661588 -0.2418451 0.9338412 0.2418451 0.9338412 0.2418451 0.0661588 -0.2418451
2263000000 0.0646704 -0.2391308 0.9353296 0.2391308 0.9353296 0.2391308 0.0646704 -0.2391308
2284000000 0.0632200 -0.2364462 0.9367800 0.2364462 0.9367800 0.2364462 0.0632200 -0.2364462
2305000000 0.0618064 -0.2337907 0.9381936 0.2337907 0.9381936 0.2337907 0.0618064 -0.2337907
2326000000 0.0604284 -0.2311639 0.9395716 0.2311639 0.9395716 0.2311639 0.0604284 -0.2311639
2347000000 0.0590851 -0.2285655 0.9409149 0.2285655 0.9409149 0.2285655 0.0590851 -0.2285655
2368000000 0.0577753 -0.2259949 0.9422247 0.2259949 0.9422247 0.2259949 0.0577753 -0.2259949
2389000000 0.0564981 -0.2234517 0.9435019 0.2234517 0.9435019 0.2234517 0.0564981 -0.2234517
2410000000 0.0552526 -0.2209354 0.9447474 0.2209354 0.9447474 0.2209354 0.0552526 -0.2209354
2431000000 0.0540376 -0.2184457 0.9459624 0.2184457 0.9459624 0.2184457 0.0540376 -0.2184457
2452000000 0.0528525 -0.2159821 0.9471475 0.2159821 0.9471475 0.2159821 0.0528525 -0.2159821
2473000000 0.0516963 -0.2135441 0.9483037 0.2135441 0.9483037 0.2135441 0.0516963 -0.2135441
2494000000 0.0505682 -0.2111315 0.9494318 0.2111315 0.9494318 0.2111315 0.0505682 -0.2111315
2515000000 0.0494673 -0.2087436 0.9505327 0.2087436 0.9505327 0.2087436 0.0494673 -0.2087436
2536000000 0.0483930 -0.2063803 0.9516070 0.2063803 0.9516070 0.2063803 0.0483930 -0.2063803
2557000000 0.0473444 -0.2040409 0.9526556 0.2040409 0.9526556 0.2040409 0.0473444 -0.2040409
2578000000 0.0463209 -0.2017253 0.9536791 0.2017253 0.9536791 0.2017253 0.0463209 -0.2017253
2599000000 0.0453217 -0.1994329 0.9546783 0.1994329 0.9546783 0.1994329 0.0453217 -0.1994329
2620000000 0.0443462 -0.1971634 0.9556538 0.1971634 0.9556538 0.1971634 0.0443462 -0.1971634
2641000000 0.0433937 -0.1949164 0.9566063 0.1949164 0.9566063 0.1949164 0.0433937 -0.1949164
2662000000 0.0424636 -0.1926916 0.9575364 0.1926916 0.9575364 0.1926916 0.0424636 -0.1926916
2683000000 0.0415553 -0.1904885 0.9584447 0.1904885 0.9584447 0.1904885 0.0415553 -0.1904885
2704000000 0.0406682 -0.1883069 0.9593318 0.1883069 0.9593318 0.1883069 0.0406682 -0.1883069
2725000000 0.0398017 -0.1861464 0.9601983 0.1861464 0.9601983 0.1861464 0.0398017 -0.1861464
2746000000 0.0389553 -0.1840066 0.9610447 0.1840066 0.9610447 0.1840066 0.0389553 -0.1840066
2767000000 0.0381285 -0.1818872 0.9618715 0.1818872 0.9618715 0.1818872 0.0381285 -0.1818872
2788000000 0.0373208 -0.1797878 0.9626792 0.1797878 0.9626792 0.1797878 0.0373208 -0.1797878
2809000000 0.0365316 -0.1777082 0.9634684 0.1777082 0.9634684 0.1777082 0.0365316 -0.1777082
2830000000 0.0357604 -0.1756480 0.9642396 0.1756480 0.9642396 0.1756480 0.0357604 -0.1756480
2851000000 0.0350069 -0.1736069 0.9649931 0.1736069 0.9649931 0.1736069 0.0350069 -0.1736069
2872000000 0.0342706 -0.1715846 0.9657294 0.1715846 0.9657294 0.1715846 0.0342706 -0.1715846
2893000000 0.0335509 -0.1695807 0.9664491 0.1695807 0.9664491 0.1695807 0.0335509 -0.1695807
2914000000 0.0328476 -0.1675951 0.9671524 0.1675951 0.9671524 0.1675951 0.0328476 -0.1675951
2935000000 0.0321602 -0.1656273 0.9678398 0.1656273 0.9678398 0.1656273 0.0321602 -0.1656273
2956000000 0.0314884 -0.1636771 0.9685116 0.1636771 0.9685116 0.1636771 0.0314884 -0.1636771
2977000000 0.0308316 -0.1617443 0.9691684 0.1617443 0.9691684 0.1617443 0.0308316 -0.1617443
2998000000 0.0301896 -0.1598284 0.9698104 0.1598284 0.9698104 0.1598284 0.0301896 -0.1598284
3019000000 0.0295621 -0.1579294 0.9704379 0.1579294 0.9704379 0.1579294 0.0295621 -0.1579294
3040000000 0.0289486 -0.1560468 0.9710514 0.1560468 0.9710514 0.1560468 0.0289486 -0.1560468
3061000000 0.0283488 -0.1541805 0.9716512 0.1541805 0.9716512 0.1541805 0.0283488 -0.1541805
3082000000 0.0277624 -0.1523301 0.9722376 0.1523301 0.9722376 0.1523301 0.0277624 -0.1523301
3103000000 0.0271891 -0.1504954 0.9728109 0.1504954 0.9728109 0.1504954 0.0271891 -0.1504954
3124000000 0.0266286 -0.1486763 0.9733714 0.1486763 0.9733714 0.1486763 0.0266286 -0.1486763
3145000000 0.0260805 -0.1468723 0.9739195 0.1468723 0.9739195 0.1468723 0.0260805 -0.1468723
3166000000 0.0255447 -0.1450833 0.9744553 0.1450833 0.9744553 0.1450833 0.0255447 -0.1450833
3187000000 0.0250207 -0.1433091 0.9749793 0.1433091 0.9749793 0.1433091 0.0250207 -0.1433091
3208000000 0.0245085 -0.1415494 0.9754915 0.1415494 0.9754915 0.1415494 0.0245085 -0.1415494
3229000000 0.0240076 -0.1398040 0.9759924 0.1398040 0.9759924 0.1398040 0.0240076 -0.1398040
3250000000 0.0235178 -0.1380726 0.9764822 0.1380726 0.9764822 0.1380726 0.0235178 -0.1380726
3271000000 0.0230389 -0.1363551 0.9769611 0.1363551 0.9769611 0.1363551 0.0230389 -0.1363551
3292000000 0.0225707 -0.1346513 0.9774293 0.1346513 0.9774293 0.1346513 0.0225707 -0.1346513
3313000000 0.0221128 -0.1329608 0.9778872 0.1329608 0.9778872 0.1329608 0.0221128 -0.1329608
3334000000 0.0216652 -0.1312836 0.9783348 0.1312836 0.9783348 0.1312836 0.0216652 -0.1312836
3355000000 0.0212275 -0.1296194 0.9787725 0.1296194 0.9787725 0.1296194 0.0212275 -0.1296194
3376000000 0.0207996 -0.1279680 0.9792004 0.1279680 0.9792004 0.1279680 0.0207996 -0.1279680
3397000000 0.0203812 -0.1263292 0.9796188 0.1263292 0.9796188 0.1263292 0.0203812 -0.1263292
3418000000 0.0199721 -0.1247028 0.9800279 0.1247028 0.9800279 0.1247028 0.0199721 -0.1247028
3439000000 0.0195722 -0.1230887 0.9804278 0.1230887 0.9804278 0.1230887 0.0195722 -0.1230887
3460000000 0.0191813 -0.1214866 0.9808187 0.1214866 0.9808187 0.1214866 0.0191813 -0.1214866
3481000000 0.0187991 -0.1198964 0.9812009 0.1198964 0.9812009 0.1198964 0.0187991 -0.1198964
3502000000 0.0184255 -0.1183179 0.9815745 0.1183179 0.9815745 0.1183179 0.0184255 -0.1183179
3523000000 0.0180604 -0.1167509 0.9819396 0.1167509 0.9819396 0.1167509 0.0180604 -0.1167509
3544000000 0.0177035 -0.1151953 0.9822965 0.1151953 0.9822965 0.1151953 0.0177035 -0.1151953
3565000000 0.0173547 -0.1136508 0.9826453 0.1136508 0.9826453 0.1136508 0.0173547 -0.1136508
3586000000 0.0170138 -0.1121173 0.9829862 0.1121173 0.9829862 0.1121173 0.0170138 -0.1121173
3607000000 0.0166806 -0.1105947 0.9833194 0.1105947 0.9833194 0.1105947 0.0166806 -0.1105947
3628000000 0.0163551 -0.1090828 0.9836449 0.1090828 0.9836449 0.1090828 0.0163551 -0.1090828
3649000000 0.0160371 -0.1075814 0.9839629 0.1075814 0.9839629 0.1075814 0.0160371 -0.1075814
3670000000 0.0157264 -0.1060903 0.9842736 0.1060903 0.9842736 0.1060903 0.0157264 -0.1060903
3691000000 0.0154229 -0.1046096 0.9845771 0.1046096 0.9845771 0.1046096 0.0154229 -0.1046096
3712000000 0.0151264 -0.1031388 0.9848736 0.1031388 0.9848736 0.1031388 0.0151264 -0.1031388
3733000000 0.0148369 -0.1016780 0.9851631 0.1016780 0.9851631 0.1016780 0.0148369 -0.1016780
3754000000 0.0145542 -0.1002270 0.9854458 0.1002270 0.9854458 0.1002270 0.0145542 -0.1002270
3775000000 0.0142781 -0.0987857 0.9857219 0.0987857 0.9857219 0.0987857 0.0142781 -0.0987857
3796000000 0.0140086 -0.0973539 0.9859914 0.0973539 0.9859914 0.0973539 0.0140086 -0.0973539
3817000000 0.0137455 -0.0959314 0.9862545 0.0959314 0.9862545 0.0959314 0.0137455 -0.0959314
3838000000 0.0134887 -0.0945182 0.9865113 0.0945182 0.9865113 0.0945182 0.0134887 -0.0945182
3859000000 0.0132381 -0.0931140 0.9867619 0.0931140 0.9867619 0.0931140 0.0132381 -0.0931140
3880000000 0.0129937 -0.0917189 0.9870063 0.0917189 0.9870063 0.0917189 0.0129937 -0.0917189
3901000000 0.0127552 -0.0903326 0.9872448 0.0903326 0.9872448 0.0903326 0.0127552 -0.0903326
3922000000 0.0125226 -0.0889551 0.9874774 0.0889551 0.9874774 0.0889551 0.0125226 -0.0889551
3943000000 0.0122957 -0.0875861 0.9877043 0.0875861 0.9877043 0.0875861 0.0122957 -0.0875861
3964000000 0.0120746 -0.0862256 0.9879254 0.0862256 0.9879254 0.0862256 0.0120746 -0.0862256
3985000000 0.0118591 -0.0848736 0.9881409 0.0848736 0.9881409 0.0848736 0.0118591 -0.0848736
4006000000 0.0116490 -0.0835297 0.9883510 0.0835297 0.9883510 0.0835297 0.0116490 -0.0835297
4027000000 0.0114444 -0.0821940 0.9885556 0.0821940 0.9885556 0.0821940 0.0114444 -0.0821940
4048000000 0.0112451 -0.0808664 0.9887549 0.0808664 0.9887549 0.0808664 0.0112451 -0.0808664
4069000000 0.0110510 -0.0795466 0.9889490 0.0795466 0.9889490 0.0795466 0.0110510 -0.0795466
4090000000 0.0108621 -0.0782347 0.9891379 0.0782347 0.9891379 0.0782347 0.0108621 -0.0782347
4111000000 0.0106782 -0.0769305 0.9893218 0.0769305 0.9893218 0.0769305 0.0106782 -0.0769305
4132000000 0.0104994 -0.0756339 0.9895006 0.0756339 0.9895006 0.0756339 0.0104994 -0.0756339
4153000000 0.0103254 -0.0743447 0.9896746 0.0743447 0.9896746 0.0743447 0.0103254 -0.0743447
4174000000 0.0101563 -0.0730630 0.9898437 0.0730630 0.9898437 0.0730630 0.0101563 -0.0730630
4195000000 0.0099919 -0.0717886 0.9900081 0.0717886 0.9900081 0.0717886 0.0099919 -0.0717886
4216000000 0.0098323 -0.0705214 0.9901677 0.0705214 0.9901677 0.0705214 0.0098323 -0.0705214
4237000000 0.0096773 -0.0692613 0.9903227 0.0692613 0.9903227 0.0692613 0.0096773 -0.0692613
4258000000 0.0095268 -0.0680082 0.9904732 0.0680082 0.9904732 0.0680082 0.0095268 -0.0680082
4279000000 0.0093808 -0.0667620 0.9906192 0.0667620 0.9906192 0.0667620 0.0093808 -0.0667620
4300000000 0.0092393 -0.0655227 0.9907607 0.0655227 0.9907607 0.0655227 0.0092393 -0.0655227
4321000000 0.0091021 -0.0642901 0.9908979 0.0642901 0.9908979 0.0642901 0.0091021 -0.0642901
4342000000 0.0089692 -0.0630642 0.9910308 0.0630642 0.9910308 0.0630642 0.0089692 -0.0630642
4363000000 0.0088406 -0.0618448 0.9911594 0.0618448 0.9911594 0.0618448 0.0088406 -0.0618448
4384000000 0.0087161 -0.0606319 0.9912839 0.0606319 0.9912839 0.0606319 0.0087161 -0.0606319
4405000000 0.0085958 -0.0594254 0.9914042 0.0594254 0.9914042 0.0594254 0.0085958 -0.0594254
4426000000 0.0084796 -0.0582252 0.9915204 0.0582252 0.9915204 0.0582252 0.0084796 -0.0582252
4447000000 0.0083674 -0.0570313 0.9916326 0.0570313 0.9916326 0.0570313 0.0083674 -0.0570313
4468000000 0.0082591 -0.0558436 0.9917409 0.0558436 0.9917409 0.0558436 0.0082591 -0.0558436
4489000000 0.0081548 -0.0546619 0.9918452 0.0546619 0.9918452 0.0546619 0.0081548 -0.0546619
4510000000 0.0080543 -0.0534862 0.9919457 0.0534862 0.9919457 0.0534862 0.0080543 -0.0534862
