!Murata Part Number: GRM1555C1H6R8CA01
!These Parameters are Measured in Series Mode Connection
!Data Generated on Mar 30, 2021
!       o--ll--o
!Port1            Port2
!       o------o
!Operation Temp=25[degC], DC Bias Voltage=0[V]
!Freq. Start=100[MHz] Stop=9[GHz] 401[Steps]
# Hz S RI R 50
!Freq.(Hz) S11(Real) S11(Imag) S21(Real) S21(Imag) S12(Real) S12(Imag) S22(Real) S22(Imag)
100000000 0.8451867 -0.3612979 0.1548133 0.3612979 0.1548133 0.3612979 0.8451867 -0.3612979
121000000 0.7884230 -0.4079068 0.2115770 0.4079068 0.2115770 0.4079068 0.7884230 -0.4079068
142000000 0.7299951 -0.4433508 0.2700049 0.4433508 0.2700049 0.4433508 0.7299951 -0.4433508
163000000 0.6721343 -0.4687323 0.3278657 0.4687323 0.3278657 0.4687323 0.6721343 -0.4687323
184000000 0.6164395 -0.4854567 0.3835605 0.4854567 0.3835605 0.4854567 0.6164395 -0.4854567
205000000 0.5639410 -0.4950049 0.4360590 0.4950049 0.4360590 0.4950049 0.5639410 -0.4950049
226000000 0.5152099 -0.4987843 0.4847901 0.4987843 0.4847901 0.4987843 0.5152099 -0.4987843
247000000 0.4704761 -0.4980478 0.5295239 0.4980478 0.5295239 0.4980478 0.4704761 -0.4980478
268000000 0.4297343 -0.4938617 0.5702657 0.4938617 0.5702657 0.4938617 0.4297343 -0.4938617
289000000 0.3928281 -0.4871050 0.6071719 0.4871050 0.6071719 0.4871050 0.3928281 -0.4871050
310000000 0.3595137 -0.4784848 0.6404863 0.4784848 0.6404863 0.4784848 0.3595137 -0.4784848
331000000 0.3295038 -0.4685596 0.6704962 0.4685596 0.6704962 0.4685596 0.3295038 -0.4685596
352000000 0.3024969 -0.4577641 0.6975031 0.4577641 0.6975031 0.4577641 0.3024969 -0.4577641
373000000 0.2781961 -0.4464321 0.7218039 0.4464321 0.7218039 0.4464321 0.2781961 -0.4464321
394000000 0.2563198 -0.4348172 0.7436802 0.4348172 0.7436802 0.4348172 0.2563198 -0.4348172
415000000 0.2366077 -0.4231096 0.7633923 0.4231096 0.7633923 0.4231096 0.2366077 -0.4231096
436000000 0.2188231 -0.4114503 0.7811769 0.4114503 0.7811769 0.4114503 0.2188231 -0.4114503
457000000 0.2027531 -0.3999419 0.7972469 0.3999419 0.7972469 0.3999419 0.2027531 -0.3999419
478000000 0.1882079 -0.3886579 0.8117921 0.3886579 0.8117921 0.3886579 0.1882079 -0.3886579
499000000 0.1750191 -0.3776492 0.8249809 0.3776492 0.8249809 0.3776492 0.1750191 -0.3776492
520000000 0.1630376 -0.3669496 0.8369624 0.3669496 0.8369624 0.3669496 0.1630376 -0.3669496
541000000 0.1521322 -0.3565803 0.8478678 0.3565803 0.8478678 0.3565803 0.1521322 -0.3565803
562000000 0.1421870 -0.3465527 0.8578130 0.3465527 0.8578130 0.3465527 0.1421870 -0.3465527
583000000 0.1331001 -0.3368708 0.8668999 0.3368708 0.8668999 0.3368708 0.1331001 -0.3368708
604000000 0.1247815 -0.3275337 0.8752185 0.3275337 0.8752185 0.3275337 0.1247815 -0.3275337
625000000 0.1171520 -0.3185364 0.8828480 0.3185364 0.8828480 0.3185364 0.1171520 -0.3185364
646000000 0.1101417 -0.3098711 0.8898583 0.3098711 0.8898583 0.3098711 0.1101417 -0.3098711
667000000 0.1036888 -0.3015284 0.8963112 0.3015284 0.8963112 0.3015284 0.1036888 -0.3015284
688000000 0.0977385 -0.2934973 0.9022615 0.2934973 0.9022615 0.2934973 0.0977385 -0.2934973
709000000 0.0922425 -0.2857662 0.9077575 0.2857662 0.9077575 0.2857662 0.0922425 -0.2857662
730000000 0.0871578 -0.2783232 0.9128422 0.2783232 0.9128422 0.2783232 0.0871578 -0.2783232
751000000 0.0824459 -0.2711560 0.9175541 0.2711560 0.9175541 0.2711560 0.0824459 -0.2711560
772000000 0.0780730 -0.2642526 0.9219270 0.2642526 0.9219270 0.2642526 0.0780730 -0.2642526
793000000 0.0740085 -0.2576009 0.9259915 0.2576009 0.9259915 0.2576009 0.0740085 -0.2576009
814000000 0.0702254 -0.2511895 0.9297746 0.2511895 0.9297746 0.2511895 0.0702254 -0.2511895
835000000 0.0666991 -0.2450070 0.9333009 0.2450070 0.9333009 0.2450070 0.0666991 -0.2450070
856000000 0.0634080 -0.2390426 0.9365920 0.2390426 0.9365920 0.2390426 0.0634080 -0.2390426
877000000 0.0603323 -0.2332859 0.9396677 0.2332859 0.9396677 0.2332859 0.0603323 -0.2332859
898000000 0.0574543 -0.2277271 0.9425457 0.2277271 0.9425457 0.2277271 0.0574543 -0.2277271
919000000 0.0547582 -0.2223565 0.9452418 0.2223565 0.9452418 0.2223565 0.0547582 -0.2223565
940000000 0.0522295 -0.2171653 0.9477705 0.2171653 0.9477705 0.2171653 0.0522295 -0.2171653
961000000 0.0498552 -0.2121449 0.9501448 0.2121449 0.9501448 0.2121449 0.0498552 -0.2121449
982000000 0.0476235 -0.2072871 0.9523765 0.2072871 0.9523765 0.2072871 0.0476235 -0.2072871
1003000000 0.0455235 -0.2025844 0.9544765 0.2025844 0.9544765 0.2025844 0.0455235 -0.2025844
1024000000 0.0435457 -0.1980293 0.9564543 0.1980293 0.9564543 0.1980293 0.0435457 -0.1980293
1045000000 0.0416810 -0.1936150 0.9583190 0.1936150 0.9583190 0.1936150 0.0416810 -0.1936150
1066000000 0.0399214 -0.1893351 0.9600786 0.1893351 0.9600786 0.1893351 0.0399214 -0.1893351
1087000000 0.0382595 -0.1851832 0.9617405 0.1851832 0.9617405 0.1851832 0.0382595 -0.1851832
1108000000 0.0366884 -0.1811537 0.9633116 0.1811537 0.9633116 0.1811537 0.0366884 -0.1811537
1129000000 0.0352021 -0.1772409 0.9647979 0.1772409 0.9647979 0.1772409 0.0352021 -0.1772409
1150000000 0.0337947 -0.1734396 0.9662053 0.1734396 0.9662053 0.1734396 0.0337947 -0.1734396
1171000000 0.0324612 -0.1697450 0.9675388 0.1697450 0.9675388 0.1697450 0.0324612 -0.1697450
1192000000 0.0311966 -0.1661523 0.9688034 0.1661523 0.9688034 0.1661523 0.0311966 -0.1661523
1213000000 0.0299965 -0.1626570 0.9700035 0.1626570 0.9700035 0.1626570 0.0299965 -0.1626570
1234000000 0.0288569 -0.1592551 0.9711431 0.1592551 0.9711431 0.1592551 0.0288569 -0.1592551
1255000000 0.0277740 -0.1559425 0.9722260 0.1559425 0.9722260 0.1559425 0.0277740 -0.1559425
1276000000 0.0267443 -0.1527155 0.9732557 0.1527155 0.9732557 0.1527155 0.0267443 -0.1527155
1297000000 0.0257646 -0.1495705 0.9742354 0.1495705 0.9742354 0.1495705 0.0257646 -0.1495705
1318000000 0.0248318 -0.1465041 0.9751682 0.1465041 0.9751682 0.1465041 0.0248318 -0.1465041
1339000000 0.0239434 -0.1435132 0.9760566 0.1435132 0.9760566 0.1435132 0.0239434 -0.1435132
1360000000 0.0230966 -0.1405946 0.9769034 0.1405946 0.9769034 0.1405946 0.0230966 -0.1405946
1381000000 0.0222891 -0.1377454 0.9777109 0.1377454 0.9777109 0.1377454 0.0222891 -0.1377454
1402000000 0.0215187 -0.1349630 0.9784813 0.1349630 0.9784813 0.1349630 0.0215187 -0.1349630
1423000000 0.0207833 -0.1322447 0.9792167 0.1322447 0.9792167 0.1322447 0.0207833 -0.1322447
1444000000 0.0200810 -0.1295880 0.9799190 0.1295880 0.9799190 0.1295880 0.0200810 -0.1295880
1465000000 0.0194099 -0.1269906 0.9805901 0.1269906 0.9805901 0.1269906 0.0194099 -0.1269906
1486000000 0.0187685 -0.1244502 0.9812315 0.1244502 0.9812315 0.1244502 0.0187685 -0.1244502
1507000000 0.0181552 -0.1219647 0.9818448 0.1219647 0.9818448 0.1219647 0.0181552 -0.1219647
1528000000 0.0175684 -0.1195321 0.9824316 0.1195321 0.9824316 0.1195321 0.0175684 -0.1195321
1549000000 0.0170068 -0.1171503 0.9829932 0.1171503 0.9829932 0.1171503 0.0170068 -0.1171503
1570000000 0.0164692 -0.1148176 0.9835308 0.1148176 0.9835308 0.1148176 0.0164692 -0.1148176
1591000000 0.0159543 -0.1125321 0.9840457 0.1125321 0.9840457 0.1125321 0.0159543 -0.1125321
1612000000 0.0154611 -0.1102922 0.9845389 0.1102922 0.9845389 0.1102922 0.0154611 -0.1102922
1633000000 0.0149884 -0.1080964 0.9850116 0.1080964 0.9850116 0.1080964 0.0149884 -0.1080964
1654000000 0.0145352 -0.1059429 0.9854648 0.1059429 0.9854648 0.1059429 0.0145352 -0.1059429
1675000000 0.0141006 -0.1038304 0.9858994 0.1038304 0.9858994 0.1038304 0.0141006 -0.1038304
1696000000 0.0136838 -0.1017575 0.9863162 0.1017575 0.9863162 0.1017575 0.0136838 -0.1017575
1717000000 0.0132839 -0.0997228 0.9867161 0.0997228 0.9867161 0.0997228 0.0132839 -0.0997228
1738000000 0.0129002 -0.0977250 0.9870998 0.0977250 0.9870998 0.0977250 0.0129002 -0.0977250
1759000000 0.0125318 -0.0957630 0.9874682 0.0957630 0.9874682 0.0957630 0.0125318 -0.0957630
1780000000 0.0121781 -0.0938354 0.9878219 0.0938354 0.9878219 0.0938354 0.0121781 -0.0938354
1801000000 0.0118385 -0.0919413 0.9881615 0.0919413 0.9881615 0.0919413 0.0118385 -0.0919413
1822000000 0.0115123 -0.0900795 0.9884877 0.0900795 0.9884877 0.0900795 0.0115123 -0.0900795
1843000000 0.0111989 -0.0882489 0.9888011 0.0882489 0.9888011 0.0882489 0.0111989 -0.0882489
1864000000 0.0108978 -0.0864486 0.9891022 0.0864486 0.9891022 0.0864486 0.0108978 -0.0864486
1885000000 0.0106085 -0.0846776 0.9893915 0.0846776 0.9893915 0.0846776 0.0106085 -0.0846776
1906000000 0.0103305 -0.0829351 0.9896695 0.0829351 0.9896695 0.0829351 0.0103305 -0.0829351
1927000000 0.0100632 -0.0812200 0.9899368 0.0812200 0.9899368 0.0812200 0.0100632 -0.0812200
1948000000 0.0098063 -0.0795317 0.9901937 0.0795317 0.9901937 0.0795317 0.0098063 -0.0795317
1969000000 0.0095594 -0.0778692 0.9904406 0.0778692 0.9904406 0.0778692 0.0095594 -0.0778692
1990000000 0.0093220 -0.0762317 0.9906780 0.0762317 0.9906780 0.0762317 0.0093220 -0.0762317
2011000000 0.0090937 -0.0746186 0.9909063 0.0746186 0.9909063 0.0746186 0.0090937 -0.0746186
2032000000 0.0088742 -0.0730291 0.9911258 0.0730291 0.9911258 0.0730291 0.0088742 -0.0730291
2053000000 0.0086632 -0.0714626 0.9913368 0.0714626 0.9913368 0.0714626 0.0086632 -0.0714626
2074000000 0.0084603 -0.0699182 0.9915397 0.0699182 0.9915397 0.0699182 0.0084603 -0.0699182
2095000000 0.0082652 -0.0683955 0.9917348 0.0683955 0.9917348 0.0683955 0.0082652 -0.0683955
2116000000 0.0080776 -0.0668937 0.9919224 0.0668937 0.9919224 0.0668937 0.0080776 -0.0668937
2137000000 0.0078972 -0.0654123 0.9921028 0.0654123 0.9921028 0.0654123 0.0078972 -0.0654123
2158000000 0.0077239 -0.0639506 0.9922761 0.0639506 0.9922761 0.0639506 0.0077239 -0.0639506
2179000000 0.0075572 -0.0625083 0.9924428 0.0625083 0.9924428 0.0625083 0.0075572 -0.0625083
2200000000 0.0073971 -0.0610846 0.9926029 0.0610846 0.9926029 0.0610846 0.0073971 -0.0610846
2221000000 0.0072431 -0.0596791 0.9927569 0.0596791 0.9927569 0.0596791 0.0072431 -0.0596791
2242000000 0.0070952 -0.0582912 0.9929048 0.0582912 0.9929048 0.0582912 0.0070952 -0.0582912
2263000000 0.0069532 -0.0569206 0.9930468 0.0569206 0.9930468 0.0569206 0.0069532 -0.0569206
2284000000 0.0068167 -0.0555667 0.9931833 0.0555667 0.9931833 0.0555667 0.0068167 -0.0555667
2305000000 0.0066856 -0.0542290 0.9933144 0.0542290 0.9933144 0.0542290 0.0066856 -0.0542290
2326000000 0.0065598 -0.0529072 0.9934402 0.0529072 0.9934402 0.0529072 0.0065598 -0.0529072
2347000000 0.0064391 -0.0516008 0.9935609 0.0516008 0.9935609 0.0516008 0.0064391 -0.0516008
2368000000 0.0063232 -0.0503095 0.9936768 0.0503095 0.9936768 0.0503095 0.0063232 -0.0503095
2389000000 0.0062121 -0.0490327 0.9937879 0.0490327 0.9937879 0.0490327 0.0062121 -0.0490327
2410000000 0.0061056 -0.0477702 0.9938944 0.0477702 0.9938944 0.0477702 0.0061056 -0.0477702
2431000000 0.0060035 -0.0465215 0.9939965 0.0465215 0.9939965 0.0465215 0.0060035 -0.0465215
2452000000 0.0059058 -0.0452863 0.9940942 0.0452863 0.9940942 0.0452863 0.0059058 -0.0452863
2473000000 0.0058121 -0.0440643 0.9941879 0.0440643 0.9941879 0.0440643 0.0058121 -0.0440643
2494000000 0.0057226 -0.0428551 0.9942774 0.0428551 0.9942774 0.0428551 0.0057226 -0.0428551
2515000000 0.0056369 -0.0416584 0.9943631 0.0416584 0.9943631 0.0416584 0.0056369 -0.0416584
2536000000 0.0055551 -0.0404739 0.9944449 0.0404739 0.9944449 0.0404739 0.0055551 -0.0404739
2557000000 0.0054769 -0.0393013 0.9945231 0.0393013 0.9945231 0.0393013 0.0054769 -0.0393013
2578000000 0.0054023 -0.0381402 0.9945977 0.0381402 0.9945977 0.0381402 0.0054023 -0.0381402
2599000000 0.0053312 -0.0369905 0.9946688 0.0369905 0.9946688 0.0369905 0.0053312 -0.0369905
2620000000 0.0052635 -0.0358517 0.9947365 0.0358517 0.9947365 0.0358517 0.0052635 -0.0358517
2641000000 0.0051990 -0.0347237 0.9948010 0.0347237 0.9948010 0.0347237 0.0051990 -0.0347237
2662000000 0.0051378 -0.0336062 0.9948622 0.0336062 0.9948622 0.0336062 0.0051378 -0.0336062
2683000000 0.0050796 -0.0324989 0.9949204 0.0324989 0.9949204 0.0324989 0.0050796 -0.0324989
2704000000 0.0050245 -0.0314016 0.9949755 0.0314016 0.9949755 0.0314016 0.0050245 -0.0314016
2725000000 0.0049723 -0.0303140 0.9950277 0.0303140 0.9950277 0.0303140 0.0049723 -0.0303140
2746000000 0.0049230 -0.0292359 0.9950770 0.0292359 0.9950770 0.0292359 0.0049230 -0.0292359
2767000000 0.0048764 -0.0281671 0.9951236 0.0281671 0.9951236 0.0281671 0.0048764 -0.0281671
2788000000 0.0048326 -0.0271074 0.9951674 0.0271074 0.9951674 0.0271074 0.0048326 -0.0271074
2809000000 0.0047914 -0.0260565 0.9952086 0.0260565 0.9952086 0.0260565 0.0047914 -0.0260565
2830000000 0.0047528 -0.0250142 0.9952472 0.0250142 0.9952472 0.0250142 0.0047528 -0.0250142
2851000000 0.0047168 -0.0239804 0.9952832 0.0239804 0.9952832 0.0239804 0.0047168 -0.0239804
2872000000 0.0046832 -0.0229548 0.9953168 0.0229548 0.9953168 0.0229548 0.0046832 -0.0229548
2893000000 0.0046520 -0.0219372 0.9953480 0.0219372 0.9953480 0.0219372 0.0046520 -0.0219372
2914000000 0.0046231 -0.0209275 0.9953769 0.0209275 0.9953769 0.0209275 0.0046231 -0.0209275
2935000000 0.0045965 -0.0199254 0.9954035 0.0199254 0.9954035 0.0199254 0.0045965 -0.0199254
2956000000 0.0045722 -0.0189309 0.9954278 0.0189309 0.9954278 0.0189309 0.0045722 -0.0189309
2977000000 0.0045501 -0.0179437 0.9954499 0.0179437 0.9954499 0.0179437 0.0045501 -0.0179437
2998000000 0.0045301 -0.0169636 0.9954699 0.0169636 0.9954699 0.0169636 0.0045301 -0.0169636
3019000000 0.0045122 -0.0159905 0.9954878 0.0159905 0.9954878 0.0159905 0.0045122 -0.0159905
3040000000 0.0044963 -0.0150242 0.9955037 0.0150242 0.9955037 0.0150242 0.0044963 -0.0150242
3061000000 0.0044825 -0.0140646 0.9955175 0.0140646 0.9955175 0.0140646 0.0044825 -0.0140646
3082000000 0.0044706 -0.0131115 0.9955294 0.0131115 0.9955294 0.0131115 0.0044706 -0.0131115
3103000000 0.0044607 -0.0121648 0.9955393 0.0121648 0.9955393 0.0121648 0.0044607 -0.0121648
3124000000 0.0044527 -0.0112243 0.9955473 0.0112243 0.9955473 0.0112243 0.0044527 -0.0112243
3145000000 0.0044465 -0.0102899 0.9955535 0.0102899 0.9955535 0.0102899 0.0044465 -0.0102899
3166000000 0.0044421 -0.0093614 0.9955579 0.0093614 0.9955579 0.0093614 0.0044421 -0.0093614
3187000000 0.0044396 -0.0084387 0.9955604 0.0084387 0.9955604 0.0084387 0.0044396 -0.0084387
3208000000 0.0044388 -0.0075217 0.9955612 0.0075217 0.9955612 0.0075217 0.0044388 -0.0075217
3229000000 0.0044397 -0.0066103 0.9955603 0.0066103 0.9955603 0.0066103 0.0044397 -0.0066103
3250000000 0.0044423 -0.0057043 0.9955577 0.0057043 0.9955577 0.0057043 0.0044423 -0.0057043
3271000000 0.0044466 -0.0048035 0.9955534 0.0048035 0.9955534 0.0048035 0.0044466 -0.0048035
3292000000 0.0044525 -0.0039080 0.9955475 0.0039080 0.9955475 0.0039080 0.0044525 -0.0039080
3313000000 0.0044601 -0.0030175 0.9955399 0.0030175 0.9955399 0.0030175 0.0044601 -0.0030175
3334000000 0.0044692 -0.0021320 0.9955308 0.0021320 0.9955308 0.0021320 0.0044692 -0.0021320
3355000000 0.0044799 -0.0012513 0.9955201 0.0012513 0.9955201 0.0012513 0.0044799 -0.0012513
3376000000 0.0044922 -0.0003753 0.9955078 0.0003753 0.9955078 0.0003753 0.0044922 -0.0003753
3397000000 0.0045059 0.0004960 0.9954941 -0.0004960 0.9954941 -0.0004960 0.0045059 0.0004960
3418000000 0.0045212 0.0013629 0.9954788 -0.0013629 0.9954788 -0.0013629 0.0045212 0.0013629
3439000000 0.0045380 0.0022253 0.9954620 -0.0022253 0.9954620 -0.0022253 0.0045380 0.0022253
3460000000 0.0045562 0.0030834 0.9954438 -0.0030834 0.9954438 -0.0030834 0.0045562 0.0030834
3481000000 0.0045758 0.0039373 0.9954242 -0.0039373 0.9954242 -0.0039373 0.0045758 0.0039373
3502000000 0.0045969 0.0047871 0.9954031 -0.0047871 0.9954031 -0.0047871 0.0045969 0.0047871
3523000000 0.0046194 0.0056329 0.9953806 -0.0056329 0.9953806 -0.0056329 0.0046194 0.0056329
3544000000 0.0046433 0.0064748 0.9953567 -0.0064748 0.9953567 -0.0064748 0.0046433 0.0064748
3565000000 0.0046686 0.0073128 0.9953314 -0.0073128 0.9953314 -0.0073128 0.0046686 0.0073128
3586000000 0.0046952 0.0081471 0.9953048 -0.0081471 0.9953048 -0.0081471 0.0046952 0.0081471
3607000000 0.0047232 0.0089777 0.9952768 -0.0089777 0.9952768 -0.0089777 0.0047232 0.0089777
3628000000 0.0047525 0.0098048 0.9952475 -0.0098048 0.9952475 -0.0098048 0.0047525 0.0098048
3649000000 0.0047832 0.0106284 0.9952168 -0.0106284 0.9952168 -0.0106284 0.0047832 0.0106284
3670000000 0.0048151 0.0114486 0.9951849 -0.0114486 0.9951849 -0.0114486 0.0048151 0.0114486
3691000000 0.0048484 0.0122654 0.9951516 -0.0122654 0.9951516 -0.0122654 0.0048484 0.0122654
3712000000 0.0048829 0.0130791 0.9951171 -0.0130791 0.9951171 -0.0130791 0.0048829 0.0130791
3733000000 0.0049188 0.0138895 0.9950812 -0.0138895 0.9950812 -0.0138895 0.0049188 0.0138895
3754000000 0.0049559 0.0146969 0.9950441 -0.0146969 0.9950441 -0.0146969 0.0049559 0.0146969
3775000000 0.0049943 0.0155013 0.9950057 -0.0155013 0.9950057 -0.0155013 0.0049943 0.0155013
3796000000 0.0050339 0.0163027 0.9949661 -0.0163027 0.9949661 -0.0163027 0.0050339 0.0163027
3817000000 0.0050748 0.0171013 0.9949252 -0.0171013 0.9949252 -0.0171013 0.0050748 0.0171013
3838000000 0.0051169 0.0178971 0.9948831 -0.0178971 0.9948831 -0.0178971 0.0051169 0.0178971
3859000000 0.0051603 0.0186902 0.9948397 -0.0186902 0.9948397 -0.0186902 0.0051603 0.0186902
3880000000 0.0052049 0.0194806 0.9947951 -0.0194806 0.9947951 -0.0194806 0.0052049 0.0194806
3901000000 0.0052507 0.0202685 0.9947493 -0.0202685 0.9947493 -0.0202685 0.0052507 0.0202685
3922000000 0.0052978 0.0210539 0.9947022 -0.0210539 0.9947022 -0.0210539 0.0052978 0.0210539
3943000000 0.0053461 0.0218368 0.9946539 -0.0218368 0.9946539 -0.0218368 0.0053461 0.0218368
3964000000 0.0053955 0.0226173 0.9946045 -0.0226173 0.9946045 -0.0226173 0.0053955 0.0226173
3985000000 0.0054463 0.0233956 0.9945537 -0.0233956 0.9945537 -0.0233956 0.0054463 0.0233956
4006000000 0.0054982 0.0241716 0.9945018 -0.0241716 0.9945018 -0.0241716 0.0054982 0.0241716
4027000000 0.0055513 0.0249454 0.9944487 -0.0249454 0.9944487 -0.0249454 0.0055513 0.0249454
4048000000 0.0056056 0.0257171 0.9943944 -0.0257171 0.9943944 -0.0257171 0.0056056 0.0257171
4069000000 0.0056612 0.0264867 0.9943388 -0.0264867 0.9943388 -0.0264867 0.0056612 0.0264867
4090000000 0.0057179 0.0272543 0.9942821 -0.0272543 0.9942821 -0.0272543 0.0057179 0.0272543
4111000000 0.0057759 0.0280200 0.9942241 -0.0280200 0.9942241 -0.0280200 0.0057759 0.0280200
4132000000 0.0058351 0.0287839 0.9941649 -0.0287839 0.9941649 -0.0287839 0.0058351 0.0287839
4153000000 0.0058955 0.0295459 0.9941045 -0.0295459 0.9941045 -0.0295459 0.0058955 0.0295459
4174000000 0.0059571 0.0303061 0.9940429 -0.0303061 0.9940429 -0.0303061 0.0059571 0.0303061
4195000000 0.0060199 0.0310647 0.9939801 -0.0310647 0.9939801 -0.0310647 0.0060199 0.0310647
4216000000 0.0060839 0.0318216 0.9939161 -0.0318216 0.9939161 -0.0318216 0.0060839 0.0318216
4237000000 0.0061492 0.0325769 0.9938508 -0.0325769 0.9938508 -0.0325769 0.0061492 0.0325769
4258000000 0.0062157 0.0333307 0.9937843 -0.0333307 0.9937843 -0.0333307 0.0062157 0.0333307
4279000000 0.0062834 0.0340830 0.9937166 -0.0340830 0.9937166 -0.0340830 0.0062834 0.0340830
4300000000 0.0063524 0.0348339 0.9936476 -0.0348339 0.9936476 -0.0348339 0.0063524 0.0348339
4321000000 0.0064226 0.0355834 0.9935774 -0.0355834 0.9935774 -0.0355834 0.0064226 0.0355834
4342000000 0.0064941 0.0363316 0.9935059 -0.0363316 0.9935059 -0.0363316 0.0064941 0.0363316
4363000000 0.0065668 0.0370785 0.9934332 -0.0370785 0.9934332 -0.0370785 0.0065668 0.0370785
4384000000 0.0066408 0.0378242 0.9933592 -0.0378242 0.9933592 -0.0378242 0.0066408 0.0378242
4405000000 0.0067161 0.0385688 0.9932839 -0.0385688 0.9932839 -0.0385688 0.0067161 0.0385688
4426000000 0.0067927 0.0393122 0.9932073 -0.0393122 0.9932073 -0.0393122 0.0067927 0.0393122
4447000000 0.0068706 0.0400546 0.9931294 -0.0400546 0.9931294 -0.0400546 0.0068706 0.0400546
4468000000 0.0069497 0.0407960 0.9930503 -0.0407960 0.9930503 -0.0407960 0.0069497 0.0407960
4489000000 0.0070302 0.0415365 0.9929698 -0.0415365 0.9929698 -0.0415365 0.0070302 0.0415365
4510000000 0.0071121 0.0422760 0.9928879 -0.0422760 0.9928879 -0.0422760 0.0071121 0.0422760
