!Murata Part Number: GRM1553C2A3R9BA01
!These Parameters are Measured in Series Mode Connection
!Data Generated on Mar 30, 2021
!       o--ll--o
!Port1            Port2
!       o------o
!Operation Temp=25[degC], DC Bias Voltage=0[V]
!Freq. Start=100[MHz] Stop=9[GHz] 401[Steps]
# Hz S RI R 50
!Freq.(Hz) S11(Real) S11(Imag) S21(Real) S21(Imag) S12(Real) S12(Imag) S22(Real) S22(Imag)
100000000 0.9431869 -0.2312032 0.0568131 0.2312032 0.0568131 0.2312032 0.9431869 -0.2312032
121000000 0.9189278 -0.2726046 0.0810722 0.2726046 0.0810722 0.2726046 0.9189278 -0.2726046
142000000 0.8916137 -0.3104669 0.1083863 0.3104669 0.1083863 0.3104669 0.8916137 -0.3104669
163000000 0.8618747 -0.3445712 0.1381253 0.3445712 0.1381253 0.3445712 0.8618747 -0.3445712
184000000 0.8303297 -0.3748229 0.1696703 0.3748229 0.1696703 0.3748229 0.8303297 -0.3748229
205000000 0.7975630 -0.4012364 0.2024370 0.4012364 0.2024370 0.4012364 0.7975630 -0.4012364
226000000 0.7641058 -0.4239166 0.2358942 0.4239166 0.2358942 0.4239166 0.7641058 -0.4239166
247000000 0.7304256 -0.4430388 0.2695744 0.4430388 0.2695744 0.4430388 0.7304256 -0.4430388
268000000 0.6969208 -0.4588289 0.3030792 0.4588289 0.3030792 0.4588289 0.6969208 -0.4588289
289000000 0.6639209 -0.4715455 0.3360791 0.4715455 0.3360791 0.4715455 0.6639209 -0.4715455
310000000 0.6316889 -0.4814648 0.3683111 0.4814648 0.3683111 0.4814648 0.6316889 -0.4814648
331000000 0.6004274 -0.4888679 0.3995726 0.4888679 0.3995726 0.4888679 0.6004274 -0.4888679
352000000 0.5702854 -0.4940315 0.4297146 0.4940315 0.4297146 0.4940315 0.5702854 -0.4940315
373000000 0.5413657 -0.4972206 0.4586343 0.4972206 0.4586343 0.4972206 0.5413657 -0.4972206
394000000 0.5137323 -0.4986842 0.4862677 0.4986842 0.4862677 0.4986842 0.5137323 -0.4986842
415000000 0.4874174 -0.4986524 0.5125826 0.4986524 0.5125826 0.4986524 0.4874174 -0.4986524
436000000 0.4624281 -0.4973347 0.5375719 0.4973347 0.5375719 0.4973347 0.4624281 -0.4973347
457000000 0.4387513 -0.4949199 0.5612487 0.4949199 0.5612487 0.4949199 0.4387513 -0.4949199
478000000 0.4163589 -0.4915769 0.5836411 0.4915769 0.5836411 0.4915769 0.4163589 -0.4915769
499000000 0.3952117 -0.4874550 0.6047883 0.4874550 0.6047883 0.4874550 0.3952117 -0.4874550
520000000 0.3752628 -0.4826857 0.6247372 0.4826857 0.6247372 0.4826857 0.3752628 -0.4826857
541000000 0.3564598 -0.4773840 0.6435402 0.4773840 0.6435402 0.4773840 0.3564598 -0.4773840
562000000 0.3387476 -0.4716499 0.6612524 0.4716499 0.6612524 0.4716499 0.3387476 -0.4716499
583000000 0.3220692 -0.4655701 0.6779308 0.4655701 0.6779308 0.4655701 0.3220692 -0.4655701
604000000 0.3063678 -0.4592195 0.6936322 0.4592195 0.6936322 0.4592195 0.3063678 -0.4592195
625000000 0.2915870 -0.4526622 0.7084130 0.4526622 0.7084130 0.4526622 0.2915870 -0.4526622
646000000 0.2776721 -0.4459532 0.7223279 0.4459532 0.7223279 0.4459532 0.2776721 -0.4459532
667000000 0.2645702 -0.4391393 0.7354298 0.4391393 0.7354298 0.4391393 0.2645702 -0.4391393
688000000 0.2522306 -0.4322604 0.7477694 0.4322604 0.7477694 0.4322604 0.2522306 -0.4322604
709000000 0.2406051 -0.4253502 0.7593949 0.4253502 0.7593949 0.4253502 0.2406051 -0.4253502
730000000 0.2296481 -0.4184370 0.7703519 0.4184370 0.7703519 0.4184370 0.2296481 -0.4184370
751000000 0.2193166 -0.4115445 0.7806834 0.4115445 0.7806834 0.4115445 0.2193166 -0.4115445
772000000 0.2095699 -0.4046926 0.7904301 0.4046926 0.7904301 0.4046926 0.2095699 -0.4046926
793000000 0.2003703 -0.3978977 0.7996297 0.3978977 0.7996297 0.3978977 0.2003703 -0.3978977
814000000 0.1916822 -0.3911732 0.8083178 0.3911732 0.8083178 0.3911732 0.1916822 -0.3911732
835000000 0.1834725 -0.3845301 0.8165275 0.3845301 0.8165275 0.3845301 0.1834725 -0.3845301
856000000 0.1757102 -0.3779773 0.8242898 0.3779773 0.8242898 0.3779773 0.1757102 -0.3779773
877000000 0.1683664 -0.3715217 0.8316336 0.3715217 0.8316336 0.3715217 0.1683664 -0.3715217
898000000 0.1614144 -0.3651689 0.8385856 0.3651689 0.8385856 0.3651689 0.1614144 -0.3651689
919000000 0.1548291 -0.3589227 0.8451709 0.3589227 0.8451709 0.3589227 0.1548291 -0.3589227
940000000 0.1485873 -0.3527864 0.8514127 0.3527864 0.8514127 0.3527864 0.1485873 -0.3527864
961000000 0.1426674 -0.3467618 0.8573326 0.3467618 0.8573326 0.3467618 0.1426674 -0.3467618
982000000 0.1370493 -0.3408503 0.8629507 0.3408503 0.8629507 0.3408503 0.1370493 -0.3408503
1003000000 0.1317142 -0.3350522 0.8682858 0.3350522 0.8682858 0.3350522 0.1317142 -0.3350522
1024000000 0.1266447 -0.3293677 0.8733553 0.3293677 0.8733553 0.3293677 0.1266447 -0.3293677
1045000000 0.1218248 -0.3237962 0.8781752 0.3237962 0.8781752 0.3237962 0.1218248 -0.3237962
1066000000 0.1172393 -0.3183368 0.8827607 0.3183368 0.8827607 0.3183368 0.1172393 -0.3183368
1087000000 0.1128741 -0.3129883 0.8871259 0.3129883 0.8871259 0.3129883 0.1128741 -0.3129883
1108000000 0.1087163 -0.3077492 0.8912837 0.3077492 0.8912837 0.3077492 0.1087163 -0.3077492
1129000000 0.1047537 -0.3026178 0.8952463 0.3026178 0.8952463 0.3026178 0.1047537 -0.3026178
1150000000 0.1009750 -0.2975922 0.8990250 0.2975922 0.8990250 0.2975922 0.1009750 -0.2975922
1171000000 0.0973695 -0.2926705 0.9026305 0.2926705 0.9026305 0.2926705 0.0973695 -0.2926705
1192000000 0.0939275 -0.2878504 0.9060725 0.2878504 0.9060725 0.2878504 0.0939275 -0.2878504
1213000000 0.0906397 -0.2831299 0.9093603 0.2831299 0.9093603 0.2831299 0.0906397 -0.2831299
1234000000 0.0874975 -0.2785067 0.9125025 0.2785067 0.9125025 0.2785067 0.0874975 -0.2785067
1255000000 0.0844929 -0.2739784 0.9155071 0.2739784 0.9155071 0.2739784 0.0844929 -0.2739784
1276000000 0.0816184 -0.2695429 0.9183816 0.2695429 0.9183816 0.2695429 0.0816184 -0.2695429
1297000000 0.0788670 -0.2651978 0.9211330 0.2651978 0.9211330 0.2651978 0.0788670 -0.2651978
1318000000 0.0762321 -0.2609408 0.9237679 0.2609408 0.9237679 0.2609408 0.0762321 -0.2609408
1339000000 0.0737076 -0.2567697 0.9262924 0.2567697 0.9262924 0.2567697 0.0737076 -0.2567697
1360000000 0.0712876 -0.2526822 0.9287124 0.2526822 0.9287124 0.2526822 0.0712876 -0.2526822
1381000000 0.0689668 -0.2486760 0.9310332 0.2486760 0.9310332 0.2486760 0.0689668 -0.2486760
1402000000 0.0667401 -0.2447490 0.9332599 0.2447490 0.9332599 0.2447490 0.0667401 -0.2447490
1423000000 0.0646027 -0.2408990 0.9353973 0.2408990 0.9353973 0.2408990 0.0646027 -0.2408990
1444000000 0.0625502 -0.2371239 0.9374498 0.2371239 0.9374498 0.2371239 0.0625502 -0.2371239
1465000000 0.0605784 -0.2334217 0.9394216 0.2334217 0.9394216 0.2334217 0.0605784 -0.2334217
1486000000 0.0586832 -0.2297903 0.9413168 0.2297903 0.9413168 0.2297903 0.0586832 -0.2297903
1507000000 0.0568611 -0.2262278 0.9431389 0.2262278 0.9431389 0.2262278 0.0568611 -0.2262278
1528000000 0.0551084 -0.2227323 0.9448916 0.2227323 0.9448916 0.2227323 0.0551084 -0.2227323
1549000000 0.0534219 -0.2193018 0.9465781 0.2193018 0.9465781 0.2193018 0.0534219 -0.2193018
1570000000 0.0517985 -0.2159346 0.9482015 0.2159346 0.9482015 0.2159346 0.0517985 -0.2159346
1591000000 0.0502353 -0.2126290 0.9497647 0.2126290 0.9497647 0.2126290 0.0502353 -0.2126290
1612000000 0.0487294 -0.2093830 0.9512706 0.2093830 0.9512706 0.2093830 0.0487294 -0.2093830
1633000000 0.0472783 -0.2061953 0.9527217 0.2061953 0.9527217 0.2061953 0.0472783 -0.2061953
1654000000 0.0458796 -0.2030639 0.9541204 0.2030639 0.9541204 0.2030639 0.0458796 -0.2030639
1675000000 0.0445308 -0.1999876 0.9554692 0.1999876 0.9554692 0.1999876 0.0445308 -0.1999876
1696000000 0.0432297 -0.1969646 0.9567703 0.1969646 0.9567703 0.1969646 0.0432297 -0.1969646
1717000000 0.0419744 -0.1939935 0.9580256 0.1939935 0.9580256 0.1939935 0.0419744 -0.1939935
1738000000 0.0407627 -0.1910729 0.9592373 0.1910729 0.9592373 0.1910729 0.0407627 -0.1910729
1759000000 0.0395929 -0.1882014 0.9604071 0.1882014 0.9604071 0.1882014 0.0395929 -0.1882014
1780000000 0.0384632 -0.1853776 0.9615368 0.1853776 0.9615368 0.1853776 0.0384632 -0.1853776
1801000000 0.0373719 -0.1826002 0.9626281 0.1826002 0.9626281 0.1826002 0.0373719 -0.1826002
1822000000 0.0363174 -0.1798680 0.9636826 0.1798680 0.9636826 0.1798680 0.0363174 -0.1798680
1843000000 0.0352982 -0.1771798 0.9647018 0.1771798 0.9647018 0.1771798 0.0352982 -0.1771798
1864000000 0.0343128 -0.1745343 0.9656872 0.1745343 0.9656872 0.1745343 0.0343128 -0.1745343
1885000000 0.0333600 -0.1719304 0.9666400 0.1719304 0.9666400 0.1719304 0.0333600 -0.1719304
1906000000 0.0324383 -0.1693669 0.9675617 0.1693669 0.9675617 0.1693669 0.0324383 -0.1693669
1927000000 0.0315466 -0.1668429 0.9684534 0.1668429 0.9684534 0.1668429 0.0315466 -0.1668429
1948000000 0.0306838 -0.1643572 0.9693162 0.1643572 0.9693162 0.1643572 0.0306838 -0.1643572
1969000000 0.0298486 -0.1619089 0.9701514 0.1619089 0.9701514 0.1619089 0.0298486 -0.1619089
1990000000 0.0290401 -0.1594968 0.9709599 0.1594968 0.9709599 0.1594968 0.0290401 -0.1594968
2011000000 0.0282572 -0.1571202 0.9717428 0.1571202 0.9717428 0.1571202 0.0282572 -0.1571202
2032000000 0.0274989 -0.1547781 0.9725011 0.1547781 0.9725011 0.1547781 0.0274989 -0.1547781
2053000000 0.0267644 -0.1524695 0.9732356 0.1524695 0.9732356 0.1524695 0.0267644 -0.1524695
2074000000 0.0260528 -0.1501937 0.9739472 0.1501937 0.9739472 0.1501937 0.0260528 -0.1501937
2095000000 0.0253633 -0.1479497 0.9746367 0.1479497 0.9746367 0.1479497 0.0253633 -0.1479497
2116000000 0.0246950 -0.1457367 0.9753050 0.1457367 0.9753050 0.1457367 0.0246950 -0.1457367
2137000000 0.0240472 -0.1435540 0.9759528 0.1435540 0.9759528 0.1435540 0.0240472 -0.1435540
2158000000 0.0234192 -0.1414008 0.9765808 0.1414008 0.9765808 0.1414008 0.0234192 -0.1414008
2179000000 0.0228102 -0.1392764 0.9771898 0.1392764 0.9771898 0.1392764 0.0228102 -0.1392764
2200000000 0.0222197 -0.1371800 0.9777803 0.1371800 0.9777803 0.1371800 0.0222197 -0.1371800
2221000000 0.0216470 -0.1351109 0.9783530 0.1351109 0.9783530 0.1351109 0.0216470 -0.1351109
2242000000 0.0210915 -0.1330685 0.9789085 0.1330685 0.9789085 0.1330685 0.0210915 -0.1330685
2263000000 0.0205525 -0.1310520 0.9794475 0.1310520 0.9794475 0.1310520 0.0205525 -0.1310520
2284000000 0.0200297 -0.1290609 0.9799703 0.1290609 0.9799703 0.1290609 0.0200297 -0.1290609
2305000000 0.0195223 -0.1270946 0.9804777 0.1270946 0.9804777 0.1270946 0.0195223 -0.1270946
2326000000 0.0190300 -0.1251523 0.9809700 0.1251523 0.9809700 0.1251523 0.0190300 -0.1251523
2347000000 0.0185523 -0.1232336 0.9814477 0.1232336 0.9814477 0.1232336 0.0185523 -0.1232336
2368000000 0.0180886 -0.1213379 0.9819114 0.1213379 0.9819114 0.1213379 0.0180886 -0.1213379
2389000000 0.0176385 -0.1194646 0.9823615 0.1194646 0.9823615 0.1194646 0.0176385 -0.1194646
2410000000 0.0172017 -0.1176132 0.9827983 0.1176132 0.9827983 0.1176132 0.0172017 -0.1176132
2431000000 0.0167776 -0.1157832 0.9832224 0.1157832 0.9832224 0.1157832 0.0167776 -0.1157832
2452000000 0.0163660 -0.1139740 0.9836340 0.1139740 0.9836340 0.1139740 0.0163660 -0.1139740
2473000000 0.0159663 -0.1121852 0.9840337 0.1121852 0.9840337 0.1121852 0.0159663 -0.1121852
2494000000 0.0155784 -0.1104163 0.9844216 0.1104163 0.9844216 0.1104163 0.0155784 -0.1104163
2515000000 0.0152017 -0.1086668 0.9847983 0.1086668 0.9847983 0.1086668 0.0152017 -0.1086668
2536000000 0.0148361 -0.1069363 0.9851639 0.1069363 0.9851639 0.1069363 0.0148361 -0.1069363
2557000000 0.0144811 -0.1052243 0.9855189 0.1052243 0.9855189 0.1052243 0.0144811 -0.1052243
2578000000 0.0141365 -0.1035304 0.9858635 0.1035304 0.9858635 0.1035304 0.0141365 -0.1035304
2599000000 0.0138019 -0.1018543 0.9861981 0.1018543 0.9861981 0.1018543 0.0138019 -0.1018543
2620000000 0.0134771 -0.1001954 0.9865229 0.1001954 0.9865229 0.1001954 0.0134771 -0.1001954
2641000000 0.0131618 -0.0985534 0.9868382 0.0985534 0.9868382 0.0985534 0.0131618 -0.0985534
2662000000 0.0128558 -0.0969279 0.9871442 0.0969279 0.9871442 0.0969279 0.0128558 -0.0969279
2683000000 0.0125588 -0.0953186 0.9874412 0.0953186 0.9874412 0.0953186 0.0125588 -0.0953186
2704000000 0.0122705 -0.0937251 0.9877295 0.0937251 0.9877295 0.0937251 0.0122705 -0.0937251
2725000000 0.0119907 -0.0921469 0.9880093 0.0921469 0.9880093 0.0921469 0.0119907 -0.0921469
2746000000 0.0117192 -0.0905839 0.9882808 0.0905839 0.9882808 0.0905839 0.0117192 -0.0905839
2767000000 0.0114558 -0.0890356 0.9885442 0.0890356 0.9885442 0.0890356 0.0114558 -0.0890356
2788000000 0.0112003 -0.0875017 0.9887997 0.0875017 0.9887997 0.0875017 0.0112003 -0.0875017
2809000000 0.0109524 -0.0859820 0.9890476 0.0859820 0.9890476 0.0859820 0.0109524 -0.0859820
2830000000 0.0107120 -0.0844760 0.9892880 0.0844760 0.9892880 0.0844760 0.0107120 -0.0844760
2851000000 0.0104789 -0.0829835 0.9895211 0.0829835 0.9895211 0.0829835 0.0104789 -0.0829835
2872000000 0.0102529 -0.0815042 0.9897471 0.0815042 0.9897471 0.0815042 0.0102529 -0.0815042
2893000000 0.0100338 -0.0800378 0.9899662 0.0800378 0.9899662 0.0800378 0.0100338 -0.0800378
2914000000 0.0098215 -0.0785840 0.9901785 0.0785840 0.9901785 0.0785840 0.0098215 -0.0785840
2935000000 0.0096158 -0.0771425 0.9903842 0.0771425 0.9903842 0.0771425 0.0096158 -0.0771425
2956000000 0.0094166 -0.0757132 0.9905834 0.0757132 0.9905834 0.0757132 0.0094166 -0.0757132
2977000000 0.0092236 -0.0742957 0.9907764 0.0742957 0.9907764 0.0742957 0.0092236 -0.0742957
2998000000 0.0090368 -0.0728897 0.9909632 0.0728897 0.9909632 0.0728897 0.0090368 -0.0728897
3019000000 0.0088561 -0.0714951 0.9911439 0.0714951 0.9911439 0.0714951 0.0088561 -0.0714951
3040000000 0.0086812 -0.0701115 0.9913188 0.0701115 0.9913188 0.0701115 0.0086812 -0.0701115
3061000000 0.0085121 -0.0687388 0.9914879 0.0687388 0.9914879 0.0687388 0.0085121 -0.0687388
3082000000 0.0083486 -0.0673767 0.9916514 0.0673767 0.9916514 0.0673767 0.0083486 -0.0673767
3103000000 0.0081906 -0.0660250 0.9918094 0.0660250 0.9918094 0.0660250 0.0081906 -0.0660250
3124000000 0.0080380 -0.0646834 0.9919620 0.0646834 0.9919620 0.0646834 0.0080380 -0.0646834
3145000000 0.0078907 -0.0633518 0.9921093 0.0633518 0.9921093 0.0633518 0.0078907 -0.0633518
3166000000 0.0077486 -0.0620299 0.9922514 0.0620299 0.9922514 0.0620299 0.0077486 -0.0620299
3187000000 0.0076116 -0.0607176 0.9923884 0.0607176 0.9923884 0.0607176 0.0076116 -0.0607176
3208000000 0.0074795 -0.0594146 0.9925205 0.0594146 0.9925205 0.0594146 0.0074795 -0.0594146
3229000000 0.0073523 -0.0581207 0.9926477 0.0581207 0.9926477 0.0581207 0.0073523 -0.0581207
3250000000 0.0072299 -0.0568358 0.9927701 0.0568358 0.9927701 0.0568358 0.0072299 -0.0568358
3271000000 0.0071121 -0.0555596 0.9928879 0.0555596 0.9928879 0.0555596 0.0071121 -0.0555596
3292000000 0.0069990 -0.0542920 0.9930010 0.0542920 0.9930010 0.0542920 0.0069990 -0.0542920
3313000000 0.0068904 -0.0530327 0.9931096 0.0530327 0.9931096 0.0530327 0.0068904 -0.0530327
3334000000 0.0067862 -0.0517817 0.9932138 0.0517817 0.9932138 0.0517817 0.0067862 -0.0517817
3355000000 0.0066864 -0.0505387 0.9933136 0.0505387 0.9933136 0.0505387 0.0066864 -0.0505387
3376000000 0.0065908 -0.0493036 0.9934092 0.0493036 0.9934092 0.0493036 0.0065908 -0.0493036
3397000000 0.0064995 -0.0480762 0.9935005 0.0480762 0.9935005 0.0480762 0.0064995 -0.0480762
3418000000 0.0064123 -0.0468563 0.9935877 0.0468563 0.9935877 0.0468563 0.0064123 -0.0468563
3439000000 0.0063292 -0.0456438 0.9936708 0.0456438 0.9936708 0.0456438 0.0063292 -0.0456438
3460000000 0.0062501 -0.0444386 0.9937499 0.0444386 0.9937499 0.0444386 0.0062501 -0.0444386
3481000000 0.0061749 -0.0432404 0.9938251 0.0432404 0.9938251 0.0432404 0.0061749 -0.0432404
3502000000 0.0061036 -0.0420491 0.9938964 0.0420491 0.9938964 0.0420491 0.0061036 -0.0420491
3523000000 0.0060362 -0.0408646 0.9939638 0.0408646 0.9939638 0.0408646 0.0060362 -0.0408646
3544000000 0.0059725 -0.0396868 0.9940275 0.0396868 0.9940275 0.0396868 0.0059725 -0.0396868
3565000000 0.0059125 -0.0385154 0.9940875 0.0385154 0.9940875 0.0385154 0.0059125 -0.0385154
3586000000 0.0058562 -0.0373504 0.9941438 0.0373504 0.9941438 0.0373504 0.0058562 -0.0373504
3607000000 0.0058034 -0.0361916 0.9941966 0.0361916 0.9941966 0.0361916 0.0058034 -0.0361916
3628000000 0.0057543 -0.0350389 0.9942457 0.0350389 0.9942457 0.0350389 0.0057543 -0.0350389
3649000000 0.0057086 -0.0338922 0.9942914 0.0338922 0.9942914 0.0338922 0.0057086 -0.0338922
3670000000 0.0056664 -0.0327512 0.9943336 0.0327512 0.9943336 0.0327512 0.0056664 -0.0327512
3691000000 0.0056277 -0.0316160 0.9943723 0.0316160 0.9943723 0.0316160 0.0056277 -0.0316160
3712000000 0.0055923 -0.0304864 0.9944077 0.0304864 0.9944077 0.0304864 0.0055923 -0.0304864
3733000000 0.0055602 -0.0293622 0.9944398 0.0293622 0.9944398 0.0293622 0.0055602 -0.0293622
3754000000 0.0055315 -0.0282433 0.9944685 0.0282433 0.9944685 0.0282433 0.0055315 -0.0282433
3775000000 0.0055060 -0.0271297 0.9944940 0.0271297 0.9944940 0.0271297 0.0055060 -0.0271297
3796000000 0.0054838 -0.0260212 0.9945162 0.0260212 0.9945162 0.0260212 0.0054838 -0.0260212
3817000000 0.0054647 -0.0249176 0.9945353 0.0249176 0.9945353 0.0249176 0.0054647 -0.0249176
3838000000 0.0054488 -0.0238190 0.9945512 0.0238190 0.9945512 0.0238190 0.0054488 -0.0238190
3859000000 0.0054361 -0.0227251 0.9945639 0.0227251 0.9945639 0.0227251 0.0054361 -0.0227251
3880000000 0.0054264 -0.0216359 0.9945736 0.0216359 0.9945736 0.0216359 0.0054264 -0.0216359
3901000000 0.0054198 -0.0205512 0.9945802 0.0205512 0.9945802 0.0205512 0.0054198 -0.0205512
3922000000 0.0054163 -0.0194710 0.9945837 0.0194710 0.9945837 0.0194710 0.0054163 -0.0194710
3943000000 0.0054158 -0.0183951 0.9945842 0.0183951 0.9945842 0.0183951 0.0054158 -0.0183951
3964000000 0.0054182 -0.0173235 0.9945818 0.0173235 0.9945818 0.0173235 0.0054182 -0.0173235
3985000000 0.0054237 -0.0162560 0.9945763 0.0162560 0.9945763 0.0162560 0.0054237 -0.0162560
4006000000 0.0054321 -0.0151926 0.9945679 0.0151926 0.9945679 0.0151926 0.0054321 -0.0151926
4027000000 0.0054434 -0.0141331 0.9945566 0.0141331 0.9945566 0.0141331 0.0054434 -0.0141331
4048000000 0.0054576 -0.0130776 0.9945424 0.0130776 0.9945424 0.0130776 0.0054576 -0.0130776
4069000000 0.0054747 -0.0120257 0.9945253 0.0120257 0.9945253 0.0120257 0.0054747 -0.0120257
4090000000 0.0054947 -0.0109776 0.9945053 0.0109776 0.9945053 0.0109776 0.0054947 -0.0109776
4111000000 0.0055176 -0.0099330 0.9944824 0.0099330 0.9944824 0.0099330 0.0055176 -0.0099330
4132000000 0.0055432 -0.0088919 0.9944568 0.0088919 0.9944568 0.0088919 0.0055432 -0.0088919
4153000000 0.0055717 -0.0078543 0.9944283 0.0078543 0.9944283 0.0078543 0.0055717 -0.0078543
4174000000 0.0056030 -0.0068199 0.9943970 0.0068199 0.9943970 0.0068199 0.0056030 -0.0068199
4195000000 0.0056372 -0.0057888 0.9943628 0.0057888 0.9943628 0.0057888 0.0056372 -0.0057888
4216000000 0.0056740 -0.0047609 0.9943260 0.0047609 0.9943260 0.0047609 0.0056740 -0.0047609
4237000000 0.0057137 -0.0037360 0.9942863 0.0037360 0.9942863 0.0037360 0.0057137 -0.0037360
4258000000 0.0057561 -0.0027141 0.9942439 0.0027141 0.9942439 0.0027141 0.0057561 -0.0027141
4279000000 0.0058013 -0.0016951 0.9941987 0.0016951 0.9941987 0.0016951 0.0058013 -0.0016951
4300000000 0.0058493 -0.0006789 0.9941507 0.0006789 0.9941507 0.0006789 0.0058493 -0.0006789
4321000000 0.0058999 0.0003345 0.9941001 -0.0003345 0.9941001 -0.0003345 0.0058999 0.0003345
4342000000 0.0059533 0.0013452 0.9940467 -0.0013452 0.9940467 -0.0013452 0.0059533 0.0013452
4363000000 0.0060095 0.0023534 0.9939905 -0.0023534 0.9939905 -0.0023534 0.0060095 0.0023534
4384000000 0.0060683 0.0033591 0.9939317 -0.0033591 0.9939317 -0.0033591 0.0060683 0.0033591
4405000000 0.0061299 0.0043623 0.9938701 -0.0043623 0.9938701 -0.0043623 0.0061299 0.0043623
4426000000 0.0061942 0.0053631 0.9938058 -0.0053631 0.9938058 -0.0053631 0.0061942 0.0053631
4447000000 0.0062613 0.0063617 0.9937387 -0.0063617 0.9937387 -0.0063617 0.0062613 0.0063617
4468000000 0.0063310 0.0073581 0.9936690 -0.0073581 0.9936690 -0.0073581 0.0063310 0.0073581
4489000000 0.0064035 0.0083523 0.9935965 -0.0083523 0.9935965 -0.0083523 0.0064035 0.0083523
4510000000 0.0064786 0.0093444 0.9935214 -0.0093444 0.9935214 -0.0093444 0.0064786 0.0093444
