!Murata Part Number: GRM1554C2AR90BA01
!These Parameters are Measured in Series Mode Connection
!Data Generated on Mar 30, 2021
!       o--ll--o
!Port1            Port2
!       o------o
!Operation Temp=25[degC], DC Bias Voltage=0[V]
!Freq. Start=100[MHz] Stop=20[GHz] 401[Steps]
# Hz S RI R 50
!Freq.(Hz) S11(Real) S11(Imag) S21(Real) S21(Imag) S12(Real) S12(Imag) S22(Real) S22(Imag)
100000000 0.9967878 -0.0563750 0.0032122 0.0563750 0.0032122 0.0563750 0.9967878 -0.0563750
149750000 0.9928226 -0.0841006 0.0071774 0.0841006 0.0071774 0.0841006 0.9928226 -0.0841006
199500000 0.9873252 -0.1114477 0.0126748 0.1114477 0.0126748 0.1114477 0.9873252 -0.1114477
249250000 0.9803419 -0.1382988 0.0196581 0.1382988 0.0196581 0.1382988 0.9803419 -0.1382988
299000000 0.9719304 -0.1645433 0.0280696 0.1645433 0.0280696 0.1645433 0.9719304 -0.1645433
348750000 0.9621587 -0.1900788 0.0378413 0.1900788 0.0378413 0.1900788 0.9621587 -0.1900788
398500000 0.9511040 -0.2148121 0.0488960 0.2148121 0.0488960 0.2148121 0.9511040 -0.2148121
448250000 0.9388507 -0.2386599 0.0611493 0.2386599 0.0611493 0.2386599 0.9388507 -0.2386599
498000000 0.9254896 -0.2615498 0.0745104 0.2615498 0.0745104 0.2615498 0.9254896 -0.2615498
547750000 0.9111159 -0.2834205 0.0888841 0.2834205 0.0888841 0.2834205 0.9111159 -0.2834205
597500000 0.8958277 -0.3042216 0.1041723 0.3042216 0.1041723 0.3042216 0.8958277 -0.3042216
647250000 0.8797247 -0.3239140 0.1202753 0.3239140 0.1202753 0.3239140 0.8797247 -0.3239140
697000000 0.8629068 -0.3424693 0.1370932 0.3424693 0.1370932 0.3424693 0.8629068 -0.3424693
746750000 0.8454728 -0.3598694 0.1545272 0.3598694 0.1545272 0.3598694 0.8454728 -0.3598694
796500000 0.8275192 -0.3761057 0.1724808 0.3761057 0.1724808 0.3761057 0.8275192 -0.3761057
846250000 0.8091394 -0.3911786 0.1908606 0.3911786 0.1908606 0.3911786 0.8091394 -0.3911786
896000000 0.7904229 -0.4050968 0.2095771 0.4050968 0.2095771 0.4050968 0.7904229 -0.4050968
945750000 0.7714546 -0.4178759 0.2285454 0.4178759 0.2285454 0.4178759 0.7714546 -0.4178759
995500000 0.7523143 -0.4295382 0.2476857 0.4295382 0.2476857 0.4295382 0.7523143 -0.4295382
1045250000 0.7330761 -0.4401111 0.2669239 0.4401111 0.2669239 0.4401111 0.7330761 -0.4401111
1095000000 0.7138087 -0.4496270 0.2861913 0.4496270 0.2861913 0.4496270 0.7138087 -0.4496270
1144750000 0.6945750 -0.4581219 0.3054250 0.4581219 0.3054250 0.4581219 0.6945750 -0.4581219
1194500000 0.6754319 -0.4656347 0.3245681 0.4656347 0.3245681 0.4656347 0.6754319 -0.4656347
1244250000 0.6564308 -0.4722068 0.3435692 0.4722068 0.3435692 0.4722068 0.6564308 -0.4722068
1294000000 0.6376174 -0.4778811 0.3623826 0.4778811 0.3623826 0.4778811 0.6376174 -0.4778811
1343750000 0.6190321 -0.4827015 0.3809679 0.4827015 0.3809679 0.4827015 0.6190321 -0.4827015
1393500000 0.6007102 -0.4867126 0.3992898 0.4867126 0.3992898 0.4867126 0.6007102 -0.4867126
1443250000 0.5826822 -0.4899588 0.4173178 0.4899588 0.4173178 0.4899588 0.5826822 -0.4899588
1493000000 0.5649741 -0.4924843 0.4350259 0.4924843 0.4350259 0.4924843 0.5649741 -0.4924843
1542750000 0.5476078 -0.4943325 0.4523922 0.4943325 0.4523922 0.4943325 0.5476078 -0.4943325
1592500000 0.5306011 -0.4955461 0.4693989 0.4955461 0.4693989 0.4955461 0.5306011 -0.4955461
1642250000 0.5139687 -0.4961663 0.4860313 0.4961663 0.4860313 0.4961663 0.5139687 -0.4961663
1692000000 0.4977218 -0.4962332 0.5022782 0.4962332 0.5022782 0.4962332 0.4977218 -0.4962332
1741750000 0.4818687 -0.4957852 0.5181313 0.4957852 0.5181313 0.4957852 0.4818687 -0.4957852
1791500000 0.4664154 -0.4948592 0.5335846 0.4948592 0.5335846 0.4948592 0.4664154 -0.4948592
1841250000 0.4513652 -0.4934905 0.5486348 0.4934905 0.5486348 0.4934905 0.4513652 -0.4934905
1891000000 0.4367197 -0.4917126 0.5632803 0.4917126 0.5632803 0.4917126 0.4367197 -0.4917126
1940750000 0.4224786 -0.4895572 0.5775214 0.4895572 0.5775214 0.4895572 0.4224786 -0.4895572
1990500000 0.4086399 -0.4870546 0.5913601 0.4870546 0.5913601 0.4870546 0.4086399 -0.4870546
2040250000 0.3952003 -0.4842330 0.6047997 0.4842330 0.6047997 0.4842330 0.3952003 -0.4842330
2090000000 0.3821556 -0.4811191 0.6178444 0.4811191 0.6178444 0.4811191 0.3821556 -0.4811191
2139750000 0.3695002 -0.4777382 0.6304998 0.4777382 0.6304998 0.4777382 0.3695002 -0.4777382
2189500000 0.3572278 -0.4741137 0.6427722 0.4741137 0.6427722 0.4741137 0.3572278 -0.4741137
2239250000 0.3453316 -0.4702676 0.6546684 0.4702676 0.6546684 0.4702676 0.3453316 -0.4702676
2289000000 0.3338041 -0.4662206 0.6661959 0.4662206 0.6661959 0.4662206 0.3338041 -0.4662206
2338750000 0.3226371 -0.4619917 0.6773629 0.4619917 0.6773629 0.4619917 0.3226371 -0.4619917
2388500000 0.3118224 -0.4575989 0.6881776 0.4575989 0.6881776 0.4575989 0.3118224 -0.4575989
2438250000 0.3013514 -0.4530588 0.6986486 0.4530588 0.6986486 0.4530588 0.3013514 -0.4530588
2488000000 0.2912153 -0.4483867 0.7087847 0.4483867 0.7087847 0.4483867 0.2912153 -0.4483867
2537750000 0.2814050 -0.4435971 0.7185950 0.4435971 0.7185950 0.4435971 0.2814050 -0.4435971
2587500000 0.2719117 -0.4387031 0.7280883 0.4387031 0.7280883 0.4387031 0.2719117 -0.4387031
2637250000 0.2627263 -0.4337170 0.7372737 0.4337170 0.7372737 0.4337170 0.2627263 -0.4337170
2687000000 0.2538399 -0.4286502 0.7461601 0.4286502 0.7461601 0.4286502 0.2538399 -0.4286502
2736750000 0.2452434 -0.4235132 0.7547566 0.4235132 0.7547566 0.4235132 0.2452434 -0.4235132
2786500000 0.2369281 -0.4183156 0.7630719 0.4183156 0.7630719 0.4183156 0.2369281 -0.4183156
2836250000 0.2288853 -0.4130663 0.7711147 0.4130663 0.7711147 0.4130663 0.2288853 -0.4130663
2886000000 0.2211064 -0.4077734 0.7788936 0.4077734 0.7788936 0.4077734 0.2211064 -0.4077734
2935750000 0.2135830 -0.4024447 0.7864170 0.4024447 0.7864170 0.4024447 0.2135830 -0.4024447
2985500000 0.2063069 -0.3970869 0.7936931 0.3970869 0.7936931 0.3970869 0.2063069 -0.3970869
3035250000 0.1992700 -0.3917064 0.8007300 0.3917064 0.8007300 0.3917064 0.1992700 -0.3917064
3085000000 0.1924647 -0.3863091 0.8075353 0.3863091 0.8075353 0.3863091 0.1924647 -0.3863091
3134750000 0.1858831 -0.3809002 0.8141169 0.3809002 0.8141169 0.3809002 0.1858831 -0.3809002
3184500000 0.1795180 -0.3754847 0.8204820 0.3754847 0.8204820 0.3754847 0.1795180 -0.3754847
3234250000 0.1733622 -0.3700671 0.8266378 0.3700671 0.8266378 0.3700671 0.1733622 -0.3700671
3284000000 0.1674085 -0.3646512 0.8325915 0.3646512 0.8325915 0.3646512 0.1674085 -0.3646512
3333750000 0.1616504 -0.3592410 0.8383496 0.3592410 0.8383496 0.3592410 0.1616504 -0.3592410
3383500000 0.1560813 -0.3538397 0.8439187 0.3538397 0.8439187 0.3538397 0.1560813 -0.3538397
3433250000 0.1506947 -0.3484504 0.8493053 0.3484504 0.8493053 0.3484504 0.1506947 -0.3484504
3483000000 0.1454846 -0.3430759 0.8545154 0.3430759 0.8545154 0.3430759 0.1454846 -0.3430759
3532750000 0.1404451 -0.3377186 0.8595549 0.3377186 0.8595549 0.3377186 0.1404451 -0.3377186
3582500000 0.1355704 -0.3323809 0.8644296 0.3323809 0.8644296 0.3323809 0.1355704 -0.3323809
3632250000 0.1308551 -0.3270647 0.8691449 0.3270647 0.8691449 0.3270647 0.1308551 -0.3270647
3682000000 0.1262938 -0.3217719 0.8737062 0.3217719 0.8737062 0.3217719 0.1262938 -0.3217719
3731750000 0.1218814 -0.3165042 0.8781186 0.3165042 0.8781186 0.3165042 0.1218814 -0.3165042
3781500000 0.1176129 -0.3112630 0.8823871 0.3112630 0.8823871 0.3112630 0.1176129 -0.3112630
3831250000 0.1134835 -0.3060495 0.8865165 0.3060495 0.8865165 0.3060495 0.1134835 -0.3060495
3881000000 0.1094887 -0.3008650 0.8905113 0.3008650 0.8905113 0.3008650 0.1094887 -0.3008650
3930750000 0.1056240 -0.2957105 0.8943760 0.2957105 0.8943760 0.2957105 0.1056240 -0.2957105
3980500000 0.1018852 -0.2905868 0.8981148 0.2905868 0.8981148 0.2905868 0.1018852 -0.2905868
4030250000 0.0982682 -0.2854947 0.9017318 0.2854947 0.9017318 0.2854947 0.0982682 -0.2854947
4080000000 0.0947689 -0.2804348 0.9052311 0.2804348 0.9052311 0.2804348 0.0947689 -0.2804348
4129750000 0.0913836 -0.2754079 0.9086164 0.2754079 0.9086164 0.2754079 0.0913836 -0.2754079
4179500000 0.0881087 -0.2704142 0.9118913 0.2704142 0.9118913 0.2704142 0.0881087 -0.2704142
4229250000 0.0849406 -0.2654542 0.9150594 0.2654542 0.9150594 0.2654542 0.0849406 -0.2654542
4279000000 0.0818758 -0.2605283 0.9181242 0.2605283 0.9181242 0.2605283 0.0818758 -0.2605283
4328750000 0.0789112 -0.2556367 0.9210888 0.2556367 0.9210888 0.2556367 0.0789112 -0.2556367
4378500000 0.0760436 -0.2507795 0.9239564 0.2507795 0.9239564 0.2507795 0.0760436 -0.2507795
4428250000 0.0732699 -0.2459568 0.9267301 0.2459568 0.9267301 0.2459568 0.0732699 -0.2459568
4478000000 0.0705873 -0.2411689 0.9294127 0.2411689 0.9294127 0.2411689 0.0705873 -0.2411689
4527750000 0.0679929 -0.2364156 0.9320071 0.2364156 0.9320071 0.2364156 0.0679929 -0.2364156
4577500000 0.0654840 -0.2316970 0.9345160 0.2316970 0.9345160 0.2316970 0.0654840 -0.2316970
4627250000 0.0630580 -0.2270131 0.9369420 0.2270131 0.9369420 0.2270131 0.0630580 -0.2270131
4677000000 0.0607125 -0.2223636 0.9392875 0.2223636 0.9392875 0.2223636 0.0607125 -0.2223636
4726750000 0.0584449 -0.2177486 0.9415551 0.2177486 0.9415551 0.2177486 0.0584449 -0.2177486
4776500000 0.0562531 -0.2131678 0.9437469 0.2131678 0.9437469 0.2131678 0.0562531 -0.2131678
4826250000 0.0541347 -0.2086211 0.9458653 0.2086211 0.9458653 0.2086211 0.0541347 -0.2086211
4876000000 0.0520876 -0.2041083 0.9479124 0.2041083 0.9479124 0.2041083 0.0520876 -0.2041083
4925750000 0.0501097 -0.1996291 0.9498903 0.1996291 0.9498903 0.1996291 0.0501097 -0.1996291
4975500000 0.0481991 -0.1951833 0.9518009 0.1951833 0.9518009 0.1951833 0.0481991 -0.1951833
5025250000 0.0463537 -0.1907706 0.9536463 0.1907706 0.9536463 0.1907706 0.0463537 -0.1907706
5075000000 0.0445719 -0.1863908 0.9554281 0.1863908 0.9554281 0.1863908 0.0445719 -0.1863908
5124750000 0.0428516 -0.1820436 0.9571484 0.1820436 0.9571484 0.1820436 0.0428516 -0.1820436
5174500000 0.0411914 -0.1777286 0.9588086 0.1777286 0.9588086 0.1777286 0.0411914 -0.1777286
5224250000 0.0395894 -0.1734456 0.9604106 0.1734456 0.9604106 0.1734456 0.0395894 -0.1734456
5274000000 0.0380442 -0.1691942 0.9619558 0.1691942 0.9619558 0.1691942 0.0380442 -0.1691942
5323750000 0.0365540 -0.1649741 0.9634460 0.1649741 0.9634460 0.1649741 0.0365540 -0.1649741
5373500000 0.0351176 -0.1607849 0.9648824 0.1607849 0.9648824 0.1607849 0.0351176 -0.1607849
5423250000 0.0337334 -0.1566264 0.9662666 0.1566264 0.9662666 0.1566264 0.0337334 -0.1566264
5473000000 0.0324000 -0.1524981 0.9676000 0.1524981 0.9676000 0.1524981 0.0324000 -0.1524981
5522750000 0.0311162 -0.1483998 0.9688838 0.1483998 0.9688838 0.1483998 0.0311162 -0.1483998
5572500000 0.0298806 -0.1443311 0.9701194 0.1443311 0.9701194 0.1443311 0.0298806 -0.1443311
5622250000 0.0286920 -0.1402915 0.9713080 0.1402915 0.9713080 0.1402915 0.0286920 -0.1402915
5672000000 0.0275492 -0.1362808 0.9724508 0.1362808 0.9724508 0.1362808 0.0275492 -0.1362808
5721750000 0.0264511 -0.1322986 0.9735489 0.1322986 0.9735489 0.1322986 0.0264511 -0.1322986
5771500000 0.0253966 -0.1283445 0.9746034 0.1283445 0.9746034 0.1283445 0.0253966 -0.1283445
5821250000 0.0243845 -0.1244182 0.9756155 0.1244182 0.9756155 0.1244182 0.0243845 -0.1244182
5871000000 0.0234138 -0.1205193 0.9765862 0.1205193 0.9765862 0.1205193 0.0234138 -0.1205193
5920750000 0.0224836 -0.1166475 0.9775164 0.1166475 0.9775164 0.1166475 0.0224836 -0.1166475
5970500000 0.0215928 -0.1128023 0.9784072 0.1128023 0.9784072 0.1128023 0.0215928 -0.1128023
6020250000 0.0207406 -0.1089836 0.9792594 0.1089836 0.9792594 0.1089836 0.0207406 -0.1089836
6070000000 0.0199260 -0.1051908 0.9800740 0.1051908 0.9800740 0.1051908 0.0199260 -0.1051908
6119750000 0.0191482 -0.1014236 0.9808518 0.1014236 0.9808518 0.1014236 0.0191482 -0.1014236
6169500000 0.0184062 -0.0976817 0.9815938 0.0976817 0.9815938 0.0976817 0.0184062 -0.0976817
6219250000 0.0176995 -0.0939648 0.9823005 0.0939648 0.9823005 0.0939648 0.0176995 -0.0939648
6269000000 0.0170270 -0.0902725 0.9829730 0.0902725 0.9829730 0.0902725 0.0170270 -0.0902725
6318750000 0.0163881 -0.0866045 0.9836119 0.0866045 0.9836119 0.0866045 0.0163881 -0.0866045
6368500000 0.0157821 -0.0829604 0.9842179 0.0829604 0.9842179 0.0829604 0.0157821 -0.0829604
6418250000 0.0152081 -0.0793398 0.9847919 0.0793398 0.9847919 0.0793398 0.0152081 -0.0793398
6468000000 0.0146657 -0.0757426 0.9853343 0.0757426 0.9853343 0.0757426 0.0146657 -0.0757426
6517750000 0.0141540 -0.0721683 0.9858460 0.0721683 0.9858460 0.0721683 0.0141540 -0.0721683
6567500000 0.0136724 -0.0686166 0.9863276 0.0686166 0.9863276 0.0686166 0.0136724 -0.0686166
6617250000 0.0132204 -0.0650872 0.9867796 0.0650872 0.9867796 0.0650872 0.0132204 -0.0650872
6667000000 0.0127974 -0.0615799 0.9872026 0.0615799 0.9872026 0.0615799 0.0127974 -0.0615799
6716750000 0.0124026 -0.0580942 0.9875974 0.0580942 0.9875974 0.0580942 0.0124026 -0.0580942
6766500000 0.0120357 -0.0546299 0.9879643 0.0546299 0.9879643 0.0546299 0.0120357 -0.0546299
6816250000 0.0116960 -0.0511866 0.9883040 0.0511866 0.9883040 0.0511866 0.0116960 -0.0511866
6866000000 0.0113831 -0.0477642 0.9886169 0.0477642 0.9886169 0.0477642 0.0113831 -0.0477642
6915750000 0.0110964 -0.0443622 0.9889036 0.0443622 0.9889036 0.0443622 0.0110964 -0.0443622
6965500000 0.0108354 -0.0409804 0.9891646 0.0409804 0.9891646 0.0409804 0.0108354 -0.0409804
7015250000 0.0105997 -0.0376186 0.9894003 0.0376186 0.9894003 0.0376186 0.0105997 -0.0376186
7065000000 0.0103888 -0.0342764 0.9896112 0.0342764 0.9896112 0.0342764 0.0103888 -0.0342764
7114750000 0.0102022 -0.0309535 0.9897978 0.0309535 0.9897978 0.0309535 0.0102022 -0.0309535
7164500000 0.0100396 -0.0276497 0.9899604 0.0276497 0.9899604 0.0276497 0.0100396 -0.0276497
7214250000 0.0099005 -0.0243647 0.9900995 0.0243647 0.9900995 0.0243647 0.0099005 -0.0243647
7264000000 0.0097846 -0.0210983 0.9902154 0.0210983 0.9902154 0.0210983 0.0097846 -0.0210983
7313750000 0.0096913 -0.0178502 0.9903087 0.0178502 0.9903087 0.0178502 0.0096913 -0.0178502
7363500000 0.0096205 -0.0146201 0.9903795 0.0146201 0.9903795 0.0146201 0.0096205 -0.0146201
7413250000 0.0095716 -0.0114078 0.9904284 0.0114078 0.9904284 0.0114078 0.0095716 -0.0114078
7463000000 0.0095443 -0.0082131 0.9904557 0.0082131 0.9904557 0.0082131 0.0095443 -0.0082131
7512750000 0.0095384 -0.0050356 0.9904616 0.0050356 0.9904616 0.0050356 0.0095384 -0.0050356
7562500000 0.0095534 -0.0018752 0.9904466 0.0018752 0.9904466 0.0018752 0.0095534 -0.0018752
7612250000 0.0095891 0.0012684 0.9904109 -0.0012684 0.9904109 -0.0012684 0.0095891 0.0012684
7662000000 0.0096451 0.0043954 0.9903549 -0.0043954 0.9903549 -0.0043954 0.0096451 0.0043954
7711750000 0.0097212 0.0075060 0.9902788 -0.0075060 0.9902788 -0.0075060 0.0097212 0.0075060
7761500000 0.0098170 0.0106005 0.9901830 -0.0106005 0.9901830 -0.0106005 0.0098170 0.0106005
7811250000 0.0099324 0.0136791 0.9900676 -0.0136791 0.9900676 -0.0136791 0.0099324 0.0136791
7861000000 0.0100669 0.0167421 0.9899331 -0.0167421 0.9899331 -0.0167421 0.0100669 0.0167421
7910750000 0.0102204 0.0197895 0.9897796 -0.0197895 0.9897796 -0.0197895 0.0102204 0.0197895
7960500000 0.0103925 0.0228216 0.9896075 -0.0228216 0.9896075 -0.0228216 0.0103925 0.0228216
8010250000 0.0105832 0.0258387 0.9894168 -0.0258387 0.9894168 -0.0258387 0.0105832 0.0258387
8060000000 0.0107920 0.0288410 0.9892080 -0.0288410 0.9892080 -0.0288410 0.0107920 0.0288410
8109750000 0.0110188 0.0318285 0.9889812 -0.0318285 0.9889812 -0.0318285 0.0110188 0.0318285
8159500000 0.0112635 0.0348016 0.9887365 -0.0348016 0.9887365 -0.0348016 0.0112635 0.0348016
8209250000 0.0115256 0.0377604 0.9884744 -0.0377604 0.9884744 -0.0377604 0.0115256 0.0377604
8259000000 0.0118051 0.0407052 0.9881949 -0.0407052 0.9881949 -0.0407052 0.0118051 0.0407052
8308750000 0.0121018 0.0436360 0.9878982 -0.0436360 0.9878982 -0.0436360 0.0121018 0.0436360
8358500000 0.0124154 0.0465532 0.9875846 -0.0465532 0.9875846 -0.0465532 0.0124154 0.0465532
8408250000 0.0127458 0.0494567 0.9872542 -0.0494567 0.9872542 -0.0494567 0.0127458 0.0494567
8458000000 0.0130928 0.0523470 0.9869072 -0.0523470 0.9869072 -0.0523470 0.0130928 0.0523470
8507750000 0.0134562 0.0552240 0.9865438 -0.0552240 0.9865438 -0.0552240 0.0134562 0.0552240
8557500000 0.0138359 0.0580880 0.9861641 -0.0580880 0.9861641 -0.0580880 0.0138359 0.0580880
8607250000 0.0142317 0.0609392 0.9857683 -0.0609392 0.9857683 -0.0609392 0.0142317 0.0609392
8657000000 0.0146434 0.0637777 0.9853566 -0.0637777 0.9853566 -0.0637777 0.0146434 0.0637777
8706750000 0.0150709 0.0666037 0.9849291 -0.0666037 0.9849291 -0.0666037 0.0150709 0.0666037
8756500000 0.0155140 0.0694173 0.9844860 -0.0694173 0.9844860 -0.0694173 0.0155140 0.0694173
8806250000 0.0159727 0.0722187 0.9840273 -0.0722187 0.9840273 -0.0722187 0.0159727 0.0722187
8856000000 0.0164467 0.0750081 0.9835533 -0.0750081 0.9835533 -0.0750081 0.0164467 0.0750081
8905750000 0.0169360 0.0777855 0.9830640 -0.0777855 0.9830640 -0.0777855 0.0169360 0.0777855
8955500000 0.0174404 0.0805512 0.9825596 -0.0805512 0.9825596 -0.0805512 0.0174404 0.0805512
9005250000 0.0179598 0.0833053 0.9820402 -0.0833053 0.9820402 -0.0833053 0.0179598 0.0833053
9055000000 0.0184942 0.0860479 0.9815058 -0.0860479 0.9815058 -0.0860479 0.0184942 0.0860479
9104750000 0.0190433 0.0887792 0.9809567 -0.0887792 0.9809567 -0.0887792 0.0190433 0.0887792
9154500000 0.0196070 0.0914992 0.9803930 -0.0914992 0.9803930 -0.0914992 0.0196070 0.0914992
9204250000 0.0201854 0.0942083 0.9798146 -0.0942083 0.9798146 -0.0942083 0.0201854 0.0942083
9254000000 0.0207783 0.0969064 0.9792217 -0.0969064 0.9792217 -0.0969064 0.0207783 0.0969064
9303750000 0.0213855 0.0995937 0.9786145 -0.0995937 0.9786145 -0.0995937 0.0213855 0.0995937
9353500000 0.0220071 0.1022703 0.9779929 -0.1022703 0.9779929 -0.1022703 0.0220071 0.1022703
9403250000 0.0226429 0.1049364 0.9773571 -0.1049364 0.9773571 -0.1049364 0.0226429 0.1049364
9453000000 0.0232928 0.1075920 0.9767072 -0.1075920 0.9767072 -0.1075920 0.0232928 0.1075920
9502750000 0.0239568 0.1102374 0.9760432 -0.1102374 0.9760432 -0.1102374 0.0239568 0.1102374
9552500000 0.0246348 0.1128726 0.9753652 -0.1128726 0.9753652 -0.1128726 0.0246348 0.1128726
9602250000 0.0253268 0.1154977 0.9746732 -0.1154977 0.9746732 -0.1154977 0.0253268 0.1154977
9652000000 0.0260326 0.1181128 0.9739674 -0.1181128 0.9739674 -0.1181128 0.0260326 0.1181128
9701750000 0.0267523 0.1207181 0.9732477 -0.1207181 0.9732477 -0.1207181 0.0267523 0.1207181
9751500000 0.0274857 0.1233137 0.9725143 -0.1233137 0.9725143 -0.1233137 0.0274857 0.1233137
9801250000 0.0282328 0.1258996 0.9717672 -0.1258996 0.9717672 -0.1258996 0.0282328 0.1258996
9851000000 0.0289935 0.1284761 0.9710065 -0.1284761 0.9710065 -0.1284761 0.0289935 0.1284761
9900750000 0.0297679 0.1310430 0.9702321 -0.1310430 0.9702321 -0.1310430 0.0297679 0.1310430
9950500000 0.0305558 0.1336007 0.9694442 -0.1336007 0.9694442 -0.1336007 0.0305558 0.1336007
10000250000 0.0313573 0.1361491 0.9686427 -0.1361491 0.9686427 -0.1361491 0.0313573 0.1361491
10050000000 0.0321723 0.1386884 0.9678277 -0.1386884 0.9678277 -0.1386884 0.0321723 0.1386884
10099750000 0.0330007 0.1412187 0.9669993 -0.1412187 0.9669993 -0.1412187 0.0330007 0.1412187
10149500000 0.0338426 0.1437400 0.9661574 -0.1437400 0.9661574 -0.1437400 0.0338426 0.1437400
10199250000 0.0346978 0.1462525 0.9653022 -0.1462525 0.9653022 -0.1462525 0.0346978 0.1462525
10249000000 0.0355665 0.1487562 0.9644335 -0.1487562 0.9644335 -0.1487562 0.0355665 0.1487562
10298750000 0.0364485 0.1512512 0.9635515 -0.1512512 0.9635515 -0.1512512 0.0364485 0.1512512
10348500000 0.0373439 0.1537376 0.9626561 -0.1537376 0.9626561 -0.1537376 0.0373439 0.1537376
10398250000 0.0382526 0.1562155 0.9617474 -0.1562155 0.9617474 -0.1562155 0.0382526 0.1562155
10448000000 0.0391746 0.1586850 0.9608254 -0.1586850 0.9608254 -0.1586850 0.0391746 0.1586850
10497750000 0.0401100 0.1611461 0.9598900 -0.1611461 0.9598900 -0.1611461 0.0401100 0.1611461
