!Murata Part Number: GRM1555C2A4R3BA01
!These Parameters are Measured in Series Mode Connection
!Data Generated on Mar 30, 2021
!       o--ll--o
!Port1            Port2
!       o------o
!Operation Temp=25[degC], DC Bias Voltage=0[V]
!Freq. Start=100[MHz] Stop=9[GHz] 401[Steps]
# Hz S RI R 50
!Freq.(Hz) S11(Real) S11(Imag) S21(Real) S21(Imag) S12(Real) S12(Imag) S22(Real) S22(Imag)
100000000 0.9317621 -0.2518489 0.0682379 0.2518489 0.0682379 0.2518489 0.9317621 -0.2518489
121000000 0.9031180 -0.2954279 0.0968820 0.2954279 0.0968820 0.2954279 0.9031180 -0.2954279
142000000 0.8712119 -0.3345313 0.1287881 0.3345313 0.1287881 0.3345313 0.8712119 -0.3345313
163000000 0.8368823 -0.3689740 0.1631177 0.3689740 0.1631177 0.3689740 0.8368823 -0.3689740
184000000 0.8009257 -0.3987396 0.1990743 0.3987396 0.1990743 0.3987396 0.8009257 -0.3987396
205000000 0.7640658 -0.4239509 0.2359342 0.4239509 0.2359342 0.4239509 0.7640658 -0.4239509
226000000 0.7269335 -0.4448379 0.2730665 0.4448379 0.2730665 0.4448379 0.7269335 -0.4448379
247000000 0.6900584 -0.4617055 0.3099416 0.4617055 0.3099416 0.4617055 0.6900584 -0.4617055
268000000 0.6538677 -0.4749048 0.3461323 0.4749048 0.3461323 0.4749048 0.6538677 -0.4749048
289000000 0.6186928 -0.4848084 0.3813072 0.4848084 0.3813072 0.4848084 0.6186928 -0.4848084
310000000 0.5847787 -0.4917920 0.4152213 0.4917920 0.4152213 0.4917920 0.5847787 -0.4917920
331000000 0.5522954 -0.4962200 0.4477046 0.4962200 0.4477046 0.4962200 0.5522954 -0.4962200
352000000 0.5213507 -0.4984359 0.4786493 0.4984359 0.4786493 0.4984359 0.5213507 -0.4984359
373000000 0.4920011 -0.4987569 0.5079989 0.4987569 0.5079989 0.4987569 0.4920011 -0.4987569
394000000 0.4642635 -0.4974702 0.5357365 0.4974702 0.5357365 0.4974702 0.4642635 -0.4974702
415000000 0.4381235 -0.4948325 0.5618765 0.4948325 0.5618765 0.4948325 0.4381235 -0.4948325
436000000 0.4135443 -0.4910709 0.5864557 0.4910709 0.5864557 0.4910709 0.4135443 -0.4910709
457000000 0.3904725 -0.4863836 0.6095275 0.4863836 0.6095275 0.4863836 0.3904725 -0.4863836
478000000 0.3688436 -0.4809429 0.6311564 0.4809429 0.6311564 0.4809429 0.3688436 -0.4809429
499000000 0.3485863 -0.4748971 0.6514137 0.4748971 0.6514137 0.4748971 0.3485863 -0.4748971
520000000 0.3296257 -0.4683735 0.6703743 0.4683735 0.6703743 0.4683735 0.3296257 -0.4683735
541000000 0.3118852 -0.4614802 0.6881148 0.4614802 0.6881148 0.4614802 0.3118852 -0.4614802
562000000 0.2952890 -0.4543090 0.7047110 0.4543090 0.7047110 0.4543090 0.2952890 -0.4543090
583000000 0.2797630 -0.4469373 0.7202370 0.4469373 0.7202370 0.4469373 0.2797630 -0.4469373
604000000 0.2652357 -0.4394301 0.7347643 0.4394301 0.7347643 0.4394301 0.2652357 -0.4394301
625000000 0.2516389 -0.4318417 0.7483611 0.4318417 0.7483611 0.4318417 0.2516389 -0.4318417
646000000 0.2389080 -0.4242174 0.7610920 0.4242174 0.7610920 0.4242174 0.2389080 -0.4242174
667000000 0.2269821 -0.4165945 0.7730179 0.4165945 0.7730179 0.4165945 0.2269821 -0.4165945
688000000 0.2158042 -0.4090038 0.7841958 0.4090038 0.7841958 0.4090038 0.2158042 -0.4090038
709000000 0.2053211 -0.4014704 0.7946789 0.4014704 0.7946789 0.4014704 0.2053211 -0.4014704
730000000 0.1954834 -0.3940146 0.8045166 0.3940146 0.8045166 0.3940146 0.1954834 -0.3940146
751000000 0.1862449 -0.3866529 0.8137551 0.3866529 0.8137551 0.3866529 0.1862449 -0.3866529
772000000 0.1775631 -0.3793980 0.8224369 0.3793980 0.8224369 0.3793980 0.1775631 -0.3793980
793000000 0.1693986 -0.3722600 0.8306014 0.3722600 0.8306014 0.3722600 0.1693986 -0.3722600
814000000 0.1617148 -0.3652467 0.8382852 0.3652467 0.8382852 0.3652467 0.1617148 -0.3652467
835000000 0.1544780 -0.3583636 0.8455220 0.3583636 0.8455220 0.3583636 0.1544780 -0.3583636
856000000 0.1476572 -0.3516147 0.8523428 0.3516147 0.8523428 0.3516147 0.1476572 -0.3516147
877000000 0.1412236 -0.3450027 0.8587764 0.3450027 0.8587764 0.3450027 0.1412236 -0.3450027
898000000 0.1351506 -0.3385289 0.8648494 0.3385289 0.8648494 0.3385289 0.1351506 -0.3385289
919000000 0.1294138 -0.3321939 0.8705862 0.3321939 0.8705862 0.3321939 0.1294138 -0.3321939
940000000 0.1239906 -0.3259972 0.8760094 0.3259972 0.8760094 0.3259972 0.1239906 -0.3259972
961000000 0.1188600 -0.3199381 0.8811400 0.3199381 0.8811400 0.3199381 0.1188600 -0.3199381
982000000 0.1140028 -0.3140148 0.8859972 0.3140148 0.8859972 0.3140148 0.1140028 -0.3140148
1003000000 0.1094011 -0.3082257 0.8905989 0.3082257 0.8905989 0.3082257 0.1094011 -0.3082257
1024000000 0.1050384 -0.3025684 0.8949616 0.3025684 0.8949616 0.3025684 0.1050384 -0.3025684
1045000000 0.1008995 -0.2970405 0.8991005 0.2970405 0.8991005 0.2970405 0.1008995 -0.2970405
1066000000 0.0969702 -0.2916392 0.9030298 0.2916392 0.9030298 0.2916392 0.0969702 -0.2916392
1087000000 0.0932374 -0.2863618 0.9067626 0.2863618 0.9067626 0.2863618 0.0932374 -0.2863618
1108000000 0.0896890 -0.2812052 0.9103110 0.2812052 0.9103110 0.2812052 0.0896890 -0.2812052
1129000000 0.0863138 -0.2761666 0.9136862 0.2761666 0.9136862 0.2761666 0.0863138 -0.2761666
1150000000 0.0831012 -0.2712427 0.9168988 0.2712427 0.9168988 0.2712427 0.0831012 -0.2712427
1171000000 0.0800416 -0.2664306 0.9199584 0.2664306 0.9199584 0.2664306 0.0800416 -0.2664306
1192000000 0.0771259 -0.2617272 0.9228741 0.2617272 0.9228741 0.2617272 0.0771259 -0.2617272
1213000000 0.0743458 -0.2571294 0.9256542 0.2571294 0.9256542 0.2571294 0.0743458 -0.2571294
1234000000 0.0716935 -0.2526341 0.9283065 0.2526341 0.9283065 0.2526341 0.0716935 -0.2526341
1255000000 0.0691616 -0.2482385 0.9308384 0.2482385 0.9308384 0.2482385 0.0691616 -0.2482385
1276000000 0.0667434 -0.2439396 0.9332566 0.2439396 0.9332566 0.2439396 0.0667434 -0.2439396
1297000000 0.0644326 -0.2397345 0.9355674 0.2397345 0.9355674 0.2397345 0.0644326 -0.2397345
1318000000 0.0622232 -0.2356204 0.9377768 0.2356204 0.9377768 0.2356204 0.0622232 -0.2356204
1339000000 0.0601097 -0.2315946 0.9398903 0.2315946 0.9398903 0.2315946 0.0601097 -0.2315946
1360000000 0.0580871 -0.2276544 0.9419129 0.2276544 0.9419129 0.2276544 0.0580871 -0.2276544
1381000000 0.0561504 -0.2237973 0.9438496 0.2237973 0.9438496 0.2237973 0.0561504 -0.2237973
1402000000 0.0542951 -0.2200206 0.9457049 0.2200206 0.9457049 0.2200206 0.0542951 -0.2200206
1423000000 0.0525170 -0.2163220 0.9474830 0.2163220 0.9474830 0.2163220 0.0525170 -0.2163220
1444000000 0.0508122 -0.2126990 0.9491878 0.2126990 0.9491878 0.2126990 0.0508122 -0.2126990
1465000000 0.0491769 -0.2091495 0.9508231 0.2091495 0.9508231 0.2091495 0.0491769 -0.2091495
1486000000 0.0476076 -0.2056710 0.9523924 0.2056710 0.9523924 0.2056710 0.0476076 -0.2056710
1507000000 0.0461010 -0.2022616 0.9538990 0.2022616 0.9538990 0.2022616 0.0461010 -0.2022616
1528000000 0.0446541 -0.1989191 0.9553459 0.1989191 0.9553459 0.1989191 0.0446541 -0.1989191
1549000000 0.0432640 -0.1956414 0.9567360 0.1956414 0.9567360 0.1956414 0.0432640 -0.1956414
1570000000 0.0419279 -0.1924267 0.9580721 0.1924267 0.9580721 0.1924267 0.0419279 -0.1924267
1591000000 0.0406432 -0.1892730 0.9593568 0.1892730 0.9593568 0.1892730 0.0406432 -0.1892730
1612000000 0.0394076 -0.1861785 0.9605924 0.1861785 0.9605924 0.1861785 0.0394076 -0.1861785
1633000000 0.0382188 -0.1831415 0.9617812 0.1831415 0.9617812 0.1831415 0.0382188 -0.1831415
1654000000 0.0370745 -0.1801603 0.9629255 0.1801603 0.9629255 0.1801603 0.0370745 -0.1801603
1675000000 0.0359728 -0.1772331 0.9640272 0.1772331 0.9640272 0.1772331 0.0359728 -0.1772331
1696000000 0.0349118 -0.1743585 0.9650882 0.1743585 0.9650882 0.1743585 0.0349118 -0.1743585
1717000000 0.0338896 -0.1715349 0.9661104 0.1715349 0.9661104 0.1715349 0.0338896 -0.1715349
1738000000 0.0329045 -0.1687608 0.9670955 0.1687608 0.9670955 0.1687608 0.0329045 -0.1687608
1759000000 0.0319550 -0.1660348 0.9680450 0.1660348 0.9680450 0.1660348 0.0319550 -0.1660348
1780000000 0.0310393 -0.1633555 0.9689607 0.1633555 0.9689607 0.1633555 0.0310393 -0.1633555
1801000000 0.0301562 -0.1607216 0.9698438 0.1607216 0.9698438 0.1607216 0.0301562 -0.1607216
1822000000 0.0293043 -0.1581317 0.9706957 0.1581317 0.9706957 0.1581317 0.0293043 -0.1581317
1843000000 0.0284821 -0.1555847 0.9715179 0.1555847 0.9715179 0.1555847 0.0284821 -0.1555847
1864000000 0.0276885 -0.1530794 0.9723115 0.1530794 0.9723115 0.1530794 0.0276885 -0.1530794
1885000000 0.0269223 -0.1506145 0.9730777 0.1506145 0.9730777 0.1506145 0.0269223 -0.1506145
1906000000 0.0261824 -0.1481890 0.9738176 0.1481890 0.9738176 0.1481890 0.0261824 -0.1481890
1927000000 0.0254678 -0.1458017 0.9745322 0.1458017 0.9745322 0.1458017 0.0254678 -0.1458017
1948000000 0.0247773 -0.1434517 0.9752227 0.1434517 0.9752227 0.1434517 0.0247773 -0.1434517
1969000000 0.0241101 -0.1411378 0.9758899 0.1411378 0.9758899 0.1411378 0.0241101 -0.1411378
1990000000 0.0234653 -0.1388592 0.9765347 0.1388592 0.9765347 0.1388592 0.0234653 -0.1388592
2011000000 0.0228419 -0.1366149 0.9771581 0.1366149 0.9771581 0.1366149 0.0228419 -0.1366149
2032000000 0.0222392 -0.1344040 0.9777608 0.1344040 0.9777608 0.1344040 0.0222392 -0.1344040
2053000000 0.0216563 -0.1322255 0.9783437 0.1322255 0.9783437 0.1322255 0.0216563 -0.1322255
2074000000 0.0210926 -0.1300787 0.9789074 0.1300787 0.9789074 0.1300787 0.0210926 -0.1300787
2095000000 0.0205473 -0.1279626 0.9794527 0.1279626 0.9794527 0.1279626 0.0205473 -0.1279626
2116000000 0.0200197 -0.1258766 0.9799803 0.1258766 0.9799803 0.1258766 0.0200197 -0.1258766
2137000000 0.0195091 -0.1238198 0.9804909 0.1238198 0.9804909 0.1238198 0.0195091 -0.1238198
2158000000 0.0190151 -0.1217914 0.9809849 0.1217914 0.9809849 0.1217914 0.0190151 -0.1217914
2179000000 0.0185368 -0.1197908 0.9814632 0.1197908 0.9814632 0.1197908 0.0185368 -0.1197908
2200000000 0.0180739 -0.1178172 0.9819261 0.1178172 0.9819261 0.1178172 0.0180739 -0.1178172
2221000000 0.0176257 -0.1158699 0.9823743 0.1158699 0.9823743 0.1158699 0.0176257 -0.1158699
2242000000 0.0171918 -0.1139484 0.9828082 0.1139484 0.9828082 0.1139484 0.0171918 -0.1139484
2263000000 0.0167715 -0.1120518 0.9832285 0.1120518 0.9832285 0.1120518 0.0167715 -0.1120518
2284000000 0.0163646 -0.1101797 0.9836354 0.1101797 0.9836354 0.1101797 0.0163646 -0.1101797
2305000000 0.0159705 -0.1083315 0.9840295 0.1083315 0.9840295 0.1083315 0.0159705 -0.1083315
2326000000 0.0155887 -0.1065064 0.9844113 0.1065064 0.9844113 0.1065064 0.0155887 -0.1065064
2347000000 0.0152189 -0.1047041 0.9847811 0.1047041 0.9847811 0.1047041 0.0152189 -0.1047041
2368000000 0.0148607 -0.1029238 0.9851393 0.1029238 0.9851393 0.1029238 0.0148607 -0.1029238
2389000000 0.0145137 -0.1011652 0.9854863 0.1011652 0.9854863 0.1011652 0.0145137 -0.1011652
2410000000 0.0141775 -0.0994276 0.9858225 0.0994276 0.9858225 0.0994276 0.0141775 -0.0994276
2431000000 0.0138518 -0.0977106 0.9861482 0.0977106 0.9861482 0.0977106 0.0138518 -0.0977106
2452000000 0.0135362 -0.0960137 0.9864638 0.0960137 0.9864638 0.0960137 0.0135362 -0.0960137
2473000000 0.0132305 -0.0943363 0.9867695 0.0943363 0.9867695 0.0943363 0.0132305 -0.0943363
2494000000 0.0129342 -0.0926782 0.9870658 0.0926782 0.9870658 0.0926782 0.0129342 -0.0926782
2515000000 0.0126472 -0.0910387 0.9873528 0.0910387 0.9873528 0.0910387 0.0126472 -0.0910387
2536000000 0.0123691 -0.0894175 0.9876309 0.0894175 0.9876309 0.0894175 0.0123691 -0.0894175
2557000000 0.0120996 -0.0878142 0.9879004 0.0878142 0.9879004 0.0878142 0.0120996 -0.0878142
2578000000 0.0118386 -0.0862283 0.9881614 0.0862283 0.9881614 0.0862283 0.0118386 -0.0862283
2599000000 0.0115857 -0.0846595 0.9884143 0.0846595 0.9884143 0.0846595 0.0115857 -0.0846595
2620000000 0.0113407 -0.0831073 0.9886593 0.0831073 0.9886593 0.0831073 0.0113407 -0.0831073
2641000000 0.0111033 -0.0815714 0.9888967 0.0815714 0.9888967 0.0815714 0.0111033 -0.0815714
2662000000 0.0108734 -0.0800514 0.9891266 0.0800514 0.9891266 0.0800514 0.0108734 -0.0800514
2683000000 0.0106507 -0.0785470 0.9893493 0.0785470 0.9893493 0.0785470 0.0106507 -0.0785470
2704000000 0.0104351 -0.0770578 0.9895649 0.0770578 0.9895649 0.0770578 0.0104351 -0.0770578
2725000000 0.0102263 -0.0755835 0.9897737 0.0755835 0.9897737 0.0755835 0.0102263 -0.0755835
2746000000 0.0100240 -0.0741237 0.9899760 0.0741237 0.9899760 0.0741237 0.0100240 -0.0741237
2767000000 0.0098283 -0.0726782 0.9901717 0.0726782 0.9901717 0.0726782 0.0098283 -0.0726782
2788000000 0.0096388 -0.0712466 0.9903612 0.0712466 0.9903612 0.0712466 0.0096388 -0.0712466
2809000000 0.0094554 -0.0698286 0.9905446 0.0698286 0.9905446 0.0698286 0.0094554 -0.0698286
2830000000 0.0092779 -0.0684240 0.9907221 0.0684240 0.9907221 0.0684240 0.0092779 -0.0684240
2851000000 0.0091062 -0.0670324 0.9908938 0.0670324 0.9908938 0.0670324 0.0091062 -0.0670324
2872000000 0.0089401 -0.0656536 0.9910599 0.0656536 0.9910599 0.0656536 0.0089401 -0.0656536
2893000000 0.0087795 -0.0642872 0.9912205 0.0642872 0.9912205 0.0642872 0.0087795 -0.0642872
2914000000 0.0086242 -0.0629331 0.9913758 0.0629331 0.9913758 0.0629331 0.0086242 -0.0629331
2935000000 0.0084741 -0.0615910 0.9915259 0.0615910 0.9915259 0.0615910 0.0084741 -0.0615910
2956000000 0.0083291 -0.0602605 0.9916709 0.0602605 0.9916709 0.0602605 0.0083291 -0.0602605
2977000000 0.0081889 -0.0589416 0.9918111 0.0589416 0.9918111 0.0589416 0.0081889 -0.0589416
2998000000 0.0080536 -0.0576339 0.9919464 0.0576339 0.9919464 0.0576339 0.0080536 -0.0576339
3019000000 0.0079230 -0.0563372 0.9920770 0.0563372 0.9920770 0.0563372 0.0079230 -0.0563372
3040000000 0.0077969 -0.0550512 0.9922031 0.0550512 0.9922031 0.0550512 0.0077969 -0.0550512
3061000000 0.0076753 -0.0537758 0.9923247 0.0537758 0.9923247 0.0537758 0.0076753 -0.0537758
3082000000 0.0075580 -0.0525108 0.9924420 0.0525108 0.9924420 0.0525108 0.0075580 -0.0525108
3103000000 0.0074450 -0.0512559 0.9925550 0.0512559 0.9925550 0.0512559 0.0074450 -0.0512559
3124000000 0.0073362 -0.0500108 0.9926638 0.0500108 0.9926638 0.0500108 0.0073362 -0.0500108
3145000000 0.0072313 -0.0487755 0.9927687 0.0487755 0.9927687 0.0487755 0.0072313 -0.0487755
3166000000 0.0071305 -0.0475498 0.9928695 0.0475498 0.9928695 0.0475498 0.0071305 -0.0475498
3187000000 0.0070335 -0.0463333 0.9929665 0.0463333 0.9929665 0.0463333 0.0070335 -0.0463333
3208000000 0.0069403 -0.0451260 0.9930597 0.0451260 0.9930597 0.0451260 0.0069403 -0.0451260
3229000000 0.0068508 -0.0439276 0.9931492 0.0439276 0.9931492 0.0439276 0.0068508 -0.0439276
3250000000 0.0067649 -0.0427380 0.9932351 0.0427380 0.9932351 0.0427380 0.0067649 -0.0427380
3271000000 0.0066825 -0.0415570 0.9933175 0.0415570 0.9933175 0.0415570 0.0066825 -0.0415570
3292000000 0.0066036 -0.0403845 0.9933964 0.0403845 0.9933964 0.0403845 0.0066036 -0.0403845
3313000000 0.0065281 -0.0392201 0.9934719 0.0392201 0.9934719 0.0392201 0.0065281 -0.0392201
3334000000 0.0064559 -0.0380639 0.9935441 0.0380639 0.9935441 0.0380639 0.0064559 -0.0380639
3355000000 0.0063869 -0.0369157 0.9936131 0.0369157 0.9936131 0.0369157 0.0063869 -0.0369157
3376000000 0.0063211 -0.0357752 0.9936789 0.0357752 0.9936789 0.0357752 0.0063211 -0.0357752
3397000000 0.0062585 -0.0346423 0.9937415 0.0346423 0.9937415 0.0346423 0.0062585 -0.0346423
3418000000 0.0061988 -0.0335169 0.9938012 0.0335169 0.9938012 0.0335169 0.0061988 -0.0335169
3439000000 0.0061422 -0.0323988 0.9938578 0.0323988 0.9938578 0.0323988 0.0061422 -0.0323988
3460000000 0.0060885 -0.0312880 0.9939115 0.0312880 0.9939115 0.0312880 0.0060885 -0.0312880
3481000000 0.0060377 -0.0301841 0.9939623 0.0301841 0.9939623 0.0301841 0.0060377 -0.0301841
3502000000 0.0059897 -0.0290872 0.9940103 0.0290872 0.9940103 0.0290872 0.0059897 -0.0290872
3523000000 0.0059445 -0.0279971 0.9940555 0.0279971 0.9940555 0.0279971 0.0059445 -0.0279971
3544000000 0.0059020 -0.0269135 0.9940980 0.0269135 0.9940980 0.0269135 0.0059020 -0.0269135
3565000000 0.0058622 -0.0258365 0.9941378 0.0258365 0.9941378 0.0258365 0.0058622 -0.0258365
3586000000 0.0058250 -0.0247659 0.9941750 0.0247659 0.9941750 0.0247659 0.0058250 -0.0247659
3607000000 0.0057904 -0.0237016 0.9942096 0.0237016 0.9942096 0.0237016 0.0057904 -0.0237016
3628000000 0.0057583 -0.0226433 0.9942417 0.0226433 0.9942417 0.0226433 0.0057583 -0.0226433
3649000000 0.0057287 -0.0215911 0.9942713 0.0215911 0.9942713 0.0215911 0.0057287 -0.0215911
3670000000 0.0057015 -0.0205448 0.9942985 0.0205448 0.9942985 0.0205448 0.0057015 -0.0205448
3691000000 0.0056768 -0.0195043 0.9943232 0.0195043 0.9943232 0.0195043 0.0056768 -0.0195043
3712000000 0.0056544 -0.0184695 0.9943456 0.0184695 0.9943456 0.0184695 0.0056544 -0.0184695
3733000000 0.0056344 -0.0174402 0.9943656 0.0174402 0.9943656 0.0174402 0.0056344 -0.0174402
3754000000 0.0056166 -0.0164164 0.9943834 0.0164164 0.9943834 0.0164164 0.0056166 -0.0164164
3775000000 0.0056011 -0.0153979 0.9943989 0.0153979 0.9943989 0.0153979 0.0056011 -0.0153979
3796000000 0.0055879 -0.0143847 0.9944121 0.0143847 0.9944121 0.0143847 0.0055879 -0.0143847
3817000000 0.0055768 -0.0133766 0.9944232 0.0133766 0.9944232 0.0133766 0.0055768 -0.0133766
3838000000 0.0055679 -0.0123736 0.9944321 0.0123736 0.9944321 0.0123736 0.0055679 -0.0123736
3859000000 0.0055611 -0.0113755 0.9944389 0.0113755 0.9944389 0.0113755 0.0055611 -0.0113755
3880000000 0.0055564 -0.0103822 0.9944436 0.0103822 0.9944436 0.0103822 0.0055564 -0.0103822
3901000000 0.0055538 -0.0093937 0.9944462 0.0093937 0.9944462 0.0093937 0.0055538 -0.0093937
3922000000 0.0055532 -0.0084099 0.9944468 0.0084099 0.9944468 0.0084099 0.0055532 -0.0084099
3943000000 0.0055546 -0.0074306 0.9944454 0.0074306 0.9944454 0.0074306 0.0055546 -0.0074306
3964000000 0.0055581 -0.0064558 0.9944419 0.0064558 0.9944419 0.0064558 0.0055581 -0.0064558
3985000000 0.0055635 -0.0054854 0.9944365 0.0054854 0.9944365 0.0054854 0.0055635 -0.0054854
4006000000 0.0055708 -0.0045193 0.9944292 0.0045193 0.9944292 0.0045193 0.0055708 -0.0045193
4027000000 0.0055801 -0.0035574 0.9944199 0.0035574 0.9944199 0.0035574 0.0055801 -0.0035574
4048000000 0.0055912 -0.0025996 0.9944088 0.0025996 0.9944088 0.0025996 0.0055912 -0.0025996
4069000000 0.0056043 -0.0016458 0.9943957 0.0016458 0.9943957 0.0016458 0.0056043 -0.0016458
4090000000 0.0056192 -0.0006961 0.9943808 0.0006961 0.9943808 0.0006961 0.0056192 -0.0006961
4111000000 0.0056359 0.0002498 0.9943641 -0.0002498 0.9943641 -0.0002498 0.0056359 0.0002498
4132000000 0.0056544 0.0011919 0.9943456 -0.0011919 0.9943456 -0.0011919 0.0056544 0.0011919
4153000000 0.0056747 0.0021303 0.9943253 -0.0021303 0.9943253 -0.0021303 0.0056747 0.0021303
4174000000 0.0056969 0.0030650 0.9943031 -0.0030650 0.9943031 -0.0030650 0.0056969 0.0030650
4195000000 0.0057207 0.0039961 0.9942793 -0.0039961 0.9942793 -0.0039961 0.0057207 0.0039961
4216000000 0.0057464 0.0049238 0.9942536 -0.0049238 0.9942536 -0.0049238 0.0057464 0.0049238
4237000000 0.0057737 0.0058480 0.9942263 -0.0058480 0.9942263 -0.0058480 0.0057737 0.0058480
4258000000 0.0058028 0.0067689 0.9941972 -0.0067689 0.9941972 -0.0067689 0.0058028 0.0067689
4279000000 0.0058336 0.0076865 0.9941664 -0.0076865 0.9941664 -0.0076865 0.0058336 0.0076865
4300000000 0.0058660 0.0086009 0.9941340 -0.0086009 0.9941340 -0.0086009 0.0058660 0.0086009
4321000000 0.0059002 0.0095121 0.9940998 -0.0095121 0.9940998 -0.0095121 0.0059002 0.0095121
4342000000 0.0059360 0.0104203 0.9940640 -0.0104203 0.9940640 -0.0104203 0.0059360 0.0104203
4363000000 0.0059735 0.0113254 0.9940265 -0.0113254 0.9940265 -0.0113254 0.0059735 0.0113254
4384000000 0.0060126 0.0122277 0.9939874 -0.0122277 0.9939874 -0.0122277 0.0060126 0.0122277
4405000000 0.0060533 0.0131270 0.9939467 -0.0131270 0.9939467 -0.0131270 0.0060533 0.0131270
4426000000 0.0060957 0.0140236 0.9939043 -0.0140236 0.9939043 -0.0140236 0.0060957 0.0140236
4447000000 0.0061396 0.0149174 0.9938604 -0.0149174 0.9938604 -0.0149174 0.0061396 0.0149174
4468000000 0.0061852 0.0158086 0.9938148 -0.0158086 0.9938148 -0.0158086 0.0061852 0.0158086
4489000000 0.0062324 0.0166971 0.9937676 -0.0166971 0.9937676 -0.0166971 0.0062324 0.0166971
4510000000 0.0062811 0.0175831 0.9937189 -0.0175831 0.9937189 -0.0175831 0.0062811 0.0175831
