!Murata Part Number: GRM1555C1H822JE01
!These Parameters are Measured in Series Mode Connection
!Data Generated on Mar 30, 2021
!       o--ll--o
!Port1            Port2
!       o------o
!Operation Temp=25[degC], DC Bias Voltage=0[V]
!Freq. Start=1000[kHz] Stop=6[GHz] 401[Steps]
# Hz S RI R 50
!Freq.(Hz) S11(Real) S11(Imag) S21(Real) S21(Imag) S12(Real) S12(Imag) S22(Real) S22(Imag)
1000000 0.0375566 -0.1900400 0.9624434 0.1900400 0.9624434 0.1900400 0.0375566 -0.1900400
1021987 0.0360164 -0.1862477 0.9639836 0.1862477 0.9639836 0.1862477 0.0360164 -0.1862477
1044457 0.0345373 -0.1825191 0.9654627 0.1825191 0.9654627 0.1825191 0.0345373 -0.1825191
1067422 0.0331168 -0.1788537 0.9668832 0.1788537 0.9668832 0.1788537 0.0331168 -0.1788537
1090891 0.0317529 -0.1752514 0.9682471 0.1752514 0.9682471 0.1752514 0.0317529 -0.1752514
1114877 0.0304434 -0.1717115 0.9695566 0.1717115 0.9695566 0.1717115 0.0304434 -0.1717115
1139390 0.0291864 -0.1682337 0.9708136 0.1682337 0.9708136 0.1682337 0.0291864 -0.1682337
1164441 0.0279798 -0.1648174 0.9720202 0.1648174 0.9720202 0.1648174 0.0279798 -0.1648174
1190044 0.0268218 -0.1614622 0.9731782 0.1614622 0.9731782 0.1614622 0.0268218 -0.1614622
1216210 0.0257105 -0.1581674 0.9742895 0.1581674 0.9742895 0.1581674 0.0257105 -0.1581674
1242950 0.0246441 -0.1549324 0.9753559 0.1549324 0.9753559 0.1549324 0.0246441 -0.1549324
1270279 0.0236210 -0.1517566 0.9763790 0.1517566 0.9763790 0.1517566 0.0236210 -0.1517566
1298209 0.0226393 -0.1486394 0.9773607 0.1486394 0.9773607 0.1486394 0.0226393 -0.1486394
1326753 0.0216977 -0.1455801 0.9783023 0.1455801 0.9783023 0.1455801 0.0216977 -0.1455801
1355924 0.0207944 -0.1425779 0.9792056 0.1425779 0.9792056 0.1425779 0.0207944 -0.1425779
1385737 0.0199280 -0.1396322 0.9800720 0.1396322 0.9800720 0.1396322 0.0199280 -0.1396322
1416205 0.0190971 -0.1367422 0.9809029 0.1367422 0.9809029 0.1367422 0.0190971 -0.1367422
1447343 0.0183002 -0.1339073 0.9816998 0.1339073 0.9816998 0.1339073 0.0183002 -0.1339073
1479166 0.0175360 -0.1311266 0.9824640 0.1311266 0.9824640 0.1311266 0.0175360 -0.1311266
1511688 0.0168033 -0.1283994 0.9831967 0.1283994 0.9831967 0.1283994 0.0168033 -0.1283994
1544926 0.0161007 -0.1257249 0.9838993 0.1257249 0.9838993 0.1257249 0.0161007 -0.1257249
1578894 0.0154272 -0.1231024 0.9845728 0.1231024 0.9845728 0.1231024 0.0154272 -0.1231024
1613609 0.0147814 -0.1205310 0.9852186 0.1205310 0.9852186 0.1205310 0.0147814 -0.1205310
1649087 0.0141623 -0.1180100 0.9858377 0.1180100 0.9858377 0.1180100 0.0141623 -0.1180100
1685346 0.0135689 -0.1155386 0.9864311 0.1155386 0.9864311 0.1155386 0.0135689 -0.1155386
1722402 0.0130001 -0.1131161 0.9869999 0.1131161 0.9869999 0.1131161 0.0130001 -0.1131161
1760272 0.0124549 -0.1107415 0.9875451 0.1107415 0.9875451 0.1107415 0.0124549 -0.1107415
1798975 0.0119323 -0.1084142 0.9880677 0.1084142 0.9880677 0.1084142 0.0119323 -0.1084142
1838529 0.0114315 -0.1061334 0.9885685 0.1061334 0.9885685 0.1061334 0.0114315 -0.1061334
1878953 0.0109515 -0.1038983 0.9890485 0.1038983 0.9890485 0.1038983 0.0109515 -0.1038983
1920266 0.0104915 -0.1017080 0.9895085 0.1017080 0.9895085 0.1017080 0.0104915 -0.1017080
1962487 0.0100507 -0.0995619 0.9899493 0.0995619 0.9899493 0.0995619 0.0100507 -0.0995619
2005636 0.0096284 -0.0974591 0.9903716 0.0974591 0.9903716 0.0974591 0.0096284 -0.0974591
2049734 0.0092236 -0.0953990 0.9907764 0.0953990 0.9907764 0.0953990 0.0092236 -0.0953990
2094801 0.0088358 -0.0933807 0.9911642 0.0933807 0.9911642 0.0933807 0.0088358 -0.0933807
2140860 0.0084643 -0.0914034 0.9915357 0.0914034 0.9915357 0.0914034 0.0084643 -0.0914034
2187931 0.0081083 -0.0894666 0.9918917 0.0894666 0.9918917 0.0894666 0.0081083 -0.0894666
2236037 0.0077672 -0.0875693 0.9922328 0.0875693 0.9922328 0.0875693 0.0077672 -0.0875693
2285201 0.0074405 -0.0857109 0.9925595 0.0857109 0.9925595 0.0857109 0.0074405 -0.0857109
2335446 0.0071274 -0.0838907 0.9928726 0.0838907 0.9928726 0.0838907 0.0071274 -0.0838907
2386795 0.0068275 -0.0821079 0.9931725 0.0821079 0.9931725 0.0821079 0.0068275 -0.0821079
2439274 0.0065402 -0.0803619 0.9934598 0.0803619 0.9934598 0.0803619 0.0065402 -0.0803619
2492906 0.0062651 -0.0786519 0.9937349 0.0786519 0.9937349 0.0786519 0.0062651 -0.0786519
2547717 0.0060014 -0.0769773 0.9939986 0.0769773 0.9939986 0.0769773 0.0060014 -0.0769773
2603734 0.0057489 -0.0753374 0.9942511 0.0753374 0.9942511 0.0753374 0.0057489 -0.0753374
2660982 0.0055071 -0.0737315 0.9944929 0.0737315 0.9944929 0.0737315 0.0055071 -0.0737315
2719490 0.0052754 -0.0721590 0.9947246 0.0721590 0.9947246 0.0721590 0.0052754 -0.0721590
2779283 0.0050535 -0.0706192 0.9949465 0.0706192 0.9949465 0.0706192 0.0050535 -0.0706192
2840391 0.0048409 -0.0691114 0.9951591 0.0691114 0.9951591 0.0691114 0.0048409 -0.0691114
2902843 0.0046374 -0.0676351 0.9953626 0.0676351 0.9953626 0.0676351 0.0046374 -0.0676351
2966668 0.0044424 -0.0661897 0.9955576 0.0661897 0.9955576 0.0661897 0.0044424 -0.0661897
3031896 0.0042557 -0.0647744 0.9957443 0.0647744 0.9957443 0.0647744 0.0042557 -0.0647744
3098558 0.0040769 -0.0633888 0.9959231 0.0633888 0.9959231 0.0633888 0.0040769 -0.0633888
3166686 0.0039056 -0.0620321 0.9960944 0.0620321 0.9960944 0.0620321 0.0039056 -0.0620321
3236312 0.0037416 -0.0607040 0.9962584 0.0607040 0.9962584 0.0607040 0.0037416 -0.0607040
3307469 0.0035846 -0.0594037 0.9964154 0.0594037 0.9964154 0.0594037 0.0035846 -0.0594037
3380190 0.0034342 -0.0581307 0.9965658 0.0581307 0.9965658 0.0581307 0.0034342 -0.0581307
3454511 0.0032901 -0.0568844 0.9967099 0.0568844 0.9967099 0.0568844 0.0032901 -0.0568844
3530465 0.0031522 -0.0556644 0.9968478 0.0556644 0.9968478 0.0556644 0.0031522 -0.0556644
3608090 0.0030201 -0.0544701 0.9969799 0.0544701 0.9969799 0.0544701 0.0030201 -0.0544701
3687421 0.0028937 -0.0533009 0.9971063 0.0533009 0.9971063 0.0533009 0.0028937 -0.0533009
3768496 0.0027726 -0.0521563 0.9972274 0.0521563 0.9972274 0.0521563 0.0027726 -0.0521563
3851354 0.0026566 -0.0510359 0.9973434 0.0510359 0.9973434 0.0510359 0.0026566 -0.0510359
3936034 0.0025456 -0.0499392 0.9974544 0.0499392 0.9974544 0.0499392 0.0025456 -0.0499392
4022575 0.0024393 -0.0488656 0.9975607 0.0488656 0.9975607 0.0488656 0.0024393 -0.0488656
4111020 0.0023375 -0.0478147 0.9976625 0.0478147 0.9976625 0.0478147 0.0023375 -0.0478147
4201409 0.0022401 -0.0467859 0.9977599 0.0467859 0.9977599 0.0467859 0.0022401 -0.0467859
4293785 0.0021468 -0.0457790 0.9978532 0.0457790 0.9978532 0.0457790 0.0021468 -0.0457790
4388193 0.0020575 -0.0447933 0.9979425 0.0447933 0.9979425 0.0447933 0.0020575 -0.0447933
4484676 0.0019720 -0.0438285 0.9980280 0.0438285 0.9980280 0.0438285 0.0019720 -0.0438285
4583281 0.0018901 -0.0428841 0.9981099 0.0428841 0.9981099 0.0428841 0.0018901 -0.0428841
4684054 0.0018118 -0.0419597 0.9981882 0.0419597 0.9981882 0.0419597 0.0018118 -0.0419597
4787042 0.0017367 -0.0410549 0.9982633 0.0410549 0.9982633 0.0410549 0.0017367 -0.0410549
4892295 0.0016649 -0.0401692 0.9983351 0.0401692 0.9983351 0.0401692 0.0016649 -0.0401692
4999862 0.0015962 -0.0393023 0.9984038 0.0393023 0.9984038 0.0393023 0.0015962 -0.0393023
5109794 0.0015304 -0.0384538 0.9984696 0.0384538 0.9984696 0.0384538 0.0015304 -0.0384538
5222143 0.0014675 -0.0376232 0.9985325 0.0376232 0.9985325 0.0376232 0.0014675 -0.0376232
5336962 0.0014072 -0.0368103 0.9985928 0.0368103 0.9985928 0.0368103 0.0014072 -0.0368103
5454306 0.0013495 -0.0360146 0.9986505 0.0360146 0.9986505 0.0360146 0.0013495 -0.0360146
5574230 0.0012943 -0.0352357 0.9987057 0.0352357 0.9987057 0.0352357 0.0012943 -0.0352357
5696791 0.0012415 -0.0344734 0.9987585 0.0344734 0.9987585 0.0344734 0.0012415 -0.0344734
5822046 0.0011909 -0.0337272 0.9988091 0.0337272 0.9988091 0.0337272 0.0011909 -0.0337272
5950055 0.0011426 -0.0329969 0.9988574 0.0329969 0.9988574 0.0329969 0.0011426 -0.0329969
6080879 0.0010963 -0.0322820 0.9989037 0.0322820 0.9989037 0.0322820 0.0010963 -0.0322820
6214580 0.0010520 -0.0315823 0.9989480 0.0315823 0.9989480 0.0315823 0.0010520 -0.0315823
6351220 0.0010096 -0.0308974 0.9989904 0.0308974 0.9989904 0.0308974 0.0010096 -0.0308974
6490864 0.0009691 -0.0302270 0.9990309 0.0302270 0.9990309 0.0302270 0.0009691 -0.0302270
6633579 0.0009303 -0.0295709 0.9990697 0.0295709 0.9990697 0.0295709 0.0009303 -0.0295709
6779431 0.0008933 -0.0289286 0.9991067 0.0289286 0.9991067 0.0289286 0.0008933 -0.0289286
6928491 0.0008578 -0.0283000 0.9991422 0.0283000 0.9991422 0.0283000 0.0008578 -0.0283000
7080828 0.0008239 -0.0276847 0.9991761 0.0276847 0.9991761 0.0276847 0.0008239 -0.0276847
7236514 0.0007914 -0.0270824 0.9992086 0.0270824 0.9992086 0.0270824 0.0007914 -0.0270824
7395623 0.0007604 -0.0264928 0.9992396 0.0264928 0.9992396 0.0264928 0.0007604 -0.0264928
7558231 0.0007308 -0.0259158 0.9992692 0.0259158 0.9992692 0.0259158 0.0007308 -0.0259158
7724414 0.0007024 -0.0253509 0.9992976 0.0253509 0.9992976 0.0253509 0.0007024 -0.0253509
7894251 0.0006753 -0.0247980 0.9993247 0.0247980 0.9993247 0.0247980 0.0006753 -0.0247980
8067822 0.0006494 -0.0242568 0.9993506 0.0242568 0.9993506 0.0242568 0.0006494 -0.0242568
8245209 0.0006247 -0.0237271 0.9993753 0.0237271 0.9993753 0.0237271 0.0006247 -0.0237271
8426497 0.0006010 -0.0232085 0.9993990 0.0232085 0.9993990 0.0232085 0.0006010 -0.0232085
8611770 0.0005784 -0.0227009 0.9994216 0.0227009 0.9994216 0.0227009 0.0005784 -0.0227009
8801117 0.0005569 -0.0222040 0.9994431 0.0222040 0.9994431 0.0222040 0.0005569 -0.0222040
8994628 0.0005362 -0.0217176 0.9994638 0.0217176 0.9994638 0.0217176 0.0005362 -0.0217176
9192393 0.0005165 -0.0212414 0.9994835 0.0212414 0.9994835 0.0212414 0.0005165 -0.0212414
9394506 0.0004977 -0.0207753 0.9995023 0.0207753 0.9995023 0.0207753 0.0004977 -0.0207753
9601063 0.0004798 -0.0203190 0.9995202 0.0203190 0.9995202 0.0203190 0.0004798 -0.0203190
9812162 0.0004627 -0.0198724 0.9995373 0.0198724 0.9995373 0.0198724 0.0004627 -0.0198724
10027902 0.0004463 -0.0194351 0.9995537 0.0194351 0.9995537 0.0194351 0.0004463 -0.0194351
10248386 0.0004307 -0.0190070 0.9995693 0.0190070 0.9995693 0.0190070 0.0004307 -0.0190070
10473717 0.0004158 -0.0185879 0.9995842 0.0185879 0.9995842 0.0185879 0.0004158 -0.0185879
10704003 0.0004016 -0.0181776 0.9995984 0.0181776 0.9995984 0.0181776 0.0004016 -0.0181776
10939352 0.0003881 -0.0177760 0.9996119 0.0177760 0.9996119 0.0177760 0.0003881 -0.0177760
11179876 0.0003752 -0.0173827 0.9996248 0.0173827 0.9996248 0.0173827 0.0003752 -0.0173827
11425688 0.0003629 -0.0169977 0.9996371 0.0169977 0.9996371 0.0169977 0.0003629 -0.0169977
11676904 0.0003512 -0.0166207 0.9996488 0.0166207 0.9996488 0.0166207 0.0003512 -0.0166207
11933645 0.0003400 -0.0162516 0.9996600 0.0162516 0.9996600 0.0162516 0.0003400 -0.0162516
12196030 0.0003294 -0.0158903 0.9996706 0.0158903 0.9996706 0.0158903 0.0003294 -0.0158903
12464184 0.0003193 -0.0155364 0.9996807 0.0155364 0.9996807 0.0155364 0.0003193 -0.0155364
12738235 0.0003097 -0.0151900 0.9996903 0.0151900 0.9996903 0.0151900 0.0003097 -0.0151900
13018310 0.0003005 -0.0148507 0.9996995 0.0148507 0.9996995 0.0148507 0.0003005 -0.0148507
13304544 0.0002918 -0.0145185 0.9997082 0.0145185 0.9997082 0.0145185 0.0002918 -0.0145185
13597071 0.0002835 -0.0141932 0.9997165 0.0141932 0.9997165 0.0141932 0.0002835 -0.0141932
13896030 0.0002756 -0.0138747 0.9997244 0.0138747 0.9997244 0.0138747 0.0002756 -0.0138747
14201563 0.0002681 -0.0135627 0.9997319 0.0135627 0.9997319 0.0135627 0.0002681 -0.0135627
14513813 0.0002610 -0.0132572 0.9997390 0.0132572 0.9997390 0.0132572 0.0002610 -0.0132572
14832928 0.0002543 -0.0129580 0.9997457 0.0129580 0.9997457 0.0129580 0.0002543 -0.0129580
15159060 0.0002479 -0.0126649 0.9997521 0.0126649 0.9997521 0.0126649 0.0002479 -0.0126649
15492362 0.0002418 -0.0123779 0.9997582 0.0123779 0.9997582 0.0123779 0.0002418 -0.0123779
15832993 0.0002360 -0.0120968 0.9997640 0.0120968 0.9997640 0.0120968 0.0002360 -0.0120968
16181113 0.0002306 -0.0118214 0.9997694 0.0118214 0.9997694 0.0118214 0.0002306 -0.0118214
16536888 0.0002254 -0.0115516 0.9997746 0.0115516 0.9997746 0.0115516 0.0002254 -0.0115516
16900485 0.0002205 -0.0112874 0.9997795 0.0112874 0.9997795 0.0112874 0.0002205 -0.0112874
17272076 0.0002159 -0.0110285 0.9997841 0.0110285 0.9997841 0.0110285 0.0002159 -0.0110285
17651837 0.0002115 -0.0107749 0.9997885 0.0107749 0.9997885 0.0107749 0.0002115 -0.0107749
18039948 0.0002074 -0.0105264 0.9997926 0.0105264 0.9997926 0.0105264 0.0002074 -0.0105264
18436593 0.0002035 -0.0102829 0.9997965 0.0102829 0.9997965 0.0102829 0.0002035 -0.0102829
18841959 0.0001998 -0.0100443 0.9998002 0.0100443 0.9998002 0.0100443 0.0001998 -0.0100443
19256237 0.0001964 -0.0098106 0.9998036 0.0098106 0.9998036 0.0098106 0.0001964 -0.0098106
19679624 0.0001931 -0.0095815 0.9998069 0.0095815 0.9998069 0.0095815 0.0001931 -0.0095815
20112321 0.0001900 -0.0093569 0.9998100 0.0093569 0.9998100 0.0093569 0.0001900 -0.0093569
20554530 0.0001871 -0.0091368 0.9998129 0.0091368 0.9998129 0.0091368 0.0001871 -0.0091368
21006463 0.0001844 -0.0089211 0.9998156 0.0089211 0.9998156 0.0089211 0.0001844 -0.0089211
21468333 0.0001819 -0.0087097 0.9998181 0.0087097 0.9998181 0.0087097 0.0001819 -0.0087097
21940357 0.0001795 -0.0085024 0.9998205 0.0085024 0.9998205 0.0085024 0.0001795 -0.0085024
22422760 0.0001773 -0.0082991 0.9998227 0.0082991 0.9998227 0.0082991 0.0001773 -0.0082991
22915770 0.0001752 -0.0080998 0.9998248 0.0080998 0.9998248 0.0080998 0.0001752 -0.0080998
23419619 0.0001733 -0.0079044 0.9998267 0.0079044 0.9998267 0.0079044 0.0001733 -0.0079044
23934547 0.0001715 -0.0077127 0.9998285 0.0077127 0.9998285 0.0077127 0.0001715 -0.0077127
24460796 0.0001699 -0.0075248 0.9998301 0.0075248 0.9998301 0.0075248 0.0001699 -0.0075248
24998616 0.0001683 -0.0073404 0.9998317 0.0073404 0.9998317 0.0073404 0.0001683 -0.0073404
25548261 0.0001669 -0.0071595 0.9998331 0.0071595 0.9998331 0.0071595 0.0001669 -0.0071595
26109991 0.0001657 -0.0069821 0.9998343 0.0069821 0.9998343 0.0069821 0.0001657 -0.0069821
26684072 0.0001645 -0.0068079 0.9998355 0.0068079 0.9998355 0.0068079 0.0001645 -0.0068079
27270775 0.0001634 -0.0066371 0.9998366 0.0066371 0.9998366 0.0066371 0.0001634 -0.0066371
27870378 0.0001625 -0.0064694 0.9998375 0.0064694 0.9998375 0.0064694 0.0001625 -0.0064694
28483164 0.0001616 -0.0063047 0.9998384 0.0063047 0.9998384 0.0063047 0.0001616 -0.0063047
29109424 0.0001609 -0.0061431 0.9998391 0.0061431 0.9998391 0.0061431 0.0001609 -0.0061431
29749453 0.0001602 -0.0059845 0.9998398 0.0059845 0.9998398 0.0059845 0.0001602 -0.0059845
30403555 0.0001596 -0.0058287 0.9998404 0.0058287 0.9998404 0.0058287 0.0001596 -0.0058287
31072038 0.0001592 -0.0056756 0.9998408 0.0056756 0.9998408 0.0056756 0.0001592 -0.0056756
31755220 0.0001588 -0.0055253 0.9998412 0.0055253 0.9998412 0.0055253 0.0001588 -0.0055253
32453422 0.0001585 -0.0053776 0.9998415 0.0053776 0.9998415 0.0053776 0.0001585 -0.0053776
33166976 0.0001583 -0.0052325 0.9998417 0.0052325 0.9998417 0.0052325 0.0001583 -0.0052325
33896219 0.0001581 -0.0050899 0.9998419 0.0050899 0.9998419 0.0050899 0.0001581 -0.0050899
34641496 0.0001581 -0.0049497 0.9998419 0.0049497 0.9998419 0.0049497 0.0001581 -0.0049497
35403159 0.0001581 -0.0048119 0.9998419 0.0048119 0.9998419 0.0048119 0.0001581 -0.0048119
36181569 0.0001582 -0.0046764 0.9998418 0.0046764 0.9998418 0.0046764 0.0001582 -0.0046764
36977093 0.0001584 -0.0045431 0.9998416 0.0045431 0.9998416 0.0045431 0.0001584 -0.0045431
37790109 0.0001586 -0.0044120 0.9998414 0.0044120 0.9998414 0.0044120 0.0001586 -0.0044120
38621001 0.0001589 -0.0042830 0.9998411 0.0042830 0.9998411 0.0042830 0.0001589 -0.0042830
39470161 0.0001593 -0.0041561 0.9998407 0.0041561 0.9998407 0.0041561 0.0001593 -0.0041561
40337993 0.0001598 -0.0040311 0.9998402 0.0040311 0.9998402 0.0040311 0.0001598 -0.0040311
41224905 0.0001604 -0.0039080 0.9998396 0.0039080 0.9998396 0.0039080 0.0001604 -0.0039080
42131317 0.0001610 -0.0037869 0.9998390 0.0037869 0.9998390 0.0037869 0.0001610 -0.0037869
43057659 0.0001617 -0.0036675 0.9998383 0.0036675 0.9998383 0.0036675 0.0001617 -0.0036675
44004369 0.0001624 -0.0035499 0.9998376 0.0035499 0.9998376 0.0035499 0.0001624 -0.0035499
44971893 0.0001633 -0.0034340 0.9998367 0.0034340 0.9998367 0.0034340 0.0001633 -0.0034340
45960691 0.0001642 -0.0033197 0.9998358 0.0033197 0.9998358 0.0033197 0.0001642 -0.0033197
46971230 0.0001652 -0.0032070 0.9998348 0.0032070 0.9998348 0.0032070 0.0001652 -0.0032070
48003987 0.0001662 -0.0030958 0.9998338 0.0030958 0.9998338 0.0030958 0.0001662 -0.0030958
49059451 0.0001673 -0.0029862 0.9998327 0.0029862 0.9998327 0.0029862 0.0001673 -0.0029862
50138122 0.0001685 -0.0028779 0.9998315 0.0028779 0.9998315 0.0028779 0.0001685 -0.0028779
51240510 0.0001698 -0.0027710 0.9998302 0.0027710 0.9998302 0.0027710 0.0001698 -0.0027710
52367136 0.0001711 -0.0026655 0.9998289 0.0026655 0.9998289 0.0026655 0.0001711 -0.0026655
53518533 0.0001726 -0.0025612 0.9998274 0.0025612 0.9998274 0.0025612 0.0001726 -0.0025612
54695245 0.0001741 -0.0024581 0.9998259 0.0024581 0.9998259 0.0024581 0.0001741 -0.0024581
55897831 0.0001757 -0.0023562 0.9998243 0.0023562 0.9998243 0.0023562 0.0001757 -0.0023562
57126857 0.0001773 -0.0022554 0.9998227 0.0022554 0.9998227 0.0022554 0.0001773 -0.0022554
58382906 0.0001791 -0.0021557 0.9998209 0.0021557 0.9998209 0.0021557 0.0001791 -0.0021557
59666572 0.0001809 -0.0020570 0.9998191 0.0020570 0.9998191 0.0020570 0.0001809 -0.0020570
60978462 0.0001828 -0.0019593 0.9998172 0.0019593 0.9998172 0.0019593 0.0001828 -0.0019593
62319196 0.0001848 -0.0018625 0.9998152 0.0018625 0.9998152 0.0018625 0.0001848 -0.0018625
63689409 0.0001869 -0.0017666 0.9998131 0.0017666 0.9998131 0.0017666 0.0001869 -0.0017666
65089750 0.0001890 -0.0016715 0.9998110 0.0016715 0.9998110 0.0016715 0.0001890 -0.0016715
66520879 0.0001913 -0.0015772 0.9998087 0.0015772 0.9998087 0.0015772 0.0001913 -0.0015772
67983474 0.0001937 -0.0014836 0.9998063 0.0014836 0.9998063 0.0014836 0.0001937 -0.0014836
69478228 0.0001961 -0.0013907 0.9998039 0.0013907 0.9998039 0.0013907 0.0001961 -0.0013907
71005847 0.0001987 -0.0012984 0.9998013 0.0012984 0.9998013 0.0012984 0.0001987 -0.0012984
72567054 0.0002014 -0.0012067 0.9997986 0.0012067 0.9997986 0.0012067 0.0002014 -0.0012067
74162587 0.0002041 -0.0011155 0.9997959 0.0011155 0.9997959 0.0011155 0.0002041 -0.0011155
75793201 0.0002070 -0.0010248 0.9997930 0.0010248 0.9997930 0.0010248 0.0002070 -0.0010248
77459667 0.0002101 -0.0009345 0.9997899 0.0009345 0.9997899 0.0009345 0.0002101 -0.0009345
79162774 0.0002132 -0.0008446 0.9997868 0.0008446 0.9997868 0.0008446 0.0002132 -0.0008446
80903327 0.0002165 -0.0007550 0.9997835 0.0007550 0.9997835 0.0007550 0.0002165 -0.0007550
82682150 0.0002198 -0.0006657 0.9997802 0.0006657 0.9997802 0.0006657 0.0002198 -0.0006657
84500083 0.0002234 -0.0005766 0.9997766 0.0005766 0.9997766 0.0005766 0.0002234 -0.0005766
86357988 0.0002271 -0.0004876 0.9997729 0.0004876 0.9997729 0.0004876 0.0002271 -0.0004876
88256743 0.0002309 -0.0003988 0.9997691 0.0003988 0.9997691 0.0003988 0.0002309 -0.0003988
90197245 0.0002350 -0.0003100 0.9997650 0.0003100 0.9997650 0.0003100 0.0002350 -0.0003100
92180413 0.0002392 -0.0002212 0.9997608 0.0002212 0.9997608 0.0002212 0.0002392 -0.0002212
94207185 0.0002436 -0.0001323 0.9997564 0.0001323 0.9997564 0.0001323 0.0002436 -0.0001323
96278520 0.0002482 -0.0000432 0.9997518 0.0000432 0.9997518 0.0000432 0.0002482 -0.0000432
98395398 0.0002530 0.0000461 0.9997470 -0.0000461 0.9997470 -0.0000461 0.0002530 0.0000461
100558819 0.0002581 0.0001357 0.9997419 -0.0001357 0.9997419 -0.0001357 0.0002581 0.0001357
102769807 0.0002634 0.0002257 0.9997366 -0.0002257 0.9997366 -0.0002257 0.0002634 0.0002257
105029408 0.0002690 0.0003161 0.9997310 -0.0003161 0.9997310 -0.0003161 0.0002690 0.0003161
107338692 0.0002750 0.0004071 0.9997250 -0.0004071 0.9997250 -0.0004071 0.0002750 0.0004071
