!Murata Part Number: GRM1552C2A9R3CA01
!These Parameters are Measured in Series Mode Connection
!Data Generated on Mar 30, 2021
!       o--ll--o
!Port1            Port2
!       o------o
!Operation Temp=25[degC], DC Bias Voltage=0[V]
!Freq. Start=100[MHz] Stop=9[GHz] 401[Steps]
# Hz S RI R 50
!Freq.(Hz) S11(Real) S11(Imag) S21(Real) S21(Imag) S12(Real) S12(Imag) S22(Real) S22(Imag)
100000000 0.7447946 -0.4354780 0.2552054 0.4354780 0.2552054 0.4354780 0.7447946 -0.4354780
121000000 0.6657346 -0.4711285 0.3342654 0.4711285 0.3342654 0.4711285 0.6657346 -0.4711285
142000000 0.5909467 -0.4909480 0.4090533 0.4909480 0.4090533 0.4909480 0.5909467 -0.4909480
163000000 0.5227027 -0.4986658 0.4772973 0.4986658 0.4772973 0.4986658 0.5227027 -0.4986658
184000000 0.4618700 -0.4976171 0.5381300 0.4976171 0.5381300 0.4976171 0.4618700 -0.4976171
205000000 0.4084344 -0.4905079 0.5915656 0.4905079 0.5915656 0.4905079 0.4084344 -0.4905079
226000000 0.3619007 -0.4794034 0.6380993 0.4794034 0.6380993 0.4794034 0.3619007 -0.4794034
247000000 0.3215584 -0.4658158 0.6784416 0.4658158 0.6784416 0.4658158 0.3215584 -0.4658158
268000000 0.2866400 -0.4508199 0.7133600 0.4508199 0.7133600 0.4508199 0.2866400 -0.4508199
289000000 0.2564057 -0.4351617 0.7435943 0.4351617 0.7435943 0.4351617 0.2564057 -0.4351617
310000000 0.2301837 -0.4193471 0.7698163 0.4193471 0.7698163 0.4193471 0.2301837 -0.4193471
331000000 0.2073842 -0.4037117 0.7926158 0.4037117 0.7926158 0.4037117 0.2073842 -0.4037117
352000000 0.1874995 -0.3884706 0.8125005 0.3884706 0.8125005 0.3884706 0.1874995 -0.3884706
373000000 0.1700982 -0.3737555 0.8299018 0.3737555 0.8299018 0.3737555 0.1700982 -0.3737555
394000000 0.1548157 -0.3596411 0.8451843 0.3596411 0.8451843 0.3596411 0.1548157 -0.3596411
415000000 0.1413451 -0.3461629 0.8586549 0.3461629 0.8586549 0.3461629 0.1413451 -0.3461629
436000000 0.1294285 -0.3333305 0.8705715 0.3333305 0.8705715 0.3333305 0.1294285 -0.3333305
457000000 0.1188490 -0.3211363 0.8811510 0.3211363 0.8811510 0.3211363 0.1188490 -0.3211363
478000000 0.1094238 -0.3095618 0.8905762 0.3095618 0.8905762 0.3095618 0.1094238 -0.3095618
499000000 0.1009986 -0.2985817 0.8990014 0.2985817 0.8990014 0.2985817 0.1009986 -0.2985817
520000000 0.0934427 -0.2881672 0.9065573 0.2881672 0.9065573 0.2881672 0.0934427 -0.2881672
541000000 0.0866454 -0.2782875 0.9133546 0.2782875 0.9133546 0.2782875 0.0866454 -0.2782875
562000000 0.0805122 -0.2689115 0.9194878 0.2689115 0.9194878 0.2689115 0.0805122 -0.2689115
583000000 0.0749623 -0.2600086 0.9250377 0.2600086 0.9250377 0.2600086 0.0749623 -0.2600086
604000000 0.0699266 -0.2515491 0.9300734 0.2515491 0.9300734 0.2515491 0.0699266 -0.2515491
625000000 0.0653456 -0.2435047 0.9346544 0.2435047 0.9346544 0.2435047 0.0653456 -0.2435047
646000000 0.0611678 -0.2358486 0.9388322 0.2358486 0.9388322 0.2358486 0.0611678 -0.2358486
667000000 0.0573487 -0.2285554 0.9426513 0.2285554 0.9426513 0.2285554 0.0573487 -0.2285554
688000000 0.0538498 -0.2216018 0.9461502 0.2216018 0.9461502 0.2216018 0.0538498 -0.2216018
709000000 0.0506373 -0.2149656 0.9493627 0.2149656 0.9493627 0.2149656 0.0506373 -0.2149656
730000000 0.0476816 -0.2086265 0.9523184 0.2086265 0.9523184 0.2086265 0.0476816 -0.2086265
751000000 0.0449571 -0.2025654 0.9550429 0.2025654 0.9550429 0.2025654 0.0449571 -0.2025654
772000000 0.0424410 -0.1967647 0.9575590 0.1967647 0.9575590 0.1967647 0.0424410 -0.1967647
793000000 0.0401132 -0.1912081 0.9598868 0.1912081 0.9598868 0.1912081 0.0401132 -0.1912081
814000000 0.0379559 -0.1858805 0.9620441 0.1858805 0.9620441 0.1858805 0.0379559 -0.1858805
835000000 0.0359537 -0.1807678 0.9640463 0.1807678 0.9640463 0.1807678 0.0359537 -0.1807678
856000000 0.0340923 -0.1758570 0.9659077 0.1758570 0.9659077 0.1758570 0.0340923 -0.1758570
877000000 0.0323595 -0.1711361 0.9676405 0.1711361 0.9676405 0.1711361 0.0323595 -0.1711361
898000000 0.0307440 -0.1665940 0.9692560 0.1665940 0.9692560 0.1665940 0.0307440 -0.1665940
919000000 0.0292360 -0.1622201 0.9707640 0.1622201 0.9707640 0.1622201 0.0292360 -0.1622201
940000000 0.0278266 -0.1580050 0.9721734 0.1580050 0.9721734 0.1580050 0.0278266 -0.1580050
961000000 0.0265076 -0.1539396 0.9734924 0.1539396 0.9734924 0.1539396 0.0265076 -0.1539396
982000000 0.0252719 -0.1500156 0.9747281 0.1500156 0.9747281 0.1500156 0.0252719 -0.1500156
1003000000 0.0241130 -0.1462253 0.9758870 0.1462253 0.9758870 0.1462253 0.0241130 -0.1462253
1024000000 0.0230249 -0.1425615 0.9769751 0.1425615 0.9769751 0.1425615 0.0230249 -0.1425615
1045000000 0.0220023 -0.1390174 0.9779977 0.1390174 0.9779977 0.1390174 0.0220023 -0.1390174
1066000000 0.0210404 -0.1355868 0.9789596 0.1355868 0.9789596 0.1355868 0.0210404 -0.1355868
1087000000 0.0201347 -0.1322638 0.9798653 0.1322638 0.9798653 0.1322638 0.0201347 -0.1322638
1108000000 0.0192812 -0.1290428 0.9807188 0.1290428 0.9807188 0.1290428 0.0192812 -0.1290428
1129000000 0.0184763 -0.1259189 0.9815237 0.1259189 0.9815237 0.1259189 0.0184763 -0.1259189
1150000000 0.0177166 -0.1228872 0.9822834 0.1228872 0.9822834 0.1228872 0.0177166 -0.1228872
1171000000 0.0169990 -0.1199431 0.9830010 0.1199431 0.9830010 0.1199431 0.0169990 -0.1199431
1192000000 0.0163207 -0.1170826 0.9836793 0.1170826 0.9836793 0.1170826 0.0163207 -0.1170826
1213000000 0.0156792 -0.1143016 0.9843208 0.1143016 0.9843208 0.1143016 0.0156792 -0.1143016
1234000000 0.0150720 -0.1115963 0.9849280 0.1115963 0.9849280 0.1115963 0.0150720 -0.1115963
1255000000 0.0144970 -0.1089634 0.9855030 0.1089634 0.9855030 0.1089634 0.0144970 -0.1089634
1276000000 0.0139521 -0.1063996 0.9860479 0.1063996 0.9860479 0.1063996 0.0139521 -0.1063996
1297000000 0.0134356 -0.1039016 0.9865644 0.1039016 0.9865644 0.1039016 0.0134356 -0.1039016
1318000000 0.0129457 -0.1014667 0.9870543 0.1014667 0.9870543 0.1014667 0.0129457 -0.1014667
1339000000 0.0124807 -0.0990920 0.9875193 0.0990920 0.9875193 0.0990920 0.0124807 -0.0990920
1360000000 0.0120393 -0.0967750 0.9879607 0.0967750 0.9879607 0.0967750 0.0120393 -0.0967750
1381000000 0.0116201 -0.0945133 0.9883799 0.0945133 0.9883799 0.0945133 0.0116201 -0.0945133
1402000000 0.0112218 -0.0923044 0.9887782 0.0923044 0.9887782 0.0923044 0.0112218 -0.0923044
1423000000 0.0108432 -0.0901462 0.9891568 0.0901462 0.9891568 0.0901462 0.0108432 -0.0901462
1444000000 0.0104833 -0.0880367 0.9895167 0.0880367 0.9895167 0.0880367 0.0104833 -0.0880367
1465000000 0.0101409 -0.0859738 0.9898591 0.0859738 0.9898591 0.0859738 0.0101409 -0.0859738
1486000000 0.0098153 -0.0839558 0.9901847 0.0839558 0.9901847 0.0839558 0.0098153 -0.0839558
1507000000 0.0095054 -0.0819807 0.9904946 0.0819807 0.9904946 0.0819807 0.0095054 -0.0819807
1528000000 0.0092105 -0.0800471 0.9907895 0.0800471 0.9907895 0.0800471 0.0092105 -0.0800471
1549000000 0.0089297 -0.0781532 0.9910703 0.0781532 0.9910703 0.0781532 0.0089297 -0.0781532
1570000000 0.0086624 -0.0762976 0.9913376 0.0762976 0.9913376 0.0762976 0.0086624 -0.0762976
1591000000 0.0084079 -0.0744788 0.9915921 0.0744788 0.9915921 0.0744788 0.0084079 -0.0744788
1612000000 0.0081656 -0.0726955 0.9918344 0.0726955 0.9918344 0.0726955 0.0081656 -0.0726955
1633000000 0.0079348 -0.0709463 0.9920652 0.0709463 0.9920652 0.0709463 0.0079348 -0.0709463
1654000000 0.0077150 -0.0692301 0.9922850 0.0692301 0.9922850 0.0692301 0.0077150 -0.0692301
1675000000 0.0075057 -0.0675456 0.9924943 0.0675456 0.9924943 0.0675456 0.0075057 -0.0675456
1696000000 0.0073063 -0.0658916 0.9926937 0.0658916 0.9926937 0.0658916 0.0073063 -0.0658916
1717000000 0.0071164 -0.0642673 0.9928836 0.0642673 0.9928836 0.0642673 0.0071164 -0.0642673
1738000000 0.0069357 -0.0626714 0.9930643 0.0626714 0.9930643 0.0626714 0.0069357 -0.0626714
1759000000 0.0067636 -0.0611031 0.9932364 0.0611031 0.9932364 0.0611031 0.0067636 -0.0611031
1780000000 0.0065997 -0.0595613 0.9934003 0.0595613 0.9934003 0.0595613 0.0065997 -0.0595613
1801000000 0.0064438 -0.0580453 0.9935562 0.0580453 0.9935562 0.0580453 0.0064438 -0.0580453
1822000000 0.0062954 -0.0565541 0.9937046 0.0565541 0.9937046 0.0565541 0.0062954 -0.0565541
1843000000 0.0061543 -0.0550869 0.9938457 0.0550869 0.9938457 0.0550869 0.0061543 -0.0550869
1864000000 0.0060201 -0.0536430 0.9939799 0.0536430 0.9939799 0.0536430 0.0060201 -0.0536430
1885000000 0.0058925 -0.0522215 0.9941075 0.0522215 0.9941075 0.0522215 0.0058925 -0.0522215
1906000000 0.0057713 -0.0508219 0.9942287 0.0508219 0.9942287 0.0508219 0.0057713 -0.0508219
1927000000 0.0056562 -0.0494433 0.9943438 0.0494433 0.9943438 0.0494433 0.0056562 -0.0494433
1948000000 0.0055470 -0.0480851 0.9944530 0.0480851 0.9944530 0.0480851 0.0055470 -0.0480851
1969000000 0.0054433 -0.0467467 0.9945567 0.0467467 0.9945567 0.0467467 0.0054433 -0.0467467
1990000000 0.0053451 -0.0454275 0.9946549 0.0454275 0.9946549 0.0454275 0.0053451 -0.0454275
2011000000 0.0052520 -0.0441268 0.9947480 0.0441268 0.9947480 0.0441268 0.0052520 -0.0441268
2032000000 0.0051639 -0.0428442 0.9948361 0.0428442 0.9948361 0.0428442 0.0051639 -0.0428442
2053000000 0.0050807 -0.0415791 0.9949193 0.0415791 0.9949193 0.0415791 0.0050807 -0.0415791
2074000000 0.0050020 -0.0403309 0.9949980 0.0403309 0.9949980 0.0403309 0.0050020 -0.0403309
2095000000 0.0049278 -0.0390992 0.9950722 0.0390992 0.9950722 0.0390992 0.0049278 -0.0390992
2116000000 0.0048578 -0.0378835 0.9951422 0.0378835 0.9951422 0.0378835 0.0048578 -0.0378835
2137000000 0.0047920 -0.0366833 0.9952080 0.0366833 0.9952080 0.0366833 0.0047920 -0.0366833
2158000000 0.0047301 -0.0354982 0.9952699 0.0354982 0.9952699 0.0354982 0.0047301 -0.0354982
2179000000 0.0046721 -0.0343277 0.9953279 0.0343277 0.9953279 0.0343277 0.0046721 -0.0343277
2200000000 0.0046177 -0.0331714 0.9953823 0.0331714 0.9953823 0.0331714 0.0046177 -0.0331714
2221000000 0.0045669 -0.0320290 0.9954331 0.0320290 0.9954331 0.0320290 0.0045669 -0.0320290
2242000000 0.0045196 -0.0309000 0.9954804 0.0309000 0.9954804 0.0309000 0.0045196 -0.0309000
2263000000 0.0044756 -0.0297841 0.9955244 0.0297841 0.9955244 0.0297841 0.0044756 -0.0297841
2284000000 0.0044349 -0.0286810 0.9955651 0.0286810 0.9955651 0.0286810 0.0044349 -0.0286810
2305000000 0.0043972 -0.0275901 0.9956028 0.0275901 0.9956028 0.0275901 0.0043972 -0.0275901
2326000000 0.0043625 -0.0265113 0.9956375 0.0265113 0.9956375 0.0265113 0.0043625 -0.0265113
2347000000 0.0043308 -0.0254443 0.9956692 0.0254443 0.9956692 0.0254443 0.0043308 -0.0254443
2368000000 0.0043019 -0.0243886 0.9956981 0.0243886 0.9956981 0.0243886 0.0043019 -0.0243886
2389000000 0.0042757 -0.0233440 0.9957243 0.0233440 0.9957243 0.0233440 0.0042757 -0.0233440
2410000000 0.0042522 -0.0223103 0.9957478 0.0223103 0.9957478 0.0223103 0.0042522 -0.0223103
2431000000 0.0042313 -0.0212870 0.9957687 0.0212870 0.9957687 0.0212870 0.0042313 -0.0212870
2452000000 0.0042128 -0.0202740 0.9957872 0.0202740 0.9957872 0.0202740 0.0042128 -0.0202740
2473000000 0.0041968 -0.0192710 0.9958032 0.0192710 0.9958032 0.0192710 0.0041968 -0.0192710
2494000000 0.0041831 -0.0182777 0.9958169 0.0182777 0.9958169 0.0182777 0.0041831 -0.0182777
2515000000 0.0041717 -0.0172939 0.9958283 0.0172939 0.9958283 0.0172939 0.0041717 -0.0172939
2536000000 0.0041626 -0.0163194 0.9958374 0.0163194 0.9958374 0.0163194 0.0041626 -0.0163194
2557000000 0.0041556 -0.0153538 0.9958444 0.0153538 0.9958444 0.0153538 0.0041556 -0.0153538
2578000000 0.0041507 -0.0143971 0.9958493 0.0143971 0.9958493 0.0143971 0.0041507 -0.0143971
2599000000 0.0041478 -0.0134489 0.9958522 0.0134489 0.9958522 0.0134489 0.0041478 -0.0134489
2620000000 0.0041469 -0.0125090 0.9958531 0.0125090 0.9958531 0.0125090 0.0041469 -0.0125090
2641000000 0.0041480 -0.0115773 0.9958520 0.0115773 0.9958520 0.0115773 0.0041480 -0.0115773
2662000000 0.0041509 -0.0106536 0.9958491 0.0106536 0.9958491 0.0106536 0.0041509 -0.0106536
2683000000 0.0041557 -0.0097376 0.9958443 0.0097376 0.9958443 0.0097376 0.0041557 -0.0097376
2704000000 0.0041623 -0.0088292 0.9958377 0.0088292 0.9958377 0.0088292 0.0041623 -0.0088292
2725000000 0.0041706 -0.0079281 0.9958294 0.0079281 0.9958294 0.0079281 0.0041706 -0.0079281
2746000000 0.0041807 -0.0070343 0.9958193 0.0070343 0.9958193 0.0070343 0.0041807 -0.0070343
2767000000 0.0041924 -0.0061475 0.9958076 0.0061475 0.9958076 0.0061475 0.0041924 -0.0061475
2788000000 0.0042058 -0.0052676 0.9957942 0.0052676 0.9957942 0.0052676 0.0042058 -0.0052676
2809000000 0.0042207 -0.0043943 0.9957793 0.0043943 0.9957793 0.0043943 0.0042207 -0.0043943
2830000000 0.0042372 -0.0035276 0.9957628 0.0035276 0.9957628 0.0035276 0.0042372 -0.0035276
2851000000 0.0042553 -0.0026673 0.9957447 0.0026673 0.9957447 0.0026673 0.0042553 -0.0026673
2872000000 0.0042748 -0.0018133 0.9957252 0.0018133 0.9957252 0.0018133 0.0042748 -0.0018133
2893000000 0.0042958 -0.0009653 0.9957042 0.0009653 0.9957042 0.0009653 0.0042958 -0.0009653
2914000000 0.0043182 -0.0001233 0.9956818 0.0001233 0.9956818 0.0001233 0.0043182 -0.0001233
2935000000 0.0043421 0.0007129 0.9956579 -0.0007129 0.9956579 -0.0007129 0.0043421 0.0007129
2956000000 0.0043673 0.0015434 0.9956327 -0.0015434 0.9956327 -0.0015434 0.0043673 0.0015434
2977000000 0.0043939 0.0023683 0.9956061 -0.0023683 0.9956061 -0.0023683 0.0043939 0.0023683
2998000000 0.0044218 0.0031879 0.9955782 -0.0031879 0.9955782 -0.0031879 0.0044218 0.0031879
3019000000 0.0044511 0.0040021 0.9955489 -0.0040021 0.9955489 -0.0040021 0.0044511 0.0040021
3040000000 0.0044816 0.0048112 0.9955184 -0.0048112 0.9955184 -0.0048112 0.0044816 0.0048112
3061000000 0.0045134 0.0056152 0.9954866 -0.0056152 0.9954866 -0.0056152 0.0045134 0.0056152
3082000000 0.0045464 0.0064143 0.9954536 -0.0064143 0.9954536 -0.0064143 0.0045464 0.0064143
3103000000 0.0045807 0.0072085 0.9954193 -0.0072085 0.9954193 -0.0072085 0.0045807 0.0072085
3124000000 0.0046162 0.0079980 0.9953838 -0.0079980 0.9953838 -0.0079980 0.0046162 0.0079980
3145000000 0.0046528 0.0087829 0.9953472 -0.0087829 0.9953472 -0.0087829 0.0046528 0.0087829
3166000000 0.0046906 0.0095633 0.9953094 -0.0095633 0.9953094 -0.0095633 0.0046906 0.0095633
3187000000 0.0047296 0.0103393 0.9952704 -0.0103393 0.9952704 -0.0103393 0.0047296 0.0103393
3208000000 0.0047698 0.0111110 0.9952302 -0.0111110 0.9952302 -0.0111110 0.0047698 0.0111110
3229000000 0.0048111 0.0118785 0.9951889 -0.0118785 0.9951889 -0.0118785 0.0048111 0.0118785
3250000000 0.0048534 0.0126419 0.9951466 -0.0126419 0.9951466 -0.0126419 0.0048534 0.0126419
3271000000 0.0048969 0.0134013 0.9951031 -0.0134013 0.9951031 -0.0134013 0.0048969 0.0134013
3292000000 0.0049415 0.0141567 0.9950585 -0.0141567 0.9950585 -0.0141567 0.0049415 0.0141567
3313000000 0.0049872 0.0149083 0.9950128 -0.0149083 0.9950128 -0.0149083 0.0049872 0.0149083
3334000000 0.0050339 0.0156562 0.9949661 -0.0156562 0.9949661 -0.0156562 0.0050339 0.0156562
3355000000 0.0050817 0.0164003 0.9949183 -0.0164003 0.9949183 -0.0164003 0.0050817 0.0164003
3376000000 0.0051306 0.0171409 0.9948694 -0.0171409 0.9948694 -0.0171409 0.0051306 0.0171409
3397000000 0.0051805 0.0178780 0.9948195 -0.0178780 0.9948195 -0.0178780 0.0051805 0.0178780
3418000000 0.0052314 0.0186117 0.9947686 -0.0186117 0.9947686 -0.0186117 0.0052314 0.0186117
3439000000 0.0052834 0.0193421 0.9947166 -0.0193421 0.9947166 -0.0193421 0.0052834 0.0193421
3460000000 0.0053364 0.0200692 0.9946636 -0.0200692 0.9946636 -0.0200692 0.0053364 0.0200692
3481000000 0.0053904 0.0207931 0.9946096 -0.0207931 0.9946096 -0.0207931 0.0053904 0.0207931
3502000000 0.0054454 0.0215138 0.9945546 -0.0215138 0.9945546 -0.0215138 0.0054454 0.0215138
3523000000 0.0055014 0.0222316 0.9944986 -0.0222316 0.9944986 -0.0222316 0.0055014 0.0222316
3544000000 0.0055585 0.0229463 0.9944415 -0.0229463 0.9944415 -0.0229463 0.0055585 0.0229463
3565000000 0.0056165 0.0236582 0.9943835 -0.0236582 0.9943835 -0.0236582 0.0056165 0.0236582
3586000000 0.0056756 0.0243672 0.9943244 -0.0243672 0.9943244 -0.0243672 0.0056756 0.0243672
3607000000 0.0057356 0.0250735 0.9942644 -0.0250735 0.9942644 -0.0250735 0.0057356 0.0250735
3628000000 0.0057966 0.0257771 0.9942034 -0.0257771 0.9942034 -0.0257771 0.0057966 0.0257771
3649000000 0.0058587 0.0264780 0.9941413 -0.0264780 0.9941413 -0.0264780 0.0058587 0.0264780
3670000000 0.0059217 0.0271764 0.9940783 -0.0271764 0.9940783 -0.0271764 0.0059217 0.0271764
3691000000 0.0059857 0.0278723 0.9940143 -0.0278723 0.9940143 -0.0278723 0.0059857 0.0278723
3712000000 0.0060507 0.0285657 0.9939493 -0.0285657 0.9939493 -0.0285657 0.0060507 0.0285657
3733000000 0.0061167 0.0292567 0.9938833 -0.0292567 0.9938833 -0.0292567 0.0061167 0.0292567
3754000000 0.0061838 0.0299454 0.9938162 -0.0299454 0.9938162 -0.0299454 0.0061838 0.0299454
3775000000 0.0062518 0.0306318 0.9937482 -0.0306318 0.9937482 -0.0306318 0.0062518 0.0306318
3796000000 0.0063208 0.0313161 0.9936792 -0.0313161 0.9936792 -0.0313161 0.0063208 0.0313161
3817000000 0.0063909 0.0319981 0.9936091 -0.0319981 0.9936091 -0.0319981 0.0063909 0.0319981
3838000000 0.0064619 0.0326781 0.9935381 -0.0326781 0.9935381 -0.0326781 0.0064619 0.0326781
3859000000 0.0065340 0.0333561 0.9934660 -0.0333561 0.9934660 -0.0333561 0.0065340 0.0333561
3880000000 0.0066071 0.0340320 0.9933929 -0.0340320 0.9933929 -0.0340320 0.0066071 0.0340320
3901000000 0.0066813 0.0347060 0.9933187 -0.0347060 0.9933187 -0.0347060 0.0066813 0.0347060
3922000000 0.0067564 0.0353782 0.9932436 -0.0353782 0.9932436 -0.0353782 0.0067564 0.0353782
3943000000 0.0068327 0.0360485 0.9931673 -0.0360485 0.9931673 -0.0360485 0.0068327 0.0360485
3964000000 0.0069100 0.0367170 0.9930900 -0.0367170 0.9930900 -0.0367170 0.0069100 0.0367170
3985000000 0.0069883 0.0373838 0.9930117 -0.0373838 0.9930117 -0.0373838 0.0069883 0.0373838
4006000000 0.0070678 0.0380489 0.9929322 -0.0380489 0.9929322 -0.0380489 0.0070678 0.0380489
4027000000 0.0071483 0.0387124 0.9928517 -0.0387124 0.9928517 -0.0387124 0.0071483 0.0387124
4048000000 0.0072300 0.0393743 0.9927700 -0.0393743 0.9927700 -0.0393743 0.0072300 0.0393743
4069000000 0.0073127 0.0400347 0.9926873 -0.0400347 0.9926873 -0.0400347 0.0073127 0.0400347
4090000000 0.0073966 0.0406936 0.9926034 -0.0406936 0.9926034 -0.0406936 0.0073966 0.0406936
4111000000 0.0074817 0.0413511 0.9925183 -0.0413511 0.9925183 -0.0413511 0.0074817 0.0413511
4132000000 0.0075678 0.0420072 0.9924322 -0.0420072 0.9924322 -0.0420072 0.0075678 0.0420072
4153000000 0.0076552 0.0426619 0.9923448 -0.0426619 0.9923448 -0.0426619 0.0076552 0.0426619
4174000000 0.0077438 0.0433153 0.9922562 -0.0433153 0.9922562 -0.0433153 0.0077438 0.0433153
4195000000 0.0078336 0.0439675 0.9921664 -0.0439675 0.9921664 -0.0439675 0.0078336 0.0439675
4216000000 0.0079246 0.0446185 0.9920754 -0.0446185 0.9920754 -0.0446185 0.0079246 0.0446185
4237000000 0.0080169 0.0452683 0.9919831 -0.0452683 0.9919831 -0.0452683 0.0080169 0.0452683
4258000000 0.0081104 0.0459170 0.9918896 -0.0459170 0.9918896 -0.0459170 0.0081104 0.0459170
4279000000 0.0082053 0.0465646 0.9917947 -0.0465646 0.9917947 -0.0465646 0.0082053 0.0465646
4300000000 0.0083015 0.0472112 0.9916985 -0.0472112 0.9916985 -0.0472112 0.0083015 0.0472112
4321000000 0.0083991 0.0478567 0.9916009 -0.0478567 0.9916009 -0.0478567 0.0083991 0.0478567
4342000000 0.0084980 0.0485013 0.9915020 -0.0485013 0.9915020 -0.0485013 0.0084980 0.0485013
4363000000 0.0085984 0.0491450 0.9914016 -0.0491450 0.9914016 -0.0491450 0.0085984 0.0491450
4384000000 0.0087002 0.0497878 0.9912998 -0.0497878 0.9912998 -0.0497878 0.0087002 0.0497878
4405000000 0.0088034 0.0504298 0.9911966 -0.0504298 0.9911966 -0.0504298 0.0088034 0.0504298
4426000000 0.0089082 0.0510710 0.9910918 -0.0510710 0.9910918 -0.0510710 0.0089082 0.0510710
4447000000 0.0090146 0.0517114 0.9909854 -0.0517114 0.9909854 -0.0517114 0.0090146 0.0517114
4468000000 0.0091225 0.0523511 0.9908775 -0.0523511 0.9908775 -0.0523511 0.0091225 0.0523511
4489000000 0.0092321 0.0529901 0.9907679 -0.0529901 0.9907679 -0.0529901 0.0092321 0.0529901
4510000000 0.0093434 0.0536285 0.9906566 -0.0536285 0.9906566 -0.0536285 0.0093434 0.0536285
