!Murata Part Number: GRM1552C1H6R1CA01
!These Parameters are Measured in Series Mode Connection
!Data Generated on Mar 30, 2021
!       o--ll--o
!Port1            Port2
!       o------o
!Operation Temp=25[degC], DC Bias Voltage=0[V]
!Freq. Start=100[MHz] Stop=9[GHz] 401[Steps]
# Hz S RI R 50
!Freq.(Hz) S11(Real) S11(Imag) S21(Real) S21(Imag) S12(Real) S12(Imag) S22(Real) S22(Imag)
100000000 0.8715423 -0.3341956 0.1284577 0.3341956 0.1284577 0.3341956 0.8715423 -0.3341956
121000000 0.8224222 -0.3816686 0.1775778 0.3816686 0.1775778 0.3816686 0.8224222 -0.3816686
142000000 0.7706675 -0.4198297 0.2293325 0.4198297 0.2293325 0.4198297 0.7706675 -0.4198297
163000000 0.7181777 -0.4492276 0.2818223 0.4492276 0.2818223 0.4492276 0.7181777 -0.4492276
184000000 0.6664476 -0.4707361 0.3335524 0.4707361 0.3335524 0.4707361 0.6664476 -0.4707361
205000000 0.6165657 -0.4853901 0.3834343 0.4853901 0.3834343 0.4853901 0.6165657 -0.4853901
226000000 0.5692571 -0.4942606 0.4307429 0.4942606 0.4307429 0.4942606 0.5692571 -0.4942606
247000000 0.5249490 -0.4983698 0.4750510 0.4983698 0.4750510 0.4983698 0.5249490 -0.4983698
268000000 0.4838401 -0.4986431 0.5161599 0.4986431 0.5161599 0.4986431 0.4838401 -0.4986431
289000000 0.4459633 -0.4958868 0.5540367 0.4958868 0.5540367 0.4958868 0.4459633 -0.4958868
310000000 0.4112389 -0.4907840 0.5887611 0.4907840 0.5887611 0.4907840 0.4112389 -0.4907840
331000000 0.3795149 -0.4839015 0.6204851 0.4839015 0.6204851 0.4839015 0.3795149 -0.4839015
352000000 0.3505982 -0.4757013 0.6494018 0.4757013 0.6494018 0.4757013 0.3505982 -0.4757013
373000000 0.3242759 -0.4665555 0.6757241 0.4665555 0.6757241 0.4665555 0.3242759 -0.4665555
394000000 0.3003299 -0.4567602 0.6996701 0.4567602 0.6996701 0.4567602 0.3003299 -0.4567602
415000000 0.2785467 -0.4465487 0.7214533 0.4465487 0.7214533 0.4465487 0.2785467 -0.4465487
436000000 0.2587231 -0.4361030 0.7412769 0.4361030 0.7412769 0.4361030 0.2587231 -0.4361030
457000000 0.2406698 -0.4255639 0.7593302 0.4255639 0.7593302 0.4255639 0.2406698 -0.4255639
478000000 0.2242125 -0.4150392 0.7757875 0.4150392 0.7757875 0.4150392 0.2242125 -0.4150392
499000000 0.2091925 -0.4046103 0.7908075 0.4046103 0.7908075 0.4046103 0.2091925 -0.4046103
520000000 0.1954663 -0.3943378 0.8045337 0.3943378 0.8045337 0.3943378 0.1954663 -0.3943378
541000000 0.1829048 -0.3842660 0.8170952 0.3842660 0.8170952 0.3842660 0.1829048 -0.3842660
562000000 0.1713920 -0.3744265 0.8286080 0.3744265 0.8286080 0.3744265 0.1713920 -0.3744265
583000000 0.1608243 -0.3648406 0.8391757 0.3648406 0.8391757 0.3648406 0.1608243 -0.3648406
604000000 0.1511092 -0.3555220 0.8488908 0.3555220 0.8488908 0.3555220 0.1511092 -0.3555220
625000000 0.1421640 -0.3464784 0.8578360 0.3464784 0.8578360 0.3464784 0.1421640 -0.3464784
646000000 0.1339149 -0.3377128 0.8660851 0.3377128 0.8660851 0.3377128 0.1339149 -0.3377128
667000000 0.1262961 -0.3292250 0.8737039 0.3292250 0.8737039 0.3292250 0.1262961 -0.3292250
688000000 0.1192487 -0.3210117 0.8807513 0.3210117 0.8807513 0.3210117 0.1192487 -0.3210117
709000000 0.1127202 -0.3130681 0.8872798 0.3130681 0.8872798 0.3130681 0.1127202 -0.3130681
730000000 0.1066635 -0.3053877 0.8933365 0.3053877 0.8933365 0.3053877 0.1066635 -0.3053877
751000000 0.1010366 -0.2979631 0.8989634 0.2979631 0.8989634 0.2979631 0.1010366 -0.2979631
772000000 0.0958016 -0.2907863 0.9041984 0.2907863 0.9041984 0.2907863 0.0958016 -0.2907863
793000000 0.0909247 -0.2838488 0.9090753 0.2838488 0.9090753 0.2838488 0.0909247 -0.2838488
814000000 0.0863755 -0.2771418 0.9136245 0.2771418 0.9136245 0.2771418 0.0863755 -0.2771418
835000000 0.0821264 -0.2706566 0.9178736 0.2706566 0.9178736 0.2706566 0.0821264 -0.2706566
856000000 0.0781527 -0.2643844 0.9218473 0.2643844 0.9218473 0.2643844 0.0781527 -0.2643844
877000000 0.0744322 -0.2583166 0.9255678 0.2583166 0.9255678 0.2583166 0.0744322 -0.2583166
898000000 0.0709445 -0.2524447 0.9290555 0.2524447 0.9290555 0.2524447 0.0709445 -0.2524447
919000000 0.0676716 -0.2467605 0.9323284 0.2467605 0.9323284 0.2467605 0.0676716 -0.2467605
940000000 0.0645967 -0.2412560 0.9354033 0.2412560 0.9354033 0.2412560 0.0645967 -0.2412560
961000000 0.0617049 -0.2359236 0.9382951 0.2359236 0.9382951 0.2359236 0.0617049 -0.2359236
982000000 0.0589825 -0.2307559 0.9410175 0.2307559 0.9410175 0.2307559 0.0589825 -0.2307559
1003000000 0.0564170 -0.2257457 0.9435830 0.2257457 0.9435830 0.2257457 0.0564170 -0.2257457
1024000000 0.0539970 -0.2208864 0.9460030 0.2208864 0.9460030 0.2208864 0.0539970 -0.2208864
1045000000 0.0517122 -0.2161713 0.9482878 0.2161713 0.9482878 0.2161713 0.0517122 -0.2161713
1066000000 0.0495531 -0.2115943 0.9504469 0.2115943 0.9504469 0.2115943 0.0495531 -0.2115943
1087000000 0.0475110 -0.2071495 0.9524890 0.2071495 0.9524890 0.2071495 0.0475110 -0.2071495
1108000000 0.0455780 -0.2028313 0.9544220 0.2028313 0.9544220 0.2028313 0.0455780 -0.2028313
1129000000 0.0437467 -0.1986342 0.9562533 0.1986342 0.9562533 0.1986342 0.0437467 -0.1986342
1150000000 0.0420105 -0.1945532 0.9579895 0.1945532 0.9579895 0.1945532 0.0420105 -0.1945532
1171000000 0.0403631 -0.1905834 0.9596369 0.1905834 0.9596369 0.1905834 0.0403631 -0.1905834
1192000000 0.0387989 -0.1867202 0.9612011 0.1867202 0.9612011 0.1867202 0.0387989 -0.1867202
1213000000 0.0373127 -0.1829592 0.9626873 0.1829592 0.9626873 0.1829592 0.0373127 -0.1829592
1234000000 0.0358996 -0.1792961 0.9641004 0.1792961 0.9641004 0.1792961 0.0358996 -0.1792961
1255000000 0.0345551 -0.1757271 0.9654449 0.1757271 0.9654449 0.1757271 0.0345551 -0.1757271
1276000000 0.0332750 -0.1722482 0.9667250 0.1722482 0.9667250 0.1722482 0.0332750 -0.1722482
1297000000 0.0320556 -0.1688560 0.9679444 0.1688560 0.9679444 0.1688560 0.0320556 -0.1688560
1318000000 0.0308932 -0.1655469 0.9691068 0.1655469 0.9691068 0.1655469 0.0308932 -0.1655469
1339000000 0.0297846 -0.1623177 0.9702154 0.1623177 0.9702154 0.1623177 0.0297846 -0.1623177
1360000000 0.0287268 -0.1591653 0.9712732 0.1591653 0.9712732 0.1591653 0.0287268 -0.1591653
1381000000 0.0277167 -0.1560867 0.9722833 0.1560867 0.9722833 0.1560867 0.0277167 -0.1560867
1402000000 0.0267519 -0.1530791 0.9732481 0.1530791 0.9732481 0.1530791 0.0267519 -0.1530791
1423000000 0.0258298 -0.1501398 0.9741702 0.1501398 0.9741702 0.1501398 0.0258298 -0.1501398
1444000000 0.0249480 -0.1472662 0.9750520 0.1472662 0.9750520 0.1472662 0.0249480 -0.1472662
1465000000 0.0241045 -0.1444560 0.9758955 0.1444560 0.9758955 0.1444560 0.0241045 -0.1444560
1486000000 0.0232973 -0.1417067 0.9767027 0.1417067 0.9767027 0.1417067 0.0232973 -0.1417067
1507000000 0.0225244 -0.1390161 0.9774756 0.1390161 0.9774756 0.1390161 0.0225244 -0.1390161
1528000000 0.0217841 -0.1363821 0.9782159 0.1363821 0.9782159 0.1363821 0.0217841 -0.1363821
1549000000 0.0210747 -0.1338027 0.9789253 0.1338027 0.9789253 0.1338027 0.0210747 -0.1338027
1570000000 0.0203947 -0.1312759 0.9796053 0.1312759 0.9796053 0.1312759 0.0203947 -0.1312759
1591000000 0.0197426 -0.1287999 0.9802574 0.1287999 0.9802574 0.1287999 0.0197426 -0.1287999
1612000000 0.0191171 -0.1263730 0.9808829 0.1263730 0.9808829 0.1263730 0.0191171 -0.1263730
1633000000 0.0185169 -0.1239934 0.9814831 0.1239934 0.9814831 0.1239934 0.0185169 -0.1239934
1654000000 0.0179408 -0.1216595 0.9820592 0.1216595 0.9820592 0.1216595 0.0179408 -0.1216595
1675000000 0.0173877 -0.1193697 0.9826123 0.1193697 0.9826123 0.1193697 0.0173877 -0.1193697
1696000000 0.0168564 -0.1171226 0.9831436 0.1171226 0.9831436 0.1171226 0.0168564 -0.1171226
1717000000 0.0163460 -0.1149168 0.9836540 0.1149168 0.9836540 0.1149168 0.0163460 -0.1149168
1738000000 0.0158556 -0.1127509 0.9841444 0.1127509 0.9841444 0.1127509 0.0158556 -0.1127509
1759000000 0.0153842 -0.1106235 0.9846158 0.1106235 0.9846158 0.1106235 0.0153842 -0.1106235
1780000000 0.0149310 -0.1085336 0.9850690 0.1085336 0.9850690 0.1085336 0.0149310 -0.1085336
1801000000 0.0144952 -0.1064797 0.9855048 0.1064797 0.9855048 0.1064797 0.0144952 -0.1064797
1822000000 0.0140760 -0.1044609 0.9859240 0.1044609 0.9859240 0.1044609 0.0140760 -0.1044609
1843000000 0.0136728 -0.1024759 0.9863272 0.1024759 0.9863272 0.1024759 0.0136728 -0.1024759
1864000000 0.0132849 -0.1005238 0.9867151 0.1005238 0.9867151 0.1005238 0.0132849 -0.1005238
1885000000 0.0129116 -0.0986034 0.9870884 0.0986034 0.9870884 0.0986034 0.0129116 -0.0986034
1906000000 0.0125523 -0.0967140 0.9874477 0.0967140 0.9874477 0.0967140 0.0125523 -0.0967140
1927000000 0.0122065 -0.0948544 0.9877935 0.0948544 0.9877935 0.0948544 0.0122065 -0.0948544
1948000000 0.0118736 -0.0930238 0.9881264 0.0930238 0.9881264 0.0930238 0.0118736 -0.0930238
1969000000 0.0115530 -0.0912213 0.9884470 0.0912213 0.9884470 0.0912213 0.0115530 -0.0912213
1990000000 0.0112444 -0.0894461 0.9887556 0.0894461 0.9887556 0.0894461 0.0112444 -0.0894461
2011000000 0.0109472 -0.0876974 0.9890528 0.0876974 0.9890528 0.0876974 0.0109472 -0.0876974
2032000000 0.0106611 -0.0859743 0.9893389 0.0859743 0.9893389 0.0859743 0.0106611 -0.0859743
2053000000 0.0103855 -0.0842763 0.9896145 0.0842763 0.9896145 0.0842763 0.0103855 -0.0842763
2074000000 0.0101200 -0.0826025 0.9898800 0.0826025 0.9898800 0.0826025 0.0101200 -0.0826025
2095000000 0.0098644 -0.0809522 0.9901356 0.0809522 0.9901356 0.0809522 0.0098644 -0.0809522
2116000000 0.0096183 -0.0793248 0.9903817 0.0793248 0.9903817 0.0793248 0.0096183 -0.0793248
2137000000 0.0093812 -0.0777196 0.9906188 0.0777196 0.9906188 0.0777196 0.0093812 -0.0777196
2158000000 0.0091529 -0.0761361 0.9908471 0.0761361 0.9908471 0.0761361 0.0091529 -0.0761361
2179000000 0.0089330 -0.0745735 0.9910670 0.0745735 0.9910670 0.0745735 0.0089330 -0.0745735
2200000000 0.0087213 -0.0730314 0.9912787 0.0730314 0.9912787 0.0730314 0.0087213 -0.0730314
2221000000 0.0085175 -0.0715092 0.9914825 0.0715092 0.9914825 0.0715092 0.0085175 -0.0715092
2242000000 0.0083213 -0.0700063 0.9916787 0.0700063 0.9916787 0.0700063 0.0083213 -0.0700063
2263000000 0.0081324 -0.0685222 0.9918676 0.0685222 0.9918676 0.0685222 0.0081324 -0.0685222
2284000000 0.0079506 -0.0670564 0.9920494 0.0670564 0.9920494 0.0670564 0.0079506 -0.0670564
2305000000 0.0077757 -0.0656084 0.9922243 0.0656084 0.9922243 0.0656084 0.0077757 -0.0656084
2326000000 0.0076075 -0.0641778 0.9923925 0.0641778 0.9923925 0.0641778 0.0076075 -0.0641778
2347000000 0.0074456 -0.0627641 0.9925544 0.0627641 0.9925544 0.0627641 0.0074456 -0.0627641
2368000000 0.0072899 -0.0613668 0.9927101 0.0613668 0.9927101 0.0613668 0.0072899 -0.0613668
2389000000 0.0071403 -0.0599856 0.9928597 0.0599856 0.9928597 0.0599856 0.0071403 -0.0599856
2410000000 0.0069965 -0.0586200 0.9930035 0.0586200 0.9930035 0.0586200 0.0069965 -0.0586200
2431000000 0.0068584 -0.0572695 0.9931416 0.0572695 0.9931416 0.0572695 0.0068584 -0.0572695
2452000000 0.0067257 -0.0559340 0.9932743 0.0559340 0.9932743 0.0559340 0.0067257 -0.0559340
2473000000 0.0065983 -0.0546128 0.9934017 0.0546128 0.9934017 0.0546128 0.0065983 -0.0546128
2494000000 0.0064761 -0.0533058 0.9935239 0.0533058 0.9935239 0.0533058 0.0064761 -0.0533058
2515000000 0.0063588 -0.0520124 0.9936412 0.0520124 0.9936412 0.0520124 0.0063588 -0.0520124
2536000000 0.0062465 -0.0507325 0.9937535 0.0507325 0.9937535 0.0507325 0.0062465 -0.0507325
2557000000 0.0061388 -0.0494657 0.9938612 0.0494657 0.9938612 0.0494657 0.0061388 -0.0494657
2578000000 0.0060357 -0.0482115 0.9939643 0.0482115 0.9939643 0.0482115 0.0060357 -0.0482115
2599000000 0.0059371 -0.0469698 0.9940629 0.0469698 0.9940629 0.0469698 0.0059371 -0.0469698
2620000000 0.0058427 -0.0457402 0.9941573 0.0457402 0.9941573 0.0457402 0.0058427 -0.0457402
2641000000 0.0057526 -0.0445225 0.9942474 0.0445225 0.9942474 0.0445225 0.0057526 -0.0445225
2662000000 0.0056666 -0.0433163 0.9943334 0.0433163 0.9943334 0.0433163 0.0056666 -0.0433163
2683000000 0.0055846 -0.0421214 0.9944154 0.0421214 0.9944154 0.0421214 0.0055846 -0.0421214
2704000000 0.0055064 -0.0409374 0.9944936 0.0409374 0.9944936 0.0409374 0.0055064 -0.0409374
2725000000 0.0054320 -0.0397642 0.9945680 0.0397642 0.9945680 0.0397642 0.0054320 -0.0397642
2746000000 0.0053614 -0.0386015 0.9946386 0.0386015 0.9946386 0.0386015 0.0053614 -0.0386015
2767000000 0.0052943 -0.0374490 0.9947057 0.0374490 0.9947057 0.0374490 0.0052943 -0.0374490
2788000000 0.0052307 -0.0363065 0.9947693 0.0363065 0.9947693 0.0363065 0.0052307 -0.0363065
2809000000 0.0051705 -0.0351737 0.9948295 0.0351737 0.9948295 0.0351737 0.0051705 -0.0351737
2830000000 0.0051136 -0.0340505 0.9948864 0.0340505 0.9948864 0.0340505 0.0051136 -0.0340505
2851000000 0.0050600 -0.0329366 0.9949400 0.0329366 0.9949400 0.0329366 0.0050600 -0.0329366
2872000000 0.0050096 -0.0318318 0.9949904 0.0318318 0.9949904 0.0318318 0.0050096 -0.0318318
2893000000 0.0049623 -0.0307358 0.9950377 0.0307358 0.9950377 0.0307358 0.0049623 -0.0307358
2914000000 0.0049180 -0.0296486 0.9950820 0.0296486 0.9950820 0.0296486 0.0049180 -0.0296486
2935000000 0.0048767 -0.0285698 0.9951233 0.0285698 0.9951233 0.0285698 0.0048767 -0.0285698
2956000000 0.0048383 -0.0274993 0.9951617 0.0274993 0.9951617 0.0274993 0.0048383 -0.0274993
2977000000 0.0048027 -0.0264369 0.9951973 0.0264369 0.9951973 0.0264369 0.0048027 -0.0264369
2998000000 0.0047700 -0.0253824 0.9952300 0.0253824 0.9952300 0.0253824 0.0047700 -0.0253824
3019000000 0.0047399 -0.0243356 0.9952601 0.0243356 0.9952601 0.0243356 0.0047399 -0.0243356
3040000000 0.0047125 -0.0232964 0.9952875 0.0232964 0.9952875 0.0232964 0.0047125 -0.0232964
3061000000 0.0046877 -0.0222645 0.9953123 0.0222645 0.9953123 0.0222645 0.0046877 -0.0222645
3082000000 0.0046655 -0.0212399 0.9953345 0.0212399 0.9953345 0.0212399 0.0046655 -0.0212399
3103000000 0.0046459 -0.0202223 0.9953541 0.0202223 0.9953541 0.0202223 0.0046459 -0.0202223
3124000000 0.0046286 -0.0192116 0.9953714 0.0192116 0.9953714 0.0192116 0.0046286 -0.0192116
3145000000 0.0046138 -0.0182077 0.9953862 0.0182077 0.9953862 0.0182077 0.0046138 -0.0182077
3166000000 0.0046014 -0.0172104 0.9953986 0.0172104 0.9953986 0.0172104 0.0046014 -0.0172104
3187000000 0.0045913 -0.0162194 0.9954087 0.0162194 0.9954087 0.0162194 0.0045913 -0.0162194
3208000000 0.0045836 -0.0152348 0.9954164 0.0152348 0.9954164 0.0152348 0.0045836 -0.0152348
3229000000 0.0045780 -0.0142563 0.9954220 0.0142563 0.9954220 0.0142563 0.0045780 -0.0142563
3250000000 0.0045747 -0.0132839 0.9954253 0.0132839 0.9954253 0.0132839 0.0045747 -0.0132839
3271000000 0.0045736 -0.0123173 0.9954264 0.0123173 0.9954264 0.0123173 0.0045736 -0.0123173
3292000000 0.0045747 -0.0113565 0.9954253 0.0113565 0.9954253 0.0113565 0.0045747 -0.0113565
3313000000 0.0045778 -0.0104013 0.9954222 0.0104013 0.9954222 0.0104013 0.0045778 -0.0104013
3334000000 0.0045831 -0.0094515 0.9954169 0.0094515 0.9954169 0.0094515 0.0045831 -0.0094515
3355000000 0.0045904 -0.0085072 0.9954096 0.0085072 0.9954096 0.0085072 0.0045904 -0.0085072
3376000000 0.0045998 -0.0075681 0.9954002 0.0075681 0.9954002 0.0075681 0.0045998 -0.0075681
3397000000 0.0046111 -0.0066341 0.9953889 0.0066341 0.9953889 0.0066341 0.0046111 -0.0066341
3418000000 0.0046244 -0.0057051 0.9953756 0.0057051 0.9953756 0.0057051 0.0046244 -0.0057051
3439000000 0.0046397 -0.0047811 0.9953603 0.0047811 0.9953603 0.0047811 0.0046397 -0.0047811
3460000000 0.0046569 -0.0038618 0.9953431 0.0038618 0.9953431 0.0038618 0.0046569 -0.0038618
3481000000 0.0046761 -0.0029472 0.9953239 0.0029472 0.9953239 0.0029472 0.0046761 -0.0029472
3502000000 0.0046971 -0.0020372 0.9953029 0.0020372 0.9953029 0.0020372 0.0046971 -0.0020372
3523000000 0.0047200 -0.0011316 0.9952800 0.0011316 0.9952800 0.0011316 0.0047200 -0.0011316
3544000000 0.0047447 -0.0002304 0.9952553 0.0002304 0.9952553 0.0002304 0.0047447 -0.0002304
3565000000 0.0047712 0.0006665 0.9952288 -0.0006665 0.9952288 -0.0006665 0.0047712 0.0006665
3586000000 0.0047996 0.0015593 0.9952004 -0.0015593 0.9952004 -0.0015593 0.0047996 0.0015593
3607000000 0.0048297 0.0024479 0.9951703 -0.0024479 0.9951703 -0.0024479 0.0048297 0.0024479
3628000000 0.0048617 0.0033327 0.9951383 -0.0033327 0.9951383 -0.0033327 0.0048617 0.0033327
3649000000 0.0048954 0.0042135 0.9951046 -0.0042135 0.9951046 -0.0042135 0.0048954 0.0042135
3670000000 0.0049308 0.0050905 0.9950692 -0.0050905 0.9950692 -0.0050905 0.0049308 0.0050905
3691000000 0.0049680 0.0059639 0.9950320 -0.0059639 0.9950320 -0.0059639 0.0049680 0.0059639
3712000000 0.0050069 0.0068336 0.9949931 -0.0068336 0.9949931 -0.0068336 0.0050069 0.0068336
3733000000 0.0050475 0.0076998 0.9949525 -0.0076998 0.9949525 -0.0076998 0.0050475 0.0076998
3754000000 0.0050899 0.0085625 0.9949101 -0.0085625 0.9949101 -0.0085625 0.0050899 0.0085625
3775000000 0.0051339 0.0094219 0.9948661 -0.0094219 0.9948661 -0.0094219 0.0051339 0.0094219
3796000000 0.0051796 0.0102781 0.9948204 -0.0102781 0.9948204 -0.0102781 0.0051796 0.0102781
3817000000 0.0052270 0.0111310 0.9947730 -0.0111310 0.9947730 -0.0111310 0.0052270 0.0111310
3838000000 0.0052760 0.0119808 0.9947240 -0.0119808 0.9947240 -0.0119808 0.0052760 0.0119808
3859000000 0.0053267 0.0128276 0.9946733 -0.0128276 0.9946733 -0.0128276 0.0053267 0.0128276
3880000000 0.0053791 0.0136714 0.9946209 -0.0136714 0.9946209 -0.0136714 0.0053791 0.0136714
3901000000 0.0054331 0.0145123 0.9945669 -0.0145123 0.9945669 -0.0145123 0.0054331 0.0145123
3922000000 0.0054888 0.0153504 0.9945112 -0.0153504 0.9945112 -0.0153504 0.0054888 0.0153504
3943000000 0.0055461 0.0161858 0.9944539 -0.0161858 0.9944539 -0.0161858 0.0055461 0.0161858
3964000000 0.0056051 0.0170185 0.9943949 -0.0170185 0.9943949 -0.0170185 0.0056051 0.0170185
3985000000 0.0056657 0.0178486 0.9943343 -0.0178486 0.9943343 -0.0178486 0.0056657 0.0178486
4006000000 0.0057279 0.0186761 0.9942721 -0.0186761 0.9942721 -0.0186761 0.0057279 0.0186761
4027000000 0.0057918 0.0195012 0.9942082 -0.0195012 0.9942082 -0.0195012 0.0057918 0.0195012
4048000000 0.0058573 0.0203240 0.9941427 -0.0203240 0.9941427 -0.0203240 0.0058573 0.0203240
4069000000 0.0059244 0.0211443 0.9940756 -0.0211443 0.9940756 -0.0211443 0.0059244 0.0211443
4090000000 0.0059932 0.0219625 0.9940068 -0.0219625 0.9940068 -0.0219625 0.0059932 0.0219625
4111000000 0.0060636 0.0227784 0.9939364 -0.0227784 0.9939364 -0.0227784 0.0060636 0.0227784
4132000000 0.0061357 0.0235922 0.9938643 -0.0235922 0.9938643 -0.0235922 0.0061357 0.0235922
4153000000 0.0062094 0.0244040 0.9937906 -0.0244040 0.9937906 -0.0244040 0.0062094 0.0244040
4174000000 0.0062848 0.0252137 0.9937152 -0.0252137 0.9937152 -0.0252137 0.0062848 0.0252137
4195000000 0.0063618 0.0260215 0.9936382 -0.0260215 0.9936382 -0.0260215 0.0063618 0.0260215
4216000000 0.0064404 0.0268274 0.9935596 -0.0268274 0.9935596 -0.0268274 0.0064404 0.0268274
4237000000 0.0065208 0.0276315 0.9934792 -0.0276315 0.9934792 -0.0276315 0.0065208 0.0276315
4258000000 0.0066028 0.0284338 0.9933972 -0.0284338 0.9933972 -0.0284338 0.0066028 0.0284338
4279000000 0.0066864 0.0292344 0.9933136 -0.0292344 0.9933136 -0.0292344 0.0066864 0.0292344
4300000000 0.0067718 0.0300333 0.9932282 -0.0300333 0.9932282 -0.0300333 0.0067718 0.0300333
4321000000 0.0068589 0.0308307 0.9931411 -0.0308307 0.9931411 -0.0308307 0.0068589 0.0308307
4342000000 0.0069476 0.0316265 0.9930524 -0.0316265 0.9930524 -0.0316265 0.0069476 0.0316265
4363000000 0.0070381 0.0324209 0.9929619 -0.0324209 0.9929619 -0.0324209 0.0070381 0.0324209
4384000000 0.0071303 0.0332138 0.9928697 -0.0332138 0.9928697 -0.0332138 0.0071303 0.0332138
4405000000 0.0072242 0.0340053 0.9927758 -0.0340053 0.9927758 -0.0340053 0.0072242 0.0340053
4426000000 0.0073199 0.0347955 0.9926801 -0.0347955 0.9926801 -0.0347955 0.0073199 0.0347955
4447000000 0.0074174 0.0355844 0.9925826 -0.0355844 0.9925826 -0.0355844 0.0074174 0.0355844
4468000000 0.0075166 0.0363722 0.9924834 -0.0363722 0.9924834 -0.0363722 0.0075166 0.0363722
4489000000 0.0076176 0.0371587 0.9923824 -0.0371587 0.9923824 -0.0371587 0.0076176 0.0371587
4510000000 0.0077204 0.0379441 0.9922796 -0.0379441 0.9922796 -0.0379441 0.0077204 0.0379441
