!Murata Part Number: GRM1555C1H271JA01
!These Parameters are Measured in Series Mode Connection
!Data Generated on Mar 30, 2021
!       o--ll--o
!Port1            Port2
!       o------o
!Operation Temp=25[degC], DC Bias Voltage=0[V]
!Freq. Start=100[MHz] Stop=9[GHz] 401[Steps]
# Hz S RI R 50
!Freq.(Hz) S11(Real) S11(Imag) S21(Real) S21(Imag) S12(Real) S12(Imag) S22(Real) S22(Imag)
100000000 0.0040366 -0.0561808 0.9959634 0.0561808 0.9959634 0.0561808 0.0040366 -0.0561808
121000000 0.0029548 -0.0455301 0.9970452 0.0455301 0.9970452 0.0455301 0.0029548 -0.0455301
142000000 0.0023217 -0.0378569 0.9976783 0.0378569 0.9976783 0.0378569 0.0023217 -0.0378569
163000000 0.0019232 -0.0320184 0.9980768 0.0320184 0.9980768 0.0320184 0.0019232 -0.0320184
184000000 0.0016596 -0.0273895 0.9983404 0.0273895 0.9983404 0.0273895 0.0016596 -0.0273895
205000000 0.0014794 -0.0236002 0.9985206 0.0236002 0.9985206 0.0236002 0.0014794 -0.0236002
226000000 0.0013536 -0.0204171 0.9986464 0.0204171 0.9986464 0.0204171 0.0013536 -0.0204171
247000000 0.0012652 -0.0176861 0.9987348 0.0176861 0.9987348 0.0176861 0.0012652 -0.0176861
268000000 0.0012033 -0.0153012 0.9987967 0.0153012 0.9987967 0.0153012 0.0012033 -0.0153012
289000000 0.0011610 -0.0131869 0.9988390 0.0131869 0.9988390 0.0131869 0.0011610 -0.0131869
310000000 0.0011336 -0.0112884 0.9988664 0.0112884 0.9988664 0.0112884 0.0011336 -0.0112884
331000000 0.0011179 -0.0095646 0.9988821 0.0095646 0.9988821 0.0095646 0.0011179 -0.0095646
352000000 0.0011115 -0.0079842 0.9988885 0.0079842 0.9988885 0.0079842 0.0011115 -0.0079842
373000000 0.0011128 -0.0065229 0.9988872 0.0065229 0.9988872 0.0065229 0.0011128 -0.0065229
394000000 0.0011205 -0.0051617 0.9988795 0.0051617 0.9988795 0.0051617 0.0011205 -0.0051617
415000000 0.0011338 -0.0038853 0.9988662 0.0038853 0.9988662 0.0038853 0.0011338 -0.0038853
436000000 0.0011519 -0.0026813 0.9988481 0.0026813 0.9988481 0.0026813 0.0011519 -0.0026813
457000000 0.0011742 -0.0015397 0.9988258 0.0015397 0.9988258 0.0015397 0.0011742 -0.0015397
478000000 0.0012005 -0.0004522 0.9987995 0.0004522 0.9987995 0.0004522 0.0012005 -0.0004522
499000000 0.0012305 0.0005883 0.9987695 -0.0005883 0.9987695 -0.0005883 0.0012305 0.0005883
520000000 0.0012638 0.0015875 0.9987362 -0.0015875 0.9987362 -0.0015875 0.0012638 0.0015875
541000000 0.0013003 0.0025503 0.9986997 -0.0025503 0.9986997 -0.0025503 0.0013003 0.0025503
562000000 0.0013400 0.0034810 0.9986600 -0.0034810 0.9986600 -0.0034810 0.0013400 0.0034810
583000000 0.0013828 0.0043833 0.9986172 -0.0043833 0.9986172 -0.0043833 0.0013828 0.0043833
604000000 0.0014286 0.0052602 0.9985714 -0.0052602 0.9985714 -0.0052602 0.0014286 0.0052602
625000000 0.0014774 0.0061145 0.9985226 -0.0061145 0.9985226 -0.0061145 0.0014774 0.0061145
646000000 0.0015294 0.0069486 0.9984706 -0.0069486 0.9984706 -0.0069486 0.0015294 0.0069486
667000000 0.0015846 0.0077647 0.9984154 -0.0077647 0.9984154 -0.0077647 0.0015846 0.0077647
688000000 0.0016432 0.0085645 0.9983568 -0.0085645 0.9983568 -0.0085645 0.0016432 0.0085645
709000000 0.0017053 0.0093498 0.9982947 -0.0093498 0.9982947 -0.0093498 0.0017053 0.0093498
730000000 0.0017712 0.0101222 0.9982288 -0.0101222 0.9982288 -0.0101222 0.0017712 0.0101222
751000000 0.0018413 0.0108829 0.9981587 -0.0108829 0.9981587 -0.0108829 0.0018413 0.0108829
772000000 0.0019159 0.0116332 0.9980841 -0.0116332 0.9980841 -0.0116332 0.0019159 0.0116332
793000000 0.0019956 0.0123742 0.9980044 -0.0123742 0.9980044 -0.0123742 0.0019956 0.0123742
814000000 0.0020810 0.0131069 0.9979190 -0.0131069 0.9979190 -0.0131069 0.0020810 0.0131069
835000000 0.0021730 0.0138320 0.9978270 -0.0138320 0.9978270 -0.0138320 0.0021730 0.0138320
856000000 0.0022726 0.0145502 0.9977274 -0.0145502 0.9977274 -0.0145502 0.0022726 0.0145502
877000000 0.0023810 0.0152618 0.9976190 -0.0152618 0.9976190 -0.0152618 0.0023810 0.0152618
898000000 0.0025000 0.0159669 0.9975000 -0.0159669 0.9975000 -0.0159669 0.0025000 0.0159669
919000000 0.0026313 0.0166651 0.9973687 -0.0166651 0.9973687 -0.0166651 0.0026313 0.0166651
940000000 0.0027773 0.0173549 0.9972227 -0.0173549 0.9972227 -0.0173549 0.0027773 0.0173549
961000000 0.0029403 0.0180340 0.9970597 -0.0180340 0.9970597 -0.0180340 0.0029403 0.0180340
982000000 0.0031225 0.0186981 0.9968775 -0.0186981 0.9968775 -0.0186981 0.0031225 0.0186981
1003000000 0.0033252 0.0193412 0.9966748 -0.0193412 0.9966748 -0.0193412 0.0033252 0.0193412
1024000000 0.0035471 0.0199544 0.9964529 -0.0199544 0.9964529 -0.0199544 0.0035471 0.0199544
1045000000 0.0037822 0.0205275 0.9962178 -0.0205275 0.9962178 -0.0205275 0.0037822 0.0205275
1066000000 0.0040178 0.0210513 0.9959822 -0.0210513 0.9959822 -0.0210513 0.0040178 0.0210513
1087000000 0.0042337 0.0215230 0.9957663 -0.0215230 0.9957663 -0.0215230 0.0042337 0.0215230
1108000000 0.0044072 0.0219519 0.9955928 -0.0219519 0.9955928 -0.0219519 0.0044072 0.0219519
1129000000 0.0045224 0.0223608 0.9954776 -0.0223608 0.9954776 -0.0223608 0.0045224 0.0223608
1150000000 0.0045787 0.0227787 0.9954213 -0.0227787 0.9954213 -0.0227787 0.0045787 0.0227787
1171000000 0.0045907 0.0232291 0.9954093 -0.0232291 0.9954093 -0.0232291 0.0045907 0.0232291
1192000000 0.0045805 0.0237225 0.9954195 -0.0237225 0.9954195 -0.0237225 0.0045805 0.0237225
1213000000 0.0045683 0.0242577 0.9954317 -0.0242577 0.9954317 -0.0242577 0.0045683 0.0242577
1234000000 0.0045678 0.0248268 0.9954322 -0.0248268 0.9954322 -0.0248268 0.0045678 0.0248268
1255000000 0.0045864 0.0254203 0.9954136 -0.0254203 0.9954136 -0.0254203 0.0045864 0.0254203
1276000000 0.0046269 0.0260296 0.9953731 -0.0260296 0.9953731 -0.0260296 0.0046269 0.0260296
1297000000 0.0046895 0.0266481 0.9953105 -0.0266481 0.9953105 -0.0266481 0.0046895 0.0266481
1318000000 0.0047736 0.0272710 0.9952264 -0.0272710 0.9952264 -0.0272710 0.0047736 0.0272710
1339000000 0.0048779 0.0278950 0.9951221 -0.0278950 0.9951221 -0.0278950 0.0048779 0.0278950
1360000000 0.0050016 0.0285177 0.9949984 -0.0285177 0.9949984 -0.0285177 0.0050016 0.0285177
1381000000 0.0051438 0.0291371 0.9948562 -0.0291371 0.9948562 -0.0291371 0.0051438 0.0291371
1402000000 0.0053042 0.0297517 0.9946958 -0.0297517 0.9946958 -0.0297517 0.0053042 0.0297517
1423000000 0.0054826 0.0303598 0.9945174 -0.0303598 0.9945174 -0.0303598 0.0054826 0.0303598
1444000000 0.0056791 0.0309599 0.9943209 -0.0309599 0.9943209 -0.0309599 0.0056791 0.0309599
1465000000 0.0058938 0.0315500 0.9941062 -0.0315500 0.9941062 -0.0315500 0.0058938 0.0315500
1486000000 0.0061271 0.0321279 0.9938729 -0.0321279 0.9938729 -0.0321279 0.0061271 0.0321279
1507000000 0.0063788 0.0326908 0.9936212 -0.0326908 0.9936212 -0.0326908 0.0063788 0.0326908
1528000000 0.0066489 0.0332356 0.9933511 -0.0332356 0.9933511 -0.0332356 0.0066489 0.0332356
1549000000 0.0069366 0.0337586 0.9930634 -0.0337586 0.9930634 -0.0337586 0.0069366 0.0337586
1570000000 0.0072404 0.0342554 0.9927596 -0.0342554 0.9927596 -0.0342554 0.0072404 0.0342554
1591000000 0.0075577 0.0347217 0.9924423 -0.0347217 0.9924423 -0.0347217 0.0075577 0.0347217
1612000000 0.0078847 0.0351527 0.9921153 -0.0351527 0.9921153 -0.0351527 0.0078847 0.0351527
1633000000 0.0082158 0.0355441 0.9917842 -0.0355441 0.9917842 -0.0355441 0.0082158 0.0355441
1654000000 0.0085438 0.0358926 0.9914562 -0.0358926 0.9914562 -0.0358926 0.0085438 0.0358926
1675000000 0.0088600 0.0361962 0.9911400 -0.0361962 0.9911400 -0.0361962 0.0088600 0.0361962
1696000000 0.0091543 0.0364555 0.9908457 -0.0364555 0.9908457 -0.0364555 0.0091543 0.0364555
1717000000 0.0094163 0.0366738 0.9905837 -0.0366738 0.9905837 -0.0366738 0.0094163 0.0366738
1738000000 0.0096361 0.0368580 0.9903639 -0.0368580 0.9903639 -0.0368580 0.0096361 0.0368580
1759000000 0.0098060 0.0370177 0.9901940 -0.0370177 0.9901940 -0.0370177 0.0098060 0.0370177
1780000000 0.0099210 0.0371649 0.9900790 -0.0371649 0.9900790 -0.0371649 0.0099210 0.0371649
1801000000 0.0099800 0.0373126 0.9900200 -0.0373126 0.9900200 -0.0373126 0.0099800 0.0373126
1822000000 0.0099860 0.0374734 0.9900140 -0.0374734 0.9900140 -0.0374734 0.0099860 0.0374734
1843000000 0.0099450 0.0376581 0.9900550 -0.0376581 0.9900550 -0.0376581 0.0099450 0.0376581
1864000000 0.0098657 0.0378748 0.9901343 -0.0378748 0.9901343 -0.0378748 0.0098657 0.0378748
1885000000 0.0097577 0.0381285 0.9902423 -0.0381285 0.9902423 -0.0381285 0.0097577 0.0381285
1906000000 0.0096307 0.0384211 0.9903693 -0.0384211 0.9903693 -0.0384211 0.0096307 0.0384211
1927000000 0.0094936 0.0387522 0.9905064 -0.0387522 0.9905064 -0.0387522 0.0094936 0.0387522
1948000000 0.0093539 0.0391194 0.9906461 -0.0391194 0.9906461 -0.0391194 0.0093539 0.0391194
1969000000 0.0092175 0.0395191 0.9907825 -0.0395191 0.9907825 -0.0395191 0.0092175 0.0395191
1990000000 0.0090888 0.0399474 0.9909112 -0.0399474 0.9909112 -0.0399474 0.0090888 0.0399474
2011000000 0.0089708 0.0403999 0.9910292 -0.0403999 0.9910292 -0.0403999 0.0089708 0.0403999
2032000000 0.0088653 0.0408727 0.9911347 -0.0408727 0.9911347 -0.0408727 0.0088653 0.0408727
2053000000 0.0087733 0.0413620 0.9912267 -0.0413620 0.9912267 -0.0413620 0.0087733 0.0413620
2074000000 0.0086951 0.0418645 0.9913049 -0.0418645 0.9913049 -0.0418645 0.0086951 0.0418645
2095000000 0.0086305 0.0423775 0.9913695 -0.0423775 0.9913695 -0.0423775 0.0086305 0.0423775
2116000000 0.0085791 0.0428986 0.9914209 -0.0428986 0.9914209 -0.0428986 0.0085791 0.0428986
2137000000 0.0085402 0.0434258 0.9914598 -0.0434258 0.9914598 -0.0434258 0.0085402 0.0434258
2158000000 0.0085129 0.0439575 0.9914871 -0.0439575 0.9914871 -0.0439575 0.0085129 0.0439575
2179000000 0.0084965 0.0444925 0.9915035 -0.0444925 0.9915035 -0.0444925 0.0084965 0.0444925
2200000000 0.0084902 0.0450296 0.9915098 -0.0450296 0.9915098 -0.0450296 0.0084902 0.0450296
2221000000 0.0084930 0.0455681 0.9915070 -0.0455681 0.9915070 -0.0455681 0.0084930 0.0455681
2242000000 0.0085044 0.0461072 0.9914956 -0.0461072 0.9914956 -0.0461072 0.0085044 0.0461072
2263000000 0.0085234 0.0466466 0.9914766 -0.0466466 0.9914766 -0.0466466 0.0085234 0.0466466
2284000000 0.0085495 0.0471857 0.9914505 -0.0471857 0.9914505 -0.0471857 0.0085495 0.0471857
2305000000 0.0085821 0.0477243 0.9914179 -0.0477243 0.9914179 -0.0477243 0.0085821 0.0477243
2326000000 0.0086206 0.0482621 0.9913794 -0.0482621 0.9913794 -0.0482621 0.0086206 0.0482621
2347000000 0.0086645 0.0487991 0.9913355 -0.0487991 0.9913355 -0.0487991 0.0086645 0.0487991
2368000000 0.0087133 0.0493351 0.9912867 -0.0493351 0.9912867 -0.0493351 0.0087133 0.0493351
2389000000 0.0087666 0.0498699 0.9912334 -0.0498699 0.9912334 -0.0498699 0.0087666 0.0498699
2410000000 0.0088241 0.0504037 0.9911759 -0.0504037 0.9911759 -0.0504037 0.0088241 0.0504037
2431000000 0.0088854 0.0509363 0.9911146 -0.0509363 0.9911146 -0.0509363 0.0088854 0.0509363
2452000000 0.0089502 0.0514677 0.9910498 -0.0514677 0.9910498 -0.0514677 0.0089502 0.0514677
2473000000 0.0090183 0.0519980 0.9909817 -0.0519980 0.9909817 -0.0519980 0.0090183 0.0519980
2494000000 0.0090893 0.0525272 0.9909107 -0.0525272 0.9909107 -0.0525272 0.0090893 0.0525272
2515000000 0.0091632 0.0530553 0.9908368 -0.0530553 0.9908368 -0.0530553 0.0091632 0.0530553
2536000000 0.0092396 0.0535824 0.9907604 -0.0535824 0.9907604 -0.0535824 0.0092396 0.0535824
2557000000 0.0093184 0.0541085 0.9906816 -0.0541085 0.9906816 -0.0541085 0.0093184 0.0541085
2578000000 0.0093995 0.0546336 0.9906005 -0.0546336 0.9906005 -0.0546336 0.0093995 0.0546336
2599000000 0.0094826 0.0551579 0.9905174 -0.0551579 0.9905174 -0.0551579 0.0094826 0.0551579
2620000000 0.0095678 0.0556813 0.9904322 -0.0556813 0.9904322 -0.0556813 0.0095678 0.0556813
2641000000 0.0096547 0.0562040 0.9903453 -0.0562040 0.9903453 -0.0562040 0.0096547 0.0562040
2662000000 0.0097434 0.0567259 0.9902566 -0.0567259 0.9902566 -0.0567259 0.0097434 0.0567259
2683000000 0.0098337 0.0572472 0.9901663 -0.0572472 0.9901663 -0.0572472 0.0098337 0.0572472
2704000000 0.0099256 0.0577679 0.9900744 -0.0577679 0.9900744 -0.0577679 0.0099256 0.0577679
2725000000 0.0100189 0.0582880 0.9899811 -0.0582880 0.9899811 -0.0582880 0.0100189 0.0582880
2746000000 0.0101137 0.0588076 0.9898863 -0.0588076 0.9898863 -0.0588076 0.0101137 0.0588076
2767000000 0.0102097 0.0593267 0.9897903 -0.0593267 0.9897903 -0.0593267 0.0102097 0.0593267
2788000000 0.0103070 0.0598455 0.9896930 -0.0598455 0.9896930 -0.0598455 0.0103070 0.0598455
2809000000 0.0104056 0.0603639 0.9895944 -0.0603639 0.9895944 -0.0603639 0.0104056 0.0603639
2830000000 0.0105052 0.0608820 0.9894948 -0.0608820 0.9894948 -0.0608820 0.0105052 0.0608820
2851000000 0.0106060 0.0613999 0.9893940 -0.0613999 0.9893940 -0.0613999 0.0106060 0.0613999
2872000000 0.0107079 0.0619176 0.9892921 -0.0619176 0.9892921 -0.0619176 0.0107079 0.0619176
2893000000 0.0108108 0.0624351 0.9891892 -0.0624351 0.9891892 -0.0624351 0.0108108 0.0624351
2914000000 0.0109147 0.0629526 0.9890853 -0.0629526 0.9890853 -0.0629526 0.0109147 0.0629526
2935000000 0.0110196 0.0634700 0.9889804 -0.0634700 0.9889804 -0.0634700 0.0110196 0.0634700
2956000000 0.0111254 0.0639873 0.9888746 -0.0639873 0.9888746 -0.0639873 0.0111254 0.0639873
2977000000 0.0112321 0.0645048 0.9887679 -0.0645048 0.9887679 -0.0645048 0.0112321 0.0645048
2998000000 0.0113397 0.0650222 0.9886603 -0.0650222 0.9886603 -0.0650222 0.0113397 0.0650222
3019000000 0.0114482 0.0655399 0.9885518 -0.0655399 0.9885518 -0.0655399 0.0114482 0.0655399
3040000000 0.0115576 0.0660576 0.9884424 -0.0660576 0.9884424 -0.0660576 0.0115576 0.0660576
3061000000 0.0116678 0.0665756 0.9883322 -0.0665756 0.9883322 -0.0665756 0.0116678 0.0665756
3082000000 0.0117788 0.0670938 0.9882212 -0.0670938 0.9882212 -0.0670938 0.0117788 0.0670938
3103000000 0.0118906 0.0676123 0.9881094 -0.0676123 0.9881094 -0.0676123 0.0118906 0.0676123
3124000000 0.0120032 0.0681311 0.9879968 -0.0681311 0.9879968 -0.0681311 0.0120032 0.0681311
3145000000 0.0121166 0.0686503 0.9878834 -0.0686503 0.9878834 -0.0686503 0.0121166 0.0686503
3166000000 0.0122307 0.0691698 0.9877693 -0.0691698 0.9877693 -0.0691698 0.0122307 0.0691698
3187000000 0.0123457 0.0696898 0.9876543 -0.0696898 0.9876543 -0.0696898 0.0123457 0.0696898
3208000000 0.0124614 0.0702103 0.9875386 -0.0702103 0.9875386 -0.0702103 0.0124614 0.0702103
3229000000 0.0125778 0.0707312 0.9874222 -0.0707312 0.9874222 -0.0707312 0.0125778 0.0707312
3250000000 0.0126950 0.0712527 0.9873050 -0.0712527 0.9873050 -0.0712527 0.0126950 0.0712527
3271000000 0.0128129 0.0717748 0.9871871 -0.0717748 0.9871871 -0.0717748 0.0128129 0.0717748
3292000000 0.0129316 0.0722975 0.9870684 -0.0722975 0.9870684 -0.0722975 0.0129316 0.0722975
3313000000 0.0130511 0.0728208 0.9869489 -0.0728208 0.9869489 -0.0728208 0.0130511 0.0728208
3334000000 0.0131712 0.0733447 0.9868288 -0.0733447 0.9868288 -0.0733447 0.0131712 0.0733447
3355000000 0.0132921 0.0738694 0.9867079 -0.0738694 0.9867079 -0.0738694 0.0132921 0.0738694
3376000000 0.0134138 0.0743948 0.9865862 -0.0743948 0.9865862 -0.0743948 0.0134138 0.0743948
3397000000 0.0135362 0.0749210 0.9864638 -0.0749210 0.9864638 -0.0749210 0.0135362 0.0749210
3418000000 0.0136593 0.0754479 0.9863407 -0.0754479 0.9863407 -0.0754479 0.0136593 0.0754479
3439000000 0.0137832 0.0759757 0.9862168 -0.0759757 0.9862168 -0.0759757 0.0137832 0.0759757
3460000000 0.0139078 0.0765044 0.9860922 -0.0765044 0.9860922 -0.0765044 0.0139078 0.0765044
3481000000 0.0140332 0.0770340 0.9859668 -0.0770340 0.9859668 -0.0770340 0.0140332 0.0770340
3502000000 0.0141593 0.0775644 0.9858407 -0.0775644 0.9858407 -0.0775644 0.0141593 0.0775644
3523000000 0.0142862 0.0780959 0.9857138 -0.0780959 0.9857138 -0.0780959 0.0142862 0.0780959
3544000000 0.0144139 0.0786283 0.9855861 -0.0786283 0.9855861 -0.0786283 0.0144139 0.0786283
3565000000 0.0145423 0.0791617 0.9854577 -0.0791617 0.9854577 -0.0791617 0.0145423 0.0791617
3586000000 0.0146715 0.0796962 0.9853285 -0.0796962 0.9853285 -0.0796962 0.0146715 0.0796962
3607000000 0.0148015 0.0802317 0.9851985 -0.0802317 0.9851985 -0.0802317 0.0148015 0.0802317
3628000000 0.0149323 0.0807684 0.9850677 -0.0807684 0.9850677 -0.0807684 0.0149323 0.0807684
3649000000 0.0150638 0.0813062 0.9849362 -0.0813062 0.9849362 -0.0813062 0.0150638 0.0813062
3670000000 0.0151962 0.0818451 0.9848038 -0.0818451 0.9848038 -0.0818451 0.0151962 0.0818451
3691000000 0.0153294 0.0823853 0.9846706 -0.0823853 0.9846706 -0.0823853 0.0153294 0.0823853
3712000000 0.0154634 0.0829266 0.9845366 -0.0829266 0.9845366 -0.0829266 0.0154634 0.0829266
3733000000 0.0155983 0.0834692 0.9844017 -0.0834692 0.9844017 -0.0834692 0.0155983 0.0834692
3754000000 0.0157340 0.0840131 0.9842660 -0.0840131 0.9842660 -0.0840131 0.0157340 0.0840131
3775000000 0.0158705 0.0845583 0.9841295 -0.0845583 0.9841295 -0.0845583 0.0158705 0.0845583
3796000000 0.0160079 0.0851049 0.9839921 -0.0851049 0.9839921 -0.0851049 0.0160079 0.0851049
3817000000 0.0161462 0.0856528 0.9838538 -0.0856528 0.9838538 -0.0856528 0.0161462 0.0856528
3838000000 0.0162853 0.0862021 0.9837147 -0.0862021 0.9837147 -0.0862021 0.0162853 0.0862021
3859000000 0.0164254 0.0867528 0.9835746 -0.0867528 0.9835746 -0.0867528 0.0164254 0.0867528
3880000000 0.0165664 0.0873050 0.9834336 -0.0873050 0.9834336 -0.0873050 0.0165664 0.0873050
3901000000 0.0167082 0.0878587 0.9832918 -0.0878587 0.9832918 -0.0878587 0.0167082 0.0878587
3922000000 0.0168511 0.0884139 0.9831489 -0.0884139 0.9831489 -0.0884139 0.0168511 0.0884139
3943000000 0.0169948 0.0889706 0.9830052 -0.0889706 0.9830052 -0.0889706 0.0169948 0.0889706
3964000000 0.0171395 0.0895289 0.9828605 -0.0895289 0.9828605 -0.0895289 0.0171395 0.0895289
3985000000 0.0172852 0.0900888 0.9827148 -0.0900888 0.9827148 -0.0900888 0.0172852 0.0900888
4006000000 0.0174319 0.0906504 0.9825681 -0.0906504 0.9825681 -0.0906504 0.0174319 0.0906504
4027000000 0.0175796 0.0912136 0.9824204 -0.0912136 0.9824204 -0.0912136 0.0175796 0.0912136
4048000000 0.0177283 0.0917785 0.9822717 -0.0917785 0.9822717 -0.0917785 0.0177283 0.0917785
4069000000 0.0178780 0.0923451 0.9821220 -0.0923451 0.9821220 -0.0923451 0.0178780 0.0923451
4090000000 0.0180288 0.0929135 0.9819712 -0.0929135 0.9819712 -0.0929135 0.0180288 0.0929135
4111000000 0.0181806 0.0934836 0.9818194 -0.0934836 0.9818194 -0.0934836 0.0181806 0.0934836
4132000000 0.0183335 0.0940556 0.9816665 -0.0940556 0.9816665 -0.0940556 0.0183335 0.0940556
4153000000 0.0184875 0.0946294 0.9815125 -0.0946294 0.9815125 -0.0946294 0.0184875 0.0946294
4174000000 0.0186426 0.0952050 0.9813574 -0.0952050 0.9813574 -0.0952050 0.0186426 0.0952050
4195000000 0.0187989 0.0957826 0.9812011 -0.0957826 0.9812011 -0.0957826 0.0187989 0.0957826
4216000000 0.0189563 0.0963621 0.9810437 -0.0963621 0.9810437 -0.0963621 0.0189563 0.0963621
4237000000 0.0191148 0.0969436 0.9808852 -0.0969436 0.9808852 -0.0969436 0.0191148 0.0969436
4258000000 0.0192746 0.0975271 0.9807254 -0.0975271 0.9807254 -0.0975271 0.0192746 0.0975271
4279000000 0.0194356 0.0981126 0.9805644 -0.0981126 0.9805644 -0.0981126 0.0194356 0.0981126
4300000000 0.0195977 0.0987001 0.9804023 -0.0987001 0.9804023 -0.0987001 0.0195977 0.0987001
4321000000 0.0197612 0.0992898 0.9802388 -0.0992898 0.9802388 -0.0992898 0.0197612 0.0992898
4342000000 0.0199258 0.0998816 0.9800742 -0.0998816 0.9800742 -0.0998816 0.0199258 0.0998816
4363000000 0.0200918 0.1004755 0.9799082 -0.1004755 0.9799082 -0.1004755 0.0200918 0.1004755
4384000000 0.0202591 0.1010716 0.9797409 -0.1010716 0.9797409 -0.1010716 0.0202591 0.1010716
4405000000 0.0204277 0.1016699 0.9795723 -0.1016699 0.9795723 -0.1016699 0.0204277 0.1016699
4426000000 0.0205977 0.1022705 0.9794023 -0.1022705 0.9794023 -0.1022705 0.0205977 0.1022705
4447000000 0.0207690 0.1028734 0.9792310 -0.1028734 0.9792310 -0.1028734 0.0207690 0.1028734
4468000000 0.0209417 0.1034785 0.9790583 -0.1034785 0.9790583 -0.1034785 0.0209417 0.1034785
4489000000 0.0211159 0.1040861 0.9788841 -0.1040861 0.9788841 -0.1040861 0.0211159 0.1040861
4510000000 0.0212915 0.1046960 0.9787085 -0.1046960 0.9787085 -0.1046960 0.0212915 0.1046960
