!Murata Part Number: GRM1552C1H8R5DA01
!These Parameters are Measured in Series Mode Connection
!Data Generated on Mar 30, 2021
!       o--ll--o
!Port1            Port2
!       o------o
!Operation Temp=25[degC], DC Bias Voltage=0[V]
!Freq. Start=100[MHz] Stop=9[GHz] 401[Steps]
# Hz S RI R 50
!Freq.(Hz) S11(Real) S11(Imag) S21(Real) S21(Imag) S12(Real) S12(Imag) S22(Real) S22(Imag)
100000000 0.7774474 -0.4154380 0.2225526 0.4154380 0.2225526 0.4154380 0.7774474 -0.4154380
121000000 0.7045054 -0.4556318 0.2954946 0.4556318 0.2954946 0.4556318 0.7045054 -0.4556318
142000000 0.6336391 -0.4810655 0.3663609 0.4810655 0.3663609 0.4810655 0.6336391 -0.4810655
163000000 0.5673282 -0.4945900 0.4326718 0.4945900 0.4326718 0.4945900 0.5673282 -0.4945900
184000000 0.5068464 -0.4989843 0.4931536 0.4989843 0.4931536 0.4989843 0.5068464 -0.4989843
205000000 0.4526165 -0.4966673 0.5473835 0.4966673 0.5473835 0.4966673 0.4526165 -0.4966673
226000000 0.4045263 -0.4896031 0.5954737 0.4896031 0.5954737 0.4896031 0.4045263 -0.4896031
247000000 0.3621659 -0.4793138 0.6378341 0.4793138 0.6378341 0.4793138 0.3621659 -0.4793138
268000000 0.3249878 -0.4669409 0.6750122 0.4669409 0.6750122 0.4669409 0.3249878 -0.4669409
289000000 0.2924048 -0.4533198 0.7075952 0.4533198 0.7075952 0.4533198 0.2924048 -0.4533198
310000000 0.2638459 -0.4390498 0.7361541 0.4390498 0.7361541 0.4390498 0.2638459 -0.4390498
331000000 0.2387845 -0.4245529 0.7612155 0.4245529 0.7612155 0.4245529 0.2387845 -0.4245529
352000000 0.2167500 -0.4101204 0.7832500 0.4101204 0.7832500 0.4101204 0.2167500 -0.4101204
373000000 0.1973302 -0.3959490 0.8026698 0.3959490 0.8026698 0.3959490 0.1973302 -0.3959490
394000000 0.1801681 -0.3821669 0.8198319 0.3821669 0.8198319 0.3821669 0.1801681 -0.3821669
415000000 0.1649572 -0.3688535 0.8350428 0.3688535 0.8350428 0.3688535 0.1649572 -0.3688535
436000000 0.1514351 -0.3560542 0.8485649 0.3560542 0.8485649 0.3560542 0.1514351 -0.3560542
457000000 0.1393776 -0.3437900 0.8606224 0.3437900 0.8606224 0.3437900 0.1393776 -0.3437900
478000000 0.1285937 -0.3320655 0.8714063 0.3320655 0.8714063 0.3320655 0.1285937 -0.3320655
499000000 0.1189202 -0.3208739 0.8810798 0.3208739 0.8810798 0.3208739 0.1189202 -0.3208739
520000000 0.1102174 -0.3102011 0.8897826 0.3102011 0.8897826 0.3102011 0.1102174 -0.3102011
541000000 0.1023658 -0.3000281 0.8976342 0.3000281 0.8976342 0.3000281 0.1023658 -0.3000281
562000000 0.0952629 -0.2903331 0.9047371 0.2903331 0.9047371 0.2903331 0.0952629 -0.2903331
583000000 0.0888203 -0.2810931 0.9111797 0.2810931 0.9111797 0.2810931 0.0888203 -0.2810931
604000000 0.0829619 -0.2722841 0.9170381 0.2722841 0.9170381 0.2722841 0.0829619 -0.2722841
625000000 0.0776217 -0.2638826 0.9223783 0.2638826 0.9223783 0.2638826 0.0776217 -0.2638826
646000000 0.0727426 -0.2558654 0.9272574 0.2558654 0.9272574 0.2558654 0.0727426 -0.2558654
667000000 0.0682748 -0.2482104 0.9317252 0.2482104 0.9317252 0.2482104 0.0682748 -0.2482104
688000000 0.0641748 -0.2408961 0.9358252 0.2408961 0.9358252 0.2408961 0.0641748 -0.2408961
709000000 0.0604049 -0.2339024 0.9395951 0.2339024 0.9395951 0.2339024 0.0604049 -0.2339024
730000000 0.0569315 -0.2272103 0.9430685 0.2272103 0.9430685 0.2272103 0.0569315 -0.2272103
751000000 0.0537253 -0.2208017 0.9462747 0.2208017 0.9462747 0.2208017 0.0537253 -0.2208017
772000000 0.0507607 -0.2146598 0.9492393 0.2146598 0.9492393 0.2146598 0.0507607 -0.2146598
793000000 0.0480146 -0.2087689 0.9519854 0.2087689 0.9519854 0.2087689 0.0480146 -0.2087689
814000000 0.0454668 -0.2031143 0.9545332 0.2031143 0.9545332 0.2031143 0.0454668 -0.2031143
835000000 0.0430992 -0.1976822 0.9569008 0.1976822 0.9569008 0.1976822 0.0430992 -0.1976822
856000000 0.0408960 -0.1924597 0.9591040 0.1924597 0.9591040 0.1924597 0.0408960 -0.1924597
877000000 0.0388427 -0.1874350 0.9611573 0.1874350 0.9611573 0.1874350 0.0388427 -0.1874350
898000000 0.0369265 -0.1825967 0.9630735 0.1825967 0.9630735 0.1825967 0.0369265 -0.1825967
919000000 0.0351359 -0.1779346 0.9648641 0.1779346 0.9648641 0.1779346 0.0351359 -0.1779346
940000000 0.0334606 -0.1734388 0.9665394 0.1734388 0.9665394 0.1734388 0.0334606 -0.1734388
961000000 0.0318914 -0.1691004 0.9681086 0.1691004 0.9681086 0.1691004 0.0318914 -0.1691004
982000000 0.0304197 -0.1649108 0.9695803 0.1649108 0.9695803 0.1649108 0.0304197 -0.1649108
1003000000 0.0290381 -0.1608621 0.9709619 0.1608621 0.9709619 0.1608621 0.0290381 -0.1608621
1024000000 0.0277397 -0.1569470 0.9722603 0.1569470 0.9722603 0.1569470 0.0277397 -0.1569470
1045000000 0.0265182 -0.1531585 0.9734818 0.1531585 0.9734818 0.1531585 0.0265182 -0.1531585
1066000000 0.0253681 -0.1494902 0.9746319 0.1494902 0.9746319 0.1494902 0.0253681 -0.1494902
1087000000 0.0242840 -0.1459360 0.9757160 0.1459360 0.9757160 0.1459360 0.0242840 -0.1459360
1108000000 0.0232614 -0.1424902 0.9767386 0.1424902 0.9767386 0.1424902 0.0232614 -0.1424902
1129000000 0.0222959 -0.1391476 0.9777041 0.1391476 0.9777041 0.1391476 0.0222959 -0.1391476
1150000000 0.0213837 -0.1359030 0.9786163 0.1359030 0.9786163 0.1359030 0.0213837 -0.1359030
1171000000 0.0205211 -0.1327519 0.9794789 0.1327519 0.9794789 0.1327519 0.0205211 -0.1327519
1192000000 0.0197049 -0.1296899 0.9802951 0.1296899 0.9802951 0.1296899 0.0197049 -0.1296899
1213000000 0.0189320 -0.1267127 0.9810680 0.1267127 0.9810680 0.1267127 0.0189320 -0.1267127
1234000000 0.0181996 -0.1238166 0.9818004 0.1238166 0.9818004 0.1238166 0.0181996 -0.1238166
1255000000 0.0175052 -0.1209977 0.9824948 0.1209977 0.9824948 0.1209977 0.0175052 -0.1209977
1276000000 0.0168463 -0.1182528 0.9831537 0.1182528 0.9831537 0.1182528 0.0168463 -0.1182528
1297000000 0.0162209 -0.1155784 0.9837791 0.1155784 0.9837791 0.1155784 0.0162209 -0.1155784
1318000000 0.0156269 -0.1129717 0.9843731 0.1129717 0.9843731 0.1129717 0.0156269 -0.1129717
1339000000 0.0150625 -0.1104295 0.9849375 0.1104295 0.9849375 0.1104295 0.0150625 -0.1104295
1360000000 0.0145258 -0.1079493 0.9854742 0.1079493 0.9854742 0.1079493 0.0145258 -0.1079493
1381000000 0.0140154 -0.1055283 0.9859846 0.1055283 0.9859846 0.1055283 0.0140154 -0.1055283
1402000000 0.0135296 -0.1031643 0.9864704 0.1031643 0.9864704 0.1031643 0.0135296 -0.1031643
1423000000 0.0130672 -0.1008547 0.9869328 0.1008547 0.9869328 0.1008547 0.0130672 -0.1008547
1444000000 0.0126268 -0.0985975 0.9873732 0.0985975 0.9873732 0.0985975 0.0126268 -0.0985975
1465000000 0.0122072 -0.0963905 0.9877928 0.0963905 0.9877928 0.0963905 0.0122072 -0.0963905
1486000000 0.0118073 -0.0942318 0.9881927 0.0942318 0.9881927 0.0942318 0.0118073 -0.0942318
1507000000 0.0114261 -0.0921195 0.9885739 0.0921195 0.9885739 0.0921195 0.0114261 -0.0921195
1528000000 0.0110626 -0.0900518 0.9889374 0.0900518 0.9889374 0.0900518 0.0110626 -0.0900518
1549000000 0.0107159 -0.0880270 0.9892841 0.0880270 0.9892841 0.0880270 0.0107159 -0.0880270
1570000000 0.0103850 -0.0860435 0.9896150 0.0860435 0.9896150 0.0860435 0.0103850 -0.0860435
1591000000 0.0100693 -0.0840998 0.9899307 0.0840998 0.9899307 0.0840998 0.0100693 -0.0840998
1612000000 0.0097680 -0.0821944 0.9902320 0.0821944 0.9902320 0.0821944 0.0097680 -0.0821944
1633000000 0.0094804 -0.0803259 0.9905196 0.0803259 0.9905196 0.0803259 0.0094804 -0.0803259
1654000000 0.0092057 -0.0784930 0.9907943 0.0784930 0.9907943 0.0784930 0.0092057 -0.0784930
1675000000 0.0089434 -0.0766945 0.9910566 0.0766945 0.9910566 0.0766945 0.0089434 -0.0766945
1696000000 0.0086929 -0.0749291 0.9913071 0.0749291 0.9913071 0.0749291 0.0086929 -0.0749291
1717000000 0.0084537 -0.0731956 0.9915463 0.0731956 0.9915463 0.0731956 0.0084537 -0.0731956
1738000000 0.0082252 -0.0714931 0.9917748 0.0714931 0.9917748 0.0714931 0.0082252 -0.0714931
1759000000 0.0080070 -0.0698204 0.9919930 0.0698204 0.9919930 0.0698204 0.0080070 -0.0698204
1780000000 0.0077985 -0.0681765 0.9922015 0.0681765 0.9922015 0.0681765 0.0077985 -0.0681765
1801000000 0.0075994 -0.0665605 0.9924006 0.0665605 0.9924006 0.0665605 0.0075994 -0.0665605
1822000000 0.0074093 -0.0649715 0.9925907 0.0649715 0.9925907 0.0649715 0.0074093 -0.0649715
1843000000 0.0072277 -0.0634085 0.9927723 0.0634085 0.9927723 0.0634085 0.0072277 -0.0634085
1864000000 0.0070543 -0.0618708 0.9929457 0.0618708 0.9929457 0.0618708 0.0070543 -0.0618708
1885000000 0.0068887 -0.0603575 0.9931113 0.0603575 0.9931113 0.0603575 0.0068887 -0.0603575
1906000000 0.0067306 -0.0588679 0.9932694 0.0588679 0.9932694 0.0588679 0.0067306 -0.0588679
1927000000 0.0065798 -0.0574012 0.9934202 0.0574012 0.9934202 0.0574012 0.0065798 -0.0574012
1948000000 0.0064359 -0.0559567 0.9935641 0.0559567 0.9935641 0.0559567 0.0064359 -0.0559567
1969000000 0.0062986 -0.0545337 0.9937014 0.0545337 0.9937014 0.0545337 0.0062986 -0.0545337
1990000000 0.0061676 -0.0531316 0.9938324 0.0531316 0.9938324 0.0531316 0.0061676 -0.0531316
2011000000 0.0060428 -0.0517498 0.9939572 0.0517498 0.9939572 0.0517498 0.0060428 -0.0517498
2032000000 0.0059239 -0.0503876 0.9940761 0.0503876 0.9940761 0.0503876 0.0059239 -0.0503876
2053000000 0.0058106 -0.0490445 0.9941894 0.0490445 0.9941894 0.0490445 0.0058106 -0.0490445
2074000000 0.0057028 -0.0477199 0.9942972 0.0477199 0.9942972 0.0477199 0.0057028 -0.0477199
2095000000 0.0056002 -0.0464133 0.9943998 0.0464133 0.9943998 0.0464133 0.0056002 -0.0464133
2116000000 0.0055027 -0.0451241 0.9944973 0.0451241 0.9944973 0.0451241 0.0055027 -0.0451241
2137000000 0.0054100 -0.0438518 0.9945900 0.0438518 0.9945900 0.0438518 0.0054100 -0.0438518
2158000000 0.0053219 -0.0425961 0.9946781 0.0425961 0.9946781 0.0425961 0.0053219 -0.0425961
2179000000 0.0052384 -0.0413563 0.9947616 0.0413563 0.9947616 0.0413563 0.0052384 -0.0413563
2200000000 0.0051593 -0.0401322 0.9948407 0.0401322 0.9948407 0.0401322 0.0051593 -0.0401322
2221000000 0.0050843 -0.0389231 0.9949157 0.0389231 0.9949157 0.0389231 0.0050843 -0.0389231
2242000000 0.0050134 -0.0377288 0.9949866 0.0377288 0.9949866 0.0377288 0.0050134 -0.0377288
2263000000 0.0049464 -0.0365488 0.9950536 0.0365488 0.9950536 0.0365488 0.0049464 -0.0365488
2284000000 0.0048832 -0.0353828 0.9951168 0.0353828 0.9951168 0.0353828 0.0048832 -0.0353828
2305000000 0.0048236 -0.0342303 0.9951764 0.0342303 0.9951764 0.0342303 0.0048236 -0.0342303
2326000000 0.0047676 -0.0330911 0.9952324 0.0330911 0.9952324 0.0330911 0.0047676 -0.0330911
2347000000 0.0047150 -0.0319647 0.9952850 0.0319647 0.9952850 0.0319647 0.0047150 -0.0319647
2368000000 0.0046657 -0.0308508 0.9953343 0.0308508 0.9953343 0.0308508 0.0046657 -0.0308508
2389000000 0.0046196 -0.0297492 0.9953804 0.0297492 0.9953804 0.0297492 0.0046196 -0.0297492
2410000000 0.0045766 -0.0286594 0.9954234 0.0286594 0.9954234 0.0286594 0.0045766 -0.0286594
2431000000 0.0045366 -0.0275812 0.9954634 0.0275812 0.9954634 0.0275812 0.0045366 -0.0275812
2452000000 0.0044995 -0.0265143 0.9955005 0.0265143 0.9955005 0.0265143 0.0044995 -0.0265143
2473000000 0.0044652 -0.0254585 0.9955348 0.0254585 0.9955348 0.0254585 0.0044652 -0.0254585
2494000000 0.0044337 -0.0244134 0.9955663 0.0244134 0.9955663 0.0244134 0.0044337 -0.0244134
2515000000 0.0044048 -0.0233787 0.9955952 0.0233787 0.9955952 0.0233787 0.0044048 -0.0233787
2536000000 0.0043785 -0.0223543 0.9956215 0.0223543 0.9956215 0.0223543 0.0043785 -0.0223543
2557000000 0.0043547 -0.0213398 0.9956453 0.0213398 0.9956453 0.0213398 0.0043547 -0.0213398
2578000000 0.0043334 -0.0203351 0.9956666 0.0203351 0.9956666 0.0203351 0.0043334 -0.0203351
2599000000 0.0043144 -0.0193399 0.9956856 0.0193399 0.9956856 0.0193399 0.0043144 -0.0193399
2620000000 0.0042977 -0.0183539 0.9957023 0.0183539 0.9957023 0.0183539 0.0042977 -0.0183539
2641000000 0.0042832 -0.0173769 0.9957168 0.0173769 0.9957168 0.0173769 0.0042832 -0.0173769
2662000000 0.0042709 -0.0164088 0.9957291 0.0164088 0.9957291 0.0164088 0.0042709 -0.0164088
2683000000 0.0042608 -0.0154494 0.9957392 0.0154494 0.9957392 0.0154494 0.0042608 -0.0154494
2704000000 0.0042527 -0.0144983 0.9957473 0.0144983 0.9957473 0.0144983 0.0042527 -0.0144983
2725000000 0.0042466 -0.0135555 0.9957534 0.0135555 0.9957534 0.0135555 0.0042466 -0.0135555
2746000000 0.0042424 -0.0126207 0.9957576 0.0126207 0.9957576 0.0126207 0.0042424 -0.0126207
2767000000 0.0042402 -0.0116938 0.9957598 0.0116938 0.9957598 0.0116938 0.0042402 -0.0116938
2788000000 0.0042398 -0.0107745 0.9957602 0.0107745 0.9957602 0.0107745 0.0042398 -0.0107745
2809000000 0.0042413 -0.0098628 0.9957587 0.0098628 0.9957587 0.0098628 0.0042413 -0.0098628
2830000000 0.0042445 -0.0089583 0.9957555 0.0089583 0.9957555 0.0089583 0.0042445 -0.0089583
2851000000 0.0042495 -0.0080611 0.9957505 0.0080611 0.9957505 0.0080611 0.0042495 -0.0080611
2872000000 0.0042561 -0.0071709 0.9957439 0.0071709 0.9957439 0.0071709 0.0042561 -0.0071709
2893000000 0.0042644 -0.0062875 0.9957356 0.0062875 0.9957356 0.0062875 0.0042644 -0.0062875
2914000000 0.0042743 -0.0054108 0.9957257 0.0054108 0.9957257 0.0054108 0.0042743 -0.0054108
2935000000 0.0042858 -0.0045407 0.9957142 0.0045407 0.9957142 0.0045407 0.0042858 -0.0045407
2956000000 0.0042989 -0.0036770 0.9957011 0.0036770 0.9957011 0.0036770 0.0042989 -0.0036770
2977000000 0.0043134 -0.0028195 0.9956866 0.0028195 0.9956866 0.0028195 0.0043134 -0.0028195
2998000000 0.0043295 -0.0019682 0.9956705 0.0019682 0.9956705 0.0019682 0.0043295 -0.0019682
3019000000 0.0043469 -0.0011229 0.9956531 0.0011229 0.9956531 0.0011229 0.0043469 -0.0011229
3040000000 0.0043659 -0.0002835 0.9956341 0.0002835 0.9956341 0.0002835 0.0043659 -0.0002835
3061000000 0.0043862 0.0005501 0.9956138 -0.0005501 0.9956138 -0.0005501 0.0043862 0.0005501
3082000000 0.0044078 0.0013781 0.9955922 -0.0013781 0.9955922 -0.0013781 0.0044078 0.0013781
3103000000 0.0044309 0.0022007 0.9955691 -0.0022007 0.9955691 -0.0022007 0.0044309 0.0022007
3124000000 0.0044552 0.0030178 0.9955448 -0.0030178 0.9955448 -0.0030178 0.0044552 0.0030178
3145000000 0.0044808 0.0038296 0.9955192 -0.0038296 0.9955192 -0.0038296 0.0044808 0.0038296
3166000000 0.0045077 0.0046363 0.9954923 -0.0046363 0.9954923 -0.0046363 0.0045077 0.0046363
3187000000 0.0045359 0.0054379 0.9954641 -0.0054379 0.9954641 -0.0054379 0.0045359 0.0054379
3208000000 0.0045653 0.0062345 0.9954347 -0.0062345 0.9954347 -0.0062345 0.0045653 0.0062345
3229000000 0.0045959 0.0070263 0.9954041 -0.0070263 0.9954041 -0.0070263 0.0045959 0.0070263
3250000000 0.0046277 0.0078133 0.9953723 -0.0078133 0.9953723 -0.0078133 0.0046277 0.0078133
3271000000 0.0046607 0.0085956 0.9953393 -0.0085956 0.9953393 -0.0085956 0.0046607 0.0085956
3292000000 0.0046948 0.0093734 0.9953052 -0.0093734 0.9953052 -0.0093734 0.0046948 0.0093734
3313000000 0.0047301 0.0101468 0.9952699 -0.0101468 0.9952699 -0.0101468 0.0047301 0.0101468
3334000000 0.0047665 0.0109157 0.9952335 -0.0109157 0.9952335 -0.0109157 0.0047665 0.0109157
3355000000 0.0048040 0.0116804 0.9951960 -0.0116804 0.9951960 -0.0116804 0.0048040 0.0116804
3376000000 0.0048426 0.0124408 0.9951574 -0.0124408 0.9951574 -0.0124408 0.0048426 0.0124408
3397000000 0.0048823 0.0131971 0.9951177 -0.0131971 0.9951177 -0.0131971 0.0048823 0.0131971
3418000000 0.0049231 0.0139494 0.9950769 -0.0139494 0.9950769 -0.0139494 0.0049231 0.0139494
3439000000 0.0049649 0.0146978 0.9950351 -0.0146978 0.9950351 -0.0146978 0.0049649 0.0146978
3460000000 0.0050078 0.0154423 0.9949922 -0.0154423 0.9949922 -0.0154423 0.0050078 0.0154423
3481000000 0.0050517 0.0161829 0.9949483 -0.0161829 0.9949483 -0.0161829 0.0050517 0.0161829
3502000000 0.0050966 0.0169199 0.9949034 -0.0169199 0.9949034 -0.0169199 0.0050966 0.0169199
3523000000 0.0051426 0.0176532 0.9948574 -0.0176532 0.9948574 -0.0176532 0.0051426 0.0176532
3544000000 0.0051896 0.0183829 0.9948104 -0.0183829 0.9948104 -0.0183829 0.0051896 0.0183829
3565000000 0.0052375 0.0191092 0.9947625 -0.0191092 0.9947625 -0.0191092 0.0052375 0.0191092
3586000000 0.0052865 0.0198320 0.9947135 -0.0198320 0.9947135 -0.0198320 0.0052865 0.0198320
3607000000 0.0053364 0.0205514 0.9946636 -0.0205514 0.9946636 -0.0205514 0.0053364 0.0205514
3628000000 0.0053874 0.0212676 0.9946126 -0.0212676 0.9946126 -0.0212676 0.0053874 0.0212676
3649000000 0.0054393 0.0219805 0.9945607 -0.0219805 0.9945607 -0.0219805 0.0054393 0.0219805
3670000000 0.0054922 0.0226903 0.9945078 -0.0226903 0.9945078 -0.0226903 0.0054922 0.0226903
3691000000 0.0055460 0.0233969 0.9944540 -0.0233969 0.9944540 -0.0233969 0.0055460 0.0233969
3712000000 0.0056008 0.0241005 0.9943992 -0.0241005 0.9943992 -0.0241005 0.0056008 0.0241005
3733000000 0.0056566 0.0248012 0.9943434 -0.0248012 0.9943434 -0.0248012 0.0056566 0.0248012
3754000000 0.0057133 0.0254989 0.9942867 -0.0254989 0.9942867 -0.0254989 0.0057133 0.0254989
3775000000 0.0057710 0.0261938 0.9942290 -0.0261938 0.9942290 -0.0261938 0.0057710 0.0261938
3796000000 0.0058296 0.0268859 0.9941704 -0.0268859 0.9941704 -0.0268859 0.0058296 0.0268859
3817000000 0.0058892 0.0275753 0.9941108 -0.0275753 0.9941108 -0.0275753 0.0058892 0.0275753
3838000000 0.0059497 0.0282619 0.9940503 -0.0282619 0.9940503 -0.0282619 0.0059497 0.0282619
3859000000 0.0060112 0.0289460 0.9939888 -0.0289460 0.9939888 -0.0289460 0.0060112 0.0289460
3880000000 0.0060736 0.0296274 0.9939264 -0.0296274 0.9939264 -0.0296274 0.0060736 0.0296274
3901000000 0.0061370 0.0303064 0.9938630 -0.0303064 0.9938630 -0.0303064 0.0061370 0.0303064
3922000000 0.0062014 0.0309829 0.9937986 -0.0309829 0.9937986 -0.0309829 0.0062014 0.0309829
3943000000 0.0062667 0.0316569 0.9937333 -0.0316569 0.9937333 -0.0316569 0.0062667 0.0316569
3964000000 0.0063329 0.0323286 0.9936671 -0.0323286 0.9936671 -0.0323286 0.0063329 0.0323286
3985000000 0.0064001 0.0329980 0.9935999 -0.0329980 0.9935999 -0.0329980 0.0064001 0.0329980
4006000000 0.0064683 0.0336651 0.9935317 -0.0336651 0.9935317 -0.0336651 0.0064683 0.0336651
4027000000 0.0065375 0.0343300 0.9934625 -0.0343300 0.9934625 -0.0343300 0.0065375 0.0343300
4048000000 0.0066077 0.0349928 0.9933923 -0.0349928 0.9933923 -0.0349928 0.0066077 0.0349928
4069000000 0.0066788 0.0356534 0.9933212 -0.0356534 0.9933212 -0.0356534 0.0066788 0.0356534
4090000000 0.0067509 0.0363119 0.9932491 -0.0363119 0.9932491 -0.0363119 0.0067509 0.0363119
4111000000 0.0068241 0.0369684 0.9931759 -0.0369684 0.9931759 -0.0369684 0.0068241 0.0369684
4132000000 0.0068982 0.0376230 0.9931018 -0.0376230 0.9931018 -0.0376230 0.0068982 0.0376230
4153000000 0.0069734 0.0382755 0.9930266 -0.0382755 0.9930266 -0.0382755 0.0069734 0.0382755
4174000000 0.0070497 0.0389262 0.9929503 -0.0389262 0.9929503 -0.0389262 0.0070497 0.0389262
4195000000 0.0071269 0.0395751 0.9928731 -0.0395751 0.9928731 -0.0395751 0.0071269 0.0395751
4216000000 0.0072053 0.0402221 0.9927947 -0.0402221 0.9927947 -0.0402221 0.0072053 0.0402221
4237000000 0.0072847 0.0408674 0.9927153 -0.0408674 0.9927153 -0.0408674 0.0072847 0.0408674
4258000000 0.0073652 0.0415110 0.9926348 -0.0415110 0.9926348 -0.0415110 0.0073652 0.0415110
4279000000 0.0074468 0.0421529 0.9925532 -0.0421529 0.9925532 -0.0421529 0.0074468 0.0421529
4300000000 0.0075295 0.0427931 0.9924705 -0.0427931 0.9924705 -0.0427931 0.0075295 0.0427931
4321000000 0.0076134 0.0434318 0.9923866 -0.0434318 0.9923866 -0.0434318 0.0076134 0.0434318
4342000000 0.0076984 0.0440689 0.9923016 -0.0440689 0.9923016 -0.0440689 0.0076984 0.0440689
4363000000 0.0077846 0.0447045 0.9922154 -0.0447045 0.9922154 -0.0447045 0.0077846 0.0447045
4384000000 0.0078721 0.0453386 0.9921279 -0.0453386 0.9921279 -0.0453386 0.0078721 0.0453386
4405000000 0.0079607 0.0459713 0.9920393 -0.0459713 0.9920393 -0.0459713 0.0079607 0.0459713
4426000000 0.0080506 0.0466026 0.9919494 -0.0466026 0.9919494 -0.0466026 0.0080506 0.0466026
4447000000 0.0081419 0.0472325 0.9918581 -0.0472325 0.9918581 -0.0472325 0.0081419 0.0472325
4468000000 0.0082344 0.0478611 0.9917656 -0.0478611 0.9917656 -0.0478611 0.0082344 0.0478611
4489000000 0.0083283 0.0484884 0.9916717 -0.0484884 0.9916717 -0.0484884 0.0083283 0.0484884
4510000000 0.0084235 0.0491145 0.9915765 -0.0491145 0.9915765 -0.0491145 0.0084235 0.0491145
