!Murata Part Number: GRM1552C2A5R9WA01
!These Parameters are Measured in Series Mode Connection
!Data Generated on Mar 30, 2021
!       o--ll--o
!Port1            Port2
!       o------o
!Operation Temp=25[degC], DC Bias Voltage=0[V]
!Freq. Start=100[MHz] Stop=9[GHz] 401[Steps]
# Hz S RI R 50
!Freq.(Hz) S11(Real) S11(Imag) S21(Real) S21(Imag) S12(Real) S12(Imag) S22(Real) S22(Imag)
100000000 0.8788269 -0.3259383 0.1211731 0.3259383 0.1211731 0.3259383 0.8788269 -0.3259383
121000000 0.8319574 -0.3734318 0.1680426 0.3734318 0.1680426 0.3734318 0.8319574 -0.3734318
142000000 0.7822487 -0.4121624 0.2177513 0.4121624 0.2177513 0.4121624 0.7822487 -0.4121624
163000000 0.7314899 -0.4425464 0.2685101 0.4425464 0.2685101 0.4425464 0.7314899 -0.4425464
184000000 0.6811234 -0.4653198 0.3188766 0.4653198 0.3188766 0.4653198 0.6811234 -0.4653198
205000000 0.6322308 -0.4813930 0.3677692 0.4813930 0.3677692 0.4813930 0.6322308 -0.4813930
226000000 0.5855625 -0.4917352 0.4144375 0.4917352 0.4144375 0.4917352 0.5855625 -0.4917352
247000000 0.5415886 -0.4972932 0.4584114 0.4972932 0.4584114 0.4972932 0.5415886 -0.4972932
268000000 0.5005579 -0.4989401 0.4994421 0.4989401 0.4994421 0.4989401 0.5005579 -0.4989401
289000000 0.4625540 -0.4974502 0.5374460 0.4974502 0.5374460 0.4974502 0.4625540 -0.4974502
310000000 0.4275439 -0.4934899 0.5724561 0.4934899 0.5724561 0.4934899 0.4275439 -0.4934899
331000000 0.3954166 -0.4876202 0.6045834 0.4876202 0.6045834 0.4876202 0.3954166 -0.4876202
352000000 0.3660131 -0.4803052 0.6339869 0.4803052 0.6339869 0.4803052 0.3660131 -0.4803052
373000000 0.3391481 -0.4719232 0.6608519 0.4719232 0.6608519 0.4719232 0.3391481 -0.4719232
394000000 0.3146256 -0.4627797 0.6853744 0.4627797 0.6853744 0.4627797 0.3146256 -0.4627797
415000000 0.2922491 -0.4531185 0.7077509 0.4531185 0.7077509 0.4531185 0.2922491 -0.4531185
436000000 0.2718283 -0.4431324 0.7281717 0.4431324 0.7281717 0.4431324 0.2718283 -0.4431324
457000000 0.2531833 -0.4329727 0.7468167 0.4329727 0.7468167 0.4329727 0.2531833 -0.4329727
478000000 0.2361469 -0.4227573 0.7638531 0.4227573 0.7638531 0.4227573 0.2361469 -0.4227573
499000000 0.2205651 -0.4125764 0.7794349 0.4125764 0.7794349 0.4125764 0.2205651 -0.4125764
520000000 0.2062975 -0.4024991 0.7937025 0.4024991 0.7937025 0.4024991 0.2062975 -0.4024991
541000000 0.1932171 -0.3925769 0.8067829 0.3925769 0.8067829 0.3925769 0.1932171 -0.3925769
562000000 0.1812091 -0.3828477 0.8187909 0.3828477 0.8187909 0.3828477 0.1812091 -0.3828477
583000000 0.1701701 -0.3733385 0.8298299 0.3733385 0.8298299 0.3733385 0.1701701 -0.3733385
604000000 0.1600077 -0.3640681 0.8399923 0.3640681 0.8399923 0.3640681 0.1600077 -0.3640681
625000000 0.1506385 -0.3550482 0.8493615 0.3550482 0.8493615 0.3550482 0.1506385 -0.3550482
646000000 0.1419882 -0.3462857 0.8580118 0.3462857 0.8580118 0.3462857 0.1419882 -0.3462857
667000000 0.1339900 -0.3377833 0.8660100 0.3377833 0.8660100 0.3377833 0.1339900 -0.3377833
688000000 0.1265842 -0.3295408 0.8734158 0.3295408 0.8734158 0.3295408 0.1265842 -0.3295408
709000000 0.1197171 -0.3215556 0.8802829 0.3215556 0.8802829 0.3215556 0.1197171 -0.3215556
730000000 0.1133407 -0.3138232 0.8866593 0.3138232 0.8866593 0.3138232 0.1133407 -0.3138232
751000000 0.1074119 -0.3063379 0.8925881 0.3063379 0.8925881 0.3063379 0.1074119 -0.3063379
772000000 0.1018919 -0.2990934 0.8981081 0.2990934 0.8981081 0.2990934 0.1018919 -0.2990934
793000000 0.0967457 -0.2920822 0.9032543 0.2920822 0.9032543 0.2920822 0.0967457 -0.2920822
814000000 0.0919420 -0.2852969 0.9080580 0.2852969 0.9080580 0.2852969 0.0919420 -0.2852969
835000000 0.0874523 -0.2787295 0.9125477 0.2787295 0.9125477 0.2787295 0.0874523 -0.2787295
856000000 0.0832512 -0.2723722 0.9167488 0.2723722 0.9167488 0.2723722 0.0832512 -0.2723722
877000000 0.0793155 -0.2662169 0.9206845 0.2662169 0.9206845 0.2662169 0.0793155 -0.2662169
898000000 0.0756243 -0.2602559 0.9243757 0.2602559 0.9243757 0.2602559 0.0756243 -0.2602559
919000000 0.0721584 -0.2544814 0.9278416 0.2544814 0.9278416 0.2544814 0.0721584 -0.2544814
940000000 0.0689008 -0.2488858 0.9310992 0.2488858 0.9310992 0.2488858 0.0689008 -0.2488858
961000000 0.0658357 -0.2434619 0.9341643 0.2434619 0.9341643 0.2434619 0.0658357 -0.2434619
982000000 0.0629488 -0.2382026 0.9370512 0.2382026 0.9370512 0.2382026 0.0629488 -0.2382026
1003000000 0.0602272 -0.2331011 0.9397728 0.2331011 0.9397728 0.2331011 0.0602272 -0.2331011
1024000000 0.0576589 -0.2281507 0.9423411 0.2281507 0.9423411 0.2281507 0.0576589 -0.2281507
1045000000 0.0552332 -0.2233452 0.9447668 0.2233452 0.9447668 0.2233452 0.0552332 -0.2233452
1066000000 0.0529401 -0.2186786 0.9470599 0.2186786 0.9470599 0.2186786 0.0529401 -0.2186786
1087000000 0.0507705 -0.2141451 0.9492295 0.2141451 0.9492295 0.2141451 0.0507705 -0.2141451
1108000000 0.0487160 -0.2097390 0.9512840 0.2097390 0.9512840 0.2097390 0.0487160 -0.2097390
1129000000 0.0467691 -0.2054553 0.9532309 0.2054553 0.9532309 0.2054553 0.0467691 -0.2054553
1150000000 0.0449225 -0.2012887 0.9550775 0.2012887 0.9550775 0.2012887 0.0449225 -0.2012887
1171000000 0.0431700 -0.1972346 0.9568300 0.1972346 0.9568300 0.1972346 0.0431700 -0.1972346
1192000000 0.0415054 -0.1932883 0.9584946 0.1932883 0.9584946 0.1932883 0.0415054 -0.1932883
1213000000 0.0399232 -0.1894455 0.9600768 0.1894455 0.9600768 0.1894455 0.0399232 -0.1894455
1234000000 0.0384185 -0.1857020 0.9615815 0.1857020 0.9615815 0.1857020 0.0384185 -0.1857020
1255000000 0.0369863 -0.1820538 0.9630137 0.1820538 0.9630137 0.1820538 0.0369863 -0.1820538
1276000000 0.0356224 -0.1784971 0.9643776 0.1784971 0.9643776 0.1784971 0.0356224 -0.1784971
1297000000 0.0343228 -0.1750284 0.9656772 0.1750284 0.9656772 0.1750284 0.0343228 -0.1750284
1318000000 0.0330836 -0.1716442 0.9669164 0.1716442 0.9669164 0.1716442 0.0330836 -0.1716442
1339000000 0.0319014 -0.1683413 0.9680986 0.1683413 0.9680986 0.1683413 0.0319014 -0.1683413
1360000000 0.0307730 -0.1651164 0.9692270 0.1651164 0.9692270 0.1651164 0.0307730 -0.1651164
1381000000 0.0296952 -0.1619667 0.9703048 0.1619667 0.9703048 0.1619667 0.0296952 -0.1619667
1402000000 0.0286654 -0.1588893 0.9713346 0.1588893 0.9713346 0.1588893 0.0286654 -0.1588893
1423000000 0.0276809 -0.1558815 0.9723191 0.1558815 0.9723191 0.1558815 0.0276809 -0.1558815
1444000000 0.0267393 -0.1529407 0.9732607 0.1529407 0.9732607 0.1529407 0.0267393 -0.1529407
1465000000 0.0258382 -0.1500645 0.9741618 0.1500645 0.9741618 0.1500645 0.0258382 -0.1500645
1486000000 0.0249756 -0.1472504 0.9750244 0.1472504 0.9750244 0.1472504 0.0249756 -0.1472504
1507000000 0.0241495 -0.1444963 0.9758505 0.1444963 0.9758505 0.1444963 0.0241495 -0.1444963
1528000000 0.0233579 -0.1418000 0.9766421 0.1418000 0.9766421 0.1418000 0.0233579 -0.1418000
1549000000 0.0225992 -0.1391595 0.9774008 0.1391595 0.9774008 0.1391595 0.0225992 -0.1391595
1570000000 0.0218717 -0.1365727 0.9781283 0.1365727 0.9781283 0.1365727 0.0218717 -0.1365727
1591000000 0.0211739 -0.1340379 0.9788261 0.1340379 0.9788261 0.1340379 0.0211739 -0.1340379
1612000000 0.0205043 -0.1315531 0.9794957 0.1315531 0.9794957 0.1315531 0.0205043 -0.1315531
1633000000 0.0198615 -0.1291168 0.9801385 0.1291168 0.9801385 0.1291168 0.0198615 -0.1291168
1654000000 0.0192443 -0.1267273 0.9807557 0.1267273 0.9807557 0.1267273 0.0192443 -0.1267273
1675000000 0.0186516 -0.1243830 0.9813484 0.1243830 0.9813484 0.1243830 0.0186516 -0.1243830
1696000000 0.0180820 -0.1220823 0.9819180 0.1220823 0.9819180 0.1220823 0.0180820 -0.1220823
1717000000 0.0175347 -0.1198239 0.9824653 0.1198239 0.9824653 0.1198239 0.0175347 -0.1198239
1738000000 0.0170086 -0.1176064 0.9829914 0.1176064 0.9829914 0.1176064 0.0170086 -0.1176064
1759000000 0.0165027 -0.1154284 0.9834973 0.1154284 0.9834973 0.1154284 0.0165027 -0.1154284
1780000000 0.0160161 -0.1132886 0.9839839 0.1132886 0.9839839 0.1132886 0.0160161 -0.1132886
1801000000 0.0155481 -0.1111860 0.9844519 0.1111860 0.9844519 0.1111860 0.0155481 -0.1111860
1822000000 0.0150977 -0.1091192 0.9849023 0.1091192 0.9849023 0.1091192 0.0150977 -0.1091192
1843000000 0.0146643 -0.1070871 0.9853357 0.1070871 0.9853357 0.1070871 0.0146643 -0.1070871
1864000000 0.0142471 -0.1050888 0.9857529 0.1050888 0.9857529 0.1050888 0.0142471 -0.1050888
1885000000 0.0138454 -0.1031230 0.9861546 0.1031230 0.9861546 0.1031230 0.0138454 -0.1031230
1906000000 0.0134587 -0.1011889 0.9865413 0.1011889 0.9865413 0.1011889 0.0134587 -0.1011889
1927000000 0.0130863 -0.0992855 0.9869137 0.0992855 0.9869137 0.0992855 0.0130863 -0.0992855
1948000000 0.0127276 -0.0974119 0.9872724 0.0974119 0.9872724 0.0974119 0.0127276 -0.0974119
1969000000 0.0123820 -0.0955671 0.9876180 0.0955671 0.9876180 0.0955671 0.0123820 -0.0955671
1990000000 0.0120491 -0.0937503 0.9879509 0.0937503 0.9879509 0.0937503 0.0120491 -0.0937503
2011000000 0.0117284 -0.0919607 0.9882716 0.0919607 0.9882716 0.0919607 0.0117284 -0.0919607
2032000000 0.0114194 -0.0901976 0.9885806 0.0901976 0.9885806 0.0901976 0.0114194 -0.0901976
2053000000 0.0111216 -0.0884600 0.9888784 0.0884600 0.9888784 0.0884600 0.0111216 -0.0884600
2074000000 0.0108347 -0.0867474 0.9891653 0.0867474 0.9891653 0.0867474 0.0108347 -0.0867474
2095000000 0.0105581 -0.0850590 0.9894419 0.0850590 0.9894419 0.0850590 0.0105581 -0.0850590
2116000000 0.0102916 -0.0833941 0.9897084 0.0833941 0.9897084 0.0833941 0.0102916 -0.0833941
2137000000 0.0100348 -0.0817521 0.9899652 0.0817521 0.9899652 0.0817521 0.0100348 -0.0817521
2158000000 0.0097873 -0.0801322 0.9902127 0.0801322 0.9902127 0.0801322 0.0097873 -0.0801322
2179000000 0.0095487 -0.0785340 0.9904513 0.0785340 0.9904513 0.0785340 0.0095487 -0.0785340
2200000000 0.0093189 -0.0769568 0.9906811 0.0769568 0.9906811 0.0769568 0.0093189 -0.0769568
2221000000 0.0090974 -0.0754000 0.9909026 0.0754000 0.9909026 0.0754000 0.0090974 -0.0754000
2242000000 0.0088840 -0.0738632 0.9911160 0.0738632 0.9911160 0.0738632 0.0088840 -0.0738632
2263000000 0.0086783 -0.0723456 0.9913217 0.0723456 0.9913217 0.0723456 0.0086783 -0.0723456
2284000000 0.0084803 -0.0708470 0.9915197 0.0708470 0.9915197 0.0708470 0.0084803 -0.0708470
2305000000 0.0082895 -0.0693666 0.9917105 0.0693666 0.9917105 0.0693666 0.0082895 -0.0693666
2326000000 0.0081057 -0.0679041 0.9918943 0.0679041 0.9918943 0.0679041 0.0081057 -0.0679041
2347000000 0.0079288 -0.0664590 0.9920712 0.0664590 0.9920712 0.0664590 0.0079288 -0.0664590
2368000000 0.0077585 -0.0650309 0.9922415 0.0650309 0.9922415 0.0650309 0.0077585 -0.0650309
2389000000 0.0075945 -0.0636192 0.9924055 0.0636192 0.9924055 0.0636192 0.0075945 -0.0636192
2410000000 0.0074368 -0.0622237 0.9925632 0.0622237 0.9925632 0.0622237 0.0074368 -0.0622237
2431000000 0.0072850 -0.0608438 0.9927150 0.0608438 0.9927150 0.0608438 0.0072850 -0.0608438
2452000000 0.0071391 -0.0594791 0.9928609 0.0594791 0.9928609 0.0594791 0.0071391 -0.0594791
2473000000 0.0069988 -0.0581294 0.9930012 0.0581294 0.9930012 0.0581294 0.0069988 -0.0581294
2494000000 0.0068639 -0.0567942 0.9931361 0.0567942 0.9931361 0.0567942 0.0068639 -0.0567942
2515000000 0.0067344 -0.0554731 0.9932656 0.0554731 0.9932656 0.0554731 0.0067344 -0.0554731
2536000000 0.0066099 -0.0541658 0.9933901 0.0541658 0.9933901 0.0541658 0.0066099 -0.0541658
2557000000 0.0064905 -0.0528720 0.9935095 0.0528720 0.9935095 0.0528720 0.0064905 -0.0528720
2578000000 0.0063760 -0.0515913 0.9936240 0.0515913 0.9936240 0.0515913 0.0063760 -0.0515913
2599000000 0.0062661 -0.0503234 0.9937339 0.0503234 0.9937339 0.0503234 0.0062661 -0.0503234
2620000000 0.0061609 -0.0490680 0.9938391 0.0490680 0.9938391 0.0490680 0.0061609 -0.0490680
2641000000 0.0060601 -0.0478248 0.9939399 0.0478248 0.9939399 0.0478248 0.0060601 -0.0478248
2662000000 0.0059636 -0.0465935 0.9940364 0.0465935 0.9940364 0.0465935 0.0059636 -0.0465935
2683000000 0.0058713 -0.0453739 0.9941287 0.0453739 0.9941287 0.0453739 0.0058713 -0.0453739
2704000000 0.0057832 -0.0441655 0.9942168 0.0441655 0.9942168 0.0441655 0.0057832 -0.0441655
2725000000 0.0056991 -0.0429683 0.9943009 0.0429683 0.9943009 0.0429683 0.0056991 -0.0429683
2746000000 0.0056188 -0.0417818 0.9943812 0.0417818 0.9943812 0.0417818 0.0056188 -0.0417818
2767000000 0.0055424 -0.0406060 0.9944576 0.0406060 0.9944576 0.0406060 0.0055424 -0.0406060
2788000000 0.0054697 -0.0394404 0.9945303 0.0394404 0.9945303 0.0394404 0.0054697 -0.0394404
2809000000 0.0054005 -0.0382849 0.9945995 0.0382849 0.9945995 0.0382849 0.0054005 -0.0382849
2830000000 0.0053349 -0.0371392 0.9946651 0.0371392 0.9946651 0.0371392 0.0053349 -0.0371392
2851000000 0.0052728 -0.0360031 0.9947272 0.0360031 0.9947272 0.0360031 0.0052728 -0.0360031
2872000000 0.0052140 -0.0348765 0.9947860 0.0348765 0.9947860 0.0348765 0.0052140 -0.0348765
2893000000 0.0051585 -0.0337590 0.9948415 0.0337590 0.9948415 0.0337590 0.0051585 -0.0337590
2914000000 0.0051062 -0.0326504 0.9948938 0.0326504 0.9948938 0.0326504 0.0051062 -0.0326504
2935000000 0.0050570 -0.0315506 0.9949430 0.0315506 0.9949430 0.0315506 0.0050570 -0.0315506
2956000000 0.0050109 -0.0304594 0.9949891 0.0304594 0.9949891 0.0304594 0.0050109 -0.0304594
2977000000 0.0049678 -0.0293765 0.9950322 0.0293765 0.9950322 0.0293765 0.0049678 -0.0293765
2998000000 0.0049276 -0.0283018 0.9950724 0.0283018 0.9950724 0.0283018 0.0049276 -0.0283018
3019000000 0.0048903 -0.0272351 0.9951097 0.0272351 0.9951097 0.0272351 0.0048903 -0.0272351
3040000000 0.0048558 -0.0261762 0.9951442 0.0261762 0.9951442 0.0261762 0.0048558 -0.0261762
3061000000 0.0048240 -0.0251249 0.9951760 0.0251249 0.9951760 0.0251249 0.0048240 -0.0251249
3082000000 0.0047950 -0.0240810 0.9952050 0.0240810 0.9952050 0.0240810 0.0047950 -0.0240810
3103000000 0.0047686 -0.0230445 0.9952314 0.0230445 0.9952314 0.0230445 0.0047686 -0.0230445
3124000000 0.0047448 -0.0220151 0.9952552 0.0220151 0.9952552 0.0220151 0.0047448 -0.0220151
3145000000 0.0047236 -0.0209926 0.9952764 0.0209926 0.9952764 0.0209926 0.0047236 -0.0209926
3166000000 0.0047048 -0.0199770 0.9952952 0.0199770 0.9952952 0.0199770 0.0047048 -0.0199770
3187000000 0.0046885 -0.0189680 0.9953115 0.0189680 0.9953115 0.0189680 0.0046885 -0.0189680
3208000000 0.0046747 -0.0179656 0.9953253 0.0179656 0.9953253 0.0179656 0.0046747 -0.0179656
3229000000 0.0046632 -0.0169695 0.9953368 0.0169695 0.9953368 0.0169695 0.0046632 -0.0169695
3250000000 0.0046540 -0.0159796 0.9953460 0.0159796 0.9953460 0.0159796 0.0046540 -0.0159796
3271000000 0.0046471 -0.0149958 0.9953529 0.0149958 0.9953529 0.0149958 0.0046471 -0.0149958
3292000000 0.0046425 -0.0140180 0.9953575 0.0140180 0.9953575 0.0140180 0.0046425 -0.0140180
3313000000 0.0046401 -0.0130460 0.9953599 0.0130460 0.9953599 0.0130460 0.0046401 -0.0130460
3334000000 0.0046399 -0.0120796 0.9953601 0.0120796 0.9953601 0.0120796 0.0046399 -0.0120796
3355000000 0.0046419 -0.0111188 0.9953581 0.0111188 0.9953581 0.0111188 0.0046419 -0.0111188
3376000000 0.0046460 -0.0101635 0.9953540 0.0101635 0.9953540 0.0101635 0.0046460 -0.0101635
3397000000 0.0046522 -0.0092135 0.9953478 0.0092135 0.9953478 0.0092135 0.0046522 -0.0092135
3418000000 0.0046604 -0.0082686 0.9953396 0.0082686 0.9953396 0.0082686 0.0046604 -0.0082686
3439000000 0.0046707 -0.0073289 0.9953293 0.0073289 0.9953293 0.0073289 0.0046707 -0.0073289
3460000000 0.0046830 -0.0063941 0.9953170 0.0063941 0.9953170 0.0063941 0.0046830 -0.0063941
3481000000 0.0046973 -0.0054642 0.9953027 0.0054642 0.9953027 0.0054642 0.0046973 -0.0054642
3502000000 0.0047136 -0.0045390 0.9952864 0.0045390 0.9952864 0.0045390 0.0047136 -0.0045390
3523000000 0.0047318 -0.0036184 0.9952682 0.0036184 0.9952682 0.0036184 0.0047318 -0.0036184
3544000000 0.0047520 -0.0027024 0.9952480 0.0027024 0.9952480 0.0027024 0.0047520 -0.0027024
3565000000 0.0047740 -0.0017908 0.9952260 0.0017908 0.9952260 0.0017908 0.0047740 -0.0017908
3586000000 0.0047979 -0.0008835 0.9952021 0.0008835 0.9952021 0.0008835 0.0047979 -0.0008835
3607000000 0.0048237 0.0000196 0.9951763 -0.0000196 0.9951763 -0.0000196 0.0048237 0.0000196
3628000000 0.0048514 0.0009185 0.9951486 -0.0009185 0.9951486 -0.0009185 0.0048514 0.0009185
3649000000 0.0048808 0.0018134 0.9951192 -0.0018134 0.9951192 -0.0018134 0.0048808 0.0018134
3670000000 0.0049121 0.0027043 0.9950879 -0.0027043 0.9950879 -0.0027043 0.0049121 0.0027043
3691000000 0.0049452 0.0035914 0.9950548 -0.0035914 0.9950548 -0.0035914 0.0049452 0.0035914
3712000000 0.0049801 0.0044748 0.9950199 -0.0044748 0.9950199 -0.0044748 0.0049801 0.0044748
3733000000 0.0050168 0.0053544 0.9949832 -0.0053544 0.9949832 -0.0053544 0.0050168 0.0053544
3754000000 0.0050552 0.0062305 0.9949448 -0.0062305 0.9949448 -0.0062305 0.0050552 0.0062305
3775000000 0.0050954 0.0071031 0.9949046 -0.0071031 0.9949046 -0.0071031 0.0050954 0.0071031
3796000000 0.0051373 0.0079723 0.9948627 -0.0079723 0.9948627 -0.0079723 0.0051373 0.0079723
3817000000 0.0051810 0.0088382 0.9948190 -0.0088382 0.9948190 -0.0088382 0.0051810 0.0088382
3838000000 0.0052263 0.0097008 0.9947737 -0.0097008 0.9947737 -0.0097008 0.0052263 0.0097008
3859000000 0.0052734 0.0105602 0.9947266 -0.0105602 0.9947266 -0.0105602 0.0052734 0.0105602
3880000000 0.0053222 0.0114166 0.9946778 -0.0114166 0.9946778 -0.0114166 0.0053222 0.0114166
3901000000 0.0053728 0.0122699 0.9946272 -0.0122699 0.9946272 -0.0122699 0.0053728 0.0122699
3922000000 0.0054250 0.0131203 0.9945750 -0.0131203 0.9945750 -0.0131203 0.0054250 0.0131203
3943000000 0.0054789 0.0139679 0.9945211 -0.0139679 0.9945211 -0.0139679 0.0054789 0.0139679
3964000000 0.0055345 0.0148126 0.9944655 -0.0148126 0.9944655 -0.0148126 0.0055345 0.0148126
3985000000 0.0055917 0.0156547 0.9944083 -0.0156547 0.9944083 -0.0156547 0.0055917 0.0156547
4006000000 0.0056507 0.0164941 0.9943493 -0.0164941 0.9943493 -0.0164941 0.0056507 0.0164941
4027000000 0.0057114 0.0173309 0.9942886 -0.0173309 0.9942886 -0.0173309 0.0057114 0.0173309
4048000000 0.0057737 0.0181652 0.9942263 -0.0181652 0.9942263 -0.0181652 0.0057737 0.0181652
4069000000 0.0058377 0.0189971 0.9941623 -0.0189971 0.9941623 -0.0189971 0.0058377 0.0189971
4090000000 0.0059034 0.0198266 0.9940966 -0.0198266 0.9940966 -0.0198266 0.0059034 0.0198266
4111000000 0.0059708 0.0206538 0.9940292 -0.0206538 0.9940292 -0.0206538 0.0059708 0.0206538
4132000000 0.0060398 0.0214788 0.9939602 -0.0214788 0.9939602 -0.0214788 0.0060398 0.0214788
4153000000 0.0061105 0.0223016 0.9938895 -0.0223016 0.9938895 -0.0223016 0.0061105 0.0223016
4174000000 0.0061830 0.0231223 0.9938170 -0.0231223 0.9938170 -0.0231223 0.0061830 0.0231223
4195000000 0.0062571 0.0239410 0.9937429 -0.0239410 0.9937429 -0.0239410 0.0062571 0.0239410
4216000000 0.0063329 0.0247577 0.9936671 -0.0247577 0.9936671 -0.0247577 0.0063329 0.0247577
4237000000 0.0064104 0.0255724 0.9935896 -0.0255724 0.9935896 -0.0255724 0.0064104 0.0255724
4258000000 0.0064896 0.0263853 0.9935104 -0.0263853 0.9935104 -0.0263853 0.0064896 0.0263853
4279000000 0.0065706 0.0271964 0.9934294 -0.0271964 0.9934294 -0.0271964 0.0065706 0.0271964
4300000000 0.0066532 0.0280058 0.9933468 -0.0280058 0.9933468 -0.0280058 0.0066532 0.0280058
4321000000 0.0067376 0.0288134 0.9932624 -0.0288134 0.9932624 -0.0288134 0.0067376 0.0288134
4342000000 0.0068237 0.0296194 0.9931763 -0.0296194 0.9931763 -0.0296194 0.0068237 0.0296194
4363000000 0.0069116 0.0304239 0.9930884 -0.0304239 0.9930884 -0.0304239 0.0069116 0.0304239
4384000000 0.0070012 0.0312268 0.9929988 -0.0312268 0.9929988 -0.0312268 0.0070012 0.0312268
4405000000 0.0070926 0.0320283 0.9929074 -0.0320283 0.9929074 -0.0320283 0.0070926 0.0320283
4426000000 0.0071858 0.0328284 0.9928142 -0.0328284 0.9928142 -0.0328284 0.0071858 0.0328284
4447000000 0.0072807 0.0336271 0.9927193 -0.0336271 0.9927193 -0.0336271 0.0072807 0.0336271
4468000000 0.0073775 0.0344245 0.9926225 -0.0344245 0.9926225 -0.0344245 0.0073775 0.0344245
4489000000 0.0074760 0.0352207 0.9925240 -0.0352207 0.9925240 -0.0352207 0.0074760 0.0352207
4510000000 0.0075764 0.0360156 0.9924236 -0.0360156 0.9924236 -0.0360156 0.0075764 0.0360156
