!Murata Part Number: GRM1552C2A330GA01
!These Parameters are Measured in Series Mode Connection
!Data Generated on Mar 30, 2021
!       o--ll--o
!Port1            Port2
!       o------o
!Operation Temp=25[degC], DC Bias Voltage=0[V]
!Freq. Start=100[MHz] Stop=9[GHz] 401[Steps]
# Hz S RI R 50
!Freq.(Hz) S11(Real) S11(Imag) S21(Real) S21(Imag) S12(Real) S12(Imag) S22(Real) S22(Imag)
100000000 0.1878658 -0.3893477 0.8121342 0.3893477 0.8121342 0.3893477 0.1878658 -0.3893477
121000000 0.1362087 -0.3414811 0.8637913 0.3414811 0.8637913 0.3414811 0.1362087 -0.3414811
142000000 0.1025209 -0.3015272 0.8974791 0.3015272 0.8974791 0.3015272 0.1025209 -0.3015272
163000000 0.0795846 -0.2685631 0.9204154 0.2685631 0.9204154 0.2685631 0.0795846 -0.2685631
184000000 0.0633687 -0.2412521 0.9366313 0.2412521 0.9366313 0.2412521 0.0633687 -0.2412521
205000000 0.0515293 -0.2184084 0.9484707 0.2184084 0.9484707 0.2184084 0.0515293 -0.2184084
226000000 0.0426457 -0.1990899 0.9573543 0.1990899 0.9573543 0.1990899 0.0426457 -0.1990899
247000000 0.0358228 -0.1825722 0.9641772 0.1825722 0.9641772 0.1825722 0.0358228 -0.1825722
268000000 0.0304769 -0.1683022 0.9695231 0.1683022 0.9695231 0.1683022 0.0304769 -0.1683022
289000000 0.0262156 -0.1558553 0.9737844 0.1558553 0.9737844 0.1558553 0.0262156 -0.1558553
310000000 0.0227674 -0.1449033 0.9772326 0.1449033 0.9772326 0.1449033 0.0227674 -0.1449033
331000000 0.0199405 -0.1351897 0.9800595 0.1351897 0.9800595 0.1351897 0.0199405 -0.1351897
352000000 0.0175960 -0.1265120 0.9824040 0.1265120 0.9824040 0.1265120 0.0175960 -0.1265120
373000000 0.0156319 -0.1187084 0.9843681 0.1187084 0.9843681 0.1187084 0.0156319 -0.1187084
394000000 0.0139713 -0.1116486 0.9860287 0.1116486 0.9860287 0.1116486 0.0139713 -0.1116486
415000000 0.0125562 -0.1052265 0.9874438 0.1052265 0.9874438 0.1052265 0.0125562 -0.1052265
436000000 0.0113414 -0.0993550 0.9886586 0.0993550 0.9886586 0.0993550 0.0113414 -0.0993550
457000000 0.0102919 -0.0939619 0.9897081 0.0939619 0.9897081 0.0939619 0.0102919 -0.0939619
478000000 0.0093798 -0.0889871 0.9906202 0.0889871 0.9906202 0.0889871 0.0093798 -0.0889871
499000000 0.0085832 -0.0843798 0.9914168 0.0843798 0.9914168 0.0843798 0.0085832 -0.0843798
520000000 0.0078840 -0.0800973 0.9921160 0.0800973 0.9921160 0.0800973 0.0078840 -0.0800973
541000000 0.0072678 -0.0761030 0.9927322 0.0761030 0.9927322 0.0761030 0.0072678 -0.0761030
562000000 0.0067227 -0.0723657 0.9932773 0.0723657 0.9932773 0.0723657 0.0067227 -0.0723657
583000000 0.0062388 -0.0688584 0.9937612 0.0688584 0.9937612 0.0688584 0.0062388 -0.0688584
604000000 0.0058080 -0.0655579 0.9941920 0.0655579 0.9941920 0.0655579 0.0058080 -0.0655579
625000000 0.0054233 -0.0624438 0.9945767 0.0624438 0.9945767 0.0624438 0.0054233 -0.0624438
646000000 0.0050791 -0.0594984 0.9949209 0.0594984 0.9949209 0.0594984 0.0050791 -0.0594984
667000000 0.0047703 -0.0567062 0.9952297 0.0567062 0.9952297 0.0567062 0.0047703 -0.0567062
688000000 0.0044930 -0.0540533 0.9955070 0.0540533 0.9955070 0.0540533 0.0044930 -0.0540533
709000000 0.0042434 -0.0515277 0.9957566 0.0515277 0.9957566 0.0515277 0.0042434 -0.0515277
730000000 0.0040186 -0.0491186 0.9959814 0.0491186 0.9959814 0.0491186 0.0040186 -0.0491186
751000000 0.0038159 -0.0468164 0.9961841 0.0468164 0.9961841 0.0468164 0.0038159 -0.0468164
772000000 0.0036329 -0.0446125 0.9963671 0.0446125 0.9963671 0.0446125 0.0036329 -0.0446125
793000000 0.0034678 -0.0424991 0.9965322 0.0424991 0.9965322 0.0424991 0.0034678 -0.0424991
814000000 0.0033186 -0.0404695 0.9966814 0.0404695 0.9966814 0.0404695 0.0033186 -0.0404695
835000000 0.0031840 -0.0385174 0.9968160 0.0385174 0.9968160 0.0385174 0.0031840 -0.0385174
856000000 0.0030625 -0.0366370 0.9969375 0.0366370 0.9969375 0.0366370 0.0030625 -0.0366370
877000000 0.0029530 -0.0348234 0.9970470 0.0348234 0.9970470 0.0348234 0.0029530 -0.0348234
898000000 0.0028544 -0.0330718 0.9971456 0.0330718 0.9971456 0.0330718 0.0028544 -0.0330718
919000000 0.0027657 -0.0313781 0.9972343 0.0313781 0.9972343 0.0313781 0.0027657 -0.0313781
940000000 0.0026861 -0.0297384 0.9973139 0.0297384 0.9973139 0.0297384 0.0026861 -0.0297384
961000000 0.0026150 -0.0281491 0.9973850 0.0281491 0.9973850 0.0281491 0.0026150 -0.0281491
982000000 0.0025515 -0.0266071 0.9974485 0.0266071 0.9974485 0.0266071 0.0025515 -0.0266071
1003000000 0.0024952 -0.0251094 0.9975048 0.0251094 0.9975048 0.0251094 0.0024952 -0.0251094
1024000000 0.0024454 -0.0236532 0.9975546 0.0236532 0.9975546 0.0236532 0.0024454 -0.0236532
1045000000 0.0024018 -0.0222360 0.9975982 0.0222360 0.9975982 0.0222360 0.0024018 -0.0222360
1066000000 0.0023638 -0.0208556 0.9976362 0.0208556 0.9976362 0.0208556 0.0023638 -0.0208556
1087000000 0.0023311 -0.0195097 0.9976689 0.0195097 0.9976689 0.0195097 0.0023311 -0.0195097
1108000000 0.0023032 -0.0181965 0.9976968 0.0181965 0.9976968 0.0181965 0.0023032 -0.0181965
1129000000 0.0022800 -0.0169139 0.9977200 0.0169139 0.9977200 0.0169139 0.0022800 -0.0169139
1150000000 0.0022611 -0.0156605 0.9977389 0.0156605 0.9977389 0.0156605 0.0022611 -0.0156605
1171000000 0.0022462 -0.0144345 0.9977538 0.0144345 0.9977538 0.0144345 0.0022462 -0.0144345
1192000000 0.0022350 -0.0132344 0.9977650 0.0132344 0.9977650 0.0132344 0.0022350 -0.0132344
1213000000 0.0022275 -0.0120590 0.9977725 0.0120590 0.9977725 0.0120590 0.0022275 -0.0120590
1234000000 0.0022233 -0.0109069 0.9977767 0.0109069 0.9977767 0.0109069 0.0022233 -0.0109069
1255000000 0.0022223 -0.0097769 0.9977777 0.0097769 0.9977777 0.0097769 0.0022223 -0.0097769
1276000000 0.0022243 -0.0086678 0.9977757 0.0086678 0.9977757 0.0086678 0.0022243 -0.0086678
1297000000 0.0022291 -0.0075787 0.9977709 0.0075787 0.9977709 0.0075787 0.0022291 -0.0075787
1318000000 0.0022367 -0.0065086 0.9977633 0.0065086 0.9977633 0.0065086 0.0022367 -0.0065086
1339000000 0.0022469 -0.0054564 0.9977531 0.0054564 0.9977531 0.0054564 0.0022469 -0.0054564
1360000000 0.0022595 -0.0044214 0.9977405 0.0044214 0.9977405 0.0044214 0.0022595 -0.0044214
1381000000 0.0022745 -0.0034027 0.9977255 0.0034027 0.9977255 0.0034027 0.0022745 -0.0034027
1402000000 0.0022918 -0.0023995 0.9977082 0.0023995 0.9977082 0.0023995 0.0022918 -0.0023995
1423000000 0.0023113 -0.0014111 0.9976887 0.0014111 0.9976887 0.0014111 0.0023113 -0.0014111
1444000000 0.0023329 -0.0004368 0.9976671 0.0004368 0.9976671 0.0004368 0.0023329 -0.0004368
1465000000 0.0023565 0.0005241 0.9976435 -0.0005241 0.9976435 -0.0005241 0.0023565 0.0005241
1486000000 0.0023821 0.0014720 0.9976179 -0.0014720 0.9976179 -0.0014720 0.0023821 0.0014720
1507000000 0.0024095 0.0024078 0.9975905 -0.0024078 0.9975905 -0.0024078 0.0024095 0.0024078
1528000000 0.0024388 0.0033318 0.9975612 -0.0033318 0.9975612 -0.0033318 0.0024388 0.0033318
1549000000 0.0024700 0.0042447 0.9975300 -0.0042447 0.9975300 -0.0042447 0.0024700 0.0042447
1570000000 0.0025028 0.0051469 0.9974972 -0.0051469 0.9974972 -0.0051469 0.0025028 0.0051469
1591000000 0.0025374 0.0060389 0.9974626 -0.0060389 0.9974626 -0.0060389 0.0025374 0.0060389
1612000000 0.0025737 0.0069211 0.9974263 -0.0069211 0.9974263 -0.0069211 0.0025737 0.0069211
1633000000 0.0026116 0.0077940 0.9973884 -0.0077940 0.9973884 -0.0077940 0.0026116 0.0077940
1654000000 0.0026511 0.0086581 0.9973489 -0.0086581 0.9973489 -0.0086581 0.0026511 0.0086581
1675000000 0.0026922 0.0095135 0.9973078 -0.0095135 0.9973078 -0.0095135 0.0026922 0.0095135
1696000000 0.0027349 0.0103609 0.9972651 -0.0103609 0.9972651 -0.0103609 0.0027349 0.0103609
1717000000 0.0027792 0.0112004 0.9972208 -0.0112004 0.9972208 -0.0112004 0.0027792 0.0112004
1738000000 0.0028250 0.0120325 0.9971750 -0.0120325 0.9971750 -0.0120325 0.0028250 0.0120325
1759000000 0.0028724 0.0128575 0.9971276 -0.0128575 0.9971276 -0.0128575 0.0028724 0.0128575
1780000000 0.0029213 0.0136756 0.9970787 -0.0136756 0.9970787 -0.0136756 0.0029213 0.0136756
1801000000 0.0029717 0.0144873 0.9970283 -0.0144873 0.9970283 -0.0144873 0.0029717 0.0144873
1822000000 0.0030236 0.0152927 0.9969764 -0.0152927 0.9969764 -0.0152927 0.0030236 0.0152927
1843000000 0.0030771 0.0160921 0.9969229 -0.0160921 0.9969229 -0.0160921 0.0030771 0.0160921
1864000000 0.0031321 0.0168858 0.9968679 -0.0168858 0.9968679 -0.0168858 0.0031321 0.0168858
1885000000 0.0031887 0.0176741 0.9968113 -0.0176741 0.9968113 -0.0176741 0.0031887 0.0176741
1906000000 0.0032468 0.0184572 0.9967532 -0.0184572 0.9967532 -0.0184572 0.0032468 0.0184572
1927000000 0.0033065 0.0192353 0.9966935 -0.0192353 0.9966935 -0.0192353 0.0033065 0.0192353
1948000000 0.0033678 0.0200087 0.9966322 -0.0200087 0.9966322 -0.0200087 0.0033678 0.0200087
1969000000 0.0034307 0.0207776 0.9965693 -0.0207776 0.9965693 -0.0207776 0.0034307 0.0207776
1990000000 0.0034953 0.0215421 0.9965047 -0.0215421 0.9965047 -0.0215421 0.0034953 0.0215421
2011000000 0.0035615 0.0223025 0.9964385 -0.0223025 0.9964385 -0.0223025 0.0035615 0.0223025
2032000000 0.0036295 0.0230591 0.9963705 -0.0230591 0.9963705 -0.0230591 0.0036295 0.0230591
2053000000 0.0036991 0.0238118 0.9963009 -0.0238118 0.9963009 -0.0238118 0.0036991 0.0238118
2074000000 0.0037706 0.0245611 0.9962294 -0.0245611 0.9962294 -0.0245611 0.0037706 0.0245611
2095000000 0.0038439 0.0253069 0.9961561 -0.0253069 0.9961561 -0.0253069 0.0038439 0.0253069
2116000000 0.0039191 0.0260496 0.9960809 -0.0260496 0.9960809 -0.0260496 0.0039191 0.0260496
2137000000 0.0039962 0.0267892 0.9960038 -0.0267892 0.9960038 -0.0267892 0.0039962 0.0267892
2158000000 0.0040752 0.0275260 0.9959248 -0.0275260 0.9959248 -0.0275260 0.0040752 0.0275260
2179000000 0.0041564 0.0282600 0.9958436 -0.0282600 0.9958436 -0.0282600 0.0041564 0.0282600
2200000000 0.0042397 0.0289914 0.9957603 -0.0289914 0.9957603 -0.0289914 0.0042397 0.0289914
2221000000 0.0043251 0.0297204 0.9956749 -0.0297204 0.9956749 -0.0297204 0.0043251 0.0297204
2242000000 0.0044129 0.0304471 0.9955871 -0.0304471 0.9955871 -0.0304471 0.0044129 0.0304471
2263000000 0.0045030 0.0311716 0.9954970 -0.0311716 0.9954970 -0.0311716 0.0045030 0.0311716
2284000000 0.0045956 0.0318940 0.9954044 -0.0318940 0.9954044 -0.0318940 0.0045956 0.0318940
2305000000 0.0046908 0.0326145 0.9953092 -0.0326145 0.9953092 -0.0326145 0.0046908 0.0326145
2326000000 0.0047887 0.0333332 0.9952113 -0.0333332 0.9952113 -0.0333332 0.0047887 0.0333332
2347000000 0.0048894 0.0340501 0.9951106 -0.0340501 0.9951106 -0.0340501 0.0048894 0.0340501
2368000000 0.0049931 0.0347654 0.9950069 -0.0347654 0.9950069 -0.0347654 0.0049931 0.0347654
2389000000 0.0050999 0.0354792 0.9949001 -0.0354792 0.9949001 -0.0354792 0.0050999 0.0354792
2410000000 0.0052099 0.0361914 0.9947901 -0.0361914 0.9947901 -0.0361914 0.0052099 0.0361914
2431000000 0.0053234 0.0369022 0.9946766 -0.0369022 0.9946766 -0.0369022 0.0053234 0.0369022
2452000000 0.0054406 0.0376117 0.9945594 -0.0376117 0.9945594 -0.0376117 0.0054406 0.0376117
2473000000 0.0055616 0.0383198 0.9944384 -0.0383198 0.9944384 -0.0383198 0.0055616 0.0383198
2494000000 0.0056866 0.0390266 0.9943134 -0.0390266 0.9943134 -0.0390266 0.0056866 0.0390266
2515000000 0.0058159 0.0397320 0.9941841 -0.0397320 0.9941841 -0.0397320 0.0058159 0.0397320
2536000000 0.0059498 0.0404361 0.9940502 -0.0404361 0.9940502 -0.0404361 0.0059498 0.0404361
2557000000 0.0060884 0.0411387 0.9939116 -0.0411387 0.9939116 -0.0411387 0.0060884 0.0411387
2578000000 0.0062322 0.0418398 0.9937678 -0.0418398 0.9937678 -0.0418398 0.0062322 0.0418398
2599000000 0.0063814 0.0425393 0.9936186 -0.0425393 0.9936186 -0.0425393 0.0063814 0.0425393
2620000000 0.0065363 0.0432369 0.9934637 -0.0432369 0.9934637 -0.0432369 0.0065363 0.0432369
2641000000 0.0066973 0.0439325 0.9933027 -0.0439325 0.9933027 -0.0439325 0.0066973 0.0439325
2662000000 0.0068646 0.0446257 0.9931354 -0.0446257 0.9931354 -0.0446257 0.0068646 0.0446257
2683000000 0.0070388 0.0453163 0.9929612 -0.0453163 0.9929612 -0.0453163 0.0070388 0.0453163
2704000000 0.0072201 0.0460038 0.9927799 -0.0460038 0.9927799 -0.0460038 0.0072201 0.0460038
2725000000 0.0074089 0.0466877 0.9925911 -0.0466877 0.9925911 -0.0466877 0.0074089 0.0466877
2746000000 0.0076055 0.0473673 0.9923945 -0.0473673 0.9923945 -0.0473673 0.0076055 0.0473673
2767000000 0.0078103 0.0480421 0.9921897 -0.0480421 0.9921897 -0.0480421 0.0078103 0.0480421
2788000000 0.0080235 0.0487110 0.9919765 -0.0487110 0.9919765 -0.0487110 0.0080235 0.0487110
2809000000 0.0082452 0.0493731 0.9917548 -0.0493731 0.9917548 -0.0493731 0.0082452 0.0493731
2830000000 0.0084757 0.0500274 0.9915243 -0.0500274 0.9915243 -0.0500274 0.0084757 0.0500274
2851000000 0.0087147 0.0506726 0.9912853 -0.0506726 0.9912853 -0.0506726 0.0087147 0.0506726
2872000000 0.0089621 0.0513073 0.9910379 -0.0513073 0.9910379 -0.0513073 0.0089621 0.0513073
2893000000 0.0092173 0.0519299 0.9907827 -0.0519299 0.9907827 -0.0519299 0.0092173 0.0519299
2914000000 0.0094797 0.0525389 0.9905203 -0.0525389 0.9905203 -0.0525389 0.0094797 0.0525389
2935000000 0.0097481 0.0531326 0.9902519 -0.0531326 0.9902519 -0.0531326 0.0097481 0.0531326
2956000000 0.0100209 0.0537094 0.9899791 -0.0537094 0.9899791 -0.0537094 0.0100209 0.0537094
2977000000 0.0102963 0.0542678 0.9897037 -0.0542678 0.9897037 -0.0542678 0.0102963 0.0542678
2998000000 0.0105718 0.0548064 0.9894282 -0.0548064 0.9894282 -0.0548064 0.0105718 0.0548064
3019000000 0.0108445 0.0553243 0.9891555 -0.0553243 0.9891555 -0.0553243 0.0108445 0.0553243
3040000000 0.0111112 0.0558210 0.9888888 -0.0558210 0.9888888 -0.0558210 0.0111112 0.0558210
3061000000 0.0113683 0.0562967 0.9886317 -0.0562967 0.9886317 -0.0562967 0.0113683 0.0562967
3082000000 0.0116118 0.0567524 0.9883882 -0.0567524 0.9883882 -0.0567524 0.0116118 0.0567524
3103000000 0.0118382 0.0571899 0.9881618 -0.0571899 0.9881618 -0.0571899 0.0118382 0.0571899
3124000000 0.0120438 0.0576120 0.9879562 -0.0576120 0.9879562 -0.0576120 0.0120438 0.0576120
3145000000 0.0122258 0.0580222 0.9877742 -0.0580222 0.9877742 -0.0580222 0.0122258 0.0580222
3166000000 0.0123819 0.0584249 0.9876181 -0.0584249 0.9876181 -0.0584249 0.0123819 0.0584249
3187000000 0.0125111 0.0588248 0.9874889 -0.0588248 0.9874889 -0.0588248 0.0125111 0.0588248
3208000000 0.0126131 0.0592270 0.9873869 -0.0592270 0.9873869 -0.0592270 0.0126131 0.0592270
3229000000 0.0126890 0.0596362 0.9873110 -0.0596362 0.9873110 -0.0596362 0.0126890 0.0596362
3250000000 0.0127408 0.0600569 0.9872592 -0.0600569 0.9872592 -0.0600569 0.0127408 0.0600569
3271000000 0.0127714 0.0604929 0.9872286 -0.0604929 0.9872286 -0.0604929 0.0127714 0.0604929
3292000000 0.0127842 0.0609471 0.9872158 -0.0609471 0.9872158 -0.0609471 0.0127842 0.0609471
3313000000 0.0127830 0.0614216 0.9872170 -0.0614216 0.9872170 -0.0614216 0.0127830 0.0614216
3334000000 0.0127718 0.0619176 0.9872282 -0.0619176 0.9872282 -0.0619176 0.0127718 0.0619176
3355000000 0.0127542 0.0624354 0.9872458 -0.0624354 0.9872458 -0.0624354 0.0127542 0.0624354
3376000000 0.0127338 0.0629747 0.9872662 -0.0629747 0.9872662 -0.0629747 0.0127338 0.0629747
3397000000 0.0127136 0.0635345 0.9872864 -0.0635345 0.9872864 -0.0635345 0.0127136 0.0635345
3418000000 0.0126963 0.0641137 0.9873037 -0.0641137 0.9873037 -0.0641137 0.0126963 0.0641137
3439000000 0.0126840 0.0647107 0.9873160 -0.0647107 0.9873160 -0.0647107 0.0126840 0.0647107
3460000000 0.0126783 0.0653239 0.9873217 -0.0653239 0.9873217 -0.0653239 0.0126783 0.0653239
3481000000 0.0126806 0.0659514 0.9873194 -0.0659514 0.9873194 -0.0659514 0.0126806 0.0659514
3502000000 0.0126918 0.0665918 0.9873082 -0.0665918 0.9873082 -0.0665918 0.0126918 0.0665918
3523000000 0.0127125 0.0672433 0.9872875 -0.0672433 0.9872875 -0.0672433 0.0127125 0.0672433
3544000000 0.0127430 0.0679046 0.9872570 -0.0679046 0.9872570 -0.0679046 0.0127430 0.0679046
3565000000 0.0127836 0.0685743 0.9872164 -0.0685743 0.9872164 -0.0685743 0.0127836 0.0685743
3586000000 0.0128343 0.0692512 0.9871657 -0.0692512 0.9871657 -0.0692512 0.0128343 0.0692512
3607000000 0.0128950 0.0699343 0.9871050 -0.0699343 0.9871050 -0.0699343 0.0128950 0.0699343
3628000000 0.0129655 0.0706226 0.9870345 -0.0706226 0.9870345 -0.0706226 0.0129655 0.0706226
3649000000 0.0130456 0.0713153 0.9869544 -0.0713153 0.9869544 -0.0713153 0.0130456 0.0713153
3670000000 0.0131351 0.0720117 0.9868649 -0.0720117 0.9868649 -0.0720117 0.0131351 0.0720117
3691000000 0.0132336 0.0727114 0.9867664 -0.0727114 0.9867664 -0.0727114 0.0132336 0.0727114
3712000000 0.0133410 0.0734136 0.9866590 -0.0734136 0.9866590 -0.0734136 0.0133410 0.0734136
3733000000 0.0134568 0.0741181 0.9865432 -0.0741181 0.9865432 -0.0741181 0.0134568 0.0741181
3754000000 0.0135810 0.0748244 0.9864190 -0.0748244 0.9864190 -0.0748244 0.0135810 0.0748244
3775000000 0.0137131 0.0755323 0.9862869 -0.0755323 0.9862869 -0.0755323 0.0137131 0.0755323
3796000000 0.0138530 0.0762415 0.9861470 -0.0762415 0.9861470 -0.0762415 0.0138530 0.0762415
3817000000 0.0140005 0.0769518 0.9859995 -0.0769518 0.9859995 -0.0769518 0.0140005 0.0769518
3838000000 0.0141554 0.0776629 0.9858446 -0.0776629 0.9858446 -0.0776629 0.0141554 0.0776629
3859000000 0.0143174 0.0783748 0.9856826 -0.0783748 0.9856826 -0.0783748 0.0143174 0.0783748
3880000000 0.0144865 0.0790873 0.9855135 -0.0790873 0.9855135 -0.0790873 0.0144865 0.0790873
3901000000 0.0146624 0.0798002 0.9853376 -0.0798002 0.9853376 -0.0798002 0.0146624 0.0798002
3922000000 0.0148452 0.0805136 0.9851548 -0.0805136 0.9851548 -0.0805136 0.0148452 0.0805136
3943000000 0.0150346 0.0812273 0.9849654 -0.0812273 0.9849654 -0.0812273 0.0150346 0.0812273
3964000000 0.0152306 0.0819412 0.9847694 -0.0819412 0.9847694 -0.0819412 0.0152306 0.0819412
3985000000 0.0154331 0.0826553 0.9845669 -0.0826553 0.9845669 -0.0826553 0.0154331 0.0826553
4006000000 0.0156422 0.0833695 0.9843578 -0.0833695 0.9843578 -0.0833695 0.0156422 0.0833695
4027000000 0.0158576 0.0840838 0.9841424 -0.0840838 0.9841424 -0.0840838 0.0158576 0.0840838
4048000000 0.0160795 0.0847980 0.9839205 -0.0847980 0.9839205 -0.0847980 0.0160795 0.0847980
4069000000 0.0163078 0.0855121 0.9836922 -0.0855121 0.9836922 -0.0855121 0.0163078 0.0855121
4090000000 0.0165425 0.0862261 0.9834575 -0.0862261 0.9834575 -0.0862261 0.0165425 0.0862261
4111000000 0.0167837 0.0869399 0.9832163 -0.0869399 0.9832163 -0.0869399 0.0167837 0.0869399
4132000000 0.0170313 0.0876534 0.9829687 -0.0876534 0.9829687 -0.0876534 0.0170313 0.0876534
4153000000 0.0172853 0.0883666 0.9827147 -0.0883666 0.9827147 -0.0883666 0.0172853 0.0883666
4174000000 0.0175459 0.0890794 0.9824541 -0.0890794 0.9824541 -0.0890794 0.0175459 0.0890794
4195000000 0.0178131 0.0897916 0.9821869 -0.0897916 0.9821869 -0.0897916 0.0178131 0.0897916
4216000000 0.0180869 0.0905033 0.9819131 -0.0905033 0.9819131 -0.0905033 0.0180869 0.0905033
4237000000 0.0183674 0.0912143 0.9816326 -0.0912143 0.9816326 -0.0912143 0.0183674 0.0912143
4258000000 0.0186547 0.0919244 0.9813453 -0.0919244 0.9813453 -0.0919244 0.0186547 0.0919244
4279000000 0.0189488 0.0926337 0.9810512 -0.0926337 0.9810512 -0.0926337 0.0189488 0.0926337
4300000000 0.0192498 0.0933418 0.9807502 -0.0933418 0.9807502 -0.0933418 0.0192498 0.0933418
4321000000 0.0195578 0.0940488 0.9804422 -0.0940488 0.9804422 -0.0940488 0.0195578 0.0940488
4342000000 0.0198728 0.0947545 0.9801272 -0.0947545 0.9801272 -0.0947545 0.0198728 0.0947545
4363000000 0.0201951 0.0954586 0.9798049 -0.0954586 0.9798049 -0.0954586 0.0201951 0.0954586
4384000000 0.0205246 0.0961610 0.9794754 -0.0961610 0.9794754 -0.0961610 0.0205246 0.0961610
4405000000 0.0208614 0.0968616 0.9791386 -0.0968616 0.9791386 -0.0968616 0.0208614 0.0968616
4426000000 0.0212057 0.0975601 0.9787943 -0.0975601 0.9787943 -0.0975601 0.0212057 0.0975601
4447000000 0.0215575 0.0982563 0.9784425 -0.0982563 0.9784425 -0.0982563 0.0215575 0.0982563
4468000000 0.0219169 0.0989499 0.9780831 -0.0989499 0.9780831 -0.0989499 0.0219169 0.0989499
4489000000 0.0222840 0.0996408 0.9777160 -0.0996408 0.9777160 -0.0996408 0.0222840 0.0996408
4510000000 0.0226588 0.1003286 0.9773412 -0.1003286 0.9773412 -0.1003286 0.0226588 0.1003286
