!Murata Part Number: GRM1555C2A102GE01
!These Parameters are Measured in Series Mode Connection
!Data Generated on Mar 30, 2021
!       o--ll--o
!Port1            Port2
!       o------o
!Operation Temp=25[degC], DC Bias Voltage=0[V]
!Freq. Start=1000[kHz] Stop=6[GHz] 401[Steps]
# Hz S RI R 50
!Freq.(Hz) S11(Real) S11(Imag) S21(Real) S21(Imag) S12(Real) S12(Imag) S22(Real) S22(Imag)
1000000 0.7200825 -0.4489387 0.2799175 0.4489387 0.2799175 0.4489387 0.7200825 -0.4489387
1021987 0.7112316 -0.4531699 0.2887684 0.4531699 0.2887684 0.4531699 0.7112316 -0.4531699
1044457 0.7022165 -0.4572632 0.2977835 0.4572632 0.2977835 0.4572632 0.7022165 -0.4572632
1067422 0.6930415 -0.4612110 0.3069585 0.4612110 0.3069585 0.4612110 0.6930415 -0.4612110
1090891 0.6837111 -0.4650056 0.3162889 0.4650056 0.3162889 0.4650056 0.6837111 -0.4650056
1114877 0.6742304 -0.4686397 0.3257696 0.4686397 0.3257696 0.4686397 0.6742304 -0.4686397
1139390 0.6646049 -0.4721059 0.3353951 0.4721059 0.3353951 0.4721059 0.6646049 -0.4721059
1164441 0.6548406 -0.4753973 0.3451594 0.4753973 0.3451594 0.4753973 0.6548406 -0.4753973
1190044 0.6449439 -0.4785069 0.3550561 0.4785069 0.3550561 0.4785069 0.6449439 -0.4785069
1216210 0.6349216 -0.4814282 0.3650784 0.4814282 0.3650784 0.4814282 0.6349216 -0.4814282
1242950 0.6247810 -0.4841549 0.3752190 0.4841549 0.3752190 0.4841549 0.6247810 -0.4841549
1270279 0.6145297 -0.4866812 0.3854703 0.4866812 0.3854703 0.4866812 0.6145297 -0.4866812
1298209 0.6041758 -0.4890014 0.3958242 0.4890014 0.3958242 0.4890014 0.6041758 -0.4890014
1326753 0.5937277 -0.4911104 0.4062723 0.4911104 0.4062723 0.4911104 0.5937277 -0.4911104
1355924 0.5831940 -0.4930034 0.4168060 0.4930034 0.4168060 0.4930034 0.5831940 -0.4930034
1385737 0.5725838 -0.4946762 0.4274162 0.4946762 0.4274162 0.4946762 0.5725838 -0.4946762
1416205 0.5619064 -0.4961248 0.4380936 0.4961248 0.4380936 0.4961248 0.5619064 -0.4961248
1447343 0.5511713 -0.4973460 0.4488287 0.4973460 0.4488287 0.4973460 0.5511713 -0.4973460
1479166 0.5403884 -0.4983369 0.4596116 0.4983369 0.4596116 0.4983369 0.5403884 -0.4983369
1511688 0.5295674 -0.4990951 0.4704326 0.4990951 0.4704326 0.4990951 0.5295674 -0.4990951
1544926 0.5187187 -0.4996190 0.4812813 0.4996190 0.4812813 0.4996190 0.5187187 -0.4996190
1578894 0.5078522 -0.4999071 0.4921478 0.4999071 0.4921478 0.4999071 0.5078522 -0.4999071
1613609 0.4969783 -0.4999590 0.5030217 0.4999590 0.5030217 0.4999590 0.4969783 -0.4999590
1649087 0.4861072 -0.4997744 0.5138928 0.4997744 0.5138928 0.4997744 0.4861072 -0.4997744
1685346 0.4752493 -0.4993537 0.5247507 0.4993537 0.5247507 0.4993537 0.4752493 -0.4993537
1722402 0.4644147 -0.4986980 0.5355853 0.4986980 0.5355853 0.4986980 0.4644147 -0.4986980
1760272 0.4536136 -0.4978088 0.5463864 0.4978088 0.5463864 0.4978088 0.4536136 -0.4978088
1798975 0.4428559 -0.4966882 0.5571441 0.4966882 0.5571441 0.4966882 0.4428559 -0.4966882
1838529 0.4321516 -0.4953388 0.5678484 0.4953388 0.5678484 0.4953388 0.4321516 -0.4953388
1878953 0.4215103 -0.4937637 0.5784897 0.4937637 0.5784897 0.4937637 0.4215103 -0.4937637
1920266 0.4109414 -0.4919666 0.5890586 0.4919666 0.5890586 0.4919666 0.4109414 -0.4919666
1962487 0.4004540 -0.4899515 0.5995460 0.4899515 0.5995460 0.4899515 0.4004540 -0.4899515
2005636 0.3900570 -0.4877231 0.6099430 0.4877231 0.6099430 0.4877231 0.3900570 -0.4877231
2049734 0.3797590 -0.4852862 0.6202410 0.4852862 0.6202410 0.4852862 0.3797590 -0.4852862
2094801 0.3695681 -0.4826463 0.6304319 0.4826463 0.6304319 0.4826463 0.3695681 -0.4826463
2140860 0.3594921 -0.4798091 0.6405079 0.4798091 0.6405079 0.4798091 0.3594921 -0.4798091
2187931 0.3495386 -0.4767808 0.6504614 0.4767808 0.6504614 0.4767808 0.3495386 -0.4767808
2236037 0.3397144 -0.4735678 0.6602856 0.4735678 0.6602856 0.4735678 0.3397144 -0.4735678
2285201 0.3300263 -0.4701768 0.6699737 0.4701768 0.6699737 0.4701768 0.3300263 -0.4701768
2335446 0.3204803 -0.4666148 0.6795197 0.4666148 0.6795197 0.4666148 0.3204803 -0.4666148
2386795 0.3110822 -0.4628889 0.6889178 0.4628889 0.6889178 0.4628889 0.3110822 -0.4628889
2439274 0.3018373 -0.4590066 0.6981627 0.4590066 0.6981627 0.4590066 0.3018373 -0.4590066
2492906 0.2927504 -0.4549753 0.7072496 0.4549753 0.7072496 0.4549753 0.2927504 -0.4549753
2547717 0.2838258 -0.4508026 0.7161742 0.4508026 0.7161742 0.4508026 0.2838258 -0.4508026
2603734 0.2750675 -0.4464964 0.7249325 0.4464964 0.7249325 0.4464964 0.2750675 -0.4464964
2660982 0.2664788 -0.4420645 0.7335212 0.4420645 0.7335212 0.4420645 0.2664788 -0.4420645
2719490 0.2580629 -0.4375145 0.7419371 0.4375145 0.7419371 0.4375145 0.2580629 -0.4375145
2779283 0.2498222 -0.4328545 0.7501778 0.4328545 0.7501778 0.4328545 0.2498222 -0.4328545
2840391 0.2417588 -0.4280922 0.7582412 0.4280922 0.7582412 0.4280922 0.2417588 -0.4280922
2902843 0.2338746 -0.4232354 0.7661254 0.4232354 0.7661254 0.4232354 0.2338746 -0.4232354
2966668 0.2261708 -0.4182917 0.7738292 0.4182917 0.7738292 0.4182917 0.2261708 -0.4182917
3031896 0.2186483 -0.4132688 0.7813517 0.4132688 0.7813517 0.4132688 0.2186483 -0.4132688
3098558 0.2113077 -0.4081741 0.7886923 0.4081741 0.7886923 0.4081741 0.2113077 -0.4081741
3166686 0.2041491 -0.4030150 0.7958509 0.4030150 0.7958509 0.4030150 0.2041491 -0.4030150
3236312 0.1971724 -0.3977987 0.8028276 0.3977987 0.8028276 0.3977987 0.1971724 -0.3977987
3307469 0.1903771 -0.3925322 0.8096229 0.3925322 0.8096229 0.3925322 0.1903771 -0.3925322
3380190 0.1837623 -0.3872223 0.8162377 0.3872223 0.8162377 0.3872223 0.1837623 -0.3872223
3454511 0.1773270 -0.3818758 0.8226730 0.3818758 0.8226730 0.3818758 0.1773270 -0.3818758
3530465 0.1710698 -0.3764989 0.8289302 0.3764989 0.8289302 0.3764989 0.1710698 -0.3764989
3608090 0.1649892 -0.3710981 0.8350108 0.3710981 0.8350108 0.3710981 0.1649892 -0.3710981
3687421 0.1590831 -0.3656792 0.8409169 0.3656792 0.8409169 0.3656792 0.1590831 -0.3656792
3768496 0.1533497 -0.3602481 0.8466503 0.3602481 0.8466503 0.3602481 0.1533497 -0.3602481
3851354 0.1477865 -0.3548104 0.8522135 0.3548104 0.8522135 0.3548104 0.1477865 -0.3548104
3936034 0.1423912 -0.3493713 0.8576088 0.3493713 0.8576088 0.3493713 0.1423912 -0.3493713
4022575 0.1371612 -0.3439359 0.8628388 0.3439359 0.8628388 0.3439359 0.1371612 -0.3439359
4111020 0.1320936 -0.3385091 0.8679064 0.3385091 0.8679064 0.3385091 0.1320936 -0.3385091
4201409 0.1271857 -0.3330955 0.8728143 0.3330955 0.8728143 0.3330955 0.1271857 -0.3330955
4293785 0.1224344 -0.3276995 0.8775656 0.3276995 0.8775656 0.3276995 0.1224344 -0.3276995
4388193 0.1178366 -0.3223251 0.8821634 0.3223251 0.8821634 0.3223251 0.1178366 -0.3223251
4484676 0.1133891 -0.3169764 0.8866109 0.3169764 0.8866109 0.3169764 0.1133891 -0.3169764
4583281 0.1090888 -0.3116569 0.8909112 0.3116569 0.8909112 0.3116569 0.1090888 -0.3116569
4684054 0.1049322 -0.3063701 0.8950678 0.3063701 0.8950678 0.3063701 0.1049322 -0.3063701
4787042 0.1009160 -0.3011193 0.8990840 0.3011193 0.8990840 0.3011193 0.1009160 -0.3011193
4892295 0.0970369 -0.2959075 0.9029631 0.2959075 0.9029631 0.2959075 0.0970369 -0.2959075
4999862 0.0932914 -0.2907374 0.9067086 0.2907374 0.9067086 0.2907374 0.0932914 -0.2907374
5109794 0.0896761 -0.2856118 0.9103239 0.2856118 0.9103239 0.2856118 0.0896761 -0.2856118
5222143 0.0861876 -0.2805329 0.9138124 0.2805329 0.9138124 0.2805329 0.0861876 -0.2805329
5336962 0.0828225 -0.2755031 0.9171775 0.2755031 0.9171775 0.2755031 0.0828225 -0.2755031
5454306 0.0795772 -0.2705243 0.9204228 0.2705243 0.9204228 0.2705243 0.0795772 -0.2705243
5574230 0.0764486 -0.2655985 0.9235514 0.2655985 0.9235514 0.2655985 0.0764486 -0.2655985
5696791 0.0734331 -0.2607272 0.9265669 0.2607272 0.9265669 0.2607272 0.0734331 -0.2607272
5822046 0.0705275 -0.2559121 0.9294725 0.2559121 0.9294725 0.2559121 0.0705275 -0.2559121
5950055 0.0677284 -0.2511545 0.9322716 0.2511545 0.9322716 0.2511545 0.0677284 -0.2511545
6080879 0.0650327 -0.2464556 0.9349673 0.2464556 0.9349673 0.2464556 0.0650327 -0.2464556
6214580 0.0624370 -0.2418166 0.9375630 0.2418166 0.9375630 0.2418166 0.0624370 -0.2418166
6351220 0.0599384 -0.2372383 0.9400616 0.2372383 0.9400616 0.2372383 0.0599384 -0.2372383
6490864 0.0575335 -0.2327216 0.9424665 0.2327216 0.9424665 0.2327216 0.0575335 -0.2327216
6633579 0.0552196 -0.2282671 0.9447804 0.2282671 0.9447804 0.2282671 0.0552196 -0.2282671
6779431 0.0529934 -0.2238756 0.9470066 0.2238756 0.9470066 0.2238756 0.0529934 -0.2238756
6928491 0.0508522 -0.2195473 0.9491478 0.2195473 0.9491478 0.2195473 0.0508522 -0.2195473
7080828 0.0487930 -0.2152828 0.9512070 0.2152828 0.9512070 0.2152828 0.0487930 -0.2152828
7236514 0.0468131 -0.2110822 0.9531869 0.2110822 0.9531869 0.2110822 0.0468131 -0.2110822
7395623 0.0449098 -0.2069458 0.9550902 0.2069458 0.9550902 0.2069458 0.0449098 -0.2069458
7558231 0.0430804 -0.2028737 0.9569196 0.2028737 0.9569196 0.2028737 0.0430804 -0.2028737
7724414 0.0413223 -0.1988658 0.9586777 0.1988658 0.9586777 0.1988658 0.0413223 -0.1988658
7894251 0.0396329 -0.1949221 0.9603671 0.1949221 0.9603671 0.1949221 0.0396329 -0.1949221
8067822 0.0380100 -0.1910426 0.9619900 0.1910426 0.9619900 0.1910426 0.0380100 -0.1910426
8245209 0.0364509 -0.1872269 0.9635491 0.1872269 0.9635491 0.1872269 0.0364509 -0.1872269
8426497 0.0349536 -0.1834749 0.9650464 0.1834749 0.9650464 0.1834749 0.0349536 -0.1834749
8611770 0.0335156 -0.1797862 0.9664844 0.1797862 0.9664844 0.1797862 0.0335156 -0.1797862
8801117 0.0321348 -0.1761604 0.9678652 0.1761604 0.9678652 0.1761604 0.0321348 -0.1761604
8994628 0.0308092 -0.1725973 0.9691908 0.1725973 0.9691908 0.1725973 0.0308092 -0.1725973
9192393 0.0295366 -0.1690962 0.9704634 0.1690962 0.9704634 0.1690962 0.0295366 -0.1690962
9394506 0.0283150 -0.1656568 0.9716850 0.1656568 0.9716850 0.1656568 0.0283150 -0.1656568
9601063 0.0271426 -0.1622784 0.9728574 0.1622784 0.9728574 0.1622784 0.0271426 -0.1622784
9812162 0.0260175 -0.1589606 0.9739825 0.1589606 0.9739825 0.1589606 0.0260175 -0.1589606
10027902 0.0249379 -0.1557027 0.9750621 0.1557027 0.9750621 0.1557027 0.0249379 -0.1557027
10248386 0.0239020 -0.1525041 0.9760980 0.1525041 0.9760980 0.1525041 0.0239020 -0.1525041
10473717 0.0229082 -0.1493642 0.9770918 0.1493642 0.9770918 0.1493642 0.0229082 -0.1493642
10704003 0.0219549 -0.1462822 0.9780451 0.1462822 0.9780451 0.1462822 0.0219549 -0.1462822
10939352 0.0210404 -0.1432575 0.9789596 0.1432575 0.9789596 0.1432575 0.0210404 -0.1432575
11179876 0.0201633 -0.1402894 0.9798367 0.1402894 0.9798367 0.1402894 0.0201633 -0.1402894
11425688 0.0193221 -0.1373772 0.9806779 0.1373772 0.9806779 0.1373772 0.0193221 -0.1373772
11676904 0.0185154 -0.1345201 0.9814846 0.1345201 0.9814846 0.1345201 0.0185154 -0.1345201
11933645 0.0177418 -0.1317174 0.9822582 0.1317174 0.9822582 0.1317174 0.0177418 -0.1317174
12196030 0.0170001 -0.1289682 0.9829999 0.1289682 0.9829999 0.1289682 0.0170001 -0.1289682
12464184 0.0162889 -0.1262719 0.9837111 0.1262719 0.9837111 0.1262719 0.0162889 -0.1262719
12738235 0.0156072 -0.1236277 0.9843928 0.1236277 0.9843928 0.1236277 0.0156072 -0.1236277
13018310 0.0149536 -0.1210348 0.9850464 0.1210348 0.9850464 0.1210348 0.0149536 -0.1210348
13304544 0.0143270 -0.1184924 0.9856730 0.1184924 0.9856730 0.1184924 0.0143270 -0.1184924
13597071 0.0137265 -0.1159997 0.9862735 0.1159997 0.9862735 0.1159997 0.0137265 -0.1159997
13896030 0.0131509 -0.1135559 0.9868491 0.1135559 0.9868491 0.1135559 0.0131509 -0.1135559
14201563 0.0125992 -0.1111603 0.9874008 0.1111603 0.9874008 0.1111603 0.0125992 -0.1111603
14513813 0.0120705 -0.1088120 0.9879295 0.1088120 0.9879295 0.1088120 0.0120705 -0.1088120
14832928 0.0115639 -0.1065103 0.9884361 0.1065103 0.9884361 0.1065103 0.0115639 -0.1065103
15159060 0.0110784 -0.1042543 0.9889216 0.1042543 0.9889216 0.1042543 0.0110784 -0.1042543
15492362 0.0106132 -0.1020434 0.9893868 0.1020434 0.9893868 0.1020434 0.0106132 -0.1020434
15832993 0.0101675 -0.0998767 0.9898325 0.0998767 0.9898325 0.0998767 0.0101675 -0.0998767
16181113 0.0097404 -0.0977535 0.9902596 0.0977535 0.9902596 0.0977535 0.0097404 -0.0977535
16536888 0.0093313 -0.0956730 0.9906687 0.0956730 0.9906687 0.0956730 0.0093313 -0.0956730
16900485 0.0089393 -0.0936344 0.9910607 0.0936344 0.9910607 0.0936344 0.0089393 -0.0936344
17272076 0.0085639 -0.0916369 0.9914361 0.0916369 0.9914361 0.0916369 0.0085639 -0.0916369
17651837 0.0082042 -0.0896799 0.9917958 0.0896799 0.9917958 0.0896799 0.0082042 -0.0896799
18039948 0.0078597 -0.0877626 0.9921403 0.0877626 0.9921403 0.0877626 0.0078597 -0.0877626
18436593 0.0075297 -0.0858842 0.9924703 0.0858842 0.9924703 0.0858842 0.0075297 -0.0858842
18841959 0.0072137 -0.0840441 0.9927863 0.0840441 0.9927863 0.0840441 0.0072137 -0.0840441
19256237 0.0069110 -0.0822415 0.9930890 0.0822415 0.9930890 0.0822415 0.0069110 -0.0822415
19679624 0.0066212 -0.0804757 0.9933788 0.0804757 0.9933788 0.0804757 0.0066212 -0.0804757
20112321 0.0063436 -0.0787459 0.9936564 0.0787459 0.9936564 0.0787459 0.0063436 -0.0787459
20554530 0.0060778 -0.0770516 0.9939222 0.0770516 0.9939222 0.0770516 0.0060778 -0.0770516
21006463 0.0058233 -0.0753921 0.9941767 0.0753921 0.9941767 0.0753921 0.0058233 -0.0753921
21468333 0.0055797 -0.0737666 0.9944203 0.0737666 0.9944203 0.0737666 0.0055797 -0.0737666
21940357 0.0053464 -0.0721745 0.9946536 0.0721745 0.9946536 0.0721745 0.0053464 -0.0721745
22422760 0.0051230 -0.0706151 0.9948770 0.0706151 0.9948770 0.0706151 0.0051230 -0.0706151
22915770 0.0049092 -0.0690878 0.9950908 0.0690878 0.9950908 0.0690878 0.0049092 -0.0690878
23419619 0.0047045 -0.0675920 0.9952955 0.0675920 0.9952955 0.0675920 0.0047045 -0.0675920
23934547 0.0045086 -0.0661270 0.9954914 0.0661270 0.9954914 0.0661270 0.0045086 -0.0661270
24460796 0.0043210 -0.0646923 0.9956790 0.0646923 0.9956790 0.0646923 0.0043210 -0.0646923
24998616 0.0041415 -0.0632871 0.9958585 0.0632871 0.9958585 0.0632871 0.0041415 -0.0632871
25548261 0.0039698 -0.0619110 0.9960302 0.0619110 0.9960302 0.0619110 0.0039698 -0.0619110
26109991 0.0038054 -0.0605633 0.9961946 0.0605633 0.9961946 0.0605633 0.0038054 -0.0605633
26684072 0.0036481 -0.0592435 0.9963519 0.0592435 0.9963519 0.0592435 0.0036481 -0.0592435
27270775 0.0034976 -0.0579509 0.9965024 0.0579509 0.9965024 0.0579509 0.0034976 -0.0579509
27870378 0.0033535 -0.0566851 0.9966465 0.0566851 0.9966465 0.0566851 0.0033535 -0.0566851
28483164 0.0032157 -0.0554455 0.9967843 0.0554455 0.9967843 0.0554455 0.0032157 -0.0554455
29109424 0.0030839 -0.0542315 0.9969161 0.0542315 0.9969161 0.0542315 0.0030839 -0.0542315
29749453 0.0029578 -0.0530426 0.9970422 0.0530426 0.9970422 0.0530426 0.0029578 -0.0530426
30403555 0.0028372 -0.0518783 0.9971628 0.0518783 0.9971628 0.0518783 0.0028372 -0.0518783
31072038 0.0027218 -0.0507381 0.9972782 0.0507381 0.9972782 0.0507381 0.0027218 -0.0507381
31755220 0.0026115 -0.0496214 0.9973885 0.0496214 0.9973885 0.0496214 0.0026115 -0.0496214
32453422 0.0025060 -0.0485279 0.9974940 0.0485279 0.9974940 0.0485279 0.0025060 -0.0485279
33166976 0.0024051 -0.0474569 0.9975949 0.0474569 0.9975949 0.0474569 0.0024051 -0.0474569
33896219 0.0023086 -0.0464081 0.9976914 0.0464081 0.9976914 0.0464081 0.0023086 -0.0464081
34641496 0.0022164 -0.0453809 0.9977836 0.0453809 0.9977836 0.0453809 0.0022164 -0.0453809
35403159 0.0021282 -0.0443749 0.9978718 0.0443749 0.9978718 0.0443749 0.0021282 -0.0443749
36181569 0.0020440 -0.0433896 0.9979560 0.0433896 0.9979560 0.0433896 0.0020440 -0.0433896
36977093 0.0019634 -0.0424246 0.9980366 0.0424246 0.9980366 0.0424246 0.0019634 -0.0424246
37790109 0.0018864 -0.0414795 0.9981136 0.0414795 0.9981136 0.0414795 0.0018864 -0.0414795
38621001 0.0018128 -0.0405539 0.9981872 0.0405539 0.9981872 0.0405539 0.0018128 -0.0405539
39470161 0.0017426 -0.0396472 0.9982574 0.0396472 0.9982574 0.0396472 0.0017426 -0.0396472
40337993 0.0016754 -0.0387592 0.9983246 0.0387592 0.9983246 0.0387592 0.0016754 -0.0387592
41224905 0.0016112 -0.0378894 0.9983888 0.0378894 0.9983888 0.0378894 0.0016112 -0.0378894
42131317 0.0015500 -0.0370374 0.9984500 0.0370374 0.9984500 0.0370374 0.0015500 -0.0370374
43057659 0.0014914 -0.0362028 0.9985086 0.0362028 0.9985086 0.0362028 0.0014914 -0.0362028
44004369 0.0014355 -0.0353852 0.9985645 0.0353852 0.9985645 0.0353852 0.0014355 -0.0353852
44971893 0.0013822 -0.0345843 0.9986178 0.0345843 0.9986178 0.0345843 0.0013822 -0.0345843
45960691 0.0013312 -0.0337997 0.9986688 0.0337997 0.9986688 0.0337997 0.0013312 -0.0337997
46971230 0.0012826 -0.0330311 0.9987174 0.0330311 0.9987174 0.0330311 0.0012826 -0.0330311
48003987 0.0012362 -0.0322780 0.9987638 0.0322780 0.9987638 0.0322780 0.0012362 -0.0322780
49059451 0.0011919 -0.0315402 0.9988081 0.0315402 0.9988081 0.0315402 0.0011919 -0.0315402
50138122 0.0011497 -0.0308173 0.9988503 0.0308173 0.9988503 0.0308173 0.0011497 -0.0308173
51240510 0.0011094 -0.0301090 0.9988906 0.0301090 0.9988906 0.0301090 0.0011094 -0.0301090
52367136 0.0010709 -0.0294148 0.9989291 0.0294148 0.9989291 0.0294148 0.0010709 -0.0294148
53518533 0.0010343 -0.0287346 0.9989657 0.0287346 0.9989657 0.0287346 0.0010343 -0.0287346
54695245 0.0009993 -0.0280681 0.9990007 0.0280681 0.9990007 0.0280681 0.0009993 -0.0280681
55897831 0.0009660 -0.0274148 0.9990340 0.0274148 0.9990340 0.0274148 0.0009660 -0.0274148
57126857 0.0009343 -0.0267744 0.9990657 0.0267744 0.9990657 0.0267744 0.0009343 -0.0267744
58382906 0.0009040 -0.0261468 0.9990960 0.0261468 0.9990960 0.0261468 0.0009040 -0.0261468
59666572 0.0008752 -0.0255316 0.9991248 0.0255316 0.9991248 0.0255316 0.0008752 -0.0255316
60978462 0.0008478 -0.0249285 0.9991522 0.0249285 0.9991522 0.0249285 0.0008478 -0.0249285
62319196 0.0008217 -0.0243372 0.9991783 0.0243372 0.9991783 0.0243372 0.0008217 -0.0243372
63689409 0.0007968 -0.0237575 0.9992032 0.0237575 0.9992032 0.0237575 0.0007968 -0.0237575
65089750 0.0007732 -0.0231891 0.9992268 0.0231891 0.9992268 0.0231891 0.0007732 -0.0231891
66520879 0.0007507 -0.0226317 0.9992493 0.0226317 0.9992493 0.0226317 0.0007507 -0.0226317
67983474 0.0007293 -0.0220850 0.9992707 0.0220850 0.9992707 0.0220850 0.0007293 -0.0220850
69478228 0.0007090 -0.0215488 0.9992910 0.0215488 0.9992910 0.0215488 0.0007090 -0.0215488
71005847 0.0006897 -0.0210229 0.9993103 0.0210229 0.9993103 0.0210229 0.0006897 -0.0210229
72567054 0.0006713 -0.0205070 0.9993287 0.0205070 0.9993287 0.0205070 0.0006713 -0.0205070
74162587 0.0006540 -0.0200008 0.9993460 0.0200008 0.9993460 0.0200008 0.0006540 -0.0200008
75793201 0.0006375 -0.0195042 0.9993625 0.0195042 0.9993625 0.0195042 0.0006375 -0.0195042
77459667 0.0006218 -0.0190168 0.9993782 0.0190168 0.9993782 0.0190168 0.0006218 -0.0190168
79162774 0.0006070 -0.0185386 0.9993930 0.0185386 0.9993930 0.0185386 0.0006070 -0.0185386
80903327 0.0005930 -0.0180691 0.9994070 0.0180691 0.9994070 0.0180691 0.0005930 -0.0180691
82682150 0.0005797 -0.0176082 0.9994203 0.0176082 0.9994203 0.0176082 0.0005797 -0.0176082
84500083 0.0005671 -0.0171558 0.9994329 0.0171558 0.9994329 0.0171558 0.0005671 -0.0171558
86357988 0.0005553 -0.0167115 0.9994447 0.0167115 0.9994447 0.0167115 0.0005553 -0.0167115
88256743 0.0005441 -0.0162751 0.9994559 0.0162751 0.9994559 0.0162751 0.0005441 -0.0162751
90197245 0.0005336 -0.0158466 0.9994664 0.0158466 0.9994664 0.0158466 0.0005336 -0.0158466
92180413 0.0005237 -0.0154255 0.9994763 0.0154255 0.9994763 0.0154255 0.0005237 -0.0154255
94207185 0.0005143 -0.0150119 0.9994857 0.0150119 0.9994857 0.0150119 0.0005143 -0.0150119
96278520 0.0005056 -0.0146054 0.9994944 0.0146054 0.9994944 0.0146054 0.0005056 -0.0146054
98395398 0.0004974 -0.0142058 0.9995026 0.0142058 0.9995026 0.0142058 0.0004974 -0.0142058
100558819 0.0004897 -0.0138131 0.9995103 0.0138131 0.9995103 0.0138131 0.0004897 -0.0138131
102769807 0.0004826 -0.0134269 0.9995174 0.0134269 0.9995174 0.0134269 0.0004826 -0.0134269
105029408 0.0004759 -0.0130471 0.9995241 0.0130471 0.9995241 0.0130471 0.0004759 -0.0130471
107338692 0.0004697 -0.0126735 0.9995303 0.0126735 0.9995303 0.0126735 0.0004697 -0.0126735
