!Murata Part Number: GRM1555C2A100GA01
!These Parameters are Measured in Series Mode Connection
!Data Generated on Mar 30, 2021
!       o--ll--o
!Port1            Port2
!       o------o
!Operation Temp=25[degC], DC Bias Voltage=0[V]
!Freq. Start=100[MHz] Stop=9[GHz] 401[Steps]
# Hz S RI R 50
!Freq.(Hz) S11(Real) S11(Imag) S21(Real) S21(Imag) S12(Real) S12(Imag) S22(Real) S22(Imag)
100000000 0.7162163 -0.4503898 0.2837837 0.4503898 0.2837837 0.4503898 0.7162163 -0.4503898
121000000 0.6326236 -0.4815518 0.3673764 0.4815518 0.3673764 0.4815518 0.6326236 -0.4815518
142000000 0.5553175 -0.4962959 0.4446825 0.4962959 0.4446825 0.4962959 0.5553175 -0.4962959
163000000 0.4862291 -0.4990781 0.5137709 0.4990781 0.5137709 0.4990781 0.4862291 -0.4990781
184000000 0.4257793 -0.4936293 0.5742207 0.4936293 0.5742207 0.4936293 0.4257793 -0.4936293
205000000 0.3735406 -0.4828116 0.6264594 0.4828116 0.6264594 0.4828116 0.3735406 -0.4828116
226000000 0.3286905 -0.4687023 0.6713095 0.4687023 0.6713095 0.4687023 0.3286905 -0.4687023
247000000 0.2902819 -0.4527526 0.7097181 0.4527526 0.7097181 0.4527526 0.2902819 -0.4527526
268000000 0.2573870 -0.4359474 0.7426130 0.4359474 0.7426130 0.4359474 0.2573870 -0.4359474
289000000 0.2291636 -0.4189381 0.7708364 0.4189381 0.7708364 0.4189381 0.2291636 -0.4189381
310000000 0.2048782 -0.4021437 0.7951218 0.4021437 0.7951218 0.4021437 0.2048782 -0.4021437
331000000 0.1839066 -0.3858241 0.8160934 0.3858241 0.8160934 0.3858241 0.1839066 -0.3858241
352000000 0.1657251 -0.3701317 0.8342749 0.3701317 0.8342749 0.3701317 0.1657251 -0.3701317
373000000 0.1498970 -0.3551473 0.8501030 0.3551473 0.8501030 0.3551473 0.1498970 -0.3551473
394000000 0.1360600 -0.3409045 0.8639400 0.3409045 0.8639400 0.3409045 0.1360600 -0.3409045
415000000 0.1239131 -0.3274065 0.8760869 0.3274065 0.8760869 0.3274065 0.1239131 -0.3274065
436000000 0.1132062 -0.3146372 0.8867938 0.3146372 0.8867938 0.3146372 0.1132062 -0.3146372
457000000 0.1037314 -0.3025687 0.8962686 0.3025687 0.8962686 0.3025687 0.1037314 -0.3025687
478000000 0.0953149 -0.2911668 0.9046851 0.2911668 0.9046851 0.2911668 0.0953149 -0.2911668
499000000 0.0878111 -0.2803938 0.9121889 0.2803938 0.9121889 0.2803938 0.0878111 -0.2803938
520000000 0.0810978 -0.2702112 0.9189022 0.2702112 0.9189022 0.2702112 0.0810978 -0.2702112
541000000 0.0750716 -0.2605806 0.9249284 0.2605806 0.9249284 0.2605806 0.0750716 -0.2605806
562000000 0.0696452 -0.2514651 0.9303548 0.2514651 0.9303548 0.2514651 0.0696452 -0.2514651
583000000 0.0647441 -0.2428293 0.9352559 0.2428293 0.9352559 0.2428293 0.0647441 -0.2428293
604000000 0.0603049 -0.2346401 0.9396951 0.2346401 0.9396951 0.2346401 0.0603049 -0.2346401
625000000 0.0562731 -0.2268663 0.9437269 0.2268663 0.9437269 0.2268663 0.0562731 -0.2268663
646000000 0.0526020 -0.2194790 0.9473980 0.2194790 0.9473980 0.2194790 0.0526020 -0.2194790
667000000 0.0492510 -0.2124515 0.9507490 0.2124515 0.9507490 0.2124515 0.0492510 -0.2124515
688000000 0.0461851 -0.2057588 0.9538149 0.2057588 0.9538149 0.2057588 0.0461851 -0.2057588
709000000 0.0433740 -0.1993782 0.9566260 0.1993782 0.9566260 0.1993782 0.0433740 -0.1993782
730000000 0.0407911 -0.1932884 0.9592089 0.1932884 0.9592089 0.1932884 0.0407911 -0.1932884
751000000 0.0384131 -0.1874702 0.9615869 0.1874702 0.9615869 0.1874702 0.0384131 -0.1874702
772000000 0.0362197 -0.1819054 0.9637803 0.1819054 0.9637803 0.1819054 0.0362197 -0.1819054
793000000 0.0341929 -0.1765777 0.9658071 0.1765777 0.9658071 0.1765777 0.0341929 -0.1765777
814000000 0.0323168 -0.1714718 0.9676832 0.1714718 0.9676832 0.1714718 0.0323168 -0.1714718
835000000 0.0305774 -0.1665735 0.9694226 0.1665735 0.9694226 0.1665735 0.0305774 -0.1665735
856000000 0.0289623 -0.1618701 0.9710377 0.1618701 0.9710377 0.1618701 0.0289623 -0.1618701
877000000 0.0274604 -0.1573494 0.9725396 0.1573494 0.9725396 0.1573494 0.0274604 -0.1573494
898000000 0.0260618 -0.1530004 0.9739382 0.1530004 0.9739382 0.1530004 0.0260618 -0.1530004
919000000 0.0247577 -0.1488129 0.9752423 0.1488129 0.9752423 0.1488129 0.0247577 -0.1488129
940000000 0.0235402 -0.1447774 0.9764598 0.1447774 0.9764598 0.1447774 0.0235402 -0.1447774
961000000 0.0224020 -0.1408851 0.9775980 0.1408851 0.9775980 0.1408851 0.0224020 -0.1408851
982000000 0.0213369 -0.1371279 0.9786631 0.1371279 0.9786631 0.1371279 0.0213369 -0.1371279
1003000000 0.0203391 -0.1334981 0.9796609 0.1334981 0.9796609 0.1334981 0.0203391 -0.1334981
1024000000 0.0194033 -0.1299887 0.9805967 0.1299887 0.9805967 0.1299887 0.0194033 -0.1299887
1045000000 0.0185249 -0.1265931 0.9814751 0.1265931 0.9814751 0.1265931 0.0185249 -0.1265931
1066000000 0.0176995 -0.1233054 0.9823005 0.1233054 0.9823005 0.1233054 0.0176995 -0.1233054
1087000000 0.0169232 -0.1201196 0.9830768 0.1201196 0.9830768 0.1201196 0.0169232 -0.1201196
1108000000 0.0161926 -0.1170307 0.9838074 0.1170307 0.9838074 0.1170307 0.0161926 -0.1170307
1129000000 0.0155043 -0.1140335 0.9844957 0.1140335 0.9844957 0.1140335 0.0155043 -0.1140335
1150000000 0.0148554 -0.1111234 0.9851446 0.1111234 0.9851446 0.1111234 0.0148554 -0.1111234
1171000000 0.0142433 -0.1082961 0.9857567 0.1082961 0.9857567 0.1082961 0.0142433 -0.1082961
1192000000 0.0136654 -0.1055476 0.9863346 0.1055476 0.9863346 0.1055476 0.0136654 -0.1055476
1213000000 0.0131195 -0.1028739 0.9868805 0.1028739 0.9868805 0.1028739 0.0131195 -0.1028739
1234000000 0.0126036 -0.1002716 0.9873964 0.1002716 0.9873964 0.1002716 0.0126036 -0.1002716
1255000000 0.0121156 -0.0977372 0.9878844 0.0977372 0.9878844 0.0977372 0.0121156 -0.0977372
1276000000 0.0116539 -0.0952676 0.9883461 0.0952676 0.9883461 0.0952676 0.0116539 -0.0952676
1297000000 0.0112168 -0.0928598 0.9887832 0.0928598 0.9887832 0.0928598 0.0112168 -0.0928598
1318000000 0.0108028 -0.0905109 0.9891972 0.0905109 0.9891972 0.0905109 0.0108028 -0.0905109
1339000000 0.0104105 -0.0882185 0.9895895 0.0882185 0.9895895 0.0882185 0.0104105 -0.0882185
1360000000 0.0100386 -0.0859798 0.9899614 0.0859798 0.9899614 0.0859798 0.0100386 -0.0859798
1381000000 0.0096861 -0.0837927 0.9903139 0.0837927 0.9903139 0.0837927 0.0096861 -0.0837927
1402000000 0.0093517 -0.0816548 0.9906483 0.0816548 0.9906483 0.0816548 0.0093517 -0.0816548
1423000000 0.0090344 -0.0795641 0.9909656 0.0795641 0.9909656 0.0795641 0.0090344 -0.0795641
1444000000 0.0087333 -0.0775186 0.9912667 0.0775186 0.9912667 0.0775186 0.0087333 -0.0775186
1465000000 0.0084475 -0.0755163 0.9915525 0.0755163 0.9915525 0.0755163 0.0084475 -0.0755163
1486000000 0.0081762 -0.0735556 0.9918238 0.0735556 0.9918238 0.0735556 0.0081762 -0.0735556
1507000000 0.0079186 -0.0716346 0.9920814 0.0716346 0.9920814 0.0716346 0.0079186 -0.0716346
1528000000 0.0076740 -0.0697518 0.9923260 0.0697518 0.9923260 0.0697518 0.0076740 -0.0697518
1549000000 0.0074417 -0.0679057 0.9925583 0.0679057 0.9925583 0.0679057 0.0074417 -0.0679057
1570000000 0.0072212 -0.0660948 0.9927788 0.0660948 0.9927788 0.0660948 0.0072212 -0.0660948
1591000000 0.0070118 -0.0643178 0.9929882 0.0643178 0.9929882 0.0643178 0.0070118 -0.0643178
1612000000 0.0068130 -0.0625733 0.9931870 0.0625733 0.9931870 0.0625733 0.0068130 -0.0625733
1633000000 0.0066242 -0.0608600 0.9933758 0.0608600 0.9933758 0.0608600 0.0066242 -0.0608600
1654000000 0.0064451 -0.0591768 0.9935549 0.0591768 0.9935549 0.0591768 0.0064451 -0.0591768
1675000000 0.0062751 -0.0575226 0.9937249 0.0575226 0.9937249 0.0575226 0.0062751 -0.0575226
1696000000 0.0061138 -0.0558962 0.9938862 0.0558962 0.9938862 0.0558962 0.0061138 -0.0558962
1717000000 0.0059609 -0.0542967 0.9940391 0.0542967 0.9940391 0.0542967 0.0059609 -0.0542967
1738000000 0.0058160 -0.0527230 0.9941840 0.0527230 0.9941840 0.0527230 0.0058160 -0.0527230
1759000000 0.0056787 -0.0511742 0.9943213 0.0511742 0.9943213 0.0511742 0.0056787 -0.0511742
1780000000 0.0055487 -0.0496494 0.9944513 0.0496494 0.9944513 0.0496494 0.0055487 -0.0496494
1801000000 0.0054257 -0.0481478 0.9945743 0.0481478 0.9945743 0.0481478 0.0054257 -0.0481478
1822000000 0.0053094 -0.0466685 0.9946906 0.0466685 0.9946906 0.0466685 0.0053094 -0.0466685
1843000000 0.0051995 -0.0452107 0.9948005 0.0452107 0.9948005 0.0452107 0.0051995 -0.0452107
1864000000 0.0050958 -0.0437736 0.9949042 0.0437736 0.9949042 0.0437736 0.0050958 -0.0437736
1885000000 0.0049980 -0.0423567 0.9950020 0.0423567 0.9950020 0.0423567 0.0049980 -0.0423567
1906000000 0.0049060 -0.0409591 0.9950940 0.0409591 0.9950940 0.0409591 0.0049060 -0.0409591
1927000000 0.0048194 -0.0395802 0.9951806 0.0395802 0.9951806 0.0395802 0.0048194 -0.0395802
1948000000 0.0047381 -0.0382193 0.9952619 0.0382193 0.9952619 0.0382193 0.0047381 -0.0382193
1969000000 0.0046620 -0.0368759 0.9953380 0.0368759 0.9953380 0.0368759 0.0046620 -0.0368759
1990000000 0.0045907 -0.0355493 0.9954093 0.0355493 0.9954093 0.0355493 0.0045907 -0.0355493
2011000000 0.0045242 -0.0342390 0.9954758 0.0342390 0.9954758 0.0342390 0.0045242 -0.0342390
2032000000 0.0044622 -0.0329444 0.9955378 0.0329444 0.9955378 0.0329444 0.0044622 -0.0329444
2053000000 0.0044047 -0.0316650 0.9955953 0.0316650 0.9955953 0.0316650 0.0044047 -0.0316650
2074000000 0.0043515 -0.0304004 0.9956485 0.0304004 0.9956485 0.0304004 0.0043515 -0.0304004
2095000000 0.0043025 -0.0291500 0.9956975 0.0291500 0.9956975 0.0291500 0.0043025 -0.0291500
2116000000 0.0042574 -0.0279133 0.9957426 0.0279133 0.9957426 0.0279133 0.0042574 -0.0279133
2137000000 0.0042163 -0.0266899 0.9957837 0.0266899 0.9957837 0.0266899 0.0042163 -0.0266899
2158000000 0.0041790 -0.0254794 0.9958210 0.0254794 0.9958210 0.0254794 0.0041790 -0.0254794
2179000000 0.0041453 -0.0242814 0.9958547 0.0242814 0.9958547 0.0242814 0.0041453 -0.0242814
2200000000 0.0041153 -0.0230954 0.9958847 0.0230954 0.9958847 0.0230954 0.0041153 -0.0230954
2221000000 0.0040887 -0.0219210 0.9959113 0.0219210 0.9959113 0.0219210 0.0040887 -0.0219210
2242000000 0.0040655 -0.0207579 0.9959345 0.0207579 0.9959345 0.0207579 0.0040655 -0.0207579
2263000000 0.0040456 -0.0196057 0.9959544 0.0196057 0.9959544 0.0196057 0.0040456 -0.0196057
2284000000 0.0040289 -0.0184641 0.9959711 0.0184641 0.9959711 0.0184641 0.0040289 -0.0184641
2305000000 0.0040154 -0.0173327 0.9959846 0.0173327 0.9959846 0.0173327 0.0040154 -0.0173327
2326000000 0.0040050 -0.0162111 0.9959950 0.0162111 0.9959950 0.0162111 0.0040050 -0.0162111
2347000000 0.0039975 -0.0150992 0.9960025 0.0150992 0.9960025 0.0150992 0.0039975 -0.0150992
2368000000 0.0039930 -0.0139964 0.9960070 0.0139964 0.9960070 0.0139964 0.0039930 -0.0139964
2389000000 0.0039914 -0.0129027 0.9960086 0.0129027 0.9960086 0.0129027 0.0039914 -0.0129027
2410000000 0.0039926 -0.0118176 0.9960074 0.0118176 0.9960074 0.0118176 0.0039926 -0.0118176
2431000000 0.0039966 -0.0107408 0.9960034 0.0107408 0.9960034 0.0107408 0.0039966 -0.0107408
2452000000 0.0040033 -0.0096722 0.9959967 0.0096722 0.9959967 0.0096722 0.0040033 -0.0096722
2473000000 0.0040127 -0.0086114 0.9959873 0.0086114 0.9959873 0.0086114 0.0040127 -0.0086114
2494000000 0.0040247 -0.0075582 0.9959753 0.0075582 0.9959753 0.0075582 0.0040247 -0.0075582
2515000000 0.0040393 -0.0065124 0.9959607 0.0065124 0.9959607 0.0065124 0.0040393 -0.0065124
2536000000 0.0040565 -0.0054736 0.9959435 0.0054736 0.9959435 0.0054736 0.0040565 -0.0054736
2557000000 0.0040762 -0.0044416 0.9959238 0.0044416 0.9959238 0.0044416 0.0040762 -0.0044416
2578000000 0.0040983 -0.0034163 0.9959017 0.0034163 0.9959017 0.0034163 0.0040983 -0.0034163
2599000000 0.0041229 -0.0023974 0.9958771 0.0023974 0.9958771 0.0023974 0.0041229 -0.0023974
2620000000 0.0041500 -0.0013847 0.9958500 0.0013847 0.9958500 0.0013847 0.0041500 -0.0013847
2641000000 0.0041794 -0.0003779 0.9958206 0.0003779 0.9958206 0.0003779 0.0041794 -0.0003779
2662000000 0.0042112 0.0006232 0.9957888 -0.0006232 0.9957888 -0.0006232 0.0042112 0.0006232
2683000000 0.0042454 0.0016186 0.9957546 -0.0016186 0.9957546 -0.0016186 0.0042454 0.0016186
2704000000 0.0042819 0.0026088 0.9957181 -0.0026088 0.9957181 -0.0026088 0.0042819 0.0026088
2725000000 0.0043208 0.0035937 0.9956792 -0.0035937 0.9956792 -0.0035937 0.0043208 0.0035937
2746000000 0.0043619 0.0045737 0.9956381 -0.0045737 0.9956381 -0.0045737 0.0043619 0.0045737
2767000000 0.0044053 0.0055489 0.9955947 -0.0055489 0.9955947 -0.0055489 0.0044053 0.0055489
2788000000 0.0044510 0.0065195 0.9955490 -0.0065195 0.9955490 -0.0065195 0.0044510 0.0065195
2809000000 0.0044990 0.0074856 0.9955010 -0.0074856 0.9955010 -0.0074856 0.0044990 0.0074856
2830000000 0.0045492 0.0084475 0.9954508 -0.0084475 0.9954508 -0.0084475 0.0045492 0.0084475
2851000000 0.0046018 0.0094053 0.9953982 -0.0094053 0.9953982 -0.0094053 0.0046018 0.0094053
2872000000 0.0046565 0.0103591 0.9953435 -0.0103591 0.9953435 -0.0103591 0.0046565 0.0103591
2893000000 0.0047135 0.0113092 0.9952865 -0.0113092 0.9952865 -0.0113092 0.0047135 0.0113092
2914000000 0.0047728 0.0122557 0.9952272 -0.0122557 0.9952272 -0.0122557 0.0047728 0.0122557
2935000000 0.0048343 0.0131988 0.9951657 -0.0131988 0.9951657 -0.0131988 0.0048343 0.0131988
2956000000 0.0048981 0.0141385 0.9951019 -0.0141385 0.9951019 -0.0141385 0.0048981 0.0141385
2977000000 0.0049642 0.0150751 0.9950358 -0.0150751 0.9950358 -0.0150751 0.0049642 0.0150751
2998000000 0.0050325 0.0160087 0.9949675 -0.0160087 0.9949675 -0.0160087 0.0050325 0.0160087
3019000000 0.0051032 0.0169394 0.9948968 -0.0169394 0.9948968 -0.0169394 0.0051032 0.0169394
3040000000 0.0051761 0.0178674 0.9948239 -0.0178674 0.9948239 -0.0178674 0.0051761 0.0178674
3061000000 0.0052513 0.0187929 0.9947487 -0.0187929 0.9947487 -0.0187929 0.0052513 0.0187929
3082000000 0.0053289 0.0197159 0.9946711 -0.0197159 0.9946711 -0.0197159 0.0053289 0.0197159
3103000000 0.0054087 0.0206366 0.9945913 -0.0206366 0.9945913 -0.0206366 0.0054087 0.0206366
3124000000 0.0054910 0.0215552 0.9945090 -0.0215552 0.9945090 -0.0215552 0.0054910 0.0215552
3145000000 0.0055756 0.0224717 0.9944244 -0.0224717 0.9944244 -0.0224717 0.0055756 0.0224717
3166000000 0.0056626 0.0233864 0.9943374 -0.0233864 0.9943374 -0.0233864 0.0056626 0.0233864
3187000000 0.0057521 0.0242993 0.9942479 -0.0242993 0.9942479 -0.0242993 0.0057521 0.0242993
3208000000 0.0058439 0.0252105 0.9941561 -0.0252105 0.9941561 -0.0252105 0.0058439 0.0252105
3229000000 0.0059383 0.0261202 0.9940617 -0.0261202 0.9940617 -0.0261202 0.0059383 0.0261202
3250000000 0.0060352 0.0270286 0.9939648 -0.0270286 0.9939648 -0.0270286 0.0060352 0.0270286
3271000000 0.0061346 0.0279357 0.9938654 -0.0279357 0.9938654 -0.0279357 0.0061346 0.0279357
3292000000 0.0062366 0.0288416 0.9937634 -0.0288416 0.9937634 -0.0288416 0.0062366 0.0288416
3313000000 0.0063412 0.0297466 0.9936588 -0.0297466 0.9936588 -0.0297466 0.0063412 0.0297466
3334000000 0.0064484 0.0306506 0.9935516 -0.0306506 0.9935516 -0.0306506 0.0064484 0.0306506
3355000000 0.0065583 0.0315539 0.9934417 -0.0315539 0.9934417 -0.0315539 0.0065583 0.0315539
3376000000 0.0066710 0.0324566 0.9933290 -0.0324566 0.9933290 -0.0324566 0.0066710 0.0324566
3397000000 0.0067864 0.0333587 0.9932136 -0.0333587 0.9932136 -0.0333587 0.0067864 0.0333587
3418000000 0.0069047 0.0342604 0.9930953 -0.0342604 0.9930953 -0.0342604 0.0069047 0.0342604
3439000000 0.0070258 0.0351619 0.9929742 -0.0351619 0.9929742 -0.0351619 0.0070258 0.0351619
3460000000 0.0071498 0.0360631 0.9928502 -0.0360631 0.9928502 -0.0360631 0.0071498 0.0360631
3481000000 0.0072769 0.0369643 0.9927231 -0.0369643 0.9927231 -0.0369643 0.0072769 0.0369643
3502000000 0.0074070 0.0378656 0.9925930 -0.0378656 0.9925930 -0.0378656 0.0074070 0.0378656
3523000000 0.0075402 0.0387671 0.9924598 -0.0387671 0.9924598 -0.0387671 0.0075402 0.0387671
3544000000 0.0076766 0.0396689 0.9923234 -0.0396689 0.9923234 -0.0396689 0.0076766 0.0396689
3565000000 0.0078162 0.0405711 0.9921838 -0.0405711 0.9921838 -0.0405711 0.0078162 0.0405711
3586000000 0.0079591 0.0414739 0.9920409 -0.0414739 0.9920409 -0.0414739 0.0079591 0.0414739
3607000000 0.0081055 0.0423773 0.9918945 -0.0423773 0.9918945 -0.0423773 0.0081055 0.0423773
3628000000 0.0082553 0.0432815 0.9917447 -0.0432815 0.9917447 -0.0432815 0.0082553 0.0432815
3649000000 0.0084086 0.0441866 0.9915914 -0.0441866 0.9915914 -0.0441866 0.0084086 0.0441866
3670000000 0.0085657 0.0450927 0.9914343 -0.0450927 0.9914343 -0.0450927 0.0085657 0.0450927
3691000000 0.0087264 0.0460000 0.9912736 -0.0460000 0.9912736 -0.0460000 0.0087264 0.0460000
3712000000 0.0088910 0.0469085 0.9911090 -0.0469085 0.9911090 -0.0469085 0.0088910 0.0469085
3733000000 0.0090596 0.0478185 0.9909404 -0.0478185 0.9909404 -0.0478185 0.0090596 0.0478185
3754000000 0.0092322 0.0487299 0.9907678 -0.0487299 0.9907678 -0.0487299 0.0092322 0.0487299
3775000000 0.0094089 0.0496429 0.9905911 -0.0496429 0.9905911 -0.0496429 0.0094089 0.0496429
3796000000 0.0095900 0.0505577 0.9904100 -0.0505577 0.9904100 -0.0505577 0.0095900 0.0505577
3817000000 0.0097755 0.0514744 0.9902245 -0.0514744 0.9902245 -0.0514744 0.0097755 0.0514744
3838000000 0.0099655 0.0523931 0.9900345 -0.0523931 0.9900345 -0.0523931 0.0099655 0.0523931
3859000000 0.0101602 0.0533139 0.9898398 -0.0533139 0.9898398 -0.0533139 0.0101602 0.0533139
3880000000 0.0103597 0.0542370 0.9896403 -0.0542370 0.9896403 -0.0542370 0.0103597 0.0542370
3901000000 0.0105642 0.0551625 0.9894358 -0.0551625 0.9894358 -0.0551625 0.0105642 0.0551625
3922000000 0.0107739 0.0560904 0.9892261 -0.0560904 0.9892261 -0.0560904 0.0107739 0.0560904
3943000000 0.0109889 0.0570210 0.9890111 -0.0570210 0.9890111 -0.0570210 0.0109889 0.0570210
3964000000 0.0112094 0.0579544 0.9887906 -0.0579544 0.9887906 -0.0579544 0.0112094 0.0579544
3985000000 0.0114356 0.0588907 0.9885644 -0.0588907 0.9885644 -0.0588907 0.0114356 0.0588907
4006000000 0.0116677 0.0598300 0.9883323 -0.0598300 0.9883323 -0.0598300 0.0116677 0.0598300
4027000000 0.0119059 0.0607725 0.9880941 -0.0607725 0.9880941 -0.0607725 0.0119059 0.0607725
4048000000 0.0121504 0.0617183 0.9878496 -0.0617183 0.9878496 -0.0617183 0.0121504 0.0617183
4069000000 0.0124014 0.0626676 0.9875986 -0.0626676 0.9875986 -0.0626676 0.0124014 0.0626676
4090000000 0.0126593 0.0636204 0.9873407 -0.0636204 0.9873407 -0.0636204 0.0126593 0.0636204
4111000000 0.0129243 0.0645769 0.9870757 -0.0645769 0.9870757 -0.0645769 0.0129243 0.0645769
4132000000 0.0131966 0.0655372 0.9868034 -0.0655372 0.9868034 -0.0655372 0.0131966 0.0655372
4153000000 0.0134766 0.0665016 0.9865234 -0.0665016 0.9865234 -0.0665016 0.0134766 0.0665016
4174000000 0.0137645 0.0674700 0.9862355 -0.0674700 0.9862355 -0.0674700 0.0137645 0.0674700
4195000000 0.0140607 0.0684428 0.9859393 -0.0684428 0.9859393 -0.0684428 0.0140607 0.0684428
4216000000 0.0143655 0.0694198 0.9856345 -0.0694198 0.9856345 -0.0694198 0.0143655 0.0694198
4237000000 0.0146793 0.0704015 0.9853207 -0.0704015 0.9853207 -0.0704015 0.0146793 0.0704015
4258000000 0.0150026 0.0713877 0.9849974 -0.0713877 0.9849974 -0.0713877 0.0150026 0.0713877
4279000000 0.0153356 0.0723787 0.9846644 -0.0723787 0.9846644 -0.0723787 0.0153356 0.0723787
4300000000 0.0156789 0.0733747 0.9843211 -0.0733747 0.9843211 -0.0733747 0.0156789 0.0733747
4321000000 0.0160329 0.0743756 0.9839671 -0.0743756 0.9839671 -0.0743756 0.0160329 0.0743756
4342000000 0.0163982 0.0753817 0.9836018 -0.0753817 0.9836018 -0.0753817 0.0163982 0.0753817
4363000000 0.0167751 0.0763930 0.9832249 -0.0763930 0.9832249 -0.0763930 0.0167751 0.0763930
4384000000 0.0171644 0.0774097 0.9828356 -0.0774097 0.9828356 -0.0774097 0.0171644 0.0774097
4405000000 0.0175666 0.0784318 0.9824334 -0.0784318 0.9824334 -0.0784318 0.0175666 0.0784318
4426000000 0.0179823 0.0794594 0.9820177 -0.0794594 0.9820177 -0.0794594 0.0179823 0.0794594
4447000000 0.0184122 0.0804926 0.9815878 -0.0804926 0.9815878 -0.0804926 0.0184122 0.0804926
4468000000 0.0188571 0.0815314 0.9811429 -0.0815314 0.9811429 -0.0815314 0.0188571 0.0815314
4489000000 0.0193177 0.0825760 0.9806823 -0.0825760 0.9806823 -0.0825760 0.0193177 0.0825760
4510000000 0.0197948 0.0836262 0.9802052 -0.0836262 0.9802052 -0.0836262 0.0197948 0.0836262
