!Murata Part Number: GRM1552C1H9R1WA01
!These Parameters are Measured in Series Mode Connection
!Data Generated on Mar 30, 2021
!       o--ll--o
!Port1            Port2
!       o------o
!Operation Temp=25[degC], DC Bias Voltage=0[V]
!Freq. Start=100[MHz] Stop=9[GHz] 401[Steps]
# Hz S RI R 50
!Freq.(Hz) S11(Real) S11(Imag) S21(Real) S21(Imag) S12(Real) S12(Imag) S22(Real) S22(Imag)
100000000 0.7529798 -0.4307342 0.2470202 0.4307342 0.2470202 0.4307342 0.7529798 -0.4307342
121000000 0.6753753 -0.4675749 0.3246247 0.4675749 0.3246247 0.4675749 0.6753753 -0.4675749
142000000 0.6014857 -0.4888171 0.3985143 0.4888171 0.3985143 0.4888171 0.6014857 -0.4888171
163000000 0.5336513 -0.4979749 0.4663487 0.4979749 0.4663487 0.4979749 0.5336513 -0.4979749
184000000 0.4728508 -0.4982542 0.5271492 0.4982542 0.5271492 0.4982542 0.4728508 -0.4982542
205000000 0.4191825 -0.4922996 0.5808175 0.4922996 0.5808175 0.4922996 0.4191825 -0.4922996
226000000 0.3722457 -0.4821593 0.6277543 0.4821593 0.6277543 0.4821593 0.3722457 -0.4821593
247000000 0.3314018 -0.4693538 0.6685982 0.4693538 0.6685982 0.4693538 0.3314018 -0.4693538
268000000 0.2959342 -0.4549780 0.7040658 0.4549780 0.7040658 0.4549780 0.2959342 -0.4549780
289000000 0.2651376 -0.4398016 0.7348624 0.4398016 0.7348624 0.4398016 0.2651376 -0.4398016
310000000 0.2383621 -0.4243545 0.7616379 0.4243545 0.7616379 0.4243545 0.2383621 -0.4243545
331000000 0.2150314 -0.4089932 0.7849686 0.4089932 0.7849686 0.4089932 0.2150314 -0.4089932
352000000 0.1946451 -0.3939514 0.8053549 0.3939514 0.8053549 0.3939514 0.1946451 -0.3939514
373000000 0.1767750 -0.3793760 0.8232250 0.3793760 0.8232250 0.3793760 0.1767750 -0.3793760
394000000 0.1610577 -0.3653542 0.8389423 0.3653542 0.8389423 0.3653542 0.1610577 -0.3653542
415000000 0.1471858 -0.3519316 0.8528142 0.3519316 0.8528142 0.3519316 0.1471858 -0.3519316
436000000 0.1348996 -0.3391259 0.8651004 0.3391259 0.8651004 0.3391259 0.1348996 -0.3391259
457000000 0.1239804 -0.3269359 0.8760196 0.3269359 0.8760196 0.3269359 0.1239804 -0.3269359
478000000 0.1142430 -0.3153483 0.8857570 0.3153483 0.8857570 0.3153483 0.1142430 -0.3153483
499000000 0.1055310 -0.3043419 0.8944690 0.3043419 0.8944690 0.3043419 0.1055310 -0.3043419
520000000 0.0977115 -0.2938912 0.9022885 0.2938912 0.9022885 0.2938912 0.0977115 -0.2938912
541000000 0.0906716 -0.2839678 0.9093284 0.2839678 0.9093284 0.2839678 0.0906716 -0.2839678
562000000 0.0843149 -0.2745429 0.9156851 0.2745429 0.9156851 0.2745429 0.0843149 -0.2745429
583000000 0.0785588 -0.2655872 0.9214412 0.2655872 0.9214412 0.2655872 0.0785588 -0.2655872
604000000 0.0733325 -0.2570723 0.9266675 0.2570723 0.9266675 0.2570723 0.0733325 -0.2570723
625000000 0.0685751 -0.2489710 0.9314249 0.2489710 0.9314249 0.2489710 0.0685751 -0.2489710
646000000 0.0642338 -0.2412571 0.9357662 0.2412571 0.9357662 0.2412571 0.0642338 -0.2412571
667000000 0.0602629 -0.2339061 0.9397371 0.2339061 0.9397371 0.2339061 0.0602629 -0.2339061
688000000 0.0566225 -0.2268949 0.9433775 0.2268949 0.9433775 0.2268949 0.0566225 -0.2268949
709000000 0.0532782 -0.2202017 0.9467218 0.2202017 0.9467218 0.2202017 0.0532782 -0.2202017
730000000 0.0501995 -0.2138065 0.9498005 0.2138065 0.9498005 0.2138065 0.0501995 -0.2138065
751000000 0.0473597 -0.2076905 0.9526403 0.2076905 0.9526403 0.2076905 0.0473597 -0.2076905
772000000 0.0447356 -0.2018360 0.9552644 0.2018360 0.9552644 0.2018360 0.0447356 -0.2018360
793000000 0.0423063 -0.1962271 0.9576937 0.1962271 0.9576937 0.1962271 0.0423063 -0.1962271
814000000 0.0400537 -0.1908484 0.9599463 0.1908484 0.9599463 0.1908484 0.0400537 -0.1908484
835000000 0.0379615 -0.1856862 0.9620385 0.1856862 0.9620385 0.1856862 0.0379615 -0.1856862
856000000 0.0360152 -0.1807273 0.9639848 0.1807273 0.9639848 0.1807273 0.0360152 -0.1807273
877000000 0.0342021 -0.1759597 0.9657979 0.1759597 0.9657979 0.1759597 0.0342021 -0.1759597
898000000 0.0325106 -0.1713723 0.9674894 0.1713723 0.9674894 0.1713723 0.0325106 -0.1713723
919000000 0.0309304 -0.1669546 0.9690696 0.1669546 0.9690696 0.1669546 0.0309304 -0.1669546
940000000 0.0294524 -0.1626969 0.9705476 0.1626969 0.9705476 0.1626969 0.0294524 -0.1626969
961000000 0.0280681 -0.1585903 0.9719319 0.1585903 0.9719319 0.1585903 0.0280681 -0.1585903
982000000 0.0267703 -0.1546265 0.9732297 0.1546265 0.9732297 0.1546265 0.0267703 -0.1546265
1003000000 0.0255520 -0.1507974 0.9744480 0.1507974 0.9744480 0.1507974 0.0255520 -0.1507974
1024000000 0.0244072 -0.1470961 0.9755928 0.1470961 0.9755928 0.1470961 0.0244072 -0.1470961
1045000000 0.0233303 -0.1435155 0.9766697 0.1435155 0.9766697 0.1435155 0.0233303 -0.1435155
1066000000 0.0223163 -0.1400495 0.9776837 0.1400495 0.9776837 0.1400495 0.0223163 -0.1400495
1087000000 0.0213607 -0.1366920 0.9786393 0.1366920 0.9786393 0.1366920 0.0213607 -0.1366920
1108000000 0.0204593 -0.1334376 0.9795407 0.1334376 0.9795407 0.1334376 0.0204593 -0.1334376
1129000000 0.0196083 -0.1302811 0.9803917 0.1302811 0.9803917 0.1302811 0.0196083 -0.1302811
1150000000 0.0188042 -0.1272176 0.9811958 0.1272176 0.9811958 0.1272176 0.0188042 -0.1272176
1171000000 0.0180438 -0.1242426 0.9819562 0.1242426 0.9819562 0.1242426 0.0180438 -0.1242426
1192000000 0.0173242 -0.1213518 0.9826758 0.1213518 0.9826758 0.1213518 0.0173242 -0.1213518
1213000000 0.0166428 -0.1185412 0.9833572 0.1185412 0.9833572 0.1185412 0.0166428 -0.1185412
1234000000 0.0159971 -0.1158070 0.9840029 0.1158070 0.9840029 0.1158070 0.0159971 -0.1158070
1255000000 0.0153848 -0.1131458 0.9846152 0.1131458 0.9846152 0.1131458 0.0153848 -0.1131458
1276000000 0.0148039 -0.1105541 0.9851961 0.1105541 0.9851961 0.1105541 0.0148039 -0.1105541
1297000000 0.0142524 -0.1080288 0.9857476 0.1080288 0.9857476 0.1080288 0.0142524 -0.1080288
1318000000 0.0137286 -0.1055670 0.9862714 0.1055670 0.9862714 0.1055670 0.0137286 -0.1055670
1339000000 0.0132308 -0.1031658 0.9867692 0.1031658 0.9867692 0.1031658 0.0132308 -0.1031658
1360000000 0.0127575 -0.1008227 0.9872425 0.1008227 0.9872425 0.1008227 0.0127575 -0.1008227
1381000000 0.0123073 -0.0985351 0.9876927 0.0985351 0.9876927 0.0985351 0.0123073 -0.0985351
1402000000 0.0118788 -0.0963008 0.9881212 0.0963008 0.9881212 0.0963008 0.0118788 -0.0963008
1423000000 0.0114710 -0.0941173 0.9885290 0.0941173 0.9885290 0.0941173 0.0114710 -0.0941173
1444000000 0.0110825 -0.0919828 0.9889175 0.0919828 0.9889175 0.0919828 0.0110825 -0.0919828
1465000000 0.0107125 -0.0898951 0.9892875 0.0898951 0.9892875 0.0898951 0.0107125 -0.0898951
1486000000 0.0103598 -0.0878523 0.9896402 0.0878523 0.9896402 0.0878523 0.0103598 -0.0878523
1507000000 0.0100236 -0.0858527 0.9899764 0.0858527 0.9899764 0.0858527 0.0100236 -0.0858527
1528000000 0.0097031 -0.0838945 0.9902969 0.0838945 0.9902969 0.0838945 0.0097031 -0.0838945
1549000000 0.0093974 -0.0819762 0.9906026 0.0819762 0.9906026 0.0819762 0.0093974 -0.0819762
1570000000 0.0091059 -0.0800962 0.9908941 0.0800962 0.9908941 0.0800962 0.0091059 -0.0800962
1591000000 0.0088277 -0.0782530 0.9911723 0.0782530 0.9911723 0.0782530 0.0088277 -0.0782530
1612000000 0.0085622 -0.0764452 0.9914378 0.0764452 0.9914378 0.0764452 0.0085622 -0.0764452
1633000000 0.0083090 -0.0746716 0.9916910 0.0746716 0.9916910 0.0746716 0.0083090 -0.0746716
1654000000 0.0080672 -0.0729307 0.9919328 0.0729307 0.9919328 0.0729307 0.0080672 -0.0729307
1675000000 0.0078365 -0.0712215 0.9921635 0.0712215 0.9921635 0.0712215 0.0078365 -0.0712215
1696000000 0.0076163 -0.0695428 0.9923837 0.0695428 0.9923837 0.0695428 0.0076163 -0.0695428
1717000000 0.0074062 -0.0678935 0.9925938 0.0678935 0.9925938 0.0678935 0.0074062 -0.0678935
1738000000 0.0072057 -0.0662725 0.9927943 0.0662725 0.9927943 0.0662725 0.0072057 -0.0662725
1759000000 0.0070143 -0.0646788 0.9929857 0.0646788 0.9929857 0.0646788 0.0070143 -0.0646788
1780000000 0.0068318 -0.0631115 0.9931682 0.0631115 0.9931682 0.0631115 0.0068318 -0.0631115
1801000000 0.0066576 -0.0615697 0.9933424 0.0615697 0.9933424 0.0615697 0.0066576 -0.0615697
1822000000 0.0064915 -0.0600525 0.9935085 0.0600525 0.9935085 0.0600525 0.0064915 -0.0600525
1843000000 0.0063331 -0.0585590 0.9936669 0.0585590 0.9936669 0.0585590 0.0063331 -0.0585590
1864000000 0.0061822 -0.0570884 0.9938178 0.0570884 0.9938178 0.0570884 0.0061822 -0.0570884
1885000000 0.0060383 -0.0556400 0.9939617 0.0556400 0.9939617 0.0556400 0.0060383 -0.0556400
1906000000 0.0059013 -0.0542130 0.9940987 0.0542130 0.9940987 0.0542130 0.0059013 -0.0542130
1927000000 0.0057709 -0.0528068 0.9942291 0.0528068 0.9942291 0.0528068 0.0057709 -0.0528068
1948000000 0.0056468 -0.0514206 0.9943532 0.0514206 0.9943532 0.0514206 0.0056468 -0.0514206
1969000000 0.0055287 -0.0500538 0.9944713 0.0500538 0.9944713 0.0500538 0.0055287 -0.0500538
1990000000 0.0054166 -0.0487058 0.9945834 0.0487058 0.9945834 0.0487058 0.0054166 -0.0487058
2011000000 0.0053101 -0.0473759 0.9946899 0.0473759 0.9946899 0.0473759 0.0053101 -0.0473759
2032000000 0.0052090 -0.0460636 0.9947910 0.0460636 0.9947910 0.0460636 0.0052090 -0.0460636
2053000000 0.0051133 -0.0447684 0.9948867 0.0447684 0.9948867 0.0447684 0.0051133 -0.0447684
2074000000 0.0050226 -0.0434896 0.9949774 0.0434896 0.9949774 0.0434896 0.0050226 -0.0434896
2095000000 0.0049368 -0.0422268 0.9950632 0.0422268 0.9950632 0.0422268 0.0049368 -0.0422268
2116000000 0.0048557 -0.0409795 0.9951443 0.0409795 0.9951443 0.0409795 0.0048557 -0.0409795
2137000000 0.0047793 -0.0397471 0.9952207 0.0397471 0.9952207 0.0397471 0.0047793 -0.0397471
2158000000 0.0047073 -0.0385293 0.9952927 0.0385293 0.9952927 0.0385293 0.0047073 -0.0385293
2179000000 0.0046396 -0.0373256 0.9953604 0.0373256 0.9953604 0.0373256 0.0046396 -0.0373256
2200000000 0.0045761 -0.0361356 0.9954239 0.0361356 0.9954239 0.0361356 0.0045761 -0.0361356
2221000000 0.0045167 -0.0349588 0.9954833 0.0349588 0.9954833 0.0349588 0.0045167 -0.0349588
2242000000 0.0044612 -0.0337948 0.9955388 0.0337948 0.9955388 0.0337948 0.0044612 -0.0337948
2263000000 0.0044095 -0.0326433 0.9955905 0.0326433 0.9955905 0.0326433 0.0044095 -0.0326433
2284000000 0.0043616 -0.0315039 0.9956384 0.0315039 0.9956384 0.0315039 0.0043616 -0.0315039
2305000000 0.0043172 -0.0303762 0.9956828 0.0303762 0.9956828 0.0303762 0.0043172 -0.0303762
2326000000 0.0042764 -0.0292599 0.9957236 0.0292599 0.9957236 0.0292599 0.0042764 -0.0292599
2347000000 0.0042391 -0.0281546 0.9957609 0.0281546 0.9957609 0.0281546 0.0042391 -0.0281546
2368000000 0.0042051 -0.0270600 0.9957949 0.0270600 0.9957949 0.0270600 0.0042051 -0.0270600
2389000000 0.0041743 -0.0259758 0.9958257 0.0259758 0.9958257 0.0259758 0.0041743 -0.0259758
2410000000 0.0041467 -0.0249017 0.9958533 0.0249017 0.9958533 0.0249017 0.0041467 -0.0249017
2431000000 0.0041223 -0.0238374 0.9958777 0.0238374 0.9958777 0.0238374 0.0041223 -0.0238374
2452000000 0.0041009 -0.0227826 0.9958991 0.0227826 0.9958991 0.0227826 0.0041009 -0.0227826
2473000000 0.0040825 -0.0217370 0.9959175 0.0217370 0.9959175 0.0217370 0.0040825 -0.0217370
2494000000 0.0040670 -0.0207003 0.9959330 0.0207003 0.9959330 0.0207003 0.0040670 -0.0207003
2515000000 0.0040543 -0.0196724 0.9959457 0.0196724 0.9959457 0.0196724 0.0040543 -0.0196724
2536000000 0.0040445 -0.0186528 0.9959555 0.0186528 0.9959555 0.0186528 0.0040445 -0.0186528
2557000000 0.0040373 -0.0176415 0.9959627 0.0176415 0.9959627 0.0176415 0.0040373 -0.0176415
2578000000 0.0040329 -0.0166380 0.9959671 0.0166380 0.9959671 0.0166380 0.0040329 -0.0166380
2599000000 0.0040312 -0.0156423 0.9959688 0.0156423 0.9959688 0.0156423 0.0040312 -0.0156423
2620000000 0.0040321 -0.0146541 0.9959679 0.0146541 0.9959679 0.0146541 0.0040321 -0.0146541
2641000000 0.0040355 -0.0136731 0.9959645 0.0136731 0.9959645 0.0136731 0.0040355 -0.0136731
2662000000 0.0040414 -0.0126991 0.9959586 0.0126991 0.9959586 0.0126991 0.0040414 -0.0126991
2683000000 0.0040499 -0.0117320 0.9959501 0.0117320 0.9959501 0.0117320 0.0040499 -0.0117320
2704000000 0.0040608 -0.0107715 0.9959392 0.0107715 0.9959392 0.0107715 0.0040608 -0.0107715
2725000000 0.0040741 -0.0098174 0.9959259 0.0098174 0.9959259 0.0098174 0.0040741 -0.0098174
2746000000 0.0040898 -0.0088695 0.9959102 0.0088695 0.9959102 0.0088695 0.0040898 -0.0088695
2767000000 0.0041079 -0.0079277 0.9958921 0.0079277 0.9958921 0.0079277 0.0041079 -0.0079277
2788000000 0.0041283 -0.0069917 0.9958717 0.0069917 0.9958717 0.0069917 0.0041283 -0.0069917
2809000000 0.0041511 -0.0060614 0.9958489 0.0060614 0.9958489 0.0060614 0.0041511 -0.0060614
2830000000 0.0041761 -0.0051366 0.9958239 0.0051366 0.9958239 0.0051366 0.0041761 -0.0051366
2851000000 0.0042035 -0.0042171 0.9957965 0.0042171 0.9957965 0.0042171 0.0042035 -0.0042171
2872000000 0.0042330 -0.0033027 0.9957670 0.0033027 0.9957670 0.0033027 0.0042330 -0.0033027
2893000000 0.0042649 -0.0023934 0.9957351 0.0023934 0.9957351 0.0023934 0.0042649 -0.0023934
2914000000 0.0042989 -0.0014889 0.9957011 0.0014889 0.9957011 0.0014889 0.0042989 -0.0014889
2935000000 0.0043352 -0.0005890 0.9956648 0.0005890 0.9956648 0.0005890 0.0043352 -0.0005890
2956000000 0.0043737 0.0003063 0.9956263 -0.0003063 0.9956263 -0.0003063 0.0043737 0.0003063
2977000000 0.0044144 0.0011973 0.9955856 -0.0011973 0.9955856 -0.0011973 0.0044144 0.0011973
2998000000 0.0044573 0.0020841 0.9955427 -0.0020841 0.9955427 -0.0020841 0.0044573 0.0020841
3019000000 0.0045024 0.0029668 0.9954976 -0.0029668 0.9954976 -0.0029668 0.0045024 0.0029668
3040000000 0.0045497 0.0038456 0.9954503 -0.0038456 0.9954503 -0.0038456 0.0045497 0.0038456
3061000000 0.0045991 0.0047206 0.9954009 -0.0047206 0.9954009 -0.0047206 0.0045991 0.0047206
3082000000 0.0046508 0.0055920 0.9953492 -0.0055920 0.9953492 -0.0055920 0.0046508 0.0055920
3103000000 0.0047046 0.0064598 0.9952954 -0.0064598 0.9952954 -0.0064598 0.0047046 0.0064598
3124000000 0.0047606 0.0073243 0.9952394 -0.0073243 0.9952394 -0.0073243 0.0047606 0.0073243
3145000000 0.0048188 0.0081856 0.9951812 -0.0081856 0.9951812 -0.0081856 0.0048188 0.0081856
3166000000 0.0048792 0.0090437 0.9951208 -0.0090437 0.9951208 -0.0090437 0.0048792 0.0090437
3187000000 0.0049418 0.0098988 0.9950582 -0.0098988 0.9950582 -0.0098988 0.0049418 0.0098988
3208000000 0.0050067 0.0107511 0.9949933 -0.0107511 0.9949933 -0.0107511 0.0050067 0.0107511
3229000000 0.0050737 0.0116006 0.9949263 -0.0116006 0.9949263 -0.0116006 0.0050737 0.0116006
3250000000 0.0051431 0.0124475 0.9948569 -0.0124475 0.9948569 -0.0124475 0.0051431 0.0124475
3271000000 0.0052146 0.0132919 0.9947854 -0.0132919 0.9947854 -0.0132919 0.0052146 0.0132919
3292000000 0.0052885 0.0141340 0.9947115 -0.0141340 0.9947115 -0.0141340 0.0052885 0.0141340
3313000000 0.0053646 0.0149738 0.9946354 -0.0149738 0.9946354 -0.0149738 0.0053646 0.0149738
3334000000 0.0054431 0.0158114 0.9945569 -0.0158114 0.9945569 -0.0158114 0.0054431 0.0158114
3355000000 0.0055238 0.0166470 0.9944762 -0.0166470 0.9944762 -0.0166470 0.0055238 0.0166470
3376000000 0.0056070 0.0174807 0.9943930 -0.0174807 0.9943930 -0.0174807 0.0056070 0.0174807
3397000000 0.0056925 0.0183125 0.9943075 -0.0183125 0.9943075 -0.0183125 0.0056925 0.0183125
3418000000 0.0057804 0.0191427 0.9942196 -0.0191427 0.9942196 -0.0191427 0.0057804 0.0191427
3439000000 0.0058708 0.0199713 0.9941292 -0.0199713 0.9941292 -0.0199713 0.0058708 0.0199713
3460000000 0.0059637 0.0207984 0.9940363 -0.0207984 0.9940363 -0.0207984 0.0059637 0.0207984
3481000000 0.0060590 0.0216241 0.9939410 -0.0216241 0.9939410 -0.0216241 0.0060590 0.0216241
3502000000 0.0061569 0.0224486 0.9938431 -0.0224486 0.9938431 -0.0224486 0.0061569 0.0224486
3523000000 0.0062574 0.0232719 0.9937426 -0.0232719 0.9937426 -0.0232719 0.0062574 0.0232719
3544000000 0.0063604 0.0240942 0.9936396 -0.0240942 0.9936396 -0.0240942 0.0063604 0.0240942
3565000000 0.0064662 0.0249156 0.9935338 -0.0249156 0.9935338 -0.0249156 0.0064662 0.0249156
3586000000 0.0065746 0.0257361 0.9934254 -0.0257361 0.9934254 -0.0257361 0.0065746 0.0257361
3607000000 0.0066858 0.0265558 0.9933142 -0.0265558 0.9933142 -0.0265558 0.0066858 0.0265558
3628000000 0.0067997 0.0273750 0.9932003 -0.0273750 0.9932003 -0.0273750 0.0067997 0.0273750
3649000000 0.0069166 0.0281936 0.9930834 -0.0281936 0.9930834 -0.0281936 0.0069166 0.0281936
3670000000 0.0070363 0.0290117 0.9929637 -0.0290117 0.9929637 -0.0290117 0.0070363 0.0290117
3691000000 0.0071589 0.0298296 0.9928411 -0.0298296 0.9928411 -0.0298296 0.0071589 0.0298296
3712000000 0.0072846 0.0306473 0.9927154 -0.0306473 0.9927154 -0.0306473 0.0072846 0.0306473
3733000000 0.0074134 0.0314648 0.9925866 -0.0314648 0.9925866 -0.0314648 0.0074134 0.0314648
3754000000 0.0075453 0.0322823 0.9924547 -0.0322823 0.9924547 -0.0322823 0.0075453 0.0322823
3775000000 0.0076804 0.0330999 0.9923196 -0.0330999 0.9923196 -0.0330999 0.0076804 0.0330999
3796000000 0.0078188 0.0339177 0.9921812 -0.0339177 0.9921812 -0.0339177 0.0078188 0.0339177
3817000000 0.0079606 0.0347358 0.9920394 -0.0347358 0.9920394 -0.0347358 0.0079606 0.0347358
3838000000 0.0081058 0.0355543 0.9918942 -0.0355543 0.9918942 -0.0355543 0.0081058 0.0355543
3859000000 0.0082545 0.0363733 0.9917455 -0.0363733 0.9917455 -0.0363733 0.0082545 0.0363733
3880000000 0.0084068 0.0371929 0.9915932 -0.0371929 0.9915932 -0.0371929 0.0084068 0.0371929
3901000000 0.0085628 0.0380132 0.9914372 -0.0380132 0.9914372 -0.0380132 0.0085628 0.0380132
3922000000 0.0087227 0.0388343 0.9912773 -0.0388343 0.9912773 -0.0388343 0.0087227 0.0388343
3943000000 0.0088864 0.0396563 0.9911136 -0.0396563 0.9911136 -0.0396563 0.0088864 0.0396563
3964000000 0.0090540 0.0404794 0.9909460 -0.0404794 0.9909460 -0.0404794 0.0090540 0.0404794
3985000000 0.0092258 0.0413035 0.9907742 -0.0413035 0.9907742 -0.0413035 0.0092258 0.0413035
4006000000 0.0094018 0.0421289 0.9905982 -0.0421289 0.9905982 -0.0421289 0.0094018 0.0421289
4027000000 0.0095822 0.0429556 0.9904178 -0.0429556 0.9904178 -0.0429556 0.0095822 0.0429556
4048000000 0.0097670 0.0437837 0.9902330 -0.0437837 0.9902330 -0.0437837 0.0097670 0.0437837
4069000000 0.0099563 0.0446134 0.9900437 -0.0446134 0.9900437 -0.0446134 0.0099563 0.0446134
4090000000 0.0101504 0.0454447 0.9898496 -0.0454447 0.9898496 -0.0454447 0.0101504 0.0454447
4111000000 0.0103494 0.0462778 0.9896506 -0.0462778 0.9896506 -0.0462778 0.0103494 0.0462778
4132000000 0.0105534 0.0471126 0.9894466 -0.0471126 0.9894466 -0.0471126 0.0105534 0.0471126
4153000000 0.0107626 0.0479495 0.9892374 -0.0479495 0.9892374 -0.0479495 0.0107626 0.0479495
4174000000 0.0109771 0.0487884 0.9890229 -0.0487884 0.9890229 -0.0487884 0.0109771 0.0487884
4195000000 0.0111971 0.0496295 0.9888029 -0.0496295 0.9888029 -0.0496295 0.0111971 0.0496295
4216000000 0.0114228 0.0504728 0.9885772 -0.0504728 0.9885772 -0.0504728 0.0114228 0.0504728
4237000000 0.0116543 0.0513185 0.9883457 -0.0513185 0.9883457 -0.0513185 0.0116543 0.0513185
4258000000 0.0118920 0.0521667 0.9881080 -0.0521667 0.9881080 -0.0521667 0.0118920 0.0521667
4279000000 0.0121359 0.0530175 0.9878641 -0.0530175 0.9878641 -0.0530175 0.0121359 0.0530175
4300000000 0.0123863 0.0538710 0.9876137 -0.0538710 0.9876137 -0.0538710 0.0123863 0.0538710
4321000000 0.0126435 0.0547272 0.9873565 -0.0547272 0.9873565 -0.0547272 0.0126435 0.0547272
4342000000 0.0129077 0.0555864 0.9870923 -0.0555864 0.9870923 -0.0555864 0.0129077 0.0555864
4363000000 0.0131790 0.0564485 0.9868210 -0.0564485 0.9868210 -0.0564485 0.0131790 0.0564485
4384000000 0.0134579 0.0573138 0.9865421 -0.0573138 0.9865421 -0.0573138 0.0134579 0.0573138
4405000000 0.0137445 0.0581822 0.9862555 -0.0581822 0.9862555 -0.0581822 0.0137445 0.0581822
4426000000 0.0140392 0.0590539 0.9859608 -0.0590539 0.9859608 -0.0590539 0.0140392 0.0590539
4447000000 0.0143422 0.0599290 0.9856578 -0.0599290 0.9856578 -0.0599290 0.0143422 0.0599290
4468000000 0.0146539 0.0608076 0.9853461 -0.0608076 0.9853461 -0.0608076 0.0146539 0.0608076
4489000000 0.0149747 0.0616897 0.9850253 -0.0616897 0.9850253 -0.0616897 0.0149747 0.0616897
4510000000 0.0153048 0.0625755 0.9846952 -0.0625755 0.9846952 -0.0625755 0.0153048 0.0625755
