!Murata Part Number: GRM1555C1H511GA01
!These Parameters are Measured in Series Mode Connection
!Data Generated on Mar 30, 2021
!       o--ll--o
!Port1            Port2
!       o------o
!Operation Temp=25[degC], DC Bias Voltage=0[V]
!Freq. Start=100[MHz] Stop=9[GHz] 401[Steps]
# Hz S RI R 50
!Freq.(Hz) S11(Real) S11(Imag) S21(Real) S21(Imag) S12(Real) S12(Imag) S22(Real) S22(Imag)
100000000 0.0014140 -0.0288459 0.9985860 0.0288459 0.9985860 0.0288459 0.0014140 -0.0288459
121000000 0.0011147 -0.0229642 0.9988853 0.0229642 0.9988853 0.0229642 0.0011147 -0.0229642
142000000 0.0009432 -0.0186762 0.9990568 0.0186762 0.9990568 0.0186762 0.0009432 -0.0186762
163000000 0.0008388 -0.0153669 0.9991612 0.0153669 0.9991612 0.0153669 0.0008388 -0.0153669
184000000 0.0007735 -0.0127015 0.9992265 0.0127015 0.9992265 0.0127015 0.0007735 -0.0127015
205000000 0.0007328 -0.0104823 0.9992672 0.0104823 0.9992672 0.0104823 0.0007328 -0.0104823
226000000 0.0007086 -0.0085849 0.9992914 0.0085849 0.9992914 0.0085849 0.0007086 -0.0085849
247000000 0.0006960 -0.0069270 0.9993040 0.0069270 0.9993040 0.0069270 0.0006960 -0.0069270
268000000 0.0006922 -0.0054523 0.9993078 0.0054523 0.9993078 0.0054523 0.0006922 -0.0054523
289000000 0.0006952 -0.0041206 0.9993048 0.0041206 0.9993048 0.0041206 0.0006952 -0.0041206
310000000 0.0007037 -0.0029027 0.9992963 0.0029027 0.9992963 0.0029027 0.0007037 -0.0029027
331000000 0.0007168 -0.0017767 0.9992832 0.0017767 0.9992832 0.0017767 0.0007168 -0.0017767
352000000 0.0007339 -0.0007259 0.9992661 0.0007259 0.9992661 0.0007259 0.0007339 -0.0007259
373000000 0.0007547 0.0002627 0.9992453 -0.0002627 0.9992453 -0.0002627 0.0007547 0.0002627
394000000 0.0007788 0.0011993 0.9992212 -0.0011993 0.9992212 -0.0011993 0.0007788 0.0011993
415000000 0.0008061 0.0020921 0.9991939 -0.0020921 0.9991939 -0.0020921 0.0008061 0.0020921
436000000 0.0008365 0.0029479 0.9991635 -0.0029479 0.9991635 -0.0029479 0.0008365 0.0029479
457000000 0.0008700 0.0037723 0.9991300 -0.0037723 0.9991300 -0.0037723 0.0008700 0.0037723
478000000 0.0009067 0.0045698 0.9990933 -0.0045698 0.9990933 -0.0045698 0.0009067 0.0045698
499000000 0.0009466 0.0053446 0.9990534 -0.0053446 0.9990534 -0.0053446 0.0009466 0.0053446
520000000 0.0009901 0.0060999 0.9990099 -0.0060999 0.9990099 -0.0060999 0.0009901 0.0060999
541000000 0.0010374 0.0068388 0.9989626 -0.0068388 0.9989626 -0.0068388 0.0010374 0.0068388
562000000 0.0010891 0.0075641 0.9989109 -0.0075641 0.9989109 -0.0075641 0.0010891 0.0075641
583000000 0.0011458 0.0082784 0.9988542 -0.0082784 0.9988542 -0.0082784 0.0011458 0.0082784
604000000 0.0012085 0.0089841 0.9987915 -0.0089841 0.9987915 -0.0089841 0.0012085 0.0089841
625000000 0.0012785 0.0096834 0.9987215 -0.0096834 0.9987215 -0.0096834 0.0012785 0.0096834
646000000 0.0013577 0.0103788 0.9986423 -0.0103788 0.9986423 -0.0103788 0.0013577 0.0103788
667000000 0.0014490 0.0110727 0.9985510 -0.0110727 0.9985510 -0.0110727 0.0014490 0.0110727
688000000 0.0015565 0.0117672 0.9984435 -0.0117672 0.9984435 -0.0117672 0.0015565 0.0117672
709000000 0.0016868 0.0124642 0.9983132 -0.0124642 0.9983132 -0.0124642 0.0016868 0.0124642
730000000 0.0018499 0.0131640 0.9981501 -0.0131640 0.9981501 -0.0131640 0.0018499 0.0131640
751000000 0.0020612 0.0138630 0.9979388 -0.0138630 0.9979388 -0.0138630 0.0020612 0.0138630
772000000 0.0023432 0.0145470 0.9976568 -0.0145470 0.9976568 -0.0145470 0.0023432 0.0145470
793000000 0.0027221 0.0151773 0.9972779 -0.0151773 0.9972779 -0.0151773 0.0027221 0.0151773
814000000 0.0032014 0.0156701 0.9967986 -0.0156701 0.9967986 -0.0156701 0.0032014 0.0156701
835000000 0.0036887 0.0159108 0.9963113 -0.0159108 0.9963113 -0.0159108 0.0036887 0.0159108
856000000 0.0039522 0.0159046 0.9960478 -0.0159046 0.9960478 -0.0159046 0.0039522 0.0159046
877000000 0.0038540 0.0159134 0.9961460 -0.0159134 0.9961460 -0.0159134 0.0038540 0.0159134
898000000 0.0035624 0.0161710 0.9964376 -0.0161710 0.9964376 -0.0161710 0.0035624 0.0161710
919000000 0.0032925 0.0166590 0.9967075 -0.0166590 0.9967075 -0.0166590 0.0032925 0.0166590
940000000 0.0031215 0.0172686 0.9968785 -0.0172686 0.9968785 -0.0172686 0.0031215 0.0172686
961000000 0.0030458 0.0179256 0.9969542 -0.0179256 0.9969542 -0.0179256 0.0030458 0.0179256
982000000 0.0030448 0.0185949 0.9969552 -0.0185949 0.9969552 -0.0185949 0.0030448 0.0185949
1003000000 0.0031013 0.0192627 0.9968987 -0.0192627 0.9968987 -0.0192627 0.0031013 0.0192627
1024000000 0.0032048 0.0199235 0.9967952 -0.0199235 0.9967952 -0.0199235 0.0032048 0.0199235
1045000000 0.0033498 0.0205754 0.9966502 -0.0205754 0.9966502 -0.0205754 0.0033498 0.0205754
1066000000 0.0035348 0.0212165 0.9964652 -0.0212165 0.9964652 -0.0212165 0.0035348 0.0212165
1087000000 0.0037607 0.0218442 0.9962393 -0.0218442 0.9962393 -0.0218442 0.0037607 0.0218442
1108000000 0.0040303 0.0224538 0.9959697 -0.0224538 0.9959697 -0.0224538 0.0040303 0.0224538
1129000000 0.0043470 0.0230379 0.9956530 -0.0230379 0.9956530 -0.0230379 0.0043470 0.0230379
1150000000 0.0047142 0.0235854 0.9952858 -0.0235854 0.9952858 -0.0235854 0.0047142 0.0235854
1171000000 0.0051328 0.0240803 0.9948672 -0.0240803 0.9948672 -0.0240803 0.0051328 0.0240803
1192000000 0.0055987 0.0245019 0.9944013 -0.0245019 0.9944013 -0.0245019 0.0055987 0.0245019
1213000000 0.0060986 0.0248260 0.9939014 -0.0248260 0.9939014 -0.0248260 0.0060986 0.0248260
1234000000 0.0066061 0.0250290 0.9933939 -0.0250290 0.9933939 -0.0250290 0.0066061 0.0250290
1255000000 0.0070791 0.0250964 0.9929209 -0.0250964 0.9929209 -0.0250964 0.0070791 0.0250964
1276000000 0.0074646 0.0250334 0.9925354 -0.0250334 0.9925354 -0.0250334 0.0074646 0.0250334
1297000000 0.0077108 0.0248735 0.9922892 -0.0248735 0.9922892 -0.0248735 0.0077108 0.0248735
1318000000 0.0077857 0.0246753 0.9922143 -0.0246753 0.9922143 -0.0246753 0.0077857 0.0246753
1339000000 0.0076902 0.0245071 0.9923098 -0.0245071 0.9923098 -0.0245071 0.0076902 0.0245071
1360000000 0.0074571 0.0244254 0.9925429 -0.0244254 0.9925429 -0.0244254 0.0074571 0.0244254
1381000000 0.0071365 0.0244611 0.9928635 -0.0244611 0.9928635 -0.0244611 0.0071365 0.0244611
1402000000 0.0067782 0.0246185 0.9932218 -0.0246185 0.9932218 -0.0246185 0.0067782 0.0246185
1423000000 0.0064212 0.0248840 0.9935788 -0.0248840 0.9935788 -0.0248840 0.0064212 0.0248840
1444000000 0.0060899 0.0252362 0.9939101 -0.0252362 0.9939101 -0.0252362 0.0060899 0.0252362
1465000000 0.0057969 0.0256526 0.9942031 -0.0256526 0.9942031 -0.0256526 0.0057969 0.0256526
1486000000 0.0055462 0.0261139 0.9944538 -0.0261139 0.9944538 -0.0261139 0.0055462 0.0261139
1507000000 0.0053369 0.0266051 0.9946631 -0.0266051 0.9946631 -0.0266051 0.0053369 0.0266051
1528000000 0.0051657 0.0271148 0.9948343 -0.0271148 0.9948343 -0.0271148 0.0051657 0.0271148
1549000000 0.0050282 0.0276351 0.9949718 -0.0276351 0.9949718 -0.0276351 0.0050282 0.0276351
1570000000 0.0049201 0.0281605 0.9950799 -0.0281605 0.9950799 -0.0281605 0.0049201 0.0281605
1591000000 0.0048373 0.0286872 0.9951627 -0.0286872 0.9951627 -0.0286872 0.0048373 0.0286872
1612000000 0.0047760 0.0292127 0.9952240 -0.0292127 0.9952240 -0.0292127 0.0047760 0.0292127
1633000000 0.0047332 0.0297355 0.9952668 -0.0297355 0.9952668 -0.0297355 0.0047332 0.0297355
1654000000 0.0047061 0.0302545 0.9952939 -0.0302545 0.9952939 -0.0302545 0.0047061 0.0302545
1675000000 0.0046927 0.0307691 0.9953073 -0.0307691 0.9953073 -0.0307691 0.0046927 0.0307691
1696000000 0.0046909 0.0312791 0.9953091 -0.0312791 0.9953091 -0.0312791 0.0046909 0.0312791
1717000000 0.0046993 0.0317843 0.9953007 -0.0317843 0.9953007 -0.0317843 0.0046993 0.0317843
1738000000 0.0047166 0.0322846 0.9952834 -0.0322846 0.9952834 -0.0322846 0.0047166 0.0322846
1759000000 0.0047417 0.0327802 0.9952583 -0.0327802 0.9952583 -0.0327802 0.0047417 0.0327802
1780000000 0.0047737 0.0332709 0.9952263 -0.0332709 0.9952263 -0.0332709 0.0047737 0.0332709
1801000000 0.0048118 0.0337570 0.9951882 -0.0337570 0.9951882 -0.0337570 0.0048118 0.0337570
1822000000 0.0048555 0.0342386 0.9951445 -0.0342386 0.9951445 -0.0342386 0.0048555 0.0342386
1843000000 0.0049041 0.0347157 0.9950959 -0.0347157 0.9950959 -0.0347157 0.0049041 0.0347157
1864000000 0.0049573 0.0351884 0.9950427 -0.0351884 0.9950427 -0.0351884 0.0049573 0.0351884
1885000000 0.0050145 0.0356569 0.9949855 -0.0356569 0.9949855 -0.0356569 0.0050145 0.0356569
1906000000 0.0050755 0.0361210 0.9949245 -0.0361210 0.9949245 -0.0361210 0.0050755 0.0361210
1927000000 0.0051399 0.0365809 0.9948601 -0.0365809 0.9948601 -0.0365809 0.0051399 0.0365809
1948000000 0.0052075 0.0370366 0.9947925 -0.0370366 0.9947925 -0.0370366 0.0052075 0.0370366
1969000000 0.0052779 0.0374880 0.9947221 -0.0374880 0.9947221 -0.0374880 0.0052779 0.0374880
1990000000 0.0053508 0.0379353 0.9946492 -0.0379353 0.9946492 -0.0379353 0.0053508 0.0379353
2011000000 0.0054261 0.0383782 0.9945739 -0.0383782 0.9945739 -0.0383782 0.0054261 0.0383782
2032000000 0.0055034 0.0388169 0.9944966 -0.0388169 0.9944966 -0.0388169 0.0055034 0.0388169
2053000000 0.0055825 0.0392511 0.9944175 -0.0392511 0.9944175 -0.0392511 0.0055825 0.0392511
2074000000 0.0056630 0.0396810 0.9943370 -0.0396810 0.9943370 -0.0396810 0.0056630 0.0396810
2095000000 0.0057447 0.0401065 0.9942553 -0.0401065 0.9942553 -0.0401065 0.0057447 0.0401065
2116000000 0.0058272 0.0405275 0.9941728 -0.0405275 0.9941728 -0.0405275 0.0058272 0.0405275
2137000000 0.0059103 0.0409441 0.9940897 -0.0409441 0.9940897 -0.0409441 0.0059103 0.0409441
2158000000 0.0059934 0.0413562 0.9940066 -0.0413562 0.9940066 -0.0413562 0.0059934 0.0413562
2179000000 0.0060763 0.0417639 0.9939237 -0.0417639 0.9939237 -0.0417639 0.0060763 0.0417639
2200000000 0.0061586 0.0421673 0.9938414 -0.0421673 0.9938414 -0.0421673 0.0061586 0.0421673
2221000000 0.0062399 0.0425665 0.9937601 -0.0425665 0.9937601 -0.0425665 0.0062399 0.0425665
2242000000 0.0063198 0.0429617 0.9936802 -0.0429617 0.9936802 -0.0429617 0.0063198 0.0429617
2263000000 0.0063979 0.0433531 0.9936021 -0.0433531 0.9936021 -0.0433531 0.0063979 0.0433531
2284000000 0.0064738 0.0437409 0.9935262 -0.0437409 0.9935262 -0.0437409 0.0064738 0.0437409
2305000000 0.0065474 0.0441256 0.9934526 -0.0441256 0.9934526 -0.0441256 0.0065474 0.0441256
2326000000 0.0066181 0.0445074 0.9933819 -0.0445074 0.9933819 -0.0445074 0.0066181 0.0445074
2347000000 0.0066859 0.0448868 0.9933141 -0.0448868 0.9933141 -0.0448868 0.0066859 0.0448868
2368000000 0.0067505 0.0452642 0.9932495 -0.0452642 0.9932495 -0.0452642 0.0067505 0.0452642
2389000000 0.0068119 0.0456401 0.9931881 -0.0456401 0.9931881 -0.0456401 0.0068119 0.0456401
2410000000 0.0068700 0.0460148 0.9931300 -0.0460148 0.9931300 -0.0460148 0.0068700 0.0460148
2431000000 0.0069247 0.0463890 0.9930753 -0.0463890 0.9930753 -0.0463890 0.0069247 0.0463890
2452000000 0.0069762 0.0467629 0.9930238 -0.0467629 0.9930238 -0.0467629 0.0069762 0.0467629
2473000000 0.0070246 0.0471370 0.9929754 -0.0471370 0.9929754 -0.0471370 0.0070246 0.0471370
2494000000 0.0070701 0.0475118 0.9929299 -0.0475118 0.9929299 -0.0475118 0.0070701 0.0475118
2515000000 0.0071129 0.0478875 0.9928871 -0.0478875 0.9928871 -0.0478875 0.0071129 0.0478875
2536000000 0.0071533 0.0482643 0.9928467 -0.0482643 0.9928467 -0.0482643 0.0071533 0.0482643
2557000000 0.0071916 0.0486427 0.9928084 -0.0486427 0.9928084 -0.0486427 0.0071916 0.0486427
2578000000 0.0072281 0.0490226 0.9927719 -0.0490226 0.9927719 -0.0490226 0.0072281 0.0490226
2599000000 0.0072630 0.0494043 0.9927370 -0.0494043 0.9927370 -0.0494043 0.0072630 0.0494043
2620000000 0.0072967 0.0497879 0.9927033 -0.0497879 0.9927033 -0.0497879 0.0072967 0.0497879
2641000000 0.0073294 0.0501734 0.9926706 -0.0501734 0.9926706 -0.0501734 0.0073294 0.0501734
2662000000 0.0073616 0.0505608 0.9926384 -0.0505608 0.9926384 -0.0505608 0.0073616 0.0505608
2683000000 0.0073933 0.0509501 0.9926067 -0.0509501 0.9926067 -0.0509501 0.0073933 0.0509501
2704000000 0.0074248 0.0513411 0.9925752 -0.0513411 0.9925752 -0.0513411 0.0074248 0.0513411
2725000000 0.0074565 0.0517340 0.9925435 -0.0517340 0.9925435 -0.0517340 0.0074565 0.0517340
2746000000 0.0074883 0.0521285 0.9925117 -0.0521285 0.9925117 -0.0521285 0.0074883 0.0521285
2767000000 0.0075205 0.0525246 0.9924795 -0.0525246 0.9924795 -0.0525246 0.0075205 0.0525246
2788000000 0.0075533 0.0529221 0.9924467 -0.0529221 0.9924467 -0.0529221 0.0075533 0.0529221
2809000000 0.0075868 0.0533209 0.9924132 -0.0533209 0.9924132 -0.0533209 0.0075868 0.0533209
2830000000 0.0076210 0.0537210 0.9923790 -0.0537210 0.9923790 -0.0537210 0.0076210 0.0537210
2851000000 0.0076560 0.0541221 0.9923440 -0.0541221 0.9923440 -0.0541221 0.0076560 0.0541221
2872000000 0.0076919 0.0545242 0.9923081 -0.0545242 0.9923081 -0.0545242 0.0076919 0.0545242
2893000000 0.0077288 0.0549272 0.9922712 -0.0549272 0.9922712 -0.0549272 0.0077288 0.0549272
2914000000 0.0077666 0.0553310 0.9922334 -0.0553310 0.9922334 -0.0553310 0.0077666 0.0553310
2935000000 0.0078054 0.0557355 0.9921946 -0.0557355 0.9921946 -0.0557355 0.0078054 0.0557355
2956000000 0.0078452 0.0561405 0.9921548 -0.0561405 0.9921548 -0.0561405 0.0078452 0.0561405
2977000000 0.0078861 0.0565460 0.9921139 -0.0565460 0.9921139 -0.0565460 0.0078861 0.0565460
2998000000 0.0079279 0.0569519 0.9920721 -0.0569519 0.9920721 -0.0569519 0.0079279 0.0569519
3019000000 0.0079708 0.0573582 0.9920292 -0.0573582 0.9920292 -0.0573582 0.0079708 0.0573582
3040000000 0.0080146 0.0577647 0.9919854 -0.0577647 0.9919854 -0.0577647 0.0080146 0.0577647
3061000000 0.0080595 0.0581715 0.9919405 -0.0581715 0.9919405 -0.0581715 0.0080595 0.0581715
3082000000 0.0081053 0.0585784 0.9918947 -0.0585784 0.9918947 -0.0585784 0.0081053 0.0585784
3103000000 0.0081520 0.0589854 0.9918480 -0.0589854 0.9918480 -0.0589854 0.0081520 0.0589854
3124000000 0.0081996 0.0593925 0.9918004 -0.0593925 0.9918004 -0.0593925 0.0081996 0.0593925
3145000000 0.0082482 0.0597996 0.9917518 -0.0597996 0.9917518 -0.0597996 0.0082482 0.0597996
3166000000 0.0082976 0.0602066 0.9917024 -0.0602066 0.9917024 -0.0602066 0.0082976 0.0602066
3187000000 0.0083478 0.0606137 0.9916522 -0.0606137 0.9916522 -0.0606137 0.0083478 0.0606137
3208000000 0.0083989 0.0610206 0.9916011 -0.0610206 0.9916011 -0.0610206 0.0083989 0.0610206
3229000000 0.0084508 0.0614275 0.9915492 -0.0614275 0.9915492 -0.0614275 0.0084508 0.0614275
3250000000 0.0085035 0.0618342 0.9914965 -0.0618342 0.9914965 -0.0618342 0.0085035 0.0618342
3271000000 0.0085569 0.0622408 0.9914431 -0.0622408 0.9914431 -0.0622408 0.0085569 0.0622408
3292000000 0.0086110 0.0626472 0.9913890 -0.0626472 0.9913890 -0.0626472 0.0086110 0.0626472
3313000000 0.0086659 0.0630535 0.9913341 -0.0630535 0.9913341 -0.0630535 0.0086659 0.0630535
3334000000 0.0087214 0.0634596 0.9912786 -0.0634596 0.9912786 -0.0634596 0.0087214 0.0634596
3355000000 0.0087777 0.0638654 0.9912223 -0.0638654 0.9912223 -0.0638654 0.0087777 0.0638654
3376000000 0.0088345 0.0642711 0.9911655 -0.0642711 0.9911655 -0.0642711 0.0088345 0.0642711
3397000000 0.0088920 0.0646766 0.9911080 -0.0646766 0.9911080 -0.0646766 0.0088920 0.0646766
3418000000 0.0089501 0.0650818 0.9910499 -0.0650818 0.9910499 -0.0650818 0.0089501 0.0650818
3439000000 0.0090088 0.0654868 0.9909912 -0.0654868 0.9909912 -0.0654868 0.0090088 0.0654868
3460000000 0.0090681 0.0658916 0.9909319 -0.0658916 0.9909319 -0.0658916 0.0090681 0.0658916
3481000000 0.0091280 0.0662962 0.9908720 -0.0662962 0.9908720 -0.0662962 0.0091280 0.0662962
3502000000 0.0091884 0.0667005 0.9908116 -0.0667005 0.9908116 -0.0667005 0.0091884 0.0667005
3523000000 0.0092494 0.0671046 0.9907506 -0.0671046 0.9907506 -0.0671046 0.0092494 0.0671046
3544000000 0.0093109 0.0675084 0.9906891 -0.0675084 0.9906891 -0.0675084 0.0093109 0.0675084
3565000000 0.0093729 0.0679120 0.9906271 -0.0679120 0.9906271 -0.0679120 0.0093729 0.0679120
3586000000 0.0094354 0.0683154 0.9905646 -0.0683154 0.9905646 -0.0683154 0.0094354 0.0683154
3607000000 0.0094984 0.0687185 0.9905016 -0.0687185 0.9905016 -0.0687185 0.0094984 0.0687185
3628000000 0.0095618 0.0691214 0.9904382 -0.0691214 0.9904382 -0.0691214 0.0095618 0.0691214
3649000000 0.0096258 0.0695241 0.9903742 -0.0695241 0.9903742 -0.0695241 0.0096258 0.0695241
3670000000 0.0096902 0.0699265 0.9903098 -0.0699265 0.9903098 -0.0699265 0.0096902 0.0699265
3691000000 0.0097551 0.0703287 0.9902449 -0.0703287 0.9902449 -0.0703287 0.0097551 0.0703287
3712000000 0.0098204 0.0707306 0.9901796 -0.0707306 0.9901796 -0.0707306 0.0098204 0.0707306
3733000000 0.0098862 0.0711323 0.9901138 -0.0711323 0.9901138 -0.0711323 0.0098862 0.0711323
3754000000 0.0099523 0.0715338 0.9900477 -0.0715338 0.9900477 -0.0715338 0.0099523 0.0715338
3775000000 0.0100190 0.0719351 0.9899810 -0.0719351 0.9899810 -0.0719351 0.0100190 0.0719351
3796000000 0.0100860 0.0723361 0.9899140 -0.0723361 0.9899140 -0.0723361 0.0100860 0.0723361
3817000000 0.0101534 0.0727369 0.9898466 -0.0727369 0.9898466 -0.0727369 0.0101534 0.0727369
3838000000 0.0102213 0.0731375 0.9897787 -0.0731375 0.9897787 -0.0731375 0.0102213 0.0731375
3859000000 0.0102896 0.0735379 0.9897104 -0.0735379 0.9897104 -0.0735379 0.0102896 0.0735379
3880000000 0.0103582 0.0739381 0.9896418 -0.0739381 0.9896418 -0.0739381 0.0103582 0.0739381
3901000000 0.0104273 0.0743380 0.9895727 -0.0743380 0.9895727 -0.0743380 0.0104273 0.0743380
3922000000 0.0104967 0.0747378 0.9895033 -0.0747378 0.9895033 -0.0747378 0.0104967 0.0747378
3943000000 0.0105666 0.0751373 0.9894334 -0.0751373 0.9894334 -0.0751373 0.0105666 0.0751373
3964000000 0.0106368 0.0755366 0.9893632 -0.0755366 0.9893632 -0.0755366 0.0106368 0.0755366
3985000000 0.0107074 0.0759357 0.9892926 -0.0759357 0.9892926 -0.0759357 0.0107074 0.0759357
4006000000 0.0107784 0.0763347 0.9892216 -0.0763347 0.9892216 -0.0763347 0.0107784 0.0763347
4027000000 0.0108497 0.0767334 0.9891503 -0.0767334 0.9891503 -0.0767334 0.0108497 0.0767334
4048000000 0.0109214 0.0771319 0.9890786 -0.0771319 0.9890786 -0.0771319 0.0109214 0.0771319
4069000000 0.0109935 0.0775303 0.9890065 -0.0775303 0.9890065 -0.0775303 0.0109935 0.0775303
4090000000 0.0110660 0.0779284 0.9889340 -0.0779284 0.9889340 -0.0779284 0.0110660 0.0779284
4111000000 0.0111388 0.0783264 0.9888612 -0.0783264 0.9888612 -0.0783264 0.0111388 0.0783264
4132000000 0.0112120 0.0787242 0.9887880 -0.0787242 0.9887880 -0.0787242 0.0112120 0.0787242
4153000000 0.0112855 0.0791218 0.9887145 -0.0791218 0.9887145 -0.0791218 0.0112855 0.0791218
4174000000 0.0113594 0.0795192 0.9886406 -0.0795192 0.9886406 -0.0795192 0.0113594 0.0795192
4195000000 0.0114337 0.0799164 0.9885663 -0.0799164 0.9885663 -0.0799164 0.0114337 0.0799164
4216000000 0.0115083 0.0803135 0.9884917 -0.0803135 0.9884917 -0.0803135 0.0115083 0.0803135
4237000000 0.0115833 0.0807104 0.9884167 -0.0807104 0.9884167 -0.0807104 0.0115833 0.0807104
4258000000 0.0116586 0.0811071 0.9883414 -0.0811071 0.9883414 -0.0811071 0.0116586 0.0811071
4279000000 0.0117343 0.0815036 0.9882657 -0.0815036 0.9882657 -0.0815036 0.0117343 0.0815036
4300000000 0.0118103 0.0819000 0.9881897 -0.0819000 0.9881897 -0.0819000 0.0118103 0.0819000
4321000000 0.0118867 0.0822962 0.9881133 -0.0822962 0.9881133 -0.0822962 0.0118867 0.0822962
4342000000 0.0119634 0.0826922 0.9880366 -0.0826922 0.9880366 -0.0826922 0.0119634 0.0826922
4363000000 0.0120405 0.0830881 0.9879595 -0.0830881 0.9879595 -0.0830881 0.0120405 0.0830881
4384000000 0.0121180 0.0834838 0.9878820 -0.0834838 0.9878820 -0.0834838 0.0121180 0.0834838
4405000000 0.0121958 0.0838794 0.9878042 -0.0838794 0.9878042 -0.0838794 0.0121958 0.0838794
4426000000 0.0122739 0.0842748 0.9877261 -0.0842748 0.9877261 -0.0842748 0.0122739 0.0842748
4447000000 0.0123524 0.0846700 0.9876476 -0.0846700 0.9876476 -0.0846700 0.0123524 0.0846700
4468000000 0.0124312 0.0850651 0.9875688 -0.0850651 0.9875688 -0.0850651 0.0124312 0.0850651
4489000000 0.0125104 0.0854600 0.9874896 -0.0854600 0.9874896 -0.0854600 0.0125104 0.0854600
4510000000 0.0125899 0.0858548 0.9874101 -0.0858548 0.9874101 -0.0858548 0.0125899 0.0858548
