!Murata Part Number: GRM1555C2A560JA01
!These Parameters are Measured in Series Mode Connection
!Data Generated on Mar 30, 2021
!       o--ll--o
!Port1            Port2
!       o------o
!Operation Temp=25[degC], DC Bias Voltage=0[V]
!Freq. Start=100[MHz] Stop=9[GHz] 401[Steps]
# Hz S RI R 50
!Freq.(Hz) S11(Real) S11(Imag) S21(Real) S21(Imag) S12(Real) S12(Imag) S22(Real) S22(Imag)
100000000 0.0745396 -0.2606889 0.9254604 0.2606889 0.9254604 0.2606889 0.0745396 -0.2606889
121000000 0.0521092 -0.2198647 0.9478908 0.2198647 0.9478908 0.2198647 0.0521092 -0.2198647
142000000 0.0383570 -0.1892422 0.9616430 0.1892422 0.9616430 0.1892422 0.0383570 -0.1892422
163000000 0.0293612 -0.1655620 0.9706388 0.1655620 0.9706388 0.1655620 0.0293612 -0.1655620
184000000 0.0231732 -0.1467479 0.9768268 0.1467479 0.9768268 0.1467479 0.0231732 -0.1467479
205000000 0.0187433 -0.1314500 0.9812567 0.1314500 0.9812567 0.1314500 0.0187433 -0.1314500
226000000 0.0154681 -0.1187640 0.9845319 0.1187640 0.9845319 0.1187640 0.0154681 -0.1187640
247000000 0.0129816 -0.1080659 0.9870184 0.1080659 0.9870184 0.1080659 0.0129816 -0.1080659
268000000 0.0110516 -0.0989130 0.9889484 0.0989130 0.9889484 0.0989130 0.0110516 -0.0989130
289000000 0.0095256 -0.0909834 0.9904744 0.0909834 0.9904744 0.0909834 0.0095256 -0.0909834
310000000 0.0082996 -0.0840383 0.9917004 0.0840383 0.9917004 0.0840383 0.0082996 -0.0840383
331000000 0.0073012 -0.0778963 0.9926988 0.0778963 0.9926988 0.0778963 0.0073012 -0.0778963
352000000 0.0064785 -0.0724180 0.9935215 0.0724180 0.9935215 0.0724180 0.0064785 -0.0724180
373000000 0.0057938 -0.0674943 0.9942062 0.0674943 0.9942062 0.0674943 0.0057938 -0.0674943
394000000 0.0052189 -0.0630384 0.9947811 0.0630384 0.9947811 0.0630384 0.0052189 -0.0630384
415000000 0.0047324 -0.0589808 0.9952676 0.0589808 0.9952676 0.0589808 0.0047324 -0.0589808
436000000 0.0043181 -0.0552652 0.9956819 0.0552652 0.9956819 0.0552652 0.0043181 -0.0552652
457000000 0.0039632 -0.0518450 0.9960368 0.0518450 0.9960368 0.0518450 0.0039632 -0.0518450
478000000 0.0036577 -0.0486821 0.9963423 0.0486821 0.9963423 0.0486821 0.0036577 -0.0486821
499000000 0.0033936 -0.0457443 0.9966064 0.0457443 0.9966064 0.0457443 0.0033936 -0.0457443
520000000 0.0031646 -0.0430048 0.9968354 0.0430048 0.9968354 0.0430048 0.0031646 -0.0430048
541000000 0.0029655 -0.0404408 0.9970345 0.0404408 0.9970345 0.0404408 0.0029655 -0.0404408
562000000 0.0027919 -0.0380327 0.9972081 0.0380327 0.9972081 0.0380327 0.0027919 -0.0380327
583000000 0.0026405 -0.0357639 0.9973595 0.0357639 0.9973595 0.0357639 0.0026405 -0.0357639
604000000 0.0025082 -0.0336200 0.9974918 0.0336200 0.9974918 0.0336200 0.0025082 -0.0336200
625000000 0.0023927 -0.0315886 0.9976073 0.0315886 0.9976073 0.0315886 0.0023927 -0.0315886
646000000 0.0022919 -0.0296586 0.9977081 0.0296586 0.9977081 0.0296586 0.0022919 -0.0296586
667000000 0.0022041 -0.0278206 0.9977959 0.0278206 0.9977959 0.0278206 0.0022041 -0.0278206
688000000 0.0021278 -0.0260663 0.9978722 0.0260663 0.9978722 0.0260663 0.0021278 -0.0260663
709000000 0.0020618 -0.0243881 0.9979382 0.0243881 0.9979382 0.0243881 0.0020618 -0.0243881
730000000 0.0020049 -0.0227796 0.9979951 0.0227796 0.9979951 0.0227796 0.0020049 -0.0227796
751000000 0.0019562 -0.0212348 0.9980438 0.0212348 0.9980438 0.0212348 0.0019562 -0.0212348
772000000 0.0019150 -0.0197487 0.9980850 0.0197487 0.9980850 0.0197487 0.0019150 -0.0197487
793000000 0.0018805 -0.0183165 0.9981195 0.0183165 0.9981195 0.0183165 0.0018805 -0.0183165
814000000 0.0018521 -0.0169340 0.9981479 0.0169340 0.9981479 0.0169340 0.0018521 -0.0169340
835000000 0.0018292 -0.0155975 0.9981708 0.0155975 0.9981708 0.0155975 0.0018292 -0.0155975
856000000 0.0018115 -0.0143035 0.9981885 0.0143035 0.9981885 0.0143035 0.0018115 -0.0143035
877000000 0.0017984 -0.0130490 0.9982016 0.0130490 0.9982016 0.0130490 0.0017984 -0.0130490
898000000 0.0017897 -0.0118312 0.9982103 0.0118312 0.9982103 0.0118312 0.0017897 -0.0118312
919000000 0.0017849 -0.0106474 0.9982151 0.0106474 0.9982151 0.0106474 0.0017849 -0.0106474
940000000 0.0017839 -0.0094954 0.9982161 0.0094954 0.9982161 0.0094954 0.0017839 -0.0094954
961000000 0.0017863 -0.0083731 0.9982137 0.0083731 0.9982137 0.0083731 0.0017863 -0.0083731
982000000 0.0017920 -0.0072785 0.9982080 0.0072785 0.9982080 0.0072785 0.0017920 -0.0072785
1003000000 0.0018007 -0.0062097 0.9981993 0.0062097 0.9981993 0.0062097 0.0018007 -0.0062097
1024000000 0.0018122 -0.0051652 0.9981878 0.0051652 0.9981878 0.0051652 0.0018122 -0.0051652
1045000000 0.0018265 -0.0041435 0.9981735 0.0041435 0.9981735 0.0041435 0.0018265 -0.0041435
1066000000 0.0018433 -0.0031430 0.9981567 0.0031430 0.9981567 0.0031430 0.0018433 -0.0031430
1087000000 0.0018626 -0.0021626 0.9981374 0.0021626 0.9981374 0.0021626 0.0018626 -0.0021626
1108000000 0.0018842 -0.0012009 0.9981158 0.0012009 0.9981158 0.0012009 0.0018842 -0.0012009
1129000000 0.0019080 -0.0002570 0.9980920 0.0002570 0.9980920 0.0002570 0.0019080 -0.0002570
1150000000 0.0019340 0.0006703 0.9980660 -0.0006703 0.9980660 -0.0006703 0.0019340 0.0006703
1171000000 0.0019621 0.0015819 0.9980379 -0.0015819 0.9980379 -0.0015819 0.0019621 0.0015819
1192000000 0.0019922 0.0024787 0.9980078 -0.0024787 0.9980078 -0.0024787 0.0019922 0.0024787
1213000000 0.0020242 0.0033617 0.9979758 -0.0033617 0.9979758 -0.0033617 0.0020242 0.0033617
1234000000 0.0020582 0.0042315 0.9979418 -0.0042315 0.9979418 -0.0042315 0.0020582 0.0042315
1255000000 0.0020941 0.0050889 0.9979059 -0.0050889 0.9979059 -0.0050889 0.0020941 0.0050889
1276000000 0.0021318 0.0059347 0.9978682 -0.0059347 0.9978682 -0.0059347 0.0021318 0.0059347
1297000000 0.0021714 0.0067694 0.9978286 -0.0067694 0.9978286 -0.0067694 0.0021714 0.0067694
1318000000 0.0022127 0.0075938 0.9977873 -0.0075938 0.9977873 -0.0075938 0.0022127 0.0075938
1339000000 0.0022559 0.0084083 0.9977441 -0.0084083 0.9977441 -0.0084083 0.0022559 0.0084083
1360000000 0.0023009 0.0092137 0.9976991 -0.0092137 0.9976991 -0.0092137 0.0023009 0.0092137
1381000000 0.0023477 0.0100103 0.9976523 -0.0100103 0.9976523 -0.0100103 0.0023477 0.0100103
1402000000 0.0023964 0.0107987 0.9976036 -0.0107987 0.9976036 -0.0107987 0.0023964 0.0107987
1423000000 0.0024468 0.0115794 0.9975532 -0.0115794 0.9975532 -0.0115794 0.0024468 0.0115794
1444000000 0.0024992 0.0123528 0.9975008 -0.0123528 0.9975008 -0.0123528 0.0024992 0.0123528
1465000000 0.0025535 0.0131194 0.9974465 -0.0131194 0.9974465 -0.0131194 0.0025535 0.0131194
1486000000 0.0026097 0.0138796 0.9973903 -0.0138796 0.9973903 -0.0138796 0.0026097 0.0138796
1507000000 0.0026679 0.0146338 0.9973321 -0.0146338 0.9973321 -0.0146338 0.0026679 0.0146338
1528000000 0.0027281 0.0153824 0.9972719 -0.0153824 0.9972719 -0.0153824 0.0027281 0.0153824
1549000000 0.0027905 0.0161257 0.9972095 -0.0161257 0.9972095 -0.0161257 0.0027905 0.0161257
1570000000 0.0028550 0.0168641 0.9971450 -0.0168641 0.9971450 -0.0168641 0.0028550 0.0168641
1591000000 0.0029219 0.0175980 0.9970781 -0.0175980 0.9970781 -0.0175980 0.0029219 0.0175980
1612000000 0.0029911 0.0183277 0.9970089 -0.0183277 0.9970089 -0.0183277 0.0029911 0.0183277
1633000000 0.0030627 0.0190535 0.9969373 -0.0190535 0.9969373 -0.0190535 0.0030627 0.0190535
1654000000 0.0031370 0.0197759 0.9968630 -0.0197759 0.9968630 -0.0197759 0.0031370 0.0197759
1675000000 0.0032140 0.0204949 0.9967860 -0.0204949 0.9967860 -0.0204949 0.0032140 0.0204949
1696000000 0.0032939 0.0212111 0.9967061 -0.0212111 0.9967061 -0.0212111 0.0032939 0.0212111
1717000000 0.0033769 0.0219247 0.9966231 -0.0219247 0.9966231 -0.0219247 0.0033769 0.0219247
1738000000 0.0034631 0.0226359 0.9965369 -0.0226359 0.9965369 -0.0226359 0.0034631 0.0226359
1759000000 0.0035527 0.0233452 0.9964473 -0.0233452 0.9964473 -0.0233452 0.0035527 0.0233452
1780000000 0.0036461 0.0240527 0.9963539 -0.0240527 0.9963539 -0.0240527 0.0036461 0.0240527
1801000000 0.0037435 0.0247588 0.9962565 -0.0247588 0.9962565 -0.0247588 0.0037435 0.0247588
1822000000 0.0038452 0.0254637 0.9961548 -0.0254637 0.9961548 -0.0254637 0.0038452 0.0254637
1843000000 0.0039515 0.0261677 0.9960485 -0.0261677 0.9960485 -0.0261677 0.0039515 0.0261677
1864000000 0.0040628 0.0268711 0.9959372 -0.0268711 0.9959372 -0.0268711 0.0040628 0.0268711
1885000000 0.0041797 0.0275742 0.9958203 -0.0275742 0.9958203 -0.0275742 0.0041797 0.0275742
1906000000 0.0043025 0.0282771 0.9956975 -0.0282771 0.9956975 -0.0282771 0.0043025 0.0282771
1927000000 0.0044318 0.0289801 0.9955682 -0.0289801 0.9955682 -0.0289801 0.0044318 0.0289801
1948000000 0.0045684 0.0296834 0.9954316 -0.0296834 0.9954316 -0.0296834 0.0045684 0.0296834
1969000000 0.0047128 0.0303872 0.9952872 -0.0303872 0.9952872 -0.0303872 0.0047128 0.0303872
1990000000 0.0048661 0.0310916 0.9951339 -0.0310916 0.9951339 -0.0310916 0.0048661 0.0310916
2011000000 0.0050290 0.0317966 0.9949710 -0.0317966 0.9949710 -0.0317966 0.0050290 0.0317966
2032000000 0.0052028 0.0325023 0.9947972 -0.0325023 0.9947972 -0.0325023 0.0052028 0.0325023
2053000000 0.0053886 0.0332085 0.9946114 -0.0332085 0.9946114 -0.0332085 0.0053886 0.0332085
2074000000 0.0055879 0.0339151 0.9944121 -0.0339151 0.9944121 -0.0339151 0.0055879 0.0339151
2095000000 0.0058022 0.0346215 0.9941978 -0.0346215 0.9941978 -0.0346215 0.0058022 0.0346215
2116000000 0.0060334 0.0353270 0.9939666 -0.0353270 0.9939666 -0.0353270 0.0060334 0.0353270
2137000000 0.0062834 0.0360308 0.9937166 -0.0360308 0.9937166 -0.0360308 0.0062834 0.0360308
2158000000 0.0065545 0.0367313 0.9934455 -0.0367313 0.9934455 -0.0367313 0.0065545 0.0367313
2179000000 0.0068492 0.0374267 0.9931508 -0.0374267 0.9931508 -0.0374267 0.0068492 0.0374267
2200000000 0.0071700 0.0381143 0.9928300 -0.0381143 0.9928300 -0.0381143 0.0071700 0.0381143
2221000000 0.0075195 0.0387906 0.9924805 -0.0387906 0.9924805 -0.0387906 0.0075195 0.0387906
2242000000 0.0079004 0.0394510 0.9920996 -0.0394510 0.9920996 -0.0394510 0.0079004 0.0394510
2263000000 0.0083148 0.0400894 0.9916852 -0.0400894 0.9916852 -0.0400894 0.0083148 0.0400894
2284000000 0.0087641 0.0406986 0.9912359 -0.0406986 0.9912359 -0.0406986 0.0087641 0.0406986
2305000000 0.0092483 0.0412692 0.9907517 -0.0412692 0.9907517 -0.0412692 0.0092483 0.0412692
2326000000 0.0097654 0.0417905 0.9902346 -0.0417905 0.9902346 -0.0417905 0.0097654 0.0417905
2347000000 0.0103099 0.0422503 0.9896901 -0.0422503 0.9896901 -0.0422503 0.0103099 0.0422503
2368000000 0.0108724 0.0426358 0.9891276 -0.0426358 0.9891276 -0.0426358 0.0108724 0.0426358
2389000000 0.0114378 0.0429355 0.9885622 -0.0429355 0.9885622 -0.0429355 0.0114378 0.0429355
2410000000 0.0119855 0.0431410 0.9880145 -0.0431410 0.9880145 -0.0431410 0.0119855 0.0431410
2431000000 0.0124900 0.0432504 0.9875100 -0.0432504 0.9875100 -0.0432504 0.0124900 0.0432504
2452000000 0.0129230 0.0432707 0.9870770 -0.0432707 0.9870770 -0.0432707 0.0129230 0.0432707
2473000000 0.0132575 0.0432196 0.9867425 -0.0432196 0.9867425 -0.0432196 0.0132575 0.0432196
2494000000 0.0134730 0.0431252 0.9865270 -0.0431252 0.9865270 -0.0431252 0.0134730 0.0431252
2515000000 0.0135599 0.0430224 0.9864401 -0.0430224 0.9864401 -0.0430224 0.0135599 0.0430224
2536000000 0.0135222 0.0429476 0.9864778 -0.0429476 0.9864778 -0.0429476 0.0135222 0.0429476
2557000000 0.0133759 0.0429326 0.9866241 -0.0429326 0.9866241 -0.0429326 0.0133759 0.0429326
2578000000 0.0131458 0.0430001 0.9868542 -0.0430001 0.9868542 -0.0430001 0.0131458 0.0430001
2599000000 0.0128606 0.0431620 0.9871394 -0.0431620 0.9871394 -0.0431620 0.0128606 0.0431620
2620000000 0.0125477 0.0434199 0.9874523 -0.0434199 0.9874523 -0.0434199 0.0125477 0.0434199
2641000000 0.0122303 0.0437681 0.9877697 -0.0437681 0.9877697 -0.0437681 0.0122303 0.0437681
2662000000 0.0119263 0.0441960 0.9880737 -0.0441960 0.9880737 -0.0441960 0.0119263 0.0441960
2683000000 0.0116478 0.0446913 0.9883522 -0.0446913 0.9883522 -0.0446913 0.0116478 0.0446913
2704000000 0.0114023 0.0452413 0.9885977 -0.0452413 0.9885977 -0.0452413 0.0114023 0.0452413
2725000000 0.0111935 0.0458345 0.9888065 -0.0458345 0.9888065 -0.0458345 0.0111935 0.0458345
2746000000 0.0110224 0.0464608 0.9889776 -0.0464608 0.9889776 -0.0464608 0.0110224 0.0464608
2767000000 0.0108886 0.0471119 0.9891114 -0.0471119 0.9891114 -0.0471119 0.0108886 0.0471119
2788000000 0.0107905 0.0477811 0.9892095 -0.0477811 0.9892095 -0.0477811 0.0107905 0.0477811
2809000000 0.0107258 0.0484631 0.9892742 -0.0484631 0.9892742 -0.0484631 0.0107258 0.0484631
2830000000 0.0106924 0.0491538 0.9893076 -0.0491538 0.9893076 -0.0491538 0.0106924 0.0491538
2851000000 0.0106879 0.0498500 0.9893121 -0.0498500 0.9893121 -0.0498500 0.0106879 0.0498500
2872000000 0.0107101 0.0505494 0.9892899 -0.0505494 0.9892899 -0.0505494 0.0107101 0.0505494
2893000000 0.0107571 0.0512502 0.9892429 -0.0512502 0.9892429 -0.0512502 0.0107571 0.0512502
2914000000 0.0108271 0.0519510 0.9891729 -0.0519510 0.9891729 -0.0519510 0.0108271 0.0519510
2935000000 0.0109186 0.0526507 0.9890814 -0.0526507 0.9890814 -0.0526507 0.0109186 0.0526507
2956000000 0.0110305 0.0533487 0.9889695 -0.0533487 0.9889695 -0.0533487 0.0110305 0.0533487
2977000000 0.0111615 0.0540442 0.9888385 -0.0540442 0.9888385 -0.0540442 0.0111615 0.0540442
2998000000 0.0113108 0.0547369 0.9886892 -0.0547369 0.9886892 -0.0547369 0.0113108 0.0547369
3019000000 0.0114778 0.0554262 0.9885222 -0.0554262 0.9885222 -0.0554262 0.0114778 0.0554262
3040000000 0.0116618 0.0561120 0.9883382 -0.0561120 0.9883382 -0.0561120 0.0116618 0.0561120
3061000000 0.0118626 0.0567938 0.9881374 -0.0567938 0.9881374 -0.0567938 0.0118626 0.0567938
3082000000 0.0120799 0.0574713 0.9879201 -0.0574713 0.9879201 -0.0574713 0.0120799 0.0574713
3103000000 0.0123135 0.0581442 0.9876865 -0.0581442 0.9876865 -0.0581442 0.0123135 0.0581442
3124000000 0.0125633 0.0588120 0.9874367 -0.0588120 0.9874367 -0.0588120 0.0125633 0.0588120
3145000000 0.0128295 0.0594744 0.9871705 -0.0594744 0.9871705 -0.0594744 0.0128295 0.0594744
3166000000 0.0131120 0.0601307 0.9868880 -0.0601307 0.9868880 -0.0601307 0.0131120 0.0601307
3187000000 0.0134112 0.0607805 0.9865888 -0.0607805 0.9865888 -0.0607805 0.0134112 0.0607805
3208000000 0.0137271 0.0614230 0.9862729 -0.0614230 0.9862729 -0.0614230 0.0137271 0.0614230
3229000000 0.0140600 0.0620575 0.9859400 -0.0620575 0.9859400 -0.0620575 0.0140600 0.0620575
3250000000 0.0144103 0.0626830 0.9855897 -0.0626830 0.9855897 -0.0626830 0.0144103 0.0626830
3271000000 0.0147781 0.0632986 0.9852219 -0.0632986 0.9852219 -0.0632986 0.0147781 0.0632986
3292000000 0.0151638 0.0639030 0.9848362 -0.0639030 0.9848362 -0.0639030 0.0151638 0.0639030
3313000000 0.0155675 0.0644950 0.9844325 -0.0644950 0.9844325 -0.0644950 0.0155675 0.0644950
3334000000 0.0159895 0.0650732 0.9840105 -0.0650732 0.9840105 -0.0650732 0.0159895 0.0650732
3355000000 0.0164297 0.0656358 0.9835703 -0.0656358 0.9835703 -0.0656358 0.0164297 0.0656358
3376000000 0.0168883 0.0661812 0.9831117 -0.0661812 0.9831117 -0.0661812 0.0168883 0.0661812
3397000000 0.0173649 0.0667073 0.9826351 -0.0667073 0.9826351 -0.0667073 0.0173649 0.0667073
3418000000 0.0178593 0.0672120 0.9821407 -0.0672120 0.9821407 -0.0672120 0.0178593 0.0672120
3439000000 0.0183708 0.0676930 0.9816292 -0.0676930 0.9816292 -0.0676930 0.0183708 0.0676930
3460000000 0.0188987 0.0681479 0.9811013 -0.0681479 0.9811013 -0.0681479 0.0188987 0.0681479
3481000000 0.0194416 0.0685741 0.9805584 -0.0685741 0.9805584 -0.0685741 0.0194416 0.0685741
3502000000 0.0199981 0.0689690 0.9800019 -0.0689690 0.9800019 -0.0689690 0.0199981 0.0689690
3523000000 0.0205662 0.0693297 0.9794338 -0.0693297 0.9794338 -0.0693297 0.0205662 0.0693297
3544000000 0.0211434 0.0696537 0.9788566 -0.0696537 0.9788566 -0.0696537 0.0211434 0.0696537
3565000000 0.0217267 0.0699383 0.9782733 -0.0699383 0.9782733 -0.0699383 0.0217267 0.0699383
3586000000 0.0223127 0.0701811 0.9776873 -0.0701811 0.9776873 -0.0701811 0.0223127 0.0701811
3607000000 0.0228972 0.0703798 0.9771028 -0.0703798 0.9771028 -0.0703798 0.0228972 0.0703798
3628000000 0.0234757 0.0705329 0.9765243 -0.0705329 0.9765243 -0.0705329 0.0234757 0.0705329
3649000000 0.0240429 0.0706392 0.9759571 -0.0706392 0.9759571 -0.0706392 0.0240429 0.0706392
3670000000 0.0245932 0.0706980 0.9754068 -0.0706980 0.9754068 -0.0706980 0.0245932 0.0706980
3691000000 0.0251206 0.0707097 0.9748794 -0.0707097 0.9748794 -0.0707097 0.0251206 0.0707097
3712000000 0.0256189 0.0706756 0.9743811 -0.0706756 0.9743811 -0.0706756 0.0256189 0.0706756
3733000000 0.0260817 0.0705979 0.9739183 -0.0705979 0.9739183 -0.0705979 0.0260817 0.0705979
3754000000 0.0265029 0.0704799 0.9734971 -0.0704799 0.9734971 -0.0704799 0.0265029 0.0704799
3775000000 0.0268766 0.0703261 0.9731234 -0.0703261 0.9731234 -0.0703261 0.0268766 0.0703261
3796000000 0.0271977 0.0701420 0.9728023 -0.0701420 0.9728023 -0.0701420 0.0271977 0.0701420
3817000000 0.0274618 0.0699341 0.9725382 -0.0699341 0.9725382 -0.0699341 0.0274618 0.0699341
3838000000 0.0276654 0.0697094 0.9723346 -0.0697094 0.9723346 -0.0697094 0.0276654 0.0697094
3859000000 0.0278066 0.0694760 0.9721934 -0.0694760 0.9721934 -0.0694760 0.0278066 0.0694760
3880000000 0.0278844 0.0692417 0.9721156 -0.0692417 0.9721156 -0.0692417 0.0278844 0.0692417
3901000000 0.0278994 0.0690149 0.9721006 -0.0690149 0.9721006 -0.0690149 0.0278994 0.0690149
3922000000 0.0278535 0.0688034 0.9721465 -0.0688034 0.9721465 -0.0688034 0.0278535 0.0688034
3943000000 0.0277498 0.0686145 0.9722502 -0.0686145 0.9722502 -0.0686145 0.0277498 0.0686145
3964000000 0.0275925 0.0684550 0.9724075 -0.0684550 0.9724075 -0.0684550 0.0275925 0.0684550
3985000000 0.0273867 0.0683304 0.9726133 -0.0683304 0.9726133 -0.0683304 0.0273867 0.0683304
4006000000 0.0271381 0.0682455 0.9728619 -0.0682455 0.9728619 -0.0682455 0.0271381 0.0682455
4027000000 0.0268529 0.0682039 0.9731471 -0.0682039 0.9731471 -0.0682039 0.0268529 0.0682039
4048000000 0.0265374 0.0682080 0.9734626 -0.0682080 0.9734626 -0.0682080 0.0265374 0.0682080
4069000000 0.0261981 0.0682591 0.9738019 -0.0682591 0.9738019 -0.0682591 0.0261981 0.0682591
4090000000 0.0258409 0.0683578 0.9741591 -0.0683578 0.9741591 -0.0683578 0.0258409 0.0683578
4111000000 0.0254717 0.0685036 0.9745283 -0.0685036 0.9745283 -0.0685036 0.0254717 0.0685036
4132000000 0.0250957 0.0686953 0.9749043 -0.0686953 0.9749043 -0.0686953 0.0250957 0.0686953
4153000000 0.0247178 0.0689312 0.9752822 -0.0689312 0.9752822 -0.0689312 0.0247178 0.0689312
4174000000 0.0243421 0.0692091 0.9756579 -0.0692091 0.9756579 -0.0692091 0.0243421 0.0692091
4195000000 0.0239723 0.0695267 0.9760277 -0.0695267 0.9760277 -0.0695267 0.0239723 0.0695267
4216000000 0.0236114 0.0698810 0.9763886 -0.0698810 0.9763886 -0.0698810 0.0236114 0.0698810
4237000000 0.0232619 0.0702694 0.9767381 -0.0702694 0.9767381 -0.0702694 0.0232619 0.0702694
4258000000 0.0229258 0.0706889 0.9770742 -0.0706889 0.9770742 -0.0706889 0.0229258 0.0706889
4279000000 0.0226047 0.0711369 0.9773953 -0.0711369 0.9773953 -0.0711369 0.0226047 0.0711369
4300000000 0.0222998 0.0716105 0.9777002 -0.0716105 0.9777002 -0.0716105 0.0222998 0.0716105
4321000000 0.0220119 0.0721072 0.9779881 -0.0721072 0.9779881 -0.0721072 0.0220119 0.0721072
4342000000 0.0217415 0.0726244 0.9782585 -0.0726244 0.9782585 -0.0726244 0.0217415 0.0726244
4363000000 0.0214888 0.0731600 0.9785112 -0.0731600 0.9785112 -0.0731600 0.0214888 0.0731600
4384000000 0.0212540 0.0737119 0.9787460 -0.0737119 0.9787460 -0.0737119 0.0212540 0.0737119
4405000000 0.0210370 0.0742780 0.9789630 -0.0742780 0.9789630 -0.0742780 0.0210370 0.0742780
4426000000 0.0208374 0.0748566 0.9791626 -0.0748566 0.9791626 -0.0748566 0.0208374 0.0748566
4447000000 0.0206550 0.0754461 0.9793450 -0.0754461 0.9793450 -0.0754461 0.0206550 0.0754461
4468000000 0.0204894 0.0760450 0.9795106 -0.0760450 0.9795106 -0.0760450 0.0204894 0.0760450
4489000000 0.0203399 0.0766521 0.9796601 -0.0766521 0.9796601 -0.0766521 0.0203399 0.0766521
4510000000 0.0202062 0.0772662 0.9797938 -0.0772662 0.9797938 -0.0772662 0.0202062 0.0772662
