!Murata Part Number: GRM1555C1H472GE01
!These Parameters are Measured in Series Mode Connection
!Data Generated on Mar 30, 2021
!       o--ll--o
!Port1            Port2
!       o------o
!Operation Temp=25[degC], DC Bias Voltage=0[V]
!Freq. Start=1000[kHz] Stop=6[GHz] 401[Steps]
# Hz S RI R 50
!Freq.(Hz) S11(Real) S11(Imag) S21(Real) S21(Imag) S12(Real) S12(Imag) S22(Real) S22(Imag)
1000000 0.1038744 -0.3050360 0.8961256 0.3050360 0.8961256 0.3050360 0.1038744 -0.3050360
1021987 0.0998954 -0.2997971 0.9001046 0.2997971 0.9001046 0.2997971 0.0998954 -0.2997971
1044457 0.0960525 -0.2945980 0.9039475 0.2945980 0.9039475 0.2945980 0.0960525 -0.2945980
1067422 0.0923424 -0.2894415 0.9076576 0.2894415 0.9076576 0.2894415 0.0923424 -0.2894415
1090891 0.0887616 -0.2843301 0.9112384 0.2843301 0.9112384 0.2843301 0.0887616 -0.2843301
1114877 0.0853066 -0.2792661 0.9146934 0.2792661 0.9146934 0.2792661 0.0853066 -0.2792661
1139390 0.0819741 -0.2742517 0.9180259 0.2742517 0.9180259 0.2742517 0.0819741 -0.2742517
1164441 0.0787606 -0.2692890 0.9212394 0.2692890 0.9212394 0.2692890 0.0787606 -0.2692890
1190044 0.0756628 -0.2643798 0.9243372 0.2643798 0.9243372 0.2643798 0.0756628 -0.2643798
1216210 0.0726773 -0.2595256 0.9273227 0.2595256 0.9273227 0.2595256 0.0726773 -0.2595256
1242950 0.0698008 -0.2547280 0.9301992 0.2547280 0.9301992 0.2547280 0.0698008 -0.2547280
1270279 0.0670299 -0.2499883 0.9329701 0.2499883 0.9329701 0.2499883 0.0670299 -0.2499883
1298209 0.0643615 -0.2453077 0.9356385 0.2453077 0.9356385 0.2453077 0.0643615 -0.2453077
1326753 0.0617924 -0.2406872 0.9382076 0.2406872 0.9382076 0.2406872 0.0617924 -0.2406872
1355924 0.0593194 -0.2361278 0.9406806 0.2361278 0.9406806 0.2361278 0.0593194 -0.2361278
1385737 0.0569395 -0.2316303 0.9430605 0.2316303 0.9430605 0.2316303 0.0569395 -0.2316303
1416205 0.0546495 -0.2271953 0.9453505 0.2271953 0.9453505 0.2271953 0.0546495 -0.2271953
1447343 0.0524467 -0.2228233 0.9475533 0.2228233 0.9475533 0.2228233 0.0524467 -0.2228233
1479166 0.0503279 -0.2185149 0.9496721 0.2185149 0.9496721 0.2185149 0.0503279 -0.2185149
1511688 0.0482905 -0.2142703 0.9517095 0.2142703 0.9517095 0.2142703 0.0482905 -0.2142703
1544926 0.0463316 -0.2100898 0.9536684 0.2100898 0.9536684 0.2100898 0.0463316 -0.2100898
1578894 0.0444486 -0.2059736 0.9555514 0.2059736 0.9555514 0.2059736 0.0444486 -0.2059736
1613609 0.0426388 -0.2019217 0.9573612 0.2019217 0.9573612 0.2019217 0.0426388 -0.2019217
1649087 0.0408996 -0.1979342 0.9591004 0.1979342 0.9591004 0.1979342 0.0408996 -0.1979342
1685346 0.0392285 -0.1940110 0.9607715 0.1940110 0.9607715 0.1940110 0.0392285 -0.1940110
1722402 0.0376231 -0.1901519 0.9623769 0.1901519 0.9623769 0.1901519 0.0376231 -0.1901519
1760272 0.0360810 -0.1863567 0.9639190 0.1863567 0.9639190 0.1863567 0.0360810 -0.1863567
1798975 0.0345999 -0.1826251 0.9654001 0.1826251 0.9654001 0.1826251 0.0345999 -0.1826251
1838529 0.0331777 -0.1789569 0.9668223 0.1789569 0.9668223 0.1789569 0.0331777 -0.1789569
1878953 0.0318121 -0.1753516 0.9681879 0.1753516 0.9681879 0.1753516 0.0318121 -0.1753516
1920266 0.0305010 -0.1718089 0.9694990 0.1718089 0.9694990 0.1718089 0.0305010 -0.1718089
1962487 0.0292424 -0.1683283 0.9707576 0.1683283 0.9707576 0.1683283 0.0292424 -0.1683283
2005636 0.0280343 -0.1649092 0.9719657 0.1649092 0.9719657 0.1649092 0.0280343 -0.1649092
2049734 0.0268749 -0.1615511 0.9731251 0.1615511 0.9731251 0.1615511 0.0268749 -0.1615511
2094801 0.0257622 -0.1582535 0.9742378 0.1582535 0.9742378 0.1582535 0.0257622 -0.1582535
2140860 0.0246946 -0.1550158 0.9753054 0.1550158 0.9753054 0.1550158 0.0246946 -0.1550158
2187931 0.0236702 -0.1518373 0.9763298 0.1518373 0.9763298 0.1518373 0.0236702 -0.1518373
2236037 0.0226874 -0.1487174 0.9773126 0.1487174 0.9773126 0.1487174 0.0226874 -0.1487174
2285201 0.0217446 -0.1456553 0.9782554 0.1456553 0.9782554 0.1456553 0.0217446 -0.1456553
2335446 0.0208402 -0.1426505 0.9791598 0.1426505 0.9791598 0.1426505 0.0208402 -0.1426505
2386795 0.0199728 -0.1397022 0.9800272 0.1397022 0.9800272 0.1397022 0.0199728 -0.1397022
2439274 0.0191409 -0.1368096 0.9808591 0.1368096 0.9808591 0.1368096 0.0191409 -0.1368096
2492906 0.0183432 -0.1339721 0.9816568 0.1339721 0.9816568 0.1339721 0.0183432 -0.1339721
2547717 0.0175781 -0.1311888 0.9824219 0.1311888 0.9824219 0.1311888 0.0175781 -0.1311888
2603734 0.0168446 -0.1284591 0.9831554 0.1284591 0.9831554 0.1284591 0.0168446 -0.1284591
2660982 0.0161412 -0.1257821 0.9838588 0.1257821 0.9838588 0.1257821 0.0161412 -0.1257821
2719490 0.0154669 -0.1231570 0.9845331 0.1231570 0.9845331 0.1231570 0.0154669 -0.1231570
2779283 0.0148204 -0.1205832 0.9851796 0.1205832 0.9851796 0.1205832 0.0148204 -0.1205832
2840391 0.0142006 -0.1180597 0.9857994 0.1180597 0.9857994 0.1180597 0.0142006 -0.1180597
2902843 0.0136065 -0.1155859 0.9863935 0.1155859 0.9863935 0.1155859 0.0136065 -0.1155859
2966668 0.0130371 -0.1131609 0.9869629 0.1131609 0.9869629 0.1131609 0.0130371 -0.1131609
3031896 0.0124913 -0.1107840 0.9875087 0.1107840 0.9875087 0.1107840 0.0124913 -0.1107840
3098558 0.0119682 -0.1084543 0.9880318 0.1084543 0.9880318 0.1084543 0.0119682 -0.1084543
3166686 0.0114668 -0.1061711 0.9885332 0.1061711 0.9885332 0.1061711 0.0114668 -0.1061711
3236312 0.0109863 -0.1039336 0.9890137 0.1039336 0.9890137 0.1039336 0.0109863 -0.1039336
3307469 0.0105259 -0.1017410 0.9894741 0.1017410 0.9894741 0.1017410 0.0105259 -0.1017410
3380190 0.0100847 -0.0995925 0.9899153 0.0995925 0.9899153 0.0995925 0.0100847 -0.0995925
3454511 0.0096619 -0.0974874 0.9903381 0.0974874 0.9903381 0.0974874 0.0096619 -0.0974874
3530465 0.0092567 -0.0954250 0.9907433 0.0954250 0.9907433 0.0954250 0.0092567 -0.0954250
3608090 0.0088686 -0.0934044 0.9911314 0.0934044 0.9911314 0.0934044 0.0088686 -0.0934044
3687421 0.0084966 -0.0914248 0.9915034 0.0914248 0.9915034 0.0914248 0.0084966 -0.0914248
3768496 0.0081403 -0.0894857 0.9918597 0.0894857 0.9918597 0.0894857 0.0081403 -0.0894857
3851354 0.0077989 -0.0875861 0.9922011 0.0875861 0.9922011 0.0875861 0.0077989 -0.0875861
3936034 0.0074719 -0.0857255 0.9925281 0.0857255 0.9925281 0.0857255 0.0074719 -0.0857255
4022575 0.0071585 -0.0839030 0.9928415 0.0839030 0.9928415 0.0839030 0.0071585 -0.0839030
4111020 0.0068584 -0.0821180 0.9931416 0.0821180 0.9931416 0.0821180 0.0068584 -0.0821180
4201409 0.0065709 -0.0803697 0.9934291 0.0803697 0.9934291 0.0803697 0.0065709 -0.0803697
4293785 0.0062954 -0.0786575 0.9937046 0.0786575 0.9937046 0.0786575 0.0062954 -0.0786575
4388193 0.0060316 -0.0769807 0.9939684 0.0769807 0.9939684 0.0769807 0.0060316 -0.0769807
4484676 0.0057789 -0.0753385 0.9942211 0.0753385 0.9942211 0.0753385 0.0057789 -0.0753385
4583281 0.0055369 -0.0737304 0.9944631 0.0737304 0.9944631 0.0737304 0.0055369 -0.0737304
4684054 0.0053051 -0.0721556 0.9946949 0.0721556 0.9946949 0.0721556 0.0053051 -0.0721556
4787042 0.0050830 -0.0706135 0.9949170 0.0706135 0.9949170 0.0706135 0.0050830 -0.0706135
4892295 0.0048704 -0.0691035 0.9951296 0.0691035 0.9951296 0.0691035 0.0048704 -0.0691035
4999862 0.0046667 -0.0676250 0.9953333 0.0676250 0.9953333 0.0676250 0.0046667 -0.0676250
5109794 0.0044716 -0.0661773 0.9955284 0.0661773 0.9955284 0.0661773 0.0044716 -0.0661773
5222143 0.0042848 -0.0647597 0.9957152 0.0647597 0.9957152 0.0647597 0.0042848 -0.0647597
5336962 0.0041060 -0.0633718 0.9958940 0.0633718 0.9958940 0.0633718 0.0041060 -0.0633718
5454306 0.0039346 -0.0620130 0.9960654 0.0620130 0.9960654 0.0620130 0.0039346 -0.0620130
5574230 0.0037706 -0.0606825 0.9962294 0.0606825 0.9962294 0.0606825 0.0037706 -0.0606825
5696791 0.0036135 -0.0593799 0.9963865 0.0593799 0.9963865 0.0593799 0.0036135 -0.0593799
5822046 0.0034631 -0.0581047 0.9965369 0.0581047 0.9965369 0.0581047 0.0034631 -0.0581047
5950055 0.0033191 -0.0568561 0.9966809 0.0568561 0.9966809 0.0568561 0.0033191 -0.0568561
6080879 0.0031812 -0.0556338 0.9968188 0.0556338 0.9968188 0.0556338 0.0031812 -0.0556338
6214580 0.0030491 -0.0544371 0.9969509 0.0544371 0.9969509 0.0544371 0.0030491 -0.0544371
6351220 0.0029227 -0.0532656 0.9970773 0.0532656 0.9970773 0.0532656 0.0029227 -0.0532656
6490864 0.0028017 -0.0521188 0.9971983 0.0521188 0.9971983 0.0521188 0.0028017 -0.0521188
6633579 0.0026858 -0.0509960 0.9973142 0.0509960 0.9973142 0.0509960 0.0026858 -0.0509960
6779431 0.0025749 -0.0498969 0.9974251 0.0498969 0.9974251 0.0498969 0.0025749 -0.0498969
6928491 0.0024687 -0.0488209 0.9975313 0.0488209 0.9975313 0.0488209 0.0024687 -0.0488209
7080828 0.0023670 -0.0477676 0.9976330 0.0477676 0.9976330 0.0477676 0.0023670 -0.0477676
7236514 0.0022697 -0.0467365 0.9977303 0.0467365 0.9977303 0.0467365 0.0022697 -0.0467365
7395623 0.0021766 -0.0457271 0.9978234 0.0457271 0.9978234 0.0457271 0.0021766 -0.0457271
7558231 0.0020874 -0.0447390 0.9979126 0.0447390 0.9979126 0.0447390 0.0020874 -0.0447390
7724414 0.0020021 -0.0437718 0.9979979 0.0437718 0.9979979 0.0437718 0.0020021 -0.0437718
7894251 0.0019204 -0.0428249 0.9980796 0.0428249 0.9980796 0.0428249 0.0019204 -0.0428249
8067822 0.0018422 -0.0418980 0.9981578 0.0418980 0.9981578 0.0418980 0.0018422 -0.0418980
8245209 0.0017674 -0.0409907 0.9982326 0.0409907 0.9982326 0.0409907 0.0017674 -0.0409907
8426497 0.0016958 -0.0401025 0.9983042 0.0401025 0.9983042 0.0401025 0.0016958 -0.0401025
8611770 0.0016273 -0.0392330 0.9983727 0.0392330 0.9983727 0.0392330 0.0016273 -0.0392330
8801117 0.0015617 -0.0383820 0.9984383 0.0383820 0.9984383 0.0383820 0.0015617 -0.0383820
8994628 0.0014990 -0.0375488 0.9985010 0.0375488 0.9985010 0.0375488 0.0014990 -0.0375488
9192393 0.0014390 -0.0367333 0.9985610 0.0367333 0.9985610 0.0367333 0.0014390 -0.0367333
9394506 0.0013815 -0.0359349 0.9986185 0.0359349 0.9986185 0.0359349 0.0013815 -0.0359349
9601063 0.0013266 -0.0351534 0.9986734 0.0351534 0.9986734 0.0351534 0.0013266 -0.0351534
9812162 0.0012741 -0.0343884 0.9987259 0.0343884 0.9987259 0.0343884 0.0012741 -0.0343884
10027902 0.0012238 -0.0336396 0.9987762 0.0336396 0.9987762 0.0336396 0.0012238 -0.0336396
10248386 0.0011757 -0.0329065 0.9988243 0.0329065 0.9988243 0.0329065 0.0011757 -0.0329065
10473717 0.0011297 -0.0321889 0.9988703 0.0321889 0.9988703 0.0321889 0.0011297 -0.0321889
10704003 0.0010858 -0.0314864 0.9989142 0.0314864 0.9989142 0.0314864 0.0010858 -0.0314864
10939352 0.0010437 -0.0307987 0.9989563 0.0307987 0.9989563 0.0307987 0.0010437 -0.0307987
11179876 0.0010035 -0.0301255 0.9989965 0.0301255 0.9989965 0.0301255 0.0010035 -0.0301255
11425688 0.0009651 -0.0294664 0.9990349 0.0294664 0.9990349 0.0294664 0.0009651 -0.0294664
11676904 0.0009283 -0.0288213 0.9990717 0.0288213 0.9990717 0.0288213 0.0009283 -0.0288213
11933645 0.0008932 -0.0281897 0.9991068 0.0281897 0.9991068 0.0281897 0.0008932 -0.0281897
12196030 0.0008596 -0.0275714 0.9991404 0.0275714 0.9991404 0.0275714 0.0008596 -0.0275714
12464184 0.0008275 -0.0269661 0.9991725 0.0269661 0.9991725 0.0269661 0.0008275 -0.0269661
12738235 0.0007968 -0.0263735 0.9992032 0.0263735 0.9992032 0.0263735 0.0007968 -0.0263735
13018310 0.0007675 -0.0257934 0.9992325 0.0257934 0.9992325 0.0257934 0.0007675 -0.0257934
13304544 0.0007395 -0.0252254 0.9992605 0.0252254 0.9992605 0.0252254 0.0007395 -0.0252254
13597071 0.0007128 -0.0246694 0.9992872 0.0246694 0.9992872 0.0246694 0.0007128 -0.0246694
13896030 0.0006872 -0.0241249 0.9993128 0.0241249 0.9993128 0.0241249 0.0006872 -0.0241249
14201563 0.0006628 -0.0235919 0.9993372 0.0235919 0.9993372 0.0235919 0.0006628 -0.0235919
14513813 0.0006395 -0.0230701 0.9993605 0.0230701 0.9993605 0.0230701 0.0006395 -0.0230701
14832928 0.0006172 -0.0225591 0.9993828 0.0225591 0.9993828 0.0225591 0.0006172 -0.0225591
15159060 0.0005960 -0.0220588 0.9994040 0.0220588 0.9994040 0.0220588 0.0005960 -0.0220588
15492362 0.0005757 -0.0215690 0.9994243 0.0215690 0.9994243 0.0215690 0.0005757 -0.0215690
15832993 0.0005563 -0.0210893 0.9994437 0.0210893 0.9994437 0.0210893 0.0005563 -0.0210893
16181113 0.0005378 -0.0206196 0.9994622 0.0206196 0.9994622 0.0206196 0.0005378 -0.0206196
16536888 0.0005202 -0.0201597 0.9994798 0.0201597 0.9994798 0.0201597 0.0005202 -0.0201597
16900485 0.0005033 -0.0197094 0.9994967 0.0197094 0.9994967 0.0197094 0.0005033 -0.0197094
17272076 0.0004873 -0.0192684 0.9995127 0.0192684 0.9995127 0.0192684 0.0004873 -0.0192684
17651837 0.0004720 -0.0188365 0.9995280 0.0188365 0.9995280 0.0188365 0.0004720 -0.0188365
18039948 0.0004574 -0.0184135 0.9995426 0.0184135 0.9995426 0.0184135 0.0004574 -0.0184135
18436593 0.0004435 -0.0179993 0.9995565 0.0179993 0.9995565 0.0179993 0.0004435 -0.0179993
18841959 0.0004302 -0.0175936 0.9995698 0.0175936 0.9995698 0.0175936 0.0004302 -0.0175936
19256237 0.0004175 -0.0171963 0.9995825 0.0171963 0.9995825 0.0171963 0.0004175 -0.0171963
19679624 0.0004055 -0.0168071 0.9995945 0.0168071 0.9995945 0.0168071 0.0004055 -0.0168071
20112321 0.0003940 -0.0164259 0.9996060 0.0164259 0.9996060 0.0164259 0.0003940 -0.0164259
20554530 0.0003831 -0.0160525 0.9996169 0.0160525 0.9996169 0.0160525 0.0003831 -0.0160525
21006463 0.0003726 -0.0156867 0.9996274 0.0156867 0.9996274 0.0156867 0.0003726 -0.0156867
21468333 0.0003627 -0.0153283 0.9996373 0.0153283 0.9996373 0.0153283 0.0003627 -0.0153283
21940357 0.0003533 -0.0149773 0.9996467 0.0149773 0.9996467 0.0149773 0.0003533 -0.0149773
22422760 0.0003443 -0.0146333 0.9996557 0.0146333 0.9996557 0.0146333 0.0003443 -0.0146333
22915770 0.0003358 -0.0142963 0.9996642 0.0142963 0.9996642 0.0142963 0.0003358 -0.0142963
23419619 0.0003276 -0.0139661 0.9996724 0.0139661 0.9996724 0.0139661 0.0003276 -0.0139661
23934547 0.0003199 -0.0136425 0.9996801 0.0136425 0.9996801 0.0136425 0.0003199 -0.0136425
24460796 0.0003126 -0.0133255 0.9996874 0.0133255 0.9996874 0.0133255 0.0003126 -0.0133255
24998616 0.0003056 -0.0130147 0.9996944 0.0130147 0.9996944 0.0130147 0.0003056 -0.0130147
25548261 0.0002990 -0.0127101 0.9997010 0.0127101 0.9997010 0.0127101 0.0002990 -0.0127101
26109991 0.0002927 -0.0124116 0.9997073 0.0124116 0.9997073 0.0124116 0.0002927 -0.0124116
26684072 0.0002867 -0.0121190 0.9997133 0.0121190 0.9997133 0.0121190 0.0002867 -0.0121190
27270775 0.0002811 -0.0118322 0.9997189 0.0118322 0.9997189 0.0118322 0.0002811 -0.0118322
27870378 0.0002757 -0.0115509 0.9997243 0.0115509 0.9997243 0.0115509 0.0002757 -0.0115509
28483164 0.0002706 -0.0112752 0.9997294 0.0112752 0.9997294 0.0112752 0.0002706 -0.0112752
29109424 0.0002658 -0.0110048 0.9997342 0.0110048 0.9997342 0.0110048 0.0002658 -0.0110048
29749453 0.0002613 -0.0107397 0.9997387 0.0107397 0.9997387 0.0107397 0.0002613 -0.0107397
30403555 0.0002570 -0.0104797 0.9997430 0.0104797 0.9997430 0.0104797 0.0002570 -0.0104797
31072038 0.0002530 -0.0102246 0.9997470 0.0102246 0.9997470 0.0102246 0.0002530 -0.0102246
31755220 0.0002492 -0.0099745 0.9997508 0.0099745 0.9997508 0.0099745 0.0002492 -0.0099745
32453422 0.0002456 -0.0097290 0.9997544 0.0097290 0.9997544 0.0097290 0.0002456 -0.0097290
33166976 0.0002422 -0.0094883 0.9997578 0.0094883 0.9997578 0.0094883 0.0002422 -0.0094883
33896219 0.0002390 -0.0092520 0.9997610 0.0092520 0.9997610 0.0092520 0.0002390 -0.0092520
34641496 0.0002361 -0.0090201 0.9997639 0.0090201 0.9997639 0.0090201 0.0002361 -0.0090201
35403159 0.0002333 -0.0087925 0.9997667 0.0087925 0.9997667 0.0087925 0.0002333 -0.0087925
36181569 0.0002307 -0.0085691 0.9997693 0.0085691 0.9997693 0.0085691 0.0002307 -0.0085691
36977093 0.0002283 -0.0083498 0.9997717 0.0083498 0.9997717 0.0083498 0.0002283 -0.0083498
37790109 0.0002260 -0.0081345 0.9997740 0.0081345 0.9997740 0.0081345 0.0002260 -0.0081345
38621001 0.0002239 -0.0079230 0.9997761 0.0079230 0.9997761 0.0079230 0.0002239 -0.0079230
39470161 0.0002220 -0.0077153 0.9997780 0.0077153 0.9997780 0.0077153 0.0002220 -0.0077153
40337993 0.0002202 -0.0075113 0.9997798 0.0075113 0.9997798 0.0075113 0.0002202 -0.0075113
41224905 0.0002186 -0.0073109 0.9997814 0.0073109 0.9997814 0.0073109 0.0002186 -0.0073109
42131317 0.0002172 -0.0071140 0.9997828 0.0071140 0.9997828 0.0071140 0.0002172 -0.0071140
43057659 0.0002158 -0.0069204 0.9997842 0.0069204 0.9997842 0.0069204 0.0002158 -0.0069204
44004369 0.0002147 -0.0067301 0.9997853 0.0067301 0.9997853 0.0067301 0.0002147 -0.0067301
44971893 0.0002136 -0.0065431 0.9997864 0.0065431 0.9997864 0.0065431 0.0002136 -0.0065431
45960691 0.0002127 -0.0063592 0.9997873 0.0063592 0.9997873 0.0063592 0.0002127 -0.0063592
46971230 0.0002119 -0.0061783 0.9997881 0.0061783 0.9997881 0.0061783 0.0002119 -0.0061783
48003987 0.0002113 -0.0060003 0.9997887 0.0060003 0.9997887 0.0060003 0.0002113 -0.0060003
49059451 0.0002107 -0.0058253 0.9997893 0.0058253 0.9997893 0.0058253 0.0002107 -0.0058253
50138122 0.0002103 -0.0056530 0.9997897 0.0056530 0.9997897 0.0056530 0.0002103 -0.0056530
51240510 0.0002100 -0.0054834 0.9997900 0.0054834 0.9997900 0.0054834 0.0002100 -0.0054834
52367136 0.0002098 -0.0053164 0.9997902 0.0053164 0.9997902 0.0053164 0.0002098 -0.0053164
53518533 0.0002098 -0.0051520 0.9997902 0.0051520 0.9997902 0.0051520 0.0002098 -0.0051520
54695245 0.0002098 -0.0049900 0.9997902 0.0049900 0.9997902 0.0049900 0.0002098 -0.0049900
55897831 0.0002100 -0.0048304 0.9997900 0.0048304 0.9997900 0.0048304 0.0002100 -0.0048304
57126857 0.0002103 -0.0046732 0.9997897 0.0046732 0.9997897 0.0046732 0.0002103 -0.0046732
58382906 0.0002107 -0.0045181 0.9997893 0.0045181 0.9997893 0.0045181 0.0002107 -0.0045181
59666572 0.0002112 -0.0043653 0.9997888 0.0043653 0.9997888 0.0043653 0.0002112 -0.0043653
60978462 0.0002118 -0.0042145 0.9997882 0.0042145 0.9997882 0.0042145 0.0002118 -0.0042145
62319196 0.0002125 -0.0040658 0.9997875 0.0040658 0.9997875 0.0040658 0.0002125 -0.0040658
63689409 0.0002133 -0.0039190 0.9997867 0.0039190 0.9997867 0.0039190 0.0002133 -0.0039190
65089750 0.0002143 -0.0037741 0.9997857 0.0037741 0.9997857 0.0037741 0.0002143 -0.0037741
66520879 0.0002153 -0.0036310 0.9997847 0.0036310 0.9997847 0.0036310 0.0002153 -0.0036310
67983474 0.0002165 -0.0034897 0.9997835 0.0034897 0.9997835 0.0034897 0.0002165 -0.0034897
69478228 0.0002177 -0.0033500 0.9997823 0.0033500 0.9997823 0.0033500 0.0002177 -0.0033500
71005847 0.0002191 -0.0032120 0.9997809 0.0032120 0.9997809 0.0032120 0.0002191 -0.0032120
72567054 0.0002205 -0.0030755 0.9997795 0.0030755 0.9997795 0.0030755 0.0002205 -0.0030755
74162587 0.0002221 -0.0029405 0.9997779 0.0029405 0.9997779 0.0029405 0.0002221 -0.0029405
75793201 0.0002238 -0.0028070 0.9997762 0.0028070 0.9997762 0.0028070 0.0002238 -0.0028070
77459667 0.0002256 -0.0026748 0.9997744 0.0026748 0.9997744 0.0026748 0.0002256 -0.0026748
79162774 0.0002275 -0.0025439 0.9997725 0.0025439 0.9997725 0.0025439 0.0002275 -0.0025439
80903327 0.0002295 -0.0024142 0.9997705 0.0024142 0.9997705 0.0024142 0.0002295 -0.0024142
82682150 0.0002316 -0.0022857 0.9997684 0.0022857 0.9997684 0.0022857 0.0002316 -0.0022857
84500083 0.0002338 -0.0021583 0.9997662 0.0021583 0.9997662 0.0021583 0.0002338 -0.0021583
86357988 0.0002362 -0.0020320 0.9997638 0.0020320 0.9997638 0.0020320 0.0002362 -0.0020320
88256743 0.0002386 -0.0019067 0.9997614 0.0019067 0.9997614 0.0019067 0.0002386 -0.0019067
90197245 0.0002412 -0.0017823 0.9997588 0.0017823 0.9997588 0.0017823 0.0002412 -0.0017823
92180413 0.0002439 -0.0016587 0.9997561 0.0016587 0.9997561 0.0016587 0.0002439 -0.0016587
94207185 0.0002467 -0.0015360 0.9997533 0.0015360 0.9997533 0.0015360 0.0002467 -0.0015360
96278520 0.0002496 -0.0014140 0.9997504 0.0014140 0.9997504 0.0014140 0.0002496 -0.0014140
98395398 0.0002526 -0.0012928 0.9997474 0.0012928 0.9997474 0.0012928 0.0002526 -0.0012928
100558819 0.0002558 -0.0011721 0.9997442 0.0011721 0.9997442 0.0011721 0.0002558 -0.0011721
102769807 0.0002591 -0.0010520 0.9997409 0.0010520 0.9997409 0.0010520 0.0002591 -0.0010520
105029408 0.0002625 -0.0009325 0.9997375 0.0009325 0.9997375 0.0009325 0.0002625 -0.0009325
107338692 0.0002660 -0.0008133 0.9997340 0.0008133 0.9997340 0.0008133 0.0002660 -0.0008133
