!Murata Part Number: GRM1555C1E3R3CA01
!These Parameters are Measured in Series Mode Connection
!Data Generated on Mar 30, 2021
!       o--ll--o
!Port1            Port2
!       o------o
!Operation Temp=25[degC], DC Bias Voltage=0[V]
!Freq. Start=100[MHz] Stop=9[GHz] 401[Steps]
# Hz S RI R 50
!Freq.(Hz) S11(Real) S11(Imag) S21(Real) S21(Imag) S12(Real) S12(Imag) S22(Real) S22(Imag)
100000000 0.9586462 -0.1988375 0.0413538 0.1988375 0.0413538 0.1988375 0.9586462 -0.1988375
121000000 0.9405735 -0.2360945 0.0594265 0.2360945 0.0594265 0.2360945 0.9405735 -0.2360945
142000000 0.9199186 -0.2710355 0.0800814 0.2710355 0.0800814 0.2710355 0.9199186 -0.2710355
163000000 0.8970521 -0.3034500 0.1029479 0.3034500 0.1029479 0.3034500 0.8970521 -0.3034500
184000000 0.8723552 -0.3331957 0.1276448 0.3331957 0.1276448 0.3331957 0.8723552 -0.3331957
205000000 0.8462066 -0.3601949 0.1537934 0.3601949 0.1537934 0.3601949 0.8462066 -0.3601949
226000000 0.8189708 -0.3844289 0.1810292 0.3844289 0.1810292 0.3844289 0.8189708 -0.3844289
247000000 0.7909896 -0.4059304 0.2090104 0.4059304 0.2090104 0.4059304 0.7909896 -0.4059304
268000000 0.7625754 -0.4247750 0.2374246 0.4247750 0.2374246 0.4247750 0.7625754 -0.4247750
289000000 0.7340074 -0.4410722 0.2659926 0.4410722 0.2659926 0.4410722 0.7340074 -0.4410722
310000000 0.7055292 -0.4549576 0.2944708 0.4549576 0.2944708 0.4549576 0.7055292 -0.4549576
331000000 0.6773491 -0.4665843 0.3226509 0.4665843 0.3226509 0.4665843 0.6773491 -0.4665843
352000000 0.6496407 -0.4761169 0.3503593 0.4761169 0.3503593 0.4761169 0.6496407 -0.4761169
373000000 0.6225455 -0.4837246 0.3774545 0.4837246 0.3774545 0.4837246 0.6225455 -0.4837246
394000000 0.5961751 -0.4895774 0.4038249 0.4895774 0.4038249 0.4895774 0.5961751 -0.4895774
415000000 0.5706147 -0.4938420 0.4293853 0.4938420 0.4293853 0.4938420 0.5706147 -0.4938420
436000000 0.5459264 -0.4966788 0.4540736 0.4966788 0.4540736 0.4966788 0.5459264 -0.4966788
457000000 0.5221520 -0.4982399 0.4778480 0.4982399 0.4778480 0.4982399 0.5221520 -0.4982399
478000000 0.4993163 -0.4986684 0.5006837 0.4986684 0.5006837 0.4986684 0.4993163 -0.4986684
499000000 0.4774301 -0.4980966 0.5225699 0.4980966 0.5225699 0.4980966 0.4774301 -0.4980966
520000000 0.4564926 -0.4966467 0.5435074 0.4966467 0.5435074 0.4966467 0.4564926 -0.4966467
541000000 0.4364935 -0.4944300 0.5635065 0.4944300 0.5635065 0.4944300 0.4364935 -0.4944300
562000000 0.4174151 -0.4915479 0.5825849 0.4915479 0.5825849 0.4915479 0.4174151 -0.4915479
583000000 0.3992343 -0.4880915 0.6007657 0.4880915 0.6007657 0.4880915 0.3992343 -0.4880915
604000000 0.3819235 -0.4841430 0.6180765 0.4841430 0.6180765 0.4841430 0.3819235 -0.4841430
625000000 0.3654521 -0.4797757 0.6345479 0.4797757 0.6345479 0.4797757 0.3654521 -0.4797757
646000000 0.3497876 -0.4750550 0.6502124 0.4750550 0.6502124 0.4750550 0.3497876 -0.4750550
667000000 0.3348961 -0.4700390 0.6651039 0.4700390 0.6651039 0.4700390 0.3348961 -0.4700390
688000000 0.3207432 -0.4647790 0.6792568 0.4647790 0.6792568 0.4647790 0.3207432 -0.4647790
709000000 0.3072945 -0.4593203 0.6927055 0.4593203 0.6927055 0.4593203 0.3072945 -0.4593203
730000000 0.2945157 -0.4537030 0.7054843 0.4537030 0.7054843 0.4537030 0.2945157 -0.4537030
751000000 0.2823733 -0.4479618 0.7176267 0.4479618 0.7176267 0.4479618 0.2823733 -0.4479618
772000000 0.2708349 -0.4421276 0.7291651 0.4421276 0.7291651 0.4421276 0.2708349 -0.4421276
793000000 0.2598687 -0.4362270 0.7401313 0.4362270 0.7401313 0.4362270 0.2598687 -0.4362270
814000000 0.2494446 -0.4302834 0.7505554 0.4302834 0.7505554 0.4302834 0.2494446 -0.4302834
835000000 0.2395333 -0.4243168 0.7604667 0.4243168 0.7604667 0.4243168 0.2395333 -0.4243168
856000000 0.2301072 -0.4183448 0.7698928 0.4183448 0.7698928 0.4183448 0.2301072 -0.4183448
877000000 0.2211397 -0.4123824 0.7788603 0.4123824 0.7788603 0.4123824 0.2211397 -0.4123824
898000000 0.2126058 -0.4064425 0.7873942 0.4064425 0.7873942 0.4064425 0.2126058 -0.4064425
919000000 0.2044815 -0.4005363 0.7955185 0.4005363 0.7955185 0.4005363 0.2044815 -0.4005363
940000000 0.1967444 -0.3946732 0.8032556 0.3946732 0.8032556 0.3946732 0.1967444 -0.3946732
961000000 0.1893731 -0.3888610 0.8106269 0.3888610 0.8106269 0.3888610 0.1893731 -0.3888610
982000000 0.1823475 -0.3831065 0.8176525 0.3831065 0.8176525 0.3831065 0.1823475 -0.3831065
1003000000 0.1756487 -0.3774153 0.8243513 0.3774153 0.8243513 0.3774153 0.1756487 -0.3774153
1024000000 0.1692587 -0.3717920 0.8307413 0.3717920 0.8307413 0.3717920 0.1692587 -0.3717920
1045000000 0.1631608 -0.3662404 0.8368392 0.3662404 0.8368392 0.3662404 0.1631608 -0.3662404
1066000000 0.1573390 -0.3607633 0.8426610 0.3607633 0.8426610 0.3607633 0.1573390 -0.3607633
1087000000 0.1517784 -0.3553632 0.8482216 0.3553632 0.8482216 0.3553632 0.1517784 -0.3553632
1108000000 0.1464650 -0.3500419 0.8535350 0.3500419 0.8535350 0.3500419 0.1464650 -0.3500419
1129000000 0.1413856 -0.3448007 0.8586144 0.3448007 0.8586144 0.3448007 0.1413856 -0.3448007
1150000000 0.1365278 -0.3396404 0.8634722 0.3396404 0.8634722 0.3396404 0.1365278 -0.3396404
1171000000 0.1318798 -0.3345615 0.8681202 0.3345615 0.8681202 0.3345615 0.1318798 -0.3345615
1192000000 0.1274307 -0.3295642 0.8725693 0.3295642 0.8725693 0.3295642 0.1274307 -0.3295642
1213000000 0.1231702 -0.3246485 0.8768298 0.3246485 0.8768298 0.3246485 0.1231702 -0.3246485
1234000000 0.1190885 -0.3198139 0.8809115 0.3198139 0.8809115 0.3198139 0.1190885 -0.3198139
1255000000 0.1151765 -0.3150600 0.8848235 0.3150600 0.8848235 0.3150600 0.1151765 -0.3150600
1276000000 0.1114255 -0.3103860 0.8885745 0.3103860 0.8885745 0.3103860 0.1114255 -0.3103860
1297000000 0.1078275 -0.3057912 0.8921725 0.3057912 0.8921725 0.3057912 0.1078275 -0.3057912
1318000000 0.1043748 -0.3012746 0.8956252 0.3012746 0.8956252 0.3012746 0.1043748 -0.3012746
1339000000 0.1010601 -0.2968350 0.8989399 0.2968350 0.8989399 0.2968350 0.1010601 -0.2968350
1360000000 0.0978768 -0.2924714 0.9021232 0.2924714 0.9021232 0.2924714 0.0978768 -0.2924714
1381000000 0.0948184 -0.2881825 0.9051816 0.2881825 0.9051816 0.2881825 0.0948184 -0.2881825
1402000000 0.0918788 -0.2839672 0.9081212 0.2839672 0.9081212 0.2839672 0.0918788 -0.2839672
1423000000 0.0890525 -0.2798239 0.9109475 0.2798239 0.9109475 0.2798239 0.0890525 -0.2798239
1444000000 0.0863340 -0.2757515 0.9136660 0.2757515 0.9136660 0.2757515 0.0863340 -0.2757515
1465000000 0.0837182 -0.2717486 0.9162818 0.2717486 0.9162818 0.2717486 0.0837182 -0.2717486
1486000000 0.0812005 -0.2678137 0.9187995 0.2678137 0.9187995 0.2678137 0.0812005 -0.2678137
1507000000 0.0787761 -0.2639455 0.9212239 0.2639455 0.9212239 0.2639455 0.0787761 -0.2639455
1528000000 0.0764410 -0.2601427 0.9235590 0.2601427 0.9235590 0.2601427 0.0764410 -0.2601427
1549000000 0.0741910 -0.2564037 0.9258090 0.2564037 0.9258090 0.2564037 0.0741910 -0.2564037
1570000000 0.0720223 -0.2527273 0.9279777 0.2527273 0.9279777 0.2527273 0.0720223 -0.2527273
1591000000 0.0699312 -0.2491121 0.9300688 0.2491121 0.9300688 0.2491121 0.0699312 -0.2491121
1612000000 0.0679144 -0.2455566 0.9320856 0.2455566 0.9320856 0.2455566 0.0679144 -0.2455566
1633000000 0.0659687 -0.2420596 0.9340313 0.2420596 0.9340313 0.2420596 0.0659687 -0.2420596
1654000000 0.0640908 -0.2386198 0.9359092 0.2386198 0.9359092 0.2386198 0.0640908 -0.2386198
1675000000 0.0622780 -0.2352357 0.9377220 0.2352357 0.9377220 0.2352357 0.0622780 -0.2352357
1696000000 0.0605275 -0.2319063 0.9394725 0.2319063 0.9394725 0.2319063 0.0605275 -0.2319063
1717000000 0.0588365 -0.2286301 0.9411635 0.2286301 0.9411635 0.2286301 0.0588365 -0.2286301
1738000000 0.0572027 -0.2254059 0.9427973 0.2254059 0.9427973 0.2254059 0.0572027 -0.2254059
1759000000 0.0556237 -0.2222326 0.9443763 0.2222326 0.9443763 0.2222326 0.0556237 -0.2222326
1780000000 0.0540972 -0.2191090 0.9459028 0.2191090 0.9459028 0.2191090 0.0540972 -0.2191090
1801000000 0.0526210 -0.2160338 0.9473790 0.2160338 0.9473790 0.2160338 0.0526210 -0.2160338
1822000000 0.0511933 -0.2130060 0.9488067 0.2130060 0.9488067 0.2130060 0.0511933 -0.2130060
1843000000 0.0498119 -0.2100244 0.9501881 0.2100244 0.9501881 0.2100244 0.0498119 -0.2100244
1864000000 0.0484752 -0.2070880 0.9515248 0.2070880 0.9515248 0.2070880 0.0484752 -0.2070880
1885000000 0.0471812 -0.2041956 0.9528188 0.2041956 0.9528188 0.2041956 0.0471812 -0.2041956
1906000000 0.0459285 -0.2013463 0.9540715 0.2013463 0.9540715 0.2013463 0.0459285 -0.2013463
1927000000 0.0447153 -0.1985390 0.9552847 0.1985390 0.9552847 0.1985390 0.0447153 -0.1985390
1948000000 0.0435402 -0.1957728 0.9564598 0.1957728 0.9564598 0.1957728 0.0435402 -0.1957728
1969000000 0.0424017 -0.1930467 0.9575983 0.1930467 0.9575983 0.1930467 0.0424017 -0.1930467
1990000000 0.0412985 -0.1903597 0.9587015 0.1903597 0.9587015 0.1903597 0.0412985 -0.1903597
2011000000 0.0402292 -0.1877109 0.9597708 0.1877109 0.9597708 0.1877109 0.0402292 -0.1877109
2032000000 0.0391927 -0.1850995 0.9608073 0.1850995 0.9608073 0.1850995 0.0391927 -0.1850995
2053000000 0.0381876 -0.1825246 0.9618124 0.1825246 0.9618124 0.1825246 0.0381876 -0.1825246
2074000000 0.0372129 -0.1799853 0.9627871 0.1799853 0.9627871 0.1799853 0.0372129 -0.1799853
2095000000 0.0362674 -0.1774808 0.9637326 0.1774808 0.9637326 0.1774808 0.0362674 -0.1774808
2116000000 0.0353501 -0.1750103 0.9646499 0.1750103 0.9646499 0.1750103 0.0353501 -0.1750103
2137000000 0.0344601 -0.1725730 0.9655399 0.1725730 0.9655399 0.1725730 0.0344601 -0.1725730
2158000000 0.0335964 -0.1701682 0.9664036 0.1701682 0.9664036 0.1701682 0.0335964 -0.1701682
2179000000 0.0327580 -0.1677951 0.9672420 0.1677951 0.9672420 0.1677951 0.0327580 -0.1677951
2200000000 0.0319440 -0.1654530 0.9680560 0.1654530 0.9680560 0.1654530 0.0319440 -0.1654530
2221000000 0.0311538 -0.1631411 0.9688462 0.1631411 0.9688462 0.1631411 0.0311538 -0.1631411
2242000000 0.0303864 -0.1608589 0.9696136 0.1608589 0.9696136 0.1608589 0.0303864 -0.1608589
2263000000 0.0296410 -0.1586056 0.9703590 0.1586056 0.9703590 0.1586056 0.0296410 -0.1586056
2284000000 0.0289170 -0.1563806 0.9710830 0.1563806 0.9710830 0.1563806 0.0289170 -0.1563806
2305000000 0.0282137 -0.1541833 0.9717863 0.1541833 0.9717863 0.1541833 0.0282137 -0.1541833
2326000000 0.0275303 -0.1520130 0.9724697 0.1520130 0.9724697 0.1520130 0.0275303 -0.1520130
2347000000 0.0268662 -0.1498692 0.9731338 0.1498692 0.9731338 0.1498692 0.0268662 -0.1498692
2368000000 0.0262209 -0.1477512 0.9737791 0.1477512 0.9737791 0.1477512 0.0262209 -0.1477512
2389000000 0.0255936 -0.1456585 0.9744064 0.1456585 0.9744064 0.1456585 0.0255936 -0.1456585
2410000000 0.0249839 -0.1435905 0.9750161 0.1435905 0.9750161 0.1435905 0.0249839 -0.1435905
2431000000 0.0243911 -0.1415468 0.9756089 0.1415468 0.9756089 0.1415468 0.0243911 -0.1415468
2452000000 0.0238148 -0.1395267 0.9761852 0.1395267 0.9761852 0.1395267 0.0238148 -0.1395267
2473000000 0.0232544 -0.1375297 0.9767456 0.1375297 0.9767456 0.1375297 0.0232544 -0.1375297
2494000000 0.0227094 -0.1355554 0.9772906 0.1355554 0.9772906 0.1355554 0.0227094 -0.1355554
2515000000 0.0221795 -0.1336033 0.9778205 0.1336033 0.9778205 0.1336033 0.0221795 -0.1336033
2536000000 0.0216641 -0.1316729 0.9783359 0.1316729 0.9783359 0.1316729 0.0216641 -0.1316729
2557000000 0.0211627 -0.1297638 0.9788373 0.1297638 0.9788373 0.1297638 0.0211627 -0.1297638
2578000000 0.0206751 -0.1278754 0.9793249 0.1278754 0.9793249 0.1278754 0.0206751 -0.1278754
2599000000 0.0202007 -0.1260074 0.9797993 0.1260074 0.9797993 0.1260074 0.0202007 -0.1260074
2620000000 0.0197393 -0.1241592 0.9802607 0.1241592 0.9802607 0.1241592 0.0197393 -0.1241592
2641000000 0.0192903 -0.1223306 0.9807097 0.1223306 0.9807097 0.1223306 0.0192903 -0.1223306
2662000000 0.0188535 -0.1205211 0.9811465 0.1205211 0.9811465 0.1205211 0.0188535 -0.1205211
2683000000 0.0184285 -0.1187303 0.9815715 0.1187303 0.9815715 0.1187303 0.0184285 -0.1187303
2704000000 0.0180150 -0.1169578 0.9819850 0.1169578 0.9819850 0.1169578 0.0180150 -0.1169578
2725000000 0.0176126 -0.1152033 0.9823874 0.1152033 0.9823874 0.1152033 0.0176126 -0.1152033
2746000000 0.0172211 -0.1134663 0.9827789 0.1134663 0.9827789 0.1134663 0.0172211 -0.1134663
2767000000 0.0168402 -0.1117465 0.9831598 0.1117465 0.9831598 0.1117465 0.0168402 -0.1117465
2788000000 0.0164695 -0.1100436 0.9835305 0.1100436 0.9835305 0.1100436 0.0164695 -0.1100436
2809000000 0.0161088 -0.1083573 0.9838912 0.1083573 0.9838912 0.1083573 0.0161088 -0.1083573
2830000000 0.0157578 -0.1066871 0.9842422 0.1066871 0.9842422 0.1066871 0.0157578 -0.1066871
2851000000 0.0154163 -0.1050327 0.9845837 0.1050327 0.9845837 0.1050327 0.0154163 -0.1050327
2872000000 0.0150839 -0.1033940 0.9849161 0.1033940 0.9849161 0.1033940 0.0150839 -0.1033940
2893000000 0.0147606 -0.1017704 0.9852394 0.1017704 0.9852394 0.1017704 0.0147606 -0.1017704
2914000000 0.0144460 -0.1001618 0.9855540 0.1001618 0.9855540 0.1001618 0.0144460 -0.1001618
2935000000 0.0141399 -0.0985678 0.9858601 0.0985678 0.9858601 0.0985678 0.0141399 -0.0985678
2956000000 0.0138420 -0.0969882 0.9861580 0.0969882 0.9861580 0.0969882 0.0138420 -0.0969882
2977000000 0.0135523 -0.0954226 0.9864477 0.0954226 0.9864477 0.0954226 0.0135523 -0.0954226
2998000000 0.0132705 -0.0938708 0.9867295 0.0938708 0.9867295 0.0938708 0.0132705 -0.0938708
3019000000 0.0129963 -0.0923326 0.9870037 0.0923326 0.9870037 0.0923326 0.0129963 -0.0923326
3040000000 0.0127297 -0.0908076 0.9872703 0.0908076 0.9872703 0.0908076 0.0127297 -0.0908076
3061000000 0.0124703 -0.0892956 0.9875297 0.0892956 0.9875297 0.0892956 0.0124703 -0.0892956
3082000000 0.0122181 -0.0877964 0.9877819 0.0877964 0.9877819 0.0877964 0.0122181 -0.0877964
3103000000 0.0119728 -0.0863097 0.9880272 0.0863097 0.9880272 0.0863097 0.0119728 -0.0863097
3124000000 0.0117344 -0.0848352 0.9882656 0.0848352 0.9882656 0.0848352 0.0117344 -0.0848352
3145000000 0.0115026 -0.0833728 0.9884974 0.0833728 0.9884974 0.0833728 0.0115026 -0.0833728
3166000000 0.0112773 -0.0819222 0.9887227 0.0819222 0.9887227 0.0819222 0.0112773 -0.0819222
3187000000 0.0110583 -0.0804831 0.9889417 0.0804831 0.9889417 0.0804831 0.0110583 -0.0804831
3208000000 0.0108455 -0.0790555 0.9891545 0.0790555 0.9891545 0.0790555 0.0108455 -0.0790555
3229000000 0.0106387 -0.0776389 0.9893613 0.0776389 0.9893613 0.0776389 0.0106387 -0.0776389
3250000000 0.0104379 -0.0762333 0.9895621 0.0762333 0.9895621 0.0762333 0.0104379 -0.0762333
3271000000 0.0102428 -0.0748385 0.9897572 0.0748385 0.9897572 0.0748385 0.0102428 -0.0748385
3292000000 0.0100534 -0.0734541 0.9899466 0.0734541 0.9899466 0.0734541 0.0100534 -0.0734541
3313000000 0.0098695 -0.0720801 0.9901305 0.0720801 0.9901305 0.0720801 0.0098695 -0.0720801
3334000000 0.0096911 -0.0707163 0.9903089 0.0707163 0.9903089 0.0707163 0.0096911 -0.0707163
3355000000 0.0095179 -0.0693624 0.9904821 0.0693624 0.9904821 0.0693624 0.0095179 -0.0693624
3376000000 0.0093499 -0.0680182 0.9906501 0.0680182 0.9906501 0.0680182 0.0093499 -0.0680182
3397000000 0.0091870 -0.0666837 0.9908130 0.0666837 0.9908130 0.0666837 0.0091870 -0.0666837
3418000000 0.0090290 -0.0653585 0.9909710 0.0653585 0.9909710 0.0653585 0.0090290 -0.0653585
3439000000 0.0088759 -0.0640426 0.9911241 0.0640426 0.9911241 0.0640426 0.0088759 -0.0640426
3460000000 0.0087276 -0.0627358 0.9912724 0.0627358 0.9912724 0.0627358 0.0087276 -0.0627358
3481000000 0.0085840 -0.0614378 0.9914160 0.0614378 0.9914160 0.0614378 0.0085840 -0.0614378
3502000000 0.0084449 -0.0601486 0.9915551 0.0601486 0.9915551 0.0601486 0.0084449 -0.0601486
3523000000 0.0083103 -0.0588680 0.9916897 0.0588680 0.9916897 0.0588680 0.0083103 -0.0588680
3544000000 0.0081801 -0.0575958 0.9918199 0.0575958 0.9918199 0.0575958 0.0081801 -0.0575958
3565000000 0.0080542 -0.0563319 0.9919458 0.0563319 0.9919458 0.0563319 0.0080542 -0.0563319
3586000000 0.0079326 -0.0550761 0.9920674 0.0550761 0.9920674 0.0550761 0.0079326 -0.0550761
3607000000 0.0078151 -0.0538282 0.9921849 0.0538282 0.9921849 0.0538282 0.0078151 -0.0538282
3628000000 0.0077016 -0.0525882 0.9922984 0.0525882 0.9922984 0.0525882 0.0077016 -0.0525882
3649000000 0.0075922 -0.0513559 0.9924078 0.0513559 0.9924078 0.0513559 0.0075922 -0.0513559
3670000000 0.0074867 -0.0501311 0.9925133 0.0501311 0.9925133 0.0501311 0.0074867 -0.0501311
3691000000 0.0073850 -0.0489137 0.9926150 0.0489137 0.9926150 0.0489137 0.0073850 -0.0489137
3712000000 0.0072872 -0.0477036 0.9927128 0.0477036 0.9927128 0.0477036 0.0072872 -0.0477036
3733000000 0.0071930 -0.0465006 0.9928070 0.0465006 0.9928070 0.0465006 0.0071930 -0.0465006
3754000000 0.0071025 -0.0453047 0.9928975 0.0453047 0.9928975 0.0453047 0.0071025 -0.0453047
3775000000 0.0070156 -0.0441156 0.9929844 0.0441156 0.9929844 0.0441156 0.0070156 -0.0441156
3796000000 0.0069323 -0.0429333 0.9930677 0.0429333 0.9930677 0.0429333 0.0069323 -0.0429333
3817000000 0.0068524 -0.0417577 0.9931476 0.0417577 0.9931476 0.0417577 0.0068524 -0.0417577
3838000000 0.0067759 -0.0405885 0.9932241 0.0405885 0.9932241 0.0405885 0.0067759 -0.0405885
3859000000 0.0067028 -0.0394258 0.9932972 0.0394258 0.9932972 0.0394258 0.0067028 -0.0394258
3880000000 0.0066330 -0.0382694 0.9933670 0.0382694 0.9933670 0.0382694 0.0066330 -0.0382694
3901000000 0.0065664 -0.0371191 0.9934336 0.0371191 0.9934336 0.0371191 0.0065664 -0.0371191
3922000000 0.0065031 -0.0359749 0.9934969 0.0359749 0.9934969 0.0359749 0.0065031 -0.0359749
3943000000 0.0064429 -0.0348366 0.9935571 0.0348366 0.9935571 0.0348366 0.0064429 -0.0348366
3964000000 0.0063858 -0.0337042 0.9936142 0.0337042 0.9936142 0.0337042 0.0063858 -0.0337042
3985000000 0.0063318 -0.0325776 0.9936682 0.0325776 0.9936682 0.0325776 0.0063318 -0.0325776
4006000000 0.0062808 -0.0314565 0.9937192 0.0314565 0.9937192 0.0314565 0.0062808 -0.0314565
4027000000 0.0062327 -0.0303410 0.9937673 0.0303410 0.9937673 0.0303410 0.0062327 -0.0303410
4048000000 0.0061876 -0.0292310 0.9938124 0.0292310 0.9938124 0.0292310 0.0061876 -0.0292310
4069000000 0.0061454 -0.0281262 0.9938546 0.0281262 0.9938546 0.0281262 0.0061454 -0.0281262
4090000000 0.0061060 -0.0270267 0.9938940 0.0270267 0.9938940 0.0270267 0.0061060 -0.0270267
4111000000 0.0060695 -0.0259324 0.9939305 0.0259324 0.9939305 0.0259324 0.0060695 -0.0259324
4132000000 0.0060357 -0.0248431 0.9939643 0.0248431 0.9939643 0.0248431 0.0060357 -0.0248431
4153000000 0.0060047 -0.0237587 0.9939953 0.0237587 0.9939953 0.0237587 0.0060047 -0.0237587
4174000000 0.0059764 -0.0226792 0.9940236 0.0226792 0.9940236 0.0226792 0.0059764 -0.0226792
4195000000 0.0059508 -0.0216045 0.9940492 0.0216045 0.9940492 0.0216045 0.0059508 -0.0216045
4216000000 0.0059277 -0.0205345 0.9940723 0.0205345 0.9940723 0.0205345 0.0059277 -0.0205345
4237000000 0.0059074 -0.0194690 0.9940926 0.0194690 0.9940926 0.0194690 0.0059074 -0.0194690
4258000000 0.0058895 -0.0184081 0.9941105 0.0184081 0.9941105 0.0184081 0.0058895 -0.0184081
4279000000 0.0058743 -0.0173516 0.9941257 0.0173516 0.9941257 0.0173516 0.0058743 -0.0173516
4300000000 0.0058615 -0.0162994 0.9941385 0.0162994 0.9941385 0.0162994 0.0058615 -0.0162994
4321000000 0.0058513 -0.0152515 0.9941487 0.0152515 0.9941487 0.0152515 0.0058513 -0.0152515
4342000000 0.0058435 -0.0142078 0.9941565 0.0142078 0.9941565 0.0142078 0.0058435 -0.0142078
4363000000 0.0058382 -0.0131682 0.9941618 0.0131682 0.9941618 0.0131682 0.0058382 -0.0131682
4384000000 0.0058353 -0.0121326 0.9941647 0.0121326 0.9941647 0.0121326 0.0058353 -0.0121326
4405000000 0.0058347 -0.0111009 0.9941653 0.0111009 0.9941653 0.0111009 0.0058347 -0.0111009
4426000000 0.0058366 -0.0100731 0.9941634 0.0100731 0.9941634 0.0100731 0.0058366 -0.0100731
4447000000 0.0058408 -0.0090492 0.9941592 0.0090492 0.9941592 0.0090492 0.0058408 -0.0090492
4468000000 0.0058473 -0.0080289 0.9941527 0.0080289 0.9941527 0.0080289 0.0058473 -0.0080289
4489000000 0.0058562 -0.0070122 0.9941438 0.0070122 0.9941438 0.0070122 0.0058562 -0.0070122
4510000000 0.0058673 -0.0059992 0.9941327 0.0059992 0.9941327 0.0059992 0.0058673 -0.0059992
