!Murata Part Number: GRM1555C1H332JE01
!These Parameters are Measured in Series Mode Connection
!Data Generated on Mar 30, 2021
!       o--ll--o
!Port1            Port2
!       o------o
!Operation Temp=25[degC], DC Bias Voltage=0[V]
!Freq. Start=1000[kHz] Stop=6[GHz] 401[Steps]
# Hz S RI R 50
!Freq.(Hz) S11(Real) S11(Imag) S21(Real) S21(Imag) S12(Real) S12(Imag) S22(Real) S22(Imag)
1000000 0.1930736 -0.3946783 0.8069264 0.3946783 0.8069264 0.3946783 0.1930736 -0.3946783
1021987 0.1863872 -0.3893858 0.8136128 0.3893858 0.8136128 0.3893858 0.1863872 -0.3893858
1044457 0.1798807 -0.3840541 0.8201193 0.3840541 0.8201193 0.3840541 0.1798807 -0.3840541
1067422 0.1735529 -0.3786896 0.8264471 0.3786896 0.8264471 0.3786896 0.1735529 -0.3786896
1090891 0.1674022 -0.3732987 0.8325978 0.3732987 0.8325978 0.3732987 0.1674022 -0.3732987
1114877 0.1614270 -0.3678874 0.8385730 0.3678874 0.8385730 0.3678874 0.1614270 -0.3678874
1139390 0.1556252 -0.3624616 0.8443748 0.3624616 0.8443748 0.3624616 0.1556252 -0.3624616
1164441 0.1499947 -0.3570270 0.8500053 0.3570270 0.8500053 0.3570270 0.1499947 -0.3570270
1190044 0.1445330 -0.3515890 0.8554670 0.3515890 0.8554670 0.3515890 0.1445330 -0.3515890
1216210 0.1392377 -0.3461528 0.8607623 0.3461528 0.8607623 0.3461528 0.1392377 -0.3461528
1242950 0.1341059 -0.3407232 0.8658941 0.3407232 0.8658941 0.3407232 0.1341059 -0.3407232
1270279 0.1291350 -0.3353051 0.8708650 0.3353051 0.8708650 0.3353051 0.1291350 -0.3353051
1298209 0.1243219 -0.3299029 0.8756781 0.3299029 0.8756781 0.3299029 0.1243219 -0.3299029
1326753 0.1196635 -0.3245207 0.8803365 0.3245207 0.8803365 0.3245207 0.1196635 -0.3245207
1355924 0.1151568 -0.3191627 0.8848432 0.3191627 0.8848432 0.3191627 0.1151568 -0.3191627
1385737 0.1107985 -0.3138326 0.8892015 0.3138326 0.8892015 0.3138326 0.1107985 -0.3138326
1416205 0.1065853 -0.3085338 0.8934147 0.3085338 0.8934147 0.3085338 0.1065853 -0.3085338
1447343 0.1025139 -0.3032698 0.8974861 0.3032698 0.8974861 0.3032698 0.1025139 -0.3032698
1479166 0.0985809 -0.2980436 0.9014191 0.2980436 0.9014191 0.2980436 0.0985809 -0.2980436
1511688 0.0947828 -0.2928582 0.9052172 0.2928582 0.9052172 0.2928582 0.0947828 -0.2928582
1544926 0.0911164 -0.2877162 0.9088836 0.2877162 0.9088836 0.2877162 0.0911164 -0.2877162
1578894 0.0875781 -0.2826201 0.9124219 0.2826201 0.9124219 0.2826201 0.0875781 -0.2826201
1613609 0.0841645 -0.2775722 0.9158355 0.2775722 0.9158355 0.2775722 0.0841645 -0.2775722
1649087 0.0808722 -0.2725747 0.9191278 0.2725747 0.9191278 0.2725747 0.0808722 -0.2725747
1685346 0.0776979 -0.2676293 0.9223021 0.2676293 0.9223021 0.2676293 0.0776979 -0.2676293
1722402 0.0746381 -0.2627380 0.9253619 0.2627380 0.9253619 0.2627380 0.0746381 -0.2627380
1760272 0.0716894 -0.2579023 0.9283106 0.2579023 0.9283106 0.2579023 0.0716894 -0.2579023
1798975 0.0688487 -0.2531236 0.9311513 0.2531236 0.9311513 0.2531236 0.0688487 -0.2531236
1838529 0.0661125 -0.2484033 0.9338875 0.2484033 0.9338875 0.2484033 0.0661125 -0.2484033
1878953 0.0634777 -0.2437424 0.9365223 0.2437424 0.9365223 0.2437424 0.0634777 -0.2437424
1920266 0.0609412 -0.2391419 0.9390588 0.2391419 0.9390588 0.2391419 0.0609412 -0.2391419
1962487 0.0584997 -0.2346028 0.9415003 0.2346028 0.9415003 0.2346028 0.0584997 -0.2346028
2005636 0.0561503 -0.2301258 0.9438497 0.2301258 0.9438497 0.2301258 0.0561503 -0.2301258
2049734 0.0538898 -0.2257115 0.9461102 0.2257115 0.9461102 0.2257115 0.0538898 -0.2257115
2094801 0.0517155 -0.2213603 0.9482845 0.2213603 0.9482845 0.2213603 0.0517155 -0.2213603
2140860 0.0496243 -0.2170729 0.9503757 0.2170729 0.9503757 0.2170729 0.0496243 -0.2170729
2187931 0.0476136 -0.2128494 0.9523864 0.2128494 0.9523864 0.2128494 0.0476136 -0.2128494
2236037 0.0456805 -0.2086900 0.9543195 0.2086900 0.9543195 0.2086900 0.0456805 -0.2086900
2285201 0.0438223 -0.2045950 0.9561777 0.2045950 0.9561777 0.2045950 0.0438223 -0.2045950
2335446 0.0420364 -0.2005642 0.9579636 0.2005642 0.9579636 0.2005642 0.0420364 -0.2005642
2386795 0.0403204 -0.1965979 0.9596796 0.1965979 0.9596796 0.1965979 0.0403204 -0.1965979
2439274 0.0386716 -0.1926957 0.9613284 0.1926957 0.9613284 0.1926957 0.0386716 -0.1926957
2492906 0.0370877 -0.1888576 0.9629123 0.1888576 0.9629123 0.1888576 0.0370877 -0.1888576
2547717 0.0355664 -0.1850833 0.9644336 0.1850833 0.9644336 0.1850833 0.0355664 -0.1850833
2603734 0.0341054 -0.1813726 0.9658946 0.1813726 0.9658946 0.1813726 0.0341054 -0.1813726
2660982 0.0327024 -0.1777251 0.9672976 0.1777251 0.9672976 0.1777251 0.0327024 -0.1777251
2719490 0.0313554 -0.1741404 0.9686446 0.1741404 0.9686446 0.1741404 0.0313554 -0.1741404
2779283 0.0300622 -0.1706181 0.9699378 0.1706181 0.9699378 0.1706181 0.0300622 -0.1706181
2840391 0.0288208 -0.1671576 0.9711792 0.1671576 0.9711792 0.1671576 0.0288208 -0.1671576
2902843 0.0276293 -0.1637586 0.9723707 0.1637586 0.9723707 0.1637586 0.0276293 -0.1637586
2966668 0.0264859 -0.1604204 0.9735141 0.1604204 0.9735141 0.1604204 0.0264859 -0.1604204
3031896 0.0253886 -0.1571425 0.9746114 0.1571425 0.9746114 0.1571425 0.0253886 -0.1571425
3098558 0.0243357 -0.1539242 0.9756643 0.1539242 0.9756643 0.1539242 0.0243357 -0.1539242
3166686 0.0233256 -0.1507649 0.9766744 0.1507649 0.9766744 0.1507649 0.0233256 -0.1507649
3236312 0.0223565 -0.1476640 0.9776435 0.1476640 0.9776435 0.1476640 0.0223565 -0.1476640
3307469 0.0214269 -0.1446207 0.9785731 0.1446207 0.9785731 0.1446207 0.0214269 -0.1446207
3380190 0.0205352 -0.1416344 0.9794648 0.1416344 0.9794648 0.1416344 0.0205352 -0.1416344
3454511 0.0196800 -0.1387043 0.9803200 0.1387043 0.9803200 0.1387043 0.0196800 -0.1387043
3530465 0.0188598 -0.1358298 0.9811402 0.1358298 0.9811402 0.1358298 0.0188598 -0.1358298
3608090 0.0180732 -0.1330100 0.9819268 0.1330100 0.9819268 0.1330100 0.0180732 -0.1330100
3687421 0.0173190 -0.1302442 0.9826810 0.1302442 0.9826810 0.1302442 0.0173190 -0.1302442
3768496 0.0165959 -0.1275317 0.9834041 0.1275317 0.9834041 0.1275317 0.0165959 -0.1275317
3851354 0.0159025 -0.1248716 0.9840975 0.1248716 0.9840975 0.1248716 0.0159025 -0.1248716
3936034 0.0152378 -0.1222633 0.9847622 0.1222633 0.9847622 0.1222633 0.0152378 -0.1222633
4022575 0.0146006 -0.1197059 0.9853994 0.1197059 0.9853994 0.1197059 0.0146006 -0.1197059
4111020 0.0139897 -0.1171986 0.9860103 0.1171986 0.9860103 0.1171986 0.0139897 -0.1171986
4201409 0.0134041 -0.1147407 0.9865959 0.1147407 0.9865959 0.1147407 0.0134041 -0.1147407
4293785 0.0128429 -0.1123313 0.9871571 0.1123313 0.9871571 0.1123313 0.0128429 -0.1123313
4388193 0.0123050 -0.1099697 0.9876950 0.1099697 0.9876950 0.1099697 0.0123050 -0.1099697
4484676 0.0117894 -0.1076551 0.9882106 0.1076551 0.9882106 0.1076551 0.0117894 -0.1076551
4583281 0.0112953 -0.1053868 0.9887047 0.1053868 0.9887047 0.1053868 0.0112953 -0.1053868
4684054 0.0108218 -0.1031638 0.9891782 0.1031638 0.9891782 0.1031638 0.0108218 -0.1031638
4787042 0.0103681 -0.1009855 0.9896319 0.1009855 0.9896319 0.1009855 0.0103681 -0.1009855
4892295 0.0099333 -0.0988511 0.9900667 0.0988511 0.9900667 0.0988511 0.0099333 -0.0988511
4999862 0.0095167 -0.0967597 0.9904833 0.0967597 0.9904833 0.0967597 0.0095167 -0.0967597
5109794 0.0091175 -0.0947108 0.9908825 0.0947108 0.9908825 0.0947108 0.0091175 -0.0947108
5222143 0.0087350 -0.0927034 0.9912650 0.0927034 0.9912650 0.0927034 0.0087350 -0.0927034
5336962 0.0083686 -0.0907369 0.9916314 0.0907369 0.9916314 0.0907369 0.0083686 -0.0907369
5454306 0.0080175 -0.0888104 0.9919825 0.0888104 0.9919825 0.0888104 0.0080175 -0.0888104
5574230 0.0076812 -0.0869234 0.9923188 0.0869234 0.9923188 0.0869234 0.0076812 -0.0869234
5696791 0.0073590 -0.0850749 0.9926410 0.0850749 0.9926410 0.0850749 0.0073590 -0.0850749
5822046 0.0070504 -0.0832644 0.9929496 0.0832644 0.9929496 0.0832644 0.0070504 -0.0832644
5950055 0.0067547 -0.0814911 0.9932453 0.0814911 0.9932453 0.0814911 0.0067547 -0.0814911
6080879 0.0064715 -0.0797544 0.9935285 0.0797544 0.9935285 0.0797544 0.0064715 -0.0797544
6214580 0.0062002 -0.0780534 0.9937998 0.0780534 0.9937998 0.0780534 0.0062002 -0.0780534
6351220 0.0059404 -0.0763875 0.9940596 0.0763875 0.9940596 0.0763875 0.0059404 -0.0763875
6490864 0.0056915 -0.0747562 0.9943085 0.0747562 0.9943085 0.0747562 0.0056915 -0.0747562
6633579 0.0054531 -0.0731586 0.9945469 0.0731586 0.9945469 0.0731586 0.0054531 -0.0731586
6779431 0.0052248 -0.0715941 0.9947752 0.0715941 0.9947752 0.0715941 0.0052248 -0.0715941
6928491 0.0050062 -0.0700621 0.9949938 0.0700621 0.9949938 0.0700621 0.0050062 -0.0700621
7080828 0.0047968 -0.0685620 0.9952032 0.0685620 0.9952032 0.0685620 0.0047968 -0.0685620
7236514 0.0045962 -0.0670931 0.9954038 0.0670931 0.9954038 0.0670931 0.0045962 -0.0670931
7395623 0.0044042 -0.0656548 0.9955958 0.0656548 0.9955958 0.0656548 0.0044042 -0.0656548
7558231 0.0042202 -0.0642465 0.9957798 0.0642465 0.9957798 0.0642465 0.0042202 -0.0642465
7724414 0.0040441 -0.0628676 0.9959559 0.0628676 0.9959559 0.0628676 0.0040441 -0.0628676
7894251 0.0038755 -0.0615175 0.9961245 0.0615175 0.9961245 0.0615175 0.0038755 -0.0615175
8067822 0.0037140 -0.0601956 0.9962860 0.0601956 0.9962860 0.0601956 0.0037140 -0.0601956
8245209 0.0035593 -0.0589014 0.9964407 0.0589014 0.9964407 0.0589014 0.0035593 -0.0589014
8426497 0.0034113 -0.0576343 0.9965887 0.0576343 0.9965887 0.0576343 0.0034113 -0.0576343
8611770 0.0032695 -0.0563938 0.9967305 0.0563938 0.9967305 0.0563938 0.0032695 -0.0563938
8801117 0.0031338 -0.0551792 0.9968662 0.0551792 0.9968662 0.0551792 0.0031338 -0.0551792
8994628 0.0030038 -0.0539902 0.9969962 0.0539902 0.9969962 0.0539902 0.0030038 -0.0539902
9192393 0.0028794 -0.0528261 0.9971206 0.0528261 0.9971206 0.0528261 0.0028794 -0.0528261
9394506 0.0027603 -0.0516864 0.9972397 0.0516864 0.9972397 0.0516864 0.0027603 -0.0516864
9601063 0.0026462 -0.0505707 0.9973538 0.0505707 0.9973538 0.0505707 0.0026462 -0.0505707
9812162 0.0025371 -0.0494784 0.9974629 0.0494784 0.9974629 0.0494784 0.0025371 -0.0494784
10027902 0.0024326 -0.0484091 0.9975674 0.0484091 0.9975674 0.0484091 0.0024326 -0.0484091
10248386 0.0023325 -0.0473622 0.9976675 0.0473622 0.9976675 0.0473622 0.0023325 -0.0473622
10473717 0.0022368 -0.0463374 0.9977632 0.0463374 0.9977632 0.0463374 0.0022368 -0.0463374
10704003 0.0021451 -0.0453342 0.9978549 0.0453342 0.9978549 0.0453342 0.0021451 -0.0453342
10939352 0.0020574 -0.0443520 0.9979426 0.0443520 0.9979426 0.0443520 0.0020574 -0.0443520
11179876 0.0019734 -0.0433905 0.9980266 0.0433905 0.9980266 0.0433905 0.0019734 -0.0433905
11425688 0.0018930 -0.0424493 0.9981070 0.0424493 0.9981070 0.0424493 0.0018930 -0.0424493
11676904 0.0018161 -0.0415278 0.9981839 0.0415278 0.9981839 0.0415278 0.0018161 -0.0415278
11933645 0.0017425 -0.0406258 0.9982575 0.0406258 0.9982575 0.0406258 0.0017425 -0.0406258
12196030 0.0016721 -0.0397427 0.9983279 0.0397427 0.9983279 0.0397427 0.0016721 -0.0397427
12464184 0.0016047 -0.0388782 0.9983953 0.0388782 0.9983953 0.0388782 0.0016047 -0.0388782
12738235 0.0015402 -0.0380319 0.9984598 0.0380319 0.9984598 0.0380319 0.0015402 -0.0380319
13018310 0.0014785 -0.0372034 0.9985215 0.0372034 0.9985215 0.0372034 0.0014785 -0.0372034
13304544 0.0014194 -0.0363923 0.9985806 0.0363923 0.9985806 0.0363923 0.0014194 -0.0363923
13597071 0.0013630 -0.0355983 0.9986370 0.0355983 0.9986370 0.0355983 0.0013630 -0.0355983
13896030 0.0013089 -0.0348209 0.9986911 0.0348209 0.9986911 0.0348209 0.0013089 -0.0348209
14201563 0.0012572 -0.0340599 0.9987428 0.0340599 0.9987428 0.0340599 0.0012572 -0.0340599
14513813 0.0012078 -0.0333149 0.9987922 0.0333149 0.9987922 0.0333149 0.0012078 -0.0333149
14832928 0.0011605 -0.0325855 0.9988395 0.0325855 0.9988395 0.0325855 0.0011605 -0.0325855
15159060 0.0011153 -0.0318714 0.9988847 0.0318714 0.9988847 0.0318714 0.0011153 -0.0318714
15492362 0.0010721 -0.0311723 0.9989279 0.0311723 0.9989279 0.0311723 0.0010721 -0.0311723
15832993 0.0010307 -0.0304879 0.9989693 0.0304879 0.9989693 0.0304879 0.0010307 -0.0304879
16181113 0.0009912 -0.0298178 0.9990088 0.0298178 0.9990088 0.0298178 0.0009912 -0.0298178
16536888 0.0009534 -0.0291617 0.9990466 0.0291617 0.9990466 0.0291617 0.0009534 -0.0291617
16900485 0.0009173 -0.0285194 0.9990827 0.0285194 0.9990827 0.0285194 0.0009173 -0.0285194
17272076 0.0008828 -0.0278905 0.9991172 0.0278905 0.9991172 0.0278905 0.0008828 -0.0278905
17651837 0.0008498 -0.0272747 0.9991502 0.0272747 0.9991502 0.0272747 0.0008498 -0.0272747
18039948 0.0008183 -0.0266718 0.9991817 0.0266718 0.9991817 0.0266718 0.0008183 -0.0266718
18436593 0.0007882 -0.0260814 0.9992118 0.0260814 0.9992118 0.0260814 0.0007882 -0.0260814
18841959 0.0007594 -0.0255034 0.9992406 0.0255034 0.9992406 0.0255034 0.0007594 -0.0255034
19256237 0.0007319 -0.0249374 0.9992681 0.0249374 0.9992681 0.0249374 0.0007319 -0.0249374
19679624 0.0007057 -0.0243832 0.9992943 0.0243832 0.9992943 0.0243832 0.0007057 -0.0243832
20112321 0.0006807 -0.0238404 0.9993193 0.0238404 0.9993193 0.0238404 0.0006807 -0.0238404
20554530 0.0006568 -0.0233090 0.9993432 0.0233090 0.9993432 0.0233090 0.0006568 -0.0233090
21006463 0.0006339 -0.0227885 0.9993661 0.0227885 0.9993661 0.0227885 0.0006339 -0.0227885
21468333 0.0006122 -0.0222789 0.9993878 0.0222789 0.9993878 0.0222789 0.0006122 -0.0222789
21940357 0.0005914 -0.0217798 0.9994086 0.0217798 0.9994086 0.0217798 0.0005914 -0.0217798
22422760 0.0005716 -0.0212909 0.9994284 0.0212909 0.9994284 0.0212909 0.0005716 -0.0212909
22915770 0.0005527 -0.0208122 0.9994473 0.0208122 0.9994473 0.0208122 0.0005527 -0.0208122
23419619 0.0005347 -0.0203433 0.9994653 0.0203433 0.9994653 0.0203433 0.0005347 -0.0203433
23934547 0.0005175 -0.0198840 0.9994825 0.0198840 0.9994825 0.0198840 0.0005175 -0.0198840
24460796 0.0005012 -0.0194342 0.9994988 0.0194342 0.9994988 0.0194342 0.0005012 -0.0194342
24998616 0.0004856 -0.0189936 0.9995144 0.0189936 0.9995144 0.0189936 0.0004856 -0.0189936
25548261 0.0004708 -0.0185620 0.9995292 0.0185620 0.9995292 0.0185620 0.0004708 -0.0185620
26109991 0.0004567 -0.0181391 0.9995433 0.0181391 0.9995433 0.0181391 0.0004567 -0.0181391
26684072 0.0004432 -0.0177249 0.9995568 0.0177249 0.9995568 0.0177249 0.0004432 -0.0177249
27270775 0.0004305 -0.0173192 0.9995695 0.0173192 0.9995695 0.0173192 0.0004305 -0.0173192
27870378 0.0004183 -0.0169216 0.9995817 0.0169216 0.9995817 0.0169216 0.0004183 -0.0169216
28483164 0.0004068 -0.0165321 0.9995932 0.0165321 0.9995932 0.0165321 0.0004068 -0.0165321
29109424 0.0003958 -0.0161504 0.9996042 0.0161504 0.9996042 0.0161504 0.0003958 -0.0161504
29749453 0.0003854 -0.0157764 0.9996146 0.0157764 0.9996146 0.0157764 0.0003854 -0.0157764
30403555 0.0003755 -0.0154099 0.9996245 0.0154099 0.9996245 0.0154099 0.0003755 -0.0154099
31072038 0.0003661 -0.0150508 0.9996339 0.0150508 0.9996339 0.0150508 0.0003661 -0.0150508
31755220 0.0003572 -0.0146988 0.9996428 0.0146988 0.9996428 0.0146988 0.0003572 -0.0146988
32453422 0.0003488 -0.0143538 0.9996512 0.0143538 0.9996512 0.0143538 0.0003488 -0.0143538
33166976 0.0003408 -0.0140156 0.9996592 0.0140156 0.9996592 0.0140156 0.0003408 -0.0140156
33896219 0.0003332 -0.0136841 0.9996668 0.0136841 0.9996668 0.0136841 0.0003332 -0.0136841
34641496 0.0003261 -0.0133592 0.9996739 0.0133592 0.9996739 0.0133592 0.0003261 -0.0133592
35403159 0.0003193 -0.0130406 0.9996807 0.0130406 0.9996807 0.0130406 0.0003193 -0.0130406
36181569 0.0003129 -0.0127282 0.9996871 0.0127282 0.9996871 0.0127282 0.0003129 -0.0127282
36977093 0.0003069 -0.0124219 0.9996931 0.0124219 0.9996931 0.0124219 0.0003069 -0.0124219
37790109 0.0003012 -0.0121216 0.9996988 0.0121216 0.9996988 0.0121216 0.0003012 -0.0121216
38621001 0.0002958 -0.0118270 0.9997042 0.0118270 0.9997042 0.0118270 0.0002958 -0.0118270
39470161 0.0002908 -0.0115381 0.9997092 0.0115381 0.9997092 0.0115381 0.0002908 -0.0115381
40337993 0.0002860 -0.0112546 0.9997140 0.0112546 0.9997140 0.0112546 0.0002860 -0.0112546
41224905 0.0002816 -0.0109766 0.9997184 0.0109766 0.9997184 0.0109766 0.0002816 -0.0109766
42131317 0.0002774 -0.0107038 0.9997226 0.0107038 0.9997226 0.0107038 0.0002774 -0.0107038
43057659 0.0002735 -0.0104361 0.9997265 0.0104361 0.9997265 0.0104361 0.0002735 -0.0104361
44004369 0.0002698 -0.0101734 0.9997302 0.0101734 0.9997302 0.0101734 0.0002698 -0.0101734
44971893 0.0002663 -0.0099156 0.9997337 0.0099156 0.9997337 0.0099156 0.0002663 -0.0099156
45960691 0.0002631 -0.0096625 0.9997369 0.0096625 0.9997369 0.0096625 0.0002631 -0.0096625
46971230 0.0002601 -0.0094140 0.9997399 0.0094140 0.9997399 0.0094140 0.0002601 -0.0094140
48003987 0.0002574 -0.0091701 0.9997426 0.0091701 0.9997426 0.0091701 0.0002574 -0.0091701
49059451 0.0002548 -0.0089305 0.9997452 0.0089305 0.9997452 0.0089305 0.0002548 -0.0089305
50138122 0.0002524 -0.0086952 0.9997476 0.0086952 0.9997476 0.0086952 0.0002524 -0.0086952
51240510 0.0002502 -0.0084641 0.9997498 0.0084641 0.9997498 0.0084641 0.0002502 -0.0084641
52367136 0.0002482 -0.0082370 0.9997518 0.0082370 0.9997518 0.0082370 0.0002482 -0.0082370
53518533 0.0002464 -0.0080138 0.9997536 0.0080138 0.9997536 0.0080138 0.0002464 -0.0080138
54695245 0.0002447 -0.0077945 0.9997553 0.0077945 0.9997553 0.0077945 0.0002447 -0.0077945
55897831 0.0002432 -0.0075789 0.9997568 0.0075789 0.9997568 0.0075789 0.0002432 -0.0075789
57126857 0.0002418 -0.0073670 0.9997582 0.0073670 0.9997582 0.0073670 0.0002418 -0.0073670
58382906 0.0002406 -0.0071586 0.9997594 0.0071586 0.9997594 0.0071586 0.0002406 -0.0071586
59666572 0.0002395 -0.0069536 0.9997605 0.0069536 0.9997605 0.0069536 0.0002395 -0.0069536
60978462 0.0002386 -0.0067519 0.9997614 0.0067519 0.9997614 0.0067519 0.0002386 -0.0067519
62319196 0.0002377 -0.0065535 0.9997623 0.0065535 0.9997623 0.0065535 0.0002377 -0.0065535
63689409 0.0002371 -0.0063582 0.9997629 0.0063582 0.9997629 0.0063582 0.0002371 -0.0063582
65089750 0.0002365 -0.0061659 0.9997635 0.0061659 0.9997635 0.0061659 0.0002365 -0.0061659
66520879 0.0002361 -0.0059766 0.9997639 0.0059766 0.9997639 0.0059766 0.0002361 -0.0059766
67983474 0.0002358 -0.0057901 0.9997642 0.0057901 0.9997642 0.0057901 0.0002358 -0.0057901
69478228 0.0002356 -0.0056064 0.9997644 0.0056064 0.9997644 0.0056064 0.0002356 -0.0056064
71005847 0.0002355 -0.0054254 0.9997645 0.0054254 0.9997645 0.0054254 0.0002355 -0.0054254
72567054 0.0002355 -0.0052470 0.9997645 0.0052470 0.9997645 0.0052470 0.0002355 -0.0052470
74162587 0.0002357 -0.0050711 0.9997643 0.0050711 0.9997643 0.0050711 0.0002357 -0.0050711
75793201 0.0002359 -0.0048976 0.9997641 0.0048976 0.9997641 0.0048976 0.0002359 -0.0048976
77459667 0.0002363 -0.0047265 0.9997637 0.0047265 0.9997637 0.0047265 0.0002363 -0.0047265
79162774 0.0002367 -0.0045576 0.9997633 0.0045576 0.9997633 0.0045576 0.0002367 -0.0045576
80903327 0.0002373 -0.0043909 0.9997627 0.0043909 0.9997627 0.0043909 0.0002373 -0.0043909
82682150 0.0002380 -0.0042262 0.9997620 0.0042262 0.9997620 0.0042262 0.0002380 -0.0042262
84500083 0.0002388 -0.0040636 0.9997612 0.0040636 0.9997612 0.0040636 0.0002388 -0.0040636
86357988 0.0002397 -0.0039029 0.9997603 0.0039029 0.9997603 0.0039029 0.0002397 -0.0039029
88256743 0.0002407 -0.0037441 0.9997593 0.0037441 0.9997593 0.0037441 0.0002407 -0.0037441
90197245 0.0002418 -0.0035870 0.9997582 0.0035870 0.9997582 0.0035870 0.0002418 -0.0035870
92180413 0.0002430 -0.0034317 0.9997570 0.0034317 0.9997570 0.0034317 0.0002430 -0.0034317
94207185 0.0002443 -0.0032779 0.9997557 0.0032779 0.9997557 0.0032779 0.0002443 -0.0032779
96278520 0.0002457 -0.0031258 0.9997543 0.0031258 0.9997543 0.0031258 0.0002457 -0.0031258
98395398 0.0002473 -0.0029751 0.9997527 0.0029751 0.9997527 0.0029751 0.0002473 -0.0029751
100558819 0.0002490 -0.0028258 0.9997510 0.0028258 0.9997510 0.0028258 0.0002490 -0.0028258
102769807 0.0002507 -0.0026778 0.9997493 0.0026778 0.9997493 0.0026778 0.0002507 -0.0026778
105029408 0.0002527 -0.0025310 0.9997473 0.0025310 0.9997473 0.0025310 0.0002527 -0.0025310
107338692 0.0002547 -0.0023855 0.9997453 0.0023855 0.9997453 0.0023855 0.0002547 -0.0023855
