!Murata Part Number: GRM1555C1E1R8CA01
!These Parameters are Measured in Series Mode Connection
!Data Generated on Mar 30, 2021
!       o--ll--o
!Port1            Port2
!       o------o
!Operation Temp=25[degC], DC Bias Voltage=0[V]
!Freq. Start=100[MHz] Stop=9[GHz] 401[Steps]
# Hz S RI R 50
!Freq.(Hz) S11(Real) S11(Imag) S21(Real) S21(Imag) S12(Real) S12(Imag) S22(Real) S22(Imag)
100000000 0.9873132 -0.1116814 0.0126868 0.1116814 0.0126868 0.1116814 0.9873132 -0.1116814
121000000 0.9815307 -0.1343537 0.0184693 0.1343537 0.0184693 0.1343537 0.9815307 -0.1343537
142000000 0.9747342 -0.1565942 0.0252658 0.1565942 0.0252658 0.1565942 0.9747342 -0.1565942
163000000 0.9669656 -0.1783393 0.0330344 0.1783393 0.0330344 0.1783393 0.9669656 -0.1783393
184000000 0.9582719 -0.1995302 0.0417281 0.1995302 0.0417281 0.1995302 0.9582719 -0.1995302
205000000 0.9487041 -0.2201137 0.0512959 0.2201137 0.0512959 0.2201137 0.9487041 -0.2201137
226000000 0.9383169 -0.2400420 0.0616831 0.2400420 0.0616831 0.2400420 0.9383169 -0.2400420
247000000 0.9271680 -0.2592734 0.0728320 0.2592734 0.0728320 0.2592734 0.9271680 -0.2592734
268000000 0.9153170 -0.2777722 0.0846830 0.2777722 0.0846830 0.2777722 0.9153170 -0.2777722
289000000 0.9028249 -0.2955086 0.0971751 0.2955086 0.0971751 0.2955086 0.9028249 -0.2955086
310000000 0.8897536 -0.3124591 0.1102464 0.3124591 0.1102464 0.3124591 0.8897536 -0.3124591
331000000 0.8761649 -0.3286055 0.1238351 0.3286055 0.1238351 0.3286055 0.8761649 -0.3286055
352000000 0.8621200 -0.3439358 0.1378800 0.3439358 0.1378800 0.3439358 0.8621200 -0.3439358
373000000 0.8476794 -0.3584428 0.1523206 0.3584428 0.1523206 0.3584428 0.8476794 -0.3584428
394000000 0.8329018 -0.3721245 0.1670982 0.3721245 0.1670982 0.3721245 0.8329018 -0.3721245
415000000 0.8178438 -0.3849836 0.1821562 0.3849836 0.1821562 0.3849836 0.8178438 -0.3849836
436000000 0.8025602 -0.3970268 0.1974398 0.3970268 0.1974398 0.3970268 0.8025602 -0.3970268
457000000 0.7871028 -0.4082647 0.2128972 0.4082647 0.2128972 0.4082647 0.7871028 -0.4082647
478000000 0.7715207 -0.4187113 0.2284793 0.4187113 0.2284793 0.4187113 0.7715207 -0.4187113
499000000 0.7558601 -0.4283835 0.2441399 0.4283835 0.2441399 0.4283835 0.7558601 -0.4283835
520000000 0.7401643 -0.4373008 0.2598357 0.4373008 0.2598357 0.4373008 0.7401643 -0.4373008
541000000 0.7244731 -0.4454848 0.2755269 0.4454848 0.2755269 0.4454848 0.7244731 -0.4454848
562000000 0.7088234 -0.4529589 0.2911766 0.4529589 0.2911766 0.4529589 0.7088234 -0.4529589
583000000 0.6932490 -0.4597480 0.3067510 0.4597480 0.3067510 0.4597480 0.6932490 -0.4597480
604000000 0.6777806 -0.4658780 0.3222194 0.4658780 0.3222194 0.4658780 0.6777806 -0.4658780
625000000 0.6624457 -0.4713757 0.3375543 0.4713757 0.3375543 0.4713757 0.6624457 -0.4713757
646000000 0.6472693 -0.4762682 0.3527307 0.4762682 0.3527307 0.4762682 0.6472693 -0.4762682
667000000 0.6322734 -0.4805831 0.3677266 0.4805831 0.3677266 0.4805831 0.6322734 -0.4805831
688000000 0.6174773 -0.4843480 0.3825227 0.4843480 0.3825227 0.4843480 0.6174773 -0.4843480
709000000 0.6028981 -0.4875902 0.3971019 0.4875902 0.3971019 0.4875902 0.6028981 -0.4875902
730000000 0.5885504 -0.4903370 0.4114496 0.4903370 0.4114496 0.4903370 0.5885504 -0.4903370
751000000 0.5744467 -0.4926150 0.4255533 0.4926150 0.4255533 0.4926150 0.5744467 -0.4926150
772000000 0.5605973 -0.4944503 0.4394027 0.4944503 0.4394027 0.4944503 0.5605973 -0.4944503
793000000 0.5470109 -0.4958684 0.4529891 0.4958684 0.4529891 0.4958684 0.5470109 -0.4958684
814000000 0.5336944 -0.4968940 0.4663056 0.4968940 0.4663056 0.4968940 0.5336944 -0.4968940
835000000 0.5206531 -0.4975510 0.4793469 0.4975510 0.4793469 0.4975510 0.5206531 -0.4975510
856000000 0.5078908 -0.4978624 0.4921092 0.4978624 0.4921092 0.4978624 0.5078908 -0.4978624
877000000 0.4954103 -0.4978504 0.5045897 0.4978504 0.5045897 0.4978504 0.4954103 -0.4978504
898000000 0.4832129 -0.4975362 0.5167871 0.4975362 0.5167871 0.4975362 0.4832129 -0.4975362
919000000 0.4712990 -0.4969401 0.5287010 0.4969401 0.5287010 0.4969401 0.4712990 -0.4969401
940000000 0.4596683 -0.4960815 0.5403317 0.4960815 0.5403317 0.4960815 0.4596683 -0.4960815
961000000 0.4483192 -0.4949788 0.5516808 0.4949788 0.5516808 0.4949788 0.4483192 -0.4949788
982000000 0.4372498 -0.4936495 0.5627502 0.4936495 0.5627502 0.4936495 0.4372498 -0.4936495
1003000000 0.4264574 -0.4921103 0.5735426 0.4921103 0.5735426 0.4921103 0.4264574 -0.4921103
1024000000 0.4159388 -0.4903769 0.5840612 0.4903769 0.5840612 0.4903769 0.4159388 -0.4903769
1045000000 0.4056902 -0.4884642 0.5943098 0.4884642 0.5943098 0.4884642 0.4056902 -0.4884642
1066000000 0.3957075 -0.4863863 0.6042925 0.4863863 0.6042925 0.4863863 0.3957075 -0.4863863
1087000000 0.3859863 -0.4841563 0.6140137 0.4841563 0.6140137 0.4841563 0.3859863 -0.4841563
1108000000 0.3765217 -0.4817869 0.6234783 0.4817869 0.6234783 0.4817869 0.3765217 -0.4817869
1129000000 0.3673089 -0.4792896 0.6326911 0.4792896 0.6326911 0.4792896 0.3673089 -0.4792896
1150000000 0.3583426 -0.4766756 0.6416574 0.4766756 0.6416574 0.4766756 0.3583426 -0.4766756
1171000000 0.3496176 -0.4739552 0.6503824 0.4739552 0.6503824 0.4739552 0.3496176 -0.4739552
1192000000 0.3411283 -0.4711381 0.6588717 0.4711381 0.6588717 0.4711381 0.3411283 -0.4711381
1213000000 0.3328693 -0.4682333 0.6671307 0.4682333 0.6671307 0.4682333 0.3328693 -0.4682333
1234000000 0.3248350 -0.4652495 0.6751650 0.4652495 0.6751650 0.4652495 0.3248350 -0.4652495
1255000000 0.3170199 -0.4621944 0.6829801 0.4621944 0.6829801 0.4621944 0.3170199 -0.4621944
1276000000 0.3094183 -0.4590756 0.6905817 0.4590756 0.6905817 0.4590756 0.3094183 -0.4590756
1297000000 0.3020246 -0.4559001 0.6979754 0.4559001 0.6979754 0.4559001 0.3020246 -0.4559001
1318000000 0.2948335 -0.4526741 0.7051665 0.4526741 0.7051665 0.4526741 0.2948335 -0.4526741
1339000000 0.2878393 -0.4494039 0.7121607 0.4494039 0.7121607 0.4494039 0.2878393 -0.4494039
1360000000 0.2810367 -0.4460949 0.7189633 0.4460949 0.7189633 0.4460949 0.2810367 -0.4460949
1381000000 0.2744203 -0.4427525 0.7255797 0.4427525 0.7255797 0.4427525 0.2744203 -0.4427525
1402000000 0.2679850 -0.4393814 0.7320150 0.4393814 0.7320150 0.4393814 0.2679850 -0.4393814
1423000000 0.2617255 -0.4359862 0.7382745 0.4359862 0.7382745 0.4359862 0.2617255 -0.4359862
1444000000 0.2556367 -0.4325711 0.7443633 0.4325711 0.7443633 0.4325711 0.2556367 -0.4325711
1465000000 0.2497138 -0.4291399 0.7502862 0.4291399 0.7502862 0.4291399 0.2497138 -0.4291399
1486000000 0.2439519 -0.4256962 0.7560481 0.4256962 0.7560481 0.4256962 0.2439519 -0.4256962
1507000000 0.2383462 -0.4222434 0.7616538 0.4222434 0.7616538 0.4222434 0.2383462 -0.4222434
1528000000 0.2328921 -0.4187845 0.7671079 0.4187845 0.7671079 0.4187845 0.2328921 -0.4187845
1549000000 0.2275852 -0.4153224 0.7724148 0.4153224 0.7724148 0.4153224 0.2275852 -0.4153224
1570000000 0.2224210 -0.4118598 0.7775790 0.4118598 0.7775790 0.4118598 0.2224210 -0.4118598
1591000000 0.2173953 -0.4083989 0.7826047 0.4083989 0.7826047 0.4083989 0.2173953 -0.4083989
1612000000 0.2125038 -0.4049421 0.7874962 0.4049421 0.7874962 0.4049421 0.2125038 -0.4049421
1633000000 0.2077427 -0.4014914 0.7922573 0.4014914 0.7922573 0.4014914 0.2077427 -0.4014914
1654000000 0.2031079 -0.3980488 0.7968921 0.3980488 0.7968921 0.3980488 0.2031079 -0.3980488
1675000000 0.1985956 -0.3946158 0.8014044 0.3946158 0.8014044 0.3946158 0.1985956 -0.3946158
1696000000 0.1942022 -0.3911942 0.8057978 0.3911942 0.8057978 0.3911942 0.1942022 -0.3911942
1717000000 0.1899240 -0.3877853 0.8100760 0.3877853 0.8100760 0.3877853 0.1899240 -0.3877853
1738000000 0.1857575 -0.3843905 0.8142425 0.3843905 0.8142425 0.3843905 0.1857575 -0.3843905
1759000000 0.1816995 -0.3810111 0.8183005 0.3810111 0.8183005 0.3810111 0.1816995 -0.3810111
1780000000 0.1777466 -0.3776480 0.8222534 0.3776480 0.8222534 0.3776480 0.1777466 -0.3776480
1801000000 0.1738956 -0.3743022 0.8261044 0.3743022 0.8261044 0.3743022 0.1738956 -0.3743022
1822000000 0.1701436 -0.3709748 0.8298564 0.3709748 0.8298564 0.3709748 0.1701436 -0.3709748
1843000000 0.1664874 -0.3676665 0.8335126 0.3676665 0.8335126 0.3676665 0.1664874 -0.3676665
1864000000 0.1629243 -0.3643780 0.8370757 0.3643780 0.8370757 0.3643780 0.1629243 -0.3643780
1885000000 0.1594515 -0.3611099 0.8405485 0.3611099 0.8405485 0.3611099 0.1594515 -0.3611099
1906000000 0.1560662 -0.3578630 0.8439338 0.3578630 0.8439338 0.3578630 0.1560662 -0.3578630
1927000000 0.1527658 -0.3546375 0.8472342 0.3546375 0.8472342 0.3546375 0.1527658 -0.3546375
1948000000 0.1495479 -0.3514342 0.8504521 0.3514342 0.8504521 0.3514342 0.1495479 -0.3514342
1969000000 0.1464100 -0.3482532 0.8535900 0.3482532 0.8535900 0.3482532 0.1464100 -0.3482532
1990000000 0.1433497 -0.3450951 0.8566503 0.3450951 0.8566503 0.3450951 0.1433497 -0.3450951
2011000000 0.1403647 -0.3419600 0.8596353 0.3419600 0.8596353 0.3419600 0.1403647 -0.3419600
2032000000 0.1374529 -0.3388482 0.8625471 0.3388482 0.8625471 0.3388482 0.1374529 -0.3388482
2053000000 0.1346120 -0.3357599 0.8653880 0.3357599 0.8653880 0.3357599 0.1346120 -0.3357599
2074000000 0.1318401 -0.3326954 0.8681599 0.3326954 0.8681599 0.3326954 0.1318401 -0.3326954
2095000000 0.1291350 -0.3296546 0.8708650 0.3296546 0.8708650 0.3296546 0.1291350 -0.3296546
2116000000 0.1264950 -0.3266378 0.8735050 0.3266378 0.8735050 0.3266378 0.1264950 -0.3266378
2137000000 0.1239180 -0.3236451 0.8760820 0.3236451 0.8760820 0.3236451 0.1239180 -0.3236451
2158000000 0.1214024 -0.3206763 0.8785976 0.3206763 0.8785976 0.3206763 0.1214024 -0.3206763
2179000000 0.1189463 -0.3177317 0.8810537 0.3177317 0.8810537 0.3177317 0.1189463 -0.3177317
2200000000 0.1165480 -0.3148110 0.8834520 0.3148110 0.8834520 0.3148110 0.1165480 -0.3148110
2221000000 0.1142060 -0.3119144 0.8857940 0.3119144 0.8857940 0.3119144 0.1142060 -0.3119144
2242000000 0.1119186 -0.3090418 0.8880814 0.3090418 0.8880814 0.3090418 0.1119186 -0.3090418
2263000000 0.1096842 -0.3061931 0.8903158 0.3061931 0.8903158 0.3061931 0.1096842 -0.3061931
2284000000 0.1075015 -0.3033682 0.8924985 0.3033682 0.8924985 0.3033682 0.1075015 -0.3033682
2305000000 0.1053689 -0.3005670 0.8946311 0.3005670 0.8946311 0.3005670 0.1053689 -0.3005670
2326000000 0.1032851 -0.2977895 0.8967149 0.2977895 0.8967149 0.2977895 0.1032851 -0.2977895
2347000000 0.1012487 -0.2950354 0.8987513 0.2950354 0.8987513 0.2950354 0.1012487 -0.2950354
2368000000 0.0992585 -0.2923046 0.9007415 0.2923046 0.9007415 0.2923046 0.0992585 -0.2923046
2389000000 0.0973131 -0.2895970 0.9026869 0.2895970 0.9026869 0.2895970 0.0973131 -0.2895970
2410000000 0.0954113 -0.2869124 0.9045887 0.2869124 0.9045887 0.2869124 0.0954113 -0.2869124
2431000000 0.0935521 -0.2842507 0.9064479 0.2842507 0.9064479 0.2842507 0.0935521 -0.2842507
2452000000 0.0917341 -0.2816116 0.9082659 0.2816116 0.9082659 0.2816116 0.0917341 -0.2816116
2473000000 0.0899563 -0.2789950 0.9100437 0.2789950 0.9100437 0.2789950 0.0899563 -0.2789950
2494000000 0.0882177 -0.2764007 0.9117823 0.2764007 0.9117823 0.2764007 0.0882177 -0.2764007
2515000000 0.0865172 -0.2738285 0.9134828 0.2738285 0.9134828 0.2738285 0.0865172 -0.2738285
2536000000 0.0848538 -0.2712782 0.9151462 0.2712782 0.9151462 0.2712782 0.0848538 -0.2712782
2557000000 0.0832265 -0.2687495 0.9167735 0.2687495 0.9167735 0.2687495 0.0832265 -0.2687495
2578000000 0.0816344 -0.2662423 0.9183656 0.2662423 0.9183656 0.2662423 0.0816344 -0.2662423
2599000000 0.0800765 -0.2637564 0.9199235 0.2637564 0.9199235 0.2637564 0.0800765 -0.2637564
2620000000 0.0785520 -0.2612915 0.9214480 0.2612915 0.9214480 0.2612915 0.0785520 -0.2612915
2641000000 0.0770600 -0.2588474 0.9229400 0.2588474 0.9229400 0.2588474 0.0770600 -0.2588474
2662000000 0.0755998 -0.2564239 0.9244002 0.2564239 0.9244002 0.2564239 0.0755998 -0.2564239
2683000000 0.0741704 -0.2540207 0.9258296 0.2540207 0.9258296 0.2540207 0.0741704 -0.2540207
2704000000 0.0727710 -0.2516377 0.9272290 0.2516377 0.9272290 0.2516377 0.0727710 -0.2516377
2725000000 0.0714011 -0.2492746 0.9285989 0.2492746 0.9285989 0.2492746 0.0714011 -0.2492746
2746000000 0.0700597 -0.2469311 0.9299403 0.2469311 0.9299403 0.2469311 0.0700597 -0.2469311
2767000000 0.0687462 -0.2446072 0.9312538 0.2446072 0.9312538 0.2446072 0.0687462 -0.2446072
2788000000 0.0674599 -0.2423024 0.9325401 0.2423024 0.9325401 0.2423024 0.0674599 -0.2423024
2809000000 0.0662002 -0.2400166 0.9337998 0.2400166 0.9337998 0.2400166 0.0662002 -0.2400166
2830000000 0.0649663 -0.2377497 0.9350337 0.2377497 0.9350337 0.2377497 0.0649663 -0.2377497
2851000000 0.0637577 -0.2355012 0.9362423 0.2355012 0.9362423 0.2355012 0.0637577 -0.2355012
2872000000 0.0625737 -0.2332710 0.9374263 0.2332710 0.9374263 0.2332710 0.0625737 -0.2332710
2893000000 0.0614137 -0.2310590 0.9385863 0.2310590 0.9385863 0.2310590 0.0614137 -0.2310590
2914000000 0.0602772 -0.2288648 0.9397228 0.2288648 0.9397228 0.2288648 0.0602772 -0.2288648
2935000000 0.0591636 -0.2266882 0.9408364 0.2266882 0.9408364 0.2266882 0.0591636 -0.2266882
2956000000 0.0580724 -0.2245291 0.9419276 0.2245291 0.9419276 0.2245291 0.0580724 -0.2245291
2977000000 0.0570030 -0.2223871 0.9429970 0.2223871 0.9429970 0.2223871 0.0570030 -0.2223871
2998000000 0.0559550 -0.2202621 0.9440450 0.2202621 0.9440450 0.2202621 0.0559550 -0.2202621
3019000000 0.0549277 -0.2181539 0.9450723 0.2181539 0.9450723 0.2181539 0.0549277 -0.2181539
3040000000 0.0539208 -0.2160622 0.9460792 0.2160622 0.9460792 0.2160622 0.0539208 -0.2160622
3061000000 0.0529338 -0.2139868 0.9470662 0.2139868 0.9470662 0.2139868 0.0529338 -0.2139868
3082000000 0.0519662 -0.2119275 0.9480338 0.2119275 0.9480338 0.2119275 0.0519662 -0.2119275
3103000000 0.0510175 -0.2098841 0.9489825 0.2098841 0.9489825 0.2098841 0.0510175 -0.2098841
3124000000 0.0500874 -0.2078564 0.9499126 0.2078564 0.9499126 0.2078564 0.0500874 -0.2078564
3145000000 0.0491754 -0.2058442 0.9508246 0.2058442 0.9508246 0.2058442 0.0491754 -0.2058442
3166000000 0.0482812 -0.2038472 0.9517188 0.2038472 0.9517188 0.2038472 0.0482812 -0.2038472
3187000000 0.0474042 -0.2018654 0.9525958 0.2018654 0.9525958 0.2018654 0.0474042 -0.2018654
3208000000 0.0465443 -0.1998983 0.9534557 0.1998983 0.9534557 0.1998983 0.0465443 -0.1998983
3229000000 0.0457008 -0.1979460 0.9542992 0.1979460 0.9542992 0.1979460 0.0457008 -0.1979460
3250000000 0.0448736 -0.1960081 0.9551264 0.1960081 0.9551264 0.1960081 0.0448736 -0.1960081
3271000000 0.0440622 -0.1940845 0.9559378 0.1940845 0.9559378 0.1940845 0.0440622 -0.1940845
3292000000 0.0432664 -0.1921750 0.9567336 0.1921750 0.9567336 0.1921750 0.0432664 -0.1921750
3313000000 0.0424857 -0.1902793 0.9575143 0.1902793 0.9575143 0.1902793 0.0424857 -0.1902793
3334000000 0.0417199 -0.1883974 0.9582801 0.1883974 0.9582801 0.1883974 0.0417199 -0.1883974
3355000000 0.0409686 -0.1865290 0.9590314 0.1865290 0.9590314 0.1865290 0.0409686 -0.1865290
3376000000 0.0402315 -0.1846739 0.9597685 0.1846739 0.9597685 0.1846739 0.0402315 -0.1846739
3397000000 0.0395084 -0.1828319 0.9604916 0.1828319 0.9604916 0.1828319 0.0395084 -0.1828319
3418000000 0.0387989 -0.1810030 0.9612011 0.1810030 0.9612011 0.1810030 0.0387989 -0.1810030
3439000000 0.0381027 -0.1791868 0.9618973 0.1791868 0.9618973 0.1791868 0.0381027 -0.1791868
3460000000 0.0374197 -0.1773832 0.9625803 0.1773832 0.9625803 0.1773832 0.0374197 -0.1773832
3481000000 0.0367494 -0.1755921 0.9632506 0.1755921 0.9632506 0.1755921 0.0367494 -0.1755921
3502000000 0.0360917 -0.1738132 0.9639083 0.1738132 0.9639083 0.1738132 0.0360917 -0.1738132
3523000000 0.0354463 -0.1720464 0.9645537 0.1720464 0.9645537 0.1720464 0.0354463 -0.1720464
3544000000 0.0348130 -0.1702916 0.9651870 0.1702916 0.9651870 0.1702916 0.0348130 -0.1702916
3565000000 0.0341914 -0.1685485 0.9658086 0.1685485 0.9658086 0.1685485 0.0341914 -0.1685485
3586000000 0.0335815 -0.1668171 0.9664185 0.1668171 0.9664185 0.1668171 0.0335815 -0.1668171
3607000000 0.0329828 -0.1650971 0.9670172 0.1650971 0.9670172 0.1650971 0.0329828 -0.1650971
3628000000 0.0323953 -0.1633883 0.9676047 0.1633883 0.9676047 0.1633883 0.0323953 -0.1633883
3649000000 0.0318187 -0.1616907 0.9681813 0.1616907 0.9681813 0.1616907 0.0318187 -0.1616907
3670000000 0.0312529 -0.1600041 0.9687471 0.1600041 0.9687471 0.1600041 0.0312529 -0.1600041
3691000000 0.0306975 -0.1583282 0.9693025 0.1583282 0.9693025 0.1583282 0.0306975 -0.1583282
3712000000 0.0301523 -0.1566631 0.9698477 0.1566631 0.9698477 0.1566631 0.0301523 -0.1566631
3733000000 0.0296173 -0.1550085 0.9703827 0.1550085 0.9703827 0.1550085 0.0296173 -0.1550085
3754000000 0.0290922 -0.1533642 0.9709078 0.1533642 0.9709078 0.1533642 0.0290922 -0.1533642
3775000000 0.0285768 -0.1517302 0.9714232 0.1517302 0.9714232 0.1517302 0.0285768 -0.1517302
3796000000 0.0280710 -0.1501062 0.9719290 0.1501062 0.9719290 0.1501062 0.0280710 -0.1501062
3817000000 0.0275745 -0.1484922 0.9724255 0.1484922 0.9724255 0.1484922 0.0275745 -0.1484922
3838000000 0.0270872 -0.1468880 0.9729128 0.1468880 0.9729128 0.1468880 0.0270872 -0.1468880
3859000000 0.0266089 -0.1452935 0.9733911 0.1452935 0.9733911 0.1452935 0.0266089 -0.1452935
3880000000 0.0261395 -0.1437085 0.9738605 0.1437085 0.9738605 0.1437085 0.0261395 -0.1437085
3901000000 0.0256788 -0.1421328 0.9743212 0.1421328 0.9743212 0.1421328 0.0256788 -0.1421328
3922000000 0.0252266 -0.1405665 0.9747734 0.1405665 0.9747734 0.1405665 0.0252266 -0.1405665
3943000000 0.0247829 -0.1390093 0.9752171 0.1390093 0.9752171 0.1390093 0.0247829 -0.1390093
3964000000 0.0243473 -0.1374610 0.9756527 0.1374610 0.9756527 0.1374610 0.0243473 -0.1374610
3985000000 0.0239199 -0.1359217 0.9760801 0.1359217 0.9760801 0.1359217 0.0239199 -0.1359217
4006000000 0.0235005 -0.1343911 0.9764995 0.1343911 0.9764995 0.1343911 0.0235005 -0.1343911
4027000000 0.0230889 -0.1328691 0.9769111 0.1328691 0.9769111 0.1328691 0.0230889 -0.1328691
4048000000 0.0226850 -0.1313556 0.9773150 0.1313556 0.9773150 0.1313556 0.0226850 -0.1313556
4069000000 0.0222886 -0.1298505 0.9777114 0.1298505 0.9777114 0.1298505 0.0222886 -0.1298505
4090000000 0.0218997 -0.1283536 0.9781003 0.1283536 0.9781003 0.1283536 0.0218997 -0.1283536
4111000000 0.0215181 -0.1268649 0.9784819 0.1268649 0.9784819 0.1268649 0.0215181 -0.1268649
4132000000 0.0211437 -0.1253843 0.9788563 0.1253843 0.9788563 0.1253843 0.0211437 -0.1253843
4153000000 0.0207764 -0.1239115 0.9792236 0.1239115 0.9792236 0.1239115 0.0207764 -0.1239115
4174000000 0.0204160 -0.1224465 0.9795840 0.1224465 0.9795840 0.1224465 0.0204160 -0.1224465
4195000000 0.0200625 -0.1209892 0.9799375 0.1209892 0.9799375 0.1209892 0.0200625 -0.1209892
4216000000 0.0197157 -0.1195395 0.9802843 0.1195395 0.9802843 0.1195395 0.0197157 -0.1195395
4237000000 0.0193756 -0.1180972 0.9806244 0.1180972 0.9806244 0.1180972 0.0193756 -0.1180972
4258000000 0.0190420 -0.1166623 0.9809580 0.1166623 0.9809580 0.1166623 0.0190420 -0.1166623
4279000000 0.0187149 -0.1152346 0.9812851 0.1152346 0.9812851 0.1152346 0.0187149 -0.1152346
4300000000 0.0183940 -0.1138141 0.9816060 0.1138141 0.9816060 0.1138141 0.0183940 -0.1138141
4321000000 0.0180794 -0.1124006 0.9819206 0.1124006 0.9819206 0.1124006 0.0180794 -0.1124006
4342000000 0.0177710 -0.1109940 0.9822290 0.1109940 0.9822290 0.1109940 0.0177710 -0.1109940
4363000000 0.0174686 -0.1095943 0.9825314 0.1095943 0.9825314 0.1095943 0.0174686 -0.1095943
4384000000 0.0171722 -0.1082013 0.9828278 0.1082013 0.9828278 0.1082013 0.0171722 -0.1082013
4405000000 0.0168816 -0.1068149 0.9831184 0.1068149 0.9831184 0.1068149 0.0168816 -0.1068149
4426000000 0.0165968 -0.1054350 0.9834032 0.1054350 0.9834032 0.1054350 0.0165968 -0.1054350
4447000000 0.0163178 -0.1040616 0.9836822 0.1040616 0.9836822 0.1040616 0.0163178 -0.1040616
4468000000 0.0160443 -0.1026945 0.9839557 0.1026945 0.9839557 0.1026945 0.0160443 -0.1026945
4489000000 0.0157765 -0.1013336 0.9842235 0.1013336 0.9842235 0.1013336 0.0157765 -0.1013336
4510000000 0.0155140 -0.0999789 0.9844860 0.0999789 0.9844860 0.0999789 0.0155140 -0.0999789
