!Murata Part Number: GRM1555C2A151GE01
!These Parameters are Measured in Series Mode Connection
!Data Generated on Mar 30, 2021
!       o--ll--o
!Port1            Port2
!       o------o
!Operation Temp=25[degC], DC Bias Voltage=0[V]
!Freq. Start=100[MHz] Stop=9[GHz] 401[Steps]
# Hz S RI R 50
!Freq.(Hz) S11(Real) S11(Imag) S21(Real) S21(Imag) S12(Real) S12(Imag) S22(Real) S22(Imag)
100000000 0.0113561 -0.1022741 0.9886439 0.1022741 0.9886439 0.1022741 0.0113561 -0.1022741
121000000 0.0079239 -0.0839098 0.9920761 0.0839098 0.9920761 0.0839098 0.0079239 -0.0839098
142000000 0.0058987 -0.0707374 0.9941013 0.0707374 0.9941013 0.0707374 0.0058987 -0.0707374
163000000 0.0046080 -0.0607918 0.9953920 0.0607918 0.9953920 0.0607918 0.0046080 -0.0607918
184000000 0.0037375 -0.0529850 0.9962625 0.0529850 0.9962625 0.0529850 0.0037375 -0.0529850
205000000 0.0031248 -0.0466672 0.9968752 0.0466672 0.9968752 0.0466672 0.0031248 -0.0466672
226000000 0.0026791 -0.0414270 0.9973209 0.0414270 0.9973209 0.0414270 0.0026791 -0.0414270
247000000 0.0023465 -0.0369916 0.9976535 0.0369916 0.9976535 0.0369916 0.0023465 -0.0369916
268000000 0.0020932 -0.0331728 0.9979068 0.0331728 0.9979068 0.0331728 0.0020932 -0.0331728
289000000 0.0018974 -0.0298369 0.9981026 0.0298369 0.9981026 0.0298369 0.0018974 -0.0298369
310000000 0.0017444 -0.0268861 0.9982556 0.0268861 0.9982556 0.0268861 0.0017444 -0.0268861
331000000 0.0016240 -0.0242474 0.9983760 0.0242474 0.9983760 0.0242474 0.0016240 -0.0242474
352000000 0.0015289 -0.0218649 0.9984711 0.0218649 0.9984711 0.0218649 0.0015289 -0.0218649
373000000 0.0014538 -0.0196956 0.9985462 0.0196956 0.9985462 0.0196956 0.0014538 -0.0196956
394000000 0.0013948 -0.0177052 0.9986052 0.0177052 0.9986052 0.0177052 0.0013948 -0.0177052
415000000 0.0013491 -0.0158667 0.9986509 0.0158667 0.9986509 0.0158667 0.0013491 -0.0158667
436000000 0.0013144 -0.0141582 0.9986856 0.0141582 0.9986856 0.0141582 0.0013144 -0.0141582
457000000 0.0012889 -0.0125615 0.9987111 0.0125615 0.9987111 0.0125615 0.0012889 -0.0125615
478000000 0.0012712 -0.0110621 0.9987288 0.0110621 0.9987288 0.0110621 0.0012712 -0.0110621
499000000 0.0012604 -0.0096475 0.9987396 0.0096475 0.9987396 0.0096475 0.0012604 -0.0096475
520000000 0.0012555 -0.0083073 0.9987445 0.0083073 0.9987445 0.0083073 0.0012555 -0.0083073
541000000 0.0012559 -0.0070330 0.9987441 0.0070330 0.9987441 0.0070330 0.0012559 -0.0070330
562000000 0.0012610 -0.0058170 0.9987390 0.0058170 0.9987390 0.0058170 0.0012610 -0.0058170
583000000 0.0012704 -0.0046529 0.9987296 0.0046529 0.9987296 0.0046529 0.0012704 -0.0046529
604000000 0.0012836 -0.0035352 0.9987164 0.0035352 0.9987164 0.0035352 0.0012836 -0.0035352
625000000 0.0013004 -0.0024593 0.9986996 0.0024593 0.9986996 0.0024593 0.0013004 -0.0024593
646000000 0.0013205 -0.0014208 0.9986795 0.0014208 0.9986795 0.0014208 0.0013205 -0.0014208
667000000 0.0013437 -0.0004162 0.9986563 0.0004162 0.9986563 0.0004162 0.0013437 -0.0004162
688000000 0.0013699 0.0005577 0.9986301 -0.0005577 0.9986301 -0.0005577 0.0013699 0.0005577
709000000 0.0013988 0.0015038 0.9986012 -0.0015038 0.9986012 -0.0015038 0.0013988 0.0015038
730000000 0.0014306 0.0024246 0.9985694 -0.0024246 0.9985694 -0.0024246 0.0014306 0.0024246
751000000 0.0014649 0.0033224 0.9985351 -0.0033224 0.9985351 -0.0033224 0.0014649 0.0033224
772000000 0.0015018 0.0041991 0.9984982 -0.0041991 0.9984982 -0.0041991 0.0015018 0.0041991
793000000 0.0015413 0.0050567 0.9984587 -0.0050567 0.9984587 -0.0050567 0.0015413 0.0050567
814000000 0.0015833 0.0058966 0.9984167 -0.0058966 0.9984167 -0.0058966 0.0015833 0.0058966
835000000 0.0016278 0.0067205 0.9983722 -0.0067205 0.9983722 -0.0067205 0.0016278 0.0067205
856000000 0.0016749 0.0075297 0.9983251 -0.0075297 0.9983251 -0.0075297 0.0016749 0.0075297
877000000 0.0017246 0.0083254 0.9982754 -0.0083254 0.9982754 -0.0083254 0.0017246 0.0083254
898000000 0.0017769 0.0091089 0.9982231 -0.0091089 0.9982231 -0.0091089 0.0017769 0.0091089
919000000 0.0018320 0.0098811 0.9981680 -0.0098811 0.9981680 -0.0098811 0.0018320 0.0098811
940000000 0.0018899 0.0106431 0.9981101 -0.0106431 0.9981101 -0.0106431 0.0018899 0.0106431
961000000 0.0019508 0.0113957 0.9980492 -0.0113957 0.9980492 -0.0113957 0.0019508 0.0113957
982000000 0.0020148 0.0121400 0.9979852 -0.0121400 0.9979852 -0.0121400 0.0020148 0.0121400
1003000000 0.0020822 0.0128767 0.9979178 -0.0128767 0.9979178 -0.0128767 0.0020822 0.0128767
1024000000 0.0021532 0.0136066 0.9978468 -0.0136066 0.9978468 -0.0136066 0.0021532 0.0136066
1045000000 0.0022281 0.0143306 0.9977719 -0.0143306 0.9977719 -0.0143306 0.0022281 0.0143306
1066000000 0.0023072 0.0150492 0.9976928 -0.0150492 0.9976928 -0.0150492 0.0023072 0.0150492
1087000000 0.0023911 0.0157634 0.9976089 -0.0157634 0.9976089 -0.0157634 0.0023911 0.0157634
1108000000 0.0024801 0.0164737 0.9975199 -0.0164737 0.9975199 -0.0164737 0.0024801 0.0164737
1129000000 0.0025750 0.0171808 0.9974250 -0.0171808 0.9974250 -0.0171808 0.0025750 0.0171808
1150000000 0.0026766 0.0178855 0.9973234 -0.0178855 0.9973234 -0.0178855 0.0026766 0.0178855
1171000000 0.0027858 0.0185884 0.9972142 -0.0185884 0.9972142 -0.0185884 0.0027858 0.0185884
1192000000 0.0029038 0.0192900 0.9970962 -0.0192900 0.9970962 -0.0192900 0.0029038 0.0192900
1213000000 0.0030321 0.0199908 0.9969679 -0.0199908 0.9969679 -0.0199908 0.0030321 0.0199908
1234000000 0.0031726 0.0206913 0.9968274 -0.0206913 0.9968274 -0.0206913 0.0031726 0.0206913
1255000000 0.0033274 0.0213916 0.9966726 -0.0213916 0.9966726 -0.0213916 0.0033274 0.0213916
1276000000 0.0034996 0.0220914 0.9965004 -0.0220914 0.9965004 -0.0220914 0.0034996 0.0220914
1297000000 0.0036926 0.0227900 0.9963074 -0.0227900 0.9963074 -0.0227900 0.0036926 0.0227900
1318000000 0.0039107 0.0234856 0.9960893 -0.0234856 0.9960893 -0.0234856 0.0039107 0.0234856
1339000000 0.0041591 0.0241750 0.9958409 -0.0241750 0.9958409 -0.0241750 0.0041591 0.0241750
1360000000 0.0044436 0.0248529 0.9955564 -0.0248529 0.9955564 -0.0248529 0.0044436 0.0248529
1381000000 0.0047704 0.0255102 0.9952296 -0.0255102 0.9952296 -0.0255102 0.0047704 0.0255102
1402000000 0.0051443 0.0261335 0.9948557 -0.0261335 0.9948557 -0.0261335 0.0051443 0.0261335
1423000000 0.0055664 0.0267031 0.9944336 -0.0267031 0.9944336 -0.0267031 0.0055664 0.0267031
1444000000 0.0060296 0.0271933 0.9939704 -0.0271933 0.9939704 -0.0271933 0.0060296 0.0271933
1465000000 0.0065116 0.0275760 0.9934884 -0.0275760 0.9934884 -0.0275760 0.0065116 0.0275760
1486000000 0.0069705 0.0278302 0.9930295 -0.0278302 0.9930295 -0.0278302 0.0069705 0.0278302
1507000000 0.0073470 0.0279581 0.9926530 -0.0279581 0.9926530 -0.0279581 0.0073470 0.0279581
1528000000 0.0075828 0.0279989 0.9924172 -0.0279989 0.9924172 -0.0279989 0.0075828 0.0279989
1549000000 0.0076479 0.0280241 0.9923521 -0.0280241 0.9923521 -0.0280241 0.0076479 0.0280241
1570000000 0.0075582 0.0281104 0.9924418 -0.0281104 0.9924418 -0.0281104 0.0075582 0.0281104
1591000000 0.0073656 0.0283089 0.9926344 -0.0283089 0.9926344 -0.0283089 0.0073656 0.0283089
1612000000 0.0071310 0.0286332 0.9928690 -0.0286332 0.9928690 -0.0286332 0.0071310 0.0286332
1633000000 0.0069026 0.0290690 0.9930974 -0.0290690 0.9930974 -0.0290690 0.0069026 0.0290690
1654000000 0.0067091 0.0295903 0.9932909 -0.0295903 0.9932909 -0.0295903 0.0067091 0.0295903
1675000000 0.0065629 0.0301709 0.9934371 -0.0301709 0.9934371 -0.0301709 0.0065629 0.0301709
1696000000 0.0064661 0.0307896 0.9935339 -0.0307896 0.9935339 -0.0307896 0.0064661 0.0307896
1717000000 0.0064161 0.0314311 0.9935839 -0.0314311 0.9935839 -0.0314311 0.0064161 0.0314311
1738000000 0.0064082 0.0320850 0.9935918 -0.0320850 0.9935918 -0.0320850 0.0064082 0.0320850
1759000000 0.0064377 0.0327446 0.9935623 -0.0327446 0.9935623 -0.0327446 0.0064377 0.0327446
1780000000 0.0065002 0.0334055 0.9934998 -0.0334055 0.9934998 -0.0334055 0.0065002 0.0334055
1801000000 0.0065925 0.0340650 0.9934075 -0.0340650 0.9934075 -0.0340650 0.0065925 0.0340650
1822000000 0.0067118 0.0347214 0.9932882 -0.0347214 0.9932882 -0.0347214 0.0067118 0.0347214
1843000000 0.0068563 0.0353735 0.9931437 -0.0353735 0.9931437 -0.0353735 0.0068563 0.0353735
1864000000 0.0070247 0.0360204 0.9929753 -0.0360204 0.9929753 -0.0360204 0.0070247 0.0360204
1885000000 0.0072164 0.0366614 0.9927836 -0.0366614 0.9927836 -0.0366614 0.0072164 0.0366614
1906000000 0.0074312 0.0372956 0.9925688 -0.0372956 0.9925688 -0.0372956 0.0074312 0.0372956
1927000000 0.0076692 0.0379220 0.9923308 -0.0379220 0.9923308 -0.0379220 0.0076692 0.0379220
1948000000 0.0079310 0.0385394 0.9920690 -0.0385394 0.9920690 -0.0385394 0.0079310 0.0385394
1969000000 0.0082172 0.0391463 0.9917828 -0.0391463 0.9917828 -0.0391463 0.0082172 0.0391463
1990000000 0.0085287 0.0397406 0.9914713 -0.0397406 0.9914713 -0.0397406 0.0085287 0.0397406
2011000000 0.0088663 0.0403197 0.9911337 -0.0403197 0.9911337 -0.0403197 0.0088663 0.0403197
2032000000 0.0092311 0.0408807 0.9907689 -0.0408807 0.9907689 -0.0408807 0.0092311 0.0408807
2053000000 0.0096235 0.0414197 0.9903765 -0.0414197 0.9903765 -0.0414197 0.0096235 0.0414197
2074000000 0.0100439 0.0419322 0.9899561 -0.0419322 0.9899561 -0.0419322 0.0100439 0.0419322
2095000000 0.0104918 0.0424129 0.9895082 -0.0424129 0.9895082 -0.0424129 0.0104918 0.0424129
2116000000 0.0109661 0.0428559 0.9890339 -0.0428559 0.9890339 -0.0428559 0.0109661 0.0428559
2137000000 0.0114640 0.0432542 0.9885360 -0.0432542 0.9885360 -0.0432542 0.0114640 0.0432542
2158000000 0.0119814 0.0436010 0.9880186 -0.0436010 0.9880186 -0.0436010 0.0119814 0.0436010
2179000000 0.0125120 0.0438889 0.9874880 -0.0438889 0.9874880 -0.0438889 0.0125120 0.0438889
2200000000 0.0130473 0.0441112 0.9869527 -0.0441112 0.9869527 -0.0441112 0.0130473 0.0441112
2221000000 0.0135762 0.0442627 0.9864238 -0.0442627 0.9864238 -0.0442627 0.0135762 0.0442627
2242000000 0.0140853 0.0443400 0.9859147 -0.0443400 0.9859147 -0.0443400 0.0140853 0.0443400
2263000000 0.0145591 0.0443433 0.9854409 -0.0443433 0.9854409 -0.0443433 0.0145591 0.0443433
2284000000 0.0149815 0.0442766 0.9850185 -0.0442766 0.9850185 -0.0442766 0.0149815 0.0442766
2305000000 0.0153365 0.0441489 0.9846635 -0.0441489 0.9846635 -0.0441489 0.0153365 0.0441489
2326000000 0.0156103 0.0439736 0.9843897 -0.0439736 0.9843897 -0.0439736 0.0156103 0.0439736
2347000000 0.0157930 0.0437681 0.9842070 -0.0437681 0.9842070 -0.0437681 0.0157930 0.0437681
2368000000 0.0158795 0.0435525 0.9841205 -0.0435525 0.9841205 -0.0435525 0.0158795 0.0435525
2389000000 0.0158706 0.0433475 0.9841294 -0.0433475 0.9841294 -0.0433475 0.0158706 0.0433475
2410000000 0.0157729 0.0431723 0.9842271 -0.0431723 0.9842271 -0.0431723 0.0157729 0.0431723
2431000000 0.0155974 0.0430433 0.9844026 -0.0430433 0.9844026 -0.0430433 0.0155974 0.0430433
2452000000 0.0153583 0.0429724 0.9846417 -0.0429724 0.9846417 -0.0429724 0.0153583 0.0429724
2473000000 0.0150713 0.0429669 0.9849287 -0.0429669 0.9849287 -0.0429669 0.0150713 0.0429669
2494000000 0.0147522 0.0430298 0.9852478 -0.0430298 0.9852478 -0.0430298 0.0147522 0.0430298
2515000000 0.0144153 0.0431601 0.9855847 -0.0431601 0.9855847 -0.0431601 0.0144153 0.0431601
2536000000 0.0140730 0.0433541 0.9859270 -0.0433541 0.9859270 -0.0433541 0.0140730 0.0433541
2557000000 0.0137353 0.0436062 0.9862647 -0.0436062 0.9862647 -0.0436062 0.0137353 0.0436062
2578000000 0.0134098 0.0439098 0.9865902 -0.0439098 0.9865902 -0.0439098 0.0134098 0.0439098
2599000000 0.0131019 0.0442579 0.9868981 -0.0442579 0.9868981 -0.0442579 0.0131019 0.0442579
2620000000 0.0128153 0.0446437 0.9871847 -0.0446437 0.9871847 -0.0446437 0.0128153 0.0446437
2641000000 0.0125518 0.0450607 0.9874482 -0.0450607 0.9874482 -0.0450607 0.0125518 0.0450607
2662000000 0.0123126 0.0455033 0.9876874 -0.0455033 0.9876874 -0.0455033 0.0123126 0.0455033
2683000000 0.0120975 0.0459664 0.9879025 -0.0459664 0.9879025 -0.0459664 0.0120975 0.0459664
2704000000 0.0119061 0.0464456 0.9880939 -0.0464456 0.9880939 -0.0464456 0.0119061 0.0464456
2725000000 0.0117373 0.0469373 0.9882627 -0.0469373 0.9882627 -0.0469373 0.0117373 0.0469373
2746000000 0.0115900 0.0474384 0.9884100 -0.0474384 0.9884100 -0.0474384 0.0115900 0.0474384
2767000000 0.0114628 0.0479463 0.9885372 -0.0479463 0.9885372 -0.0479463 0.0114628 0.0479463
2788000000 0.0113544 0.0484589 0.9886456 -0.0484589 0.9886456 -0.0484589 0.0113544 0.0484589
2809000000 0.0112632 0.0489745 0.9887368 -0.0489745 0.9887368 -0.0489745 0.0112632 0.0489745
2830000000 0.0111881 0.0494918 0.9888119 -0.0494918 0.9888119 -0.0494918 0.0111881 0.0494918
2851000000 0.0111276 0.0500097 0.9888724 -0.0500097 0.9888724 -0.0500097 0.0111276 0.0500097
2872000000 0.0110805 0.0505272 0.9889195 -0.0505272 0.9889195 -0.0505272 0.0110805 0.0505272
2893000000 0.0110458 0.0510437 0.9889542 -0.0510437 0.9889542 -0.0510437 0.0110458 0.0510437
2914000000 0.0110224 0.0515586 0.9889776 -0.0515586 0.9889776 -0.0515586 0.0110224 0.0515586
2935000000 0.0110094 0.0520716 0.9889906 -0.0520716 0.9889906 -0.0520716 0.0110094 0.0520716
2956000000 0.0110058 0.0525822 0.9889942 -0.0525822 0.9889942 -0.0525822 0.0110058 0.0525822
2977000000 0.0110110 0.0530903 0.9889890 -0.0530903 0.9889890 -0.0530903 0.0110110 0.0530903
2998000000 0.0110240 0.0535957 0.9889760 -0.0535957 0.9889760 -0.0535957 0.0110240 0.0535957
3019000000 0.0110444 0.0540982 0.9889556 -0.0540982 0.9889556 -0.0540982 0.0110444 0.0540982
3040000000 0.0110716 0.0545978 0.9889284 -0.0545978 0.9889284 -0.0545978 0.0110716 0.0545978
3061000000 0.0111049 0.0550945 0.9888951 -0.0550945 0.9888951 -0.0550945 0.0111049 0.0550945
3082000000 0.0111438 0.0555881 0.9888562 -0.0555881 0.9888562 -0.0555881 0.0111438 0.0555881
3103000000 0.0111881 0.0560788 0.9888119 -0.0560788 0.9888119 -0.0560788 0.0111881 0.0560788
3124000000 0.0112372 0.0565665 0.9887628 -0.0565665 0.9887628 -0.0565665 0.0112372 0.0565665
3145000000 0.0112908 0.0570513 0.9887092 -0.0570513 0.9887092 -0.0570513 0.0112908 0.0570513
3166000000 0.0113485 0.0575332 0.9886515 -0.0575332 0.9886515 -0.0575332 0.0113485 0.0575332
3187000000 0.0114101 0.0580123 0.9885899 -0.0580123 0.9885899 -0.0580123 0.0114101 0.0580123
3208000000 0.0114753 0.0584885 0.9885247 -0.0584885 0.9885247 -0.0584885 0.0114753 0.0584885
3229000000 0.0115439 0.0589621 0.9884561 -0.0589621 0.9884561 -0.0589621 0.0115439 0.0589621
3250000000 0.0116155 0.0594329 0.9883845 -0.0594329 0.9883845 -0.0594329 0.0116155 0.0594329
3271000000 0.0116900 0.0599012 0.9883100 -0.0599012 0.9883100 -0.0599012 0.0116900 0.0599012
3292000000 0.0117673 0.0603668 0.9882327 -0.0603668 0.9882327 -0.0603668 0.0117673 0.0603668
3313000000 0.0118471 0.0608300 0.9881529 -0.0608300 0.9881529 -0.0608300 0.0118471 0.0608300
3334000000 0.0119292 0.0612908 0.9880708 -0.0612908 0.9880708 -0.0612908 0.0119292 0.0612908
3355000000 0.0120136 0.0617492 0.9879864 -0.0617492 0.9879864 -0.0617492 0.0120136 0.0617492
3376000000 0.0121001 0.0622053 0.9878999 -0.0622053 0.9878999 -0.0622053 0.0121001 0.0622053
3397000000 0.0121886 0.0626591 0.9878114 -0.0626591 0.9878114 -0.0626591 0.0121886 0.0626591
3418000000 0.0122789 0.0631107 0.9877211 -0.0631107 0.9877211 -0.0631107 0.0122789 0.0631107
3439000000 0.0123710 0.0635602 0.9876290 -0.0635602 0.9876290 -0.0635602 0.0123710 0.0635602
3460000000 0.0124648 0.0640076 0.9875352 -0.0640076 0.9875352 -0.0640076 0.0124648 0.0640076
3481000000 0.0125601 0.0644529 0.9874399 -0.0644529 0.9874399 -0.0644529 0.0125601 0.0644529
3502000000 0.0126570 0.0648963 0.9873430 -0.0648963 0.9873430 -0.0648963 0.0126570 0.0648963
3523000000 0.0127552 0.0653377 0.9872448 -0.0653377 0.9872448 -0.0653377 0.0127552 0.0653377
3544000000 0.0128548 0.0657773 0.9871452 -0.0657773 0.9871452 -0.0657773 0.0128548 0.0657773
3565000000 0.0129556 0.0662149 0.9870444 -0.0662149 0.9870444 -0.0662149 0.0129556 0.0662149
3586000000 0.0130577 0.0666508 0.9869423 -0.0666508 0.9869423 -0.0666508 0.0130577 0.0666508
3607000000 0.0131609 0.0670849 0.9868391 -0.0670849 0.9868391 -0.0670849 0.0131609 0.0670849
3628000000 0.0132652 0.0675173 0.9867348 -0.0675173 0.9867348 -0.0675173 0.0132652 0.0675173
3649000000 0.0133706 0.0679480 0.9866294 -0.0679480 0.9866294 -0.0679480 0.0133706 0.0679480
3670000000 0.0134769 0.0683771 0.9865231 -0.0683771 0.9865231 -0.0683771 0.0134769 0.0683771
3691000000 0.0135843 0.0688045 0.9864157 -0.0688045 0.9864157 -0.0688045 0.0135843 0.0688045
3712000000 0.0136925 0.0692304 0.9863075 -0.0692304 0.9863075 -0.0692304 0.0136925 0.0692304
3733000000 0.0138017 0.0696547 0.9861983 -0.0696547 0.9861983 -0.0696547 0.0138017 0.0696547
3754000000 0.0139116 0.0700775 0.9860884 -0.0700775 0.9860884 -0.0700775 0.0139116 0.0700775
3775000000 0.0140224 0.0704988 0.9859776 -0.0704988 0.9859776 -0.0704988 0.0140224 0.0704988
3796000000 0.0141340 0.0709187 0.9858660 -0.0709187 0.9858660 -0.0709187 0.0141340 0.0709187
3817000000 0.0142463 0.0713372 0.9857537 -0.0713372 0.9857537 -0.0713372 0.0142463 0.0713372
3838000000 0.0143594 0.0717542 0.9856406 -0.0717542 0.9856406 -0.0717542 0.0143594 0.0717542
3859000000 0.0144731 0.0721699 0.9855269 -0.0721699 0.9855269 -0.0721699 0.0144731 0.0721699
3880000000 0.0145875 0.0725842 0.9854125 -0.0725842 0.9854125 -0.0725842 0.0145875 0.0725842
3901000000 0.0147025 0.0729972 0.9852975 -0.0729972 0.9852975 -0.0729972 0.0147025 0.0729972
3922000000 0.0148182 0.0734089 0.9851818 -0.0734089 0.9851818 -0.0734089 0.0148182 0.0734089
3943000000 0.0149345 0.0738193 0.9850655 -0.0738193 0.9850655 -0.0738193 0.0149345 0.0738193
3964000000 0.0150513 0.0742285 0.9849487 -0.0742285 0.9849487 -0.0742285 0.0150513 0.0742285
3985000000 0.0151687 0.0746365 0.9848313 -0.0746365 0.9848313 -0.0746365 0.0151687 0.0746365
4006000000 0.0152866 0.0750432 0.9847134 -0.0750432 0.9847134 -0.0750432 0.0152866 0.0750432
4027000000 0.0154051 0.0754487 0.9845949 -0.0754487 0.9845949 -0.0754487 0.0154051 0.0754487
4048000000 0.0155241 0.0758531 0.9844759 -0.0758531 0.9844759 -0.0758531 0.0155241 0.0758531
4069000000 0.0156435 0.0762563 0.9843565 -0.0762563 0.9843565 -0.0762563 0.0156435 0.0762563
4090000000 0.0157634 0.0766584 0.9842366 -0.0766584 0.9842366 -0.0766584 0.0157634 0.0766584
4111000000 0.0158838 0.0770593 0.9841162 -0.0770593 0.9841162 -0.0770593 0.0158838 0.0770593
4132000000 0.0160047 0.0774592 0.9839953 -0.0774592 0.9839953 -0.0774592 0.0160047 0.0774592
4153000000 0.0161259 0.0778579 0.9838741 -0.0778579 0.9838741 -0.0778579 0.0161259 0.0778579
4174000000 0.0162476 0.0782556 0.9837524 -0.0782556 0.9837524 -0.0782556 0.0162476 0.0782556
4195000000 0.0163697 0.0786522 0.9836303 -0.0786522 0.9836303 -0.0786522 0.0163697 0.0786522
4216000000 0.0164922 0.0790478 0.9835078 -0.0790478 0.9835078 -0.0790478 0.0164922 0.0790478
4237000000 0.0166151 0.0794424 0.9833849 -0.0794424 0.9833849 -0.0794424 0.0166151 0.0794424
4258000000 0.0167383 0.0798360 0.9832617 -0.0798360 0.9832617 -0.0798360 0.0167383 0.0798360
4279000000 0.0168619 0.0802285 0.9831381 -0.0802285 0.9831381 -0.0802285 0.0168619 0.0802285
4300000000 0.0169859 0.0806201 0.9830141 -0.0806201 0.9830141 -0.0806201 0.0169859 0.0806201
4321000000 0.0171102 0.0810107 0.9828898 -0.0810107 0.9828898 -0.0810107 0.0171102 0.0810107
4342000000 0.0172348 0.0814003 0.9827652 -0.0814003 0.9827652 -0.0814003 0.0172348 0.0814003
4363000000 0.0173598 0.0817890 0.9826402 -0.0817890 0.9826402 -0.0817890 0.0173598 0.0817890
4384000000 0.0174850 0.0821768 0.9825150 -0.0821768 0.9825150 -0.0821768 0.0174850 0.0821768
4405000000 0.0176106 0.0825636 0.9823894 -0.0825636 0.9823894 -0.0825636 0.0176106 0.0825636
4426000000 0.0177365 0.0829495 0.9822635 -0.0829495 0.9822635 -0.0829495 0.0177365 0.0829495
4447000000 0.0178626 0.0833345 0.9821374 -0.0833345 0.9821374 -0.0833345 0.0178626 0.0833345
4468000000 0.0179891 0.0837186 0.9820109 -0.0837186 0.9820109 -0.0837186 0.0179891 0.0837186
4489000000 0.0181158 0.0841019 0.9818842 -0.0841019 0.9818842 -0.0841019 0.0181158 0.0841019
4510000000 0.0182428 0.0844842 0.9817572 -0.0844842 0.9817572 -0.0844842 0.0182428 0.0844842
