!Murata Part Number: GRM1552C1H6R5WA01
!These Parameters are Measured in Series Mode Connection
!Data Generated on Mar 30, 2021
!       o--ll--o
!Port1            Port2
!       o------o
!Operation Temp=25[degC], DC Bias Voltage=0[V]
!Freq. Start=100[MHz] Stop=9[GHz] 401[Steps]
# Hz S RI R 50
!Freq.(Hz) S11(Real) S11(Imag) S21(Real) S21(Imag) S12(Real) S12(Imag) S22(Real) S22(Imag)
100000000 0.8566315 -0.3500286 0.1433685 0.3500286 0.1433685 0.3500286 0.8566315 -0.3500286
121000000 0.8030908 -0.3971546 0.1969092 0.3971546 0.1969092 0.3971546 0.8030908 -0.3971546
142000000 0.7474220 -0.4338930 0.2525780 0.4338930 0.2525780 0.4338930 0.7474220 -0.4338930
163000000 0.6917266 -0.4610925 0.3082734 0.4610925 0.3082734 0.4610925 0.6917266 -0.4610925
184000000 0.6375752 -0.4799226 0.3624248 0.4799226 0.3624248 0.4799226 0.6375752 -0.4799226
205000000 0.5860383 -0.4916729 0.4139617 0.4916729 0.4139617 0.4916729 0.5860383 -0.4916729
226000000 0.5377654 -0.4976112 0.4622346 0.4976112 0.4622346 0.4976112 0.5377654 -0.4976112
247000000 0.4930790 -0.4988991 0.5069210 0.4988991 0.5069210 0.4988991 0.4930790 -0.4988991
268000000 0.4520657 -0.4965507 0.5479343 0.4965507 0.5479343 0.4965507 0.4520657 -0.4965507
289000000 0.4146516 -0.4914213 0.5853484 0.4914213 0.5853484 0.4914213 0.4146516 -0.4914213
310000000 0.3806627 -0.4842141 0.6193373 0.4842141 0.6193373 0.4842141 0.3806627 -0.4842141
331000000 0.3498679 -0.4754961 0.6501321 0.4754961 0.6501321 0.4754961 0.3498679 -0.4754961
352000000 0.3220096 -0.4657173 0.6779904 0.4657173 0.6779904 0.4657173 0.3220096 -0.4657173
373000000 0.2968244 -0.4552306 0.7031756 0.4552306 0.7031756 0.4552306 0.2968244 -0.4552306
394000000 0.2740552 -0.4443092 0.7259448 0.4443092 0.7259448 0.4443092 0.2740552 -0.4443092
415000000 0.2534595 -0.4331628 0.7465405 0.4331628 0.7465405 0.4331628 0.2534595 -0.4331628
436000000 0.2348129 -0.4219503 0.7651871 0.4219503 0.7651871 0.4219503 0.2348129 -0.4219503
457000000 0.2179108 -0.4107909 0.7820892 0.4107909 0.7820892 0.4107909 0.2179108 -0.4107909
478000000 0.2025685 -0.3997724 0.7974315 0.3997724 0.7974315 0.3997724 0.2025685 -0.3997724
499000000 0.1886206 -0.3889585 0.8113794 0.3889585 0.8113794 0.3889585 0.1886206 -0.3889585
520000000 0.1759193 -0.3783941 0.8240807 0.3783941 0.8240807 0.3783941 0.1759193 -0.3783941
541000000 0.1643336 -0.3681100 0.8356664 0.3681100 0.8356664 0.3681100 0.1643336 -0.3681100
562000000 0.1537469 -0.3581254 0.8462531 0.3581254 0.8462531 0.3581254 0.1537469 -0.3581254
583000000 0.1440561 -0.3484516 0.8559439 0.3484516 0.8559439 0.3484516 0.1440561 -0.3484516
604000000 0.1351697 -0.3390934 0.8648303 0.3390934 0.8648303 0.3390934 0.1351697 -0.3390934
625000000 0.1270067 -0.3300507 0.8729933 0.3300507 0.8729933 0.3300507 0.1270067 -0.3300507
646000000 0.1194954 -0.3213202 0.8805046 0.3213202 0.8805046 0.3213202 0.1194954 -0.3213202
667000000 0.1125719 -0.3128959 0.8874281 0.3128959 0.8874281 0.3128959 0.1125719 -0.3128959
688000000 0.1061799 -0.3047698 0.8938201 0.3047698 0.8938201 0.3047698 0.1061799 -0.3047698
709000000 0.1002689 -0.2969331 0.8997311 0.2969331 0.8997311 0.2969331 0.1002689 -0.2969331
730000000 0.0947941 -0.2893757 0.9052059 0.2893757 0.9052059 0.2893757 0.0947941 -0.2893757
751000000 0.0897157 -0.2820874 0.9102843 0.2820874 0.9102843 0.2820874 0.0897157 -0.2820874
772000000 0.0849980 -0.2750575 0.9150020 0.2750575 0.9150020 0.2750575 0.0849980 -0.2750575
793000000 0.0806091 -0.2682755 0.9193909 0.2682755 0.9193909 0.2682755 0.0806091 -0.2682755
814000000 0.0765203 -0.2617307 0.9234797 0.2617307 0.9234797 0.2617307 0.0765203 -0.2617307
835000000 0.0727061 -0.2554129 0.9272939 0.2554129 0.9272939 0.2554129 0.0727061 -0.2554129
856000000 0.0691434 -0.2493120 0.9308566 0.2493120 0.9308566 0.2493120 0.0691434 -0.2493120
877000000 0.0658114 -0.2434183 0.9341886 0.2434183 0.9341886 0.2434183 0.0658114 -0.2434183
898000000 0.0626914 -0.2377222 0.9373086 0.2377222 0.9373086 0.2377222 0.0626914 -0.2377222
919000000 0.0597665 -0.2322149 0.9402335 0.2322149 0.9402335 0.2322149 0.0597665 -0.2322149
940000000 0.0570214 -0.2268877 0.9429786 0.2268877 0.9429786 0.2268877 0.0570214 -0.2268877
961000000 0.0544423 -0.2217324 0.9455577 0.2217324 0.9455577 0.2217324 0.0544423 -0.2217324
982000000 0.0520165 -0.2167410 0.9479835 0.2167410 0.9479835 0.2167410 0.0520165 -0.2167410
1003000000 0.0497326 -0.2119062 0.9502674 0.2119062 0.9502674 0.2119062 0.0497326 -0.2119062
1024000000 0.0475802 -0.2072207 0.9524198 0.2072207 0.9524198 0.2072207 0.0475802 -0.2072207
1045000000 0.0455499 -0.2026779 0.9544501 0.2026779 0.9544501 0.2026779 0.0455499 -0.2026779
1066000000 0.0436329 -0.1982713 0.9563671 0.1982713 0.9563671 0.1982713 0.0436329 -0.1982713
1087000000 0.0418213 -0.1939948 0.9581787 0.1939948 0.9581787 0.1939948 0.0418213 -0.1939948
1108000000 0.0401080 -0.1898426 0.9598920 0.1898426 0.9598920 0.1898426 0.0401080 -0.1898426
1129000000 0.0384861 -0.1858094 0.9615139 0.1858094 0.9615139 0.1858094 0.0384861 -0.1858094
1150000000 0.0369497 -0.1818897 0.9630503 0.1818897 0.9630503 0.1818897 0.0369497 -0.1818897
1171000000 0.0354931 -0.1780789 0.9645069 0.1780789 0.9645069 0.1780789 0.0354931 -0.1780789
1192000000 0.0341111 -0.1743721 0.9658889 0.1743721 0.9658889 0.1743721 0.0341111 -0.1743721
1213000000 0.0327991 -0.1707649 0.9672009 0.1707649 0.9672009 0.1707649 0.0327991 -0.1707649
1234000000 0.0315525 -0.1672532 0.9684475 0.1672532 0.9684475 0.1672532 0.0315525 -0.1672532
1255000000 0.0303675 -0.1638329 0.9696325 0.1638329 0.9696325 0.1638329 0.0303675 -0.1638329
1276000000 0.0292401 -0.1605003 0.9707599 0.1605003 0.9707599 0.1605003 0.0292401 -0.1605003
1297000000 0.0281670 -0.1572518 0.9718330 0.1572518 0.9718330 0.1572518 0.0281670 -0.1572518
1318000000 0.0271449 -0.1540839 0.9728551 0.1540839 0.9728551 0.1540839 0.0271449 -0.1540839
1339000000 0.0261709 -0.1509935 0.9738291 0.1509935 0.9738291 0.1509935 0.0261709 -0.1509935
1360000000 0.0252421 -0.1479773 0.9747579 0.1479773 0.9747579 0.1479773 0.0252421 -0.1479773
1381000000 0.0243561 -0.1450326 0.9756439 0.1450326 0.9756439 0.1450326 0.0243561 -0.1450326
1402000000 0.0235104 -0.1421566 0.9764896 0.1421566 0.9764896 0.1421566 0.0235104 -0.1421566
1423000000 0.0227027 -0.1393465 0.9772973 0.1393465 0.9772973 0.1393465 0.0227027 -0.1393465
1444000000 0.0219311 -0.1365998 0.9780689 0.1365998 0.9780689 0.1365998 0.0219311 -0.1365998
1465000000 0.0211936 -0.1339143 0.9788064 0.1339143 0.9788064 0.1339143 0.0211936 -0.1339143
1486000000 0.0204883 -0.1312875 0.9795117 0.1312875 0.9795117 0.1312875 0.0204883 -0.1312875
1507000000 0.0198136 -0.1287173 0.9801864 0.1287173 0.9801864 0.1287173 0.0198136 -0.1287173
1528000000 0.0191679 -0.1262016 0.9808321 0.1262016 0.9808321 0.1262016 0.0191679 -0.1262016
1549000000 0.0185496 -0.1237385 0.9814504 0.1237385 0.9814504 0.1237385 0.0185496 -0.1237385
1570000000 0.0179575 -0.1213261 0.9820425 0.1213261 0.9820425 0.1213261 0.0179575 -0.1213261
1591000000 0.0173902 -0.1189624 0.9826098 0.1189624 0.9826098 0.1189624 0.0173902 -0.1189624
1612000000 0.0168465 -0.1166460 0.9831535 0.1166460 0.9831535 0.1166460 0.0168465 -0.1166460
1633000000 0.0163253 -0.1143750 0.9836747 0.1143750 0.9836747 0.1143750 0.0163253 -0.1143750
1654000000 0.0158254 -0.1121479 0.9841746 0.1121479 0.9841746 0.1121479 0.0158254 -0.1121479
1675000000 0.0153458 -0.1099632 0.9846542 0.1099632 0.9846542 0.1099632 0.0153458 -0.1099632
1696000000 0.0148857 -0.1078195 0.9851143 0.1078195 0.9851143 0.1078195 0.0148857 -0.1078195
1717000000 0.0144440 -0.1057154 0.9855560 0.1057154 0.9855560 0.1057154 0.0144440 -0.1057154
1738000000 0.0140200 -0.1036496 0.9859800 0.1036496 0.9859800 0.1036496 0.0140200 -0.1036496
1759000000 0.0136128 -0.1016208 0.9863872 0.1016208 0.9863872 0.1016208 0.0136128 -0.1016208
1780000000 0.0132218 -0.0996279 0.9867782 0.0996279 0.9867782 0.0996279 0.0132218 -0.0996279
1801000000 0.0128461 -0.0976695 0.9871539 0.0976695 0.9871539 0.0976695 0.0128461 -0.0976695
1822000000 0.0124851 -0.0957448 0.9875149 0.0957448 0.9875149 0.0957448 0.0124851 -0.0957448
1843000000 0.0121382 -0.0938525 0.9878618 0.0938525 0.9878618 0.0938525 0.0121382 -0.0938525
1864000000 0.0118047 -0.0919917 0.9881953 0.0919917 0.9881953 0.0919917 0.0118047 -0.0919917
1885000000 0.0114842 -0.0901613 0.9885158 0.0901613 0.9885158 0.0901613 0.0114842 -0.0901613
1906000000 0.0111760 -0.0883605 0.9888240 0.0883605 0.9888240 0.0883605 0.0111760 -0.0883605
1927000000 0.0108796 -0.0865883 0.9891204 0.0865883 0.9891204 0.0865883 0.0108796 -0.0865883
1948000000 0.0105946 -0.0848439 0.9894054 0.0848439 0.9894054 0.0848439 0.0105946 -0.0848439
1969000000 0.0103205 -0.0831265 0.9896795 0.0831265 0.9896795 0.0831265 0.0103205 -0.0831265
1990000000 0.0100569 -0.0814351 0.9899431 0.0814351 0.9899431 0.0814351 0.0100569 -0.0814351
2011000000 0.0098033 -0.0797691 0.9901967 0.0797691 0.9901967 0.0797691 0.0098033 -0.0797691
2032000000 0.0095594 -0.0781277 0.9904406 0.0781277 0.9904406 0.0781277 0.0095594 -0.0781277
2053000000 0.0093248 -0.0765102 0.9906752 0.0765102 0.9906752 0.0765102 0.0093248 -0.0765102
2074000000 0.0090991 -0.0749159 0.9909009 0.0749159 0.9909009 0.0749159 0.0090991 -0.0749159
2095000000 0.0088819 -0.0733442 0.9911181 0.0733442 0.9911181 0.0733442 0.0088819 -0.0733442
2116000000 0.0086731 -0.0717943 0.9913269 0.0717943 0.9913269 0.0717943 0.0086731 -0.0717943
2137000000 0.0084722 -0.0702658 0.9915278 0.0702658 0.9915278 0.0702658 0.0084722 -0.0702658
2158000000 0.0082789 -0.0687579 0.9917211 0.0687579 0.9917211 0.0687579 0.0082789 -0.0687579
2179000000 0.0080930 -0.0672701 0.9919070 0.0672701 0.9919070 0.0672701 0.0080930 -0.0672701
2200000000 0.0079143 -0.0658019 0.9920857 0.0658019 0.9920857 0.0658019 0.0079143 -0.0658019
2221000000 0.0077424 -0.0643527 0.9922576 0.0643527 0.9922576 0.0643527 0.0077424 -0.0643527
2242000000 0.0075772 -0.0629221 0.9924228 0.0629221 0.9924228 0.0629221 0.0075772 -0.0629221
2263000000 0.0074183 -0.0615094 0.9925817 0.0615094 0.9925817 0.0615094 0.0074183 -0.0615094
2284000000 0.0072656 -0.0601143 0.9927344 0.0601143 0.9927344 0.0601143 0.0072656 -0.0601143
2305000000 0.0071189 -0.0587362 0.9928811 0.0587362 0.9928811 0.0587362 0.0071189 -0.0587362
2326000000 0.0069780 -0.0573748 0.9930220 0.0573748 0.9930220 0.0573748 0.0069780 -0.0573748
2347000000 0.0068426 -0.0560295 0.9931574 0.0560295 0.9931574 0.0560295 0.0068426 -0.0560295
2368000000 0.0067125 -0.0547000 0.9932875 0.0547000 0.9932875 0.0547000 0.0067125 -0.0547000
2389000000 0.0065877 -0.0533858 0.9934123 0.0533858 0.9934123 0.0533858 0.0065877 -0.0533858
2410000000 0.0064680 -0.0520866 0.9935320 0.0520866 0.9935320 0.0520866 0.0064680 -0.0520866
2431000000 0.0063531 -0.0508020 0.9936469 0.0508020 0.9936469 0.0508020 0.0063531 -0.0508020
2452000000 0.0062429 -0.0495316 0.9937571 0.0495316 0.9937571 0.0495316 0.0062429 -0.0495316
2473000000 0.0061374 -0.0482750 0.9938626 0.0482750 0.9938626 0.0482750 0.0061374 -0.0482750
2494000000 0.0060362 -0.0470319 0.9939638 0.0470319 0.9939638 0.0470319 0.0060362 -0.0470319
2515000000 0.0059394 -0.0458020 0.9940606 0.0458020 0.9940606 0.0458020 0.0059394 -0.0458020
2536000000 0.0058467 -0.0445850 0.9941533 0.0445850 0.9941533 0.0445850 0.0058467 -0.0445850
2557000000 0.0057581 -0.0433805 0.9942419 0.0433805 0.9942419 0.0433805 0.0057581 -0.0433805
2578000000 0.0056733 -0.0421882 0.9943267 0.0421882 0.9943267 0.0421882 0.0056733 -0.0421882
2599000000 0.0055924 -0.0410078 0.9944076 0.0410078 0.9944076 0.0410078 0.0055924 -0.0410078
2620000000 0.0055153 -0.0398390 0.9944847 0.0398390 0.9944847 0.0398390 0.0055153 -0.0398390
2641000000 0.0054417 -0.0386817 0.9945583 0.0386817 0.9945583 0.0386817 0.0054417 -0.0386817
2662000000 0.0053715 -0.0375354 0.9946285 0.0375354 0.9946285 0.0375354 0.0053715 -0.0375354
2683000000 0.0053048 -0.0363999 0.9946952 0.0363999 0.9946952 0.0363999 0.0053048 -0.0363999
2704000000 0.0052414 -0.0352750 0.9947586 0.0352750 0.9947586 0.0352750 0.0052414 -0.0352750
2725000000 0.0051812 -0.0341604 0.9948188 0.0341604 0.9948188 0.0341604 0.0051812 -0.0341604
2746000000 0.0051242 -0.0330559 0.9948758 0.0330559 0.9948758 0.0330559 0.0051242 -0.0330559
2767000000 0.0050701 -0.0319613 0.9949299 0.0319613 0.9949299 0.0319613 0.0050701 -0.0319613
2788000000 0.0050191 -0.0308762 0.9949809 0.0308762 0.9949809 0.0308762 0.0050191 -0.0308762
2809000000 0.0049709 -0.0298006 0.9950291 0.0298006 0.9950291 0.0298006 0.0049709 -0.0298006
2830000000 0.0049255 -0.0287341 0.9950745 0.0287341 0.9950745 0.0287341 0.0049255 -0.0287341
2851000000 0.0048829 -0.0276766 0.9951171 0.0276766 0.9951171 0.0276766 0.0048829 -0.0276766
2872000000 0.0048430 -0.0266279 0.9951570 0.0266279 0.9951570 0.0266279 0.0048430 -0.0266279
2893000000 0.0048057 -0.0255877 0.9951943 0.0255877 0.9951943 0.0255877 0.0048057 -0.0255877
2914000000 0.0047709 -0.0245559 0.9952291 0.0245559 0.9952291 0.0245559 0.0047709 -0.0245559
2935000000 0.0047386 -0.0235323 0.9952614 0.0235323 0.9952614 0.0235323 0.0047386 -0.0235323
2956000000 0.0047087 -0.0225166 0.9952913 0.0225166 0.9952913 0.0225166 0.0047087 -0.0225166
2977000000 0.0046812 -0.0215088 0.9953188 0.0215088 0.9953188 0.0215088 0.0046812 -0.0215088
2998000000 0.0046560 -0.0205087 0.9953440 0.0205087 0.9953440 0.0205087 0.0046560 -0.0205087
3019000000 0.0046331 -0.0195160 0.9953669 0.0195160 0.9953669 0.0195160 0.0046331 -0.0195160
3040000000 0.0046124 -0.0185306 0.9953876 0.0185306 0.9953876 0.0185306 0.0046124 -0.0185306
3061000000 0.0045939 -0.0175524 0.9954061 0.0175524 0.9954061 0.0175524 0.0045939 -0.0175524
3082000000 0.0045775 -0.0165812 0.9954225 0.0165812 0.9954225 0.0165812 0.0045775 -0.0165812
3103000000 0.0045632 -0.0156168 0.9954368 0.0156168 0.9954368 0.0156168 0.0045632 -0.0156168
3124000000 0.0045509 -0.0146591 0.9954491 0.0146591 0.9954491 0.0146591 0.0045509 -0.0146591
3145000000 0.0045406 -0.0137080 0.9954594 0.0137080 0.9954594 0.0137080 0.0045406 -0.0137080
3166000000 0.0045323 -0.0127632 0.9954677 0.0127632 0.9954677 0.0127632 0.0045323 -0.0127632
3187000000 0.0045259 -0.0118247 0.9954741 0.0118247 0.9954741 0.0118247 0.0045259 -0.0118247
3208000000 0.0045213 -0.0108924 0.9954787 0.0108924 0.9954787 0.0108924 0.0045213 -0.0108924
3229000000 0.0045187 -0.0099660 0.9954813 0.0099660 0.9954813 0.0099660 0.0045187 -0.0099660
3250000000 0.0045178 -0.0090455 0.9954822 0.0090455 0.9954822 0.0090455 0.0045178 -0.0090455
3271000000 0.0045187 -0.0081307 0.9954813 0.0081307 0.9954813 0.0081307 0.0045187 -0.0081307
3292000000 0.0045213 -0.0072216 0.9954787 0.0072216 0.9954787 0.0072216 0.0045213 -0.0072216
3313000000 0.0045257 -0.0063179 0.9954743 0.0063179 0.9954743 0.0063179 0.0045257 -0.0063179
3334000000 0.0045317 -0.0054196 0.9954683 0.0054196 0.9954683 0.0054196 0.0045317 -0.0054196
3355000000 0.0045395 -0.0045266 0.9954605 0.0045266 0.9954605 0.0045266 0.0045395 -0.0045266
3376000000 0.0045488 -0.0036387 0.9954512 0.0036387 0.9954512 0.0036387 0.0045488 -0.0036387
3397000000 0.0045598 -0.0027558 0.9954402 0.0027558 0.9954402 0.0027558 0.0045598 -0.0027558
3418000000 0.0045723 -0.0018778 0.9954277 0.0018778 0.9954277 0.0018778 0.0045723 -0.0018778
3439000000 0.0045864 -0.0010047 0.9954136 0.0010047 0.9954136 0.0010047 0.0045864 -0.0010047
3460000000 0.0046021 -0.0001363 0.9953979 0.0001363 0.9953979 0.0001363 0.0046021 -0.0001363
3481000000 0.0046192 0.0007275 0.9953808 -0.0007275 0.9953808 -0.0007275 0.0046192 0.0007275
3502000000 0.0046379 0.0015868 0.9953621 -0.0015868 0.9953621 -0.0015868 0.0046379 0.0015868
3523000000 0.0046580 0.0024417 0.9953420 -0.0024417 0.9953420 -0.0024417 0.0046580 0.0024417
3544000000 0.0046796 0.0032922 0.9953204 -0.0032922 0.9953204 -0.0032922 0.0046796 0.0032922
3565000000 0.0047026 0.0041386 0.9952974 -0.0041386 0.9952974 -0.0041386 0.0047026 0.0041386
3586000000 0.0047271 0.0049808 0.9952729 -0.0049808 0.9952729 -0.0049808 0.0047271 0.0049808
3607000000 0.0047530 0.0058189 0.9952470 -0.0058189 0.9952470 -0.0058189 0.0047530 0.0058189
3628000000 0.0047802 0.0066531 0.9952198 -0.0066531 0.9952198 -0.0066531 0.0047802 0.0066531
3649000000 0.0048088 0.0074835 0.9951912 -0.0074835 0.9951912 -0.0074835 0.0048088 0.0074835
3670000000 0.0048388 0.0083100 0.9951612 -0.0083100 0.9951612 -0.0083100 0.0048388 0.0083100
3691000000 0.0048702 0.0091329 0.9951298 -0.0091329 0.9951298 -0.0091329 0.0048702 0.0091329
3712000000 0.0049028 0.0099521 0.9950972 -0.0099521 0.9950972 -0.0099521 0.0049028 0.0099521
3733000000 0.0049368 0.0107679 0.9950632 -0.0107679 0.9950632 -0.0107679 0.0049368 0.0107679
3754000000 0.0049721 0.0115801 0.9950279 -0.0115801 0.9950279 -0.0115801 0.0049721 0.0115801
3775000000 0.0050087 0.0123890 0.9949913 -0.0123890 0.9949913 -0.0123890 0.0050087 0.0123890
3796000000 0.0050466 0.0131946 0.9949534 -0.0131946 0.9949534 -0.0131946 0.0050466 0.0131946
3817000000 0.0050858 0.0139970 0.9949142 -0.0139970 0.9949142 -0.0139970 0.0050858 0.0139970
3838000000 0.0051263 0.0147962 0.9948737 -0.0147962 0.9948737 -0.0147962 0.0051263 0.0147962
3859000000 0.0051680 0.0155923 0.9948320 -0.0155923 0.9948320 -0.0155923 0.0051680 0.0155923
3880000000 0.0052110 0.0163854 0.9947890 -0.0163854 0.9947890 -0.0163854 0.0052110 0.0163854
3901000000 0.0052552 0.0171756 0.9947448 -0.0171756 0.9947448 -0.0171756 0.0052552 0.0171756
3922000000 0.0053007 0.0179629 0.9946993 -0.0179629 0.9946993 -0.0179629 0.0053007 0.0179629
3943000000 0.0053474 0.0187475 0.9946526 -0.0187475 0.9946526 -0.0187475 0.0053474 0.0187475
3964000000 0.0053953 0.0195293 0.9946047 -0.0195293 0.9946047 -0.0195293 0.0053953 0.0195293
3985000000 0.0054445 0.0203084 0.9945555 -0.0203084 0.9945555 -0.0203084 0.0054445 0.0203084
4006000000 0.0054949 0.0210849 0.9945051 -0.0210849 0.9945051 -0.0210849 0.0054949 0.0210849
4027000000 0.0055466 0.0218589 0.9944534 -0.0218589 0.9944534 -0.0218589 0.0055466 0.0218589
4048000000 0.0055994 0.0226304 0.9944006 -0.0226304 0.9944006 -0.0226304 0.0055994 0.0226304
4069000000 0.0056535 0.0233996 0.9943465 -0.0233996 0.9943465 -0.0233996 0.0056535 0.0233996
4090000000 0.0057088 0.0241663 0.9942912 -0.0241663 0.9942912 -0.0241663 0.0057088 0.0241663
4111000000 0.0057653 0.0249308 0.9942347 -0.0249308 0.9942347 -0.0249308 0.0057653 0.0249308
4132000000 0.0058230 0.0256931 0.9941770 -0.0256931 0.9941770 -0.0256931 0.0058230 0.0256931
4153000000 0.0058819 0.0264532 0.9941181 -0.0264532 0.9941181 -0.0264532 0.0058819 0.0264532
4174000000 0.0059421 0.0272112 0.9940579 -0.0272112 0.9940579 -0.0272112 0.0059421 0.0272112
4195000000 0.0060035 0.0279671 0.9939965 -0.0279671 0.9939965 -0.0279671 0.0060035 0.0279671
4216000000 0.0060661 0.0287211 0.9939339 -0.0287211 0.9939339 -0.0287211 0.0060661 0.0287211
4237000000 0.0061299 0.0294731 0.9938701 -0.0294731 0.9938701 -0.0294731 0.0061299 0.0294731
4258000000 0.0061949 0.0302232 0.9938051 -0.0302232 0.9938051 -0.0302232 0.0061949 0.0302232
4279000000 0.0062612 0.0309715 0.9937388 -0.0309715 0.9937388 -0.0309715 0.0062612 0.0309715
4300000000 0.0063287 0.0317181 0.9936713 -0.0317181 0.9936713 -0.0317181 0.0063287 0.0317181
4321000000 0.0063975 0.0324629 0.9936025 -0.0324629 0.9936025 -0.0324629 0.0063975 0.0324629
4342000000 0.0064675 0.0332061 0.9935325 -0.0332061 0.9935325 -0.0332061 0.0064675 0.0332061
4363000000 0.0065387 0.0339476 0.9934613 -0.0339476 0.9934613 -0.0339476 0.0065387 0.0339476
4384000000 0.0066112 0.0346876 0.9933888 -0.0346876 0.9933888 -0.0346876 0.0066112 0.0346876
4405000000 0.0066850 0.0354261 0.9933150 -0.0354261 0.9933150 -0.0354261 0.0066850 0.0354261
4426000000 0.0067600 0.0361632 0.9932400 -0.0361632 0.9932400 -0.0361632 0.0067600 0.0361632
4447000000 0.0068364 0.0368988 0.9931636 -0.0368988 0.9931636 -0.0368988 0.0068364 0.0368988
4468000000 0.0069140 0.0376331 0.9930860 -0.0376331 0.9930860 -0.0376331 0.0069140 0.0376331
4489000000 0.0069929 0.0383661 0.9930071 -0.0383661 0.9930071 -0.0383661 0.0069929 0.0383661
4510000000 0.0070732 0.0390979 0.9929268 -0.0390979 0.9929268 -0.0390979 0.0070732 0.0390979
