!Murata Part Number: GRM1555C1H272GE01
!These Parameters are Measured in Series Mode Connection
!Data Generated on Mar 30, 2021
!       o--ll--o
!Port1            Port2
!       o------o
!Operation Temp=25[degC], DC Bias Voltage=0[V]
!Freq. Start=1000[kHz] Stop=6[GHz] 401[Steps]
# Hz S RI R 50
!Freq.(Hz) S11(Real) S11(Imag) S21(Real) S21(Imag) S12(Real) S12(Imag) S22(Real) S22(Imag)
1000000 0.2698365 -0.4438458 0.7301635 0.4438458 0.7301635 0.4438458 0.2698365 -0.4438458
1021987 0.2613524 -0.4393418 0.7386476 0.4393418 0.7386476 0.4393418 0.2613524 -0.4393418
1044457 0.2530427 -0.4347247 0.7469573 0.4347247 0.7469573 0.4347247 0.2530427 -0.4347247
1067422 0.2449096 -0.4300022 0.7550904 0.4300022 0.7550904 0.4300022 0.2449096 -0.4300022
1090891 0.2369550 -0.4251822 0.7630450 0.4251822 0.7630450 0.4251822 0.2369550 -0.4251822
1114877 0.2291803 -0.4202723 0.7708197 0.4202723 0.7708197 0.4202723 0.2291803 -0.4202723
1139390 0.2215867 -0.4152802 0.7784133 0.4152802 0.7784133 0.4152802 0.2215867 -0.4152802
1164441 0.2141748 -0.4102135 0.7858252 0.4102135 0.7858252 0.4102135 0.2141748 -0.4102135
1190044 0.2069448 -0.4050795 0.7930552 0.4050795 0.7930552 0.4050795 0.2069448 -0.4050795
1216210 0.1998969 -0.3998855 0.8001031 0.3998855 0.8001031 0.3998855 0.1998969 -0.3998855
1242950 0.1930306 -0.3946386 0.8069694 0.3946386 0.8069694 0.3946386 0.1930306 -0.3946386
1270279 0.1863452 -0.3893456 0.8136548 0.3893456 0.8136548 0.3893456 0.1863452 -0.3893456
1298209 0.1798398 -0.3840134 0.8201602 0.3840134 0.8201602 0.3840134 0.1798398 -0.3840134
1326753 0.1735131 -0.3786485 0.8264869 0.3786485 0.8264869 0.3786485 0.1735131 -0.3786485
1355924 0.1673636 -0.3732571 0.8326364 0.3732571 0.8326364 0.3732571 0.1673636 -0.3732571
1385737 0.1613894 -0.3678455 0.8386106 0.3678455 0.8386106 0.3678455 0.1613894 -0.3678455
1416205 0.1555887 -0.3624193 0.8444113 0.3624193 0.8444113 0.3624193 0.1555887 -0.3624193
1447343 0.1499592 -0.3569844 0.8500408 0.3569844 0.8500408 0.3569844 0.1499592 -0.3569844
1479166 0.1444986 -0.3515461 0.8555014 0.3515461 0.8555014 0.3515461 0.1444986 -0.3515461
1511688 0.1392043 -0.3461096 0.8607957 0.3461096 0.8607957 0.3461096 0.1392043 -0.3461096
1544926 0.1340736 -0.3406799 0.8659264 0.3406799 0.8659264 0.3406799 0.1340736 -0.3406799
1578894 0.1291037 -0.3352615 0.8708963 0.3352615 0.8708963 0.3352615 0.1291037 -0.3352615
1613609 0.1242915 -0.3298591 0.8757085 0.3298591 0.8757085 0.3298591 0.1242915 -0.3298591
1649087 0.1196342 -0.3244768 0.8803658 0.3244768 0.8803658 0.3244768 0.1196342 -0.3244768
1685346 0.1151284 -0.3191186 0.8848716 0.3191186 0.8848716 0.3191186 0.1151284 -0.3191186
1722402 0.1107711 -0.3137884 0.8892289 0.3137884 0.8892289 0.3137884 0.1107711 -0.3137884
1760272 0.1065588 -0.3084895 0.8934412 0.3084895 0.8934412 0.3084895 0.1065588 -0.3084895
1798975 0.1024883 -0.3032254 0.8975117 0.3032254 0.8975117 0.3032254 0.1024883 -0.3032254
1838529 0.0985562 -0.2979992 0.9014438 0.2979992 0.9014438 0.2979992 0.0985562 -0.2979992
1878953 0.0947590 -0.2928137 0.9052410 0.2928137 0.9052410 0.2928137 0.0947590 -0.2928137
1920266 0.0910934 -0.2876717 0.9089066 0.2876717 0.9089066 0.2876717 0.0910934 -0.2876717
1962487 0.0875560 -0.2825756 0.9124440 0.2825756 0.9124440 0.2825756 0.0875560 -0.2825756
2005636 0.0841432 -0.2775277 0.9158568 0.2775277 0.9158568 0.2775277 0.0841432 -0.2775277
2049734 0.0808518 -0.2725301 0.9191482 0.2725301 0.9191482 0.2725301 0.0808518 -0.2725301
2094801 0.0776782 -0.2675848 0.9223218 0.2675848 0.9223218 0.2675848 0.0776782 -0.2675848
2140860 0.0746192 -0.2626935 0.9253808 0.2626935 0.9253808 0.2626935 0.0746192 -0.2626935
2187931 0.0716713 -0.2578578 0.9283287 0.2578578 0.9283287 0.2578578 0.0716713 -0.2578578
2236037 0.0688312 -0.2530792 0.9311688 0.2530792 0.9311688 0.2530792 0.0688312 -0.2530792
2285201 0.0660958 -0.2483588 0.9339042 0.2483588 0.9339042 0.2483588 0.0660958 -0.2483588
2335446 0.0634617 -0.2436980 0.9365383 0.2436980 0.9365383 0.2436980 0.0634617 -0.2436980
2386795 0.0609258 -0.2390976 0.9390742 0.2390976 0.9390742 0.2390976 0.0609258 -0.2390976
2439274 0.0584850 -0.2345585 0.9415150 0.2345585 0.9415150 0.2345585 0.0584850 -0.2345585
2492906 0.0561362 -0.2300815 0.9438638 0.2300815 0.9438638 0.2300815 0.0561362 -0.2300815
2547717 0.0538764 -0.2256673 0.9461236 0.2256673 0.9461236 0.2256673 0.0538764 -0.2256673
2603734 0.0517027 -0.2213162 0.9482973 0.2213162 0.9482973 0.2213162 0.0517027 -0.2213162
2660982 0.0496121 -0.2170288 0.9503879 0.2170288 0.9503879 0.2170288 0.0496121 -0.2170288
2719490 0.0476019 -0.2128053 0.9523981 0.2128053 0.9523981 0.2128053 0.0476019 -0.2128053
2779283 0.0456693 -0.2086460 0.9543307 0.2086460 0.9543307 0.2086460 0.0456693 -0.2086460
2840391 0.0438116 -0.2045510 0.9561884 0.2045510 0.9561884 0.2045510 0.0438116 -0.2045510
2902843 0.0420263 -0.2005203 0.9579737 0.2005203 0.9579737 0.2005203 0.0420263 -0.2005203
2966668 0.0403107 -0.1965539 0.9596893 0.1965539 0.9596893 0.1965539 0.0403107 -0.1965539
3031896 0.0386624 -0.1926518 0.9613376 0.1926518 0.9613376 0.1926518 0.0386624 -0.1926518
3098558 0.0370790 -0.1888137 0.9629210 0.1888137 0.9629210 0.1888137 0.0370790 -0.1888137
3166686 0.0355582 -0.1850394 0.9644418 0.1850394 0.9644418 0.1850394 0.0355582 -0.1850394
3236312 0.0340975 -0.1813287 0.9659025 0.1813287 0.9659025 0.1813287 0.0340975 -0.1813287
3307469 0.0326950 -0.1776812 0.9673050 0.1776812 0.9673050 0.1776812 0.0326950 -0.1776812
3380190 0.0313483 -0.1740964 0.9686517 0.1740964 0.9686517 0.1740964 0.0313483 -0.1740964
3454511 0.0300555 -0.1705741 0.9699445 0.1705741 0.9699445 0.1705741 0.0300555 -0.1705741
3530465 0.0288145 -0.1671136 0.9711855 0.1671136 0.9711855 0.1671136 0.0288145 -0.1671136
3608090 0.0276234 -0.1637145 0.9723766 0.1637145 0.9723766 0.1637145 0.0276234 -0.1637145
3687421 0.0264803 -0.1603762 0.9735197 0.1603762 0.9735197 0.1603762 0.0264803 -0.1603762
3768496 0.0253833 -0.1570982 0.9746167 0.1570982 0.9746167 0.1570982 0.0253833 -0.1570982
3851354 0.0243307 -0.1538798 0.9756693 0.1538798 0.9756693 0.1538798 0.0243307 -0.1538798
3936034 0.0233209 -0.1507204 0.9766791 0.1507204 0.9766791 0.1507204 0.0233209 -0.1507204
4022575 0.0223521 -0.1476193 0.9776479 0.1476193 0.9776479 0.1476193 0.0223521 -0.1476193
4111020 0.0214227 -0.1445759 0.9785773 0.1445759 0.9785773 0.1445759 0.0214227 -0.1445759
4201409 0.0205313 -0.1415894 0.9794687 0.1415894 0.9794687 0.1415894 0.0205313 -0.1415894
4293785 0.0196764 -0.1386591 0.9803236 0.1386591 0.9803236 0.1386591 0.0196764 -0.1386591
4388193 0.0188564 -0.1357844 0.9811436 0.1357844 0.9811436 0.1357844 0.0188564 -0.1357844
4484676 0.0180701 -0.1329643 0.9819299 0.1329643 0.9819299 0.1329643 0.0180701 -0.1329643
4583281 0.0173161 -0.1301983 0.9826839 0.1301983 0.9826839 0.1301983 0.0173161 -0.1301983
4684054 0.0165932 -0.1274855 0.9834068 0.1274855 0.9834068 0.1274855 0.0165932 -0.1274855
4787042 0.0159000 -0.1248252 0.9841000 0.1248252 0.9841000 0.1248252 0.0159000 -0.1248252
4892295 0.0152355 -0.1222166 0.9847645 0.1222166 0.9847645 0.1222166 0.0152355 -0.1222166
4999862 0.0145985 -0.1196588 0.9854015 0.1196588 0.9854015 0.1196588 0.0145985 -0.1196588
5109794 0.0139878 -0.1171512 0.9860122 0.1171512 0.9860122 0.1171512 0.0139878 -0.1171512
5222143 0.0134024 -0.1146929 0.9865976 0.1146929 0.9865976 0.1146929 0.0134024 -0.1146929
5336962 0.0128414 -0.1122832 0.9871586 0.1122832 0.9871586 0.1122832 0.0128414 -0.1122832
5454306 0.0123036 -0.1099212 0.9876964 0.1099212 0.9876964 0.1099212 0.0123036 -0.1099212
5574230 0.0117882 -0.1076061 0.9882118 0.1076061 0.9882118 0.1076061 0.0117882 -0.1076061
5696791 0.0112943 -0.1053373 0.9887057 0.1053373 0.9887057 0.1053373 0.0112943 -0.1053373
5822046 0.0108210 -0.1031138 0.9891790 0.1031138 0.9891790 0.1031138 0.0108210 -0.1031138
5950055 0.0103674 -0.1009350 0.9896326 0.1009350 0.9896326 0.1009350 0.0103674 -0.1009350
6080879 0.0099328 -0.0988001 0.9900672 0.0988001 0.9900672 0.0988001 0.0099328 -0.0988001
6214580 0.0095163 -0.0967082 0.9904837 0.0967082 0.9904837 0.0967082 0.0095163 -0.0967082
6351220 0.0091173 -0.0946587 0.9908827 0.0946587 0.9908827 0.0946587 0.0091173 -0.0946587
6490864 0.0087350 -0.0926507 0.9912650 0.0926507 0.9912650 0.0926507 0.0087350 -0.0926507
6633579 0.0083687 -0.0906835 0.9916313 0.0906835 0.9916313 0.0906835 0.0083687 -0.0906835
6779431 0.0080178 -0.0887565 0.9919822 0.0887565 0.9919822 0.0887565 0.0080178 -0.0887565
6928491 0.0076816 -0.0868687 0.9923184 0.0868687 0.9923184 0.0868687 0.0076816 -0.0868687
7080828 0.0073596 -0.0850196 0.9926404 0.0850196 0.9926404 0.0850196 0.0073596 -0.0850196
7236514 0.0070511 -0.0832084 0.9929489 0.0832084 0.9929489 0.0832084 0.0070511 -0.0832084
7395623 0.0067556 -0.0814343 0.9932444 0.0814343 0.9932444 0.0814343 0.0067556 -0.0814343
7558231 0.0064725 -0.0796968 0.9935275 0.0796968 0.9935275 0.0796968 0.0064725 -0.0796968
7724414 0.0062014 -0.0779950 0.9937986 0.0779950 0.9937986 0.0779950 0.0062014 -0.0779950
7894251 0.0059417 -0.0763284 0.9940583 0.0763284 0.9940583 0.0763284 0.0059417 -0.0763284
8067822 0.0056930 -0.0746961 0.9943070 0.0746961 0.9943070 0.0746961 0.0056930 -0.0746961
8245209 0.0054548 -0.0730977 0.9945452 0.0730977 0.9945452 0.0730977 0.0054548 -0.0730977
8426497 0.0052267 -0.0715323 0.9947733 0.0715323 0.9947733 0.0715323 0.0052267 -0.0715323
8611770 0.0050082 -0.0699994 0.9949918 0.0699994 0.9949918 0.0699994 0.0050082 -0.0699994
8801117 0.0047990 -0.0684984 0.9952010 0.0684984 0.9952010 0.0684984 0.0047990 -0.0684984
8994628 0.0045986 -0.0670285 0.9954014 0.0670285 0.9954014 0.0670285 0.0045986 -0.0670285
9192393 0.0044068 -0.0655892 0.9955932 0.0655892 0.9955932 0.0655892 0.0044068 -0.0655892
9394506 0.0042230 -0.0641799 0.9957770 0.0641799 0.9957770 0.0641799 0.0042230 -0.0641799
9601063 0.0040471 -0.0627999 0.9959529 0.0627999 0.9959529 0.0627999 0.0040471 -0.0627999
9812162 0.0038786 -0.0614488 0.9961214 0.0614488 0.9961214 0.0614488 0.0038786 -0.0614488
10027902 0.0037173 -0.0601258 0.9962827 0.0601258 0.9962827 0.0601258 0.0037173 -0.0601258
10248386 0.0035629 -0.0588305 0.9964371 0.0588305 0.9964371 0.0588305 0.0035629 -0.0588305
10473717 0.0034151 -0.0575622 0.9965849 0.0575622 0.9965849 0.0575622 0.0034151 -0.0575622
10704003 0.0032735 -0.0563205 0.9967265 0.0563205 0.9967265 0.0563205 0.0032735 -0.0563205
10939352 0.0031380 -0.0551048 0.9968620 0.0551048 0.9968620 0.0551048 0.0031380 -0.0551048
11179876 0.0030082 -0.0539145 0.9969918 0.0539145 0.9969918 0.0539145 0.0030082 -0.0539145
11425688 0.0028840 -0.0527491 0.9971160 0.0527491 0.9971160 0.0527491 0.0028840 -0.0527491
11676904 0.0027652 -0.0516081 0.9972348 0.0516081 0.9972348 0.0516081 0.0027652 -0.0516081
11933645 0.0026513 -0.0504911 0.9973487 0.0504911 0.9973487 0.0504911 0.0026513 -0.0504911
12196030 0.0025424 -0.0493975 0.9974576 0.0493975 0.9974576 0.0493975 0.0025424 -0.0493975
12464184 0.0024381 -0.0483268 0.9975619 0.0483268 0.9975619 0.0483268 0.0024381 -0.0483268
12738235 0.0023383 -0.0472786 0.9976617 0.0472786 0.9976617 0.0472786 0.0023383 -0.0472786
13018310 0.0022428 -0.0462523 0.9977572 0.0462523 0.9977572 0.0462523 0.0022428 -0.0462523
13304544 0.0021514 -0.0452476 0.9978486 0.0452476 0.9978486 0.0452476 0.0021514 -0.0452476
13597071 0.0020639 -0.0442639 0.9979361 0.0442639 0.9979361 0.0442639 0.0020639 -0.0442639
13896030 0.0019801 -0.0433009 0.9980199 0.0433009 0.9980199 0.0433009 0.0019801 -0.0433009
14201563 0.0019000 -0.0423581 0.9981000 0.0423581 0.9981000 0.0423581 0.0019000 -0.0423581
14513813 0.0018233 -0.0414351 0.9981767 0.0414351 0.9981767 0.0414351 0.0018233 -0.0414351
14832928 0.0017500 -0.0405314 0.9982500 0.0405314 0.9982500 0.0405314 0.0017500 -0.0405314
15159060 0.0016798 -0.0396467 0.9983202 0.0396467 0.9983202 0.0396467 0.0016798 -0.0396467
15492362 0.0016126 -0.0387805 0.9983874 0.0387805 0.9983874 0.0387805 0.0016126 -0.0387805
15832993 0.0015484 -0.0379325 0.9984516 0.0379325 0.9984516 0.0379325 0.0015484 -0.0379325
16181113 0.0014869 -0.0371022 0.9985131 0.0371022 0.9985131 0.0371022 0.0014869 -0.0371022
16536888 0.0014281 -0.0362893 0.9985719 0.0362893 0.9985719 0.0362893 0.0014281 -0.0362893
16900485 0.0013718 -0.0354934 0.9986282 0.0354934 0.9986282 0.0354934 0.0013718 -0.0354934
17272076 0.0013180 -0.0347142 0.9986820 0.0347142 0.9986820 0.0347142 0.0013180 -0.0347142
17651837 0.0012666 -0.0339513 0.9987334 0.0339513 0.9987334 0.0339513 0.0012666 -0.0339513
18039948 0.0012174 -0.0332043 0.9987826 0.0332043 0.9987826 0.0332043 0.0012174 -0.0332043
18436593 0.0011703 -0.0324729 0.9988297 0.0324729 0.9988297 0.0324729 0.0011703 -0.0324729
18841959 0.0011253 -0.0317567 0.9988747 0.0317567 0.9988747 0.0317567 0.0011253 -0.0317567
19256237 0.0010823 -0.0310555 0.9989177 0.0310555 0.9989177 0.0310555 0.0010823 -0.0310555
19679624 0.0010411 -0.0303689 0.9989589 0.0303689 0.9989589 0.0303689 0.0010411 -0.0303689
20112321 0.0010018 -0.0296966 0.9989982 0.0296966 0.9989982 0.0296966 0.0010018 -0.0296966
20554530 0.0009642 -0.0290383 0.9990358 0.0290383 0.9990358 0.0290383 0.0009642 -0.0290383
21006463 0.0009283 -0.0283936 0.9990717 0.0283936 0.9990717 0.0283936 0.0009283 -0.0283936
21468333 0.0008940 -0.0277623 0.9991060 0.0277623 0.9991060 0.0277623 0.0008940 -0.0277623
21940357 0.0008612 -0.0271442 0.9991388 0.0271442 0.9991388 0.0271442 0.0008612 -0.0271442
22422760 0.0008298 -0.0265388 0.9991702 0.0265388 0.9991702 0.0265388 0.0008298 -0.0265388
22915770 0.0007999 -0.0259459 0.9992001 0.0259459 0.9992001 0.0259459 0.0007999 -0.0259459
23419619 0.0007713 -0.0253652 0.9992287 0.0253652 0.9992287 0.0253652 0.0007713 -0.0253652
23934547 0.0007440 -0.0247966 0.9992560 0.0247966 0.9992560 0.0247966 0.0007440 -0.0247966
24460796 0.0007180 -0.0242396 0.9992820 0.0242396 0.9992820 0.0242396 0.0007180 -0.0242396
24998616 0.0006931 -0.0236941 0.9993069 0.0236941 0.9993069 0.0236941 0.0006931 -0.0236941
25548261 0.0006694 -0.0231597 0.9993306 0.0231597 0.9993306 0.0231597 0.0006694 -0.0231597
26109991 0.0006467 -0.0226363 0.9993533 0.0226363 0.9993533 0.0226363 0.0006467 -0.0226363
26684072 0.0006251 -0.0221237 0.9993749 0.0221237 0.9993749 0.0221237 0.0006251 -0.0221237
27270775 0.0006045 -0.0216214 0.9993955 0.0216214 0.9993955 0.0216214 0.0006045 -0.0216214
27870378 0.0005849 -0.0211294 0.9994151 0.0211294 0.9994151 0.0211294 0.0005849 -0.0211294
28483164 0.0005662 -0.0206474 0.9994338 0.0206474 0.9994338 0.0206474 0.0005662 -0.0206474
29109424 0.0005484 -0.0201752 0.9994516 0.0201752 0.9994516 0.0201752 0.0005484 -0.0201752
29749453 0.0005314 -0.0197125 0.9994686 0.0197125 0.9994686 0.0197125 0.0005314 -0.0197125
30403555 0.0005152 -0.0192592 0.9994848 0.0192592 0.9994848 0.0192592 0.0005152 -0.0192592
31072038 0.0004999 -0.0188150 0.9995001 0.0188150 0.9995001 0.0188150 0.0004999 -0.0188150
31755220 0.0004852 -0.0183797 0.9995148 0.0183797 0.9995148 0.0183797 0.0004852 -0.0183797
32453422 0.0004713 -0.0179531 0.9995287 0.0179531 0.9995287 0.0179531 0.0004713 -0.0179531
33166976 0.0004581 -0.0175350 0.9995419 0.0175350 0.9995419 0.0175350 0.0004581 -0.0175350
33896219 0.0004456 -0.0171253 0.9995544 0.0171253 0.9995544 0.0171253 0.0004456 -0.0171253
34641496 0.0004337 -0.0167237 0.9995663 0.0167237 0.9995663 0.0167237 0.0004337 -0.0167237
35403159 0.0004224 -0.0163300 0.9995776 0.0163300 0.9995776 0.0163300 0.0004224 -0.0163300
36181569 0.0004117 -0.0159441 0.9995883 0.0159441 0.9995883 0.0159441 0.0004117 -0.0159441
36977093 0.0004016 -0.0155658 0.9995984 0.0155658 0.9995984 0.0155658 0.0004016 -0.0155658
37790109 0.0003921 -0.0151948 0.9996079 0.0151948 0.9996079 0.0151948 0.0003921 -0.0151948
38621001 0.0003830 -0.0148311 0.9996170 0.0148311 0.9996170 0.0148311 0.0003830 -0.0148311
39470161 0.0003745 -0.0144745 0.9996255 0.0144745 0.9996255 0.0144745 0.0003745 -0.0144745
40337993 0.0003664 -0.0141248 0.9996336 0.0141248 0.9996336 0.0141248 0.0003664 -0.0141248
41224905 0.0003588 -0.0137817 0.9996412 0.0137817 0.9996412 0.0137817 0.0003588 -0.0137817
42131317 0.0003517 -0.0134453 0.9996483 0.0134453 0.9996483 0.0134453 0.0003517 -0.0134453
43057659 0.0003450 -0.0131153 0.9996550 0.0131153 0.9996550 0.0131153 0.0003450 -0.0131153
44004369 0.0003387 -0.0127915 0.9996613 0.0127915 0.9996613 0.0127915 0.0003387 -0.0127915
44971893 0.0003328 -0.0124738 0.9996672 0.0124738 0.9996672 0.0124738 0.0003328 -0.0124738
45960691 0.0003273 -0.0121621 0.9996727 0.0121621 0.9996727 0.0121621 0.0003273 -0.0121621
46971230 0.0003222 -0.0118563 0.9996778 0.0118563 0.9996778 0.0118563 0.0003222 -0.0118563
48003987 0.0003175 -0.0115561 0.9996825 0.0115561 0.9996825 0.0115561 0.0003175 -0.0115561
49059451 0.0003131 -0.0112614 0.9996869 0.0112614 0.9996869 0.0112614 0.0003131 -0.0112614
50138122 0.0003090 -0.0109721 0.9996910 0.0109721 0.9996910 0.0109721 0.0003090 -0.0109721
51240510 0.0003052 -0.0106881 0.9996948 0.0106881 0.9996948 0.0106881 0.0003052 -0.0106881
52367136 0.0003017 -0.0104092 0.9996983 0.0104092 0.9996983 0.0104092 0.0003017 -0.0104092
53518533 0.0002986 -0.0101354 0.9997014 0.0101354 0.9997014 0.0101354 0.0002986 -0.0101354
54695245 0.0002957 -0.0098664 0.9997043 0.0098664 0.9997043 0.0098664 0.0002957 -0.0098664
55897831 0.0002931 -0.0096021 0.9997069 0.0096021 0.9997069 0.0096021 0.0002931 -0.0096021
57126857 0.0002908 -0.0093425 0.9997092 0.0093425 0.9997092 0.0093425 0.0002908 -0.0093425
58382906 0.0002887 -0.0090874 0.9997113 0.0090874 0.9997113 0.0090874 0.0002887 -0.0090874
59666572 0.0002868 -0.0088366 0.9997132 0.0088366 0.9997132 0.0088366 0.0002868 -0.0088366
60978462 0.0002852 -0.0085902 0.9997148 0.0085902 0.9997148 0.0085902 0.0002852 -0.0085902
62319196 0.0002839 -0.0083479 0.9997161 0.0083479 0.9997161 0.0083479 0.0002839 -0.0083479
63689409 0.0002827 -0.0081096 0.9997173 0.0081096 0.9997173 0.0081096 0.0002827 -0.0081096
65089750 0.0002817 -0.0078752 0.9997183 0.0078752 0.9997183 0.0078752 0.0002817 -0.0078752
66520879 0.0002810 -0.0076447 0.9997190 0.0076447 0.9997190 0.0076447 0.0002810 -0.0076447
67983474 0.0002804 -0.0074179 0.9997196 0.0074179 0.9997196 0.0074179 0.0002804 -0.0074179
69478228 0.0002801 -0.0071947 0.9997199 0.0071947 0.9997199 0.0071947 0.0002801 -0.0071947
71005847 0.0002799 -0.0069749 0.9997201 0.0069749 0.9997201 0.0069749 0.0002799 -0.0069749
72567054 0.0002798 -0.0067586 0.9997202 0.0067586 0.9997202 0.0067586 0.0002798 -0.0067586
74162587 0.0002800 -0.0065456 0.9997200 0.0065456 0.9997200 0.0065456 0.0002800 -0.0065456
75793201 0.0002803 -0.0063357 0.9997197 0.0063357 0.9997197 0.0063357 0.0002803 -0.0063357
77459667 0.0002807 -0.0061290 0.9997193 0.0061290 0.9997193 0.0061290 0.0002807 -0.0061290
79162774 0.0002813 -0.0059252 0.9997187 0.0059252 0.9997187 0.0059252 0.0002813 -0.0059252
80903327 0.0002820 -0.0057243 0.9997180 0.0057243 0.9997180 0.0057243 0.0002820 -0.0057243
82682150 0.0002829 -0.0055263 0.9997171 0.0055263 0.9997171 0.0055263 0.0002829 -0.0055263
84500083 0.0002839 -0.0053309 0.9997161 0.0053309 0.9997161 0.0053309 0.0002839 -0.0053309
86357988 0.0002850 -0.0051381 0.9997150 0.0051381 0.9997150 0.0051381 0.0002850 -0.0051381
88256743 0.0002862 -0.0049479 0.9997138 0.0049479 0.9997138 0.0049479 0.0002862 -0.0049479
90197245 0.0002876 -0.0047601 0.9997124 0.0047601 0.9997124 0.0047601 0.0002876 -0.0047601
92180413 0.0002890 -0.0045746 0.9997110 0.0045746 0.9997110 0.0045746 0.0002890 -0.0045746
94207185 0.0002906 -0.0043914 0.9997094 0.0043914 0.9997094 0.0043914 0.0002906 -0.0043914
96278520 0.0002923 -0.0042103 0.9997077 0.0042103 0.9997077 0.0042103 0.0002923 -0.0042103
98395398 0.0002940 -0.0040313 0.9997060 0.0040313 0.9997060 0.0040313 0.0002940 -0.0040313
100558819 0.0002959 -0.0038543 0.9997041 0.0038543 0.9997041 0.0038543 0.0002959 -0.0038543
102769807 0.0002979 -0.0036792 0.9997021 0.0036792 0.9997021 0.0036792 0.0002979 -0.0036792
105029408 0.0003000 -0.0035058 0.9997000 0.0035058 0.9997000 0.0035058 0.0003000 -0.0035058
107338692 0.0003021 -0.0033342 0.9996979 0.0033342 0.9996979 0.0033342 0.0003021 -0.0033342
