!Murata Part Number: GRM022R71C331KE14
!These Parameters are Measured in Series Mode Connection
!Data Generated on Mar 30, 2021
!       o--ll--o
!Port1            Port2
!       o------o
!Operation Temp=25[degC], DC Bias Voltage=0[V]
!Freq. Start=100[Hz] Stop=6[GHz] 401[Steps]
# Hz S RI R 50
!Freq.(Hz) S11(Real) S11(Imag) S21(Real) S21(Imag) S12(Real) S12(Imag) S22(Real) S22(Imag)
100 0.9999998 -0.0000209 0.0000002 0.0000209 0.0000002 0.0000209 0.9999998 -0.0000209
105 0.9999998 -0.0000218 0.0000002 0.0000218 0.0000002 0.0000218 0.9999998 -0.0000218
109 0.9999998 -0.0000228 0.0000002 0.0000228 0.0000002 0.0000228 0.9999998 -0.0000228
114 0.9999998 -0.0000239 0.0000002 0.0000239 0.0000002 0.0000239 0.9999998 -0.0000239
120 0.9999998 -0.0000249 0.0000002 0.0000249 0.0000002 0.0000249 0.9999998 -0.0000249
125 0.9999998 -0.0000261 0.0000002 0.0000261 0.0000002 0.0000261 0.9999998 -0.0000261
131 0.9999998 -0.0000273 0.0000002 0.0000273 0.0000002 0.0000273 0.9999998 -0.0000273
137 0.9999998 -0.0000285 0.0000002 0.0000285 0.0000002 0.0000285 0.9999998 -0.0000285
143 0.9999998 -0.0000298 0.0000002 0.0000298 0.0000002 0.0000298 0.9999998 -0.0000298
150 0.9999998 -0.0000312 0.0000002 0.0000312 0.0000002 0.0000312 0.9999998 -0.0000312
156 0.9999998 -0.0000326 0.0000002 0.0000326 0.0000002 0.0000326 0.9999998 -0.0000326
164 0.9999998 -0.0000341 0.0000002 0.0000341 0.0000002 0.0000341 0.9999998 -0.0000341
171 0.9999997 -0.0000356 0.0000003 0.0000356 0.0000003 0.0000356 0.9999997 -0.0000356
179 0.9999997 -0.0000373 0.0000003 0.0000373 0.0000003 0.0000373 0.9999997 -0.0000373
187 0.9999997 -0.0000390 0.0000003 0.0000390 0.0000003 0.0000390 0.9999997 -0.0000390
196 0.9999997 -0.0000407 0.0000003 0.0000407 0.0000003 0.0000407 0.9999997 -0.0000407
205 0.9999997 -0.0000426 0.0000003 0.0000426 0.0000003 0.0000426 0.9999997 -0.0000426
214 0.9999997 -0.0000445 0.0000003 0.0000445 0.0000003 0.0000445 0.9999997 -0.0000445
224 0.9999997 -0.0000466 0.0000003 0.0000466 0.0000003 0.0000466 0.9999997 -0.0000466
234 0.9999997 -0.0000487 0.0000003 0.0000487 0.0000003 0.0000487 0.9999997 -0.0000487
245 0.9999997 -0.0000509 0.0000003 0.0000509 0.0000003 0.0000509 0.9999997 -0.0000509
256 0.9999997 -0.0000533 0.0000003 0.0000533 0.0000003 0.0000533 0.9999997 -0.0000533
268 0.9999997 -0.0000557 0.0000003 0.0000557 0.0000003 0.0000557 0.9999997 -0.0000557
280 0.9999997 -0.0000582 0.0000003 0.0000582 0.0000003 0.0000582 0.9999997 -0.0000582
293 0.9999996 -0.0000609 0.0000004 0.0000609 0.0000004 0.0000609 0.9999996 -0.0000609
306 0.9999996 -0.0000637 0.0000004 0.0000637 0.0000004 0.0000637 0.9999996 -0.0000637
320 0.9999996 -0.0000666 0.0000004 0.0000666 0.0000004 0.0000666 0.9999996 -0.0000666
335 0.9999996 -0.0000696 0.0000004 0.0000696 0.0000004 0.0000696 0.9999996 -0.0000696
350 0.9999996 -0.0000728 0.0000004 0.0000728 0.0000004 0.0000728 0.9999996 -0.0000728
366 0.9999996 -0.0000761 0.0000004 0.0000761 0.0000004 0.0000761 0.9999996 -0.0000761
383 0.9999996 -0.0000796 0.0000004 0.0000796 0.0000004 0.0000796 0.9999996 -0.0000796
401 0.9999995 -0.0000832 0.0000005 0.0000832 0.0000005 0.0000832 0.9999995 -0.0000832
419 0.9999995 -0.0000870 0.0000005 0.0000870 0.0000005 0.0000870 0.9999995 -0.0000870
438 0.9999995 -0.0000910 0.0000005 0.0000910 0.0000005 0.0000910 0.9999995 -0.0000910
458 0.9999995 -0.0000952 0.0000005 0.0000952 0.0000005 0.0000952 0.9999995 -0.0000952
479 0.9999995 -0.0000995 0.0000005 0.0000995 0.0000005 0.0000995 0.9999995 -0.0000995
501 0.9999994 -0.0001041 0.0000006 0.0001041 0.0000006 0.0001041 0.9999994 -0.0001041
524 0.9999994 -0.0001088 0.0000006 0.0001088 0.0000006 0.0001088 0.9999994 -0.0001088
548 0.9999994 -0.0001138 0.0000006 0.0001138 0.0000006 0.0001138 0.9999994 -0.0001138
573 0.9999994 -0.0001190 0.0000006 0.0001190 0.0000006 0.0001190 0.9999994 -0.0001190
600 0.9999993 -0.0001244 0.0000007 0.0001244 0.0000007 0.0001244 0.9999993 -0.0001244
627 0.9999993 -0.0001301 0.0000007 0.0001301 0.0000007 0.0001301 0.9999993 -0.0001301
656 0.9999993 -0.0001360 0.0000007 0.0001360 0.0000007 0.0001360 0.9999993 -0.0001360
686 0.9999992 -0.0001423 0.0000008 0.0001423 0.0000008 0.0001423 0.9999992 -0.0001423
717 0.9999992 -0.0001487 0.0000008 0.0001487 0.0000008 0.0001487 0.9999992 -0.0001487
750 0.9999992 -0.0001555 0.0000008 0.0001555 0.0000008 0.0001555 0.9999992 -0.0001555
784 0.9999991 -0.0001626 0.0000009 0.0001626 0.0000009 0.0001626 0.9999991 -0.0001626
820 0.9999991 -0.0001701 0.0000009 0.0001701 0.0000009 0.0001701 0.9999991 -0.0001701
858 0.9999990 -0.0001778 0.0000010 0.0001778 0.0000010 0.0001778 0.9999990 -0.0001778
897 0.9999990 -0.0001859 0.0000010 0.0001859 0.0000010 0.0001859 0.9999990 -0.0001859
938 0.9999989 -0.0001944 0.0000011 0.0001944 0.0000011 0.0001944 0.9999989 -0.0001944
981 0.9999989 -0.0002033 0.0000011 0.0002033 0.0000011 0.0002033 0.9999989 -0.0002033
1026 0.9999988 -0.0002126 0.0000012 0.0002126 0.0000012 0.0002126 0.9999988 -0.0002126
1073 0.9999988 -0.0002223 0.0000012 0.0002223 0.0000012 0.0002223 0.9999988 -0.0002223
1122 0.9999987 -0.0002324 0.0000013 0.0002324 0.0000013 0.0002324 0.9999987 -0.0002324
1174 0.9999987 -0.0002430 0.0000013 0.0002430 0.0000013 0.0002430 0.9999987 -0.0002430
1227 0.9999986 -0.0002541 0.0000014 0.0002541 0.0000014 0.0002541 0.9999986 -0.0002541
1283 0.9999986 -0.0002657 0.0000014 0.0002657 0.0000014 0.0002657 0.9999986 -0.0002657
1342 0.9999985 -0.0002778 0.0000015 0.0002778 0.0000015 0.0002778 0.9999985 -0.0002778
1404 0.9999984 -0.0002905 0.0000016 0.0002905 0.0000016 0.0002905 0.9999984 -0.0002905
1468 0.9999984 -0.0003037 0.0000016 0.0003037 0.0000016 0.0003037 0.9999984 -0.0003037
1535 0.9999983 -0.0003176 0.0000017 0.0003176 0.0000017 0.0003176 0.9999983 -0.0003176
1606 0.9999982 -0.0003321 0.0000018 0.0003321 0.0000018 0.0003321 0.9999982 -0.0003321
1679 0.9999982 -0.0003473 0.0000018 0.0003473 0.0000018 0.0003473 0.9999982 -0.0003473
1756 0.9999981 -0.0003631 0.0000019 0.0003631 0.0000019 0.0003631 0.9999981 -0.0003631
1836 0.9999980 -0.0003797 0.0000020 0.0003797 0.0000020 0.0003797 0.9999980 -0.0003797
1920 0.9999979 -0.0003970 0.0000021 0.0003970 0.0000021 0.0003970 0.9999979 -0.0003970
2008 0.9999978 -0.0004152 0.0000022 0.0004152 0.0000022 0.0004152 0.9999978 -0.0004152
2100 0.9999977 -0.0004341 0.0000023 0.0004341 0.0000023 0.0004341 0.9999977 -0.0004341
2196 0.9999976 -0.0004540 0.0000024 0.0004540 0.0000024 0.0004540 0.9999976 -0.0004540
2297 0.9999975 -0.0004747 0.0000025 0.0004747 0.0000025 0.0004747 0.9999975 -0.0004747
2402 0.9999974 -0.0004964 0.0000026 0.0004964 0.0000026 0.0004964 0.9999974 -0.0004964
2512 0.9999973 -0.0005191 0.0000027 0.0005191 0.0000027 0.0005191 0.9999973 -0.0005191
2627 0.9999971 -0.0005428 0.0000029 0.0005428 0.0000029 0.0005428 0.9999971 -0.0005428
2748 0.9999970 -0.0005676 0.0000030 0.0005676 0.0000030 0.0005676 0.9999970 -0.0005676
2873 0.9999968 -0.0005935 0.0000032 0.0005935 0.0000032 0.0005935 0.9999968 -0.0005935
3005 0.9999967 -0.0006206 0.0000033 0.0006206 0.0000033 0.0006206 0.9999967 -0.0006206
3143 0.9999965 -0.0006489 0.0000035 0.0006489 0.0000035 0.0006489 0.9999965 -0.0006489
3287 0.9999963 -0.0006786 0.0000037 0.0006786 0.0000037 0.0006786 0.9999963 -0.0006786
3437 0.9999961 -0.0007096 0.0000039 0.0007096 0.0000039 0.0007096 0.9999961 -0.0007096
3594 0.9999959 -0.0007420 0.0000041 0.0007420 0.0000041 0.0007420 0.9999959 -0.0007420
3759 0.9999957 -0.0007759 0.0000043 0.0007759 0.0000043 0.0007759 0.9999957 -0.0007759
3931 0.9999954 -0.0008113 0.0000046 0.0008113 0.0000046 0.0008113 0.9999954 -0.0008113
4111 0.9999951 -0.0008484 0.0000049 0.0008484 0.0000049 0.0008484 0.9999951 -0.0008484
4299 0.9999948 -0.0008871 0.0000052 0.0008871 0.0000052 0.0008871 0.9999948 -0.0008871
4496 0.9999945 -0.0009277 0.0000055 0.0009277 0.0000055 0.0009277 0.9999945 -0.0009277
4702 0.9999942 -0.0009700 0.0000058 0.0009700 0.0000058 0.0009700 0.9999942 -0.0009700
4918 0.9999938 -0.0010143 0.0000062 0.0010143 0.0000062 0.0010143 0.9999938 -0.0010143
5143 0.9999935 -0.0010606 0.0000065 0.0010606 0.0000065 0.0010606 0.9999935 -0.0010606
5378 0.9999931 -0.0011090 0.0000069 0.0011090 0.0000069 0.0011090 0.9999931 -0.0011090
5625 0.9999926 -0.0011597 0.0000074 0.0011597 0.0000074 0.0011597 0.9999926 -0.0011597
5882 0.9999922 -0.0012126 0.0000078 0.0012126 0.0000078 0.0012126 0.9999922 -0.0012126
6151 0.9999917 -0.0012679 0.0000083 0.0012679 0.0000083 0.0012679 0.9999917 -0.0012679
6433 0.9999912 -0.0013258 0.0000088 0.0013258 0.0000088 0.0013258 0.9999912 -0.0013258
6728 0.9999906 -0.0013863 0.0000094 0.0013863 0.0000094 0.0013863 0.9999906 -0.0013863
7036 0.9999900 -0.0014495 0.0000100 0.0014495 0.0000100 0.0014495 0.9999900 -0.0014495
7358 0.9999894 -0.0015156 0.0000106 0.0015156 0.0000106 0.0015156 0.9999894 -0.0015156
7695 0.9999887 -0.0015848 0.0000113 0.0015848 0.0000113 0.0015848 0.9999887 -0.0015848
8047 0.9999880 -0.0016570 0.0000120 0.0016570 0.0000120 0.0016570 0.9999880 -0.0016570
8416 0.9999873 -0.0017326 0.0000127 0.0017326 0.0000127 0.0017326 0.9999873 -0.0017326
8801 0.9999865 -0.0018116 0.0000135 0.0018116 0.0000135 0.0018116 0.9999865 -0.0018116
9204 0.9999856 -0.0018942 0.0000144 0.0018942 0.0000144 0.0018942 0.9999856 -0.0018942
9626 0.9999848 -0.0019806 0.0000152 0.0019806 0.0000152 0.0019806 0.9999848 -0.0019806
10066 0.9999838 -0.0020709 0.0000162 0.0020709 0.0000162 0.0020709 0.9999838 -0.0020709
10527 0.9999828 -0.0021653 0.0000172 0.0021653 0.0000172 0.0021653 0.9999828 -0.0021653
11009 0.9999818 -0.0022640 0.0000182 0.0022640 0.0000182 0.0022640 0.9999818 -0.0022640
11514 0.9999807 -0.0023672 0.0000193 0.0023672 0.0000193 0.0023672 0.9999807 -0.0023672
12041 0.9999795 -0.0024752 0.0000205 0.0024752 0.0000205 0.0024752 0.9999795 -0.0024752
12592 0.9999783 -0.0025880 0.0000217 0.0025880 0.0000217 0.0025880 0.9999783 -0.0025880
13169 0.9999770 -0.0027061 0.0000230 0.0027061 0.0000230 0.0027061 0.9999770 -0.0027061
13772 0.9999756 -0.0028294 0.0000244 0.0028294 0.0000244 0.0028294 0.9999756 -0.0028294
14402 0.9999742 -0.0029585 0.0000258 0.0029585 0.0000258 0.0029585 0.9999742 -0.0029585
15062 0.9999726 -0.0030934 0.0000274 0.0030934 0.0000274 0.0030934 0.9999726 -0.0030934
15752 0.9999709 -0.0032345 0.0000291 0.0032345 0.0000291 0.0032345 0.9999709 -0.0032345
16473 0.9999692 -0.0033820 0.0000308 0.0033820 0.0000308 0.0033820 0.9999692 -0.0033820
17227 0.9999673 -0.0035363 0.0000327 0.0035363 0.0000327 0.0035363 0.9999673 -0.0035363
18016 0.9999652 -0.0036977 0.0000348 0.0036977 0.0000348 0.0036977 0.9999652 -0.0036977
18841 0.9999630 -0.0038664 0.0000370 0.0038664 0.0000370 0.0038664 0.9999630 -0.0038664
19704 0.9999607 -0.0040428 0.0000393 0.0040428 0.0000393 0.0040428 0.9999607 -0.0040428
20606 0.9999582 -0.0042273 0.0000418 0.0042273 0.0000418 0.0042273 0.9999582 -0.0042273
21550 0.9999554 -0.0044202 0.0000446 0.0044202 0.0000446 0.0044202 0.9999554 -0.0044202
22537 0.9999525 -0.0046220 0.0000475 0.0046220 0.0000475 0.0046220 0.9999525 -0.0046220
23569 0.9999493 -0.0048330 0.0000507 0.0048330 0.0000507 0.0048330 0.9999493 -0.0048330
24648 0.9999459 -0.0050536 0.0000541 0.0050536 0.0000541 0.0050536 0.9999459 -0.0050536
25777 0.9999422 -0.0052843 0.0000578 0.0052843 0.0000578 0.0052843 0.9999422 -0.0052843
26957 0.9999382 -0.0055255 0.0000618 0.0055255 0.0000618 0.0055255 0.9999382 -0.0055255
28191 0.9999338 -0.0057778 0.0000662 0.0057778 0.0000662 0.0057778 0.9999338 -0.0057778
29482 0.9999291 -0.0060416 0.0000709 0.0060416 0.0000709 0.0060416 0.9999291 -0.0060416
30832 0.9999240 -0.0063174 0.0000760 0.0063174 0.0000760 0.0063174 0.9999240 -0.0063174
32244 0.9999184 -0.0066059 0.0000816 0.0066059 0.0000816 0.0066059 0.9999184 -0.0066059
33721 0.9999124 -0.0069074 0.0000876 0.0069074 0.0000876 0.0069074 0.9999124 -0.0069074
35265 0.9999058 -0.0072228 0.0000942 0.0072228 0.0000942 0.0072228 0.9999058 -0.0072228
36880 0.9998987 -0.0075525 0.0001013 0.0075525 0.0001013 0.0075525 0.9998987 -0.0075525
38569 0.9998909 -0.0078973 0.0001091 0.0078973 0.0001091 0.0078973 0.9998909 -0.0078973
40335 0.9998825 -0.0082578 0.0001175 0.0082578 0.0001175 0.0082578 0.9998825 -0.0082578
42182 0.9998733 -0.0086346 0.0001267 0.0086346 0.0001267 0.0086346 0.9998733 -0.0086346
44113 0.9998634 -0.0090287 0.0001366 0.0090287 0.0001366 0.0090287 0.9998634 -0.0090287
46134 0.9998526 -0.0094407 0.0001474 0.0094407 0.0001474 0.0094407 0.9998526 -0.0094407
48246 0.9998408 -0.0098714 0.0001592 0.0098714 0.0001592 0.0098714 0.9998408 -0.0098714
50455 0.9998281 -0.0103217 0.0001719 0.0103217 0.0001719 0.0103217 0.9998281 -0.0103217
52766 0.9998143 -0.0107925 0.0001857 0.0107925 0.0001857 0.0107925 0.9998143 -0.0107925
55182 0.9997992 -0.0112847 0.0002008 0.0112847 0.0002008 0.0112847 0.9997992 -0.0112847
57709 0.9997829 -0.0117993 0.0002171 0.0117993 0.0002171 0.0117993 0.9997829 -0.0117993
60352 0.9997653 -0.0123372 0.0002347 0.0123372 0.0002347 0.0123372 0.9997653 -0.0123372
63115 0.9997461 -0.0128995 0.0002539 0.0128995 0.0002539 0.0128995 0.9997461 -0.0128995
66005 0.9997253 -0.0134873 0.0002747 0.0134873 0.0002747 0.0134873 0.9997253 -0.0134873
69028 0.9997027 -0.0141018 0.0002973 0.0141018 0.0002973 0.0141018 0.9997027 -0.0141018
72189 0.9996783 -0.0147442 0.0003217 0.0147442 0.0003217 0.0147442 0.9996783 -0.0147442
75495 0.9996518 -0.0154156 0.0003482 0.0154156 0.0003482 0.0154156 0.9996518 -0.0154156
78952 0.9996231 -0.0161176 0.0003769 0.0161176 0.0003769 0.0161176 0.9996231 -0.0161176
82567 0.9995921 -0.0168513 0.0004079 0.0168513 0.0004079 0.0168513 0.9995921 -0.0168513
86348 0.9995584 -0.0176183 0.0004416 0.0176183 0.0004416 0.0176183 0.9995584 -0.0176183
90302 0.9995219 -0.0184200 0.0004781 0.0184200 0.0004781 0.0184200 0.9995219 -0.0184200
94437 0.9994824 -0.0192581 0.0005176 0.0192581 0.0005176 0.0192581 0.9994824 -0.0192581
98762 0.9994396 -0.0201341 0.0005604 0.0201341 0.0005604 0.0201341 0.9994396 -0.0201341
103284 0.9993933 -0.0210499 0.0006067 0.0210499 0.0006067 0.0210499 0.9993933 -0.0210499
108014 0.9993431 -0.0220071 0.0006569 0.0220071 0.0006569 0.0220071 0.9993431 -0.0220071
112960 0.9992887 -0.0230077 0.0007113 0.0230077 0.0007113 0.0230077 0.9992887 -0.0230077
118133 0.9992297 -0.0240537 0.0007703 0.0240537 0.0007703 0.0240537 0.9992297 -0.0240537
123542 0.9991657 -0.0251470 0.0008343 0.0251470 0.0008343 0.0251470 0.9991657 -0.0251470
129199 0.9990964 -0.0262899 0.0009036 0.0262899 0.0009036 0.0262899 0.9990964 -0.0262899
135116 0.9990212 -0.0274846 0.0009788 0.0274846 0.0009788 0.0274846 0.9990212 -0.0274846
141303 0.9989395 -0.0287334 0.0010605 0.0287334 0.0010605 0.0287334 0.9989395 -0.0287334
147774 0.9988508 -0.0300388 0.0011492 0.0300388 0.0011492 0.0300388 0.9988508 -0.0300388
154540 0.9987545 -0.0314034 0.0012455 0.0314034 0.0012455 0.0314034 0.9987545 -0.0314034
161617 0.9986499 -0.0328297 0.0013501 0.0328297 0.0013501 0.0328297 0.9986499 -0.0328297
169018 0.9985361 -0.0343207 0.0014639 0.0343207 0.0014639 0.0343207 0.9985361 -0.0343207
176758 0.9984124 -0.0358791 0.0015876 0.0358791 0.0015876 0.0358791 0.9984124 -0.0358791
184852 0.9982778 -0.0375079 0.0017222 0.0375079 0.0017222 0.0375079 0.9982778 -0.0375079
193316 0.9981313 -0.0392105 0.0018687 0.0392105 0.0018687 0.0392105 0.9981313 -0.0392105
202169 0.9979718 -0.0409899 0.0020282 0.0409899 0.0020282 0.0409899 0.9979718 -0.0409899
211427 0.9977982 -0.0428495 0.0022018 0.0428495 0.0022018 0.0428495 0.9977982 -0.0428495
221108 0.9976090 -0.0447930 0.0023910 0.0447930 0.0023910 0.0447930 0.9976090 -0.0447930
231233 0.9974028 -0.0468240 0.0025972 0.0468240 0.0025972 0.0468240 0.9974028 -0.0468240
241822 0.9971782 -0.0489463 0.0028218 0.0489463 0.0028218 0.0489463 0.9971782 -0.0489463
252896 0.9969333 -0.0511638 0.0030667 0.0511638 0.0030667 0.0511638 0.9969333 -0.0511638
264476 0.9966663 -0.0534806 0.0033337 0.0534806 0.0033337 0.0534806 0.9966663 -0.0534806
276587 0.9963752 -0.0559011 0.0036248 0.0559011 0.0036248 0.0559011 0.9963752 -0.0559011
289253 0.9960578 -0.0584295 0.0039422 0.0584295 0.0039422 0.0584295 0.9960578 -0.0584295
302498 0.9957116 -0.0610705 0.0042884 0.0610705 0.0042884 0.0610705 0.9957116 -0.0610705
316350 0.9953341 -0.0638288 0.0046659 0.0638288 0.0046659 0.0638288 0.9953341 -0.0638288
330837 0.9949224 -0.0667091 0.0050776 0.0667091 0.0050776 0.0667091 0.9949224 -0.0667091
345986 0.9944735 -0.0697166 0.0055265 0.0697166 0.0055265 0.0697166 0.9944735 -0.0697166
361830 0.9939839 -0.0728563 0.0060161 0.0728563 0.0060161 0.0728563 0.9939839 -0.0728563
378399 0.9934501 -0.0761337 0.0065499 0.0761337 0.0065499 0.0761337 0.9934501 -0.0761337
395726 0.9928680 -0.0795541 0.0071320 0.0795541 0.0071320 0.0795541 0.9928680 -0.0795541
413847 0.9922334 -0.0831232 0.0077666 0.0831232 0.0077666 0.0831232 0.9922334 -0.0831232
432798 0.9915418 -0.0868467 0.0084582 0.0868467 0.0084582 0.0868467 0.9915418 -0.0868467
452617 0.9907879 -0.0907305 0.0092121 0.0907305 0.0092121 0.0907305 0.9907879 -0.0907305
473344 0.9899664 -0.0947806 0.0100336 0.0947806 0.0100336 0.0947806 0.9899664 -0.0947806
495019 0.9890715 -0.0990031 0.0109285 0.0990031 0.0109285 0.0990031 0.9890715 -0.0990031
517687 0.9880966 -0.1034042 0.0119034 0.1034042 0.0119034 0.1034042 0.9880966 -0.1034042
541393 0.9870349 -0.1079901 0.0129651 0.1079901 0.0129651 0.1079901 0.9870349 -0.1079901
566185 0.9858790 -0.1127671 0.0141210 0.1127671 0.0141210 0.1127671 0.9858790 -0.1127671
592111 0.9846208 -0.1177416 0.0153792 0.1177416 0.0153792 0.1177416 0.9846208 -0.1177416
619225 0.9832516 -0.1229200 0.0167484 0.1229200 0.0167484 0.1229200 0.9832516 -0.1229200
647581 0.9817620 -0.1283084 0.0182380 0.1283084 0.0182380 0.1283084 0.9817620 -0.1283084
677235 0.9801419 -0.1339133 0.0198581 0.1339133 0.0198581 0.1339133 0.9801419 -0.1339133
708247 0.9783804 -0.1397405 0.0216196 0.1397405 0.0216196 0.1397405 0.9783804 -0.1397405
740679 0.9764658 -0.1457962 0.0235342 0.1457962 0.0235342 0.1457962 0.9764658 -0.1457962
774597 0.9743854 -0.1520858 0.0256146 0.1520858 0.0256146 0.1520858 0.9743854 -0.1520858
810067 0.9721258 -0.1586148 0.0278742 0.1586148 0.0278742 0.1586148 0.9721258 -0.1586148
847162 0.9696725 -0.1653880 0.0303275 0.1653880 0.0303275 0.1653880 0.9696725 -0.1653880
885955 0.9670099 -0.1724099 0.0329901 0.1724099 0.0329901 0.1724099 0.9670099 -0.1724099
926525 0.9641215 -0.1796843 0.0358785 0.1796843 0.0358785 0.1796843 0.9641215 -0.1796843
968953 0.9609895 -0.1872142 0.0390105 0.1872142 0.0390105 0.1872142 0.9609895 -0.1872142
1013323 0.9575951 -0.1950019 0.0424049 0.1950019 0.0424049 0.1950019 0.9575951 -0.1950019
1059725 0.9539184 -0.2030486 0.0460816 0.2030486 0.0460816 0.2030486 0.9539184 -0.2030486
1108252 0.9499382 -0.2113541 0.0500618 0.2113541 0.0500618 0.2113541 0.9499382 -0.2113541
1159002 0.9456323 -0.2199172 0.0543677 0.2199172 0.0543677 0.2199172 0.9456323 -0.2199172
1212075 0.9409773 -0.2287349 0.0590227 0.2287349 0.0590227 0.2287349 0.9409773 -0.2287349
1267578 0.9359487 -0.2378023 0.0640513 0.2378023 0.0640513 0.2378023 0.9359487 -0.2378023
1325623 0.9305211 -0.2471129 0.0694789 0.2471129 0.0694789 0.2471129 0.9305211 -0.2471129
1386327 0.9246680 -0.2566576 0.0753320 0.2566576 0.0753320 0.2566576 0.9246680 -0.2566576
1449809 0.9183625 -0.2664250 0.0816375 0.2664250 0.0816375 0.2664250 0.9183625 -0.2664250
1516199 0.9115768 -0.2764010 0.0884232 0.2764010 0.0884232 0.2764010 0.9115768 -0.2764010
1585629 0.9042828 -0.2865684 0.0957172 0.2865684 0.0957172 0.2865684 0.9042828 -0.2865684
1658239 0.8964526 -0.2969069 0.1035474 0.2969069 0.1035474 0.2969069 0.8964526 -0.2969069
1734173 0.8880581 -0.3073930 0.1119419 0.3073930 0.1119419 0.3073930 0.8880581 -0.3073930
1813585 0.8790722 -0.3179993 0.1209278 0.3179993 0.1209278 0.3179993 0.8790722 -0.3179993
1896632 0.8694684 -0.3286947 0.1305316 0.3286947 0.1305316 0.3286947 0.8694684 -0.3286947
1983483 0.8592219 -0.3394443 0.1407781 0.3394443 0.1407781 0.3394443 0.8592219 -0.3394443
2074311 0.8483098 -0.3502093 0.1516902 0.3502093 0.1516902 0.3502093 0.8483098 -0.3502093
