!Murata Part Number: GRM022R61A104KE01
!These Parameters are Measured in Series Mode Connection
!Data Generated on Mar 30, 2021
!       o--ll--o
!Port1            Port2
!       o------o
!Operation Temp=25[degC], DC Bias Voltage=0[V]
!Freq. Start=100[Hz] Stop=6[GHz] 401[Steps]
# Hz S RI R 50
!Freq.(Hz) S11(Real) S11(Imag) S21(Real) S21(Imag) S12(Real) S12(Imag) S22(Real) S22(Imag)
100 0.9999240 -0.0052321 0.0000760 0.0052321 0.0000760 0.0052321 0.9999240 -0.0052321
105 0.9999193 -0.0054704 0.0000807 0.0054704 0.0000807 0.0054704 0.9999193 -0.0054704
109 0.9999143 -0.0057196 0.0000857 0.0057196 0.0000857 0.0057196 0.9999143 -0.0057196
114 0.9999089 -0.0059802 0.0000911 0.0059802 0.0000911 0.0059802 0.9999089 -0.0059802
120 0.9999030 -0.0062526 0.0000970 0.0062526 0.0000970 0.0062526 0.9999030 -0.0062526
125 0.9998967 -0.0065374 0.0001033 0.0065374 0.0001033 0.0065374 0.9998967 -0.0065374
131 0.9998898 -0.0068351 0.0001102 0.0068351 0.0001102 0.0068351 0.9998898 -0.0068351
137 0.9998824 -0.0071463 0.0001176 0.0071463 0.0001176 0.0071463 0.9998824 -0.0071463
143 0.9998744 -0.0074717 0.0001256 0.0074717 0.0001256 0.0074717 0.9998744 -0.0074717
150 0.9998658 -0.0078119 0.0001342 0.0078119 0.0001342 0.0078119 0.9998658 -0.0078119
156 0.9998565 -0.0081675 0.0001435 0.0081675 0.0001435 0.0081675 0.9998565 -0.0081675
164 0.9998464 -0.0085392 0.0001536 0.0085392 0.0001536 0.0085392 0.9998464 -0.0085392
171 0.9998356 -0.0089278 0.0001644 0.0089278 0.0001644 0.0089278 0.9998356 -0.0089278
179 0.9998239 -0.0093340 0.0001761 0.0093340 0.0001761 0.0093340 0.9998239 -0.0093340
187 0.9998113 -0.0097586 0.0001887 0.0097586 0.0001887 0.0097586 0.9998113 -0.0097586
196 0.9997977 -0.0102025 0.0002023 0.0102025 0.0002023 0.0102025 0.9997977 -0.0102025
205 0.9997831 -0.0106664 0.0002169 0.0106664 0.0002169 0.0106664 0.9997831 -0.0106664
214 0.9997674 -0.0111514 0.0002326 0.0111514 0.0002326 0.0111514 0.9997674 -0.0111514
224 0.9997505 -0.0116583 0.0002495 0.0116583 0.0002495 0.0116583 0.9997505 -0.0116583
234 0.9997322 -0.0121881 0.0002678 0.0121881 0.0002678 0.0121881 0.9997322 -0.0121881
245 0.9997126 -0.0127420 0.0002874 0.0127420 0.0002874 0.0127420 0.9997126 -0.0127420
256 0.9996915 -0.0133209 0.0003085 0.0133209 0.0003085 0.0133209 0.9996915 -0.0133209
268 0.9996688 -0.0139261 0.0003312 0.0139261 0.0003312 0.0139261 0.9996688 -0.0139261
280 0.9996444 -0.0145587 0.0003556 0.0145587 0.0003556 0.0145587 0.9996444 -0.0145587
293 0.9996181 -0.0152199 0.0003819 0.0152199 0.0003819 0.0152199 0.9996181 -0.0152199
306 0.9995898 -0.0159112 0.0004102 0.0159112 0.0004102 0.0159112 0.9995898 -0.0159112
320 0.9995593 -0.0166338 0.0004407 0.0166338 0.0004407 0.0166338 0.9995593 -0.0166338
335 0.9995264 -0.0173892 0.0004736 0.0173892 0.0004736 0.0173892 0.9995264 -0.0173892
350 0.9994910 -0.0181789 0.0005090 0.0181789 0.0005090 0.0181789 0.9994910 -0.0181789
366 0.9994527 -0.0190044 0.0005473 0.0190044 0.0005473 0.0190044 0.9994527 -0.0190044
383 0.9994114 -0.0198674 0.0005886 0.0198674 0.0005886 0.0198674 0.9994114 -0.0198674
401 0.9993668 -0.0207697 0.0006332 0.0207697 0.0006332 0.0207697 0.9993668 -0.0207697
419 0.9993186 -0.0217129 0.0006814 0.0217129 0.0006814 0.0217129 0.9993186 -0.0217129
438 0.9992665 -0.0226991 0.0007335 0.0226991 0.0007335 0.0226991 0.9992665 -0.0226991
458 0.9992100 -0.0237300 0.0007900 0.0237300 0.0007900 0.0237300 0.9992100 -0.0237300
479 0.9991488 -0.0248079 0.0008512 0.0248079 0.0008512 0.0248079 0.9991488 -0.0248079
501 0.9990824 -0.0259347 0.0009176 0.0259347 0.0009176 0.0259347 0.9990824 -0.0259347
524 0.9990104 -0.0271128 0.0009896 0.0271128 0.0009896 0.0271128 0.9990104 -0.0271128
548 0.9989323 -0.0283444 0.0010677 0.0283444 0.0010677 0.0283444 0.9989323 -0.0283444
573 0.9988474 -0.0296319 0.0011526 0.0296319 0.0011526 0.0296319 0.9988474 -0.0296319
600 0.9987551 -0.0309780 0.0012449 0.0309780 0.0012449 0.0309780 0.9987551 -0.0309780
627 0.9986547 -0.0323851 0.0013453 0.0323851 0.0013453 0.0323851 0.9986547 -0.0323851
656 0.9985455 -0.0338561 0.0014545 0.0338561 0.0014545 0.0338561 0.9985455 -0.0338561
686 0.9984266 -0.0353937 0.0015734 0.0353937 0.0015734 0.0353937 0.9984266 -0.0353937
717 0.9982972 -0.0370010 0.0017028 0.0370010 0.0017028 0.0370010 0.9982972 -0.0370010
750 0.9981561 -0.0386809 0.0018439 0.0386809 0.0018439 0.0386809 0.9981561 -0.0386809
784 0.9980025 -0.0404368 0.0019975 0.0404368 0.0019975 0.0404368 0.9980025 -0.0404368
820 0.9978351 -0.0422720 0.0021649 0.0422720 0.0021649 0.0422720 0.9978351 -0.0422720
858 0.9976525 -0.0441898 0.0023475 0.0441898 0.0023475 0.0441898 0.9976525 -0.0441898
897 0.9974536 -0.0461940 0.0025464 0.0461940 0.0025464 0.0461940 0.9974536 -0.0461940
938 0.9972366 -0.0482882 0.0027634 0.0482882 0.0027634 0.0482882 0.9972366 -0.0482882
981 0.9970000 -0.0504764 0.0030000 0.0504764 0.0030000 0.0504764 0.9970000 -0.0504764
1026 0.9967421 -0.0527625 0.0032579 0.0527625 0.0032579 0.0527625 0.9967421 -0.0527625
1073 0.9964608 -0.0551507 0.0035392 0.0551507 0.0035392 0.0551507 0.9964608 -0.0551507
1122 0.9961541 -0.0576454 0.0038459 0.0576454 0.0038459 0.0576454 0.9961541 -0.0576454
1174 0.9958196 -0.0602509 0.0041804 0.0602509 0.0041804 0.0602509 0.9958196 -0.0602509
1227 0.9954550 -0.0629721 0.0045450 0.0629721 0.0045450 0.0629721 0.9954550 -0.0629721
1283 0.9950574 -0.0658135 0.0049426 0.0658135 0.0049426 0.0658135 0.9950574 -0.0658135
1342 0.9946241 -0.0687803 0.0053759 0.0687803 0.0053759 0.0687803 0.9946241 -0.0687803
1404 0.9941517 -0.0718774 0.0058483 0.0718774 0.0058483 0.0718774 0.9941517 -0.0718774
1468 0.9936370 -0.0751102 0.0063630 0.0751102 0.0063630 0.0751102 0.9936370 -0.0751102
1535 0.9930760 -0.0784841 0.0069240 0.0784841 0.0069240 0.0784841 0.9930760 -0.0784841
1606 0.9924649 -0.0820046 0.0075351 0.0820046 0.0075351 0.0820046 0.9924649 -0.0820046
1679 0.9917992 -0.0856774 0.0082008 0.0856774 0.0082008 0.0856774 0.9917992 -0.0856774
1756 0.9910742 -0.0895085 0.0089258 0.0895085 0.0089258 0.0895085 0.9910742 -0.0895085
1836 0.9902847 -0.0935039 0.0097153 0.0935039 0.0097153 0.0935039 0.9902847 -0.0935039
1920 0.9894252 -0.0976696 0.0105748 0.0976696 0.0105748 0.0976696 0.9894252 -0.0976696
2008 0.9884896 -0.1020120 0.0115104 0.1020120 0.0115104 0.1020120 0.9884896 -0.1020120
2100 0.9874714 -0.1065375 0.0125286 0.1065375 0.0125286 0.1065375 0.9874714 -0.1065375
2196 0.9863635 -0.1112524 0.0136365 0.1112524 0.0136365 0.1112524 0.9863635 -0.1112524
2297 0.9851583 -0.1161633 0.0148417 0.1161633 0.0148417 0.1161633 0.9851583 -0.1161633
2402 0.9838474 -0.1212769 0.0161526 0.1212769 0.0161526 0.1212769 0.9838474 -0.1212769
2512 0.9824220 -0.1265995 0.0175780 0.1265995 0.0175780 0.1265995 0.9824220 -0.1265995
2627 0.9808723 -0.1321379 0.0191277 0.1321379 0.0191277 0.1321379 0.9808723 -0.1321379
2748 0.9791879 -0.1378983 0.0208121 0.1378983 0.0208121 0.1378983 0.9791879 -0.1378983
2873 0.9773574 -0.1438873 0.0226426 0.1438873 0.0226426 0.1438873 0.9773574 -0.1438873
3005 0.9753688 -0.1501110 0.0246312 0.1501110 0.0246312 0.1501110 0.9753688 -0.1501110
3143 0.9732089 -0.1565751 0.0267911 0.1565751 0.0267911 0.1565751 0.9732089 -0.1565751
3287 0.9708636 -0.1632853 0.0291364 0.1632853 0.0291364 0.1632853 0.9708636 -0.1632853
3437 0.9683178 -0.1702467 0.0316822 0.1702467 0.0316822 0.1702467 0.9683178 -0.1702467
3594 0.9655553 -0.1774638 0.0344447 0.1774638 0.0344447 0.1774638 0.9655553 -0.1774638
3759 0.9625586 -0.1849406 0.0374414 0.1849406 0.0374414 0.1849406 0.9625586 -0.1849406
3931 0.9593093 -0.1926801 0.0406907 0.1926801 0.0406907 0.1926801 0.9593093 -0.1926801
4111 0.9557876 -0.2006844 0.0442124 0.2006844 0.0442124 0.2006844 0.9557876 -0.2006844
4299 0.9519727 -0.2089547 0.0480273 0.2089547 0.0480273 0.2089547 0.9519727 -0.2089547
4496 0.9478423 -0.2174907 0.0521577 0.2174907 0.0521577 0.2174907 0.9478423 -0.2174907
4702 0.9433731 -0.2262907 0.0566269 0.2262907 0.0566269 0.2262907 0.9433731 -0.2262907
4918 0.9385407 -0.2353512 0.0614593 0.2353512 0.0614593 0.2353512 0.9385407 -0.2353512
5143 0.9333194 -0.2446670 0.0666806 0.2446670 0.0666806 0.2446670 0.9333194 -0.2446670
5378 0.9276827 -0.2542306 0.0723173 0.2542306 0.0723173 0.2542306 0.9276827 -0.2542306
5625 0.9216029 -0.2640322 0.0783971 0.2640322 0.0783971 0.2640322 0.9216029 -0.2640322
5882 0.9150519 -0.2740592 0.0849481 0.2740592 0.0849481 0.2740592 0.9150519 -0.2740592
6151 0.9080009 -0.2842964 0.0919991 0.2842964 0.0919991 0.2842964 0.9080009 -0.2842964
6433 0.9004207 -0.2947253 0.0995793 0.2947253 0.0995793 0.2947253 0.9004207 -0.2947253
6728 0.8922823 -0.3053239 0.1077177 0.3053239 0.1077177 0.3053239 0.8922823 -0.3053239
7036 0.8835568 -0.3160670 0.1164432 0.3160670 0.1164432 0.3160670 0.8835568 -0.3160670
7358 0.8742160 -0.3269252 0.1257840 0.3269252 0.1257840 0.3269252 0.8742160 -0.3269252
7695 0.8642331 -0.3378654 0.1357669 0.3378654 0.1357669 0.3378654 0.8642331 -0.3378654
8047 0.8535826 -0.3488503 0.1464174 0.3488503 0.1464174 0.3488503 0.8535826 -0.3488503
8416 0.8422415 -0.3598385 0.1577585 0.3598385 0.1577585 0.3598385 0.8422415 -0.3598385
8801 0.8301893 -0.3707847 0.1698107 0.3707847 0.1698107 0.3707847 0.8301893 -0.3707847
9204 0.8174090 -0.3816393 0.1825910 0.3816393 0.1825910 0.3816393 0.8174090 -0.3816393
9626 0.8038877 -0.3923490 0.1961123 0.3923490 0.1961123 0.3923490 0.8038877 -0.3923490
10066 0.7896171 -0.4028570 0.2103829 0.4028570 0.2103829 0.4028570 0.7896171 -0.4028570
10527 0.7745942 -0.4131032 0.2254058 0.4131032 0.2254058 0.4131032 0.7745942 -0.4131032
11009 0.7588222 -0.4230252 0.2411778 0.4230252 0.2411778 0.4230252 0.7588222 -0.4230252
11514 0.7423105 -0.4325586 0.2576895 0.4325586 0.2576895 0.4325586 0.7423105 -0.4325586
12041 0.7250759 -0.4416376 0.2749241 0.4416376 0.2749241 0.4416376 0.7250759 -0.4416376
12592 0.7071423 -0.4501963 0.2928577 0.4501963 0.2928577 0.4501963 0.7071423 -0.4501963
13169 0.6885415 -0.4581697 0.3114585 0.4581697 0.3114585 0.4581697 0.6885415 -0.4581697
13772 0.6693131 -0.4654942 0.3306869 0.4654942 0.3306869 0.4654942 0.6693131 -0.4654942
14402 0.6495044 -0.4721094 0.3504956 0.4721094 0.3504956 0.4721094 0.6495044 -0.4721094
15062 0.6291702 -0.4779587 0.3708298 0.4779587 0.3708298 0.4779587 0.6291702 -0.4779587
15752 0.6083724 -0.4829906 0.3916276 0.4829906 0.3916276 0.4829906 0.6083724 -0.4829906
16473 0.5871794 -0.4871600 0.4128206 0.4871600 0.4128206 0.4871600 0.5871794 -0.4871600
17227 0.5656651 -0.4904287 0.4343349 0.4904287 0.4343349 0.4904287 0.5656651 -0.4904287
18016 0.5439082 -0.4927666 0.4560918 0.4927666 0.4560918 0.4927666 0.5439082 -0.4927666
18841 0.5219909 -0.4941522 0.4780091 0.4941522 0.4780091 0.4941522 0.5219909 -0.4941522
19704 0.4999977 -0.4945731 0.5000023 0.4945731 0.5000023 0.4945731 0.4999977 -0.4945731
20606 0.4780139 -0.4940261 0.5219861 0.4940261 0.5219861 0.4940261 0.4780139 -0.4940261
21550 0.4561249 -0.4925177 0.5438751 0.4925177 0.5438751 0.4925177 0.4561249 -0.4925177
22537 0.4344140 -0.4900635 0.5655860 0.4900635 0.5655860 0.4900635 0.4344140 -0.4900635
23569 0.4129620 -0.4866878 0.5870380 0.4866878 0.5870380 0.4866878 0.4129620 -0.4866878
24648 0.3918453 -0.4824233 0.6081547 0.4824233 0.6081547 0.4824233 0.3918453 -0.4824233
25777 0.3711355 -0.4773101 0.6288645 0.4773101 0.6288645 0.4773101 0.3711355 -0.4773101
26957 0.3508982 -0.4713949 0.6491018 0.4713949 0.6491018 0.4713949 0.3508982 -0.4713949
28191 0.3311924 -0.4647299 0.6688076 0.4647299 0.6688076 0.4647299 0.3311924 -0.4647299
29482 0.3120700 -0.4573721 0.6879300 0.4573721 0.6879300 0.4573721 0.3120700 -0.4573721
30832 0.2935755 -0.4493815 0.7064245 0.4493815 0.7064245 0.4493815 0.2935755 -0.4493815
32244 0.2757457 -0.4408210 0.7242543 0.4408210 0.7242543 0.4408210 0.2757457 -0.4408210
33721 0.2586101 -0.4317544 0.7413899 0.4317544 0.7413899 0.4317544 0.2586101 -0.4317544
35265 0.2421908 -0.4222462 0.7578092 0.4222462 0.7578092 0.4222462 0.2421908 -0.4222462
36880 0.2265028 -0.4123601 0.7734972 0.4123601 0.7734972 0.4123601 0.2265028 -0.4123601
38569 0.2115545 -0.4021586 0.7884455 0.4021586 0.7884455 0.4021586 0.2115545 -0.4021586
40335 0.1973483 -0.3917022 0.8026517 0.3917022 0.8026517 0.3917022 0.1973483 -0.3917022
42182 0.1838808 -0.3810489 0.8161192 0.3810489 0.8161192 0.3810489 0.1838808 -0.3810489
44113 0.1711439 -0.3702536 0.8288561 0.3702536 0.8288561 0.3702536 0.1711439 -0.3702536
46134 0.1591248 -0.3593679 0.8408752 0.3593679 0.8408752 0.3593679 0.1591248 -0.3593679
48246 0.1478072 -0.3484396 0.8521928 0.3484396 0.8521928 0.3484396 0.1478072 -0.3484396
50455 0.1371715 -0.3375128 0.8628285 0.3375128 0.8628285 0.3375128 0.1371715 -0.3375128
52766 0.1271956 -0.3266278 0.8728044 0.3266278 0.8728044 0.3266278 0.1271956 -0.3266278
55182 0.1178551 -0.3158210 0.8821449 0.3158210 0.8821449 0.3158210 0.1178551 -0.3158210
57709 0.1091241 -0.3051249 0.8908759 0.3051249 0.8908759 0.3051249 0.1091241 -0.3051249
60352 0.1009758 -0.2945682 0.8990242 0.2945682 0.8990242 0.2945682 0.1009758 -0.2945682
63115 0.0933824 -0.2841763 0.9066176 0.2841763 0.9066176 0.2841763 0.0933824 -0.2841763
66005 0.0863157 -0.2739710 0.9136843 0.2739710 0.9136843 0.2739710 0.0863157 -0.2739710
69028 0.0797477 -0.2639708 0.9202523 0.2639708 0.9202523 0.2639708 0.0797477 -0.2639708
72189 0.0736504 -0.2541914 0.9263496 0.2541914 0.9263496 0.2541914 0.0736504 -0.2541914
75495 0.0679963 -0.2446456 0.9320037 0.2446456 0.9320037 0.2446456 0.0679963 -0.2446456
78952 0.0627585 -0.2353438 0.9372415 0.2353438 0.9372415 0.2353438 0.0627585 -0.2353438
82567 0.0579110 -0.2262939 0.9420890 0.2262939 0.9420890 0.2262939 0.0579110 -0.2262939
86348 0.0534285 -0.2175019 0.9465715 0.2175019 0.9465715 0.2175019 0.0534285 -0.2175019
90302 0.0492868 -0.2089716 0.9507132 0.2089716 0.9507132 0.2089716 0.0492868 -0.2089716
94437 0.0454628 -0.2007053 0.9545372 0.2007053 0.9545372 0.2007053 0.0454628 -0.2007053
98762 0.0419343 -0.1927040 0.9580657 0.1927040 0.9580657 0.1927040 0.0419343 -0.1927040
103284 0.0386804 -0.1849671 0.9613196 0.1849671 0.9613196 0.1849671 0.0386804 -0.1849671
108014 0.0356813 -0.1774928 0.9643187 0.1774928 0.9643187 0.1774928 0.0356813 -0.1774928
112960 0.0329183 -0.1702787 0.9670817 0.1702787 0.9670817 0.1702787 0.0329183 -0.1702787
118133 0.0303738 -0.1633210 0.9696262 0.1633210 0.9696262 0.1633210 0.0303738 -0.1633210
123542 0.0280312 -0.1566157 0.9719688 0.1566157 0.9719688 0.1566157 0.0280312 -0.1566157
129199 0.0258752 -0.1501579 0.9741248 0.1501579 0.9741248 0.1501579 0.0258752 -0.1501579
135116 0.0238913 -0.1439423 0.9761087 0.1439423 0.9761087 0.1439423 0.0238913 -0.1439423
141303 0.0220661 -0.1379630 0.9779339 0.1379630 0.9779339 0.1379630 0.0220661 -0.1379630
147774 0.0203869 -0.1322141 0.9796131 0.1322141 0.9796131 0.1322141 0.0203869 -0.1322141
154540 0.0188421 -0.1266891 0.9811579 0.1266891 0.9811579 0.1266891 0.0188421 -0.1266891
161617 0.0174210 -0.1213817 0.9825790 0.1213817 0.9825790 0.1213817 0.0174210 -0.1213817
169018 0.0161136 -0.1162851 0.9838864 0.1162851 0.9838864 0.1162851 0.0161136 -0.1162851
176758 0.0149106 -0.1113926 0.9850894 0.1113926 0.9850894 0.1113926 0.0149106 -0.1113926
184852 0.0138034 -0.1066975 0.9861966 0.1066975 0.9861966 0.1066975 0.0138034 -0.1066975
193316 0.0127842 -0.1021931 0.9872158 0.1021931 0.9872158 0.1021931 0.0127842 -0.1021931
202169 0.0118458 -0.0978727 0.9881542 0.0978727 0.9881542 0.0978727 0.0118458 -0.0978727
211427 0.0109814 -0.0937295 0.9890186 0.0937295 0.9890186 0.0937295 0.0109814 -0.0937295
221108 0.0101849 -0.0897571 0.9898151 0.0897571 0.9898151 0.0897571 0.0101849 -0.0897571
231233 0.0094508 -0.0859492 0.9905492 0.0859492 0.9905492 0.0859492 0.0094508 -0.0859492
241822 0.0087738 -0.0822992 0.9912262 0.0822992 0.9912262 0.0822992 0.0087738 -0.0822992
252896 0.0081493 -0.0788013 0.9918507 0.0788013 0.9918507 0.0788013 0.0081493 -0.0788013
264476 0.0075729 -0.0754492 0.9924271 0.0754492 0.9924271 0.0754492 0.0075729 -0.0754492
276587 0.0070407 -0.0722373 0.9929593 0.0722373 0.9929593 0.0722373 0.0070407 -0.0722373
289253 0.0065491 -0.0691600 0.9934509 0.0691600 0.9934509 0.0691600 0.0065491 -0.0691600
302498 0.0060949 -0.0662116 0.9939051 0.0662116 0.9939051 0.0662116 0.0060949 -0.0662116
316350 0.0056750 -0.0633871 0.9943250 0.0633871 0.9943250 0.0633871 0.0056750 -0.0633871
330837 0.0052867 -0.0606813 0.9947133 0.0606813 0.9947133 0.0606813 0.0052867 -0.0606813
345986 0.0049276 -0.0580892 0.9950724 0.0580892 0.9950724 0.0580892 0.0049276 -0.0580892
361830 0.0045953 -0.0556063 0.9954047 0.0556063 0.9954047 0.0556063 0.0045953 -0.0556063
378399 0.0042878 -0.0532281 0.9957122 0.0532281 0.9957122 0.0532281 0.0042878 -0.0532281
395726 0.0040032 -0.0509500 0.9959968 0.0509500 0.9959968 0.0509500 0.0040032 -0.0509500
413847 0.0037397 -0.0487681 0.9962603 0.0487681 0.9962603 0.0487681 0.0037397 -0.0487681
432798 0.0034959 -0.0466783 0.9965041 0.0466783 0.9965041 0.0466783 0.0034959 -0.0466783
452617 0.0032702 -0.0446768 0.9967298 0.0446768 0.9967298 0.0446768 0.0032702 -0.0446768
473344 0.0030612 -0.0427600 0.9969388 0.0427600 0.9969388 0.0427600 0.0030612 -0.0427600
495019 0.0028678 -0.0409243 0.9971322 0.0409243 0.9971322 0.0409243 0.0028678 -0.0409243
517687 0.0026888 -0.0391664 0.9973112 0.0391664 0.9973112 0.0391664 0.0026888 -0.0391664
541393 0.0025232 -0.0374831 0.9974768 0.0374831 0.9974768 0.0374831 0.0025232 -0.0374831
566185 0.0023699 -0.0358712 0.9976301 0.0358712 0.9976301 0.0358712 0.0023699 -0.0358712
592111 0.0022281 -0.0343279 0.9977719 0.0343279 0.9977719 0.0343279 0.0022281 -0.0343279
619225 0.0020968 -0.0328504 0.9979032 0.0328504 0.9979032 0.0328504 0.0020968 -0.0328504
647581 0.0019754 -0.0314358 0.9980246 0.0314358 0.9980246 0.0314358 0.0019754 -0.0314358
677235 0.0018631 -0.0300816 0.9981369 0.0300816 0.9981369 0.0300816 0.0018631 -0.0300816
708247 0.0017592 -0.0287853 0.9982408 0.0287853 0.9982408 0.0287853 0.0017592 -0.0287853
740679 0.0016631 -0.0275445 0.9983369 0.0275445 0.9983369 0.0275445 0.0016631 -0.0275445
774597 0.0015741 -0.0263569 0.9984259 0.0263569 0.9984259 0.0263569 0.0015741 -0.0263569
810067 0.0014917 -0.0252202 0.9985083 0.0252202 0.9985083 0.0252202 0.0014917 -0.0252202
847162 0.0014155 -0.0241324 0.9985845 0.0241324 0.9985845 0.0241324 0.0014155 -0.0241324
885955 0.0013448 -0.0230914 0.9986552 0.0230914 0.9986552 0.0230914 0.0013448 -0.0230914
926525 0.0012793 -0.0220952 0.9987207 0.0220952 0.9987207 0.0220952 0.0012793 -0.0220952
968953 0.0012186 -0.0211420 0.9987814 0.0211420 0.9987814 0.0211420 0.0012186 -0.0211420
1013323 0.0011622 -0.0202299 0.9988378 0.0202299 0.9988378 0.0202299 0.0011622 -0.0202299
1059725 0.0011098 -0.0193571 0.9988902 0.0193571 0.9988902 0.0193571 0.0011098 -0.0193571
1108252 0.0010610 -0.0185221 0.9989390 0.0185221 0.9989390 0.0185221 0.0010610 -0.0185221
1159002 0.0010156 -0.0177232 0.9989844 0.0177232 0.9989844 0.0177232 0.0010156 -0.0177232
1212075 0.0009733 -0.0169587 0.9990267 0.0169587 0.9990267 0.0169587 0.0009733 -0.0169587
1267578 0.0009337 -0.0162274 0.9990663 0.0162274 0.9990663 0.0162274 0.0009337 -0.0162274
1325623 0.0008967 -0.0155276 0.9991033 0.0155276 0.9991033 0.0155276 0.0008967 -0.0155276
1386327 0.0008621 -0.0148581 0.9991379 0.0148581 0.9991379 0.0148581 0.0008621 -0.0148581
1449809 0.0008296 -0.0142175 0.9991704 0.0142175 0.9991704 0.0142175 0.0008296 -0.0142175
1516199 0.0007991 -0.0136045 0.9992009 0.0136045 0.9992009 0.0136045 0.0007991 -0.0136045
1585629 0.0007703 -0.0130180 0.9992297 0.0130180 0.9992297 0.0130180 0.0007703 -0.0130180
1658239 0.0007433 -0.0124567 0.9992567 0.0124567 0.9992567 0.0124567 0.0007433 -0.0124567
1734173 0.0007177 -0.0119196 0.9992823 0.0119196 0.9992823 0.0119196 0.0007177 -0.0119196
1813585 0.0006935 -0.0114055 0.9993065 0.0114055 0.9993065 0.0114055 0.0006935 -0.0114055
1896632 0.0006707 -0.0109135 0.9993293 0.0109135 0.9993293 0.0109135 0.0006707 -0.0109135
1983483 0.0006490 -0.0104426 0.9993510 0.0104426 0.9993510 0.0104426 0.0006490 -0.0104426
2074311 0.0006284 -0.0099918 0.9993716 0.0099918 0.9993716 0.0099918 0.0006284 -0.0099918
