!Murata Part Number: GRM022R61C222KE01
!These Parameters are Measured in Series Mode Connection
!Data Generated on Mar 30, 2021
!       o--ll--o
!Port1            Port2
!       o------o
!Operation Temp=25[degC], DC Bias Voltage=0[V]
!Freq. Start=100[Hz] Stop=6[GHz] 401[Steps]
# Hz S RI R 50
!Freq.(Hz) S11(Real) S11(Imag) S21(Real) S21(Imag) S12(Real) S12(Imag) S22(Real) S22(Imag)
100 0.9999979 -0.0001036 0.0000021 0.0001036 0.0000021 0.0001036 0.9999979 -0.0001036
105 0.9999978 -0.0001082 0.0000022 0.0001082 0.0000022 0.0001082 0.9999978 -0.0001082
109 0.9999977 -0.0001131 0.0000023 0.0001131 0.0000023 0.0001131 0.9999977 -0.0001131
114 0.9999976 -0.0001182 0.0000024 0.0001182 0.0000024 0.0001182 0.9999976 -0.0001182
120 0.9999975 -0.0001236 0.0000025 0.0001236 0.0000025 0.0001236 0.9999975 -0.0001236
125 0.9999974 -0.0001292 0.0000026 0.0001292 0.0000026 0.0001292 0.9999974 -0.0001292
131 0.9999972 -0.0001350 0.0000028 0.0001350 0.0000028 0.0001350 0.9999972 -0.0001350
137 0.9999971 -0.0001411 0.0000029 0.0001411 0.0000029 0.0001411 0.9999971 -0.0001411
143 0.9999969 -0.0001475 0.0000031 0.0001475 0.0000031 0.0001475 0.9999969 -0.0001475
150 0.9999968 -0.0001541 0.0000032 0.0001541 0.0000032 0.0001541 0.9999968 -0.0001541
156 0.9999966 -0.0001611 0.0000034 0.0001611 0.0000034 0.0001611 0.9999966 -0.0001611
164 0.9999965 -0.0001683 0.0000035 0.0001683 0.0000035 0.0001683 0.9999965 -0.0001683
171 0.9999963 -0.0001759 0.0000037 0.0001759 0.0000037 0.0001759 0.9999963 -0.0001759
179 0.9999962 -0.0001838 0.0000038 0.0001838 0.0000038 0.0001838 0.9999962 -0.0001838
187 0.9999960 -0.0001921 0.0000040 0.0001921 0.0000040 0.0001921 0.9999960 -0.0001921
196 0.9999958 -0.0002008 0.0000042 0.0002008 0.0000042 0.0002008 0.9999958 -0.0002008
205 0.9999956 -0.0002098 0.0000044 0.0002098 0.0000044 0.0002098 0.9999956 -0.0002098
214 0.9999954 -0.0002193 0.0000046 0.0002193 0.0000046 0.0002193 0.9999954 -0.0002193
224 0.9999952 -0.0002292 0.0000048 0.0002292 0.0000048 0.0002292 0.9999952 -0.0002292
234 0.9999950 -0.0002396 0.0000050 0.0002396 0.0000050 0.0002396 0.9999950 -0.0002396
245 0.9999948 -0.0002504 0.0000052 0.0002504 0.0000052 0.0002504 0.9999948 -0.0002504
256 0.9999946 -0.0002617 0.0000054 0.0002617 0.0000054 0.0002617 0.9999946 -0.0002617
268 0.9999944 -0.0002735 0.0000056 0.0002735 0.0000056 0.0002735 0.9999944 -0.0002735
280 0.9999942 -0.0002859 0.0000058 0.0002859 0.0000058 0.0002859 0.9999942 -0.0002859
293 0.9999939 -0.0002988 0.0000061 0.0002988 0.0000061 0.0002988 0.9999939 -0.0002988
306 0.9999937 -0.0003123 0.0000063 0.0003123 0.0000063 0.0003123 0.9999937 -0.0003123
320 0.9999934 -0.0003264 0.0000066 0.0003264 0.0000066 0.0003264 0.9999934 -0.0003264
335 0.9999931 -0.0003412 0.0000069 0.0003412 0.0000069 0.0003412 0.9999931 -0.0003412
350 0.9999928 -0.0003566 0.0000072 0.0003566 0.0000072 0.0003566 0.9999928 -0.0003566
366 0.9999925 -0.0003728 0.0000075 0.0003728 0.0000075 0.0003728 0.9999925 -0.0003728
383 0.9999922 -0.0003897 0.0000078 0.0003897 0.0000078 0.0003897 0.9999922 -0.0003897
401 0.9999918 -0.0004073 0.0000082 0.0004073 0.0000082 0.0004073 0.9999918 -0.0004073
419 0.9999915 -0.0004258 0.0000085 0.0004258 0.0000085 0.0004258 0.9999915 -0.0004258
438 0.9999911 -0.0004451 0.0000089 0.0004451 0.0000089 0.0004451 0.9999911 -0.0004451
458 0.9999907 -0.0004652 0.0000093 0.0004652 0.0000093 0.0004652 0.9999907 -0.0004652
479 0.9999902 -0.0004863 0.0000098 0.0004863 0.0000098 0.0004863 0.9999902 -0.0004863
501 0.9999898 -0.0005084 0.0000102 0.0005084 0.0000102 0.0005084 0.9999898 -0.0005084
524 0.9999893 -0.0005314 0.0000107 0.0005314 0.0000107 0.0005314 0.9999893 -0.0005314
548 0.9999887 -0.0005555 0.0000113 0.0005555 0.0000113 0.0005555 0.9999887 -0.0005555
573 0.9999881 -0.0005806 0.0000119 0.0005806 0.0000119 0.0005806 0.9999881 -0.0005806
600 0.9999875 -0.0006069 0.0000125 0.0006069 0.0000125 0.0006069 0.9999875 -0.0006069
627 0.9999869 -0.0006344 0.0000131 0.0006344 0.0000131 0.0006344 0.9999869 -0.0006344
656 0.9999862 -0.0006632 0.0000138 0.0006632 0.0000138 0.0006632 0.9999862 -0.0006632
686 0.9999854 -0.0006932 0.0000146 0.0006932 0.0000146 0.0006932 0.9999854 -0.0006932
717 0.9999846 -0.0007245 0.0000154 0.0007245 0.0000154 0.0007245 0.9999846 -0.0007245
750 0.9999838 -0.0007573 0.0000162 0.0007573 0.0000162 0.0007573 0.9999838 -0.0007573
784 0.9999829 -0.0007916 0.0000171 0.0007916 0.0000171 0.0007916 0.9999829 -0.0007916
820 0.9999819 -0.0008274 0.0000181 0.0008274 0.0000181 0.0008274 0.9999819 -0.0008274
858 0.9999809 -0.0008648 0.0000191 0.0008648 0.0000191 0.0008648 0.9999809 -0.0008648
897 0.9999799 -0.0009038 0.0000201 0.0009038 0.0000201 0.0009038 0.9999799 -0.0009038
938 0.9999787 -0.0009446 0.0000213 0.0009446 0.0000213 0.0009446 0.9999787 -0.0009446
981 0.9999776 -0.0009873 0.0000224 0.0009873 0.0000224 0.0009873 0.9999776 -0.0009873
1026 0.9999763 -0.0010318 0.0000237 0.0010318 0.0000237 0.0010318 0.9999763 -0.0010318
1073 0.9999750 -0.0010783 0.0000250 0.0010783 0.0000250 0.0010783 0.9999750 -0.0010783
1122 0.9999736 -0.0011270 0.0000264 0.0011270 0.0000264 0.0011270 0.9999736 -0.0011270
1174 0.9999722 -0.0011777 0.0000278 0.0011777 0.0000278 0.0011777 0.9999722 -0.0011777
1227 0.9999706 -0.0012308 0.0000294 0.0012308 0.0000294 0.0012308 0.9999706 -0.0012308
1283 0.9999691 -0.0012862 0.0000309 0.0012862 0.0000309 0.0012862 0.9999691 -0.0012862
1342 0.9999674 -0.0013441 0.0000326 0.0013441 0.0000326 0.0013441 0.9999674 -0.0013441
1404 0.9999657 -0.0014046 0.0000343 0.0014046 0.0000343 0.0014046 0.9999657 -0.0014046
1468 0.9999639 -0.0014678 0.0000361 0.0014678 0.0000361 0.0014678 0.9999639 -0.0014678
1535 0.9999620 -0.0015339 0.0000380 0.0015339 0.0000380 0.0015339 0.9999620 -0.0015339
1606 0.9999601 -0.0016029 0.0000399 0.0016029 0.0000399 0.0016029 0.9999601 -0.0016029
1679 0.9999581 -0.0016750 0.0000419 0.0016750 0.0000419 0.0016750 0.9999581 -0.0016750
1756 0.9999560 -0.0017504 0.0000440 0.0017504 0.0000440 0.0017504 0.9999560 -0.0017504
1836 0.9999538 -0.0018292 0.0000462 0.0018292 0.0000462 0.0018292 0.9999538 -0.0018292
1920 0.9999516 -0.0019115 0.0000484 0.0019115 0.0000484 0.0019115 0.9999516 -0.0019115
2008 0.9999492 -0.0019976 0.0000508 0.0019976 0.0000508 0.0019976 0.9999492 -0.0019976
2100 0.9999468 -0.0020875 0.0000532 0.0020875 0.0000532 0.0020875 0.9999468 -0.0020875
2196 0.9999442 -0.0021815 0.0000558 0.0021815 0.0000558 0.0021815 0.9999442 -0.0021815
2297 0.9999416 -0.0022798 0.0000584 0.0022798 0.0000584 0.0022798 0.9999416 -0.0022798
2402 0.9999388 -0.0023825 0.0000612 0.0023825 0.0000612 0.0023825 0.9999388 -0.0023825
2512 0.9999359 -0.0024899 0.0000641 0.0024899 0.0000641 0.0024899 0.9999359 -0.0024899
2627 0.9999328 -0.0026022 0.0000672 0.0026022 0.0000672 0.0026022 0.9999328 -0.0026022
2748 0.9999296 -0.0027196 0.0000704 0.0027196 0.0000704 0.0027196 0.9999296 -0.0027196
2873 0.9999262 -0.0028423 0.0000738 0.0028423 0.0000738 0.0028423 0.9999262 -0.0028423
3005 0.9999226 -0.0029706 0.0000774 0.0029706 0.0000774 0.0029706 0.9999226 -0.0029706
3143 0.9999188 -0.0031047 0.0000812 0.0031047 0.0000812 0.0031047 0.9999188 -0.0031047
3287 0.9999148 -0.0032449 0.0000852 0.0032449 0.0000852 0.0032449 0.9999148 -0.0032449
3437 0.9999105 -0.0033915 0.0000895 0.0033915 0.0000895 0.0033915 0.9999105 -0.0033915
3594 0.9999060 -0.0035447 0.0000940 0.0035447 0.0000940 0.0035447 0.9999060 -0.0035447
3759 0.9999011 -0.0037049 0.0000989 0.0037049 0.0000989 0.0037049 0.9999011 -0.0037049
3931 0.9998959 -0.0038724 0.0001041 0.0038724 0.0001041 0.0038724 0.9998959 -0.0038724
4111 0.9998903 -0.0040475 0.0001097 0.0040475 0.0001097 0.0040475 0.9998903 -0.0040475
4299 0.9998844 -0.0042304 0.0001156 0.0042304 0.0001156 0.0042304 0.9998844 -0.0042304
4496 0.9998780 -0.0044217 0.0001220 0.0044217 0.0001220 0.0044217 0.9998780 -0.0044217
4702 0.9998711 -0.0046216 0.0001289 0.0046216 0.0001289 0.0046216 0.9998711 -0.0046216
4918 0.9998638 -0.0048305 0.0001362 0.0048305 0.0001362 0.0048305 0.9998638 -0.0048305
5143 0.9998559 -0.0050488 0.0001441 0.0050488 0.0001441 0.0050488 0.9998559 -0.0050488
5378 0.9998474 -0.0052770 0.0001526 0.0052770 0.0001526 0.0052770 0.9998474 -0.0052770
5625 0.9998384 -0.0055154 0.0001616 0.0055154 0.0001616 0.0055154 0.9998384 -0.0055154
5882 0.9998286 -0.0057645 0.0001714 0.0057645 0.0001714 0.0057645 0.9998286 -0.0057645
6151 0.9998181 -0.0060248 0.0001819 0.0060248 0.0001819 0.0060248 0.9998181 -0.0060248
6433 0.9998069 -0.0062967 0.0001931 0.0062967 0.0001931 0.0062967 0.9998069 -0.0062967
6728 0.9997949 -0.0065808 0.0002051 0.0065808 0.0002051 0.0065808 0.9997949 -0.0065808
7036 0.9997821 -0.0068775 0.0002179 0.0068775 0.0002179 0.0068775 0.9997821 -0.0068775
7358 0.9997683 -0.0071875 0.0002317 0.0071875 0.0002317 0.0071875 0.9997683 -0.0071875
7695 0.9997536 -0.0075114 0.0002464 0.0075114 0.0002464 0.0075114 0.9997536 -0.0075114
8047 0.9997379 -0.0078496 0.0002621 0.0078496 0.0002621 0.0078496 0.9997379 -0.0078496
8416 0.9997211 -0.0082029 0.0002789 0.0082029 0.0002789 0.0082029 0.9997211 -0.0082029
8801 0.9997032 -0.0085718 0.0002968 0.0085718 0.0002968 0.0085718 0.9997032 -0.0085718
9204 0.9996841 -0.0089572 0.0003159 0.0089572 0.0003159 0.0089572 0.9996841 -0.0089572
9626 0.9996638 -0.0093597 0.0003362 0.0093597 0.0003362 0.0093597 0.9996638 -0.0093597
10066 0.9996422 -0.0097800 0.0003578 0.0097800 0.0003578 0.0097800 0.9996422 -0.0097800
10527 0.9996193 -0.0102190 0.0003807 0.0102190 0.0003807 0.0102190 0.9996193 -0.0102190
11009 0.9995949 -0.0106775 0.0004051 0.0106775 0.0004051 0.0106775 0.9995949 -0.0106775
11514 0.9995690 -0.0111563 0.0004310 0.0111563 0.0004310 0.0111563 0.9995690 -0.0111563
12041 0.9995416 -0.0116564 0.0004584 0.0116564 0.0004584 0.0116564 0.9995416 -0.0116564
12592 0.9995125 -0.0121788 0.0004875 0.0121788 0.0004875 0.0121788 0.9995125 -0.0121788
13169 0.9994816 -0.0127244 0.0005184 0.0127244 0.0005184 0.0127244 0.9994816 -0.0127244
13772 0.9994489 -0.0132943 0.0005511 0.0132943 0.0005511 0.0132943 0.9994489 -0.0132943
14402 0.9994142 -0.0138897 0.0005858 0.0138897 0.0005858 0.0138897 0.9994142 -0.0138897
15062 0.9993774 -0.0145116 0.0006226 0.0145116 0.0006226 0.0145116 0.9993774 -0.0145116
15752 0.9993383 -0.0151613 0.0006617 0.0151613 0.0006617 0.0151613 0.9993383 -0.0151613
16473 0.9992968 -0.0158401 0.0007032 0.0158401 0.0007032 0.0158401 0.9992968 -0.0158401
17227 0.9992527 -0.0165494 0.0007473 0.0165494 0.0007473 0.0165494 0.9992527 -0.0165494
18016 0.9992058 -0.0172904 0.0007942 0.0172904 0.0007942 0.0172904 0.9992058 -0.0172904
18841 0.9991558 -0.0180648 0.0008442 0.0180648 0.0008442 0.0180648 0.9991558 -0.0180648
19704 0.9991025 -0.0188740 0.0008975 0.0188740 0.0008975 0.0188740 0.9991025 -0.0188740
20606 0.9990456 -0.0197196 0.0009544 0.0197196 0.0009544 0.0197196 0.9990456 -0.0197196
21550 0.9989848 -0.0206033 0.0010152 0.0206033 0.0010152 0.0206033 0.9989848 -0.0206033
22537 0.9989197 -0.0215268 0.0010803 0.0215268 0.0010803 0.0215268 0.9989197 -0.0215268
23569 0.9988499 -0.0224919 0.0011501 0.0224919 0.0011501 0.0224919 0.9988499 -0.0224919
24648 0.9987750 -0.0235005 0.0012250 0.0235005 0.0012250 0.0235005 0.9987750 -0.0235005
25777 0.9986945 -0.0245546 0.0013055 0.0245546 0.0013055 0.0245546 0.9986945 -0.0245546
26957 0.9986078 -0.0256562 0.0013922 0.0256562 0.0013922 0.0256562 0.9986078 -0.0256562
28191 0.9985145 -0.0268074 0.0014855 0.0268074 0.0014855 0.0268074 0.9985145 -0.0268074
29482 0.9984139 -0.0280104 0.0015861 0.0280104 0.0015861 0.0280104 0.9984139 -0.0280104
30832 0.9983052 -0.0292674 0.0016948 0.0292674 0.0016948 0.0292674 0.9983052 -0.0292674
32244 0.9981879 -0.0305809 0.0018121 0.0305809 0.0018121 0.0305809 0.9981879 -0.0305809
33721 0.9980610 -0.0319532 0.0019390 0.0319532 0.0019390 0.0319532 0.9980610 -0.0319532
35265 0.9979237 -0.0333870 0.0020763 0.0333870 0.0020763 0.0333870 0.9979237 -0.0333870
36880 0.9977751 -0.0348847 0.0022249 0.0348847 0.0022249 0.0348847 0.9977751 -0.0348847
38569 0.9976142 -0.0364492 0.0023858 0.0364492 0.0023858 0.0364492 0.9976142 -0.0364492
40335 0.9974399 -0.0380832 0.0025601 0.0380832 0.0025601 0.0380832 0.9974399 -0.0380832
42182 0.9972510 -0.0397897 0.0027490 0.0397897 0.0027490 0.0397897 0.9972510 -0.0397897
44113 0.9970463 -0.0415716 0.0029537 0.0415716 0.0029537 0.0415716 0.9970463 -0.0415716
46134 0.9968245 -0.0434321 0.0031755 0.0434321 0.0031755 0.0434321 0.9968245 -0.0434321
48246 0.9965840 -0.0453744 0.0034160 0.0453744 0.0034160 0.0453744 0.9965840 -0.0453744
50455 0.9963234 -0.0474019 0.0036766 0.0474019 0.0036766 0.0474019 0.9963234 -0.0474019
52766 0.9960410 -0.0495179 0.0039590 0.0495179 0.0039590 0.0495179 0.9960410 -0.0495179
55182 0.9957351 -0.0517260 0.0042649 0.0517260 0.0042649 0.0517260 0.9957351 -0.0517260
57709 0.9954036 -0.0540300 0.0045964 0.0540300 0.0045964 0.0540300 0.9954036 -0.0540300
60352 0.9950447 -0.0564335 0.0049553 0.0564335 0.0049553 0.0564335 0.9950447 -0.0564335
63115 0.9946561 -0.0589406 0.0053439 0.0589406 0.0053439 0.0589406 0.9946561 -0.0589406
66005 0.9942354 -0.0615553 0.0057646 0.0615553 0.0057646 0.0615553 0.9942354 -0.0615553
69028 0.9937803 -0.0642818 0.0062197 0.0642818 0.0062197 0.0642818 0.9937803 -0.0642818
72189 0.9932879 -0.0671244 0.0067121 0.0671244 0.0067121 0.0671244 0.9932879 -0.0671244
75495 0.9927555 -0.0700877 0.0072445 0.0700877 0.0072445 0.0700877 0.9927555 -0.0700877
78952 0.9921799 -0.0731762 0.0078201 0.0731762 0.0078201 0.0731762 0.9921799 -0.0731762
82567 0.9915579 -0.0763948 0.0084421 0.0763948 0.0084421 0.0763948 0.9915579 -0.0763948
86348 0.9908857 -0.0797484 0.0091143 0.0797484 0.0091143 0.0797484 0.9908857 -0.0797484
90302 0.9901596 -0.0832422 0.0098404 0.0832422 0.0098404 0.0832422 0.9901596 -0.0832422
94437 0.9893753 -0.0868814 0.0106247 0.0868814 0.0106247 0.0868814 0.9893753 -0.0868814
98762 0.9885283 -0.0906714 0.0114717 0.0906714 0.0114717 0.0906714 0.9885283 -0.0906714
103284 0.9876138 -0.0946179 0.0123862 0.0946179 0.0123862 0.0946179 0.9876138 -0.0946179
108014 0.9866263 -0.0987266 0.0133737 0.0987266 0.0133737 0.0987266 0.9866263 -0.0987266
112960 0.9855602 -0.1030033 0.0144398 0.1030033 0.0144398 0.1030033 0.9855602 -0.1030033
118133 0.9844091 -0.1074540 0.0155909 0.1074540 0.0155909 0.1074540 0.9844091 -0.1074540
123542 0.9831661 -0.1120848 0.0168339 0.1120848 0.0168339 0.1120848 0.9831661 -0.1120848
129199 0.9818240 -0.1169018 0.0181760 0.1169018 0.0181760 0.1169018 0.9818240 -0.1169018
135116 0.9803745 -0.1219111 0.0196255 0.1219111 0.0196255 0.1219111 0.9803745 -0.1219111
141303 0.9788090 -0.1271191 0.0211910 0.1271191 0.0211910 0.1271191 0.9788090 -0.1271191
147774 0.9771179 -0.1325316 0.0228821 0.1325316 0.0228821 0.1325316 0.9771179 -0.1325316
154540 0.9752911 -0.1381548 0.0247089 0.1381548 0.0247089 0.1381548 0.9752911 -0.1381548
161617 0.9733173 -0.1439943 0.0266827 0.1439943 0.0266827 0.1439943 0.9733173 -0.1439943
169018 0.9711845 -0.1500557 0.0288155 0.1500557 0.0288155 0.1500557 0.9711845 -0.1500557
176758 0.9688798 -0.1563441 0.0311202 0.1563441 0.0311202 0.1563441 0.9688798 -0.1563441
184852 0.9663895 -0.1628644 0.0336105 0.1628644 0.0336105 0.1628644 0.9663895 -0.1628644
193316 0.9636985 -0.1696206 0.0363015 0.1696206 0.0363015 0.1696206 0.9636985 -0.1696206
202169 0.9607910 -0.1766163 0.0392090 0.1766163 0.0392090 0.1766163 0.9607910 -0.1766163
211427 0.9576500 -0.1838543 0.0423500 0.1838543 0.0423500 0.1838543 0.9576500 -0.1838543
221108 0.9542578 -0.1913363 0.0457422 0.1913363 0.0457422 0.1913363 0.9542578 -0.1913363
231233 0.9505952 -0.1990631 0.0494048 0.1990631 0.0494048 0.1990631 0.9505952 -0.1990631
241822 0.9466422 -0.2070343 0.0533578 0.2070343 0.0533578 0.2070343 0.9466422 -0.2070343
252896 0.9423781 -0.2152480 0.0576219 0.2152480 0.0576219 0.2152480 0.9423781 -0.2152480
264476 0.9377808 -0.2237008 0.0622192 0.2237008 0.0622192 0.2237008 0.9377808 -0.2237008
276587 0.9328277 -0.2323877 0.0671723 0.2323877 0.0671723 0.2323877 0.9328277 -0.2323877
289253 0.9274953 -0.2413017 0.0725047 0.2413017 0.0725047 0.2413017 0.9274953 -0.2413017
302498 0.9217595 -0.2504336 0.0782405 0.2504336 0.0782405 0.2504336 0.9217595 -0.2504336
316350 0.9155959 -0.2597721 0.0844041 0.2597721 0.0844041 0.2597721 0.9155959 -0.2597721
330837 0.9089795 -0.2693035 0.0910205 0.2693035 0.0910205 0.2693035 0.9089795 -0.2693035
345986 0.9018856 -0.2790113 0.0981144 0.2790113 0.0981144 0.2790113 0.9018856 -0.2790113
361830 0.8942892 -0.2888764 0.1057108 0.2888764 0.1057108 0.2888764 0.8942892 -0.2888764
378399 0.8861661 -0.2988767 0.1138339 0.2988767 0.1138339 0.2988767 0.8861661 -0.2988767
395726 0.8774927 -0.3089871 0.1225073 0.3089871 0.1225073 0.3089871 0.8774927 -0.3089871
413847 0.8682464 -0.3191796 0.1317536 0.3191796 0.1317536 0.3191796 0.8682464 -0.3191796
432798 0.8584063 -0.3294227 0.1415937 0.3294227 0.1415937 0.3294227 0.8584063 -0.3294227
452617 0.8479529 -0.3396822 0.1520471 0.3396822 0.1520471 0.3396822 0.8479529 -0.3396822
473344 0.8368694 -0.3499203 0.1631306 0.3499203 0.1631306 0.3499203 0.8368694 -0.3499203
495019 0.8251412 -0.3600966 0.1748588 0.3600966 0.1748588 0.3600966 0.8251412 -0.3600966
517687 0.8127572 -0.3701676 0.1872428 0.3701676 0.1872428 0.3701676 0.8127572 -0.3701676
541393 0.7997095 -0.3800873 0.2002905 0.3800873 0.2002905 0.3800873 0.7997095 -0.3800873
566185 0.7859943 -0.3898073 0.2140057 0.3898073 0.2140057 0.3898073 0.7859943 -0.3898073
592111 0.7716121 -0.3992772 0.2283879 0.3992772 0.2283879 0.3992772 0.7716121 -0.3992772
619225 0.7565681 -0.4084449 0.2434319 0.4084449 0.2434319 0.4084449 0.7565681 -0.4084449
647581 0.7408727 -0.4172573 0.2591273 0.4172573 0.2591273 0.4172573 0.7408727 -0.4172573
677235 0.7245414 -0.4256606 0.2754586 0.4256606 0.2754586 0.4256606 0.7245414 -0.4256606
708247 0.7075954 -0.4336010 0.2924046 0.4336010 0.2924046 0.4336010 0.7075954 -0.4336010
740679 0.6900617 -0.4410255 0.3099383 0.4410255 0.3099383 0.4410255 0.6900617 -0.4410255
774597 0.6719729 -0.4478823 0.3280271 0.4478823 0.3280271 0.4478823 0.6719729 -0.4478823
810067 0.6533676 -0.4541217 0.3466324 0.4541217 0.3466324 0.4541217 0.6533676 -0.4541217
847162 0.6342899 -0.4596968 0.3657101 0.4596968 0.3657101 0.4596968 0.6342899 -0.4596968
885955 0.6147894 -0.4645642 0.3852106 0.4645642 0.3852106 0.4645642 0.6147894 -0.4645642
926525 0.5949207 -0.4686848 0.4050793 0.4686848 0.4050793 0.4686848 0.5949207 -0.4686848
968953 0.5747431 -0.4720246 0.4252569 0.4720246 0.4252569 0.4720246 0.5747431 -0.4720246
1013323 0.5543201 -0.4745551 0.4456799 0.4745551 0.4456799 0.4745551 0.5543201 -0.4745551
1059725 0.5337184 -0.4762540 0.4662816 0.4762540 0.4662816 0.4762540 0.5337184 -0.4762540
1108252 0.5130074 -0.4771059 0.4869926 0.4771059 0.4869926 0.4771059 0.5130074 -0.4771059
1159002 0.4922583 -0.4771022 0.5077417 0.4771022 0.5077417 0.4771022 0.4922583 -0.4771022
1212075 0.4715431 -0.4762419 0.5284569 0.4762419 0.5284569 0.4762419 0.4715431 -0.4762419
1267578 0.4509336 -0.4745313 0.5490664 0.4745313 0.5490664 0.4745313 0.4509336 -0.4745313
1325623 0.4305007 -0.4719840 0.5694993 0.4719840 0.5694993 0.4719840 0.4305007 -0.4719840
1386327 0.4103130 -0.4686209 0.5896870 0.4686209 0.5896870 0.4686209 0.4103130 -0.4686209
1449809 0.3904363 -0.4644699 0.6095637 0.4644699 0.6095637 0.4644699 0.3904363 -0.4644699
1516199 0.3709324 -0.4595648 0.6290676 0.4595648 0.6290676 0.4595648 0.3709324 -0.4595648
1585629 0.3518584 -0.4539456 0.6481416 0.4539456 0.6481416 0.4539456 0.3518584 -0.4539456
1658239 0.3332663 -0.4476570 0.6667337 0.4476570 0.6667337 0.4476570 0.3332663 -0.4476570
1734173 0.3152021 -0.4407479 0.6847979 0.4407479 0.6847979 0.4407479 0.3152021 -0.4407479
1813585 0.2977058 -0.4332705 0.7022942 0.4332705 0.7022942 0.4332705 0.2977058 -0.4332705
1896632 0.2808108 -0.4252796 0.7191892 0.4252796 0.7191892 0.4252796 0.2808108 -0.4252796
1983483 0.2645442 -0.4168312 0.7354558 0.4168312 0.7354558 0.4168312 0.2645442 -0.4168312
2074311 0.2489264 -0.4079822 0.7510736 0.4079822 0.7510736 0.4079822 0.2489264 -0.4079822
