!Murata Part Number: GRM022R60J104ME15
!These Parameters are Measured in Series Mode Connection
!Data Generated on Mar 30, 2021
!       o--ll--o
!Port1            Port2
!       o------o
!Operation Temp=25[degC], DC Bias Voltage=0[V]
!Freq. Start=100[Hz] Stop=6[GHz] 401[Steps]
# Hz S RI R 50
!Freq.(Hz) S11(Real) S11(Imag) S21(Real) S21(Imag) S12(Real) S12(Imag) S22(Real) S22(Imag)
100 0.9999153 -0.0054272 0.0000847 0.0054272 0.0000847 0.0054272 0.9999153 -0.0054272
105 0.9999102 -0.0056741 0.0000898 0.0056741 0.0000898 0.0056741 0.9999102 -0.0056741
109 0.9999048 -0.0059322 0.0000952 0.0059322 0.0000952 0.0059322 0.9999048 -0.0059322
114 0.9998990 -0.0062020 0.0001010 0.0062020 0.0001010 0.0062020 0.9998990 -0.0062020
120 0.9998928 -0.0064841 0.0001072 0.0064841 0.0001072 0.0064841 0.9998928 -0.0064841
125 0.9998861 -0.0067791 0.0001139 0.0067791 0.0001139 0.0067791 0.9998861 -0.0067791
131 0.9998789 -0.0070875 0.0001211 0.0070875 0.0001211 0.0070875 0.9998789 -0.0070875
137 0.9998711 -0.0074099 0.0001289 0.0074099 0.0001289 0.0074099 0.9998711 -0.0074099
143 0.9998627 -0.0077470 0.0001373 0.0077470 0.0001373 0.0077470 0.9998627 -0.0077470
150 0.9998537 -0.0080993 0.0001463 0.0080993 0.0001463 0.0080993 0.9998537 -0.0080993
156 0.9998441 -0.0084677 0.0001559 0.0084677 0.0001559 0.0084677 0.9998441 -0.0084677
164 0.9998336 -0.0088528 0.0001664 0.0088528 0.0001664 0.0088528 0.9998336 -0.0088528
171 0.9998224 -0.0092554 0.0001776 0.0092554 0.0001776 0.0092554 0.9998224 -0.0092554
179 0.9998104 -0.0096762 0.0001896 0.0096762 0.0001896 0.0096762 0.9998104 -0.0096762
187 0.9997974 -0.0101162 0.0002026 0.0101162 0.0002026 0.0101162 0.9997974 -0.0101162
196 0.9997834 -0.0105761 0.0002166 0.0105761 0.0002166 0.0105761 0.9997834 -0.0105761
205 0.9997684 -0.0110569 0.0002316 0.0110569 0.0002316 0.0110569 0.9997684 -0.0110569
214 0.9997522 -0.0115595 0.0002478 0.0115595 0.0002478 0.0115595 0.9997522 -0.0115595
224 0.9997348 -0.0120849 0.0002652 0.0120849 0.0002652 0.0120849 0.9997348 -0.0120849
234 0.9997161 -0.0126341 0.0002839 0.0126341 0.0002839 0.0126341 0.9997161 -0.0126341
245 0.9996960 -0.0132083 0.0003040 0.0132083 0.0003040 0.0132083 0.9996960 -0.0132083
256 0.9996743 -0.0138086 0.0003257 0.0138086 0.0003257 0.0138086 0.9996743 -0.0138086
268 0.9996509 -0.0144361 0.0003491 0.0144361 0.0003491 0.0144361 0.9996509 -0.0144361
280 0.9996258 -0.0150921 0.0003742 0.0150921 0.0003742 0.0150921 0.9996258 -0.0150921
293 0.9995986 -0.0157779 0.0004014 0.0157779 0.0004014 0.0157779 0.9995986 -0.0157779
306 0.9995694 -0.0164949 0.0004306 0.0164949 0.0004306 0.0164949 0.9995694 -0.0164949
320 0.9995378 -0.0172444 0.0004622 0.0172444 0.0004622 0.0172444 0.9995378 -0.0172444
335 0.9995037 -0.0180281 0.0004963 0.0180281 0.0004963 0.0180281 0.9995037 -0.0180281
350 0.9994669 -0.0188474 0.0005331 0.0188474 0.0005331 0.0188474 0.9994669 -0.0188474
366 0.9994270 -0.0197039 0.0005730 0.0197039 0.0005730 0.0197039 0.9994270 -0.0197039
383 0.9993839 -0.0205995 0.0006161 0.0205995 0.0006161 0.0205995 0.9993839 -0.0205995
401 0.9993372 -0.0215358 0.0006628 0.0215358 0.0006628 0.0215358 0.9993372 -0.0215358
419 0.9992866 -0.0225146 0.0007134 0.0225146 0.0007134 0.0225146 0.9992866 -0.0225146
438 0.9992317 -0.0235381 0.0007683 0.0235381 0.0007683 0.0235381 0.9992317 -0.0235381
458 0.9991722 -0.0246080 0.0008278 0.0246080 0.0008278 0.0246080 0.9991722 -0.0246080
479 0.9991076 -0.0257267 0.0008924 0.0257267 0.0008924 0.0257267 0.9991076 -0.0257267
501 0.9990374 -0.0268962 0.0009626 0.0268962 0.0009626 0.0268962 0.9990374 -0.0268962
524 0.9989610 -0.0281188 0.0010390 0.0281188 0.0010390 0.0281188 0.9989610 -0.0281188
548 0.9988781 -0.0293970 0.0011219 0.0293970 0.0011219 0.0293970 0.9988781 -0.0293970
573 0.9987878 -0.0307332 0.0012122 0.0307332 0.0012122 0.0307332 0.9987878 -0.0307332
600 0.9986895 -0.0321301 0.0013105 0.0321301 0.0013105 0.0321301 0.9986895 -0.0321301
627 0.9985825 -0.0335903 0.0014175 0.0335903 0.0014175 0.0335903 0.9985825 -0.0335903
656 0.9984660 -0.0351166 0.0015340 0.0351166 0.0015340 0.0351166 0.9984660 -0.0351166
686 0.9983391 -0.0367120 0.0016609 0.0367120 0.0016609 0.0367120 0.9983391 -0.0367120
717 0.9982008 -0.0383795 0.0017992 0.0383795 0.0017992 0.0383795 0.9982008 -0.0383795
750 0.9980502 -0.0401223 0.0019498 0.0401223 0.0019498 0.0401223 0.9980502 -0.0401223
784 0.9978859 -0.0419437 0.0021141 0.0419437 0.0021141 0.0419437 0.9978859 -0.0419437
820 0.9977070 -0.0438471 0.0022930 0.0438471 0.0022930 0.0438471 0.9977070 -0.0438471
858 0.9975119 -0.0458362 0.0024881 0.0458362 0.0024881 0.0458362 0.9975119 -0.0458362
897 0.9972992 -0.0479146 0.0027008 0.0479146 0.0027008 0.0479146 0.9972992 -0.0479146
938 0.9970674 -0.0500861 0.0029326 0.0500861 0.0029326 0.0500861 0.9970674 -0.0500861
981 0.9968147 -0.0523549 0.0031853 0.0523549 0.0031853 0.0523549 0.9968147 -0.0523549
1026 0.9965393 -0.0547250 0.0034607 0.0547250 0.0034607 0.0547250 0.9965393 -0.0547250
1073 0.9962391 -0.0572007 0.0037609 0.0572007 0.0037609 0.0572007 0.9962391 -0.0572007
1122 0.9959118 -0.0597866 0.0040882 0.0597866 0.0040882 0.0597866 0.9959118 -0.0597866
1174 0.9955552 -0.0624872 0.0044448 0.0624872 0.0044448 0.0624872 0.9955552 -0.0624872
1227 0.9951666 -0.0653074 0.0048334 0.0653074 0.0048334 0.0653074 0.9951666 -0.0653074
1283 0.9947431 -0.0682522 0.0052569 0.0682522 0.0052569 0.0682522 0.9947431 -0.0682522
1342 0.9942817 -0.0713266 0.0057183 0.0713266 0.0057183 0.0713266 0.9942817 -0.0713266
1404 0.9937790 -0.0745360 0.0062210 0.0745360 0.0062210 0.0745360 0.9937790 -0.0745360
1468 0.9932313 -0.0778859 0.0067687 0.0778859 0.0067687 0.0778859 0.9932313 -0.0778859
1535 0.9926347 -0.0813818 0.0073653 0.0813818 0.0073653 0.0813818 0.9926347 -0.0813818
1606 0.9919849 -0.0850297 0.0080151 0.0850297 0.0080151 0.0850297 0.9919849 -0.0850297
1679 0.9912772 -0.0888354 0.0087228 0.0888354 0.0087228 0.0888354 0.9912772 -0.0888354
1756 0.9905065 -0.0928051 0.0094935 0.0928051 0.0094935 0.0928051 0.9905065 -0.0928051
1836 0.9896672 -0.0969451 0.0103328 0.0969451 0.0103328 0.0969451 0.9896672 -0.0969451
1920 0.9887533 -0.1012616 0.0112467 0.1012616 0.0112467 0.1012616 0.9887533 -0.1012616
2008 0.9877583 -0.1057612 0.0122417 0.1057612 0.0122417 0.1057612 0.9877583 -0.1057612
2100 0.9866752 -0.1104504 0.0133248 0.1104504 0.0133248 0.1104504 0.9866752 -0.1104504
2196 0.9854961 -0.1153359 0.0145039 0.1153359 0.0145039 0.1153359 0.9854961 -0.1153359
2297 0.9842129 -0.1204243 0.0157871 0.1204243 0.0157871 0.1204243 0.9842129 -0.1204243
2402 0.9828163 -0.1257223 0.0171837 0.1257223 0.0171837 0.1257223 0.9828163 -0.1257223
2512 0.9812968 -0.1312364 0.0187032 0.1312364 0.0187032 0.1312364 0.9812968 -0.1312364
2627 0.9796438 -0.1369733 0.0203562 0.1369733 0.0203562 0.1369733 0.9796438 -0.1369733
2748 0.9778458 -0.1429391 0.0221542 0.1429391 0.0221542 0.1429391 0.9778458 -0.1429391
2873 0.9758906 -0.1491401 0.0241094 0.1491401 0.0241094 0.1491401 0.9758906 -0.1491401
3005 0.9737651 -0.1555821 0.0262349 0.1555821 0.0262349 0.1555821 0.9737651 -0.1555821
3143 0.9714550 -0.1622706 0.0285450 0.1622706 0.0285450 0.1622706 0.9714550 -0.1622706
3287 0.9689452 -0.1692105 0.0310548 0.1692105 0.0310548 0.1692105 0.9689452 -0.1692105
3437 0.9662193 -0.1764064 0.0337807 0.1764064 0.0337807 0.1764064 0.9662193 -0.1764064
3594 0.9632602 -0.1838619 0.0367398 0.1838619 0.0367398 0.1838619 0.9632602 -0.1838619
3759 0.9600494 -0.1915800 0.0399506 0.1915800 0.0399506 0.1915800 0.9600494 -0.1915800
3931 0.9565671 -0.1995626 0.0434329 0.1995626 0.0434329 0.1995626 0.9565671 -0.1995626
4111 0.9527928 -0.2078108 0.0472072 0.2078108 0.0472072 0.2078108 0.9527928 -0.2078108
4299 0.9487044 -0.2163239 0.0512956 0.2163239 0.0512956 0.2163239 0.9487044 -0.2163239
4496 0.9442790 -0.2251003 0.0557210 0.2251003 0.0557210 0.2251003 0.9442790 -0.2251003
4702 0.9394924 -0.2341364 0.0605076 0.2341364 0.0605076 0.2341364 0.9394924 -0.2341364
4918 0.9343196 -0.2434268 0.0656804 0.2434268 0.0656804 0.2434268 0.9343196 -0.2434268
5143 0.9287343 -0.2529643 0.0712657 0.2529643 0.0712657 0.2529643 0.9287343 -0.2529643
5378 0.9227097 -0.2627390 0.0772903 0.2627390 0.0772903 0.2627390 0.9227097 -0.2627390
5625 0.9162181 -0.2727388 0.0837819 0.2727388 0.0837819 0.2727388 0.9162181 -0.2727388
5882 0.9092314 -0.2829486 0.0907686 0.2829486 0.0907686 0.2829486 0.9092314 -0.2829486
6151 0.9017210 -0.2933507 0.0982790 0.2933507 0.0982790 0.2933507 0.9017210 -0.2933507
6433 0.8936584 -0.3039237 0.1063416 0.3039237 0.1063416 0.3039237 0.8936584 -0.3039237
6728 0.8850154 -0.3146432 0.1149846 0.3146432 0.1149846 0.3146432 0.8850154 -0.3146432
7036 0.8757644 -0.3254809 0.1242356 0.3254809 0.1242356 0.3254809 0.8757644 -0.3254809
7358 0.8658786 -0.3364049 0.1341214 0.3364049 0.1341214 0.3364049 0.8658786 -0.3364049
7695 0.8553329 -0.3473792 0.1446671 0.3473792 0.1446671 0.3473792 0.8553329 -0.3473792
8047 0.8441042 -0.3583640 0.1558958 0.3583640 0.1558958 0.3583640 0.8441042 -0.3583640
8416 0.8321716 -0.3693155 0.1678284 0.3693155 0.1678284 0.3693155 0.8321716 -0.3693155
8801 0.8195177 -0.3801857 0.1804823 0.3801857 0.1804823 0.3801857 0.8195177 -0.3801857
9204 0.8061286 -0.3909231 0.1938714 0.3909231 0.1938714 0.3909231 0.8061286 -0.3909231
9626 0.7919947 -0.4014724 0.2080053 0.4014724 0.2080053 0.4014724 0.7919947 -0.4014724
10066 0.7771116 -0.4117753 0.2228884 0.4117753 0.2228884 0.4117753 0.7771116 -0.4117753
10527 0.7614802 -0.4217704 0.2385198 0.4217704 0.2385198 0.4217704 0.7614802 -0.4217704
11009 0.7451080 -0.4313944 0.2548920 0.4313944 0.2548920 0.4313944 0.7451080 -0.4313944
11514 0.7280090 -0.4405824 0.2719910 0.4405824 0.2719910 0.4405824 0.7280090 -0.4405824
12041 0.7102044 -0.4492686 0.2897956 0.4492686 0.2897956 0.4492686 0.7102044 -0.4492686
12592 0.6917230 -0.4573878 0.3082770 0.4573878 0.3082770 0.4573878 0.6917230 -0.4573878
13169 0.6726013 -0.4648756 0.3273987 0.4648756 0.3273987 0.4648756 0.6726013 -0.4648756
13772 0.6528839 -0.4716704 0.3471161 0.4716704 0.3471161 0.4716704 0.6528839 -0.4716704
14402 0.6326225 -0.4777136 0.3673775 0.4777136 0.3673775 0.4777136 0.6326225 -0.4777136
15062 0.6118768 -0.4829514 0.3881232 0.4829514 0.3881232 0.4829514 0.6118768 -0.4829514
15752 0.5907129 -0.4873358 0.4092871 0.4873358 0.4092871 0.4873358 0.5907129 -0.4873358
16473 0.5692033 -0.4908252 0.4307967 0.4908252 0.4307967 0.4908252 0.5692033 -0.4908252
17227 0.5474256 -0.4933859 0.4525744 0.4933859 0.4525744 0.4933859 0.5474256 -0.4933859
18016 0.5254616 -0.4949926 0.4745384 0.4949926 0.4745384 0.4949926 0.5254616 -0.4949926
18841 0.5033963 -0.4956290 0.4966037 0.4956290 0.4966037 0.4956290 0.5033963 -0.4956290
19704 0.4813161 -0.4952885 0.5186839 0.4952885 0.5186839 0.4952885 0.4813161 -0.4952885
20606 0.4593078 -0.4939738 0.5406922 0.4939738 0.5406922 0.4939738 0.4593078 -0.4939738
21550 0.4374574 -0.4916974 0.5625426 0.4916974 0.5625426 0.4916974 0.4374574 -0.4916974
22537 0.4158482 -0.4884811 0.5841518 0.4884811 0.5841518 0.4884811 0.4158482 -0.4884811
23569 0.3945600 -0.4843556 0.6054400 0.4843556 0.6054400 0.4843556 0.3945600 -0.4843556
24648 0.3736679 -0.4793594 0.6263321 0.4793594 0.6263321 0.4793594 0.3736679 -0.4793594
25777 0.3532408 -0.4735386 0.6467592 0.4735386 0.6467592 0.4735386 0.3532408 -0.4735386
26957 0.3333415 -0.4669454 0.6666585 0.4669454 0.6666585 0.4669454 0.3333415 -0.4669454
28191 0.3140252 -0.4596370 0.6859748 0.4596370 0.6859748 0.4596370 0.3140252 -0.4596370
29482 0.2953394 -0.4516750 0.7046606 0.4516750 0.7046606 0.4516750 0.2953394 -0.4516750
30832 0.2773240 -0.4431233 0.7226760 0.4431233 0.7226760 0.4431233 0.2773240 -0.4431233
32244 0.2600106 -0.4340481 0.7399894 0.4340481 0.7399894 0.4340481 0.2600106 -0.4340481
33721 0.2434233 -0.4245157 0.7565767 0.4245157 0.7565767 0.4245157 0.2434233 -0.4245157
35265 0.2275784 -0.4145925 0.7724216 0.4145925 0.7724216 0.4145925 0.2275784 -0.4145925
36880 0.2124853 -0.4043433 0.7875147 0.4043433 0.7875147 0.4043433 0.2124853 -0.4043433
38569 0.1981467 -0.3938310 0.8018533 0.3938310 0.8018533 0.3938310 0.1981467 -0.3938310
40335 0.1845594 -0.3831159 0.8154406 0.3831159 0.8154406 0.3831159 0.1845594 -0.3831159
42182 0.1717147 -0.3722550 0.8282853 0.3722550 0.8282853 0.3722550 0.1717147 -0.3722550
44113 0.1595995 -0.3613016 0.8404005 0.3613016 0.8404005 0.3613016 0.1595995 -0.3613016
46134 0.1481964 -0.3503053 0.8518036 0.3503053 0.8518036 0.3503053 0.1481964 -0.3503053
48246 0.1374848 -0.3393115 0.8625152 0.3393115 0.8625152 0.3393115 0.1374848 -0.3393115
50455 0.1274414 -0.3283614 0.8725586 0.3283614 0.8725586 0.3283614 0.1274414 -0.3283614
52766 0.1180407 -0.3174921 0.8819593 0.3174921 0.8819593 0.3174921 0.1180407 -0.3174921
55182 0.1092556 -0.3067368 0.8907444 0.3067368 0.8907444 0.3067368 0.1092556 -0.3067368
57709 0.1010580 -0.2961243 0.8989420 0.2961243 0.8989420 0.2961243 0.1010580 -0.2961243
60352 0.0934191 -0.2856800 0.9065809 0.2856800 0.9065809 0.2856800 0.0934191 -0.2856800
63115 0.0863099 -0.2754256 0.9136901 0.2754256 0.9136901 0.2754256 0.0863099 -0.2754256
66005 0.0797014 -0.2653794 0.9202986 0.2653794 0.9202986 0.2653794 0.0797014 -0.2653794
69028 0.0735651 -0.2555566 0.9264349 0.2555566 0.9264349 0.2555566 0.0735651 -0.2555566
72189 0.0678728 -0.2459697 0.9321272 0.2459697 0.9321272 0.2459697 0.0678728 -0.2459697
75495 0.0625973 -0.2366284 0.9374027 0.2366284 0.9374027 0.2366284 0.0625973 -0.2366284
78952 0.0577123 -0.2275403 0.9422877 0.2275403 0.9422877 0.2275403 0.0577123 -0.2275403
82567 0.0531923 -0.2187106 0.9468077 0.2187106 0.9468077 0.2187106 0.0531923 -0.2187106
86348 0.0490132 -0.2101430 0.9509868 0.2101430 0.9509868 0.2101430 0.0490132 -0.2101430
90302 0.0451517 -0.2018394 0.9548483 0.2018394 0.9548483 0.2018394 0.0451517 -0.2018394
94437 0.0415861 -0.1938000 0.9584139 0.1938000 0.9584139 0.1938000 0.0415861 -0.1938000
98762 0.0382955 -0.1860243 0.9617045 0.1860243 0.9617045 0.1860243 0.0382955 -0.1860243
103284 0.0352604 -0.1785101 0.9647396 0.1785101 0.9647396 0.1785101 0.0352604 -0.1785101
108014 0.0324623 -0.1712548 0.9675377 0.1712548 0.9675377 0.1712548 0.0324623 -0.1712548
112960 0.0298840 -0.1642547 0.9701160 0.1642547 0.9701160 0.1642547 0.0298840 -0.1642547
118133 0.0275092 -0.1575055 0.9724908 0.1575055 0.9724908 0.1575055 0.0275092 -0.1575055
123542 0.0253227 -0.1510025 0.9746773 0.1510025 0.9746773 0.1510025 0.0253227 -0.1510025
129199 0.0233104 -0.1447403 0.9766896 0.1447403 0.9766896 0.1447403 0.0233104 -0.1447403
135116 0.0214592 -0.1387134 0.9785408 0.1387134 0.9785408 0.1387134 0.0214592 -0.1387134
141303 0.0197566 -0.1329158 0.9802434 0.1329158 0.9802434 0.1329158 0.0197566 -0.1329158
147774 0.0181913 -0.1273415 0.9818087 0.1273415 0.9818087 0.1273415 0.0181913 -0.1273415
154540 0.0167526 -0.1219842 0.9832474 0.1219842 0.9832474 0.1219842 0.0167526 -0.1219842
161617 0.0154305 -0.1168374 0.9845695 0.1168374 0.9845695 0.1168374 0.0154305 -0.1168374
169018 0.0142161 -0.1118948 0.9857839 0.1118948 0.9857839 0.1118948 0.0142161 -0.1118948
176758 0.0131007 -0.1071498 0.9868993 0.1071498 0.9868993 0.1071498 0.0131007 -0.1071498
184852 0.0120764 -0.1025961 0.9879236 0.1025961 0.9879236 0.1025961 0.0120764 -0.1025961
193316 0.0111360 -0.0982272 0.9888640 0.0982272 0.9888640 0.0982272 0.0111360 -0.0982272
202169 0.0102728 -0.0940367 0.9897272 0.0940367 0.9897272 0.0940367 0.0102728 -0.0940367
211427 0.0094805 -0.0900184 0.9905195 0.0900184 0.9905195 0.0900184 0.0094805 -0.0900184
221108 0.0087533 -0.0861661 0.9912467 0.0861661 0.9912467 0.0861661 0.0087533 -0.0861661
231233 0.0080859 -0.0824737 0.9919141 0.0824737 0.9919141 0.0824737 0.0080859 -0.0824737
241822 0.0074735 -0.0789353 0.9925265 0.0789353 0.9925265 0.0789353 0.0074735 -0.0789353
252896 0.0069114 -0.0755451 0.9930886 0.0755451 0.9930886 0.0755451 0.0069114 -0.0755451
264476 0.0063955 -0.0722974 0.9936045 0.0722974 0.9936045 0.0722974 0.0063955 -0.0722974
276587 0.0059221 -0.0691868 0.9940779 0.0691868 0.9940779 0.0691868 0.0059221 -0.0691868
289253 0.0054874 -0.0662078 0.9945126 0.0662078 0.9945126 0.0662078 0.0054874 -0.0662078
302498 0.0050883 -0.0633552 0.9949117 0.0633552 0.9949117 0.0633552 0.0050883 -0.0633552
316350 0.0047218 -0.0606241 0.9952782 0.0606241 0.9952782 0.0606241 0.0047218 -0.0606241
330837 0.0043852 -0.0580094 0.9956148 0.0580094 0.9956148 0.0580094 0.0043852 -0.0580094
345986 0.0040758 -0.0555065 0.9959242 0.0555065 0.9959242 0.0555065 0.0040758 -0.0555065
361830 0.0037915 -0.0531108 0.9962085 0.0531108 0.9962085 0.0531108 0.0037915 -0.0531108
378399 0.0035300 -0.0508178 0.9964700 0.0508178 0.9964700 0.0508178 0.0035300 -0.0508178
395726 0.0032894 -0.0486233 0.9967106 0.0486233 0.9967106 0.0486233 0.0032894 -0.0486233
413847 0.0030679 -0.0465231 0.9969321 0.0465231 0.9969321 0.0465231 0.0030679 -0.0465231
432798 0.0028640 -0.0445133 0.9971360 0.0445133 0.9971360 0.0445133 0.0028640 -0.0445133
452617 0.0026760 -0.0425901 0.9973240 0.0425901 0.9973240 0.0425901 0.0026760 -0.0425901
473344 0.0025027 -0.0407498 0.9974973 0.0407498 0.9974973 0.0407498 0.0025027 -0.0407498
495019 0.0023429 -0.0389888 0.9976571 0.0389888 0.9976571 0.0389888 0.0023429 -0.0389888
517687 0.0021953 -0.0373037 0.9978047 0.0373037 0.9978047 0.0373037 0.0021953 -0.0373037
541393 0.0020589 -0.0356913 0.9979411 0.0356913 0.9979411 0.0356913 0.0020589 -0.0356913
566185 0.0019329 -0.0341484 0.9980671 0.0341484 0.9980671 0.0341484 0.0019329 -0.0341484
592111 0.0018163 -0.0326721 0.9981837 0.0326721 0.9981837 0.0326721 0.0018163 -0.0326721
619225 0.0017085 -0.0312594 0.9982915 0.0312594 0.9982915 0.0312594 0.0017085 -0.0312594
647581 0.0016086 -0.0299077 0.9983914 0.0299077 0.9983914 0.0299077 0.0016086 -0.0299077
677235 0.0015160 -0.0286142 0.9984840 0.0286142 0.9984840 0.0286142 0.0015160 -0.0286142
708247 0.0014303 -0.0273764 0.9985697 0.0273764 0.9985697 0.0273764 0.0014303 -0.0273764
740679 0.0013508 -0.0261919 0.9986492 0.0261919 0.9986492 0.0261919 0.0013508 -0.0261919
774597 0.0012770 -0.0250584 0.9987230 0.0250584 0.9987230 0.0250584 0.0012770 -0.0250584
810067 0.0012086 -0.0239737 0.9987914 0.0239737 0.9987914 0.0239737 0.0012086 -0.0239737
847162 0.0011451 -0.0229357 0.9988549 0.0229357 0.9988549 0.0229357 0.0011451 -0.0229357
885955 0.0010862 -0.0219424 0.9989138 0.0219424 0.9989138 0.0219424 0.0010862 -0.0219424
926525 0.0010315 -0.0209918 0.9989685 0.0209918 0.9989685 0.0209918 0.0010315 -0.0209918
968953 0.0009807 -0.0200821 0.9990193 0.0200821 0.9990193 0.0200821 0.0009807 -0.0200821
1013323 0.0009336 -0.0192115 0.9990664 0.0192115 0.9990664 0.0192115 0.0009336 -0.0192115
1059725 0.0008898 -0.0183784 0.9991102 0.0183784 0.9991102 0.0183784 0.0008898 -0.0183784
1108252 0.0008492 -0.0175811 0.9991508 0.0175811 0.9991508 0.0175811 0.0008492 -0.0175811
1159002 0.0008115 -0.0168182 0.9991885 0.0168182 0.9991885 0.0168182 0.0008115 -0.0168182
1212075 0.0007766 -0.0160881 0.9992234 0.0160881 0.9992234 0.0160881 0.0007766 -0.0160881
1267578 0.0007441 -0.0153894 0.9992559 0.0153894 0.9992559 0.0153894 0.0007441 -0.0153894
1325623 0.0007140 -0.0147208 0.9992860 0.0147208 0.9992860 0.0147208 0.0007140 -0.0147208
1386327 0.0006860 -0.0140810 0.9993140 0.0140810 0.9993140 0.0140810 0.0006860 -0.0140810
1449809 0.0006600 -0.0134688 0.9993400 0.0134688 0.9993400 0.0134688 0.0006600 -0.0134688
1516199 0.0006359 -0.0128830 0.9993641 0.0128830 0.9993641 0.0128830 0.0006359 -0.0128830
1585629 0.0006135 -0.0123224 0.9993865 0.0123224 0.9993865 0.0123224 0.0006135 -0.0123224
1658239 0.0005928 -0.0117860 0.9994072 0.0117860 0.9994072 0.0117860 0.0005928 -0.0117860
1734173 0.0005734 -0.0112728 0.9994266 0.0112728 0.9994266 0.0112728 0.0005734 -0.0112728
1813585 0.0005555 -0.0107816 0.9994445 0.0107816 0.9994445 0.0107816 0.0005555 -0.0107816
1896632 0.0005388 -0.0103117 0.9994612 0.0103117 0.9994612 0.0103117 0.0005388 -0.0103117
1983483 0.0005232 -0.0098620 0.9994768 0.0098620 0.9994768 0.0098620 0.0005232 -0.0098620
2074311 0.0005088 -0.0094317 0.9994912 0.0094317 0.9994912 0.0094317 0.0005088 -0.0094317
