!Murata Part Number: GRM022B11A331MA01
!These Parameters are Measured in Series Mode Connection
!Data Generated on Mar 30, 2021
!       o--ll--o
!Port1            Port2
!       o------o
!Operation Temp=25[degC], DC Bias Voltage=0[V]
!Freq. Start=100[Hz] Stop=6[GHz] 401[Steps]
# Hz S RI R 50
!Freq.(Hz) S11(Real) S11(Imag) S21(Real) S21(Imag) S12(Real) S12(Imag) S22(Real) S22(Imag)
100 0.9999999 -0.0000211 0.0000001 0.0000211 0.0000001 0.0000211 0.9999999 -0.0000211
105 0.9999998 -0.0000220 0.0000002 0.0000220 0.0000002 0.0000220 0.9999998 -0.0000220
109 0.9999998 -0.0000230 0.0000002 0.0000230 0.0000002 0.0000230 0.9999998 -0.0000230
114 0.9999998 -0.0000241 0.0000002 0.0000241 0.0000002 0.0000241 0.9999998 -0.0000241
120 0.9999998 -0.0000252 0.0000002 0.0000252 0.0000002 0.0000252 0.9999998 -0.0000252
125 0.9999998 -0.0000263 0.0000002 0.0000263 0.0000002 0.0000263 0.9999998 -0.0000263
131 0.9999998 -0.0000275 0.0000002 0.0000275 0.0000002 0.0000275 0.9999998 -0.0000275
137 0.9999998 -0.0000288 0.0000002 0.0000288 0.0000002 0.0000288 0.9999998 -0.0000288
143 0.9999998 -0.0000301 0.0000002 0.0000301 0.0000002 0.0000301 0.9999998 -0.0000301
150 0.9999998 -0.0000315 0.0000002 0.0000315 0.0000002 0.0000315 0.9999998 -0.0000315
156 0.9999998 -0.0000329 0.0000002 0.0000329 0.0000002 0.0000329 0.9999998 -0.0000329
164 0.9999998 -0.0000344 0.0000002 0.0000344 0.0000002 0.0000344 0.9999998 -0.0000344
171 0.9999998 -0.0000360 0.0000002 0.0000360 0.0000002 0.0000360 0.9999998 -0.0000360
179 0.9999998 -0.0000376 0.0000002 0.0000376 0.0000002 0.0000376 0.9999998 -0.0000376
187 0.9999997 -0.0000393 0.0000003 0.0000393 0.0000003 0.0000393 0.9999997 -0.0000393
196 0.9999997 -0.0000411 0.0000003 0.0000411 0.0000003 0.0000411 0.9999997 -0.0000411
205 0.9999997 -0.0000430 0.0000003 0.0000430 0.0000003 0.0000430 0.9999997 -0.0000430
214 0.9999997 -0.0000450 0.0000003 0.0000450 0.0000003 0.0000450 0.9999997 -0.0000450
224 0.9999997 -0.0000470 0.0000003 0.0000470 0.0000003 0.0000470 0.9999997 -0.0000470
234 0.9999997 -0.0000492 0.0000003 0.0000492 0.0000003 0.0000492 0.9999997 -0.0000492
245 0.9999997 -0.0000514 0.0000003 0.0000514 0.0000003 0.0000514 0.9999997 -0.0000514
256 0.9999997 -0.0000537 0.0000003 0.0000537 0.0000003 0.0000537 0.9999997 -0.0000537
268 0.9999997 -0.0000562 0.0000003 0.0000562 0.0000003 0.0000562 0.9999997 -0.0000562
280 0.9999997 -0.0000588 0.0000003 0.0000588 0.0000003 0.0000588 0.9999997 -0.0000588
293 0.9999996 -0.0000614 0.0000004 0.0000614 0.0000004 0.0000614 0.9999996 -0.0000614
306 0.9999996 -0.0000642 0.0000004 0.0000642 0.0000004 0.0000642 0.9999996 -0.0000642
320 0.9999996 -0.0000672 0.0000004 0.0000672 0.0000004 0.0000672 0.9999996 -0.0000672
335 0.9999996 -0.0000702 0.0000004 0.0000702 0.0000004 0.0000702 0.9999996 -0.0000702
350 0.9999996 -0.0000735 0.0000004 0.0000735 0.0000004 0.0000735 0.9999996 -0.0000735
366 0.9999996 -0.0000768 0.0000004 0.0000768 0.0000004 0.0000768 0.9999996 -0.0000768
383 0.9999995 -0.0000803 0.0000005 0.0000803 0.0000005 0.0000803 0.9999995 -0.0000803
401 0.9999995 -0.0000840 0.0000005 0.0000840 0.0000005 0.0000840 0.9999995 -0.0000840
419 0.9999995 -0.0000878 0.0000005 0.0000878 0.0000005 0.0000878 0.9999995 -0.0000878
438 0.9999995 -0.0000918 0.0000005 0.0000918 0.0000005 0.0000918 0.9999995 -0.0000918
458 0.9999995 -0.0000960 0.0000005 0.0000960 0.0000005 0.0000960 0.9999995 -0.0000960
479 0.9999994 -0.0001004 0.0000006 0.0001004 0.0000006 0.0001004 0.9999994 -0.0001004
501 0.9999994 -0.0001050 0.0000006 0.0001050 0.0000006 0.0001050 0.9999994 -0.0001050
524 0.9999994 -0.0001098 0.0000006 0.0001098 0.0000006 0.0001098 0.9999994 -0.0001098
548 0.9999994 -0.0001148 0.0000006 0.0001148 0.0000006 0.0001148 0.9999994 -0.0001148
573 0.9999993 -0.0001200 0.0000007 0.0001200 0.0000007 0.0001200 0.9999993 -0.0001200
600 0.9999993 -0.0001255 0.0000007 0.0001255 0.0000007 0.0001255 0.9999993 -0.0001255
627 0.9999993 -0.0001312 0.0000007 0.0001312 0.0000007 0.0001312 0.9999993 -0.0001312
656 0.9999992 -0.0001372 0.0000008 0.0001372 0.0000008 0.0001372 0.9999992 -0.0001372
686 0.9999992 -0.0001435 0.0000008 0.0001435 0.0000008 0.0001435 0.9999992 -0.0001435
717 0.9999992 -0.0001500 0.0000008 0.0001500 0.0000008 0.0001500 0.9999992 -0.0001500
750 0.9999991 -0.0001568 0.0000009 0.0001568 0.0000009 0.0001568 0.9999991 -0.0001568
784 0.9999991 -0.0001640 0.0000009 0.0001640 0.0000009 0.0001640 0.9999991 -0.0001640
820 0.9999991 -0.0001715 0.0000009 0.0001715 0.0000009 0.0001715 0.9999991 -0.0001715
858 0.9999990 -0.0001793 0.0000010 0.0001793 0.0000010 0.0001793 0.9999990 -0.0001793
897 0.9999990 -0.0001875 0.0000010 0.0001875 0.0000010 0.0001875 0.9999990 -0.0001875
938 0.9999989 -0.0001960 0.0000011 0.0001960 0.0000011 0.0001960 0.9999989 -0.0001960
981 0.9999989 -0.0002050 0.0000011 0.0002050 0.0000011 0.0002050 0.9999989 -0.0002050
1026 0.9999988 -0.0002143 0.0000012 0.0002143 0.0000012 0.0002143 0.9999988 -0.0002143
1073 0.9999988 -0.0002241 0.0000012 0.0002241 0.0000012 0.0002241 0.9999988 -0.0002241
1122 0.9999987 -0.0002344 0.0000013 0.0002344 0.0000013 0.0002344 0.9999987 -0.0002344
1174 0.9999987 -0.0002451 0.0000013 0.0002451 0.0000013 0.0002451 0.9999987 -0.0002451
1227 0.9999986 -0.0002562 0.0000014 0.0002562 0.0000014 0.0002562 0.9999986 -0.0002562
1283 0.9999986 -0.0002679 0.0000014 0.0002679 0.0000014 0.0002679 0.9999986 -0.0002679
1342 0.9999985 -0.0002802 0.0000015 0.0002802 0.0000015 0.0002802 0.9999985 -0.0002802
1404 0.9999984 -0.0002930 0.0000016 0.0002930 0.0000016 0.0002930 0.9999984 -0.0002930
1468 0.9999984 -0.0003063 0.0000016 0.0003063 0.0000016 0.0003063 0.9999984 -0.0003063
1535 0.9999983 -0.0003203 0.0000017 0.0003203 0.0000017 0.0003203 0.9999983 -0.0003203
1606 0.9999982 -0.0003350 0.0000018 0.0003350 0.0000018 0.0003350 0.9999982 -0.0003350
1679 0.9999981 -0.0003503 0.0000019 0.0003503 0.0000019 0.0003503 0.9999981 -0.0003503
1756 0.9999981 -0.0003663 0.0000019 0.0003663 0.0000019 0.0003663 0.9999981 -0.0003663
1836 0.9999980 -0.0003830 0.0000020 0.0003830 0.0000020 0.0003830 0.9999980 -0.0003830
1920 0.9999979 -0.0004005 0.0000021 0.0004005 0.0000021 0.0004005 0.9999979 -0.0004005
2008 0.9999978 -0.0004188 0.0000022 0.0004188 0.0000022 0.0004188 0.9999978 -0.0004188
2100 0.9999977 -0.0004379 0.0000023 0.0004379 0.0000023 0.0004379 0.9999977 -0.0004379
2196 0.9999975 -0.0004579 0.0000025 0.0004579 0.0000025 0.0004579 0.9999975 -0.0004579
2297 0.9999974 -0.0004788 0.0000026 0.0004788 0.0000026 0.0004788 0.9999974 -0.0004788
2402 0.9999973 -0.0005006 0.0000027 0.0005006 0.0000027 0.0005006 0.9999973 -0.0005006
2512 0.9999971 -0.0005235 0.0000029 0.0005235 0.0000029 0.0005235 0.9999971 -0.0005235
2627 0.9999970 -0.0005474 0.0000030 0.0005474 0.0000030 0.0005474 0.9999970 -0.0005474
2748 0.9999968 -0.0005724 0.0000032 0.0005724 0.0000032 0.0005724 0.9999968 -0.0005724
2873 0.9999967 -0.0005985 0.0000033 0.0005985 0.0000033 0.0005985 0.9999967 -0.0005985
3005 0.9999965 -0.0006259 0.0000035 0.0006259 0.0000035 0.0006259 0.9999965 -0.0006259
3143 0.9999963 -0.0006544 0.0000037 0.0006544 0.0000037 0.0006544 0.9999963 -0.0006544
3287 0.9999961 -0.0006843 0.0000039 0.0006843 0.0000039 0.0006843 0.9999961 -0.0006843
3437 0.9999959 -0.0007155 0.0000041 0.0007155 0.0000041 0.0007155 0.9999959 -0.0007155
3594 0.9999956 -0.0007482 0.0000044 0.0007482 0.0000044 0.0007482 0.9999956 -0.0007482
3759 0.9999954 -0.0007823 0.0000046 0.0007823 0.0000046 0.0007823 0.9999954 -0.0007823
3931 0.9999951 -0.0008180 0.0000049 0.0008180 0.0000049 0.0008180 0.9999951 -0.0008180
4111 0.9999949 -0.0008554 0.0000051 0.0008554 0.0000051 0.0008554 0.9999949 -0.0008554
4299 0.9999946 -0.0008944 0.0000054 0.0008944 0.0000054 0.0008944 0.9999946 -0.0008944
4496 0.9999943 -0.0009352 0.0000057 0.0009352 0.0000057 0.0009352 0.9999943 -0.0009352
4702 0.9999940 -0.0009779 0.0000060 0.0009779 0.0000060 0.0009779 0.9999940 -0.0009779
4918 0.9999936 -0.0010225 0.0000064 0.0010225 0.0000064 0.0010225 0.9999936 -0.0010225
5143 0.9999933 -0.0010691 0.0000067 0.0010691 0.0000067 0.0010691 0.9999933 -0.0010691
5378 0.9999929 -0.0011179 0.0000071 0.0011179 0.0000071 0.0011179 0.9999929 -0.0011179
5625 0.9999926 -0.0011689 0.0000074 0.0011689 0.0000074 0.0011689 0.9999926 -0.0011689
5882 0.9999922 -0.0012222 0.0000078 0.0012222 0.0000078 0.0012222 0.9999922 -0.0012222
6151 0.9999917 -0.0012780 0.0000083 0.0012780 0.0000083 0.0012780 0.9999917 -0.0012780
6433 0.9999913 -0.0013363 0.0000087 0.0013363 0.0000087 0.0013363 0.9999913 -0.0013363
6728 0.9999908 -0.0013973 0.0000092 0.0013973 0.0000092 0.0013973 0.9999908 -0.0013973
7036 0.9999903 -0.0014611 0.0000097 0.0014611 0.0000097 0.0014611 0.9999903 -0.0014611
7358 0.9999898 -0.0015277 0.0000102 0.0015277 0.0000102 0.0015277 0.9999898 -0.0015277
7695 0.9999892 -0.0015975 0.0000108 0.0015975 0.0000108 0.0015975 0.9999892 -0.0015975
8047 0.9999887 -0.0016704 0.0000113 0.0016704 0.0000113 0.0016704 0.9999887 -0.0016704
8416 0.9999880 -0.0017466 0.0000120 0.0017466 0.0000120 0.0017466 0.9999880 -0.0017466
8801 0.9999874 -0.0018263 0.0000126 0.0018263 0.0000126 0.0018263 0.9999874 -0.0018263
9204 0.9999867 -0.0019097 0.0000133 0.0019097 0.0000133 0.0019097 0.9999867 -0.0019097
9626 0.9999859 -0.0019969 0.0000141 0.0019969 0.0000141 0.0019969 0.9999859 -0.0019969
10066 0.9999851 -0.0020881 0.0000149 0.0020881 0.0000149 0.0020881 0.9999851 -0.0020881
10527 0.9999842 -0.0021834 0.0000158 0.0021834 0.0000158 0.0021834 0.9999842 -0.0021834
11009 0.9999833 -0.0022831 0.0000167 0.0022831 0.0000167 0.0022831 0.9999833 -0.0022831
11514 0.9999823 -0.0023874 0.0000177 0.0023874 0.0000177 0.0023874 0.9999823 -0.0023874
12041 0.9999812 -0.0024964 0.0000188 0.0024964 0.0000188 0.0024964 0.9999812 -0.0024964
12592 0.9999800 -0.0026104 0.0000200 0.0026104 0.0000200 0.0026104 0.9999800 -0.0026104
13169 0.9999788 -0.0027296 0.0000212 0.0027296 0.0000212 0.0027296 0.9999788 -0.0027296
13772 0.9999774 -0.0028543 0.0000226 0.0028543 0.0000226 0.0028543 0.9999774 -0.0028543
14402 0.9999759 -0.0029846 0.0000241 0.0029846 0.0000241 0.0029846 0.9999759 -0.0029846
15062 0.9999744 -0.0031210 0.0000256 0.0031210 0.0000256 0.0031210 0.9999744 -0.0031210
15752 0.9999727 -0.0032635 0.0000273 0.0032635 0.0000273 0.0032635 0.9999727 -0.0032635
16473 0.9999708 -0.0034125 0.0000292 0.0034125 0.0000292 0.0034125 0.9999708 -0.0034125
17227 0.9999688 -0.0035684 0.0000312 0.0035684 0.0000312 0.0035684 0.9999688 -0.0035684
18016 0.9999666 -0.0037313 0.0000334 0.0037313 0.0000334 0.0037313 0.9999666 -0.0037313
18841 0.9999643 -0.0039017 0.0000357 0.0039017 0.0000357 0.0039017 0.9999643 -0.0039017
19704 0.9999617 -0.0040799 0.0000383 0.0040799 0.0000383 0.0040799 0.9999617 -0.0040799
20606 0.9999590 -0.0042662 0.0000410 0.0042662 0.0000410 0.0042662 0.9999590 -0.0042662
21550 0.9999560 -0.0044609 0.0000440 0.0044609 0.0000440 0.0044609 0.9999560 -0.0044609
22537 0.9999528 -0.0046646 0.0000472 0.0046646 0.0000472 0.0046646 0.9999528 -0.0046646
23569 0.9999493 -0.0048775 0.0000507 0.0048775 0.0000507 0.0048775 0.9999493 -0.0048775
24648 0.9999455 -0.0051001 0.0000545 0.0051001 0.0000545 0.0051001 0.9999455 -0.0051001
25777 0.9999414 -0.0053328 0.0000586 0.0053328 0.0000586 0.0053328 0.9999414 -0.0053328
26957 0.9999370 -0.0055762 0.0000630 0.0055762 0.0000630 0.0055762 0.9999370 -0.0055762
28191 0.9999323 -0.0058306 0.0000677 0.0058306 0.0000677 0.0058306 0.9999323 -0.0058306
29482 0.9999272 -0.0060966 0.0000728 0.0060966 0.0000728 0.0060966 0.9999272 -0.0060966
30832 0.9999216 -0.0063746 0.0000784 0.0063746 0.0000784 0.0063746 0.9999216 -0.0063746
32244 0.9999157 -0.0066654 0.0000843 0.0066654 0.0000843 0.0066654 0.9999157 -0.0066654
33721 0.9999092 -0.0069693 0.0000908 0.0069693 0.0000908 0.0069693 0.9999092 -0.0069693
35265 0.9999023 -0.0072870 0.0000977 0.0072870 0.0000977 0.0072870 0.9999023 -0.0072870
36880 0.9998948 -0.0076193 0.0001052 0.0076193 0.0001052 0.0076193 0.9998948 -0.0076193
38569 0.9998868 -0.0079666 0.0001132 0.0079666 0.0001132 0.0079666 0.9998868 -0.0079666
40335 0.9998781 -0.0083297 0.0001219 0.0083297 0.0001219 0.0083297 0.9998781 -0.0083297
42182 0.9998687 -0.0087093 0.0001313 0.0087093 0.0001313 0.0087093 0.9998687 -0.0087093
44113 0.9998586 -0.0091061 0.0001414 0.0091061 0.0001414 0.0091061 0.9998586 -0.0091061
46134 0.9998478 -0.0095211 0.0001522 0.0095211 0.0001522 0.0095211 0.9998478 -0.0095211
48246 0.9998361 -0.0099549 0.0001639 0.0099549 0.0001639 0.0099549 0.9998361 -0.0099549
50455 0.9998234 -0.0104084 0.0001766 0.0104084 0.0001766 0.0104084 0.9998234 -0.0104084
52766 0.9998098 -0.0108826 0.0001902 0.0108826 0.0001902 0.0108826 0.9998098 -0.0108826
55182 0.9997951 -0.0113784 0.0002049 0.0113784 0.0002049 0.0113784 0.9997951 -0.0113784
57709 0.9997793 -0.0118967 0.0002207 0.0118967 0.0002207 0.0118967 0.9997793 -0.0118967
60352 0.9997621 -0.0124387 0.0002379 0.0124387 0.0002379 0.0124387 0.9997621 -0.0124387
63115 0.9997436 -0.0130054 0.0002564 0.0130054 0.0002564 0.0130054 0.9997436 -0.0130054
66005 0.9997236 -0.0135978 0.0002764 0.0135978 0.0002764 0.0135978 0.9997236 -0.0135978
69028 0.9997019 -0.0142173 0.0002981 0.0142173 0.0002981 0.0142173 0.9997019 -0.0142173
72189 0.9996785 -0.0148650 0.0003215 0.0148650 0.0003215 0.0148650 0.9996785 -0.0148650
75495 0.9996531 -0.0155422 0.0003469 0.0155422 0.0003469 0.0155422 0.9996531 -0.0155422
78952 0.9996255 -0.0162503 0.0003745 0.0162503 0.0003745 0.0162503 0.9996255 -0.0162503
82567 0.9995956 -0.0169907 0.0004044 0.0169907 0.0004044 0.0169907 0.9995956 -0.0169907
86348 0.9995631 -0.0177648 0.0004369 0.0177648 0.0004369 0.0177648 0.9995631 -0.0177648
90302 0.9995279 -0.0185742 0.0004721 0.0185742 0.0004721 0.0185742 0.9995279 -0.0185742
94437 0.9994896 -0.0194204 0.0005104 0.0194204 0.0005104 0.0194204 0.9994896 -0.0194204
98762 0.9994479 -0.0203052 0.0005521 0.0203052 0.0005521 0.0203052 0.9994479 -0.0203052
103284 0.9994026 -0.0212303 0.0005974 0.0212303 0.0005974 0.0212303 0.9994026 -0.0212303
108014 0.9993532 -0.0221976 0.0006468 0.0221976 0.0006468 0.0221976 0.9993532 -0.0221976
112960 0.9992995 -0.0232088 0.0007005 0.0232088 0.0007005 0.0232088 0.9992995 -0.0232088
118133 0.9992410 -0.0242660 0.0007590 0.0242660 0.0007590 0.0242660 0.9992410 -0.0242660
123542 0.9991773 -0.0253712 0.0008227 0.0253712 0.0008227 0.0253712 0.9991773 -0.0253712
129199 0.9991079 -0.0265266 0.0008921 0.0265266 0.0008921 0.0265266 0.9991079 -0.0265266
135116 0.9990322 -0.0277345 0.0009678 0.0277345 0.0009678 0.0277345 0.9990322 -0.0277345
141303 0.9989498 -0.0289971 0.0010502 0.0289971 0.0010502 0.0289971 0.9989498 -0.0289971
147774 0.9988599 -0.0303169 0.0011401 0.0303169 0.0011401 0.0303169 0.9988599 -0.0303169
154540 0.9987619 -0.0316965 0.0012381 0.0316965 0.0012381 0.0316965 0.9987619 -0.0316965
161617 0.9986551 -0.0331385 0.0013449 0.0331385 0.0013449 0.0331385 0.9986551 -0.0331385
169018 0.9985386 -0.0346455 0.0014614 0.0346455 0.0014614 0.0346455 0.9985386 -0.0346455
176758 0.9984116 -0.0362206 0.0015884 0.0362206 0.0015884 0.0362206 0.9984116 -0.0362206
184852 0.9982732 -0.0378666 0.0017268 0.0378666 0.0017268 0.0378666 0.9982732 -0.0378666
193316 0.9981223 -0.0395868 0.0018777 0.0395868 0.0018777 0.0395868 0.9981223 -0.0395868
202169 0.9979579 -0.0413842 0.0020421 0.0413842 0.0020421 0.0413842 0.9979579 -0.0413842
211427 0.9977787 -0.0432622 0.0022213 0.0432622 0.0022213 0.0432622 0.9977787 -0.0432622
221108 0.9975833 -0.0452244 0.0024167 0.0452244 0.0024167 0.0452244 0.9975833 -0.0452244
231233 0.9973705 -0.0472743 0.0026295 0.0472743 0.0026295 0.0472743 0.9973705 -0.0472743
241822 0.9971386 -0.0494158 0.0028614 0.0494158 0.0028614 0.0494158 0.9971386 -0.0494158
252896 0.9968860 -0.0516528 0.0031140 0.0516528 0.0031140 0.0516528 0.9968860 -0.0516528
264476 0.9966109 -0.0539892 0.0033891 0.0539892 0.0033891 0.0539892 0.9966109 -0.0539892
276587 0.9963113 -0.0564294 0.0036887 0.0564294 0.0036887 0.0564294 0.9963113 -0.0564294
289253 0.9959850 -0.0589777 0.0040150 0.0589777 0.0040150 0.0589777 0.9959850 -0.0589777
302498 0.9956298 -0.0616387 0.0043702 0.0616387 0.0043702 0.0616387 0.9956298 -0.0616387
316350 0.9952431 -0.0644171 0.0047569 0.0644171 0.0047569 0.0644171 0.9952431 -0.0644171
330837 0.9948222 -0.0673177 0.0051778 0.0673177 0.0051778 0.0673177 0.9948222 -0.0673177
345986 0.9943641 -0.0703456 0.0056359 0.0703456 0.0056359 0.0703456 0.9943641 -0.0703456
361830 0.9938655 -0.0735060 0.0061345 0.0735060 0.0061345 0.0735060 0.9938655 -0.0735060
378399 0.9933230 -0.0768043 0.0066770 0.0768043 0.0066770 0.0768043 0.9933230 -0.0768043
395726 0.9927327 -0.0802461 0.0072673 0.0802461 0.0072673 0.0802461 0.9927327 -0.0802461
413847 0.9920904 -0.0838372 0.0079096 0.0838372 0.0079096 0.0838372 0.9920904 -0.0838372
432798 0.9913917 -0.0875833 0.0086083 0.0875833 0.0086083 0.0875833 0.9913917 -0.0875833
452617 0.9906314 -0.0914907 0.0093686 0.0914907 0.0093686 0.0914907 0.9906314 -0.0914907
473344 0.9898044 -0.0955653 0.0101956 0.0955653 0.0101956 0.0955653 0.9898044 -0.0955653
495019 0.9889048 -0.0998137 0.0110952 0.0998137 0.0110952 0.0998137 0.9889048 -0.0998137
517687 0.9879261 -0.1042422 0.0120739 0.1042422 0.0120739 0.1042422 0.9879261 -0.1042422
541393 0.9868616 -0.1088574 0.0131384 0.1088574 0.0131384 0.1088574 0.9868616 -0.1088574
566185 0.9857036 -0.1136659 0.0142964 0.1136659 0.0142964 0.1136659 0.9857036 -0.1136659
592111 0.9844442 -0.1186743 0.0155558 0.1186743 0.0155558 0.1186743 0.9844442 -0.1186743
619225 0.9830743 -0.1238894 0.0169257 0.1238894 0.0169257 0.1238894 0.9830743 -0.1238894
647581 0.9815846 -0.1293176 0.0184154 0.1293176 0.0184154 0.1293176 0.9815846 -0.1293176
677235 0.9799647 -0.1349656 0.0200353 0.1349656 0.0200353 0.1349656 0.9799647 -0.1349656
708247 0.9782034 -0.1408397 0.0217966 0.1408397 0.0217966 0.1408397 0.9782034 -0.1408397
740679 0.9762886 -0.1469461 0.0237114 0.1469461 0.0237114 0.1469461 0.9762886 -0.1469461
774597 0.9742075 -0.1532907 0.0257925 0.1532907 0.0257925 0.1532907 0.9742075 -0.1532907
810067 0.9719461 -0.1598791 0.0280539 0.1598791 0.0280539 0.1598791 0.9719461 -0.1598791
847162 0.9694894 -0.1667164 0.0305106 0.1667164 0.0305106 0.1667164 0.9694894 -0.1667164
885955 0.9668215 -0.1738070 0.0331785 0.1738070 0.0331785 0.1738070 0.9668215 -0.1738070
926525 0.9639253 -0.1811549 0.0360747 0.1811549 0.0360747 0.1811549 0.9639253 -0.1811549
968953 0.9607825 -0.1887632 0.0392175 0.1887632 0.0392175 0.1887632 0.9607825 -0.1887632
1013323 0.9573739 -0.1966339 0.0426261 0.1966339 0.0426261 0.1966339 0.9573739 -0.1966339
1059725 0.9536788 -0.2047681 0.0463212 0.2047681 0.0463212 0.2047681 0.9536788 -0.2047681
1108252 0.9496758 -0.2131656 0.0503242 0.2131656 0.0503242 0.2131656 0.9496758 -0.2131656
1159002 0.9453420 -0.2218248 0.0546580 0.2218248 0.0546580 0.2218248 0.9453420 -0.2218248
1212075 0.9406536 -0.2307423 0.0593464 0.2307423 0.0593464 0.2307423 0.9406536 -0.2307423
1267578 0.9355858 -0.2399132 0.0644142 0.2399132 0.0644142 0.2399132 0.9355858 -0.2399132
1325623 0.9301126 -0.2493302 0.0698874 0.2493302 0.0698874 0.2493302 0.9301126 -0.2493302
1386327 0.9242074 -0.2589840 0.0757926 0.2589840 0.0757926 0.2589840 0.9242074 -0.2589840
1449809 0.9178429 -0.2688627 0.0821571 0.2688627 0.0821571 0.2688627 0.9178429 -0.2688627
1516199 0.9109912 -0.2789516 0.0890088 0.2789516 0.0890088 0.2789516 0.9109912 -0.2789516
1585629 0.9036242 -0.2892332 0.0963758 0.2892332 0.0963758 0.2892332 0.9036242 -0.2892332
1658239 0.8957136 -0.2996868 0.1042864 0.2996868 0.1042864 0.2996868 0.8957136 -0.2996868
1734173 0.8872316 -0.3102882 0.1127684 0.3102882 0.1127684 0.3102882 0.8872316 -0.3102882
1813585 0.8781507 -0.3210099 0.1218493 0.3210099 0.1218493 0.3210099 0.8781507 -0.3210099
1896632 0.8684448 -0.3318204 0.1315552 0.3318204 0.1315552 0.3318204 0.8684448 -0.3318204
1983483 0.8580890 -0.3426846 0.1419110 0.3426846 0.1419110 0.3426846 0.8580890 -0.3426846
2074311 0.8470603 -0.3535634 0.1529397 0.3535634 0.1529397 0.3535634 0.8470603 -0.3535634
