!Murata Part Number: GRM022R61A562KE19
!These Parameters are Measured in Series Mode Connection
!Data Generated on Mar 30, 2021
!       o--ll--o
!Port1            Port2
!       o------o
!Operation Temp=25[degC], DC Bias Voltage=0[V]
!Freq. Start=100[Hz] Stop=6[GHz] 401[Steps]
# Hz S RI R 50
!Freq.(Hz) S11(Real) S11(Imag) S21(Real) S21(Imag) S12(Real) S12(Imag) S22(Real) S22(Imag)
100 0.9999919 -0.0003035 0.0000081 0.0003035 0.0000081 0.0003035 0.9999919 -0.0003035
105 0.9999915 -0.0003171 0.0000085 0.0003171 0.0000085 0.0003171 0.9999915 -0.0003171
109 0.9999911 -0.0003314 0.0000089 0.0003314 0.0000089 0.0003314 0.9999911 -0.0003314
114 0.9999907 -0.0003462 0.0000093 0.0003462 0.0000093 0.0003462 0.9999907 -0.0003462
120 0.9999903 -0.0003618 0.0000097 0.0003618 0.0000097 0.0003618 0.9999903 -0.0003618
125 0.9999899 -0.0003780 0.0000101 0.0003780 0.0000101 0.0003780 0.9999899 -0.0003780
131 0.9999894 -0.0003950 0.0000106 0.0003950 0.0000106 0.0003950 0.9999894 -0.0003950
137 0.9999890 -0.0004128 0.0000110 0.0004128 0.0000110 0.0004128 0.9999890 -0.0004128
143 0.9999885 -0.0004313 0.0000115 0.0004313 0.0000115 0.0004313 0.9999885 -0.0004313
150 0.9999880 -0.0004508 0.0000120 0.0004508 0.0000120 0.0004508 0.9999880 -0.0004508
156 0.9999874 -0.0004710 0.0000126 0.0004710 0.0000126 0.0004710 0.9999874 -0.0004710
164 0.9999869 -0.0004922 0.0000131 0.0004922 0.0000131 0.0004922 0.9999869 -0.0004922
171 0.9999863 -0.0005144 0.0000137 0.0005144 0.0000137 0.0005144 0.9999863 -0.0005144
179 0.9999856 -0.0005376 0.0000144 0.0005376 0.0000144 0.0005376 0.9999856 -0.0005376
187 0.9999850 -0.0005618 0.0000150 0.0005618 0.0000150 0.0005618 0.9999850 -0.0005618
196 0.9999843 -0.0005871 0.0000157 0.0005871 0.0000157 0.0005871 0.9999843 -0.0005871
205 0.9999835 -0.0006135 0.0000165 0.0006135 0.0000165 0.0006135 0.9999835 -0.0006135
214 0.9999827 -0.0006412 0.0000173 0.0006412 0.0000173 0.0006412 0.9999827 -0.0006412
224 0.9999819 -0.0006701 0.0000181 0.0006701 0.0000181 0.0006701 0.9999819 -0.0006701
234 0.9999810 -0.0007002 0.0000190 0.0007002 0.0000190 0.0007002 0.9999810 -0.0007002
245 0.9999801 -0.0007318 0.0000199 0.0007318 0.0000199 0.0007318 0.9999801 -0.0007318
256 0.9999791 -0.0007647 0.0000209 0.0007647 0.0000209 0.0007647 0.9999791 -0.0007647
268 0.9999781 -0.0007991 0.0000219 0.0007991 0.0000219 0.0007991 0.9999781 -0.0007991
280 0.9999770 -0.0008351 0.0000230 0.0008351 0.0000230 0.0008351 0.9999770 -0.0008351
293 0.9999758 -0.0008727 0.0000242 0.0008727 0.0000242 0.0008727 0.9999758 -0.0008727
306 0.9999746 -0.0009119 0.0000254 0.0009119 0.0000254 0.0009119 0.9999746 -0.0009119
320 0.9999733 -0.0009529 0.0000267 0.0009529 0.0000267 0.0009529 0.9999733 -0.0009529
335 0.9999720 -0.0009958 0.0000280 0.0009958 0.0000280 0.0009958 0.9999720 -0.0009958
350 0.9999706 -0.0010405 0.0000294 0.0010405 0.0000294 0.0010405 0.9999706 -0.0010405
366 0.9999691 -0.0010873 0.0000309 0.0010873 0.0000309 0.0010873 0.9999691 -0.0010873
383 0.9999676 -0.0011361 0.0000324 0.0011361 0.0000324 0.0011361 0.9999676 -0.0011361
401 0.9999660 -0.0011871 0.0000340 0.0011871 0.0000340 0.0011871 0.9999660 -0.0011871
419 0.9999643 -0.0012404 0.0000357 0.0012404 0.0000357 0.0012404 0.9999643 -0.0012404
438 0.9999626 -0.0012961 0.0000374 0.0012961 0.0000374 0.0012961 0.9999626 -0.0012961
458 0.9999608 -0.0013543 0.0000392 0.0013543 0.0000392 0.0013543 0.9999608 -0.0013543
479 0.9999589 -0.0014150 0.0000411 0.0014150 0.0000411 0.0014150 0.9999589 -0.0014150
501 0.9999569 -0.0014786 0.0000431 0.0014786 0.0000431 0.0014786 0.9999569 -0.0014786
524 0.9999549 -0.0015449 0.0000451 0.0015449 0.0000451 0.0015449 0.9999549 -0.0015449
548 0.9999528 -0.0016143 0.0000472 0.0016143 0.0000472 0.0016143 0.9999528 -0.0016143
573 0.9999506 -0.0016867 0.0000494 0.0016867 0.0000494 0.0016867 0.9999506 -0.0016867
600 0.9999484 -0.0017625 0.0000516 0.0017625 0.0000516 0.0017625 0.9999484 -0.0017625
627 0.9999460 -0.0018416 0.0000540 0.0018416 0.0000540 0.0018416 0.9999460 -0.0018416
656 0.9999435 -0.0019243 0.0000565 0.0019243 0.0000565 0.0019243 0.9999435 -0.0019243
686 0.9999410 -0.0020108 0.0000590 0.0020108 0.0000590 0.0020108 0.9999410 -0.0020108
717 0.9999383 -0.0021012 0.0000617 0.0021012 0.0000617 0.0021012 0.9999383 -0.0021012
750 0.9999355 -0.0021957 0.0000645 0.0021957 0.0000645 0.0021957 0.9999355 -0.0021957
784 0.9999326 -0.0022944 0.0000674 0.0022944 0.0000674 0.0022944 0.9999326 -0.0022944
820 0.9999296 -0.0023977 0.0000704 0.0023977 0.0000704 0.0023977 0.9999296 -0.0023977
858 0.9999264 -0.0025056 0.0000736 0.0025056 0.0000736 0.0025056 0.9999264 -0.0025056
897 0.9999230 -0.0026184 0.0000770 0.0026184 0.0000770 0.0026184 0.9999230 -0.0026184
938 0.9999194 -0.0027363 0.0000806 0.0027363 0.0000806 0.0027363 0.9999194 -0.0027363
981 0.9999157 -0.0028596 0.0000843 0.0028596 0.0000843 0.0028596 0.9999157 -0.0028596
1026 0.9999117 -0.0029885 0.0000883 0.0029885 0.0000883 0.0029885 0.9999117 -0.0029885
1073 0.9999074 -0.0031233 0.0000926 0.0031233 0.0000926 0.0031233 0.9999074 -0.0031233
1122 0.9999029 -0.0032641 0.0000971 0.0032641 0.0000971 0.0032641 0.9999029 -0.0032641
1174 0.9998981 -0.0034113 0.0001019 0.0034113 0.0001019 0.0034113 0.9998981 -0.0034113
1227 0.9998930 -0.0035652 0.0001070 0.0035652 0.0001070 0.0035652 0.9998930 -0.0035652
1283 0.9998876 -0.0037260 0.0001124 0.0037260 0.0001124 0.0037260 0.9998876 -0.0037260
1342 0.9998817 -0.0038941 0.0001183 0.0038941 0.0001183 0.0038941 0.9998817 -0.0038941
1404 0.9998755 -0.0040698 0.0001245 0.0040698 0.0001245 0.0040698 0.9998755 -0.0040698
1468 0.9998688 -0.0042534 0.0001312 0.0042534 0.0001312 0.0042534 0.9998688 -0.0042534
1535 0.9998617 -0.0044453 0.0001383 0.0044453 0.0001383 0.0044453 0.9998617 -0.0044453
1606 0.9998541 -0.0046458 0.0001459 0.0046458 0.0001459 0.0046458 0.9998541 -0.0046458
1679 0.9998459 -0.0048552 0.0001541 0.0048552 0.0001541 0.0048552 0.9998459 -0.0048552
1756 0.9998372 -0.0050741 0.0001628 0.0050741 0.0001628 0.0050741 0.9998372 -0.0050741
1836 0.9998278 -0.0053028 0.0001722 0.0053028 0.0001722 0.0053028 0.9998278 -0.0053028
1920 0.9998178 -0.0055417 0.0001822 0.0055417 0.0001822 0.0055417 0.9998178 -0.0055417
2008 0.9998071 -0.0057912 0.0001929 0.0057912 0.0001929 0.0057912 0.9998071 -0.0057912
2100 0.9997957 -0.0060519 0.0002043 0.0060519 0.0002043 0.0060519 0.9997957 -0.0060519
2196 0.9997836 -0.0063242 0.0002164 0.0063242 0.0002164 0.0063242 0.9997836 -0.0063242
2297 0.9997706 -0.0066086 0.0002294 0.0066086 0.0002294 0.0066086 0.9997706 -0.0066086
2402 0.9997568 -0.0069056 0.0002432 0.0069056 0.0002432 0.0069056 0.9997568 -0.0069056
2512 0.9997421 -0.0072158 0.0002579 0.0072158 0.0002579 0.0072158 0.9997421 -0.0072158
2627 0.9997265 -0.0075398 0.0002735 0.0075398 0.0002735 0.0075398 0.9997265 -0.0075398
2748 0.9997099 -0.0078782 0.0002901 0.0078782 0.0002901 0.0078782 0.9997099 -0.0078782
2873 0.9996923 -0.0082315 0.0003077 0.0082315 0.0003077 0.0082315 0.9996923 -0.0082315
3005 0.9996736 -0.0086006 0.0003264 0.0086006 0.0003264 0.0086006 0.9996736 -0.0086006
3143 0.9996538 -0.0089860 0.0003462 0.0089860 0.0003462 0.0089860 0.9996538 -0.0089860
3287 0.9996329 -0.0093885 0.0003671 0.0093885 0.0003671 0.0093885 0.9996329 -0.0093885
3437 0.9996108 -0.0098088 0.0003892 0.0098088 0.0003892 0.0098088 0.9996108 -0.0098088
3594 0.9995873 -0.0102479 0.0004127 0.0102479 0.0004127 0.0102479 0.9995873 -0.0102479
3759 0.9995626 -0.0107064 0.0004374 0.0107064 0.0004374 0.0107064 0.9995626 -0.0107064
3931 0.9995364 -0.0111854 0.0004636 0.0111854 0.0004636 0.0111854 0.9995364 -0.0111854
4111 0.9995088 -0.0116858 0.0004912 0.0116858 0.0004912 0.0116858 0.9995088 -0.0116858
4299 0.9994796 -0.0122084 0.0005204 0.0122084 0.0005204 0.0122084 0.9994796 -0.0122084
4496 0.9994487 -0.0127545 0.0005513 0.0127545 0.0005513 0.0127545 0.9994487 -0.0127545
4702 0.9994160 -0.0133249 0.0005840 0.0133249 0.0005840 0.0133249 0.9994160 -0.0133249
4918 0.9993813 -0.0139210 0.0006187 0.0139210 0.0006187 0.0139210 0.9993813 -0.0139210
5143 0.9993446 -0.0145437 0.0006554 0.0145437 0.0006554 0.0145437 0.9993446 -0.0145437
5378 0.9993056 -0.0151945 0.0006944 0.0151945 0.0006944 0.0151945 0.9993056 -0.0151945
5625 0.9992642 -0.0158745 0.0007358 0.0158745 0.0007358 0.0158745 0.9992642 -0.0158745
5882 0.9992201 -0.0165852 0.0007799 0.0165852 0.0007799 0.0165852 0.9992201 -0.0165852
6151 0.9991732 -0.0173279 0.0008268 0.0173279 0.0008268 0.0173279 0.9991732 -0.0173279
6433 0.9991231 -0.0181040 0.0008769 0.0181040 0.0008769 0.0181040 0.9991231 -0.0181040
6728 0.9990695 -0.0189152 0.0009305 0.0189152 0.0009305 0.0189152 0.9990695 -0.0189152
7036 0.9990122 -0.0197630 0.0009878 0.0197630 0.0009878 0.0197630 0.9990122 -0.0197630
7358 0.9989508 -0.0206491 0.0010492 0.0206491 0.0010492 0.0206491 0.9989508 -0.0206491
7695 0.9988848 -0.0215752 0.0011152 0.0215752 0.0011152 0.0215752 0.9988848 -0.0215752
8047 0.9988140 -0.0225430 0.0011860 0.0225430 0.0011860 0.0225430 0.9988140 -0.0225430
8416 0.9987377 -0.0235544 0.0012623 0.0235544 0.0012623 0.0235544 0.9987377 -0.0235544
8801 0.9986555 -0.0246114 0.0013445 0.0246114 0.0013445 0.0246114 0.9986555 -0.0246114
9204 0.9985670 -0.0257160 0.0014330 0.0257160 0.0014330 0.0257160 0.9985670 -0.0257160
9626 0.9984713 -0.0268701 0.0015287 0.0268701 0.0015287 0.0268701 0.9984713 -0.0268701
10066 0.9983680 -0.0280761 0.0016320 0.0280761 0.0016320 0.0280761 0.9983680 -0.0280761
10527 0.9982564 -0.0293361 0.0017436 0.0293361 0.0017436 0.0293361 0.9982564 -0.0293361
11009 0.9981356 -0.0306524 0.0018644 0.0306524 0.0018644 0.0306524 0.9981356 -0.0306524
11514 0.9980049 -0.0320274 0.0019951 0.0320274 0.0019951 0.0320274 0.9980049 -0.0320274
12041 0.9978635 -0.0334636 0.0021365 0.0334636 0.0021365 0.0334636 0.9978635 -0.0334636
12592 0.9977103 -0.0349636 0.0022897 0.0349636 0.0022897 0.0349636 0.9977103 -0.0349636
13169 0.9975445 -0.0365300 0.0024555 0.0365300 0.0024555 0.0365300 0.9975445 -0.0365300
13772 0.9973650 -0.0381657 0.0026350 0.0381657 0.0026350 0.0381657 0.9973650 -0.0381657
14402 0.9971706 -0.0398734 0.0028294 0.0398734 0.0028294 0.0398734 0.9971706 -0.0398734
15062 0.9969600 -0.0416561 0.0030400 0.0416561 0.0030400 0.0416561 0.9969600 -0.0416561
15752 0.9967321 -0.0435168 0.0032679 0.0435168 0.0032679 0.0435168 0.9967321 -0.0435168
16473 0.9964855 -0.0454588 0.0035145 0.0454588 0.0035145 0.0454588 0.9964855 -0.0454588
17227 0.9962185 -0.0474854 0.0037815 0.0474854 0.0037815 0.0474854 0.9962185 -0.0474854
18016 0.9959298 -0.0495998 0.0040702 0.0495998 0.0040702 0.0495998 0.9959298 -0.0495998
18841 0.9956175 -0.0518058 0.0043825 0.0518058 0.0043825 0.0518058 0.9956175 -0.0518058
19704 0.9952798 -0.0541069 0.0047202 0.0541069 0.0047202 0.0541069 0.9952798 -0.0541069
20606 0.9949149 -0.0565068 0.0050851 0.0565068 0.0050851 0.0565068 0.9949149 -0.0565068
21550 0.9945206 -0.0590097 0.0054794 0.0590097 0.0054794 0.0590097 0.9945206 -0.0590097
22537 0.9940947 -0.0616194 0.0059053 0.0616194 0.0059053 0.0616194 0.9940947 -0.0616194
23569 0.9936349 -0.0643404 0.0063651 0.0643404 0.0063651 0.0643404 0.9936349 -0.0643404
24648 0.9931385 -0.0671769 0.0068615 0.0671769 0.0068615 0.0671769 0.9931385 -0.0671769
25777 0.9926027 -0.0701336 0.0073973 0.0701336 0.0073973 0.0701336 0.9926027 -0.0701336
26957 0.9920246 -0.0732152 0.0079754 0.0732152 0.0079754 0.0732152 0.9920246 -0.0732152
28191 0.9914009 -0.0764265 0.0085991 0.0764265 0.0085991 0.0764265 0.9914009 -0.0764265
29482 0.9907281 -0.0797727 0.0092719 0.0797727 0.0092719 0.0797727 0.9907281 -0.0797727
30832 0.9900024 -0.0832591 0.0099976 0.0832591 0.0099976 0.0832591 0.9900024 -0.0832591
32244 0.9892195 -0.0868910 0.0107805 0.0868910 0.0107805 0.0868910 0.9892195 -0.0868910
33721 0.9883750 -0.0906741 0.0116250 0.0906741 0.0116250 0.0906741 0.9883750 -0.0906741
35265 0.9874639 -0.0946141 0.0125361 0.0946141 0.0125361 0.0946141 0.9874639 -0.0946141
36880 0.9864808 -0.0987170 0.0135192 0.0987170 0.0135192 0.0987170 0.9864808 -0.0987170
38569 0.9854199 -0.1029887 0.0145801 0.1029887 0.0145801 0.1029887 0.9854199 -0.1029887
40335 0.9842746 -0.1074354 0.0157254 0.1074354 0.0157254 0.1074354 0.9842746 -0.1074354
42182 0.9830382 -0.1120633 0.0169618 0.1120633 0.0169618 0.1120633 0.9830382 -0.1120633
44113 0.9817028 -0.1168786 0.0182972 0.1168786 0.0182972 0.1168786 0.9817028 -0.1168786
46134 0.9802603 -0.1218875 0.0197397 0.1218875 0.0197397 0.1218875 0.9802603 -0.1218875
48246 0.9787017 -0.1270964 0.0212983 0.1270964 0.0212983 0.1270964 0.9787017 -0.1270964
50455 0.9770173 -0.1325112 0.0229827 0.1325112 0.0229827 0.1325112 0.9770173 -0.1325112
52766 0.9751965 -0.1381378 0.0248035 0.1381378 0.0248035 0.1381378 0.9751965 -0.1381378
55182 0.9732279 -0.1439821 0.0267721 0.1439821 0.0267721 0.1439821 0.9732279 -0.1439821
57709 0.9710994 -0.1500493 0.0289006 0.1500493 0.0289006 0.1500493 0.9710994 -0.1500493
60352 0.9687978 -0.1563444 0.0312022 0.1563444 0.0312022 0.1563444 0.9687978 -0.1563444
63115 0.9663090 -0.1628721 0.0336910 0.1628721 0.0336910 0.1628721 0.9663090 -0.1628721
66005 0.9636180 -0.1696362 0.0363820 0.1696362 0.0363820 0.1696362 0.9636180 -0.1696362
69028 0.9607088 -0.1766399 0.0392912 0.1766399 0.0392912 0.1766399 0.9607088 -0.1766399
72189 0.9575643 -0.1838857 0.0424357 0.1838857 0.0424357 0.1838857 0.9575643 -0.1838857
75495 0.9541667 -0.1913750 0.0458333 0.1913750 0.0458333 0.1913750 0.9541667 -0.1913750
78952 0.9504969 -0.1991082 0.0495031 0.1991082 0.0495031 0.1991082 0.9504969 -0.1991082
82567 0.9465352 -0.2070846 0.0534648 0.2070846 0.0534648 0.2070846 0.9465352 -0.2070846
86348 0.9422606 -0.2153018 0.0577394 0.2153018 0.0577394 0.2153018 0.9422606 -0.2153018
90302 0.9376516 -0.2237562 0.0623484 0.2237562 0.0623484 0.2237562 0.9376516 -0.2237562
94437 0.9326858 -0.2324423 0.0673142 0.2324423 0.0673142 0.2324423 0.9326858 -0.2324423
98762 0.9273400 -0.2413528 0.0726600 0.2413528 0.0726600 0.2413528 0.9273400 -0.2413528
103284 0.9215908 -0.2504783 0.0784092 0.2504783 0.0784092 0.2504783 0.9215908 -0.2504783
108014 0.9154140 -0.2598073 0.0845860 0.2598073 0.0845860 0.2598073 0.9154140 -0.2598073
112960 0.9087854 -0.2693259 0.0912146 0.2693259 0.0912146 0.2693259 0.9087854 -0.2693259
118133 0.9016807 -0.2790177 0.0983193 0.2790177 0.0983193 0.2790177 0.9016807 -0.2790177
123542 0.8940759 -0.2888635 0.1059241 0.2888635 0.1059241 0.2888635 0.8940759 -0.2888635
129199 0.8859474 -0.2988416 0.1140526 0.2988416 0.1140526 0.2988416 0.8859474 -0.2988416
135116 0.8772722 -0.3089271 0.1227278 0.3089271 0.1227278 0.3089271 0.8772722 -0.3089271
141303 0.8680286 -0.3190925 0.1319714 0.3190925 0.1319714 0.3190925 0.8680286 -0.3190925
147774 0.8581960 -0.3293069 0.1418040 0.3293069 0.1418040 0.3293069 0.8581960 -0.3293069
154540 0.8477559 -0.3395369 0.1522441 0.3395369 0.1522441 0.3395369 0.8477559 -0.3395369
161617 0.8366917 -0.3497457 0.1633083 0.3497457 0.1633083 0.3497457 0.8366917 -0.3497457
169018 0.8249892 -0.3598938 0.1750108 0.3598938 0.1750108 0.3598938 0.8249892 -0.3598938
176758 0.8126374 -0.3699391 0.1873626 0.3699391 0.1873626 0.3699391 0.8126374 -0.3699391
184852 0.7996284 -0.3798366 0.2003716 0.3798366 0.2003716 0.3798366 0.7996284 -0.3798366
193316 0.7859580 -0.3895394 0.2140420 0.3895394 0.2140420 0.3895394 0.7859580 -0.3895394
202169 0.7716264 -0.3989981 0.2283736 0.3989981 0.2283736 0.3989981 0.7716264 -0.3989981
211427 0.7566377 -0.4081622 0.2433623 0.4081622 0.2433623 0.4081622 0.7566377 -0.4081622
221108 0.7410014 -0.4169794 0.2589986 0.4169794 0.2589986 0.4169794 0.7410014 -0.4169794
231233 0.7247317 -0.4253970 0.2752683 0.4253970 0.2752683 0.4253970 0.7247317 -0.4253970
241822 0.7078482 -0.4333621 0.2921518 0.4333621 0.2921518 0.4333621 0.7078482 -0.4333621
252896 0.6903763 -0.4408218 0.3096237 0.4408218 0.3096237 0.4408218 0.6903763 -0.4408218
264476 0.6723467 -0.4477248 0.3276533 0.4477248 0.3276533 0.4477248 0.6723467 -0.4477248
276587 0.6537962 -0.4540210 0.3462038 0.4540210 0.3462038 0.4540210 0.6537962 -0.4540210
289253 0.6347671 -0.4596631 0.3652329 0.4596631 0.3652329 0.4596631 0.6347671 -0.4596631
302498 0.6153071 -0.4646068 0.3846929 0.4646068 0.3846929 0.4646068 0.6153071 -0.4646068
316350 0.5954693 -0.4688120 0.4045307 0.4688120 0.4045307 0.4688120 0.5954693 -0.4688120
330837 0.5753116 -0.4722429 0.4246884 0.4722429 0.4246884 0.4722429 0.5753116 -0.4722429
345986 0.5548964 -0.4748695 0.4451036 0.4748695 0.4451036 0.4748695 0.5548964 -0.4748695
361830 0.5342894 -0.4766675 0.4657106 0.4766675 0.4657106 0.4766675 0.5342894 -0.4766675
378399 0.5135598 -0.4776195 0.4864402 0.4776195 0.4864402 0.4776195 0.5135598 -0.4776195
395726 0.4927786 -0.4777149 0.5072214 0.4777149 0.5072214 0.4777149 0.4927786 -0.4777149
413847 0.4720180 -0.4769505 0.5279820 0.4769505 0.5279820 0.4769505 0.4720180 -0.4769505
432798 0.4513505 -0.4753308 0.5486495 0.4753308 0.5486495 0.4753308 0.4513505 -0.4753308
452617 0.4308479 -0.4728675 0.5691521 0.4728675 0.5691521 0.4728675 0.4308479 -0.4728675
473344 0.4105800 -0.4695801 0.5894200 0.4695801 0.5894200 0.4695801 0.4105800 -0.4695801
495019 0.3906138 -0.4654948 0.6093862 0.4654948 0.6093862 0.4654948 0.3906138 -0.4654948
517687 0.3710128 -0.4606446 0.6289872 0.4606446 0.6289872 0.4606446 0.3710128 -0.4606446
541393 0.3518359 -0.4550686 0.6481641 0.4550686 0.6481641 0.4550686 0.3518359 -0.4550686
566185 0.3331366 -0.4488108 0.6668634 0.4488108 0.6668634 0.4488108 0.3331366 -0.4488108
592111 0.3149628 -0.4419201 0.6850372 0.4419201 0.6850372 0.4419201 0.3149628 -0.4419201
619225 0.2973560 -0.4344485 0.7026440 0.4344485 0.7026440 0.4344485 0.2973560 -0.4344485
647581 0.2803514 -0.4264511 0.7196486 0.4264511 0.7196486 0.4264511 0.2803514 -0.4264511
677235 0.2639776 -0.4179845 0.7360224 0.4179845 0.7360224 0.4179845 0.2639776 -0.4179845
708247 0.2482564 -0.4091059 0.7517436 0.4091059 0.7517436 0.4091059 0.2482564 -0.4091059
740679 0.2332034 -0.3998730 0.7667966 0.3998730 0.7667966 0.3998730 0.2332034 -0.3998730
774597 0.2188281 -0.3903422 0.7811719 0.3903422 0.7811719 0.3903422 0.2188281 -0.3903422
810067 0.2051341 -0.3805688 0.7948659 0.3805688 0.7948659 0.3805688 0.2051341 -0.3805688
847162 0.1921198 -0.3706058 0.8078802 0.3706058 0.8078802 0.3706058 0.1921198 -0.3706058
885955 0.1797791 -0.3605036 0.8202209 0.3605036 0.8202209 0.3605036 0.1797791 -0.3605036
926525 0.1681013 -0.3503098 0.8318987 0.3503098 0.8318987 0.3503098 0.1681013 -0.3503098
968953 0.1570722 -0.3400685 0.8429278 0.3400685 0.8429278 0.3400685 0.1570722 -0.3400685
1013323 0.1466746 -0.3298206 0.8533254 0.3298206 0.8533254 0.3298206 0.1466746 -0.3298206
1059725 0.1368887 -0.3196033 0.8631113 0.3196033 0.8631113 0.3196033 0.1368887 -0.3196033
1108252 0.1276928 -0.3094502 0.8723072 0.3094502 0.8723072 0.3094502 0.1276928 -0.3094502
1159002 0.1190636 -0.2993913 0.8809364 0.2993913 0.8809364 0.2993913 0.1190636 -0.2993913
1212075 0.1109766 -0.2894532 0.8890234 0.2894532 0.8890234 0.2894532 0.1109766 -0.2894532
1267578 0.1034069 -0.2796593 0.8965931 0.2796593 0.8965931 0.2796593 0.1034069 -0.2796593
1325623 0.0963291 -0.2700295 0.9036709 0.2700295 0.9036709 0.2700295 0.0963291 -0.2700295
1386327 0.0897177 -0.2605812 0.9102823 0.2605812 0.9102823 0.2605812 0.0897177 -0.2605812
1449809 0.0835477 -0.2513287 0.9164523 0.2513287 0.9164523 0.2513287 0.0835477 -0.2513287
1516199 0.0777943 -0.2422839 0.9222057 0.2422839 0.9222057 0.2422839 0.0777943 -0.2422839
1585629 0.0724334 -0.2334564 0.9275666 0.2334564 0.9275666 0.2334564 0.0724334 -0.2334564
1658239 0.0674416 -0.2248538 0.9325584 0.2248538 0.9325584 0.2248538 0.0674416 -0.2248538
1734173 0.0627962 -0.2164817 0.9372038 0.2164817 0.9372038 0.2164817 0.0627962 -0.2164817
1813585 0.0584758 -0.2083442 0.9415242 0.2083442 0.9415242 0.2083442 0.0584758 -0.2083442
1896632 0.0544594 -0.2004439 0.9455406 0.2004439 0.9455406 0.2004439 0.0544594 -0.2004439
1983483 0.0507274 -0.1927819 0.9492726 0.1927819 0.9492726 0.1927819 0.0507274 -0.1927819
2074311 0.0472609 -0.1853583 0.9527391 0.1853583 0.9527391 0.1853583 0.0472609 -0.1853583
