!Murata Part Number: GRM022R71A181KA01
!These Parameters are Measured in Series Mode Connection
!Data Generated on Mar 30, 2021
!       o--ll--o
!Port1            Port2
!       o------o
!Operation Temp=25[degC], DC Bias Voltage=0[V]
!Freq. Start=100[Hz] Stop=6[GHz] 401[Steps]
# Hz S RI R 50
!Freq.(Hz) S11(Real) S11(Imag) S21(Real) S21(Imag) S12(Real) S12(Imag) S22(Real) S22(Imag)
100 0.9999999 -0.0000115 0.0000001 0.0000115 0.0000001 0.0000115 0.9999999 -0.0000115
105 0.9999999 -0.0000120 0.0000001 0.0000120 0.0000001 0.0000120 0.9999999 -0.0000120
109 0.9999999 -0.0000126 0.0000001 0.0000126 0.0000001 0.0000126 0.9999999 -0.0000126
114 0.9999999 -0.0000132 0.0000001 0.0000132 0.0000001 0.0000132 0.9999999 -0.0000132
120 0.9999999 -0.0000138 0.0000001 0.0000138 0.0000001 0.0000138 0.9999999 -0.0000138
125 0.9999999 -0.0000144 0.0000001 0.0000144 0.0000001 0.0000144 0.9999999 -0.0000144
131 0.9999999 -0.0000151 0.0000001 0.0000151 0.0000001 0.0000151 0.9999999 -0.0000151
137 0.9999999 -0.0000157 0.0000001 0.0000157 0.0000001 0.0000157 0.9999999 -0.0000157
143 0.9999999 -0.0000165 0.0000001 0.0000165 0.0000001 0.0000165 0.9999999 -0.0000165
150 0.9999999 -0.0000172 0.0000001 0.0000172 0.0000001 0.0000172 0.9999999 -0.0000172
156 0.9999999 -0.0000180 0.0000001 0.0000180 0.0000001 0.0000180 0.9999999 -0.0000180
164 0.9999999 -0.0000188 0.0000001 0.0000188 0.0000001 0.0000188 0.9999999 -0.0000188
171 0.9999999 -0.0000197 0.0000001 0.0000197 0.0000001 0.0000197 0.9999999 -0.0000197
179 0.9999999 -0.0000206 0.0000001 0.0000206 0.0000001 0.0000206 0.9999999 -0.0000206
187 0.9999999 -0.0000215 0.0000001 0.0000215 0.0000001 0.0000215 0.9999999 -0.0000215
196 0.9999999 -0.0000225 0.0000001 0.0000225 0.0000001 0.0000225 0.9999999 -0.0000225
205 0.9999999 -0.0000235 0.0000001 0.0000235 0.0000001 0.0000235 0.9999999 -0.0000235
214 0.9999998 -0.0000246 0.0000002 0.0000246 0.0000002 0.0000246 0.9999998 -0.0000246
224 0.9999998 -0.0000257 0.0000002 0.0000257 0.0000002 0.0000257 0.9999998 -0.0000257
234 0.9999998 -0.0000269 0.0000002 0.0000269 0.0000002 0.0000269 0.9999998 -0.0000269
245 0.9999998 -0.0000281 0.0000002 0.0000281 0.0000002 0.0000281 0.9999998 -0.0000281
256 0.9999998 -0.0000294 0.0000002 0.0000294 0.0000002 0.0000294 0.9999998 -0.0000294
268 0.9999998 -0.0000307 0.0000002 0.0000307 0.0000002 0.0000307 0.9999998 -0.0000307
280 0.9999998 -0.0000321 0.0000002 0.0000321 0.0000002 0.0000321 0.9999998 -0.0000321
293 0.9999998 -0.0000336 0.0000002 0.0000336 0.0000002 0.0000336 0.9999998 -0.0000336
306 0.9999998 -0.0000351 0.0000002 0.0000351 0.0000002 0.0000351 0.9999998 -0.0000351
320 0.9999998 -0.0000367 0.0000002 0.0000367 0.0000002 0.0000367 0.9999998 -0.0000367
335 0.9999998 -0.0000384 0.0000002 0.0000384 0.0000002 0.0000384 0.9999998 -0.0000384
350 0.9999998 -0.0000401 0.0000002 0.0000401 0.0000002 0.0000401 0.9999998 -0.0000401
366 0.9999998 -0.0000420 0.0000002 0.0000420 0.0000002 0.0000420 0.9999998 -0.0000420
383 0.9999998 -0.0000439 0.0000002 0.0000439 0.0000002 0.0000439 0.9999998 -0.0000439
401 0.9999998 -0.0000459 0.0000002 0.0000459 0.0000002 0.0000459 0.9999998 -0.0000459
419 0.9999997 -0.0000480 0.0000003 0.0000480 0.0000003 0.0000480 0.9999997 -0.0000480
438 0.9999997 -0.0000502 0.0000003 0.0000502 0.0000003 0.0000502 0.9999997 -0.0000502
458 0.9999997 -0.0000525 0.0000003 0.0000525 0.0000003 0.0000525 0.9999997 -0.0000525
479 0.9999997 -0.0000549 0.0000003 0.0000549 0.0000003 0.0000549 0.9999997 -0.0000549
501 0.9999997 -0.0000574 0.0000003 0.0000574 0.0000003 0.0000574 0.9999997 -0.0000574
524 0.9999997 -0.0000600 0.0000003 0.0000600 0.0000003 0.0000600 0.9999997 -0.0000600
548 0.9999997 -0.0000627 0.0000003 0.0000627 0.0000003 0.0000627 0.9999997 -0.0000627
573 0.9999997 -0.0000656 0.0000003 0.0000656 0.0000003 0.0000656 0.9999997 -0.0000656
600 0.9999997 -0.0000686 0.0000003 0.0000686 0.0000003 0.0000686 0.9999997 -0.0000686
627 0.9999996 -0.0000717 0.0000004 0.0000717 0.0000004 0.0000717 0.9999996 -0.0000717
656 0.9999996 -0.0000750 0.0000004 0.0000750 0.0000004 0.0000750 0.9999996 -0.0000750
686 0.9999996 -0.0000784 0.0000004 0.0000784 0.0000004 0.0000784 0.9999996 -0.0000784
717 0.9999996 -0.0000820 0.0000004 0.0000820 0.0000004 0.0000820 0.9999996 -0.0000820
750 0.9999996 -0.0000857 0.0000004 0.0000857 0.0000004 0.0000857 0.9999996 -0.0000857
784 0.9999996 -0.0000897 0.0000004 0.0000897 0.0000004 0.0000897 0.9999996 -0.0000897
820 0.9999995 -0.0000937 0.0000005 0.0000937 0.0000005 0.0000937 0.9999995 -0.0000937
858 0.9999995 -0.0000980 0.0000005 0.0000980 0.0000005 0.0000980 0.9999995 -0.0000980
897 0.9999995 -0.0001025 0.0000005 0.0001025 0.0000005 0.0001025 0.9999995 -0.0001025
938 0.9999995 -0.0001072 0.0000005 0.0001072 0.0000005 0.0001072 0.9999995 -0.0001072
981 0.9999995 -0.0001121 0.0000005 0.0001121 0.0000005 0.0001121 0.9999995 -0.0001121
1026 0.9999995 -0.0001172 0.0000005 0.0001172 0.0000005 0.0001172 0.9999995 -0.0001172
1073 0.9999994 -0.0001225 0.0000006 0.0001225 0.0000006 0.0001225 0.9999994 -0.0001225
1122 0.9999994 -0.0001281 0.0000006 0.0001281 0.0000006 0.0001281 0.9999994 -0.0001281
1174 0.9999994 -0.0001340 0.0000006 0.0001340 0.0000006 0.0001340 0.9999994 -0.0001340
1227 0.9999994 -0.0001401 0.0000006 0.0001401 0.0000006 0.0001401 0.9999994 -0.0001401
1283 0.9999993 -0.0001465 0.0000007 0.0001465 0.0000007 0.0001465 0.9999993 -0.0001465
1342 0.9999993 -0.0001532 0.0000007 0.0001532 0.0000007 0.0001532 0.9999993 -0.0001532
1404 0.9999993 -0.0001602 0.0000007 0.0001602 0.0000007 0.0001602 0.9999993 -0.0001602
1468 0.9999993 -0.0001675 0.0000007 0.0001675 0.0000007 0.0001675 0.9999993 -0.0001675
1535 0.9999992 -0.0001752 0.0000008 0.0001752 0.0000008 0.0001752 0.9999992 -0.0001752
1606 0.9999992 -0.0001832 0.0000008 0.0001832 0.0000008 0.0001832 0.9999992 -0.0001832
1679 0.9999992 -0.0001916 0.0000008 0.0001916 0.0000008 0.0001916 0.9999992 -0.0001916
1756 0.9999991 -0.0002003 0.0000009 0.0002003 0.0000009 0.0002003 0.9999991 -0.0002003
1836 0.9999991 -0.0002095 0.0000009 0.0002095 0.0000009 0.0002095 0.9999991 -0.0002095
1920 0.9999990 -0.0002190 0.0000010 0.0002190 0.0000010 0.0002190 0.9999990 -0.0002190
2008 0.9999990 -0.0002290 0.0000010 0.0002290 0.0000010 0.0002290 0.9999990 -0.0002290
2100 0.9999990 -0.0002395 0.0000010 0.0002395 0.0000010 0.0002395 0.9999990 -0.0002395
2196 0.9999989 -0.0002505 0.0000011 0.0002505 0.0000011 0.0002505 0.9999989 -0.0002505
2297 0.9999988 -0.0002619 0.0000012 0.0002619 0.0000012 0.0002619 0.9999988 -0.0002619
2402 0.9999988 -0.0002739 0.0000012 0.0002739 0.0000012 0.0002739 0.9999988 -0.0002739
2512 0.9999987 -0.0002864 0.0000013 0.0002864 0.0000013 0.0002864 0.9999987 -0.0002864
2627 0.9999987 -0.0002995 0.0000013 0.0002995 0.0000013 0.0002995 0.9999987 -0.0002995
2748 0.9999986 -0.0003132 0.0000014 0.0003132 0.0000014 0.0003132 0.9999986 -0.0003132
2873 0.9999985 -0.0003275 0.0000015 0.0003275 0.0000015 0.0003275 0.9999985 -0.0003275
3005 0.9999984 -0.0003424 0.0000016 0.0003424 0.0000016 0.0003424 0.9999984 -0.0003424
3143 0.9999983 -0.0003581 0.0000017 0.0003581 0.0000017 0.0003581 0.9999983 -0.0003581
3287 0.9999983 -0.0003744 0.0000017 0.0003744 0.0000017 0.0003744 0.9999983 -0.0003744
3437 0.9999982 -0.0003915 0.0000018 0.0003915 0.0000018 0.0003915 0.9999982 -0.0003915
3594 0.9999980 -0.0004094 0.0000020 0.0004094 0.0000020 0.0004094 0.9999980 -0.0004094
3759 0.9999979 -0.0004281 0.0000021 0.0004281 0.0000021 0.0004281 0.9999979 -0.0004281
3931 0.9999978 -0.0004477 0.0000022 0.0004477 0.0000022 0.0004477 0.9999978 -0.0004477
4111 0.9999977 -0.0004681 0.0000023 0.0004681 0.0000023 0.0004681 0.9999977 -0.0004681
4299 0.9999975 -0.0004895 0.0000025 0.0004895 0.0000025 0.0004895 0.9999975 -0.0004895
4496 0.9999974 -0.0005119 0.0000026 0.0005119 0.0000026 0.0005119 0.9999974 -0.0005119
4702 0.9999972 -0.0005352 0.0000028 0.0005352 0.0000028 0.0005352 0.9999972 -0.0005352
4918 0.9999971 -0.0005597 0.0000029 0.0005597 0.0000029 0.0005597 0.9999971 -0.0005597
5143 0.9999969 -0.0005852 0.0000031 0.0005852 0.0000031 0.0005852 0.9999969 -0.0005852
5378 0.9999967 -0.0006119 0.0000033 0.0006119 0.0000033 0.0006119 0.9999967 -0.0006119
5625 0.9999965 -0.0006399 0.0000035 0.0006399 0.0000035 0.0006399 0.9999965 -0.0006399
5882 0.9999963 -0.0006691 0.0000037 0.0006691 0.0000037 0.0006691 0.9999963 -0.0006691
6151 0.9999961 -0.0006996 0.0000039 0.0006996 0.0000039 0.0006996 0.9999961 -0.0006996
6433 0.9999959 -0.0007315 0.0000041 0.0007315 0.0000041 0.0007315 0.9999959 -0.0007315
6728 0.9999956 -0.0007649 0.0000044 0.0007649 0.0000044 0.0007649 0.9999956 -0.0007649
7036 0.9999954 -0.0007998 0.0000046 0.0007998 0.0000046 0.0007998 0.9999954 -0.0007998
7358 0.9999951 -0.0008363 0.0000049 0.0008363 0.0000049 0.0008363 0.9999951 -0.0008363
7695 0.9999949 -0.0008744 0.0000051 0.0008744 0.0000051 0.0008744 0.9999949 -0.0008744
8047 0.9999946 -0.0009143 0.0000054 0.0009143 0.0000054 0.0009143 0.9999946 -0.0009143
8416 0.9999943 -0.0009560 0.0000057 0.0009560 0.0000057 0.0009560 0.9999943 -0.0009560
8801 0.9999940 -0.0009996 0.0000060 0.0009996 0.0000060 0.0009996 0.9999940 -0.0009996
9204 0.9999936 -0.0010452 0.0000064 0.0010452 0.0000064 0.0010452 0.9999936 -0.0010452
9626 0.9999933 -0.0010929 0.0000067 0.0010929 0.0000067 0.0010929 0.9999933 -0.0010929
10066 0.9999929 -0.0011428 0.0000071 0.0011428 0.0000071 0.0011428 0.9999929 -0.0011428
10527 0.9999926 -0.0011949 0.0000074 0.0011949 0.0000074 0.0011949 0.9999926 -0.0011949
11009 0.9999922 -0.0012494 0.0000078 0.0012494 0.0000078 0.0012494 0.9999922 -0.0012494
11514 0.9999918 -0.0013065 0.0000082 0.0013065 0.0000082 0.0013065 0.9999918 -0.0013065
12041 0.9999913 -0.0013661 0.0000087 0.0013661 0.0000087 0.0013661 0.9999913 -0.0013661
12592 0.9999908 -0.0014284 0.0000092 0.0014284 0.0000092 0.0014284 0.9999908 -0.0014284
13169 0.9999904 -0.0014936 0.0000096 0.0014936 0.0000096 0.0014936 0.9999904 -0.0014936
13772 0.9999898 -0.0015618 0.0000102 0.0015618 0.0000102 0.0015618 0.9999898 -0.0015618
14402 0.9999893 -0.0016331 0.0000107 0.0016331 0.0000107 0.0016331 0.9999893 -0.0016331
15062 0.9999887 -0.0017077 0.0000113 0.0017077 0.0000113 0.0017077 0.9999887 -0.0017077
15752 0.9999881 -0.0017856 0.0000119 0.0017856 0.0000119 0.0017856 0.9999881 -0.0017856
16473 0.9999874 -0.0018672 0.0000126 0.0018672 0.0000126 0.0018672 0.9999874 -0.0018672
17227 0.9999866 -0.0019524 0.0000134 0.0019524 0.0000134 0.0019524 0.9999866 -0.0019524
18016 0.9999859 -0.0020416 0.0000141 0.0020416 0.0000141 0.0020416 0.9999859 -0.0020416
18841 0.9999850 -0.0021348 0.0000150 0.0021348 0.0000150 0.0021348 0.9999850 -0.0021348
19704 0.9999841 -0.0022323 0.0000159 0.0022323 0.0000159 0.0022323 0.9999841 -0.0022323
20606 0.9999831 -0.0023343 0.0000169 0.0023343 0.0000169 0.0023343 0.9999831 -0.0023343
21550 0.9999821 -0.0024409 0.0000179 0.0024409 0.0000179 0.0024409 0.9999821 -0.0024409
22537 0.9999810 -0.0025524 0.0000190 0.0025524 0.0000190 0.0025524 0.9999810 -0.0025524
23569 0.9999797 -0.0026690 0.0000203 0.0026690 0.0000203 0.0026690 0.9999797 -0.0026690
24648 0.9999784 -0.0027909 0.0000216 0.0027909 0.0000216 0.0027909 0.9999784 -0.0027909
25777 0.9999770 -0.0029184 0.0000230 0.0029184 0.0000230 0.0029184 0.9999770 -0.0029184
26957 0.9999754 -0.0030517 0.0000246 0.0030517 0.0000246 0.0030517 0.9999754 -0.0030517
28191 0.9999737 -0.0031911 0.0000263 0.0031911 0.0000263 0.0031911 0.9999737 -0.0031911
29482 0.9999719 -0.0033369 0.0000281 0.0033369 0.0000281 0.0033369 0.9999719 -0.0033369
30832 0.9999699 -0.0034893 0.0000301 0.0034893 0.0000301 0.0034893 0.9999699 -0.0034893
32244 0.9999678 -0.0036487 0.0000322 0.0036487 0.0000322 0.0036487 0.9999678 -0.0036487
33721 0.9999655 -0.0038153 0.0000345 0.0038153 0.0000345 0.0038153 0.9999655 -0.0038153
35265 0.9999629 -0.0039895 0.0000371 0.0039895 0.0000371 0.0039895 0.9999629 -0.0039895
36880 0.9999602 -0.0041717 0.0000398 0.0041717 0.0000398 0.0041717 0.9999602 -0.0041717
38569 0.9999573 -0.0043621 0.0000427 0.0043621 0.0000427 0.0043621 0.9999573 -0.0043621
40335 0.9999541 -0.0045612 0.0000459 0.0045612 0.0000459 0.0045612 0.9999541 -0.0045612
42182 0.9999506 -0.0047694 0.0000494 0.0047694 0.0000494 0.0047694 0.9999506 -0.0047694
44113 0.9999469 -0.0049871 0.0000531 0.0049871 0.0000531 0.0049871 0.9999469 -0.0049871
46134 0.9999429 -0.0052146 0.0000571 0.0052146 0.0000571 0.0052146 0.9999429 -0.0052146
48246 0.9999385 -0.0054526 0.0000615 0.0054526 0.0000615 0.0054526 0.9999385 -0.0054526
50455 0.9999339 -0.0057013 0.0000661 0.0057013 0.0000661 0.0057013 0.9999339 -0.0057013
52766 0.9999288 -0.0059613 0.0000712 0.0059613 0.0000712 0.0059613 0.9999288 -0.0059613
55182 0.9999233 -0.0062332 0.0000767 0.0062332 0.0000767 0.0062332 0.9999233 -0.0062332
57709 0.9999174 -0.0065174 0.0000826 0.0065174 0.0000826 0.0065174 0.9999174 -0.0065174
60352 0.9999111 -0.0068146 0.0000889 0.0068146 0.0000889 0.0068146 0.9999111 -0.0068146
63115 0.9999043 -0.0071252 0.0000957 0.0071252 0.0000957 0.0071252 0.9999043 -0.0071252
66005 0.9998969 -0.0074499 0.0001031 0.0074499 0.0001031 0.0074499 0.9998969 -0.0074499
69028 0.9998890 -0.0077894 0.0001110 0.0077894 0.0001110 0.0077894 0.9998890 -0.0077894
72189 0.9998805 -0.0081444 0.0001195 0.0081444 0.0001195 0.0081444 0.9998805 -0.0081444
75495 0.9998713 -0.0085154 0.0001287 0.0085154 0.0001287 0.0085154 0.9998713 -0.0085154
78952 0.9998614 -0.0089034 0.0001386 0.0089034 0.0001386 0.0089034 0.9998614 -0.0089034
82567 0.9998508 -0.0093089 0.0001492 0.0093089 0.0001492 0.0093089 0.9998508 -0.0093089
86348 0.9998393 -0.0097329 0.0001607 0.0097329 0.0001607 0.0097329 0.9998393 -0.0097329
90302 0.9998270 -0.0101762 0.0001730 0.0101762 0.0001730 0.0101762 0.9998270 -0.0101762
94437 0.9998137 -0.0106397 0.0001863 0.0106397 0.0001863 0.0106397 0.9998137 -0.0106397
98762 0.9997994 -0.0111243 0.0002006 0.0111243 0.0002006 0.0111243 0.9997994 -0.0111243
103284 0.9997840 -0.0116309 0.0002160 0.0116309 0.0002160 0.0116309 0.9997840 -0.0116309
108014 0.9997673 -0.0121605 0.0002327 0.0121605 0.0002327 0.0121605 0.9997673 -0.0121605
112960 0.9997494 -0.0127144 0.0002506 0.0127144 0.0002506 0.0127144 0.9997494 -0.0127144
118133 0.9997299 -0.0132934 0.0002701 0.0132934 0.0002701 0.0132934 0.9997299 -0.0132934
123542 0.9997089 -0.0138988 0.0002911 0.0138988 0.0002911 0.0138988 0.9997089 -0.0138988
129199 0.9996862 -0.0145318 0.0003138 0.0145318 0.0003138 0.0145318 0.9996862 -0.0145318
135116 0.9996616 -0.0151937 0.0003384 0.0151937 0.0003384 0.0151937 0.9996616 -0.0151937
141303 0.9996350 -0.0158857 0.0003650 0.0158857 0.0003650 0.0158857 0.9996350 -0.0158857
147774 0.9996061 -0.0166093 0.0003939 0.0166093 0.0003939 0.0166093 0.9996061 -0.0166093
154540 0.9995748 -0.0173658 0.0004252 0.0173658 0.0004252 0.0173658 0.9995748 -0.0173658
161617 0.9995408 -0.0181568 0.0004592 0.0181568 0.0004592 0.0181568 0.9995408 -0.0181568
169018 0.9995039 -0.0189839 0.0004961 0.0189839 0.0004961 0.0189839 0.9995039 -0.0189839
176758 0.9994637 -0.0198487 0.0005363 0.0198487 0.0005363 0.0198487 0.9994637 -0.0198487
184852 0.9994201 -0.0207528 0.0005799 0.0207528 0.0005799 0.0207528 0.9994201 -0.0207528
193316 0.9993726 -0.0216981 0.0006274 0.0216981 0.0006274 0.0216981 0.9993726 -0.0216981
202169 0.9993209 -0.0226864 0.0006791 0.0226864 0.0006791 0.0226864 0.9993209 -0.0226864
211427 0.9992647 -0.0237197 0.0007353 0.0237197 0.0007353 0.0237197 0.9992647 -0.0237197
221108 0.9992034 -0.0248000 0.0007966 0.0248000 0.0007966 0.0248000 0.9992034 -0.0248000
231233 0.9991366 -0.0259293 0.0008634 0.0259293 0.0008634 0.0259293 0.9991366 -0.0259293
241822 0.9990639 -0.0271100 0.0009361 0.0271100 0.0009361 0.0271100 0.9990639 -0.0271100
252896 0.9989846 -0.0283441 0.0010154 0.0283441 0.0010154 0.0283441 0.9989846 -0.0283441
264476 0.9988982 -0.0296343 0.0011018 0.0296343 0.0011018 0.0296343 0.9988982 -0.0296343
276587 0.9988041 -0.0309828 0.0011959 0.0309828 0.0011959 0.0309828 0.9988041 -0.0309828
289253 0.9987014 -0.0323924 0.0012986 0.0323924 0.0012986 0.0323924 0.9987014 -0.0323924
302498 0.9985895 -0.0338656 0.0014105 0.0338656 0.0014105 0.0338656 0.9985895 -0.0338656
316350 0.9984675 -0.0354054 0.0015325 0.0354054 0.0015325 0.0354054 0.9984675 -0.0354054
330837 0.9983345 -0.0370146 0.0016655 0.0370146 0.0016655 0.0370146 0.9983345 -0.0370146
345986 0.9981895 -0.0386963 0.0018105 0.0386963 0.0018105 0.0386963 0.9981895 -0.0386963
361830 0.9980315 -0.0404535 0.0019685 0.0404535 0.0019685 0.0404535 0.9980315 -0.0404535
378399 0.9978592 -0.0422897 0.0021408 0.0422897 0.0021408 0.0422897 0.9978592 -0.0422897
395726 0.9976715 -0.0442083 0.0023285 0.0442083 0.0023285 0.0442083 0.9976715 -0.0442083
413847 0.9974669 -0.0462127 0.0025331 0.0462127 0.0025331 0.0462127 0.9974669 -0.0462127
432798 0.9972440 -0.0483067 0.0027560 0.0483067 0.0027560 0.0483067 0.9972440 -0.0483067
452617 0.9970012 -0.0504941 0.0029988 0.0504941 0.0029988 0.0504941 0.9970012 -0.0504941
473344 0.9967367 -0.0527790 0.0032633 0.0527790 0.0032633 0.0527790 0.9967367 -0.0527790
495019 0.9964486 -0.0551654 0.0035514 0.0551654 0.0035514 0.0551654 0.9964486 -0.0551654
517687 0.9961349 -0.0576576 0.0038651 0.0576576 0.0038651 0.0576576 0.9961349 -0.0576576
541393 0.9957932 -0.0602601 0.0042068 0.0602601 0.0042068 0.0602601 0.9957932 -0.0602601
566185 0.9954213 -0.0629776 0.0045787 0.0629776 0.0045787 0.0629776 0.9954213 -0.0629776
592111 0.9950164 -0.0658148 0.0049836 0.0658148 0.0049836 0.0658148 0.9950164 -0.0658148
619225 0.9945757 -0.0687766 0.0054243 0.0687766 0.0054243 0.0687766 0.9945757 -0.0687766
647581 0.9940960 -0.0718683 0.0059040 0.0718683 0.0059040 0.0718683 0.9940960 -0.0718683
677235 0.9935739 -0.0750950 0.0064261 0.0750950 0.0064261 0.0750950 0.9935739 -0.0750950
708247 0.9930059 -0.0784624 0.0069941 0.0784624 0.0069941 0.0784624 0.9930059 -0.0784624
740679 0.9923878 -0.0819759 0.0076122 0.0819759 0.0076122 0.0819759 0.9923878 -0.0819759
774597 0.9917152 -0.0856415 0.0082848 0.0856415 0.0082848 0.0856415 0.9917152 -0.0856415
810067 0.9909835 -0.0894650 0.0090165 0.0894650 0.0090165 0.0894650 0.9909835 -0.0894650
847162 0.9901874 -0.0934526 0.0098126 0.0934526 0.0098126 0.0934526 0.9901874 -0.0934526
885955 0.9893213 -0.0976106 0.0106787 0.0976106 0.0106787 0.0976106 0.9893213 -0.0976106
926525 0.9883791 -0.1019453 0.0116209 0.1019453 0.0116209 0.1019453 0.9883791 -0.1019453
968953 0.9873541 -0.1064631 0.0126459 0.1064631 0.0126459 0.1064631 0.9873541 -0.1064631
1013323 0.9862391 -0.1111707 0.0137609 0.1111707 0.0137609 0.1111707 0.9862391 -0.1111707
1059725 0.9850262 -0.1160746 0.0149738 0.1160746 0.0149738 0.1160746 0.9850262 -0.1160746
1108252 0.9837070 -0.1211815 0.0162930 0.1211815 0.0162930 0.1211815 0.9837070 -0.1211815
1159002 0.9822722 -0.1264979 0.0177278 0.1264979 0.0177278 0.1264979 0.9822722 -0.1264979
1212075 0.9807118 -0.1320304 0.0192882 0.1320304 0.0192882 0.1320304 0.9807118 -0.1320304
1267578 0.9790151 -0.1377854 0.0209849 0.1377854 0.0209849 0.1377854 0.9790151 -0.1377854
1325623 0.9771704 -0.1437692 0.0228296 0.1437692 0.0228296 0.1437692 0.9771704 -0.1437692
1386327 0.9751651 -0.1499876 0.0248349 0.1499876 0.0248349 0.1499876 0.9751651 -0.1499876
1449809 0.9729858 -0.1564464 0.0270142 0.1564464 0.0270142 0.1564464 0.9729858 -0.1564464
1516199 0.9706179 -0.1631509 0.0293821 0.1631509 0.0293821 0.1631509 0.9706179 -0.1631509
1585629 0.9680460 -0.1701056 0.0319540 0.1701056 0.0319540 0.1701056 0.9680460 -0.1701056
1658239 0.9652534 -0.1773149 0.0347466 0.1773149 0.0347466 0.1773149 0.9652534 -0.1773149
1734173 0.9622224 -0.1847819 0.0377776 0.1847819 0.0377776 0.1847819 0.9622224 -0.1847819
1813585 0.9589343 -0.1925092 0.0410657 0.1925092 0.0410657 0.1925092 0.9589343 -0.1925092
1896632 0.9553689 -0.2004982 0.0446311 0.2004982 0.0446311 0.2004982 0.9553689 -0.2004982
1983483 0.9515053 -0.2087492 0.0484947 0.2087492 0.0484947 0.2087492 0.9515053 -0.2087492
2074311 0.9473211 -0.2172611 0.0526789 0.2172611 0.0526789 0.2172611 0.9473211 -0.2172611
