!Murata Part Number: GRM43D7U2J223JW31
!These Parameters are Measured in Series Mode Connection
!Data Generated on Mar 30, 2021
!       o--ll--o
!Port1            Port2
!       o------o
!Operation Temp=25[degC], DC Bias Voltage=0[V]
!Freq. Start=1000[kHz] Stop=3[GHz] 401[Steps]
# Hz S RI R 50
!Freq.(Hz) S11(Real) S11(Imag) S21(Real) S21(Imag) S12(Real) S12(Imag) S22(Real) S22(Imag)
1000000 0.0056453 -0.0746751 0.9943547 0.0746751 0.9943547 0.0746751 0.0056453 -0.0746751
1020218 0.0054261 -0.0732092 0.9945739 0.0732092 0.9945739 0.0732092 0.0054261 -0.0732092
1040844 0.0052154 -0.0717714 0.9947846 0.0717714 0.9947846 0.0717714 0.0052154 -0.0717714
1061887 0.0050129 -0.0703612 0.9949871 0.0703612 0.9949871 0.0703612 0.0050129 -0.0703612
1083356 0.0048183 -0.0689780 0.9951817 0.0689780 0.9951817 0.0689780 0.0048183 -0.0689780
1105259 0.0046312 -0.0676214 0.9953688 0.0676214 0.9953688 0.0676214 0.0046312 -0.0676214
1127605 0.0044514 -0.0662909 0.9955486 0.0662909 0.9955486 0.0662909 0.0044514 -0.0662909
1150402 0.0042786 -0.0649861 0.9957214 0.0649861 0.9957214 0.0649861 0.0042786 -0.0649861
1173660 0.0041126 -0.0637064 0.9958874 0.0637064 0.9958874 0.0637064 0.0041126 -0.0637064
1197389 0.0039530 -0.0624513 0.9960470 0.0624513 0.9960470 0.0624513 0.0039530 -0.0624513
1221597 0.0037996 -0.0612206 0.9962004 0.0612206 0.9962004 0.0612206 0.0037996 -0.0612206
1246295 0.0036522 -0.0600136 0.9963478 0.0600136 0.9963478 0.0600136 0.0036522 -0.0600136
1271492 0.0035105 -0.0588299 0.9964895 0.0588299 0.9964895 0.0588299 0.0035105 -0.0588299
1297199 0.0033744 -0.0576692 0.9966256 0.0576692 0.9966256 0.0576692 0.0033744 -0.0576692
1323425 0.0032435 -0.0565310 0.9967565 0.0565310 0.9967565 0.0565310 0.0032435 -0.0565310
1350181 0.0031178 -0.0554148 0.9968822 0.0554148 0.9968822 0.0554148 0.0031178 -0.0554148
1377479 0.0029970 -0.0543203 0.9970030 0.0543203 0.9970030 0.0543203 0.0029970 -0.0543203
1405328 0.0028809 -0.0532470 0.9971191 0.0532470 0.9971191 0.0532470 0.0028809 -0.0532470
1433740 0.0027693 -0.0521946 0.9972307 0.0521946 0.9972307 0.0521946 0.0027693 -0.0521946
1462727 0.0026621 -0.0511626 0.9973379 0.0511626 0.9973379 0.0511626 0.0026621 -0.0511626
1492300 0.0025591 -0.0501507 0.9974409 0.0501507 0.9974409 0.0501507 0.0025591 -0.0501507
1522470 0.0024600 -0.0491585 0.9975400 0.0491585 0.9975400 0.0491585 0.0024600 -0.0491585
1553251 0.0023649 -0.0481856 0.9976351 0.0481856 0.9976351 0.0481856 0.0023649 -0.0481856
1584654 0.0022735 -0.0472316 0.9977265 0.0472316 0.9977265 0.0472316 0.0022735 -0.0472316
1616692 0.0021856 -0.0462962 0.9978144 0.0462962 0.9978144 0.0462962 0.0021856 -0.0462962
1649378 0.0021012 -0.0453791 0.9978988 0.0453791 0.9978988 0.0453791 0.0021012 -0.0453791
1682724 0.0020201 -0.0444798 0.9979799 0.0444798 0.9979799 0.0444798 0.0020201 -0.0444798
1716745 0.0019422 -0.0435981 0.9980578 0.0435981 0.9980578 0.0435981 0.0019422 -0.0435981
1751453 0.0018673 -0.0427336 0.9981327 0.0427336 0.9981327 0.0427336 0.0018673 -0.0427336
1786863 0.0017953 -0.0418859 0.9982047 0.0418859 0.9982047 0.0418859 0.0017953 -0.0418859
1822989 0.0017262 -0.0410548 0.9982738 0.0410548 0.9982738 0.0410548 0.0017262 -0.0410548
1859846 0.0016597 -0.0402399 0.9983403 0.0402399 0.9983403 0.0402399 0.0016597 -0.0402399
1897447 0.0015959 -0.0394409 0.9984041 0.0394409 0.9984041 0.0394409 0.0015959 -0.0394409
1935809 0.0015346 -0.0386576 0.9984654 0.0386576 0.9984654 0.0386576 0.0015346 -0.0386576
1974946 0.0014756 -0.0378895 0.9985244 0.0378895 0.9985244 0.0378895 0.0014756 -0.0378895
2014875 0.0014190 -0.0371364 0.9985810 0.0371364 0.9985810 0.0371364 0.0014190 -0.0371364
2055611 0.0013646 -0.0363981 0.9986354 0.0363981 0.9986354 0.0363981 0.0013646 -0.0363981
2097170 0.0013123 -0.0356742 0.9986877 0.0356742 0.9986877 0.0356742 0.0013123 -0.0356742
2139570 0.0012621 -0.0349644 0.9987379 0.0349644 0.9987379 0.0349644 0.0012621 -0.0349644
2182827 0.0012138 -0.0342685 0.9987862 0.0342685 0.9987862 0.0342685 0.0012138 -0.0342685
2226959 0.0011675 -0.0335862 0.9988325 0.0335862 0.9988325 0.0335862 0.0011675 -0.0335862
2271982 0.0011229 -0.0329172 0.9988771 0.0329172 0.9988771 0.0329172 0.0011229 -0.0329172
2317916 0.0010801 -0.0322613 0.9989199 0.0322613 0.9989199 0.0322613 0.0010801 -0.0322613
2364779 0.0010390 -0.0316182 0.9989610 0.0316182 0.9989610 0.0316182 0.0010390 -0.0316182
2412589 0.0009995 -0.0309877 0.9990005 0.0309877 0.9990005 0.0309877 0.0009995 -0.0309877
2461366 0.0009615 -0.0303695 0.9990385 0.0303695 0.9990385 0.0303695 0.0009615 -0.0303695
2511129 0.0009251 -0.0297634 0.9990749 0.0297634 0.9990749 0.0297634 0.0009251 -0.0297634
2561897 0.0008901 -0.0291691 0.9991099 0.0291691 0.9991099 0.0291691 0.0008901 -0.0291691
2613693 0.0008564 -0.0285864 0.9991436 0.0285864 0.9991436 0.0285864 0.0008564 -0.0285864
2666535 0.0008241 -0.0280151 0.9991759 0.0280151 0.9991759 0.0280151 0.0008241 -0.0280151
2720446 0.0007930 -0.0274550 0.9992070 0.0274550 0.9992070 0.0274550 0.0007930 -0.0274550
2775447 0.0007632 -0.0269058 0.9992368 0.0269058 0.9992368 0.0269058 0.0007632 -0.0269058
2831560 0.0007345 -0.0263673 0.9992655 0.0263673 0.9992655 0.0263673 0.0007345 -0.0263673
2888807 0.0007070 -0.0258393 0.9992930 0.0258393 0.9992930 0.0258393 0.0007070 -0.0258393
2947212 0.0006805 -0.0253216 0.9993195 0.0253216 0.9993195 0.0253216 0.0006805 -0.0253216
3006797 0.0006551 -0.0248140 0.9993449 0.0248140 0.9993449 0.0248140 0.0006551 -0.0248140
3067588 0.0006307 -0.0243163 0.9993693 0.0243163 0.9993693 0.0243163 0.0006307 -0.0243163
3129607 0.0006073 -0.0238283 0.9993927 0.0238283 0.9993927 0.0238283 0.0006073 -0.0238283
3192880 0.0005848 -0.0233498 0.9994152 0.0233498 0.9994152 0.0233498 0.0005848 -0.0233498
3257432 0.0005631 -0.0228806 0.9994369 0.0228806 0.9994369 0.0228806 0.0005631 -0.0228806
3323290 0.0005423 -0.0224205 0.9994577 0.0224205 0.9994577 0.0224205 0.0005423 -0.0224205
3390478 0.0005224 -0.0219694 0.9994776 0.0219694 0.9994776 0.0219694 0.0005224 -0.0219694
3459026 0.0005032 -0.0215271 0.9994968 0.0215271 0.9994968 0.0215271 0.0005032 -0.0215271
3528959 0.0004848 -0.0210933 0.9995152 0.0210933 0.9995152 0.0210933 0.0004848 -0.0210933
3600306 0.0004671 -0.0206680 0.9995329 0.0206680 0.9995329 0.0206680 0.0004671 -0.0206680
3673095 0.0004502 -0.0202509 0.9995498 0.0202509 0.9995498 0.0202509 0.0004502 -0.0202509
3747356 0.0004339 -0.0198419 0.9995661 0.0198419 0.9995661 0.0198419 0.0004339 -0.0198419
3823119 0.0004182 -0.0194408 0.9995818 0.0194408 0.9995818 0.0194408 0.0004182 -0.0194408
3900413 0.0004032 -0.0190475 0.9995968 0.0190475 0.9995968 0.0190475 0.0004032 -0.0190475
3979270 0.0003887 -0.0186618 0.9996113 0.0186618 0.9996113 0.0186618 0.0003887 -0.0186618
4059721 0.0003749 -0.0182836 0.9996251 0.0182836 0.9996251 0.0182836 0.0003749 -0.0182836
4141799 0.0003616 -0.0179127 0.9996384 0.0179127 0.9996384 0.0179127 0.0003616 -0.0179127
4225536 0.0003488 -0.0175489 0.9996512 0.0175489 0.9996512 0.0175489 0.0003488 -0.0175489
4310966 0.0003365 -0.0171922 0.9996635 0.0171922 0.9996635 0.0171922 0.0003365 -0.0171922
4398124 0.0003247 -0.0168423 0.9996753 0.0168423 0.9996753 0.0168423 0.0003247 -0.0168423
4487043 0.0003134 -0.0164991 0.9996866 0.0164991 0.9996866 0.0164991 0.0003134 -0.0164991
4577760 0.0003026 -0.0161626 0.9996974 0.0161626 0.9996974 0.0161626 0.0003026 -0.0161626
4670311 0.0002922 -0.0158325 0.9997078 0.0158325 0.9997078 0.0158325 0.0002922 -0.0158325
4764734 0.0002822 -0.0155088 0.9997178 0.0155088 0.9997178 0.0155088 0.0002822 -0.0155088
4861065 0.0002726 -0.0151912 0.9997274 0.0151912 0.9997274 0.0151912 0.0002726 -0.0151912
4959344 0.0002634 -0.0148798 0.9997366 0.0148798 0.9997366 0.0148798 0.0002634 -0.0148798
5059610 0.0002545 -0.0145742 0.9997455 0.0145742 0.9997455 0.0145742 0.0002545 -0.0145742
5161903 0.0002461 -0.0142746 0.9997539 0.0142746 0.9997539 0.0142746 0.0002461 -0.0142746
5266264 0.0002379 -0.0139806 0.9997621 0.0139806 0.9997621 0.0139806 0.0002379 -0.0139806
5372736 0.0002301 -0.0136922 0.9997699 0.0136922 0.9997699 0.0136922 0.0002301 -0.0136922
5481359 0.0002227 -0.0134093 0.9997773 0.0134093 0.9997773 0.0134093 0.0002227 -0.0134093
5592179 0.0002155 -0.0131318 0.9997845 0.0131318 0.9997845 0.0131318 0.0002155 -0.0131318
5705239 0.0002086 -0.0128595 0.9997914 0.0128595 0.9997914 0.0128595 0.0002086 -0.0128595
5820586 0.0002020 -0.0125924 0.9997980 0.0125924 0.9997980 0.0125924 0.0002020 -0.0125924
5938264 0.0001957 -0.0123303 0.9998043 0.0123303 0.9998043 0.0123303 0.0001957 -0.0123303
6058321 0.0001896 -0.0120731 0.9998104 0.0120731 0.9998104 0.0120731 0.0001896 -0.0120731
6180806 0.0001838 -0.0118208 0.9998162 0.0118208 0.9998162 0.0118208 0.0001838 -0.0118208
6305767 0.0001783 -0.0115732 0.9998217 0.0115732 0.9998217 0.0115732 0.0001783 -0.0115732
6433254 0.0001730 -0.0113303 0.9998270 0.0113303 0.9998270 0.0113303 0.0001730 -0.0113303
6563319 0.0001679 -0.0110919 0.9998321 0.0110919 0.9998321 0.0110919 0.0001679 -0.0110919
6696013 0.0001630 -0.0108579 0.9998370 0.0108579 0.9998370 0.0108579 0.0001630 -0.0108579
6831390 0.0001583 -0.0106283 0.9998417 0.0106283 0.9998417 0.0106283 0.0001583 -0.0106283
6969505 0.0001538 -0.0104029 0.9998462 0.0104029 0.9998462 0.0104029 0.0001538 -0.0104029
7110411 0.0001495 -0.0101817 0.9998505 0.0101817 0.9998505 0.0101817 0.0001495 -0.0101817
7254166 0.0001454 -0.0099646 0.9998546 0.0099646 0.9998546 0.0099646 0.0001454 -0.0099646
7400828 0.0001415 -0.0097515 0.9998585 0.0097515 0.9998585 0.0097515 0.0001415 -0.0097515
7550455 0.0001378 -0.0095423 0.9998622 0.0095423 0.9998622 0.0095423 0.0001378 -0.0095423
7703107 0.0001342 -0.0093369 0.9998658 0.0093369 0.9998658 0.0093369 0.0001342 -0.0093369
7858845 0.0001308 -0.0091352 0.9998692 0.0091352 0.9998692 0.0091352 0.0001308 -0.0091352
8017732 0.0001275 -0.0089372 0.9998725 0.0089372 0.9998725 0.0089372 0.0001275 -0.0089372
8179831 0.0001244 -0.0087428 0.9998756 0.0087428 0.9998756 0.0087428 0.0001244 -0.0087428
8345207 0.0001214 -0.0085519 0.9998786 0.0085519 0.9998786 0.0085519 0.0001214 -0.0085519
8513927 0.0001186 -0.0083644 0.9998814 0.0083644 0.9998814 0.0083644 0.0001186 -0.0083644
8686058 0.0001159 -0.0081803 0.9998841 0.0081803 0.9998841 0.0081803 0.0001159 -0.0081803
8861669 0.0001133 -0.0079994 0.9998867 0.0079994 0.9998867 0.0079994 0.0001133 -0.0079994
9040831 0.0001109 -0.0078218 0.9998891 0.0078218 0.9998891 0.0078218 0.0001109 -0.0078218
9223615 0.0001086 -0.0076473 0.9998914 0.0076473 0.9998914 0.0076473 0.0001086 -0.0076473
9410094 0.0001064 -0.0074758 0.9998936 0.0074758 0.9998936 0.0074758 0.0001064 -0.0074758
9600343 0.0001043 -0.0073073 0.9998957 0.0073073 0.9998957 0.0073073 0.0001043 -0.0073073
9794439 0.0001023 -0.0071418 0.9998977 0.0071418 0.9998977 0.0071418 0.0001023 -0.0071418
9992459 0.0001004 -0.0069791 0.9998996 0.0069791 0.9998996 0.0069791 0.0001004 -0.0069791
10194482 0.0000986 -0.0068192 0.9999014 0.0068192 0.9999014 0.0068192 0.0000986 -0.0068192
10400590 0.0000969 -0.0066621 0.9999031 0.0066621 0.9999031 0.0066621 0.0000969 -0.0066621
10610865 0.0000954 -0.0065076 0.9999046 0.0065076 0.9999046 0.0065076 0.0000954 -0.0065076
10825391 0.0000939 -0.0063557 0.9999061 0.0063557 0.9999061 0.0063557 0.0000939 -0.0063557
11044254 0.0000925 -0.0062064 0.9999075 0.0062064 0.9999075 0.0062064 0.0000925 -0.0062064
11267542 0.0000911 -0.0060595 0.9999089 0.0060595 0.9999089 0.0060595 0.0000911 -0.0060595
11495344 0.0000899 -0.0059150 0.9999101 0.0059150 0.9999101 0.0059150 0.0000899 -0.0059150
11727752 0.0000888 -0.0057730 0.9999112 0.0057730 0.9999112 0.0057730 0.0000888 -0.0057730
11964859 0.0000877 -0.0056332 0.9999123 0.0056332 0.9999123 0.0056332 0.0000877 -0.0056332
12206760 0.0000867 -0.0054957 0.9999133 0.0054957 0.9999133 0.0054957 0.0000867 -0.0054957
12453551 0.0000858 -0.0053604 0.9999142 0.0053604 0.9999142 0.0053604 0.0000858 -0.0053604
12705331 0.0000849 -0.0052272 0.9999151 0.0052272 0.9999151 0.0052272 0.0000849 -0.0052272
12962202 0.0000842 -0.0050961 0.9999158 0.0050961 0.9999158 0.0050961 0.0000842 -0.0050961
13224267 0.0000835 -0.0049670 0.9999165 0.0049670 0.9999165 0.0049670 0.0000835 -0.0049670
13491630 0.0000828 -0.0048399 0.9999172 0.0048399 0.9999172 0.0048399 0.0000828 -0.0048399
13764398 0.0000823 -0.0047147 0.9999177 0.0047147 0.9999177 0.0047147 0.0000823 -0.0047147
14042680 0.0000818 -0.0045914 0.9999182 0.0045914 0.9999182 0.0045914 0.0000818 -0.0045914
14326589 0.0000814 -0.0044699 0.9999186 0.0044699 0.9999186 0.0044699 0.0000814 -0.0044699
14616238 0.0000810 -0.0043502 0.9999190 0.0043502 0.9999190 0.0043502 0.0000810 -0.0043502
14911743 0.0000807 -0.0042322 0.9999193 0.0042322 0.9999193 0.0042322 0.0000807 -0.0042322
15213223 0.0000805 -0.0041159 0.9999195 0.0041159 0.9999195 0.0041159 0.0000805 -0.0041159
15520797 0.0000803 -0.0040012 0.9999197 0.0040012 0.9999197 0.0040012 0.0000803 -0.0040012
15834590 0.0000802 -0.0038881 0.9999198 0.0038881 0.9999198 0.0038881 0.0000802 -0.0038881
16154727 0.0000802 -0.0037766 0.9999198 0.0037766 0.9999198 0.0037766 0.0000802 -0.0037766
16481337 0.0000802 -0.0036665 0.9999198 0.0036665 0.9999198 0.0036665 0.0000802 -0.0036665
16814550 0.0000803 -0.0035578 0.9999197 0.0035578 0.9999197 0.0035578 0.0000803 -0.0035578
17154499 0.0000805 -0.0034505 0.9999195 0.0034505 0.9999195 0.0034505 0.0000805 -0.0034505
17501322 0.0000807 -0.0033446 0.9999193 0.0033446 0.9999193 0.0033446 0.0000807 -0.0033446
17855156 0.0000810 -0.0032400 0.9999190 0.0032400 0.9999190 0.0032400 0.0000810 -0.0032400
18216144 0.0000813 -0.0031366 0.9999187 0.0031366 0.9999187 0.0031366 0.0000813 -0.0031366
18584431 0.0000817 -0.0030345 0.9999183 0.0030345 0.9999183 0.0030345 0.0000817 -0.0030345
18960163 0.0000822 -0.0029335 0.9999178 0.0029335 0.9999178 0.0029335 0.0000822 -0.0029335
19343491 0.0000828 -0.0028336 0.9999172 0.0028336 0.9999172 0.0028336 0.0000828 -0.0028336
19734570 0.0000834 -0.0027348 0.9999166 0.0027348 0.9999166 0.0027348 0.0000834 -0.0027348
20133555 0.0000841 -0.0026371 0.9999159 0.0026371 0.9999159 0.0026371 0.0000841 -0.0026371
20540607 0.0000848 -0.0025403 0.9999152 0.0025403 0.9999152 0.0025403 0.0000848 -0.0025403
20955888 0.0000856 -0.0024445 0.9999144 0.0024445 0.9999144 0.0024445 0.0000856 -0.0024445
21379566 0.0000865 -0.0023495 0.9999135 0.0023495 0.9999135 0.0023495 0.0000865 -0.0023495
21811809 0.0000875 -0.0022555 0.9999125 0.0022555 0.9999125 0.0022555 0.0000875 -0.0022555
22252791 0.0000886 -0.0021622 0.9999114 0.0021622 0.9999114 0.0021622 0.0000886 -0.0021622
22702688 0.0000897 -0.0020697 0.9999103 0.0020697 0.9999103 0.0020697 0.0000897 -0.0020697
23161682 0.0000909 -0.0019779 0.9999091 0.0019779 0.9999091 0.0019779 0.0000909 -0.0019779
23629955 0.0000922 -0.0018868 0.9999078 0.0018868 0.9999078 0.0018868 0.0000922 -0.0018868
24107696 0.0000936 -0.0017963 0.9999064 0.0017963 0.9999064 0.0017963 0.0000936 -0.0017963
24595095 0.0000951 -0.0017065 0.9999049 0.0017065 0.9999049 0.0017065 0.0000951 -0.0017065
25092348 0.0000967 -0.0016171 0.9999033 0.0016171 0.9999033 0.0016171 0.0000967 -0.0016171
25599655 0.0000984 -0.0015283 0.9999016 0.0015283 0.9999016 0.0015283 0.0000984 -0.0015283
26117218 0.0001002 -0.0014399 0.9998998 0.0014399 0.9998998 0.0014399 0.0001002 -0.0014399
26645245 0.0001021 -0.0013518 0.9998979 0.0013518 0.9998979 0.0013518 0.0001021 -0.0013518
27183947 0.0001041 -0.0012642 0.9998959 0.0012642 0.9998959 0.0012642 0.0001041 -0.0012642
27733541 0.0001062 -0.0011768 0.9998938 0.0011768 0.9998938 0.0011768 0.0001062 -0.0011768
28294246 0.0001084 -0.0010896 0.9998916 0.0010896 0.9998916 0.0010896 0.0001084 -0.0010896
28866287 0.0001108 -0.0010027 0.9998892 0.0010027 0.9998892 0.0010027 0.0001108 -0.0010027
29449894 0.0001134 -0.0009158 0.9998866 0.0009158 0.9998866 0.0009158 0.0001134 -0.0009158
30045299 0.0001160 -0.0008290 0.9998840 0.0008290 0.9998840 0.0008290 0.0001160 -0.0008290
30652742 0.0001188 -0.0007423 0.9998812 0.0007423 0.9998812 0.0007423 0.0001188 -0.0007423
31272467 0.0001218 -0.0006555 0.9998782 0.0006555 0.9998782 0.0006555 0.0001218 -0.0006555
31904720 0.0001250 -0.0005685 0.9998750 0.0005685 0.9998750 0.0005685 0.0001250 -0.0005685
32549757 0.0001283 -0.0004813 0.9998717 0.0004813 0.9998717 0.0004813 0.0001283 -0.0004813
33207834 0.0001319 -0.0003939 0.9998681 0.0003939 0.9998681 0.0003939 0.0001319 -0.0003939
33879216 0.0001356 -0.0003061 0.9998644 0.0003061 0.9998644 0.0003061 0.0001356 -0.0003061
34564172 0.0001396 -0.0002179 0.9998604 0.0002179 0.9998604 0.0002179 0.0001396 -0.0002179
35262976 0.0001439 -0.0001292 0.9998561 0.0001292 0.9998561 0.0001292 0.0001439 -0.0001292
35975908 0.0001484 -0.0000398 0.9998516 0.0000398 0.9998516 0.0000398 0.0001484 -0.0000398
36703254 0.0001532 0.0000503 0.9998468 -0.0000503 0.9998468 -0.0000503 0.0001532 0.0000503
37445305 0.0001583 0.0001412 0.9998417 -0.0001412 0.9998417 -0.0001412 0.0001583 0.0001412
38202358 0.0001637 0.0002331 0.9998363 -0.0002331 0.9998363 -0.0002331 0.0001637 0.0002331
38974717 0.0001695 0.0003262 0.9998305 -0.0003262 0.9998305 -0.0003262 0.0001695 0.0003262
39762692 0.0001758 0.0004205 0.9998242 -0.0004205 0.9998242 -0.0004205 0.0001758 0.0004205
40566597 0.0001825 0.0005162 0.9998175 -0.0005162 0.9998175 -0.0005162 0.0001825 0.0005162
41386756 0.0001897 0.0006136 0.9998103 -0.0006136 0.9998103 -0.0006136 0.0001897 0.0006136
42223496 0.0001975 0.0007129 0.9998025 -0.0007129 0.9998025 -0.0007129 0.0001975 0.0007129
43077153 0.0002059 0.0008142 0.9997941 -0.0008142 0.9997941 -0.0008142 0.0002059 0.0008142
43948069 0.0002151 0.0009179 0.9997849 -0.0009179 0.9997849 -0.0009179 0.0002151 0.0009179
44836592 0.0002251 0.0010243 0.9997749 -0.0010243 0.9997749 -0.0010243 0.0002251 0.0010243
45743080 0.0002361 0.0011338 0.9997639 -0.0011338 0.9997639 -0.0011338 0.0002361 0.0011338
46667894 0.0002483 0.0012468 0.9997517 -0.0012468 0.9997517 -0.0012468 0.0002483 0.0012468
47611406 0.0002618 0.0013638 0.9997382 -0.0013638 0.9997382 -0.0013638 0.0002618 0.0013638
48573993 0.0002769 0.0014855 0.9997231 -0.0014855 0.9997231 -0.0014855 0.0002769 0.0014855
49556042 0.0002939 0.0016126 0.9997061 -0.0016126 0.9997061 -0.0016126 0.0002939 0.0016126
50557945 0.0003133 0.0017461 0.9996867 -0.0017461 0.9996867 -0.0017461 0.0003133 0.0017461
51580105 0.0003356 0.0018870 0.9996644 -0.0018870 0.9996644 -0.0018870 0.0003356 0.0018870
52622929 0.0003616 0.0020367 0.9996384 -0.0020367 0.9996384 -0.0020367 0.0003616 0.0020367
53686838 0.0003924 0.0021970 0.9996076 -0.0021970 0.9996076 -0.0021970 0.0003924 0.0021970
54772256 0.0004293 0.0023701 0.9995707 -0.0023701 0.9995707 -0.0023701 0.0004293 0.0023701
55879618 0.0004744 0.0025590 0.9995256 -0.0025590 0.9995256 -0.0025590 0.0004744 0.0025590
57009369 0.0005309 0.0027676 0.9994691 -0.0027676 0.9994691 -0.0027676 0.0005309 0.0027676
58161960 0.0006033 0.0030008 0.9993967 -0.0030008 0.9993967 -0.0030008 0.0006033 0.0030008
59337855 0.0006990 0.0032658 0.9993010 -0.0032658 0.9993010 -0.0032658 0.0006990 0.0032658
60537522 0.0008300 0.0035720 0.9991700 -0.0035720 0.9991700 -0.0035720 0.0008300 0.0035720
61761445 0.0010170 0.0039321 0.9989830 -0.0039321 0.9989830 -0.0039321 0.0010170 0.0039321
63010112 0.0012977 0.0043621 0.9987023 -0.0043621 0.9987023 -0.0043621 0.0012977 0.0043621
64284024 0.0017444 0.0048766 0.9982556 -0.0048766 0.9982556 -0.0048766 0.0017444 0.0048766
65583691 0.0025024 0.0054641 0.9974976 -0.0054641 0.9974976 -0.0054641 0.0025024 0.0054641
66909635 0.0038514 0.0059740 0.9961486 -0.0059740 0.9961486 -0.0059740 0.0038514 0.0059740
68262386 0.0061115 0.0057160 0.9938885 -0.0057160 0.9938885 -0.0057160 0.0061115 0.0057160
69642486 0.0083156 0.0031839 0.9916844 -0.0031839 0.9916844 -0.0031839 0.0083156 0.0031839
71050488 0.0074648 -0.0004186 0.9925352 0.0004186 0.9925352 0.0004186 0.0074648 -0.0004186
72486957 0.0049355 -0.0016707 0.9950645 0.0016707 0.9950645 0.0016707 0.0049355 -0.0016707
73952468 0.0031576 -0.0013867 0.9968424 0.0013867 0.9968424 0.0013867 0.0031576 -0.0013867
