!Murata Part Number: GRM43D7U3A472JW31
!These Parameters are Measured in Series Mode Connection
!Data Generated on Mar 30, 2021
!       o--ll--o
!Port1            Port2
!       o------o
!Operation Temp=25[degC], DC Bias Voltage=0[V]
!Freq. Start=1000[kHz] Stop=3[GHz] 401[Steps]
# Hz S RI R 50
!Freq.(Hz) S11(Real) S11(Imag) S21(Real) S21(Imag) S12(Real) S12(Imag) S22(Real) S22(Imag)
1000000 0.1083466 -0.3107632 0.8916534 0.3107632 0.8916534 0.3107632 0.1083466 -0.3107632
1020218 0.1045394 -0.3059035 0.8954606 0.3059035 0.8954606 0.3059035 0.1045394 -0.3059035
1040844 0.1008508 -0.3010745 0.8991492 0.3010745 0.8991492 0.3010745 0.1008508 -0.3010745
1061887 0.0972783 -0.2962786 0.9027217 0.2962786 0.9027217 0.2962786 0.0972783 -0.2962786
1083356 0.0938191 -0.2915179 0.9061809 0.2915179 0.9061809 0.2915179 0.0938191 -0.2915179
1105259 0.0904706 -0.2867946 0.9095294 0.2867946 0.9095294 0.2867946 0.0904706 -0.2867946
1127605 0.0872301 -0.2821105 0.9127699 0.2821105 0.9127699 0.2821105 0.0872301 -0.2821105
1150402 0.0840949 -0.2774675 0.9159051 0.2774675 0.9159051 0.2774675 0.0840949 -0.2774675
1173660 0.0810624 -0.2728670 0.9189376 0.2728670 0.9189376 0.2728670 0.0810624 -0.2728670
1197389 0.0781300 -0.2683108 0.9218700 0.2683108 0.9218700 0.2683108 0.0781300 -0.2683108
1221597 0.0752949 -0.2638000 0.9247051 0.2638000 0.9247051 0.2638000 0.0752949 -0.2638000
1246295 0.0725546 -0.2593361 0.9274454 0.2593361 0.9274454 0.2593361 0.0725546 -0.2593361
1271492 0.0699065 -0.2549200 0.9300935 0.2549200 0.9300935 0.2549200 0.0699065 -0.2549200
1297199 0.0673480 -0.2505530 0.9326520 0.2505530 0.9326520 0.2505530 0.0673480 -0.2505530
1323425 0.0648767 -0.2462359 0.9351233 0.2462359 0.9351233 0.2462359 0.0648767 -0.2462359
1350181 0.0624899 -0.2419695 0.9375101 0.2419695 0.9375101 0.2419695 0.0624899 -0.2419695
1377479 0.0601853 -0.2377547 0.9398147 0.2377547 0.9398147 0.2377547 0.0601853 -0.2377547
1405328 0.0579605 -0.2335919 0.9420395 0.2335919 0.9420395 0.2335919 0.0579605 -0.2335919
1433740 0.0558130 -0.2294818 0.9441870 0.2294818 0.9441870 0.2294818 0.0558130 -0.2294818
1462727 0.0537405 -0.2254249 0.9462595 0.2254249 0.9462595 0.2254249 0.0537405 -0.2254249
1492300 0.0517408 -0.2214216 0.9482592 0.2214216 0.9482592 0.2214216 0.0517408 -0.2214216
1522470 0.0498116 -0.2174721 0.9501884 0.2174721 0.9501884 0.2174721 0.0498116 -0.2174721
1553251 0.0479506 -0.2135767 0.9520494 0.2135767 0.9520494 0.2135767 0.0479506 -0.2135767
1584654 0.0461558 -0.2097357 0.9538442 0.2097357 0.9538442 0.2097357 0.0461558 -0.2097357
1616692 0.0444251 -0.2059490 0.9555749 0.2059490 0.9555749 0.2059490 0.0444251 -0.2059490
1649378 0.0427564 -0.2022169 0.9572436 0.2022169 0.9572436 0.2022169 0.0427564 -0.2022169
1682724 0.0411476 -0.1985392 0.9588524 0.1985392 0.9588524 0.1985392 0.0411476 -0.1985392
1716745 0.0395969 -0.1949159 0.9604031 0.1949159 0.9604031 0.1949159 0.0395969 -0.1949159
1751453 0.0381023 -0.1913469 0.9618977 0.1913469 0.9618977 0.1913469 0.0381023 -0.1913469
1786863 0.0366619 -0.1878321 0.9633381 0.1878321 0.9633381 0.1878321 0.0366619 -0.1878321
1822989 0.0352740 -0.1843713 0.9647260 0.1843713 0.9647260 0.1843713 0.0352740 -0.1843713
1859846 0.0339368 -0.1809642 0.9660632 0.1809642 0.9660632 0.1809642 0.0339368 -0.1809642
1897447 0.0326486 -0.1776106 0.9673514 0.1776106 0.9673514 0.1776106 0.0326486 -0.1776106
1935809 0.0314077 -0.1743102 0.9685923 0.1743102 0.9685923 0.1743102 0.0314077 -0.1743102
1974946 0.0302125 -0.1710625 0.9697875 0.1710625 0.9697875 0.1710625 0.0302125 -0.1710625
2014875 0.0290614 -0.1678674 0.9709386 0.1678674 0.9709386 0.1678674 0.0290614 -0.1678674
2055611 0.0279529 -0.1647243 0.9720471 0.1647243 0.9720471 0.1647243 0.0279529 -0.1647243
2097170 0.0268855 -0.1616328 0.9731145 0.1616328 0.9731145 0.1616328 0.0268855 -0.1616328
2139570 0.0258578 -0.1585926 0.9741422 0.1585926 0.9741422 0.1585926 0.0258578 -0.1585926
2182827 0.0248684 -0.1556030 0.9751316 0.1556030 0.9751316 0.1556030 0.0248684 -0.1556030
2226959 0.0239159 -0.1526637 0.9760841 0.1526637 0.9760841 0.1526637 0.0239159 -0.1526637
2271982 0.0229990 -0.1497741 0.9770010 0.1497741 0.9770010 0.1497741 0.0229990 -0.1497741
2317916 0.0221165 -0.1469338 0.9778835 0.1469338 0.9778835 0.1469338 0.0221165 -0.1469338
2364779 0.0212672 -0.1441421 0.9787328 0.1441421 0.9787328 0.1441421 0.0212672 -0.1441421
2412589 0.0204497 -0.1413985 0.9795503 0.1413985 0.9795503 0.1413985 0.0204497 -0.1413985
2461366 0.0196631 -0.1387025 0.9803369 0.1387025 0.9803369 0.1387025 0.0196631 -0.1387025
2511129 0.0189061 -0.1360535 0.9810939 0.1360535 0.9810939 0.1360535 0.0189061 -0.1360535
2561897 0.0181778 -0.1334508 0.9818222 0.1334508 0.9818222 0.1334508 0.0181778 -0.1334508
2613693 0.0174770 -0.1308941 0.9825230 0.1308941 0.9825230 0.1308941 0.0174770 -0.1308941
2666535 0.0168028 -0.1283825 0.9831972 0.1283825 0.9831972 0.1283825 0.0168028 -0.1283825
2720446 0.0161542 -0.1259156 0.9838458 0.1259156 0.9838458 0.1259156 0.0161542 -0.1259156
2775447 0.0155302 -0.1234927 0.9844698 0.1234927 0.9844698 0.1234927 0.0155302 -0.1234927
2831560 0.0149299 -0.1211132 0.9850701 0.1211132 0.9850701 0.1211132 0.0149299 -0.1211132
2888807 0.0143526 -0.1187765 0.9856474 0.1187765 0.9856474 0.1187765 0.0143526 -0.1187765
2947212 0.0137972 -0.1164820 0.9862028 0.1164820 0.9862028 0.1164820 0.0137972 -0.1164820
3006797 0.0132631 -0.1142291 0.9867369 0.1142291 0.9867369 0.1142291 0.0132631 -0.1142291
3067588 0.0127494 -0.1120172 0.9872506 0.1120172 0.9872506 0.1120172 0.0127494 -0.1120172
3129607 0.0122553 -0.1098456 0.9877447 0.1098456 0.9877447 0.1098456 0.0122553 -0.1098456
3192880 0.0117802 -0.1077138 0.9882198 0.1077138 0.9882198 0.1077138 0.0117802 -0.1077138
3257432 0.0113233 -0.1056211 0.9886767 0.1056211 0.9886767 0.1056211 0.0113233 -0.1056211
3323290 0.0108839 -0.1035669 0.9891161 0.1035669 0.9891161 0.1035669 0.0108839 -0.1035669
3390478 0.0104614 -0.1015506 0.9895386 0.1015506 0.9895386 0.1015506 0.0104614 -0.1015506
3459026 0.0100551 -0.0995716 0.9899449 0.0995716 0.9899449 0.0995716 0.0100551 -0.0995716
3528959 0.0096645 -0.0976294 0.9903355 0.0976294 0.9903355 0.0976294 0.0096645 -0.0976294
3600306 0.0092889 -0.0957232 0.9907111 0.0957232 0.9907111 0.0957232 0.0092889 -0.0957232
3673095 0.0089279 -0.0938526 0.9910721 0.0938526 0.9910721 0.0938526 0.0089279 -0.0938526
3747356 0.0085807 -0.0920170 0.9914193 0.0920170 0.9914193 0.0920170 0.0085807 -0.0920170
3823119 0.0082469 -0.0902156 0.9917531 0.0902156 0.9917531 0.0902156 0.0082469 -0.0902156
3900413 0.0079261 -0.0884481 0.9920739 0.0884481 0.9920739 0.0884481 0.0079261 -0.0884481
3979270 0.0076176 -0.0867137 0.9923824 0.0867137 0.9923824 0.0867137 0.0076176 -0.0867137
4059721 0.0073211 -0.0850120 0.9926789 0.0850120 0.9926789 0.0850120 0.0073211 -0.0850120
4141799 0.0070360 -0.0833424 0.9929640 0.0833424 0.9929640 0.0833424 0.0070360 -0.0833424
4225536 0.0067620 -0.0817043 0.9932380 0.0817043 0.9932380 0.0817043 0.0067620 -0.0817043
4310966 0.0064986 -0.0800972 0.9935014 0.0800972 0.9935014 0.0800972 0.0064986 -0.0800972
4398124 0.0062454 -0.0785205 0.9937546 0.0785205 0.9937546 0.0785205 0.0062454 -0.0785205
4487043 0.0060021 -0.0769736 0.9939979 0.0769736 0.9939979 0.0769736 0.0060021 -0.0769736
4577760 0.0057681 -0.0754562 0.9942319 0.0754562 0.9942319 0.0754562 0.0057681 -0.0754562
4670311 0.0055433 -0.0739676 0.9944567 0.0739676 0.9944567 0.0739676 0.0055433 -0.0739676
4764734 0.0053272 -0.0725073 0.9946728 0.0725073 0.9946728 0.0725073 0.0053272 -0.0725073
4861065 0.0051196 -0.0710749 0.9948804 0.0710749 0.9948804 0.0710749 0.0051196 -0.0710749
4959344 0.0049200 -0.0696697 0.9950800 0.0696697 0.9950800 0.0696697 0.0049200 -0.0696697
5059610 0.0047281 -0.0682914 0.9952719 0.0682914 0.9952719 0.0682914 0.0047281 -0.0682914
5161903 0.0045438 -0.0669394 0.9954562 0.0669394 0.9954562 0.0669394 0.0045438 -0.0669394
5266264 0.0043666 -0.0656133 0.9956334 0.0656133 0.9956334 0.0656133 0.0043666 -0.0656133
5372736 0.0041963 -0.0643125 0.9958037 0.0643125 0.9958037 0.0643125 0.0041963 -0.0643125
5481359 0.0040327 -0.0630366 0.9959673 0.0630366 0.9959673 0.0630366 0.0040327 -0.0630366
5592179 0.0038754 -0.0617852 0.9961246 0.0617852 0.9961246 0.0617852 0.0038754 -0.0617852
5705239 0.0037243 -0.0605578 0.9962757 0.0605578 0.9962757 0.0605578 0.0037243 -0.0605578
5820586 0.0035791 -0.0593539 0.9964209 0.0593539 0.9964209 0.0593539 0.0035791 -0.0593539
5938264 0.0034396 -0.0581731 0.9965604 0.0581731 0.9965604 0.0581731 0.0034396 -0.0581731
6058321 0.0033055 -0.0570150 0.9966945 0.0570150 0.9966945 0.0570150 0.0033055 -0.0570150
6180806 0.0031767 -0.0558791 0.9968233 0.0558791 0.9968233 0.0558791 0.0031767 -0.0558791
6305767 0.0030529 -0.0547651 0.9969471 0.0547651 0.9969471 0.0547651 0.0030529 -0.0547651
6433254 0.0029339 -0.0536724 0.9970661 0.0536724 0.9970661 0.0536724 0.0029339 -0.0536724
6563319 0.0028196 -0.0526008 0.9971804 0.0526008 0.9971804 0.0526008 0.0028196 -0.0526008
6696013 0.0027098 -0.0515498 0.9972902 0.0515498 0.9972902 0.0515498 0.0027098 -0.0515498
6831390 0.0026043 -0.0505189 0.9973957 0.0505189 0.9973957 0.0505189 0.0026043 -0.0505189
6969505 0.0025030 -0.0495080 0.9974970 0.0495080 0.9974970 0.0495080 0.0025030 -0.0495080
7110411 0.0024056 -0.0485164 0.9975944 0.0485164 0.9975944 0.0485164 0.0024056 -0.0485164
7254166 0.0023120 -0.0475439 0.9976880 0.0475439 0.9976880 0.0475439 0.0023120 -0.0475439
7400828 0.0022221 -0.0465901 0.9977779 0.0465901 0.9977779 0.0465901 0.0022221 -0.0465901
7550455 0.0021358 -0.0456547 0.9978642 0.0456547 0.9978642 0.0456547 0.0021358 -0.0456547
7703107 0.0020528 -0.0447373 0.9979472 0.0447373 0.9979472 0.0447373 0.0020528 -0.0447373
7858845 0.0019732 -0.0438374 0.9980268 0.0438374 0.9980268 0.0438374 0.0019732 -0.0438374
8017732 0.0018966 -0.0429549 0.9981034 0.0429549 0.9981034 0.0429549 0.0018966 -0.0429549
8179831 0.0018231 -0.0420894 0.9981769 0.0420894 0.9981769 0.0420894 0.0018231 -0.0420894
8345207 0.0017524 -0.0412404 0.9982476 0.0412404 0.9982476 0.0412404 0.0017524 -0.0412404
8513927 0.0016846 -0.0404078 0.9983154 0.0404078 0.9983154 0.0404078 0.0016846 -0.0404078
8686058 0.0016194 -0.0395911 0.9983806 0.0395911 0.9983806 0.0395911 0.0016194 -0.0395911
8861669 0.0015568 -0.0387901 0.9984432 0.0387901 0.9984432 0.0387901 0.0015568 -0.0387901
9040831 0.0014967 -0.0380045 0.9985033 0.0380045 0.9985033 0.0380045 0.0014967 -0.0380045
9223615 0.0014390 -0.0372339 0.9985610 0.0372339 0.9985610 0.0372339 0.0014390 -0.0372339
9410094 0.0013835 -0.0364781 0.9986165 0.0364781 0.9986165 0.0364781 0.0013835 -0.0364781
9600343 0.0013303 -0.0357367 0.9986697 0.0357367 0.9986697 0.0357367 0.0013303 -0.0357367
9794439 0.0012791 -0.0350095 0.9987209 0.0350095 0.9987209 0.0350095 0.0012791 -0.0350095
9992459 0.0012300 -0.0342962 0.9987700 0.0342962 0.9987700 0.0342962 0.0012300 -0.0342962
10194482 0.0011829 -0.0335966 0.9988171 0.0335966 0.9988171 0.0335966 0.0011829 -0.0335966
10400590 0.0011376 -0.0329102 0.9988624 0.0329102 0.9988624 0.0329102 0.0011376 -0.0329102
10610865 0.0010941 -0.0322370 0.9989059 0.0322370 0.9989059 0.0322370 0.0010941 -0.0322370
10825391 0.0010524 -0.0315765 0.9989476 0.0315765 0.9989476 0.0315765 0.0010524 -0.0315765
11044254 0.0010123 -0.0309287 0.9989877 0.0309287 0.9989877 0.0309287 0.0010123 -0.0309287
11267542 0.0009739 -0.0302931 0.9990261 0.0302931 0.9990261 0.0302931 0.0009739 -0.0302931
11495344 0.0009369 -0.0296696 0.9990631 0.0296696 0.9990631 0.0296696 0.0009369 -0.0296696
11727752 0.0009015 -0.0290579 0.9990985 0.0290579 0.9990985 0.0290579 0.0009015 -0.0290579
11964859 0.0008674 -0.0284577 0.9991326 0.0284577 0.9991326 0.0284577 0.0008674 -0.0284577
12206760 0.0008348 -0.0278689 0.9991652 0.0278689 0.9991652 0.0278689 0.0008348 -0.0278689
12453551 0.0008034 -0.0272912 0.9991966 0.0272912 0.9991966 0.0272912 0.0008034 -0.0272912
12705331 0.0007734 -0.0267244 0.9992266 0.0267244 0.9992266 0.0267244 0.0007734 -0.0267244
12962202 0.0007445 -0.0261682 0.9992555 0.0261682 0.9992555 0.0261682 0.0007445 -0.0261682
13224267 0.0007168 -0.0256225 0.9992832 0.0256225 0.9992832 0.0256225 0.0007168 -0.0256225
13491630 0.0006902 -0.0250870 0.9993098 0.0250870 0.9993098 0.0250870 0.0006902 -0.0250870
13764398 0.0006647 -0.0245615 0.9993353 0.0245615 0.9993353 0.0245615 0.0006647 -0.0245615
14042680 0.0006402 -0.0240458 0.9993598 0.0240458 0.9993598 0.0240458 0.0006402 -0.0240458
14326589 0.0006168 -0.0235397 0.9993832 0.0235397 0.9993832 0.0235397 0.0006168 -0.0235397
14616238 0.0005943 -0.0230430 0.9994057 0.0230430 0.9994057 0.0230430 0.0005943 -0.0230430
14911743 0.0005727 -0.0225556 0.9994273 0.0225556 0.9994273 0.0225556 0.0005727 -0.0225556
15213223 0.0005520 -0.0220771 0.9994480 0.0220771 0.9994480 0.0220771 0.0005520 -0.0220771
15520797 0.0005322 -0.0216074 0.9994678 0.0216074 0.9994678 0.0216074 0.0005322 -0.0216074
15834590 0.0005131 -0.0211464 0.9994869 0.0211464 0.9994869 0.0211464 0.0005131 -0.0211464
16154727 0.0004949 -0.0206938 0.9995051 0.0206938 0.9995051 0.0206938 0.0004949 -0.0206938
16481337 0.0004774 -0.0202495 0.9995226 0.0202495 0.9995226 0.0202495 0.0004774 -0.0202495
16814550 0.0004607 -0.0198133 0.9995393 0.0198133 0.9995393 0.0198133 0.0004607 -0.0198133
17154499 0.0004446 -0.0193850 0.9995554 0.0193850 0.9995554 0.0193850 0.0004446 -0.0193850
17501322 0.0004292 -0.0189645 0.9995708 0.0189645 0.9995708 0.0189645 0.0004292 -0.0189645
17855156 0.0004145 -0.0185516 0.9995855 0.0185516 0.9995855 0.0185516 0.0004145 -0.0185516
18216144 0.0004004 -0.0181460 0.9995996 0.0181460 0.9995996 0.0181460 0.0004004 -0.0181460
18584431 0.0003869 -0.0177478 0.9996131 0.0177478 0.9996131 0.0177478 0.0003869 -0.0177478
18960163 0.0003740 -0.0173566 0.9996260 0.0173566 0.9996260 0.0173566 0.0003740 -0.0173566
19343491 0.0003616 -0.0169724 0.9996384 0.0169724 0.9996384 0.0169724 0.0003616 -0.0169724
19734570 0.0003497 -0.0165950 0.9996503 0.0165950 0.9996503 0.0165950 0.0003497 -0.0165950
20133555 0.0003384 -0.0162242 0.9996616 0.0162242 0.9996616 0.0162242 0.0003384 -0.0162242
20540607 0.0003276 -0.0158599 0.9996724 0.0158599 0.9996724 0.0158599 0.0003276 -0.0158599
20955888 0.0003172 -0.0155019 0.9996828 0.0155019 0.9996828 0.0155019 0.0003172 -0.0155019
21379566 0.0003074 -0.0151502 0.9996926 0.0151502 0.9996926 0.0151502 0.0003074 -0.0151502
21811809 0.0002979 -0.0148045 0.9997021 0.0148045 0.9997021 0.0148045 0.0002979 -0.0148045
22252791 0.0002889 -0.0144647 0.9997111 0.0144647 0.9997111 0.0144647 0.0002889 -0.0144647
22702688 0.0002803 -0.0141307 0.9997197 0.0141307 0.9997197 0.0141307 0.0002803 -0.0141307
23161682 0.0002721 -0.0138024 0.9997279 0.0138024 0.9997279 0.0138024 0.0002721 -0.0138024
23629955 0.0002642 -0.0134796 0.9997358 0.0134796 0.9997358 0.0134796 0.0002642 -0.0134796
24107696 0.0002568 -0.0131621 0.9997432 0.0131621 0.9997432 0.0131621 0.0002568 -0.0131621
24595095 0.0002497 -0.0128500 0.9997503 0.0128500 0.9997503 0.0128500 0.0002497 -0.0128500
25092348 0.0002429 -0.0125430 0.9997571 0.0125430 0.9997571 0.0125430 0.0002429 -0.0125430
25599655 0.0002365 -0.0122409 0.9997635 0.0122409 0.9997635 0.0122409 0.0002365 -0.0122409
26117218 0.0002304 -0.0119438 0.9997696 0.0119438 0.9997696 0.0119438 0.0002304 -0.0119438
26645245 0.0002246 -0.0116515 0.9997754 0.0116515 0.9997754 0.0116515 0.0002246 -0.0116515
27183947 0.0002191 -0.0113638 0.9997809 0.0113638 0.9997809 0.0113638 0.0002191 -0.0113638
27733541 0.0002139 -0.0110806 0.9997861 0.0110806 0.9997861 0.0110806 0.0002139 -0.0110806
28294246 0.0002090 -0.0108018 0.9997910 0.0108018 0.9997910 0.0108018 0.0002090 -0.0108018
28866287 0.0002044 -0.0105274 0.9997956 0.0105274 0.9997956 0.0105274 0.0002044 -0.0105274
29449894 0.0002000 -0.0102571 0.9998000 0.0102571 0.9998000 0.0102571 0.0002000 -0.0102571
30045299 0.0001959 -0.0099910 0.9998041 0.0099910 0.9998041 0.0099910 0.0001959 -0.0099910
30652742 0.0001921 -0.0097288 0.9998079 0.0097288 0.9998079 0.0097288 0.0001921 -0.0097288
31272467 0.0001885 -0.0094704 0.9998115 0.0094704 0.9998115 0.0094704 0.0001885 -0.0094704
31904720 0.0001851 -0.0092159 0.9998149 0.0092159 0.9998149 0.0092159 0.0001851 -0.0092159
32549757 0.0001820 -0.0089650 0.9998180 0.0089650 0.9998180 0.0089650 0.0001820 -0.0089650
33207834 0.0001791 -0.0087176 0.9998209 0.0087176 0.9998209 0.0087176 0.0001791 -0.0087176
33879216 0.0001764 -0.0084737 0.9998236 0.0084737 0.9998236 0.0084737 0.0001764 -0.0084737
34564172 0.0001739 -0.0082331 0.9998261 0.0082331 0.9998261 0.0082331 0.0001739 -0.0082331
35262976 0.0001717 -0.0079958 0.9998283 0.0079958 0.9998283 0.0079958 0.0001717 -0.0079958
35975908 0.0001697 -0.0077617 0.9998303 0.0077617 0.9998303 0.0077617 0.0001697 -0.0077617
36703254 0.0001678 -0.0075306 0.9998322 0.0075306 0.9998322 0.0075306 0.0001678 -0.0075306
37445305 0.0001662 -0.0073025 0.9998338 0.0073025 0.9998338 0.0073025 0.0001662 -0.0073025
38202358 0.0001648 -0.0070772 0.9998352 0.0070772 0.9998352 0.0070772 0.0001648 -0.0070772
38974717 0.0001636 -0.0068547 0.9998364 0.0068547 0.9998364 0.0068547 0.0001636 -0.0068547
39762692 0.0001626 -0.0066348 0.9998374 0.0066348 0.9998374 0.0066348 0.0001626 -0.0066348
40566597 0.0001618 -0.0064176 0.9998382 0.0064176 0.9998382 0.0064176 0.0001618 -0.0064176
41386756 0.0001612 -0.0062028 0.9998388 0.0062028 0.9998388 0.0062028 0.0001612 -0.0062028
42223496 0.0001607 -0.0059904 0.9998393 0.0059904 0.9998393 0.0059904 0.0001607 -0.0059904
43077153 0.0001605 -0.0057803 0.9998395 0.0057803 0.9998395 0.0057803 0.0001605 -0.0057803
43948069 0.0001605 -0.0055724 0.9998395 0.0055724 0.9998395 0.0055724 0.0001605 -0.0055724
44836592 0.0001607 -0.0053667 0.9998393 0.0053667 0.9998393 0.0053667 0.0001607 -0.0053667
45743080 0.0001610 -0.0051629 0.9998390 0.0051629 0.9998390 0.0051629 0.0001610 -0.0051629
46667894 0.0001616 -0.0049611 0.9998384 0.0049611 0.9998384 0.0049611 0.0001616 -0.0049611
47611406 0.0001623 -0.0047612 0.9998377 0.0047612 0.9998377 0.0047612 0.0001623 -0.0047612
48573993 0.0001633 -0.0045629 0.9998367 0.0045629 0.9998367 0.0045629 0.0001633 -0.0045629
49556042 0.0001644 -0.0043664 0.9998356 0.0043664 0.9998356 0.0043664 0.0001644 -0.0043664
50557945 0.0001658 -0.0041714 0.9998342 0.0041714 0.9998342 0.0041714 0.0001658 -0.0041714
51580105 0.0001674 -0.0039779 0.9998326 0.0039779 0.9998326 0.0039779 0.0001674 -0.0039779
52622929 0.0001692 -0.0037858 0.9998308 0.0037858 0.9998308 0.0037858 0.0001692 -0.0037858
53686838 0.0001712 -0.0035950 0.9998288 0.0035950 0.9998288 0.0035950 0.0001712 -0.0035950
54772256 0.0001734 -0.0034054 0.9998266 0.0034054 0.9998266 0.0034054 0.0001734 -0.0034054
55879618 0.0001759 -0.0032168 0.9998241 0.0032168 0.9998241 0.0032168 0.0001759 -0.0032168
57009369 0.0001786 -0.0030293 0.9998214 0.0030293 0.9998214 0.0030293 0.0001786 -0.0030293
58161960 0.0001815 -0.0028427 0.9998185 0.0028427 0.9998185 0.0028427 0.0001815 -0.0028427
59337855 0.0001847 -0.0026569 0.9998153 0.0026569 0.9998153 0.0026569 0.0001847 -0.0026569
60537522 0.0001881 -0.0024718 0.9998119 0.0024718 0.9998119 0.0024718 0.0001881 -0.0024718
61761445 0.0001918 -0.0022873 0.9998082 0.0022873 0.9998082 0.0022873 0.0001918 -0.0022873
63010112 0.0001958 -0.0021034 0.9998042 0.0021034 0.9998042 0.0021034 0.0001958 -0.0021034
64284024 0.0002001 -0.0019198 0.9997999 0.0019198 0.9997999 0.0019198 0.0002001 -0.0019198
65583691 0.0002046 -0.0017364 0.9997954 0.0017364 0.9997954 0.0017364 0.0002046 -0.0017364
66909635 0.0002095 -0.0015533 0.9997905 0.0015533 0.9997905 0.0015533 0.0002095 -0.0015533
68262386 0.0002147 -0.0013701 0.9997853 0.0013701 0.9997853 0.0013701 0.0002147 -0.0013701
69642486 0.0002203 -0.0011869 0.9997797 0.0011869 0.9997797 0.0011869 0.0002203 -0.0011869
71050488 0.0002262 -0.0010035 0.9997738 0.0010035 0.9997738 0.0010035 0.0002262 -0.0010035
72486957 0.0002324 -0.0008197 0.9997676 0.0008197 0.9997676 0.0008197 0.0002324 -0.0008197
73952468 0.0002391 -0.0006354 0.9997609 0.0006354 0.9997609 0.0006354 0.0002391 -0.0006354
