!Murata Part Number: GRM0115C1E1R9WE11
!These Parameters are Measured in Series Mode Connection
!Data Generated on Mar 30, 2021
!       o--ll--o
!Port1            Port2
!       o------o
!Operation Temp=25[degC], DC Bias Voltage=0[V]
!Freq. Start=100[MHz] Stop=20[GHz] 401[Steps]
# Hz S RI R 50
!Freq.(Hz) S11(Real) S11(Imag) S21(Real) S21(Imag) S12(Real) S12(Imag) S22(Real) S22(Imag)
100000000 0.9859074 -0.1177107 0.0140926 0.1177107 0.0140926 0.1177107 0.9859074 -0.1177107
149750000 0.9689317 -0.1732595 0.0310683 0.1732595 0.0310683 0.1732595 0.9689317 -0.1732595
199500000 0.9461332 -0.2254305 0.0538668 0.2254305 0.0538668 0.2254305 0.9461332 -0.2254305
249250000 0.9183411 -0.2734385 0.0816589 0.2734385 0.0816589 0.2734385 0.9183411 -0.2734385
299000000 0.8864872 -0.3167303 0.1135128 0.3167303 0.1135128 0.3167303 0.8864872 -0.3167303
348750000 0.8515373 -0.3549866 0.1484627 0.3549866 0.1484627 0.3549866 0.8515373 -0.3549866
398500000 0.8144310 -0.3881029 0.1855690 0.3881029 0.1855690 0.3881029 0.8144310 -0.3881029
448250000 0.7760352 -0.4161581 0.2239648 0.4161581 0.2239648 0.4161581 0.7760352 -0.4161581
498000000 0.7371137 -0.4393744 0.2628863 0.4393744 0.2628863 0.4393744 0.7371137 -0.4393744
547750000 0.6983112 -0.4580766 0.3016888 0.4580766 0.3016888 0.4580766 0.6983112 -0.4580766
597500000 0.6601499 -0.4726550 0.3398501 0.4726550 0.3398501 0.4726550 0.6601499 -0.4726550
647250000 0.6230343 -0.4835328 0.3769657 0.4835328 0.3769657 0.4835328 0.6230343 -0.4835328
697000000 0.5872629 -0.4911409 0.4127371 0.4911409 0.4127371 0.4911409 0.5872629 -0.4911409
746750000 0.5530426 -0.4958994 0.4469574 0.4958994 0.4469574 0.4958994 0.5530426 -0.4958994
796500000 0.5205030 -0.4982048 0.4794970 0.4982048 0.4794970 0.4982048 0.5205030 -0.4982048
846250000 0.4897124 -0.4984221 0.5102876 0.4984221 0.5102876 0.4984221 0.4897124 -0.4984221
896000000 0.4606901 -0.4968807 0.5393099 0.4968807 0.5393099 0.4968807 0.4606901 -0.4968807
945750000 0.4334191 -0.4938738 0.5665809 0.4938738 0.5665809 0.4938738 0.4334191 -0.4938738
995500000 0.4078551 -0.4896587 0.5921449 0.4896587 0.5921449 0.4896587 0.4078551 -0.4896587
1045250000 0.3839353 -0.4844588 0.6160647 0.4844588 0.6160647 0.4844588 0.3839353 -0.4844588
1095000000 0.3615842 -0.4784667 0.6384158 0.4784667 0.6384158 0.4784667 0.3615842 -0.4784667
1144750000 0.3407190 -0.4718470 0.6592810 0.4718470 0.6592810 0.4718470 0.3407190 -0.4718470
1194500000 0.3212529 -0.4647396 0.6787471 0.4647396 0.6787471 0.4647396 0.3212529 -0.4647396
1244250000 0.3030984 -0.4572623 0.6969016 0.4572623 0.6969016 0.4572623 0.3030984 -0.4572623
1294000000 0.2861691 -0.4495146 0.7138309 0.4495146 0.7138309 0.4495146 0.2861691 -0.4495146
1343750000 0.2703811 -0.4415791 0.7296189 0.4415791 0.7296189 0.4415791 0.2703811 -0.4415791
1393500000 0.2556542 -0.4335249 0.7443458 0.4335249 0.7443458 0.4335249 0.2556542 -0.4335249
1443250000 0.2419120 -0.4254089 0.7580880 0.4254089 0.7580880 0.4254089 0.2419120 -0.4254089
1493000000 0.2290828 -0.4172781 0.7709172 0.4172781 0.7709172 0.4172781 0.2290828 -0.4172781
1542750000 0.2170994 -0.4091708 0.7829006 0.4091708 0.7829006 0.4091708 0.2170994 -0.4091708
1592500000 0.2058991 -0.4011181 0.7941009 0.4011181 0.7941009 0.4011181 0.2058991 -0.4011181
1642250000 0.1954237 -0.3931452 0.8045763 0.3931452 0.8045763 0.3931452 0.1954237 -0.3931452
1692000000 0.1856193 -0.3852719 0.8143807 0.3852719 0.8143807 0.3852719 0.1856193 -0.3852719
1741750000 0.1764362 -0.3775140 0.8235638 0.3775140 0.8235638 0.3775140 0.1764362 -0.3775140
1791500000 0.1678283 -0.3698837 0.8321717 0.3698837 0.8321717 0.3698837 0.1678283 -0.3698837
1841250000 0.1597534 -0.3623901 0.8402466 0.3623901 0.8402466 0.3623901 0.1597534 -0.3623901
1891000000 0.1521725 -0.3550400 0.8478275 0.3550400 0.8478275 0.3550400 0.1521725 -0.3550400
1940750000 0.1450496 -0.3478381 0.8549504 0.3478381 0.8549504 0.3478381 0.1450496 -0.3478381
1990500000 0.1383517 -0.3407873 0.8616483 0.3407873 0.8616483 0.3407873 0.1383517 -0.3407873
2040250000 0.1320485 -0.3338892 0.8679515 0.3338892 0.8679515 0.3338892 0.1320485 -0.3338892
2090000000 0.1261121 -0.3271444 0.8738879 0.3271444 0.8738879 0.3271444 0.1261121 -0.3271444
2139750000 0.1205166 -0.3205524 0.8794834 0.3205524 0.8794834 0.3205524 0.1205166 -0.3205524
2189500000 0.1152384 -0.3141120 0.8847616 0.3141120 0.8847616 0.3141120 0.1152384 -0.3141120
2239250000 0.1102558 -0.3078213 0.8897442 0.3078213 0.8897442 0.3078213 0.1102558 -0.3078213
2289000000 0.1055487 -0.3016782 0.8944513 0.3016782 0.8944513 0.3016782 0.1055487 -0.3016782
2338750000 0.1010985 -0.2956798 0.8989015 0.2956798 0.8989015 0.2956798 0.1010985 -0.2956798
2388500000 0.0968881 -0.2898235 0.9031119 0.2898235 0.9031119 0.2898235 0.0968881 -0.2898235
2438250000 0.0929019 -0.2841058 0.9070981 0.2841058 0.9070981 0.2841058 0.0929019 -0.2841058
2488000000 0.0891253 -0.2785236 0.9108747 0.2785236 0.9108747 0.2785236 0.0891253 -0.2785236
2537750000 0.0855448 -0.2730734 0.9144552 0.2730734 0.9144552 0.2730734 0.0855448 -0.2730734
2587500000 0.0821480 -0.2677517 0.9178520 0.2677517 0.9178520 0.2677517 0.0821480 -0.2677517
2637250000 0.0789234 -0.2625550 0.9210766 0.2625550 0.9210766 0.2625550 0.0789234 -0.2625550
2687000000 0.0758603 -0.2574797 0.9241397 0.2574797 0.9241397 0.2574797 0.0758603 -0.2574797
2736750000 0.0729489 -0.2525224 0.9270511 0.2525224 0.9270511 0.2525224 0.0729489 -0.2525224
2786500000 0.0701799 -0.2476796 0.9298201 0.2476796 0.9298201 0.2476796 0.0701799 -0.2476796
2836250000 0.0675448 -0.2429477 0.9324552 0.2429477 0.9324552 0.2429477 0.0675448 -0.2429477
2886000000 0.0650359 -0.2383235 0.9349641 0.2383235 0.9349641 0.2383235 0.0650359 -0.2383235
2935750000 0.0626456 -0.2338037 0.9373544 0.2338037 0.9373544 0.2338037 0.0626456 -0.2338037
2985500000 0.0603671 -0.2293849 0.9396329 0.2293849 0.9396329 0.2293849 0.0603671 -0.2293849
3035250000 0.0581942 -0.2250641 0.9418058 0.2250641 0.9418058 0.2250641 0.0581942 -0.2250641
3085000000 0.0561208 -0.2208381 0.9438792 0.2208381 0.9438792 0.2208381 0.0561208 -0.2208381
3134750000 0.0541413 -0.2167040 0.9458587 0.2167040 0.9458587 0.2167040 0.0541413 -0.2167040
3184500000 0.0522507 -0.2126589 0.9477493 0.2126589 0.9477493 0.2126589 0.0522507 -0.2126589
3234250000 0.0504441 -0.2087000 0.9495559 0.2087000 0.9495559 0.2087000 0.0504441 -0.2087000
3284000000 0.0487170 -0.2048245 0.9512830 0.2048245 0.9512830 0.2048245 0.0487170 -0.2048245
3333750000 0.0470651 -0.2010298 0.9529349 0.2010298 0.9529349 0.2010298 0.0470651 -0.2010298
3383500000 0.0454846 -0.1973134 0.9545154 0.1973134 0.9545154 0.1973134 0.0454846 -0.1973134
3433250000 0.0439716 -0.1936728 0.9560284 0.1936728 0.9560284 0.1936728 0.0439716 -0.1936728
3483000000 0.0425227 -0.1901057 0.9574773 0.1901057 0.9574773 0.1901057 0.0425227 -0.1901057
3532750000 0.0411347 -0.1866096 0.9588653 0.1866096 0.9588653 0.1866096 0.0411347 -0.1866096
3582500000 0.0398045 -0.1831825 0.9601955 0.1831825 0.9601955 0.1831825 0.0398045 -0.1831825
3632250000 0.0385293 -0.1798222 0.9614707 0.1798222 0.9614707 0.1798222 0.0385293 -0.1798222
3682000000 0.0373062 -0.1765265 0.9626938 0.1765265 0.9626938 0.1765265 0.0373062 -0.1765265
3731750000 0.0361329 -0.1732936 0.9638671 0.1732936 0.9638671 0.1732936 0.0361329 -0.1732936
3781500000 0.0350068 -0.1701215 0.9649932 0.1701215 0.9649932 0.1701215 0.0350068 -0.1701215
3831250000 0.0339258 -0.1670083 0.9660742 0.1670083 0.9660742 0.1670083 0.0339258 -0.1670083
3881000000 0.0328878 -0.1639523 0.9671122 0.1639523 0.9671122 0.1639523 0.0328878 -0.1639523
3930750000 0.0318906 -0.1609517 0.9681094 0.1609517 0.9681094 0.1609517 0.0318906 -0.1609517
3980500000 0.0309325 -0.1580048 0.9690675 0.1580048 0.9690675 0.1580048 0.0309325 -0.1580048
4030250000 0.0300116 -0.1551101 0.9699884 0.1551101 0.9699884 0.1551101 0.0300116 -0.1551101
4080000000 0.0291263 -0.1522661 0.9708737 0.1522661 0.9708737 0.1522661 0.0291263 -0.1522661
4129750000 0.0282750 -0.1494711 0.9717250 0.1494711 0.9717250 0.1494711 0.0282750 -0.1494711
4179500000 0.0274562 -0.1467239 0.9725438 0.1467239 0.9725438 0.1467239 0.0274562 -0.1467239
4229250000 0.0266685 -0.1440229 0.9733315 0.1440229 0.9733315 0.1440229 0.0266685 -0.1440229
4279000000 0.0259104 -0.1413669 0.9740896 0.1413669 0.9740896 0.1413669 0.0259104 -0.1413669
4328750000 0.0251808 -0.1387546 0.9748192 0.1387546 0.9748192 0.1387546 0.0251808 -0.1387546
4378500000 0.0244784 -0.1361847 0.9755216 0.1361847 0.9755216 0.1361847 0.0244784 -0.1361847
4428250000 0.0238021 -0.1336560 0.9761979 0.1336560 0.9761979 0.1336560 0.0238021 -0.1336560
4478000000 0.0231508 -0.1311674 0.9768492 0.1311674 0.9768492 0.1311674 0.0231508 -0.1311674
4527750000 0.0225234 -0.1287177 0.9774766 0.1287177 0.9774766 0.1287177 0.0225234 -0.1287177
4577500000 0.0219190 -0.1263059 0.9780810 0.1263059 0.9780810 0.1263059 0.0219190 -0.1263059
4627250000 0.0213367 -0.1239309 0.9786633 0.1239309 0.9786633 0.1239309 0.0213367 -0.1239309
4677000000 0.0207756 -0.1215917 0.9792244 0.1215917 0.9792244 0.1215917 0.0207756 -0.1215917
4726750000 0.0202347 -0.1192873 0.9797653 0.1192873 0.9797653 0.1192873 0.0202347 -0.1192873
4776500000 0.0197135 -0.1170168 0.9802865 0.1170168 0.9802865 0.1170168 0.0197135 -0.1170168
4826250000 0.0192109 -0.1147793 0.9807891 0.1147793 0.9807891 0.1147793 0.0192109 -0.1147793
4876000000 0.0187265 -0.1125739 0.9812735 0.1125739 0.9812735 0.1125739 0.0187265 -0.1125739
4925750000 0.0182594 -0.1103997 0.9817406 0.1103997 0.9817406 0.1103997 0.0182594 -0.1103997
4975500000 0.0178090 -0.1082560 0.9821910 0.1082560 0.9821910 0.1082560 0.0178090 -0.1082560
5025250000 0.0173746 -0.1061419 0.9826254 0.1061419 0.9826254 0.1061419 0.0173746 -0.1061419
5075000000 0.0169558 -0.1040566 0.9830442 0.1040566 0.9830442 0.1040566 0.0169558 -0.1040566
5124750000 0.0165519 -0.1019995 0.9834481 0.1019995 0.9834481 0.1019995 0.0165519 -0.1019995
5174500000 0.0161623 -0.0999698 0.9838377 0.0999698 0.9838377 0.0999698 0.0161623 -0.0999698
5224250000 0.0157866 -0.0979668 0.9842134 0.0979668 0.9842134 0.0979668 0.0157866 -0.0979668
5274000000 0.0154242 -0.0959898 0.9845758 0.0959898 0.9845758 0.0959898 0.0154242 -0.0959898
5323750000 0.0150747 -0.0940382 0.9849253 0.0940382 0.9849253 0.0940382 0.0150747 -0.0940382
5373500000 0.0147377 -0.0921114 0.9852623 0.0921114 0.9852623 0.0921114 0.0147377 -0.0921114
5423250000 0.0144126 -0.0902087 0.9855874 0.0902087 0.9855874 0.0902087 0.0144126 -0.0902087
5473000000 0.0140992 -0.0883295 0.9859008 0.0883295 0.9859008 0.0883295 0.0140992 -0.0883295
5522750000 0.0137969 -0.0864733 0.9862031 0.0864733 0.9862031 0.0864733 0.0137969 -0.0864733
5572500000 0.0135055 -0.0846395 0.9864945 0.0846395 0.9864945 0.0846395 0.0135055 -0.0846395
5622250000 0.0132244 -0.0828276 0.9867756 0.0828276 0.9867756 0.0828276 0.0132244 -0.0828276
5672000000 0.0129535 -0.0810370 0.9870465 0.0810370 0.9870465 0.0810370 0.0129535 -0.0810370
5721750000 0.0126924 -0.0792673 0.9873076 0.0792673 0.9873076 0.0792673 0.0126924 -0.0792673
5771500000 0.0124407 -0.0775179 0.9875593 0.0775179 0.9875593 0.0775179 0.0124407 -0.0775179
5821250000 0.0121982 -0.0757884 0.9878018 0.0757884 0.9878018 0.0757884 0.0121982 -0.0757884
5871000000 0.0119645 -0.0740784 0.9880355 0.0740784 0.9880355 0.0740784 0.0119645 -0.0740784
5920750000 0.0117395 -0.0723873 0.9882605 0.0723873 0.9882605 0.0723873 0.0117395 -0.0723873
5970500000 0.0115227 -0.0707147 0.9884773 0.0707147 0.9884773 0.0707147 0.0115227 -0.0707147
6020250000 0.0113139 -0.0690602 0.9886861 0.0690602 0.9886861 0.0690602 0.0113139 -0.0690602
6070000000 0.0111130 -0.0674235 0.9888870 0.0674235 0.9888870 0.0674235 0.0111130 -0.0674235
6119750000 0.0109196 -0.0658040 0.9890804 0.0658040 0.9890804 0.0658040 0.0109196 -0.0658040
6169500000 0.0107336 -0.0642014 0.9892664 0.0642014 0.9892664 0.0642014 0.0107336 -0.0642014
6219250000 0.0105547 -0.0626154 0.9894453 0.0626154 0.9894453 0.0626154 0.0105547 -0.0626154
6269000000 0.0103827 -0.0610456 0.9896173 0.0610456 0.9896173 0.0610456 0.0103827 -0.0610456
6318750000 0.0102174 -0.0594916 0.9897826 0.0594916 0.9897826 0.0594916 0.0102174 -0.0594916
6368500000 0.0100586 -0.0579531 0.9899414 0.0579531 0.9899414 0.0579531 0.0100586 -0.0579531
6418250000 0.0099061 -0.0564297 0.9900939 0.0564297 0.9900939 0.0564297 0.0099061 -0.0564297
6468000000 0.0097598 -0.0549211 0.9902402 0.0549211 0.9902402 0.0549211 0.0097598 -0.0549211
6517750000 0.0096194 -0.0534271 0.9903806 0.0534271 0.9903806 0.0534271 0.0096194 -0.0534271
6567500000 0.0094848 -0.0519472 0.9905152 0.0519472 0.9905152 0.0519472 0.0094848 -0.0519472
6617250000 0.0093559 -0.0504812 0.9906441 0.0504812 0.9906441 0.0504812 0.0093559 -0.0504812
6667000000 0.0092325 -0.0490288 0.9907675 0.0490288 0.9907675 0.0490288 0.0092325 -0.0490288
6716750000 0.0091143 -0.0475898 0.9908857 0.0475898 0.9908857 0.0475898 0.0091143 -0.0475898
6766500000 0.0090014 -0.0461638 0.9909986 0.0461638 0.9909986 0.0461638 0.0090014 -0.0461638
6816250000 0.0088936 -0.0447506 0.9911064 0.0447506 0.9911064 0.0447506 0.0088936 -0.0447506
6866000000 0.0087906 -0.0433499 0.9912094 0.0433499 0.9912094 0.0433499 0.0087906 -0.0433499
6915750000 0.0086924 -0.0419614 0.9913076 0.0419614 0.9913076 0.0419614 0.0086924 -0.0419614
6965500000 0.0085990 -0.0405850 0.9914010 0.0405850 0.9914010 0.0405850 0.0085990 -0.0405850
7015250000 0.0085100 -0.0392203 0.9914900 0.0392203 0.9914900 0.0392203 0.0085100 -0.0392203
7065000000 0.0084255 -0.0378672 0.9915745 0.0378672 0.9915745 0.0378672 0.0084255 -0.0378672
7114750000 0.0083453 -0.0365255 0.9916547 0.0365255 0.9916547 0.0365255 0.0083453 -0.0365255
7164500000 0.0082693 -0.0351948 0.9917307 0.0351948 0.9917307 0.0351948 0.0082693 -0.0351948
7214250000 0.0081975 -0.0338749 0.9918025 0.0338749 0.9918025 0.0338749 0.0081975 -0.0338749
7264000000 0.0081296 -0.0325658 0.9918704 0.0325658 0.9918704 0.0325658 0.0081296 -0.0325658
7313750000 0.0080657 -0.0312671 0.9919343 0.0312671 0.9919343 0.0312671 0.0080657 -0.0312671
7363500000 0.0080055 -0.0299787 0.9919945 0.0299787 0.9919945 0.0299787 0.0080055 -0.0299787
7413250000 0.0079491 -0.0287003 0.9920509 0.0287003 0.9920509 0.0287003 0.0079491 -0.0287003
7463000000 0.0078964 -0.0274318 0.9921036 0.0274318 0.9921036 0.0274318 0.0078964 -0.0274318
7512750000 0.0078472 -0.0261730 0.9921528 0.0261730 0.9921528 0.0261730 0.0078472 -0.0261730
7562500000 0.0078014 -0.0249237 0.9921986 0.0249237 0.9921986 0.0249237 0.0078014 -0.0249237
7612250000 0.0077591 -0.0236837 0.9922409 0.0236837 0.9922409 0.0236837 0.0077591 -0.0236837
7662000000 0.0077201 -0.0224529 0.9922799 0.0224529 0.9922799 0.0224529 0.0077201 -0.0224529
7711750000 0.0076843 -0.0212311 0.9923157 0.0212311 0.9923157 0.0212311 0.0076843 -0.0212311
7761500000 0.0076517 -0.0200181 0.9923483 0.0200181 0.9923483 0.0200181 0.0076517 -0.0200181
7811250000 0.0076222 -0.0188138 0.9923778 0.0188138 0.9923778 0.0188138 0.0076222 -0.0188138
7861000000 0.0075958 -0.0176180 0.9924042 0.0176180 0.9924042 0.0176180 0.0075958 -0.0176180
7910750000 0.0075723 -0.0164305 0.9924277 0.0164305 0.9924277 0.0164305 0.0075723 -0.0164305
7960500000 0.0075517 -0.0152513 0.9924483 0.0152513 0.9924483 0.0152513 0.0075517 -0.0152513
8010250000 0.0075340 -0.0140801 0.9924660 0.0140801 0.9924660 0.0140801 0.0075340 -0.0140801
8060000000 0.0075191 -0.0129168 0.9924809 0.0129168 0.9924809 0.0129168 0.0075191 -0.0129168
8109750000 0.0075069 -0.0117613 0.9924931 0.0117613 0.9924931 0.0117613 0.0075069 -0.0117613
8159500000 0.0074974 -0.0106135 0.9925026 0.0106135 0.9925026 0.0106135 0.0074974 -0.0106135
8209250000 0.0074905 -0.0094732 0.9925095 0.0094732 0.9925095 0.0094732 0.0074905 -0.0094732
8259000000 0.0074861 -0.0083403 0.9925139 0.0083403 0.9925139 0.0083403 0.0074861 -0.0083403
8308750000 0.0074844 -0.0072146 0.9925156 0.0072146 0.9925156 0.0072146 0.0074844 -0.0072146
8358500000 0.0074850 -0.0060961 0.9925150 0.0060961 0.9925150 0.0060961 0.0074850 -0.0060961
8408250000 0.0074881 -0.0049845 0.9925119 0.0049845 0.9925119 0.0049845 0.0074881 -0.0049845
8458000000 0.0074936 -0.0038799 0.9925064 0.0038799 0.9925064 0.0038799 0.0074936 -0.0038799
8507750000 0.0075015 -0.0027821 0.9924985 0.0027821 0.9924985 0.0027821 0.0075015 -0.0027821
8557500000 0.0075116 -0.0016909 0.9924884 0.0016909 0.9924884 0.0016909 0.0075116 -0.0016909
8607250000 0.0075240 -0.0006063 0.9924760 0.0006063 0.9924760 0.0006063 0.0075240 -0.0006063
8657000000 0.0075385 0.0004718 0.9924615 -0.0004718 0.9924615 -0.0004718 0.0075385 0.0004718
8706750000 0.0075553 0.0015436 0.9924447 -0.0015436 0.9924447 -0.0015436 0.0075553 0.0015436
8756500000 0.0075742 0.0026091 0.9924258 -0.0026091 0.9924258 -0.0026091 0.0075742 0.0026091
8806250000 0.0075952 0.0036685 0.9924048 -0.0036685 0.9924048 -0.0036685 0.0075952 0.0036685
8856000000 0.0076182 0.0047219 0.9923818 -0.0047219 0.9923818 -0.0047219 0.0076182 0.0047219
8905750000 0.0076433 0.0057693 0.9923567 -0.0057693 0.9923567 -0.0057693 0.0076433 0.0057693
8955500000 0.0076703 0.0068108 0.9923297 -0.0068108 0.9923297 -0.0068108 0.0076703 0.0068108
9005250000 0.0076994 0.0078466 0.9923006 -0.0078466 0.9923006 -0.0078466 0.0076994 0.0078466
9055000000 0.0077303 0.0088767 0.9922697 -0.0088767 0.9922697 -0.0088767 0.0077303 0.0088767
9104750000 0.0077632 0.0099012 0.9922368 -0.0099012 0.9922368 -0.0099012 0.0077632 0.0099012
9154500000 0.0077979 0.0109203 0.9922021 -0.0109203 0.9922021 -0.0109203 0.0077979 0.0109203
9204250000 0.0078344 0.0119339 0.9921656 -0.0119339 0.9921656 -0.0119339 0.0078344 0.0119339
9254000000 0.0078727 0.0129421 0.9921273 -0.0129421 0.9921273 -0.0129421 0.0078727 0.0129421
9303750000 0.0079129 0.0139452 0.9920871 -0.0139452 0.9920871 -0.0139452 0.0079129 0.0139452
9353500000 0.0079547 0.0149430 0.9920453 -0.0149430 0.9920453 -0.0149430 0.0079547 0.0149430
9403250000 0.0079983 0.0159358 0.9920017 -0.0159358 0.9920017 -0.0159358 0.0079983 0.0159358
9453000000 0.0080436 0.0169235 0.9919564 -0.0169235 0.9919564 -0.0169235 0.0080436 0.0169235
9502750000 0.0080906 0.0179063 0.9919094 -0.0179063 0.9919094 -0.0179063 0.0080906 0.0179063
9552500000 0.0081392 0.0188842 0.9918608 -0.0188842 0.9918608 -0.0188842 0.0081392 0.0188842
9602250000 0.0081895 0.0198574 0.9918105 -0.0198574 0.9918105 -0.0198574 0.0081895 0.0198574
9652000000 0.0082413 0.0208258 0.9917587 -0.0208258 0.9917587 -0.0208258 0.0082413 0.0208258
9701750000 0.0082947 0.0217895 0.9917053 -0.0217895 0.9917053 -0.0217895 0.0082947 0.0217895
9751500000 0.0083497 0.0227487 0.9916503 -0.0227487 0.9916503 -0.0227487 0.0083497 0.0227487
9801250000 0.0084062 0.0237033 0.9915938 -0.0237033 0.9915938 -0.0237033 0.0084062 0.0237033
9851000000 0.0084643 0.0246535 0.9915357 -0.0246535 0.9915357 -0.0246535 0.0084643 0.0246535
9900750000 0.0085238 0.0255992 0.9914762 -0.0255992 0.9914762 -0.0255992 0.0085238 0.0255992
9950500000 0.0085848 0.0265406 0.9914152 -0.0265406 0.9914152 -0.0265406 0.0085848 0.0265406
10000250000 0.0086473 0.0274778 0.9913527 -0.0274778 0.9913527 -0.0274778 0.0086473 0.0274778
10050000000 0.0087112 0.0284107 0.9912888 -0.0284107 0.9912888 -0.0284107 0.0087112 0.0284107
10099750000 0.0087766 0.0293395 0.9912234 -0.0293395 0.9912234 -0.0293395 0.0087766 0.0293395
10149500000 0.0088433 0.0302642 0.9911567 -0.0302642 0.9911567 -0.0302642 0.0088433 0.0302642
10199250000 0.0089114 0.0311848 0.9910886 -0.0311848 0.9910886 -0.0311848 0.0089114 0.0311848
10249000000 0.0089809 0.0321015 0.9910191 -0.0321015 0.9910191 -0.0321015 0.0089809 0.0321015
10298750000 0.0090517 0.0330142 0.9909483 -0.0330142 0.9909483 -0.0330142 0.0090517 0.0330142
10348500000 0.0091239 0.0339231 0.9908761 -0.0339231 0.9908761 -0.0339231 0.0091239 0.0339231
10398250000 0.0091974 0.0348281 0.9908026 -0.0348281 0.9908026 -0.0348281 0.0091974 0.0348281
10448000000 0.0092722 0.0357293 0.9907278 -0.0357293 0.9907278 -0.0357293 0.0092722 0.0357293
10497750000 0.0093483 0.0366268 0.9906517 -0.0366268 0.9906517 -0.0366268 0.0093483 0.0366268
