!Murata Part Number: GRM0115C1E7R3CE01
!These Parameters are Measured in Series Mode Connection
!Data Generated on Mar 30, 2021
!       o--ll--o
!Port1            Port2
!       o------o
!Operation Temp=25[degC], DC Bias Voltage=0[V]
!Freq. Start=100[MHz] Stop=9[GHz] 401[Steps]
# Hz S RI R 50
!Freq.(Hz) S11(Real) S11(Imag) S21(Real) S21(Imag) S12(Real) S12(Imag) S22(Real) S22(Imag)
100000000 0.8259346 -0.3788689 0.1740654 0.3788689 0.1740654 0.3788689 0.8259346 -0.3788689
121000000 0.7641608 -0.4241619 0.2358392 0.4241619 0.2358392 0.4241619 0.7641608 -0.4241619
142000000 0.7016777 -0.4570974 0.2983223 0.4570974 0.2983223 0.4570974 0.7016777 -0.4570974
163000000 0.6408739 -0.4792552 0.3591261 0.4792552 0.3591261 0.4792552 0.6408739 -0.4792552
184000000 0.5833292 -0.4924527 0.4166708 0.4924527 0.4166708 0.4924527 0.5833292 -0.4924527
205000000 0.5299483 -0.4984812 0.4700517 0.4984812 0.4700517 0.4984812 0.5299483 -0.4984812
226000000 0.4811291 -0.4989552 0.5188709 0.4989552 0.5188709 0.4989552 0.4811291 -0.4989552
247000000 0.4369209 -0.4952479 0.5630791 0.4952479 0.5630791 0.4952479 0.4369209 -0.4952479
268000000 0.3971530 -0.4884814 0.6028470 0.4884814 0.6028470 0.4884814 0.3971530 -0.4884814
289000000 0.3615298 -0.4795458 0.6384702 0.4795458 0.6384702 0.4795458 0.3615298 -0.4795458
310000000 0.3296954 -0.4691325 0.6703046 0.4691325 0.6703046 0.4691325 0.3296954 -0.4691325
331000000 0.3012763 -0.4577689 0.6987237 0.4577689 0.6987237 0.4577689 0.3012763 -0.4577689
352000000 0.2759072 -0.4458517 0.7240928 0.4458517 0.7240928 0.4458517 0.2759072 -0.4458517
373000000 0.2532451 -0.4336751 0.7467549 0.4336751 0.7467549 0.4336751 0.2532451 -0.4336751
394000000 0.2329762 -0.4214543 0.7670238 0.4214543 0.7670238 0.4214543 0.2329762 -0.4214543
415000000 0.2148189 -0.4093442 0.7851811 0.4093442 0.7851811 0.4093442 0.2148189 -0.4093442
436000000 0.1985227 -0.3974543 0.8014773 0.3974543 0.8014773 0.3974543 0.1985227 -0.3974543
457000000 0.1838669 -0.3858595 0.8161331 0.3858595 0.8161331 0.3858595 0.1838669 -0.3858595
478000000 0.1706580 -0.3746094 0.8293420 0.3746094 0.8293420 0.3746094 0.1706580 -0.3746094
499000000 0.1587267 -0.3637346 0.8412733 0.3637346 0.8412733 0.3637346 0.1587267 -0.3637346
520000000 0.1479251 -0.3532517 0.8520749 0.3532517 0.8520749 0.3532517 0.1479251 -0.3532517
541000000 0.1381243 -0.3431671 0.8618757 0.3431671 0.8618757 0.3431671 0.1381243 -0.3431671
562000000 0.1292118 -0.3334799 0.8707882 0.3334799 0.8707882 0.3334799 0.1292118 -0.3334799
583000000 0.1210893 -0.3241840 0.8789107 0.3241840 0.8789107 0.3241840 0.1210893 -0.3241840
604000000 0.1136708 -0.3152696 0.8863292 0.3152696 0.8863292 0.3152696 0.1136708 -0.3152696
625000000 0.1068812 -0.3067247 0.8931188 0.3067247 0.8931188 0.3067247 0.1068812 -0.3067247
646000000 0.1006545 -0.2985355 0.8993455 0.2985355 0.8993455 0.2985355 0.1006545 -0.2985355
667000000 0.0949327 -0.2906874 0.9050673 0.2906874 0.9050673 0.2906874 0.0949327 -0.2906874
688000000 0.0896649 -0.2831654 0.9103351 0.2831654 0.9103351 0.2831654 0.0896649 -0.2831654
709000000 0.0848060 -0.2759544 0.9151940 0.2759544 0.9151940 0.2759544 0.0848060 -0.2759544
730000000 0.0803162 -0.2690395 0.9196838 0.2690395 0.9196838 0.2690395 0.0803162 -0.2690395
751000000 0.0761604 -0.2624061 0.9238396 0.2624061 0.9238396 0.2624061 0.0761604 -0.2624061
772000000 0.0723073 -0.2560400 0.9276927 0.2560400 0.9276927 0.2560400 0.0723073 -0.2560400
793000000 0.0687291 -0.2499278 0.9312709 0.2499278 0.9312709 0.2499278 0.0687291 -0.2499278
814000000 0.0654010 -0.2440564 0.9345990 0.2440564 0.9345990 0.2440564 0.0654010 -0.2440564
835000000 0.0623010 -0.2384134 0.9376990 0.2384134 0.9376990 0.2384134 0.0623010 -0.2384134
856000000 0.0594091 -0.2329872 0.9405909 0.2329872 0.9405909 0.2329872 0.0594091 -0.2329872
877000000 0.0567078 -0.2277665 0.9432922 0.2277665 0.9432922 0.2277665 0.0567078 -0.2277665
898000000 0.0541810 -0.2227409 0.9458190 0.2227409 0.9458190 0.2227409 0.0541810 -0.2227409
919000000 0.0518144 -0.2179003 0.9481856 0.2179003 0.9481856 0.2179003 0.0518144 -0.2179003
940000000 0.0495950 -0.2132355 0.9504050 0.2132355 0.9504050 0.2132355 0.0495950 -0.2132355
961000000 0.0475113 -0.2087375 0.9524887 0.2087375 0.9524887 0.2087375 0.0475113 -0.2087375
982000000 0.0455525 -0.2043979 0.9544475 0.2043979 0.9544475 0.2043979 0.0455525 -0.2043979
1003000000 0.0437092 -0.2002090 0.9562908 0.2002090 0.9562908 0.2002090 0.0437092 -0.2002090
1024000000 0.0419727 -0.1961633 0.9580273 0.1961633 0.9580273 0.1961633 0.0419727 -0.1961633
1045000000 0.0403350 -0.1922539 0.9596650 0.1922539 0.9596650 0.1922539 0.0403350 -0.1922539
1066000000 0.0387890 -0.1884741 0.9612110 0.1884741 0.9612110 0.1884741 0.0387890 -0.1884741
1087000000 0.0373281 -0.1848177 0.9626719 0.1848177 0.9626719 0.1848177 0.0373281 -0.1848177
1108000000 0.0359462 -0.1812790 0.9640538 0.1812790 0.9640538 0.1812790 0.0359462 -0.1812790
1129000000 0.0346380 -0.1778525 0.9653620 0.1778525 0.9653620 0.1778525 0.0346380 -0.1778525
1150000000 0.0333984 -0.1745328 0.9666016 0.1745328 0.9666016 0.1745328 0.0333984 -0.1745328
1171000000 0.0322227 -0.1713152 0.9677773 0.1713152 0.9677773 0.1713152 0.0322227 -0.1713152
1192000000 0.0311067 -0.1681951 0.9688933 0.1681951 0.9688933 0.1681951 0.0311067 -0.1681951
1213000000 0.0300466 -0.1651680 0.9699534 0.1651680 0.9699534 0.1651680 0.0300466 -0.1651680
1234000000 0.0290388 -0.1622299 0.9709612 0.1622299 0.9709612 0.1622299 0.0290388 -0.1622299
1255000000 0.0280799 -0.1593768 0.9719201 0.1593768 0.9719201 0.1593768 0.0280799 -0.1593768
1276000000 0.0271670 -0.1566051 0.9728330 0.1566051 0.9728330 0.1566051 0.0271670 -0.1566051
1297000000 0.0262971 -0.1539113 0.9737029 0.1539113 0.9737029 0.1539113 0.0262971 -0.1539113
1318000000 0.0254676 -0.1512921 0.9745324 0.1512921 0.9745324 0.1512921 0.0254676 -0.1512921
1339000000 0.0246763 -0.1487444 0.9753237 0.1487444 0.9753237 0.1487444 0.0246763 -0.1487444
1360000000 0.0239208 -0.1462652 0.9760792 0.1462652 0.9760792 0.1462652 0.0239208 -0.1462652
1381000000 0.0231990 -0.1438518 0.9768010 0.1438518 0.9768010 0.1438518 0.0231990 -0.1438518
1402000000 0.0225090 -0.1415015 0.9774910 0.1415015 0.9774910 0.1415015 0.0225090 -0.1415015
1423000000 0.0218490 -0.1392117 0.9781510 0.1392117 0.9781510 0.1392117 0.0218490 -0.1392117
1444000000 0.0212173 -0.1369800 0.9787827 0.1369800 0.9787827 0.1369800 0.0212173 -0.1369800
1465000000 0.0206125 -0.1348043 0.9793875 0.1348043 0.9793875 0.1348043 0.0206125 -0.1348043
1486000000 0.0200329 -0.1326823 0.9799671 0.1326823 0.9799671 0.1326823 0.0200329 -0.1326823
1507000000 0.0194773 -0.1306120 0.9805227 0.1306120 0.9805227 0.1306120 0.0194773 -0.1306120
1528000000 0.0189445 -0.1285915 0.9810555 0.1285915 0.9810555 0.1285915 0.0189445 -0.1285915
1549000000 0.0184331 -0.1266188 0.9815669 0.1266188 0.9815669 0.1266188 0.0184331 -0.1266188
1570000000 0.0179421 -0.1246922 0.9820579 0.1246922 0.9820579 0.1246922 0.0179421 -0.1246922
1591000000 0.0174705 -0.1228100 0.9825295 0.1228100 0.9825295 0.1228100 0.0174705 -0.1228100
1612000000 0.0170173 -0.1209706 0.9829827 0.1209706 0.9829827 0.1209706 0.0170173 -0.1209706
1633000000 0.0165816 -0.1191726 0.9834184 0.1191726 0.9834184 0.1191726 0.0165816 -0.1191726
1654000000 0.0161625 -0.1174143 0.9838375 0.1174143 0.9838375 0.1174143 0.0161625 -0.1174143
1675000000 0.0157592 -0.1156945 0.9842408 0.1156945 0.9842408 0.1156945 0.0157592 -0.1156945
1696000000 0.0153709 -0.1140117 0.9846291 0.1140117 0.9846291 0.1140117 0.0153709 -0.1140117
1717000000 0.0149970 -0.1123648 0.9850030 0.1123648 0.9850030 0.1123648 0.0149970 -0.1123648
1738000000 0.0146368 -0.1107525 0.9853632 0.1107525 0.9853632 0.1107525 0.0146368 -0.1107525
1759000000 0.0142896 -0.1091736 0.9857104 0.1091736 0.9857104 0.1091736 0.0142896 -0.1091736
1780000000 0.0139548 -0.1076271 0.9860452 0.1076271 0.9860452 0.1076271 0.0139548 -0.1076271
1801000000 0.0136319 -0.1061118 0.9863681 0.1061118 0.9863681 0.1061118 0.0136319 -0.1061118
1822000000 0.0133203 -0.1046267 0.9866797 0.1046267 0.9866797 0.1046267 0.0133203 -0.1046267
1843000000 0.0130196 -0.1031710 0.9869804 0.1031710 0.9869804 0.1031710 0.0130196 -0.1031710
1864000000 0.0127293 -0.1017435 0.9872707 0.1017435 0.9872707 0.1017435 0.0127293 -0.1017435
1885000000 0.0124489 -0.1003435 0.9875511 0.1003435 0.9875511 0.1003435 0.0124489 -0.1003435
1906000000 0.0121780 -0.0989701 0.9878220 0.0989701 0.9878220 0.0989701 0.0121780 -0.0989701
1927000000 0.0119161 -0.0976224 0.9880839 0.0976224 0.9880839 0.0976224 0.0119161 -0.0976224
1948000000 0.0116630 -0.0962996 0.9883370 0.0962996 0.9883370 0.0962996 0.0116630 -0.0962996
1969000000 0.0114182 -0.0950011 0.9885818 0.0950011 0.9885818 0.0950011 0.0114182 -0.0950011
1990000000 0.0111814 -0.0937260 0.9888186 0.0937260 0.9888186 0.0937260 0.0111814 -0.0937260
2011000000 0.0109524 -0.0924737 0.9890476 0.0924737 0.9890476 0.0924737 0.0109524 -0.0924737
2032000000 0.0107306 -0.0912435 0.9892694 0.0912435 0.9892694 0.0912435 0.0107306 -0.0912435
2053000000 0.0105160 -0.0900347 0.9894840 0.0900347 0.9894840 0.0900347 0.0105160 -0.0900347
2074000000 0.0103082 -0.0888468 0.9896918 0.0888468 0.9896918 0.0888468 0.0103082 -0.0888468
2095000000 0.0101069 -0.0876790 0.9898931 0.0876790 0.9898931 0.0876790 0.0101069 -0.0876790
2116000000 0.0099119 -0.0865309 0.9900881 0.0865309 0.9900881 0.0865309 0.0099119 -0.0865309
2137000000 0.0097229 -0.0854019 0.9902771 0.0854019 0.9902771 0.0854019 0.0097229 -0.0854019
2158000000 0.0095398 -0.0842915 0.9904602 0.0842915 0.9904602 0.0842915 0.0095398 -0.0842915
2179000000 0.0093622 -0.0831990 0.9906378 0.0831990 0.9906378 0.0831990 0.0093622 -0.0831990
2200000000 0.0091901 -0.0821241 0.9908099 0.0821241 0.9908099 0.0821241 0.0091901 -0.0821241
2221000000 0.0090231 -0.0810663 0.9909769 0.0810663 0.9909769 0.0810663 0.0090231 -0.0810663
2242000000 0.0088611 -0.0800251 0.9911389 0.0800251 0.9911389 0.0800251 0.0088611 -0.0800251
2263000000 0.0087040 -0.0790000 0.9912960 0.0790000 0.9912960 0.0790000 0.0087040 -0.0790000
2284000000 0.0085515 -0.0779906 0.9914485 0.0779906 0.9914485 0.0779906 0.0085515 -0.0779906
2305000000 0.0084035 -0.0769965 0.9915965 0.0769965 0.9915965 0.0769965 0.0084035 -0.0769965
2326000000 0.0082599 -0.0760174 0.9917401 0.0760174 0.9917401 0.0760174 0.0082599 -0.0760174
2347000000 0.0081204 -0.0750527 0.9918796 0.0750527 0.9918796 0.0750527 0.0081204 -0.0750527
2368000000 0.0079849 -0.0741022 0.9920151 0.0741022 0.9920151 0.0741022 0.0079849 -0.0741022
2389000000 0.0078534 -0.0731655 0.9921466 0.0731655 0.9921466 0.0731655 0.0078534 -0.0731655
2410000000 0.0077256 -0.0722422 0.9922744 0.0722422 0.9922744 0.0722422 0.0077256 -0.0722422
2431000000 0.0076015 -0.0713319 0.9923985 0.0713319 0.9923985 0.0713319 0.0076015 -0.0713319
2452000000 0.0074809 -0.0704345 0.9925191 0.0704345 0.9925191 0.0704345 0.0074809 -0.0704345
2473000000 0.0073637 -0.0695495 0.9926363 0.0695495 0.9926363 0.0695495 0.0073637 -0.0695495
2494000000 0.0072498 -0.0686767 0.9927502 0.0686767 0.9927502 0.0686767 0.0072498 -0.0686767
2515000000 0.0071391 -0.0678157 0.9928609 0.0678157 0.9928609 0.0678157 0.0071391 -0.0678157
2536000000 0.0070315 -0.0669662 0.9929685 0.0669662 0.9929685 0.0669662 0.0070315 -0.0669662
2557000000 0.0069268 -0.0661281 0.9930732 0.0661281 0.9930732 0.0661281 0.0069268 -0.0661281
2578000000 0.0068251 -0.0653010 0.9931749 0.0653010 0.9931749 0.0653010 0.0068251 -0.0653010
2599000000 0.0067262 -0.0644846 0.9932738 0.0644846 0.9932738 0.0644846 0.0067262 -0.0644846
2620000000 0.0066300 -0.0636787 0.9933700 0.0636787 0.9933700 0.0636787 0.0066300 -0.0636787
2641000000 0.0065365 -0.0628831 0.9934635 0.0628831 0.9934635 0.0628831 0.0065365 -0.0628831
2662000000 0.0064455 -0.0620975 0.9935545 0.0620975 0.9935545 0.0620975 0.0064455 -0.0620975
2683000000 0.0063570 -0.0613217 0.9936430 0.0613217 0.9936430 0.0613217 0.0063570 -0.0613217
2704000000 0.0062709 -0.0605555 0.9937291 0.0605555 0.9937291 0.0605555 0.0062709 -0.0605555
2725000000 0.0061871 -0.0597986 0.9938129 0.0597986 0.9938129 0.0597986 0.0061871 -0.0597986
2746000000 0.0061056 -0.0590509 0.9938944 0.0590509 0.9938944 0.0590509 0.0061056 -0.0590509
2767000000 0.0060264 -0.0583121 0.9939736 0.0583121 0.9939736 0.0583121 0.0060264 -0.0583121
2788000000 0.0059492 -0.0575820 0.9940508 0.0575820 0.9940508 0.0575820 0.0059492 -0.0575820
2809000000 0.0058742 -0.0568605 0.9941258 0.0568605 0.9941258 0.0568605 0.0058742 -0.0568605
2830000000 0.0058012 -0.0561474 0.9941988 0.0561474 0.9941988 0.0561474 0.0058012 -0.0561474
2851000000 0.0057301 -0.0554424 0.9942699 0.0554424 0.9942699 0.0554424 0.0057301 -0.0554424
2872000000 0.0056610 -0.0547455 0.9943390 0.0547455 0.9943390 0.0547455 0.0056610 -0.0547455
2893000000 0.0055937 -0.0540564 0.9944063 0.0540564 0.9944063 0.0540564 0.0055937 -0.0540564
2914000000 0.0055282 -0.0533750 0.9944718 0.0533750 0.9944718 0.0533750 0.0055282 -0.0533750
2935000000 0.0054645 -0.0527010 0.9945355 0.0527010 0.9945355 0.0527010 0.0054645 -0.0527010
2956000000 0.0054025 -0.0520344 0.9945975 0.0520344 0.9945975 0.0520344 0.0054025 -0.0520344
2977000000 0.0053422 -0.0513751 0.9946578 0.0513751 0.9946578 0.0513751 0.0053422 -0.0513751
2998000000 0.0052835 -0.0507227 0.9947165 0.0507227 0.9947165 0.0507227 0.0052835 -0.0507227
3019000000 0.0052264 -0.0500773 0.9947736 0.0500773 0.9947736 0.0500773 0.0052264 -0.0500773
3040000000 0.0051708 -0.0494387 0.9948292 0.0494387 0.9948292 0.0494387 0.0051708 -0.0494387
3061000000 0.0051168 -0.0488066 0.9948832 0.0488066 0.9948832 0.0488066 0.0051168 -0.0488066
3082000000 0.0050642 -0.0481811 0.9949358 0.0481811 0.9949358 0.0481811 0.0050642 -0.0481811
3103000000 0.0050130 -0.0475619 0.9949870 0.0475619 0.9949870 0.0475619 0.0050130 -0.0475619
3124000000 0.0049632 -0.0469490 0.9950368 0.0469490 0.9950368 0.0469490 0.0049632 -0.0469490
3145000000 0.0049148 -0.0463422 0.9950852 0.0463422 0.9950852 0.0463422 0.0049148 -0.0463422
3166000000 0.0048678 -0.0457414 0.9951322 0.0457414 0.9951322 0.0457414 0.0048678 -0.0457414
3187000000 0.0048220 -0.0451464 0.9951780 0.0451464 0.9951780 0.0451464 0.0048220 -0.0451464
3208000000 0.0047774 -0.0445573 0.9952226 0.0445573 0.9952226 0.0445573 0.0047774 -0.0445573
3229000000 0.0047342 -0.0439738 0.9952658 0.0439738 0.9952658 0.0439738 0.0047342 -0.0439738
3250000000 0.0046921 -0.0433958 0.9953079 0.0433958 0.9953079 0.0433958 0.0046921 -0.0433958
3271000000 0.0046512 -0.0428233 0.9953488 0.0428233 0.9953488 0.0428233 0.0046512 -0.0428233
3292000000 0.0046114 -0.0422561 0.9953886 0.0422561 0.9953886 0.0422561 0.0046114 -0.0422561
3313000000 0.0045728 -0.0416942 0.9954272 0.0416942 0.9954272 0.0416942 0.0045728 -0.0416942
3334000000 0.0045352 -0.0411374 0.9954648 0.0411374 0.9954648 0.0411374 0.0045352 -0.0411374
3355000000 0.0044988 -0.0405856 0.9955012 0.0405856 0.9955012 0.0405856 0.0044988 -0.0405856
3376000000 0.0044634 -0.0400388 0.9955366 0.0400388 0.9955366 0.0400388 0.0044634 -0.0400388
3397000000 0.0044290 -0.0394969 0.9955710 0.0394969 0.9955710 0.0394969 0.0044290 -0.0394969
3418000000 0.0043956 -0.0389597 0.9956044 0.0389597 0.9956044 0.0389597 0.0043956 -0.0389597
3439000000 0.0043632 -0.0384272 0.9956368 0.0384272 0.9956368 0.0384272 0.0043632 -0.0384272
3460000000 0.0043318 -0.0378993 0.9956682 0.0378993 0.9956682 0.0378993 0.0043318 -0.0378993
3481000000 0.0043013 -0.0373760 0.9956987 0.0373760 0.9956987 0.0373760 0.0043013 -0.0373760
3502000000 0.0042717 -0.0368571 0.9957283 0.0368571 0.9957283 0.0368571 0.0042717 -0.0368571
3523000000 0.0042430 -0.0363425 0.9957570 0.0363425 0.9957570 0.0363425 0.0042430 -0.0363425
3544000000 0.0042152 -0.0358323 0.9957848 0.0358323 0.9957848 0.0358323 0.0042152 -0.0358323
3565000000 0.0041883 -0.0353262 0.9958117 0.0353262 0.9958117 0.0353262 0.0041883 -0.0353262
3586000000 0.0041622 -0.0348243 0.9958378 0.0348243 0.9958378 0.0348243 0.0041622 -0.0348243
3607000000 0.0041369 -0.0343265 0.9958631 0.0343265 0.9958631 0.0343265 0.0041369 -0.0343265
3628000000 0.0041125 -0.0338326 0.9958875 0.0338326 0.9958875 0.0338326 0.0041125 -0.0338326
3649000000 0.0040889 -0.0333427 0.9959111 0.0333427 0.9959111 0.0333427 0.0040889 -0.0333427
3670000000 0.0040660 -0.0328567 0.9959340 0.0328567 0.9959340 0.0328567 0.0040660 -0.0328567
3691000000 0.0040439 -0.0323744 0.9959561 0.0323744 0.9959561 0.0323744 0.0040439 -0.0323744
3712000000 0.0040226 -0.0318959 0.9959774 0.0318959 0.9959774 0.0318959 0.0040226 -0.0318959
3733000000 0.0040020 -0.0314211 0.9959980 0.0314211 0.9959980 0.0314211 0.0040020 -0.0314211
3754000000 0.0039821 -0.0309498 0.9960179 0.0309498 0.9960179 0.0309498 0.0039821 -0.0309498
3775000000 0.0039629 -0.0304821 0.9960371 0.0304821 0.9960371 0.0304821 0.0039629 -0.0304821
3796000000 0.0039444 -0.0300179 0.9960556 0.0300179 0.9960556 0.0300179 0.0039444 -0.0300179
3817000000 0.0039266 -0.0295572 0.9960734 0.0295572 0.9960734 0.0295572 0.0039266 -0.0295572
3838000000 0.0039095 -0.0290998 0.9960905 0.0290998 0.9960905 0.0290998 0.0039095 -0.0290998
3859000000 0.0038931 -0.0286457 0.9961069 0.0286457 0.9961069 0.0286457 0.0038931 -0.0286457
3880000000 0.0038773 -0.0281949 0.9961227 0.0281949 0.9961227 0.0281949 0.0038773 -0.0281949
3901000000 0.0038621 -0.0277474 0.9961379 0.0277474 0.9961379 0.0277474 0.0038621 -0.0277474
3922000000 0.0038475 -0.0273030 0.9961525 0.0273030 0.9961525 0.0273030 0.0038475 -0.0273030
3943000000 0.0038336 -0.0268617 0.9961664 0.0268617 0.9961664 0.0268617 0.0038336 -0.0268617
3964000000 0.0038203 -0.0264235 0.9961797 0.0264235 0.9961797 0.0264235 0.0038203 -0.0264235
3985000000 0.0038075 -0.0259883 0.9961925 0.0259883 0.9961925 0.0259883 0.0038075 -0.0259883
4006000000 0.0037954 -0.0255561 0.9962046 0.0255561 0.9962046 0.0255561 0.0037954 -0.0255561
4027000000 0.0037838 -0.0251268 0.9962162 0.0251268 0.9962162 0.0251268 0.0037838 -0.0251268
4048000000 0.0037728 -0.0247004 0.9962272 0.0247004 0.9962272 0.0247004 0.0037728 -0.0247004
4069000000 0.0037624 -0.0242768 0.9962376 0.0242768 0.9962376 0.0242768 0.0037624 -0.0242768
4090000000 0.0037525 -0.0238560 0.9962475 0.0238560 0.9962475 0.0238560 0.0037525 -0.0238560
4111000000 0.0037431 -0.0234380 0.9962569 0.0234380 0.9962569 0.0234380 0.0037431 -0.0234380
4132000000 0.0037342 -0.0230227 0.9962658 0.0230227 0.9962658 0.0230227 0.0037342 -0.0230227
4153000000 0.0037259 -0.0226100 0.9962741 0.0226100 0.9962741 0.0226100 0.0037259 -0.0226100
4174000000 0.0037181 -0.0222000 0.9962819 0.0222000 0.9962819 0.0222000 0.0037181 -0.0222000
4195000000 0.0037108 -0.0217926 0.9962892 0.0217926 0.9962892 0.0217926 0.0037108 -0.0217926
4216000000 0.0037040 -0.0213877 0.9962960 0.0213877 0.9962960 0.0213877 0.0037040 -0.0213877
4237000000 0.0036977 -0.0209854 0.9963023 0.0209854 0.9963023 0.0209854 0.0036977 -0.0209854
4258000000 0.0036919 -0.0205855 0.9963081 0.0205855 0.9963081 0.0205855 0.0036919 -0.0205855
4279000000 0.0036865 -0.0201881 0.9963135 0.0201881 0.9963135 0.0201881 0.0036865 -0.0201881
4300000000 0.0036817 -0.0197930 0.9963183 0.0197930 0.9963183 0.0197930 0.0036817 -0.0197930
4321000000 0.0036773 -0.0194004 0.9963227 0.0194004 0.9963227 0.0194004 0.0036773 -0.0194004
4342000000 0.0036733 -0.0190101 0.9963267 0.0190101 0.9963267 0.0190101 0.0036733 -0.0190101
4363000000 0.0036698 -0.0186221 0.9963302 0.0186221 0.9963302 0.0186221 0.0036698 -0.0186221
4384000000 0.0036667 -0.0182363 0.9963333 0.0182363 0.9963333 0.0182363 0.0036667 -0.0182363
4405000000 0.0036641 -0.0178528 0.9963359 0.0178528 0.9963359 0.0178528 0.0036641 -0.0178528
4426000000 0.0036619 -0.0174715 0.9963381 0.0174715 0.9963381 0.0174715 0.0036619 -0.0174715
4447000000 0.0036601 -0.0170924 0.9963399 0.0170924 0.9963399 0.0170924 0.0036601 -0.0170924
4468000000 0.0036588 -0.0167154 0.9963412 0.0167154 0.9963412 0.0167154 0.0036588 -0.0167154
4489000000 0.0036579 -0.0163406 0.9963421 0.0163406 0.9963421 0.0163406 0.0036579 -0.0163406
4510000000 0.0036573 -0.0159678 0.9963427 0.0159678 0.9963427 0.0159678 0.0036573 -0.0159678
