!Murata Part Number: GRM0115C1CR30BE11
!These Parameters are Measured in Series Mode Connection
!Data Generated on Mar 30, 2021
!       o--ll--o
!Port1            Port2
!       o------o
!Operation Temp=25[degC], DC Bias Voltage=0[V]
!Freq. Start=100[MHz] Stop=20[GHz] 401[Steps]
# Hz S RI R 50
!Freq.(Hz) S11(Real) S11(Imag) S21(Real) S21(Imag) S12(Real) S12(Imag) S22(Real) S22(Imag)
100000000 0.9996418 -0.0188432 0.0003582 0.0188432 0.0003582 0.0188432 0.9996418 -0.0188432
149750000 0.9991971 -0.0282058 0.0008029 0.0282058 0.0008029 0.0282058 0.9991971 -0.0282058
199500000 0.9985759 -0.0375542 0.0014241 0.0375542 0.0014241 0.0375542 0.9985759 -0.0375542
249250000 0.9977786 -0.0468838 0.0022214 0.0468838 0.0022214 0.0468838 0.9977786 -0.0468838
299000000 0.9968061 -0.0561899 0.0031939 0.0561899 0.0031939 0.0561899 0.9968061 -0.0561899
348750000 0.9956592 -0.0654679 0.0043408 0.0654679 0.0043408 0.0654679 0.9956592 -0.0654679
398500000 0.9943390 -0.0747132 0.0056610 0.0747132 0.0056610 0.0747132 0.9943390 -0.0747132
448250000 0.9928468 -0.0839214 0.0071532 0.0839214 0.0071532 0.0839214 0.9928468 -0.0839214
498000000 0.9911839 -0.0930880 0.0088161 0.0930880 0.0088161 0.0930880 0.9911839 -0.0930880
547750000 0.9893519 -0.1022085 0.0106481 0.1022085 0.0106481 0.1022085 0.9893519 -0.1022085
597500000 0.9873524 -0.1112787 0.0126476 0.1112787 0.0126476 0.1112787 0.9873524 -0.1112787
647250000 0.9851872 -0.1202942 0.0148128 0.1202942 0.0148128 0.1202942 0.9851872 -0.1202942
697000000 0.9828584 -0.1292511 0.0171416 0.1292511 0.0171416 0.1292511 0.9828584 -0.1292511
746750000 0.9803679 -0.1381450 0.0196321 0.1381450 0.0196321 0.1381450 0.9803679 -0.1381450
796500000 0.9777181 -0.1469722 0.0222819 0.1469722 0.0222819 0.1469722 0.9777181 -0.1469722
846250000 0.9749113 -0.1557286 0.0250887 0.1557286 0.0250887 0.1557286 0.9749113 -0.1557286
896000000 0.9719500 -0.1644105 0.0280500 0.1644105 0.0280500 0.1644105 0.9719500 -0.1644105
945750000 0.9688367 -0.1730142 0.0311633 0.1730142 0.0311633 0.1730142 0.9688367 -0.1730142
995500000 0.9655742 -0.1815362 0.0344258 0.1815362 0.0344258 0.1815362 0.9655742 -0.1815362
1045250000 0.9621652 -0.1899729 0.0378348 0.1899729 0.0378348 0.1899729 0.9621652 -0.1899729
1095000000 0.9586127 -0.1983211 0.0413873 0.1983211 0.0413873 0.1983211 0.9586127 -0.1983211
1144750000 0.9549197 -0.2065776 0.0450803 0.2065776 0.0450803 0.2065776 0.9549197 -0.2065776
1194500000 0.9510892 -0.2147392 0.0489108 0.2147392 0.0489108 0.2147392 0.9510892 -0.2147392
1244250000 0.9471245 -0.2228030 0.0528755 0.2228030 0.0528755 0.2228030 0.9471245 -0.2228030
1294000000 0.9430287 -0.2307661 0.0569713 0.2307661 0.0569713 0.2307661 0.9430287 -0.2307661
1343750000 0.9388052 -0.2386258 0.0611948 0.2386258 0.0611948 0.2386258 0.9388052 -0.2386258
1393500000 0.9344573 -0.2463797 0.0655427 0.2463797 0.0655427 0.2463797 0.9344573 -0.2463797
1443250000 0.9299885 -0.2540251 0.0700115 0.2540251 0.0700115 0.2540251 0.9299885 -0.2540251
1493000000 0.9254022 -0.2615600 0.0745978 0.2615600 0.0745978 0.2615600 0.9254022 -0.2615600
1542750000 0.9207020 -0.2689819 0.0792980 0.2689819 0.0792980 0.2689819 0.9207020 -0.2689819
1592500000 0.9158915 -0.2762890 0.0841085 0.2762890 0.0841085 0.2762890 0.9158915 -0.2762890
1642250000 0.9109742 -0.2834794 0.0890258 0.2834794 0.0890258 0.2834794 0.9109742 -0.2834794
1692000000 0.9059538 -0.2905512 0.0940462 0.2905512 0.0940462 0.2905512 0.9059538 -0.2905512
1741750000 0.9008338 -0.2975028 0.0991662 0.2975028 0.0991662 0.2975028 0.9008338 -0.2975028
1791500000 0.8956180 -0.3043328 0.1043820 0.3043328 0.1043820 0.3043328 0.8956180 -0.3043328
1841250000 0.8903101 -0.3110398 0.1096899 0.3110398 0.1096899 0.3110398 0.8903101 -0.3110398
1891000000 0.8849136 -0.3176225 0.1150864 0.3176225 0.1150864 0.3176225 0.8849136 -0.3176225
1940750000 0.8794323 -0.3240799 0.1205677 0.3240799 0.1205677 0.3240799 0.8794323 -0.3240799
1990500000 0.8738699 -0.3304109 0.1261301 0.3304109 0.1261301 0.3304109 0.8738699 -0.3304109
2040250000 0.8682299 -0.3366148 0.1317701 0.3366148 0.1317701 0.3366148 0.8682299 -0.3366148
2090000000 0.8625161 -0.3426907 0.1374839 0.3426907 0.1374839 0.3426907 0.8625161 -0.3426907
2139750000 0.8567320 -0.3486382 0.1432680 0.3486382 0.1432680 0.3486382 0.8567320 -0.3486382
2189500000 0.8508812 -0.3544567 0.1491188 0.3544567 0.1491188 0.3544567 0.8508812 -0.3544567
2239250000 0.8449674 -0.3601458 0.1550326 0.3601458 0.1550326 0.3601458 0.8449674 -0.3601458
2289000000 0.8389939 -0.3657052 0.1610061 0.3657052 0.1610061 0.3657052 0.8389939 -0.3657052
2338750000 0.8329644 -0.3711349 0.1670356 0.3711349 0.1670356 0.3711349 0.8329644 -0.3711349
2388500000 0.8268823 -0.3764348 0.1731177 0.3764348 0.1731177 0.3764348 0.8268823 -0.3764348
2438250000 0.8207510 -0.3816049 0.1792490 0.3816049 0.1792490 0.3816049 0.8207510 -0.3816049
2488000000 0.8145738 -0.3866454 0.1854262 0.3866454 0.1854262 0.3866454 0.8145738 -0.3866454
2537750000 0.8083542 -0.3915566 0.1916458 0.3915566 0.1916458 0.3915566 0.8083542 -0.3915566
2587500000 0.8020952 -0.3963387 0.1979048 0.3963387 0.1979048 0.3963387 0.8020952 -0.3963387
2637250000 0.7958002 -0.4009923 0.2041998 0.4009923 0.2041998 0.4009923 0.7958002 -0.4009923
2687000000 0.7894724 -0.4055179 0.2105276 0.4055179 0.2105276 0.4055179 0.7894724 -0.4055179
2736750000 0.7831147 -0.4099161 0.2168853 0.4099161 0.2168853 0.4099161 0.7831147 -0.4099161
2786500000 0.7767303 -0.4141875 0.2232697 0.4141875 0.2232697 0.4141875 0.7767303 -0.4141875
2836250000 0.7703221 -0.4183330 0.2296779 0.4183330 0.2296779 0.4183330 0.7703221 -0.4183330
2886000000 0.7638930 -0.4223534 0.2361070 0.4223534 0.2361070 0.4223534 0.7638930 -0.4223534
2935750000 0.7574459 -0.4262495 0.2425541 0.4262495 0.2425541 0.4262495 0.7574459 -0.4262495
2985500000 0.7509836 -0.4300224 0.2490164 0.4300224 0.2490164 0.4300224 0.7509836 -0.4300224
3035250000 0.7445086 -0.4336730 0.2554914 0.4336730 0.2554914 0.4336730 0.7445086 -0.4336730
3085000000 0.7380238 -0.4372025 0.2619762 0.4372025 0.2619762 0.4372025 0.7380238 -0.4372025
3134750000 0.7315317 -0.4406121 0.2684683 0.4406121 0.2684683 0.4406121 0.7315317 -0.4406121
3184500000 0.7250347 -0.4439028 0.2749653 0.4439028 0.2749653 0.4439028 0.7250347 -0.4439028
3234250000 0.7185353 -0.4470760 0.2814647 0.4470760 0.2814647 0.4470760 0.7185353 -0.4470760
3284000000 0.7120359 -0.4501330 0.2879641 0.4501330 0.2879641 0.4501330 0.7120359 -0.4501330
3333750000 0.7055387 -0.4530750 0.2944613 0.4530750 0.2944613 0.4530750 0.7055387 -0.4530750
3383500000 0.6990460 -0.4559035 0.3009540 0.4559035 0.3009540 0.4559035 0.6990460 -0.4559035
3433250000 0.6925599 -0.4586198 0.3074401 0.4586198 0.3074401 0.4586198 0.6925599 -0.4586198
3483000000 0.6860825 -0.4612255 0.3139175 0.4612255 0.3139175 0.4612255 0.6860825 -0.4612255
3532750000 0.6796159 -0.4637219 0.3203841 0.4637219 0.3203841 0.4637219 0.6796159 -0.4637219
3582500000 0.6731619 -0.4661105 0.3268381 0.4661105 0.3268381 0.4661105 0.6731619 -0.4661105
3632250000 0.6667225 -0.4683930 0.3332775 0.4683930 0.3332775 0.4683930 0.6667225 -0.4683930
3682000000 0.6602994 -0.4705707 0.3397006 0.4705707 0.3397006 0.4705707 0.6602994 -0.4705707
3731750000 0.6538944 -0.4726454 0.3461056 0.4726454 0.3461056 0.4726454 0.6538944 -0.4726454
3781500000 0.6475091 -0.4746185 0.3524909 0.4746185 0.3524909 0.4746185 0.6475091 -0.4746185
3831250000 0.6411452 -0.4764917 0.3588548 0.4764917 0.3588548 0.4764917 0.6411452 -0.4764917
3881000000 0.6348042 -0.4782665 0.3651958 0.4782665 0.3651958 0.4782665 0.6348042 -0.4782665
3930750000 0.6284876 -0.4799446 0.3715124 0.4799446 0.3715124 0.4799446 0.6284876 -0.4799446
3980500000 0.6221968 -0.4815276 0.3778032 0.4815276 0.3778032 0.4815276 0.6221968 -0.4815276
4030250000 0.6159332 -0.4830172 0.3840668 0.4830172 0.3840668 0.4830172 0.6159332 -0.4830172
4080000000 0.6096980 -0.4844149 0.3903020 0.4844149 0.3903020 0.4844149 0.6096980 -0.4844149
4129750000 0.6034925 -0.4857224 0.3965075 0.4857224 0.3965075 0.4857224 0.6034925 -0.4857224
4179500000 0.5973179 -0.4869414 0.4026821 0.4869414 0.4026821 0.4869414 0.5973179 -0.4869414
4229250000 0.5911752 -0.4880734 0.4088248 0.4880734 0.4088248 0.4880734 0.5911752 -0.4880734
4279000000 0.5850656 -0.4891201 0.4149344 0.4891201 0.4149344 0.4891201 0.5850656 -0.4891201
4328750000 0.5789900 -0.4900832 0.4210100 0.4900832 0.4210100 0.4900832 0.5789900 -0.4900832
4378500000 0.5729495 -0.4909642 0.4270505 0.4909642 0.4270505 0.4909642 0.5729495 -0.4909642
4428250000 0.5669448 -0.4917648 0.4330552 0.4917648 0.4330552 0.4917648 0.5669448 -0.4917648
4478000000 0.5609770 -0.4924866 0.4390230 0.4924866 0.4390230 0.4924866 0.5609770 -0.4924866
4527750000 0.5550467 -0.4931311 0.4449533 0.4931311 0.4449533 0.4931311 0.5550467 -0.4931311
4577500000 0.5491547 -0.4937000 0.4508453 0.4937000 0.4508453 0.4937000 0.5491547 -0.4937000
4627250000 0.5433018 -0.4941949 0.4566982 0.4941949 0.4566982 0.4941949 0.5433018 -0.4941949
4677000000 0.5374886 -0.4946172 0.4625114 0.4946172 0.4625114 0.4946172 0.5374886 -0.4946172
4726750000 0.5317157 -0.4949687 0.4682843 0.4949687 0.4682843 0.4949687 0.5317157 -0.4949687
4776500000 0.5259838 -0.4952507 0.4740162 0.4952507 0.4740162 0.4952507 0.5259838 -0.4952507
4826250000 0.5202933 -0.4954648 0.4797067 0.4954648 0.4797067 0.4954648 0.5202933 -0.4954648
4876000000 0.5146447 -0.4956125 0.4853553 0.4956125 0.4853553 0.4956125 0.5146447 -0.4956125
4925750000 0.5090385 -0.4956953 0.4909615 0.4956953 0.4909615 0.4956953 0.5090385 -0.4956953
4975500000 0.5034751 -0.4957147 0.4965249 0.4957147 0.4965249 0.4957147 0.5034751 -0.4957147
5025250000 0.4979550 -0.4956722 0.5020450 0.4956722 0.5020450 0.4956722 0.4979550 -0.4956722
5075000000 0.4924784 -0.4955691 0.5075216 0.4955691 0.5075216 0.4955691 0.4924784 -0.4955691
5124750000 0.4870456 -0.4954069 0.5129544 0.4954069 0.5129544 0.4954069 0.4870456 -0.4954069
5174500000 0.4816570 -0.4951870 0.5183430 0.4951870 0.5183430 0.4951870 0.4816570 -0.4951870
5224250000 0.4763128 -0.4949107 0.5236872 0.4949107 0.5236872 0.4949107 0.4763128 -0.4949107
5274000000 0.4710133 -0.4945795 0.5289867 0.4945795 0.5289867 0.4945795 0.4710133 -0.4945795
5323750000 0.4657585 -0.4941946 0.5342415 0.4941946 0.5342415 0.4941946 0.4657585 -0.4941946
5373500000 0.4605487 -0.4937574 0.5394513 0.4937574 0.5394513 0.4937574 0.4605487 -0.4937574
5423250000 0.4553840 -0.4932692 0.5446160 0.4932692 0.5446160 0.4932692 0.4553840 -0.4932692
5473000000 0.4502646 -0.4927313 0.5497354 0.4927313 0.5497354 0.4927313 0.4502646 -0.4927313
5522750000 0.4451904 -0.4921449 0.5548096 0.4921449 0.5548096 0.4921449 0.4451904 -0.4921449
5572500000 0.4401617 -0.4915112 0.5598383 0.4915112 0.5598383 0.4915112 0.4401617 -0.4915112
5622250000 0.4351783 -0.4908316 0.5648217 0.4908316 0.5648217 0.4908316 0.4351783 -0.4908316
5672000000 0.4302403 -0.4901071 0.5697597 0.4901071 0.5697597 0.4901071 0.4302403 -0.4901071
5721750000 0.4253478 -0.4893389 0.5746522 0.4893389 0.5746522 0.4893389 0.4253478 -0.4893389
5771500000 0.4205006 -0.4885283 0.5794994 0.4885283 0.5794994 0.4885283 0.4205006 -0.4885283
5821250000 0.4156988 -0.4876763 0.5843012 0.4876763 0.5843012 0.4876763 0.4156988 -0.4876763
5871000000 0.4109423 -0.4867840 0.5890577 0.4867840 0.5890577 0.4867840 0.4109423 -0.4867840
5920750000 0.4062309 -0.4858526 0.5937691 0.4858526 0.5937691 0.4858526 0.4062309 -0.4858526
5970500000 0.4015647 -0.4848831 0.5984353 0.4848831 0.5984353 0.4848831 0.4015647 -0.4848831
6020250000 0.3969435 -0.4838766 0.6030565 0.4838766 0.6030565 0.4838766 0.3969435 -0.4838766
6070000000 0.3923671 -0.4828340 0.6076329 0.4828340 0.6076329 0.4828340 0.3923671 -0.4828340
6119750000 0.3878354 -0.4817565 0.6121646 0.4817565 0.6121646 0.4817565 0.3878354 -0.4817565
6169500000 0.3833483 -0.4806450 0.6166517 0.4806450 0.6166517 0.4806450 0.3833483 -0.4806450
6219250000 0.3789056 -0.4795004 0.6210944 0.4795004 0.6210944 0.4795004 0.3789056 -0.4795004
6269000000 0.3745070 -0.4783237 0.6254930 0.4783237 0.6254930 0.4783237 0.3745070 -0.4783237
6318750000 0.3701525 -0.4771160 0.6298475 0.4771160 0.6298475 0.4771160 0.3701525 -0.4771160
6368500000 0.3658418 -0.4758779 0.6341582 0.4758779 0.6341582 0.4758779 0.3658418 -0.4758779
6418250000 0.3615747 -0.4746105 0.6384253 0.4746105 0.6384253 0.4746105 0.3615747 -0.4746105
6468000000 0.3573510 -0.4733147 0.6426490 0.4733147 0.6426490 0.4733147 0.3573510 -0.4733147
6517750000 0.3531704 -0.4719912 0.6468296 0.4719912 0.6468296 0.4719912 0.3531704 -0.4719912
6567500000 0.3490326 -0.4706410 0.6509674 0.4706410 0.6509674 0.4706410 0.3490326 -0.4706410
6617250000 0.3449375 -0.4692648 0.6550625 0.4692648 0.6550625 0.4692648 0.3449375 -0.4692648
6667000000 0.3408848 -0.4678634 0.6591152 0.4678634 0.6591152 0.4678634 0.3408848 -0.4678634
6716750000 0.3368742 -0.4664377 0.6631258 0.4664377 0.6631258 0.4664377 0.3368742 -0.4664377
6766500000 0.3329054 -0.4649883 0.6670946 0.4649883 0.6670946 0.4649883 0.3329054 -0.4649883
6816250000 0.3289782 -0.4635161 0.6710218 0.4635161 0.6710218 0.4635161 0.3289782 -0.4635161
6866000000 0.3250923 -0.4620217 0.6749077 0.4620217 0.6749077 0.4620217 0.3250923 -0.4620217
6915750000 0.3212473 -0.4605060 0.6787527 0.4605060 0.6787527 0.4605060 0.3212473 -0.4605060
6965500000 0.3174430 -0.4589695 0.6825570 0.4589695 0.6825570 0.4589695 0.3174430 -0.4589695
7015250000 0.3136791 -0.4574129 0.6863209 0.4574129 0.6863209 0.4574129 0.3136791 -0.4574129
7065000000 0.3099553 -0.4558370 0.6900447 0.4558370 0.6900447 0.4558370 0.3099553 -0.4558370
7114750000 0.3062712 -0.4542424 0.6937288 0.4542424 0.6937288 0.4542424 0.3062712 -0.4542424
7164500000 0.3026266 -0.4526297 0.6973734 0.4526297 0.6973734 0.4526297 0.3026266 -0.4526297
7214250000 0.2990212 -0.4509995 0.7009788 0.4509995 0.7009788 0.4509995 0.2990212 -0.4509995
7264000000 0.2954545 -0.4493525 0.7045455 0.4493525 0.7045455 0.4493525 0.2954545 -0.4493525
7313750000 0.2919264 -0.4476891 0.7080736 0.4476891 0.7080736 0.4476891 0.2919264 -0.4476891
7363500000 0.2884365 -0.4460101 0.7115635 0.4460101 0.7115635 0.4460101 0.2884365 -0.4460101
7413250000 0.2849844 -0.4443160 0.7150156 0.4443160 0.7150156 0.4443160 0.2849844 -0.4443160
7463000000 0.2815699 -0.4426072 0.7184301 0.4426072 0.7184301 0.4426072 0.2815699 -0.4426072
7512750000 0.2781925 -0.4408844 0.7218075 0.4408844 0.7218075 0.4408844 0.2781925 -0.4408844
7562500000 0.2748520 -0.4391481 0.7251480 0.4391481 0.7251480 0.4391481 0.2748520 -0.4391481
7612250000 0.2715481 -0.4373988 0.7284519 0.4373988 0.7284519 0.4373988 0.2715481 -0.4373988
7662000000 0.2682804 -0.4356369 0.7317196 0.4356369 0.7317196 0.4356369 0.2682804 -0.4356369
7711750000 0.2650485 -0.4338630 0.7349515 0.4338630 0.7349515 0.4338630 0.2650485 -0.4338630
7761500000 0.2618522 -0.4320775 0.7381478 0.4320775 0.7381478 0.4320775 0.2618522 -0.4320775
7811250000 0.2586912 -0.4302810 0.7413088 0.4302810 0.7413088 0.4302810 0.2586912 -0.4302810
7861000000 0.2555650 -0.4284737 0.7444350 0.4284737 0.7444350 0.4284737 0.2555650 -0.4284737
7910750000 0.2524734 -0.4266562 0.7475266 0.4266562 0.7475266 0.4266562 0.2524734 -0.4266562
7960500000 0.2494159 -0.4248290 0.7505841 0.4248290 0.7505841 0.4248290 0.2494159 -0.4248290
8010250000 0.2463924 -0.4229923 0.7536076 0.4229923 0.7536076 0.4229923 0.2463924 -0.4229923
8060000000 0.2434025 -0.4211466 0.7565975 0.4211466 0.7565975 0.4211466 0.2434025 -0.4211466
8109750000 0.2404457 -0.4192924 0.7595543 0.4192924 0.7595543 0.4192924 0.2404457 -0.4192924
8159500000 0.2375219 -0.4174299 0.7624781 0.4174299 0.7624781 0.4174299 0.2375219 -0.4174299
8209250000 0.2346307 -0.4155597 0.7653693 0.4155597 0.7653693 0.4155597 0.2346307 -0.4155597
8259000000 0.2317717 -0.4136819 0.7682283 0.4136819 0.7682283 0.4136819 0.2317717 -0.4136819
8308750000 0.2289446 -0.4117970 0.7710554 0.4117970 0.7710554 0.4117970 0.2289446 -0.4117970
8358500000 0.2261491 -0.4099053 0.7738509 0.4099053 0.7738509 0.4099053 0.2261491 -0.4099053
8408250000 0.2233849 -0.4080072 0.7766151 0.4080072 0.7766151 0.4080072 0.2233849 -0.4080072
8458000000 0.2206517 -0.4061030 0.7793483 0.4061030 0.7793483 0.4061030 0.2206517 -0.4061030
8507750000 0.2179491 -0.4041930 0.7820509 0.4041930 0.7820509 0.4041930 0.2179491 -0.4041930
8557500000 0.2152768 -0.4022775 0.7847232 0.4022775 0.7847232 0.4022775 0.2152768 -0.4022775
8607250000 0.2126346 -0.4003567 0.7873654 0.4003567 0.7873654 0.4003567 0.2126346 -0.4003567
8657000000 0.2100220 -0.3984311 0.7899780 0.3984311 0.7899780 0.3984311 0.2100220 -0.3984311
8706750000 0.2074388 -0.3965009 0.7925612 0.3965009 0.7925612 0.3965009 0.2074388 -0.3965009
8756500000 0.2048847 -0.3945663 0.7951153 0.3945663 0.7951153 0.3945663 0.2048847 -0.3945663
8806250000 0.2023594 -0.3926276 0.7976406 0.3926276 0.7976406 0.3926276 0.2023594 -0.3926276
8856000000 0.1998625 -0.3906851 0.8001375 0.3906851 0.8001375 0.3906851 0.1998625 -0.3906851
8905750000 0.1973938 -0.3887391 0.8026062 0.3887391 0.8026062 0.3887391 0.1973938 -0.3887391
8955500000 0.1949529 -0.3867897 0.8050471 0.3867897 0.8050471 0.3867897 0.1949529 -0.3867897
9005250000 0.1925397 -0.3848373 0.8074603 0.3848373 0.8074603 0.3848373 0.1925397 -0.3848373
9055000000 0.1901536 -0.3828820 0.8098464 0.3828820 0.8098464 0.3828820 0.1901536 -0.3828820
9104750000 0.1877946 -0.3809241 0.8122054 0.3809241 0.8122054 0.3809241 0.1877946 -0.3809241
9154500000 0.1854622 -0.3789638 0.8145378 0.3789638 0.8145378 0.3789638 0.1854622 -0.3789638
9204250000 0.1831563 -0.3770012 0.8168437 0.3770012 0.8168437 0.3770012 0.1831563 -0.3770012
9254000000 0.1808764 -0.3750368 0.8191236 0.3750368 0.8191236 0.3750368 0.1808764 -0.3750368
9303750000 0.1786224 -0.3730705 0.8213776 0.3730705 0.8213776 0.3730705 0.1786224 -0.3730705
9353500000 0.1763939 -0.3711026 0.8236061 0.3711026 0.8236061 0.3711026 0.1763939 -0.3711026
9403250000 0.1741906 -0.3691334 0.8258094 0.3691334 0.8258094 0.3691334 0.1741906 -0.3691334
9453000000 0.1720124 -0.3671629 0.8279876 0.3671629 0.8279876 0.3671629 0.1720124 -0.3671629
9502750000 0.1698589 -0.3651914 0.8301411 0.3651914 0.8301411 0.3651914 0.1698589 -0.3651914
9552500000 0.1677298 -0.3632190 0.8322702 0.3632190 0.8322702 0.3632190 0.1677298 -0.3632190
9602250000 0.1656250 -0.3612459 0.8343750 0.3612459 0.8343750 0.3612459 0.1656250 -0.3612459
9652000000 0.1635440 -0.3592723 0.8364560 0.3592723 0.8364560 0.3592723 0.1635440 -0.3592723
9701750000 0.1614867 -0.3572983 0.8385133 0.3572983 0.8385133 0.3572983 0.1614867 -0.3572983
9751500000 0.1594527 -0.3553241 0.8405473 0.3553241 0.8405473 0.3553241 0.1594527 -0.3553241
9801250000 0.1574419 -0.3533498 0.8425581 0.3533498 0.8425581 0.3533498 0.1574419 -0.3533498
9851000000 0.1554540 -0.3513756 0.8445460 0.3513756 0.8445460 0.3513756 0.1554540 -0.3513756
9900750000 0.1534887 -0.3494016 0.8465113 0.3494016 0.8465113 0.3494016 0.1534887 -0.3494016
9950500000 0.1515458 -0.3474279 0.8484542 0.3474279 0.8484542 0.3474279 0.1515458 -0.3474279
10000250000 0.1496251 -0.3454547 0.8503749 0.3454547 0.8503749 0.3454547 0.1496251 -0.3454547
10050000000 0.1477262 -0.3434820 0.8522738 0.3434820 0.8522738 0.3434820 0.1477262 -0.3434820
10099750000 0.1458489 -0.3415101 0.8541511 0.3415101 0.8541511 0.3415101 0.1458489 -0.3415101
10149500000 0.1439931 -0.3395391 0.8560069 0.3395391 0.8560069 0.3395391 0.1439931 -0.3395391
10199250000 0.1421584 -0.3375690 0.8578416 0.3375690 0.8578416 0.3375690 0.1421584 -0.3375690
10249000000 0.1403447 -0.3355999 0.8596553 0.3355999 0.8596553 0.3355999 0.1403447 -0.3355999
10298750000 0.1385517 -0.3336320 0.8614483 0.3336320 0.8614483 0.3336320 0.1385517 -0.3336320
10348500000 0.1367791 -0.3316654 0.8632209 0.3316654 0.8632209 0.3316654 0.1367791 -0.3316654
10398250000 0.1350268 -0.3297002 0.8649732 0.3297002 0.8649732 0.3297002 0.1350268 -0.3297002
10448000000 0.1332945 -0.3277364 0.8667055 0.3277364 0.8667055 0.3277364 0.1332945 -0.3277364
10497750000 0.1315821 -0.3257742 0.8684179 0.3257742 0.8684179 0.3257742 0.1315821 -0.3257742
