!Murata Part Number: GRM0115C1ER90WE11
!These Parameters are Measured in Series Mode Connection
!Data Generated on Mar 30, 2021
!       o--ll--o
!Port1            Port2
!       o------o
!Operation Temp=25[degC], DC Bias Voltage=0[V]
!Freq. Start=100[MHz] Stop=20[GHz] 401[Steps]
# Hz S RI R 50
!Freq.(Hz) S11(Real) S11(Imag) S21(Real) S21(Imag) S12(Real) S12(Imag) S22(Real) S22(Imag)
100000000 0.9967990 -0.0563709 0.0032010 0.0563709 0.0032010 0.0563709 0.9967990 -0.0563709
149750000 0.9928490 -0.0840871 0.0071510 0.0840871 0.0071510 0.0840871 0.9928490 -0.0840871
199500000 0.9873753 -0.1114162 0.0126247 0.1114162 0.0126247 0.1114162 0.9873753 -0.1114162
249250000 0.9804266 -0.1382388 0.0195734 0.1382388 0.0195734 0.1382388 0.9804266 -0.1382388
299000000 0.9720634 -0.1644426 0.0279366 0.1644426 0.0279366 0.1644426 0.9720634 -0.1644426
348750000 0.9623569 -0.1899242 0.0376431 0.1899242 0.0376431 0.1899242 0.9623569 -0.1899242
398500000 0.9513874 -0.2145900 0.0486126 0.2145900 0.0486126 0.2145900 0.9513874 -0.2145900
448250000 0.9392432 -0.2383572 0.0607568 0.2383572 0.0607568 0.2383572 0.9392432 -0.2383572
498000000 0.9260183 -0.2611543 0.0739817 0.2611543 0.0739817 0.2611543 0.9260183 -0.2611543
547750000 0.9118112 -0.2829216 0.0881888 0.2829216 0.0881888 0.2829216 0.9118112 -0.2829216
597500000 0.8967230 -0.3036112 0.1032770 0.3036112 0.1032770 0.3036112 0.8967230 -0.3036112
647250000 0.8808560 -0.3231867 0.1191440 0.3231867 0.1191440 0.3231867 0.8808560 -0.3231867
697000000 0.8643122 -0.3416227 0.1356878 0.3416227 0.1356878 0.3416227 0.8643122 -0.3416227
746750000 0.8471919 -0.3589047 0.1528081 0.3589047 0.1528081 0.3589047 0.8471919 -0.3589047
796500000 0.8295929 -0.3750279 0.1704071 0.3750279 0.1704071 0.3750279 0.8295929 -0.3750279
846250000 0.8116091 -0.3899965 0.1883909 0.3899965 0.1883909 0.3899965 0.8116091 -0.3899965
896000000 0.7933299 -0.4038229 0.2066701 0.4038229 0.2066701 0.4038229 0.7933299 -0.4038229
945750000 0.7748397 -0.4165268 0.2251603 0.4165268 0.2251603 0.4165268 0.7748397 -0.4165268
995500000 0.7562173 -0.4281338 0.2437827 0.4281338 0.2437827 0.4281338 0.7562173 -0.4281338
1045250000 0.7375354 -0.4386751 0.2624646 0.4386751 0.2624646 0.4386751 0.7375354 -0.4386751
1095000000 0.7188609 -0.4481862 0.2811391 0.4481862 0.2811391 0.4481862 0.7188609 -0.4481862
1144750000 0.7002544 -0.4567059 0.2997456 0.4567059 0.2997456 0.4567059 0.7002544 -0.4567059
1194500000 0.6817705 -0.4642758 0.3182295 0.4642758 0.3182295 0.4642758 0.6817705 -0.4642758
1244250000 0.6634579 -0.4709395 0.3365421 0.4709395 0.3365421 0.4709395 0.6634579 -0.4709395
1294000000 0.6453595 -0.4767418 0.3546405 0.4767418 0.3546405 0.4767418 0.6453595 -0.4767418
1343750000 0.6275129 -0.4817282 0.3724871 0.4817282 0.3724871 0.4817282 0.6275129 -0.4817282
1393500000 0.6099503 -0.4859445 0.3900497 0.4859445 0.3900497 0.4859445 0.6099503 -0.4859445
1443250000 0.5926994 -0.4894359 0.4073006 0.4894359 0.4073006 0.4894359 0.5926994 -0.4894359
1493000000 0.5757833 -0.4922472 0.4242167 0.4922472 0.4242167 0.4922472 0.5757833 -0.4922472
1542750000 0.5592209 -0.4944223 0.4407791 0.4944223 0.4407791 0.4944223 0.5592209 -0.4944223
1592500000 0.5430273 -0.4960037 0.4569727 0.4960037 0.4569727 0.4960037 0.5430273 -0.4960037
1642250000 0.5272145 -0.4970325 0.4727855 0.4970325 0.4727855 0.4970325 0.5272145 -0.4970325
1692000000 0.5117911 -0.4975484 0.4882089 0.4975484 0.4882089 0.4975484 0.5117911 -0.4975484
1741750000 0.4967632 -0.4975892 0.5032368 0.4975892 0.5032368 0.4975892 0.4967632 -0.4975892
1791500000 0.4821343 -0.4971911 0.5178657 0.4971911 0.5178657 0.4971911 0.4821343 -0.4971911
1841250000 0.4679058 -0.4963884 0.5320942 0.4963884 0.5320942 0.4963884 0.4679058 -0.4963884
1891000000 0.4540772 -0.4952138 0.5459228 0.4952138 0.5459228 0.4952138 0.4540772 -0.4952138
1940750000 0.4406464 -0.4936978 0.5593536 0.4936978 0.5593536 0.4936978 0.4406464 -0.4936978
1990500000 0.4276099 -0.4918695 0.5723901 0.4918695 0.5723901 0.4918695 0.4276099 -0.4918695
2040250000 0.4149629 -0.4897561 0.5850371 0.4897561 0.5850371 0.4897561 0.4149629 -0.4897561
2090000000 0.4026996 -0.4873829 0.5973004 0.4873829 0.5973004 0.4873829 0.4026996 -0.4873829
2139750000 0.3908134 -0.4847739 0.6091866 0.4847739 0.6091866 0.4847739 0.3908134 -0.4847739
2189500000 0.3792970 -0.4819512 0.6207030 0.4819512 0.6207030 0.4819512 0.3792970 -0.4819512
2239250000 0.3681424 -0.4789357 0.6318576 0.4789357 0.6318576 0.4789357 0.3681424 -0.4789357
2289000000 0.3573413 -0.4757465 0.6426587 0.4757465 0.6426587 0.4757465 0.3573413 -0.4757465
2338750000 0.3468849 -0.4724017 0.6531151 0.4724017 0.6531151 0.4724017 0.3468849 -0.4724017
2388500000 0.3367643 -0.4689177 0.6632357 0.4689177 0.6632357 0.4689177 0.3367643 -0.4689177
2438250000 0.3269704 -0.4653100 0.6730296 0.4653100 0.6730296 0.4653100 0.3269704 -0.4653100
2488000000 0.3174938 -0.4615928 0.6825062 0.4615928 0.6825062 0.4615928 0.3174938 -0.4615928
2537750000 0.3083253 -0.4577793 0.6916747 0.4577793 0.6916747 0.4577793 0.3083253 -0.4577793
2587500000 0.2994556 -0.4538816 0.7005444 0.4538816 0.7005444 0.4538816 0.2994556 -0.4538816
2637250000 0.2908753 -0.4499109 0.7091247 0.4499109 0.7091247 0.4499109 0.2908753 -0.4499109
2687000000 0.2825754 -0.4458774 0.7174246 0.4458774 0.7174246 0.4458774 0.2825754 -0.4458774
2736750000 0.2745468 -0.4417906 0.7254532 0.4417906 0.7254532 0.4417906 0.2745468 -0.4417906
2786500000 0.2667805 -0.4376591 0.7332195 0.4376591 0.7332195 0.4376591 0.2667805 -0.4376591
2836250000 0.2592679 -0.4334911 0.7407321 0.4334911 0.7407321 0.4334911 0.2592679 -0.4334911
2886000000 0.2520004 -0.4292937 0.7479996 0.4292937 0.7479996 0.4292937 0.2520004 -0.4292937
2935750000 0.2449696 -0.4250737 0.7550304 0.4250737 0.7550304 0.4250737 0.2449696 -0.4250737
2985500000 0.2381674 -0.4208372 0.7618326 0.4208372 0.7618326 0.4208372 0.2381674 -0.4208372
3035250000 0.2315859 -0.4165897 0.7684141 0.4165897 0.7684141 0.4165897 0.2315859 -0.4165897
3085000000 0.2252173 -0.4123363 0.7747827 0.4123363 0.7747827 0.4123363 0.2252173 -0.4123363
3134750000 0.2190542 -0.4080817 0.7809458 0.4080817 0.7809458 0.4080817 0.2190542 -0.4080817
3184500000 0.2130894 -0.4038300 0.7869106 0.4038300 0.7869106 0.4038300 0.2130894 -0.4038300
3234250000 0.2073157 -0.3995852 0.7926843 0.3995852 0.7926843 0.3995852 0.2073157 -0.3995852
3284000000 0.2017265 -0.3953506 0.7982735 0.3953506 0.7982735 0.3953506 0.2017265 -0.3953506
3333750000 0.1963151 -0.3911294 0.8036849 0.3911294 0.8036849 0.3911294 0.1963151 -0.3911294
3383500000 0.1910752 -0.3869244 0.8089248 0.3869244 0.8089248 0.3869244 0.1910752 -0.3869244
3433250000 0.1860007 -0.3827382 0.8139993 0.3827382 0.8139993 0.3827382 0.1860007 -0.3827382
3483000000 0.1810857 -0.3785730 0.8189143 0.3785730 0.8189143 0.3785730 0.1810857 -0.3785730
3532750000 0.1763244 -0.3744309 0.8236756 0.3744309 0.8236756 0.3744309 0.1763244 -0.3744309
3582500000 0.1717115 -0.3703138 0.8282885 0.3703138 0.8282885 0.3703138 0.1717115 -0.3703138
3632250000 0.1672415 -0.3662232 0.8327585 0.3662232 0.8327585 0.3662232 0.1672415 -0.3662232
3682000000 0.1629094 -0.3621607 0.8370906 0.3621607 0.8370906 0.3621607 0.1629094 -0.3621607
3731750000 0.1587103 -0.3581274 0.8412897 0.3581274 0.8412897 0.3581274 0.1587103 -0.3581274
3781500000 0.1546395 -0.3541245 0.8453605 0.3541245 0.8453605 0.3541245 0.1546395 -0.3541245
3831250000 0.1506924 -0.3501530 0.8493076 0.3501530 0.8493076 0.3501530 0.1506924 -0.3501530
3881000000 0.1468647 -0.3462137 0.8531353 0.3462137 0.8531353 0.3462137 0.1468647 -0.3462137
3930750000 0.1431521 -0.3423073 0.8568479 0.3423073 0.8568479 0.3423073 0.1431521 -0.3423073
3980500000 0.1395507 -0.3384345 0.8604493 0.3384345 0.8604493 0.3384345 0.1395507 -0.3384345
4030250000 0.1360564 -0.3345958 0.8639436 0.3345958 0.8639436 0.3345958 0.1360564 -0.3345958
4080000000 0.1326657 -0.3307916 0.8673343 0.3307916 0.8673343 0.3307916 0.1326657 -0.3307916
4129750000 0.1293748 -0.3270222 0.8706252 0.3270222 0.8706252 0.3270222 0.1293748 -0.3270222
4179500000 0.1261803 -0.3232879 0.8738197 0.3232879 0.8738197 0.3232879 0.1261803 -0.3232879
4229250000 0.1230790 -0.3195888 0.8769210 0.3195888 0.8769210 0.3195888 0.1230790 -0.3195888
4279000000 0.1200676 -0.3159252 0.8799324 0.3159252 0.8799324 0.3159252 0.1200676 -0.3159252
4328750000 0.1171430 -0.3122971 0.8828570 0.3122971 0.8828570 0.3122971 0.1171430 -0.3122971
4378500000 0.1143022 -0.3087044 0.8856978 0.3087044 0.8856978 0.3087044 0.1143022 -0.3087044
4428250000 0.1115426 -0.3051473 0.8884574 0.3051473 0.8884574 0.3051473 0.1115426 -0.3051473
4478000000 0.1088612 -0.3016255 0.8911388 0.3016255 0.8911388 0.3016255 0.1088612 -0.3016255
4527750000 0.1062555 -0.2981390 0.8937445 0.2981390 0.8937445 0.2981390 0.1062555 -0.2981390
4577500000 0.1037230 -0.2946876 0.8962770 0.2946876 0.8962770 0.2946876 0.1037230 -0.2946876
4627250000 0.1012612 -0.2912712 0.8987388 0.2912712 0.8987388 0.2912712 0.1012612 -0.2912712
4677000000 0.0988678 -0.2878895 0.9011322 0.2878895 0.9011322 0.2878895 0.0988678 -0.2878895
4726750000 0.0965405 -0.2845424 0.9034595 0.2845424 0.9034595 0.2845424 0.0965405 -0.2845424
4776500000 0.0942772 -0.2812295 0.9057228 0.2812295 0.9057228 0.2812295 0.0942772 -0.2812295
4826250000 0.0920758 -0.2779505 0.9079242 0.2779505 0.9079242 0.2779505 0.0920758 -0.2779505
4876000000 0.0899343 -0.2747053 0.9100657 0.2747053 0.9100657 0.2747053 0.0899343 -0.2747053
4925750000 0.0878508 -0.2714934 0.9121492 0.2714934 0.9121492 0.2714934 0.0878508 -0.2714934
4975500000 0.0858234 -0.2683145 0.9141766 0.2683145 0.9141766 0.2683145 0.0858234 -0.2683145
5025250000 0.0838503 -0.2651684 0.9161497 0.2651684 0.9161497 0.2651684 0.0838503 -0.2651684
5075000000 0.0819299 -0.2620546 0.9180701 0.2620546 0.9180701 0.2620546 0.0819299 -0.2620546
5124750000 0.0800604 -0.2589729 0.9199396 0.2589729 0.9199396 0.2589729 0.0800604 -0.2589729
5174500000 0.0782403 -0.2559227 0.9217597 0.2559227 0.9217597 0.2559227 0.0782403 -0.2559227
5224250000 0.0764680 -0.2529038 0.9235320 0.2529038 0.9235320 0.2529038 0.0764680 -0.2529038
5274000000 0.0747420 -0.2499158 0.9252580 0.2499158 0.9252580 0.2499158 0.0747420 -0.2499158
5323750000 0.0730610 -0.2469584 0.9269390 0.2469584 0.9269390 0.2469584 0.0730610 -0.2469584
5373500000 0.0714236 -0.2440310 0.9285764 0.2440310 0.9285764 0.2440310 0.0714236 -0.2440310
5423250000 0.0698284 -0.2411333 0.9301716 0.2411333 0.9301716 0.2411333 0.0698284 -0.2411333
5473000000 0.0682741 -0.2382650 0.9317259 0.2382650 0.9317259 0.2382650 0.0682741 -0.2382650
5522750000 0.0667596 -0.2354257 0.9332404 0.2354257 0.9332404 0.2354257 0.0667596 -0.2354257
5572500000 0.0652837 -0.2326149 0.9347163 0.2326149 0.9347163 0.2326149 0.0652837 -0.2326149
5622250000 0.0638451 -0.2298323 0.9361549 0.2298323 0.9361549 0.2298323 0.0638451 -0.2298323
5672000000 0.0624429 -0.2270775 0.9375571 0.2270775 0.9375571 0.2270775 0.0624429 -0.2270775
5721750000 0.0610759 -0.2243500 0.9389241 0.2243500 0.9389241 0.2243500 0.0610759 -0.2243500
5771500000 0.0597431 -0.2216496 0.9402569 0.2216496 0.9402569 0.2216496 0.0597431 -0.2216496
5821250000 0.0584435 -0.2189758 0.9415565 0.2189758 0.9415565 0.2189758 0.0584435 -0.2189758
5871000000 0.0571762 -0.2163282 0.9428238 0.2163282 0.9428238 0.2163282 0.0571762 -0.2163282
5920750000 0.0559403 -0.2137064 0.9440597 0.2137064 0.9440597 0.2137064 0.0559403 -0.2137064
5970500000 0.0547348 -0.2111102 0.9452652 0.2111102 0.9452652 0.2111102 0.0547348 -0.2111102
6020250000 0.0535589 -0.2085390 0.9464411 0.2085390 0.9464411 0.2085390 0.0535589 -0.2085390
6070000000 0.0524118 -0.2059926 0.9475882 0.2059926 0.9475882 0.2059926 0.0524118 -0.2059926
6119750000 0.0512927 -0.2034706 0.9487073 0.2034706 0.9487073 0.2034706 0.0512927 -0.2034706
6169500000 0.0502007 -0.2009725 0.9497993 0.2009725 0.9497993 0.2009725 0.0502007 -0.2009725
6219250000 0.0491352 -0.1984981 0.9508648 0.1984981 0.9508648 0.1984981 0.0491352 -0.1984981
6269000000 0.0480955 -0.1960470 0.9519045 0.1960470 0.9519045 0.1960470 0.0480955 -0.1960470
6318750000 0.0470807 -0.1936189 0.9529193 0.1936189 0.9529193 0.1936189 0.0470807 -0.1936189
6368500000 0.0460904 -0.1912133 0.9539096 0.1912133 0.9539096 0.1912133 0.0460904 -0.1912133
6418250000 0.0451237 -0.1888300 0.9548763 0.1888300 0.9548763 0.1888300 0.0451237 -0.1888300
6468000000 0.0441800 -0.1864686 0.9558200 0.1864686 0.9558200 0.1864686 0.0441800 -0.1864686
6517750000 0.0432589 -0.1841288 0.9567411 0.1841288 0.9567411 0.1841288 0.0432589 -0.1841288
6567500000 0.0423595 -0.1818102 0.9576405 0.1818102 0.9576405 0.1818102 0.0423595 -0.1818102
6617250000 0.0414815 -0.1795126 0.9585185 0.1795126 0.9585185 0.1795126 0.0414815 -0.1795126
6667000000 0.0406242 -0.1772356 0.9593758 0.1772356 0.9593758 0.1772356 0.0406242 -0.1772356
6716750000 0.0397872 -0.1749789 0.9602128 0.1749789 0.9602128 0.1749789 0.0397872 -0.1749789
6766500000 0.0389698 -0.1727422 0.9610302 0.1727422 0.9610302 0.1727422 0.0389698 -0.1727422
6816250000 0.0381715 -0.1705252 0.9618285 0.1705252 0.9618285 0.1705252 0.0381715 -0.1705252
6866000000 0.0373920 -0.1683276 0.9626080 0.1683276 0.9626080 0.1683276 0.0373920 -0.1683276
6915750000 0.0366307 -0.1661490 0.9633693 0.1661490 0.9633693 0.1661490 0.0366307 -0.1661490
6965500000 0.0358872 -0.1639893 0.9641128 0.1639893 0.9641128 0.1639893 0.0358872 -0.1639893
7015250000 0.0351610 -0.1618481 0.9648390 0.1618481 0.9648390 0.1618481 0.0351610 -0.1618481
7065000000 0.0344517 -0.1597251 0.9655483 0.1597251 0.9655483 0.1597251 0.0344517 -0.1597251
7114750000 0.0337588 -0.1576201 0.9662412 0.1576201 0.9662412 0.1576201 0.0337588 -0.1576201
7164500000 0.0330821 -0.1555328 0.9669179 0.1555328 0.9669179 0.1555328 0.0330821 -0.1555328
7214250000 0.0324210 -0.1534629 0.9675790 0.1534629 0.9675790 0.1534629 0.0324210 -0.1534629
7264000000 0.0317753 -0.1514101 0.9682247 0.1514101 0.9682247 0.1514101 0.0317753 -0.1514101
7313750000 0.0311445 -0.1493743 0.9688555 0.1493743 0.9688555 0.1493743 0.0311445 -0.1493743
7363500000 0.0305283 -0.1473550 0.9694717 0.1473550 0.9694717 0.1473550 0.0305283 -0.1473550
7413250000 0.0299263 -0.1453522 0.9700737 0.1453522 0.9700737 0.1453522 0.0299263 -0.1453522
7463000000 0.0293383 -0.1433656 0.9706617 0.1433656 0.9706617 0.1433656 0.0293383 -0.1433656
7512750000 0.0287639 -0.1413948 0.9712361 0.1413948 0.9712361 0.1413948 0.0287639 -0.1413948
7562500000 0.0282027 -0.1394397 0.9717973 0.1394397 0.9717973 0.1394397 0.0282027 -0.1394397
7612250000 0.0276545 -0.1375001 0.9723455 0.1375001 0.9723455 0.1375001 0.0276545 -0.1375001
7662000000 0.0271189 -0.1355756 0.9728811 0.1355756 0.9728811 0.1355756 0.0271189 -0.1355756
7711750000 0.0265958 -0.1336661 0.9734042 0.1336661 0.9734042 0.1336661 0.0265958 -0.1336661
7761500000 0.0260847 -0.1317714 0.9739153 0.1317714 0.9739153 0.1317714 0.0260847 -0.1317714
7811250000 0.0255855 -0.1298912 0.9744145 0.1298912 0.9744145 0.1298912 0.0255855 -0.1298912
7861000000 0.0250978 -0.1280254 0.9749022 0.1280254 0.9749022 0.1280254 0.0250978 -0.1280254
7910750000 0.0246215 -0.1261737 0.9753785 0.1261737 0.9753785 0.1261737 0.0246215 -0.1261737
7960500000 0.0241562 -0.1243358 0.9758438 0.1243358 0.9758438 0.1243358 0.0241562 -0.1243358
8010250000 0.0237017 -0.1225117 0.9762983 0.1225117 0.9762983 0.1225117 0.0237017 -0.1225117
8060000000 0.0232579 -0.1207011 0.9767421 0.1207011 0.9767421 0.1207011 0.0232579 -0.1207011
8109750000 0.0228243 -0.1189038 0.9771757 0.1189038 0.9771757 0.1189038 0.0228243 -0.1189038
8159500000 0.0224009 -0.1171196 0.9775991 0.1171196 0.9775991 0.1171196 0.0224009 -0.1171196
8209250000 0.0219875 -0.1153484 0.9780125 0.1153484 0.9780125 0.1153484 0.0219875 -0.1153484
8259000000 0.0215837 -0.1135898 0.9784163 0.1135898 0.9784163 0.1135898 0.0215837 -0.1135898
8308750000 0.0211895 -0.1118439 0.9788105 0.1118439 0.9788105 0.1118439 0.0211895 -0.1118439
8358500000 0.0208045 -0.1101103 0.9791955 0.1101103 0.9791955 0.1101103 0.0208045 -0.1101103
8408250000 0.0204287 -0.1083889 0.9795713 0.1083889 0.9795713 0.1083889 0.0204287 -0.1083889
8458000000 0.0200618 -0.1066796 0.9799382 0.1066796 0.9799382 0.1066796 0.0200618 -0.1066796
8507750000 0.0197036 -0.1049821 0.9802964 0.1049821 0.9802964 0.1049821 0.0197036 -0.1049821
8557500000 0.0193540 -0.1032963 0.9806460 0.1032963 0.9806460 0.1032963 0.0193540 -0.1032963
8607250000 0.0190128 -0.1016220 0.9809872 0.1016220 0.9809872 0.1016220 0.0190128 -0.1016220
8657000000 0.0186798 -0.0999591 0.9813202 0.0999591 0.9813202 0.0999591 0.0186798 -0.0999591
8706750000 0.0183549 -0.0983074 0.9816451 0.0983074 0.9816451 0.0983074 0.0183549 -0.0983074
8756500000 0.0180378 -0.0966668 0.9819622 0.0966668 0.9819622 0.0966668 0.0180378 -0.0966668
8806250000 0.0177285 -0.0950370 0.9822715 0.0950370 0.9822715 0.0950370 0.0177285 -0.0950370
8856000000 0.0174268 -0.0934180 0.9825732 0.0934180 0.9825732 0.0934180 0.0174268 -0.0934180
8905750000 0.0171326 -0.0918096 0.9828674 0.0918096 0.9828674 0.0918096 0.0171326 -0.0918096
8955500000 0.0168456 -0.0902116 0.9831544 0.0902116 0.9831544 0.0902116 0.0168456 -0.0902116
9005250000 0.0165658 -0.0886240 0.9834342 0.0886240 0.9834342 0.0886240 0.0165658 -0.0886240
9055000000 0.0162930 -0.0870465 0.9837070 0.0870465 0.9837070 0.0870465 0.0162930 -0.0870465
9104750000 0.0160272 -0.0854791 0.9839728 0.0854791 0.9839728 0.0854791 0.0160272 -0.0854791
9154500000 0.0157680 -0.0839215 0.9842320 0.0839215 0.9842320 0.0839215 0.0157680 -0.0839215
9204250000 0.0155155 -0.0823737 0.9844845 0.0823737 0.9844845 0.0823737 0.0155155 -0.0823737
9254000000 0.0152695 -0.0808356 0.9847305 0.0808356 0.9847305 0.0808356 0.0152695 -0.0808356
9303750000 0.0150300 -0.0793069 0.9849700 0.0793069 0.9849700 0.0793069 0.0150300 -0.0793069
9353500000 0.0147966 -0.0777876 0.9852034 0.0777876 0.9852034 0.0777876 0.0147966 -0.0777876
9403250000 0.0145695 -0.0762776 0.9854305 0.0762776 0.9854305 0.0762776 0.0145695 -0.0762776
9453000000 0.0143484 -0.0747767 0.9856516 0.0747767 0.9856516 0.0747767 0.0143484 -0.0747767
9502750000 0.0141332 -0.0732848 0.9858668 0.0732848 0.9858668 0.0732848 0.0141332 -0.0732848
9552500000 0.0139238 -0.0718018 0.9860762 0.0718018 0.9860762 0.0718018 0.0139238 -0.0718018
9602250000 0.0137202 -0.0703276 0.9862798 0.0703276 0.9862798 0.0703276 0.0137202 -0.0703276
9652000000 0.0135222 -0.0688620 0.9864778 0.0688620 0.9864778 0.0688620 0.0135222 -0.0688620
9701750000 0.0133298 -0.0674050 0.9866702 0.0674050 0.9866702 0.0674050 0.0133298 -0.0674050
9751500000 0.0131428 -0.0659564 0.9868572 0.0659564 0.9868572 0.0659564 0.0131428 -0.0659564
9801250000 0.0129611 -0.0645161 0.9870389 0.0645161 0.9870389 0.0645161 0.0129611 -0.0645161
9851000000 0.0127847 -0.0630841 0.9872153 0.0630841 0.9872153 0.0630841 0.0127847 -0.0630841
9900750000 0.0126134 -0.0616601 0.9873866 0.0616601 0.9873866 0.0616601 0.0126134 -0.0616601
9950500000 0.0124472 -0.0602442 0.9875528 0.0602442 0.9875528 0.0602442 0.0124472 -0.0602442
10000250000 0.0122860 -0.0588362 0.9877140 0.0588362 0.9877140 0.0588362 0.0122860 -0.0588362
10050000000 0.0121297 -0.0574360 0.9878703 0.0574360 0.9878703 0.0574360 0.0121297 -0.0574360
10099750000 0.0119782 -0.0560436 0.9880218 0.0560436 0.9880218 0.0560436 0.0119782 -0.0560436
10149500000 0.0118315 -0.0546587 0.9881685 0.0546587 0.9881685 0.0546587 0.0118315 -0.0546587
10199250000 0.0116894 -0.0532813 0.9883106 0.0532813 0.9883106 0.0532813 0.0116894 -0.0532813
10249000000 0.0115519 -0.0519114 0.9884481 0.0519114 0.9884481 0.0519114 0.0115519 -0.0519114
10298750000 0.0114190 -0.0505488 0.9885810 0.0505488 0.9885810 0.0505488 0.0114190 -0.0505488
10348500000 0.0112904 -0.0491935 0.9887096 0.0491935 0.9887096 0.0491935 0.0112904 -0.0491935
10398250000 0.0111663 -0.0478453 0.9888337 0.0478453 0.9888337 0.0478453 0.0111663 -0.0478453
10448000000 0.0110465 -0.0465042 0.9889535 0.0465042 0.9889535 0.0465042 0.0110465 -0.0465042
10497750000 0.0109309 -0.0451701 0.9890691 0.0451701 0.9890691 0.0451701 0.0109309 -0.0451701
