!Murata Part Number: GRM0115C1E360JE01
!These Parameters are Measured in Series Mode Connection
!Data Generated on Mar 30, 2021
!       o--ll--o
!Port1            Port2
!       o------o
!Operation Temp=25[degC], DC Bias Voltage=0[V]
!Freq. Start=100[MHz] Stop=9[GHz] 401[Steps]
# Hz S RI R 50
!Freq.(Hz) S11(Real) S11(Imag) S21(Real) S21(Imag) S12(Real) S12(Imag) S22(Real) S22(Imag)
100000000 0.1636036 -0.3687935 0.8363964 0.3687935 0.8363964 0.3687935 0.1636036 -0.3687935
121000000 0.1179424 -0.3211808 0.8820576 0.3211808 0.8820576 0.3211808 0.1179424 -0.3211808
142000000 0.0885771 -0.2825354 0.9114229 0.2825354 0.9114229 0.2825354 0.0885771 -0.2825354
163000000 0.0687653 -0.2512189 0.9312347 0.2512189 0.9312347 0.2512189 0.0687653 -0.2512189
184000000 0.0548447 -0.2256013 0.9451553 0.2256013 0.9451553 0.2256013 0.0548447 -0.2256013
205000000 0.0447245 -0.2043819 0.9552755 0.2043819 0.9552755 0.2043819 0.0447245 -0.2043819
226000000 0.0371536 -0.1865791 0.9628464 0.1865791 0.9628464 0.1865791 0.0371536 -0.1865791
247000000 0.0313509 -0.1714613 0.9686491 0.1714613 0.9686491 0.1714613 0.0313509 -0.1714613
268000000 0.0268104 -0.1584806 0.9731896 0.1584806 0.9731896 0.1584806 0.0268104 -0.1584806
289000000 0.0231938 -0.1472230 0.9768062 0.1472230 0.9768062 0.1472230 0.0231938 -0.1472230
310000000 0.0202681 -0.1373714 0.9797319 0.1373714 0.9797319 0.1373714 0.0202681 -0.1373714
331000000 0.0178692 -0.1286802 0.9821308 0.1286802 0.9821308 0.1286802 0.0178692 -0.1286802
352000000 0.0158785 -0.1209566 0.9841215 0.1209566 0.9841215 0.1209566 0.0158785 -0.1209566
373000000 0.0142090 -0.1140474 0.9857910 0.1140474 0.9857910 0.1140474 0.0142090 -0.1140474
394000000 0.0127957 -0.1078297 0.9872043 0.1078297 0.9872043 0.1078297 0.0127957 -0.1078297
415000000 0.0115890 -0.1022038 0.9884110 0.1022038 0.9884110 0.1022038 0.0115890 -0.1022038
436000000 0.0105508 -0.0970881 0.9894492 0.0970881 0.9894492 0.0970881 0.0105508 -0.0970881
457000000 0.0096514 -0.0924151 0.9903486 0.0924151 0.9903486 0.0924151 0.0096514 -0.0924151
478000000 0.0088674 -0.0881287 0.9911326 0.0881287 0.9911326 0.0881287 0.0088674 -0.0881287
499000000 0.0081800 -0.0841816 0.9918200 0.0841816 0.9918200 0.0841816 0.0081800 -0.0841816
520000000 0.0075742 -0.0805341 0.9924258 0.0805341 0.9924258 0.0805341 0.0075742 -0.0805341
541000000 0.0070377 -0.0771523 0.9929623 0.0771523 0.9929623 0.0771523 0.0070377 -0.0771523
562000000 0.0065605 -0.0740072 0.9934395 0.0740072 0.9934395 0.0740072 0.0065605 -0.0740072
583000000 0.0061344 -0.0710738 0.9938656 0.0710738 0.9938656 0.0710738 0.0061344 -0.0710738
604000000 0.0057524 -0.0683306 0.9942476 0.0683306 0.9942476 0.0683306 0.0057524 -0.0683306
625000000 0.0054088 -0.0657587 0.9945912 0.0657587 0.9945912 0.0657587 0.0054088 -0.0657587
646000000 0.0050987 -0.0633419 0.9949013 0.0633419 0.9949013 0.0633419 0.0050987 -0.0633419
667000000 0.0048181 -0.0610658 0.9951819 0.0610658 0.9951819 0.0610658 0.0048181 -0.0610658
688000000 0.0045634 -0.0589176 0.9954366 0.0589176 0.9954366 0.0589176 0.0045634 -0.0589176
709000000 0.0043317 -0.0568863 0.9956683 0.0568863 0.9956683 0.0568863 0.0043317 -0.0568863
730000000 0.0041205 -0.0549619 0.9958795 0.0549619 0.9958795 0.0549619 0.0041205 -0.0549619
751000000 0.0039274 -0.0531355 0.9960726 0.0531355 0.9960726 0.0531355 0.0039274 -0.0531355
772000000 0.0037506 -0.0513993 0.9962494 0.0513993 0.9962494 0.0513993 0.0037506 -0.0513993
793000000 0.0035884 -0.0497462 0.9964116 0.0497462 0.9964116 0.0497462 0.0035884 -0.0497462
814000000 0.0034393 -0.0481698 0.9965607 0.0481698 0.9965607 0.0481698 0.0034393 -0.0481698
835000000 0.0033021 -0.0466645 0.9966979 0.0466645 0.9966979 0.0466645 0.0033021 -0.0466645
856000000 0.0031756 -0.0452250 0.9968244 0.0452250 0.9968244 0.0452250 0.0031756 -0.0452250
877000000 0.0030589 -0.0438468 0.9969411 0.0438468 0.9969411 0.0438468 0.0030589 -0.0438468
898000000 0.0029511 -0.0425255 0.9970489 0.0425255 0.9970489 0.0425255 0.0029511 -0.0425255
919000000 0.0028513 -0.0412572 0.9971487 0.0412572 0.9971487 0.0412572 0.0028513 -0.0412572
940000000 0.0027589 -0.0400386 0.9972411 0.0400386 0.9972411 0.0400386 0.0027589 -0.0400386
961000000 0.0026734 -0.0388662 0.9973266 0.0388662 0.9973266 0.0388662 0.0026734 -0.0388662
982000000 0.0025940 -0.0377373 0.9974060 0.0377373 0.9974060 0.0377373 0.0025940 -0.0377373
1003000000 0.0025204 -0.0366490 0.9974796 0.0366490 0.9974796 0.0366490 0.0025204 -0.0366490
1024000000 0.0024520 -0.0355990 0.9975480 0.0355990 0.9975480 0.0355990 0.0024520 -0.0355990
1045000000 0.0023885 -0.0345849 0.9976115 0.0345849 0.9976115 0.0345849 0.0023885 -0.0345849
1066000000 0.0023295 -0.0336046 0.9976705 0.0336046 0.9976705 0.0336046 0.0023295 -0.0336046
1087000000 0.0022747 -0.0326562 0.9977253 0.0326562 0.9977253 0.0326562 0.0022747 -0.0326562
1108000000 0.0022238 -0.0317379 0.9977762 0.0317379 0.9977762 0.0317379 0.0022238 -0.0317379
1129000000 0.0021765 -0.0308480 0.9978235 0.0308480 0.9978235 0.0308480 0.0021765 -0.0308480
1150000000 0.0021326 -0.0299850 0.9978674 0.0299850 0.9978674 0.0299850 0.0021326 -0.0299850
1171000000 0.0020918 -0.0291474 0.9979082 0.0291474 0.9979082 0.0291474 0.0020918 -0.0291474
1192000000 0.0020540 -0.0283340 0.9979460 0.0283340 0.9979460 0.0283340 0.0020540 -0.0283340
1213000000 0.0020189 -0.0275434 0.9979811 0.0275434 0.9979811 0.0275434 0.0020189 -0.0275434
1234000000 0.0019864 -0.0267745 0.9980136 0.0267745 0.9980136 0.0267745 0.0019864 -0.0267745
1255000000 0.0019563 -0.0260262 0.9980437 0.0260262 0.9980437 0.0260262 0.0019563 -0.0260262
1276000000 0.0019284 -0.0252976 0.9980716 0.0252976 0.9980716 0.0252976 0.0019284 -0.0252976
1297000000 0.0019028 -0.0245876 0.9980972 0.0245876 0.9980972 0.0245876 0.0019028 -0.0245876
1318000000 0.0018791 -0.0238954 0.9981209 0.0238954 0.9981209 0.0238954 0.0018791 -0.0238954
1339000000 0.0018574 -0.0232201 0.9981426 0.0232201 0.9981426 0.0232201 0.0018574 -0.0232201
1360000000 0.0018374 -0.0225611 0.9981626 0.0225611 0.9981626 0.0225611 0.0018374 -0.0225611
1381000000 0.0018192 -0.0219175 0.9981808 0.0219175 0.9981808 0.0219175 0.0018192 -0.0219175
1402000000 0.0018025 -0.0212886 0.9981975 0.0212886 0.9981975 0.0212886 0.0018025 -0.0212886
1423000000 0.0017874 -0.0206739 0.9982126 0.0206739 0.9982126 0.0206739 0.0017874 -0.0206739
1444000000 0.0017738 -0.0200726 0.9982262 0.0200726 0.9982262 0.0200726 0.0017738 -0.0200726
1465000000 0.0017615 -0.0194843 0.9982385 0.0194843 0.9982385 0.0194843 0.0017615 -0.0194843
1486000000 0.0017506 -0.0189083 0.9982494 0.0189083 0.9982494 0.0189083 0.0017506 -0.0189083
1507000000 0.0017409 -0.0183443 0.9982591 0.0183443 0.9982591 0.0183443 0.0017409 -0.0183443
1528000000 0.0017324 -0.0177916 0.9982676 0.0177916 0.9982676 0.0177916 0.0017324 -0.0177916
1549000000 0.0017251 -0.0172498 0.9982749 0.0172498 0.9982749 0.0172498 0.0017251 -0.0172498
1570000000 0.0017189 -0.0167185 0.9982811 0.0167185 0.9982811 0.0167185 0.0017189 -0.0167185
1591000000 0.0017137 -0.0161973 0.9982863 0.0161973 0.9982863 0.0161973 0.0017137 -0.0161973
1612000000 0.0017095 -0.0156859 0.9982905 0.0156859 0.9982905 0.0156859 0.0017095 -0.0156859
1633000000 0.0017062 -0.0151837 0.9982938 0.0151837 0.9982938 0.0151837 0.0017062 -0.0151837
1654000000 0.0017039 -0.0146905 0.9982961 0.0146905 0.9982961 0.0146905 0.0017039 -0.0146905
1675000000 0.0017025 -0.0142059 0.9982975 0.0142059 0.9982975 0.0142059 0.0017025 -0.0142059
1696000000 0.0017019 -0.0137297 0.9982981 0.0137297 0.9982981 0.0137297 0.0017019 -0.0137297
1717000000 0.0017021 -0.0132614 0.9982979 0.0132614 0.9982979 0.0132614 0.0017021 -0.0132614
1738000000 0.0017031 -0.0128010 0.9982969 0.0128010 0.9982969 0.0128010 0.0017031 -0.0128010
1759000000 0.0017049 -0.0123479 0.9982951 0.0123479 0.9982951 0.0123479 0.0017049 -0.0123479
1780000000 0.0017074 -0.0119021 0.9982926 0.0119021 0.9982926 0.0119021 0.0017074 -0.0119021
1801000000 0.0017107 -0.0114632 0.9982893 0.0114632 0.9982893 0.0114632 0.0017107 -0.0114632
1822000000 0.0017146 -0.0110311 0.9982854 0.0110311 0.9982854 0.0110311 0.0017146 -0.0110311
1843000000 0.0017191 -0.0106054 0.9982809 0.0106054 0.9982809 0.0106054 0.0017191 -0.0106054
1864000000 0.0017243 -0.0101860 0.9982757 0.0101860 0.9982757 0.0101860 0.0017243 -0.0101860
1885000000 0.0017302 -0.0097726 0.9982698 0.0097726 0.9982698 0.0097726 0.0017302 -0.0097726
1906000000 0.0017366 -0.0093652 0.9982634 0.0093652 0.9982634 0.0093652 0.0017366 -0.0093652
1927000000 0.0017436 -0.0089634 0.9982564 0.0089634 0.9982564 0.0089634 0.0017436 -0.0089634
1948000000 0.0017512 -0.0085671 0.9982488 0.0085671 0.9982488 0.0085671 0.0017512 -0.0085671
1969000000 0.0017593 -0.0081762 0.9982407 0.0081762 0.9982407 0.0081762 0.0017593 -0.0081762
1990000000 0.0017680 -0.0077904 0.9982320 0.0077904 0.9982320 0.0077904 0.0017680 -0.0077904
2011000000 0.0017772 -0.0074096 0.9982228 0.0074096 0.9982228 0.0074096 0.0017772 -0.0074096
2032000000 0.0017868 -0.0070337 0.9982132 0.0070337 0.9982132 0.0070337 0.0017868 -0.0070337
2053000000 0.0017970 -0.0066625 0.9982030 0.0066625 0.9982030 0.0066625 0.0017970 -0.0066625
2074000000 0.0018077 -0.0062958 0.9981923 0.0062958 0.9981923 0.0062958 0.0018077 -0.0062958
2095000000 0.0018188 -0.0059336 0.9981812 0.0059336 0.9981812 0.0059336 0.0018188 -0.0059336
2116000000 0.0018304 -0.0055757 0.9981696 0.0055757 0.9981696 0.0055757 0.0018304 -0.0055757
2137000000 0.0018424 -0.0052220 0.9981576 0.0052220 0.9981576 0.0052220 0.0018424 -0.0052220
2158000000 0.0018549 -0.0048723 0.9981451 0.0048723 0.9981451 0.0048723 0.0018549 -0.0048723
2179000000 0.0018678 -0.0045266 0.9981322 0.0045266 0.9981322 0.0045266 0.0018678 -0.0045266
2200000000 0.0018811 -0.0041847 0.9981189 0.0041847 0.9981189 0.0041847 0.0018811 -0.0041847
2221000000 0.0018948 -0.0038466 0.9981052 0.0038466 0.9981052 0.0038466 0.0018948 -0.0038466
2242000000 0.0019089 -0.0035121 0.9980911 0.0035121 0.9980911 0.0035121 0.0019089 -0.0035121
2263000000 0.0019234 -0.0031811 0.9980766 0.0031811 0.9980766 0.0031811 0.0019234 -0.0031811
2284000000 0.0019383 -0.0028536 0.9980617 0.0028536 0.9980617 0.0028536 0.0019383 -0.0028536
2305000000 0.0019535 -0.0025294 0.9980465 0.0025294 0.9980465 0.0025294 0.0019535 -0.0025294
2326000000 0.0019691 -0.0022084 0.9980309 0.0022084 0.9980309 0.0022084 0.0019691 -0.0022084
2347000000 0.0019851 -0.0018907 0.9980149 0.0018907 0.9980149 0.0018907 0.0019851 -0.0018907
2368000000 0.0020014 -0.0015760 0.9979986 0.0015760 0.9979986 0.0015760 0.0020014 -0.0015760
2389000000 0.0020181 -0.0012644 0.9979819 0.0012644 0.9979819 0.0012644 0.0020181 -0.0012644
2410000000 0.0020351 -0.0009557 0.9979649 0.0009557 0.9979649 0.0009557 0.0020351 -0.0009557
2431000000 0.0020525 -0.0006499 0.9979475 0.0006499 0.9979475 0.0006499 0.0020525 -0.0006499
2452000000 0.0020702 -0.0003469 0.9979298 0.0003469 0.9979298 0.0003469 0.0020702 -0.0003469
2473000000 0.0020882 -0.0000466 0.9979118 0.0000466 0.9979118 0.0000466 0.0020882 -0.0000466
2494000000 0.0021065 0.0002511 0.9978935 -0.0002511 0.9978935 -0.0002511 0.0021065 0.0002511
2515000000 0.0021251 0.0005461 0.9978749 -0.0005461 0.9978749 -0.0005461 0.0021251 0.0005461
2536000000 0.0021441 0.0008386 0.9978559 -0.0008386 0.9978559 -0.0008386 0.0021441 0.0008386
2557000000 0.0021633 0.0011286 0.9978367 -0.0011286 0.9978367 -0.0011286 0.0021633 0.0011286
2578000000 0.0021829 0.0014162 0.9978171 -0.0014162 0.9978171 -0.0014162 0.0021829 0.0014162
2599000000 0.0022027 0.0017015 0.9977973 -0.0017015 0.9977973 -0.0017015 0.0022027 0.0017015
2620000000 0.0022229 0.0019844 0.9977771 -0.0019844 0.9977771 -0.0019844 0.0022229 0.0019844
2641000000 0.0022433 0.0022650 0.9977567 -0.0022650 0.9977567 -0.0022650 0.0022433 0.0022650
2662000000 0.0022640 0.0025435 0.9977360 -0.0025435 0.9977360 -0.0025435 0.0022640 0.0025435
2683000000 0.0022850 0.0028198 0.9977150 -0.0028198 0.9977150 -0.0028198 0.0022850 0.0028198
2704000000 0.0023062 0.0030940 0.9976938 -0.0030940 0.9976938 -0.0030940 0.0023062 0.0030940
2725000000 0.0023277 0.0033661 0.9976723 -0.0033661 0.9976723 -0.0033661 0.0023277 0.0033661
2746000000 0.0023495 0.0036362 0.9976505 -0.0036362 0.9976505 -0.0036362 0.0023495 0.0036362
2767000000 0.0023716 0.0039043 0.9976284 -0.0039043 0.9976284 -0.0039043 0.0023716 0.0039043
2788000000 0.0023939 0.0041704 0.9976061 -0.0041704 0.9976061 -0.0041704 0.0023939 0.0041704
2809000000 0.0024165 0.0044347 0.9975835 -0.0044347 0.9975835 -0.0044347 0.0024165 0.0044347
2830000000 0.0024393 0.0046971 0.9975607 -0.0046971 0.9975607 -0.0046971 0.0024393 0.0046971
2851000000 0.0024624 0.0049577 0.9975376 -0.0049577 0.9975376 -0.0049577 0.0024624 0.0049577
2872000000 0.0024857 0.0052166 0.9975143 -0.0052166 0.9975143 -0.0052166 0.0024857 0.0052166
2893000000 0.0025093 0.0054736 0.9974907 -0.0054736 0.9974907 -0.0054736 0.0025093 0.0054736
2914000000 0.0025332 0.0057290 0.9974668 -0.0057290 0.9974668 -0.0057290 0.0025332 0.0057290
2935000000 0.0025572 0.0059827 0.9974428 -0.0059827 0.9974428 -0.0059827 0.0025572 0.0059827
2956000000 0.0025815 0.0062347 0.9974185 -0.0062347 0.9974185 -0.0062347 0.0025815 0.0062347
2977000000 0.0026061 0.0064851 0.9973939 -0.0064851 0.9973939 -0.0064851 0.0026061 0.0064851
2998000000 0.0026308 0.0067339 0.9973692 -0.0067339 0.9973692 -0.0067339 0.0026308 0.0067339
3019000000 0.0026558 0.0069812 0.9973442 -0.0069812 0.9973442 -0.0069812 0.0026558 0.0069812
3040000000 0.0026811 0.0072270 0.9973189 -0.0072270 0.9973189 -0.0072270 0.0026811 0.0072270
3061000000 0.0027065 0.0074713 0.9972935 -0.0074713 0.9972935 -0.0074713 0.0027065 0.0074713
3082000000 0.0027322 0.0077141 0.9972678 -0.0077141 0.9972678 -0.0077141 0.0027322 0.0077141
3103000000 0.0027581 0.0079554 0.9972419 -0.0079554 0.9972419 -0.0079554 0.0027581 0.0079554
3124000000 0.0027843 0.0081954 0.9972157 -0.0081954 0.9972157 -0.0081954 0.0027843 0.0081954
3145000000 0.0028106 0.0084339 0.9971894 -0.0084339 0.9971894 -0.0084339 0.0028106 0.0084339
3166000000 0.0028372 0.0086711 0.9971628 -0.0086711 0.9971628 -0.0086711 0.0028372 0.0086711
3187000000 0.0028639 0.0089070 0.9971361 -0.0089070 0.9971361 -0.0089070 0.0028639 0.0089070
3208000000 0.0028909 0.0091415 0.9971091 -0.0091415 0.9971091 -0.0091415 0.0028909 0.0091415
3229000000 0.0029181 0.0093748 0.9970819 -0.0093748 0.9970819 -0.0093748 0.0029181 0.0093748
3250000000 0.0029455 0.0096068 0.9970545 -0.0096068 0.9970545 -0.0096068 0.0029455 0.0096068
3271000000 0.0029731 0.0098375 0.9970269 -0.0098375 0.9970269 -0.0098375 0.0029731 0.0098375
3292000000 0.0030010 0.0100670 0.9969990 -0.0100670 0.9969990 -0.0100670 0.0030010 0.0100670
3313000000 0.0030290 0.0102953 0.9969710 -0.0102953 0.9969710 -0.0102953 0.0030290 0.0102953
3334000000 0.0030572 0.0105224 0.9969428 -0.0105224 0.9969428 -0.0105224 0.0030572 0.0105224
3355000000 0.0030856 0.0107484 0.9969144 -0.0107484 0.9969144 -0.0107484 0.0030856 0.0107484
3376000000 0.0031142 0.0109732 0.9968858 -0.0109732 0.9968858 -0.0109732 0.0031142 0.0109732
3397000000 0.0031431 0.0111969 0.9968569 -0.0111969 0.9968569 -0.0111969 0.0031431 0.0111969
3418000000 0.0031721 0.0114194 0.9968279 -0.0114194 0.9968279 -0.0114194 0.0031721 0.0114194
3439000000 0.0032013 0.0116409 0.9967987 -0.0116409 0.9967987 -0.0116409 0.0032013 0.0116409
3460000000 0.0032307 0.0118613 0.9967693 -0.0118613 0.9967693 -0.0118613 0.0032307 0.0118613
3481000000 0.0032603 0.0120806 0.9967397 -0.0120806 0.9967397 -0.0120806 0.0032603 0.0120806
3502000000 0.0032900 0.0122989 0.9967100 -0.0122989 0.9967100 -0.0122989 0.0032900 0.0122989
3523000000 0.0033200 0.0125161 0.9966800 -0.0125161 0.9966800 -0.0125161 0.0033200 0.0125161
3544000000 0.0033501 0.0127324 0.9966499 -0.0127324 0.9966499 -0.0127324 0.0033501 0.0127324
3565000000 0.0033805 0.0129476 0.9966195 -0.0129476 0.9966195 -0.0129476 0.0033805 0.0129476
3586000000 0.0034110 0.0131619 0.9965890 -0.0131619 0.9965890 -0.0131619 0.0034110 0.0131619
3607000000 0.0034417 0.0133752 0.9965583 -0.0133752 0.9965583 -0.0133752 0.0034417 0.0133752
3628000000 0.0034726 0.0135876 0.9965274 -0.0135876 0.9965274 -0.0135876 0.0034726 0.0135876
3649000000 0.0035036 0.0137990 0.9964964 -0.0137990 0.9964964 -0.0137990 0.0035036 0.0137990
3670000000 0.0035349 0.0140095 0.9964651 -0.0140095 0.9964651 -0.0140095 0.0035349 0.0140095
3691000000 0.0035663 0.0142190 0.9964337 -0.0142190 0.9964337 -0.0142190 0.0035663 0.0142190
3712000000 0.0035979 0.0144277 0.9964021 -0.0144277 0.9964021 -0.0144277 0.0035979 0.0144277
3733000000 0.0036297 0.0146355 0.9963703 -0.0146355 0.9963703 -0.0146355 0.0036297 0.0146355
3754000000 0.0036616 0.0148424 0.9963384 -0.0148424 0.9963384 -0.0148424 0.0036616 0.0148424
3775000000 0.0036937 0.0150485 0.9963063 -0.0150485 0.9963063 -0.0150485 0.0036937 0.0150485
3796000000 0.0037260 0.0152537 0.9962740 -0.0152537 0.9962740 -0.0152537 0.0037260 0.0152537
3817000000 0.0037584 0.0154580 0.9962416 -0.0154580 0.9962416 -0.0154580 0.0037584 0.0154580
3838000000 0.0037911 0.0156616 0.9962089 -0.0156616 0.9962089 -0.0156616 0.0037911 0.0156616
3859000000 0.0038238 0.0158643 0.9961762 -0.0158643 0.9961762 -0.0158643 0.0038238 0.0158643
3880000000 0.0038568 0.0160662 0.9961432 -0.0160662 0.9961432 -0.0160662 0.0038568 0.0160662
3901000000 0.0038899 0.0162673 0.9961101 -0.0162673 0.9961101 -0.0162673 0.0038899 0.0162673
3922000000 0.0039232 0.0164676 0.9960768 -0.0164676 0.9960768 -0.0164676 0.0039232 0.0164676
3943000000 0.0039566 0.0166672 0.9960434 -0.0166672 0.9960434 -0.0166672 0.0039566 0.0166672
3964000000 0.0039902 0.0168660 0.9960098 -0.0168660 0.9960098 -0.0168660 0.0039902 0.0168660
3985000000 0.0040240 0.0170640 0.9959760 -0.0170640 0.9959760 -0.0170640 0.0040240 0.0170640
4006000000 0.0040579 0.0172613 0.9959421 -0.0172613 0.9959421 -0.0172613 0.0040579 0.0172613
4027000000 0.0040920 0.0174578 0.9959080 -0.0174578 0.9959080 -0.0174578 0.0040920 0.0174578
4048000000 0.0041262 0.0176537 0.9958738 -0.0176537 0.9958738 -0.0176537 0.0041262 0.0176537
4069000000 0.0041606 0.0178488 0.9958394 -0.0178488 0.9958394 -0.0178488 0.0041606 0.0178488
4090000000 0.0041952 0.0180432 0.9958048 -0.0180432 0.9958048 -0.0180432 0.0041952 0.0180432
4111000000 0.0042299 0.0182368 0.9957701 -0.0182368 0.9957701 -0.0182368 0.0042299 0.0182368
4132000000 0.0042647 0.0184298 0.9957353 -0.0184298 0.9957353 -0.0184298 0.0042647 0.0184298
4153000000 0.0042997 0.0186221 0.9957003 -0.0186221 0.9957003 -0.0186221 0.0042997 0.0186221
4174000000 0.0043349 0.0188138 0.9956651 -0.0188138 0.9956651 -0.0188138 0.0043349 0.0188138
4195000000 0.0043702 0.0190047 0.9956298 -0.0190047 0.9956298 -0.0190047 0.0043702 0.0190047
4216000000 0.0044057 0.0191950 0.9955943 -0.0191950 0.9955943 -0.0191950 0.0044057 0.0191950
4237000000 0.0044413 0.0193847 0.9955587 -0.0193847 0.9955587 -0.0193847 0.0044413 0.0193847
4258000000 0.0044770 0.0195737 0.9955230 -0.0195737 0.9955230 -0.0195737 0.0044770 0.0195737
4279000000 0.0045129 0.0197620 0.9954871 -0.0197620 0.9954871 -0.0197620 0.0045129 0.0197620
4300000000 0.0045490 0.0199497 0.9954510 -0.0199497 0.9954510 -0.0199497 0.0045490 0.0199497
4321000000 0.0045852 0.0201368 0.9954148 -0.0201368 0.9954148 -0.0201368 0.0045852 0.0201368
4342000000 0.0046215 0.0203233 0.9953785 -0.0203233 0.9953785 -0.0203233 0.0046215 0.0203233
4363000000 0.0046580 0.0205092 0.9953420 -0.0205092 0.9953420 -0.0205092 0.0046580 0.0205092
4384000000 0.0046946 0.0206944 0.9953054 -0.0206944 0.9953054 -0.0206944 0.0046946 0.0206944
4405000000 0.0047313 0.0208791 0.9952687 -0.0208791 0.9952687 -0.0208791 0.0047313 0.0208791
4426000000 0.0047682 0.0210631 0.9952318 -0.0210631 0.9952318 -0.0210631 0.0047682 0.0210631
4447000000 0.0048053 0.0212466 0.9951947 -0.0212466 0.9951947 -0.0212466 0.0048053 0.0212466
4468000000 0.0048424 0.0214295 0.9951576 -0.0214295 0.9951576 -0.0214295 0.0048424 0.0214295
4489000000 0.0048797 0.0216118 0.9951203 -0.0216118 0.9951203 -0.0216118 0.0048797 0.0216118
4510000000 0.0049172 0.0217936 0.9950828 -0.0217936 0.9950828 -0.0217936 0.0049172 0.0217936
