!Murata Part Number: GRM0115C1E9R1BE01
!These Parameters are Measured in Series Mode Connection
!Data Generated on Mar 30, 2021
!       o--ll--o
!Port1            Port2
!       o------o
!Operation Temp=25[degC], DC Bias Voltage=0[V]
!Freq. Start=100[MHz] Stop=9[GHz] 401[Steps]
# Hz S RI R 50
!Freq.(Hz) S11(Real) S11(Imag) S21(Real) S21(Imag) S12(Real) S12(Imag) S22(Real) S22(Imag)
100000000 0.7533045 -0.4307351 0.2466955 0.4307351 0.2466955 0.4307351 0.7533045 -0.4307351
121000000 0.6758678 -0.4676223 0.3241322 0.4676223 0.3241322 0.4676223 0.6758678 -0.4676223
142000000 0.6021670 -0.4889483 0.3978330 0.4889483 0.3978330 0.4889483 0.6021670 -0.4889483
163000000 0.5345307 -0.4982286 0.4654693 0.4982286 0.4654693 0.4982286 0.5345307 -0.4982286
184000000 0.4739280 -0.4986666 0.5260720 0.4986666 0.5260720 0.4986666 0.4739280 -0.4986666
205000000 0.4204496 -0.4929019 0.5795504 0.4929019 0.5795504 0.4929019 0.4204496 -0.4929019
226000000 0.3736908 -0.4829771 0.6263092 0.4829771 0.6263092 0.4829771 0.3736908 -0.4829771
247000000 0.3330105 -0.4704073 0.6669895 0.4704073 0.6669895 0.4704073 0.3330105 -0.4704073
268000000 0.2976913 -0.4562824 0.7023087 0.4562824 0.7023087 0.4562824 0.2976913 -0.4562824
289000000 0.2670282 -0.4413682 0.7329718 0.4413682 0.7329718 0.4413682 0.2670282 -0.4413682
310000000 0.2403721 -0.4261914 0.7596279 0.4261914 0.7596279 0.4261914 0.2403721 -0.4261914
331000000 0.2171475 -0.4111061 0.7828525 0.4111061 0.7828525 0.4111061 0.2171475 -0.4111061
352000000 0.1968555 -0.3963439 0.8031445 0.3963439 0.8031445 0.3963439 0.1968555 -0.3963439
373000000 0.1790691 -0.3820505 0.8209309 0.3820505 0.8209309 0.3820505 0.1790691 -0.3820505
394000000 0.1634258 -0.3683118 0.8365742 0.3683118 0.8365742 0.3683118 0.1634258 -0.3683118
415000000 0.1496193 -0.3551728 0.8503807 0.3551728 0.8503807 0.3551728 0.1496193 -0.3551728
436000000 0.1373911 -0.3426506 0.8626089 0.3426506 0.8626089 0.3426506 0.1373911 -0.3426506
457000000 0.1265231 -0.3307436 0.8734769 0.3307436 0.8734769 0.3307436 0.1265231 -0.3307436
478000000 0.1168310 -0.3194382 0.8831690 0.3194382 0.8831690 0.3194382 0.1168310 -0.3194382
499000000 0.1081589 -0.3087132 0.8918411 0.3087132 0.8918411 0.3087132 0.1081589 -0.3087132
520000000 0.1003746 -0.2985426 0.8996254 0.2985426 0.8996254 0.2985426 0.1003746 -0.2985426
541000000 0.0933656 -0.2888983 0.9066344 0.2888983 0.9066344 0.2888983 0.0933656 -0.2888983
562000000 0.0870360 -0.2797513 0.9129640 0.2797513 0.9129640 0.2797513 0.0870360 -0.2797513
583000000 0.0813037 -0.2710723 0.9186963 0.2710723 0.9186963 0.2710723 0.0813037 -0.2710723
604000000 0.0760982 -0.2628331 0.9239018 0.2628331 0.9239018 0.2628331 0.0760982 -0.2628331
625000000 0.0713587 -0.2550064 0.9286413 0.2550064 0.9286413 0.2550064 0.0713587 -0.2550064
646000000 0.0670327 -0.2475660 0.9329673 0.2475660 0.9329673 0.2475660 0.0670327 -0.2475660
667000000 0.0630749 -0.2404875 0.9369251 0.2404875 0.9369251 0.2404875 0.0630749 -0.2404875
688000000 0.0594456 -0.2337478 0.9405544 0.2337478 0.9405544 0.2337478 0.0594456 -0.2337478
709000000 0.0561104 -0.2273253 0.9438896 0.2273253 0.9438896 0.2273253 0.0561104 -0.2273253
730000000 0.0530390 -0.2212000 0.9469610 0.2212000 0.9469610 0.2212000 0.0530390 -0.2212000
751000000 0.0502050 -0.2153529 0.9497950 0.2153529 0.9497950 0.2153529 0.0502050 -0.2153529
772000000 0.0475851 -0.2097669 0.9524149 0.2097669 0.9524149 0.2097669 0.0475851 -0.2097669
793000000 0.0451587 -0.2044256 0.9548413 0.2044256 0.9548413 0.2044256 0.0451587 -0.2044256
814000000 0.0429076 -0.1993140 0.9570924 0.1993140 0.9570924 0.1993140 0.0429076 -0.1993140
835000000 0.0408156 -0.1944182 0.9591844 0.1944182 0.9591844 0.1944182 0.0408156 -0.1944182
856000000 0.0388686 -0.1897253 0.9611314 0.1897253 0.9611314 0.1897253 0.0388686 -0.1897253
877000000 0.0370535 -0.1852233 0.9629465 0.1852233 0.9629465 0.1852233 0.0370535 -0.1852233
898000000 0.0353591 -0.1809009 0.9646409 0.1809009 0.9646409 0.1809009 0.0353591 -0.1809009
919000000 0.0337751 -0.1767480 0.9662249 0.1767480 0.9662249 0.1767480 0.0337751 -0.1767480
940000000 0.0322922 -0.1727547 0.9677078 0.1727547 0.9677078 0.1727547 0.0322922 -0.1727547
961000000 0.0309023 -0.1689122 0.9690977 0.1689122 0.9690977 0.1689122 0.0309023 -0.1689122
982000000 0.0295980 -0.1652121 0.9704020 0.1652121 0.9704020 0.1652121 0.0295980 -0.1652121
1003000000 0.0283724 -0.1616467 0.9716276 0.1616467 0.9716276 0.1616467 0.0283724 -0.1616467
1024000000 0.0272195 -0.1582088 0.9727805 0.1582088 0.9727805 0.1582088 0.0272195 -0.1582088
1045000000 0.0261339 -0.1548915 0.9738661 0.1548915 0.9738661 0.1548915 0.0261339 -0.1548915
1066000000 0.0251104 -0.1516886 0.9748896 0.1516886 0.9748896 0.1516886 0.0251104 -0.1516886
1087000000 0.0241446 -0.1485942 0.9758554 0.1485942 0.9758554 0.1485942 0.0241446 -0.1485942
1108000000 0.0232323 -0.1456028 0.9767677 0.1456028 0.9767677 0.1456028 0.0232323 -0.1456028
1129000000 0.0223698 -0.1427092 0.9776302 0.1427092 0.9776302 0.1427092 0.0223698 -0.1427092
1150000000 0.0215535 -0.1399087 0.9784465 0.1399087 0.9784465 0.1399087 0.0215535 -0.1399087
1171000000 0.0207804 -0.1371966 0.9792196 0.1371966 0.9792196 0.1371966 0.0207804 -0.1371966
1192000000 0.0200475 -0.1345688 0.9799525 0.1345688 0.9799525 0.1345688 0.0200475 -0.1345688
1213000000 0.0193521 -0.1320213 0.9806479 0.1320213 0.9806479 0.1320213 0.0193521 -0.1320213
1234000000 0.0186919 -0.1295503 0.9813081 0.1295503 0.9813081 0.1295503 0.0186919 -0.1295503
1255000000 0.0180645 -0.1271524 0.9819355 0.1271524 0.9819355 0.1271524 0.0180645 -0.1271524
1276000000 0.0174679 -0.1248241 0.9825321 0.1248241 0.9825321 0.1248241 0.0174679 -0.1248241
1297000000 0.0169002 -0.1225624 0.9830998 0.1225624 0.9830998 0.1225624 0.0169002 -0.1225624
1318000000 0.0163596 -0.1203643 0.9836404 0.1203643 0.9836404 0.1203643 0.0163596 -0.1203643
1339000000 0.0158444 -0.1182271 0.9841556 0.1182271 0.9841556 0.1182271 0.0158444 -0.1182271
1360000000 0.0153533 -0.1161482 0.9846467 0.1161482 0.9846467 0.1161482 0.0153533 -0.1161482
1381000000 0.0148846 -0.1141250 0.9851154 0.1141250 0.9851154 0.1141250 0.0148846 -0.1141250
1402000000 0.0144372 -0.1121553 0.9855628 0.1121553 0.9855628 0.1121553 0.0144372 -0.1121553
1423000000 0.0140099 -0.1102368 0.9859901 0.1102368 0.9859901 0.1102368 0.0140099 -0.1102368
1444000000 0.0136015 -0.1083674 0.9863985 0.1083674 0.9863985 0.1083674 0.0136015 -0.1083674
1465000000 0.0132109 -0.1065452 0.9867891 0.1065452 0.9867891 0.1065452 0.0132109 -0.1065452
1486000000 0.0128372 -0.1047683 0.9871628 0.1047683 0.9871628 0.1047683 0.0128372 -0.1047683
1507000000 0.0124795 -0.1030349 0.9875205 0.1030349 0.9875205 0.1030349 0.0124795 -0.1030349
1528000000 0.0121369 -0.1013433 0.9878631 0.1013433 0.9878631 0.1013433 0.0121369 -0.1013433
1549000000 0.0118086 -0.0996919 0.9881914 0.0996919 0.9881914 0.0996919 0.0118086 -0.0996919
1570000000 0.0114939 -0.0980792 0.9885061 0.0980792 0.9885061 0.0980792 0.0114939 -0.0980792
1591000000 0.0111920 -0.0965037 0.9888080 0.0965037 0.9888080 0.0965037 0.0111920 -0.0965037
1612000000 0.0109024 -0.0949640 0.9890976 0.0949640 0.9890976 0.0949640 0.0109024 -0.0949640
1633000000 0.0106245 -0.0934589 0.9893755 0.0934589 0.9893755 0.0934589 0.0106245 -0.0934589
1654000000 0.0103575 -0.0919871 0.9896425 0.0919871 0.9896425 0.0919871 0.0103575 -0.0919871
1675000000 0.0101011 -0.0905474 0.9898989 0.0905474 0.9898989 0.0905474 0.0101011 -0.0905474
1696000000 0.0098546 -0.0891386 0.9901454 0.0891386 0.9901454 0.0891386 0.0098546 -0.0891386
1717000000 0.0096177 -0.0877597 0.9903823 0.0877597 0.9903823 0.0877597 0.0096177 -0.0877597
1738000000 0.0093898 -0.0864097 0.9906102 0.0864097 0.9906102 0.0864097 0.0093898 -0.0864097
1759000000 0.0091706 -0.0850875 0.9908294 0.0850875 0.9908294 0.0850875 0.0091706 -0.0850875
1780000000 0.0089596 -0.0837922 0.9910404 0.0837922 0.9910404 0.0837922 0.0089596 -0.0837922
1801000000 0.0087565 -0.0825230 0.9912435 0.0825230 0.9912435 0.0825230 0.0087565 -0.0825230
1822000000 0.0085609 -0.0812788 0.9914391 0.0812788 0.9914391 0.0812788 0.0085609 -0.0812788
1843000000 0.0083724 -0.0800591 0.9916276 0.0800591 0.9916276 0.0800591 0.0083724 -0.0800591
1864000000 0.0081909 -0.0788628 0.9918091 0.0788628 0.9918091 0.0788628 0.0081909 -0.0788628
1885000000 0.0080158 -0.0776893 0.9919842 0.0776893 0.9919842 0.0776893 0.0080158 -0.0776893
1906000000 0.0078471 -0.0765379 0.9921529 0.0765379 0.9921529 0.0765379 0.0078471 -0.0765379
1927000000 0.0076844 -0.0754078 0.9923156 0.0754078 0.9923156 0.0754078 0.0076844 -0.0754078
1948000000 0.0075274 -0.0742985 0.9924726 0.0742985 0.9924726 0.0742985 0.0075274 -0.0742985
1969000000 0.0073759 -0.0732092 0.9926241 0.0732092 0.9926241 0.0732092 0.0073759 -0.0732092
1990000000 0.0072297 -0.0721393 0.9927703 0.0721393 0.9927703 0.0721393 0.0072297 -0.0721393
2011000000 0.0070886 -0.0710883 0.9929114 0.0710883 0.9929114 0.0710883 0.0070886 -0.0710883
2032000000 0.0069523 -0.0700556 0.9930477 0.0700556 0.9930477 0.0700556 0.0069523 -0.0700556
2053000000 0.0068207 -0.0690406 0.9931793 0.0690406 0.9931793 0.0690406 0.0068207 -0.0690406
2074000000 0.0066936 -0.0680429 0.9933064 0.0680429 0.9933064 0.0680429 0.0066936 -0.0680429
2095000000 0.0065708 -0.0670619 0.9934292 0.0670619 0.9934292 0.0670619 0.0065708 -0.0670619
2116000000 0.0064521 -0.0660971 0.9935479 0.0660971 0.9935479 0.0660971 0.0064521 -0.0660971
2137000000 0.0063373 -0.0651482 0.9936627 0.0651482 0.9936627 0.0651482 0.0063373 -0.0651482
2158000000 0.0062264 -0.0642145 0.9937736 0.0642145 0.9937736 0.0642145 0.0062264 -0.0642145
2179000000 0.0061192 -0.0632958 0.9938808 0.0632958 0.9938808 0.0632958 0.0061192 -0.0632958
2200000000 0.0060155 -0.0623915 0.9939845 0.0623915 0.9939845 0.0623915 0.0060155 -0.0623915
2221000000 0.0059152 -0.0615013 0.9940848 0.0615013 0.9940848 0.0615013 0.0059152 -0.0615013
2242000000 0.0058181 -0.0606248 0.9941819 0.0606248 0.9941819 0.0606248 0.0058181 -0.0606248
2263000000 0.0057243 -0.0597617 0.9942757 0.0597617 0.9942757 0.0597617 0.0057243 -0.0597617
2284000000 0.0056334 -0.0589116 0.9943666 0.0589116 0.9943666 0.0589116 0.0056334 -0.0589116
2305000000 0.0055455 -0.0580740 0.9944545 0.0580740 0.9944545 0.0580740 0.0055455 -0.0580740
2326000000 0.0054605 -0.0572488 0.9945395 0.0572488 0.9945395 0.0572488 0.0054605 -0.0572488
2347000000 0.0053781 -0.0564355 0.9946219 0.0564355 0.9946219 0.0564355 0.0053781 -0.0564355
2368000000 0.0052984 -0.0556339 0.9947016 0.0556339 0.9947016 0.0556339 0.0052984 -0.0556339
2389000000 0.0052212 -0.0548437 0.9947788 0.0548437 0.9947788 0.0548437 0.0052212 -0.0548437
2410000000 0.0051465 -0.0540645 0.9948535 0.0540645 0.9948535 0.0540645 0.0051465 -0.0540645
2431000000 0.0050741 -0.0532962 0.9949259 0.0532962 0.9949259 0.0532962 0.0050741 -0.0532962
2452000000 0.0050040 -0.0525383 0.9949960 0.0525383 0.9949960 0.0525383 0.0050040 -0.0525383
2473000000 0.0049362 -0.0517907 0.9950638 0.0517907 0.9950638 0.0517907 0.0049362 -0.0517907
2494000000 0.0048704 -0.0510531 0.9951296 0.0510531 0.9951296 0.0510531 0.0048704 -0.0510531
2515000000 0.0048068 -0.0503253 0.9951932 0.0503253 0.9951932 0.0503253 0.0048068 -0.0503253
2536000000 0.0047451 -0.0496070 0.9952549 0.0496070 0.9952549 0.0496070 0.0047451 -0.0496070
2557000000 0.0046854 -0.0488980 0.9953146 0.0488980 0.9953146 0.0488980 0.0046854 -0.0488980
2578000000 0.0046275 -0.0481981 0.9953725 0.0481981 0.9953725 0.0481981 0.0046275 -0.0481981
2599000000 0.0045715 -0.0475070 0.9954285 0.0475070 0.9954285 0.0475070 0.0045715 -0.0475070
2620000000 0.0045172 -0.0468246 0.9954828 0.0468246 0.9954828 0.0468246 0.0045172 -0.0468246
2641000000 0.0044646 -0.0461506 0.9955354 0.0461506 0.9955354 0.0461506 0.0044646 -0.0461506
2662000000 0.0044137 -0.0454849 0.9955863 0.0454849 0.9955863 0.0454849 0.0044137 -0.0454849
2683000000 0.0043643 -0.0448272 0.9956357 0.0448272 0.9956357 0.0448272 0.0043643 -0.0448272
2704000000 0.0043165 -0.0441774 0.9956835 0.0441774 0.9956835 0.0441774 0.0043165 -0.0441774
2725000000 0.0042702 -0.0435353 0.9957298 0.0435353 0.9957298 0.0435353 0.0042702 -0.0435353
2746000000 0.0042254 -0.0429007 0.9957746 0.0429007 0.9957746 0.0429007 0.0042254 -0.0429007
2767000000 0.0041819 -0.0422735 0.9958181 0.0422735 0.9958181 0.0422735 0.0041819 -0.0422735
2788000000 0.0041398 -0.0416534 0.9958602 0.0416534 0.9958602 0.0416534 0.0041398 -0.0416534
2809000000 0.0040991 -0.0410404 0.9959009 0.0410404 0.9959009 0.0410404 0.0040991 -0.0410404
2830000000 0.0040597 -0.0404343 0.9959403 0.0404343 0.9959403 0.0404343 0.0040597 -0.0404343
2851000000 0.0040215 -0.0398349 0.9959785 0.0398349 0.9959785 0.0398349 0.0040215 -0.0398349
2872000000 0.0039845 -0.0392420 0.9960155 0.0392420 0.9960155 0.0392420 0.0039845 -0.0392420
2893000000 0.0039487 -0.0386556 0.9960513 0.0386556 0.9960513 0.0386556 0.0039487 -0.0386556
2914000000 0.0039140 -0.0380756 0.9960860 0.0380756 0.9960860 0.0380756 0.0039140 -0.0380756
2935000000 0.0038805 -0.0375016 0.9961195 0.0375016 0.9961195 0.0375016 0.0038805 -0.0375016
2956000000 0.0038481 -0.0369338 0.9961519 0.0369338 0.9961519 0.0369338 0.0038481 -0.0369338
2977000000 0.0038167 -0.0363718 0.9961833 0.0363718 0.9961833 0.0363718 0.0038167 -0.0363718
2998000000 0.0037863 -0.0358156 0.9962137 0.0358156 0.9962137 0.0358156 0.0037863 -0.0358156
3019000000 0.0037570 -0.0352651 0.9962430 0.0352651 0.9962430 0.0352651 0.0037570 -0.0352651
3040000000 0.0037286 -0.0347202 0.9962714 0.0347202 0.9962714 0.0347202 0.0037286 -0.0347202
3061000000 0.0037011 -0.0341807 0.9962989 0.0341807 0.9962989 0.0341807 0.0037011 -0.0341807
3082000000 0.0036746 -0.0336465 0.9963254 0.0336465 0.9963254 0.0336465 0.0036746 -0.0336465
3103000000 0.0036490 -0.0331176 0.9963510 0.0331176 0.9963510 0.0331176 0.0036490 -0.0331176
3124000000 0.0036243 -0.0325937 0.9963757 0.0325937 0.9963757 0.0325937 0.0036243 -0.0325937
3145000000 0.0036004 -0.0320749 0.9963996 0.0320749 0.9963996 0.0320749 0.0036004 -0.0320749
3166000000 0.0035774 -0.0315610 0.9964226 0.0315610 0.9964226 0.0315610 0.0035774 -0.0315610
3187000000 0.0035551 -0.0310520 0.9964449 0.0310520 0.9964449 0.0310520 0.0035551 -0.0310520
3208000000 0.0035337 -0.0305476 0.9964663 0.0305476 0.9964663 0.0305476 0.0035337 -0.0305476
3229000000 0.0035130 -0.0300480 0.9964870 0.0300480 0.9964870 0.0300480 0.0035130 -0.0300480
3250000000 0.0034931 -0.0295528 0.9965069 0.0295528 0.9965069 0.0295528 0.0034931 -0.0295528
3271000000 0.0034739 -0.0290621 0.9965261 0.0290621 0.9965261 0.0290621 0.0034739 -0.0290621
3292000000 0.0034554 -0.0285758 0.9965446 0.0285758 0.9965446 0.0285758 0.0034554 -0.0285758
3313000000 0.0034376 -0.0280938 0.9965624 0.0280938 0.9965624 0.0280938 0.0034376 -0.0280938
3334000000 0.0034206 -0.0276161 0.9965794 0.0276161 0.9965794 0.0276161 0.0034206 -0.0276161
3355000000 0.0034041 -0.0271424 0.9965959 0.0271424 0.9965959 0.0271424 0.0034041 -0.0271424
3376000000 0.0033884 -0.0266728 0.9966116 0.0266728 0.9966116 0.0266728 0.0033884 -0.0266728
3397000000 0.0033732 -0.0262072 0.9966268 0.0262072 0.9966268 0.0262072 0.0033732 -0.0262072
3418000000 0.0033587 -0.0257455 0.9966413 0.0257455 0.9966413 0.0257455 0.0033587 -0.0257455
3439000000 0.0033448 -0.0252877 0.9966552 0.0252877 0.9966552 0.0252877 0.0033448 -0.0252877
3460000000 0.0033315 -0.0248336 0.9966685 0.0248336 0.9966685 0.0248336 0.0033315 -0.0248336
3481000000 0.0033188 -0.0243833 0.9966812 0.0243833 0.9966812 0.0243833 0.0033188 -0.0243833
3502000000 0.0033067 -0.0239365 0.9966933 0.0239365 0.9966933 0.0239365 0.0033067 -0.0239365
3523000000 0.0032951 -0.0234934 0.9967049 0.0234934 0.9967049 0.0234934 0.0032951 -0.0234934
3544000000 0.0032840 -0.0230537 0.9967160 0.0230537 0.9967160 0.0230537 0.0032840 -0.0230537
3565000000 0.0032735 -0.0226175 0.9967265 0.0226175 0.9967265 0.0226175 0.0032735 -0.0226175
3586000000 0.0032635 -0.0221847 0.9967365 0.0221847 0.9967365 0.0221847 0.0032635 -0.0221847
3607000000 0.0032541 -0.0217553 0.9967459 0.0217553 0.9967459 0.0217553 0.0032541 -0.0217553
3628000000 0.0032451 -0.0213291 0.9967549 0.0213291 0.9967549 0.0213291 0.0032451 -0.0213291
3649000000 0.0032366 -0.0209061 0.9967634 0.0209061 0.9967634 0.0209061 0.0032366 -0.0209061
3670000000 0.0032286 -0.0204863 0.9967714 0.0204863 0.9967714 0.0204863 0.0032286 -0.0204863
3691000000 0.0032211 -0.0200696 0.9967789 0.0200696 0.9967789 0.0200696 0.0032211 -0.0200696
3712000000 0.0032140 -0.0196559 0.9967860 0.0196559 0.9967860 0.0196559 0.0032140 -0.0196559
3733000000 0.0032074 -0.0192453 0.9967926 0.0192453 0.9967926 0.0192453 0.0032074 -0.0192453
3754000000 0.0032013 -0.0188376 0.9967987 0.0188376 0.9967987 0.0188376 0.0032013 -0.0188376
3775000000 0.0031955 -0.0184328 0.9968045 0.0184328 0.9968045 0.0184328 0.0031955 -0.0184328
3796000000 0.0031903 -0.0180309 0.9968097 0.0180309 0.9968097 0.0180309 0.0031903 -0.0180309
3817000000 0.0031854 -0.0176318 0.9968146 0.0176318 0.9968146 0.0176318 0.0031854 -0.0176318
3838000000 0.0031809 -0.0172354 0.9968191 0.0172354 0.9968191 0.0172354 0.0031809 -0.0172354
3859000000 0.0031769 -0.0168418 0.9968231 0.0168418 0.9968231 0.0168418 0.0031769 -0.0168418
3880000000 0.0031732 -0.0164508 0.9968268 0.0164508 0.9968268 0.0164508 0.0031732 -0.0164508
3901000000 0.0031700 -0.0160625 0.9968300 0.0160625 0.9968300 0.0160625 0.0031700 -0.0160625
3922000000 0.0031671 -0.0156768 0.9968329 0.0156768 0.9968329 0.0156768 0.0031671 -0.0156768
3943000000 0.0031646 -0.0152936 0.9968354 0.0152936 0.9968354 0.0152936 0.0031646 -0.0152936
3964000000 0.0031625 -0.0149130 0.9968375 0.0149130 0.9968375 0.0149130 0.0031625 -0.0149130
3985000000 0.0031608 -0.0145348 0.9968392 0.0145348 0.9968392 0.0145348 0.0031608 -0.0145348
4006000000 0.0031594 -0.0141590 0.9968406 0.0141590 0.9968406 0.0141590 0.0031594 -0.0141590
4027000000 0.0031584 -0.0137857 0.9968416 0.0137857 0.9968416 0.0137857 0.0031584 -0.0137857
4048000000 0.0031577 -0.0134147 0.9968423 0.0134147 0.9968423 0.0134147 0.0031577 -0.0134147
4069000000 0.0031573 -0.0130460 0.9968427 0.0130460 0.9968427 0.0130460 0.0031573 -0.0130460
4090000000 0.0031574 -0.0126796 0.9968426 0.0126796 0.9968426 0.0126796 0.0031574 -0.0126796
4111000000 0.0031577 -0.0123155 0.9968423 0.0123155 0.9968423 0.0123155 0.0031577 -0.0123155
4132000000 0.0031584 -0.0119535 0.9968416 0.0119535 0.9968416 0.0119535 0.0031584 -0.0119535
4153000000 0.0031594 -0.0115938 0.9968406 0.0115938 0.9968406 0.0115938 0.0031594 -0.0115938
4174000000 0.0031607 -0.0112362 0.9968393 0.0112362 0.9968393 0.0112362 0.0031607 -0.0112362
4195000000 0.0031623 -0.0108808 0.9968377 0.0108808 0.9968377 0.0108808 0.0031623 -0.0108808
4216000000 0.0031642 -0.0105274 0.9968358 0.0105274 0.9968358 0.0105274 0.0031642 -0.0105274
4237000000 0.0031665 -0.0101761 0.9968335 0.0101761 0.9968335 0.0101761 0.0031665 -0.0101761
4258000000 0.0031690 -0.0098268 0.9968310 0.0098268 0.9968310 0.0098268 0.0031690 -0.0098268
4279000000 0.0031719 -0.0094795 0.9968281 0.0094795 0.9968281 0.0094795 0.0031719 -0.0094795
4300000000 0.0031750 -0.0091342 0.9968250 0.0091342 0.9968250 0.0091342 0.0031750 -0.0091342
4321000000 0.0031785 -0.0087909 0.9968215 0.0087909 0.9968215 0.0087909 0.0031785 -0.0087909
4342000000 0.0031822 -0.0084494 0.9968178 0.0084494 0.9968178 0.0084494 0.0031822 -0.0084494
4363000000 0.0031862 -0.0081098 0.9968138 0.0081098 0.9968138 0.0081098 0.0031862 -0.0081098
4384000000 0.0031905 -0.0077721 0.9968095 0.0077721 0.9968095 0.0077721 0.0031905 -0.0077721
4405000000 0.0031950 -0.0074363 0.9968050 0.0074363 0.9968050 0.0074363 0.0031950 -0.0074363
4426000000 0.0031998 -0.0071022 0.9968002 0.0071022 0.9968002 0.0071022 0.0031998 -0.0071022
4447000000 0.0032050 -0.0067700 0.9967950 0.0067700 0.9967950 0.0067700 0.0032050 -0.0067700
4468000000 0.0032103 -0.0064394 0.9967897 0.0064394 0.9967897 0.0064394 0.0032103 -0.0064394
4489000000 0.0032160 -0.0061107 0.9967840 0.0061107 0.9967840 0.0061107 0.0032160 -0.0061107
4510000000 0.0032219 -0.0057836 0.9967781 0.0057836 0.9967781 0.0057836 0.0032219 -0.0057836
