!Murata Part Number: GRM0115C1C4R6CE01
!These Parameters are Measured in Series Mode Connection
!Data Generated on Mar 30, 2021
!       o--ll--o
!Port1            Port2
!       o------o
!Operation Temp=25[degC], DC Bias Voltage=0[V]
!Freq. Start=100[MHz] Stop=9[GHz] 401[Steps]
# Hz S RI R 50
!Freq.(Hz) S11(Real) S11(Imag) S21(Real) S21(Imag) S12(Real) S12(Imag) S22(Real) S22(Imag)
100000000 0.9227680 -0.2667247 0.0772320 0.2667247 0.0772320 0.2667247 0.9227680 -0.2667247
121000000 0.8908244 -0.3115755 0.1091756 0.3115755 0.1091756 0.3115755 0.8908244 -0.3115755
142000000 0.8555679 -0.3511938 0.1444321 0.3511938 0.1444321 0.3511938 0.8555679 -0.3511938
163000000 0.8180103 -0.3854528 0.1819897 0.3854528 0.1819897 0.3854528 0.8180103 -0.3854528
184000000 0.7790851 -0.4144300 0.2209149 0.4144300 0.2209149 0.4144300 0.7790851 -0.4144300
205000000 0.7396131 -0.4383624 0.2603869 0.4383624 0.2603869 0.4383624 0.7396131 -0.4383624
226000000 0.7002834 -0.4576001 0.2997166 0.4576001 0.2997166 0.4576001 0.7002834 -0.4576001
247000000 0.6616499 -0.4725641 0.3383501 0.4725641 0.3383501 0.4725641 0.6616499 -0.4725641
268000000 0.6241376 -0.4837098 0.3758624 0.4837098 0.3758624 0.4837098 0.6241376 -0.4837098
289000000 0.5880556 -0.4914991 0.4119444 0.4914991 0.4119444 0.4914991 0.5880556 -0.4914991
310000000 0.5536136 -0.4963798 0.4463864 0.4963798 0.4463864 0.4963798 0.5536136 -0.4963798
331000000 0.5209392 -0.4987722 0.4790608 0.4987722 0.4790608 0.4987722 0.5209392 -0.4987722
352000000 0.4900943 -0.4990606 0.5099057 0.4990606 0.5099057 0.4990606 0.4900943 -0.4990606
373000000 0.4610902 -0.4975901 0.5389098 0.4975901 0.5389098 0.4975901 0.4610902 -0.4975901
394000000 0.4339003 -0.4946651 0.5660997 0.4946651 0.5660997 0.4946651 0.4339003 -0.4946651
415000000 0.4084709 -0.4905514 0.5915291 0.4905514 0.5915291 0.4905514 0.4084709 -0.4905514
436000000 0.3847297 -0.4854781 0.6152703 0.4854781 0.6152703 0.4854781 0.3847297 -0.4854781
457000000 0.3625927 -0.4796413 0.6374073 0.4796413 0.6374073 0.4796413 0.3625927 -0.4796413
478000000 0.3419689 -0.4732074 0.6580311 0.4732074 0.6580311 0.4732074 0.3419689 -0.4732074
499000000 0.3227648 -0.4663168 0.6772352 0.4663168 0.6772352 0.4663168 0.3227648 -0.4663168
520000000 0.3048869 -0.4590871 0.6951131 0.4590871 0.6951131 0.4590871 0.3048869 -0.4590871
541000000 0.2882434 -0.4516166 0.7117566 0.4516166 0.7117566 0.4516166 0.2882434 -0.4516166
562000000 0.2727462 -0.4439866 0.7272538 0.4439866 0.7272538 0.4439866 0.2727462 -0.4439866
583000000 0.2583114 -0.4362641 0.7416886 0.4362641 0.7416886 0.4362641 0.2583114 -0.4362641
604000000 0.2448597 -0.4285044 0.7551403 0.4285044 0.7551403 0.4285044 0.2448597 -0.4285044
625000000 0.2323169 -0.4207522 0.7676831 0.4207522 0.7676831 0.4207522 0.2323169 -0.4207522
646000000 0.2206139 -0.4130439 0.7793861 0.4130439 0.7793861 0.4130439 0.2206139 -0.4130439
667000000 0.2096865 -0.4054088 0.7903135 0.4054088 0.7903135 0.4054088 0.2096865 -0.4054088
688000000 0.1994754 -0.3978699 0.8005246 0.3978699 0.8005246 0.3978699 0.1994754 -0.3978699
709000000 0.1899259 -0.3904455 0.8100741 0.3904455 0.8100741 0.3904455 0.1899259 -0.3904455
730000000 0.1809875 -0.3831496 0.8190125 0.3831496 0.8190125 0.3831496 0.1809875 -0.3831496
751000000 0.1726139 -0.3759929 0.8273861 0.3759929 0.8273861 0.3759929 0.1726139 -0.3759929
772000000 0.1647625 -0.3689830 0.8352375 0.3689830 0.8352375 0.3689830 0.1647625 -0.3689830
793000000 0.1573941 -0.3621255 0.8426059 0.3621255 0.8426059 0.3621255 0.1573941 -0.3621255
814000000 0.1504730 -0.3554239 0.8495270 0.3554239 0.8495270 0.3554239 0.1504730 -0.3554239
835000000 0.1439661 -0.3488800 0.8560339 0.3488800 0.8560339 0.3488800 0.1439661 -0.3488800
856000000 0.1378433 -0.3424944 0.8621567 0.3424944 0.8621567 0.3424944 0.1378433 -0.3424944
877000000 0.1320767 -0.3362668 0.8679233 0.3362668 0.8679233 0.3362668 0.1320767 -0.3362668
898000000 0.1266410 -0.3301959 0.8733590 0.3301959 0.8733590 0.3301959 0.1266410 -0.3301959
919000000 0.1215128 -0.3242799 0.8784872 0.3242799 0.8784872 0.3242799 0.1215128 -0.3242799
940000000 0.1166704 -0.3185161 0.8833296 0.3185161 0.8833296 0.3185161 0.1166704 -0.3185161
961000000 0.1120943 -0.3129019 0.8879057 0.3129019 0.8879057 0.3129019 0.1120943 -0.3129019
982000000 0.1077661 -0.3074341 0.8922339 0.3074341 0.8922339 0.3074341 0.1077661 -0.3074341
1003000000 0.1036692 -0.3021091 0.8963308 0.3021091 0.8963308 0.3021091 0.1036692 -0.3021091
1024000000 0.0997882 -0.2969236 0.9002118 0.2969236 0.9002118 0.2969236 0.0997882 -0.2969236
1045000000 0.0961087 -0.2918737 0.9038913 0.2918737 0.9038913 0.2918737 0.0961087 -0.2918737
1066000000 0.0926176 -0.2869558 0.9073824 0.2869558 0.9073824 0.2869558 0.0926176 -0.2869558
1087000000 0.0893030 -0.2821660 0.9106970 0.2821660 0.9106970 0.2821660 0.0893030 -0.2821660
1108000000 0.0861535 -0.2775007 0.9138465 0.2775007 0.9138465 0.2775007 0.0861535 -0.2775007
1129000000 0.0831587 -0.2729560 0.9168413 0.2729560 0.9168413 0.2729560 0.0831587 -0.2729560
1150000000 0.0803092 -0.2685283 0.9196908 0.2685283 0.9196908 0.2685283 0.0803092 -0.2685283
1171000000 0.0775960 -0.2642138 0.9224040 0.2642138 0.9224040 0.2642138 0.0775960 -0.2642138
1192000000 0.0750108 -0.2600091 0.9249892 0.2600091 0.9249892 0.2600091 0.0750108 -0.2600091
1213000000 0.0725461 -0.2559105 0.9274539 0.2559105 0.9274539 0.2559105 0.0725461 -0.2559105
1234000000 0.0701946 -0.2519147 0.9298054 0.2519147 0.9298054 0.2519147 0.0701946 -0.2519147
1255000000 0.0679499 -0.2480184 0.9320501 0.2480184 0.9320501 0.2480184 0.0679499 -0.2480184
1276000000 0.0658057 -0.2442182 0.9341943 0.2442182 0.9341943 0.2442182 0.0658057 -0.2442182
1297000000 0.0637564 -0.2405112 0.9362436 0.2405112 0.9362436 0.2405112 0.0637564 -0.2405112
1318000000 0.0617965 -0.2368942 0.9382035 0.2368942 0.9382035 0.2368942 0.0617965 -0.2368942
1339000000 0.0599213 -0.2333643 0.9400787 0.2333643 0.9400787 0.2333643 0.0599213 -0.2333643
1360000000 0.0581259 -0.2299186 0.9418741 0.2299186 0.9418741 0.2299186 0.0581259 -0.2299186
1381000000 0.0564061 -0.2265544 0.9435939 0.2265544 0.9435939 0.2265544 0.0564061 -0.2265544
1402000000 0.0547578 -0.2232691 0.9452422 0.2232691 0.9452422 0.2232691 0.0547578 -0.2232691
1423000000 0.0531772 -0.2200601 0.9468228 0.2200601 0.9468228 0.2200601 0.0531772 -0.2200601
1444000000 0.0516608 -0.2169248 0.9483392 0.2169248 0.9483392 0.2169248 0.0516608 -0.2169248
1465000000 0.0502053 -0.2138610 0.9497947 0.2138610 0.9497947 0.2138610 0.0502053 -0.2138610
1486000000 0.0488075 -0.2108663 0.9511925 0.2108663 0.9511925 0.2108663 0.0488075 -0.2108663
1507000000 0.0474646 -0.2079386 0.9525354 0.2079386 0.9525354 0.2079386 0.0474646 -0.2079386
1528000000 0.0461737 -0.2050756 0.9538263 0.2050756 0.9538263 0.2050756 0.0461737 -0.2050756
1549000000 0.0449323 -0.2022754 0.9550677 0.2022754 0.9550677 0.2022754 0.0449323 -0.2022754
1570000000 0.0437381 -0.1995359 0.9562619 0.1995359 0.9562619 0.1995359 0.0437381 -0.1995359
1591000000 0.0425886 -0.1968553 0.9574114 0.1968553 0.9574114 0.1968553 0.0425886 -0.1968553
1612000000 0.0414817 -0.1942317 0.9585183 0.1942317 0.9585183 0.1942317 0.0414817 -0.1942317
1633000000 0.0404155 -0.1916634 0.9595845 0.1916634 0.9595845 0.1916634 0.0404155 -0.1916634
1654000000 0.0393881 -0.1891486 0.9606119 0.1891486 0.9606119 0.1891486 0.0393881 -0.1891486
1675000000 0.0383975 -0.1866857 0.9616025 0.1866857 0.9616025 0.1866857 0.0383975 -0.1866857
1696000000 0.0374422 -0.1842731 0.9625578 0.1842731 0.9625578 0.1842731 0.0374422 -0.1842731
1717000000 0.0365206 -0.1819094 0.9634794 0.1819094 0.9634794 0.1819094 0.0365206 -0.1819094
1738000000 0.0356311 -0.1795930 0.9643689 0.1795930 0.9643689 0.1795930 0.0356311 -0.1795930
1759000000 0.0347722 -0.1773226 0.9652278 0.1773226 0.9652278 0.1773226 0.0347722 -0.1773226
1780000000 0.0339428 -0.1750967 0.9660572 0.1750967 0.9660572 0.1750967 0.0339428 -0.1750967
1801000000 0.0331414 -0.1729141 0.9668586 0.1729141 0.9668586 0.1729141 0.0331414 -0.1729141
1822000000 0.0323668 -0.1707735 0.9676332 0.1707735 0.9676332 0.1707735 0.0323668 -0.1707735
1843000000 0.0316180 -0.1686737 0.9683820 0.1686737 0.9683820 0.1686737 0.0316180 -0.1686737
1864000000 0.0308938 -0.1666135 0.9691062 0.1666135 0.9691062 0.1666135 0.0308938 -0.1666135
1885000000 0.0301932 -0.1645919 0.9698068 0.1645919 0.9698068 0.1645919 0.0301932 -0.1645919
1906000000 0.0295151 -0.1626076 0.9704849 0.1626076 0.9704849 0.1626076 0.0295151 -0.1626076
1927000000 0.0288588 -0.1606596 0.9711412 0.1606596 0.9711412 0.1606596 0.0288588 -0.1606596
1948000000 0.0282233 -0.1587470 0.9717767 0.1587470 0.9717767 0.1587470 0.0282233 -0.1587470
1969000000 0.0276077 -0.1568687 0.9723923 0.1568687 0.9723923 0.1568687 0.0276077 -0.1568687
1990000000 0.0270113 -0.1550238 0.9729887 0.1550238 0.9729887 0.1550238 0.0270113 -0.1550238
2011000000 0.0264333 -0.1532114 0.9735667 0.1532114 0.9735667 0.1532114 0.0264333 -0.1532114
2032000000 0.0258730 -0.1514306 0.9741270 0.1514306 0.9741270 0.1514306 0.0258730 -0.1514306
2053000000 0.0253297 -0.1496805 0.9746703 0.1496805 0.9746703 0.1496805 0.0253297 -0.1496805
2074000000 0.0248028 -0.1479604 0.9751972 0.1479604 0.9751972 0.1479604 0.0248028 -0.1479604
2095000000 0.0242915 -0.1462694 0.9757085 0.1462694 0.9757085 0.1462694 0.0242915 -0.1462694
2116000000 0.0237954 -0.1446068 0.9762046 0.1446068 0.9762046 0.1446068 0.0237954 -0.1446068
2137000000 0.0233138 -0.1429718 0.9766862 0.1429718 0.9766862 0.1429718 0.0233138 -0.1429718
2158000000 0.0228463 -0.1413637 0.9771537 0.1413637 0.9771537 0.1413637 0.0228463 -0.1413637
2179000000 0.0223922 -0.1397818 0.9776078 0.1397818 0.9776078 0.1397818 0.0223922 -0.1397818
2200000000 0.0219512 -0.1382254 0.9780488 0.1382254 0.9780488 0.1382254 0.0219512 -0.1382254
2221000000 0.0215227 -0.1366940 0.9784773 0.1366940 0.9784773 0.1366940 0.0215227 -0.1366940
2242000000 0.0211063 -0.1351868 0.9788937 0.1351868 0.9788937 0.1351868 0.0211063 -0.1351868
2263000000 0.0207015 -0.1337032 0.9792985 0.1337032 0.9792985 0.1337032 0.0207015 -0.1337032
2284000000 0.0203080 -0.1322427 0.9796920 0.1322427 0.9796920 0.1322427 0.0203080 -0.1322427
2305000000 0.0199253 -0.1308047 0.9800747 0.1308047 0.9800747 0.1308047 0.0199253 -0.1308047
2326000000 0.0195531 -0.1293887 0.9804469 0.1293887 0.9804469 0.1293887 0.0195531 -0.1293887
2347000000 0.0191910 -0.1279940 0.9808090 0.1279940 0.9808090 0.1279940 0.0191910 -0.1279940
2368000000 0.0188387 -0.1266203 0.9811613 0.1266203 0.9811613 0.1266203 0.0188387 -0.1266203
2389000000 0.0184959 -0.1252669 0.9815041 0.1252669 0.9815041 0.1252669 0.0184959 -0.1252669
2410000000 0.0181621 -0.1239334 0.9818379 0.1239334 0.9818379 0.1239334 0.0181621 -0.1239334
2431000000 0.0178372 -0.1226193 0.9821628 0.1226193 0.9821628 0.1226193 0.0178372 -0.1226193
2452000000 0.0175208 -0.1213243 0.9824792 0.1213243 0.9824792 0.1213243 0.0175208 -0.1213243
2473000000 0.0172126 -0.1200477 0.9827874 0.1200477 0.9827874 0.1200477 0.0172126 -0.1200477
2494000000 0.0169124 -0.1187892 0.9830876 0.1187892 0.9830876 0.1187892 0.0169124 -0.1187892
2515000000 0.0166200 -0.1175484 0.9833800 0.1175484 0.9833800 0.1175484 0.0166200 -0.1175484
2536000000 0.0163350 -0.1163249 0.9836650 0.1163249 0.9836650 0.1163249 0.0163350 -0.1163249
2557000000 0.0160572 -0.1151183 0.9839428 0.1151183 0.9839428 0.1151183 0.0160572 -0.1151183
2578000000 0.0157864 -0.1139281 0.9842136 0.1139281 0.9842136 0.1139281 0.0157864 -0.1139281
2599000000 0.0155225 -0.1127541 0.9844775 0.1127541 0.9844775 0.1127541 0.0155225 -0.1127541
2620000000 0.0152651 -0.1115959 0.9847349 0.1115959 0.9847349 0.1115959 0.0152651 -0.1115959
2641000000 0.0150141 -0.1104531 0.9849859 0.1104531 0.9849859 0.1104531 0.0150141 -0.1104531
2662000000 0.0147692 -0.1093253 0.9852308 0.1093253 0.9852308 0.1093253 0.0147692 -0.1093253
2683000000 0.0145304 -0.1082123 0.9854696 0.1082123 0.9854696 0.1082123 0.0145304 -0.1082123
2704000000 0.0142973 -0.1071137 0.9857027 0.1071137 0.9857027 0.1071137 0.0142973 -0.1071137
2725000000 0.0140699 -0.1060293 0.9859301 0.1060293 0.9859301 0.1060293 0.0140699 -0.1060293
2746000000 0.0138480 -0.1049586 0.9861520 0.1049586 0.9861520 0.1049586 0.0138480 -0.1049586
2767000000 0.0136313 -0.1039015 0.9863687 0.1039015 0.9863687 0.1039015 0.0136313 -0.1039015
2788000000 0.0134199 -0.1028576 0.9865801 0.1028576 0.9865801 0.1028576 0.0134199 -0.1028576
2809000000 0.0132134 -0.1018267 0.9867866 0.1018267 0.9867866 0.1018267 0.0132134 -0.1018267
2830000000 0.0130118 -0.1008084 0.9869882 0.1008084 0.9869882 0.1008084 0.0130118 -0.1008084
2851000000 0.0128148 -0.0998026 0.9871852 0.0998026 0.9871852 0.0998026 0.0128148 -0.0998026
2872000000 0.0126225 -0.0988090 0.9873775 0.0988090 0.9873775 0.0988090 0.0126225 -0.0988090
2893000000 0.0124347 -0.0978272 0.9875653 0.0978272 0.9875653 0.0978272 0.0124347 -0.0978272
2914000000 0.0122511 -0.0968571 0.9877489 0.0968571 0.9877489 0.0968571 0.0122511 -0.0968571
2935000000 0.0120718 -0.0958985 0.9879282 0.0958985 0.9879282 0.0958985 0.0120718 -0.0958985
2956000000 0.0118965 -0.0949510 0.9881035 0.0949510 0.9881035 0.0949510 0.0118965 -0.0949510
2977000000 0.0117253 -0.0940146 0.9882747 0.0940146 0.9882747 0.0940146 0.0117253 -0.0940146
2998000000 0.0115579 -0.0930889 0.9884421 0.0930889 0.9884421 0.0930889 0.0115579 -0.0930889
3019000000 0.0113943 -0.0921737 0.9886057 0.0921737 0.9886057 0.0921737 0.0113943 -0.0921737
3040000000 0.0112343 -0.0912689 0.9887657 0.0912689 0.9887657 0.0912689 0.0112343 -0.0912689
3061000000 0.0110779 -0.0903743 0.9889221 0.0903743 0.9889221 0.0903743 0.0110779 -0.0903743
3082000000 0.0109250 -0.0894895 0.9890750 0.0894895 0.9890750 0.0894895 0.0109250 -0.0894895
3103000000 0.0107754 -0.0886146 0.9892246 0.0886146 0.9892246 0.0886146 0.0107754 -0.0886146
3124000000 0.0106292 -0.0877491 0.9893708 0.0877491 0.9893708 0.0877491 0.0106292 -0.0877491
3145000000 0.0104861 -0.0868931 0.9895139 0.0868931 0.9895139 0.0868931 0.0104861 -0.0868931
3166000000 0.0103462 -0.0860463 0.9896538 0.0860463 0.9896538 0.0860463 0.0103462 -0.0860463
3187000000 0.0102093 -0.0852085 0.9897907 0.0852085 0.9897907 0.0852085 0.0102093 -0.0852085
3208000000 0.0100754 -0.0843795 0.9899246 0.0843795 0.9899246 0.0843795 0.0100754 -0.0843795
3229000000 0.0099444 -0.0835593 0.9900556 0.0835593 0.9900556 0.0835593 0.0099444 -0.0835593
3250000000 0.0098162 -0.0827476 0.9901838 0.0827476 0.9901838 0.0827476 0.0098162 -0.0827476
3271000000 0.0096907 -0.0819442 0.9903093 0.0819442 0.9903093 0.0819442 0.0096907 -0.0819442
3292000000 0.0095680 -0.0811491 0.9904320 0.0811491 0.9904320 0.0811491 0.0095680 -0.0811491
3313000000 0.0094478 -0.0803621 0.9905522 0.0803621 0.9905522 0.0803621 0.0094478 -0.0803621
3334000000 0.0093302 -0.0795829 0.9906698 0.0795829 0.9906698 0.0795829 0.0093302 -0.0795829
3355000000 0.0092151 -0.0788116 0.9907849 0.0788116 0.9907849 0.0788116 0.0092151 -0.0788116
3376000000 0.0091024 -0.0780479 0.9908976 0.0780479 0.9908976 0.0780479 0.0091024 -0.0780479
3397000000 0.0089920 -0.0772917 0.9910080 0.0772917 0.9910080 0.0772917 0.0089920 -0.0772917
3418000000 0.0088840 -0.0765429 0.9911160 0.0765429 0.9911160 0.0765429 0.0088840 -0.0765429
3439000000 0.0087783 -0.0758013 0.9912217 0.0758013 0.9912217 0.0758013 0.0087783 -0.0758013
3460000000 0.0086747 -0.0750669 0.9913253 0.0750669 0.9913253 0.0750669 0.0086747 -0.0750669
3481000000 0.0085733 -0.0743394 0.9914267 0.0743394 0.9914267 0.0743394 0.0085733 -0.0743394
3502000000 0.0084740 -0.0736188 0.9915260 0.0736188 0.9915260 0.0736188 0.0084740 -0.0736188
3523000000 0.0083768 -0.0729050 0.9916232 0.0729050 0.9916232 0.0729050 0.0083768 -0.0729050
3544000000 0.0082815 -0.0721978 0.9917185 0.0721978 0.9917185 0.0721978 0.0082815 -0.0721978
3565000000 0.0081883 -0.0714971 0.9918117 0.0714971 0.9918117 0.0714971 0.0081883 -0.0714971
3586000000 0.0080969 -0.0708028 0.9919031 0.0708028 0.9919031 0.0708028 0.0080969 -0.0708028
3607000000 0.0080075 -0.0701149 0.9919925 0.0701149 0.9919925 0.0701149 0.0080075 -0.0701149
3628000000 0.0079198 -0.0694331 0.9920802 0.0694331 0.9920802 0.0694331 0.0079198 -0.0694331
3649000000 0.0078340 -0.0687574 0.9921660 0.0687574 0.9921660 0.0687574 0.0078340 -0.0687574
3670000000 0.0077499 -0.0680877 0.9922501 0.0680877 0.9922501 0.0680877 0.0077499 -0.0680877
3691000000 0.0076675 -0.0674239 0.9923325 0.0674239 0.9923325 0.0674239 0.0076675 -0.0674239
3712000000 0.0075868 -0.0667660 0.9924132 0.0667660 0.9924132 0.0667660 0.0075868 -0.0667660
3733000000 0.0075077 -0.0661137 0.9924923 0.0661137 0.9924923 0.0661137 0.0075077 -0.0661137
3754000000 0.0074303 -0.0654670 0.9925697 0.0654670 0.9925697 0.0654670 0.0074303 -0.0654670
3775000000 0.0073544 -0.0648258 0.9926456 0.0648258 0.9926456 0.0648258 0.0073544 -0.0648258
3796000000 0.0072801 -0.0641901 0.9927199 0.0641901 0.9927199 0.0641901 0.0072801 -0.0641901
3817000000 0.0072072 -0.0635597 0.9927928 0.0635597 0.9927928 0.0635597 0.0072072 -0.0635597
3838000000 0.0071359 -0.0629345 0.9928641 0.0629345 0.9928641 0.0629345 0.0071359 -0.0629345
3859000000 0.0070660 -0.0623146 0.9929340 0.0623146 0.9929340 0.0623146 0.0070660 -0.0623146
3880000000 0.0069975 -0.0616997 0.9930025 0.0616997 0.9930025 0.0616997 0.0069975 -0.0616997
3901000000 0.0069304 -0.0610898 0.9930696 0.0610898 0.9930696 0.0610898 0.0069304 -0.0610898
3922000000 0.0068646 -0.0604849 0.9931354 0.0604849 0.9931354 0.0604849 0.0068646 -0.0604849
3943000000 0.0068002 -0.0598848 0.9931998 0.0598848 0.9931998 0.0598848 0.0068002 -0.0598848
3964000000 0.0067371 -0.0592895 0.9932629 0.0592895 0.9932629 0.0592895 0.0067371 -0.0592895
3985000000 0.0066753 -0.0586989 0.9933247 0.0586989 0.9933247 0.0586989 0.0066753 -0.0586989
4006000000 0.0066147 -0.0581129 0.9933853 0.0581129 0.9933853 0.0581129 0.0066147 -0.0581129
4027000000 0.0065553 -0.0575315 0.9934447 0.0575315 0.9934447 0.0575315 0.0065553 -0.0575315
4048000000 0.0064972 -0.0569546 0.9935028 0.0569546 0.9935028 0.0569546 0.0064972 -0.0569546
4069000000 0.0064402 -0.0563821 0.9935598 0.0563821 0.9935598 0.0563821 0.0064402 -0.0563821
4090000000 0.0063844 -0.0558140 0.9936156 0.0558140 0.9936156 0.0558140 0.0063844 -0.0558140
4111000000 0.0063298 -0.0552501 0.9936702 0.0552501 0.9936702 0.0552501 0.0063298 -0.0552501
4132000000 0.0062762 -0.0546905 0.9937238 0.0546905 0.9937238 0.0546905 0.0062762 -0.0546905
4153000000 0.0062238 -0.0541351 0.9937762 0.0541351 0.9937762 0.0541351 0.0062238 -0.0541351
4174000000 0.0061724 -0.0535838 0.9938276 0.0535838 0.9938276 0.0535838 0.0061724 -0.0535838
4195000000 0.0061221 -0.0530365 0.9938779 0.0530365 0.9938779 0.0530365 0.0061221 -0.0530365
4216000000 0.0060728 -0.0524931 0.9939272 0.0524931 0.9939272 0.0524931 0.0060728 -0.0524931
4237000000 0.0060245 -0.0519538 0.9939755 0.0519538 0.9939755 0.0519538 0.0060245 -0.0519538
4258000000 0.0059773 -0.0514182 0.9940227 0.0514182 0.9940227 0.0514182 0.0059773 -0.0514182
4279000000 0.0059310 -0.0508865 0.9940690 0.0508865 0.9940690 0.0508865 0.0059310 -0.0508865
4300000000 0.0058857 -0.0503586 0.9941143 0.0503586 0.9941143 0.0503586 0.0058857 -0.0503586
4321000000 0.0058413 -0.0498343 0.9941587 0.0498343 0.9941587 0.0498343 0.0058413 -0.0498343
4342000000 0.0057978 -0.0493138 0.9942022 0.0493138 0.9942022 0.0493138 0.0057978 -0.0493138
4363000000 0.0057553 -0.0487968 0.9942447 0.0487968 0.9942447 0.0487968 0.0057553 -0.0487968
4384000000 0.0057137 -0.0482833 0.9942863 0.0482833 0.9942863 0.0482833 0.0057137 -0.0482833
4405000000 0.0056729 -0.0477734 0.9943271 0.0477734 0.9943271 0.0477734 0.0056729 -0.0477734
4426000000 0.0056330 -0.0472669 0.9943670 0.0472669 0.9943670 0.0472669 0.0056330 -0.0472669
4447000000 0.0055940 -0.0467638 0.9944060 0.0467638 0.9944060 0.0467638 0.0055940 -0.0467638
4468000000 0.0055558 -0.0462640 0.9944442 0.0462640 0.9944442 0.0462640 0.0055558 -0.0462640
4489000000 0.0055185 -0.0457676 0.9944815 0.0457676 0.9944815 0.0457676 0.0055185 -0.0457676
4510000000 0.0054819 -0.0452744 0.9945181 0.0452744 0.9945181 0.0452744 0.0054819 -0.0452744
