!Murata Part Number: GRM0115C1E1R4BE11
!These Parameters are Measured in Series Mode Connection
!Data Generated on Mar 30, 2021
!       o--ll--o
!Port1            Port2
!       o------o
!Operation Temp=25[degC], DC Bias Voltage=0[V]
!Freq. Start=100[MHz] Stop=20[GHz] 401[Steps]
# Hz S RI R 50
!Freq.(Hz) S11(Real) S11(Imag) S21(Real) S21(Imag) S12(Real) S12(Imag) S22(Real) S22(Imag)
100000000 0.9922962 -0.0872940 0.0077038 0.0872940 0.0077038 0.0872940 0.9922962 -0.0872940
149750000 0.9828840 -0.1294959 0.0171160 0.1294959 0.0171160 0.1294959 0.9828840 -0.1294959
199500000 0.9700105 -0.1702814 0.0299895 0.1702814 0.0299895 0.1702814 0.9700105 -0.1702814
249250000 0.9539443 -0.2092593 0.0460557 0.2092593 0.0460557 0.2092593 0.9539443 -0.2092593
299000000 0.9350064 -0.2460981 0.0649936 0.2460981 0.0649936 0.2460981 0.9350064 -0.2460981
348750000 0.9135549 -0.2805333 0.0864451 0.2805333 0.0864451 0.2805333 0.9135549 -0.2805333
398500000 0.8899695 -0.3123699 0.1100305 0.3123699 0.1100305 0.3123699 0.8899695 -0.3123699
448250000 0.8646369 -0.3414815 0.1353631 0.3414815 0.1353631 0.3414815 0.8646369 -0.3414815
498000000 0.8379381 -0.3678059 0.1620619 0.3678059 0.1620619 0.3678059 0.8379381 -0.3678059
547750000 0.8102369 -0.3913390 0.1897631 0.3913390 0.1897631 0.3913390 0.8102369 -0.3913390
597500000 0.7818721 -0.4121263 0.2181279 0.4121263 0.2181279 0.4121263 0.7818721 -0.4121263
647250000 0.7531515 -0.4302548 0.2468485 0.4302548 0.2468485 0.4302548 0.7531515 -0.4302548
697000000 0.7243480 -0.4458435 0.2756520 0.4458435 0.2756520 0.4458435 0.7243480 -0.4458435
746750000 0.6956987 -0.4590356 0.3043013 0.4590356 0.3043013 0.4590356 0.6956987 -0.4590356
796500000 0.6674047 -0.4699900 0.3325953 0.4699900 0.3325953 0.4699900 0.6674047 -0.4699900
846250000 0.6396324 -0.4788752 0.3603676 0.4788752 0.3603676 0.4788752 0.6396324 -0.4788752
896000000 0.6125164 -0.4858637 0.3874836 0.4858637 0.3874836 0.4858637 0.6125164 -0.4858637
945750000 0.5861618 -0.4911269 0.4138382 0.4911269 0.4138382 0.4911269 0.5861618 -0.4911269
995500000 0.5606480 -0.4948322 0.4393520 0.4948322 0.4393520 0.4948322 0.5606480 -0.4948322
1045250000 0.5360314 -0.4971399 0.4639686 0.4971399 0.4639686 0.4971399 0.5360314 -0.4971399
1095000000 0.5123492 -0.4982018 0.4876508 0.4982018 0.4876508 0.4982018 0.5123492 -0.4982018
1144750000 0.4896221 -0.4981594 0.5103779 0.4981594 0.5103779 0.4981594 0.4896221 -0.4981594
1194500000 0.4678573 -0.4971442 0.5321427 0.4971442 0.5321427 0.4971442 0.4678573 -0.4971442
1244250000 0.4470507 -0.4952765 0.5529493 0.4952765 0.5529493 0.4952765 0.4470507 -0.4952765
1294000000 0.4271897 -0.4926662 0.5728103 0.4926662 0.5728103 0.4926662 0.4271897 -0.4926662
1343750000 0.4082543 -0.4894128 0.5917457 0.4894128 0.5917457 0.4894128 0.4082543 -0.4894128
1393500000 0.3902196 -0.4856058 0.6097804 0.4856058 0.6097804 0.4856058 0.3902196 -0.4856058
1443250000 0.3730567 -0.4813259 0.6269433 0.4813259 0.6269433 0.4813259 0.3730567 -0.4813259
1493000000 0.3567338 -0.4766447 0.6432662 0.4766447 0.6432662 0.4766447 0.3567338 -0.4766447
1542750000 0.3412173 -0.4716261 0.6587827 0.4716261 0.6587827 0.4716261 0.3412173 -0.4716261
1592500000 0.3264727 -0.4663269 0.6735273 0.4663269 0.6735273 0.4663269 0.3264727 -0.4663269
1642250000 0.3124651 -0.4607972 0.6875349 0.4607972 0.6875349 0.4607972 0.3124651 -0.4607972
1692000000 0.2991594 -0.4550810 0.7008406 0.4550810 0.7008406 0.4550810 0.2991594 -0.4550810
1741750000 0.2865214 -0.4492172 0.7134786 0.4492172 0.7134786 0.4492172 0.2865214 -0.4492172
1791500000 0.2745171 -0.4432399 0.7254829 0.4432399 0.7254829 0.4432399 0.2745171 -0.4432399
1841250000 0.2631140 -0.4371787 0.7368860 0.4371787 0.7368860 0.4371787 0.2631140 -0.4371787
1891000000 0.2522805 -0.4310596 0.7477195 0.4310596 0.7477195 0.4310596 0.2522805 -0.4310596
1940750000 0.2419860 -0.4249052 0.7580140 0.4249052 0.7580140 0.4249052 0.2419860 -0.4249052
1990500000 0.2322016 -0.4187349 0.7677984 0.4187349 0.7677984 0.4187349 0.2322016 -0.4187349
2040250000 0.2228995 -0.4125656 0.7771005 0.4125656 0.7771005 0.4125656 0.2228995 -0.4125656
2090000000 0.2140533 -0.4064119 0.7859467 0.4064119 0.7859467 0.4064119 0.2140533 -0.4064119
2139750000 0.2056380 -0.4002861 0.7943620 0.4002861 0.7943620 0.4002861 0.2056380 -0.4002861
2189500000 0.1976298 -0.3941991 0.8023702 0.3941991 0.8023702 0.3941991 0.1976298 -0.3941991
2239250000 0.1900062 -0.3881597 0.8099938 0.3881597 0.8099938 0.3881597 0.1900062 -0.3881597
2289000000 0.1827461 -0.3821756 0.8172539 0.3821756 0.8172539 0.3821756 0.1827461 -0.3821756
2338750000 0.1758294 -0.3762532 0.8241706 0.3762532 0.8241706 0.3762532 0.1758294 -0.3762532
2388500000 0.1692372 -0.3703977 0.8307628 0.3703977 0.8307628 0.3703977 0.1692372 -0.3703977
2438250000 0.1629518 -0.3646136 0.8370482 0.3646136 0.8370482 0.3646136 0.1629518 -0.3646136
2488000000 0.1569565 -0.3589043 0.8430435 0.3589043 0.8430435 0.3589043 0.1569565 -0.3589043
2537750000 0.1512354 -0.3532726 0.8487646 0.3532726 0.8487646 0.3532726 0.1512354 -0.3532726
2587500000 0.1457737 -0.3477208 0.8542263 0.3477208 0.8542263 0.3477208 0.1457737 -0.3477208
2637250000 0.1405576 -0.3422504 0.8594424 0.3422504 0.8594424 0.3422504 0.1405576 -0.3422504
2687000000 0.1355737 -0.3368626 0.8644263 0.3368626 0.8644263 0.3368626 0.1355737 -0.3368626
2736750000 0.1308099 -0.3315581 0.8691901 0.3315581 0.8691901 0.3315581 0.1308099 -0.3315581
2786500000 0.1262546 -0.3263373 0.8737454 0.3263373 0.8737454 0.3263373 0.1262546 -0.3263373
2836250000 0.1218967 -0.3212003 0.8781033 0.3212003 0.8781033 0.3212003 0.1218967 -0.3212003
2886000000 0.1177260 -0.3161468 0.8822740 0.3161468 0.8822740 0.3161468 0.1177260 -0.3161468
2935750000 0.1137328 -0.3111765 0.8862672 0.3111765 0.8862672 0.3111765 0.1137328 -0.3111765
2985500000 0.1099081 -0.3062888 0.8900919 0.3062888 0.8900919 0.3062888 0.1099081 -0.3062888
3035250000 0.1062433 -0.3014828 0.8937567 0.3014828 0.8937567 0.3014828 0.1062433 -0.3014828
3085000000 0.1027303 -0.2967577 0.8972697 0.2967577 0.8972697 0.2967577 0.1027303 -0.2967577
3134750000 0.0993616 -0.2921124 0.9006384 0.2921124 0.9006384 0.2921124 0.0993616 -0.2921124
3184500000 0.0961299 -0.2875459 0.9038701 0.2875459 0.9038701 0.2875459 0.0961299 -0.2875459
3234250000 0.0930286 -0.2830568 0.9069714 0.2830568 0.9069714 0.2830568 0.0930286 -0.2830568
3284000000 0.0900512 -0.2786441 0.9099488 0.2786441 0.9099488 0.2786441 0.0900512 -0.2786441
3333750000 0.0871918 -0.2743063 0.9128082 0.2743063 0.9128082 0.2743063 0.0871918 -0.2743063
3383500000 0.0844447 -0.2700420 0.9155553 0.2700420 0.9155553 0.2700420 0.0844447 -0.2700420
3433250000 0.0818046 -0.2658500 0.9181954 0.2658500 0.9181954 0.2658500 0.0818046 -0.2658500
3483000000 0.0792665 -0.2617288 0.9207335 0.2617288 0.9207335 0.2617288 0.0792665 -0.2617288
3532750000 0.0768255 -0.2576770 0.9231745 0.2576770 0.9231745 0.2576770 0.0768255 -0.2576770
3582500000 0.0744772 -0.2536932 0.9255228 0.2536932 0.9255228 0.2536932 0.0744772 -0.2536932
3632250000 0.0722174 -0.2497759 0.9277826 0.2497759 0.9277826 0.2497759 0.0722174 -0.2497759
3682000000 0.0700419 -0.2459238 0.9299581 0.2459238 0.9299581 0.2459238 0.0700419 -0.2459238
3731750000 0.0679470 -0.2421354 0.9320530 0.2421354 0.9320530 0.2421354 0.0679470 -0.2421354
3781500000 0.0659292 -0.2384093 0.9340708 0.2384093 0.9340708 0.2384093 0.0659292 -0.2384093
3831250000 0.0639849 -0.2347442 0.9360151 0.2347442 0.9360151 0.2347442 0.0639849 -0.2347442
3881000000 0.0621110 -0.2311386 0.9378890 0.2311386 0.9378890 0.2311386 0.0621110 -0.2311386
3930750000 0.0603043 -0.2275913 0.9396957 0.2275913 0.9396957 0.2275913 0.0603043 -0.2275913
3980500000 0.0585621 -0.2241010 0.9414379 0.2241010 0.9414379 0.2241010 0.0585621 -0.2241010
4030250000 0.0568815 -0.2206662 0.9431185 0.2206662 0.9431185 0.2206662 0.0568815 -0.2206662
4080000000 0.0552599 -0.2172857 0.9447401 0.2172857 0.9447401 0.2172857 0.0552599 -0.2172857
4129750000 0.0536949 -0.2139583 0.9463051 0.2139583 0.9463051 0.2139583 0.0536949 -0.2139583
4179500000 0.0521840 -0.2106828 0.9478160 0.2106828 0.9478160 0.2106828 0.0521840 -0.2106828
4229250000 0.0507251 -0.2074578 0.9492749 0.2074578 0.9492749 0.2074578 0.0507251 -0.2074578
4279000000 0.0493160 -0.2042823 0.9506840 0.2042823 0.9506840 0.2042823 0.0493160 -0.2042823
4328750000 0.0479547 -0.2011552 0.9520453 0.2011552 0.9520453 0.2011552 0.0479547 -0.2011552
4378500000 0.0466393 -0.1980751 0.9533607 0.1980751 0.9533607 0.1980751 0.0466393 -0.1980751
4428250000 0.0453680 -0.1950412 0.9546320 0.1950412 0.9546320 0.1950412 0.0453680 -0.1950412
4478000000 0.0441389 -0.1920522 0.9558611 0.1920522 0.9558611 0.1920522 0.0441389 -0.1920522
4527750000 0.0429505 -0.1891071 0.9570495 0.1891071 0.9570495 0.1891071 0.0429505 -0.1891071
4577500000 0.0418012 -0.1862050 0.9581988 0.1862050 0.9581988 0.1862050 0.0418012 -0.1862050
4627250000 0.0406895 -0.1833448 0.9593105 0.1833448 0.9593105 0.1833448 0.0406895 -0.1833448
4677000000 0.0396138 -0.1805255 0.9603862 0.1805255 0.9603862 0.1805255 0.0396138 -0.1805255
4726750000 0.0385730 -0.1777462 0.9614270 0.1777462 0.9614270 0.1777462 0.0385730 -0.1777462
4776500000 0.0375656 -0.1750059 0.9624344 0.1750059 0.9624344 0.1750059 0.0375656 -0.1750059
4826250000 0.0365904 -0.1723038 0.9634096 0.1723038 0.9634096 0.1723038 0.0365904 -0.1723038
4876000000 0.0356462 -0.1696390 0.9643538 0.1696390 0.9643538 0.1696390 0.0356462 -0.1696390
4925750000 0.0347319 -0.1670106 0.9652681 0.1670106 0.9652681 0.1670106 0.0347319 -0.1670106
4975500000 0.0338464 -0.1644178 0.9661536 0.1644178 0.9661536 0.1644178 0.0338464 -0.1644178
5025250000 0.0329887 -0.1618597 0.9670113 0.1618597 0.9670113 0.1618597 0.0329887 -0.1618597
5075000000 0.0321577 -0.1593356 0.9678423 0.1593356 0.9678423 0.1593356 0.0321577 -0.1593356
5124750000 0.0313526 -0.1568447 0.9686474 0.1568447 0.9686474 0.1568447 0.0313526 -0.1568447
5174500000 0.0305723 -0.1543863 0.9694277 0.1543863 0.9694277 0.1543863 0.0305723 -0.1543863
5224250000 0.0298162 -0.1519596 0.9701838 0.1519596 0.9701838 0.1519596 0.0298162 -0.1519596
5274000000 0.0290832 -0.1495639 0.9709168 0.1495639 0.9709168 0.1495639 0.0290832 -0.1495639
5323750000 0.0283727 -0.1471985 0.9716273 0.1471985 0.9716273 0.1471985 0.0283727 -0.1471985
5373500000 0.0276838 -0.1448628 0.9723162 0.1448628 0.9723162 0.1448628 0.0276838 -0.1448628
5423250000 0.0270159 -0.1425560 0.9729841 0.1425560 0.9729841 0.1425560 0.0270159 -0.1425560
5473000000 0.0263681 -0.1402776 0.9736319 0.1402776 0.9736319 0.1402776 0.0263681 -0.1402776
5522750000 0.0257400 -0.1380269 0.9742600 0.1380269 0.9742600 0.1380269 0.0257400 -0.1380269
5572500000 0.0251308 -0.1358034 0.9748692 0.1358034 0.9748692 0.1358034 0.0251308 -0.1358034
5622250000 0.0245398 -0.1336064 0.9754602 0.1336064 0.9754602 0.1336064 0.0245398 -0.1336064
5672000000 0.0239666 -0.1314353 0.9760334 0.1314353 0.9760334 0.1314353 0.0239666 -0.1314353
5721750000 0.0234105 -0.1292896 0.9765895 0.1292896 0.9765895 0.1292896 0.0234105 -0.1292896
5771500000 0.0228710 -0.1271688 0.9771290 0.1271688 0.9771290 0.1271688 0.0228710 -0.1271688
5821250000 0.0223476 -0.1250723 0.9776524 0.1250723 0.9776524 0.1250723 0.0223476 -0.1250723
5871000000 0.0218397 -0.1229995 0.9781603 0.1229995 0.9781603 0.1229995 0.0218397 -0.1229995
5920750000 0.0213469 -0.1209501 0.9786531 0.1209501 0.9786531 0.1209501 0.0213469 -0.1209501
5970500000 0.0208687 -0.1189235 0.9791313 0.1189235 0.9791313 0.1189235 0.0208687 -0.1189235
6020250000 0.0204047 -0.1169192 0.9795953 0.1169192 0.9795953 0.1169192 0.0204047 -0.1169192
6070000000 0.0199545 -0.1149368 0.9800455 0.1149368 0.9800455 0.1149368 0.0199545 -0.1149368
6119750000 0.0195175 -0.1129758 0.9804825 0.1129758 0.9804825 0.1129758 0.0195175 -0.1129758
6169500000 0.0190935 -0.1110358 0.9809065 0.1110358 0.9809065 0.1110358 0.0190935 -0.1110358
6219250000 0.0186821 -0.1091163 0.9813179 0.1091163 0.9813179 0.1091163 0.0186821 -0.1091163
6269000000 0.0182828 -0.1072169 0.9817172 0.1072169 0.9817172 0.1072169 0.0182828 -0.1072169
6318750000 0.0178953 -0.1053372 0.9821047 0.1053372 0.9821047 0.1053372 0.0178953 -0.1053372
6368500000 0.0175193 -0.1034769 0.9824807 0.1034769 0.9824807 0.1034769 0.0175193 -0.1034769
6418250000 0.0171545 -0.1016354 0.9828455 0.1016354 0.9828455 0.1016354 0.0171545 -0.1016354
6468000000 0.0168005 -0.0998126 0.9831995 0.0998126 0.9831995 0.0998126 0.0168005 -0.0998126
6517750000 0.0164571 -0.0980078 0.9835429 0.0980078 0.9835429 0.0980078 0.0164571 -0.0980078
6567500000 0.0161238 -0.0962210 0.9838762 0.0962210 0.9838762 0.0962210 0.0161238 -0.0962210
6617250000 0.0158005 -0.0944515 0.9841995 0.0944515 0.9841995 0.0944515 0.0158005 -0.0944515
6667000000 0.0154869 -0.0926992 0.9845131 0.0926992 0.9845131 0.0926992 0.0154869 -0.0926992
6716750000 0.0151827 -0.0909637 0.9848173 0.0909637 0.9848173 0.0909637 0.0151827 -0.0909637
6766500000 0.0148877 -0.0892447 0.9851123 0.0892447 0.9851123 0.0892447 0.0148877 -0.0892447
6816250000 0.0146015 -0.0875418 0.9853985 0.0875418 0.9853985 0.0875418 0.0146015 -0.0875418
6866000000 0.0143241 -0.0858547 0.9856759 0.0858547 0.9856759 0.0858547 0.0143241 -0.0858547
6915750000 0.0140550 -0.0841832 0.9859450 0.0841832 0.9859450 0.0841832 0.0140550 -0.0841832
6965500000 0.0137942 -0.0825269 0.9862058 0.0825269 0.9862058 0.0825269 0.0137942 -0.0825269
7015250000 0.0135414 -0.0808855 0.9864586 0.0808855 0.9864586 0.0808855 0.0135414 -0.0808855
7065000000 0.0132964 -0.0792589 0.9867036 0.0792589 0.9867036 0.0792589 0.0132964 -0.0792589
7114750000 0.0130590 -0.0776466 0.9869410 0.0776466 0.9869410 0.0776466 0.0130590 -0.0776466
7164500000 0.0128291 -0.0760485 0.9871709 0.0760485 0.9871709 0.0760485 0.0128291 -0.0760485
7214250000 0.0126063 -0.0744642 0.9873937 0.0744642 0.9873937 0.0744642 0.0126063 -0.0744642
7264000000 0.0123905 -0.0728935 0.9876095 0.0728935 0.9876095 0.0728935 0.0123905 -0.0728935
7313750000 0.0121817 -0.0713362 0.9878183 0.0713362 0.9878183 0.0713362 0.0121817 -0.0713362
7363500000 0.0119795 -0.0697921 0.9880205 0.0697921 0.9880205 0.0697921 0.0119795 -0.0697921
7413250000 0.0117838 -0.0682608 0.9882162 0.0682608 0.9882162 0.0682608 0.0117838 -0.0682608
7463000000 0.0115946 -0.0667422 0.9884054 0.0667422 0.9884054 0.0667422 0.0115946 -0.0667422
7512750000 0.0114115 -0.0652360 0.9885885 0.0652360 0.9885885 0.0652360 0.0114115 -0.0652360
7562500000 0.0112345 -0.0637420 0.9887655 0.0637420 0.9887655 0.0637420 0.0112345 -0.0637420
7612250000 0.0110635 -0.0622600 0.9889365 0.0622600 0.9889365 0.0622600 0.0110635 -0.0622600
7662000000 0.0108982 -0.0607897 0.9891018 0.0607897 0.9891018 0.0607897 0.0108982 -0.0607897
7711750000 0.0107386 -0.0593311 0.9892614 0.0593311 0.9892614 0.0593311 0.0107386 -0.0593311
7761500000 0.0105845 -0.0578838 0.9894155 0.0578838 0.9894155 0.0578838 0.0105845 -0.0578838
7811250000 0.0104358 -0.0564476 0.9895642 0.0564476 0.9895642 0.0564476 0.0104358 -0.0564476
7861000000 0.0102924 -0.0550225 0.9897076 0.0550225 0.9897076 0.0550225 0.0102924 -0.0550225
7910750000 0.0101542 -0.0536082 0.9898458 0.0536082 0.9898458 0.0536082 0.0101542 -0.0536082
7960500000 0.0100210 -0.0522044 0.9899790 0.0522044 0.9899790 0.0522044 0.0100210 -0.0522044
8010250000 0.0098927 -0.0508111 0.9901073 0.0508111 0.9901073 0.0508111 0.0098927 -0.0508111
8060000000 0.0097692 -0.0494280 0.9902308 0.0494280 0.9902308 0.0494280 0.0097692 -0.0494280
8109750000 0.0096505 -0.0480550 0.9903495 0.0480550 0.9903495 0.0480550 0.0096505 -0.0480550
8159500000 0.0095364 -0.0466920 0.9904636 0.0466920 0.9904636 0.0466920 0.0095364 -0.0466920
8209250000 0.0094267 -0.0453386 0.9905733 0.0453386 0.9905733 0.0453386 0.0094267 -0.0453386
8259000000 0.0093216 -0.0439949 0.9906784 0.0439949 0.9906784 0.0439949 0.0093216 -0.0439949
8308750000 0.0092207 -0.0426606 0.9907793 0.0426606 0.9907793 0.0426606 0.0092207 -0.0426606
8358500000 0.0091241 -0.0413355 0.9908759 0.0413355 0.9908759 0.0413355 0.0091241 -0.0413355
8408250000 0.0090316 -0.0400196 0.9909684 0.0400196 0.9909684 0.0400196 0.0090316 -0.0400196
8458000000 0.0089432 -0.0387126 0.9910568 0.0387126 0.9910568 0.0387126 0.0089432 -0.0387126
8507750000 0.0088588 -0.0374145 0.9911412 0.0374145 0.9911412 0.0374145 0.0088588 -0.0374145
8557500000 0.0087783 -0.0361251 0.9912217 0.0361251 0.9912217 0.0361251 0.0087783 -0.0361251
8607250000 0.0087016 -0.0348442 0.9912984 0.0348442 0.9912984 0.0348442 0.0087016 -0.0348442
8657000000 0.0086286 -0.0335717 0.9913714 0.0335717 0.9913714 0.0335717 0.0086286 -0.0335717
8706750000 0.0085594 -0.0323075 0.9914406 0.0323075 0.9914406 0.0323075 0.0085594 -0.0323075
8756500000 0.0084937 -0.0310515 0.9915063 0.0310515 0.9915063 0.0310515 0.0084937 -0.0310515
8806250000 0.0084316 -0.0298035 0.9915684 0.0298035 0.9915684 0.0298035 0.0084316 -0.0298035
8856000000 0.0083729 -0.0285633 0.9916271 0.0285633 0.9916271 0.0285633 0.0083729 -0.0285633
8905750000 0.0083177 -0.0273310 0.9916823 0.0273310 0.9916823 0.0273310 0.0083177 -0.0273310
8955500000 0.0082657 -0.0261063 0.9917343 0.0261063 0.9917343 0.0261063 0.0082657 -0.0261063
9005250000 0.0082171 -0.0248892 0.9917829 0.0248892 0.9917829 0.0248892 0.0082171 -0.0248892
9055000000 0.0081717 -0.0236794 0.9918283 0.0236794 0.9918283 0.0236794 0.0081717 -0.0236794
9104750000 0.0081294 -0.0224770 0.9918706 0.0224770 0.9918706 0.0224770 0.0081294 -0.0224770
9154500000 0.0080902 -0.0212818 0.9919098 0.0212818 0.9919098 0.0212818 0.0080902 -0.0212818
9204250000 0.0080541 -0.0200937 0.9919459 0.0200937 0.9919459 0.0200937 0.0080541 -0.0200937
9254000000 0.0080209 -0.0189126 0.9919791 0.0189126 0.9919791 0.0189126 0.0080209 -0.0189126
9303750000 0.0079907 -0.0177384 0.9920093 0.0177384 0.9920093 0.0177384 0.0079907 -0.0177384
9353500000 0.0079634 -0.0165709 0.9920366 0.0165709 0.9920366 0.0165709 0.0079634 -0.0165709
9403250000 0.0079389 -0.0154101 0.9920611 0.0154101 0.9920611 0.0154101 0.0079389 -0.0154101
9453000000 0.0079172 -0.0142560 0.9920828 0.0142560 0.9920828 0.0142560 0.0079172 -0.0142560
9502750000 0.0078982 -0.0131083 0.9921018 0.0131083 0.9921018 0.0131083 0.0078982 -0.0131083
9552500000 0.0078820 -0.0119670 0.9921180 0.0119670 0.9921180 0.0119670 0.0078820 -0.0119670
9602250000 0.0078683 -0.0108320 0.9921317 0.0108320 0.9921317 0.0108320 0.0078683 -0.0108320
9652000000 0.0078573 -0.0097032 0.9921427 0.0097032 0.9921427 0.0097032 0.0078573 -0.0097032
9701750000 0.0078489 -0.0085806 0.9921511 0.0085806 0.9921511 0.0085806 0.0078489 -0.0085806
9751500000 0.0078429 -0.0074640 0.9921571 0.0074640 0.9921571 0.0074640 0.0078429 -0.0074640
9801250000 0.0078395 -0.0063533 0.9921605 0.0063533 0.9921605 0.0063533 0.0078395 -0.0063533
9851000000 0.0078384 -0.0052485 0.9921616 0.0052485 0.9921616 0.0052485 0.0078384 -0.0052485
9900750000 0.0078398 -0.0041496 0.9921602 0.0041496 0.9921602 0.0041496 0.0078398 -0.0041496
9950500000 0.0078436 -0.0030563 0.9921564 0.0030563 0.9921564 0.0030563 0.0078436 -0.0030563
10000250000 0.0078496 -0.0019686 0.9921504 0.0019686 0.9921504 0.0019686 0.0078496 -0.0019686
10050000000 0.0078580 -0.0008865 0.9921420 0.0008865 0.9921420 0.0008865 0.0078580 -0.0008865
10099750000 0.0078686 0.0001901 0.9921314 -0.0001901 0.9921314 -0.0001901 0.0078686 0.0001901
10149500000 0.0078815 0.0012613 0.9921185 -0.0012613 0.9921185 -0.0012613 0.0078815 0.0012613
10199250000 0.0078965 0.0023272 0.9921035 -0.0023272 0.9921035 -0.0023272 0.0078965 0.0023272
10249000000 0.0079137 0.0033878 0.9920863 -0.0033878 0.9920863 -0.0033878 0.0079137 0.0033878
10298750000 0.0079330 0.0044433 0.9920670 -0.0044433 0.9920670 -0.0044433 0.0079330 0.0044433
10348500000 0.0079544 0.0054936 0.9920456 -0.0054936 0.9920456 -0.0054936 0.0079544 0.0054936
10398250000 0.0079779 0.0065389 0.9920221 -0.0065389 0.9920221 -0.0065389 0.0079779 0.0065389
10448000000 0.0080034 0.0075792 0.9919966 -0.0075792 0.9919966 -0.0075792 0.0080034 0.0075792
10497750000 0.0080309 0.0086145 0.9919691 -0.0086145 0.9919691 -0.0086145 0.0080309 0.0086145
