!Murata Part Number: GRM0115C1E7R0WE01
!These Parameters are Measured in Series Mode Connection
!Data Generated on Mar 30, 2021
!       o--ll--o
!Port1            Port2
!       o------o
!Operation Temp=25[degC], DC Bias Voltage=0[V]
!Freq. Start=100[MHz] Stop=9[GHz] 401[Steps]
# Hz S RI R 50
!Freq.(Hz) S11(Real) S11(Imag) S21(Real) S21(Imag) S12(Real) S12(Imag) S22(Real) S22(Imag)
100000000 0.8376737 -0.3684620 0.1623263 0.3684620 0.1623263 0.3684620 0.8376737 -0.3684620
121000000 0.7789528 -0.4146032 0.2210472 0.4146032 0.2210472 0.4146032 0.7789528 -0.4146032
142000000 0.7189497 -0.4491013 0.2810503 0.4491013 0.2810503 0.4491013 0.7189497 -0.4491013
163000000 0.6599633 -0.4732485 0.3400367 0.4732485 0.3400367 0.4732485 0.6599633 -0.4732485
184000000 0.6035888 -0.4886163 0.3964112 0.4886163 0.3964112 0.4886163 0.6035888 -0.4886163
205000000 0.5508083 -0.4968132 0.4491917 0.4968132 0.4491917 0.4968132 0.5508083 -0.4968132
226000000 0.5021239 -0.4993330 0.4978761 0.4993330 0.4978761 0.4993330 0.5021239 -0.4993330
247000000 0.4576919 -0.4974797 0.5423081 0.4974797 0.5423081 0.4974797 0.4576919 -0.4974797
268000000 0.4174385 -0.4923439 0.5825615 0.4923439 0.5825615 0.4923439 0.4174385 -0.4923439
289000000 0.3811492 -0.4848102 0.6188508 0.4848102 0.6188508 0.4848102 0.3811492 -0.4848102
310000000 0.3485329 -0.4755795 0.6514671 0.4755795 0.6514671 0.4755795 0.3485329 -0.4755795
331000000 0.3192656 -0.4651977 0.6807344 0.4651977 0.6807344 0.4651977 0.3192656 -0.4651977
352000000 0.2930185 -0.4540832 0.7069815 0.4540832 0.7069815 0.4540832 0.2930185 -0.4540832
373000000 0.2694749 -0.4425530 0.7305251 0.4425530 0.7305251 0.4425530 0.2694749 -0.4425530
394000000 0.2483394 -0.4308442 0.7516606 0.4308442 0.7516606 0.4308442 0.2483394 -0.4308442
415000000 0.2293424 -0.4191317 0.7706576 0.4191317 0.7706576 0.4191317 0.2293424 -0.4191317
436000000 0.2122413 -0.4075428 0.7877587 0.4075428 0.7877587 0.4075428 0.2122413 -0.4075428
457000000 0.1968200 -0.3961680 0.8031800 0.3961680 0.8031800 0.3961680 0.1968200 -0.3961680
478000000 0.1828870 -0.3850702 0.8171130 0.3850702 0.8171130 0.3850702 0.1828870 -0.3850702
499000000 0.1702735 -0.3742916 0.8297265 0.3742916 0.8297265 0.3742916 0.1702735 -0.3742916
520000000 0.1588314 -0.3638582 0.8411686 0.3638582 0.8411686 0.3638582 0.1588314 -0.3638582
541000000 0.1484302 -0.3537848 0.8515698 0.3537848 0.8515698 0.3537848 0.1484302 -0.3537848
562000000 0.1389558 -0.3440773 0.8610442 0.3440773 0.8610442 0.3440773 0.1389558 -0.3440773
583000000 0.1303079 -0.3347353 0.8696921 0.3347353 0.8696921 0.3347353 0.1303079 -0.3347353
604000000 0.1223984 -0.3257539 0.8776016 0.3257539 0.8776016 0.3257539 0.1223984 -0.3257539
625000000 0.1151500 -0.3171250 0.8848500 0.3171250 0.8848500 0.3171250 0.1151500 -0.3171250
646000000 0.1084946 -0.3088381 0.8915054 0.3088381 0.8915054 0.3088381 0.1084946 -0.3088381
667000000 0.1023721 -0.3008816 0.8976279 0.3008816 0.8976279 0.3008816 0.1023721 -0.3008816
688000000 0.0967296 -0.2932427 0.9032704 0.2932427 0.9032704 0.2932427 0.0967296 -0.2932427
709000000 0.0915202 -0.2859082 0.9084798 0.2859082 0.9084798 0.2859082 0.0915202 -0.2859082
730000000 0.0867024 -0.2788649 0.9132976 0.2788649 0.9132976 0.2788649 0.0867024 -0.2788649
751000000 0.0822393 -0.2720995 0.9177607 0.2720995 0.9177607 0.2720995 0.0822393 -0.2720995
772000000 0.0780981 -0.2655990 0.9219019 0.2655990 0.9219019 0.2655990 0.0780981 -0.2655990
793000000 0.0742497 -0.2593508 0.9257503 0.2593508 0.9257503 0.2593508 0.0742497 -0.2593508
814000000 0.0706680 -0.2533427 0.9293320 0.2533427 0.9293320 0.2533427 0.0706680 -0.2533427
835000000 0.0673297 -0.2475630 0.9326703 0.2475630 0.9326703 0.2475630 0.0673297 -0.2475630
856000000 0.0642139 -0.2420003 0.9357861 0.2420003 0.9357861 0.2420003 0.0642139 -0.2420003
877000000 0.0613017 -0.2366441 0.9386983 0.2366441 0.9386983 0.2366441 0.0613017 -0.2366441
898000000 0.0585764 -0.2314841 0.9414236 0.2314841 0.9414236 0.2314841 0.0585764 -0.2314841
919000000 0.0560227 -0.2265107 0.9439773 0.2265107 0.9439773 0.2265107 0.0560227 -0.2265107
940000000 0.0536270 -0.2217146 0.9463730 0.2217146 0.9463730 0.2217146 0.0536270 -0.2217146
961000000 0.0513767 -0.2170873 0.9486233 0.2170873 0.9486233 0.2170873 0.0513767 -0.2170873
982000000 0.0492607 -0.2126205 0.9507393 0.2126205 0.9507393 0.2126205 0.0492607 -0.2126205
1003000000 0.0472687 -0.2083064 0.9527313 0.2083064 0.9527313 0.2083064 0.0472687 -0.2083064
1024000000 0.0453916 -0.2041378 0.9546084 0.2041378 0.9546084 0.2041378 0.0453916 -0.2041378
1045000000 0.0436208 -0.2001077 0.9563792 0.2001077 0.9563792 0.2001077 0.0436208 -0.2001077
1066000000 0.0419487 -0.1962096 0.9580513 0.1962096 0.9580513 0.1962096 0.0419487 -0.1962096
1087000000 0.0403683 -0.1924374 0.9596317 0.1924374 0.9596317 0.1924374 0.0403683 -0.1924374
1108000000 0.0388731 -0.1887851 0.9611269 0.1887851 0.9611269 0.1887851 0.0388731 -0.1887851
1129000000 0.0374573 -0.1852473 0.9625427 0.1852473 0.9625427 0.1852473 0.0374573 -0.1852473
1150000000 0.0361155 -0.1818188 0.9638845 0.1818188 0.9638845 0.1818188 0.0361155 -0.1818188
1171000000 0.0348428 -0.1784946 0.9651572 0.1784946 0.9651572 0.1784946 0.0348428 -0.1784946
1192000000 0.0336346 -0.1752703 0.9663654 0.1752703 0.9663654 0.1752703 0.0336346 -0.1752703
1213000000 0.0324867 -0.1721412 0.9675133 0.1721412 0.9675133 0.1721412 0.0324867 -0.1721412
1234000000 0.0313953 -0.1691034 0.9686047 0.1691034 0.9686047 0.1691034 0.0313953 -0.1691034
1255000000 0.0303568 -0.1661528 0.9696432 0.1661528 0.9696432 0.1661528 0.0303568 -0.1661528
1276000000 0.0293680 -0.1632858 0.9706320 0.1632858 0.9706320 0.1632858 0.0293680 -0.1632858
1297000000 0.0284258 -0.1604989 0.9715742 0.1604989 0.9715742 0.1604989 0.0284258 -0.1604989
1318000000 0.0275274 -0.1577886 0.9724726 0.1577886 0.9724726 0.1577886 0.0275274 -0.1577886
1339000000 0.0266702 -0.1551519 0.9733298 0.1551519 0.9733298 0.1551519 0.0266702 -0.1551519
1360000000 0.0258518 -0.1525857 0.9741482 0.1525857 0.9741482 0.1525857 0.0258518 -0.1525857
1381000000 0.0250699 -0.1500872 0.9749301 0.1500872 0.9749301 0.1500872 0.0250699 -0.1500872
1402000000 0.0243225 -0.1476537 0.9756775 0.1476537 0.9756775 0.1476537 0.0243225 -0.1476537
1423000000 0.0236076 -0.1452826 0.9763924 0.1452826 0.9763924 0.1452826 0.0236076 -0.1452826
1444000000 0.0229234 -0.1429715 0.9770766 0.1429715 0.9770766 0.1429715 0.0229234 -0.1429715
1465000000 0.0222683 -0.1407181 0.9777317 0.1407181 0.9777317 0.1407181 0.0222683 -0.1407181
1486000000 0.0216406 -0.1385201 0.9783594 0.1385201 0.9783594 0.1385201 0.0216406 -0.1385201
1507000000 0.0210389 -0.1363755 0.9789611 0.1363755 0.9789611 0.1363755 0.0210389 -0.1363755
1528000000 0.0204618 -0.1342824 0.9795382 0.1342824 0.9795382 0.1342824 0.0204618 -0.1342824
1549000000 0.0199080 -0.1322386 0.9800920 0.1322386 0.9800920 0.1322386 0.0199080 -0.1322386
1570000000 0.0193764 -0.1302426 0.9806236 0.1302426 0.9806236 0.1302426 0.0193764 -0.1302426
1591000000 0.0188658 -0.1282925 0.9811342 0.1282925 0.9811342 0.1282925 0.0188658 -0.1282925
1612000000 0.0183751 -0.1263867 0.9816249 0.1263867 0.9816249 0.1263867 0.0183751 -0.1263867
1633000000 0.0179034 -0.1245236 0.9820966 0.1245236 0.9820966 0.1245236 0.0179034 -0.1245236
1654000000 0.0174497 -0.1227018 0.9825503 0.1227018 0.9825503 0.1227018 0.0174497 -0.1227018
1675000000 0.0170132 -0.1209197 0.9829868 0.1209197 0.9829868 0.1209197 0.0170132 -0.1209197
1696000000 0.0165930 -0.1191761 0.9834070 0.1191761 0.9834070 0.1191761 0.0165930 -0.1191761
1717000000 0.0161883 -0.1174696 0.9838117 0.1174696 0.9838117 0.1174696 0.0161883 -0.1174696
1738000000 0.0157985 -0.1157989 0.9842015 0.1157989 0.9842015 0.1157989 0.0157985 -0.1157989
1759000000 0.0154228 -0.1141630 0.9845772 0.1141630 0.9845772 0.1141630 0.0154228 -0.1141630
1780000000 0.0150606 -0.1125605 0.9849394 0.1125605 0.9849394 0.1125605 0.0150606 -0.1125605
1801000000 0.0147113 -0.1109905 0.9852887 0.1109905 0.9852887 0.1109905 0.0147113 -0.1109905
1822000000 0.0143743 -0.1094519 0.9856257 0.1094519 0.9856257 0.1094519 0.0143743 -0.1094519
1843000000 0.0140490 -0.1079436 0.9859510 0.1079436 0.9859510 0.1079436 0.0140490 -0.1079436
1864000000 0.0137350 -0.1064648 0.9862650 0.1064648 0.9862650 0.1064648 0.0137350 -0.1064648
1885000000 0.0134317 -0.1050144 0.9865683 0.1050144 0.9865683 0.1050144 0.0134317 -0.1050144
1906000000 0.0131387 -0.1035916 0.9868613 0.1035916 0.9868613 0.1035916 0.0131387 -0.1035916
1927000000 0.0128556 -0.1021956 0.9871444 0.1021956 0.9871444 0.1021956 0.0128556 -0.1021956
1948000000 0.0125819 -0.1008255 0.9874181 0.1008255 0.9874181 0.1008255 0.0125819 -0.1008255
1969000000 0.0123172 -0.0994805 0.9876828 0.0994805 0.9876828 0.0994805 0.0123172 -0.0994805
1990000000 0.0120612 -0.0981600 0.9879388 0.0981600 0.9879388 0.0981600 0.0120612 -0.0981600
2011000000 0.0118135 -0.0968630 0.9881865 0.0968630 0.9881865 0.0968630 0.0118135 -0.0968630
2032000000 0.0115738 -0.0955891 0.9884262 0.0955891 0.9884262 0.0955891 0.0115738 -0.0955891
2053000000 0.0113418 -0.0943374 0.9886582 0.0943374 0.9886582 0.0943374 0.0113418 -0.0943374
2074000000 0.0111171 -0.0931074 0.9888829 0.0931074 0.9888829 0.0931074 0.0111171 -0.0931074
2095000000 0.0108995 -0.0918984 0.9891005 0.0918984 0.9891005 0.0918984 0.0108995 -0.0918984
2116000000 0.0106887 -0.0907099 0.9893113 0.0907099 0.9893113 0.0907099 0.0106887 -0.0907099
2137000000 0.0104844 -0.0895411 0.9895156 0.0895411 0.9895156 0.0895411 0.0104844 -0.0895411
2158000000 0.0102864 -0.0883917 0.9897136 0.0883917 0.9897136 0.0883917 0.0102864 -0.0883917
2179000000 0.0100945 -0.0872611 0.9899055 0.0872611 0.9899055 0.0872611 0.0100945 -0.0872611
2200000000 0.0099084 -0.0861487 0.9900916 0.0861487 0.9900916 0.0861487 0.0099084 -0.0861487
2221000000 0.0097278 -0.0850540 0.9902722 0.0850540 0.9902722 0.0850540 0.0097278 -0.0850540
2242000000 0.0095527 -0.0839766 0.9904473 0.0839766 0.9904473 0.0839766 0.0095527 -0.0839766
2263000000 0.0093828 -0.0829161 0.9906172 0.0829161 0.9906172 0.0829161 0.0093828 -0.0829161
2284000000 0.0092179 -0.0818718 0.9907821 0.0818718 0.9907821 0.0818718 0.0092179 -0.0818718
2305000000 0.0090578 -0.0808436 0.9909422 0.0808436 0.9909422 0.0808436 0.0090578 -0.0808436
2326000000 0.0089025 -0.0798308 0.9910975 0.0798308 0.9910975 0.0798308 0.0089025 -0.0798308
2347000000 0.0087516 -0.0788331 0.9912484 0.0788331 0.9912484 0.0788331 0.0087516 -0.0788331
2368000000 0.0086050 -0.0778502 0.9913950 0.0778502 0.9913950 0.0778502 0.0086050 -0.0778502
2389000000 0.0084627 -0.0768816 0.9915373 0.0768816 0.9915373 0.0768816 0.0084627 -0.0768816
2410000000 0.0083244 -0.0759270 0.9916756 0.0759270 0.9916756 0.0759270 0.0083244 -0.0759270
2431000000 0.0081900 -0.0749860 0.9918100 0.0749860 0.9918100 0.0749860 0.0081900 -0.0749860
2452000000 0.0080594 -0.0740583 0.9919406 0.0740583 0.9919406 0.0740583 0.0080594 -0.0740583
2473000000 0.0079325 -0.0731436 0.9920675 0.0731436 0.9920675 0.0731436 0.0079325 -0.0731436
2494000000 0.0078092 -0.0722415 0.9921908 0.0722415 0.9921908 0.0722415 0.0078092 -0.0722415
2515000000 0.0076892 -0.0713518 0.9923108 0.0713518 0.9923108 0.0713518 0.0076892 -0.0713518
2536000000 0.0075726 -0.0704741 0.9924274 0.0704741 0.9924274 0.0704741 0.0075726 -0.0704741
2557000000 0.0074591 -0.0696082 0.9925409 0.0696082 0.9925409 0.0696082 0.0074591 -0.0696082
2578000000 0.0073488 -0.0687537 0.9926512 0.0687537 0.9926512 0.0687537 0.0073488 -0.0687537
2599000000 0.0072415 -0.0679105 0.9927585 0.0679105 0.9927585 0.0679105 0.0072415 -0.0679105
2620000000 0.0071371 -0.0670781 0.9928629 0.0670781 0.9928629 0.0670781 0.0071371 -0.0670781
2641000000 0.0070356 -0.0662565 0.9929644 0.0662565 0.9929644 0.0662565 0.0070356 -0.0662565
2662000000 0.0069368 -0.0654453 0.9930632 0.0654453 0.9930632 0.0654453 0.0069368 -0.0654453
2683000000 0.0068406 -0.0646443 0.9931594 0.0646443 0.9931594 0.0646443 0.0068406 -0.0646443
2704000000 0.0067470 -0.0638532 0.9932530 0.0638532 0.9932530 0.0638532 0.0067470 -0.0638532
2725000000 0.0066559 -0.0630719 0.9933441 0.0630719 0.9933441 0.0630719 0.0066559 -0.0630719
2746000000 0.0065673 -0.0623002 0.9934327 0.0623002 0.9934327 0.0623002 0.0065673 -0.0623002
2767000000 0.0064810 -0.0615377 0.9935190 0.0615377 0.9935190 0.0615377 0.0064810 -0.0615377
2788000000 0.0063970 -0.0607844 0.9936030 0.0607844 0.9936030 0.0607844 0.0063970 -0.0607844
2809000000 0.0063152 -0.0600399 0.9936848 0.0600399 0.9936848 0.0600399 0.0063152 -0.0600399
2830000000 0.0062356 -0.0593041 0.9937644 0.0593041 0.9937644 0.0593041 0.0062356 -0.0593041
2851000000 0.0061580 -0.0585769 0.9938420 0.0585769 0.9938420 0.0585769 0.0061580 -0.0585769
2872000000 0.0060825 -0.0578580 0.9939175 0.0578580 0.9939175 0.0578580 0.0060825 -0.0578580
2893000000 0.0060090 -0.0571473 0.9939910 0.0571473 0.9939910 0.0571473 0.0060090 -0.0571473
2914000000 0.0059374 -0.0564446 0.9940626 0.0564446 0.9940626 0.0564446 0.0059374 -0.0564446
2935000000 0.0058677 -0.0557496 0.9941323 0.0557496 0.9941323 0.0557496 0.0058677 -0.0557496
2956000000 0.0057998 -0.0550624 0.9942002 0.0550624 0.9942002 0.0550624 0.0057998 -0.0550624
2977000000 0.0057337 -0.0543826 0.9942663 0.0543826 0.9942663 0.0543826 0.0057337 -0.0543826
2998000000 0.0056693 -0.0537101 0.9943307 0.0537101 0.9943307 0.0537101 0.0056693 -0.0537101
3019000000 0.0056066 -0.0530449 0.9943934 0.0530449 0.9943934 0.0530449 0.0056066 -0.0530449
3040000000 0.0055456 -0.0523867 0.9944544 0.0523867 0.9944544 0.0523867 0.0055456 -0.0523867
3061000000 0.0054861 -0.0517354 0.9945139 0.0517354 0.9945139 0.0517354 0.0054861 -0.0517354
3082000000 0.0054282 -0.0510908 0.9945718 0.0510908 0.9945718 0.0510908 0.0054282 -0.0510908
3103000000 0.0053718 -0.0504529 0.9946282 0.0504529 0.9946282 0.0504529 0.0053718 -0.0504529
3124000000 0.0053168 -0.0498215 0.9946832 0.0498215 0.9946832 0.0498215 0.0053168 -0.0498215
3145000000 0.0052633 -0.0491964 0.9947367 0.0491964 0.9947367 0.0491964 0.0052633 -0.0491964
3166000000 0.0052113 -0.0485776 0.9947887 0.0485776 0.9947887 0.0485776 0.0052113 -0.0485776
3187000000 0.0051605 -0.0479648 0.9948395 0.0479648 0.9948395 0.0479648 0.0051605 -0.0479648
3208000000 0.0051112 -0.0473581 0.9948888 0.0473581 0.9948888 0.0473581 0.0051112 -0.0473581
3229000000 0.0050631 -0.0467573 0.9949369 0.0467573 0.9949369 0.0467573 0.0050631 -0.0467573
3250000000 0.0050163 -0.0461622 0.9949837 0.0461622 0.9949837 0.0461622 0.0050163 -0.0461622
3271000000 0.0049707 -0.0455728 0.9950293 0.0455728 0.9950293 0.0455728 0.0049707 -0.0455728
3292000000 0.0049264 -0.0449890 0.9950736 0.0449890 0.9950736 0.0449890 0.0049264 -0.0449890
3313000000 0.0048832 -0.0444106 0.9951168 0.0444106 0.9951168 0.0444106 0.0048832 -0.0444106
3334000000 0.0048412 -0.0438375 0.9951588 0.0438375 0.9951588 0.0438375 0.0048412 -0.0438375
3355000000 0.0048003 -0.0432697 0.9951997 0.0432697 0.9951997 0.0432697 0.0048003 -0.0432697
3376000000 0.0047605 -0.0427070 0.9952395 0.0427070 0.9952395 0.0427070 0.0047605 -0.0427070
3397000000 0.0047218 -0.0421494 0.9952782 0.0421494 0.9952782 0.0421494 0.0047218 -0.0421494
3418000000 0.0046842 -0.0415968 0.9953158 0.0415968 0.9953158 0.0415968 0.0046842 -0.0415968
3439000000 0.0046476 -0.0410490 0.9953524 0.0410490 0.9953524 0.0410490 0.0046476 -0.0410490
3460000000 0.0046120 -0.0405060 0.9953880 0.0405060 0.9953880 0.0405060 0.0046120 -0.0405060
3481000000 0.0045773 -0.0399677 0.9954227 0.0399677 0.9954227 0.0399677 0.0045773 -0.0399677
3502000000 0.0045437 -0.0394341 0.9954563 0.0394341 0.9954563 0.0394341 0.0045437 -0.0394341
3523000000 0.0045110 -0.0389049 0.9954890 0.0389049 0.9954890 0.0389049 0.0045110 -0.0389049
3544000000 0.0044792 -0.0383802 0.9955208 0.0383802 0.9955208 0.0383802 0.0044792 -0.0383802
3565000000 0.0044483 -0.0378599 0.9955517 0.0378599 0.9955517 0.0378599 0.0044483 -0.0378599
3586000000 0.0044183 -0.0373439 0.9955817 0.0373439 0.9955817 0.0373439 0.0044183 -0.0373439
3607000000 0.0043892 -0.0368321 0.9956108 0.0368321 0.9956108 0.0368321 0.0043892 -0.0368321
3628000000 0.0043610 -0.0363245 0.9956390 0.0363245 0.9956390 0.0363245 0.0043610 -0.0363245
3649000000 0.0043335 -0.0358209 0.9956665 0.0358209 0.9956665 0.0358209 0.0043335 -0.0358209
3670000000 0.0043069 -0.0353213 0.9956931 0.0353213 0.9956931 0.0353213 0.0043069 -0.0353213
3691000000 0.0042811 -0.0348257 0.9957189 0.0348257 0.9957189 0.0348257 0.0042811 -0.0348257
3712000000 0.0042561 -0.0343339 0.9957439 0.0343339 0.9957439 0.0343339 0.0042561 -0.0343339
3733000000 0.0042318 -0.0338460 0.9957682 0.0338460 0.9957682 0.0338460 0.0042318 -0.0338460
3754000000 0.0042083 -0.0333618 0.9957917 0.0333618 0.9957917 0.0333618 0.0042083 -0.0333618
3775000000 0.0041855 -0.0328813 0.9958145 0.0328813 0.9958145 0.0328813 0.0041855 -0.0328813
3796000000 0.0041635 -0.0324044 0.9958365 0.0324044 0.9958365 0.0324044 0.0041635 -0.0324044
3817000000 0.0041422 -0.0319311 0.9958578 0.0319311 0.9958578 0.0319311 0.0041422 -0.0319311
3838000000 0.0041215 -0.0314612 0.9958785 0.0314612 0.9958785 0.0314612 0.0041215 -0.0314612
3859000000 0.0041016 -0.0309949 0.9958984 0.0309949 0.9958984 0.0309949 0.0041016 -0.0309949
3880000000 0.0040823 -0.0305319 0.9959177 0.0305319 0.9959177 0.0305319 0.0040823 -0.0305319
3901000000 0.0040637 -0.0300722 0.9959363 0.0300722 0.9959363 0.0300722 0.0040637 -0.0300722
3922000000 0.0040458 -0.0296158 0.9959542 0.0296158 0.9959542 0.0296158 0.0040458 -0.0296158
3943000000 0.0040285 -0.0291627 0.9959715 0.0291627 0.9959715 0.0291627 0.0040285 -0.0291627
3964000000 0.0040118 -0.0287127 0.9959882 0.0287127 0.9959882 0.0287127 0.0040118 -0.0287127
3985000000 0.0039957 -0.0282659 0.9960043 0.0282659 0.9960043 0.0282659 0.0039957 -0.0282659
4006000000 0.0039803 -0.0278221 0.9960197 0.0278221 0.9960197 0.0278221 0.0039803 -0.0278221
4027000000 0.0039654 -0.0273814 0.9960346 0.0273814 0.9960346 0.0273814 0.0039654 -0.0273814
4048000000 0.0039511 -0.0269436 0.9960489 0.0269436 0.9960489 0.0269436 0.0039511 -0.0269436
4069000000 0.0039374 -0.0265088 0.9960626 0.0265088 0.9960626 0.0265088 0.0039374 -0.0265088
4090000000 0.0039243 -0.0260769 0.9960757 0.0260769 0.9960757 0.0260769 0.0039243 -0.0260769
4111000000 0.0039117 -0.0256478 0.9960883 0.0256478 0.9960883 0.0256478 0.0039117 -0.0256478
4132000000 0.0038997 -0.0252216 0.9961003 0.0252216 0.9961003 0.0252216 0.0038997 -0.0252216
4153000000 0.0038882 -0.0247980 0.9961118 0.0247980 0.9961118 0.0247980 0.0038882 -0.0247980
4174000000 0.0038773 -0.0243773 0.9961227 0.0243773 0.9961227 0.0243773 0.0038773 -0.0243773
4195000000 0.0038668 -0.0239591 0.9961332 0.0239591 0.9961332 0.0239591 0.0038668 -0.0239591
4216000000 0.0038569 -0.0235437 0.9961431 0.0235437 0.9961431 0.0235437 0.0038569 -0.0235437
4237000000 0.0038475 -0.0231308 0.9961525 0.0231308 0.9961525 0.0231308 0.0038475 -0.0231308
4258000000 0.0038386 -0.0227205 0.9961614 0.0227205 0.9961614 0.0227205 0.0038386 -0.0227205
4279000000 0.0038302 -0.0223127 0.9961698 0.0223127 0.9961698 0.0223127 0.0038302 -0.0223127
4300000000 0.0038223 -0.0219073 0.9961777 0.0219073 0.9961777 0.0219073 0.0038223 -0.0219073
4321000000 0.0038148 -0.0215045 0.9961852 0.0215045 0.9961852 0.0215045 0.0038148 -0.0215045
4342000000 0.0038079 -0.0211040 0.9961921 0.0211040 0.9961921 0.0211040 0.0038079 -0.0211040
4363000000 0.0038014 -0.0207059 0.9961986 0.0207059 0.9961986 0.0207059 0.0038014 -0.0207059
4384000000 0.0037953 -0.0203102 0.9962047 0.0203102 0.9962047 0.0203102 0.0037953 -0.0203102
4405000000 0.0037897 -0.0199168 0.9962103 0.0199168 0.9962103 0.0199168 0.0037897 -0.0199168
4426000000 0.0037846 -0.0195256 0.9962154 0.0195256 0.9962154 0.0195256 0.0037846 -0.0195256
4447000000 0.0037799 -0.0191367 0.9962201 0.0191367 0.9962201 0.0191367 0.0037799 -0.0191367
4468000000 0.0037756 -0.0187500 0.9962244 0.0187500 0.9962244 0.0187500 0.0037756 -0.0187500
4489000000 0.0037718 -0.0183655 0.9962282 0.0183655 0.9962282 0.0183655 0.0037718 -0.0183655
4510000000 0.0037684 -0.0179831 0.9962316 0.0179831 0.9962316 0.0179831 0.0037684 -0.0179831
