!Murata Part Number: GRM0115C1C5R2BE01
!These Parameters are Measured in Series Mode Connection
!Data Generated on Mar 30, 2021
!       o--ll--o
!Port1            Port2
!       o------o
!Operation Temp=25[degC], DC Bias Voltage=0[V]
!Freq. Start=100[MHz] Stop=9[GHz] 401[Steps]
# Hz S RI R 50
!Freq.(Hz) S11(Real) S11(Imag) S21(Real) S21(Imag) S12(Real) S12(Imag) S22(Real) S22(Imag)
100000000 0.9033787 -0.2951873 0.0966213 0.2951873 0.0966213 0.2951873 0.9033787 -0.2951873
121000000 0.8645875 -0.3418556 0.1354125 0.3418556 0.1354125 0.3418556 0.8645875 -0.3418556
142000000 0.8225392 -0.3816959 0.1774608 0.3816959 0.1774608 0.3816959 0.8225392 -0.3816959
163000000 0.7786057 -0.4147683 0.2213943 0.4147683 0.2213943 0.4147683 0.7786057 -0.4147683
184000000 0.7339811 -0.4414020 0.2660189 0.4414020 0.2660189 0.4414020 0.7339811 -0.4414020
205000000 0.6896456 -0.4621107 0.3103544 0.4621107 0.3103544 0.4621107 0.6896456 -0.4621107
226000000 0.6463600 -0.4775147 0.3536400 0.4775147 0.3536400 0.4775147 0.6463600 -0.4775147
247000000 0.6046800 -0.4882780 0.3953200 0.4882780 0.3953200 0.4882780 0.6046800 -0.4882780
268000000 0.5649827 -0.4950603 0.4350173 0.4950603 0.4350173 0.4950603 0.5649827 -0.4950603
289000000 0.5274979 -0.4984859 0.4725021 0.4984859 0.4725021 0.4984859 0.5274979 -0.4984859
310000000 0.4923393 -0.4991247 0.5076607 0.4991247 0.5076607 0.4991247 0.4923393 -0.4991247
331000000 0.4595330 -0.4974830 0.5404670 0.4974830 0.5404670 0.4974830 0.4595330 -0.4974830
352000000 0.4290417 -0.4940017 0.5709583 0.4940017 0.5709583 0.4940017 0.4290417 -0.4940017
373000000 0.4007843 -0.4890579 0.5992157 0.4890579 0.5992157 0.4890579 0.4007843 -0.4890579
394000000 0.3746518 -0.4829706 0.6253482 0.4829706 0.6253482 0.4829706 0.3746518 -0.4829706
415000000 0.3505184 -0.4760061 0.6494816 0.4760061 0.6494816 0.4760061 0.3505184 -0.4760061
436000000 0.3282503 -0.4683854 0.6717497 0.4683854 0.6717497 0.4683854 0.3282503 -0.4683854
457000000 0.3077121 -0.4602897 0.6922879 0.4602897 0.6922879 0.4602897 0.3077121 -0.4602897
478000000 0.2887708 -0.4518671 0.7112292 0.4518671 0.7112292 0.4518671 0.2887708 -0.4518671
499000000 0.2712983 -0.4432374 0.7287017 0.4432374 0.7287017 0.4432374 0.2712983 -0.4432374
520000000 0.2551736 -0.4344972 0.7448264 0.4344972 0.7448264 0.4344972 0.2551736 -0.4344972
541000000 0.2402834 -0.4257234 0.7597166 0.4257234 0.7597166 0.4257234 0.2402834 -0.4257234
562000000 0.2265228 -0.4169773 0.7734772 0.4169773 0.7734772 0.4169773 0.2265228 -0.4169773
583000000 0.2137948 -0.4083068 0.7862052 0.4083068 0.7862052 0.4083068 0.2137948 -0.4083068
604000000 0.2020106 -0.3997490 0.7979894 0.3997490 0.7979894 0.3997490 0.2020106 -0.3997490
625000000 0.1910891 -0.3913325 0.8089109 0.3913325 0.8089109 0.3913325 0.1910891 -0.3913325
646000000 0.1809563 -0.3830787 0.8190437 0.3830787 0.8190437 0.3830787 0.1809563 -0.3830787
667000000 0.1715449 -0.3750031 0.8284551 0.3750031 0.8284551 0.3750031 0.1715449 -0.3750031
688000000 0.1627937 -0.3671167 0.8372063 0.3671167 0.8372063 0.3671167 0.1627937 -0.3671167
709000000 0.1546472 -0.3594268 0.8453528 0.3594268 0.8453528 0.3594268 0.1546472 -0.3594268
730000000 0.1470550 -0.3519375 0.8529450 0.3519375 0.8529450 0.3519375 0.1470550 -0.3519375
751000000 0.1399713 -0.3446508 0.8600287 0.3446508 0.8600287 0.3446508 0.1399713 -0.3446508
772000000 0.1333547 -0.3375666 0.8666453 0.3375666 0.8666453 0.3375666 0.1333547 -0.3375666
793000000 0.1271674 -0.3306835 0.8728326 0.3306835 0.8728326 0.3306835 0.1271674 -0.3306835
814000000 0.1213753 -0.3239987 0.8786247 0.3239987 0.8786247 0.3239987 0.1213753 -0.3239987
835000000 0.1159471 -0.3175089 0.8840529 0.3175089 0.8840529 0.3175089 0.1159471 -0.3175089
856000000 0.1108548 -0.3112097 0.8891452 0.3112097 0.8891452 0.3112097 0.1108548 -0.3112097
877000000 0.1060724 -0.3050966 0.8939276 0.3050966 0.8939276 0.3050966 0.1060724 -0.3050966
898000000 0.1015765 -0.2991645 0.8984235 0.2991645 0.8984235 0.2991645 0.1015765 -0.2991645
919000000 0.0973457 -0.2934081 0.9026543 0.2934081 0.9026543 0.2934081 0.0973457 -0.2934081
940000000 0.0933605 -0.2878221 0.9066395 0.2878221 0.9066395 0.2878221 0.0933605 -0.2878221
961000000 0.0896030 -0.2824011 0.9103970 0.2824011 0.9103970 0.2824011 0.0896030 -0.2824011
982000000 0.0860570 -0.2771394 0.9139430 0.2771394 0.9139430 0.2771394 0.0860570 -0.2771394
1003000000 0.0827074 -0.2720318 0.9172926 0.2720318 0.9172926 0.2720318 0.0827074 -0.2720318
1024000000 0.0795406 -0.2670729 0.9204594 0.2670729 0.9204594 0.2670729 0.0795406 -0.2670729
1045000000 0.0765439 -0.2622574 0.9234561 0.2622574 0.9234561 0.2622574 0.0765439 -0.2622574
1066000000 0.0737059 -0.2575801 0.9262941 0.2575801 0.9262941 0.2575801 0.0737059 -0.2575801
1087000000 0.0710160 -0.2530361 0.9289840 0.2530361 0.9289840 0.2530361 0.0710160 -0.2530361
1108000000 0.0684643 -0.2486205 0.9315357 0.2486205 0.9315357 0.2486205 0.0684643 -0.2486205
1129000000 0.0660419 -0.2443286 0.9339581 0.2443286 0.9339581 0.2443286 0.0660419 -0.2443286
1150000000 0.0637404 -0.2401559 0.9362596 0.2401559 0.9362596 0.2401559 0.0637404 -0.2401559
1171000000 0.0615522 -0.2360979 0.9384478 0.2360979 0.9384478 0.2360979 0.0615522 -0.2360979
1192000000 0.0594702 -0.2321503 0.9405298 0.2321503 0.9405298 0.2321503 0.0594702 -0.2321503
1213000000 0.0574879 -0.2283093 0.9425121 0.2283093 0.9425121 0.2283093 0.0574879 -0.2283093
1234000000 0.0555991 -0.2245707 0.9444009 0.2245707 0.9444009 0.2245707 0.0555991 -0.2245707
1255000000 0.0537983 -0.2209309 0.9462017 0.2209309 0.9462017 0.2209309 0.0537983 -0.2209309
1276000000 0.0520803 -0.2173863 0.9479197 0.2173863 0.9479197 0.2173863 0.0520803 -0.2173863
1297000000 0.0504401 -0.2139333 0.9495599 0.2139333 0.9495599 0.2139333 0.0504401 -0.2139333
1318000000 0.0488733 -0.2105687 0.9511267 0.2105687 0.9511267 0.2105687 0.0488733 -0.2105687
1339000000 0.0473757 -0.2072892 0.9526243 0.2072892 0.9526243 0.2072892 0.0473757 -0.2072892
1360000000 0.0459434 -0.2040918 0.9540566 0.2040918 0.9540566 0.2040918 0.0459434 -0.2040918
1381000000 0.0445727 -0.2009735 0.9554273 0.2009735 0.9554273 0.2009735 0.0445727 -0.2009735
1402000000 0.0432603 -0.1979316 0.9567397 0.1979316 0.9567397 0.1979316 0.0432603 -0.1979316
1423000000 0.0420030 -0.1949634 0.9579970 0.1949634 0.9579970 0.1949634 0.0420030 -0.1949634
1444000000 0.0407978 -0.1920662 0.9592022 0.1920662 0.9592022 0.1920662 0.0407978 -0.1920662
1465000000 0.0396420 -0.1892376 0.9603580 0.1892376 0.9603580 0.1892376 0.0396420 -0.1892376
1486000000 0.0385330 -0.1864752 0.9614670 0.1864752 0.9614670 0.1864752 0.0385330 -0.1864752
1507000000 0.0374683 -0.1837768 0.9625317 0.1837768 0.9625317 0.1837768 0.0374683 -0.1837768
1528000000 0.0364457 -0.1811402 0.9635543 0.1811402 0.9635543 0.1811402 0.0364457 -0.1811402
1549000000 0.0354631 -0.1785632 0.9645369 0.1785632 0.9645369 0.1785632 0.0354631 -0.1785632
1570000000 0.0345184 -0.1760438 0.9654816 0.1760438 0.9654816 0.1760438 0.0345184 -0.1760438
1591000000 0.0336098 -0.1735803 0.9663902 0.1735803 0.9663902 0.1735803 0.0336098 -0.1735803
1612000000 0.0327355 -0.1711706 0.9672645 0.1711706 0.9672645 0.1711706 0.0327355 -0.1711706
1633000000 0.0318938 -0.1688131 0.9681062 0.1688131 0.9681062 0.1688131 0.0318938 -0.1688131
1654000000 0.0310833 -0.1665060 0.9689167 0.1665060 0.9689167 0.1665060 0.0310833 -0.1665060
1675000000 0.0303023 -0.1642478 0.9696977 0.1642478 0.9696977 0.1642478 0.0303023 -0.1642478
1696000000 0.0295496 -0.1620368 0.9704504 0.1620368 0.9704504 0.1620368 0.0295496 -0.1620368
1717000000 0.0288238 -0.1598715 0.9711762 0.1598715 0.9711762 0.1598715 0.0288238 -0.1598715
1738000000 0.0281237 -0.1577506 0.9718763 0.1577506 0.9718763 0.1577506 0.0281237 -0.1577506
1759000000 0.0274482 -0.1556725 0.9725518 0.1556725 0.9725518 0.1556725 0.0274482 -0.1556725
1780000000 0.0267960 -0.1536361 0.9732040 0.1536361 0.9732040 0.1536361 0.0267960 -0.1536361
1801000000 0.0261662 -0.1516400 0.9738338 0.1516400 0.9738338 0.1516400 0.0261662 -0.1516400
1822000000 0.0255579 -0.1496829 0.9744421 0.1496829 0.9744421 0.1496829 0.0255579 -0.1496829
1843000000 0.0249700 -0.1477638 0.9750300 0.1477638 0.9750300 0.1477638 0.0249700 -0.1477638
1864000000 0.0244017 -0.1458814 0.9755983 0.1458814 0.9755983 0.1458814 0.0244017 -0.1458814
1885000000 0.0238522 -0.1440347 0.9761478 0.1440347 0.9761478 0.1440347 0.0238522 -0.1440347
1906000000 0.0233206 -0.1422227 0.9766794 0.1422227 0.9766794 0.1422227 0.0233206 -0.1422227
1927000000 0.0228062 -0.1404442 0.9771938 0.1404442 0.9771938 0.1404442 0.0228062 -0.1404442
1948000000 0.0223083 -0.1386983 0.9776917 0.1386983 0.9776917 0.1386983 0.0223083 -0.1386983
1969000000 0.0218263 -0.1369841 0.9781737 0.1369841 0.9781737 0.1369841 0.0218263 -0.1369841
1990000000 0.0213595 -0.1353008 0.9786405 0.1353008 0.9786405 0.1353008 0.0213595 -0.1353008
2011000000 0.0209072 -0.1336473 0.9790928 0.1336473 0.9790928 0.1336473 0.0209072 -0.1336473
2032000000 0.0204689 -0.1320229 0.9795311 0.1320229 0.9795311 0.1320229 0.0204689 -0.1320229
2053000000 0.0200441 -0.1304267 0.9799559 0.1304267 0.9799559 0.1304267 0.0200441 -0.1304267
2074000000 0.0196321 -0.1288580 0.9803679 0.1288580 0.9803679 0.1288580 0.0196321 -0.1288580
2095000000 0.0192326 -0.1273160 0.9807674 0.1273160 0.9807674 0.1273160 0.0192326 -0.1273160
2116000000 0.0188451 -0.1258000 0.9811549 0.1258000 0.9811549 0.1258000 0.0188451 -0.1258000
2137000000 0.0184690 -0.1243093 0.9815310 0.1243093 0.9815310 0.1243093 0.0184690 -0.1243093
2158000000 0.0181040 -0.1228432 0.9818960 0.1228432 0.9818960 0.1228432 0.0181040 -0.1228432
2179000000 0.0177497 -0.1214011 0.9822503 0.1214011 0.9822503 0.1214011 0.0177497 -0.1214011
2200000000 0.0174055 -0.1199823 0.9825945 0.1199823 0.9825945 0.1199823 0.0174055 -0.1199823
2221000000 0.0170713 -0.1185862 0.9829287 0.1185862 0.9829287 0.1185862 0.0170713 -0.1185862
2242000000 0.0167466 -0.1172122 0.9832534 0.1172122 0.9832534 0.1172122 0.0167466 -0.1172122
2263000000 0.0164311 -0.1158597 0.9835689 0.1158597 0.9835689 0.1158597 0.0164311 -0.1158597
2284000000 0.0161244 -0.1145283 0.9838756 0.1145283 0.9838756 0.1145283 0.0161244 -0.1145283
2305000000 0.0158263 -0.1132173 0.9841737 0.1132173 0.9841737 0.1132173 0.0158263 -0.1132173
2326000000 0.0155364 -0.1119262 0.9844636 0.1119262 0.9844636 0.1119262 0.0155364 -0.1119262
2347000000 0.0152544 -0.1106546 0.9847456 0.1106546 0.9847456 0.1106546 0.0152544 -0.1106546
2368000000 0.0149801 -0.1094020 0.9850199 0.1094020 0.9850199 0.1094020 0.0149801 -0.1094020
2389000000 0.0147133 -0.1081678 0.9852867 0.1081678 0.9852867 0.1081678 0.0147133 -0.1081678
2410000000 0.0144536 -0.1069517 0.9855464 0.1069517 0.9855464 0.1069517 0.0144536 -0.1069517
2431000000 0.0142008 -0.1057532 0.9857992 0.1057532 0.9857992 0.1057532 0.0142008 -0.1057532
2452000000 0.0139548 -0.1045719 0.9860452 0.1045719 0.9860452 0.1045719 0.0139548 -0.1045719
2473000000 0.0137152 -0.1034073 0.9862848 0.1034073 0.9862848 0.1034073 0.0137152 -0.1034073
2494000000 0.0134819 -0.1022591 0.9865181 0.1022591 0.9865181 0.1022591 0.0134819 -0.1022591
2515000000 0.0132546 -0.1011268 0.9867454 0.1011268 0.9867454 0.1011268 0.0132546 -0.1011268
2536000000 0.0130332 -0.1000102 0.9869668 0.1000102 0.9869668 0.1000102 0.0130332 -0.1000102
2557000000 0.0128175 -0.0989088 0.9871825 0.0989088 0.9871825 0.0989088 0.0128175 -0.0989088
2578000000 0.0126073 -0.0978223 0.9873927 0.0978223 0.9873927 0.0978223 0.0126073 -0.0978223
2599000000 0.0124024 -0.0967504 0.9875976 0.0967504 0.9875976 0.0967504 0.0124024 -0.0967504
2620000000 0.0122027 -0.0956926 0.9877973 0.0956926 0.9877973 0.0956926 0.0122027 -0.0956926
2641000000 0.0120080 -0.0946488 0.9879920 0.0946488 0.9879920 0.0946488 0.0120080 -0.0946488
2662000000 0.0118181 -0.0936185 0.9881819 0.0936185 0.9881819 0.0936185 0.0118181 -0.0936185
2683000000 0.0116329 -0.0926015 0.9883671 0.0926015 0.9883671 0.0926015 0.0116329 -0.0926015
2704000000 0.0114523 -0.0915975 0.9885477 0.0915975 0.9885477 0.0915975 0.0114523 -0.0915975
2725000000 0.0112761 -0.0906062 0.9887239 0.0906062 0.9887239 0.0906062 0.0112761 -0.0906062
2746000000 0.0111042 -0.0896273 0.9888958 0.0896273 0.9888958 0.0896273 0.0111042 -0.0896273
2767000000 0.0109365 -0.0886606 0.9890635 0.0886606 0.9890635 0.0886606 0.0109365 -0.0886606
2788000000 0.0107728 -0.0877057 0.9892272 0.0877057 0.9892272 0.0877057 0.0107728 -0.0877057
2809000000 0.0106131 -0.0867625 0.9893869 0.0867625 0.9893869 0.0867625 0.0106131 -0.0867625
2830000000 0.0104571 -0.0858307 0.9895429 0.0858307 0.9895429 0.0858307 0.0104571 -0.0858307
2851000000 0.0103049 -0.0849100 0.9896951 0.0849100 0.9896951 0.0849100 0.0103049 -0.0849100
2872000000 0.0101563 -0.0840002 0.9898437 0.0840002 0.9898437 0.0840002 0.0101563 -0.0840002
2893000000 0.0100111 -0.0831010 0.9899889 0.0831010 0.9899889 0.0831010 0.0100111 -0.0831010
2914000000 0.0098694 -0.0822124 0.9901306 0.0822124 0.9901306 0.0822124 0.0098694 -0.0822124
2935000000 0.0097310 -0.0813340 0.9902690 0.0813340 0.9902690 0.0813340 0.0097310 -0.0813340
2956000000 0.0095958 -0.0804656 0.9904042 0.0804656 0.9904042 0.0804656 0.0095958 -0.0804656
2977000000 0.0094638 -0.0796070 0.9905362 0.0796070 0.9905362 0.0796070 0.0094638 -0.0796070
2998000000 0.0093347 -0.0787581 0.9906653 0.0787581 0.9906653 0.0787581 0.0093347 -0.0787581
3019000000 0.0092087 -0.0779186 0.9907913 0.0779186 0.9907913 0.0779186 0.0092087 -0.0779186
3040000000 0.0090855 -0.0770884 0.9909145 0.0770884 0.9909145 0.0770884 0.0090855 -0.0770884
3061000000 0.0089652 -0.0762672 0.9910348 0.0762672 0.9910348 0.0762672 0.0089652 -0.0762672
3082000000 0.0088476 -0.0754549 0.9911524 0.0754549 0.9911524 0.0754549 0.0088476 -0.0754549
3103000000 0.0087326 -0.0746513 0.9912674 0.0746513 0.9912674 0.0746513 0.0087326 -0.0746513
3124000000 0.0086203 -0.0738563 0.9913797 0.0738563 0.9913797 0.0738563 0.0086203 -0.0738563
3145000000 0.0085105 -0.0730696 0.9914895 0.0730696 0.9914895 0.0730696 0.0085105 -0.0730696
3166000000 0.0084031 -0.0722912 0.9915969 0.0722912 0.9915969 0.0722912 0.0084031 -0.0722912
3187000000 0.0082982 -0.0715208 0.9917018 0.0715208 0.9917018 0.0715208 0.0082982 -0.0715208
3208000000 0.0081956 -0.0707583 0.9918044 0.0707583 0.9918044 0.0707583 0.0081956 -0.0707583
3229000000 0.0080953 -0.0700036 0.9919047 0.0700036 0.9919047 0.0700036 0.0080953 -0.0700036
3250000000 0.0079972 -0.0692565 0.9920028 0.0692565 0.9920028 0.0692565 0.0079972 -0.0692565
3271000000 0.0079013 -0.0685168 0.9920987 0.0685168 0.9920987 0.0685168 0.0079013 -0.0685168
3292000000 0.0078075 -0.0677845 0.9921925 0.0677845 0.9921925 0.0677845 0.0078075 -0.0677845
3313000000 0.0077158 -0.0670594 0.9922842 0.0670594 0.9922842 0.0670594 0.0077158 -0.0670594
3334000000 0.0076261 -0.0663413 0.9923739 0.0663413 0.9923739 0.0663413 0.0076261 -0.0663413
3355000000 0.0075384 -0.0656301 0.9924616 0.0656301 0.9924616 0.0656301 0.0075384 -0.0656301
3376000000 0.0074527 -0.0649258 0.9925473 0.0649258 0.9925473 0.0649258 0.0074527 -0.0649258
3397000000 0.0073688 -0.0642281 0.9926312 0.0642281 0.9926312 0.0642281 0.0073688 -0.0642281
3418000000 0.0072867 -0.0635371 0.9927133 0.0635371 0.9927133 0.0635371 0.0072867 -0.0635371
3439000000 0.0072065 -0.0628524 0.9927935 0.0628524 0.9927935 0.0628524 0.0072065 -0.0628524
3460000000 0.0071280 -0.0621741 0.9928720 0.0621741 0.9928720 0.0621741 0.0071280 -0.0621741
3481000000 0.0070512 -0.0615020 0.9929488 0.0615020 0.9929488 0.0615020 0.0070512 -0.0615020
3502000000 0.0069761 -0.0608360 0.9930239 0.0608360 0.9930239 0.0608360 0.0069761 -0.0608360
3523000000 0.0069027 -0.0601761 0.9930973 0.0601761 0.9930973 0.0601761 0.0069027 -0.0601761
3544000000 0.0068308 -0.0595220 0.9931692 0.0595220 0.9931692 0.0595220 0.0068308 -0.0595220
3565000000 0.0067606 -0.0588737 0.9932394 0.0588737 0.9932394 0.0588737 0.0067606 -0.0588737
3586000000 0.0066918 -0.0582312 0.9933082 0.0582312 0.9933082 0.0582312 0.0066918 -0.0582312
3607000000 0.0066246 -0.0575942 0.9933754 0.0575942 0.9933754 0.0575942 0.0066246 -0.0575942
3628000000 0.0065589 -0.0569627 0.9934411 0.0569627 0.9934411 0.0569627 0.0065589 -0.0569627
3649000000 0.0064946 -0.0563367 0.9935054 0.0563367 0.9935054 0.0563367 0.0064946 -0.0563367
3670000000 0.0064317 -0.0557160 0.9935683 0.0557160 0.9935683 0.0557160 0.0064317 -0.0557160
3691000000 0.0063701 -0.0551005 0.9936299 0.0551005 0.9936299 0.0551005 0.0063701 -0.0551005
3712000000 0.0063100 -0.0544901 0.9936900 0.0544901 0.9936900 0.0544901 0.0063100 -0.0544901
3733000000 0.0062511 -0.0538849 0.9937489 0.0538849 0.9937489 0.0538849 0.0062511 -0.0538849
3754000000 0.0061936 -0.0532846 0.9938064 0.0532846 0.9938064 0.0532846 0.0061936 -0.0532846
3775000000 0.0061373 -0.0526892 0.9938627 0.0526892 0.9938627 0.0526892 0.0061373 -0.0526892
3796000000 0.0060823 -0.0520986 0.9939177 0.0520986 0.9939177 0.0520986 0.0060823 -0.0520986
3817000000 0.0060285 -0.0515128 0.9939715 0.0515128 0.9939715 0.0515128 0.0060285 -0.0515128
3838000000 0.0059759 -0.0509316 0.9940241 0.0509316 0.9940241 0.0509316 0.0059759 -0.0509316
3859000000 0.0059245 -0.0503550 0.9940755 0.0503550 0.9940755 0.0503550 0.0059245 -0.0503550
3880000000 0.0058742 -0.0497829 0.9941258 0.0497829 0.9941258 0.0497829 0.0058742 -0.0497829
3901000000 0.0058251 -0.0492153 0.9941749 0.0492153 0.9941749 0.0492153 0.0058251 -0.0492153
3922000000 0.0057771 -0.0486521 0.9942229 0.0486521 0.9942229 0.0486521 0.0057771 -0.0486521
3943000000 0.0057301 -0.0480932 0.9942699 0.0480932 0.9942699 0.0480932 0.0057301 -0.0480932
3964000000 0.0056843 -0.0475385 0.9943157 0.0475385 0.9943157 0.0475385 0.0056843 -0.0475385
3985000000 0.0056394 -0.0469880 0.9943606 0.0469880 0.9943606 0.0469880 0.0056394 -0.0469880
4006000000 0.0055956 -0.0464416 0.9944044 0.0464416 0.9944044 0.0464416 0.0055956 -0.0464416
4027000000 0.0055529 -0.0458992 0.9944471 0.0458992 0.9944471 0.0458992 0.0055529 -0.0458992
4048000000 0.0055111 -0.0453609 0.9944889 0.0453609 0.9944889 0.0453609 0.0055111 -0.0453609
4069000000 0.0054703 -0.0448264 0.9945297 0.0448264 0.9945297 0.0448264 0.0054703 -0.0448264
4090000000 0.0054304 -0.0442959 0.9945696 0.0442959 0.9945696 0.0442959 0.0054304 -0.0442959
4111000000 0.0053915 -0.0437691 0.9946085 0.0437691 0.9946085 0.0437691 0.0053915 -0.0437691
4132000000 0.0053535 -0.0432461 0.9946465 0.0432461 0.9946465 0.0432461 0.0053535 -0.0432461
4153000000 0.0053164 -0.0427268 0.9946836 0.0427268 0.9946836 0.0427268 0.0053164 -0.0427268
4174000000 0.0052803 -0.0422111 0.9947197 0.0422111 0.9947197 0.0422111 0.0052803 -0.0422111
4195000000 0.0052450 -0.0416990 0.9947550 0.0416990 0.9947550 0.0416990 0.0052450 -0.0416990
4216000000 0.0052105 -0.0411905 0.9947895 0.0411905 0.9947895 0.0411905 0.0052105 -0.0411905
4237000000 0.0051769 -0.0406854 0.9948231 0.0406854 0.9948231 0.0406854 0.0051769 -0.0406854
4258000000 0.0051442 -0.0401838 0.9948558 0.0401838 0.9948558 0.0401838 0.0051442 -0.0401838
4279000000 0.0051122 -0.0396855 0.9948878 0.0396855 0.9948878 0.0396855 0.0051122 -0.0396855
4300000000 0.0050811 -0.0391906 0.9949189 0.0391906 0.9949189 0.0391906 0.0050811 -0.0391906
4321000000 0.0050508 -0.0386990 0.9949492 0.0386990 0.9949492 0.0386990 0.0050508 -0.0386990
4342000000 0.0050213 -0.0382106 0.9949787 0.0382106 0.9949787 0.0382106 0.0050213 -0.0382106
4363000000 0.0049925 -0.0377254 0.9950075 0.0377254 0.9950075 0.0377254 0.0049925 -0.0377254
4384000000 0.0049645 -0.0372434 0.9950355 0.0372434 0.9950355 0.0372434 0.0049645 -0.0372434
4405000000 0.0049372 -0.0367644 0.9950628 0.0367644 0.9950628 0.0367644 0.0049372 -0.0367644
4426000000 0.0049107 -0.0362886 0.9950893 0.0362886 0.9950893 0.0362886 0.0049107 -0.0362886
4447000000 0.0048849 -0.0358157 0.9951151 0.0358157 0.9951151 0.0358157 0.0048849 -0.0358157
4468000000 0.0048598 -0.0353459 0.9951402 0.0353459 0.9951402 0.0353459 0.0048598 -0.0353459
4489000000 0.0048355 -0.0348789 0.9951645 0.0348789 0.9951645 0.0348789 0.0048355 -0.0348789
4510000000 0.0048118 -0.0344149 0.9951882 0.0344149 0.9951882 0.0344149 0.0048118 -0.0344149
