!Murata Part Number: GRM0115C1C9R2BE01
!These Parameters are Measured in Series Mode Connection
!Data Generated on Mar 30, 2021
!       o--ll--o
!Port1            Port2
!       o------o
!Operation Temp=25[degC], DC Bias Voltage=0[V]
!Freq. Start=100[MHz] Stop=9[GHz] 401[Steps]
# Hz S RI R 50
!Freq.(Hz) S11(Real) S11(Imag) S21(Real) S21(Imag) S12(Real) S12(Imag) S22(Real) S22(Imag)
100000000 0.7492216 -0.4331086 0.2507784 0.4331086 0.2507784 0.4331086 0.7492216 -0.4331086
121000000 0.6710624 -0.4694001 0.3289376 0.4694001 0.3289376 0.4694001 0.6710624 -0.4694001
142000000 0.5969199 -0.4900145 0.4030801 0.4900145 0.4030801 0.4900145 0.5969199 -0.4900145
163000000 0.5290884 -0.4985758 0.4709116 0.4985758 0.4709116 0.4985758 0.5290884 -0.4985758
184000000 0.4684807 -0.4983524 0.5315193 0.4983524 0.5315193 0.4983524 0.4684807 -0.4983524
205000000 0.4151310 -0.4920152 0.5848690 0.4920152 0.5848690 0.4920152 0.4151310 -0.4920152
226000000 0.3685865 -0.4816153 0.6314135 0.4816153 0.6314135 0.4816153 0.3685865 -0.4816153
247000000 0.3281698 -0.4686634 0.6718302 0.4686634 0.6718302 0.4686634 0.3281698 -0.4686634
268000000 0.2931375 -0.4542393 0.7068625 0.4542393 0.7068625 0.4542393 0.2931375 -0.4542393
289000000 0.2627672 -0.4390966 0.7372328 0.4390966 0.7372328 0.4390966 0.2627672 -0.4390966
310000000 0.2363986 -0.4237498 0.7636014 0.4237498 0.7636014 0.4237498 0.2363986 -0.4237498
331000000 0.2134494 -0.4085420 0.7865506 0.4085420 0.7865506 0.4085420 0.2134494 -0.4085420
352000000 0.1934171 -0.3936956 0.8065829 0.3936956 0.8065829 0.3936956 0.1934171 -0.3936956
373000000 0.1758729 -0.3793484 0.8241271 0.3793484 0.8241271 0.3793484 0.1758729 -0.3793484
394000000 0.1604540 -0.3655799 0.8395460 0.3655799 0.8395460 0.3655799 0.1604540 -0.3655799
415000000 0.1468543 -0.3524299 0.8531457 0.3524299 0.8531457 0.3524299 0.1468543 -0.3524299
436000000 0.1348162 -0.3399112 0.8651838 0.3399112 0.8651838 0.3399112 0.1348162 -0.3399112
457000000 0.1241226 -0.3280192 0.8758774 0.3280192 0.8758774 0.3280192 0.1241226 -0.3280192
478000000 0.1145903 -0.3167374 0.8854097 0.3167374 0.8854097 0.3167374 0.1145903 -0.3167374
499000000 0.1060648 -0.3060424 0.8939352 0.3060424 0.8939352 0.3060424 0.1060648 -0.3060424
520000000 0.0984150 -0.2959069 0.9015850 0.2959069 0.9015850 0.2959069 0.0984150 -0.2959069
541000000 0.0915293 -0.2863014 0.9084707 0.2863014 0.9084707 0.2863014 0.0915293 -0.2863014
562000000 0.0853130 -0.2771955 0.9146870 0.2771955 0.9146870 0.2771955 0.0853130 -0.2771955
583000000 0.0796849 -0.2685596 0.9203151 0.2685596 0.9203151 0.2685596 0.0796849 -0.2685596
604000000 0.0745753 -0.2603644 0.9254247 0.2603644 0.9254247 0.2603644 0.0745753 -0.2603644
625000000 0.0699242 -0.2525823 0.9300758 0.2525823 0.9300758 0.2525823 0.0699242 -0.2525823
646000000 0.0656800 -0.2451868 0.9343200 0.2451868 0.9343200 0.2451868 0.0656800 -0.2451868
667000000 0.0617976 -0.2381531 0.9382024 0.2381531 0.9382024 0.2381531 0.0617976 -0.2381531
688000000 0.0582383 -0.2314578 0.9417617 0.2314578 0.9417617 0.2314578 0.0582383 -0.2314578
709000000 0.0549679 -0.2250792 0.9450321 0.2250792 0.9450321 0.2250792 0.0549679 -0.2250792
730000000 0.0519567 -0.2189970 0.9480433 0.2189970 0.9480433 0.2189970 0.0519567 -0.2189970
751000000 0.0491787 -0.2131924 0.9508213 0.2131924 0.9508213 0.2131924 0.0491787 -0.2131924
772000000 0.0466109 -0.2076479 0.9533891 0.2076479 0.9533891 0.2076479 0.0466109 -0.2076479
793000000 0.0442331 -0.2023473 0.9557669 0.2023473 0.9557669 0.2023473 0.0442331 -0.2023473
814000000 0.0420274 -0.1972755 0.9579726 0.1972755 0.9579726 0.1972755 0.0420274 -0.1972755
835000000 0.0399780 -0.1924185 0.9600220 0.1924185 0.9600220 0.1924185 0.0399780 -0.1924185
856000000 0.0380707 -0.1877634 0.9619293 0.1877634 0.9619293 0.1877634 0.0380707 -0.1877634
877000000 0.0362929 -0.1832982 0.9637071 0.1832982 0.9637071 0.1832982 0.0362929 -0.1832982
898000000 0.0346334 -0.1790118 0.9653666 0.1790118 0.9653666 0.1790118 0.0346334 -0.1790118
919000000 0.0330823 -0.1748938 0.9669177 0.1748938 0.9669177 0.1748938 0.0330823 -0.1748938
940000000 0.0316304 -0.1709346 0.9683696 0.1709346 0.9683696 0.1709346 0.0316304 -0.1709346
961000000 0.0302696 -0.1671252 0.9697304 0.1671252 0.9697304 0.1671252 0.0302696 -0.1671252
982000000 0.0289927 -0.1634574 0.9710073 0.1634574 0.9710073 0.1634574 0.0289927 -0.1634574
1003000000 0.0277930 -0.1599233 0.9722070 0.1599233 0.9722070 0.1599233 0.0277930 -0.1599233
1024000000 0.0266646 -0.1565159 0.9733354 0.1565159 0.9733354 0.1565159 0.0266646 -0.1565159
1045000000 0.0256021 -0.1532283 0.9743979 0.1532283 0.9743979 0.1532283 0.0256021 -0.1532283
1066000000 0.0246005 -0.1500544 0.9753995 0.1500544 0.9753995 0.1500544 0.0246005 -0.1500544
1087000000 0.0236554 -0.1469881 0.9763446 0.1469881 0.9763446 0.1469881 0.0236554 -0.1469881
1108000000 0.0227627 -0.1440242 0.9772373 0.1440242 0.9772373 0.1440242 0.0227627 -0.1440242
1129000000 0.0219188 -0.1411573 0.9780812 0.1411573 0.9780812 0.1411573 0.0219188 -0.1411573
1150000000 0.0211202 -0.1383828 0.9788798 0.1383828 0.9788798 0.1383828 0.0211202 -0.1383828
1171000000 0.0203639 -0.1356960 0.9796361 0.1356960 0.9796361 0.1356960 0.0203639 -0.1356960
1192000000 0.0196469 -0.1330929 0.9803531 0.1330929 0.9803531 0.1330929 0.0196469 -0.1330929
1213000000 0.0189667 -0.1305695 0.9810333 0.1305695 0.9810333 0.1305695 0.0189667 -0.1305695
1234000000 0.0183209 -0.1281219 0.9816791 0.1281219 0.9816791 0.1281219 0.0183209 -0.1281219
1255000000 0.0177072 -0.1257468 0.9822928 0.1257468 0.9822928 0.1257468 0.0177072 -0.1257468
1276000000 0.0171237 -0.1234409 0.9828763 0.1234409 0.9828763 0.1234409 0.0171237 -0.1234409
1297000000 0.0165685 -0.1212009 0.9834315 0.1212009 0.9834315 0.1212009 0.0165685 -0.1212009
1318000000 0.0160398 -0.1190241 0.9839602 0.1190241 0.9839602 0.1190241 0.0160398 -0.1190241
1339000000 0.0155360 -0.1169076 0.9844640 0.1169076 0.9844640 0.1169076 0.0155360 -0.1169076
1360000000 0.0150556 -0.1148489 0.9849444 0.1148489 0.9849444 0.1148489 0.0150556 -0.1148489
1381000000 0.0145973 -0.1128455 0.9854027 0.1128455 0.9854027 0.1128455 0.0145973 -0.1128455
1402000000 0.0141598 -0.1108950 0.9858402 0.1108950 0.9858402 0.1108950 0.0141598 -0.1108950
1423000000 0.0137419 -0.1089954 0.9862581 0.1089954 0.9862581 0.1089954 0.0137419 -0.1089954
1444000000 0.0133425 -0.1071444 0.9866575 0.1071444 0.9866575 0.1071444 0.0133425 -0.1071444
1465000000 0.0129605 -0.1053402 0.9870395 0.1053402 0.9870395 0.1053402 0.0129605 -0.1053402
1486000000 0.0125950 -0.1035809 0.9874050 0.1035809 0.9874050 0.1035809 0.0125950 -0.1035809
1507000000 0.0122452 -0.1018647 0.9877548 0.1018647 0.9877548 0.1018647 0.0122452 -0.1018647
1528000000 0.0119101 -0.1001899 0.9880899 0.1001899 0.9880899 0.1001899 0.0119101 -0.1001899
1549000000 0.0115890 -0.0985549 0.9884110 0.0985549 0.9884110 0.0985549 0.0115890 -0.0985549
1570000000 0.0112812 -0.0969583 0.9887188 0.0969583 0.9887188 0.0969583 0.0112812 -0.0969583
1591000000 0.0109860 -0.0953985 0.9890140 0.0953985 0.9890140 0.0953985 0.0109860 -0.0953985
1612000000 0.0107027 -0.0938743 0.9892973 0.0938743 0.9892973 0.0938743 0.0107027 -0.0938743
1633000000 0.0104307 -0.0923842 0.9895693 0.0923842 0.9895693 0.0923842 0.0104307 -0.0923842
1654000000 0.0101696 -0.0909271 0.9898304 0.0909271 0.9898304 0.0909271 0.0101696 -0.0909271
1675000000 0.0099187 -0.0895019 0.9900813 0.0895019 0.9900813 0.0895019 0.0099187 -0.0895019
1696000000 0.0096775 -0.0881072 0.9903225 0.0881072 0.9903225 0.0881072 0.0096775 -0.0881072
1717000000 0.0094457 -0.0867422 0.9905543 0.0867422 0.9905543 0.0867422 0.0094457 -0.0867422
1738000000 0.0092227 -0.0854057 0.9907773 0.0854057 0.9907773 0.0854057 0.0092227 -0.0854057
1759000000 0.0090081 -0.0840968 0.9909919 0.0840968 0.9909919 0.0840968 0.0090081 -0.0840968
1780000000 0.0088016 -0.0828146 0.9911984 0.0828146 0.9911984 0.0828146 0.0088016 -0.0828146
1801000000 0.0086027 -0.0815581 0.9913973 0.0815581 0.9913973 0.0815581 0.0086027 -0.0815581
1822000000 0.0084112 -0.0803264 0.9915888 0.0803264 0.9915888 0.0803264 0.0084112 -0.0803264
1843000000 0.0082267 -0.0791189 0.9917733 0.0791189 0.9917733 0.0791189 0.0082267 -0.0791189
1864000000 0.0080489 -0.0779347 0.9919511 0.0779347 0.9919511 0.0779347 0.0080489 -0.0779347
1885000000 0.0078774 -0.0767729 0.9921226 0.0767729 0.9921226 0.0767729 0.0078774 -0.0767729
1906000000 0.0077121 -0.0756331 0.9922879 0.0756331 0.9922879 0.0756331 0.0077121 -0.0756331
1927000000 0.0075527 -0.0745143 0.9924473 0.0745143 0.9924473 0.0745143 0.0075527 -0.0745143
1948000000 0.0073988 -0.0734161 0.9926012 0.0734161 0.9926012 0.0734161 0.0073988 -0.0734161
1969000000 0.0072504 -0.0723376 0.9927496 0.0723376 0.9927496 0.0723376 0.0072504 -0.0723376
1990000000 0.0071071 -0.0712784 0.9928929 0.0712784 0.9928929 0.0712784 0.0071071 -0.0712784
2011000000 0.0069687 -0.0702379 0.9930313 0.0702379 0.9930313 0.0702379 0.0069687 -0.0702379
2032000000 0.0068351 -0.0692155 0.9931649 0.0692155 0.9931649 0.0692155 0.0068351 -0.0692155
2053000000 0.0067060 -0.0682106 0.9932940 0.0682106 0.9932940 0.0682106 0.0067060 -0.0682106
2074000000 0.0065813 -0.0672227 0.9934187 0.0672227 0.9934187 0.0672227 0.0065813 -0.0672227
2095000000 0.0064607 -0.0662514 0.9935393 0.0662514 0.9935393 0.0662514 0.0064607 -0.0662514
2116000000 0.0063442 -0.0652962 0.9936558 0.0652962 0.9936558 0.0652962 0.0063442 -0.0652962
2137000000 0.0062316 -0.0643565 0.9937684 0.0643565 0.9937684 0.0643565 0.0062316 -0.0643565
2158000000 0.0061227 -0.0634320 0.9938773 0.0634320 0.9938773 0.0634320 0.0061227 -0.0634320
2179000000 0.0060174 -0.0625222 0.9939826 0.0625222 0.9939826 0.0625222 0.0060174 -0.0625222
2200000000 0.0059155 -0.0616268 0.9940845 0.0616268 0.9940845 0.0616268 0.0059155 -0.0616268
2221000000 0.0058169 -0.0607453 0.9941831 0.0607453 0.9941831 0.0607453 0.0058169 -0.0607453
2242000000 0.0057216 -0.0598773 0.9942784 0.0598773 0.9942784 0.0598773 0.0057216 -0.0598773
2263000000 0.0056293 -0.0590225 0.9943707 0.0590225 0.9943707 0.0590225 0.0056293 -0.0590225
2284000000 0.0055400 -0.0581805 0.9944600 0.0581805 0.9944600 0.0581805 0.0055400 -0.0581805
2305000000 0.0054535 -0.0573510 0.9945465 0.0573510 0.9945465 0.0573510 0.0054535 -0.0573510
2326000000 0.0053698 -0.0565337 0.9946302 0.0565337 0.9946302 0.0565337 0.0053698 -0.0565337
2347000000 0.0052888 -0.0557282 0.9947112 0.0557282 0.9947112 0.0557282 0.0052888 -0.0557282
2368000000 0.0052103 -0.0549342 0.9947897 0.0549342 0.9947897 0.0549342 0.0052103 -0.0549342
2389000000 0.0051343 -0.0541514 0.9948657 0.0541514 0.9948657 0.0541514 0.0051343 -0.0541514
2410000000 0.0050607 -0.0533796 0.9949393 0.0533796 0.9949393 0.0533796 0.0050607 -0.0533796
2431000000 0.0049894 -0.0526184 0.9950106 0.0526184 0.9950106 0.0526184 0.0049894 -0.0526184
2452000000 0.0049204 -0.0518676 0.9950796 0.0518676 0.9950796 0.0518676 0.0049204 -0.0518676
2473000000 0.0048535 -0.0511269 0.9951465 0.0511269 0.9951465 0.0511269 0.0048535 -0.0511269
2494000000 0.0047887 -0.0503962 0.9952113 0.0503962 0.9952113 0.0503962 0.0047887 -0.0503962
2515000000 0.0047259 -0.0496750 0.9952741 0.0496750 0.9952741 0.0496750 0.0047259 -0.0496750
2536000000 0.0046651 -0.0489633 0.9953349 0.0489633 0.9953349 0.0489633 0.0046651 -0.0489633
2557000000 0.0046061 -0.0482608 0.9953939 0.0482608 0.9953939 0.0482608 0.0046061 -0.0482608
2578000000 0.0045490 -0.0475672 0.9954510 0.0475672 0.9954510 0.0475672 0.0045490 -0.0475672
2599000000 0.0044937 -0.0468823 0.9955063 0.0468823 0.9955063 0.0468823 0.0044937 -0.0468823
2620000000 0.0044401 -0.0462060 0.9955599 0.0462060 0.9955599 0.0462060 0.0044401 -0.0462060
2641000000 0.0043881 -0.0455380 0.9956119 0.0455380 0.9956119 0.0455380 0.0043881 -0.0455380
2662000000 0.0043378 -0.0448781 0.9956622 0.0448781 0.9956622 0.0448781 0.0043378 -0.0448781
2683000000 0.0042890 -0.0442263 0.9957110 0.0442263 0.9957110 0.0442263 0.0042890 -0.0442263
2704000000 0.0042418 -0.0435821 0.9957582 0.0435821 0.9957582 0.0435821 0.0042418 -0.0435821
2725000000 0.0041960 -0.0429456 0.9958040 0.0429456 0.9958040 0.0429456 0.0041960 -0.0429456
2746000000 0.0041516 -0.0423165 0.9958484 0.0423165 0.9958484 0.0423165 0.0041516 -0.0423165
2767000000 0.0041087 -0.0416946 0.9958913 0.0416946 0.9958913 0.0416946 0.0041087 -0.0416946
2788000000 0.0040670 -0.0410799 0.9959330 0.0410799 0.9959330 0.0410799 0.0040670 -0.0410799
2809000000 0.0040267 -0.0404721 0.9959733 0.0404721 0.9959733 0.0404721 0.0040267 -0.0404721
2830000000 0.0039877 -0.0398710 0.9960123 0.0398710 0.9960123 0.0398710 0.0039877 -0.0398710
2851000000 0.0039498 -0.0392766 0.9960502 0.0392766 0.9960502 0.0392766 0.0039498 -0.0392766
2872000000 0.0039132 -0.0386887 0.9960868 0.0386887 0.9960868 0.0386887 0.0039132 -0.0386887
2893000000 0.0038778 -0.0381072 0.9961222 0.0381072 0.9961222 0.0381072 0.0038778 -0.0381072
2914000000 0.0038434 -0.0375318 0.9961566 0.0375318 0.9961566 0.0375318 0.0038434 -0.0375318
2935000000 0.0038102 -0.0369626 0.9961898 0.0369626 0.9961898 0.0369626 0.0038102 -0.0369626
2956000000 0.0037781 -0.0363993 0.9962219 0.0363993 0.9962219 0.0363993 0.0037781 -0.0363993
2977000000 0.0037470 -0.0358418 0.9962530 0.0358418 0.9962530 0.0358418 0.0037470 -0.0358418
2998000000 0.0037169 -0.0352900 0.9962831 0.0352900 0.9962831 0.0352900 0.0037169 -0.0352900
3019000000 0.0036878 -0.0347439 0.9963122 0.0347439 0.9963122 0.0347439 0.0036878 -0.0347439
3040000000 0.0036596 -0.0342032 0.9963404 0.0342032 0.9963404 0.0342032 0.0036596 -0.0342032
3061000000 0.0036324 -0.0336679 0.9963676 0.0336679 0.9963676 0.0336679 0.0036324 -0.0336679
3082000000 0.0036061 -0.0331378 0.9963939 0.0331378 0.9963939 0.0331378 0.0036061 -0.0331378
3103000000 0.0035808 -0.0326129 0.9964192 0.0326129 0.9964192 0.0326129 0.0035808 -0.0326129
3124000000 0.0035562 -0.0320931 0.9964438 0.0320931 0.9964438 0.0320931 0.0035562 -0.0320931
3145000000 0.0035325 -0.0315782 0.9964675 0.0315782 0.9964675 0.0315782 0.0035325 -0.0315782
3166000000 0.0035097 -0.0310681 0.9964903 0.0310681 0.9964903 0.0310681 0.0035097 -0.0310681
3187000000 0.0034876 -0.0305628 0.9965124 0.0305628 0.9965124 0.0305628 0.0034876 -0.0305628
3208000000 0.0034664 -0.0300622 0.9965336 0.0300622 0.9965336 0.0300622 0.0034664 -0.0300622
3229000000 0.0034459 -0.0295662 0.9965541 0.0295662 0.9965541 0.0295662 0.0034459 -0.0295662
3250000000 0.0034261 -0.0290746 0.9965739 0.0290746 0.9965739 0.0290746 0.0034261 -0.0290746
3271000000 0.0034071 -0.0285875 0.9965929 0.0285875 0.9965929 0.0285875 0.0034071 -0.0285875
3292000000 0.0033888 -0.0281046 0.9966112 0.0281046 0.9966112 0.0281046 0.0033888 -0.0281046
3313000000 0.0033712 -0.0276260 0.9966288 0.0276260 0.9966288 0.0276260 0.0033712 -0.0276260
3334000000 0.0033543 -0.0271516 0.9966457 0.0271516 0.9966457 0.0271516 0.0033543 -0.0271516
3355000000 0.0033381 -0.0266812 0.9966619 0.0266812 0.9966619 0.0266812 0.0033381 -0.0266812
3376000000 0.0033225 -0.0262148 0.9966775 0.0262148 0.9966775 0.0262148 0.0033225 -0.0262148
3397000000 0.0033075 -0.0257524 0.9966925 0.0257524 0.9966925 0.0257524 0.0033075 -0.0257524
3418000000 0.0032932 -0.0252938 0.9967068 0.0252938 0.9967068 0.0252938 0.0032932 -0.0252938
3439000000 0.0032795 -0.0248390 0.9967205 0.0248390 0.9967205 0.0248390 0.0032795 -0.0248390
3460000000 0.0032663 -0.0243880 0.9967337 0.0243880 0.9967337 0.0243880 0.0032663 -0.0243880
3481000000 0.0032538 -0.0239406 0.9967462 0.0239406 0.9967462 0.0239406 0.0032538 -0.0239406
3502000000 0.0032418 -0.0234967 0.9967582 0.0234967 0.9967582 0.0234967 0.0032418 -0.0234967
3523000000 0.0032304 -0.0230564 0.9967696 0.0230564 0.9967696 0.0230564 0.0032304 -0.0230564
3544000000 0.0032196 -0.0226196 0.9967804 0.0226196 0.9967804 0.0226196 0.0032196 -0.0226196
3565000000 0.0032093 -0.0221862 0.9967907 0.0221862 0.9967907 0.0221862 0.0032093 -0.0221862
3586000000 0.0031995 -0.0217561 0.9968005 0.0217561 0.9968005 0.0217561 0.0031995 -0.0217561
3607000000 0.0031902 -0.0213293 0.9968098 0.0213293 0.9968098 0.0213293 0.0031902 -0.0213293
3628000000 0.0031815 -0.0209057 0.9968185 0.0209057 0.9968185 0.0209057 0.0031815 -0.0209057
3649000000 0.0031732 -0.0204853 0.9968268 0.0204853 0.9968268 0.0204853 0.0031732 -0.0204853
3670000000 0.0031654 -0.0200680 0.9968346 0.0200680 0.9968346 0.0200680 0.0031654 -0.0200680
3691000000 0.0031581 -0.0196538 0.9968419 0.0196538 0.9968419 0.0196538 0.0031581 -0.0196538
3712000000 0.0031513 -0.0192426 0.9968487 0.0192426 0.9968487 0.0192426 0.0031513 -0.0192426
3733000000 0.0031449 -0.0188344 0.9968551 0.0188344 0.9968551 0.0188344 0.0031449 -0.0188344
3754000000 0.0031390 -0.0184291 0.9968610 0.0184291 0.9968610 0.0184291 0.0031390 -0.0184291
3775000000 0.0031336 -0.0180266 0.9968664 0.0180266 0.9968664 0.0180266 0.0031336 -0.0180266
3796000000 0.0031286 -0.0176270 0.9968714 0.0176270 0.9968714 0.0176270 0.0031286 -0.0176270
3817000000 0.0031240 -0.0172301 0.9968760 0.0172301 0.9968760 0.0172301 0.0031240 -0.0172301
3838000000 0.0031198 -0.0168360 0.9968802 0.0168360 0.9968802 0.0168360 0.0031198 -0.0168360
3859000000 0.0031160 -0.0164446 0.9968840 0.0164446 0.9968840 0.0164446 0.0031160 -0.0164446
3880000000 0.0031127 -0.0160558 0.9968873 0.0160558 0.9968873 0.0160558 0.0031127 -0.0160558
3901000000 0.0031097 -0.0156696 0.9968903 0.0156696 0.9968903 0.0156696 0.0031097 -0.0156696
3922000000 0.0031072 -0.0152859 0.9968928 0.0152859 0.9968928 0.0152859 0.0031072 -0.0152859
3943000000 0.0031050 -0.0149048 0.9968950 0.0149048 0.9968950 0.0149048 0.0031050 -0.0149048
3964000000 0.0031032 -0.0145262 0.9968968 0.0145262 0.9968968 0.0145262 0.0031032 -0.0145262
3985000000 0.0031018 -0.0141500 0.9968982 0.0141500 0.9968982 0.0141500 0.0031018 -0.0141500
4006000000 0.0031008 -0.0137762 0.9968992 0.0137762 0.9968992 0.0137762 0.0031008 -0.0137762
4027000000 0.0031001 -0.0134048 0.9968999 0.0134048 0.9968999 0.0134048 0.0031001 -0.0134048
4048000000 0.0030998 -0.0130357 0.9969002 0.0130357 0.9969002 0.0130357 0.0030998 -0.0130357
4069000000 0.0030999 -0.0126689 0.9969001 0.0126689 0.9969001 0.0126689 0.0030999 -0.0126689
4090000000 0.0031003 -0.0123043 0.9968997 0.0123043 0.9968997 0.0123043 0.0031003 -0.0123043
4111000000 0.0031010 -0.0119420 0.9968990 0.0119420 0.9968990 0.0119420 0.0031010 -0.0119420
4132000000 0.0031021 -0.0115819 0.9968979 0.0115819 0.9968979 0.0115819 0.0031021 -0.0115819
4153000000 0.0031035 -0.0112239 0.9968965 0.0112239 0.9968965 0.0112239 0.0031035 -0.0112239
4174000000 0.0031052 -0.0108681 0.9968948 0.0108681 0.9968948 0.0108681 0.0031052 -0.0108681
4195000000 0.0031073 -0.0105143 0.9968927 0.0105143 0.9968927 0.0105143 0.0031073 -0.0105143
4216000000 0.0031097 -0.0101626 0.9968903 0.0101626 0.9968903 0.0101626 0.0031097 -0.0101626
4237000000 0.0031124 -0.0098130 0.9968876 0.0098130 0.9968876 0.0098130 0.0031124 -0.0098130
4258000000 0.0031154 -0.0094653 0.9968846 0.0094653 0.9968846 0.0094653 0.0031154 -0.0094653
4279000000 0.0031188 -0.0091197 0.9968812 0.0091197 0.9968812 0.0091197 0.0031188 -0.0091197
4300000000 0.0031224 -0.0087760 0.9968776 0.0087760 0.9968776 0.0087760 0.0031224 -0.0087760
4321000000 0.0031263 -0.0084342 0.9968737 0.0084342 0.9968737 0.0084342 0.0031263 -0.0084342
4342000000 0.0031306 -0.0080943 0.9968694 0.0080943 0.9968694 0.0080943 0.0031306 -0.0080943
4363000000 0.0031351 -0.0077562 0.9968649 0.0077562 0.9968649 0.0077562 0.0031351 -0.0077562
4384000000 0.0031399 -0.0074201 0.9968601 0.0074201 0.9968601 0.0074201 0.0031399 -0.0074201
4405000000 0.0031450 -0.0070857 0.9968550 0.0070857 0.9968550 0.0070857 0.0031450 -0.0070857
4426000000 0.0031504 -0.0067531 0.9968496 0.0067531 0.9968496 0.0067531 0.0031504 -0.0067531
4447000000 0.0031561 -0.0064223 0.9968439 0.0064223 0.9968439 0.0064223 0.0031561 -0.0064223
4468000000 0.0031620 -0.0060932 0.9968380 0.0060932 0.9968380 0.0060932 0.0031620 -0.0060932
4489000000 0.0031682 -0.0057658 0.9968318 0.0057658 0.9968318 0.0057658 0.0031682 -0.0057658
4510000000 0.0031747 -0.0054402 0.9968253 0.0054402 0.9968253 0.0054402 0.0031747 -0.0054402
