!Murata Part Number: GRM0115C1C4R0CE01
!These Parameters are Measured in Series Mode Connection
!Data Generated on Mar 30, 2021
!       o--ll--o
!Port1            Port2
!       o------o
!Operation Temp=25[degC], DC Bias Voltage=0[V]
!Freq. Start=100[MHz] Stop=9[GHz] 401[Steps]
# Hz S RI R 50
!Freq.(Hz) S11(Real) S11(Imag) S21(Real) S21(Imag) S12(Real) S12(Imag) S22(Real) S22(Imag)
100000000 0.9404788 -0.2363886 0.0595212 0.2363886 0.0595212 0.2363886 0.9404788 -0.2363886
121000000 0.9151875 -0.2783495 0.0848125 0.2783495 0.0848125 0.2783495 0.9151875 -0.2783495
142000000 0.8867993 -0.3165405 0.1132007 0.3165405 0.1132007 0.3165405 0.8867993 -0.3165405
163000000 0.8559966 -0.3507512 0.1440034 0.3507512 0.1440034 0.3507512 0.8559966 -0.3507512
184000000 0.8234435 -0.3809063 0.1765565 0.3809063 0.1765565 0.3809063 0.8234435 -0.3809063
205000000 0.7897594 -0.4070478 0.2102406 0.4070478 0.2102406 0.4070478 0.7897594 -0.4070478
226000000 0.7555014 -0.4293126 0.2444986 0.4293126 0.2444986 0.4293126 0.7555014 -0.4293126
247000000 0.7211529 -0.4479096 0.2788471 0.4479096 0.2788471 0.4479096 0.7211529 -0.4479096
268000000 0.6871199 -0.4630976 0.3128801 0.4630976 0.3128801 0.4630976 0.6871199 -0.4630976
289000000 0.6537318 -0.4751652 0.3462682 0.4751652 0.3462682 0.4751652 0.6537318 -0.4751652
310000000 0.6212467 -0.4844152 0.3787533 0.4844152 0.3787533 0.4844152 0.6212467 -0.4844152
331000000 0.5898581 -0.4911508 0.4101419 0.4911508 0.4101419 0.4911508 0.5898581 -0.4911508
352000000 0.5597032 -0.4956668 0.4402968 0.4956668 0.4402968 0.4956668 0.5597032 -0.4956668
373000000 0.5308718 -0.4982421 0.4691282 0.4982421 0.4691282 0.4982421 0.5308718 -0.4982421
394000000 0.5034145 -0.4991360 0.4965855 0.4991360 0.4965855 0.4991360 0.5034145 -0.4991360
415000000 0.4773504 -0.4985854 0.5226496 0.4985854 0.5226496 0.4985854 0.4773504 -0.4985854
436000000 0.4526737 -0.4968044 0.5473263 0.4968044 0.5473263 0.4968044 0.4526737 -0.4968044
457000000 0.4293598 -0.4939840 0.5706402 0.4939840 0.5706402 0.4939840 0.4293598 -0.4939840
478000000 0.4073702 -0.4902934 0.5926298 0.4902934 0.5926298 0.4902934 0.4073702 -0.4902934
499000000 0.3866564 -0.4858812 0.6133436 0.4858812 0.6133436 0.4858812 0.3866564 -0.4858812
520000000 0.3671633 -0.4808771 0.6328367 0.4808771 0.6328367 0.4808771 0.3671633 -0.4808771
541000000 0.3488316 -0.4753937 0.6511684 0.4753937 0.6511684 0.4753937 0.3488316 -0.4753937
562000000 0.3316001 -0.4695281 0.6683999 0.4695281 0.6683999 0.4695281 0.3316001 -0.4695281
583000000 0.3154071 -0.4633640 0.6845929 0.4633640 0.6845929 0.4633640 0.3154071 -0.4633640
604000000 0.3001914 -0.4569728 0.6998086 0.4569728 0.6998086 0.4569728 0.3001914 -0.4569728
625000000 0.2858934 -0.4504155 0.7141066 0.4504155 0.7141066 0.4504155 0.2858934 -0.4504155
646000000 0.2724555 -0.4437437 0.7275445 0.4437437 0.7275445 0.4437437 0.2724555 -0.4437437
667000000 0.2598227 -0.4370012 0.7401773 0.4370012 0.7401773 0.4370012 0.2598227 -0.4370012
688000000 0.2479425 -0.4302250 0.7520575 0.4302250 0.7520575 0.4302250 0.2479425 -0.4302250
709000000 0.2367655 -0.4234457 0.7632345 0.4234457 0.7632345 0.4234457 0.2367655 -0.4234457
730000000 0.2262451 -0.4166892 0.7737549 0.4166892 0.7737549 0.4166892 0.2262451 -0.4166892
751000000 0.2163374 -0.4099768 0.7836626 0.4099768 0.7836626 0.4099768 0.2163374 -0.4099768
772000000 0.2070016 -0.4033261 0.7929984 0.4033261 0.7929984 0.4033261 0.2070016 -0.4033261
793000000 0.1981995 -0.3967513 0.8018005 0.3967513 0.8018005 0.3967513 0.1981995 -0.3967513
814000000 0.1898953 -0.3902641 0.8101047 0.3902641 0.8101047 0.3902641 0.1898953 -0.3902641
835000000 0.1820561 -0.3838736 0.8179439 0.3838736 0.8179439 0.3838736 0.1820561 -0.3838736
856000000 0.1746509 -0.3775872 0.8253491 0.3775872 0.8253491 0.3775872 0.1746509 -0.3775872
877000000 0.1676510 -0.3714105 0.8323490 0.3714105 0.8323490 0.3714105 0.1676510 -0.3714105
898000000 0.1610300 -0.3653474 0.8389700 0.3653474 0.8389700 0.3653474 0.1610300 -0.3653474
919000000 0.1547631 -0.3594011 0.8452369 0.3594011 0.8452369 0.3594011 0.1547631 -0.3594011
940000000 0.1488274 -0.3535733 0.8511726 0.3535733 0.8511726 0.3535733 0.1488274 -0.3535733
961000000 0.1432016 -0.3478652 0.8567984 0.3478652 0.8567984 0.3478652 0.1432016 -0.3478652
982000000 0.1378660 -0.3422771 0.8621340 0.3422771 0.8621340 0.3422771 0.1378660 -0.3422771
1003000000 0.1328022 -0.3368088 0.8671978 0.3368088 0.8671978 0.3368088 0.1328022 -0.3368088
1024000000 0.1279933 -0.3314594 0.8720067 0.3314594 0.8720067 0.3314594 0.1279933 -0.3314594
1045000000 0.1234235 -0.3262280 0.8765765 0.3262280 0.8765765 0.3262280 0.1234235 -0.3262280
1066000000 0.1190781 -0.3211130 0.8809219 0.3211130 0.8809219 0.3211130 0.1190781 -0.3211130
1087000000 0.1149434 -0.3161128 0.8850566 0.3161128 0.8850566 0.3161128 0.1149434 -0.3161128
1108000000 0.1110068 -0.3112252 0.8889932 0.3112252 0.8889932 0.3112252 0.1110068 -0.3112252
1129000000 0.1072565 -0.3064484 0.8927435 0.3064484 0.8927435 0.3064484 0.1072565 -0.3064484
1150000000 0.1036815 -0.3017799 0.8963185 0.3017799 0.8963185 0.3017799 0.1036815 -0.3017799
1171000000 0.1002715 -0.2972174 0.8997285 0.2972174 0.8997285 0.2972174 0.1002715 -0.2972174
1192000000 0.0970171 -0.2927587 0.9029829 0.2927587 0.9029829 0.2927587 0.0970171 -0.2927587
1213000000 0.0939093 -0.2884011 0.9060907 0.2884011 0.9060907 0.2884011 0.0939093 -0.2884011
1234000000 0.0909399 -0.2841423 0.9090601 0.2841423 0.9090601 0.2841423 0.0909399 -0.2841423
1255000000 0.0881011 -0.2799797 0.9118989 0.2799797 0.9118989 0.2799797 0.0881011 -0.2799797
1276000000 0.0853857 -0.2759108 0.9146143 0.2759108 0.9146143 0.2759108 0.0853857 -0.2759108
1297000000 0.0827870 -0.2719333 0.9172130 0.2719333 0.9172130 0.2719333 0.0827870 -0.2719333
1318000000 0.0802986 -0.2680446 0.9197014 0.2680446 0.9197014 0.2680446 0.0802986 -0.2680446
1339000000 0.0779146 -0.2642423 0.9220854 0.2642423 0.9220854 0.2642423 0.0779146 -0.2642423
1360000000 0.0756294 -0.2605241 0.9243706 0.2605241 0.9243706 0.2605241 0.0756294 -0.2605241
1381000000 0.0734380 -0.2568876 0.9265620 0.2568876 0.9265620 0.2568876 0.0734380 -0.2568876
1402000000 0.0713355 -0.2533305 0.9286645 0.2533305 0.9286645 0.2533305 0.0713355 -0.2533305
1423000000 0.0693172 -0.2498507 0.9306828 0.2498507 0.9306828 0.2498507 0.0693172 -0.2498507
1444000000 0.0673788 -0.2464459 0.9326212 0.2464459 0.9326212 0.2464459 0.0673788 -0.2464459
1465000000 0.0655165 -0.2431141 0.9344835 0.2431141 0.9344835 0.2431141 0.0655165 -0.2431141
1486000000 0.0637264 -0.2398530 0.9362736 0.2398530 0.9362736 0.2398530 0.0637264 -0.2398530
1507000000 0.0620049 -0.2366608 0.9379951 0.2366608 0.9379951 0.2366608 0.0620049 -0.2366608
1528000000 0.0603487 -0.2335355 0.9396513 0.2335355 0.9396513 0.2335355 0.0603487 -0.2335355
1549000000 0.0587546 -0.2304751 0.9412454 0.2304751 0.9412454 0.2304751 0.0587546 -0.2304751
1570000000 0.0572197 -0.2274779 0.9427803 0.2274779 0.9427803 0.2274779 0.0572197 -0.2274779
1591000000 0.0557412 -0.2245420 0.9442588 0.2245420 0.9442588 0.2245420 0.0557412 -0.2245420
1612000000 0.0543165 -0.2216656 0.9456835 0.2216656 0.9456835 0.2216656 0.0543165 -0.2216656
1633000000 0.0529430 -0.2188472 0.9470570 0.2188472 0.9470570 0.2188472 0.0529430 -0.2188472
1654000000 0.0516184 -0.2160850 0.9483816 0.2160850 0.9483816 0.2160850 0.0516184 -0.2160850
1675000000 0.0503406 -0.2133775 0.9496594 0.2133775 0.9496594 0.2133775 0.0503406 -0.2133775
1696000000 0.0491073 -0.2107231 0.9508927 0.2107231 0.9508927 0.2107231 0.0491073 -0.2107231
1717000000 0.0479166 -0.2081204 0.9520834 0.2081204 0.9520834 0.2081204 0.0479166 -0.2081204
1738000000 0.0467667 -0.2055679 0.9532333 0.2055679 0.9532333 0.2055679 0.0467667 -0.2055679
1759000000 0.0456557 -0.2030643 0.9543443 0.2030643 0.9543443 0.2030643 0.0456557 -0.2030643
1780000000 0.0445820 -0.2006081 0.9554180 0.2006081 0.9554180 0.2006081 0.0445820 -0.2006081
1801000000 0.0435439 -0.1981981 0.9564561 0.1981981 0.9564561 0.1981981 0.0435439 -0.1981981
1822000000 0.0425400 -0.1958330 0.9574600 0.1958330 0.9574600 0.1958330 0.0425400 -0.1958330
1843000000 0.0415689 -0.1935116 0.9584311 0.1935116 0.9584311 0.1935116 0.0415689 -0.1935116
1864000000 0.0406291 -0.1912328 0.9593709 0.1912328 0.9593709 0.1912328 0.0406291 -0.1912328
1885000000 0.0397194 -0.1889952 0.9602806 0.1889952 0.9602806 0.1889952 0.0397194 -0.1889952
1906000000 0.0388386 -0.1867980 0.9611614 0.1867980 0.9611614 0.1867980 0.0388386 -0.1867980
1927000000 0.0379854 -0.1846399 0.9620146 0.1846399 0.9620146 0.1846399 0.0379854 -0.1846399
1948000000 0.0371588 -0.1825199 0.9628412 0.1825199 0.9628412 0.1825199 0.0371588 -0.1825199
1969000000 0.0363577 -0.1804371 0.9636423 0.1804371 0.9636423 0.1804371 0.0363577 -0.1804371
1990000000 0.0355811 -0.1783905 0.9644189 0.1783905 0.9644189 0.1783905 0.0355811 -0.1783905
2011000000 0.0348280 -0.1763791 0.9651720 0.1763791 0.9651720 0.1763791 0.0348280 -0.1763791
2032000000 0.0340976 -0.1744020 0.9659024 0.1744020 0.9659024 0.1744020 0.0340976 -0.1744020
2053000000 0.0333890 -0.1724583 0.9666110 0.1724583 0.9666110 0.1724583 0.0333890 -0.1724583
2074000000 0.0327013 -0.1705472 0.9672987 0.1705472 0.9672987 0.1705472 0.0327013 -0.1705472
2095000000 0.0320338 -0.1686679 0.9679662 0.1686679 0.9679662 0.1686679 0.0320338 -0.1686679
2116000000 0.0313857 -0.1668195 0.9686143 0.1668195 0.9686143 0.1668195 0.0313857 -0.1668195
2137000000 0.0307562 -0.1650012 0.9692438 0.1650012 0.9692438 0.1650012 0.0307562 -0.1650012
2158000000 0.0301448 -0.1632124 0.9698552 0.1632124 0.9698552 0.1632124 0.0301448 -0.1632124
2179000000 0.0295507 -0.1614523 0.9704493 0.1614523 0.9704493 0.1614523 0.0295507 -0.1614523
2200000000 0.0289733 -0.1597201 0.9710267 0.1597201 0.9710267 0.1597201 0.0289733 -0.1597201
2221000000 0.0284120 -0.1580152 0.9715880 0.1580152 0.9715880 0.1580152 0.0284120 -0.1580152
2242000000 0.0278663 -0.1563370 0.9721337 0.1563370 0.9721337 0.1563370 0.0278663 -0.1563370
2263000000 0.0273356 -0.1546847 0.9726644 0.1546847 0.9726644 0.1546847 0.0273356 -0.1546847
2284000000 0.0268193 -0.1530578 0.9731807 0.1530578 0.9731807 0.1530578 0.0268193 -0.1530578
2305000000 0.0263170 -0.1514556 0.9736830 0.1514556 0.9736830 0.1514556 0.0263170 -0.1514556
2326000000 0.0258282 -0.1498776 0.9741718 0.1498776 0.9741718 0.1498776 0.0258282 -0.1498776
2347000000 0.0253525 -0.1483232 0.9746475 0.1483232 0.9746475 0.1483232 0.0253525 -0.1483232
2368000000 0.0248893 -0.1467918 0.9751107 0.1467918 0.9751107 0.1467918 0.0248893 -0.1467918
2389000000 0.0244383 -0.1452829 0.9755617 0.1452829 0.9755617 0.1452829 0.0244383 -0.1452829
2410000000 0.0239990 -0.1437960 0.9760010 0.1437960 0.9760010 0.1437960 0.0239990 -0.1437960
2431000000 0.0235712 -0.1423306 0.9764288 0.1423306 0.9764288 0.1423306 0.0235712 -0.1423306
2452000000 0.0231543 -0.1408862 0.9768457 0.1408862 0.9768457 0.1408862 0.0231543 -0.1408862
2473000000 0.0227481 -0.1394622 0.9772519 0.1394622 0.9772519 0.1394622 0.0227481 -0.1394622
2494000000 0.0223521 -0.1380584 0.9776479 0.1380584 0.9776479 0.1380584 0.0223521 -0.1380584
2515000000 0.0219662 -0.1366741 0.9780338 0.1366741 0.9780338 0.1366741 0.0219662 -0.1366741
2536000000 0.0215899 -0.1353089 0.9784101 0.1353089 0.9784101 0.1353089 0.0215899 -0.1353089
2557000000 0.0212229 -0.1339625 0.9787771 0.1339625 0.9787771 0.1339625 0.0212229 -0.1339625
2578000000 0.0208650 -0.1326344 0.9791350 0.1326344 0.9791350 0.1326344 0.0208650 -0.1326344
2599000000 0.0205159 -0.1313242 0.9794841 0.1313242 0.9794841 0.1313242 0.0205159 -0.1313242
2620000000 0.0201752 -0.1300316 0.9798248 0.1300316 0.9798248 0.1300316 0.0201752 -0.1300316
2641000000 0.0198429 -0.1287561 0.9801571 0.1287561 0.9801571 0.1287561 0.0198429 -0.1287561
2662000000 0.0195185 -0.1274974 0.9804815 0.1274974 0.9804815 0.1274974 0.0195185 -0.1274974
2683000000 0.0192018 -0.1262551 0.9807982 0.1262551 0.9807982 0.1262551 0.0192018 -0.1262551
2704000000 0.0188927 -0.1250289 0.9811073 0.1250289 0.9811073 0.1250289 0.0188927 -0.1250289
2725000000 0.0185909 -0.1238184 0.9814091 0.1238184 0.9814091 0.1238184 0.0185909 -0.1238184
2746000000 0.0182961 -0.1226233 0.9817039 0.1226233 0.9817039 0.1226233 0.0182961 -0.1226233
2767000000 0.0180083 -0.1214433 0.9819917 0.1214433 0.9819917 0.1214433 0.0180083 -0.1214433
2788000000 0.0177271 -0.1202780 0.9822729 0.1202780 0.9822729 0.1202780 0.0177271 -0.1202780
2809000000 0.0174523 -0.1191273 0.9825477 0.1191273 0.9825477 0.1191273 0.0174523 -0.1191273
2830000000 0.0171839 -0.1179907 0.9828161 0.1179907 0.9828161 0.1179907 0.0171839 -0.1179907
2851000000 0.0169216 -0.1168679 0.9830784 0.1168679 0.9830784 0.1168679 0.0169216 -0.1168679
2872000000 0.0166652 -0.1157588 0.9833348 0.1157588 0.9833348 0.1157588 0.0166652 -0.1157588
2893000000 0.0164146 -0.1146630 0.9835854 0.1146630 0.9835854 0.1146630 0.0164146 -0.1146630
2914000000 0.0161697 -0.1135803 0.9838303 0.1135803 0.9838303 0.1135803 0.0161697 -0.1135803
2935000000 0.0159301 -0.1125103 0.9840699 0.1125103 0.9840699 0.1125103 0.0159301 -0.1125103
2956000000 0.0156959 -0.1114529 0.9843041 0.1114529 0.9843041 0.1114529 0.0156959 -0.1114529
2977000000 0.0154669 -0.1104079 0.9845331 0.1104079 0.9845331 0.1104079 0.0154669 -0.1104079
2998000000 0.0152428 -0.1093748 0.9847572 0.1093748 0.9847572 0.1093748 0.0152428 -0.1093748
3019000000 0.0150237 -0.1083536 0.9849763 0.1083536 0.9849763 0.1083536 0.0150237 -0.1083536
3040000000 0.0148093 -0.1073440 0.9851907 0.1073440 0.9851907 0.1073440 0.0148093 -0.1073440
3061000000 0.0145996 -0.1063458 0.9854004 0.1063458 0.9854004 0.1063458 0.0145996 -0.1063458
3082000000 0.0143943 -0.1053587 0.9856057 0.1053587 0.9856057 0.1053587 0.0143943 -0.1053587
3103000000 0.0141935 -0.1043826 0.9858065 0.1043826 0.9858065 0.1043826 0.0141935 -0.1043826
3124000000 0.0139969 -0.1034172 0.9860031 0.1034172 0.9860031 0.1034172 0.0139969 -0.1034172
3145000000 0.0138045 -0.1024623 0.9861955 0.1024623 0.9861955 0.1024623 0.0138045 -0.1024623
3166000000 0.0136161 -0.1015178 0.9863839 0.1015178 0.9863839 0.1015178 0.0136161 -0.1015178
3187000000 0.0134317 -0.1005835 0.9865683 0.1005835 0.9865683 0.1005835 0.0134317 -0.1005835
3208000000 0.0132512 -0.0996591 0.9867488 0.0996591 0.9867488 0.0996591 0.0132512 -0.0996591
3229000000 0.0130744 -0.0987444 0.9869256 0.0987444 0.9869256 0.0987444 0.0130744 -0.0987444
3250000000 0.0129013 -0.0978394 0.9870987 0.0978394 0.9870987 0.0978394 0.0129013 -0.0978394
3271000000 0.0127317 -0.0969438 0.9872683 0.0969438 0.9872683 0.0969438 0.0127317 -0.0969438
3292000000 0.0125657 -0.0960575 0.9874343 0.0960575 0.9874343 0.0960575 0.0125657 -0.0960575
3313000000 0.0124030 -0.0951803 0.9875970 0.0951803 0.9875970 0.0951803 0.0124030 -0.0951803
3334000000 0.0122436 -0.0943119 0.9877564 0.0943119 0.9877564 0.0943119 0.0122436 -0.0943119
3355000000 0.0120875 -0.0934524 0.9879125 0.0934524 0.9879125 0.0934524 0.0120875 -0.0934524
3376000000 0.0119345 -0.0926015 0.9880655 0.0926015 0.9880655 0.0926015 0.0119345 -0.0926015
3397000000 0.0117847 -0.0917590 0.9882153 0.0917590 0.9882153 0.0917590 0.0117847 -0.0917590
3418000000 0.0116378 -0.0909249 0.9883622 0.0909249 0.9883622 0.0909249 0.0116378 -0.0909249
3439000000 0.0114939 -0.0900989 0.9885061 0.0900989 0.9885061 0.0900989 0.0114939 -0.0900989
3460000000 0.0113528 -0.0892810 0.9886472 0.0892810 0.9886472 0.0892810 0.0113528 -0.0892810
3481000000 0.0112145 -0.0884709 0.9887855 0.0884709 0.9887855 0.0884709 0.0112145 -0.0884709
3502000000 0.0110790 -0.0876686 0.9889210 0.0876686 0.9889210 0.0876686 0.0110790 -0.0876686
3523000000 0.0109461 -0.0868740 0.9890539 0.0868740 0.9890539 0.0868740 0.0109461 -0.0868740
3544000000 0.0108159 -0.0860868 0.9891841 0.0860868 0.9891841 0.0860868 0.0108159 -0.0860868
3565000000 0.0106882 -0.0853070 0.9893118 0.0853070 0.9893118 0.0853070 0.0106882 -0.0853070
3586000000 0.0105630 -0.0845345 0.9894370 0.0845345 0.9894370 0.0845345 0.0105630 -0.0845345
3607000000 0.0104403 -0.0837690 0.9895597 0.0837690 0.9895597 0.0837690 0.0104403 -0.0837690
3628000000 0.0103199 -0.0830106 0.9896801 0.0830106 0.9896801 0.0830106 0.0103199 -0.0830106
3649000000 0.0102019 -0.0822591 0.9897981 0.0822591 0.9897981 0.0822591 0.0102019 -0.0822591
3670000000 0.0100861 -0.0815144 0.9899139 0.0815144 0.9899139 0.0815144 0.0100861 -0.0815144
3691000000 0.0099726 -0.0807763 0.9900274 0.0807763 0.9900274 0.0807763 0.0099726 -0.0807763
3712000000 0.0098613 -0.0800448 0.9901387 0.0800448 0.9901387 0.0800448 0.0098613 -0.0800448
3733000000 0.0097521 -0.0793198 0.9902479 0.0793198 0.9902479 0.0793198 0.0097521 -0.0793198
3754000000 0.0096450 -0.0786011 0.9903550 0.0786011 0.9903550 0.0786011 0.0096450 -0.0786011
3775000000 0.0095399 -0.0778887 0.9904601 0.0778887 0.9904601 0.0778887 0.0095399 -0.0778887
3796000000 0.0094368 -0.0771824 0.9905632 0.0771824 0.9905632 0.0771824 0.0094368 -0.0771824
3817000000 0.0093357 -0.0764821 0.9906643 0.0764821 0.9906643 0.0764821 0.0093357 -0.0764821
3838000000 0.0092366 -0.0757879 0.9907634 0.0757879 0.9907634 0.0757879 0.0092366 -0.0757879
3859000000 0.0091393 -0.0750995 0.9908607 0.0750995 0.9908607 0.0750995 0.0091393 -0.0750995
3880000000 0.0090438 -0.0744169 0.9909562 0.0744169 0.9909562 0.0744169 0.0090438 -0.0744169
3901000000 0.0089501 -0.0737399 0.9910499 0.0737399 0.9910499 0.0737399 0.0089501 -0.0737399
3922000000 0.0088582 -0.0730686 0.9911418 0.0730686 0.9911418 0.0730686 0.0088582 -0.0730686
3943000000 0.0087681 -0.0724028 0.9912319 0.0724028 0.9912319 0.0724028 0.0087681 -0.0724028
3964000000 0.0086796 -0.0717424 0.9913204 0.0717424 0.9913204 0.0717424 0.0086796 -0.0717424
3985000000 0.0085928 -0.0710873 0.9914072 0.0710873 0.9914072 0.0710873 0.0085928 -0.0710873
4006000000 0.0085076 -0.0704375 0.9914924 0.0704375 0.9914924 0.0704375 0.0085076 -0.0704375
4027000000 0.0084240 -0.0697929 0.9915760 0.0697929 0.9915760 0.0697929 0.0084240 -0.0697929
4048000000 0.0083420 -0.0691534 0.9916580 0.0691534 0.9916580 0.0691534 0.0083420 -0.0691534
4069000000 0.0082615 -0.0685190 0.9917385 0.0685190 0.9917385 0.0685190 0.0082615 -0.0685190
4090000000 0.0081825 -0.0678895 0.9918175 0.0678895 0.9918175 0.0678895 0.0081825 -0.0678895
4111000000 0.0081050 -0.0672649 0.9918950 0.0672649 0.9918950 0.0672649 0.0081050 -0.0672649
4132000000 0.0080290 -0.0666451 0.9919710 0.0666451 0.9919710 0.0666451 0.0080290 -0.0666451
4153000000 0.0079543 -0.0660300 0.9920457 0.0660300 0.9920457 0.0660300 0.0079543 -0.0660300
4174000000 0.0078811 -0.0654197 0.9921189 0.0654197 0.9921189 0.0654197 0.0078811 -0.0654197
4195000000 0.0078092 -0.0648139 0.9921908 0.0648139 0.9921908 0.0648139 0.0078092 -0.0648139
4216000000 0.0077387 -0.0642127 0.9922613 0.0642127 0.9922613 0.0642127 0.0077387 -0.0642127
4237000000 0.0076695 -0.0636159 0.9923305 0.0636159 0.9923305 0.0636159 0.0076695 -0.0636159
4258000000 0.0076015 -0.0630236 0.9923985 0.0630236 0.9923985 0.0630236 0.0076015 -0.0630236
4279000000 0.0075349 -0.0624356 0.9924651 0.0624356 0.9924651 0.0624356 0.0075349 -0.0624356
4300000000 0.0074694 -0.0618519 0.9925306 0.0618519 0.9925306 0.0618519 0.0074694 -0.0618519
4321000000 0.0074052 -0.0612724 0.9925948 0.0612724 0.9925948 0.0612724 0.0074052 -0.0612724
4342000000 0.0073423 -0.0606971 0.9926577 0.0606971 0.9926577 0.0606971 0.0073423 -0.0606971
4363000000 0.0072804 -0.0601259 0.9927196 0.0601259 0.9927196 0.0601259 0.0072804 -0.0601259
4384000000 0.0072198 -0.0595587 0.9927802 0.0595587 0.9927802 0.0595587 0.0072198 -0.0595587
4405000000 0.0071603 -0.0589956 0.9928397 0.0589956 0.9928397 0.0589956 0.0071603 -0.0589956
4426000000 0.0071019 -0.0584364 0.9928981 0.0584364 0.9928981 0.0584364 0.0071019 -0.0584364
4447000000 0.0070445 -0.0578811 0.9929555 0.0578811 0.9929555 0.0578811 0.0070445 -0.0578811
4468000000 0.0069883 -0.0573296 0.9930117 0.0573296 0.9930117 0.0573296 0.0069883 -0.0573296
4489000000 0.0069332 -0.0567819 0.9930668 0.0567819 0.9930668 0.0567819 0.0069332 -0.0567819
4510000000 0.0068790 -0.0562380 0.9931210 0.0562380 0.9931210 0.0562380 0.0068790 -0.0562380
