!Murata Part Number: GRM0115C1ER50BE01
!These Parameters are Measured in Series Mode Connection
!Data Generated on Mar 30, 2021
!       o--ll--o
!Port1            Port2
!       o------o
!Operation Temp=25[degC], DC Bias Voltage=0[V]
!Freq. Start=100[MHz] Stop=20[GHz] 401[Steps]
# Hz S RI R 50
!Freq.(Hz) S11(Real) S11(Imag) S21(Real) S21(Imag) S12(Real) S12(Imag) S22(Real) S22(Imag)
100000000 0.9990038 -0.0313856 0.0009962 0.0313856 0.0009962 0.0313856 0.9990038 -0.0313856
149750000 0.9977686 -0.0469435 0.0022314 0.0469435 0.0022314 0.0469435 0.9977686 -0.0469435
199500000 0.9960461 -0.0624345 0.0039539 0.0624345 0.0039539 0.0624345 0.9960461 -0.0624345
249250000 0.9938409 -0.0778365 0.0061591 0.0778365 0.0061591 0.0778365 0.9938409 -0.0778365
299000000 0.9911591 -0.0931283 0.0088409 0.0931283 0.0088409 0.0931283 0.9911591 -0.0931283
348750000 0.9880078 -0.1082889 0.0119922 0.1082889 0.0119922 0.1082889 0.9880078 -0.1082889
398500000 0.9843954 -0.1232980 0.0156046 0.1232980 0.0156046 0.1232980 0.9843954 -0.1232980
448250000 0.9803316 -0.1381360 0.0196684 0.1381360 0.0196684 0.1381360 0.9803316 -0.1381360
498000000 0.9758269 -0.1527838 0.0241731 0.1527838 0.0241731 0.1527838 0.9758269 -0.1527838
547750000 0.9708930 -0.1672235 0.0291070 0.1672235 0.0291070 0.1672235 0.9708930 -0.1672235
597500000 0.9655425 -0.1814378 0.0344575 0.1814378 0.0344575 0.1814378 0.9655425 -0.1814378
647250000 0.9597889 -0.1954103 0.0402111 0.1954103 0.0402111 0.1954103 0.9597889 -0.1954103
697000000 0.9536462 -0.2091257 0.0463538 0.2091257 0.0463538 0.2091257 0.9536462 -0.2091257
746750000 0.9471295 -0.2225698 0.0528705 0.2225698 0.0528705 0.2225698 0.9471295 -0.2225698
796500000 0.9402542 -0.2357292 0.0597458 0.2357292 0.0597458 0.2357292 0.9402542 -0.2357292
846250000 0.9330365 -0.2485919 0.0669635 0.2485919 0.0669635 0.2485919 0.9330365 -0.2485919
896000000 0.9254928 -0.2611466 0.0745072 0.2611466 0.0745072 0.2611466 0.9254928 -0.2611466
945750000 0.9176400 -0.2733834 0.0823600 0.2733834 0.0823600 0.2733834 0.9176400 -0.2733834
995500000 0.9094951 -0.2852934 0.0905049 0.2852934 0.0905049 0.2852934 0.9094951 -0.2852934
1045250000 0.9010756 -0.2968689 0.0989244 0.2968689 0.0989244 0.2968689 0.9010756 -0.2968689
1095000000 0.8923987 -0.3081030 0.1076013 0.3081030 0.1076013 0.3081030 0.8923987 -0.3081030
1144750000 0.8834820 -0.3189902 0.1165180 0.3189902 0.1165180 0.3189902 0.8834820 -0.3189902
1194500000 0.8743429 -0.3295259 0.1256571 0.3295259 0.1256571 0.3295259 0.8743429 -0.3295259
1244250000 0.8649987 -0.3397064 0.1350013 0.3397064 0.1350013 0.3397064 0.8649987 -0.3397064
1294000000 0.8554666 -0.3495292 0.1445334 0.3495292 0.1445334 0.3495292 0.8554666 -0.3495292
1343750000 0.8457633 -0.3589925 0.1542367 0.3589925 0.1542367 0.3589925 0.8457633 -0.3589925
1393500000 0.8359057 -0.3680957 0.1640943 0.3680957 0.1640943 0.3680957 0.8359057 -0.3680957
1443250000 0.8259100 -0.3768389 0.1740900 0.3768389 0.1740900 0.3768389 0.8259100 -0.3768389
1493000000 0.8157921 -0.3852229 0.1842079 0.3852229 0.1842079 0.3852229 0.8157921 -0.3852229
1542750000 0.8055675 -0.3932494 0.1944325 0.3932494 0.1944325 0.3932494 0.8055675 -0.3932494
1592500000 0.7952513 -0.4009209 0.2047487 0.4009209 0.2047487 0.4009209 0.7952513 -0.4009209
1642250000 0.7848581 -0.4082404 0.2151419 0.4082404 0.2151419 0.4082404 0.7848581 -0.4082404
1692000000 0.7744019 -0.4152116 0.2255981 0.4152116 0.2255981 0.4152116 0.7744019 -0.4152116
1741750000 0.7638963 -0.4218388 0.2361037 0.4218388 0.2361037 0.4218388 0.7638963 -0.4218388
1791500000 0.7533543 -0.4281268 0.2466457 0.4281268 0.2466457 0.4281268 0.7533543 -0.4281268
1841250000 0.7427884 -0.4340808 0.2572116 0.4340808 0.2572116 0.4340808 0.7427884 -0.4340808
1891000000 0.7322104 -0.4397066 0.2677896 0.4397066 0.2677896 0.4397066 0.7322104 -0.4397066
1940750000 0.7216316 -0.4450103 0.2783684 0.4450103 0.2783684 0.4450103 0.7216316 -0.4450103
1990500000 0.7110628 -0.4499982 0.2889372 0.4499982 0.2889372 0.4499982 0.7110628 -0.4499982
2040250000 0.7005141 -0.4546771 0.2994859 0.4546771 0.2994859 0.4546771 0.7005141 -0.4546771
2090000000 0.6899952 -0.4590539 0.3100048 0.4590539 0.3100048 0.4590539 0.6899952 -0.4590539
2139750000 0.6795151 -0.4631358 0.3204849 0.4631358 0.3204849 0.4631358 0.6795151 -0.4631358
2189500000 0.6690822 -0.4669303 0.3309178 0.4669303 0.3309178 0.4669303 0.6690822 -0.4669303
2239250000 0.6587046 -0.4704447 0.3412954 0.4704447 0.3412954 0.4704447 0.6587046 -0.4704447
2289000000 0.6483896 -0.4736867 0.3516104 0.4736867 0.3516104 0.4736867 0.6483896 -0.4736867
2338750000 0.6381441 -0.4766641 0.3618559 0.4766641 0.3618559 0.4766641 0.6381441 -0.4766641
2388500000 0.6279745 -0.4793845 0.3720255 0.4793845 0.3720255 0.4793845 0.6279745 -0.4793845
2438250000 0.6178867 -0.4818558 0.3821133 0.4818558 0.3821133 0.4818558 0.6178867 -0.4818558
2488000000 0.6078862 -0.4840857 0.3921138 0.4840857 0.3921138 0.4840857 0.6078862 -0.4840857
2537750000 0.5979779 -0.4860820 0.4020221 0.4860820 0.4020221 0.4860820 0.5979779 -0.4860820
2587500000 0.5881663 -0.4878523 0.4118337 0.4878523 0.4118337 0.4878523 0.5881663 -0.4878523
2637250000 0.5784557 -0.4894044 0.4215443 0.4894044 0.4215443 0.4894044 0.5784557 -0.4894044
2687000000 0.5688496 -0.4907458 0.4311504 0.4907458 0.4311504 0.4907458 0.5688496 -0.4907458
2736750000 0.5593515 -0.4918840 0.4406485 0.4918840 0.4406485 0.4918840 0.5593515 -0.4918840
2786500000 0.5499644 -0.4928264 0.4500356 0.4928264 0.4500356 0.4928264 0.5499644 -0.4928264
2836250000 0.5406908 -0.4935802 0.4593092 0.4935802 0.4593092 0.4935802 0.5406908 -0.4935802
2886000000 0.5315331 -0.4941526 0.4684669 0.4941526 0.4684669 0.4941526 0.5315331 -0.4941526
2935750000 0.5224933 -0.4945505 0.4775067 0.4945505 0.4775067 0.4945505 0.5224933 -0.4945505
2985500000 0.5135730 -0.4947809 0.4864270 0.4947809 0.4864270 0.4947809 0.5135730 -0.4947809
3035250000 0.5047738 -0.4948504 0.4952262 0.4948504 0.4952262 0.4948504 0.5047738 -0.4948504
3085000000 0.4960968 -0.4947656 0.5039032 0.4947656 0.5039032 0.4947656 0.4960968 -0.4947656
3134750000 0.4875428 -0.4945328 0.5124572 0.4945328 0.5124572 0.4945328 0.4875428 -0.4945328
3184500000 0.4791127 -0.4941583 0.5208873 0.4941583 0.5208873 0.4941583 0.4791127 -0.4941583
3234250000 0.4708068 -0.4936481 0.5291932 0.4936481 0.5291932 0.4936481 0.4708068 -0.4936481
3284000000 0.4626256 -0.4930082 0.5373744 0.4930082 0.5373744 0.4930082 0.4626256 -0.4930082
3333750000 0.4545690 -0.4922442 0.5454310 0.4922442 0.5454310 0.4922442 0.4545690 -0.4922442
3383500000 0.4466371 -0.4913616 0.5533629 0.4913616 0.5533629 0.4913616 0.4466371 -0.4913616
3433250000 0.4388296 -0.4903659 0.5611704 0.4903659 0.5611704 0.4903659 0.4388296 -0.4903659
3483000000 0.4311461 -0.4892623 0.5688539 0.4892623 0.5688539 0.4892623 0.4311461 -0.4892623
3532750000 0.4235861 -0.4880558 0.5764139 0.4880558 0.5764139 0.4880558 0.4235861 -0.4880558
3582500000 0.4161490 -0.4867513 0.5838510 0.4867513 0.5838510 0.4867513 0.4161490 -0.4867513
3632250000 0.4088341 -0.4853535 0.5911659 0.4853535 0.5911659 0.4853535 0.4088341 -0.4853535
3682000000 0.4016405 -0.4838670 0.5983595 0.4838670 0.5983595 0.4838670 0.4016405 -0.4838670
3731750000 0.3945673 -0.4822961 0.6054327 0.4822961 0.6054327 0.4822961 0.3945673 -0.4822961
3781500000 0.3876133 -0.4806450 0.6123867 0.4806450 0.6123867 0.4806450 0.3876133 -0.4806450
3831250000 0.3807776 -0.4789180 0.6192224 0.4789180 0.6192224 0.4789180 0.3807776 -0.4789180
3881000000 0.3740590 -0.4771188 0.6259410 0.4771188 0.6259410 0.4771188 0.3740590 -0.4771188
3930750000 0.3674562 -0.4752513 0.6325438 0.4752513 0.6325438 0.4752513 0.3674562 -0.4752513
3980500000 0.3609678 -0.4733192 0.6390322 0.4733192 0.6390322 0.4733192 0.3609678 -0.4733192
4030250000 0.3545927 -0.4713258 0.6454073 0.4713258 0.6454073 0.4713258 0.3545927 -0.4713258
4080000000 0.3483293 -0.4692747 0.6516707 0.4692747 0.6516707 0.4692747 0.3483293 -0.4692747
4129750000 0.3421762 -0.4671690 0.6578238 0.4671690 0.6578238 0.4671690 0.3421762 -0.4671690
4179500000 0.3361321 -0.4650118 0.6638679 0.4650118 0.6638679 0.4650118 0.3361321 -0.4650118
4229250000 0.3301953 -0.4628062 0.6698047 0.4628062 0.6698047 0.4628062 0.3301953 -0.4628062
4279000000 0.3243644 -0.4605550 0.6756356 0.4605550 0.6756356 0.4605550 0.3243644 -0.4605550
4328750000 0.3186379 -0.4582609 0.6813621 0.4582609 0.6813621 0.4582609 0.3186379 -0.4582609
4378500000 0.3130141 -0.4559266 0.6869859 0.4559266 0.6869859 0.4559266 0.3130141 -0.4559266
4428250000 0.3074916 -0.4535546 0.6925084 0.4535546 0.6925084 0.4535546 0.3074916 -0.4535546
4478000000 0.3020688 -0.4511473 0.6979312 0.4511473 0.6979312 0.4511473 0.3020688 -0.4511473
4527750000 0.2967441 -0.4487071 0.7032559 0.4487071 0.7032559 0.4487071 0.2967441 -0.4487071
4577500000 0.2915159 -0.4462361 0.7084841 0.4462361 0.7084841 0.4462361 0.2915159 -0.4462361
4627250000 0.2863827 -0.4437365 0.7136173 0.4437365 0.7136173 0.4437365 0.2863827 -0.4437365
4677000000 0.2813428 -0.4412103 0.7186572 0.4412103 0.7186572 0.4412103 0.2813428 -0.4412103
4726750000 0.2763948 -0.4386594 0.7236052 0.4386594 0.7236052 0.4386594 0.2763948 -0.4386594
4776500000 0.2715370 -0.4360858 0.7284630 0.4360858 0.7284630 0.4360858 0.2715370 -0.4360858
4826250000 0.2667678 -0.4334911 0.7332322 0.4334911 0.7332322 0.4334911 0.2667678 -0.4334911
4876000000 0.2620859 -0.4308771 0.7379141 0.4308771 0.7379141 0.4308771 0.2620859 -0.4308771
4925750000 0.2574895 -0.4282454 0.7425105 0.4282454 0.7425105 0.4282454 0.2574895 -0.4282454
4975500000 0.2529772 -0.4255975 0.7470228 0.4255975 0.7470228 0.4255975 0.2529772 -0.4255975
5025250000 0.2485476 -0.4229350 0.7514524 0.4229350 0.7514524 0.4229350 0.2485476 -0.4229350
5075000000 0.2441990 -0.4202592 0.7558010 0.4202592 0.7558010 0.4202592 0.2441990 -0.4202592
5124750000 0.2399300 -0.4175714 0.7600700 0.4175714 0.7600700 0.4175714 0.2399300 -0.4175714
5174500000 0.2357392 -0.4148730 0.7642608 0.4148730 0.7642608 0.4148730 0.2357392 -0.4148730
5224250000 0.2316251 -0.4121652 0.7683749 0.4121652 0.7683749 0.4121652 0.2316251 -0.4121652
5274000000 0.2275864 -0.4094491 0.7724136 0.4094491 0.7724136 0.4094491 0.2275864 -0.4094491
5323750000 0.2236215 -0.4067259 0.7763785 0.4067259 0.7763785 0.4067259 0.2236215 -0.4067259
5373500000 0.2197292 -0.4039965 0.7802708 0.4039965 0.7802708 0.4039965 0.2197292 -0.4039965
5423250000 0.2159080 -0.4012621 0.7840920 0.4012621 0.7840920 0.4012621 0.2159080 -0.4012621
5473000000 0.2121566 -0.3985235 0.7878434 0.3985235 0.7878434 0.3985235 0.2121566 -0.3985235
5522750000 0.2084737 -0.3957816 0.7915263 0.3957816 0.7915263 0.3957816 0.2084737 -0.3957816
5572500000 0.2048580 -0.3930374 0.7951420 0.3930374 0.7951420 0.3930374 0.2048580 -0.3930374
5622250000 0.2013082 -0.3902917 0.7986918 0.3902917 0.7986918 0.3902917 0.2013082 -0.3902917
5672000000 0.1978230 -0.3875452 0.8021770 0.3875452 0.8021770 0.3875452 0.1978230 -0.3875452
5721750000 0.1944013 -0.3847986 0.8055987 0.3847986 0.8055987 0.3847986 0.1944013 -0.3847986
5771500000 0.1910417 -0.3820528 0.8089583 0.3820528 0.8089583 0.3820528 0.1910417 -0.3820528
5821250000 0.1877432 -0.3793083 0.8122568 0.3793083 0.8122568 0.3793083 0.1877432 -0.3793083
5871000000 0.1845045 -0.3765657 0.8154955 0.3765657 0.8154955 0.3765657 0.1845045 -0.3765657
5920750000 0.1813244 -0.3738258 0.8186756 0.3738258 0.8186756 0.3738258 0.1813244 -0.3738258
5970500000 0.1782019 -0.3710890 0.8217981 0.3710890 0.8217981 0.3710890 0.1782019 -0.3710890
6020250000 0.1751358 -0.3683559 0.8248642 0.3683559 0.8248642 0.3683559 0.1751358 -0.3683559
6070000000 0.1721250 -0.3656269 0.8278750 0.3656269 0.8278750 0.3656269 0.1721250 -0.3656269
6119750000 0.1691685 -0.3629027 0.8308315 0.3629027 0.8308315 0.3629027 0.1691685 -0.3629027
6169500000 0.1662652 -0.3601836 0.8337348 0.3601836 0.8337348 0.3601836 0.1662652 -0.3601836
6219250000 0.1634141 -0.3574701 0.8365859 0.3574701 0.8365859 0.3574701 0.1634141 -0.3574701
6269000000 0.1606142 -0.3547625 0.8393858 0.3547625 0.8393858 0.3547625 0.1606142 -0.3547625
6318750000 0.1578644 -0.3520613 0.8421356 0.3520613 0.8421356 0.3520613 0.1578644 -0.3520613
6368500000 0.1551639 -0.3493669 0.8448361 0.3493669 0.8448361 0.3493669 0.1551639 -0.3493669
6418250000 0.1525116 -0.3466794 0.8474884 0.3466794 0.8474884 0.3466794 0.1525116 -0.3466794
6468000000 0.1499067 -0.3439994 0.8500933 0.3439994 0.8500933 0.3439994 0.1499067 -0.3439994
6517750000 0.1473482 -0.3413270 0.8526518 0.3413270 0.8526518 0.3413270 0.1473482 -0.3413270
6567500000 0.1448352 -0.3386626 0.8551648 0.3386626 0.8551648 0.3386626 0.1448352 -0.3386626
6617250000 0.1423668 -0.3360065 0.8576332 0.3360065 0.8576332 0.3360065 0.1423668 -0.3360065
6667000000 0.1399422 -0.3333588 0.8600578 0.3333588 0.8600578 0.3333588 0.1399422 -0.3333588
6716750000 0.1375606 -0.3307198 0.8624394 0.3307198 0.8624394 0.3307198 0.1375606 -0.3307198
6766500000 0.1352211 -0.3280897 0.8647789 0.3280897 0.8647789 0.3280897 0.1352211 -0.3280897
6816250000 0.1329229 -0.3254688 0.8670771 0.3254688 0.8670771 0.3254688 0.1329229 -0.3254688
6866000000 0.1306652 -0.3228572 0.8693348 0.3228572 0.8693348 0.3228572 0.1306652 -0.3228572
6915750000 0.1284473 -0.3202551 0.8715527 0.3202551 0.8715527 0.3202551 0.1284473 -0.3202551
6965500000 0.1262683 -0.3176627 0.8737317 0.3176627 0.8737317 0.3176627 0.1262683 -0.3176627
7015250000 0.1241276 -0.3150800 0.8758724 0.3150800 0.8758724 0.3150800 0.1241276 -0.3150800
7065000000 0.1220244 -0.3125073 0.8779756 0.3125073 0.8779756 0.3125073 0.1220244 -0.3125073
7114750000 0.1199581 -0.3099447 0.8800419 0.3099447 0.8800419 0.3099447 0.1199581 -0.3099447
7164500000 0.1179278 -0.3073923 0.8820722 0.3073923 0.8820722 0.3073923 0.1179278 -0.3073923
7214250000 0.1159330 -0.3048502 0.8840670 0.3048502 0.8840670 0.3048502 0.1159330 -0.3048502
7264000000 0.1139730 -0.3023185 0.8860270 0.3023185 0.8860270 0.3023185 0.1139730 -0.3023185
7313750000 0.1120470 -0.2997973 0.8879530 0.2997973 0.8879530 0.2997973 0.1120470 -0.2997973
7363500000 0.1101545 -0.2972866 0.8898455 0.2972866 0.8898455 0.2972866 0.1101545 -0.2972866
7413250000 0.1082949 -0.2947866 0.8917051 0.2947866 0.8917051 0.2947866 0.1082949 -0.2947866
7463000000 0.1064675 -0.2922973 0.8935325 0.2922973 0.8935325 0.2922973 0.1064675 -0.2922973
7512750000 0.1046718 -0.2898188 0.8953282 0.2898188 0.8953282 0.2898188 0.1046718 -0.2898188
7562500000 0.1029071 -0.2873512 0.8970929 0.2873512 0.8970929 0.2873512 0.1029071 -0.2873512
7612250000 0.1011728 -0.2848943 0.8988272 0.2848943 0.8988272 0.2848943 0.1011728 -0.2848943
7662000000 0.0994685 -0.2824484 0.9005315 0.2824484 0.9005315 0.2824484 0.0994685 -0.2824484
7711750000 0.0977935 -0.2800135 0.9022065 0.2800135 0.9022065 0.2800135 0.0977935 -0.2800135
7761500000 0.0961473 -0.2775895 0.9038527 0.2775895 0.9038527 0.2775895 0.0961473 -0.2775895
7811250000 0.0945295 -0.2751765 0.9054705 0.2751765 0.9054705 0.2751765 0.0945295 -0.2751765
7861000000 0.0929394 -0.2727744 0.9070606 0.2727744 0.9070606 0.2727744 0.0929394 -0.2727744
7910750000 0.0913766 -0.2703834 0.9086234 0.2703834 0.9086234 0.2703834 0.0913766 -0.2703834
7960500000 0.0898405 -0.2680034 0.9101595 0.2680034 0.9101595 0.2680034 0.0898405 -0.2680034
8010250000 0.0883307 -0.2656345 0.9116693 0.2656345 0.9116693 0.2656345 0.0883307 -0.2656345
8060000000 0.0868468 -0.2632765 0.9131532 0.2632765 0.9131532 0.2632765 0.0868468 -0.2632765
8109750000 0.0853882 -0.2609296 0.9146118 0.2609296 0.9146118 0.2609296 0.0853882 -0.2609296
8159500000 0.0839545 -0.2585936 0.9160455 0.2585936 0.9160455 0.2585936 0.0839545 -0.2585936
8209250000 0.0825453 -0.2562687 0.9174547 0.2562687 0.9174547 0.2562687 0.0825453 -0.2562687
8259000000 0.0811601 -0.2539547 0.9188399 0.2539547 0.9188399 0.2539547 0.0811601 -0.2539547
8308750000 0.0797984 -0.2516517 0.9202016 0.2516517 0.9202016 0.2516517 0.0797984 -0.2516517
8358500000 0.0784600 -0.2493596 0.9215400 0.2493596 0.9215400 0.2493596 0.0784600 -0.2493596
8408250000 0.0771443 -0.2470784 0.9228557 0.2470784 0.9228557 0.2470784 0.0771443 -0.2470784
8458000000 0.0758509 -0.2448080 0.9241491 0.2448080 0.9241491 0.2448080 0.0758509 -0.2448080
8507750000 0.0745796 -0.2425485 0.9254204 0.2425485 0.9254204 0.2425485 0.0745796 -0.2425485
8557500000 0.0733298 -0.2402998 0.9266702 0.2402998 0.9266702 0.2402998 0.0733298 -0.2402998
8607250000 0.0721012 -0.2380619 0.9278988 0.2380619 0.9278988 0.2380619 0.0721012 -0.2380619
8657000000 0.0708935 -0.2358347 0.9291065 0.2358347 0.9291065 0.2358347 0.0708935 -0.2358347
8706750000 0.0697063 -0.2336182 0.9302937 0.2336182 0.9302937 0.2336182 0.0697063 -0.2336182
8756500000 0.0685392 -0.2314124 0.9314608 0.2314124 0.9314608 0.2314124 0.0685392 -0.2314124
8806250000 0.0673918 -0.2292171 0.9326082 0.2292171 0.9326082 0.2292171 0.0673918 -0.2292171
8856000000 0.0662640 -0.2270324 0.9337360 0.2270324 0.9337360 0.2270324 0.0662640 -0.2270324
8905750000 0.0651552 -0.2248583 0.9348448 0.2248583 0.9348448 0.2248583 0.0651552 -0.2248583
8955500000 0.0640653 -0.2226946 0.9359347 0.2226946 0.9359347 0.2226946 0.0640653 -0.2226946
9005250000 0.0629938 -0.2205413 0.9370062 0.2205413 0.9370062 0.2205413 0.0629938 -0.2205413
9055000000 0.0619404 -0.2183983 0.9380596 0.2183983 0.9380596 0.2183983 0.0619404 -0.2183983
9104750000 0.0609050 -0.2162657 0.9390950 0.2162657 0.9390950 0.2162657 0.0609050 -0.2162657
9154500000 0.0598871 -0.2141433 0.9401129 0.2141433 0.9401129 0.2141433 0.0598871 -0.2141433
9204250000 0.0588864 -0.2120312 0.9411136 0.2120312 0.9411136 0.2120312 0.0588864 -0.2120312
9254000000 0.0579027 -0.2099292 0.9420973 0.2099292 0.9420973 0.2099292 0.0579027 -0.2099292
9303750000 0.0569358 -0.2078373 0.9430642 0.2078373 0.9430642 0.2078373 0.0569358 -0.2078373
9353500000 0.0559852 -0.2057554 0.9440148 0.2057554 0.9440148 0.2057554 0.0559852 -0.2057554
9403250000 0.0550508 -0.2036835 0.9449492 0.2036835 0.9449492 0.2036835 0.0550508 -0.2036835
9453000000 0.0541323 -0.2016215 0.9458677 0.2016215 0.9458677 0.2016215 0.0541323 -0.2016215
9502750000 0.0532294 -0.1995694 0.9467706 0.1995694 0.9467706 0.1995694 0.0532294 -0.1995694
9552500000 0.0523419 -0.1975271 0.9476581 0.1975271 0.9476581 0.1975271 0.0523419 -0.1975271
9602250000 0.0514695 -0.1954945 0.9485305 0.1954945 0.9485305 0.1954945 0.0514695 -0.1954945
9652000000 0.0506120 -0.1934716 0.9493880 0.1934716 0.9493880 0.1934716 0.0506120 -0.1934716
9701750000 0.0497691 -0.1914583 0.9502309 0.1914583 0.9502309 0.1914583 0.0497691 -0.1914583
9751500000 0.0489407 -0.1894546 0.9510593 0.1894546 0.9510593 0.1894546 0.0489407 -0.1894546
9801250000 0.0481264 -0.1874604 0.9518736 0.1874604 0.9518736 0.1874604 0.0481264 -0.1874604
9851000000 0.0473261 -0.1854756 0.9526739 0.1854756 0.9526739 0.1854756 0.0473261 -0.1854756
9900750000 0.0465395 -0.1835002 0.9534605 0.1835002 0.9534605 0.1835002 0.0465395 -0.1835002
9950500000 0.0457664 -0.1815341 0.9542336 0.1815341 0.9542336 0.1815341 0.0457664 -0.1815341
10000250000 0.0450067 -0.1795773 0.9549933 0.1795773 0.9549933 0.1795773 0.0450067 -0.1795773
10050000000 0.0442600 -0.1776296 0.9557400 0.1776296 0.9557400 0.1776296 0.0442600 -0.1776296
10099750000 0.0435262 -0.1756911 0.9564738 0.1756911 0.9564738 0.1756911 0.0435262 -0.1756911
10149500000 0.0428051 -0.1737617 0.9571949 0.1737617 0.9571949 0.1737617 0.0428051 -0.1737617
10199250000 0.0420965 -0.1718412 0.9579035 0.1718412 0.9579035 0.1718412 0.0420965 -0.1718412
10249000000 0.0414002 -0.1699297 0.9585998 0.1699297 0.9585998 0.1699297 0.0414002 -0.1699297
10298750000 0.0407160 -0.1680270 0.9592840 0.1680270 0.9592840 0.1680270 0.0407160 -0.1680270
10348500000 0.0400438 -0.1661332 0.9599562 0.1661332 0.9599562 0.1661332 0.0400438 -0.1661332
10398250000 0.0393833 -0.1642481 0.9606167 0.1642481 0.9606167 0.1642481 0.0393833 -0.1642481
10448000000 0.0387343 -0.1623717 0.9612657 0.1623717 0.9612657 0.1623717 0.0387343 -0.1623717
10497750000 0.0380968 -0.1605040 0.9619032 0.1605040 0.9619032 0.1605040 0.0380968 -0.1605040
