!Murata Part Number: GRM0115C1E7R9DE01
!These Parameters are Measured in Series Mode Connection
!Data Generated on Mar 30, 2021
!       o--ll--o
!Port1            Port2
!       o------o
!Operation Temp=25[degC], DC Bias Voltage=0[V]
!Freq. Start=100[MHz] Stop=9[GHz] 401[Steps]
# Hz S RI R 50
!Freq.(Hz) S11(Real) S11(Imag) S21(Real) S21(Imag) S12(Real) S12(Imag) S22(Real) S22(Imag)
100000000 0.8020421 -0.3981436 0.1979579 0.3981436 0.1979579 0.3981436 0.8020421 -0.3981436
121000000 0.7345132 -0.4412082 0.2654868 0.4412082 0.2654868 0.4412082 0.7345132 -0.4412082
142000000 0.6675898 -0.4706256 0.3324102 0.4706256 0.3324102 0.4706256 0.6675898 -0.4706256
163000000 0.6037588 -0.4885960 0.3962412 0.4885960 0.3962412 0.4885960 0.6037588 -0.4885960
184000000 0.5444903 -0.4974283 0.4555097 0.4974283 0.4555097 0.4974283 0.5444903 -0.4974283
205000000 0.4904755 -0.4992516 0.5095245 0.4992516 0.5095245 0.4992516 0.4904755 -0.4992516
226000000 0.4418691 -0.4958816 0.5581309 0.4958816 0.5581309 0.4958816 0.4418691 -0.4958816
247000000 0.3984920 -0.4887892 0.6015080 0.4887892 0.6015080 0.4887892 0.3984920 -0.4887892
268000000 0.3599794 -0.4791239 0.6400206 0.4791239 0.6400206 0.4791239 0.3599794 -0.4791239
289000000 0.3258810 -0.4677604 0.6741190 0.4677604 0.6741190 0.4677604 0.3258810 -0.4677604
310000000 0.2957240 -0.4553514 0.7042760 0.4553514 0.7042760 0.4553514 0.2957240 -0.4553514
331000000 0.2690497 -0.4423753 0.7309503 0.4423753 0.7309503 0.4423753 0.2690497 -0.4423753
352000000 0.2454325 -0.4291772 0.7545675 0.4291772 0.7545675 0.4291772 0.2454325 -0.4291772
373000000 0.2244884 -0.4160021 0.7755116 0.4160021 0.7755116 0.4160021 0.2244884 -0.4160021
394000000 0.2058772 -0.4030205 0.7941228 0.4030205 0.7941228 0.4030205 0.2058772 -0.4030205
415000000 0.1893010 -0.3903476 0.8106990 0.3903476 0.8106990 0.3903476 0.1893010 -0.3903476
436000000 0.1745004 -0.3780588 0.8254996 0.3780588 0.8254996 0.3780588 0.1745004 -0.3780588
457000000 0.1612511 -0.3662002 0.8387489 0.3662002 0.8387489 0.3662002 0.1612511 -0.3662002
478000000 0.1493592 -0.3547968 0.8506408 0.3547968 0.8506408 0.3547968 0.1493592 -0.3547968
499000000 0.1386575 -0.3438587 0.8613425 0.3438587 0.8613425 0.3438587 0.1386575 -0.3438587
520000000 0.1290016 -0.3333855 0.8709984 0.3333855 0.8709984 0.3333855 0.1290016 -0.3333855
541000000 0.1202670 -0.3233695 0.8797330 0.3233695 0.8797330 0.3233695 0.1202670 -0.3233695
562000000 0.1123459 -0.3137983 0.8876541 0.3137983 0.8876541 0.3137983 0.1123459 -0.3137983
583000000 0.1051450 -0.3046559 0.8948550 0.3046559 0.8948550 0.3046559 0.1051450 -0.3046559
604000000 0.0985833 -0.2959248 0.9014167 0.2959248 0.9014167 0.2959248 0.0985833 -0.2959248
625000000 0.0925903 -0.2875862 0.9074097 0.2875862 0.9074097 0.2875862 0.0925903 -0.2875862
646000000 0.0871047 -0.2796210 0.9128953 0.2796210 0.9128953 0.2796210 0.0871047 -0.2796210
667000000 0.0820728 -0.2720103 0.9179272 0.2720103 0.9179272 0.2720103 0.0820728 -0.2720103
688000000 0.0774476 -0.2647353 0.9225524 0.2647353 0.9225524 0.2647353 0.0774476 -0.2647353
709000000 0.0731878 -0.2577780 0.9268122 0.2577780 0.9268122 0.2577780 0.0731878 -0.2577780
730000000 0.0692572 -0.2511211 0.9307428 0.2511211 0.9307428 0.2511211 0.0692572 -0.2511211
751000000 0.0656236 -0.2447479 0.9343764 0.2447479 0.9343764 0.2447479 0.0656236 -0.2447479
772000000 0.0622588 -0.2386427 0.9377412 0.2386427 0.9377412 0.2386427 0.0622588 -0.2386427
793000000 0.0591377 -0.2327907 0.9408623 0.2327907 0.9408623 0.2327907 0.0591377 -0.2327907
814000000 0.0562378 -0.2271779 0.9437622 0.2271779 0.9437622 0.2271779 0.0562378 -0.2271779
835000000 0.0535394 -0.2217909 0.9464606 0.2217909 0.9464606 0.2217909 0.0535394 -0.2217909
856000000 0.0510247 -0.2166174 0.9489753 0.2166174 0.9489753 0.2166174 0.0510247 -0.2166174
877000000 0.0486777 -0.2116457 0.9513223 0.2116457 0.9513223 0.2116457 0.0486777 -0.2116457
898000000 0.0464844 -0.2068649 0.9535156 0.2068649 0.9535156 0.2068649 0.0464844 -0.2068649
919000000 0.0444319 -0.2022647 0.9555681 0.2022647 0.9555681 0.2022647 0.0444319 -0.2022647
940000000 0.0425087 -0.1978355 0.9574913 0.1978355 0.9574913 0.1978355 0.0425087 -0.1978355
961000000 0.0407044 -0.1935683 0.9592956 0.1935683 0.9592956 0.1935683 0.0407044 -0.1935683
982000000 0.0390097 -0.1894546 0.9609903 0.1894546 0.9609903 0.1894546 0.0390097 -0.1894546
1003000000 0.0374162 -0.1854865 0.9625838 0.1854865 0.9625838 0.1854865 0.0374162 -0.1854865
1024000000 0.0359161 -0.1816566 0.9640839 0.1816566 0.9640839 0.1816566 0.0359161 -0.1816566
1045000000 0.0345024 -0.1779579 0.9654976 0.1779579 0.9654976 0.1779579 0.0345024 -0.1779579
1066000000 0.0331688 -0.1743840 0.9668312 0.1743840 0.9668312 0.1743840 0.0331688 -0.1743840
1087000000 0.0319096 -0.1709285 0.9680904 0.1709285 0.9680904 0.1709285 0.0319096 -0.1709285
1108000000 0.0307194 -0.1675859 0.9692806 0.1675859 0.9692806 0.1675859 0.0307194 -0.1675859
1129000000 0.0295934 -0.1643506 0.9704066 0.1643506 0.9704066 0.1643506 0.0295934 -0.1643506
1150000000 0.0285272 -0.1612175 0.9714728 0.1612175 0.9714728 0.1612175 0.0285272 -0.1612175
1171000000 0.0275169 -0.1581820 0.9724831 0.1581820 0.9724831 0.1581820 0.0275169 -0.1581820
1192000000 0.0265585 -0.1552394 0.9734415 0.1552394 0.9734415 0.1552394 0.0265585 -0.1552394
1213000000 0.0256488 -0.1523855 0.9743512 0.1523855 0.9743512 0.1523855 0.0256488 -0.1523855
1234000000 0.0247846 -0.1496163 0.9752154 0.1496163 0.9752154 0.1496163 0.0247846 -0.1496163
1255000000 0.0239630 -0.1469281 0.9760370 0.1469281 0.9760370 0.1469281 0.0239630 -0.1469281
1276000000 0.0231813 -0.1443173 0.9768187 0.1443173 0.9768187 0.1443173 0.0231813 -0.1443173
1297000000 0.0224371 -0.1417804 0.9775629 0.1417804 0.9775629 0.1417804 0.0224371 -0.1417804
1318000000 0.0217281 -0.1393144 0.9782719 0.1393144 0.9782719 0.1393144 0.0217281 -0.1393144
1339000000 0.0210522 -0.1369163 0.9789478 0.1369163 0.9789478 0.1369163 0.0210522 -0.1369163
1360000000 0.0204074 -0.1345831 0.9795926 0.1345831 0.9795926 0.1345831 0.0204074 -0.1345831
1381000000 0.0197919 -0.1323121 0.9802081 0.1323121 0.9802081 0.1323121 0.0197919 -0.1323121
1402000000 0.0192039 -0.1301010 0.9807961 0.1301010 0.9807961 0.1301010 0.0192039 -0.1301010
1423000000 0.0186421 -0.1279471 0.9813579 0.1279471 0.9813579 0.1279471 0.0186421 -0.1279471
1444000000 0.0181048 -0.1258483 0.9818952 0.1258483 0.9818952 0.1258483 0.0181048 -0.1258483
1465000000 0.0175907 -0.1238024 0.9824093 0.1238024 0.9824093 0.1238024 0.0175907 -0.1238024
1486000000 0.0170986 -0.1218072 0.9829014 0.1218072 0.9829014 0.1218072 0.0170986 -0.1218072
1507000000 0.0166273 -0.1198609 0.9833727 0.1198609 0.9833727 0.1198609 0.0166273 -0.1198609
1528000000 0.0161756 -0.1179616 0.9838244 0.1179616 0.9838244 0.1179616 0.0161756 -0.1179616
1549000000 0.0157425 -0.1161075 0.9842575 0.1161075 0.9842575 0.1161075 0.0157425 -0.1161075
1570000000 0.0153271 -0.1142969 0.9846729 0.1142969 0.9846729 0.1142969 0.0153271 -0.1142969
1591000000 0.0149285 -0.1125282 0.9850715 0.1125282 0.9850715 0.1125282 0.0149285 -0.1125282
1612000000 0.0145458 -0.1107999 0.9854542 0.1107999 0.9854542 0.1107999 0.0145458 -0.1107999
1633000000 0.0141781 -0.1091105 0.9858219 0.1091105 0.9858219 0.1091105 0.0141781 -0.1091105
1654000000 0.0138248 -0.1074587 0.9861752 0.1074587 0.9861752 0.1074587 0.0138248 -0.1074587
1675000000 0.0134852 -0.1058431 0.9865148 0.1058431 0.9865148 0.1058431 0.0134852 -0.1058431
1696000000 0.0131586 -0.1042625 0.9868414 0.1042625 0.9868414 0.1042625 0.0131586 -0.1042625
1717000000 0.0128443 -0.1027156 0.9871557 0.1027156 0.9871557 0.1027156 0.0128443 -0.1027156
1738000000 0.0125419 -0.1012013 0.9874581 0.1012013 0.9874581 0.1012013 0.0125419 -0.1012013
1759000000 0.0122506 -0.0997185 0.9877494 0.0997185 0.9877494 0.0997185 0.0122506 -0.0997185
1780000000 0.0119701 -0.0982661 0.9880299 0.0982661 0.9880299 0.0982661 0.0119701 -0.0982661
1801000000 0.0116998 -0.0968432 0.9883002 0.0968432 0.9883002 0.0968432 0.0116998 -0.0968432
1822000000 0.0114392 -0.0954487 0.9885608 0.0954487 0.9885608 0.0954487 0.0114392 -0.0954487
1843000000 0.0111880 -0.0940818 0.9888120 0.0940818 0.9888120 0.0940818 0.0111880 -0.0940818
1864000000 0.0109457 -0.0927415 0.9890543 0.0927415 0.9890543 0.0927415 0.0109457 -0.0927415
1885000000 0.0107119 -0.0914271 0.9892881 0.0914271 0.9892881 0.0914271 0.0107119 -0.0914271
1906000000 0.0104862 -0.0901376 0.9895138 0.0901376 0.9895138 0.0901376 0.0104862 -0.0901376
1927000000 0.0102684 -0.0888724 0.9897316 0.0888724 0.9897316 0.0888724 0.0102684 -0.0888724
1948000000 0.0100579 -0.0876306 0.9899421 0.0876306 0.9899421 0.0876306 0.0100579 -0.0876306
1969000000 0.0098547 -0.0864116 0.9901453 0.0864116 0.9901453 0.0864116 0.0098547 -0.0864116
1990000000 0.0096583 -0.0852146 0.9903417 0.0852146 0.9903417 0.0852146 0.0096583 -0.0852146
2011000000 0.0094685 -0.0840391 0.9905315 0.0840391 0.9905315 0.0840391 0.0094685 -0.0840391
2032000000 0.0092849 -0.0828843 0.9907151 0.0828843 0.9907151 0.0828843 0.0092849 -0.0828843
2053000000 0.0091074 -0.0817496 0.9908926 0.0817496 0.9908926 0.0817496 0.0091074 -0.0817496
2074000000 0.0089357 -0.0806345 0.9910643 0.0806345 0.9910643 0.0806345 0.0089357 -0.0806345
2095000000 0.0087696 -0.0795384 0.9912304 0.0795384 0.9912304 0.0795384 0.0087696 -0.0795384
2116000000 0.0086088 -0.0784608 0.9913912 0.0784608 0.9913912 0.0784608 0.0086088 -0.0784608
2137000000 0.0084532 -0.0774011 0.9915468 0.0774011 0.9915468 0.0774011 0.0084532 -0.0774011
2158000000 0.0083025 -0.0763588 0.9916975 0.0763588 0.9916975 0.0763588 0.0083025 -0.0763588
2179000000 0.0081565 -0.0753334 0.9918435 0.0753334 0.9918435 0.0753334 0.0081565 -0.0753334
2200000000 0.0080151 -0.0743245 0.9919849 0.0743245 0.9919849 0.0743245 0.0080151 -0.0743245
2221000000 0.0078782 -0.0733316 0.9921218 0.0733316 0.9921218 0.0733316 0.0078782 -0.0733316
2242000000 0.0077454 -0.0723543 0.9922546 0.0723543 0.9922546 0.0723543 0.0077454 -0.0723543
2263000000 0.0076168 -0.0713922 0.9923832 0.0713922 0.9923832 0.0713922 0.0076168 -0.0713922
2284000000 0.0074920 -0.0704448 0.9925080 0.0704448 0.9925080 0.0704448 0.0074920 -0.0704448
2305000000 0.0073711 -0.0695117 0.9926289 0.0695117 0.9926289 0.0695117 0.0073711 -0.0695117
2326000000 0.0072538 -0.0685927 0.9927462 0.0685927 0.9927462 0.0685927 0.0072538 -0.0685927
2347000000 0.0071400 -0.0676872 0.9928600 0.0676872 0.9928600 0.0676872 0.0071400 -0.0676872
2368000000 0.0070296 -0.0667950 0.9929704 0.0667950 0.9929704 0.0667950 0.0070296 -0.0667950
2389000000 0.0069225 -0.0659158 0.9930775 0.0659158 0.9930775 0.0659158 0.0069225 -0.0659158
2410000000 0.0068186 -0.0650491 0.9931814 0.0650491 0.9931814 0.0650491 0.0068186 -0.0650491
2431000000 0.0067177 -0.0641948 0.9932823 0.0641948 0.9932823 0.0641948 0.0067177 -0.0641948
2452000000 0.0066198 -0.0633523 0.9933802 0.0633523 0.9933802 0.0633523 0.0066198 -0.0633523
2473000000 0.0065247 -0.0625216 0.9934753 0.0625216 0.9934753 0.0625216 0.0065247 -0.0625216
2494000000 0.0064324 -0.0617022 0.9935676 0.0617022 0.9935676 0.0617022 0.0064324 -0.0617022
2515000000 0.0063428 -0.0608940 0.9936572 0.0608940 0.9936572 0.0608940 0.0063428 -0.0608940
2536000000 0.0062557 -0.0600966 0.9937443 0.0600966 0.9937443 0.0600966 0.0062557 -0.0600966
2557000000 0.0061711 -0.0593097 0.9938289 0.0593097 0.9938289 0.0593097 0.0061711 -0.0593097
2578000000 0.0060889 -0.0585332 0.9939111 0.0585332 0.9939111 0.0585332 0.0060889 -0.0585332
2599000000 0.0060091 -0.0577667 0.9939909 0.0577667 0.9939909 0.0577667 0.0060091 -0.0577667
2620000000 0.0059315 -0.0570101 0.9940685 0.0570101 0.9940685 0.0570101 0.0059315 -0.0570101
2641000000 0.0058561 -0.0562631 0.9941439 0.0562631 0.9941439 0.0562631 0.0058561 -0.0562631
2662000000 0.0057828 -0.0555255 0.9942172 0.0555255 0.9942172 0.0555255 0.0057828 -0.0555255
2683000000 0.0057116 -0.0547970 0.9942884 0.0547970 0.9942884 0.0547970 0.0057116 -0.0547970
2704000000 0.0056424 -0.0540775 0.9943576 0.0540775 0.9943576 0.0540775 0.0056424 -0.0540775
2725000000 0.0055751 -0.0533668 0.9944249 0.0533668 0.9944249 0.0533668 0.0055751 -0.0533668
2746000000 0.0055096 -0.0526646 0.9944904 0.0526646 0.9944904 0.0526646 0.0055096 -0.0526646
2767000000 0.0054460 -0.0519707 0.9945540 0.0519707 0.9945540 0.0519707 0.0054460 -0.0519707
2788000000 0.0053841 -0.0512851 0.9946159 0.0512851 0.9946159 0.0512851 0.0053841 -0.0512851
2809000000 0.0053240 -0.0506074 0.9946760 0.0506074 0.9946760 0.0506074 0.0053240 -0.0506074
2830000000 0.0052655 -0.0499376 0.9947345 0.0499376 0.9947345 0.0499376 0.0052655 -0.0499376
2851000000 0.0052086 -0.0492754 0.9947914 0.0492754 0.9947914 0.0492754 0.0052086 -0.0492754
2872000000 0.0051533 -0.0486207 0.9948467 0.0486207 0.9948467 0.0486207 0.0051533 -0.0486207
2893000000 0.0050995 -0.0479733 0.9949005 0.0479733 0.9949005 0.0479733 0.0050995 -0.0479733
2914000000 0.0050472 -0.0473331 0.9949528 0.0473331 0.9949528 0.0473331 0.0050472 -0.0473331
2935000000 0.0049963 -0.0466999 0.9950037 0.0466999 0.9950037 0.0466999 0.0049963 -0.0466999
2956000000 0.0049469 -0.0460736 0.9950531 0.0460736 0.9950531 0.0460736 0.0049469 -0.0460736
2977000000 0.0048987 -0.0454540 0.9951013 0.0454540 0.9951013 0.0454540 0.0048987 -0.0454540
2998000000 0.0048519 -0.0448410 0.9951481 0.0448410 0.9951481 0.0448410 0.0048519 -0.0448410
3019000000 0.0048064 -0.0442344 0.9951936 0.0442344 0.9951936 0.0442344 0.0048064 -0.0442344
3040000000 0.0047621 -0.0436342 0.9952379 0.0436342 0.9952379 0.0436342 0.0047621 -0.0436342
3061000000 0.0047191 -0.0430401 0.9952809 0.0430401 0.9952809 0.0430401 0.0047191 -0.0430401
3082000000 0.0046772 -0.0424521 0.9953228 0.0424521 0.9953228 0.0424521 0.0046772 -0.0424521
3103000000 0.0046365 -0.0418701 0.9953635 0.0418701 0.9953635 0.0418701 0.0046365 -0.0418701
3124000000 0.0045969 -0.0412938 0.9954031 0.0412938 0.9954031 0.0412938 0.0045969 -0.0412938
3145000000 0.0045584 -0.0407233 0.9954416 0.0407233 0.9954416 0.0407233 0.0045584 -0.0407233
3166000000 0.0045210 -0.0401583 0.9954790 0.0401583 0.9954790 0.0401583 0.0045210 -0.0401583
3187000000 0.0044846 -0.0395989 0.9955154 0.0395989 0.9955154 0.0395989 0.0044846 -0.0395989
3208000000 0.0044492 -0.0390448 0.9955508 0.0390448 0.9955508 0.0390448 0.0044492 -0.0390448
3229000000 0.0044148 -0.0384960 0.9955852 0.0384960 0.9955852 0.0384960 0.0044148 -0.0384960
3250000000 0.0043814 -0.0379523 0.9956186 0.0379523 0.9956186 0.0379523 0.0043814 -0.0379523
3271000000 0.0043489 -0.0374137 0.9956511 0.0374137 0.9956511 0.0374137 0.0043489 -0.0374137
3292000000 0.0043173 -0.0368801 0.9956827 0.0368801 0.9956827 0.0368801 0.0043173 -0.0368801
3313000000 0.0042866 -0.0363514 0.9957134 0.0363514 0.9957134 0.0363514 0.0042866 -0.0363514
3334000000 0.0042568 -0.0358275 0.9957432 0.0358275 0.9957432 0.0358275 0.0042568 -0.0358275
3355000000 0.0042279 -0.0353082 0.9957721 0.0353082 0.9957721 0.0353082 0.0042279 -0.0353082
3376000000 0.0041998 -0.0347936 0.9958002 0.0347936 0.9958002 0.0347936 0.0041998 -0.0347936
3397000000 0.0041725 -0.0342835 0.9958275 0.0342835 0.9958275 0.0342835 0.0041725 -0.0342835
3418000000 0.0041460 -0.0337779 0.9958540 0.0337779 0.9958540 0.0337779 0.0041460 -0.0337779
3439000000 0.0041203 -0.0332766 0.9958797 0.0332766 0.9958797 0.0332766 0.0041203 -0.0332766
3460000000 0.0040954 -0.0327795 0.9959046 0.0327795 0.9959046 0.0327795 0.0040954 -0.0327795
3481000000 0.0040711 -0.0322867 0.9959289 0.0322867 0.9959289 0.0322867 0.0040711 -0.0322867
3502000000 0.0040477 -0.0317981 0.9959523 0.0317981 0.9959523 0.0317981 0.0040477 -0.0317981
3523000000 0.0040249 -0.0313134 0.9959751 0.0313134 0.9959751 0.0313134 0.0040249 -0.0313134
3544000000 0.0040028 -0.0308328 0.9959972 0.0308328 0.9959972 0.0308328 0.0040028 -0.0308328
3565000000 0.0039814 -0.0303561 0.9960186 0.0303561 0.9960186 0.0303561 0.0039814 -0.0303561
3586000000 0.0039607 -0.0298832 0.9960393 0.0298832 0.9960393 0.0298832 0.0039607 -0.0298832
3607000000 0.0039407 -0.0294141 0.9960593 0.0294141 0.9960593 0.0294141 0.0039407 -0.0294141
3628000000 0.0039212 -0.0289487 0.9960788 0.0289487 0.9960788 0.0289487 0.0039212 -0.0289487
3649000000 0.0039024 -0.0284869 0.9960976 0.0284869 0.9960976 0.0284869 0.0039024 -0.0284869
3670000000 0.0038843 -0.0280288 0.9961157 0.0280288 0.9961157 0.0280288 0.0038843 -0.0280288
3691000000 0.0038667 -0.0275741 0.9961333 0.0275741 0.9961333 0.0275741 0.0038667 -0.0275741
3712000000 0.0038497 -0.0271229 0.9961503 0.0271229 0.9961503 0.0271229 0.0038497 -0.0271229
3733000000 0.0038333 -0.0266752 0.9961667 0.0266752 0.9961667 0.0266752 0.0038333 -0.0266752
3754000000 0.0038175 -0.0262307 0.9961825 0.0262307 0.9961825 0.0262307 0.0038175 -0.0262307
3775000000 0.0038022 -0.0257896 0.9961978 0.0257896 0.9961978 0.0257896 0.0038022 -0.0257896
3796000000 0.0037874 -0.0253517 0.9962126 0.0253517 0.9962126 0.0253517 0.0037874 -0.0253517
3817000000 0.0037732 -0.0249170 0.9962268 0.0249170 0.9962268 0.0249170 0.0037732 -0.0249170
3838000000 0.0037596 -0.0244854 0.9962404 0.0244854 0.9962404 0.0244854 0.0037596 -0.0244854
3859000000 0.0037464 -0.0240569 0.9962536 0.0240569 0.9962536 0.0240569 0.0037464 -0.0240569
3880000000 0.0037338 -0.0236314 0.9962662 0.0236314 0.9962662 0.0236314 0.0037338 -0.0236314
3901000000 0.0037216 -0.0232090 0.9962784 0.0232090 0.9962784 0.0232090 0.0037216 -0.0232090
3922000000 0.0037100 -0.0227894 0.9962900 0.0227894 0.9962900 0.0227894 0.0037100 -0.0227894
3943000000 0.0036988 -0.0223727 0.9963012 0.0223727 0.9963012 0.0223727 0.0036988 -0.0223727
3964000000 0.0036881 -0.0219589 0.9963119 0.0219589 0.9963119 0.0219589 0.0036881 -0.0219589
3985000000 0.0036779 -0.0215479 0.9963221 0.0215479 0.9963221 0.0215479 0.0036779 -0.0215479
4006000000 0.0036681 -0.0211396 0.9963319 0.0211396 0.9963319 0.0211396 0.0036681 -0.0211396
4027000000 0.0036588 -0.0207340 0.9963412 0.0207340 0.9963412 0.0207340 0.0036588 -0.0207340
4048000000 0.0036499 -0.0203311 0.9963501 0.0203311 0.9963501 0.0203311 0.0036499 -0.0203311
4069000000 0.0036415 -0.0199308 0.9963585 0.0199308 0.9963585 0.0199308 0.0036415 -0.0199308
4090000000 0.0036335 -0.0195331 0.9963665 0.0195331 0.9963665 0.0195331 0.0036335 -0.0195331
4111000000 0.0036259 -0.0191379 0.9963741 0.0191379 0.9963741 0.0191379 0.0036259 -0.0191379
4132000000 0.0036187 -0.0187453 0.9963813 0.0187453 0.9963813 0.0187453 0.0036187 -0.0187453
4153000000 0.0036119 -0.0183551 0.9963881 0.0183551 0.9963881 0.0183551 0.0036119 -0.0183551
4174000000 0.0036056 -0.0179673 0.9963944 0.0179673 0.9963944 0.0179673 0.0036056 -0.0179673
4195000000 0.0035996 -0.0175819 0.9964004 0.0175819 0.9964004 0.0175819 0.0035996 -0.0175819
4216000000 0.0035941 -0.0171989 0.9964059 0.0171989 0.9964059 0.0171989 0.0035941 -0.0171989
4237000000 0.0035889 -0.0168182 0.9964111 0.0168182 0.9964111 0.0168182 0.0035889 -0.0168182
4258000000 0.0035841 -0.0164398 0.9964159 0.0164398 0.9964159 0.0164398 0.0035841 -0.0164398
4279000000 0.0035797 -0.0160636 0.9964203 0.0160636 0.9964203 0.0160636 0.0035797 -0.0160636
4300000000 0.0035756 -0.0156897 0.9964244 0.0156897 0.9964244 0.0156897 0.0035756 -0.0156897
4321000000 0.0035719 -0.0153179 0.9964281 0.0153179 0.9964281 0.0153179 0.0035719 -0.0153179
4342000000 0.0035686 -0.0149483 0.9964314 0.0149483 0.9964314 0.0149483 0.0035686 -0.0149483
4363000000 0.0035657 -0.0145809 0.9964343 0.0145809 0.9964343 0.0145809 0.0035657 -0.0145809
4384000000 0.0035631 -0.0142155 0.9964369 0.0142155 0.9964369 0.0142155 0.0035631 -0.0142155
4405000000 0.0035608 -0.0138522 0.9964392 0.0138522 0.9964392 0.0138522 0.0035608 -0.0138522
4426000000 0.0035589 -0.0134909 0.9964411 0.0134909 0.9964411 0.0134909 0.0035589 -0.0134909
4447000000 0.0035573 -0.0131316 0.9964427 0.0131316 0.9964427 0.0131316 0.0035573 -0.0131316
4468000000 0.0035561 -0.0127743 0.9964439 0.0127743 0.9964439 0.0127743 0.0035561 -0.0127743
4489000000 0.0035552 -0.0124189 0.9964448 0.0124189 0.9964448 0.0124189 0.0035552 -0.0124189
4510000000 0.0035546 -0.0120655 0.9964454 0.0120655 0.9964454 0.0120655 0.0035546 -0.0120655
