!Murata Part Number: GRM0115C1E130GE01
!These Parameters are Measured in Series Mode Connection
!Data Generated on Mar 30, 2021
!       o--ll--o
!Port1            Port2
!       o------o
!Operation Temp=25[degC], DC Bias Voltage=0[V]
!Freq. Start=100[MHz] Stop=9[GHz] 401[Steps]
# Hz S RI R 50
!Freq.(Hz) S11(Real) S11(Imag) S21(Real) S21(Imag) S12(Real) S12(Imag) S22(Real) S22(Imag)
100000000 0.5994684 -0.4895493 0.4005316 0.4895493 0.4005316 0.4895493 0.5994684 -0.4895493
121000000 0.5054652 -0.4994170 0.4945348 0.4994170 0.4945348 0.4994170 0.5054652 -0.4994170
142000000 0.4259519 -0.4938369 0.5740481 0.4938369 0.5740481 0.4938369 0.4259519 -0.4938369
163000000 0.3602138 -0.4793161 0.6397862 0.4793161 0.6397862 0.4793161 0.3602138 -0.4793161
184000000 0.3063929 -0.4601518 0.6936071 0.4601518 0.6936071 0.4601518 0.3063929 -0.4601518
205000000 0.2624172 -0.4390079 0.7375828 0.4390079 0.7375828 0.4390079 0.2624172 -0.4390079
226000000 0.2263957 -0.4174604 0.7736043 0.4174604 0.7736043 0.4174604 0.2263957 -0.4174604
247000000 0.1967405 -0.3963990 0.8032595 0.3963990 0.8032595 0.3963990 0.1967405 -0.3963990
268000000 0.1721702 -0.3762947 0.8278298 0.3762947 0.8278298 0.3762947 0.1721702 -0.3762947
289000000 0.1516700 -0.3573685 0.8483300 0.3573685 0.8483300 0.3573685 0.1516700 -0.3573685
310000000 0.1344424 -0.3396958 0.8655576 0.3396958 0.8655576 0.3396958 0.1344424 -0.3396958
331000000 0.1198620 -0.3232694 0.8801380 0.3232694 0.8801380 0.3232694 0.1198620 -0.3232694
352000000 0.1074369 -0.3080373 0.8925631 0.3080373 0.8925631 0.3080373 0.1074369 -0.3080373
373000000 0.0967786 -0.2939250 0.9032214 0.2939250 0.9032214 0.2939250 0.0967786 -0.2939250
394000000 0.0875789 -0.2808494 0.9124211 0.2808494 0.9124211 0.2808494 0.0875789 -0.2808494
415000000 0.0795914 -0.2687258 0.9204086 0.2687258 0.9204086 0.2687258 0.0795914 -0.2687258
436000000 0.0726178 -0.2574722 0.9273822 0.2574722 0.9273822 0.2574722 0.0726178 -0.2574722
457000000 0.0664979 -0.2470116 0.9335021 0.2470116 0.9335021 0.2470116 0.0664979 -0.2470116
478000000 0.0611009 -0.2372730 0.9388991 0.2372730 0.9388991 0.2372730 0.0611009 -0.2372730
499000000 0.0563198 -0.2281915 0.9436802 0.2281915 0.9436802 0.2281915 0.0563198 -0.2281915
520000000 0.0520659 -0.2197083 0.9479341 0.2197083 0.9479341 0.2197083 0.0520659 -0.2197083
541000000 0.0482660 -0.2117704 0.9517340 0.2117704 0.9517340 0.2117704 0.0482660 -0.2117704
562000000 0.0448588 -0.2043299 0.9551412 0.2043299 0.9551412 0.2043299 0.0448588 -0.2043299
583000000 0.0417928 -0.1973439 0.9582072 0.1973439 0.9582072 0.1973439 0.0417928 -0.1973439
604000000 0.0390247 -0.1907738 0.9609753 0.1907738 0.9609753 0.1907738 0.0390247 -0.1907738
625000000 0.0365175 -0.1845849 0.9634825 0.1845849 0.9634825 0.1845849 0.0365175 -0.1845849
646000000 0.0342401 -0.1787460 0.9657599 0.1787460 0.9657599 0.1787460 0.0342401 -0.1787460
667000000 0.0321654 -0.1732288 0.9678346 0.1732288 0.9678346 0.1732288 0.0321654 -0.1732288
688000000 0.0302705 -0.1680082 0.9697295 0.1680082 0.9697295 0.1680082 0.0302705 -0.1680082
709000000 0.0285355 -0.1630610 0.9714645 0.1630610 0.9714645 0.1630610 0.0285355 -0.1630610
730000000 0.0269430 -0.1583668 0.9730570 0.1583668 0.9730570 0.1583668 0.0269430 -0.1583668
751000000 0.0254781 -0.1539066 0.9745219 0.1539066 0.9745219 0.1539066 0.0254781 -0.1539066
772000000 0.0241276 -0.1496634 0.9758724 0.1496634 0.9758724 0.1496634 0.0241276 -0.1496634
793000000 0.0228802 -0.1456219 0.9771198 0.1456219 0.9771198 0.1456219 0.0228802 -0.1456219
814000000 0.0217256 -0.1417678 0.9782744 0.1417678 0.9782744 0.1417678 0.0217256 -0.1417678
835000000 0.0206551 -0.1380884 0.9793449 0.1380884 0.9793449 0.1380884 0.0206551 -0.1380884
856000000 0.0196608 -0.1345719 0.9803392 0.1345719 0.9803392 0.1345719 0.0196608 -0.1345719
877000000 0.0187357 -0.1312075 0.9812643 0.1312075 0.9812643 0.1312075 0.0187357 -0.1312075
898000000 0.0178737 -0.1279856 0.9821263 0.1279856 0.9821263 0.1279856 0.0178737 -0.1279856
919000000 0.0170691 -0.1248970 0.9829309 0.1248970 0.9829309 0.1248970 0.0170691 -0.1248970
940000000 0.0163172 -0.1219334 0.9836828 0.1219334 0.9836828 0.1219334 0.0163172 -0.1219334
961000000 0.0156134 -0.1190872 0.9843866 0.1190872 0.9843866 0.1190872 0.0156134 -0.1190872
982000000 0.0149539 -0.1163514 0.9850461 0.1163514 0.9850461 0.1163514 0.0149539 -0.1163514
1003000000 0.0143350 -0.1137195 0.9856650 0.1137195 0.9856650 0.1137195 0.0143350 -0.1137195
1024000000 0.0137535 -0.1111854 0.9862465 0.1111854 0.9862465 0.1111854 0.0137535 -0.1111854
1045000000 0.0132066 -0.1087436 0.9867934 0.1087436 0.9867934 0.1087436 0.0132066 -0.1087436
1066000000 0.0126917 -0.1063890 0.9873083 0.1063890 0.9873083 0.1063890 0.0126917 -0.1063890
1087000000 0.0122062 -0.1041168 0.9877938 0.1041168 0.9877938 0.1041168 0.0122062 -0.1041168
1108000000 0.0117482 -0.1019224 0.9882518 0.1019224 0.9882518 0.1019224 0.0117482 -0.1019224
1129000000 0.0113155 -0.0998019 0.9886845 0.0998019 0.9886845 0.0998019 0.0113155 -0.0998019
1150000000 0.0109064 -0.0977513 0.9890936 0.0977513 0.9890936 0.0977513 0.0109064 -0.0977513
1171000000 0.0105194 -0.0957671 0.9894806 0.0957671 0.9894806 0.0957671 0.0105194 -0.0957671
1192000000 0.0101528 -0.0938459 0.9898472 0.0938459 0.9898472 0.0938459 0.0101528 -0.0938459
1213000000 0.0098053 -0.0919845 0.9901947 0.0919845 0.9901947 0.0919845 0.0098053 -0.0919845
1234000000 0.0094756 -0.0901801 0.9905244 0.0901801 0.9905244 0.0901801 0.0094756 -0.0901801
1255000000 0.0091626 -0.0884298 0.9908374 0.0884298 0.9908374 0.0884298 0.0091626 -0.0884298
1276000000 0.0088653 -0.0867312 0.9911347 0.0867312 0.9911347 0.0867312 0.0088653 -0.0867312
1297000000 0.0085825 -0.0850818 0.9914175 0.0850818 0.9914175 0.0850818 0.0085825 -0.0850818
1318000000 0.0083136 -0.0834793 0.9916864 0.0834793 0.9916864 0.0834793 0.0083136 -0.0834793
1339000000 0.0080575 -0.0819216 0.9919425 0.0819216 0.9919425 0.0819216 0.0080575 -0.0819216
1360000000 0.0078135 -0.0804068 0.9921865 0.0804068 0.9921865 0.0804068 0.0078135 -0.0804068
1381000000 0.0075810 -0.0789328 0.9924190 0.0789328 0.9924190 0.0789328 0.0075810 -0.0789328
1402000000 0.0073592 -0.0774980 0.9926408 0.0774980 0.9926408 0.0774980 0.0073592 -0.0774980
1423000000 0.0071475 -0.0761006 0.9928525 0.0761006 0.9928525 0.0761006 0.0071475 -0.0761006
1444000000 0.0069454 -0.0747391 0.9930546 0.0747391 0.9930546 0.0747391 0.0069454 -0.0747391
1465000000 0.0067523 -0.0734120 0.9932477 0.0734120 0.9932477 0.0734120 0.0067523 -0.0734120
1486000000 0.0065678 -0.0721178 0.9934322 0.0721178 0.9934322 0.0721178 0.0065678 -0.0721178
1507000000 0.0063914 -0.0708553 0.9936086 0.0708553 0.9936086 0.0708553 0.0063914 -0.0708553
1528000000 0.0062226 -0.0696231 0.9937774 0.0696231 0.9937774 0.0696231 0.0062226 -0.0696231
1549000000 0.0060610 -0.0684200 0.9939390 0.0684200 0.9939390 0.0684200 0.0060610 -0.0684200
1570000000 0.0059063 -0.0672450 0.9940937 0.0672450 0.9940937 0.0672450 0.0059063 -0.0672450
1591000000 0.0057582 -0.0660969 0.9942418 0.0660969 0.9942418 0.0660969 0.0057582 -0.0660969
1612000000 0.0056162 -0.0649746 0.9943838 0.0649746 0.9943838 0.0649746 0.0056162 -0.0649746
1633000000 0.0054801 -0.0638773 0.9945199 0.0638773 0.9945199 0.0638773 0.0054801 -0.0638773
1654000000 0.0053496 -0.0628040 0.9946504 0.0628040 0.9946504 0.0628040 0.0053496 -0.0628040
1675000000 0.0052245 -0.0617539 0.9947755 0.0617539 0.9947755 0.0617539 0.0052245 -0.0617539
1696000000 0.0051044 -0.0607259 0.9948956 0.0607259 0.9948956 0.0607259 0.0051044 -0.0607259
1717000000 0.0049892 -0.0597195 0.9950108 0.0597195 0.9950108 0.0597195 0.0049892 -0.0597195
1738000000 0.0048785 -0.0587338 0.9951215 0.0587338 0.9951215 0.0587338 0.0048785 -0.0587338
1759000000 0.0047723 -0.0577681 0.9952277 0.0577681 0.9952277 0.0577681 0.0047723 -0.0577681
1780000000 0.0046703 -0.0568216 0.9953297 0.0568216 0.9953297 0.0568216 0.0046703 -0.0568216
1801000000 0.0045723 -0.0558938 0.9954277 0.0558938 0.9954277 0.0558938 0.0045723 -0.0558938
1822000000 0.0044781 -0.0549841 0.9955219 0.0549841 0.9955219 0.0549841 0.0044781 -0.0549841
1843000000 0.0043876 -0.0540917 0.9956124 0.0540917 0.9956124 0.0540917 0.0043876 -0.0540917
1864000000 0.0043006 -0.0532161 0.9956994 0.0532161 0.9956994 0.0532161 0.0043006 -0.0532161
1885000000 0.0042170 -0.0523568 0.9957830 0.0523568 0.9957830 0.0523568 0.0042170 -0.0523568
1906000000 0.0041365 -0.0515132 0.9958635 0.0515132 0.9958635 0.0515132 0.0041365 -0.0515132
1927000000 0.0040592 -0.0506849 0.9959408 0.0506849 0.9959408 0.0506849 0.0040592 -0.0506849
1948000000 0.0039849 -0.0498713 0.9960151 0.0498713 0.9960151 0.0498713 0.0039849 -0.0498713
1969000000 0.0039133 -0.0490721 0.9960867 0.0490721 0.9960867 0.0490721 0.0039133 -0.0490721
1990000000 0.0038446 -0.0482866 0.9961554 0.0482866 0.9961554 0.0482866 0.0038446 -0.0482866
2011000000 0.0037784 -0.0475146 0.9962216 0.0475146 0.9962216 0.0475146 0.0037784 -0.0475146
2032000000 0.0037147 -0.0467556 0.9962853 0.0467556 0.9962853 0.0467556 0.0037147 -0.0467556
2053000000 0.0036535 -0.0460092 0.9963465 0.0460092 0.9963465 0.0460092 0.0036535 -0.0460092
2074000000 0.0035946 -0.0452751 0.9964054 0.0452751 0.9964054 0.0452751 0.0035946 -0.0452751
2095000000 0.0035380 -0.0445528 0.9964620 0.0445528 0.9964620 0.0445528 0.0035380 -0.0445528
2116000000 0.0034835 -0.0438421 0.9965165 0.0438421 0.9965165 0.0438421 0.0034835 -0.0438421
2137000000 0.0034311 -0.0431426 0.9965689 0.0431426 0.9965689 0.0431426 0.0034311 -0.0431426
2158000000 0.0033806 -0.0424539 0.9966194 0.0424539 0.9966194 0.0424539 0.0033806 -0.0424539
2179000000 0.0033322 -0.0417758 0.9966678 0.0417758 0.9966678 0.0417758 0.0033322 -0.0417758
2200000000 0.0032856 -0.0411080 0.9967144 0.0411080 0.9967144 0.0411080 0.0032856 -0.0411080
2221000000 0.0032408 -0.0404501 0.9967592 0.0404501 0.9967592 0.0404501 0.0032408 -0.0404501
2242000000 0.0031977 -0.0398020 0.9968023 0.0398020 0.9968023 0.0398020 0.0031977 -0.0398020
2263000000 0.0031563 -0.0391633 0.9968437 0.0391633 0.9968437 0.0391633 0.0031563 -0.0391633
2284000000 0.0031165 -0.0385337 0.9968835 0.0385337 0.9968835 0.0385337 0.0031165 -0.0385337
2305000000 0.0030783 -0.0379131 0.9969217 0.0379131 0.9969217 0.0379131 0.0030783 -0.0379131
2326000000 0.0030416 -0.0373013 0.9969584 0.0373013 0.9969584 0.0373013 0.0030416 -0.0373013
2347000000 0.0030064 -0.0366978 0.9969936 0.0366978 0.9969936 0.0366978 0.0030064 -0.0366978
2368000000 0.0029726 -0.0361026 0.9970274 0.0361026 0.9970274 0.0361026 0.0029726 -0.0361026
2389000000 0.0029401 -0.0355155 0.9970599 0.0355155 0.9970599 0.0355155 0.0029401 -0.0355155
2410000000 0.0029090 -0.0349362 0.9970910 0.0349362 0.9970910 0.0349362 0.0029090 -0.0349362
2431000000 0.0028792 -0.0343645 0.9971208 0.0343645 0.9971208 0.0343645 0.0028792 -0.0343645
2452000000 0.0028507 -0.0338002 0.9971493 0.0338002 0.9971493 0.0338002 0.0028507 -0.0338002
2473000000 0.0028233 -0.0332431 0.9971767 0.0332431 0.9971767 0.0332431 0.0028233 -0.0332431
2494000000 0.0027971 -0.0326932 0.9972029 0.0326932 0.9972029 0.0326932 0.0027971 -0.0326932
2515000000 0.0027721 -0.0321501 0.9972279 0.0321501 0.9972279 0.0321501 0.0027721 -0.0321501
2536000000 0.0027482 -0.0316137 0.9972518 0.0316137 0.9972518 0.0316137 0.0027482 -0.0316137
2557000000 0.0027253 -0.0310839 0.9972747 0.0310839 0.9972747 0.0310839 0.0027253 -0.0310839
2578000000 0.0027035 -0.0305605 0.9972965 0.0305605 0.9972965 0.0305605 0.0027035 -0.0305605
2599000000 0.0026827 -0.0300434 0.9973173 0.0300434 0.9973173 0.0300434 0.0026827 -0.0300434
2620000000 0.0026629 -0.0295323 0.9973371 0.0295323 0.9973371 0.0295323 0.0026629 -0.0295323
2641000000 0.0026441 -0.0290272 0.9973559 0.0290272 0.9973559 0.0290272 0.0026441 -0.0290272
2662000000 0.0026261 -0.0285280 0.9973739 0.0285280 0.9973739 0.0285280 0.0026261 -0.0285280
2683000000 0.0026091 -0.0280344 0.9973909 0.0280344 0.9973909 0.0280344 0.0026091 -0.0280344
2704000000 0.0025930 -0.0275463 0.9974070 0.0275463 0.9974070 0.0275463 0.0025930 -0.0275463
2725000000 0.0025777 -0.0270637 0.9974223 0.0270637 0.9974223 0.0270637 0.0025777 -0.0270637
2746000000 0.0025633 -0.0265864 0.9974367 0.0265864 0.9974367 0.0265864 0.0025633 -0.0265864
2767000000 0.0025497 -0.0261142 0.9974503 0.0261142 0.9974503 0.0261142 0.0025497 -0.0261142
2788000000 0.0025369 -0.0256472 0.9974631 0.0256472 0.9974631 0.0256472 0.0025369 -0.0256472
2809000000 0.0025249 -0.0251851 0.9974751 0.0251851 0.9974751 0.0251851 0.0025249 -0.0251851
2830000000 0.0025136 -0.0247278 0.9974864 0.0247278 0.9974864 0.0247278 0.0025136 -0.0247278
2851000000 0.0025030 -0.0242753 0.9974970 0.0242753 0.9974970 0.0242753 0.0025030 -0.0242753
2872000000 0.0024932 -0.0238274 0.9975068 0.0238274 0.9975068 0.0238274 0.0024932 -0.0238274
2893000000 0.0024841 -0.0233841 0.9975159 0.0233841 0.9975159 0.0233841 0.0024841 -0.0233841
2914000000 0.0024756 -0.0229452 0.9975244 0.0229452 0.9975244 0.0229452 0.0024756 -0.0229452
2935000000 0.0024679 -0.0225107 0.9975321 0.0225107 0.9975321 0.0225107 0.0024679 -0.0225107
2956000000 0.0024607 -0.0220804 0.9975393 0.0220804 0.9975393 0.0220804 0.0024607 -0.0220804
2977000000 0.0024543 -0.0216543 0.9975457 0.0216543 0.9975457 0.0216543 0.0024543 -0.0216543
2998000000 0.0024484 -0.0212323 0.9975516 0.0212323 0.9975516 0.0212323 0.0024484 -0.0212323
3019000000 0.0024432 -0.0208142 0.9975568 0.0208142 0.9975568 0.0208142 0.0024432 -0.0208142
3040000000 0.0024385 -0.0204001 0.9975615 0.0204001 0.9975615 0.0204001 0.0024385 -0.0204001
3061000000 0.0024345 -0.0199899 0.9975655 0.0199899 0.9975655 0.0199899 0.0024345 -0.0199899
3082000000 0.0024310 -0.0195834 0.9975690 0.0195834 0.9975690 0.0195834 0.0024310 -0.0195834
3103000000 0.0024281 -0.0191806 0.9975719 0.0191806 0.9975719 0.0191806 0.0024281 -0.0191806
3124000000 0.0024257 -0.0187814 0.9975743 0.0187814 0.9975743 0.0187814 0.0024257 -0.0187814
3145000000 0.0024239 -0.0183857 0.9975761 0.0183857 0.9975761 0.0183857 0.0024239 -0.0183857
3166000000 0.0024226 -0.0179935 0.9975774 0.0179935 0.9975774 0.0179935 0.0024226 -0.0179935
3187000000 0.0024218 -0.0176048 0.9975782 0.0176048 0.9975782 0.0176048 0.0024218 -0.0176048
3208000000 0.0024215 -0.0172194 0.9975785 0.0172194 0.9975785 0.0172194 0.0024215 -0.0172194
3229000000 0.0024217 -0.0168372 0.9975783 0.0168372 0.9975783 0.0168372 0.0024217 -0.0168372
3250000000 0.0024224 -0.0164583 0.9975776 0.0164583 0.9975776 0.0164583 0.0024224 -0.0164583
3271000000 0.0024235 -0.0160825 0.9975765 0.0160825 0.9975765 0.0160825 0.0024235 -0.0160825
3292000000 0.0024252 -0.0157098 0.9975748 0.0157098 0.9975748 0.0157098 0.0024252 -0.0157098
3313000000 0.0024272 -0.0153402 0.9975728 0.0153402 0.9975728 0.0153402 0.0024272 -0.0153402
3334000000 0.0024298 -0.0149735 0.9975702 0.0149735 0.9975702 0.0149735 0.0024298 -0.0149735
3355000000 0.0024328 -0.0146098 0.9975672 0.0146098 0.9975672 0.0146098 0.0024328 -0.0146098
3376000000 0.0024362 -0.0142489 0.9975638 0.0142489 0.9975638 0.0142489 0.0024362 -0.0142489
3397000000 0.0024400 -0.0138909 0.9975600 0.0138909 0.9975600 0.0138909 0.0024400 -0.0138909
3418000000 0.0024443 -0.0135356 0.9975557 0.0135356 0.9975557 0.0135356 0.0024443 -0.0135356
3439000000 0.0024490 -0.0131831 0.9975510 0.0131831 0.9975510 0.0131831 0.0024490 -0.0131831
3460000000 0.0024541 -0.0128332 0.9975459 0.0128332 0.9975459 0.0128332 0.0024541 -0.0128332
3481000000 0.0024595 -0.0124860 0.9975405 0.0124860 0.9975405 0.0124860 0.0024595 -0.0124860
3502000000 0.0024654 -0.0121413 0.9975346 0.0121413 0.9975346 0.0121413 0.0024654 -0.0121413
3523000000 0.0024716 -0.0117992 0.9975284 0.0117992 0.9975284 0.0117992 0.0024716 -0.0117992
3544000000 0.0024783 -0.0114596 0.9975217 0.0114596 0.9975217 0.0114596 0.0024783 -0.0114596
3565000000 0.0024853 -0.0111224 0.9975147 0.0111224 0.9975147 0.0111224 0.0024853 -0.0111224
3586000000 0.0024927 -0.0107876 0.9975073 0.0107876 0.9975073 0.0107876 0.0024927 -0.0107876
3607000000 0.0025004 -0.0104552 0.9974996 0.0104552 0.9974996 0.0104552 0.0025004 -0.0104552
3628000000 0.0025085 -0.0101251 0.9974915 0.0101251 0.9974915 0.0101251 0.0025085 -0.0101251
3649000000 0.0025169 -0.0097973 0.9974831 0.0097973 0.9974831 0.0097973 0.0025169 -0.0097973
3670000000 0.0025257 -0.0094718 0.9974743 0.0094718 0.9974743 0.0094718 0.0025257 -0.0094718
3691000000 0.0025348 -0.0091484 0.9974652 0.0091484 0.9974652 0.0091484 0.0025348 -0.0091484
3712000000 0.0025443 -0.0088273 0.9974557 0.0088273 0.9974557 0.0088273 0.0025443 -0.0088273
3733000000 0.0025540 -0.0085082 0.9974460 0.0085082 0.9974460 0.0085082 0.0025540 -0.0085082
3754000000 0.0025642 -0.0081913 0.9974358 0.0081913 0.9974358 0.0081913 0.0025642 -0.0081913
3775000000 0.0025746 -0.0078765 0.9974254 0.0078765 0.9974254 0.0078765 0.0025746 -0.0078765
3796000000 0.0025853 -0.0075637 0.9974147 0.0075637 0.9974147 0.0075637 0.0025853 -0.0075637
3817000000 0.0025964 -0.0072528 0.9974036 0.0072528 0.9974036 0.0072528 0.0025964 -0.0072528
3838000000 0.0026078 -0.0069440 0.9973922 0.0069440 0.9973922 0.0069440 0.0026078 -0.0069440
3859000000 0.0026194 -0.0066371 0.9973806 0.0066371 0.9973806 0.0066371 0.0026194 -0.0066371
3880000000 0.0026314 -0.0063321 0.9973686 0.0063321 0.9973686 0.0063321 0.0026314 -0.0063321
3901000000 0.0026437 -0.0060290 0.9973563 0.0060290 0.9973563 0.0060290 0.0026437 -0.0060290
3922000000 0.0026562 -0.0057278 0.9973438 0.0057278 0.9973438 0.0057278 0.0026562 -0.0057278
3943000000 0.0026691 -0.0054284 0.9973309 0.0054284 0.9973309 0.0054284 0.0026691 -0.0054284
3964000000 0.0026822 -0.0051307 0.9973178 0.0051307 0.9973178 0.0051307 0.0026822 -0.0051307
3985000000 0.0026956 -0.0048349 0.9973044 0.0048349 0.9973044 0.0048349 0.0026956 -0.0048349
4006000000 0.0027093 -0.0045407 0.9972907 0.0045407 0.9972907 0.0045407 0.0027093 -0.0045407
4027000000 0.0027233 -0.0042483 0.9972767 0.0042483 0.9972767 0.0042483 0.0027233 -0.0042483
4048000000 0.0027375 -0.0039576 0.9972625 0.0039576 0.9972625 0.0039576 0.0027375 -0.0039576
4069000000 0.0027520 -0.0036686 0.9972480 0.0036686 0.9972480 0.0036686 0.0027520 -0.0036686
4090000000 0.0027668 -0.0033812 0.9972332 0.0033812 0.9972332 0.0033812 0.0027668 -0.0033812
4111000000 0.0027818 -0.0030954 0.9972182 0.0030954 0.9972182 0.0030954 0.0027818 -0.0030954
4132000000 0.0027971 -0.0028112 0.9972029 0.0028112 0.9972029 0.0028112 0.0027971 -0.0028112
4153000000 0.0028126 -0.0025285 0.9971874 0.0025285 0.9971874 0.0025285 0.0028126 -0.0025285
4174000000 0.0028284 -0.0022474 0.9971716 0.0022474 0.9971716 0.0022474 0.0028284 -0.0022474
4195000000 0.0028445 -0.0019679 0.9971555 0.0019679 0.9971555 0.0019679 0.0028445 -0.0019679
4216000000 0.0028608 -0.0016898 0.9971392 0.0016898 0.9971392 0.0016898 0.0028608 -0.0016898
4237000000 0.0028773 -0.0014133 0.9971227 0.0014133 0.9971227 0.0014133 0.0028773 -0.0014133
4258000000 0.0028941 -0.0011381 0.9971059 0.0011381 0.9971059 0.0011381 0.0028941 -0.0011381
4279000000 0.0029112 -0.0008645 0.9970888 0.0008645 0.9970888 0.0008645 0.0029112 -0.0008645
4300000000 0.0029284 -0.0005922 0.9970716 0.0005922 0.9970716 0.0005922 0.0029284 -0.0005922
4321000000 0.0029459 -0.0003214 0.9970541 0.0003214 0.9970541 0.0003214 0.0029459 -0.0003214
4342000000 0.0029637 -0.0000519 0.9970363 0.0000519 0.9970363 0.0000519 0.0029637 -0.0000519
4363000000 0.0029816 0.0002162 0.9970184 -0.0002162 0.9970184 -0.0002162 0.0029816 0.0002162
4384000000 0.0029998 0.0004830 0.9970002 -0.0004830 0.9970002 -0.0004830 0.0029998 0.0004830
4405000000 0.0030183 0.0007484 0.9969817 -0.0007484 0.9969817 -0.0007484 0.0030183 0.0007484
4426000000 0.0030369 0.0010126 0.9969631 -0.0010126 0.9969631 -0.0010126 0.0030369 0.0010126
4447000000 0.0030558 0.0012754 0.9969442 -0.0012754 0.9969442 -0.0012754 0.0030558 0.0012754
4468000000 0.0030749 0.0015370 0.9969251 -0.0015370 0.9969251 -0.0015370 0.0030749 0.0015370
4489000000 0.0030942 0.0017973 0.9969058 -0.0017973 0.9969058 -0.0017973 0.0030942 0.0017973
4510000000 0.0031137 0.0020564 0.9968863 -0.0020564 0.9968863 -0.0020564 0.0031137 0.0020564
