!Murata Part Number: GRM0115C1C6R6CE01
!These Parameters are Measured in Series Mode Connection
!Data Generated on Mar 30, 2021
!       o--ll--o
!Port1            Port2
!       o------o
!Operation Temp=25[degC], DC Bias Voltage=0[V]
!Freq. Start=100[MHz] Stop=9[GHz] 401[Steps]
# Hz S RI R 50
!Freq.(Hz) S11(Real) S11(Imag) S21(Real) S21(Imag) S12(Real) S12(Imag) S22(Real) S22(Imag)
100000000 0.8530393 -0.3537807 0.1469607 0.3537807 0.1469607 0.3537807 0.8530393 -0.3537807
121000000 0.7985407 -0.4007433 0.2014593 0.4007433 0.2014593 0.4007433 0.7985407 -0.4007433
142000000 0.7420952 -0.4370728 0.2579048 0.4370728 0.2579048 0.4370728 0.7420952 -0.4370728
163000000 0.6858451 -0.4637077 0.3141549 0.4637077 0.3141549 0.4637077 0.6858451 -0.4637077
184000000 0.6313664 -0.4819007 0.3686336 0.4819007 0.3686336 0.4819007 0.6313664 -0.4819007
205000000 0.5797112 -0.4930079 0.4202888 0.4930079 0.4202888 0.4930079 0.5797112 -0.4930079
226000000 0.5314974 -0.4983451 0.4685026 0.4983451 0.4685026 0.4983451 0.5314974 -0.4983451
247000000 0.4870116 -0.4991039 0.5129884 0.4991039 0.5129884 0.4991039 0.4870116 -0.4991039
268000000 0.4463052 -0.4963146 0.5536948 0.4963146 0.5536948 0.4963146 0.4463052 -0.4963146
289000000 0.4092733 -0.4908383 0.5907267 0.4908383 0.5907267 0.4908383 0.4092733 -0.4908383
310000000 0.3757157 -0.4833769 0.6242843 0.4833769 0.6242843 0.4833769 0.3757157 -0.4833769
331000000 0.3453807 -0.4744920 0.6546193 0.4744920 0.6546193 0.4744920 0.3453807 -0.4744920
352000000 0.3179947 -0.4646259 0.6820053 0.4646259 0.6820053 0.4646259 0.3179947 -0.4646259
373000000 0.2932823 -0.4541227 0.7067177 0.4541227 0.7067177 0.4541227 0.2932823 -0.4541227
394000000 0.2709780 -0.4432468 0.7290220 0.4432468 0.7290220 0.4432468 0.2709780 -0.4432468
415000000 0.2508334 -0.4321994 0.7491666 0.4321994 0.7491666 0.4321994 0.2508334 -0.4321994
436000000 0.2326201 -0.4211319 0.7673799 0.4211319 0.7673799 0.4211319 0.2326201 -0.4211319
457000000 0.2161311 -0.4101562 0.7838689 0.4101562 0.7838689 0.4101562 0.2161311 -0.4101562
478000000 0.2011805 -0.3993543 0.7988195 0.3993543 0.7988195 0.3993543 0.2011805 -0.3993543
499000000 0.1876024 -0.3887846 0.8123976 0.3887846 0.8123976 0.3887846 0.1876024 -0.3887846
520000000 0.1752492 -0.3784874 0.8247508 0.3784874 0.8247508 0.3784874 0.1752492 -0.3784874
541000000 0.1639902 -0.3684893 0.8360098 0.3684893 0.8360098 0.3684893 0.1639902 -0.3684893
562000000 0.1537097 -0.3588067 0.8462903 0.3588067 0.8462903 0.3588067 0.1537097 -0.3588067
583000000 0.1443055 -0.3494478 0.8556945 0.3494478 0.8556945 0.3494478 0.1443055 -0.3494478
604000000 0.1356870 -0.3404150 0.8643130 0.3404150 0.8643130 0.3404150 0.1356870 -0.3404150
625000000 0.1277744 -0.3317064 0.8722256 0.3317064 0.8722256 0.3317064 0.1277744 -0.3317064
646000000 0.1204969 -0.3233169 0.8795031 0.3233169 0.8795031 0.3233169 0.1204969 -0.3233169
667000000 0.1137918 -0.3152390 0.8862082 0.3152390 0.8862082 0.3152390 0.1137918 -0.3152390
688000000 0.1076035 -0.3074637 0.8923965 0.3074637 0.8923965 0.3074637 0.1076035 -0.3074637
709000000 0.1018828 -0.2999811 0.8981172 0.2999811 0.8981172 0.2999811 0.1018828 -0.2999811
730000000 0.0965856 -0.2927803 0.9034144 0.2927803 0.9034144 0.2927803 0.0965856 -0.2927803
751000000 0.0916730 -0.2858504 0.9083270 0.2858504 0.9083270 0.2858504 0.0916730 -0.2858504
772000000 0.0871099 -0.2791801 0.9128901 0.2791801 0.9128901 0.2791801 0.0871099 -0.2791801
793000000 0.0828654 -0.2727585 0.9171346 0.2727585 0.9171346 0.2727585 0.0828654 -0.2727585
814000000 0.0789114 -0.2665744 0.9210886 0.2665744 0.9210886 0.2665744 0.0789114 -0.2665744
835000000 0.0752230 -0.2606174 0.9247770 0.2606174 0.9247770 0.2606174 0.0752230 -0.2606174
856000000 0.0717776 -0.2548769 0.9282224 0.2548769 0.9282224 0.2548769 0.0717776 -0.2548769
877000000 0.0685551 -0.2493431 0.9314449 0.2493431 0.9314449 0.2493431 0.0685551 -0.2493431
898000000 0.0655372 -0.2440064 0.9344628 0.2440064 0.9344628 0.2440064 0.0655372 -0.2440064
919000000 0.0627075 -0.2388575 0.9372925 0.2388575 0.9372925 0.2388575 0.0627075 -0.2388575
940000000 0.0600510 -0.2338878 0.9399490 0.2338878 0.9399490 0.2338878 0.0600510 -0.2338878
961000000 0.0575545 -0.2290889 0.9424455 0.2290889 0.9424455 0.2290889 0.0575545 -0.2290889
982000000 0.0552055 -0.2244529 0.9447945 0.2244529 0.9447945 0.2244529 0.0552055 -0.2244529
1003000000 0.0529931 -0.2199721 0.9470069 0.2199721 0.9470069 0.2199721 0.0529931 -0.2199721
1024000000 0.0509071 -0.2156396 0.9490929 0.2156396 0.9490929 0.2156396 0.0509071 -0.2156396
1045000000 0.0489383 -0.2114483 0.9510617 0.2114483 0.9510617 0.2114483 0.0489383 -0.2114483
1066000000 0.0470783 -0.2073920 0.9529217 0.2073920 0.9529217 0.2073920 0.0470783 -0.2073920
1087000000 0.0453194 -0.2034645 0.9546806 0.2034645 0.9546806 0.2034645 0.0453194 -0.2034645
1108000000 0.0436547 -0.1996600 0.9563453 0.1996600 0.9563453 0.1996600 0.0436547 -0.1996600
1129000000 0.0420776 -0.1959731 0.9579224 0.1959731 0.9579224 0.1959731 0.0420776 -0.1959731
1150000000 0.0405823 -0.1923985 0.9594177 0.1923985 0.9594177 0.1923985 0.0405823 -0.1923985
1171000000 0.0391634 -0.1889313 0.9608366 0.1889313 0.9608366 0.1889313 0.0391634 -0.1889313
1192000000 0.0378159 -0.1855669 0.9621841 0.1855669 0.9621841 0.1855669 0.0378159 -0.1855669
1213000000 0.0365351 -0.1823008 0.9634649 0.1823008 0.9634649 0.1823008 0.0365351 -0.1823008
1234000000 0.0353168 -0.1791289 0.9646832 0.1791289 0.9646832 0.1791289 0.0353168 -0.1791289
1255000000 0.0341572 -0.1760471 0.9658428 0.1760471 0.9658428 0.1760471 0.0341572 -0.1760471
1276000000 0.0330526 -0.1730518 0.9669474 0.1730518 0.9669474 0.1730518 0.0330526 -0.1730518
1297000000 0.0319996 -0.1701393 0.9680004 0.1701393 0.9680004 0.1701393 0.0319996 -0.1701393
1318000000 0.0309952 -0.1673062 0.9690048 0.1673062 0.9690048 0.1673062 0.0309952 -0.1673062
1339000000 0.0300365 -0.1645494 0.9699635 0.1645494 0.9699635 0.1645494 0.0300365 -0.1645494
1360000000 0.0291208 -0.1618657 0.9708792 0.1618657 0.9708792 0.1618657 0.0291208 -0.1618657
1381000000 0.0282457 -0.1592523 0.9717543 0.1592523 0.9717543 0.1592523 0.0282457 -0.1592523
1402000000 0.0274088 -0.1567064 0.9725912 0.1567064 0.9725912 0.1567064 0.0274088 -0.1567064
1423000000 0.0266080 -0.1542254 0.9733920 0.1542254 0.9733920 0.1542254 0.0266080 -0.1542254
1444000000 0.0258413 -0.1518067 0.9741587 0.1518067 0.9741587 0.1518067 0.0258413 -0.1518067
1465000000 0.0251068 -0.1494481 0.9748932 0.1494481 0.9748932 0.1494481 0.0251068 -0.1494481
1486000000 0.0244029 -0.1471472 0.9755971 0.1471472 0.9755971 0.1471472 0.0244029 -0.1471472
1507000000 0.0237278 -0.1449019 0.9762722 0.1449019 0.9762722 0.1449019 0.0237278 -0.1449019
1528000000 0.0230801 -0.1427101 0.9769199 0.1427101 0.9769199 0.1427101 0.0230801 -0.1427101
1549000000 0.0224583 -0.1405699 0.9775417 0.1405699 0.9775417 0.1405699 0.0224583 -0.1405699
1570000000 0.0218611 -0.1384794 0.9781389 0.1384794 0.9781389 0.1384794 0.0218611 -0.1384794
1591000000 0.0212873 -0.1364368 0.9787127 0.1364368 0.9787127 0.1364368 0.0212873 -0.1364368
1612000000 0.0207357 -0.1344404 0.9792643 0.1344404 0.9792643 0.1344404 0.0207357 -0.1344404
1633000000 0.0202052 -0.1324887 0.9797948 0.1324887 0.9797948 0.1324887 0.0202052 -0.1324887
1654000000 0.0196947 -0.1305800 0.9803053 0.1305800 0.9803053 0.1305800 0.0196947 -0.1305800
1675000000 0.0192033 -0.1287128 0.9807967 0.1287128 0.9807967 0.1287128 0.0192033 -0.1287128
1696000000 0.0187301 -0.1268858 0.9812699 0.1268858 0.9812699 0.1268858 0.0187301 -0.1268858
1717000000 0.0182742 -0.1250976 0.9817258 0.1250976 0.9817258 0.1250976 0.0182742 -0.1250976
1738000000 0.0178348 -0.1233470 0.9821652 0.1233470 0.9821652 0.1233470 0.0178348 -0.1233470
1759000000 0.0174112 -0.1216325 0.9825888 0.1216325 0.9825888 0.1216325 0.0174112 -0.1216325
1780000000 0.0170026 -0.1199532 0.9829974 0.1199532 0.9829974 0.1199532 0.0170026 -0.1199532
1801000000 0.0166083 -0.1183078 0.9833917 0.1183078 0.9833917 0.1183078 0.0166083 -0.1183078
1822000000 0.0162277 -0.1166952 0.9837723 0.1166952 0.9837723 0.1166952 0.0162277 -0.1166952
1843000000 0.0158603 -0.1151144 0.9841397 0.1151144 0.9841397 0.1151144 0.0158603 -0.1151144
1864000000 0.0155053 -0.1135644 0.9844947 0.1135644 0.9844947 0.1135644 0.0155053 -0.1135644
1885000000 0.0151624 -0.1120443 0.9848376 0.1120443 0.9848376 0.1120443 0.0151624 -0.1120443
1906000000 0.0148309 -0.1105530 0.9851691 0.1105530 0.9851691 0.1105530 0.0148309 -0.1105530
1927000000 0.0145104 -0.1090898 0.9854896 0.1090898 0.9854896 0.1090898 0.0145104 -0.1090898
1948000000 0.0142005 -0.1076538 0.9857995 0.1076538 0.9857995 0.1076538 0.0142005 -0.1076538
1969000000 0.0139006 -0.1062441 0.9860994 0.1062441 0.9860994 0.1062441 0.0139006 -0.1062441
1990000000 0.0136104 -0.1048599 0.9863896 0.1048599 0.9863896 0.1048599 0.0136104 -0.1048599
2011000000 0.0133295 -0.1035006 0.9866705 0.1035006 0.9866705 0.1035006 0.0133295 -0.1035006
2032000000 0.0130575 -0.1021654 0.9869425 0.1021654 0.9869425 0.1021654 0.0130575 -0.1021654
2053000000 0.0127940 -0.1008535 0.9872060 0.1008535 0.9872060 0.1008535 0.0127940 -0.1008535
2074000000 0.0125388 -0.0995644 0.9874612 0.0995644 0.9874612 0.0995644 0.0125388 -0.0995644
2095000000 0.0122914 -0.0982973 0.9877086 0.0982973 0.9877086 0.0982973 0.0122914 -0.0982973
2116000000 0.0120517 -0.0970517 0.9879483 0.0970517 0.9879483 0.0970517 0.0120517 -0.0970517
2137000000 0.0118192 -0.0958269 0.9881808 0.0958269 0.9881808 0.0958269 0.0118192 -0.0958269
2158000000 0.0115938 -0.0946223 0.9884062 0.0946223 0.9884062 0.0946223 0.0115938 -0.0946223
2179000000 0.0113751 -0.0934375 0.9886249 0.0934375 0.9886249 0.0934375 0.0113751 -0.0934375
2200000000 0.0111629 -0.0922718 0.9888371 0.0922718 0.9888371 0.0922718 0.0111629 -0.0922718
2221000000 0.0109570 -0.0911247 0.9890430 0.0911247 0.9890430 0.0911247 0.0109570 -0.0911247
2242000000 0.0107571 -0.0899958 0.9892429 0.0899958 0.9892429 0.0899958 0.0107571 -0.0899958
2263000000 0.0105631 -0.0888846 0.9894369 0.0888846 0.9894369 0.0888846 0.0105631 -0.0888846
2284000000 0.0103747 -0.0877905 0.9896253 0.0877905 0.9896253 0.0877905 0.0103747 -0.0877905
2305000000 0.0101916 -0.0867132 0.9898084 0.0867132 0.9898084 0.0867132 0.0101916 -0.0867132
2326000000 0.0100138 -0.0856522 0.9899862 0.0856522 0.9899862 0.0856522 0.0100138 -0.0856522
2347000000 0.0098411 -0.0846071 0.9901589 0.0846071 0.9901589 0.0846071 0.0098411 -0.0846071
2368000000 0.0096732 -0.0835774 0.9903268 0.0835774 0.9903268 0.0835774 0.0096732 -0.0835774
2389000000 0.0095100 -0.0825628 0.9904900 0.0825628 0.9904900 0.0825628 0.0095100 -0.0825628
2410000000 0.0093513 -0.0815630 0.9906487 0.0815630 0.9906487 0.0815630 0.0093513 -0.0815630
2431000000 0.0091971 -0.0805774 0.9908029 0.0805774 0.9908029 0.0805774 0.0091971 -0.0805774
2452000000 0.0090470 -0.0796059 0.9909530 0.0796059 0.9909530 0.0796059 0.0090470 -0.0796059
2473000000 0.0089011 -0.0786480 0.9910989 0.0786480 0.9910989 0.0786480 0.0089011 -0.0786480
2494000000 0.0087592 -0.0777034 0.9912408 0.0777034 0.9912408 0.0777034 0.0087592 -0.0777034
2515000000 0.0086211 -0.0767717 0.9913789 0.0767717 0.9913789 0.0767717 0.0086211 -0.0767717
2536000000 0.0084867 -0.0758528 0.9915133 0.0758528 0.9915133 0.0758528 0.0084867 -0.0758528
2557000000 0.0083559 -0.0749462 0.9916441 0.0749462 0.9916441 0.0749462 0.0083559 -0.0749462
2578000000 0.0082285 -0.0740517 0.9917715 0.0740517 0.9917715 0.0740517 0.0082285 -0.0740517
2599000000 0.0081046 -0.0731689 0.9918954 0.0731689 0.9918954 0.0731689 0.0081046 -0.0731689
2620000000 0.0079839 -0.0722977 0.9920161 0.0722977 0.9920161 0.0722977 0.0079839 -0.0722977
2641000000 0.0078664 -0.0714378 0.9921336 0.0714378 0.9921336 0.0714378 0.0078664 -0.0714378
2662000000 0.0077520 -0.0705888 0.9922480 0.0705888 0.9922480 0.0705888 0.0077520 -0.0705888
2683000000 0.0076406 -0.0697505 0.9923594 0.0697505 0.9923594 0.0697505 0.0076406 -0.0697505
2704000000 0.0075320 -0.0689228 0.9924680 0.0689228 0.9924680 0.0689228 0.0075320 -0.0689228
2725000000 0.0074263 -0.0681053 0.9925737 0.0681053 0.9925737 0.0681053 0.0074263 -0.0681053
2746000000 0.0073232 -0.0672979 0.9926768 0.0672979 0.9926768 0.0672979 0.0073232 -0.0672979
2767000000 0.0072229 -0.0665002 0.9927771 0.0665002 0.9927771 0.0665002 0.0072229 -0.0665002
2788000000 0.0071250 -0.0657122 0.9928750 0.0657122 0.9928750 0.0657122 0.0071250 -0.0657122
2809000000 0.0070297 -0.0649335 0.9929703 0.0649335 0.9929703 0.0649335 0.0070297 -0.0649335
2830000000 0.0069368 -0.0641640 0.9930632 0.0641640 0.9930632 0.0641640 0.0069368 -0.0641640
2851000000 0.0068463 -0.0634035 0.9931537 0.0634035 0.9931537 0.0634035 0.0068463 -0.0634035
2872000000 0.0067580 -0.0626517 0.9932420 0.0626517 0.9932420 0.0626517 0.0067580 -0.0626517
2893000000 0.0066720 -0.0619086 0.9933280 0.0619086 0.9933280 0.0619086 0.0066720 -0.0619086
2914000000 0.0065881 -0.0611739 0.9934119 0.0611739 0.9934119 0.0611739 0.0065881 -0.0611739
2935000000 0.0065064 -0.0604474 0.9934936 0.0604474 0.9934936 0.0604474 0.0065064 -0.0604474
2956000000 0.0064267 -0.0597290 0.9935733 0.0597290 0.9935733 0.0597290 0.0064267 -0.0597290
2977000000 0.0063489 -0.0590185 0.9936511 0.0590185 0.9936511 0.0590185 0.0063489 -0.0590185
2998000000 0.0062731 -0.0583158 0.9937269 0.0583158 0.9937269 0.0583158 0.0062731 -0.0583158
3019000000 0.0061993 -0.0576206 0.9938007 0.0576206 0.9938007 0.0576206 0.0061993 -0.0576206
3040000000 0.0061272 -0.0569328 0.9938728 0.0569328 0.9938728 0.0569328 0.0061272 -0.0569328
3061000000 0.0060569 -0.0562523 0.9939431 0.0562523 0.9939431 0.0562523 0.0060569 -0.0562523
3082000000 0.0059884 -0.0555790 0.9940116 0.0555790 0.9940116 0.0555790 0.0059884 -0.0555790
3103000000 0.0059216 -0.0549126 0.9940784 0.0549126 0.9940784 0.0549126 0.0059216 -0.0549126
3124000000 0.0058565 -0.0542531 0.9941435 0.0542531 0.9941435 0.0542531 0.0058565 -0.0542531
3145000000 0.0057929 -0.0536003 0.9942071 0.0536003 0.9942071 0.0536003 0.0057929 -0.0536003
3166000000 0.0057310 -0.0529541 0.9942690 0.0529541 0.9942690 0.0529541 0.0057310 -0.0529541
3187000000 0.0056705 -0.0523143 0.9943295 0.0523143 0.9943295 0.0523143 0.0056705 -0.0523143
3208000000 0.0056116 -0.0516809 0.9943884 0.0516809 0.9943884 0.0516809 0.0056116 -0.0516809
3229000000 0.0055541 -0.0510537 0.9944459 0.0510537 0.9944459 0.0510537 0.0055541 -0.0510537
3250000000 0.0054981 -0.0504326 0.9945019 0.0504326 0.9945019 0.0504326 0.0054981 -0.0504326
3271000000 0.0054435 -0.0498174 0.9945565 0.0498174 0.9945565 0.0498174 0.0054435 -0.0498174
3292000000 0.0053902 -0.0492081 0.9946098 0.0492081 0.9946098 0.0492081 0.0053902 -0.0492081
3313000000 0.0053382 -0.0486046 0.9946618 0.0486046 0.9946618 0.0486046 0.0053382 -0.0486046
3334000000 0.0052876 -0.0480067 0.9947124 0.0480067 0.9947124 0.0480067 0.0052876 -0.0480067
3355000000 0.0052382 -0.0474144 0.9947618 0.0474144 0.9947618 0.0474144 0.0052382 -0.0474144
3376000000 0.0051901 -0.0468275 0.9948099 0.0468275 0.9948099 0.0468275 0.0051901 -0.0468275
3397000000 0.0051432 -0.0462459 0.9948568 0.0462459 0.9948568 0.0462459 0.0051432 -0.0462459
3418000000 0.0050974 -0.0456696 0.9949026 0.0456696 0.9949026 0.0456696 0.0050974 -0.0456696
3439000000 0.0050528 -0.0450984 0.9949472 0.0450984 0.9949472 0.0450984 0.0050528 -0.0450984
3460000000 0.0050094 -0.0445322 0.9949906 0.0445322 0.9949906 0.0445322 0.0050094 -0.0445322
3481000000 0.0049671 -0.0439711 0.9950329 0.0439711 0.9950329 0.0439711 0.0049671 -0.0439711
3502000000 0.0049258 -0.0434148 0.9950742 0.0434148 0.9950742 0.0434148 0.0049258 -0.0434148
3523000000 0.0048856 -0.0428633 0.9951144 0.0428633 0.9951144 0.0428633 0.0048856 -0.0428633
3544000000 0.0048465 -0.0423165 0.9951535 0.0423165 0.9951535 0.0423165 0.0048465 -0.0423165
3565000000 0.0048083 -0.0417743 0.9951917 0.0417743 0.9951917 0.0417743 0.0048083 -0.0417743
3586000000 0.0047712 -0.0412367 0.9952288 0.0412367 0.9952288 0.0412367 0.0047712 -0.0412367
3607000000 0.0047350 -0.0407035 0.9952650 0.0407035 0.9952650 0.0407035 0.0047350 -0.0407035
3628000000 0.0046998 -0.0401748 0.9953002 0.0401748 0.9953002 0.0401748 0.0046998 -0.0401748
3649000000 0.0046655 -0.0396503 0.9953345 0.0396503 0.9953345 0.0396503 0.0046655 -0.0396503
3670000000 0.0046322 -0.0391301 0.9953678 0.0391301 0.9953678 0.0391301 0.0046322 -0.0391301
3691000000 0.0045997 -0.0386140 0.9954003 0.0386140 0.9954003 0.0386140 0.0045997 -0.0386140
3712000000 0.0045681 -0.0381021 0.9954319 0.0381021 0.9954319 0.0381021 0.0045681 -0.0381021
3733000000 0.0045374 -0.0375941 0.9954626 0.0375941 0.9954626 0.0375941 0.0045374 -0.0375941
3754000000 0.0045075 -0.0370902 0.9954925 0.0370902 0.9954925 0.0370902 0.0045075 -0.0370902
3775000000 0.0044785 -0.0365901 0.9955215 0.0365901 0.9955215 0.0365901 0.0044785 -0.0365901
3796000000 0.0044503 -0.0360939 0.9955497 0.0360939 0.9955497 0.0360939 0.0044503 -0.0360939
3817000000 0.0044229 -0.0356014 0.9955771 0.0356014 0.9955771 0.0356014 0.0044229 -0.0356014
3838000000 0.0043962 -0.0351126 0.9956038 0.0351126 0.9956038 0.0351126 0.0043962 -0.0351126
3859000000 0.0043704 -0.0346275 0.9956296 0.0346275 0.9956296 0.0346275 0.0043704 -0.0346275
3880000000 0.0043452 -0.0341460 0.9956548 0.0341460 0.9956548 0.0341460 0.0043452 -0.0341460
3901000000 0.0043209 -0.0336680 0.9956791 0.0336680 0.9956791 0.0336680 0.0043209 -0.0336680
3922000000 0.0042972 -0.0331934 0.9957028 0.0331934 0.9957028 0.0331934 0.0042972 -0.0331934
3943000000 0.0042743 -0.0327223 0.9957257 0.0327223 0.9957257 0.0327223 0.0042743 -0.0327223
3964000000 0.0042521 -0.0322546 0.9957479 0.0322546 0.9957479 0.0322546 0.0042521 -0.0322546
3985000000 0.0042305 -0.0317902 0.9957695 0.0317902 0.9957695 0.0317902 0.0042305 -0.0317902
4006000000 0.0042097 -0.0313290 0.9957903 0.0313290 0.9957903 0.0313290 0.0042097 -0.0313290
4027000000 0.0041895 -0.0308711 0.9958105 0.0308711 0.9958105 0.0308711 0.0041895 -0.0308711
4048000000 0.0041700 -0.0304163 0.9958300 0.0304163 0.9958300 0.0304163 0.0041700 -0.0304163
4069000000 0.0041511 -0.0299646 0.9958489 0.0299646 0.9958489 0.0299646 0.0041511 -0.0299646
4090000000 0.0041329 -0.0295159 0.9958671 0.0295159 0.9958671 0.0295159 0.0041329 -0.0295159
4111000000 0.0041152 -0.0290703 0.9958848 0.0290703 0.9958848 0.0290703 0.0041152 -0.0290703
4132000000 0.0040982 -0.0286277 0.9959018 0.0286277 0.9959018 0.0286277 0.0040982 -0.0286277
4153000000 0.0040818 -0.0281880 0.9959182 0.0281880 0.9959182 0.0281880 0.0040818 -0.0281880
4174000000 0.0040660 -0.0277512 0.9959340 0.0277512 0.9959340 0.0277512 0.0040660 -0.0277512
4195000000 0.0040508 -0.0273172 0.9959492 0.0273172 0.9959492 0.0273172 0.0040508 -0.0273172
4216000000 0.0040361 -0.0268860 0.9959639 0.0268860 0.9959639 0.0268860 0.0040361 -0.0268860
4237000000 0.0040221 -0.0264575 0.9959779 0.0264575 0.9959779 0.0264575 0.0040221 -0.0264575
4258000000 0.0040085 -0.0260318 0.9959915 0.0260318 0.9959915 0.0260318 0.0040085 -0.0260318
4279000000 0.0039956 -0.0256088 0.9960044 0.0256088 0.9960044 0.0256088 0.0039956 -0.0256088
4300000000 0.0039831 -0.0251884 0.9960169 0.0251884 0.9960169 0.0251884 0.0039831 -0.0251884
4321000000 0.0039713 -0.0247705 0.9960287 0.0247705 0.9960287 0.0247705 0.0039713 -0.0247705
4342000000 0.0039599 -0.0243553 0.9960401 0.0243553 0.9960401 0.0243553 0.0039599 -0.0243553
4363000000 0.0039490 -0.0239425 0.9960510 0.0239425 0.9960510 0.0239425 0.0039490 -0.0239425
4384000000 0.0039387 -0.0235323 0.9960613 0.0235323 0.9960613 0.0235323 0.0039387 -0.0235323
4405000000 0.0039289 -0.0231245 0.9960711 0.0231245 0.9960711 0.0231245 0.0039289 -0.0231245
4426000000 0.0039196 -0.0227191 0.9960804 0.0227191 0.9960804 0.0227191 0.0039196 -0.0227191
4447000000 0.0039107 -0.0223161 0.9960893 0.0223161 0.9960893 0.0223161 0.0039107 -0.0223161
4468000000 0.0039024 -0.0219154 0.9960976 0.0219154 0.9960976 0.0219154 0.0039024 -0.0219154
4489000000 0.0038945 -0.0215171 0.9961055 0.0215171 0.9961055 0.0215171 0.0038945 -0.0215171
4510000000 0.0038871 -0.0211211 0.9961129 0.0211211 0.9961129 0.0211211 0.0038871 -0.0211211
