!Murata Part Number: GRM0115C1E6R5DE01
!These Parameters are Measured in Series Mode Connection
!Data Generated on Mar 30, 2021
!       o--ll--o
!Port1            Port2
!       o------o
!Operation Temp=25[degC], DC Bias Voltage=0[V]
!Freq. Start=100[MHz] Stop=9[GHz] 401[Steps]
# Hz S RI R 50
!Freq.(Hz) S11(Real) S11(Imag) S21(Real) S21(Imag) S12(Real) S12(Imag) S22(Real) S22(Imag)
100000000 0.8568265 -0.3499680 0.1431735 0.3499680 0.1431735 0.3499680 0.8568265 -0.3499680
121000000 0.8034089 -0.3970788 0.1965911 0.3970788 0.1965911 0.3970788 0.8034089 -0.3970788
142000000 0.7478970 -0.4338177 0.2521030 0.4338177 0.2521030 0.4338177 0.7478970 -0.4338177
163000000 0.6923882 -0.4610413 0.3076118 0.4610413 0.3076118 0.4610413 0.6923882 -0.4610413
184000000 0.6384464 -0.4799249 0.3615536 0.4799249 0.3615536 0.4799249 0.6384464 -0.4799249
205000000 0.5871351 -0.4917607 0.4128649 0.4917607 0.4128649 0.4917607 0.5871351 -0.4917607
226000000 0.5390964 -0.4978173 0.4609036 0.4978173 0.4609036 0.4978173 0.5390964 -0.4978173
247000000 0.4946467 -0.4992550 0.5053533 0.4992550 0.5053533 0.4992550 0.4946467 -0.4992550
268000000 0.4538674 -0.4970854 0.5461326 0.4970854 0.5461326 0.4970854 0.4538674 -0.4970854
289000000 0.4166809 -0.4921607 0.5833191 0.4921607 0.5833191 0.4921607 0.4166809 -0.4921607
310000000 0.3829103 -0.4851806 0.6170897 0.4851806 0.6170897 0.4851806 0.3829103 -0.4851806
331000000 0.3523228 -0.4767089 0.6476772 0.4767089 0.6476772 0.4767089 0.3523228 -0.4767089
352000000 0.3246599 -0.4671925 0.6753401 0.4671925 0.6753401 0.4671925 0.3246599 -0.4671925
373000000 0.2996577 -0.4569814 0.7003423 0.4569814 0.7003423 0.4569814 0.2996577 -0.4569814
394000000 0.2770592 -0.4463465 0.7229408 0.4463465 0.7229408 0.4463465 0.2770592 -0.4463465
415000000 0.2566222 -0.4354954 0.7433778 0.4354954 0.7433778 0.4354954 0.2566222 -0.4354954
436000000 0.2381226 -0.4245852 0.7618774 0.4245852 0.7618774 0.4245852 0.2381226 -0.4245852
457000000 0.2213565 -0.4137335 0.7786435 0.4137335 0.7786435 0.4137335 0.2213565 -0.4137335
478000000 0.2061398 -0.4030270 0.7938602 0.4030270 0.7938602 0.4030270 0.2061398 -0.4030270
499000000 0.1923079 -0.3925284 0.8076921 0.3925284 0.8076921 0.3925284 0.1923079 -0.3925284
520000000 0.1797136 -0.3822818 0.8202864 0.3822818 0.8202864 0.3822818 0.1797136 -0.3822818
541000000 0.1682265 -0.3723170 0.8317735 0.3723170 0.8317735 0.3723170 0.1682265 -0.3723170
562000000 0.1577307 -0.3626531 0.8422693 0.3626531 0.8422693 0.3626531 0.1577307 -0.3626531
583000000 0.1481236 -0.3533008 0.8518764 0.3533008 0.8518764 0.3533008 0.1481236 -0.3533008
604000000 0.1393143 -0.3442644 0.8606857 0.3442644 0.8606857 0.3442644 0.1393143 -0.3442644
625000000 0.1312222 -0.3355438 0.8687778 0.3355438 0.8687778 0.3355438 0.1312222 -0.3355438
646000000 0.1237761 -0.3271352 0.8762239 0.3271352 0.8762239 0.3271352 0.1237761 -0.3271352
667000000 0.1169127 -0.3190325 0.8830873 0.3190325 0.8830873 0.3190325 0.1169127 -0.3190325
688000000 0.1105758 -0.3112277 0.8894242 0.3112277 0.8894242 0.3112277 0.1105758 -0.3112277
709000000 0.1047154 -0.3037117 0.8952846 0.3037117 0.8952846 0.3037117 0.1047154 -0.3037117
730000000 0.0992870 -0.2964745 0.9007130 0.2964745 0.9007130 0.2964745 0.0992870 -0.2964745
751000000 0.0942510 -0.2895058 0.9057490 0.2895058 0.9057490 0.2895058 0.0942510 -0.2895058
772000000 0.0895720 -0.2827948 0.9104280 0.2827948 0.9104280 0.2827948 0.0895720 -0.2827948
793000000 0.0852183 -0.2763309 0.9147817 0.2763309 0.9147817 0.2763309 0.0852183 -0.2763309
814000000 0.0811616 -0.2701035 0.9188384 0.2701035 0.9188384 0.2701035 0.0811616 -0.2701035
835000000 0.0773764 -0.2641024 0.9226236 0.2641024 0.9226236 0.2641024 0.0773764 -0.2641024
856000000 0.0738398 -0.2583174 0.9261602 0.2583174 0.9261602 0.2583174 0.0738398 -0.2583174
877000000 0.0705313 -0.2527388 0.9294687 0.2527388 0.9294687 0.2527388 0.0705313 -0.2527388
898000000 0.0674322 -0.2473572 0.9325678 0.2473572 0.9325678 0.2473572 0.0674322 -0.2473572
919000000 0.0645258 -0.2421636 0.9354742 0.2421636 0.9354742 0.2421636 0.0645258 -0.2421636
940000000 0.0617968 -0.2371494 0.9382032 0.2371494 0.9382032 0.2371494 0.0617968 -0.2371494
961000000 0.0592317 -0.2323062 0.9407683 0.2323062 0.9407683 0.2323062 0.0592317 -0.2323062
982000000 0.0568178 -0.2276264 0.9431822 0.2276264 0.9431822 0.2276264 0.0568178 -0.2276264
1003000000 0.0545438 -0.2231024 0.9454562 0.2231024 0.9454562 0.2231024 0.0545438 -0.2231024
1024000000 0.0523995 -0.2187270 0.9476005 0.2187270 0.9476005 0.2187270 0.0523995 -0.2187270
1045000000 0.0503753 -0.2144937 0.9496247 0.2144937 0.9496247 0.2144937 0.0503753 -0.2144937
1066000000 0.0484628 -0.2103958 0.9515372 0.2103958 0.9515372 0.2103958 0.0484628 -0.2103958
1087000000 0.0466540 -0.2064275 0.9533460 0.2064275 0.9533460 0.2064275 0.0466540 -0.2064275
1108000000 0.0449418 -0.2025828 0.9550582 0.2025828 0.9550582 0.2025828 0.0449418 -0.2025828
1129000000 0.0433196 -0.1988564 0.9566804 0.1988564 0.9566804 0.1988564 0.0433196 -0.1988564
1150000000 0.0417814 -0.1952431 0.9582186 0.1952431 0.9582186 0.1952431 0.0417814 -0.1952431
1171000000 0.0403215 -0.1917379 0.9596785 0.1917379 0.9596785 0.1917379 0.0403215 -0.1917379
1192000000 0.0389349 -0.1883362 0.9610651 0.1883362 0.9610651 0.1883362 0.0389349 -0.1883362
1213000000 0.0376169 -0.1850335 0.9623831 0.1850335 0.9623831 0.1850335 0.0376169 -0.1850335
1234000000 0.0363631 -0.1818257 0.9636369 0.1818257 0.9636369 0.1818257 0.0363631 -0.1818257
1255000000 0.0351695 -0.1787088 0.9648305 0.1787088 0.9648305 0.1787088 0.0351695 -0.1787088
1276000000 0.0340325 -0.1756790 0.9659675 0.1756790 0.9659675 0.1756790 0.0340325 -0.1756790
1297000000 0.0329485 -0.1727328 0.9670515 0.1727328 0.9670515 0.1727328 0.0329485 -0.1727328
1318000000 0.0319144 -0.1698667 0.9680856 0.1698667 0.9680856 0.1698667 0.0319144 -0.1698667
1339000000 0.0309273 -0.1670775 0.9690727 0.1670775 0.9690727 0.1670775 0.0309273 -0.1670775
1360000000 0.0299844 -0.1643621 0.9700156 0.1643621 0.9700156 0.1643621 0.0299844 -0.1643621
1381000000 0.0290832 -0.1617177 0.9709168 0.1617177 0.9709168 0.1617177 0.0290832 -0.1617177
1402000000 0.0282213 -0.1591414 0.9717787 0.1591414 0.9717787 0.1591414 0.0282213 -0.1591414
1423000000 0.0273965 -0.1566306 0.9726035 0.1566306 0.9726035 0.1566306 0.0273965 -0.1566306
1444000000 0.0266068 -0.1541828 0.9733932 0.1541828 0.9733932 0.1541828 0.0266068 -0.1541828
1465000000 0.0258502 -0.1517956 0.9741498 0.1517956 0.9741498 0.1517956 0.0258502 -0.1517956
1486000000 0.0251251 -0.1494667 0.9748749 0.1494667 0.9748749 0.1494667 0.0251251 -0.1494667
1507000000 0.0244296 -0.1471940 0.9755704 0.1471940 0.9755704 0.1471940 0.0244296 -0.1471940
1528000000 0.0237622 -0.1449754 0.9762378 0.1449754 0.9762378 0.1449754 0.0237622 -0.1449754
1549000000 0.0231215 -0.1428089 0.9768785 0.1428089 0.9768785 0.1428089 0.0231215 -0.1428089
1570000000 0.0225062 -0.1406926 0.9774938 0.1406926 0.9774938 0.1406926 0.0225062 -0.1406926
1591000000 0.0219149 -0.1386248 0.9780851 0.1386248 0.9780851 0.1386248 0.0219149 -0.1386248
1612000000 0.0213464 -0.1366037 0.9786536 0.1366037 0.9786536 0.1366037 0.0213464 -0.1366037
1633000000 0.0207996 -0.1346278 0.9792004 0.1346278 0.9792004 0.1346278 0.0207996 -0.1346278
1654000000 0.0202734 -0.1326953 0.9797266 0.1326953 0.9797266 0.1326953 0.0202734 -0.1326953
1675000000 0.0197669 -0.1308049 0.9802331 0.1308049 0.9802331 0.1308049 0.0197669 -0.1308049
1696000000 0.0192791 -0.1289551 0.9807209 0.1289551 0.9807209 0.1289551 0.0192791 -0.1289551
1717000000 0.0188091 -0.1271446 0.9811909 0.1271446 0.9811909 0.1271446 0.0188091 -0.1271446
1738000000 0.0183561 -0.1253720 0.9816439 0.1253720 0.9816439 0.1253720 0.0183561 -0.1253720
1759000000 0.0179193 -0.1236361 0.9820807 0.1236361 0.9820807 0.1236361 0.0179193 -0.1236361
1780000000 0.0174980 -0.1219356 0.9825020 0.1219356 0.9825020 0.1219356 0.0174980 -0.1219356
1801000000 0.0170915 -0.1202695 0.9829085 0.1202695 0.9829085 0.1202695 0.0170915 -0.1202695
1822000000 0.0166990 -0.1186367 0.9833010 0.1186367 0.9833010 0.1186367 0.0166990 -0.1186367
1843000000 0.0163201 -0.1170360 0.9836799 0.1170360 0.9836799 0.1170360 0.0163201 -0.1170360
1864000000 0.0159540 -0.1154665 0.9840460 0.1154665 0.9840460 0.1154665 0.0159540 -0.1154665
1885000000 0.0156003 -0.1139272 0.9843997 0.1139272 0.9843997 0.1139272 0.0156003 -0.1139272
1906000000 0.0152584 -0.1124172 0.9847416 0.1124172 0.9847416 0.1124172 0.0152584 -0.1124172
1927000000 0.0149278 -0.1109355 0.9850722 0.1109355 0.9850722 0.1109355 0.0149278 -0.1109355
1948000000 0.0146080 -0.1094813 0.9853920 0.1094813 0.9853920 0.1094813 0.0146080 -0.1094813
1969000000 0.0142987 -0.1080538 0.9857013 0.1080538 0.9857013 0.1080538 0.0142987 -0.1080538
1990000000 0.0139993 -0.1066523 0.9860007 0.1066523 0.9860007 0.1066523 0.0139993 -0.1066523
2011000000 0.0137094 -0.1052758 0.9862906 0.1052758 0.9862906 0.1052758 0.0137094 -0.1052758
2032000000 0.0134287 -0.1039237 0.9865713 0.1039237 0.9865713 0.1039237 0.0134287 -0.1039237
2053000000 0.0131569 -0.1025953 0.9868431 0.1025953 0.9868431 0.1025953 0.0131569 -0.1025953
2074000000 0.0128935 -0.1012899 0.9871065 0.1012899 0.9871065 0.1012899 0.0128935 -0.1012899
2095000000 0.0126382 -0.1000069 0.9873618 0.1000069 0.9873618 0.1000069 0.0126382 -0.1000069
2116000000 0.0123907 -0.0987455 0.9876093 0.0987455 0.9876093 0.0987455 0.0123907 -0.0987455
2137000000 0.0121508 -0.0975053 0.9878492 0.0975053 0.9878492 0.0975053 0.0121508 -0.0975053
2158000000 0.0119181 -0.0962856 0.9880819 0.0962856 0.9880819 0.0962856 0.0119181 -0.0962856
2179000000 0.0116924 -0.0950859 0.9883076 0.0950859 0.9883076 0.0950859 0.0116924 -0.0950859
2200000000 0.0114733 -0.0939055 0.9885267 0.0939055 0.9885267 0.0939055 0.0114733 -0.0939055
2221000000 0.0112607 -0.0927441 0.9887393 0.0927441 0.9887393 0.0927441 0.0112607 -0.0927441
2242000000 0.0110544 -0.0916010 0.9889456 0.0916010 0.9889456 0.0916010 0.0110544 -0.0916010
2263000000 0.0108540 -0.0904759 0.9891460 0.0904759 0.9891460 0.0904759 0.0108540 -0.0904759
2284000000 0.0106594 -0.0893681 0.9893406 0.0893681 0.9893406 0.0893681 0.0106594 -0.0893681
2305000000 0.0104704 -0.0882773 0.9895296 0.0882773 0.9895296 0.0882773 0.0104704 -0.0882773
2326000000 0.0102867 -0.0872030 0.9897133 0.0872030 0.9897133 0.0872030 0.0102867 -0.0872030
2347000000 0.0101083 -0.0861449 0.9898917 0.0861449 0.9898917 0.0861449 0.0101083 -0.0861449
2368000000 0.0099349 -0.0851024 0.9900651 0.0851024 0.9900651 0.0851024 0.0099349 -0.0851024
2389000000 0.0097663 -0.0840752 0.9902337 0.0840752 0.9902337 0.0840752 0.0097663 -0.0840752
2410000000 0.0096023 -0.0830629 0.9903977 0.0830629 0.9903977 0.0830629 0.0096023 -0.0830629
2431000000 0.0094430 -0.0820651 0.9905570 0.0820651 0.9905570 0.0820651 0.0094430 -0.0820651
2452000000 0.0092879 -0.0810815 0.9907121 0.0810815 0.9907121 0.0810815 0.0092879 -0.0810815
2473000000 0.0091371 -0.0801117 0.9908629 0.0801117 0.9908629 0.0801117 0.0091371 -0.0801117
2494000000 0.0089904 -0.0791555 0.9910096 0.0791555 0.9910096 0.0791555 0.0089904 -0.0791555
2515000000 0.0088477 -0.0782123 0.9911523 0.0782123 0.9911523 0.0782123 0.0088477 -0.0782123
2536000000 0.0087087 -0.0772821 0.9912913 0.0772821 0.9912913 0.0772821 0.0087087 -0.0772821
2557000000 0.0085735 -0.0763643 0.9914265 0.0763643 0.9914265 0.0763643 0.0085735 -0.0763643
2578000000 0.0084419 -0.0754588 0.9915581 0.0754588 0.9915581 0.0754588 0.0084419 -0.0754588
2599000000 0.0083137 -0.0745652 0.9916863 0.0745652 0.9916863 0.0745652 0.0083137 -0.0745652
2620000000 0.0081890 -0.0736834 0.9918110 0.0736834 0.9918110 0.0736834 0.0081890 -0.0736834
2641000000 0.0080675 -0.0728129 0.9919325 0.0728129 0.9919325 0.0728129 0.0080675 -0.0728129
2662000000 0.0079491 -0.0719536 0.9920509 0.0719536 0.9920509 0.0719536 0.0079491 -0.0719536
2683000000 0.0078338 -0.0711051 0.9921662 0.0711051 0.9921662 0.0711051 0.0078338 -0.0711051
2704000000 0.0077215 -0.0702673 0.9922785 0.0702673 0.9922785 0.0702673 0.0077215 -0.0702673
2725000000 0.0076121 -0.0694399 0.9923879 0.0694399 0.9923879 0.0694399 0.0076121 -0.0694399
2746000000 0.0075055 -0.0686227 0.9924945 0.0686227 0.9924945 0.0686227 0.0075055 -0.0686227
2767000000 0.0074016 -0.0678154 0.9925984 0.0678154 0.9925984 0.0678154 0.0074016 -0.0678154
2788000000 0.0073004 -0.0670179 0.9926996 0.0670179 0.9926996 0.0670179 0.0073004 -0.0670179
2809000000 0.0072017 -0.0662298 0.9927983 0.0662298 0.9927983 0.0662298 0.0072017 -0.0662298
2830000000 0.0071055 -0.0654511 0.9928945 0.0654511 0.9928945 0.0654511 0.0071055 -0.0654511
2851000000 0.0070118 -0.0646814 0.9929882 0.0646814 0.9929882 0.0646814 0.0070118 -0.0646814
2872000000 0.0069204 -0.0639207 0.9930796 0.0639207 0.9930796 0.0639207 0.0069204 -0.0639207
2893000000 0.0068313 -0.0631687 0.9931687 0.0631687 0.9931687 0.0631687 0.0068313 -0.0631687
2914000000 0.0067444 -0.0624253 0.9932556 0.0624253 0.9932556 0.0624253 0.0067444 -0.0624253
2935000000 0.0066597 -0.0616901 0.9933403 0.0616901 0.9933403 0.0616901 0.0066597 -0.0616901
2956000000 0.0065771 -0.0609632 0.9934229 0.0609632 0.9934229 0.0609632 0.0065771 -0.0609632
2977000000 0.0064966 -0.0602443 0.9935034 0.0602443 0.9935034 0.0602443 0.0064966 -0.0602443
2998000000 0.0064181 -0.0595333 0.9935819 0.0595333 0.9935819 0.0595333 0.0064181 -0.0595333
3019000000 0.0063415 -0.0588299 0.9936585 0.0588299 0.9936585 0.0588299 0.0063415 -0.0588299
3040000000 0.0062668 -0.0581341 0.9937332 0.0581341 0.9937332 0.0581341 0.0062668 -0.0581341
3061000000 0.0061939 -0.0574456 0.9938061 0.0574456 0.9938061 0.0574456 0.0061939 -0.0574456
3082000000 0.0061228 -0.0567644 0.9938772 0.0567644 0.9938772 0.0567644 0.0061228 -0.0567644
3103000000 0.0060535 -0.0560903 0.9939465 0.0560903 0.9939465 0.0560903 0.0060535 -0.0560903
3124000000 0.0059859 -0.0554231 0.9940141 0.0554231 0.9940141 0.0554231 0.0059859 -0.0554231
3145000000 0.0059200 -0.0547627 0.9940800 0.0547627 0.9940800 0.0547627 0.0059200 -0.0547627
3166000000 0.0058557 -0.0541090 0.9941443 0.0541090 0.9941443 0.0541090 0.0058557 -0.0541090
3187000000 0.0057930 -0.0534619 0.9942070 0.0534619 0.9942070 0.0534619 0.0057930 -0.0534619
3208000000 0.0057318 -0.0528211 0.9942682 0.0528211 0.9942682 0.0528211 0.0057318 -0.0528211
3229000000 0.0056721 -0.0521867 0.9943279 0.0521867 0.9943279 0.0521867 0.0056721 -0.0521867
3250000000 0.0056139 -0.0515585 0.9943861 0.0515585 0.9943861 0.0515585 0.0056139 -0.0515585
3271000000 0.0055571 -0.0509363 0.9944429 0.0509363 0.9944429 0.0509363 0.0055571 -0.0509363
3292000000 0.0055017 -0.0503201 0.9944983 0.0503201 0.9944983 0.0503201 0.0055017 -0.0503201
3313000000 0.0054477 -0.0497097 0.9945523 0.0497097 0.9945523 0.0497097 0.0054477 -0.0497097
3334000000 0.0053951 -0.0491050 0.9946049 0.0491050 0.9946049 0.0491050 0.0053951 -0.0491050
3355000000 0.0053437 -0.0485059 0.9946563 0.0485059 0.9946563 0.0485059 0.0053437 -0.0485059
3376000000 0.0052937 -0.0479124 0.9947063 0.0479124 0.9947063 0.0479124 0.0052937 -0.0479124
3397000000 0.0052448 -0.0473243 0.9947552 0.0473243 0.9947552 0.0473243 0.0052448 -0.0473243
3418000000 0.0051972 -0.0467415 0.9948028 0.0467415 0.9948028 0.0467415 0.0051972 -0.0467415
3439000000 0.0051508 -0.0461639 0.9948492 0.0461639 0.9948492 0.0461639 0.0051508 -0.0461639
3460000000 0.0051055 -0.0455915 0.9948945 0.0455915 0.9948945 0.0455915 0.0051055 -0.0455915
3481000000 0.0050614 -0.0450241 0.9949386 0.0450241 0.9949386 0.0450241 0.0050614 -0.0450241
3502000000 0.0050184 -0.0444616 0.9949816 0.0444616 0.9949816 0.0444616 0.0050184 -0.0444616
3523000000 0.0049765 -0.0439040 0.9950235 0.0439040 0.9950235 0.0439040 0.0049765 -0.0439040
3544000000 0.0049357 -0.0433512 0.9950643 0.0433512 0.9950643 0.0433512 0.0049357 -0.0433512
3565000000 0.0048959 -0.0428030 0.9951041 0.0428030 0.9951041 0.0428030 0.0048959 -0.0428030
3586000000 0.0048571 -0.0422595 0.9951429 0.0422595 0.9951429 0.0422595 0.0048571 -0.0422595
3607000000 0.0048194 -0.0417205 0.9951806 0.0417205 0.9951806 0.0417205 0.0048194 -0.0417205
3628000000 0.0047826 -0.0411860 0.9952174 0.0411860 0.9952174 0.0411860 0.0047826 -0.0411860
3649000000 0.0047468 -0.0406558 0.9952532 0.0406558 0.9952532 0.0406558 0.0047468 -0.0406558
3670000000 0.0047119 -0.0401299 0.9952881 0.0401299 0.9952881 0.0401299 0.0047119 -0.0401299
3691000000 0.0046780 -0.0396083 0.9953220 0.0396083 0.9953220 0.0396083 0.0046780 -0.0396083
3712000000 0.0046449 -0.0390908 0.9953551 0.0390908 0.9953551 0.0390908 0.0046449 -0.0390908
3733000000 0.0046128 -0.0385774 0.9953872 0.0385774 0.9953872 0.0385774 0.0046128 -0.0385774
3754000000 0.0045815 -0.0380681 0.9954185 0.0380681 0.9954185 0.0380681 0.0045815 -0.0380681
3775000000 0.0045510 -0.0375627 0.9954490 0.0375627 0.9954490 0.0375627 0.0045510 -0.0375627
3796000000 0.0045215 -0.0370611 0.9954785 0.0370611 0.9954785 0.0370611 0.0045215 -0.0370611
3817000000 0.0044927 -0.0365634 0.9955073 0.0365634 0.9955073 0.0365634 0.0044927 -0.0365634
3838000000 0.0044647 -0.0360695 0.9955353 0.0360695 0.9955353 0.0360695 0.0044647 -0.0360695
3859000000 0.0044375 -0.0355792 0.9955625 0.0355792 0.9955625 0.0355792 0.0044375 -0.0355792
3880000000 0.0044112 -0.0350926 0.9955888 0.0350926 0.9955888 0.0350926 0.0044112 -0.0350926
3901000000 0.0043855 -0.0346096 0.9956145 0.0346096 0.9956145 0.0346096 0.0043855 -0.0346096
3922000000 0.0043606 -0.0341301 0.9956394 0.0341301 0.9956394 0.0341301 0.0043606 -0.0341301
3943000000 0.0043365 -0.0336541 0.9956635 0.0336541 0.9956635 0.0336541 0.0043365 -0.0336541
3964000000 0.0043131 -0.0331815 0.9956869 0.0331815 0.9956869 0.0331815 0.0043131 -0.0331815
3985000000 0.0042903 -0.0327123 0.9957097 0.0327123 0.9957097 0.0327123 0.0042903 -0.0327123
4006000000 0.0042683 -0.0322463 0.9957317 0.0322463 0.9957317 0.0322463 0.0042683 -0.0322463
4027000000 0.0042470 -0.0317836 0.9957530 0.0317836 0.9957530 0.0317836 0.0042470 -0.0317836
4048000000 0.0042263 -0.0313242 0.9957737 0.0313242 0.9957737 0.0313242 0.0042263 -0.0313242
4069000000 0.0042063 -0.0308679 0.9957937 0.0308679 0.9957937 0.0308679 0.0042063 -0.0308679
4090000000 0.0041870 -0.0304147 0.9958130 0.0304147 0.9958130 0.0304147 0.0041870 -0.0304147
4111000000 0.0041683 -0.0299645 0.9958317 0.0299645 0.9958317 0.0299645 0.0041683 -0.0299645
4132000000 0.0041502 -0.0295174 0.9958498 0.0295174 0.9958498 0.0295174 0.0041502 -0.0295174
4153000000 0.0041328 -0.0290732 0.9958672 0.0290732 0.9958672 0.0290732 0.0041328 -0.0290732
4174000000 0.0041159 -0.0286320 0.9958841 0.0286320 0.9958841 0.0286320 0.0041159 -0.0286320
4195000000 0.0040997 -0.0281937 0.9959003 0.0281937 0.9959003 0.0281937 0.0040997 -0.0281937
4216000000 0.0040840 -0.0277581 0.9959160 0.0277581 0.9959160 0.0277581 0.0040840 -0.0277581
4237000000 0.0040690 -0.0273254 0.9959310 0.0273254 0.9959310 0.0273254 0.0040690 -0.0273254
4258000000 0.0040545 -0.0268955 0.9959455 0.0268955 0.9959455 0.0268955 0.0040545 -0.0268955
4279000000 0.0040405 -0.0264682 0.9959595 0.0264682 0.9959595 0.0264682 0.0040405 -0.0264682
4300000000 0.0040272 -0.0260437 0.9959728 0.0260437 0.9959728 0.0260437 0.0040272 -0.0260437
4321000000 0.0040144 -0.0256217 0.9959856 0.0256217 0.9959856 0.0256217 0.0040144 -0.0256217
4342000000 0.0040021 -0.0252024 0.9959979 0.0252024 0.9959979 0.0252024 0.0040021 -0.0252024
4363000000 0.0039903 -0.0247856 0.9960097 0.0247856 0.9960097 0.0247856 0.0039903 -0.0247856
4384000000 0.0039791 -0.0243714 0.9960209 0.0243714 0.9960209 0.0243714 0.0039791 -0.0243714
4405000000 0.0039684 -0.0239596 0.9960316 0.0239596 0.9960316 0.0239596 0.0039684 -0.0239596
4426000000 0.0039582 -0.0235503 0.9960418 0.0235503 0.9960418 0.0235503 0.0039582 -0.0235503
4447000000 0.0039485 -0.0231434 0.9960515 0.0231434 0.9960515 0.0231434 0.0039485 -0.0231434
4468000000 0.0039393 -0.0227389 0.9960607 0.0227389 0.9960607 0.0227389 0.0039393 -0.0227389
4489000000 0.0039306 -0.0223367 0.9960694 0.0223367 0.9960694 0.0223367 0.0039306 -0.0223367
4510000000 0.0039224 -0.0219369 0.9960776 0.0219369 0.9960776 0.0219369 0.0039224 -0.0219369
