!Murata Part Number: GRM0115C1C8R5CE01
!These Parameters are Measured in Series Mode Connection
!Data Generated on Mar 30, 2021
!       o--ll--o
!Port1            Port2
!       o------o
!Operation Temp=25[degC], DC Bias Voltage=0[V]
!Freq. Start=100[MHz] Stop=9[GHz] 401[Steps]
# Hz S RI R 50
!Freq.(Hz) S11(Real) S11(Imag) S21(Real) S21(Imag) S12(Real) S12(Imag) S22(Real) S22(Imag)
100000000 0.7777716 -0.4154082 0.2222284 0.4154082 0.2222284 0.4154082 0.7777716 -0.4154082
121000000 0.7050093 -0.4556320 0.2949907 0.4556320 0.2949907 0.4556320 0.7050093 -0.4556320
142000000 0.6343521 -0.4811336 0.3656479 0.4811336 0.3656479 0.4811336 0.6343521 -0.4811336
163000000 0.5682674 -0.4947683 0.4317326 0.4947683 0.4317326 0.4947683 0.5682674 -0.4947683
184000000 0.5080175 -0.4993146 0.4919825 0.4993146 0.4919825 0.4993146 0.5080175 -0.4993146
205000000 0.4540158 -0.4971876 0.5459842 0.4971876 0.5459842 0.4971876 0.4540158 -0.4971876
226000000 0.4061438 -0.4903460 0.5938562 0.4903460 0.5938562 0.4903460 0.4061438 -0.4903460
247000000 0.3639876 -0.4803060 0.6360124 0.4803060 0.6360124 0.4803060 0.3639876 -0.4803060
268000000 0.3269976 -0.4682036 0.6730024 0.4682036 0.6730024 0.4682036 0.3269976 -0.4682036
289000000 0.2945859 -0.4548694 0.7054141 0.4548694 0.7054141 0.4548694 0.2945859 -0.4548694
310000000 0.2661816 -0.4408985 0.7338184 0.4408985 0.7338184 0.4408985 0.2661816 -0.4408985
331000000 0.2412590 -0.4267098 0.7587410 0.4267098 0.7587410 0.4267098 0.2412590 -0.4267098
352000000 0.2193487 -0.4125919 0.7806513 0.4125919 0.7806513 0.4125919 0.2193487 -0.4125919
373000000 0.2000395 -0.3987393 0.7999605 0.3987393 0.7999605 0.3987393 0.2000395 -0.3987393
394000000 0.1829757 -0.3852787 0.8170243 0.3852787 0.8170243 0.3852787 0.1829757 -0.3852787
415000000 0.1678520 -0.3722884 0.8321480 0.3722884 0.8321480 0.3722884 0.1678520 -0.3722884
436000000 0.1544070 -0.3598128 0.8455930 0.3598128 0.8455930 0.3598128 0.1544070 -0.3598128
457000000 0.1424177 -0.3478722 0.8575823 0.3478722 0.8575823 0.3478722 0.1424177 -0.3478722
478000000 0.1316939 -0.3364707 0.8683061 0.3364707 0.8683061 0.3364707 0.1316939 -0.3364707
499000000 0.1220732 -0.3256013 0.8779268 0.3256013 0.8779268 0.3256013 0.1220732 -0.3256013
520000000 0.1134167 -0.3152494 0.8865833 0.3152494 0.8865833 0.3152494 0.1134167 -0.3152494
541000000 0.1056056 -0.3053961 0.8943944 0.3053961 0.8943944 0.3053961 0.1056056 -0.3053961
562000000 0.0985379 -0.2960193 0.9014621 0.2960193 0.9014621 0.2960193 0.0985379 -0.2960193
583000000 0.0921258 -0.2870958 0.9078742 0.2870958 0.9078742 0.2870958 0.0921258 -0.2870958
604000000 0.0862935 -0.2786019 0.9137065 0.2786019 0.9137065 0.2786019 0.0862935 -0.2786019
625000000 0.0809755 -0.2705139 0.9190245 0.2705139 0.9190245 0.2705139 0.0809755 -0.2705139
646000000 0.0761150 -0.2628086 0.9238850 0.2628086 0.9238850 0.2628086 0.0761150 -0.2628086
667000000 0.0716626 -0.2554639 0.9283374 0.2554639 0.9283374 0.2554639 0.0716626 -0.2554639
688000000 0.0675750 -0.2484585 0.9324250 0.2484585 0.9324250 0.2484585 0.0675750 -0.2484585
709000000 0.0638147 -0.2417722 0.9361853 0.2417722 0.9361853 0.2417722 0.0638147 -0.2417722
730000000 0.0603485 -0.2353860 0.9396515 0.2353860 0.9396515 0.2353860 0.0603485 -0.2353860
751000000 0.0571472 -0.2292819 0.9428528 0.2292819 0.9428528 0.2292819 0.0571472 -0.2292819
772000000 0.0541851 -0.2234433 0.9458149 0.2234433 0.9458149 0.2234433 0.0541851 -0.2234433
793000000 0.0514397 -0.2178543 0.9485603 0.2178543 0.9485603 0.2178543 0.0514397 -0.2178543
814000000 0.0488907 -0.2125004 0.9511093 0.2125004 0.9511093 0.2125004 0.0488907 -0.2125004
835000000 0.0465203 -0.2073678 0.9534797 0.2073678 0.9534797 0.2073678 0.0465203 -0.2073678
856000000 0.0443125 -0.2024437 0.9556875 0.2024437 0.9556875 0.2024437 0.0443125 -0.2024437
877000000 0.0422531 -0.1977161 0.9577469 0.1977161 0.9577469 0.1977161 0.0422531 -0.1977161
898000000 0.0403294 -0.1931741 0.9596706 0.1931741 0.9596706 0.1931741 0.0403294 -0.1931741
919000000 0.0385300 -0.1888071 0.9614700 0.1888071 0.9614700 0.1888071 0.0385300 -0.1888071
940000000 0.0368446 -0.1846055 0.9631554 0.1846055 0.9631554 0.1846055 0.0368446 -0.1846055
961000000 0.0352641 -0.1805603 0.9647359 0.1805603 0.9647359 0.1805603 0.0352641 -0.1805603
982000000 0.0337800 -0.1766631 0.9662200 0.1766631 0.9662200 0.1766631 0.0337800 -0.1766631
1003000000 0.0323848 -0.1729059 0.9676152 0.1729059 0.9676152 0.1729059 0.0323848 -0.1729059
1024000000 0.0310719 -0.1692814 0.9689281 0.1692814 0.9689281 0.1692814 0.0310719 -0.1692814
1045000000 0.0298348 -0.1657827 0.9701652 0.1657827 0.9701652 0.1657827 0.0298348 -0.1657827
1066000000 0.0286682 -0.1624034 0.9713318 0.1624034 0.9713318 0.1624034 0.0286682 -0.1624034
1087000000 0.0275667 -0.1591375 0.9724333 0.1591375 0.9724333 0.1591375 0.0275667 -0.1591375
1108000000 0.0265259 -0.1559792 0.9734741 0.1559792 0.9734741 0.1559792 0.0265259 -0.1559792
1129000000 0.0255414 -0.1529234 0.9744586 0.1529234 0.9744586 0.1529234 0.0255414 -0.1529234
1150000000 0.0246093 -0.1499650 0.9753907 0.1499650 0.9753907 0.1499650 0.0246093 -0.1499650
1171000000 0.0237261 -0.1470994 0.9762739 0.1470994 0.9762739 0.1470994 0.0237261 -0.1470994
1192000000 0.0228885 -0.1443222 0.9771115 0.1443222 0.9771115 0.1443222 0.0228885 -0.1443222
1213000000 0.0220935 -0.1416293 0.9779065 0.1416293 0.9779065 0.1416293 0.0220935 -0.1416293
1234000000 0.0213383 -0.1390168 0.9786617 0.1390168 0.9786617 0.1390168 0.0213383 -0.1390168
1255000000 0.0206205 -0.1364811 0.9793795 0.1364811 0.9793795 0.1364811 0.0206205 -0.1364811
1276000000 0.0199376 -0.1340187 0.9800624 0.1340187 0.9800624 0.1340187 0.0199376 -0.1340187
1297000000 0.0192875 -0.1316263 0.9807125 0.1316263 0.9807125 0.1316263 0.0192875 -0.1316263
1318000000 0.0186681 -0.1293010 0.9813319 0.1293010 0.9813319 0.1293010 0.0186681 -0.1293010
1339000000 0.0180778 -0.1270398 0.9819222 0.1270398 0.9819222 0.1270398 0.0180778 -0.1270398
1360000000 0.0175146 -0.1248400 0.9824854 0.1248400 0.9824854 0.1248400 0.0175146 -0.1248400
1381000000 0.0169771 -0.1226990 0.9830229 0.1226990 0.9830229 0.1226990 0.0169771 -0.1226990
1402000000 0.0164638 -0.1206145 0.9835362 0.1206145 0.9835362 0.1206145 0.0164638 -0.1206145
1423000000 0.0159733 -0.1185840 0.9840267 0.1185840 0.9840267 0.1185840 0.0159733 -0.1185840
1444000000 0.0155042 -0.1166054 0.9844958 0.1166054 0.9844958 0.1166054 0.0155042 -0.1166054
1465000000 0.0150555 -0.1146766 0.9849445 0.1146766 0.9849445 0.1146766 0.0150555 -0.1146766
1486000000 0.0146260 -0.1127956 0.9853740 0.1127956 0.9853740 0.1127956 0.0146260 -0.1127956
1507000000 0.0142147 -0.1109607 0.9857853 0.1109607 0.9857853 0.1109607 0.0142147 -0.1109607
1528000000 0.0138206 -0.1091700 0.9861794 0.1091700 0.9861794 0.1091700 0.0138206 -0.1091700
1549000000 0.0134428 -0.1074218 0.9865572 0.1074218 0.9865572 0.1074218 0.0134428 -0.1074218
1570000000 0.0130805 -0.1057145 0.9869195 0.1057145 0.9869195 0.1057145 0.0130805 -0.1057145
1591000000 0.0127328 -0.1040466 0.9872672 0.1040466 0.9872672 0.1040466 0.0127328 -0.1040466
1612000000 0.0123991 -0.1024167 0.9876009 0.1024167 0.9876009 0.1024167 0.0123991 -0.1024167
1633000000 0.0120786 -0.1008234 0.9879214 0.1008234 0.9879214 0.1008234 0.0120786 -0.1008234
1654000000 0.0117707 -0.0992653 0.9882293 0.0992653 0.9882293 0.0992653 0.0117707 -0.0992653
1675000000 0.0114748 -0.0977412 0.9885252 0.0977412 0.9885252 0.0977412 0.0114748 -0.0977412
1696000000 0.0111903 -0.0962500 0.9888097 0.0962500 0.9888097 0.0962500 0.0111903 -0.0962500
1717000000 0.0109166 -0.0947904 0.9890834 0.0947904 0.9890834 0.0947904 0.0109166 -0.0947904
1738000000 0.0106532 -0.0933614 0.9893468 0.0933614 0.9893468 0.0933614 0.0106532 -0.0933614
1759000000 0.0103997 -0.0919619 0.9896003 0.0919619 0.9896003 0.0919619 0.0103997 -0.0919619
1780000000 0.0101557 -0.0905910 0.9898443 0.0905910 0.9898443 0.0905910 0.0101557 -0.0905910
1801000000 0.0099206 -0.0892477 0.9900794 0.0892477 0.9900794 0.0892477 0.0099206 -0.0892477
1822000000 0.0096940 -0.0879311 0.9903060 0.0879311 0.9903060 0.0879311 0.0096940 -0.0879311
1843000000 0.0094757 -0.0866403 0.9905243 0.0866403 0.9905243 0.0866403 0.0094757 -0.0866403
1864000000 0.0092652 -0.0853744 0.9907348 0.0853744 0.9907348 0.0853744 0.0092652 -0.0853744
1885000000 0.0090622 -0.0841328 0.9909378 0.0841328 0.9909378 0.0841328 0.0090622 -0.0841328
1906000000 0.0088663 -0.0829146 0.9911337 0.0829146 0.9911337 0.0829146 0.0088663 -0.0829146
1927000000 0.0086773 -0.0817191 0.9913227 0.0817191 0.9913227 0.0817191 0.0086773 -0.0817191
1948000000 0.0084949 -0.0805455 0.9915051 0.0805455 0.9915051 0.0805455 0.0084949 -0.0805455
1969000000 0.0083188 -0.0793933 0.9916812 0.0793933 0.9916812 0.0793933 0.0083188 -0.0793933
1990000000 0.0081487 -0.0782617 0.9918513 0.0782617 0.9918513 0.0782617 0.0081487 -0.0782617
2011000000 0.0079844 -0.0771501 0.9920156 0.0771501 0.9920156 0.0771501 0.0079844 -0.0771501
2032000000 0.0078257 -0.0760580 0.9921743 0.0760580 0.9921743 0.0760580 0.0078257 -0.0760580
2053000000 0.0076723 -0.0749848 0.9923277 0.0749848 0.9923277 0.0749848 0.0076723 -0.0749848
2074000000 0.0075239 -0.0739299 0.9924761 0.0739299 0.9924761 0.0739299 0.0075239 -0.0739299
2095000000 0.0073806 -0.0728927 0.9926194 0.0728927 0.9926194 0.0728927 0.0073806 -0.0728927
2116000000 0.0072419 -0.0718729 0.9927581 0.0718729 0.9927581 0.0718729 0.0072419 -0.0718729
2137000000 0.0071078 -0.0708698 0.9928922 0.0708698 0.9928922 0.0708698 0.0071078 -0.0708698
2158000000 0.0069780 -0.0698830 0.9930220 0.0698830 0.9930220 0.0698830 0.0069780 -0.0698830
2179000000 0.0068525 -0.0689121 0.9931475 0.0689121 0.9931475 0.0689121 0.0068525 -0.0689121
2200000000 0.0067310 -0.0679566 0.9932690 0.0679566 0.9932690 0.0679566 0.0067310 -0.0679566
2221000000 0.0066134 -0.0670160 0.9933866 0.0670160 0.9933866 0.0670160 0.0066134 -0.0670160
2242000000 0.0064995 -0.0660901 0.9935005 0.0660901 0.9935005 0.0660901 0.0064995 -0.0660901
2263000000 0.0063893 -0.0651783 0.9936107 0.0651783 0.9936107 0.0651783 0.0063893 -0.0651783
2284000000 0.0062825 -0.0642804 0.9937175 0.0642804 0.9937175 0.0642804 0.0062825 -0.0642804
2305000000 0.0061791 -0.0633958 0.9938209 0.0633958 0.9938209 0.0633958 0.0061791 -0.0633958
2326000000 0.0060789 -0.0625244 0.9939211 0.0625244 0.9939211 0.0625244 0.0060789 -0.0625244
2347000000 0.0059818 -0.0616657 0.9940182 0.0616657 0.9940182 0.0616657 0.0059818 -0.0616657
2368000000 0.0058878 -0.0608195 0.9941122 0.0608195 0.9941122 0.0608195 0.0058878 -0.0608195
2389000000 0.0057967 -0.0599853 0.9942033 0.0599853 0.9942033 0.0599853 0.0057967 -0.0599853
2410000000 0.0057084 -0.0591629 0.9942916 0.0591629 0.9942916 0.0591629 0.0057084 -0.0591629
2431000000 0.0056228 -0.0583520 0.9943772 0.0583520 0.9943772 0.0583520 0.0056228 -0.0583520
2452000000 0.0055398 -0.0575524 0.9944602 0.0575524 0.9944602 0.0575524 0.0055398 -0.0575524
2473000000 0.0054593 -0.0567636 0.9945407 0.0567636 0.9945407 0.0567636 0.0054593 -0.0567636
2494000000 0.0053813 -0.0559855 0.9946187 0.0559855 0.9946187 0.0559855 0.0053813 -0.0559855
2515000000 0.0053057 -0.0552178 0.9946943 0.0552178 0.9946943 0.0552178 0.0053057 -0.0552178
2536000000 0.0052324 -0.0544602 0.9947676 0.0544602 0.9947676 0.0544602 0.0052324 -0.0544602
2557000000 0.0051613 -0.0537126 0.9948387 0.0537126 0.9948387 0.0537126 0.0051613 -0.0537126
2578000000 0.0050923 -0.0529746 0.9949077 0.0529746 0.9949077 0.0529746 0.0050923 -0.0529746
2599000000 0.0050254 -0.0522460 0.9949746 0.0522460 0.9949746 0.0522460 0.0050254 -0.0522460
2620000000 0.0049605 -0.0515267 0.9950395 0.0515267 0.9950395 0.0515267 0.0049605 -0.0515267
2641000000 0.0048976 -0.0508163 0.9951024 0.0508163 0.9951024 0.0508163 0.0048976 -0.0508163
2662000000 0.0048366 -0.0501147 0.9951634 0.0501147 0.9951634 0.0501147 0.0048366 -0.0501147
2683000000 0.0047773 -0.0494217 0.9952227 0.0494217 0.9952227 0.0494217 0.0047773 -0.0494217
2704000000 0.0047199 -0.0487372 0.9952801 0.0487372 0.9952801 0.0487372 0.0047199 -0.0487372
2725000000 0.0046642 -0.0480608 0.9953358 0.0480608 0.9953358 0.0480608 0.0046642 -0.0480608
2746000000 0.0046102 -0.0473924 0.9953898 0.0473924 0.9953898 0.0473924 0.0046102 -0.0473924
2767000000 0.0045578 -0.0467318 0.9954422 0.0467318 0.9954422 0.0467318 0.0045578 -0.0467318
2788000000 0.0045069 -0.0460790 0.9954931 0.0460790 0.9954931 0.0460790 0.0045069 -0.0460790
2809000000 0.0044576 -0.0454336 0.9955424 0.0454336 0.9955424 0.0454336 0.0044576 -0.0454336
2830000000 0.0044098 -0.0447955 0.9955902 0.0447955 0.9955902 0.0447955 0.0044098 -0.0447955
2851000000 0.0043634 -0.0441646 0.9956366 0.0441646 0.9956366 0.0441646 0.0043634 -0.0441646
2872000000 0.0043184 -0.0435408 0.9956816 0.0435408 0.9956816 0.0435408 0.0043184 -0.0435408
2893000000 0.0042748 -0.0429237 0.9957252 0.0429237 0.9957252 0.0429237 0.0042748 -0.0429237
2914000000 0.0042325 -0.0423135 0.9957675 0.0423135 0.9957675 0.0423135 0.0042325 -0.0423135
2935000000 0.0041915 -0.0417097 0.9958085 0.0417097 0.9958085 0.0417097 0.0041915 -0.0417097
2956000000 0.0041517 -0.0411125 0.9958483 0.0411125 0.9958483 0.0411125 0.0041517 -0.0411125
2977000000 0.0041131 -0.0405215 0.9958869 0.0405215 0.9958869 0.0405215 0.0041131 -0.0405215
2998000000 0.0040758 -0.0399367 0.9959242 0.0399367 0.9959242 0.0399367 0.0040758 -0.0399367
3019000000 0.0040395 -0.0393580 0.9959605 0.0393580 0.9959605 0.0393580 0.0040395 -0.0393580
3040000000 0.0040044 -0.0387851 0.9959956 0.0387851 0.9959956 0.0387851 0.0040044 -0.0387851
3061000000 0.0039704 -0.0382181 0.9960296 0.0382181 0.9960296 0.0382181 0.0039704 -0.0382181
3082000000 0.0039375 -0.0376568 0.9960625 0.0376568 0.9960625 0.0376568 0.0039375 -0.0376568
3103000000 0.0039056 -0.0371010 0.9960944 0.0371010 0.9960944 0.0371010 0.0039056 -0.0371010
3124000000 0.0038747 -0.0365507 0.9961253 0.0365507 0.9961253 0.0365507 0.0038747 -0.0365507
3145000000 0.0038448 -0.0360057 0.9961552 0.0360057 0.9961552 0.0360057 0.0038448 -0.0360057
3166000000 0.0038158 -0.0354660 0.9961842 0.0354660 0.9961842 0.0354660 0.0038158 -0.0354660
3187000000 0.0037878 -0.0349315 0.9962122 0.0349315 0.9962122 0.0349315 0.0037878 -0.0349315
3208000000 0.0037607 -0.0344019 0.9962393 0.0344019 0.9962393 0.0344019 0.0037607 -0.0344019
3229000000 0.0037345 -0.0338774 0.9962655 0.0338774 0.9962655 0.0338774 0.0037345 -0.0338774
3250000000 0.0037091 -0.0333577 0.9962909 0.0333577 0.9962909 0.0333577 0.0037091 -0.0333577
3271000000 0.0036846 -0.0328427 0.9963154 0.0328427 0.9963154 0.0328427 0.0036846 -0.0328427
3292000000 0.0036609 -0.0323324 0.9963391 0.0323324 0.9963391 0.0323324 0.0036609 -0.0323324
3313000000 0.0036381 -0.0318267 0.9963619 0.0318267 0.9963619 0.0318267 0.0036381 -0.0318267
3334000000 0.0036160 -0.0313255 0.9963840 0.0313255 0.9963840 0.0313255 0.0036160 -0.0313255
3355000000 0.0035947 -0.0308287 0.9964053 0.0308287 0.9964053 0.0308287 0.0035947 -0.0308287
3376000000 0.0035741 -0.0303362 0.9964259 0.0303362 0.9964259 0.0303362 0.0035741 -0.0303362
3397000000 0.0035543 -0.0298480 0.9964457 0.0298480 0.9964457 0.0298480 0.0035543 -0.0298480
3418000000 0.0035352 -0.0293640 0.9964648 0.0293640 0.9964648 0.0293640 0.0035352 -0.0293640
3439000000 0.0035168 -0.0288840 0.9964832 0.0288840 0.9964832 0.0288840 0.0035168 -0.0288840
3460000000 0.0034991 -0.0284081 0.9965009 0.0284081 0.9965009 0.0284081 0.0034991 -0.0284081
3481000000 0.0034820 -0.0279361 0.9965180 0.0279361 0.9965180 0.0279361 0.0034820 -0.0279361
3502000000 0.0034656 -0.0274680 0.9965344 0.0274680 0.9965344 0.0274680 0.0034656 -0.0274680
3523000000 0.0034499 -0.0270037 0.9965501 0.0270037 0.9965501 0.0270037 0.0034499 -0.0270037
3544000000 0.0034348 -0.0265432 0.9965652 0.0265432 0.9965652 0.0265432 0.0034348 -0.0265432
3565000000 0.0034203 -0.0260863 0.9965797 0.0260863 0.9965797 0.0260863 0.0034203 -0.0260863
3586000000 0.0034064 -0.0256331 0.9965936 0.0256331 0.9965936 0.0256331 0.0034064 -0.0256331
3607000000 0.0033931 -0.0251834 0.9966069 0.0251834 0.9966069 0.0251834 0.0033931 -0.0251834
3628000000 0.0033804 -0.0247372 0.9966196 0.0247372 0.9966196 0.0247372 0.0033804 -0.0247372
3649000000 0.0033683 -0.0242944 0.9966317 0.0242944 0.9966317 0.0242944 0.0033683 -0.0242944
3670000000 0.0033567 -0.0238550 0.9966433 0.0238550 0.9966433 0.0238550 0.0033567 -0.0238550
3691000000 0.0033457 -0.0234190 0.9966543 0.0234190 0.9966543 0.0234190 0.0033457 -0.0234190
3712000000 0.0033352 -0.0229861 0.9966648 0.0229861 0.9966648 0.0229861 0.0033352 -0.0229861
3733000000 0.0033252 -0.0225565 0.9966748 0.0225565 0.9966748 0.0225565 0.0033252 -0.0225565
3754000000 0.0033158 -0.0221301 0.9966842 0.0221301 0.9966842 0.0221301 0.0033158 -0.0221301
3775000000 0.0033069 -0.0217067 0.9966931 0.0217067 0.9966931 0.0217067 0.0033069 -0.0217067
3796000000 0.0032984 -0.0212864 0.9967016 0.0212864 0.9967016 0.0212864 0.0032984 -0.0212864
3817000000 0.0032905 -0.0208691 0.9967095 0.0208691 0.9967095 0.0208691 0.0032905 -0.0208691
3838000000 0.0032830 -0.0204547 0.9967170 0.0204547 0.9967170 0.0204547 0.0032830 -0.0204547
3859000000 0.0032760 -0.0200432 0.9967240 0.0200432 0.9967240 0.0200432 0.0032760 -0.0200432
3880000000 0.0032695 -0.0196346 0.9967305 0.0196346 0.9967305 0.0196346 0.0032695 -0.0196346
3901000000 0.0032634 -0.0192288 0.9967366 0.0192288 0.9967366 0.0192288 0.0032634 -0.0192288
3922000000 0.0032578 -0.0188258 0.9967422 0.0188258 0.9967422 0.0188258 0.0032578 -0.0188258
3943000000 0.0032526 -0.0184254 0.9967474 0.0184254 0.9967474 0.0184254 0.0032526 -0.0184254
3964000000 0.0032478 -0.0180278 0.9967522 0.0180278 0.9967522 0.0180278 0.0032478 -0.0180278
3985000000 0.0032435 -0.0176328 0.9967565 0.0176328 0.9967565 0.0176328 0.0032435 -0.0176328
4006000000 0.0032396 -0.0172404 0.9967604 0.0172404 0.9967604 0.0172404 0.0032396 -0.0172404
4027000000 0.0032361 -0.0168505 0.9967639 0.0168505 0.9967639 0.0168505 0.0032361 -0.0168505
4048000000 0.0032330 -0.0164632 0.9967670 0.0164632 0.9967670 0.0164632 0.0032330 -0.0164632
4069000000 0.0032303 -0.0160783 0.9967697 0.0160783 0.9967697 0.0160783 0.0032303 -0.0160783
4090000000 0.0032281 -0.0156959 0.9967719 0.0156959 0.9967719 0.0156959 0.0032281 -0.0156959
4111000000 0.0032262 -0.0153159 0.9967738 0.0153159 0.9967738 0.0153159 0.0032262 -0.0153159
4132000000 0.0032247 -0.0149382 0.9967753 0.0149382 0.9967753 0.0149382 0.0032247 -0.0149382
4153000000 0.0032235 -0.0145629 0.9967765 0.0145629 0.9967765 0.0145629 0.0032235 -0.0145629
4174000000 0.0032228 -0.0141898 0.9967772 0.0141898 0.9967772 0.0141898 0.0032228 -0.0141898
4195000000 0.0032224 -0.0138190 0.9967776 0.0138190 0.9967776 0.0138190 0.0032224 -0.0138190
4216000000 0.0032224 -0.0134505 0.9967776 0.0134505 0.9967776 0.0134505 0.0032224 -0.0134505
4237000000 0.0032227 -0.0130841 0.9967773 0.0130841 0.9967773 0.0130841 0.0032227 -0.0130841
4258000000 0.0032234 -0.0127200 0.9967766 0.0127200 0.9967766 0.0127200 0.0032234 -0.0127200
4279000000 0.0032244 -0.0123579 0.9967756 0.0123579 0.9967756 0.0123579 0.0032244 -0.0123579
4300000000 0.0032258 -0.0119979 0.9967742 0.0119979 0.9967742 0.0119979 0.0032258 -0.0119979
4321000000 0.0032275 -0.0116401 0.9967725 0.0116401 0.9967725 0.0116401 0.0032275 -0.0116401
4342000000 0.0032296 -0.0112842 0.9967704 0.0112842 0.9967704 0.0112842 0.0032296 -0.0112842
4363000000 0.0032320 -0.0109304 0.9967680 0.0109304 0.9967680 0.0109304 0.0032320 -0.0109304
4384000000 0.0032347 -0.0105785 0.9967653 0.0105785 0.9967653 0.0105785 0.0032347 -0.0105785
4405000000 0.0032378 -0.0102286 0.9967622 0.0102286 0.9967622 0.0102286 0.0032378 -0.0102286
4426000000 0.0032412 -0.0098807 0.9967588 0.0098807 0.9967588 0.0098807 0.0032412 -0.0098807
4447000000 0.0032449 -0.0095346 0.9967551 0.0095346 0.9967551 0.0095346 0.0032449 -0.0095346
4468000000 0.0032489 -0.0091904 0.9967511 0.0091904 0.9967511 0.0091904 0.0032489 -0.0091904
4489000000 0.0032532 -0.0088481 0.9967468 0.0088481 0.9967468 0.0088481 0.0032532 -0.0088481
4510000000 0.0032578 -0.0085076 0.9967422 0.0085076 0.9967422 0.0085076 0.0032578 -0.0085076
