!Murata Part Number: GRM0115C1CR20BE01
!These Parameters are Measured in Series Mode Connection
!Data Generated on Mar 30, 2021
!       o--ll--o
!Port1            Port2
!       o------o
!Operation Temp=25[degC], DC Bias Voltage=0[V]
!Freq. Start=100[MHz] Stop=20[GHz] 401[Steps]
# Hz S RI R 50
!Freq.(Hz) S11(Real) S11(Imag) S21(Real) S21(Imag) S12(Real) S12(Imag) S22(Real) S22(Imag)
100000000 0.9998395 -0.0125646 0.0001605 0.0125646 0.0001605 0.0125646 0.9998395 -0.0125646
149750000 0.9996402 -0.0188121 0.0003598 0.0188121 0.0003598 0.0188121 0.9996402 -0.0188121
199500000 0.9993616 -0.0250557 0.0006384 0.0250557 0.0006384 0.0250557 0.9993616 -0.0250557
249250000 0.9990038 -0.0312941 0.0009962 0.0312941 0.0009962 0.0312941 0.9990038 -0.0312941
299000000 0.9985669 -0.0375258 0.0014331 0.0375258 0.0014331 0.0375258 0.9985669 -0.0375258
348750000 0.9980511 -0.0437496 0.0019489 0.0437496 0.0019489 0.0437496 0.9980511 -0.0437496
398500000 0.9974565 -0.0499643 0.0025435 0.0499643 0.0025435 0.0499643 0.9974565 -0.0499643
448250000 0.9967835 -0.0561684 0.0032165 0.0561684 0.0032165 0.0561684 0.9967835 -0.0561684
498000000 0.9960321 -0.0623607 0.0039679 0.0623607 0.0039679 0.0623607 0.9960321 -0.0623607
547750000 0.9952028 -0.0685400 0.0047972 0.0685400 0.0047972 0.0685400 0.9952028 -0.0685400
597500000 0.9942957 -0.0747050 0.0057043 0.0747050 0.0057043 0.0747050 0.9942957 -0.0747050
647250000 0.9933112 -0.0808543 0.0066888 0.0808543 0.0066888 0.0808543 0.9933112 -0.0808543
697000000 0.9922497 -0.0869867 0.0077503 0.0869867 0.0077503 0.0869867 0.9922497 -0.0869867
746750000 0.9911115 -0.0931011 0.0088885 0.0931011 0.0088885 0.0931011 0.9911115 -0.0931011
796500000 0.9898970 -0.0991960 0.0101030 0.0991960 0.0101030 0.0991960 0.9898970 -0.0991960
846250000 0.9886067 -0.1052704 0.0113933 0.1052704 0.0113933 0.1052704 0.9886067 -0.1052704
896000000 0.9872409 -0.1113230 0.0127591 0.1113230 0.0127591 0.1113230 0.9872409 -0.1113230
945750000 0.9858003 -0.1173525 0.0141997 0.1173525 0.0141997 0.1173525 0.9858003 -0.1173525
995500000 0.9842853 -0.1233579 0.0157147 0.1233579 0.0157147 0.1233579 0.9842853 -0.1233579
1045250000 0.9826963 -0.1293379 0.0173037 0.1293379 0.0173037 0.1293379 0.9826963 -0.1293379
1095000000 0.9810341 -0.1352913 0.0189659 0.1352913 0.0189659 0.1352913 0.9810341 -0.1352913
1144750000 0.9792991 -0.1412171 0.0207009 0.1412171 0.0207009 0.1412171 0.9792991 -0.1412171
1194500000 0.9774919 -0.1471140 0.0225081 0.1471140 0.0225081 0.1471140 0.9774919 -0.1471140
1244250000 0.9756131 -0.1529809 0.0243869 0.1529809 0.0243869 0.1529809 0.9756131 -0.1529809
1294000000 0.9736635 -0.1588169 0.0263365 0.1588169 0.0263365 0.1588169 0.9736635 -0.1588169
1343750000 0.9716436 -0.1646207 0.0283564 0.1646207 0.0283564 0.1646207 0.9716436 -0.1646207
1393500000 0.9695542 -0.1703913 0.0304458 0.1703913 0.0304458 0.1703913 0.9695542 -0.1703913
1443250000 0.9673959 -0.1761276 0.0326041 0.1761276 0.0326041 0.1761276 0.9673959 -0.1761276
1493000000 0.9651695 -0.1818287 0.0348305 0.1818287 0.0348305 0.1818287 0.9651695 -0.1818287
1542750000 0.9628757 -0.1874935 0.0371243 0.1874935 0.0371243 0.1874935 0.9628757 -0.1874935
1592500000 0.9605153 -0.1931210 0.0394847 0.1931210 0.0394847 0.1931210 0.9605153 -0.1931210
1642250000 0.9580890 -0.1987103 0.0419110 0.1987103 0.0419110 0.1987103 0.9580890 -0.1987103
1692000000 0.9555976 -0.2042604 0.0444024 0.2042604 0.0444024 0.2042604 0.9555976 -0.2042604
1741750000 0.9530421 -0.2097703 0.0469579 0.2097703 0.0469579 0.2097703 0.9530421 -0.2097703
1791500000 0.9504231 -0.2152392 0.0495769 0.2152392 0.0495769 0.2152392 0.9504231 -0.2152392
1841250000 0.9477415 -0.2206661 0.0522585 0.2206661 0.0522585 0.2206661 0.9477415 -0.2206661
1891000000 0.9449983 -0.2260502 0.0550017 0.2260502 0.0550017 0.2260502 0.9449983 -0.2260502
1940750000 0.9421942 -0.2313907 0.0578058 0.2313907 0.0578058 0.2313907 0.9421942 -0.2313907
1990500000 0.9393302 -0.2366867 0.0606698 0.2366867 0.0606698 0.2366867 0.9393302 -0.2366867
2040250000 0.9364072 -0.2419374 0.0635928 0.2419374 0.0635928 0.2419374 0.9364072 -0.2419374
2090000000 0.9334260 -0.2471420 0.0665740 0.2471420 0.0665740 0.2471420 0.9334260 -0.2471420
2139750000 0.9303876 -0.2522998 0.0696124 0.2522998 0.0696124 0.2522998 0.9303876 -0.2522998
2189500000 0.9272930 -0.2574100 0.0727070 0.2574100 0.0727070 0.2574100 0.9272930 -0.2574100
2239250000 0.9241430 -0.2624720 0.0758570 0.2624720 0.0758570 0.2624720 0.9241430 -0.2624720
2289000000 0.9209387 -0.2674850 0.0790613 0.2674850 0.0790613 0.2674850 0.9209387 -0.2674850
2338750000 0.9176810 -0.2724483 0.0823190 0.2724483 0.0823190 0.2724483 0.9176810 -0.2724483
2388500000 0.9143709 -0.2773613 0.0856291 0.2773613 0.0856291 0.2773613 0.9143709 -0.2773613
2438250000 0.9110093 -0.2822235 0.0889907 0.2822235 0.0889907 0.2822235 0.9110093 -0.2822235
2488000000 0.9075973 -0.2870341 0.0924027 0.2870341 0.0924027 0.2870341 0.9075973 -0.2870341
2537750000 0.9041358 -0.2917926 0.0958642 0.2917926 0.0958642 0.2917926 0.9041358 -0.2917926
2587500000 0.9006259 -0.2964985 0.0993741 0.2964985 0.0993741 0.2964985 0.9006259 -0.2964985
2637250000 0.8970686 -0.3011513 0.1029314 0.3011513 0.1029314 0.3011513 0.8970686 -0.3011513
2687000000 0.8934648 -0.3057503 0.1065352 0.3057503 0.1065352 0.3057503 0.8934648 -0.3057503
2736750000 0.8898157 -0.3102953 0.1101843 0.3102953 0.1101843 0.3102953 0.8898157 -0.3102953
2786500000 0.8861221 -0.3147856 0.1138779 0.3147856 0.1138779 0.3147856 0.8861221 -0.3147856
2836250000 0.8823852 -0.3192208 0.1176148 0.3192208 0.1176148 0.3192208 0.8823852 -0.3192208
2886000000 0.8786060 -0.3236006 0.1213940 0.3236006 0.1213940 0.3236006 0.8786060 -0.3236006
2935750000 0.8747854 -0.3279245 0.1252146 0.3279245 0.1252146 0.3279245 0.8747854 -0.3279245
2985500000 0.8709246 -0.3321921 0.1290754 0.3321921 0.1290754 0.3321921 0.8709246 -0.3321921
3035250000 0.8670245 -0.3364032 0.1329755 0.3364032 0.1329755 0.3364032 0.8670245 -0.3364032
3085000000 0.8630862 -0.3405574 0.1369138 0.3405574 0.1369138 0.3405574 0.8630862 -0.3405574
3134750000 0.8591107 -0.3446544 0.1408893 0.3446544 0.1408893 0.3446544 0.8591107 -0.3446544
3184500000 0.8550991 -0.3486939 0.1449009 0.3486939 0.1449009 0.3486939 0.8550991 -0.3486939
3234250000 0.8510523 -0.3526757 0.1489477 0.3526757 0.1489477 0.3526757 0.8510523 -0.3526757
3284000000 0.8469715 -0.3565995 0.1530285 0.3565995 0.1530285 0.3565995 0.8469715 -0.3565995
3333750000 0.8428575 -0.3604651 0.1571425 0.3604651 0.1571425 0.3604651 0.8428575 -0.3604651
3383500000 0.8387115 -0.3642723 0.1612885 0.3642723 0.1612885 0.3642723 0.8387115 -0.3642723
3433250000 0.8345344 -0.3680209 0.1654656 0.3680209 0.1654656 0.3680209 0.8345344 -0.3680209
3483000000 0.8303273 -0.3717108 0.1696727 0.3717108 0.1696727 0.3717108 0.8303273 -0.3717108
3532750000 0.8260912 -0.3753419 0.1739088 0.3753419 0.1739088 0.3753419 0.8260912 -0.3753419
3582500000 0.8218271 -0.3789140 0.1781729 0.3789140 0.1781729 0.3789140 0.8218271 -0.3789140
3632250000 0.8175360 -0.3824270 0.1824640 0.3824270 0.1824640 0.3824270 0.8175360 -0.3824270
3682000000 0.8132188 -0.3858809 0.1867812 0.3858809 0.1867812 0.3858809 0.8132188 -0.3858809
3731750000 0.8088766 -0.3892756 0.1911234 0.3892756 0.1911234 0.3892756 0.8088766 -0.3892756
3781500000 0.8045103 -0.3926111 0.1954897 0.3926111 0.1954897 0.3926111 0.8045103 -0.3926111
3831250000 0.8001210 -0.3958873 0.1998790 0.3958873 0.1998790 0.3958873 0.8001210 -0.3958873
3881000000 0.7957095 -0.3991043 0.2042905 0.3991043 0.2042905 0.3991043 0.7957095 -0.3991043
3930750000 0.7912769 -0.4022620 0.2087231 0.4022620 0.2087231 0.4022620 0.7912769 -0.4022620
3980500000 0.7868241 -0.4053606 0.2131759 0.4053606 0.2131759 0.4053606 0.7868241 -0.4053606
4030250000 0.7823520 -0.4084000 0.2176480 0.4084000 0.2176480 0.4084000 0.7823520 -0.4084000
4080000000 0.7778616 -0.4113803 0.2221384 0.4113803 0.2221384 0.4113803 0.7778616 -0.4113803
4129750000 0.7733538 -0.4143016 0.2266462 0.4143016 0.2266462 0.4143016 0.7733538 -0.4143016
4179500000 0.7688296 -0.4171641 0.2311704 0.4171641 0.2311704 0.4171641 0.7688296 -0.4171641
4229250000 0.7642898 -0.4199678 0.2357102 0.4199678 0.2357102 0.4199678 0.7642898 -0.4199678
4279000000 0.7597353 -0.4227128 0.2402647 0.4227128 0.2402647 0.4227128 0.7597353 -0.4227128
4328750000 0.7551670 -0.4253993 0.2448330 0.4253993 0.2448330 0.4253993 0.7551670 -0.4253993
4378500000 0.7505858 -0.4280275 0.2494142 0.4280275 0.2494142 0.4280275 0.7505858 -0.4280275
4428250000 0.7459927 -0.4305976 0.2540073 0.4305976 0.2540073 0.4305976 0.7459927 -0.4305976
4478000000 0.7413883 -0.4331097 0.2586117 0.4331097 0.2586117 0.4331097 0.7413883 -0.4331097
4527750000 0.7367736 -0.4355640 0.2632264 0.4355640 0.2632264 0.4355640 0.7367736 -0.4355640
4577500000 0.7321495 -0.4379607 0.2678505 0.4379607 0.2678505 0.4379607 0.7321495 -0.4379607
4627250000 0.7275167 -0.4403002 0.2724833 0.4403002 0.2724833 0.4403002 0.7275167 -0.4403002
4677000000 0.7228761 -0.4425825 0.2771239 0.4425825 0.2771239 0.4425825 0.7228761 -0.4425825
4726750000 0.7182284 -0.4448080 0.2817716 0.4448080 0.2817716 0.4448080 0.7182284 -0.4448080
4776500000 0.7135745 -0.4469770 0.2864255 0.4469770 0.2864255 0.4469770 0.7135745 -0.4469770
4826250000 0.7089152 -0.4490897 0.2910848 0.4490897 0.2910848 0.4490897 0.7089152 -0.4490897
4876000000 0.7042512 -0.4511463 0.2957488 0.4511463 0.2957488 0.4511463 0.7042512 -0.4511463
4925750000 0.6995833 -0.4531473 0.3004167 0.4531473 0.3004167 0.4531473 0.6995833 -0.4531473
4975500000 0.6949122 -0.4550928 0.3050878 0.4550928 0.3050878 0.4550928 0.6949122 -0.4550928
5025250000 0.6902386 -0.4569833 0.3097614 0.4569833 0.3097614 0.4569833 0.6902386 -0.4569833
5075000000 0.6855634 -0.4588190 0.3144366 0.4588190 0.3144366 0.4588190 0.6855634 -0.4588190
5124750000 0.6808871 -0.4606003 0.3191129 0.4606003 0.3191129 0.4606003 0.6808871 -0.4606003
5174500000 0.6762106 -0.4623275 0.3237894 0.4623275 0.3237894 0.4623275 0.6762106 -0.4623275
5224250000 0.6715344 -0.4640009 0.3284656 0.4640009 0.3284656 0.4640009 0.6715344 -0.4640009
5274000000 0.6668593 -0.4656210 0.3331407 0.4656210 0.3331407 0.4656210 0.6668593 -0.4656210
5323750000 0.6621860 -0.4671881 0.3378140 0.4671881 0.3378140 0.4671881 0.6621860 -0.4671881
5373500000 0.6575150 -0.4687026 0.3424850 0.4687026 0.3424850 0.4687026 0.6575150 -0.4687026
5423250000 0.6528471 -0.4701648 0.3471529 0.4701648 0.3471529 0.4701648 0.6528471 -0.4701648
5473000000 0.6481828 -0.4715752 0.3518172 0.4715752 0.3518172 0.4715752 0.6481828 -0.4715752
5522750000 0.6435228 -0.4729341 0.3564772 0.4729341 0.3564772 0.4729341 0.6435228 -0.4729341
5572500000 0.6388676 -0.4742420 0.3611324 0.4742420 0.3611324 0.4742420 0.6388676 -0.4742420
5622250000 0.6342179 -0.4754992 0.3657821 0.4754992 0.3657821 0.4754992 0.6342179 -0.4754992
5672000000 0.6295743 -0.4767062 0.3704257 0.4767062 0.3704257 0.4767062 0.6295743 -0.4767062
5721750000 0.6249373 -0.4778633 0.3750627 0.4778633 0.3750627 0.4778633 0.6249373 -0.4778633
5771500000 0.6203074 -0.4789711 0.3796926 0.4789711 0.3796926 0.4789711 0.6203074 -0.4789711
5821250000 0.6156853 -0.4800299 0.3843147 0.4800299 0.3843147 0.4800299 0.6156853 -0.4800299
5871000000 0.6110714 -0.4810401 0.3889286 0.4810401 0.3889286 0.4810401 0.6110714 -0.4810401
5920750000 0.6064663 -0.4820023 0.3935337 0.4820023 0.3935337 0.4820023 0.6064663 -0.4820023
5970500000 0.6018704 -0.4829168 0.3981296 0.4829168 0.3981296 0.4829168 0.6018704 -0.4829168
6020250000 0.5972843 -0.4837840 0.4027157 0.4837840 0.4027157 0.4837840 0.5972843 -0.4837840
6070000000 0.5927085 -0.4846045 0.4072915 0.4846045 0.4072915 0.4846045 0.5927085 -0.4846045
6119750000 0.5881434 -0.4853787 0.4118566 0.4853787 0.4118566 0.4853787 0.5881434 -0.4853787
6169500000 0.5835896 -0.4861069 0.4164104 0.4861069 0.4164104 0.4861069 0.5835896 -0.4861069
6219250000 0.5790473 -0.4867898 0.4209527 0.4867898 0.4209527 0.4867898 0.5790473 -0.4867898
6269000000 0.5745172 -0.4874277 0.4254828 0.4874277 0.4254828 0.4874277 0.5745172 -0.4874277
6318750000 0.5699996 -0.4880211 0.4300004 0.4880211 0.4300004 0.4880211 0.5699996 -0.4880211
6368500000 0.5654949 -0.4885704 0.4345051 0.4885704 0.4345051 0.4885704 0.5654949 -0.4885704
6418250000 0.5610035 -0.4890762 0.4389965 0.4890762 0.4389965 0.4890762 0.5610035 -0.4890762
6468000000 0.5565259 -0.4895388 0.4434741 0.4895388 0.4434741 0.4895388 0.5565259 -0.4895388
6517750000 0.5520625 -0.4899588 0.4479375 0.4899588 0.4479375 0.4899588 0.5520625 -0.4899588
6567500000 0.5476135 -0.4903366 0.4523865 0.4903366 0.4523865 0.4903366 0.5476135 -0.4903366
6617250000 0.5431794 -0.4906727 0.4568206 0.4906727 0.4568206 0.4906727 0.5431794 -0.4906727
6667000000 0.5387605 -0.4909675 0.4612395 0.4909675 0.4612395 0.4909675 0.5387605 -0.4909675
6716750000 0.5343572 -0.4912215 0.4656428 0.4912215 0.4656428 0.4912215 0.5343572 -0.4912215
6766500000 0.5299698 -0.4914352 0.4700302 0.4914352 0.4700302 0.4914352 0.5299698 -0.4914352
6816250000 0.5255987 -0.4916090 0.4744013 0.4916090 0.4744013 0.4916090 0.5255987 -0.4916090
6866000000 0.5212441 -0.4917435 0.4787559 0.4917435 0.4787559 0.4917435 0.5212441 -0.4917435
6915750000 0.5169063 -0.4918390 0.4830937 0.4918390 0.4830937 0.4918390 0.5169063 -0.4918390
6965500000 0.5125857 -0.4918960 0.4874143 0.4918960 0.4874143 0.4918960 0.5125857 -0.4918960
7015250000 0.5082825 -0.4919151 0.4917175 0.4919151 0.4917175 0.4919151 0.5082825 -0.4919151
7065000000 0.5039970 -0.4918966 0.4960030 0.4918966 0.4960030 0.4918966 0.5039970 -0.4918966
7114750000 0.4997295 -0.4918411 0.5002705 0.4918411 0.5002705 0.4918411 0.4997295 -0.4918411
7164500000 0.4954803 -0.4917489 0.5045197 0.4917489 0.5045197 0.4917489 0.4954803 -0.4917489
7214250000 0.4912495 -0.4916206 0.5087505 0.4916206 0.5087505 0.4916206 0.4912495 -0.4916206
7264000000 0.4870374 -0.4914566 0.5129626 0.4914566 0.5129626 0.4914566 0.4870374 -0.4914566
7313750000 0.4828444 -0.4912574 0.5171556 0.4912574 0.5171556 0.4912574 0.4828444 -0.4912574
7363500000 0.4786705 -0.4910234 0.5213295 0.4910234 0.5213295 0.4910234 0.4786705 -0.4910234
7413250000 0.4745160 -0.4907552 0.5254840 0.4907552 0.5254840 0.4907552 0.4745160 -0.4907552
7463000000 0.4703811 -0.4904530 0.5296189 0.4904530 0.5296189 0.4904530 0.4703811 -0.4904530
7512750000 0.4662660 -0.4901174 0.5337340 0.4901174 0.5337340 0.4901174 0.4662660 -0.4901174
7562500000 0.4621709 -0.4897489 0.5378291 0.4897489 0.5378291 0.4897489 0.4621709 -0.4897489
7612250000 0.4580961 -0.4893478 0.5419039 0.4893478 0.5419039 0.4893478 0.4580961 -0.4893478
7662000000 0.4540415 -0.4889147 0.5459585 0.4889147 0.5459585 0.4889147 0.4540415 -0.4889147
7711750000 0.4500075 -0.4884500 0.5499925 0.4884500 0.5499925 0.4884500 0.4500075 -0.4884500
7761500000 0.4459943 -0.4879540 0.5540057 0.4879540 0.5540057 0.4879540 0.4459943 -0.4879540
7811250000 0.4420018 -0.4874273 0.5579982 0.4874273 0.5579982 0.4874273 0.4420018 -0.4874273
7861000000 0.4380304 -0.4868703 0.5619696 0.4868703 0.5619696 0.4868703 0.4380304 -0.4868703
7910750000 0.4340800 -0.4862834 0.5659200 0.4862834 0.5659200 0.4862834 0.4340800 -0.4862834
7960500000 0.4301510 -0.4856670 0.5698490 0.4856670 0.5698490 0.4856670 0.4301510 -0.4856670
8010250000 0.4262433 -0.4850216 0.5737567 0.4850216 0.5737567 0.4850216 0.4262433 -0.4850216
8060000000 0.4223572 -0.4843476 0.5776428 0.4843476 0.5776428 0.4843476 0.4223572 -0.4843476
8109750000 0.4184927 -0.4836454 0.5815073 0.4836454 0.5815073 0.4836454 0.4184927 -0.4836454
8159500000 0.4146499 -0.4829154 0.5853501 0.4829154 0.5853501 0.4829154 0.4146499 -0.4829154
8209250000 0.4108290 -0.4821581 0.5891710 0.4821581 0.5891710 0.4821581 0.4108290 -0.4821581
8259000000 0.4070300 -0.4813738 0.5929700 0.4813738 0.5929700 0.4813738 0.4070300 -0.4813738
8308750000 0.4032530 -0.4805630 0.5967470 0.4805630 0.5967470 0.4805630 0.4032530 -0.4805630
8358500000 0.3994982 -0.4797260 0.6005018 0.4797260 0.6005018 0.4797260 0.3994982 -0.4797260
8408250000 0.3957655 -0.4788633 0.6042345 0.4788633 0.6042345 0.4788633 0.3957655 -0.4788633
8458000000 0.3920551 -0.4779753 0.6079449 0.4779753 0.6079449 0.4779753 0.3920551 -0.4779753
8507750000 0.3883670 -0.4770623 0.6116330 0.4770623 0.6116330 0.4770623 0.3883670 -0.4770623
8557500000 0.3847013 -0.4761248 0.6152987 0.4761248 0.6152987 0.4761248 0.3847013 -0.4761248
8607250000 0.3810580 -0.4751631 0.6189420 0.4751631 0.6189420 0.4751631 0.3810580 -0.4751631
8657000000 0.3774372 -0.4741777 0.6225628 0.4741777 0.6225628 0.4741777 0.3774372 -0.4741777
8706750000 0.3738390 -0.4731688 0.6261610 0.4731688 0.6261610 0.4731688 0.3738390 -0.4731688
8756500000 0.3702633 -0.4721370 0.6297367 0.4721370 0.6297367 0.4721370 0.3702633 -0.4721370
8806250000 0.3667103 -0.4710824 0.6332897 0.4710824 0.6332897 0.4710824 0.3667103 -0.4710824
8856000000 0.3631799 -0.4700057 0.6368201 0.4700057 0.6368201 0.4700057 0.3631799 -0.4700057
8905750000 0.3596722 -0.4689070 0.6403278 0.4689070 0.6403278 0.4689070 0.3596722 -0.4689070
8955500000 0.3561872 -0.4677867 0.6438128 0.4677867 0.6438128 0.4677867 0.3561872 -0.4677867
9005250000 0.3527249 -0.4666453 0.6472751 0.4666453 0.6472751 0.4666453 0.3527249 -0.4666453
9055000000 0.3492854 -0.4654831 0.6507146 0.4654831 0.6507146 0.4654831 0.3492854 -0.4654831
9104750000 0.3458686 -0.4643004 0.6541314 0.4643004 0.6541314 0.4643004 0.3458686 -0.4643004
9154500000 0.3424746 -0.4630976 0.6575254 0.4630976 0.6575254 0.4630976 0.3424746 -0.4630976
9204250000 0.3391033 -0.4618750 0.6608967 0.4618750 0.6608967 0.4618750 0.3391033 -0.4618750
9254000000 0.3357548 -0.4606329 0.6642452 0.4606329 0.6642452 0.4606329 0.3357548 -0.4606329
9303750000 0.3324290 -0.4593718 0.6675710 0.4593718 0.6675710 0.4593718 0.3324290 -0.4593718
9353500000 0.3291260 -0.4580919 0.6708740 0.4580919 0.6708740 0.4580919 0.3291260 -0.4580919
9403250000 0.3258457 -0.4567935 0.6741543 0.4567935 0.6741543 0.4567935 0.3258457 -0.4567935
9453000000 0.3225881 -0.4554771 0.6774119 0.4554771 0.6774119 0.4554771 0.3225881 -0.4554771
9502750000 0.3193532 -0.4541429 0.6806468 0.4541429 0.6806468 0.4541429 0.3193532 -0.4541429
9552500000 0.3161411 -0.4527912 0.6838589 0.4527912 0.6838589 0.4527912 0.3161411 -0.4527912
9602250000 0.3129515 -0.4514224 0.6870485 0.4514224 0.6870485 0.4514224 0.3129515 -0.4514224
9652000000 0.3097846 -0.4500368 0.6902154 0.4500368 0.6902154 0.4500368 0.3097846 -0.4500368
9701750000 0.3066403 -0.4486346 0.6933597 0.4486346 0.6933597 0.4486346 0.3066403 -0.4486346
9751500000 0.3035185 -0.4472162 0.6964815 0.4472162 0.6964815 0.4472162 0.3035185 -0.4472162
9801250000 0.3004193 -0.4457820 0.6995807 0.4457820 0.6995807 0.4457820 0.3004193 -0.4457820
9851000000 0.2973426 -0.4443321 0.7026574 0.4443321 0.7026574 0.4443321 0.2973426 -0.4443321
9900750000 0.2942883 -0.4428669 0.7057117 0.4428669 0.7057117 0.4428669 0.2942883 -0.4428669
9950500000 0.2912564 -0.4413867 0.7087436 0.4413867 0.7087436 0.4413867 0.2912564 -0.4413867
10000250000 0.2882469 -0.4398917 0.7117531 0.4398917 0.7117531 0.4398917 0.2882469 -0.4398917
10050000000 0.2852596 -0.4383823 0.7147404 0.4383823 0.7147404 0.4383823 0.2852596 -0.4383823
10099750000 0.2822947 -0.4368588 0.7177053 0.4368588 0.7177053 0.4368588 0.2822947 -0.4368588
10149500000 0.2793519 -0.4353213 0.7206481 0.4353213 0.7206481 0.4353213 0.2793519 -0.4353213
10199250000 0.2764313 -0.4337702 0.7235687 0.4337702 0.7235687 0.4337702 0.2764313 -0.4337702
10249000000 0.2735328 -0.4322058 0.7264672 0.4322058 0.7264672 0.4322058 0.2735328 -0.4322058
10298750000 0.2706563 -0.4306284 0.7293437 0.4306284 0.7293437 0.4306284 0.2706563 -0.4306284
10348500000 0.2678018 -0.4290381 0.7321982 0.4290381 0.7321982 0.4290381 0.2678018 -0.4290381
10398250000 0.2649692 -0.4274352 0.7350308 0.4274352 0.7350308 0.4274352 0.2649692 -0.4274352
10448000000 0.2621584 -0.4258201 0.7378416 0.4258201 0.7378416 0.4258201 0.2621584 -0.4258201
10497750000 0.2593694 -0.4241930 0.7406306 0.4241930 0.7406306 0.4241930 0.2593694 -0.4241930
