!Murata Part Number: GRM0115C1E3R0BE01
!These Parameters are Measured in Series Mode Connection
!Data Generated on Mar 30, 2021
!       o--ll--o
!Port1            Port2
!       o------o
!Operation Temp=25[degC], DC Bias Voltage=0[V]
!Freq. Start=100[MHz] Stop=9[GHz] 401[Steps]
# Hz S RI R 50
!Freq.(Hz) S11(Real) S11(Imag) S21(Real) S21(Imag) S12(Real) S12(Imag) S22(Real) S22(Imag)
100000000 0.9656205 -0.1820299 0.0343795 0.1820299 0.0343795 0.1820299 0.9656205 -0.1820299
121000000 0.9504504 -0.2168040 0.0495496 0.2168040 0.0495496 0.2168040 0.9504504 -0.2168040
142000000 0.9330031 -0.2497717 0.0669969 0.2497717 0.0669969 0.2497717 0.9330031 -0.2497717
163000000 0.9135496 -0.2807461 0.0864504 0.2807461 0.0864504 0.2807461 0.9135496 -0.2807461
184000000 0.8923745 -0.3095881 0.1076255 0.3095881 0.1076255 0.3095881 0.8923745 -0.3095881
205000000 0.8697660 -0.3362047 0.1302340 0.3362047 0.1302340 0.3362047 0.8697660 -0.3362047
226000000 0.8460087 -0.3605470 0.1539913 0.3605470 0.1539913 0.3605470 0.8460087 -0.3605470
247000000 0.8213762 -0.3826058 0.1786238 0.3826058 0.1786238 0.3826058 0.8213762 -0.3826058
268000000 0.7961259 -0.4024072 0.2038741 0.4024072 0.2038741 0.4024072 0.7961259 -0.4024072
289000000 0.7704950 -0.4200068 0.2295050 0.4200068 0.2295050 0.4200068 0.7704950 -0.4200068
310000000 0.7446979 -0.4354844 0.2553021 0.4354844 0.2553021 0.4354844 0.7446979 -0.4354844
331000000 0.7189246 -0.4489386 0.2810754 0.4489386 0.2810754 0.4489386 0.7189246 -0.4489386
352000000 0.6933406 -0.4604815 0.3066594 0.4604815 0.3066594 0.4604815 0.6933406 -0.4604815
373000000 0.6680872 -0.4702346 0.3319128 0.4702346 0.3319128 0.4702346 0.6680872 -0.4702346
394000000 0.6432825 -0.4783247 0.3567175 0.4783247 0.3567175 0.4783247 0.6432825 -0.4783247
415000000 0.6190232 -0.4848802 0.3809768 0.4848802 0.3809768 0.4848802 0.6190232 -0.4848802
436000000 0.5953866 -0.4900290 0.4046134 0.4900290 0.4046134 0.4900290 0.5953866 -0.4900290
457000000 0.5724320 -0.4938957 0.4275680 0.4938957 0.4275680 0.4938957 0.5724320 -0.4938957
478000000 0.5502033 -0.4966007 0.4497967 0.4966007 0.4497967 0.4966007 0.5502033 -0.4966007
499000000 0.5287308 -0.4982583 0.4712692 0.4982583 0.4712692 0.4982583 0.5287308 -0.4982583
520000000 0.5080333 -0.4989763 0.4919667 0.4989763 0.4919667 0.4989763 0.5080333 -0.4989763
541000000 0.4881196 -0.4988555 0.5118804 0.4988555 0.5118804 0.4988555 0.4881196 -0.4988555
562000000 0.4689904 -0.4979893 0.5310096 0.4979893 0.5310096 0.4979893 0.4689904 -0.4979893
583000000 0.4506394 -0.4964640 0.5493606 0.4964640 0.5493606 0.4964640 0.4506394 -0.4964640
604000000 0.4330552 -0.4943586 0.5669448 0.4943586 0.5669448 0.4943586 0.4330552 -0.4943586
625000000 0.4162219 -0.4917451 0.5837781 0.4917451 0.5837781 0.4917451 0.4162219 -0.4917451
646000000 0.4001200 -0.4886889 0.5998800 0.4886889 0.5998800 0.4886889 0.4001200 -0.4886889
667000000 0.3847279 -0.4852495 0.6152721 0.4852495 0.6152721 0.4852495 0.3847279 -0.4852495
688000000 0.3700217 -0.4814801 0.6299783 0.4814801 0.6299783 0.4814801 0.3700217 -0.4814801
709000000 0.3559768 -0.4774288 0.6440232 0.4774288 0.6440232 0.4774288 0.3559768 -0.4774288
730000000 0.3425672 -0.4731388 0.6574328 0.4731388 0.6574328 0.4731388 0.3425672 -0.4731388
751000000 0.3297672 -0.4686484 0.6702328 0.4686484 0.6702328 0.4686484 0.3297672 -0.4686484
772000000 0.3175505 -0.4639921 0.6824495 0.4639921 0.6824495 0.4639921 0.3175505 -0.4639921
793000000 0.3058913 -0.4592003 0.6941087 0.4592003 0.6941087 0.4592003 0.3058913 -0.4592003
814000000 0.2947642 -0.4543003 0.7052358 0.4543003 0.7052358 0.4543003 0.2947642 -0.4543003
835000000 0.2841445 -0.4493160 0.7158555 0.4493160 0.7158555 0.4493160 0.2841445 -0.4493160
856000000 0.2740078 -0.4442687 0.7259922 0.4442687 0.7259922 0.4442687 0.2740078 -0.4442687
877000000 0.2643310 -0.4391771 0.7356690 0.4391771 0.7356690 0.4391771 0.2643310 -0.4391771
898000000 0.2550914 -0.4340577 0.7449086 0.4340577 0.7449086 0.4340577 0.2550914 -0.4340577
919000000 0.2462675 -0.4289248 0.7537325 0.4289248 0.7537325 0.4289248 0.2462675 -0.4289248
940000000 0.2378386 -0.4237912 0.7621614 0.4237912 0.7621614 0.4237912 0.2378386 -0.4237912
961000000 0.2297848 -0.4186679 0.7702152 0.4186679 0.7702152 0.4186679 0.2297848 -0.4186679
982000000 0.2220874 -0.4135645 0.7779126 0.4135645 0.7779126 0.4135645 0.2220874 -0.4135645
1003000000 0.2147283 -0.4084892 0.7852717 0.4084892 0.7852717 0.4084892 0.2147283 -0.4084892
1024000000 0.2076904 -0.4034492 0.7923096 0.4034492 0.7923096 0.4034492 0.2076904 -0.4034492
1045000000 0.2009575 -0.3984508 0.7990425 0.3984508 0.7990425 0.3984508 0.2009575 -0.3984508
1066000000 0.1945142 -0.3934991 0.8054858 0.3934991 0.8054858 0.3934991 0.1945142 -0.3934991
1087000000 0.1883459 -0.3885986 0.8116541 0.3885986 0.8116541 0.3885986 0.1883459 -0.3885986
1108000000 0.1824388 -0.3837531 0.8175612 0.3837531 0.8175612 0.3837531 0.1824388 -0.3837531
1129000000 0.1767797 -0.3789657 0.8232203 0.3789657 0.8232203 0.3789657 0.1767797 -0.3789657
1150000000 0.1713562 -0.3742390 0.8286438 0.3742390 0.8286438 0.3742390 0.1713562 -0.3742390
1171000000 0.1661566 -0.3695750 0.8338434 0.3695750 0.8338434 0.3695750 0.1661566 -0.3695750
1192000000 0.1611699 -0.3649754 0.8388301 0.3649754 0.8388301 0.3649754 0.1611699 -0.3649754
1213000000 0.1563854 -0.3604414 0.8436146 0.3604414 0.8436146 0.3604414 0.1563854 -0.3604414
1234000000 0.1517933 -0.3559741 0.8482067 0.3559741 0.8482067 0.3559741 0.1517933 -0.3559741
1255000000 0.1473842 -0.3515741 0.8526158 0.3515741 0.8526158 0.3515741 0.1473842 -0.3515741
1276000000 0.1431492 -0.3472417 0.8568508 0.3472417 0.8568508 0.3472417 0.1431492 -0.3472417
1297000000 0.1390799 -0.3429772 0.8609201 0.3429772 0.8609201 0.3429772 0.1390799 -0.3429772
1318000000 0.1351684 -0.3387804 0.8648316 0.3387804 0.8648316 0.3387804 0.1351684 -0.3387804
1339000000 0.1314071 -0.3346512 0.8685929 0.3346512 0.8685929 0.3346512 0.1314071 -0.3346512
1360000000 0.1277891 -0.3305893 0.8722109 0.3305893 0.8722109 0.3305893 0.1277891 -0.3305893
1381000000 0.1243074 -0.3265942 0.8756926 0.3265942 0.8756926 0.3265942 0.1243074 -0.3265942
1402000000 0.1209559 -0.3226653 0.8790441 0.3226653 0.8790441 0.3226653 0.1209559 -0.3226653
1423000000 0.1177284 -0.3188020 0.8822716 0.3188020 0.8822716 0.3188020 0.1177284 -0.3188020
1444000000 0.1146193 -0.3150034 0.8853807 0.3150034 0.8853807 0.3150034 0.1146193 -0.3150034
1465000000 0.1116232 -0.3112688 0.8883768 0.3112688 0.8883768 0.3112688 0.1116232 -0.3112688
1486000000 0.1087349 -0.3075973 0.8912651 0.3075973 0.8912651 0.3075973 0.1087349 -0.3075973
1507000000 0.1059497 -0.3039880 0.8940503 0.3039880 0.8940503 0.3039880 0.1059497 -0.3039880
1528000000 0.1032629 -0.3004398 0.8967371 0.3004398 0.8967371 0.3004398 0.1032629 -0.3004398
1549000000 0.1006702 -0.2969519 0.8993298 0.2969519 0.8993298 0.2969519 0.1006702 -0.2969519
1570000000 0.0981675 -0.2935232 0.9018325 0.2935232 0.9018325 0.2935232 0.0981675 -0.2935232
1591000000 0.0957508 -0.2901526 0.9042492 0.2901526 0.9042492 0.2901526 0.0957508 -0.2901526
1612000000 0.0934164 -0.2868392 0.9065836 0.2868392 0.9065836 0.2868392 0.0934164 -0.2868392
1633000000 0.0911609 -0.2835819 0.9088391 0.2835819 0.9088391 0.2835819 0.0911609 -0.2835819
1654000000 0.0889808 -0.2803796 0.9110192 0.2803796 0.9110192 0.2803796 0.0889808 -0.2803796
1675000000 0.0868731 -0.2772312 0.9131269 0.2772312 0.9131269 0.2772312 0.0868731 -0.2772312
1696000000 0.0848345 -0.2741358 0.9151655 0.2741358 0.9151655 0.2741358 0.0848345 -0.2741358
1717000000 0.0828624 -0.2710922 0.9171376 0.2710922 0.9171376 0.2710922 0.0828624 -0.2710922
1738000000 0.0809540 -0.2680995 0.9190460 0.2680995 0.9190460 0.2680995 0.0809540 -0.2680995
1759000000 0.0791066 -0.2651566 0.9208934 0.2651566 0.9208934 0.2651566 0.0791066 -0.2651566
1780000000 0.0773178 -0.2622624 0.9226822 0.2622624 0.9226822 0.2622624 0.0773178 -0.2622624
1801000000 0.0755852 -0.2594160 0.9244148 0.2594160 0.9244148 0.2594160 0.0755852 -0.2594160
1822000000 0.0739067 -0.2566163 0.9260933 0.2566163 0.9260933 0.2566163 0.0739067 -0.2566163
1843000000 0.0722800 -0.2538625 0.9277200 0.2538625 0.9277200 0.2538625 0.0722800 -0.2538625
1864000000 0.0707031 -0.2511534 0.9292969 0.2511534 0.9292969 0.2511534 0.0707031 -0.2511534
1885000000 0.0691742 -0.2484882 0.9308258 0.2484882 0.9308258 0.2484882 0.0691742 -0.2484882
1906000000 0.0676913 -0.2458660 0.9323087 0.2458660 0.9323087 0.2458660 0.0676913 -0.2458660
1927000000 0.0662527 -0.2432858 0.9337473 0.2432858 0.9337473 0.2432858 0.0662527 -0.2432858
1948000000 0.0648567 -0.2407467 0.9351433 0.2407467 0.9351433 0.2407467 0.0648567 -0.2407467
1969000000 0.0635017 -0.2382478 0.9364983 0.2382478 0.9364983 0.2382478 0.0635017 -0.2382478
1990000000 0.0621861 -0.2357883 0.9378139 0.2357883 0.9378139 0.2357883 0.0621861 -0.2357883
2011000000 0.0609086 -0.2333674 0.9390914 0.2333674 0.9390914 0.2333674 0.0609086 -0.2333674
2032000000 0.0596677 -0.2309841 0.9403323 0.2309841 0.9403323 0.2309841 0.0596677 -0.2309841
2053000000 0.0584620 -0.2286378 0.9415380 0.2286378 0.9415380 0.2286378 0.0584620 -0.2286378
2074000000 0.0572903 -0.2263275 0.9427097 0.2263275 0.9427097 0.2263275 0.0572903 -0.2263275
2095000000 0.0561514 -0.2240526 0.9438486 0.2240526 0.9438486 0.2240526 0.0561514 -0.2240526
2116000000 0.0550441 -0.2218122 0.9449559 0.2218122 0.9449559 0.2218122 0.0550441 -0.2218122
2137000000 0.0539673 -0.2196056 0.9460327 0.2196056 0.9460327 0.2196056 0.0539673 -0.2196056
2158000000 0.0529199 -0.2174322 0.9470801 0.2174322 0.9470801 0.2174322 0.0529199 -0.2174322
2179000000 0.0519009 -0.2152911 0.9480991 0.2152911 0.9480991 0.2152911 0.0519009 -0.2152911
2200000000 0.0509093 -0.2131818 0.9490907 0.2131818 0.9490907 0.2131818 0.0509093 -0.2131818
2221000000 0.0499442 -0.2111035 0.9500558 0.2111035 0.9500558 0.2111035 0.0499442 -0.2111035
2242000000 0.0490046 -0.2090555 0.9509954 0.2090555 0.9509954 0.2090555 0.0490046 -0.2090555
2263000000 0.0480897 -0.2070373 0.9519103 0.2070373 0.9519103 0.2070373 0.0480897 -0.2070373
2284000000 0.0471987 -0.2050482 0.9528013 0.2050482 0.9528013 0.2050482 0.0471987 -0.2050482
2305000000 0.0463307 -0.2030875 0.9536693 0.2030875 0.9536693 0.2030875 0.0463307 -0.2030875
2326000000 0.0454851 -0.2011548 0.9545149 0.2011548 0.9545149 0.2011548 0.0454851 -0.2011548
2347000000 0.0446610 -0.1992493 0.9553390 0.1992493 0.9553390 0.1992493 0.0446610 -0.1992493
2368000000 0.0438578 -0.1973706 0.9561422 0.1973706 0.9561422 0.1973706 0.0438578 -0.1973706
2389000000 0.0430749 -0.1955181 0.9569251 0.1955181 0.9569251 0.1955181 0.0430749 -0.1955181
2410000000 0.0423114 -0.1936913 0.9576886 0.1936913 0.9576886 0.1936913 0.0423114 -0.1936913
2431000000 0.0415669 -0.1918895 0.9584331 0.1918895 0.9584331 0.1918895 0.0415669 -0.1918895
2452000000 0.0408407 -0.1901123 0.9591593 0.1901123 0.9591593 0.1901123 0.0408407 -0.1901123
2473000000 0.0401323 -0.1883592 0.9598677 0.1883592 0.9598677 0.1883592 0.0401323 -0.1883592
2494000000 0.0394410 -0.1866298 0.9605590 0.1866298 0.9605590 0.1866298 0.0394410 -0.1866298
2515000000 0.0387665 -0.1849234 0.9612335 0.1849234 0.9612335 0.1849234 0.0387665 -0.1849234
2536000000 0.0381080 -0.1832397 0.9618920 0.1832397 0.9618920 0.1832397 0.0381080 -0.1832397
2557000000 0.0374653 -0.1815782 0.9625347 0.1815782 0.9625347 0.1815782 0.0374653 -0.1815782
2578000000 0.0368377 -0.1799384 0.9631623 0.1799384 0.9631623 0.1799384 0.0368377 -0.1799384
2599000000 0.0362248 -0.1783200 0.9637752 0.1783200 0.9637752 0.1783200 0.0362248 -0.1783200
2620000000 0.0356262 -0.1767225 0.9643738 0.1767225 0.9643738 0.1767225 0.0356262 -0.1767225
2641000000 0.0350415 -0.1751454 0.9649585 0.1751454 0.9649585 0.1751454 0.0350415 -0.1751454
2662000000 0.0344702 -0.1735884 0.9655298 0.1735884 0.9655298 0.1735884 0.0344702 -0.1735884
2683000000 0.0339120 -0.1720511 0.9660880 0.1720511 0.9660880 0.1720511 0.0339120 -0.1720511
2704000000 0.0333664 -0.1705331 0.9666336 0.1705331 0.9666336 0.1705331 0.0333664 -0.1705331
2725000000 0.0328332 -0.1690340 0.9671668 0.1690340 0.9671668 0.1690340 0.0328332 -0.1690340
2746000000 0.0323119 -0.1675535 0.9676881 0.1675535 0.9676881 0.1675535 0.0323119 -0.1675535
2767000000 0.0318023 -0.1660912 0.9681977 0.1660912 0.9681977 0.1660912 0.0318023 -0.1660912
2788000000 0.0313039 -0.1646467 0.9686961 0.1646467 0.9686961 0.1646467 0.0313039 -0.1646467
2809000000 0.0308164 -0.1632197 0.9691836 0.1632197 0.9691836 0.1632197 0.0308164 -0.1632197
2830000000 0.0303397 -0.1618099 0.9696603 0.1618099 0.9696603 0.1618099 0.0303397 -0.1618099
2851000000 0.0298733 -0.1604169 0.9701267 0.1604169 0.9701267 0.1604169 0.0298733 -0.1604169
2872000000 0.0294170 -0.1590405 0.9705830 0.1590405 0.9705830 0.1590405 0.0294170 -0.1590405
2893000000 0.0289705 -0.1576803 0.9710295 0.1576803 0.9710295 0.1576803 0.0289705 -0.1576803
2914000000 0.0285335 -0.1563360 0.9714665 0.1563360 0.9714665 0.1563360 0.0285335 -0.1563360
2935000000 0.0281058 -0.1550074 0.9718942 0.1550074 0.9718942 0.1550074 0.0281058 -0.1550074
2956000000 0.0276871 -0.1536940 0.9723129 0.1536940 0.9723129 0.1536940 0.0276871 -0.1536940
2977000000 0.0272772 -0.1523958 0.9727228 0.1523958 0.9727228 0.1523958 0.0272772 -0.1523958
2998000000 0.0268759 -0.1511123 0.9731241 0.1511123 0.9731241 0.1511123 0.0268759 -0.1511123
3019000000 0.0264829 -0.1498433 0.9735171 0.1498433 0.9735171 0.1498433 0.0264829 -0.1498433
3040000000 0.0260980 -0.1485885 0.9739020 0.1485885 0.9739020 0.1485885 0.0260980 -0.1485885
3061000000 0.0257210 -0.1473477 0.9742790 0.1473477 0.9742790 0.1473477 0.0257210 -0.1473477
3082000000 0.0253517 -0.1461207 0.9746483 0.1461207 0.9746483 0.1461207 0.0253517 -0.1461207
3103000000 0.0249899 -0.1449072 0.9750101 0.1449072 0.9750101 0.1449072 0.0249899 -0.1449072
3124000000 0.0246354 -0.1437069 0.9753646 0.1437069 0.9753646 0.1437069 0.0246354 -0.1437069
3145000000 0.0242880 -0.1425196 0.9757120 0.1425196 0.9757120 0.1425196 0.0242880 -0.1425196
3166000000 0.0239476 -0.1413451 0.9760524 0.1413451 0.9760524 0.1413451 0.0239476 -0.1413451
3187000000 0.0236139 -0.1401832 0.9763861 0.1401832 0.9763861 0.1401832 0.0236139 -0.1401832
3208000000 0.0232868 -0.1390336 0.9767132 0.1390336 0.9767132 0.1390336 0.0232868 -0.1390336
3229000000 0.0229662 -0.1378961 0.9770338 0.1378961 0.9770338 0.1378961 0.0229662 -0.1378961
3250000000 0.0226518 -0.1367706 0.9773482 0.1367706 0.9773482 0.1367706 0.0226518 -0.1367706
3271000000 0.0223435 -0.1356567 0.9776565 0.1356567 0.9776565 0.1356567 0.0223435 -0.1356567
3292000000 0.0220413 -0.1345544 0.9779587 0.1345544 0.9779587 0.1345544 0.0220413 -0.1345544
3313000000 0.0217448 -0.1334634 0.9782552 0.1334634 0.9782552 0.1334634 0.0217448 -0.1334634
3334000000 0.0214540 -0.1323835 0.9785460 0.1323835 0.9785460 0.1323835 0.0214540 -0.1323835
3355000000 0.0211688 -0.1313145 0.9788312 0.1313145 0.9788312 0.1313145 0.0211688 -0.1313145
3376000000 0.0208890 -0.1302563 0.9791110 0.1302563 0.9791110 0.1302563 0.0208890 -0.1302563
3397000000 0.0206145 -0.1292087 0.9793855 0.1292087 0.9793855 0.1292087 0.0206145 -0.1292087
3418000000 0.0203452 -0.1281714 0.9796548 0.1281714 0.9796548 0.1281714 0.0203452 -0.1281714
3439000000 0.0200809 -0.1271444 0.9799191 0.1271444 0.9799191 0.1271444 0.0200809 -0.1271444
3460000000 0.0198216 -0.1261274 0.9801784 0.1261274 0.9801784 0.1261274 0.0198216 -0.1261274
3481000000 0.0195671 -0.1251204 0.9804329 0.1251204 0.9804329 0.1251204 0.0195671 -0.1251204
3502000000 0.0193172 -0.1241230 0.9806828 0.1241230 0.9806828 0.1241230 0.0193172 -0.1241230
3523000000 0.0190720 -0.1231352 0.9809280 0.1231352 0.9809280 0.1231352 0.0190720 -0.1231352
3544000000 0.0188313 -0.1221569 0.9811687 0.1221569 0.9811687 0.1221569 0.0188313 -0.1221569
3565000000 0.0185950 -0.1211878 0.9814050 0.1211878 0.9814050 0.1211878 0.0185950 -0.1211878
3586000000 0.0183629 -0.1202278 0.9816371 0.1202278 0.9816371 0.1202278 0.0183629 -0.1202278
3607000000 0.0181351 -0.1192767 0.9818649 0.1192767 0.9818649 0.1192767 0.0181351 -0.1192767
3628000000 0.0179114 -0.1183345 0.9820886 0.1183345 0.9820886 0.1183345 0.0179114 -0.1183345
3649000000 0.0176917 -0.1174010 0.9823083 0.1174010 0.9823083 0.1174010 0.0176917 -0.1174010
3670000000 0.0174759 -0.1164761 0.9825241 0.1164761 0.9825241 0.1164761 0.0174759 -0.1164761
3691000000 0.0172640 -0.1155595 0.9827360 0.1155595 0.9827360 0.1155595 0.0172640 -0.1155595
3712000000 0.0170558 -0.1146513 0.9829442 0.1146513 0.9829442 0.1146513 0.0170558 -0.1146513
3733000000 0.0168513 -0.1137511 0.9831487 0.1137511 0.9831487 0.1137511 0.0168513 -0.1137511
3754000000 0.0166504 -0.1128591 0.9833496 0.1128591 0.9833496 0.1128591 0.0166504 -0.1128591
3775000000 0.0164531 -0.1119749 0.9835469 0.1119749 0.9835469 0.1119749 0.0164531 -0.1119749
3796000000 0.0162592 -0.1110985 0.9837408 0.1110985 0.9837408 0.1110985 0.0162592 -0.1110985
3817000000 0.0160687 -0.1102298 0.9839313 0.1102298 0.9839313 0.1102298 0.0160687 -0.1102298
3838000000 0.0158814 -0.1093686 0.9841186 0.1093686 0.9841186 0.1093686 0.0158814 -0.1093686
3859000000 0.0156975 -0.1085149 0.9843025 0.1085149 0.9843025 0.1085149 0.0156975 -0.1085149
3880000000 0.0155167 -0.1076685 0.9844833 0.1076685 0.9844833 0.1076685 0.0155167 -0.1076685
3901000000 0.0153390 -0.1068293 0.9846610 0.1068293 0.9846610 0.1068293 0.0153390 -0.1068293
3922000000 0.0151643 -0.1059972 0.9848357 0.1059972 0.9848357 0.1059972 0.0151643 -0.1059972
3943000000 0.0149926 -0.1051721 0.9850074 0.1051721 0.9850074 0.1051721 0.0149926 -0.1051721
3964000000 0.0148239 -0.1043539 0.9851761 0.1043539 0.9851761 0.1043539 0.0148239 -0.1043539
3985000000 0.0146580 -0.1035425 0.9853420 0.1035425 0.9853420 0.1035425 0.0146580 -0.1035425
4006000000 0.0144949 -0.1027378 0.9855051 0.1027378 0.9855051 0.1027378 0.0144949 -0.1027378
4027000000 0.0143346 -0.1019397 0.9856654 0.1019397 0.9856654 0.1019397 0.0143346 -0.1019397
4048000000 0.0141770 -0.1011481 0.9858230 0.1011481 0.9858230 0.1011481 0.0141770 -0.1011481
4069000000 0.0140220 -0.1003629 0.9859780 0.1003629 0.9859780 0.1003629 0.0140220 -0.1003629
4090000000 0.0138696 -0.0995841 0.9861304 0.0995841 0.9861304 0.0995841 0.0138696 -0.0995841
4111000000 0.0137198 -0.0988114 0.9862802 0.0988114 0.9862802 0.0988114 0.0137198 -0.0988114
4132000000 0.0135724 -0.0980449 0.9864276 0.0980449 0.9864276 0.0980449 0.0135724 -0.0980449
4153000000 0.0134275 -0.0972845 0.9865725 0.0972845 0.9865725 0.0972845 0.0134275 -0.0972845
4174000000 0.0132850 -0.0965300 0.9867150 0.0965300 0.9867150 0.0965300 0.0132850 -0.0965300
4195000000 0.0131449 -0.0957814 0.9868551 0.0957814 0.9868551 0.0957814 0.0131449 -0.0957814
4216000000 0.0130070 -0.0950386 0.9869930 0.0950386 0.9869930 0.0950386 0.0130070 -0.0950386
4237000000 0.0128715 -0.0943016 0.9871285 0.0943016 0.9871285 0.0943016 0.0128715 -0.0943016
4258000000 0.0127381 -0.0935701 0.9872619 0.0935701 0.9872619 0.0935701 0.0127381 -0.0935701
4279000000 0.0126069 -0.0928443 0.9873931 0.0928443 0.9873931 0.0928443 0.0126069 -0.0928443
4300000000 0.0124779 -0.0921239 0.9875221 0.0921239 0.9875221 0.0921239 0.0124779 -0.0921239
4321000000 0.0123510 -0.0914089 0.9876490 0.0914089 0.9876490 0.0914089 0.0123510 -0.0914089
4342000000 0.0122261 -0.0906993 0.9877739 0.0906993 0.9877739 0.0906993 0.0122261 -0.0906993
4363000000 0.0121033 -0.0899949 0.9878967 0.0899949 0.9878967 0.0899949 0.0121033 -0.0899949
4384000000 0.0119824 -0.0892957 0.9880176 0.0892957 0.9880176 0.0892957 0.0119824 -0.0892957
4405000000 0.0118635 -0.0886017 0.9881365 0.0886017 0.9881365 0.0886017 0.0118635 -0.0886017
4426000000 0.0117466 -0.0879127 0.9882534 0.0879127 0.9882534 0.0879127 0.0117466 -0.0879127
4447000000 0.0116315 -0.0872286 0.9883685 0.0872286 0.9883685 0.0872286 0.0116315 -0.0872286
4468000000 0.0115182 -0.0865496 0.9884818 0.0865496 0.9884818 0.0865496 0.0115182 -0.0865496
4489000000 0.0114068 -0.0858753 0.9885932 0.0858753 0.9885932 0.0858753 0.0114068 -0.0858753
4510000000 0.0112972 -0.0852059 0.9887028 0.0852059 0.9887028 0.0852059 0.0112972 -0.0852059
