!Murata Part Number: GRM0115C1E5R6BE01
!These Parameters are Measured in Series Mode Connection
!Data Generated on Mar 30, 2021
!       o--ll--o
!Port1            Port2
!       o------o
!Operation Temp=25[degC], DC Bias Voltage=0[V]
!Freq. Start=100[MHz] Stop=9[GHz] 401[Steps]
# Hz S RI R 50
!Freq.(Hz) S11(Real) S11(Imag) S21(Real) S21(Imag) S12(Real) S12(Imag) S22(Real) S22(Imag)
100000000 0.8896524 -0.3130629 0.1103476 0.3130629 0.1103476 0.3130629 0.8896524 -0.3130629
121000000 0.8462875 -0.3603583 0.1537125 0.3603583 0.1537125 0.3603583 0.8462875 -0.3603583
142000000 0.7998711 -0.3997266 0.2001289 0.3997266 0.2001289 0.3997266 0.7998711 -0.3997266
163000000 0.7520164 -0.4314163 0.2479836 0.4314163 0.2479836 0.4314163 0.7520164 -0.4314163
184000000 0.7040679 -0.4559785 0.2959321 0.4559785 0.2959321 0.4559785 0.7040679 -0.4559785
205000000 0.6570744 -0.4741480 0.3429256 0.4741480 0.3429256 0.4741480 0.6570744 -0.4741480
226000000 0.6118010 -0.4867442 0.3881990 0.4867442 0.3881990 0.4867442 0.6118010 -0.4867442
247000000 0.5687628 -0.4945952 0.4312372 0.4945952 0.4312372 0.4945952 0.5687628 -0.4945952
268000000 0.5282698 -0.4984878 0.4717302 0.4984878 0.4717302 0.4984878 0.5282698 -0.4984878
289000000 0.4904715 -0.4991376 0.5095285 0.4991376 0.5095285 0.4991376 0.4904715 -0.4991376
310000000 0.4553990 -0.4971754 0.5446010 0.4971754 0.5446010 0.4971754 0.4553990 -0.4971754
331000000 0.4229997 -0.4931433 0.5770003 0.4931433 0.5770003 0.4931433 0.4229997 -0.4931433
352000000 0.3931654 -0.4874996 0.6068346 0.4874996 0.6068346 0.4874996 0.3931654 -0.4874996
373000000 0.3657535 -0.4806251 0.6342465 0.4806251 0.6342465 0.4806251 0.3657535 -0.4806251
394000000 0.3406029 -0.4728331 0.6593971 0.4728331 0.6593971 0.4728331 0.3406029 -0.4728331
415000000 0.3175449 -0.4643785 0.6824551 0.4643785 0.6824551 0.4643785 0.3175449 -0.4643785
436000000 0.2964115 -0.4554668 0.7035885 0.4554668 0.7035885 0.4554668 0.2964115 -0.4554668
457000000 0.2770396 -0.4462625 0.7229604 0.4462625 0.7229604 0.4462625 0.2770396 -0.4462625
478000000 0.2592749 -0.4368960 0.7407251 0.4368960 0.7407251 0.4368960 0.2592749 -0.4368960
499000000 0.2429730 -0.4274703 0.7570270 0.4274703 0.7570270 0.4274703 0.2429730 -0.4274703
520000000 0.2280007 -0.4180654 0.7719993 0.4180654 0.7719993 0.4180654 0.2280007 -0.4180654
541000000 0.2142355 -0.4087434 0.7857645 0.4087434 0.7857645 0.4087434 0.2142355 -0.4087434
562000000 0.2015663 -0.3995512 0.7984337 0.3995512 0.7984337 0.3995512 0.2015663 -0.3995512
583000000 0.1898917 -0.3905244 0.8101083 0.3905244 0.8101083 0.3905244 0.1898917 -0.3905244
604000000 0.1791202 -0.3816887 0.8208798 0.3816887 0.8208798 0.3816887 0.1791202 -0.3816887
625000000 0.1691692 -0.3730627 0.8308308 0.3730627 0.8308308 0.3730627 0.1691692 -0.3730627
646000000 0.1599642 -0.3646587 0.8400358 0.3646587 0.8400358 0.3646587 0.1599642 -0.3646587
667000000 0.1514379 -0.3564844 0.8485621 0.3564844 0.8485621 0.3564844 0.1514379 -0.3564844
688000000 0.1435300 -0.3485439 0.8564700 0.3485439 0.8564700 0.3485439 0.1435300 -0.3485439
709000000 0.1361859 -0.3408382 0.8638141 0.3408382 0.8638141 0.3408382 0.1361859 -0.3408382
730000000 0.1293565 -0.3333663 0.8706435 0.3333663 0.8706435 0.3333663 0.1293565 -0.3333663
751000000 0.1229975 -0.3261253 0.8770025 0.3261253 0.8770025 0.3261253 0.1229975 -0.3261253
772000000 0.1170691 -0.3191111 0.8829309 0.3191111 0.8829309 0.3191111 0.1170691 -0.3191111
793000000 0.1115353 -0.3123187 0.8884647 0.3123187 0.8884647 0.3123187 0.1115353 -0.3123187
814000000 0.1063635 -0.3057423 0.8936365 0.3057423 0.8936365 0.3057423 0.1063635 -0.3057423
835000000 0.1015242 -0.2993757 0.8984758 0.2993757 0.8984758 0.2993757 0.1015242 -0.2993757
856000000 0.0969908 -0.2932122 0.9030092 0.2932122 0.9030092 0.2932122 0.0969908 -0.2932122
877000000 0.0927391 -0.2872452 0.9072609 0.2872452 0.9072609 0.2872452 0.0927391 -0.2872452
898000000 0.0887472 -0.2814679 0.9112528 0.2814679 0.9112528 0.2814679 0.0887472 -0.2814679
919000000 0.0849952 -0.2758733 0.9150048 0.2758733 0.9150048 0.2758733 0.0849952 -0.2758733
940000000 0.0814650 -0.2704549 0.9185350 0.2704549 0.9185350 0.2704549 0.0814650 -0.2704549
961000000 0.0781400 -0.2652059 0.9218600 0.2652059 0.9218600 0.2652059 0.0781400 -0.2652059
982000000 0.0750051 -0.2601198 0.9249949 0.2601198 0.9249949 0.2601198 0.0750051 -0.2601198
1003000000 0.0720468 -0.2551903 0.9279532 0.2551903 0.9279532 0.2551903 0.0720468 -0.2551903
1024000000 0.0692523 -0.2504114 0.9307477 0.2504114 0.9307477 0.2504114 0.0692523 -0.2504114
1045000000 0.0666101 -0.2457769 0.9333899 0.2457769 0.9333899 0.2457769 0.0666101 -0.2457769
1066000000 0.0641098 -0.2412814 0.9358902 0.2412814 0.9358902 0.2412814 0.0641098 -0.2412814
1087000000 0.0617417 -0.2369191 0.9382583 0.2369191 0.9382583 0.2369191 0.0617417 -0.2369191
1108000000 0.0594969 -0.2326849 0.9405031 0.2326849 0.9405031 0.2326849 0.0594969 -0.2326849
1129000000 0.0573672 -0.2285736 0.9426328 0.2285736 0.9426328 0.2285736 0.0573672 -0.2285736
1150000000 0.0553451 -0.2245804 0.9446549 0.2245804 0.9446549 0.2245804 0.0553451 -0.2245804
1171000000 0.0534236 -0.2207007 0.9465764 0.2207007 0.9465764 0.2207007 0.0534236 -0.2207007
1192000000 0.0515965 -0.2169299 0.9484035 0.2169299 0.9484035 0.2169299 0.0515965 -0.2169299
1213000000 0.0498578 -0.2132638 0.9501422 0.2132638 0.9501422 0.2132638 0.0498578 -0.2132638
1234000000 0.0482019 -0.2096983 0.9517981 0.2096983 0.9517981 0.2096983 0.0482019 -0.2096983
1255000000 0.0466240 -0.2062295 0.9533760 0.2062295 0.9533760 0.2062295 0.0466240 -0.2062295
1276000000 0.0451193 -0.2028537 0.9548807 0.2028537 0.9548807 0.2028537 0.0451193 -0.2028537
1297000000 0.0436834 -0.1995673 0.9563166 0.1995673 0.9563166 0.1995673 0.0436834 -0.1995673
1318000000 0.0423123 -0.1963670 0.9576877 0.1963670 0.9576877 0.1963670 0.0423123 -0.1963670
1339000000 0.0410023 -0.1932494 0.9589977 0.1932494 0.9589977 0.1932494 0.0410023 -0.1932494
1360000000 0.0397499 -0.1902115 0.9602501 0.1902115 0.9602501 0.1902115 0.0397499 -0.1902115
1381000000 0.0385519 -0.1872503 0.9614481 0.1872503 0.9614481 0.1872503 0.0385519 -0.1872503
1402000000 0.0374052 -0.1843629 0.9625948 0.1843629 0.9625948 0.1843629 0.0374052 -0.1843629
1423000000 0.0363070 -0.1815467 0.9636930 0.1815467 0.9636930 0.1815467 0.0363070 -0.1815467
1444000000 0.0352547 -0.1787991 0.9647453 0.1787991 0.9647453 0.1787991 0.0352547 -0.1787991
1465000000 0.0342458 -0.1761177 0.9657542 0.1761177 0.9657542 0.1761177 0.0342458 -0.1761177
1486000000 0.0332781 -0.1734999 0.9667219 0.1734999 0.9667219 0.1734999 0.0332781 -0.1734999
1507000000 0.0323494 -0.1709437 0.9676506 0.1709437 0.9676506 0.1709437 0.0323494 -0.1709437
1528000000 0.0314576 -0.1684467 0.9685424 0.1684467 0.9685424 0.1684467 0.0314576 -0.1684467
1549000000 0.0306010 -0.1660071 0.9693990 0.1660071 0.9693990 0.1660071 0.0306010 -0.1660071
1570000000 0.0297776 -0.1636227 0.9702224 0.1636227 0.9702224 0.1636227 0.0297776 -0.1636227
1591000000 0.0289859 -0.1612917 0.9710141 0.1612917 0.9710141 0.1612917 0.0289859 -0.1612917
1612000000 0.0282244 -0.1590123 0.9717756 0.1590123 0.9717756 0.1590123 0.0282244 -0.1590123
1633000000 0.0274914 -0.1567827 0.9725086 0.1567827 0.9725086 0.1567827 0.0274914 -0.1567827
1654000000 0.0267858 -0.1546013 0.9732142 0.1546013 0.9732142 0.1546013 0.0267858 -0.1546013
1675000000 0.0261061 -0.1524665 0.9738939 0.1524665 0.9738939 0.1524665 0.0261061 -0.1524665
1696000000 0.0254511 -0.1503768 0.9745489 0.1503768 0.9745489 0.1503768 0.0254511 -0.1503768
1717000000 0.0248198 -0.1483307 0.9751802 0.1483307 0.9751802 0.1483307 0.0248198 -0.1483307
1738000000 0.0242109 -0.1463268 0.9757891 0.1463268 0.9757891 0.1463268 0.0242109 -0.1463268
1759000000 0.0236235 -0.1443637 0.9763765 0.1443637 0.9763765 0.1443637 0.0236235 -0.1443637
1780000000 0.0230567 -0.1424402 0.9769433 0.1424402 0.9769433 0.1424402 0.0230567 -0.1424402
1801000000 0.0225094 -0.1405550 0.9774906 0.1405550 0.9774906 0.1405550 0.0225094 -0.1405550
1822000000 0.0219809 -0.1387069 0.9780191 0.1387069 0.9780191 0.1387069 0.0219809 -0.1387069
1843000000 0.0214703 -0.1368948 0.9785297 0.1368948 0.9785297 0.1368948 0.0214703 -0.1368948
1864000000 0.0209769 -0.1351176 0.9790231 0.1351176 0.9790231 0.1351176 0.0209769 -0.1351176
1885000000 0.0204999 -0.1333743 0.9795001 0.1333743 0.9795001 0.1333743 0.0204999 -0.1333743
1906000000 0.0200386 -0.1316637 0.9799614 0.1316637 0.9799614 0.1316637 0.0200386 -0.1316637
1927000000 0.0195924 -0.1299850 0.9804076 0.1299850 0.9804076 0.1299850 0.0195924 -0.1299850
1948000000 0.0191606 -0.1283372 0.9808394 0.1283372 0.9808394 0.1283372 0.0191606 -0.1283372
1969000000 0.0187426 -0.1267194 0.9812574 0.1267194 0.9812574 0.1267194 0.0187426 -0.1267194
1990000000 0.0183380 -0.1251307 0.9816620 0.1251307 0.9816620 0.1251307 0.0183380 -0.1251307
2011000000 0.0179461 -0.1235703 0.9820539 0.1235703 0.9820539 0.1235703 0.0179461 -0.1235703
2032000000 0.0175664 -0.1220374 0.9824336 0.1220374 0.9824336 0.1220374 0.0175664 -0.1220374
2053000000 0.0171985 -0.1205312 0.9828015 0.1205312 0.9828015 0.1205312 0.0171985 -0.1205312
2074000000 0.0168420 -0.1190509 0.9831580 0.1190509 0.9831580 0.1190509 0.0168420 -0.1190509
2095000000 0.0164962 -0.1175959 0.9835038 0.1175959 0.9835038 0.1175959 0.0164962 -0.1175959
2116000000 0.0161610 -0.1161654 0.9838390 0.1161654 0.9838390 0.1161654 0.0161610 -0.1161654
2137000000 0.0158358 -0.1147588 0.9841642 0.1147588 0.9841642 0.1147588 0.0158358 -0.1147588
2158000000 0.0155202 -0.1133754 0.9844798 0.1133754 0.9844798 0.1133754 0.0155202 -0.1133754
2179000000 0.0152140 -0.1120146 0.9847860 0.1120146 0.9847860 0.1120146 0.0152140 -0.1120146
2200000000 0.0149168 -0.1106758 0.9850832 0.1106758 0.9850832 0.1106758 0.0149168 -0.1106758
2221000000 0.0146282 -0.1093584 0.9853718 0.1093584 0.9853718 0.1093584 0.0146282 -0.1093584
2242000000 0.0143479 -0.1080618 0.9856521 0.1080618 0.9856521 0.1080618 0.0143479 -0.1080618
2263000000 0.0140757 -0.1067856 0.9859243 0.1067856 0.9859243 0.1067856 0.0140757 -0.1067856
2284000000 0.0138113 -0.1055291 0.9861887 0.1055291 0.9861887 0.1055291 0.0138113 -0.1055291
2305000000 0.0135543 -0.1042919 0.9864457 0.1042919 0.9864457 0.1042919 0.0135543 -0.1042919
2326000000 0.0133045 -0.1030734 0.9866955 0.1030734 0.9866955 0.1030734 0.0133045 -0.1030734
2347000000 0.0130617 -0.1018733 0.9869383 0.1018733 0.9869383 0.1018733 0.0130617 -0.1018733
2368000000 0.0128256 -0.1006910 0.9871744 0.1006910 0.9871744 0.1006910 0.0128256 -0.1006910
2389000000 0.0125960 -0.0995261 0.9874040 0.0995261 0.9874040 0.0995261 0.0125960 -0.0995261
2410000000 0.0123727 -0.0983782 0.9876273 0.0983782 0.9876273 0.0983782 0.0123727 -0.0983782
2431000000 0.0121554 -0.0972469 0.9878446 0.0972469 0.9878446 0.0972469 0.0121554 -0.0972469
2452000000 0.0119440 -0.0961317 0.9880560 0.0961317 0.9880560 0.0961317 0.0119440 -0.0961317
2473000000 0.0117383 -0.0950322 0.9882617 0.0950322 0.9882617 0.0950322 0.0117383 -0.0950322
2494000000 0.0115381 -0.0939482 0.9884619 0.0939482 0.9884619 0.0939482 0.0115381 -0.0939482
2515000000 0.0113432 -0.0928792 0.9886568 0.0928792 0.9886568 0.0928792 0.0113432 -0.0928792
2536000000 0.0111535 -0.0918248 0.9888465 0.0918248 0.9888465 0.0918248 0.0111535 -0.0918248
2557000000 0.0109687 -0.0907848 0.9890313 0.0907848 0.9890313 0.0907848 0.0109687 -0.0907848
2578000000 0.0107888 -0.0897588 0.9892112 0.0897588 0.9892112 0.0897588 0.0107888 -0.0897588
2599000000 0.0106135 -0.0887464 0.9893865 0.0887464 0.9893865 0.0887464 0.0106135 -0.0887464
2620000000 0.0104427 -0.0877474 0.9895573 0.0877474 0.9895573 0.0877474 0.0104427 -0.0877474
2641000000 0.0102764 -0.0867614 0.9897236 0.0867614 0.9897236 0.0867614 0.0102764 -0.0867614
2662000000 0.0101143 -0.0857882 0.9898857 0.0857882 0.9898857 0.0857882 0.0101143 -0.0857882
2683000000 0.0099563 -0.0848275 0.9900437 0.0848275 0.9900437 0.0848275 0.0099563 -0.0848275
2704000000 0.0098024 -0.0838789 0.9901976 0.0838789 0.9901976 0.0838789 0.0098024 -0.0838789
2725000000 0.0096523 -0.0829423 0.9903477 0.0829423 0.9903477 0.0829423 0.0096523 -0.0829423
2746000000 0.0095060 -0.0820174 0.9904940 0.0820174 0.9904940 0.0820174 0.0095060 -0.0820174
2767000000 0.0093633 -0.0811038 0.9906367 0.0811038 0.9906367 0.0811038 0.0093633 -0.0811038
2788000000 0.0092242 -0.0802014 0.9907758 0.0802014 0.9907758 0.0802014 0.0092242 -0.0802014
2809000000 0.0090886 -0.0793100 0.9909114 0.0793100 0.9909114 0.0793100 0.0090886 -0.0793100
2830000000 0.0089563 -0.0784292 0.9910437 0.0784292 0.9910437 0.0784292 0.0089563 -0.0784292
2851000000 0.0088272 -0.0775589 0.9911728 0.0775589 0.9911728 0.0775589 0.0088272 -0.0775589
2872000000 0.0087014 -0.0766988 0.9912986 0.0766988 0.9912986 0.0766988 0.0087014 -0.0766988
2893000000 0.0085786 -0.0758487 0.9914214 0.0758487 0.9914214 0.0758487 0.0085786 -0.0758487
2914000000 0.0084588 -0.0750085 0.9915412 0.0750085 0.9915412 0.0750085 0.0084588 -0.0750085
2935000000 0.0083419 -0.0741778 0.9916581 0.0741778 0.9916581 0.0741778 0.0083419 -0.0741778
2956000000 0.0082278 -0.0733566 0.9917722 0.0733566 0.9917722 0.0733566 0.0082278 -0.0733566
2977000000 0.0081165 -0.0725447 0.9918835 0.0725447 0.9918835 0.0725447 0.0081165 -0.0725447
2998000000 0.0080079 -0.0717417 0.9919921 0.0717417 0.9919921 0.0717417 0.0080079 -0.0717417
3019000000 0.0079019 -0.0709476 0.9920981 0.0709476 0.9920981 0.0709476 0.0079019 -0.0709476
3040000000 0.0077984 -0.0701622 0.9922016 0.0701622 0.9922016 0.0701622 0.0077984 -0.0701622
3061000000 0.0076975 -0.0693853 0.9923025 0.0693853 0.9923025 0.0693853 0.0076975 -0.0693853
3082000000 0.0075989 -0.0686168 0.9924011 0.0686168 0.9924011 0.0686168 0.0075989 -0.0686168
3103000000 0.0075026 -0.0678564 0.9924974 0.0678564 0.9924974 0.0678564 0.0075026 -0.0678564
3124000000 0.0074087 -0.0671040 0.9925913 0.0671040 0.9925913 0.0671040 0.0074087 -0.0671040
3145000000 0.0073170 -0.0663595 0.9926830 0.0663595 0.9926830 0.0663595 0.0073170 -0.0663595
3166000000 0.0072275 -0.0656227 0.9927725 0.0656227 0.9927725 0.0656227 0.0072275 -0.0656227
3187000000 0.0071400 -0.0648935 0.9928600 0.0648935 0.9928600 0.0648935 0.0071400 -0.0648935
3208000000 0.0070547 -0.0641716 0.9929453 0.0641716 0.9929453 0.0641716 0.0070547 -0.0641716
3229000000 0.0069713 -0.0634571 0.9930287 0.0634571 0.9930287 0.0634571 0.0069713 -0.0634571
3250000000 0.0068900 -0.0627497 0.9931100 0.0627497 0.9931100 0.0627497 0.0068900 -0.0627497
3271000000 0.0068105 -0.0620493 0.9931895 0.0620493 0.9931895 0.0620493 0.0068105 -0.0620493
3292000000 0.0067329 -0.0613558 0.9932671 0.0613558 0.9932671 0.0613558 0.0067329 -0.0613558
3313000000 0.0066572 -0.0606691 0.9933428 0.0606691 0.9933428 0.0606691 0.0066572 -0.0606691
3334000000 0.0065832 -0.0599890 0.9934168 0.0599890 0.9934168 0.0599890 0.0065832 -0.0599890
3355000000 0.0065110 -0.0593154 0.9934890 0.0593154 0.9934890 0.0593154 0.0065110 -0.0593154
3376000000 0.0064405 -0.0586481 0.9935595 0.0586481 0.9935595 0.0586481 0.0064405 -0.0586481
3397000000 0.0063716 -0.0579872 0.9936284 0.0579872 0.9936284 0.0579872 0.0063716 -0.0579872
3418000000 0.0063044 -0.0573324 0.9936956 0.0573324 0.9936956 0.0573324 0.0063044 -0.0573324
3439000000 0.0062387 -0.0566837 0.9937613 0.0566837 0.9937613 0.0566837 0.0062387 -0.0566837
3460000000 0.0061746 -0.0560409 0.9938254 0.0560409 0.9938254 0.0560409 0.0061746 -0.0560409
3481000000 0.0061120 -0.0554040 0.9938880 0.0554040 0.9938880 0.0554040 0.0061120 -0.0554040
3502000000 0.0060509 -0.0547728 0.9939491 0.0547728 0.9939491 0.0547728 0.0060509 -0.0547728
3523000000 0.0059913 -0.0541472 0.9940087 0.0541472 0.9940087 0.0541472 0.0059913 -0.0541472
3544000000 0.0059330 -0.0535272 0.9940670 0.0535272 0.9940670 0.0535272 0.0059330 -0.0535272
3565000000 0.0058762 -0.0529126 0.9941238 0.0529126 0.9941238 0.0529126 0.0058762 -0.0529126
3586000000 0.0058207 -0.0523034 0.9941793 0.0523034 0.9941793 0.0523034 0.0058207 -0.0523034
3607000000 0.0057665 -0.0516995 0.9942335 0.0516995 0.9942335 0.0516995 0.0057665 -0.0516995
3628000000 0.0057136 -0.0511007 0.9942864 0.0511007 0.9942864 0.0511007 0.0057136 -0.0511007
3649000000 0.0056620 -0.0505070 0.9943380 0.0505070 0.9943380 0.0505070 0.0056620 -0.0505070
3670000000 0.0056116 -0.0499184 0.9943884 0.0499184 0.9943884 0.0499184 0.0056116 -0.0499184
3691000000 0.0055625 -0.0493346 0.9944375 0.0493346 0.9944375 0.0493346 0.0055625 -0.0493346
3712000000 0.0055145 -0.0487557 0.9944855 0.0487557 0.9944855 0.0487557 0.0055145 -0.0487557
3733000000 0.0054677 -0.0481815 0.9945323 0.0481815 0.9945323 0.0481815 0.0054677 -0.0481815
3754000000 0.0054221 -0.0476121 0.9945779 0.0476121 0.9945779 0.0476121 0.0054221 -0.0476121
3775000000 0.0053776 -0.0470472 0.9946224 0.0470472 0.9946224 0.0470472 0.0053776 -0.0470472
3796000000 0.0053341 -0.0464869 0.9946659 0.0464869 0.9946659 0.0464869 0.0053341 -0.0464869
3817000000 0.0052918 -0.0459310 0.9947082 0.0459310 0.9947082 0.0459310 0.0052918 -0.0459310
3838000000 0.0052505 -0.0453795 0.9947495 0.0453795 0.9947495 0.0453795 0.0052505 -0.0453795
3859000000 0.0052102 -0.0448324 0.9947898 0.0448324 0.9947898 0.0448324 0.0052102 -0.0448324
3880000000 0.0051710 -0.0442895 0.9948290 0.0442895 0.9948290 0.0442895 0.0051710 -0.0442895
3901000000 0.0051327 -0.0437507 0.9948673 0.0437507 0.9948673 0.0437507 0.0051327 -0.0437507
3922000000 0.0050954 -0.0432161 0.9949046 0.0432161 0.9949046 0.0432161 0.0050954 -0.0432161
3943000000 0.0050591 -0.0426856 0.9949409 0.0426856 0.9949409 0.0426856 0.0050591 -0.0426856
3964000000 0.0050237 -0.0421590 0.9949763 0.0421590 0.9949763 0.0421590 0.0050237 -0.0421590
3985000000 0.0049892 -0.0416364 0.9950108 0.0416364 0.9950108 0.0416364 0.0049892 -0.0416364
4006000000 0.0049556 -0.0411176 0.9950444 0.0411176 0.9950444 0.0411176 0.0049556 -0.0411176
4027000000 0.0049229 -0.0406027 0.9950771 0.0406027 0.9950771 0.0406027 0.0049229 -0.0406027
4048000000 0.0048911 -0.0400915 0.9951089 0.0400915 0.9951089 0.0400915 0.0048911 -0.0400915
4069000000 0.0048601 -0.0395840 0.9951399 0.0395840 0.9951399 0.0395840 0.0048601 -0.0395840
4090000000 0.0048300 -0.0390801 0.9951700 0.0390801 0.9951700 0.0390801 0.0048300 -0.0390801
4111000000 0.0048007 -0.0385798 0.9951993 0.0385798 0.9951993 0.0385798 0.0048007 -0.0385798
4132000000 0.0047722 -0.0380831 0.9952278 0.0380831 0.9952278 0.0380831 0.0047722 -0.0380831
4153000000 0.0047445 -0.0375898 0.9952555 0.0375898 0.9952555 0.0375898 0.0047445 -0.0375898
4174000000 0.0047175 -0.0371000 0.9952825 0.0371000 0.9952825 0.0371000 0.0047175 -0.0371000
4195000000 0.0046914 -0.0366136 0.9953086 0.0366136 0.9953086 0.0366136 0.0046914 -0.0366136
4216000000 0.0046659 -0.0361305 0.9953341 0.0361305 0.9953341 0.0361305 0.0046659 -0.0361305
4237000000 0.0046413 -0.0356506 0.9953587 0.0356506 0.9953587 0.0356506 0.0046413 -0.0356506
4258000000 0.0046173 -0.0351740 0.9953827 0.0351740 0.9953827 0.0351740 0.0046173 -0.0351740
4279000000 0.0045941 -0.0347006 0.9954059 0.0347006 0.9954059 0.0347006 0.0045941 -0.0347006
4300000000 0.0045715 -0.0342304 0.9954285 0.0342304 0.9954285 0.0342304 0.0045715 -0.0342304
4321000000 0.0045497 -0.0337632 0.9954503 0.0337632 0.9954503 0.0337632 0.0045497 -0.0337632
4342000000 0.0045285 -0.0332991 0.9954715 0.0332991 0.9954715 0.0332991 0.0045285 -0.0332991
4363000000 0.0045080 -0.0328380 0.9954920 0.0328380 0.9954920 0.0328380 0.0045080 -0.0328380
4384000000 0.0044881 -0.0323799 0.9955119 0.0323799 0.9955119 0.0323799 0.0044881 -0.0323799
4405000000 0.0044689 -0.0319247 0.9955311 0.0319247 0.9955311 0.0319247 0.0044689 -0.0319247
4426000000 0.0044503 -0.0314724 0.9955497 0.0314724 0.9955497 0.0314724 0.0044503 -0.0314724
4447000000 0.0044324 -0.0310230 0.9955676 0.0310230 0.9955676 0.0310230 0.0044324 -0.0310230
4468000000 0.0044151 -0.0305764 0.9955849 0.0305764 0.9955849 0.0305764 0.0044151 -0.0305764
4489000000 0.0043983 -0.0301325 0.9956017 0.0301325 0.9956017 0.0301325 0.0043983 -0.0301325
4510000000 0.0043822 -0.0296914 0.9956178 0.0296914 0.9956178 0.0296914 0.0043822 -0.0296914
