!Murata Part Number: GRM0115C1E9R3DE01
!These Parameters are Measured in Series Mode Connection
!Data Generated on Mar 30, 2021
!       o--ll--o
!Port1            Port2
!       o------o
!Operation Temp=25[degC], DC Bias Voltage=0[V]
!Freq. Start=100[MHz] Stop=9[GHz] 401[Steps]
# Hz S RI R 50
!Freq.(Hz) S11(Real) S11(Imag) S21(Real) S21(Imag) S12(Real) S12(Imag) S22(Real) S22(Imag)
100000000 0.7451370 -0.4354278 0.2548630 0.4354278 0.2548630 0.4354278 0.7451370 -0.4354278
121000000 0.6662716 -0.4711122 0.3337284 0.4711122 0.3337284 0.4711122 0.6662716 -0.4711122
142000000 0.5917060 -0.4910105 0.4082940 0.4910105 0.4082940 0.4910105 0.5917060 -0.4910105
163000000 0.5236970 -0.4988545 0.4763030 0.4988545 0.4763030 0.4988545 0.5236970 -0.4988545
184000000 0.4630992 -0.4979762 0.5369008 0.4979762 0.5369008 0.4979762 0.4630992 -0.4979762
205000000 0.4098896 -0.4910758 0.5901104 0.4910758 0.5901104 0.4910758 0.4098896 -0.4910758
226000000 0.3635671 -0.4802111 0.6364329 0.4802111 0.6364329 0.4802111 0.3635671 -0.4802111
247000000 0.3234186 -0.4668877 0.6765814 0.4668877 0.6765814 0.4668877 0.3234186 -0.4668877
268000000 0.2886753 -0.4521745 0.7113247 0.4521745 0.7113247 0.4521745 0.2886753 -0.4521745
289000000 0.2585978 -0.4368124 0.7414022 0.4368124 0.7414022 0.4368124 0.2585978 -0.4368124
310000000 0.2325154 -0.4213036 0.7674846 0.4213036 0.7674846 0.4213036 0.2325154 -0.4213036
331000000 0.2098394 -0.4059805 0.7901606 0.4059805 0.7901606 0.4059805 0.2098394 -0.4059805
352000000 0.1900638 -0.3910558 0.8099362 0.3910558 0.8099362 0.3910558 0.1900638 -0.3910558
373000000 0.1727584 -0.3766598 0.8272416 0.3766598 0.8272416 0.3766598 0.1727584 -0.3766598
394000000 0.1575602 -0.3628656 0.8424398 0.3628656 0.8424398 0.3628656 0.1575602 -0.3628656
415000000 0.1441635 -0.3497080 0.8558365 0.3497080 0.8558365 0.3497080 0.1441635 -0.3497080
436000000 0.1323116 -0.3371957 0.8676884 0.3371957 0.8676884 0.3371957 0.1323116 -0.3371957
457000000 0.1217886 -0.3253207 0.8782114 0.3253207 0.8782114 0.3253207 0.1217886 -0.3253207
478000000 0.1124125 -0.3140641 0.8875875 0.3140641 0.8875875 0.3140641 0.1124125 -0.3140641
499000000 0.1040299 -0.3034006 0.8959701 0.3034006 0.8959701 0.3034006 0.1040299 -0.3034006
520000000 0.0965109 -0.2933011 0.9034891 0.2933011 0.9034891 0.2933011 0.0965109 -0.2933011
541000000 0.0897452 -0.2837348 0.9102548 0.2837348 0.9102548 0.2837348 0.0897452 -0.2837348
562000000 0.0836389 -0.2746705 0.9163611 0.2746705 0.9163611 0.2746705 0.0836389 -0.2746705
583000000 0.0781118 -0.2660777 0.9218882 0.2660777 0.9218882 0.2660777 0.0781118 -0.2660777
604000000 0.0730951 -0.2579265 0.9269049 0.2579265 0.9269049 0.2579265 0.0730951 -0.2579265
625000000 0.0685296 -0.2501888 0.9314704 0.2501888 0.9314704 0.2501888 0.0685296 -0.2501888
646000000 0.0643642 -0.2428377 0.9356358 0.2428377 0.9356358 0.2428377 0.0643642 -0.2428377
667000000 0.0605547 -0.2358482 0.9394453 0.2358482 0.9394453 0.2358482 0.0605547 -0.2358482
688000000 0.0570627 -0.2291966 0.9429373 0.2291966 0.9429373 0.2291966 0.0570627 -0.2291966
709000000 0.0538547 -0.2228611 0.9461453 0.2228611 0.9461453 0.2228611 0.0538547 -0.2228611
730000000 0.0509014 -0.2168213 0.9490986 0.2168213 0.9490986 0.2168213 0.0509014 -0.2168213
751000000 0.0481771 -0.2110582 0.9518229 0.2110582 0.9518229 0.2110582 0.0481771 -0.2110582
772000000 0.0456593 -0.2055542 0.9543407 0.2055542 0.9543407 0.2055542 0.0456593 -0.2055542
793000000 0.0433281 -0.2002932 0.9566719 0.2002932 0.9566719 0.2002932 0.0433281 -0.2002932
814000000 0.0411658 -0.1952599 0.9588342 0.1952599 0.9588342 0.1952599 0.0411658 -0.1952599
835000000 0.0391569 -0.1904405 0.9608431 0.1904405 0.9608431 0.1904405 0.0391569 -0.1904405
856000000 0.0372875 -0.1858220 0.9627125 0.1858220 0.9627125 0.1858220 0.0372875 -0.1858220
877000000 0.0355452 -0.1813924 0.9644548 0.1813924 0.9644548 0.1813924 0.0355452 -0.1813924
898000000 0.0339190 -0.1771405 0.9660810 0.1771405 0.9660810 0.1771405 0.0339190 -0.1771405
919000000 0.0323991 -0.1730561 0.9676009 0.1730561 0.9676009 0.1730561 0.0323991 -0.1730561
940000000 0.0309765 -0.1691295 0.9690235 0.1691295 0.9690235 0.1691295 0.0309765 -0.1691295
961000000 0.0296434 -0.1653517 0.9703566 0.1653517 0.9703566 0.1653517 0.0296434 -0.1653517
982000000 0.0283925 -0.1617147 0.9716075 0.1617147 0.9716075 0.1617147 0.0283925 -0.1617147
1003000000 0.0272173 -0.1582105 0.9727827 0.1582105 0.9727827 0.1582105 0.0272173 -0.1582105
1024000000 0.0261120 -0.1548320 0.9738880 0.1548320 0.9738880 0.1548320 0.0261120 -0.1548320
1045000000 0.0250713 -0.1515726 0.9749287 0.1515726 0.9749287 0.1515726 0.0250713 -0.1515726
1066000000 0.0240904 -0.1484260 0.9759096 0.1484260 0.9759096 0.1484260 0.0240904 -0.1484260
1087000000 0.0231648 -0.1453862 0.9768352 0.1453862 0.9768352 0.1453862 0.0231648 -0.1453862
1108000000 0.0222907 -0.1424480 0.9777093 0.1424480 0.9777093 0.1424480 0.0222907 -0.1424480
1129000000 0.0214643 -0.1396062 0.9785357 0.1396062 0.9785357 0.1396062 0.0214643 -0.1396062
1150000000 0.0206824 -0.1368560 0.9793176 0.1368560 0.9793176 0.1368560 0.0206824 -0.1368560
1171000000 0.0199418 -0.1341929 0.9800582 0.1341929 0.9800582 0.1341929 0.0199418 -0.1341929
1192000000 0.0192399 -0.1316128 0.9807601 0.1316128 0.9807601 0.1316128 0.0192399 -0.1316128
1213000000 0.0185740 -0.1291116 0.9814260 0.1291116 0.9814260 0.1291116 0.0185740 -0.1291116
1234000000 0.0179418 -0.1266858 0.9820582 0.1266858 0.9820582 0.1266858 0.0179418 -0.1266858
1255000000 0.0173411 -0.1243318 0.9826589 0.1243318 0.9826589 0.1243318 0.0173411 -0.1243318
1276000000 0.0167700 -0.1220464 0.9832300 0.1220464 0.9832300 0.1220464 0.0167700 -0.1220464
1297000000 0.0162265 -0.1198264 0.9837735 0.1198264 0.9837735 0.1198264 0.0162265 -0.1198264
1318000000 0.0157091 -0.1176690 0.9842909 0.1176690 0.9842909 0.1176690 0.0157091 -0.1176690
1339000000 0.0152161 -0.1155715 0.9847839 0.1155715 0.9847839 0.1155715 0.0152161 -0.1155715
1360000000 0.0147460 -0.1135312 0.9852540 0.1135312 0.9852540 0.1135312 0.0147460 -0.1135312
1381000000 0.0142975 -0.1115458 0.9857025 0.1115458 0.9857025 0.1115458 0.0142975 -0.1115458
1402000000 0.0138694 -0.1096128 0.9861306 0.1096128 0.9861306 0.1096128 0.0138694 -0.1096128
1423000000 0.0134605 -0.1077302 0.9865395 0.1077302 0.9865395 0.1077302 0.0134605 -0.1077302
1444000000 0.0130697 -0.1058959 0.9869303 0.1058959 0.9869303 0.1058959 0.0130697 -0.1058959
1465000000 0.0126961 -0.1041079 0.9873039 0.1041079 0.9873039 0.1041079 0.0126961 -0.1041079
1486000000 0.0123385 -0.1023644 0.9876615 0.1023644 0.9876615 0.1023644 0.0123385 -0.1023644
1507000000 0.0119963 -0.1006636 0.9880037 0.1006636 0.9880037 0.1006636 0.0119963 -0.1006636
1528000000 0.0116686 -0.0990038 0.9883314 0.0990038 0.9883314 0.0990038 0.0116686 -0.0990038
1549000000 0.0113545 -0.0973835 0.9886455 0.0973835 0.9886455 0.0973835 0.0113545 -0.0973835
1570000000 0.0110535 -0.0958012 0.9889465 0.0958012 0.9889465 0.0958012 0.0110535 -0.0958012
1591000000 0.0107648 -0.0942554 0.9892352 0.0942554 0.9892352 0.0942554 0.0107648 -0.0942554
1612000000 0.0104878 -0.0927449 0.9895122 0.0927449 0.9895122 0.0927449 0.0104878 -0.0927449
1633000000 0.0102218 -0.0912682 0.9897782 0.0912682 0.9897782 0.0912682 0.0102218 -0.0912682
1654000000 0.0099665 -0.0898241 0.9900335 0.0898241 0.9900335 0.0898241 0.0099665 -0.0898241
1675000000 0.0097212 -0.0884116 0.9902788 0.0884116 0.9902788 0.0884116 0.0097212 -0.0884116
1696000000 0.0094854 -0.0870294 0.9905146 0.0870294 0.9905146 0.0870294 0.0094854 -0.0870294
1717000000 0.0092588 -0.0856765 0.9907412 0.0856765 0.9907412 0.0856765 0.0092588 -0.0856765
1738000000 0.0090408 -0.0843520 0.9909592 0.0843520 0.9909592 0.0843520 0.0090408 -0.0843520
1759000000 0.0088311 -0.0830547 0.9911689 0.0830547 0.9911689 0.0830547 0.0088311 -0.0830547
1780000000 0.0086292 -0.0817838 0.9913708 0.0817838 0.9913708 0.0817838 0.0086292 -0.0817838
1801000000 0.0084349 -0.0805385 0.9915651 0.0805385 0.9915651 0.0805385 0.0084349 -0.0805385
1822000000 0.0082478 -0.0793178 0.9917522 0.0793178 0.9917522 0.0793178 0.0082478 -0.0793178
1843000000 0.0080675 -0.0781209 0.9919325 0.0781209 0.9919325 0.0781209 0.0080675 -0.0781209
1864000000 0.0078937 -0.0769471 0.9921063 0.0769471 0.9921063 0.0769471 0.0078937 -0.0769471
1885000000 0.0077263 -0.0757956 0.9922737 0.0757956 0.9922737 0.0757956 0.0077263 -0.0757956
1906000000 0.0075648 -0.0746658 0.9924352 0.0746658 0.9924352 0.0746658 0.0075648 -0.0746658
1927000000 0.0074090 -0.0735568 0.9925910 0.0735568 0.9925910 0.0735568 0.0074090 -0.0735568
1948000000 0.0072588 -0.0724682 0.9927412 0.0724682 0.9927412 0.0724682 0.0072588 -0.0724682
1969000000 0.0071138 -0.0713992 0.9928862 0.0713992 0.9928862 0.0713992 0.0071138 -0.0713992
1990000000 0.0069739 -0.0703492 0.9930261 0.0703492 0.9930261 0.0703492 0.0069739 -0.0703492
2011000000 0.0068388 -0.0693177 0.9931612 0.0693177 0.9931612 0.0693177 0.0068388 -0.0693177
2032000000 0.0067083 -0.0683042 0.9932917 0.0683042 0.9932917 0.0683042 0.0067083 -0.0683042
2053000000 0.0065823 -0.0673080 0.9934177 0.0673080 0.9934177 0.0673080 0.0065823 -0.0673080
2074000000 0.0064605 -0.0663287 0.9935395 0.0663287 0.9935395 0.0663287 0.0064605 -0.0663287
2095000000 0.0063429 -0.0653657 0.9936571 0.0653657 0.9936571 0.0653657 0.0063429 -0.0653657
2116000000 0.0062292 -0.0644187 0.9937708 0.0644187 0.9937708 0.0644187 0.0062292 -0.0644187
2137000000 0.0061193 -0.0634871 0.9938807 0.0634871 0.9938807 0.0634871 0.0061193 -0.0634871
2158000000 0.0060130 -0.0625705 0.9939870 0.0625705 0.9939870 0.0625705 0.0060130 -0.0625705
2179000000 0.0059103 -0.0616685 0.9940897 0.0616685 0.9940897 0.0616685 0.0059103 -0.0616685
2200000000 0.0058109 -0.0607807 0.9941891 0.0607807 0.9941891 0.0607807 0.0058109 -0.0607807
2221000000 0.0057148 -0.0599067 0.9942852 0.0599067 0.9942852 0.0599067 0.0057148 -0.0599067
2242000000 0.0056218 -0.0590461 0.9943782 0.0590461 0.9943782 0.0590461 0.0056218 -0.0590461
2263000000 0.0055318 -0.0581985 0.9944682 0.0581985 0.9944682 0.0581985 0.0055318 -0.0581985
2284000000 0.0054447 -0.0573636 0.9945553 0.0573636 0.9945553 0.0573636 0.0054447 -0.0573636
2305000000 0.0053604 -0.0565411 0.9946396 0.0565411 0.9946396 0.0565411 0.0053604 -0.0565411
2326000000 0.0052789 -0.0557306 0.9947211 0.0557306 0.9947211 0.0557306 0.0052789 -0.0557306
2347000000 0.0051999 -0.0549318 0.9948001 0.0549318 0.9948001 0.0549318 0.0051999 -0.0549318
2368000000 0.0051234 -0.0541444 0.9948766 0.0541444 0.9948766 0.0541444 0.0051234 -0.0541444
2389000000 0.0050494 -0.0533681 0.9949506 0.0533681 0.9949506 0.0533681 0.0050494 -0.0533681
2410000000 0.0049777 -0.0526027 0.9950223 0.0526027 0.9950223 0.0526027 0.0049777 -0.0526027
2431000000 0.0049083 -0.0518478 0.9950917 0.0518478 0.9950917 0.0518478 0.0049083 -0.0518478
2452000000 0.0048411 -0.0511032 0.9951589 0.0511032 0.9951589 0.0511032 0.0048411 -0.0511032
2473000000 0.0047759 -0.0503686 0.9952241 0.0503686 0.9952241 0.0503686 0.0047759 -0.0503686
2494000000 0.0047129 -0.0496438 0.9952871 0.0496438 0.9952871 0.0496438 0.0047129 -0.0496438
2515000000 0.0046518 -0.0489285 0.9953482 0.0489285 0.9953482 0.0489285 0.0046518 -0.0489285
2536000000 0.0045926 -0.0482226 0.9954074 0.0482226 0.9954074 0.0482226 0.0045926 -0.0482226
2557000000 0.0045352 -0.0475257 0.9954648 0.0475257 0.9954648 0.0475257 0.0045352 -0.0475257
2578000000 0.0044797 -0.0468377 0.9955203 0.0468377 0.9955203 0.0468377 0.0044797 -0.0468377
2599000000 0.0044259 -0.0461584 0.9955741 0.0461584 0.9955741 0.0461584 0.0044259 -0.0461584
2620000000 0.0043738 -0.0454875 0.9956262 0.0454875 0.9956262 0.0454875 0.0043738 -0.0454875
2641000000 0.0043233 -0.0448248 0.9956767 0.0448248 0.9956767 0.0448248 0.0043233 -0.0448248
2662000000 0.0042744 -0.0441702 0.9957256 0.0441702 0.9957256 0.0441702 0.0042744 -0.0441702
2683000000 0.0042270 -0.0435235 0.9957730 0.0435235 0.9957730 0.0435235 0.0042270 -0.0435235
2704000000 0.0041811 -0.0428845 0.9958189 0.0428845 0.9958189 0.0428845 0.0041811 -0.0428845
2725000000 0.0041366 -0.0422529 0.9958634 0.0422529 0.9958634 0.0422529 0.0041366 -0.0422529
2746000000 0.0040936 -0.0416288 0.9959064 0.0416288 0.9959064 0.0416288 0.0040936 -0.0416288
2767000000 0.0040518 -0.0410118 0.9959482 0.0410118 0.9959482 0.0410118 0.0040518 -0.0410118
2788000000 0.0040115 -0.0404018 0.9959885 0.0404018 0.9959885 0.0404018 0.0040115 -0.0404018
2809000000 0.0039724 -0.0397987 0.9960276 0.0397987 0.9960276 0.0397987 0.0039724 -0.0397987
2830000000 0.0039345 -0.0392023 0.9960655 0.0392023 0.9960655 0.0392023 0.0039345 -0.0392023
2851000000 0.0038978 -0.0386125 0.9961022 0.0386125 0.9961022 0.0386125 0.0038978 -0.0386125
2872000000 0.0038623 -0.0380291 0.9961377 0.0380291 0.9961377 0.0380291 0.0038623 -0.0380291
2893000000 0.0038280 -0.0374520 0.9961720 0.0374520 0.9961720 0.0374520 0.0038280 -0.0374520
2914000000 0.0037948 -0.0368811 0.9962052 0.0368811 0.9962052 0.0368811 0.0037948 -0.0368811
2935000000 0.0037626 -0.0363161 0.9962374 0.0363161 0.9962374 0.0363161 0.0037626 -0.0363161
2956000000 0.0037315 -0.0357571 0.9962685 0.0357571 0.9962685 0.0357571 0.0037315 -0.0357571
2977000000 0.0037014 -0.0352038 0.9962986 0.0352038 0.9962986 0.0352038 0.0037014 -0.0352038
2998000000 0.0036723 -0.0346562 0.9963277 0.0346562 0.9963277 0.0346562 0.0036723 -0.0346562
3019000000 0.0036442 -0.0341142 0.9963558 0.0341142 0.9963558 0.0341142 0.0036442 -0.0341142
3040000000 0.0036170 -0.0335775 0.9963830 0.0335775 0.9963830 0.0335775 0.0036170 -0.0335775
3061000000 0.0035908 -0.0330462 0.9964092 0.0330462 0.9964092 0.0330462 0.0035908 -0.0330462
3082000000 0.0035654 -0.0325200 0.9964346 0.0325200 0.9964346 0.0325200 0.0035654 -0.0325200
3103000000 0.0035409 -0.0319990 0.9964591 0.0319990 0.9964591 0.0319990 0.0035409 -0.0319990
3124000000 0.0035173 -0.0314830 0.9964827 0.0314830 0.9964827 0.0314830 0.0035173 -0.0314830
3145000000 0.0034944 -0.0309718 0.9965056 0.0309718 0.9965056 0.0309718 0.0034944 -0.0309718
3166000000 0.0034724 -0.0304655 0.9965276 0.0304655 0.9965276 0.0304655 0.0034724 -0.0304655
3187000000 0.0034512 -0.0299639 0.9965488 0.0299639 0.9965488 0.0299639 0.0034512 -0.0299639
3208000000 0.0034308 -0.0294669 0.9965692 0.0294669 0.9965692 0.0294669 0.0034308 -0.0294669
3229000000 0.0034111 -0.0289744 0.9965889 0.0289744 0.9965889 0.0289744 0.0034111 -0.0289744
3250000000 0.0033921 -0.0284864 0.9966079 0.0284864 0.9966079 0.0284864 0.0033921 -0.0284864
3271000000 0.0033739 -0.0280027 0.9966261 0.0280027 0.9966261 0.0280027 0.0033739 -0.0280027
3292000000 0.0033564 -0.0275233 0.9966436 0.0275233 0.9966436 0.0275233 0.0033564 -0.0275233
3313000000 0.0033395 -0.0270480 0.9966605 0.0270480 0.9966605 0.0270480 0.0033395 -0.0270480
3334000000 0.0033233 -0.0265769 0.9966767 0.0265769 0.9966767 0.0265769 0.0033233 -0.0265769
3355000000 0.0033078 -0.0261099 0.9966922 0.0261099 0.9966922 0.0261099 0.0033078 -0.0261099
3376000000 0.0032929 -0.0256468 0.9967071 0.0256468 0.9967071 0.0256468 0.0032929 -0.0256468
3397000000 0.0032786 -0.0251876 0.9967214 0.0251876 0.9967214 0.0251876 0.0032786 -0.0251876
3418000000 0.0032650 -0.0247322 0.9967350 0.0247322 0.9967350 0.0247322 0.0032650 -0.0247322
3439000000 0.0032519 -0.0242805 0.9967481 0.0242805 0.9967481 0.0242805 0.0032519 -0.0242805
3460000000 0.0032395 -0.0238326 0.9967605 0.0238326 0.9967605 0.0238326 0.0032395 -0.0238326
3481000000 0.0032276 -0.0233882 0.9967724 0.0233882 0.9967724 0.0233882 0.0032276 -0.0233882
3502000000 0.0032162 -0.0229474 0.9967838 0.0229474 0.9967838 0.0229474 0.0032162 -0.0229474
3523000000 0.0032055 -0.0225101 0.9967945 0.0225101 0.9967945 0.0225101 0.0032055 -0.0225101
3544000000 0.0031952 -0.0220762 0.9968048 0.0220762 0.9968048 0.0220762 0.0031952 -0.0220762
3565000000 0.0031855 -0.0216457 0.9968145 0.0216457 0.9968145 0.0216457 0.0031855 -0.0216457
3586000000 0.0031763 -0.0212185 0.9968237 0.0212185 0.9968237 0.0212185 0.0031763 -0.0212185
3607000000 0.0031676 -0.0207946 0.9968324 0.0207946 0.9968324 0.0207946 0.0031676 -0.0207946
3628000000 0.0031594 -0.0203738 0.9968406 0.0203738 0.9968406 0.0203738 0.0031594 -0.0203738
3649000000 0.0031517 -0.0199562 0.9968483 0.0199562 0.9968483 0.0199562 0.0031517 -0.0199562
3670000000 0.0031445 -0.0195417 0.9968555 0.0195417 0.9968555 0.0195417 0.0031445 -0.0195417
3691000000 0.0031378 -0.0191302 0.9968622 0.0191302 0.9968622 0.0191302 0.0031378 -0.0191302
3712000000 0.0031315 -0.0187217 0.9968685 0.0187217 0.9968685 0.0187217 0.0031315 -0.0187217
3733000000 0.0031256 -0.0183161 0.9968744 0.0183161 0.9968744 0.0183161 0.0031256 -0.0183161
3754000000 0.0031202 -0.0179134 0.9968798 0.0179134 0.9968798 0.0179134 0.0031202 -0.0179134
3775000000 0.0031153 -0.0175135 0.9968847 0.0175135 0.9968847 0.0175135 0.0031153 -0.0175135
3796000000 0.0031108 -0.0171165 0.9968892 0.0171165 0.9968892 0.0171165 0.0031108 -0.0171165
3817000000 0.0031067 -0.0167221 0.9968933 0.0167221 0.9968933 0.0167221 0.0031067 -0.0167221
3838000000 0.0031030 -0.0163305 0.9968970 0.0163305 0.9968970 0.0163305 0.0031030 -0.0163305
3859000000 0.0030997 -0.0159416 0.9969003 0.0159416 0.9969003 0.0159416 0.0030997 -0.0159416
3880000000 0.0030968 -0.0155552 0.9969032 0.0155552 0.9969032 0.0155552 0.0030968 -0.0155552
3901000000 0.0030943 -0.0151715 0.9969057 0.0151715 0.9969057 0.0151715 0.0030943 -0.0151715
3922000000 0.0030922 -0.0147902 0.9969078 0.0147902 0.9969078 0.0147902 0.0030922 -0.0147902
3943000000 0.0030905 -0.0144115 0.9969095 0.0144115 0.9969095 0.0144115 0.0030905 -0.0144115
3964000000 0.0030892 -0.0140352 0.9969108 0.0140352 0.9969108 0.0140352 0.0030892 -0.0140352
3985000000 0.0030882 -0.0136613 0.9969118 0.0136613 0.9969118 0.0136613 0.0030882 -0.0136613
4006000000 0.0030876 -0.0132898 0.9969124 0.0132898 0.9969124 0.0132898 0.0030876 -0.0132898
4027000000 0.0030873 -0.0129206 0.9969127 0.0129206 0.9969127 0.0129206 0.0030873 -0.0129206
4048000000 0.0030875 -0.0125538 0.9969125 0.0125538 0.9969125 0.0125538 0.0030875 -0.0125538
4069000000 0.0030879 -0.0121892 0.9969121 0.0121892 0.9969121 0.0121892 0.0030879 -0.0121892
4090000000 0.0030887 -0.0118269 0.9969113 0.0118269 0.9969113 0.0118269 0.0030887 -0.0118269
4111000000 0.0030898 -0.0114667 0.9969102 0.0114667 0.9969102 0.0114667 0.0030898 -0.0114667
4132000000 0.0030913 -0.0111087 0.9969087 0.0111087 0.9969087 0.0111087 0.0030913 -0.0111087
4153000000 0.0030931 -0.0107529 0.9969069 0.0107529 0.9969069 0.0107529 0.0030931 -0.0107529
4174000000 0.0030952 -0.0103992 0.9969048 0.0103992 0.9969048 0.0103992 0.0030952 -0.0103992
4195000000 0.0030977 -0.0100475 0.9969023 0.0100475 0.9969023 0.0100475 0.0030977 -0.0100475
4216000000 0.0031004 -0.0096979 0.9968996 0.0096979 0.9968996 0.0096979 0.0031004 -0.0096979
4237000000 0.0031035 -0.0093503 0.9968965 0.0093503 0.9968965 0.0093503 0.0031035 -0.0093503
4258000000 0.0031069 -0.0090046 0.9968931 0.0090046 0.9968931 0.0090046 0.0031069 -0.0090046
4279000000 0.0031106 -0.0086610 0.9968894 0.0086610 0.9968894 0.0086610 0.0031106 -0.0086610
4300000000 0.0031146 -0.0083192 0.9968854 0.0083192 0.9968854 0.0083192 0.0031146 -0.0083192
4321000000 0.0031188 -0.0079794 0.9968812 0.0079794 0.9968812 0.0079794 0.0031188 -0.0079794
4342000000 0.0031234 -0.0076415 0.9968766 0.0076415 0.9968766 0.0076415 0.0031234 -0.0076415
4363000000 0.0031283 -0.0073053 0.9968717 0.0073053 0.9968717 0.0073053 0.0031283 -0.0073053
4384000000 0.0031334 -0.0069711 0.9968666 0.0069711 0.9968666 0.0069711 0.0031334 -0.0069711
4405000000 0.0031389 -0.0066386 0.9968611 0.0066386 0.9968611 0.0066386 0.0031389 -0.0066386
4426000000 0.0031446 -0.0063078 0.9968554 0.0063078 0.9968554 0.0063078 0.0031446 -0.0063078
4447000000 0.0031506 -0.0059789 0.9968494 0.0059789 0.9968494 0.0059789 0.0031506 -0.0059789
4468000000 0.0031568 -0.0056516 0.9968432 0.0056516 0.9968432 0.0056516 0.0031568 -0.0056516
4489000000 0.0031634 -0.0053261 0.9968366 0.0053261 0.9968366 0.0053261 0.0031634 -0.0053261
4510000000 0.0031702 -0.0050022 0.9968298 0.0050022 0.9968298 0.0050022 0.0031702 -0.0050022
