!Murata Part Number: GRM0115C1E3R1CE01
!These Parameters are Measured in Series Mode Connection
!Data Generated on Mar 30, 2021
!       o--ll--o
!Port1            Port2
!       o------o
!Operation Temp=25[degC], DC Bias Voltage=0[V]
!Freq. Start=100[MHz] Stop=9[GHz] 401[Steps]
# Hz S RI R 50
!Freq.(Hz) S11(Real) S11(Imag) S21(Real) S21(Imag) S12(Real) S12(Imag) S22(Real) S22(Imag)
100000000 0.9633755 -0.1876603 0.0366245 0.1876603 0.0366245 0.1876603 0.9633755 -0.1876603
121000000 0.9472688 -0.2232810 0.0527312 0.2232810 0.0527312 0.2232810 0.9472688 -0.2232810
142000000 0.9287848 -0.2569307 0.0712152 0.2569307 0.0712152 0.2569307 0.9287848 -0.2569307
163000000 0.9082268 -0.2884144 0.0917732 0.2884144 0.0917732 0.2884144 0.9082268 -0.2884144
184000000 0.8859103 -0.3175908 0.1140897 0.3175908 0.1140897 0.3175908 0.8859103 -0.3175908
205000000 0.8621532 -0.3443713 0.1378468 0.3443713 0.1378468 0.3443713 0.8621532 -0.3443713
226000000 0.8372663 -0.3687160 0.1627337 0.3687160 0.1627337 0.3687160 0.8372663 -0.3687160
247000000 0.8115461 -0.3906286 0.1884539 0.3906286 0.1884539 0.3906286 0.8115461 -0.3906286
268000000 0.7852685 -0.4101510 0.2147315 0.4101510 0.2147315 0.4101510 0.7852685 -0.4101510
289000000 0.7586853 -0.4273561 0.2413147 0.4273561 0.2413147 0.4273561 0.7586853 -0.4273561
310000000 0.7320212 -0.4423418 0.2679788 0.4423418 0.2679788 0.4423418 0.7320212 -0.4423418
331000000 0.7054729 -0.4552247 0.2945271 0.4552247 0.2945271 0.4552247 0.7054729 -0.4552247
352000000 0.6792093 -0.4661344 0.3207907 0.4661344 0.3207907 0.4661344 0.6792093 -0.4661344
373000000 0.6533722 -0.4752085 0.3466278 0.4752085 0.3466278 0.4752085 0.6533722 -0.4752085
394000000 0.6280781 -0.4825884 0.3719219 0.4825884 0.3719219 0.4825884 0.6280781 -0.4825884
415000000 0.6034204 -0.4884157 0.3965796 0.4884157 0.3965796 0.4884157 0.6034204 -0.4884157
436000000 0.5794712 -0.4928295 0.4205288 0.4928295 0.4205288 0.4928295 0.5794712 -0.4928295
457000000 0.5562844 -0.4959642 0.4437156 0.4959642 0.4437156 0.4959642 0.5562844 -0.4959642
478000000 0.5338974 -0.4979479 0.4661026 0.4979479 0.4661026 0.4979479 0.5338974 -0.4979479
499000000 0.5123341 -0.4989017 0.4876659 0.4989017 0.4876659 0.4989017 0.5123341 -0.4989017
520000000 0.4916065 -0.4989383 0.5083935 0.4989383 0.5083935 0.4989383 0.4916065 -0.4989383
541000000 0.4717168 -0.4981625 0.5282832 0.4981625 0.5282832 0.4981625 0.4717168 -0.4981625
562000000 0.4526593 -0.4966706 0.5473407 0.4966706 0.5473407 0.4966706 0.4526593 -0.4966706
583000000 0.4344220 -0.4945508 0.5655780 0.4945508 0.5655780 0.4945508 0.4344220 -0.4945508
604000000 0.4169877 -0.4918831 0.5830123 0.4918831 0.5830123 0.4918831 0.4169877 -0.4918831
625000000 0.4003352 -0.4887404 0.5996648 0.4887404 0.5996648 0.4887404 0.4003352 -0.4887404
646000000 0.3844405 -0.4851880 0.6155595 0.4851880 0.6155595 0.4851880 0.3844405 -0.4851880
667000000 0.3692776 -0.4812848 0.6307224 0.4812848 0.6307224 0.4812848 0.3692776 -0.4812848
688000000 0.3548188 -0.4770837 0.6451812 0.4770837 0.6451812 0.4770837 0.3548188 -0.4770837
709000000 0.3410358 -0.4726318 0.6589642 0.4726318 0.6589642 0.4726318 0.3410358 -0.4726318
730000000 0.3278999 -0.4679709 0.6721001 0.4679709 0.6721001 0.4679709 0.3278999 -0.4679709
751000000 0.3153824 -0.4631383 0.6846176 0.4631383 0.6846176 0.4631383 0.3153824 -0.4631383
772000000 0.3034548 -0.4581671 0.6965452 0.4581671 0.6965452 0.4581671 0.3034548 -0.4581671
793000000 0.2920891 -0.4530863 0.7079109 0.4530863 0.7079109 0.4530863 0.2920891 -0.4530863
814000000 0.2812582 -0.4479219 0.7187418 0.4479219 0.7187418 0.4479219 0.2812582 -0.4479219
835000000 0.2709356 -0.4426962 0.7290644 0.4426962 0.7290644 0.4426962 0.2709356 -0.4426962
856000000 0.2610959 -0.4374293 0.7389041 0.4374293 0.7389041 0.4374293 0.2610959 -0.4374293
877000000 0.2517146 -0.4321385 0.7482854 0.4321385 0.7482854 0.4321385 0.2517146 -0.4321385
898000000 0.2427682 -0.4268389 0.7572318 0.4268389 0.7572318 0.4268389 0.2427682 -0.4268389
919000000 0.2342343 -0.4215437 0.7657657 0.4215437 0.7657657 0.4215437 0.2342343 -0.4215437
940000000 0.2260916 -0.4162643 0.7739084 0.4162643 0.7739084 0.4162643 0.2260916 -0.4162643
961000000 0.2183195 -0.4110108 0.7816805 0.4110108 0.7816805 0.4110108 0.2183195 -0.4110108
982000000 0.2108989 -0.4057914 0.7891011 0.4057914 0.7891011 0.4057914 0.2108989 -0.4057914
1003000000 0.2038114 -0.4006136 0.7961886 0.4006136 0.7961886 0.4006136 0.2038114 -0.4006136
1024000000 0.1970397 -0.3954835 0.8029603 0.3954835 0.8029603 0.3954835 0.1970397 -0.3954835
1045000000 0.1905671 -0.3904064 0.8094329 0.3904064 0.8094329 0.3904064 0.1905671 -0.3904064
1066000000 0.1843783 -0.3853867 0.8156217 0.3853867 0.8156217 0.3853867 0.1843783 -0.3853867
1087000000 0.1784585 -0.3804281 0.8215415 0.3804281 0.8215415 0.3804281 0.1784585 -0.3804281
1108000000 0.1727937 -0.3755334 0.8272063 0.3755334 0.8272063 0.3755334 0.1727937 -0.3755334
1129000000 0.1673709 -0.3707053 0.8326291 0.3707053 0.8326291 0.3707053 0.1673709 -0.3707053
1150000000 0.1621777 -0.3659456 0.8378223 0.3659456 0.8378223 0.3659456 0.1621777 -0.3659456
1171000000 0.1572023 -0.3612557 0.8427977 0.3612557 0.8427977 0.3612557 0.1572023 -0.3612557
1192000000 0.1524337 -0.3566369 0.8475663 0.3566369 0.8475663 0.3566369 0.1524337 -0.3566369
1213000000 0.1478615 -0.3520897 0.8521385 0.3520897 0.8521385 0.3520897 0.1478615 -0.3520897
1234000000 0.1434758 -0.3476148 0.8565242 0.3476148 0.8565242 0.3476148 0.1434758 -0.3476148
1255000000 0.1392674 -0.3432122 0.8607326 0.3432122 0.8607326 0.3432122 0.1392674 -0.3432122
1276000000 0.1352274 -0.3388820 0.8647726 0.3388820 0.8647726 0.3388820 0.1352274 -0.3388820
1297000000 0.1313477 -0.3346240 0.8686523 0.3346240 0.8686523 0.3346240 0.1313477 -0.3346240
1318000000 0.1276203 -0.3304377 0.8723797 0.3304377 0.8723797 0.3304377 0.1276203 -0.3304377
1339000000 0.1240380 -0.3263227 0.8759620 0.3263227 0.8759620 0.3263227 0.1240380 -0.3263227
1360000000 0.1205937 -0.3222782 0.8794063 0.3222782 0.8794063 0.3222782 0.1205937 -0.3222782
1381000000 0.1172808 -0.3183035 0.8827192 0.3183035 0.8827192 0.3183035 0.1172808 -0.3183035
1402000000 0.1140932 -0.3143979 0.8859068 0.3143979 0.8859068 0.3143979 0.1140932 -0.3143979
1423000000 0.1110249 -0.3105602 0.8889751 0.3105602 0.8889751 0.3105602 0.1110249 -0.3105602
1444000000 0.1080704 -0.3067897 0.8919296 0.3067897 0.8919296 0.3067897 0.1080704 -0.3067897
1465000000 0.1052244 -0.3030852 0.8947756 0.3030852 0.8947756 0.3030852 0.1052244 -0.3030852
1486000000 0.1024819 -0.2994458 0.8975181 0.2994458 0.8975181 0.2994458 0.1024819 -0.2994458
1507000000 0.0998383 -0.2958702 0.9001617 0.2958702 0.9001617 0.2958702 0.0998383 -0.2958702
1528000000 0.0972891 -0.2923573 0.9027109 0.2923573 0.9027109 0.2923573 0.0972891 -0.2923573
1549000000 0.0948300 -0.2889061 0.9051700 0.2889061 0.9051700 0.2889061 0.0948300 -0.2889061
1570000000 0.0924571 -0.2855153 0.9075429 0.2855153 0.9075429 0.2855153 0.0924571 -0.2855153
1591000000 0.0901665 -0.2821839 0.9098335 0.2821839 0.9098335 0.2821839 0.0901665 -0.2821839
1612000000 0.0879547 -0.2789105 0.9120453 0.2789105 0.9120453 0.2789105 0.0879547 -0.2789105
1633000000 0.0858183 -0.2756942 0.9141817 0.2756942 0.9141817 0.2756942 0.0858183 -0.2756942
1654000000 0.0837539 -0.2725336 0.9162461 0.2725336 0.9162461 0.2725336 0.0837539 -0.2725336
1675000000 0.0817586 -0.2694277 0.9182414 0.2694277 0.9182414 0.2694277 0.0817586 -0.2694277
1696000000 0.0798294 -0.2663754 0.9201706 0.2663754 0.9201706 0.2663754 0.0798294 -0.2663754
1717000000 0.0779635 -0.2633754 0.9220365 0.2633754 0.9220365 0.2633754 0.0779635 -0.2633754
1738000000 0.0761584 -0.2604267 0.9238416 0.2604267 0.9238416 0.2604267 0.0761584 -0.2604267
1759000000 0.0744115 -0.2575282 0.9255885 0.2575282 0.9255885 0.2575282 0.0744115 -0.2575282
1780000000 0.0727204 -0.2546787 0.9272796 0.2546787 0.9272796 0.2546787 0.0727204 -0.2546787
1801000000 0.0710830 -0.2518773 0.9289170 0.2518773 0.9289170 0.2518773 0.0710830 -0.2518773
1822000000 0.0694969 -0.2491228 0.9305031 0.2491228 0.9305031 0.2491228 0.0694969 -0.2491228
1843000000 0.0679602 -0.2464143 0.9320398 0.2464143 0.9320398 0.2464143 0.0679602 -0.2464143
1864000000 0.0664709 -0.2437507 0.9335291 0.2437507 0.9335291 0.2437507 0.0664709 -0.2437507
1885000000 0.0650272 -0.2411310 0.9349728 0.2411310 0.9349728 0.2411310 0.0650272 -0.2411310
1906000000 0.0636273 -0.2385543 0.9363727 0.2385543 0.9363727 0.2385543 0.0636273 -0.2385543
1927000000 0.0622694 -0.2360196 0.9377306 0.2360196 0.9377306 0.2360196 0.0622694 -0.2360196
1948000000 0.0609521 -0.2335260 0.9390479 0.2335260 0.9390479 0.2335260 0.0609521 -0.2335260
1969000000 0.0596737 -0.2310725 0.9403263 0.2310725 0.9403263 0.2310725 0.0596737 -0.2310725
1990000000 0.0584328 -0.2286583 0.9415672 0.2286583 0.9415672 0.2286583 0.0584328 -0.2286583
2011000000 0.0572279 -0.2262825 0.9427721 0.2262825 0.9427721 0.2262825 0.0572279 -0.2262825
2032000000 0.0560578 -0.2239443 0.9439422 0.2239443 0.9439422 0.2239443 0.0560578 -0.2239443
2053000000 0.0549212 -0.2216427 0.9450788 0.2216427 0.9450788 0.2216427 0.0549212 -0.2216427
2074000000 0.0538168 -0.2193771 0.9461832 0.2193771 0.9461832 0.2193771 0.0538168 -0.2193771
2095000000 0.0527435 -0.2171466 0.9472565 0.2171466 0.9472565 0.2171466 0.0527435 -0.2171466
2116000000 0.0517002 -0.2149504 0.9482998 0.2149504 0.9482998 0.2149504 0.0517002 -0.2149504
2137000000 0.0506857 -0.2127879 0.9493143 0.2127879 0.9493143 0.2127879 0.0506857 -0.2127879
2158000000 0.0496992 -0.2106581 0.9503008 0.2106581 0.9503008 0.2106581 0.0496992 -0.2106581
2179000000 0.0487395 -0.2085605 0.9512605 0.2085605 0.9512605 0.2085605 0.0487395 -0.2085605
2200000000 0.0478058 -0.2064943 0.9521942 0.2064943 0.9521942 0.2064943 0.0478058 -0.2064943
2221000000 0.0468971 -0.2044589 0.9531029 0.2044589 0.9531029 0.2044589 0.0468971 -0.2044589
2242000000 0.0460126 -0.2024535 0.9539874 0.2024535 0.9539874 0.2024535 0.0460126 -0.2024535
2263000000 0.0451516 -0.2004776 0.9548484 0.2004776 0.9548484 0.2004776 0.0451516 -0.2004776
2284000000 0.0443131 -0.1985304 0.9556869 0.1985304 0.9556869 0.1985304 0.0443131 -0.1985304
2305000000 0.0434964 -0.1966115 0.9565036 0.1966115 0.9565036 0.1966115 0.0434964 -0.1966115
2326000000 0.0427008 -0.1947200 0.9572992 0.1947200 0.9572992 0.1947200 0.0427008 -0.1947200
2347000000 0.0419257 -0.1928556 0.9580743 0.1928556 0.9580743 0.1928556 0.0419257 -0.1928556
2368000000 0.0411703 -0.1910176 0.9588297 0.1910176 0.9588297 0.1910176 0.0411703 -0.1910176
2389000000 0.0404339 -0.1892054 0.9595661 0.1892054 0.9595661 0.1892054 0.0404339 -0.1892054
2410000000 0.0397161 -0.1874186 0.9602839 0.1874186 0.9602839 0.1874186 0.0397161 -0.1874186
2431000000 0.0390161 -0.1856565 0.9609839 0.1856565 0.9609839 0.1856565 0.0390161 -0.1856565
2452000000 0.0383335 -0.1839186 0.9616665 0.1839186 0.9616665 0.1839186 0.0383335 -0.1839186
2473000000 0.0376676 -0.1822045 0.9623324 0.1822045 0.9623324 0.1822045 0.0376676 -0.1822045
2494000000 0.0370180 -0.1805137 0.9629820 0.1805137 0.9629820 0.1805137 0.0370180 -0.1805137
2515000000 0.0363841 -0.1788457 0.9636159 0.1788457 0.9636159 0.1788457 0.0363841 -0.1788457
2536000000 0.0357655 -0.1771999 0.9642345 0.1771999 0.9642345 0.1771999 0.0357655 -0.1771999
2557000000 0.0351617 -0.1755760 0.9648383 0.1755760 0.9648383 0.1755760 0.0351617 -0.1755760
2578000000 0.0345721 -0.1739736 0.9654279 0.1739736 0.9654279 0.1739736 0.0345721 -0.1739736
2599000000 0.0339965 -0.1723921 0.9660035 0.1723921 0.9660035 0.1723921 0.0339965 -0.1723921
2620000000 0.0334344 -0.1708311 0.9665656 0.1708311 0.9665656 0.1708311 0.0334344 -0.1708311
2641000000 0.0328853 -0.1692903 0.9671147 0.1692903 0.9671147 0.1692903 0.0328853 -0.1692903
2662000000 0.0323490 -0.1677693 0.9676510 0.1677693 0.9676510 0.1677693 0.0323490 -0.1677693
2683000000 0.0318249 -0.1662675 0.9681751 0.1662675 0.9681751 0.1662675 0.0318249 -0.1662675
2704000000 0.0313128 -0.1647848 0.9686872 0.1647848 0.9686872 0.1647848 0.0313128 -0.1647848
2725000000 0.0308123 -0.1633206 0.9691877 0.1633206 0.9691877 0.1633206 0.0308123 -0.1633206
2746000000 0.0303231 -0.1618746 0.9696769 0.1618746 0.9696769 0.1618746 0.0303231 -0.1618746
2767000000 0.0298449 -0.1604466 0.9701551 0.1604466 0.9701551 0.1604466 0.0298449 -0.1604466
2788000000 0.0293773 -0.1590360 0.9706227 0.1590360 0.9706227 0.1590360 0.0293773 -0.1590360
2809000000 0.0289200 -0.1576426 0.9710800 0.1576426 0.9710800 0.1576426 0.0289200 -0.1576426
2830000000 0.0284728 -0.1562661 0.9715272 0.1562661 0.9715272 0.1562661 0.0284728 -0.1562661
2851000000 0.0280353 -0.1549061 0.9719647 0.1549061 0.9719647 0.1549061 0.0280353 -0.1549061
2872000000 0.0276074 -0.1535623 0.9723926 0.1535623 0.9723926 0.1535623 0.0276074 -0.1535623
2893000000 0.0271886 -0.1522344 0.9728114 0.1522344 0.9728114 0.1522344 0.0271886 -0.1522344
2914000000 0.0267789 -0.1509221 0.9732211 0.1509221 0.9732211 0.1509221 0.0267789 -0.1509221
2935000000 0.0263779 -0.1496251 0.9736221 0.1496251 0.9736221 0.1496251 0.0263779 -0.1496251
2956000000 0.0259854 -0.1483432 0.9740146 0.1483432 0.9740146 0.1483432 0.0259854 -0.1483432
2977000000 0.0256012 -0.1470760 0.9743988 0.1470760 0.9743988 0.1470760 0.0256012 -0.1470760
2998000000 0.0252250 -0.1458233 0.9747750 0.1458233 0.9747750 0.1458233 0.0252250 -0.1458233
3019000000 0.0248567 -0.1445848 0.9751433 0.1445848 0.9751433 0.1445848 0.0248567 -0.1445848
3040000000 0.0244961 -0.1433602 0.9755039 0.1433602 0.9755039 0.1433602 0.0244961 -0.1433602
3061000000 0.0241428 -0.1421494 0.9758572 0.1421494 0.9758572 0.1421494 0.0241428 -0.1421494
3082000000 0.0237968 -0.1409519 0.9762032 0.1409519 0.9762032 0.1409519 0.0237968 -0.1409519
3103000000 0.0234579 -0.1397677 0.9765421 0.1397677 0.9765421 0.1397677 0.0234579 -0.1397677
3124000000 0.0231258 -0.1385964 0.9768742 0.1385964 0.9768742 0.1385964 0.0231258 -0.1385964
3145000000 0.0228005 -0.1374379 0.9771995 0.1374379 0.9771995 0.1374379 0.0228005 -0.1374379
3166000000 0.0224816 -0.1362919 0.9775184 0.1362919 0.9775184 0.1362919 0.0224816 -0.1362919
3187000000 0.0221692 -0.1351582 0.9778308 0.1351582 0.9778308 0.1351582 0.0221692 -0.1351582
3208000000 0.0218629 -0.1340365 0.9781371 0.1340365 0.9781371 0.1340365 0.0218629 -0.1340365
3229000000 0.0215628 -0.1329267 0.9784372 0.1329267 0.9784372 0.1329267 0.0215628 -0.1329267
3250000000 0.0212685 -0.1318286 0.9787315 0.1318286 0.9787315 0.1318286 0.0212685 -0.1318286
3271000000 0.0209799 -0.1307418 0.9790201 0.1307418 0.9790201 0.1307418 0.0209799 -0.1307418
3292000000 0.0206970 -0.1296664 0.9793030 0.1296664 0.9793030 0.1296664 0.0206970 -0.1296664
3313000000 0.0204196 -0.1286020 0.9795804 0.1286020 0.9795804 0.1286020 0.0204196 -0.1286020
3334000000 0.0201475 -0.1275485 0.9798525 0.1275485 0.9798525 0.1275485 0.0201475 -0.1275485
3355000000 0.0198807 -0.1265056 0.9801193 0.1265056 0.9801193 0.1265056 0.0198807 -0.1265056
3376000000 0.0196189 -0.1254733 0.9803811 0.1254733 0.9803811 0.1254733 0.0196189 -0.1254733
3397000000 0.0193622 -0.1244513 0.9806378 0.1244513 0.9806378 0.1244513 0.0193622 -0.1244513
3418000000 0.0191103 -0.1234394 0.9808897 0.1234394 0.9808897 0.1234394 0.0191103 -0.1234394
3439000000 0.0188631 -0.1224375 0.9811369 0.1224375 0.9811369 0.1224375 0.0188631 -0.1224375
3460000000 0.0186206 -0.1214454 0.9813794 0.1214454 0.9813794 0.1214454 0.0186206 -0.1214454
3481000000 0.0183826 -0.1204630 0.9816174 0.1204630 0.9816174 0.1204630 0.0183826 -0.1204630
3502000000 0.0181491 -0.1194901 0.9818509 0.1194901 0.9818509 0.1194901 0.0181491 -0.1194901
3523000000 0.0179198 -0.1185265 0.9820802 0.1185265 0.9820802 0.1185265 0.0179198 -0.1185265
3544000000 0.0176948 -0.1175721 0.9823052 0.1175721 0.9823052 0.1175721 0.0176948 -0.1175721
3565000000 0.0174739 -0.1166268 0.9825261 0.1166268 0.9825261 0.1166268 0.0174739 -0.1166268
3586000000 0.0172571 -0.1156903 0.9827429 0.1156903 0.9827429 0.1156903 0.0172571 -0.1156903
3607000000 0.0170442 -0.1147626 0.9829558 0.1147626 0.9829558 0.1147626 0.0170442 -0.1147626
3628000000 0.0168352 -0.1138435 0.9831648 0.1138435 0.9831648 0.1138435 0.0168352 -0.1138435
3649000000 0.0166300 -0.1129329 0.9833700 0.1129329 0.9833700 0.1129329 0.0166300 -0.1129329
3670000000 0.0164284 -0.1120306 0.9835716 0.1120306 0.9835716 0.1120306 0.0164284 -0.1120306
3691000000 0.0162305 -0.1111365 0.9837695 0.1111365 0.9837695 0.1111365 0.0162305 -0.1111365
3712000000 0.0160361 -0.1102505 0.9839639 0.1102505 0.9839639 0.1102505 0.0160361 -0.1102505
3733000000 0.0158452 -0.1093725 0.9841548 0.1093725 0.9841548 0.1093725 0.0158452 -0.1093725
3754000000 0.0156576 -0.1085023 0.9843424 0.1085023 0.9843424 0.1085023 0.0156576 -0.1085023
3775000000 0.0154734 -0.1076398 0.9845266 0.1076398 0.9845266 0.1076398 0.0154734 -0.1076398
3796000000 0.0152924 -0.1067848 0.9847076 0.1067848 0.9847076 0.1067848 0.0152924 -0.1067848
3817000000 0.0151146 -0.1059374 0.9848854 0.1059374 0.9848854 0.1059374 0.0151146 -0.1059374
3838000000 0.0149399 -0.1050973 0.9850601 0.1050973 0.9850601 0.1050973 0.0149399 -0.1050973
3859000000 0.0147682 -0.1042644 0.9852318 0.1042644 0.9852318 0.1042644 0.0147682 -0.1042644
3880000000 0.0145995 -0.1034387 0.9854005 0.1034387 0.9854005 0.1034387 0.0145995 -0.1034387
3901000000 0.0144338 -0.1026201 0.9855662 0.1026201 0.9855662 0.1026201 0.0144338 -0.1026201
3922000000 0.0142709 -0.1018083 0.9857291 0.1018083 0.9857291 0.1018083 0.0142709 -0.1018083
3943000000 0.0141108 -0.1010034 0.9858892 0.1010034 0.9858892 0.1010034 0.0141108 -0.1010034
3964000000 0.0139535 -0.1002052 0.9860465 0.1002052 0.9860465 0.1002052 0.0139535 -0.1002052
3985000000 0.0137988 -0.0994136 0.9862012 0.0994136 0.9862012 0.0994136 0.0137988 -0.0994136
4006000000 0.0136468 -0.0986285 0.9863532 0.0986285 0.9863532 0.0986285 0.0136468 -0.0986285
4027000000 0.0134974 -0.0978499 0.9865026 0.0978499 0.9865026 0.0978499 0.0134974 -0.0978499
4048000000 0.0133505 -0.0970776 0.9866495 0.0970776 0.9866495 0.0970776 0.0133505 -0.0970776
4069000000 0.0132061 -0.0963115 0.9867939 0.0963115 0.9867939 0.0963115 0.0132061 -0.0963115
4090000000 0.0130641 -0.0955516 0.9869359 0.0955516 0.9869359 0.0955516 0.0130641 -0.0955516
4111000000 0.0129246 -0.0947978 0.9870754 0.0947978 0.9870754 0.0947978 0.0129246 -0.0947978
4132000000 0.0127873 -0.0940499 0.9872127 0.0940499 0.9872127 0.0940499 0.0127873 -0.0940499
4153000000 0.0126524 -0.0933079 0.9873476 0.0933079 0.9873476 0.0933079 0.0126524 -0.0933079
4174000000 0.0125197 -0.0925718 0.9874803 0.0925718 0.9874803 0.0925718 0.0125197 -0.0925718
4195000000 0.0123892 -0.0918413 0.9876108 0.0918413 0.9876108 0.0918413 0.0123892 -0.0918413
4216000000 0.0122609 -0.0911165 0.9877391 0.0911165 0.9877391 0.0911165 0.0122609 -0.0911165
4237000000 0.0121348 -0.0903973 0.9878652 0.0903973 0.9878652 0.0903973 0.0121348 -0.0903973
4258000000 0.0120107 -0.0896836 0.9879893 0.0896836 0.9879893 0.0896836 0.0120107 -0.0896836
4279000000 0.0118887 -0.0889753 0.9881113 0.0889753 0.9881113 0.0889753 0.0118887 -0.0889753
4300000000 0.0117686 -0.0882723 0.9882314 0.0882723 0.9882314 0.0882723 0.0117686 -0.0882723
4321000000 0.0116506 -0.0875746 0.9883494 0.0875746 0.9883494 0.0875746 0.0116506 -0.0875746
4342000000 0.0115345 -0.0868820 0.9884655 0.0868820 0.9884655 0.0868820 0.0115345 -0.0868820
4363000000 0.0114203 -0.0861946 0.9885797 0.0861946 0.9885797 0.0861946 0.0114203 -0.0861946
4384000000 0.0113080 -0.0855123 0.9886920 0.0855123 0.9886920 0.0855123 0.0113080 -0.0855123
4405000000 0.0111975 -0.0848349 0.9888025 0.0848349 0.9888025 0.0848349 0.0111975 -0.0848349
4426000000 0.0110888 -0.0841625 0.9889112 0.0841625 0.9889112 0.0841625 0.0110888 -0.0841625
4447000000 0.0109819 -0.0834949 0.9890181 0.0834949 0.9890181 0.0834949 0.0109819 -0.0834949
4468000000 0.0108767 -0.0828321 0.9891233 0.0828321 0.9891233 0.0828321 0.0108767 -0.0828321
4489000000 0.0107733 -0.0821740 0.9892267 0.0821740 0.9892267 0.0821740 0.0107733 -0.0821740
4510000000 0.0106715 -0.0815206 0.9893285 0.0815206 0.9893285 0.0815206 0.0106715 -0.0815206
