!Murata Part Number: GRM0115C1ER90BE01
!These Parameters are Measured in Series Mode Connection
!Data Generated on Mar 30, 2021
!       o--ll--o
!Port1            Port2
!       o------o
!Operation Temp=25[degC], DC Bias Voltage=0[V]
!Freq. Start=100[MHz] Stop=20[GHz] 401[Steps]
# Hz S RI R 50
!Freq.(Hz) S11(Real) S11(Imag) S21(Real) S21(Imag) S12(Real) S12(Imag) S22(Real) S22(Imag)
100000000 0.9967937 -0.0563704 0.0032063 0.0563704 0.0032063 0.0563704 0.9967937 -0.0563704
149750000 0.9928373 -0.0840854 0.0071627 0.0840854 0.0071627 0.0840854 0.9928373 -0.0840854
199500000 0.9873550 -0.1114124 0.0126450 0.1114124 0.0126450 0.1114124 0.9873550 -0.1114124
249250000 0.9803954 -0.1382315 0.0196046 0.1382315 0.0196046 0.1382315 0.9803954 -0.1382315
299000000 0.9720193 -0.1644303 0.0279807 0.1644303 0.0279807 0.1644303 0.9720193 -0.1644303
348750000 0.9622982 -0.1899050 0.0377018 0.1899050 0.0377018 0.1899050 0.9622982 -0.1899050
398500000 0.9513128 -0.2145619 0.0486872 0.2145619 0.0486872 0.2145619 0.9513128 -0.2145619
448250000 0.9391516 -0.2383182 0.0608484 0.2383182 0.0608484 0.2383182 0.9391516 -0.2383182
498000000 0.9259090 -0.2611022 0.0740910 0.2611022 0.0740910 0.2611022 0.9259090 -0.2611022
547750000 0.9116836 -0.2828542 0.0883164 0.2828542 0.0883164 0.2828542 0.9116836 -0.2828542
597500000 0.8965769 -0.3035264 0.1034231 0.3035264 0.1034231 0.3035264 0.8965769 -0.3035264
647250000 0.8806916 -0.3230822 0.1193084 0.3230822 0.1193084 0.3230822 0.8806916 -0.3230822
697000000 0.8641298 -0.3414967 0.1358702 0.3414967 0.1358702 0.3414967 0.8641298 -0.3414967
746750000 0.8469921 -0.3587552 0.1530079 0.3587552 0.1530079 0.3587552 0.8469921 -0.3587552
796500000 0.8293765 -0.3748532 0.1706235 0.3748532 0.1706235 0.3748532 0.8293765 -0.3748532
846250000 0.8113771 -0.3897951 0.1886229 0.3897951 0.1886229 0.3897951 0.8113771 -0.3897951
896000000 0.7930834 -0.4035935 0.2069166 0.4035935 0.2069166 0.4035935 0.7930834 -0.4035935
945750000 0.7745800 -0.4162681 0.2254200 0.4162681 0.2254200 0.4162681 0.7745800 -0.4162681
995500000 0.7559455 -0.4278450 0.2440545 0.4278450 0.2440545 0.4278450 0.7559455 -0.4278450
1045250000 0.7372530 -0.4383554 0.2627470 0.4383554 0.2627470 0.4383554 0.7372530 -0.4383554
1095000000 0.7185692 -0.4478350 0.2814308 0.4478350 0.2814308 0.4478350 0.7185692 -0.4478350
1144750000 0.6999547 -0.4563228 0.3000453 0.4563228 0.3000453 0.4563228 0.6999547 -0.4563228
1194500000 0.6814642 -0.4638607 0.3185358 0.4638607 0.3185358 0.4638607 0.6814642 -0.4638607
1244250000 0.6631463 -0.4704923 0.3368537 0.4704923 0.3368537 0.4704923 0.6631463 -0.4704923
1294000000 0.6450438 -0.4762626 0.3549562 0.4762626 0.3549562 0.4762626 0.6450438 -0.4762626
1343750000 0.6271942 -0.4812173 0.3728058 0.4812173 0.3728058 0.4812173 0.6271942 -0.4812173
1393500000 0.6096298 -0.4854021 0.3903702 0.4854021 0.3903702 0.4854021 0.6096298 -0.4854021
1443250000 0.5923780 -0.4888626 0.4076220 0.4888626 0.4076220 0.4888626 0.5923780 -0.4888626
1493000000 0.5754618 -0.4916436 0.4245382 0.4916436 0.4245382 0.4916436 0.5754618 -0.4916436
1542750000 0.5589001 -0.4937889 0.4410999 0.4937889 0.4410999 0.4937889 0.5589001 -0.4937889
1592500000 0.5427079 -0.4953411 0.4572921 0.4953411 0.4572921 0.4953411 0.5427079 -0.4953411
1642250000 0.5268971 -0.4963415 0.4731029 0.4963415 0.4731029 0.4963415 0.5268971 -0.4963415
1692000000 0.5114762 -0.4968297 0.4885238 0.4968297 0.4885238 0.4968297 0.5114762 -0.4968297
1741750000 0.4964511 -0.4968436 0.5035489 0.4968436 0.5035489 0.4968436 0.4964511 -0.4968436
1791500000 0.4818253 -0.4964194 0.5181747 0.4964194 0.5181747 0.4964194 0.4818253 -0.4964194
1841250000 0.4676001 -0.4955913 0.5323999 0.4955913 0.5323999 0.4955913 0.4676001 -0.4955913
1891000000 0.4537750 -0.4943920 0.5462250 0.4943920 0.5462250 0.4943920 0.4537750 -0.4943920
1940750000 0.4403476 -0.4928522 0.5596524 0.4928522 0.5596524 0.4928522 0.4403476 -0.4928522
1990500000 0.4273145 -0.4910007 0.5726855 0.4910007 0.5726855 0.4910007 0.4273145 -0.4910007
2040250000 0.4146708 -0.4888648 0.5853292 0.4888648 0.5853292 0.4888648 0.4146708 -0.4888648
2090000000 0.4024106 -0.4864698 0.5975894 0.4864698 0.5975894 0.4864698 0.4024106 -0.4864698
2139750000 0.3905273 -0.4838396 0.6094727 0.4838396 0.6094727 0.4838396 0.3905273 -0.4838396
2189500000 0.3790135 -0.4809963 0.6209865 0.4809963 0.6209865 0.4809963 0.3790135 -0.4809963
2239250000 0.3678611 -0.4779607 0.6321389 0.4779607 0.6321389 0.4779607 0.3678611 -0.4779607
2289000000 0.3570619 -0.4747520 0.6429381 0.4747520 0.6429381 0.4747520 0.3570619 -0.4747520
2338750000 0.3466071 -0.4713881 0.6533929 0.4713881 0.6533929 0.4713881 0.3466071 -0.4713881
2388500000 0.3364876 -0.4678854 0.6635124 0.4678854 0.6635124 0.4678854 0.3364876 -0.4678854
2438250000 0.3266942 -0.4642595 0.6733058 0.4642595 0.6733058 0.4642595 0.3266942 -0.4642595
2488000000 0.3172178 -0.4605243 0.6827822 0.4605243 0.6827822 0.4605243 0.3172178 -0.4605243
2537750000 0.3080489 -0.4566932 0.6919511 0.4566932 0.6919511 0.4566932 0.3080489 -0.4566932
2587500000 0.2991782 -0.4527780 0.7008218 0.4527780 0.7008218 0.4527780 0.2991782 -0.4527780
2637250000 0.2905965 -0.4487900 0.7094035 0.4487900 0.7094035 0.4487900 0.2905965 -0.4487900
2687000000 0.2822946 -0.4447394 0.7177054 0.4447394 0.7177054 0.4447394 0.2822946 -0.4447394
2736750000 0.2742635 -0.4406357 0.7257365 0.4406357 0.7257365 0.4406357 0.2742635 -0.4406357
2786500000 0.2664942 -0.4364874 0.7335058 0.4364874 0.7335058 0.4364874 0.2664942 -0.4364874
2836250000 0.2589780 -0.4323026 0.7410220 0.4323026 0.7410220 0.4323026 0.2589780 -0.4323026
2886000000 0.2517064 -0.4280884 0.7482936 0.4280884 0.7482936 0.4280884 0.2517064 -0.4280884
2935750000 0.2446710 -0.4238516 0.7553290 0.4238516 0.7553290 0.4238516 0.2446710 -0.4238516
2985500000 0.2378636 -0.4195981 0.7621364 0.4195981 0.7621364 0.4195981 0.2378636 -0.4195981
3035250000 0.2312764 -0.4153336 0.7687236 0.4153336 0.7687236 0.4153336 0.2312764 -0.4153336
3085000000 0.2249016 -0.4110631 0.7750984 0.4110631 0.7750984 0.4110631 0.2249016 -0.4110631
3134750000 0.2187319 -0.4067913 0.7812681 0.4067913 0.7812681 0.4067913 0.2187319 -0.4067913
3184500000 0.2127599 -0.4025222 0.7872401 0.4025222 0.7872401 0.4025222 0.2127599 -0.4025222
3234250000 0.2069786 -0.3982597 0.7930214 0.3982597 0.7930214 0.3982597 0.2069786 -0.3982597
3284000000 0.2013813 -0.3940073 0.7986187 0.3940073 0.7986187 0.3940073 0.2013813 -0.3940073
3333750000 0.1959614 -0.3897680 0.8040386 0.3897680 0.8040386 0.3897680 0.1959614 -0.3897680
3383500000 0.1907126 -0.3855446 0.8092874 0.3855446 0.8092874 0.3855446 0.1907126 -0.3855446
3433250000 0.1856288 -0.3813398 0.8143712 0.3813398 0.8143712 0.3813398 0.1856288 -0.3813398
3483000000 0.1807041 -0.3771557 0.8192959 0.3771557 0.8192959 0.3771557 0.1807041 -0.3771557
3532750000 0.1759328 -0.3729943 0.8240672 0.3729943 0.8240672 0.3729943 0.1759328 -0.3729943
3582500000 0.1713094 -0.3688576 0.8286906 0.3688576 0.8286906 0.3688576 0.1713094 -0.3688576
3632250000 0.1668287 -0.3647471 0.8331713 0.3647471 0.8331713 0.3647471 0.1668287 -0.3647471
3682000000 0.1624856 -0.3606643 0.8375144 0.3606643 0.8375144 0.3606643 0.1624856 -0.3606643
3731750000 0.1582752 -0.3566103 0.8417248 0.3566103 0.8417248 0.3566103 0.1582752 -0.3566103
3781500000 0.1541928 -0.3525864 0.8458072 0.3525864 0.8458072 0.3525864 0.1541928 -0.3525864
3831250000 0.1502338 -0.3485935 0.8497662 0.3485935 0.8497662 0.3485935 0.1502338 -0.3485935
3881000000 0.1463940 -0.3446324 0.8536060 0.3446324 0.8536060 0.3446324 0.1463940 -0.3446324
3930750000 0.1426691 -0.3407038 0.8573309 0.3407038 0.8573309 0.3407038 0.1426691 -0.3407038
3980500000 0.1390552 -0.3368084 0.8609448 0.3368084 0.8609448 0.3368084 0.1390552 -0.3368084
4030250000 0.1355482 -0.3329467 0.8644518 0.3329467 0.8644518 0.3329467 0.1355482 -0.3329467
4080000000 0.1321446 -0.3291190 0.8678554 0.3291190 0.8678554 0.3291190 0.1321446 -0.3291190
4129750000 0.1288408 -0.3253258 0.8711592 0.3253258 0.8711592 0.3253258 0.1288408 -0.3253258
4179500000 0.1256332 -0.3215672 0.8743668 0.3215672 0.8743668 0.3215672 0.1256332 -0.3215672
4229250000 0.1225186 -0.3178435 0.8774814 0.3178435 0.8774814 0.3178435 0.1225186 -0.3178435
4279000000 0.1194938 -0.3141548 0.8805062 0.3141548 0.8805062 0.3141548 0.1194938 -0.3141548
4328750000 0.1165558 -0.3105012 0.8834442 0.3105012 0.8834442 0.3105012 0.1165558 -0.3105012
4378500000 0.1137016 -0.3068826 0.8862984 0.3068826 0.8862984 0.3068826 0.1137016 -0.3068826
4428250000 0.1109284 -0.3032991 0.8890716 0.3032991 0.8890716 0.3032991 0.1109284 -0.3032991
4478000000 0.1082334 -0.2997506 0.8917666 0.2997506 0.8917666 0.2997506 0.1082334 -0.2997506
4527750000 0.1056141 -0.2962369 0.8943859 0.2962369 0.8943859 0.2962369 0.1056141 -0.2962369
4577500000 0.1030680 -0.2927580 0.8969320 0.2927580 0.8969320 0.2927580 0.1030680 -0.2927580
4627250000 0.1005926 -0.2893136 0.8994074 0.2893136 0.8994074 0.2893136 0.1005926 -0.2893136
4677000000 0.0981855 -0.2859035 0.9018145 0.2859035 0.9018145 0.2859035 0.0981855 -0.2859035
4726750000 0.0958447 -0.2825276 0.9041553 0.2825276 0.9041553 0.2825276 0.0958447 -0.2825276
4776500000 0.0935679 -0.2791855 0.9064321 0.2791855 0.9064321 0.2791855 0.0935679 -0.2791855
4826250000 0.0913530 -0.2758770 0.9086470 0.2758770 0.9086470 0.2758770 0.0913530 -0.2758770
4876000000 0.0891981 -0.2726018 0.9108019 0.2726018 0.9108019 0.2726018 0.0891981 -0.2726018
4925750000 0.0871012 -0.2693596 0.9128988 0.2693596 0.9128988 0.2693596 0.0871012 -0.2693596
4975500000 0.0850605 -0.2661500 0.9149395 0.2661500 0.9149395 0.2661500 0.0850605 -0.2661500
5025250000 0.0830742 -0.2629728 0.9169258 0.2629728 0.9169258 0.2629728 0.0830742 -0.2629728
5075000000 0.0811407 -0.2598276 0.9188593 0.2598276 0.9188593 0.2598276 0.0811407 -0.2598276
5124750000 0.0792582 -0.2567140 0.9207418 0.2567140 0.9207418 0.2567140 0.0792582 -0.2567140
5174500000 0.0774252 -0.2536317 0.9225748 0.2536317 0.9225748 0.2536317 0.0774252 -0.2536317
5224250000 0.0756402 -0.2505804 0.9243598 0.2505804 0.9243598 0.2505804 0.0756402 -0.2505804
5274000000 0.0739017 -0.2475595 0.9260983 0.2475595 0.9260983 0.2475595 0.0739017 -0.2475595
5323750000 0.0722082 -0.2445689 0.9277918 0.2445689 0.9277918 0.2445689 0.0722082 -0.2445689
5373500000 0.0705585 -0.2416080 0.9294415 0.2416080 0.9294415 0.2416080 0.0705585 -0.2416080
5423250000 0.0689511 -0.2386766 0.9310489 0.2386766 0.9310489 0.2386766 0.0689511 -0.2386766
5473000000 0.0673849 -0.2357741 0.9326151 0.2357741 0.9326151 0.2357741 0.0673849 -0.2357741
5522750000 0.0658585 -0.2329003 0.9341415 0.2329003 0.9341415 0.2329003 0.0658585 -0.2329003
5572500000 0.0643709 -0.2300548 0.9356291 0.2300548 0.9356291 0.2300548 0.0643709 -0.2300548
5622250000 0.0629209 -0.2272372 0.9370791 0.2272372 0.9370791 0.2272372 0.0629209 -0.2272372
5672000000 0.0615073 -0.2244470 0.9384927 0.2244470 0.9384927 0.2244470 0.0615073 -0.2244470
5721750000 0.0601292 -0.2216839 0.9398708 0.2216839 0.9398708 0.2216839 0.0601292 -0.2216839
5771500000 0.0587855 -0.2189476 0.9412145 0.2189476 0.9412145 0.2189476 0.0587855 -0.2189476
5821250000 0.0574753 -0.2162376 0.9425247 0.2162376 0.9425247 0.2162376 0.0574753 -0.2162376
5871000000 0.0561975 -0.2135536 0.9438025 0.2135536 0.9438025 0.2135536 0.0561975 -0.2135536
5920750000 0.0549512 -0.2108952 0.9450488 0.2108952 0.9450488 0.2108952 0.0549512 -0.2108952
5970500000 0.0537357 -0.2082621 0.9462643 0.2082621 0.9462643 0.2082621 0.0537357 -0.2082621
6020250000 0.0525499 -0.2056538 0.9474501 0.2056538 0.9474501 0.2056538 0.0525499 -0.2056538
6070000000 0.0513932 -0.2030700 0.9486068 0.2030700 0.9486068 0.2030700 0.0513932 -0.2030700
6119750000 0.0502646 -0.2005103 0.9497354 0.2005103 0.9497354 0.2005103 0.0502646 -0.2005103
6169500000 0.0491634 -0.1979744 0.9508366 0.1979744 0.9508366 0.1979744 0.0491634 -0.1979744
6219250000 0.0480890 -0.1954619 0.9519110 0.1954619 0.9519110 0.1954619 0.0480890 -0.1954619
6269000000 0.0470404 -0.1929725 0.9529596 0.1929725 0.9529596 0.1929725 0.0470404 -0.1929725
6318750000 0.0460172 -0.1905059 0.9539828 0.1905059 0.9539828 0.1905059 0.0460172 -0.1905059
6368500000 0.0450185 -0.1880617 0.9549815 0.1880617 0.9549815 0.1880617 0.0450185 -0.1880617
6418250000 0.0440437 -0.1856395 0.9559563 0.1856395 0.9559563 0.1856395 0.0440437 -0.1856395
6468000000 0.0430923 -0.1832390 0.9569077 0.1832390 0.9569077 0.1832390 0.0430923 -0.1832390
6517750000 0.0421635 -0.1808600 0.9578365 0.1808600 0.9578365 0.1808600 0.0421635 -0.1808600
6567500000 0.0412568 -0.1785020 0.9587432 0.1785020 0.9587432 0.1785020 0.0412568 -0.1785020
6617250000 0.0403717 -0.1761648 0.9596283 0.1761648 0.9596283 0.1761648 0.0403717 -0.1761648
6667000000 0.0395076 -0.1738480 0.9604924 0.1738480 0.9604924 0.1738480 0.0395076 -0.1738480
6716750000 0.0386638 -0.1715514 0.9613362 0.1715514 0.9613362 0.1715514 0.0386638 -0.1715514
6766500000 0.0378401 -0.1692747 0.9621599 0.1692747 0.9621599 0.1692747 0.0378401 -0.1692747
6816250000 0.0370357 -0.1670174 0.9629643 0.1670174 0.9629643 0.1670174 0.0370357 -0.1670174
6866000000 0.0362503 -0.1647794 0.9637497 0.1647794 0.9637497 0.1647794 0.0362503 -0.1647794
6915750000 0.0354833 -0.1625604 0.9645167 0.1625604 0.9645167 0.1625604 0.0354833 -0.1625604
6965500000 0.0347344 -0.1603601 0.9652656 0.1603601 0.9652656 0.1603601 0.0347344 -0.1603601
7015250000 0.0340030 -0.1581781 0.9659970 0.1581781 0.9659970 0.1581781 0.0340030 -0.1581781
7065000000 0.0332888 -0.1560142 0.9667112 0.1560142 0.9667112 0.1560142 0.0332888 -0.1560142
7114750000 0.0325913 -0.1538682 0.9674087 0.1538682 0.9674087 0.1538682 0.0325913 -0.1538682
7164500000 0.0319101 -0.1517398 0.9680899 0.1517398 0.9680899 0.1517398 0.0319101 -0.1517398
7214250000 0.0312449 -0.1496287 0.9687551 0.1496287 0.9687551 0.1496287 0.0312449 -0.1496287
7264000000 0.0305952 -0.1475346 0.9694048 0.1475346 0.9694048 0.1475346 0.0305952 -0.1475346
7313750000 0.0299607 -0.1454573 0.9700393 0.1454573 0.9700393 0.1454573 0.0299607 -0.1454573
7363500000 0.0293411 -0.1433966 0.9706589 0.1433966 0.9706589 0.1433966 0.0293411 -0.1433966
7413250000 0.0287359 -0.1413522 0.9712641 0.1413522 0.9712641 0.1413522 0.0287359 -0.1413522
7463000000 0.0281449 -0.1393239 0.9718551 0.1393239 0.9718551 0.1393239 0.0281449 -0.1393239
7512750000 0.0275677 -0.1373113 0.9724323 0.1373113 0.9724323 0.1373113 0.0275677 -0.1373113
7562500000 0.0270041 -0.1353144 0.9729959 0.1353144 0.9729959 0.1353144 0.0270041 -0.1353144
7612250000 0.0264536 -0.1333328 0.9735464 0.1333328 0.9735464 0.1333328 0.0264536 -0.1333328
7662000000 0.0259161 -0.1313664 0.9740839 0.1313664 0.9740839 0.1313664 0.0259161 -0.1313664
7711750000 0.0253912 -0.1294148 0.9746088 0.1294148 0.9746088 0.1294148 0.0253912 -0.1294148
7761500000 0.0248786 -0.1274780 0.9751214 0.1274780 0.9751214 0.1274780 0.0248786 -0.1274780
7811250000 0.0243781 -0.1255556 0.9756219 0.1255556 0.9756219 0.1255556 0.0243781 -0.1255556
7861000000 0.0238894 -0.1236475 0.9761106 0.1236475 0.9761106 0.1236475 0.0238894 -0.1236475
7910750000 0.0234122 -0.1217535 0.9765878 0.1217535 0.9765878 0.1217535 0.0234122 -0.1217535
7960500000 0.0229464 -0.1198734 0.9770536 0.1198734 0.9770536 0.1198734 0.0229464 -0.1198734
8010250000 0.0224916 -0.1180069 0.9775084 0.1180069 0.9775084 0.1180069 0.0224916 -0.1180069
8060000000 0.0220476 -0.1161538 0.9779524 0.1161538 0.9779524 0.1161538 0.0220476 -0.1161538
8109750000 0.0216142 -0.1143140 0.9783858 0.1143140 0.9783858 0.1143140 0.0216142 -0.1143140
8159500000 0.0211912 -0.1124874 0.9788088 0.1124874 0.9788088 0.1124874 0.0211912 -0.1124874
8209250000 0.0207783 -0.1106736 0.9792217 0.1106736 0.9792217 0.1106736 0.0207783 -0.1106736
8259000000 0.0203754 -0.1088725 0.9796246 0.1088725 0.9796246 0.1088725 0.0203754 -0.1088725
8308750000 0.0199822 -0.1070840 0.9800178 0.1070840 0.9800178 0.1070840 0.0199822 -0.1070840
8358500000 0.0195985 -0.1053078 0.9804015 0.1053078 0.9804015 0.1053078 0.0195985 -0.1053078
8408250000 0.0192242 -0.1035438 0.9807758 0.1035438 0.9807758 0.1035438 0.0192242 -0.1035438
8458000000 0.0188590 -0.1017918 0.9811410 0.1017918 0.9811410 0.1017918 0.0188590 -0.1017918
8507750000 0.0185028 -0.1000516 0.9814972 0.1000516 0.9814972 0.1000516 0.0185028 -0.1000516
8557500000 0.0181554 -0.0983232 0.9818446 0.0983232 0.9818446 0.0983232 0.0181554 -0.0983232
8607250000 0.0178166 -0.0966062 0.9821834 0.0966062 0.9821834 0.0966062 0.0178166 -0.0966062
8657000000 0.0174862 -0.0949006 0.9825138 0.0949006 0.9825138 0.0949006 0.0174862 -0.0949006
8706750000 0.0171641 -0.0932062 0.9828359 0.0932062 0.9828359 0.0932062 0.0171641 -0.0932062
8756500000 0.0168501 -0.0915229 0.9831499 0.0915229 0.9831499 0.0915229 0.0168501 -0.0915229
8806250000 0.0165440 -0.0898505 0.9834560 0.0898505 0.9834560 0.0898505 0.0165440 -0.0898505
8856000000 0.0162458 -0.0881888 0.9837542 0.0881888 0.9837542 0.0881888 0.0162458 -0.0881888
8905750000 0.0159552 -0.0865377 0.9840448 0.0865377 0.9840448 0.0865377 0.0159552 -0.0865377
8955500000 0.0156722 -0.0848971 0.9843278 0.0848971 0.9843278 0.0848971 0.0156722 -0.0848971
9005250000 0.0153965 -0.0832668 0.9846035 0.0832668 0.9846035 0.0832668 0.0153965 -0.0832668
9055000000 0.0151280 -0.0816467 0.9848720 0.0816467 0.9848720 0.0816467 0.0151280 -0.0816467
9104750000 0.0148666 -0.0800366 0.9851334 0.0800366 0.9851334 0.0800366 0.0148666 -0.0800366
9154500000 0.0146122 -0.0784364 0.9853878 0.0784364 0.9853878 0.0784364 0.0146122 -0.0784364
9204250000 0.0143647 -0.0768460 0.9856353 0.0768460 0.9856353 0.0768460 0.0143647 -0.0768460
9254000000 0.0141238 -0.0752653 0.9858762 0.0752653 0.9858762 0.0752653 0.0141238 -0.0752653
9303750000 0.0138896 -0.0736941 0.9861104 0.0736941 0.9861104 0.0736941 0.0138896 -0.0736941
9353500000 0.0136618 -0.0721323 0.9863382 0.0721323 0.9863382 0.0721323 0.0136618 -0.0721323
9403250000 0.0134403 -0.0705798 0.9865597 0.0705798 0.9865597 0.0705798 0.0134403 -0.0705798
9453000000 0.0132251 -0.0690364 0.9867749 0.0690364 0.9867749 0.0690364 0.0132251 -0.0690364
9502750000 0.0130161 -0.0675021 0.9869839 0.0675021 0.9869839 0.0675021 0.0130161 -0.0675021
9552500000 0.0128130 -0.0659767 0.9871870 0.0659767 0.9871870 0.0659767 0.0128130 -0.0659767
9602250000 0.0126159 -0.0644601 0.9873841 0.0644601 0.9873841 0.0644601 0.0126159 -0.0644601
9652000000 0.0124246 -0.0629522 0.9875754 0.0629522 0.9875754 0.0629522 0.0124246 -0.0629522
9701750000 0.0122391 -0.0614529 0.9877609 0.0614529 0.9877609 0.0614529 0.0122391 -0.0614529
9751500000 0.0120591 -0.0599621 0.9879409 0.0599621 0.9879409 0.0599621 0.0120591 -0.0599621
9801250000 0.0118847 -0.0584796 0.9881153 0.0584796 0.9881153 0.0584796 0.0118847 -0.0584796
9851000000 0.0117157 -0.0570054 0.9882843 0.0570054 0.9882843 0.0570054 0.0117157 -0.0570054
9900750000 0.0115521 -0.0555394 0.9884479 0.0555394 0.9884479 0.0555394 0.0115521 -0.0555394
9950500000 0.0113937 -0.0540814 0.9886063 0.0540814 0.9886063 0.0540814 0.0113937 -0.0540814
10000250000 0.0112405 -0.0526314 0.9887595 0.0526314 0.9887595 0.0526314 0.0112405 -0.0526314
10050000000 0.0110923 -0.0511892 0.9889077 0.0511892 0.9889077 0.0511892 0.0110923 -0.0511892
10099750000 0.0109492 -0.0497548 0.9890508 0.0497548 0.9890508 0.0497548 0.0109492 -0.0497548
10149500000 0.0108110 -0.0483281 0.9891890 0.0483281 0.9891890 0.0483281 0.0108110 -0.0483281
10199250000 0.0106776 -0.0469089 0.9893224 0.0469089 0.9893224 0.0469089 0.0106776 -0.0469089
10249000000 0.0105490 -0.0454973 0.9894510 0.0454973 0.9894510 0.0454973 0.0105490 -0.0454973
10298750000 0.0104250 -0.0440930 0.9895750 0.0440930 0.9895750 0.0440930 0.0104250 -0.0440930
10348500000 0.0103057 -0.0426960 0.9896943 0.0426960 0.9896943 0.0426960 0.0103057 -0.0426960
10398250000 0.0101909 -0.0413062 0.9898091 0.0413062 0.9898091 0.0413062 0.0101909 -0.0413062
10448000000 0.0100806 -0.0399236 0.9899194 0.0399236 0.9899194 0.0399236 0.0100806 -0.0399236
10497750000 0.0099747 -0.0385480 0.9900253 0.0385480 0.9900253 0.0385480 0.0099747 -0.0385480
