!Murata Part Number: GRM0115C1CR80BE11
!These Parameters are Measured in Series Mode Connection
!Data Generated on Mar 30, 2021
!       o--ll--o
!Port1            Port2
!       o------o
!Operation Temp=25[degC], DC Bias Voltage=0[V]
!Freq. Start=100[MHz] Stop=20[GHz] 401[Steps]
# Hz S RI R 50
!Freq.(Hz) S11(Real) S11(Imag) S21(Real) S21(Imag) S12(Real) S12(Imag) S22(Real) S22(Imag)
100000000 0.9974687 -0.0501408 0.0025313 0.0501408 0.0025313 0.0501408 0.9974687 -0.0501408
149750000 0.9943405 -0.0748551 0.0056595 0.0748551 0.0056595 0.0748551 0.9943405 -0.0748551
199500000 0.9899973 -0.0992967 0.0100027 0.0992967 0.0100027 0.0992967 0.9899973 -0.0992967
249250000 0.9844696 -0.1233800 0.0155304 0.1233800 0.0155304 0.1233800 0.9844696 -0.1233800
299000000 0.9777958 -0.1470236 0.0222042 0.1470236 0.0222042 0.1470236 0.9777958 -0.1470236
348750000 0.9700211 -0.1701509 0.0299789 0.1701509 0.0299789 0.1701509 0.9700211 -0.1701509
398500000 0.9611975 -0.1926911 0.0388025 0.1926911 0.0388025 0.1926911 0.9611975 -0.1926911
448250000 0.9513821 -0.2145799 0.0486179 0.2145799 0.0486179 0.2145799 0.9513821 -0.2145799
498000000 0.9406370 -0.2357593 0.0593630 0.2357593 0.0593630 0.2357593 0.9406370 -0.2357593
547750000 0.9290280 -0.2561787 0.0709720 0.2561787 0.0709720 0.2561787 0.9290280 -0.2561787
597500000 0.9166235 -0.2757946 0.0833765 0.2757946 0.0833765 0.2757946 0.9166235 -0.2757946
647250000 0.9034941 -0.2945711 0.0965059 0.2945711 0.0965059 0.2945711 0.9034941 -0.2945711
697000000 0.8897113 -0.3124792 0.1102887 0.3124792 0.1102887 0.3124792 0.8897113 -0.3124792
746750000 0.8753469 -0.3294971 0.1246531 0.3294971 0.1246531 0.3294971 0.8753469 -0.3294971
796500000 0.8604720 -0.3456099 0.1395280 0.3456099 0.1395280 0.3456099 0.8604720 -0.3456099
846250000 0.8451568 -0.3608092 0.1548432 0.3608092 0.1548432 0.3608092 0.8451568 -0.3608092
896000000 0.8294693 -0.3750924 0.1705307 0.3750924 0.1705307 0.3750924 0.8294693 -0.3750924
945750000 0.8134755 -0.3884628 0.1865245 0.3884628 0.1865245 0.3884628 0.8134755 -0.3884628
995500000 0.7972382 -0.4009285 0.2027618 0.4009285 0.2027618 0.4009285 0.7972382 -0.4009285
1045250000 0.7808176 -0.4125023 0.2191824 0.4125023 0.2191824 0.4125023 0.7808176 -0.4125023
1095000000 0.7642699 -0.4232010 0.2357301 0.4232010 0.2357301 0.4232010 0.7642699 -0.4232010
1144750000 0.7476482 -0.4330449 0.2523518 0.4330449 0.2523518 0.4330449 0.7476482 -0.4330449
1194500000 0.7310015 -0.4420573 0.2689985 0.4420573 0.2689985 0.4420573 0.7310015 -0.4420573
1244250000 0.7143751 -0.4502640 0.2856249 0.4502640 0.2856249 0.4502640 0.7143751 -0.4502640
1294000000 0.6978107 -0.4576926 0.3021893 0.4576926 0.3021893 0.4576926 0.6978107 -0.4576926
1343750000 0.6813461 -0.4643727 0.3186539 0.4643727 0.3186539 0.4643727 0.6813461 -0.4643727
1393500000 0.6650152 -0.4703348 0.3349848 0.4703348 0.3349848 0.4703348 0.6650152 -0.4703348
1443250000 0.6488486 -0.4756102 0.3511514 0.4756102 0.3511514 0.4756102 0.6488486 -0.4756102
1493000000 0.6328735 -0.4802308 0.3671265 0.4802308 0.3671265 0.4802308 0.6328735 -0.4802308
1542750000 0.6171138 -0.4842286 0.3828862 0.4842286 0.3828862 0.4842286 0.6171138 -0.4842286
1592500000 0.6015901 -0.4876355 0.3984099 0.4876355 0.3984099 0.4876355 0.6015901 -0.4876355
1642250000 0.5863205 -0.4904833 0.4136795 0.4904833 0.4136795 0.4904833 0.5863205 -0.4904833
1692000000 0.5713200 -0.4928032 0.4286800 0.4928032 0.4286800 0.4928032 0.5713200 -0.4928032
1741750000 0.5566014 -0.4946256 0.4433986 0.4946256 0.4433986 0.4946256 0.5566014 -0.4946256
1791500000 0.5421752 -0.4959803 0.4578248 0.4959803 0.4578248 0.4959803 0.5421752 -0.4959803
1841250000 0.5280495 -0.4968962 0.4719505 0.4968962 0.4719505 0.4968962 0.5280495 -0.4968962
1891000000 0.5142309 -0.4974013 0.4857691 0.4974013 0.4857691 0.4974013 0.5142309 -0.4974013
1940750000 0.5007238 -0.4975223 0.4992762 0.4975223 0.4992762 0.4975223 0.5007238 -0.4975223
1990500000 0.4875314 -0.4972850 0.5124686 0.4972850 0.5124686 0.4972850 0.4875314 -0.4972850
2040250000 0.4746553 -0.4967142 0.5253447 0.4967142 0.5253447 0.4967142 0.4746553 -0.4967142
2090000000 0.4620959 -0.4958334 0.5379041 0.4958334 0.5379041 0.4958334 0.4620959 -0.4958334
2139750000 0.4498525 -0.4946649 0.5501475 0.4946649 0.5501475 0.4946649 0.4498525 -0.4946649
2189500000 0.4379234 -0.4932302 0.5620766 0.4932302 0.5620766 0.4932302 0.4379234 -0.4932302
2239250000 0.4263060 -0.4915493 0.5736940 0.4915493 0.5736940 0.4915493 0.4263060 -0.4915493
2289000000 0.4149970 -0.4896414 0.5850030 0.4896414 0.5850030 0.4896414 0.4149970 -0.4896414
2338750000 0.4039924 -0.4875245 0.5960076 0.4875245 0.5960076 0.4875245 0.4039924 -0.4875245
2388500000 0.3932877 -0.4852156 0.6067123 0.4852156 0.6067123 0.4852156 0.3932877 -0.4852156
2438250000 0.3828780 -0.4827307 0.6171220 0.4827307 0.6171220 0.4827307 0.3828780 -0.4827307
2488000000 0.3727579 -0.4800848 0.6272421 0.4800848 0.6272421 0.4800848 0.3727579 -0.4800848
2537750000 0.3629216 -0.4772921 0.6370784 0.4772921 0.6370784 0.4772921 0.3629216 -0.4772921
2587500000 0.3533632 -0.4743657 0.6466368 0.4743657 0.6466368 0.4743657 0.3533632 -0.4743657
2637250000 0.3440766 -0.4713180 0.6559234 0.4713180 0.6559234 0.4713180 0.3440766 -0.4713180
2687000000 0.3350555 -0.4681607 0.6649445 0.4681607 0.6649445 0.4681607 0.3350555 -0.4681607
2736750000 0.3262934 -0.4649046 0.6737066 0.4649046 0.6737066 0.4649046 0.3262934 -0.4649046
2786500000 0.3177838 -0.4615597 0.6822162 0.4615597 0.6822162 0.4615597 0.3177838 -0.4615597
2836250000 0.3095203 -0.4581355 0.6904797 0.4581355 0.6904797 0.4581355 0.3095203 -0.4581355
2886000000 0.3014962 -0.4546408 0.6985038 0.4546408 0.6985038 0.4546408 0.3014962 -0.4546408
2935750000 0.2937051 -0.4510836 0.7062949 0.4510836 0.7062949 0.4510836 0.2937051 -0.4510836
2985500000 0.2861406 -0.4474716 0.7138594 0.4474716 0.7138594 0.4474716 0.2861406 -0.4474716
3035250000 0.2787961 -0.4438118 0.7212039 0.4438118 0.7212039 0.4438118 0.2787961 -0.4438118
3085000000 0.2716654 -0.4401109 0.7283346 0.4401109 0.7283346 0.4401109 0.2716654 -0.4401109
3134750000 0.2647422 -0.4363747 0.7352578 0.4363747 0.7352578 0.4363747 0.2647422 -0.4363747
3184500000 0.2580204 -0.4326090 0.7419796 0.4326090 0.7419796 0.4326090 0.2580204 -0.4326090
3234250000 0.2514939 -0.4288189 0.7485061 0.4288189 0.7485061 0.4288189 0.2514939 -0.4288189
3284000000 0.2451570 -0.4250093 0.7548430 0.4250093 0.7548430 0.4250093 0.2451570 -0.4250093
3333750000 0.2390037 -0.4211846 0.7609963 0.4211846 0.7609963 0.4211846 0.2390037 -0.4211846
3383500000 0.2330284 -0.4173488 0.7669716 0.4173488 0.7669716 0.4173488 0.2330284 -0.4173488
3433250000 0.2272257 -0.4135058 0.7727743 0.4135058 0.7727743 0.4135058 0.2272257 -0.4135058
3483000000 0.2215902 -0.4096591 0.7784098 0.4096591 0.7784098 0.4096591 0.2215902 -0.4096591
3532750000 0.2161167 -0.4058118 0.7838833 0.4058118 0.7838833 0.4058118 0.2161167 -0.4058118
3582500000 0.2108000 -0.4019668 0.7892000 0.4019668 0.7892000 0.4019668 0.2108000 -0.4019668
3632250000 0.2056353 -0.3981270 0.7943647 0.3981270 0.7943647 0.3981270 0.2056353 -0.3981270
3682000000 0.2006177 -0.3942947 0.7993823 0.3942947 0.7993823 0.3942947 0.2006177 -0.3942947
3731750000 0.1957426 -0.3904722 0.8042574 0.3904722 0.8042574 0.3904722 0.1957426 -0.3904722
3781500000 0.1910056 -0.3866615 0.8089944 0.3866615 0.8089944 0.3866615 0.1910056 -0.3866615
3831250000 0.1864021 -0.3828647 0.8135979 0.3828647 0.8135979 0.3828647 0.1864021 -0.3828647
3881000000 0.1819280 -0.3790833 0.8180720 0.3790833 0.8180720 0.3790833 0.1819280 -0.3790833
3930750000 0.1775791 -0.3753190 0.8224209 0.3753190 0.8224209 0.3753190 0.1775791 -0.3753190
3980500000 0.1733515 -0.3715731 0.8266485 0.3715731 0.8266485 0.3715731 0.1733515 -0.3715731
4030250000 0.1692414 -0.3678469 0.8307586 0.3678469 0.8307586 0.3678469 0.1692414 -0.3678469
4080000000 0.1652450 -0.3641417 0.8347550 0.3641417 0.8347550 0.3641417 0.1652450 -0.3641417
4129750000 0.1613587 -0.3604583 0.8386413 0.3604583 0.8386413 0.3604583 0.1613587 -0.3604583
4179500000 0.1575790 -0.3567978 0.8424210 0.3567978 0.8424210 0.3567978 0.1575790 -0.3567978
4229250000 0.1539026 -0.3531610 0.8460974 0.3531610 0.8460974 0.3531610 0.1539026 -0.3531610
4279000000 0.1503262 -0.3495486 0.8496738 0.3495486 0.8496738 0.3495486 0.1503262 -0.3495486
4328750000 0.1468467 -0.3459613 0.8531533 0.3459613 0.8531533 0.3459613 0.1468467 -0.3459613
4378500000 0.1434610 -0.3423996 0.8565390 0.3423996 0.8565390 0.3423996 0.1434610 -0.3423996
4428250000 0.1401662 -0.3388640 0.8598338 0.3388640 0.8598338 0.3388640 0.1401662 -0.3388640
4478000000 0.1369594 -0.3353550 0.8630406 0.3353550 0.8630406 0.3353550 0.1369594 -0.3353550
4527750000 0.1338380 -0.3318729 0.8661620 0.3318729 0.8661620 0.3318729 0.1338380 -0.3318729
4577500000 0.1307993 -0.3284181 0.8692007 0.3284181 0.8692007 0.3284181 0.1307993 -0.3284181
4627250000 0.1278407 -0.3249907 0.8721593 0.3249907 0.8721593 0.3249907 0.1278407 -0.3249907
4677000000 0.1249597 -0.3215911 0.8750403 0.3215911 0.8750403 0.3215911 0.1249597 -0.3215911
4726750000 0.1221541 -0.3182193 0.8778459 0.3182193 0.8778459 0.3182193 0.1221541 -0.3182193
4776500000 0.1194214 -0.3148754 0.8805786 0.3148754 0.8805786 0.3148754 0.1194214 -0.3148754
4826250000 0.1167594 -0.3115597 0.8832406 0.3115597 0.8832406 0.3115597 0.1167594 -0.3115597
4876000000 0.1141661 -0.3082720 0.8858339 0.3082720 0.8858339 0.3082720 0.1141661 -0.3082720
4925750000 0.1116392 -0.3050124 0.8883608 0.3050124 0.8883608 0.3050124 0.1116392 -0.3050124
4975500000 0.1091770 -0.3017809 0.8908230 0.3017809 0.8908230 0.3017809 0.1091770 -0.3017809
5025250000 0.1067773 -0.2985775 0.8932227 0.2985775 0.8932227 0.2985775 0.1067773 -0.2985775
5075000000 0.1044383 -0.2954020 0.8955617 0.2954020 0.8955617 0.2954020 0.1044383 -0.2954020
5124750000 0.1021583 -0.2922544 0.8978417 0.2922544 0.8978417 0.2922544 0.1021583 -0.2922544
5174500000 0.0999355 -0.2891346 0.9000645 0.2891346 0.9000645 0.2891346 0.0999355 -0.2891346
5224250000 0.0977682 -0.2860424 0.9022318 0.2860424 0.9022318 0.2860424 0.0977682 -0.2860424
5274000000 0.0956547 -0.2829777 0.9043453 0.2829777 0.9043453 0.2829777 0.0956547 -0.2829777
5323750000 0.0935936 -0.2799403 0.9064064 0.2799403 0.9064064 0.2799403 0.0935936 -0.2799403
5373500000 0.0915833 -0.2769300 0.9084167 0.2769300 0.9084167 0.2769300 0.0915833 -0.2769300
5423250000 0.0896222 -0.2739467 0.9103778 0.2739467 0.9103778 0.2739467 0.0896222 -0.2739467
5473000000 0.0877091 -0.2709901 0.9122909 0.2709901 0.9122909 0.2709901 0.0877091 -0.2709901
5522750000 0.0858426 -0.2680600 0.9141574 0.2680600 0.9141574 0.2680600 0.0858426 -0.2680600
5572500000 0.0840212 -0.2651563 0.9159788 0.2651563 0.9159788 0.2651563 0.0840212 -0.2651563
5622250000 0.0822438 -0.2622786 0.9177562 0.2622786 0.9177562 0.2622786 0.0822438 -0.2622786
5672000000 0.0805091 -0.2594267 0.9194909 0.2594267 0.9194909 0.2594267 0.0805091 -0.2594267
5721750000 0.0788159 -0.2566004 0.9211841 0.2566004 0.9211841 0.2566004 0.0788159 -0.2566004
5771500000 0.0771631 -0.2537994 0.9228369 0.2537994 0.9228369 0.2537994 0.0771631 -0.2537994
5821250000 0.0755494 -0.2510235 0.9244506 0.2510235 0.9244506 0.2510235 0.0755494 -0.2510235
5871000000 0.0739740 -0.2482724 0.9260260 0.2482724 0.9260260 0.2482724 0.0739740 -0.2482724
5920750000 0.0724356 -0.2455459 0.9275644 0.2455459 0.9275644 0.2455459 0.0724356 -0.2455459
5970500000 0.0709333 -0.2428436 0.9290667 0.2428436 0.9290667 0.2428436 0.0709333 -0.2428436
6020250000 0.0694661 -0.2401654 0.9305339 0.2401654 0.9305339 0.2401654 0.0694661 -0.2401654
6070000000 0.0680331 -0.2375109 0.9319669 0.2375109 0.9319669 0.2375109 0.0680331 -0.2375109
6119750000 0.0666334 -0.2348799 0.9333666 0.2348799 0.9333666 0.2348799 0.0666334 -0.2348799
6169500000 0.0652659 -0.2322720 0.9347341 0.2322720 0.9347341 0.2322720 0.0652659 -0.2322720
6219250000 0.0639300 -0.2296871 0.9360700 0.2296871 0.9360700 0.2296871 0.0639300 -0.2296871
6269000000 0.0626248 -0.2271248 0.9373752 0.2271248 0.9373752 0.2271248 0.0626248 -0.2271248
6318750000 0.0613494 -0.2245849 0.9386506 0.2245849 0.9386506 0.2245849 0.0613494 -0.2245849
6368500000 0.0601031 -0.2220671 0.9398969 0.2220671 0.9398969 0.2220671 0.0601031 -0.2220671
6418250000 0.0588851 -0.2195711 0.9411149 0.2195711 0.9411149 0.2195711 0.0588851 -0.2195711
6468000000 0.0576947 -0.2170967 0.9423053 0.2170967 0.9423053 0.2170967 0.0576947 -0.2170967
6517750000 0.0565312 -0.2146436 0.9434688 0.2146436 0.9434688 0.2146436 0.0565312 -0.2146436
6567500000 0.0553939 -0.2122115 0.9446061 0.2122115 0.9446061 0.2122115 0.0553939 -0.2122115
6617250000 0.0542822 -0.2098001 0.9457178 0.2098001 0.9457178 0.2098001 0.0542822 -0.2098001
6667000000 0.0531953 -0.2074092 0.9468047 0.2074092 0.9468047 0.2074092 0.0531953 -0.2074092
6716750000 0.0521327 -0.2050385 0.9478673 0.2050385 0.9478673 0.2050385 0.0521327 -0.2050385
6766500000 0.0510937 -0.2026878 0.9489063 0.2026878 0.9489063 0.2026878 0.0510937 -0.2026878
6816250000 0.0500778 -0.2003567 0.9499222 0.2003567 0.9499222 0.2003567 0.0500778 -0.2003567
6866000000 0.0490844 -0.1980451 0.9509156 0.1980451 0.9509156 0.1980451 0.0490844 -0.1980451
6915750000 0.0481129 -0.1957527 0.9518871 0.1957527 0.9518871 0.1957527 0.0481129 -0.1957527
6965500000 0.0471629 -0.1934792 0.9528371 0.1934792 0.9528371 0.1934792 0.0471629 -0.1934792
7015250000 0.0462337 -0.1912244 0.9537663 0.1912244 0.9537663 0.1912244 0.0462337 -0.1912244
7065000000 0.0453250 -0.1889880 0.9546750 0.1889880 0.9546750 0.1889880 0.0453250 -0.1889880
7114750000 0.0444361 -0.1867698 0.9555639 0.1867698 0.9555639 0.1867698 0.0444361 -0.1867698
7164500000 0.0435666 -0.1845695 0.9564334 0.1845695 0.9564334 0.1845695 0.0435666 -0.1845695
7214250000 0.0427162 -0.1823869 0.9572838 0.1823869 0.9572838 0.1823869 0.0427162 -0.1823869
7264000000 0.0418842 -0.1802218 0.9581158 0.1802218 0.9581158 0.1802218 0.0418842 -0.1802218
7313750000 0.0410703 -0.1780739 0.9589297 0.1780739 0.9589297 0.1780739 0.0410703 -0.1780739
7363500000 0.0402740 -0.1759430 0.9597260 0.1759430 0.9597260 0.1759430 0.0402740 -0.1759430
7413250000 0.0394950 -0.1738289 0.9605050 0.1738289 0.9605050 0.1738289 0.0394950 -0.1738289
7463000000 0.0387329 -0.1717313 0.9612671 0.1717313 0.9612671 0.1717313 0.0387329 -0.1717313
7512750000 0.0379872 -0.1696501 0.9620128 0.1696501 0.9620128 0.1696501 0.0379872 -0.1696501
7562500000 0.0372576 -0.1675849 0.9627424 0.1675849 0.9627424 0.1675849 0.0372576 -0.1675849
7612250000 0.0365437 -0.1655357 0.9634563 0.1655357 0.9634563 0.1655357 0.0365437 -0.1655357
7662000000 0.0358452 -0.1635021 0.9641548 0.1635021 0.9641548 0.1635021 0.0358452 -0.1635021
7711750000 0.0351617 -0.1614839 0.9648383 0.1614839 0.9648383 0.1614839 0.0351617 -0.1614839
7761500000 0.0344929 -0.1594810 0.9655071 0.1594810 0.9655071 0.1594810 0.0344929 -0.1594810
7811250000 0.0338385 -0.1574932 0.9661615 0.1574932 0.9661615 0.1574932 0.0338385 -0.1574932
7861000000 0.0331981 -0.1555202 0.9668019 0.1555202 0.9668019 0.1555202 0.0331981 -0.1555202
7910750000 0.0325714 -0.1535618 0.9674286 0.1535618 0.9674286 0.1535618 0.0325714 -0.1535618
7960500000 0.0319582 -0.1516179 0.9680418 0.1516179 0.9680418 0.1516179 0.0319582 -0.1516179
8010250000 0.0313582 -0.1496883 0.9686418 0.1496883 0.9686418 0.1496883 0.0313582 -0.1496883
8060000000 0.0307710 -0.1477727 0.9692290 0.1477727 0.9692290 0.1477727 0.0307710 -0.1477727
8109750000 0.0301964 -0.1458710 0.9698036 0.1458710 0.9698036 0.1458710 0.0301964 -0.1458710
8159500000 0.0296341 -0.1439829 0.9703659 0.1439829 0.9703659 0.1439829 0.0296341 -0.1439829
8209250000 0.0290839 -0.1421084 0.9709161 0.1421084 0.9709161 0.1421084 0.0290839 -0.1421084
8259000000 0.0285455 -0.1402472 0.9714545 0.1402472 0.9714545 0.1402472 0.0285455 -0.1402472
8308750000 0.0280187 -0.1383992 0.9719813 0.1383992 0.9719813 0.1383992 0.0280187 -0.1383992
8358500000 0.0275032 -0.1365641 0.9724968 0.1365641 0.9724968 0.1365641 0.0275032 -0.1365641
8408250000 0.0269987 -0.1347419 0.9730013 0.1347419 0.9730013 0.1347419 0.0269987 -0.1347419
8458000000 0.0265052 -0.1329323 0.9734948 0.1329323 0.9734948 0.1329323 0.0265052 -0.1329323
8507750000 0.0260222 -0.1311351 0.9739778 0.1311351 0.9739778 0.1311351 0.0260222 -0.1311351
8557500000 0.0255498 -0.1293503 0.9744502 0.1293503 0.9744502 0.1293503 0.0255498 -0.1293503
8607250000 0.0250875 -0.1275776 0.9749125 0.1275776 0.9749125 0.1275776 0.0250875 -0.1275776
8657000000 0.0246352 -0.1258169 0.9753648 0.1258169 0.9753648 0.1258169 0.0246352 -0.1258169
8706750000 0.0241927 -0.1240680 0.9758073 0.1240680 0.9758073 0.1240680 0.0241927 -0.1240680
8756500000 0.0237599 -0.1223308 0.9762401 0.1223308 0.9762401 0.1223308 0.0237599 -0.1223308
8806250000 0.0233365 -0.1206051 0.9766635 0.1206051 0.9766635 0.1206051 0.0233365 -0.1206051
8856000000 0.0229223 -0.1188908 0.9770777 0.1188908 0.9770777 0.1188908 0.0229223 -0.1188908
8905750000 0.0225172 -0.1171877 0.9774828 0.1171877 0.9774828 0.1171877 0.0225172 -0.1171877
8955500000 0.0221209 -0.1154957 0.9778791 0.1154957 0.9778791 0.1154957 0.0221209 -0.1154957
9005250000 0.0217334 -0.1138146 0.9782666 0.1138146 0.9782666 0.1138146 0.0217334 -0.1138146
9055000000 0.0213544 -0.1121443 0.9786456 0.1121443 0.9786456 0.1121443 0.0213544 -0.1121443
9104750000 0.0209838 -0.1104847 0.9790162 0.1104847 0.9790162 0.1104847 0.0209838 -0.1104847
9154500000 0.0206215 -0.1088356 0.9793785 0.1088356 0.9793785 0.1088356 0.0206215 -0.1088356
9204250000 0.0202672 -0.1071969 0.9797328 0.1071969 0.9797328 0.1071969 0.0202672 -0.1071969
9254000000 0.0199208 -0.1055684 0.9800792 0.1055684 0.9800792 0.1055684 0.0199208 -0.1055684
9303750000 0.0195822 -0.1039501 0.9804178 0.1039501 0.9804178 0.1039501 0.0195822 -0.1039501
9353500000 0.0192513 -0.1023417 0.9807487 0.1023417 0.9807487 0.1023417 0.0192513 -0.1023417
9403250000 0.0189278 -0.1007433 0.9810722 0.1007433 0.9810722 0.1007433 0.0189278 -0.1007433
9453000000 0.0186117 -0.0991546 0.9813883 0.0991546 0.9813883 0.0991546 0.0186117 -0.0991546
9502750000 0.0183028 -0.0975755 0.9816972 0.0975755 0.9816972 0.0975755 0.0183028 -0.0975755
9552500000 0.0180010 -0.0960059 0.9819990 0.0960059 0.9819990 0.0960059 0.0180010 -0.0960059
9602250000 0.0177062 -0.0944457 0.9822938 0.0944457 0.9822938 0.0944457 0.0177062 -0.0944457
9652000000 0.0174182 -0.0928948 0.9825818 0.0928948 0.9825818 0.0928948 0.0174182 -0.0928948
9701750000 0.0171369 -0.0913531 0.9828631 0.0913531 0.9828631 0.0913531 0.0171369 -0.0913531
9751500000 0.0168622 -0.0898203 0.9831378 0.0898203 0.9831378 0.0898203 0.0168622 -0.0898203
9801250000 0.0165940 -0.0882966 0.9834060 0.0882966 0.9834060 0.0882966 0.0165940 -0.0882966
9851000000 0.0163322 -0.0867816 0.9836678 0.0867816 0.9836678 0.0867816 0.0163322 -0.0867816
9900750000 0.0160767 -0.0852754 0.9839233 0.0852754 0.9839233 0.0852754 0.0160767 -0.0852754
9950500000 0.0158273 -0.0837777 0.9841727 0.0837777 0.9841727 0.0837777 0.0158273 -0.0837777
10000250000 0.0155839 -0.0822886 0.9844161 0.0822886 0.9844161 0.0822886 0.0155839 -0.0822886
10050000000 0.0153465 -0.0808079 0.9846535 0.0808079 0.9846535 0.0808079 0.0153465 -0.0808079
10099750000 0.0151149 -0.0793355 0.9848851 0.0793355 0.9848851 0.0793355 0.0151149 -0.0793355
10149500000 0.0148891 -0.0778713 0.9851109 0.0778713 0.9851109 0.0778713 0.0148891 -0.0778713
10199250000 0.0146690 -0.0764151 0.9853310 0.0764151 0.9853310 0.0764151 0.0146690 -0.0764151
10249000000 0.0144544 -0.0749670 0.9855456 0.0749670 0.9855456 0.0749670 0.0144544 -0.0749670
10298750000 0.0142452 -0.0735269 0.9857548 0.0735269 0.9857548 0.0735269 0.0142452 -0.0735269
10348500000 0.0140415 -0.0720945 0.9859585 0.0720945 0.9859585 0.0720945 0.0140415 -0.0720945
10398250000 0.0138430 -0.0706698 0.9861570 0.0706698 0.9861570 0.0706698 0.0138430 -0.0706698
10448000000 0.0136498 -0.0692528 0.9863502 0.0692528 0.9863502 0.0692528 0.0136498 -0.0692528
10497750000 0.0134616 -0.0678434 0.9865384 0.0678434 0.9865384 0.0678434 0.0134616 -0.0678434
