!Murata Part Number: GRM0115C1E270JE01
!These Parameters are Measured in Series Mode Connection
!Data Generated on Mar 30, 2021
!       o--ll--o
!Port1            Port2
!       o------o
!Operation Temp=25[degC], DC Bias Voltage=0[V]
!Freq. Start=100[MHz] Stop=9[GHz] 401[Steps]
# Hz S RI R 50
!Freq.(Hz) S11(Real) S11(Imag) S21(Real) S21(Imag) S12(Real) S12(Imag) S22(Real) S22(Imag)
100000000 0.2577459 -0.4365358 0.7422541 0.4365358 0.7422541 0.4365358 0.2577459 -0.4365358
121000000 0.1917346 -0.3926267 0.8082654 0.3926267 0.8082654 0.3926267 0.1917346 -0.3926267
142000000 0.1469615 -0.3528471 0.8530385 0.3528471 0.8530385 0.3528471 0.1469615 -0.3528471
163000000 0.1156563 -0.3184094 0.8843437 0.3184094 0.8843437 0.3184094 0.1156563 -0.3184094
184000000 0.0931054 -0.2889938 0.9068946 0.2889938 0.9068946 0.2889938 0.0931054 -0.2889938
205000000 0.0764139 -0.2638888 0.9235861 0.2638888 0.9235861 0.2638888 0.0764139 -0.2638888
226000000 0.0637593 -0.2423678 0.9362407 0.2423678 0.9362407 0.2423678 0.0637593 -0.2423678
247000000 0.0539609 -0.2237984 0.9460391 0.2237984 0.9460391 0.2237984 0.0539609 -0.2237984
268000000 0.0462330 -0.2076595 0.9537670 0.2076595 0.9537670 0.2076595 0.0462330 -0.2076595
289000000 0.0400384 -0.1935306 0.9599616 0.1935306 0.9599616 0.1935306 0.0400384 -0.1935306
310000000 0.0350017 -0.1810747 0.9649983 0.1810747 0.9649983 0.1810747 0.0350017 -0.1810747
331000000 0.0308542 -0.1700212 0.9691458 0.1700212 0.9691458 0.1700212 0.0308542 -0.1700212
352000000 0.0274003 -0.1601517 0.9725997 0.1601517 0.9725997 0.1601517 0.0274003 -0.1601517
373000000 0.0244949 -0.1512894 0.9755051 0.1512894 0.9755051 0.1512894 0.0244949 -0.1512894
394000000 0.0220288 -0.1432893 0.9779712 0.1432893 0.9779712 0.1432893 0.0220288 -0.1432893
415000000 0.0199183 -0.1360326 0.9800817 0.1360326 0.9800817 0.1360326 0.0199183 -0.1360326
436000000 0.0180988 -0.1294205 0.9819012 0.1294205 0.9819012 0.1294205 0.0180988 -0.1294205
457000000 0.0165196 -0.1233708 0.9834804 0.1233708 0.9834804 0.1233708 0.0165196 -0.1233708
478000000 0.0151405 -0.1178142 0.9848595 0.1178142 0.9848595 0.1178142 0.0151405 -0.1178142
499000000 0.0139294 -0.1126923 0.9860706 0.1126923 0.9860706 0.1126923 0.0139294 -0.1126923
520000000 0.0128603 -0.1079553 0.9871397 0.1079553 0.9871397 0.1079553 0.0128603 -0.1079553
541000000 0.0119120 -0.1035608 0.9880880 0.1035608 0.9880880 0.1035608 0.0119120 -0.1035608
562000000 0.0110673 -0.0994723 0.9889327 0.0994723 0.9889327 0.0994723 0.0110673 -0.0994723
583000000 0.0103117 -0.0956579 0.9896883 0.0956579 0.9896883 0.0956579 0.0103117 -0.0956579
604000000 0.0096333 -0.0920905 0.9903667 0.0920905 0.9903667 0.0920905 0.0096333 -0.0920905
625000000 0.0090221 -0.0887459 0.9909779 0.0887459 0.9909779 0.0887459 0.0090221 -0.0887459
646000000 0.0084696 -0.0856033 0.9915304 0.0856033 0.9915304 0.0856033 0.0084696 -0.0856033
667000000 0.0079687 -0.0826442 0.9920313 0.0826442 0.9920313 0.0826442 0.0079687 -0.0826442
688000000 0.0075133 -0.0798523 0.9924867 0.0798523 0.9924867 0.0798523 0.0075133 -0.0798523
709000000 0.0070981 -0.0772132 0.9929019 0.0772132 0.9929019 0.0772132 0.0070981 -0.0772132
730000000 0.0067187 -0.0747141 0.9932813 0.0747141 0.9932813 0.0747141 0.0067187 -0.0747141
751000000 0.0063712 -0.0723436 0.9936288 0.0723436 0.9936288 0.0723436 0.0063712 -0.0723436
772000000 0.0060521 -0.0700914 0.9939479 0.0700914 0.9939479 0.0700914 0.0060521 -0.0700914
793000000 0.0057587 -0.0679483 0.9942413 0.0679483 0.9942413 0.0679483 0.0057587 -0.0679483
814000000 0.0054883 -0.0659061 0.9945117 0.0659061 0.9945117 0.0659061 0.0054883 -0.0659061
835000000 0.0052387 -0.0639573 0.9947613 0.0639573 0.9947613 0.0639573 0.0052387 -0.0639573
856000000 0.0050079 -0.0620952 0.9949921 0.0620952 0.9949921 0.0620952 0.0050079 -0.0620952
877000000 0.0047941 -0.0603137 0.9952059 0.0603137 0.9952059 0.0603137 0.0047941 -0.0603137
898000000 0.0045958 -0.0586073 0.9954042 0.0586073 0.9954042 0.0586073 0.0045958 -0.0586073
919000000 0.0044116 -0.0569708 0.9955884 0.0569708 0.9955884 0.0569708 0.0044116 -0.0569708
940000000 0.0042404 -0.0553997 0.9957596 0.0553997 0.9957596 0.0553997 0.0042404 -0.0553997
961000000 0.0040809 -0.0538898 0.9959191 0.0538898 0.9959191 0.0538898 0.0040809 -0.0538898
982000000 0.0039323 -0.0524371 0.9960677 0.0524371 0.9960677 0.0524371 0.0039323 -0.0524371
1003000000 0.0037937 -0.0510382 0.9962063 0.0510382 0.9962063 0.0510382 0.0037937 -0.0510382
1024000000 0.0036642 -0.0496898 0.9963358 0.0496898 0.9963358 0.0496898 0.0036642 -0.0496898
1045000000 0.0035432 -0.0483889 0.9964568 0.0483889 0.9964568 0.0483889 0.0035432 -0.0483889
1066000000 0.0034301 -0.0471328 0.9965699 0.0471328 0.9965699 0.0471328 0.0034301 -0.0471328
1087000000 0.0033241 -0.0459188 0.9966759 0.0459188 0.9966759 0.0459188 0.0033241 -0.0459188
1108000000 0.0032249 -0.0447446 0.9967751 0.0447446 0.9967751 0.0447446 0.0032249 -0.0447446
1129000000 0.0031319 -0.0436080 0.9968681 0.0436080 0.9968681 0.0436080 0.0031319 -0.0436080
1150000000 0.0030447 -0.0425070 0.9969553 0.0425070 0.9969553 0.0425070 0.0030447 -0.0425070
1171000000 0.0029629 -0.0414396 0.9970371 0.0414396 0.9970371 0.0414396 0.0029629 -0.0414396
1192000000 0.0028861 -0.0404042 0.9971139 0.0404042 0.9971139 0.0404042 0.0028861 -0.0404042
1213000000 0.0028140 -0.0393991 0.9971860 0.0393991 0.9971860 0.0393991 0.0028140 -0.0393991
1234000000 0.0027464 -0.0384227 0.9972536 0.0384227 0.9972536 0.0384227 0.0027464 -0.0384227
1255000000 0.0026829 -0.0374737 0.9973171 0.0374737 0.9973171 0.0374737 0.0026829 -0.0374737
1276000000 0.0026232 -0.0365507 0.9973768 0.0365507 0.9973768 0.0365507 0.0026232 -0.0365507
1297000000 0.0025672 -0.0356524 0.9974328 0.0356524 0.9974328 0.0356524 0.0025672 -0.0356524
1318000000 0.0025146 -0.0347777 0.9974854 0.0347777 0.9974854 0.0347777 0.0025146 -0.0347777
1339000000 0.0024652 -0.0339254 0.9975348 0.0339254 0.9975348 0.0339254 0.0024652 -0.0339254
1360000000 0.0024188 -0.0330946 0.9975812 0.0330946 0.9975812 0.0330946 0.0024188 -0.0330946
1381000000 0.0023753 -0.0322843 0.9976247 0.0322843 0.9976247 0.0322843 0.0023753 -0.0322843
1402000000 0.0023345 -0.0314936 0.9976655 0.0314936 0.9976655 0.0314936 0.0023345 -0.0314936
1423000000 0.0022962 -0.0307216 0.9977038 0.0307216 0.9977038 0.0307216 0.0022962 -0.0307216
1444000000 0.0022604 -0.0299675 0.9977396 0.0299675 0.9977396 0.0299675 0.0022604 -0.0299675
1465000000 0.0022269 -0.0292305 0.9977731 0.0292305 0.9977731 0.0292305 0.0022269 -0.0292305
1486000000 0.0021955 -0.0285100 0.9978045 0.0285100 0.9978045 0.0285100 0.0021955 -0.0285100
1507000000 0.0021662 -0.0278052 0.9978338 0.0278052 0.9978338 0.0278052 0.0021662 -0.0278052
1528000000 0.0021388 -0.0271155 0.9978612 0.0271155 0.9978612 0.0271155 0.0021388 -0.0271155
1549000000 0.0021133 -0.0264403 0.9978867 0.0264403 0.9978867 0.0264403 0.0021133 -0.0264403
1570000000 0.0020896 -0.0257790 0.9979104 0.0257790 0.9979104 0.0257790 0.0020896 -0.0257790
1591000000 0.0020676 -0.0251311 0.9979324 0.0251311 0.9979324 0.0251311 0.0020676 -0.0251311
1612000000 0.0020472 -0.0244961 0.9979528 0.0244961 0.9979528 0.0244961 0.0020472 -0.0244961
1633000000 0.0020284 -0.0238734 0.9979716 0.0238734 0.9979716 0.0238734 0.0020284 -0.0238734
1654000000 0.0020110 -0.0232627 0.9979890 0.0232627 0.9979890 0.0232627 0.0020110 -0.0232627
1675000000 0.0019950 -0.0226634 0.9980050 0.0226634 0.9980050 0.0226634 0.0019950 -0.0226634
1696000000 0.0019804 -0.0220751 0.9980196 0.0220751 0.9980196 0.0220751 0.0019804 -0.0220751
1717000000 0.0019670 -0.0214975 0.9980330 0.0214975 0.9980330 0.0214975 0.0019670 -0.0214975
1738000000 0.0019549 -0.0209301 0.9980451 0.0209301 0.9980451 0.0209301 0.0019549 -0.0209301
1759000000 0.0019440 -0.0203727 0.9980560 0.0203727 0.9980560 0.0203727 0.0019440 -0.0203727
1780000000 0.0019342 -0.0198247 0.9980658 0.0198247 0.9980658 0.0198247 0.0019342 -0.0198247
1801000000 0.0019255 -0.0192861 0.9980745 0.0192861 0.9980745 0.0192861 0.0019255 -0.0192861
1822000000 0.0019179 -0.0187563 0.9980821 0.0187563 0.9980821 0.0187563 0.0019179 -0.0187563
1843000000 0.0019113 -0.0182351 0.9980887 0.0182351 0.9980887 0.0182351 0.0019113 -0.0182351
1864000000 0.0019057 -0.0177223 0.9980943 0.0177223 0.9980943 0.0177223 0.0019057 -0.0177223
1885000000 0.0019010 -0.0172175 0.9980990 0.0172175 0.9980990 0.0172175 0.0019010 -0.0172175
1906000000 0.0018972 -0.0167204 0.9981028 0.0167204 0.9981028 0.0167204 0.0018972 -0.0167204
1927000000 0.0018942 -0.0162310 0.9981058 0.0162310 0.9981058 0.0162310 0.0018942 -0.0162310
1948000000 0.0018922 -0.0157488 0.9981078 0.0157488 0.9981078 0.0157488 0.0018922 -0.0157488
1969000000 0.0018909 -0.0152737 0.9981091 0.0152737 0.9981091 0.0152737 0.0018909 -0.0152737
1990000000 0.0018905 -0.0148054 0.9981095 0.0148054 0.9981095 0.0148054 0.0018905 -0.0148054
2011000000 0.0018907 -0.0143438 0.9981093 0.0143438 0.9981093 0.0143438 0.0018907 -0.0143438
2032000000 0.0018918 -0.0138885 0.9981082 0.0138885 0.9981082 0.0138885 0.0018918 -0.0138885
2053000000 0.0018935 -0.0134396 0.9981065 0.0134396 0.9981065 0.0134396 0.0018935 -0.0134396
2074000000 0.0018960 -0.0129967 0.9981040 0.0129967 0.9981040 0.0129967 0.0018960 -0.0129967
2095000000 0.0018991 -0.0125596 0.9981009 0.0125596 0.9981009 0.0125596 0.0018991 -0.0125596
2116000000 0.0019029 -0.0121283 0.9980971 0.0121283 0.9980971 0.0121283 0.0019029 -0.0121283
2137000000 0.0019073 -0.0117025 0.9980927 0.0117025 0.9980927 0.0117025 0.0019073 -0.0117025
2158000000 0.0019123 -0.0112821 0.9980877 0.0112821 0.9980877 0.0112821 0.0019123 -0.0112821
2179000000 0.0019179 -0.0108669 0.9980821 0.0108669 0.9980821 0.0108669 0.0019179 -0.0108669
2200000000 0.0019241 -0.0104568 0.9980759 0.0104568 0.9980759 0.0104568 0.0019241 -0.0104568
2221000000 0.0019309 -0.0100517 0.9980691 0.0100517 0.9980691 0.0100517 0.0019309 -0.0100517
2242000000 0.0019382 -0.0096513 0.9980618 0.0096513 0.9980618 0.0096513 0.0019382 -0.0096513
2263000000 0.0019460 -0.0092557 0.9980540 0.0092557 0.9980540 0.0092557 0.0019460 -0.0092557
2284000000 0.0019544 -0.0088645 0.9980456 0.0088645 0.9980456 0.0088645 0.0019544 -0.0088645
2305000000 0.0019633 -0.0084778 0.9980367 0.0084778 0.9980367 0.0084778 0.0019633 -0.0084778
2326000000 0.0019727 -0.0080955 0.9980273 0.0080955 0.9980273 0.0080955 0.0019727 -0.0080955
2347000000 0.0019825 -0.0077173 0.9980175 0.0077173 0.9980175 0.0077173 0.0019825 -0.0077173
2368000000 0.0019929 -0.0073432 0.9980071 0.0073432 0.9980071 0.0073432 0.0019929 -0.0073432
2389000000 0.0020037 -0.0069731 0.9979963 0.0069731 0.9979963 0.0069731 0.0020037 -0.0069731
2410000000 0.0020149 -0.0066069 0.9979851 0.0066069 0.9979851 0.0066069 0.0020149 -0.0066069
2431000000 0.0020266 -0.0062445 0.9979734 0.0062445 0.9979734 0.0062445 0.0020266 -0.0062445
2452000000 0.0020388 -0.0058857 0.9979612 0.0058857 0.9979612 0.0058857 0.0020388 -0.0058857
2473000000 0.0020513 -0.0055306 0.9979487 0.0055306 0.9979487 0.0055306 0.0020513 -0.0055306
2494000000 0.0020643 -0.0051790 0.9979357 0.0051790 0.9979357 0.0051790 0.0020643 -0.0051790
2515000000 0.0020776 -0.0048308 0.9979224 0.0048308 0.9979224 0.0048308 0.0020776 -0.0048308
2536000000 0.0020914 -0.0044860 0.9979086 0.0044860 0.9979086 0.0044860 0.0020914 -0.0044860
2557000000 0.0021055 -0.0041444 0.9978945 0.0041444 0.9978945 0.0041444 0.0021055 -0.0041444
2578000000 0.0021201 -0.0038061 0.9978799 0.0038061 0.9978799 0.0038061 0.0021201 -0.0038061
2599000000 0.0021350 -0.0034708 0.9978650 0.0034708 0.9978650 0.0034708 0.0021350 -0.0034708
2620000000 0.0021503 -0.0031386 0.9978497 0.0031386 0.9978497 0.0031386 0.0021503 -0.0031386
2641000000 0.0021659 -0.0028094 0.9978341 0.0028094 0.9978341 0.0028094 0.0021659 -0.0028094
2662000000 0.0021819 -0.0024831 0.9978181 0.0024831 0.9978181 0.0024831 0.0021819 -0.0024831
2683000000 0.0021982 -0.0021596 0.9978018 0.0021596 0.9978018 0.0021596 0.0021982 -0.0021596
2704000000 0.0022149 -0.0018389 0.9977851 0.0018389 0.9977851 0.0018389 0.0022149 -0.0018389
2725000000 0.0022319 -0.0015209 0.9977681 0.0015209 0.9977681 0.0015209 0.0022319 -0.0015209
2746000000 0.0022492 -0.0012056 0.9977508 0.0012056 0.9977508 0.0012056 0.0022492 -0.0012056
2767000000 0.0022669 -0.0008929 0.9977331 0.0008929 0.9977331 0.0008929 0.0022669 -0.0008929
2788000000 0.0022848 -0.0005827 0.9977152 0.0005827 0.9977152 0.0005827 0.0022848 -0.0005827
2809000000 0.0023031 -0.0002751 0.9976969 0.0002751 0.9976969 0.0002751 0.0023031 -0.0002751
2830000000 0.0023217 0.0000302 0.9976783 -0.0000302 0.9976783 -0.0000302 0.0023217 0.0000302
2851000000 0.0023406 0.0003330 0.9976594 -0.0003330 0.9976594 -0.0003330 0.0023406 0.0003330
2872000000 0.0023598 0.0006335 0.9976402 -0.0006335 0.9976402 -0.0006335 0.0023598 0.0006335
2893000000 0.0023793 0.0009317 0.9976207 -0.0009317 0.9976207 -0.0009317 0.0023793 0.0009317
2914000000 0.0023990 0.0012277 0.9976010 -0.0012277 0.9976010 -0.0012277 0.0023990 0.0012277
2935000000 0.0024191 0.0015215 0.9975809 -0.0015215 0.9975809 -0.0015215 0.0024191 0.0015215
2956000000 0.0024394 0.0018131 0.9975606 -0.0018131 0.9975606 -0.0018131 0.0024394 0.0018131
2977000000 0.0024600 0.0021026 0.9975400 -0.0021026 0.9975400 -0.0021026 0.0024600 0.0021026
2998000000 0.0024809 0.0023900 0.9975191 -0.0023900 0.9975191 -0.0023900 0.0024809 0.0023900
3019000000 0.0025020 0.0026754 0.9974980 -0.0026754 0.9974980 -0.0026754 0.0025020 0.0026754
3040000000 0.0025235 0.0029589 0.9974765 -0.0029589 0.9974765 -0.0029589 0.0025235 0.0029589
3061000000 0.0025451 0.0032403 0.9974549 -0.0032403 0.9974549 -0.0032403 0.0025451 0.0032403
3082000000 0.0025671 0.0035199 0.9974329 -0.0035199 0.9974329 -0.0035199 0.0025671 0.0035199
3103000000 0.0025892 0.0037975 0.9974108 -0.0037975 0.9974108 -0.0037975 0.0025892 0.0037975
3124000000 0.0026117 0.0040734 0.9973883 -0.0040734 0.9973883 -0.0040734 0.0026117 0.0040734
3145000000 0.0026344 0.0043474 0.9973656 -0.0043474 0.9973656 -0.0043474 0.0026344 0.0043474
3166000000 0.0026573 0.0046196 0.9973427 -0.0046196 0.9973427 -0.0046196 0.0026573 0.0046196
3187000000 0.0026804 0.0048901 0.9973196 -0.0048901 0.9973196 -0.0048901 0.0026804 0.0048901
3208000000 0.0027038 0.0051589 0.9972962 -0.0051589 0.9972962 -0.0051589 0.0027038 0.0051589
3229000000 0.0027275 0.0054260 0.9972725 -0.0054260 0.9972725 -0.0054260 0.0027275 0.0054260
3250000000 0.0027514 0.0056914 0.9972486 -0.0056914 0.9972486 -0.0056914 0.0027514 0.0056914
3271000000 0.0027755 0.0059552 0.9972245 -0.0059552 0.9972245 -0.0059552 0.0027755 0.0059552
3292000000 0.0027998 0.0062174 0.9972002 -0.0062174 0.9972002 -0.0062174 0.0027998 0.0062174
3313000000 0.0028243 0.0064781 0.9971757 -0.0064781 0.9971757 -0.0064781 0.0028243 0.0064781
3334000000 0.0028491 0.0067372 0.9971509 -0.0067372 0.9971509 -0.0067372 0.0028491 0.0067372
3355000000 0.0028741 0.0069948 0.9971259 -0.0069948 0.9971259 -0.0069948 0.0028741 0.0069948
3376000000 0.0028993 0.0072509 0.9971007 -0.0072509 0.9971007 -0.0072509 0.0028993 0.0072509
3397000000 0.0029247 0.0075056 0.9970753 -0.0075056 0.9970753 -0.0075056 0.0029247 0.0075056
3418000000 0.0029503 0.0077588 0.9970497 -0.0077588 0.9970497 -0.0077588 0.0029503 0.0077588
3439000000 0.0029762 0.0080106 0.9970238 -0.0080106 0.9970238 -0.0080106 0.0029762 0.0080106
3460000000 0.0030022 0.0082610 0.9969978 -0.0082610 0.9969978 -0.0082610 0.0030022 0.0082610
3481000000 0.0030285 0.0085101 0.9969715 -0.0085101 0.9969715 -0.0085101 0.0030285 0.0085101
3502000000 0.0030549 0.0087577 0.9969451 -0.0087577 0.9969451 -0.0087577 0.0030549 0.0087577
3523000000 0.0030816 0.0090041 0.9969184 -0.0090041 0.9969184 -0.0090041 0.0030816 0.0090041
3544000000 0.0031084 0.0092492 0.9968916 -0.0092492 0.9968916 -0.0092492 0.0031084 0.0092492
3565000000 0.0031355 0.0094929 0.9968645 -0.0094929 0.9968645 -0.0094929 0.0031355 0.0094929
3586000000 0.0031627 0.0097355 0.9968373 -0.0097355 0.9968373 -0.0097355 0.0031627 0.0097355
3607000000 0.0031902 0.0099767 0.9968098 -0.0099767 0.9968098 -0.0099767 0.0031902 0.0099767
3628000000 0.0032178 0.0102168 0.9967822 -0.0102168 0.9967822 -0.0102168 0.0032178 0.0102168
3649000000 0.0032456 0.0104556 0.9967544 -0.0104556 0.9967544 -0.0104556 0.0032456 0.0104556
3670000000 0.0032736 0.0106932 0.9967264 -0.0106932 0.9967264 -0.0106932 0.0032736 0.0106932
3691000000 0.0033018 0.0109297 0.9966982 -0.0109297 0.9966982 -0.0109297 0.0033018 0.0109297
3712000000 0.0033302 0.0111650 0.9966698 -0.0111650 0.9966698 -0.0111650 0.0033302 0.0111650
3733000000 0.0033587 0.0113992 0.9966413 -0.0113992 0.9966413 -0.0113992 0.0033587 0.0113992
3754000000 0.0033874 0.0116323 0.9966126 -0.0116323 0.9966126 -0.0116323 0.0033874 0.0116323
3775000000 0.0034164 0.0118642 0.9965836 -0.0118642 0.9965836 -0.0118642 0.0034164 0.0118642
3796000000 0.0034454 0.0120951 0.9965546 -0.0120951 0.9965546 -0.0120951 0.0034454 0.0120951
3817000000 0.0034747 0.0123249 0.9965253 -0.0123249 0.9965253 -0.0123249 0.0034747 0.0123249
3838000000 0.0035041 0.0125537 0.9964959 -0.0125537 0.9964959 -0.0125537 0.0035041 0.0125537
3859000000 0.0035337 0.0127814 0.9964663 -0.0127814 0.9964663 -0.0127814 0.0035337 0.0127814
3880000000 0.0035635 0.0130080 0.9964365 -0.0130080 0.9964365 -0.0130080 0.0035635 0.0130080
3901000000 0.0035934 0.0132337 0.9964066 -0.0132337 0.9964066 -0.0132337 0.0035934 0.0132337
3922000000 0.0036236 0.0134584 0.9963764 -0.0134584 0.9963764 -0.0134584 0.0036236 0.0134584
3943000000 0.0036538 0.0136820 0.9963462 -0.0136820 0.9963462 -0.0136820 0.0036538 0.0136820
3964000000 0.0036843 0.0139047 0.9963157 -0.0139047 0.9963157 -0.0139047 0.0036843 0.0139047
3985000000 0.0037149 0.0141265 0.9962851 -0.0141265 0.9962851 -0.0141265 0.0037149 0.0141265
4006000000 0.0037456 0.0143473 0.9962544 -0.0143473 0.9962544 -0.0143473 0.0037456 0.0143473
4027000000 0.0037765 0.0145671 0.9962235 -0.0145671 0.9962235 -0.0145671 0.0037765 0.0145671
4048000000 0.0038076 0.0147861 0.9961924 -0.0147861 0.9961924 -0.0147861 0.0038076 0.0147861
4069000000 0.0038388 0.0150041 0.9961612 -0.0150041 0.9961612 -0.0150041 0.0038388 0.0150041
4090000000 0.0038702 0.0152212 0.9961298 -0.0152212 0.9961298 -0.0152212 0.0038702 0.0152212
4111000000 0.0039018 0.0154375 0.9960982 -0.0154375 0.9960982 -0.0154375 0.0039018 0.0154375
4132000000 0.0039335 0.0156528 0.9960665 -0.0156528 0.9960665 -0.0156528 0.0039335 0.0156528
4153000000 0.0039653 0.0158673 0.9960347 -0.0158673 0.9960347 -0.0158673 0.0039653 0.0158673
4174000000 0.0039973 0.0160810 0.9960027 -0.0160810 0.9960027 -0.0160810 0.0039973 0.0160810
4195000000 0.0040295 0.0162938 0.9959705 -0.0162938 0.9959705 -0.0162938 0.0040295 0.0162938
4216000000 0.0040617 0.0165058 0.9959383 -0.0165058 0.9959383 -0.0165058 0.0040617 0.0165058
4237000000 0.0040942 0.0167169 0.9959058 -0.0167169 0.9959058 -0.0167169 0.0040942 0.0167169
4258000000 0.0041268 0.0169273 0.9958732 -0.0169273 0.9958732 -0.0169273 0.0041268 0.0169273
4279000000 0.0041595 0.0171368 0.9958405 -0.0171368 0.9958405 -0.0171368 0.0041595 0.0171368
4300000000 0.0041924 0.0173455 0.9958076 -0.0173455 0.9958076 -0.0173455 0.0041924 0.0173455
4321000000 0.0042254 0.0175535 0.9957746 -0.0175535 0.9957746 -0.0175535 0.0042254 0.0175535
4342000000 0.0042585 0.0177607 0.9957415 -0.0177607 0.9957415 -0.0177607 0.0042585 0.0177607
4363000000 0.0042918 0.0179671 0.9957082 -0.0179671 0.9957082 -0.0179671 0.0042918 0.0179671
4384000000 0.0043252 0.0181727 0.9956748 -0.0181727 0.9956748 -0.0181727 0.0043252 0.0181727
4405000000 0.0043588 0.0183777 0.9956412 -0.0183777 0.9956412 -0.0183777 0.0043588 0.0183777
4426000000 0.0043925 0.0185818 0.9956075 -0.0185818 0.9956075 -0.0185818 0.0043925 0.0185818
4447000000 0.0044263 0.0187853 0.9955737 -0.0187853 0.9955737 -0.0187853 0.0044263 0.0187853
4468000000 0.0044603 0.0189880 0.9955397 -0.0189880 0.9955397 -0.0189880 0.0044603 0.0189880
4489000000 0.0044944 0.0191900 0.9955056 -0.0191900 0.9955056 -0.0191900 0.0044944 0.0191900
4510000000 0.0045286 0.0193913 0.9954714 -0.0193913 0.9954714 -0.0193913 0.0045286 0.0193913
