!Murata Part Number: GRM0115C1C750JE01
!These Parameters are Measured in Series Mode Connection
!Data Generated on Mar 30, 2021
!       o--ll--o
!Port1            Port2
!       o------o
!Operation Temp=25[degC], DC Bias Voltage=0[V]
!Freq. Start=100[MHz] Stop=9[GHz] 401[Steps]
# Hz S RI R 50
!Freq.(Hz) S11(Real) S11(Imag) S21(Real) S21(Imag) S12(Real) S12(Imag) S22(Real) S22(Imag)
100000000 0.0435831 -0.2020925 0.9564169 0.2020925 0.9564169 0.2020925 0.0435831 -0.2020925
121000000 0.0303582 -0.1690608 0.9696418 0.1690608 0.9696418 0.1690608 0.0303582 -0.1690608
142000000 0.0223808 -0.1449708 0.9776192 0.1449708 0.9776192 0.1449708 0.0223808 -0.1449708
163000000 0.0172146 -0.1266835 0.9827854 0.1266835 0.9827854 0.1266835 0.0172146 -0.1266835
184000000 0.0136837 -0.1123477 0.9863163 0.1123477 0.9863163 0.1123477 0.0136837 -0.1123477
205000000 0.0111667 -0.1008131 0.9888333 0.1008131 0.9888333 0.1008131 0.0111667 -0.1008131
226000000 0.0093109 -0.0913321 0.9906891 0.0913321 0.9906891 0.0913321 0.0093109 -0.0913321
247000000 0.0079042 -0.0833991 0.9920958 0.0833991 0.9920958 0.0833991 0.0079042 -0.0833991
268000000 0.0068133 -0.0766607 0.9931867 0.0766607 0.9931867 0.0766607 0.0068133 -0.0766607
289000000 0.0059507 -0.0708630 0.9940493 0.0708630 0.9940493 0.0708630 0.0059507 -0.0708630
310000000 0.0052572 -0.0658188 0.9947428 0.0658188 0.9947428 0.0658188 0.0052572 -0.0658188
331000000 0.0046917 -0.0613874 0.9953083 0.0613874 0.9953083 0.0613874 0.0046917 -0.0613874
352000000 0.0042249 -0.0574608 0.9957751 0.0574608 0.9957751 0.0574608 0.0042249 -0.0574608
373000000 0.0038353 -0.0539551 0.9961647 0.0539551 0.9961647 0.0539551 0.0038353 -0.0539551
394000000 0.0035071 -0.0508037 0.9964929 0.0508037 0.9964929 0.0508037 0.0035071 -0.0508037
415000000 0.0032282 -0.0479535 0.9967718 0.0479535 0.9967718 0.0479535 0.0032282 -0.0479535
436000000 0.0029895 -0.0453615 0.9970105 0.0453615 0.9970105 0.0453615 0.0029895 -0.0453615
457000000 0.0027839 -0.0429923 0.9972161 0.0429923 0.9972161 0.0429923 0.0027839 -0.0429923
478000000 0.0026057 -0.0408169 0.9973943 0.0408169 0.9973943 0.0408169 0.0026057 -0.0408169
499000000 0.0024504 -0.0388111 0.9975496 0.0388111 0.9975496 0.0388111 0.0024504 -0.0388111
520000000 0.0023145 -0.0369543 0.9976855 0.0369543 0.9976855 0.0369543 0.0023145 -0.0369543
541000000 0.0021952 -0.0352294 0.9978048 0.0352294 0.9978048 0.0352294 0.0021952 -0.0352294
562000000 0.0020899 -0.0336217 0.9979101 0.0336217 0.9979101 0.0336217 0.0020899 -0.0336217
583000000 0.0019968 -0.0321185 0.9980032 0.0321185 0.9980032 0.0321185 0.0019968 -0.0321185
604000000 0.0019142 -0.0307092 0.9980858 0.0307092 0.9980858 0.0307092 0.0019142 -0.0307092
625000000 0.0018407 -0.0293841 0.9981593 0.0293841 0.9981593 0.0293841 0.0018407 -0.0293841
646000000 0.0017754 -0.0281353 0.9982246 0.0281353 0.9982246 0.0281353 0.0017754 -0.0281353
667000000 0.0017171 -0.0269554 0.9982829 0.0269554 0.9982829 0.0269554 0.0017171 -0.0269554
688000000 0.0016650 -0.0258383 0.9983350 0.0258383 0.9983350 0.0258383 0.0016650 -0.0258383
709000000 0.0016186 -0.0247784 0.9983814 0.0247784 0.9983814 0.0247784 0.0016186 -0.0247784
730000000 0.0015770 -0.0237707 0.9984230 0.0237707 0.9984230 0.0237707 0.0015770 -0.0237707
751000000 0.0015400 -0.0228109 0.9984600 0.0228109 0.9984600 0.0228109 0.0015400 -0.0228109
772000000 0.0015069 -0.0218951 0.9984931 0.0218951 0.9984931 0.0218951 0.0015069 -0.0218951
793000000 0.0014774 -0.0210199 0.9985226 0.0210199 0.9985226 0.0210199 0.0014774 -0.0210199
814000000 0.0014512 -0.0201821 0.9985488 0.0201821 0.9985488 0.0201821 0.0014512 -0.0201821
835000000 0.0014279 -0.0193788 0.9985721 0.0193788 0.9985721 0.0193788 0.0014279 -0.0193788
856000000 0.0014074 -0.0186077 0.9985926 0.0186077 0.9985926 0.0186077 0.0014074 -0.0186077
877000000 0.0013893 -0.0178663 0.9986107 0.0178663 0.9986107 0.0178663 0.0013893 -0.0178663
898000000 0.0013735 -0.0171526 0.9986265 0.0171526 0.9986265 0.0171526 0.0013735 -0.0171526
919000000 0.0013598 -0.0164647 0.9986402 0.0164647 0.9986402 0.0164647 0.0013598 -0.0164647
940000000 0.0013479 -0.0158009 0.9986521 0.0158009 0.9986521 0.0158009 0.0013479 -0.0158009
961000000 0.0013379 -0.0151596 0.9986621 0.0151596 0.9986621 0.0151596 0.0013379 -0.0151596
982000000 0.0013295 -0.0145394 0.9986705 0.0145394 0.9986705 0.0145394 0.0013295 -0.0145394
1003000000 0.0013227 -0.0139390 0.9986773 0.0139390 0.9986773 0.0139390 0.0013227 -0.0139390
1024000000 0.0013172 -0.0133571 0.9986828 0.0133571 0.9986828 0.0133571 0.0013172 -0.0133571
1045000000 0.0013131 -0.0127927 0.9986869 0.0127927 0.9986869 0.0127927 0.0013131 -0.0127927
1066000000 0.0013103 -0.0122447 0.9986897 0.0122447 0.9986897 0.0122447 0.0013103 -0.0122447
1087000000 0.0013086 -0.0117122 0.9986914 0.0117122 0.9986914 0.0117122 0.0013086 -0.0117122
1108000000 0.0013081 -0.0111943 0.9986919 0.0111943 0.9986919 0.0111943 0.0013081 -0.0111943
1129000000 0.0013085 -0.0106902 0.9986915 0.0106902 0.9986915 0.0106902 0.0013085 -0.0106902
1150000000 0.0013100 -0.0101991 0.9986900 0.0101991 0.9986900 0.0101991 0.0013100 -0.0101991
1171000000 0.0013124 -0.0097204 0.9986876 0.0097204 0.9986876 0.0097204 0.0013124 -0.0097204
1192000000 0.0013156 -0.0092534 0.9986844 0.0092534 0.9986844 0.0092534 0.0013156 -0.0092534
1213000000 0.0013197 -0.0087975 0.9986803 0.0087975 0.9986803 0.0087975 0.0013197 -0.0087975
1234000000 0.0013246 -0.0083521 0.9986754 0.0083521 0.9986754 0.0083521 0.0013246 -0.0083521
1255000000 0.0013303 -0.0079168 0.9986697 0.0079168 0.9986697 0.0079168 0.0013303 -0.0079168
1276000000 0.0013366 -0.0074910 0.9986634 0.0074910 0.9986634 0.0074910 0.0013366 -0.0074910
1297000000 0.0013437 -0.0070743 0.9986563 0.0070743 0.9986563 0.0070743 0.0013437 -0.0070743
1318000000 0.0013515 -0.0066662 0.9986485 0.0066662 0.9986485 0.0066662 0.0013515 -0.0066662
1339000000 0.0013598 -0.0062664 0.9986402 0.0062664 0.9986402 0.0062664 0.0013598 -0.0062664
1360000000 0.0013688 -0.0058744 0.9986312 0.0058744 0.9986312 0.0058744 0.0013688 -0.0058744
1381000000 0.0013784 -0.0054900 0.9986216 0.0054900 0.9986216 0.0054900 0.0013784 -0.0054900
1402000000 0.0013885 -0.0051128 0.9986115 0.0051128 0.9986115 0.0051128 0.0013885 -0.0051128
1423000000 0.0013992 -0.0047424 0.9986008 0.0047424 0.9986008 0.0047424 0.0013992 -0.0047424
1444000000 0.0014105 -0.0043787 0.9985895 0.0043787 0.9985895 0.0043787 0.0014105 -0.0043787
1465000000 0.0014222 -0.0040212 0.9985778 0.0040212 0.9985778 0.0040212 0.0014222 -0.0040212
1486000000 0.0014344 -0.0036698 0.9985656 0.0036698 0.9985656 0.0036698 0.0014344 -0.0036698
1507000000 0.0014471 -0.0033241 0.9985529 0.0033241 0.9985529 0.0033241 0.0014471 -0.0033241
1528000000 0.0014603 -0.0029841 0.9985397 0.0029841 0.9985397 0.0029841 0.0014603 -0.0029841
1549000000 0.0014740 -0.0026494 0.9985260 0.0026494 0.9985260 0.0026494 0.0014740 -0.0026494
1570000000 0.0014880 -0.0023198 0.9985120 0.0023198 0.9985120 0.0023198 0.0014880 -0.0023198
1591000000 0.0015025 -0.0019951 0.9984975 0.0019951 0.9984975 0.0019951 0.0015025 -0.0019951
1612000000 0.0015175 -0.0016752 0.9984825 0.0016752 0.9984825 0.0016752 0.0015175 -0.0016752
1633000000 0.0015328 -0.0013599 0.9984672 0.0013599 0.9984672 0.0013599 0.0015328 -0.0013599
1654000000 0.0015485 -0.0010490 0.9984515 0.0010490 0.9984515 0.0010490 0.0015485 -0.0010490
1675000000 0.0015647 -0.0007423 0.9984353 0.0007423 0.9984353 0.0007423 0.0015647 -0.0007423
1696000000 0.0015812 -0.0004397 0.9984188 0.0004397 0.9984188 0.0004397 0.0015812 -0.0004397
1717000000 0.0015980 -0.0001411 0.9984020 0.0001411 0.9984020 0.0001411 0.0015980 -0.0001411
1738000000 0.0016153 0.0001537 0.9983847 -0.0001537 0.9983847 -0.0001537 0.0016153 0.0001537
1759000000 0.0016329 0.0004448 0.9983671 -0.0004448 0.9983671 -0.0004448 0.0016329 0.0004448
1780000000 0.0016508 0.0007324 0.9983492 -0.0007324 0.9983492 -0.0007324 0.0016508 0.0007324
1801000000 0.0016691 0.0010166 0.9983309 -0.0010166 0.9983309 -0.0010166 0.0016691 0.0010166
1822000000 0.0016877 0.0012974 0.9983123 -0.0012974 0.9983123 -0.0012974 0.0016877 0.0012974
1843000000 0.0017067 0.0015750 0.9982933 -0.0015750 0.9982933 -0.0015750 0.0017067 0.0015750
1864000000 0.0017260 0.0018495 0.9982740 -0.0018495 0.9982740 -0.0018495 0.0017260 0.0018495
1885000000 0.0017456 0.0021210 0.9982544 -0.0021210 0.9982544 -0.0021210 0.0017456 0.0021210
1906000000 0.0017655 0.0023896 0.9982345 -0.0023896 0.9982345 -0.0023896 0.0017655 0.0023896
1927000000 0.0017857 0.0026553 0.9982143 -0.0026553 0.9982143 -0.0026553 0.0017857 0.0026553
1948000000 0.0018063 0.0029183 0.9981937 -0.0029183 0.9981937 -0.0029183 0.0018063 0.0029183
1969000000 0.0018271 0.0031786 0.9981729 -0.0031786 0.9981729 -0.0031786 0.0018271 0.0031786
1990000000 0.0018482 0.0034364 0.9981518 -0.0034364 0.9981518 -0.0034364 0.0018482 0.0034364
2011000000 0.0018697 0.0036916 0.9981303 -0.0036916 0.9981303 -0.0036916 0.0018697 0.0036916
2032000000 0.0018914 0.0039444 0.9981086 -0.0039444 0.9981086 -0.0039444 0.0018914 0.0039444
2053000000 0.0019134 0.0041948 0.9980866 -0.0041948 0.9980866 -0.0041948 0.0019134 0.0041948
2074000000 0.0019356 0.0044430 0.9980644 -0.0044430 0.9980644 -0.0044430 0.0019356 0.0044430
2095000000 0.0019582 0.0046889 0.9980418 -0.0046889 0.9980418 -0.0046889 0.0019582 0.0046889
2116000000 0.0019810 0.0049326 0.9980190 -0.0049326 0.9980190 -0.0049326 0.0019810 0.0049326
2137000000 0.0020041 0.0051742 0.9979959 -0.0051742 0.9979959 -0.0051742 0.0020041 0.0051742
2158000000 0.0020274 0.0054138 0.9979726 -0.0054138 0.9979726 -0.0054138 0.0020274 0.0054138
2179000000 0.0020511 0.0056513 0.9979489 -0.0056513 0.9979489 -0.0056513 0.0020511 0.0056513
2200000000 0.0020749 0.0058870 0.9979251 -0.0058870 0.9979251 -0.0058870 0.0020749 0.0058870
2221000000 0.0020991 0.0061207 0.9979009 -0.0061207 0.9979009 -0.0061207 0.0020991 0.0061207
2242000000 0.0021234 0.0063525 0.9978766 -0.0063525 0.9978766 -0.0063525 0.0021234 0.0063525
2263000000 0.0021481 0.0065825 0.9978519 -0.0065825 0.9978519 -0.0065825 0.0021481 0.0065825
2284000000 0.0021730 0.0068108 0.9978270 -0.0068108 0.9978270 -0.0068108 0.0021730 0.0068108
2305000000 0.0021981 0.0070374 0.9978019 -0.0070374 0.9978019 -0.0070374 0.0021981 0.0070374
2326000000 0.0022234 0.0072623 0.9977766 -0.0072623 0.9977766 -0.0072623 0.0022234 0.0072623
2347000000 0.0022490 0.0074855 0.9977510 -0.0074855 0.9977510 -0.0074855 0.0022490 0.0074855
2368000000 0.0022749 0.0077071 0.9977251 -0.0077071 0.9977251 -0.0077071 0.0022749 0.0077071
2389000000 0.0023010 0.0079272 0.9976990 -0.0079272 0.9976990 -0.0079272 0.0023010 0.0079272
2410000000 0.0023273 0.0081458 0.9976727 -0.0081458 0.9976727 -0.0081458 0.0023273 0.0081458
2431000000 0.0023538 0.0083628 0.9976462 -0.0083628 0.9976462 -0.0083628 0.0023538 0.0083628
2452000000 0.0023806 0.0085784 0.9976194 -0.0085784 0.9976194 -0.0085784 0.0023806 0.0085784
2473000000 0.0024075 0.0087926 0.9975925 -0.0087926 0.9975925 -0.0087926 0.0024075 0.0087926
2494000000 0.0024347 0.0090054 0.9975653 -0.0090054 0.9975653 -0.0090054 0.0024347 0.0090054
2515000000 0.0024622 0.0092168 0.9975378 -0.0092168 0.9975378 -0.0092168 0.0024622 0.0092168
2536000000 0.0024898 0.0094269 0.9975102 -0.0094269 0.9975102 -0.0094269 0.0024898 0.0094269
2557000000 0.0025177 0.0096357 0.9974823 -0.0096357 0.9974823 -0.0096357 0.0025177 0.0096357
2578000000 0.0025457 0.0098432 0.9974543 -0.0098432 0.9974543 -0.0098432 0.0025457 0.0098432
2599000000 0.0025740 0.0100494 0.9974260 -0.0100494 0.9974260 -0.0100494 0.0025740 0.0100494
2620000000 0.0026025 0.0102544 0.9973975 -0.0102544 0.9973975 -0.0102544 0.0026025 0.0102544
2641000000 0.0026312 0.0104582 0.9973688 -0.0104582 0.9973688 -0.0104582 0.0026312 0.0104582
2662000000 0.0026601 0.0106609 0.9973399 -0.0106609 0.9973399 -0.0106609 0.0026601 0.0106609
2683000000 0.0026892 0.0108623 0.9973108 -0.0108623 0.9973108 -0.0108623 0.0026892 0.0108623
2704000000 0.0027185 0.0110626 0.9972815 -0.0110626 0.9972815 -0.0110626 0.0027185 0.0110626
2725000000 0.0027480 0.0112619 0.9972520 -0.0112619 0.9972520 -0.0112619 0.0027480 0.0112619
2746000000 0.0027777 0.0114600 0.9972223 -0.0114600 0.9972223 -0.0114600 0.0027777 0.0114600
2767000000 0.0028076 0.0116570 0.9971924 -0.0116570 0.9971924 -0.0116570 0.0028076 0.0116570
2788000000 0.0028377 0.0118530 0.9971623 -0.0118530 0.9971623 -0.0118530 0.0028377 0.0118530
2809000000 0.0028680 0.0120480 0.9971320 -0.0120480 0.9971320 -0.0120480 0.0028680 0.0120480
2830000000 0.0028985 0.0122419 0.9971015 -0.0122419 0.9971015 -0.0122419 0.0028985 0.0122419
2851000000 0.0029292 0.0124349 0.9970708 -0.0124349 0.9970708 -0.0124349 0.0029292 0.0124349
2872000000 0.0029600 0.0126268 0.9970400 -0.0126268 0.9970400 -0.0126268 0.0029600 0.0126268
2893000000 0.0029910 0.0128178 0.9970090 -0.0128178 0.9970090 -0.0128178 0.0029910 0.0128178
2914000000 0.0030223 0.0130079 0.9969777 -0.0130079 0.9969777 -0.0130079 0.0030223 0.0130079
2935000000 0.0030537 0.0131970 0.9969463 -0.0131970 0.9969463 -0.0131970 0.0030537 0.0131970
2956000000 0.0030852 0.0133852 0.9969148 -0.0133852 0.9969148 -0.0133852 0.0030852 0.0133852
2977000000 0.0031170 0.0135725 0.9968830 -0.0135725 0.9968830 -0.0135725 0.0031170 0.0135725
2998000000 0.0031489 0.0137590 0.9968511 -0.0137590 0.9968511 -0.0137590 0.0031489 0.0137590
3019000000 0.0031810 0.0139445 0.9968190 -0.0139445 0.9968190 -0.0139445 0.0031810 0.0139445
3040000000 0.0032133 0.0141292 0.9967867 -0.0141292 0.9967867 -0.0141292 0.0032133 0.0141292
3061000000 0.0032458 0.0143130 0.9967542 -0.0143130 0.9967542 -0.0143130 0.0032458 0.0143130
3082000000 0.0032784 0.0144960 0.9967216 -0.0144960 0.9967216 -0.0144960 0.0032784 0.0144960
3103000000 0.0033112 0.0146782 0.9966888 -0.0146782 0.9966888 -0.0146782 0.0033112 0.0146782
3124000000 0.0033441 0.0148596 0.9966559 -0.0148596 0.9966559 -0.0148596 0.0033441 0.0148596
3145000000 0.0033772 0.0150402 0.9966228 -0.0150402 0.9966228 -0.0150402 0.0033772 0.0150402
3166000000 0.0034105 0.0152200 0.9965895 -0.0152200 0.9965895 -0.0152200 0.0034105 0.0152200
3187000000 0.0034440 0.0153990 0.9965560 -0.0153990 0.9965560 -0.0153990 0.0034440 0.0153990
3208000000 0.0034776 0.0155773 0.9965224 -0.0155773 0.9965224 -0.0155773 0.0034776 0.0155773
3229000000 0.0035113 0.0157548 0.9964887 -0.0157548 0.9964887 -0.0157548 0.0035113 0.0157548
3250000000 0.0035452 0.0159316 0.9964548 -0.0159316 0.9964548 -0.0159316 0.0035452 0.0159316
3271000000 0.0035793 0.0161076 0.9964207 -0.0161076 0.9964207 -0.0161076 0.0035793 0.0161076
3292000000 0.0036135 0.0162829 0.9963865 -0.0162829 0.9963865 -0.0162829 0.0036135 0.0162829
3313000000 0.0036479 0.0164576 0.9963521 -0.0164576 0.9963521 -0.0164576 0.0036479 0.0164576
3334000000 0.0036824 0.0166315 0.9963176 -0.0166315 0.9963176 -0.0166315 0.0036824 0.0166315
3355000000 0.0037171 0.0168047 0.9962829 -0.0168047 0.9962829 -0.0168047 0.0037171 0.0168047
3376000000 0.0037519 0.0169772 0.9962481 -0.0169772 0.9962481 -0.0169772 0.0037519 0.0169772
3397000000 0.0037869 0.0171491 0.9962131 -0.0171491 0.9962131 -0.0171491 0.0037869 0.0171491
3418000000 0.0038220 0.0173203 0.9961780 -0.0173203 0.9961780 -0.0173203 0.0038220 0.0173203
3439000000 0.0038572 0.0174908 0.9961428 -0.0174908 0.9961428 -0.0174908 0.0038572 0.0174908
3460000000 0.0038926 0.0176607 0.9961074 -0.0176607 0.9961074 -0.0176607 0.0038926 0.0176607
3481000000 0.0039282 0.0178299 0.9960718 -0.0178299 0.9960718 -0.0178299 0.0039282 0.0178299
3502000000 0.0039639 0.0179986 0.9960361 -0.0179986 0.9960361 -0.0179986 0.0039639 0.0179986
3523000000 0.0039997 0.0181665 0.9960003 -0.0181665 0.9960003 -0.0181665 0.0039997 0.0181665
3544000000 0.0040356 0.0183339 0.9959644 -0.0183339 0.9959644 -0.0183339 0.0040356 0.0183339
3565000000 0.0040717 0.0185007 0.9959283 -0.0185007 0.9959283 -0.0185007 0.0040717 0.0185007
3586000000 0.0041079 0.0186668 0.9958921 -0.0186668 0.9958921 -0.0186668 0.0041079 0.0186668
3607000000 0.0041442 0.0188324 0.9958558 -0.0188324 0.9958558 -0.0188324 0.0041442 0.0188324
3628000000 0.0041807 0.0189973 0.9958193 -0.0189973 0.9958193 -0.0189973 0.0041807 0.0189973
3649000000 0.0042173 0.0191617 0.9957827 -0.0191617 0.9957827 -0.0191617 0.0042173 0.0191617
3670000000 0.0042540 0.0193255 0.9957460 -0.0193255 0.9957460 -0.0193255 0.0042540 0.0193255
3691000000 0.0042909 0.0194887 0.9957091 -0.0194887 0.9957091 -0.0194887 0.0042909 0.0194887
3712000000 0.0043278 0.0196513 0.9956722 -0.0196513 0.9956722 -0.0196513 0.0043278 0.0196513
3733000000 0.0043649 0.0198134 0.9956351 -0.0198134 0.9956351 -0.0198134 0.0043649 0.0198134
3754000000 0.0044021 0.0199750 0.9955979 -0.0199750 0.9955979 -0.0199750 0.0044021 0.0199750
3775000000 0.0044395 0.0201360 0.9955605 -0.0201360 0.9955605 -0.0201360 0.0044395 0.0201360
3796000000 0.0044769 0.0202964 0.9955231 -0.0202964 0.9955231 -0.0202964 0.0044769 0.0202964
3817000000 0.0045145 0.0204563 0.9954855 -0.0204563 0.9954855 -0.0204563 0.0045145 0.0204563
3838000000 0.0045522 0.0206157 0.9954478 -0.0206157 0.9954478 -0.0206157 0.0045522 0.0206157
3859000000 0.0045900 0.0207745 0.9954100 -0.0207745 0.9954100 -0.0207745 0.0045900 0.0207745
3880000000 0.0046279 0.0209329 0.9953721 -0.0209329 0.9953721 -0.0209329 0.0046279 0.0209329
3901000000 0.0046659 0.0210907 0.9953341 -0.0210907 0.9953341 -0.0210907 0.0046659 0.0210907
3922000000 0.0047040 0.0212480 0.9952960 -0.0212480 0.9952960 -0.0212480 0.0047040 0.0212480
3943000000 0.0047423 0.0214048 0.9952577 -0.0214048 0.9952577 -0.0214048 0.0047423 0.0214048
3964000000 0.0047806 0.0215611 0.9952194 -0.0215611 0.9952194 -0.0215611 0.0047806 0.0215611
3985000000 0.0048190 0.0217168 0.9951810 -0.0217168 0.9951810 -0.0217168 0.0048190 0.0217168
4006000000 0.0048576 0.0218721 0.9951424 -0.0218721 0.9951424 -0.0218721 0.0048576 0.0218721
4027000000 0.0048962 0.0220269 0.9951038 -0.0220269 0.9951038 -0.0220269 0.0048962 0.0220269
4048000000 0.0049350 0.0221813 0.9950650 -0.0221813 0.9950650 -0.0221813 0.0049350 0.0221813
4069000000 0.0049738 0.0223351 0.9950262 -0.0223351 0.9950262 -0.0223351 0.0049738 0.0223351
4090000000 0.0050128 0.0224885 0.9949872 -0.0224885 0.9949872 -0.0224885 0.0050128 0.0224885
4111000000 0.0050518 0.0226414 0.9949482 -0.0226414 0.9949482 -0.0226414 0.0050518 0.0226414
4132000000 0.0050910 0.0227938 0.9949090 -0.0227938 0.9949090 -0.0227938 0.0050910 0.0227938
4153000000 0.0051302 0.0229458 0.9948698 -0.0229458 0.9948698 -0.0229458 0.0051302 0.0229458
4174000000 0.0051695 0.0230973 0.9948305 -0.0230973 0.9948305 -0.0230973 0.0051695 0.0230973
4195000000 0.0052089 0.0232483 0.9947911 -0.0232483 0.9947911 -0.0232483 0.0052089 0.0232483
4216000000 0.0052485 0.0233989 0.9947515 -0.0233989 0.9947515 -0.0233989 0.0052485 0.0233989
4237000000 0.0052881 0.0235491 0.9947119 -0.0235491 0.9947119 -0.0235491 0.0052881 0.0235491
4258000000 0.0053277 0.0236988 0.9946723 -0.0236988 0.9946723 -0.0236988 0.0053277 0.0236988
4279000000 0.0053675 0.0238480 0.9946325 -0.0238480 0.9946325 -0.0238480 0.0053675 0.0238480
4300000000 0.0054074 0.0239968 0.9945926 -0.0239968 0.9945926 -0.0239968 0.0054074 0.0239968
4321000000 0.0054473 0.0241452 0.9945527 -0.0241452 0.9945527 -0.0241452 0.0054473 0.0241452
4342000000 0.0054873 0.0242932 0.9945127 -0.0242932 0.9945127 -0.0242932 0.0054873 0.0242932
4363000000 0.0055274 0.0244407 0.9944726 -0.0244407 0.9944726 -0.0244407 0.0055274 0.0244407
4384000000 0.0055676 0.0245878 0.9944324 -0.0245878 0.9944324 -0.0245878 0.0055676 0.0245878
4405000000 0.0056078 0.0247345 0.9943922 -0.0247345 0.9943922 -0.0247345 0.0056078 0.0247345
4426000000 0.0056482 0.0248807 0.9943518 -0.0248807 0.9943518 -0.0248807 0.0056482 0.0248807
4447000000 0.0056886 0.0250266 0.9943114 -0.0250266 0.9943114 -0.0250266 0.0056886 0.0250266
4468000000 0.0057291 0.0251720 0.9942709 -0.0251720 0.9942709 -0.0251720 0.0057291 0.0251720
4489000000 0.0057696 0.0253171 0.9942304 -0.0253171 0.9942304 -0.0253171 0.0057696 0.0253171
4510000000 0.0058102 0.0254617 0.9941898 -0.0254617 0.9941898 -0.0254617 0.0058102 0.0254617
