!Murata Part Number: GRM0115C1CR70BE01
!These Parameters are Measured in Series Mode Connection
!Data Generated on Mar 30, 2021
!       o--ll--o
!Port1            Port2
!       o------o
!Operation Temp=25[degC], DC Bias Voltage=0[V]
!Freq. Start=100[MHz] Stop=20[GHz] 401[Steps]
# Hz S RI R 50
!Freq.(Hz) S11(Real) S11(Imag) S21(Real) S21(Imag) S12(Real) S12(Imag) S22(Real) S22(Imag)
100000000 0.9980542 -0.0438985 0.0019458 0.0438985 0.0019458 0.0438985 0.9980542 -0.0438985
149750000 0.9956466 -0.0655829 0.0043534 0.0655829 0.0043534 0.0655829 0.9956466 -0.0655829
199500000 0.9922982 -0.0870834 0.0077018 0.0870834 0.0077018 0.0870834 0.9922982 -0.0870834
249250000 0.9880271 -0.1083415 0.0119729 0.1083415 0.0119729 0.1083415 0.9880271 -0.1083415
299000000 0.9828561 -0.1293009 0.0171439 0.1293009 0.0171439 0.1293009 0.9828561 -0.1293009
348750000 0.9768124 -0.1499078 0.0231876 0.1499078 0.0231876 0.1499078 0.9768124 -0.1499078
398500000 0.9699273 -0.1701116 0.0300727 0.1701116 0.0300727 0.1701116 0.9699273 -0.1701116
448250000 0.9622358 -0.1898649 0.0377642 0.1898649 0.0377642 0.1898649 0.9622358 -0.1898649
498000000 0.9537762 -0.2091241 0.0462238 0.2091241 0.0462238 0.2091241 0.9537762 -0.2091241
547750000 0.9445894 -0.2278495 0.0554106 0.2278495 0.0554106 0.2278495 0.9445894 -0.2278495
597500000 0.9347189 -0.2460055 0.0652811 0.2460055 0.0652811 0.2460055 0.9347189 -0.2460055
647250000 0.9242099 -0.2635608 0.0757901 0.2635608 0.0757901 0.2635608 0.9242099 -0.2635608
697000000 0.9131092 -0.2804884 0.0868908 0.2804884 0.0868908 0.2804884 0.9131092 -0.2804884
746750000 0.9014641 -0.2967653 0.0985359 0.2967653 0.0985359 0.2967653 0.9014641 -0.2967653
796500000 0.8893230 -0.3123732 0.1106770 0.3123732 0.1106770 0.3123732 0.8893230 -0.3123732
846250000 0.8767339 -0.3272976 0.1232661 0.3272976 0.1232661 0.3272976 0.8767339 -0.3272976
896000000 0.8637447 -0.3415281 0.1362553 0.3415281 0.1362553 0.3415281 0.8637447 -0.3415281
945750000 0.8504025 -0.3550582 0.1495975 0.3550582 0.1495975 0.3550582 0.8504025 -0.3550582
995500000 0.8367537 -0.3678849 0.1632463 0.3678849 0.1632463 0.3678849 0.8367537 -0.3678849
1045250000 0.8228431 -0.3800086 0.1771569 0.3800086 0.1771569 0.3800086 0.8228431 -0.3800086
1095000000 0.8087141 -0.3914330 0.1912859 0.3914330 0.1912859 0.3914330 0.8087141 -0.3914330
1144750000 0.7944086 -0.4021645 0.2055914 0.4021645 0.2055914 0.4021645 0.7944086 -0.4021645
1194500000 0.7799662 -0.4122120 0.2200338 0.4122120 0.2200338 0.4122120 0.7799662 -0.4122120
1244250000 0.7654249 -0.4215871 0.2345751 0.4215871 0.2345751 0.4215871 0.7654249 -0.4215871
1294000000 0.7508203 -0.4303030 0.2491797 0.4303030 0.2491797 0.4303030 0.7508203 -0.4303030
1343750000 0.7361859 -0.4383750 0.2638141 0.4383750 0.2638141 0.4383750 0.7361859 -0.4383750
1393500000 0.7215531 -0.4458199 0.2784469 0.4458199 0.2784469 0.4458199 0.7215531 -0.4458199
1443250000 0.7069509 -0.4526558 0.2930491 0.4526558 0.2930491 0.4526558 0.7069509 -0.4526558
1493000000 0.6924060 -0.4589017 0.3075940 0.4589017 0.3075940 0.4589017 0.6924060 -0.4589017
1542750000 0.6779433 -0.4645775 0.3220567 0.4645775 0.3220567 0.4645775 0.6779433 -0.4645775
1592500000 0.6635851 -0.4697039 0.3364149 0.4697039 0.3364149 0.4697039 0.6635851 -0.4697039
1642250000 0.6493519 -0.4743020 0.3506481 0.4743020 0.3506481 0.4743020 0.6493519 -0.4743020
1692000000 0.6352621 -0.4783930 0.3647379 0.4783930 0.3647379 0.4783930 0.6352621 -0.4783930
1741750000 0.6213321 -0.4819984 0.3786679 0.4819984 0.3786679 0.4819984 0.6213321 -0.4819984
1791500000 0.6075767 -0.4851397 0.3924233 0.4851397 0.3924233 0.4851397 0.6075767 -0.4851397
1841250000 0.5940087 -0.4878382 0.4059913 0.4878382 0.4059913 0.4878382 0.5940087 -0.4878382
1891000000 0.5806394 -0.4901151 0.4193606 0.4901151 0.4193606 0.4901151 0.5806394 -0.4901151
1940750000 0.5674785 -0.4919911 0.4325215 0.4919911 0.4325215 0.4919911 0.5674785 -0.4919911
1990500000 0.5545344 -0.4934866 0.4454656 0.4934866 0.4454656 0.4934866 0.5545344 -0.4934866
2040250000 0.5418140 -0.4946217 0.4581860 0.4946217 0.4581860 0.4946217 0.5418140 -0.4946217
2090000000 0.5293230 -0.4954156 0.4706770 0.4954156 0.4706770 0.4954156 0.5293230 -0.4954156
2139750000 0.5170659 -0.4958873 0.4829341 0.4958873 0.4829341 0.4958873 0.5170659 -0.4958873
2189500000 0.5050463 -0.4960549 0.4949537 0.4960549 0.4949537 0.4960549 0.5050463 -0.4960549
2239250000 0.4932668 -0.4959363 0.5067332 0.4959363 0.5067332 0.4959363 0.4932668 -0.4959363
2289000000 0.4817290 -0.4955482 0.5182710 0.4955482 0.5182710 0.4955482 0.4817290 -0.4955482
2338750000 0.4704339 -0.4949072 0.5295661 0.4949072 0.5295661 0.4949072 0.4704339 -0.4949072
2388500000 0.4593815 -0.4940288 0.5406185 0.4940288 0.5406185 0.4940288 0.4593815 -0.4940288
2438250000 0.4485715 -0.4929281 0.5514285 0.4929281 0.5514285 0.4929281 0.4485715 -0.4929281
2488000000 0.4380027 -0.4916194 0.5619973 0.4916194 0.5619973 0.4916194 0.4380027 -0.4916194
2537750000 0.4276736 -0.4901164 0.5723264 0.4901164 0.5723264 0.4901164 0.4276736 -0.4901164
2587500000 0.4175821 -0.4884322 0.5824179 0.4884322 0.5824179 0.4884322 0.4175821 -0.4884322
2637250000 0.4077259 -0.4865793 0.5922741 0.4865793 0.5922741 0.4865793 0.4077259 -0.4865793
2687000000 0.3981021 -0.4845694 0.6018979 0.4845694 0.6018979 0.4845694 0.3981021 -0.4845694
2736750000 0.3887076 -0.4824138 0.6112924 0.4824138 0.6112924 0.4824138 0.3887076 -0.4824138
2786500000 0.3795392 -0.4801230 0.6204608 0.4801230 0.6204608 0.4801230 0.3795392 -0.4801230
2836250000 0.3705931 -0.4777072 0.6294069 0.4777072 0.6294069 0.4777072 0.3705931 -0.4777072
2886000000 0.3618656 -0.4751759 0.6381344 0.4751759 0.6381344 0.4751759 0.3618656 -0.4751759
2935750000 0.3533529 -0.4725382 0.6466471 0.4725382 0.6466471 0.4725382 0.3533529 -0.4725382
2985500000 0.3450507 -0.4698025 0.6549493 0.4698025 0.6549493 0.4698025 0.3450507 -0.4698025
3035250000 0.3369551 -0.4669768 0.6630449 0.4669768 0.6630449 0.4669768 0.3369551 -0.4669768
3085000000 0.3290617 -0.4640688 0.6709383 0.4640688 0.6709383 0.4640688 0.3290617 -0.4640688
3134750000 0.3213662 -0.4610855 0.6786338 0.4610855 0.6786338 0.4610855 0.3213662 -0.4610855
3184500000 0.3138643 -0.4580337 0.6861357 0.4580337 0.6861357 0.4580337 0.3138643 -0.4580337
3234250000 0.3065517 -0.4549197 0.6934483 0.4549197 0.6934483 0.4549197 0.3065517 -0.4549197
3284000000 0.2994239 -0.4517495 0.7005761 0.4517495 0.7005761 0.4517495 0.2994239 -0.4517495
3333750000 0.2924767 -0.4485286 0.7075233 0.4485286 0.7075233 0.4485286 0.2924767 -0.4485286
3383500000 0.2857056 -0.4452622 0.7142944 0.4452622 0.7142944 0.4452622 0.2857056 -0.4452622
3433250000 0.2791065 -0.4419553 0.7208935 0.4419553 0.7208935 0.4419553 0.2791065 -0.4419553
3483000000 0.2726750 -0.4386124 0.7273250 0.4386124 0.7273250 0.4386124 0.2726750 -0.4386124
3532750000 0.2664069 -0.4352380 0.7335931 0.4352380 0.7335931 0.4352380 0.2664069 -0.4352380
3582500000 0.2602981 -0.4318359 0.7397019 0.4318359 0.7397019 0.4318359 0.2602981 -0.4318359
3632250000 0.2543445 -0.4284101 0.7456555 0.4284101 0.7456555 0.4284101 0.2543445 -0.4284101
3682000000 0.2485420 -0.4249639 0.7514580 0.4249639 0.7514580 0.4249639 0.2485420 -0.4249639
3731750000 0.2428867 -0.4215008 0.7571133 0.4215008 0.7571133 0.4215008 0.2428867 -0.4215008
3781500000 0.2373746 -0.4180238 0.7626254 0.4180238 0.7626254 0.4180238 0.2373746 -0.4180238
3831250000 0.2320021 -0.4145357 0.7679979 0.4145357 0.7679979 0.4145357 0.2320021 -0.4145357
3881000000 0.2267653 -0.4110393 0.7732347 0.4110393 0.7732347 0.4110393 0.2267653 -0.4110393
3930750000 0.2216606 -0.4075371 0.7783394 0.4075371 0.7783394 0.4075371 0.2216606 -0.4075371
3980500000 0.2166844 -0.4040313 0.7833156 0.4040313 0.7833156 0.4040313 0.2166844 -0.4040313
4030250000 0.2118332 -0.4005241 0.7881668 0.4005241 0.7881668 0.4005241 0.2118332 -0.4005241
4080000000 0.2071036 -0.3970176 0.7928964 0.3970176 0.7928964 0.3970176 0.2071036 -0.3970176
4129750000 0.2024924 -0.3935136 0.7975076 0.3935136 0.7975076 0.3935136 0.2024924 -0.3935136
4179500000 0.1979962 -0.3900137 0.8020038 0.3900137 0.8020038 0.3900137 0.1979962 -0.3900137
4229250000 0.1936119 -0.3865198 0.8063881 0.3865198 0.8063881 0.3865198 0.1936119 -0.3865198
4279000000 0.1893365 -0.3830331 0.8106635 0.3830331 0.8106635 0.3830331 0.1893365 -0.3830331
4328750000 0.1851669 -0.3795551 0.8148331 0.3795551 0.8148331 0.3795551 0.1851669 -0.3795551
4378500000 0.1811002 -0.3760870 0.8188998 0.3760870 0.8188998 0.3760870 0.1811002 -0.3760870
4428250000 0.1771336 -0.3726301 0.8228664 0.3726301 0.8228664 0.3726301 0.1771336 -0.3726301
4478000000 0.1732644 -0.3691854 0.8267356 0.3691854 0.8267356 0.3691854 0.1732644 -0.3691854
4527750000 0.1694897 -0.3657538 0.8305103 0.3657538 0.8305103 0.3657538 0.1694897 -0.3657538
4577500000 0.1658072 -0.3623363 0.8341928 0.3623363 0.8341928 0.3623363 0.1658072 -0.3623363
4627250000 0.1622141 -0.3589337 0.8377859 0.3589337 0.8377859 0.3589337 0.1622141 -0.3589337
4677000000 0.1587081 -0.3555468 0.8412919 0.3555468 0.8412919 0.3555468 0.1587081 -0.3555468
4726750000 0.1552868 -0.3521762 0.8447132 0.3521762 0.8447132 0.3521762 0.1552868 -0.3521762
4776500000 0.1519478 -0.3488226 0.8480522 0.3488226 0.8480522 0.3488226 0.1519478 -0.3488226
4826250000 0.1486889 -0.3454866 0.8513111 0.3454866 0.8513111 0.3454866 0.1486889 -0.3454866
4876000000 0.1455079 -0.3421687 0.8544921 0.3421687 0.8544921 0.3421687 0.1455079 -0.3421687
4925750000 0.1424027 -0.3388693 0.8575973 0.3388693 0.8575973 0.3388693 0.1424027 -0.3388693
4975500000 0.1393712 -0.3355888 0.8606288 0.3355888 0.8606288 0.3355888 0.1393712 -0.3355888
5025250000 0.1364114 -0.3323277 0.8635886 0.3323277 0.8635886 0.3323277 0.1364114 -0.3323277
5075000000 0.1335215 -0.3290863 0.8664785 0.3290863 0.8664785 0.3290863 0.1335215 -0.3290863
5124750000 0.1306994 -0.3258648 0.8693006 0.3258648 0.8693006 0.3258648 0.1306994 -0.3258648
5174500000 0.1279434 -0.3226635 0.8720566 0.3226635 0.8720566 0.3226635 0.1279434 -0.3226635
5224250000 0.1252517 -0.3194826 0.8747483 0.3194826 0.8747483 0.3194826 0.1252517 -0.3194826
5274000000 0.1226226 -0.3163224 0.8773774 0.3163224 0.8773774 0.3163224 0.1226226 -0.3163224
5323750000 0.1200544 -0.3131829 0.8799456 0.3131829 0.8799456 0.3131829 0.1200544 -0.3131829
5373500000 0.1175455 -0.3100644 0.8824545 0.3100644 0.8824545 0.3100644 0.1175455 -0.3100644
5423250000 0.1150943 -0.3069668 0.8849057 0.3069668 0.8849057 0.3069668 0.1150943 -0.3069668
5473000000 0.1126994 -0.3038903 0.8873006 0.3038903 0.8873006 0.3038903 0.1126994 -0.3038903
5522750000 0.1103591 -0.3008350 0.8896409 0.3008350 0.8896409 0.3008350 0.1103591 -0.3008350
5572500000 0.1080722 -0.2978009 0.8919278 0.2978009 0.8919278 0.2978009 0.1080722 -0.2978009
5622250000 0.1058372 -0.2947881 0.8941628 0.2947881 0.8941628 0.2947881 0.1058372 -0.2947881
5672000000 0.1036527 -0.2917964 0.8963473 0.2917964 0.8963473 0.2917964 0.1036527 -0.2917964
5721750000 0.1015175 -0.2888259 0.8984825 0.2888259 0.8984825 0.2888259 0.1015175 -0.2888259
5771500000 0.0994302 -0.2858766 0.9005698 0.2858766 0.9005698 0.2858766 0.0994302 -0.2858766
5821250000 0.0973898 -0.2829485 0.9026102 0.2829485 0.9026102 0.2829485 0.0973898 -0.2829485
5871000000 0.0953948 -0.2800414 0.9046052 0.2800414 0.9046052 0.2800414 0.0953948 -0.2800414
5920750000 0.0934443 -0.2771553 0.9065557 0.2771553 0.9065557 0.2771553 0.0934443 -0.2771553
5970500000 0.0915370 -0.2742901 0.9084630 0.2742901 0.9084630 0.2742901 0.0915370 -0.2742901
6020250000 0.0896719 -0.2714458 0.9103281 0.2714458 0.9103281 0.2714458 0.0896719 -0.2714458
6070000000 0.0878479 -0.2686223 0.9121521 0.2686223 0.9121521 0.2686223 0.0878479 -0.2686223
6119750000 0.0860640 -0.2658193 0.9139360 0.2658193 0.9139360 0.2658193 0.0860640 -0.2658193
6169500000 0.0843192 -0.2630369 0.9156808 0.2630369 0.9156808 0.2630369 0.0843192 -0.2630369
6219250000 0.0826126 -0.2602748 0.9173874 0.2602748 0.9173874 0.2602748 0.0826126 -0.2602748
6269000000 0.0809431 -0.2575330 0.9190569 0.2575330 0.9190569 0.2575330 0.0809431 -0.2575330
6318750000 0.0793098 -0.2548114 0.9206902 0.2548114 0.9206902 0.2548114 0.0793098 -0.2548114
6368500000 0.0777120 -0.2521097 0.9222880 0.2521097 0.9222880 0.2521097 0.0777120 -0.2521097
6418250000 0.0761486 -0.2494279 0.9238514 0.2494279 0.9238514 0.2494279 0.0761486 -0.2494279
6468000000 0.0746190 -0.2467657 0.9253810 0.2467657 0.9253810 0.2467657 0.0746190 -0.2467657
6517750000 0.0731222 -0.2441231 0.9268778 0.2441231 0.9268778 0.2441231 0.0731222 -0.2441231
6567500000 0.0716575 -0.2414998 0.9283425 0.2414998 0.9283425 0.2414998 0.0716575 -0.2414998
6617250000 0.0702241 -0.2388958 0.9297759 0.2388958 0.9297759 0.2388958 0.0702241 -0.2388958
6667000000 0.0688213 -0.2363108 0.9311787 0.2363108 0.9311787 0.2363108 0.0688213 -0.2363108
6716750000 0.0674483 -0.2337447 0.9325517 0.2337447 0.9325517 0.2337447 0.0674483 -0.2337447
6766500000 0.0661045 -0.2311973 0.9338955 0.2311973 0.9338955 0.2311973 0.0661045 -0.2311973
6816250000 0.0647892 -0.2286685 0.9352108 0.2286685 0.9352108 0.2286685 0.0647892 -0.2286685
6866000000 0.0635016 -0.2261580 0.9364984 0.2261580 0.9364984 0.2261580 0.0635016 -0.2261580
6915750000 0.0622412 -0.2236657 0.9377588 0.2236657 0.9377588 0.2236657 0.0622412 -0.2236657
6965500000 0.0610074 -0.2211914 0.9389926 0.2211914 0.9389926 0.2211914 0.0610074 -0.2211914
7015250000 0.0597994 -0.2187350 0.9402006 0.2187350 0.9402006 0.2187350 0.0597994 -0.2187350
7065000000 0.0586168 -0.2162962 0.9413832 0.2162962 0.9413832 0.2162962 0.0586168 -0.2162962
7114750000 0.0574589 -0.2138749 0.9425411 0.2138749 0.9425411 0.2138749 0.0574589 -0.2138749
7164500000 0.0563253 -0.2114710 0.9436747 0.2114710 0.9436747 0.2114710 0.0563253 -0.2114710
7214250000 0.0552153 -0.2090842 0.9447847 0.2090842 0.9447847 0.2090842 0.0552153 -0.2090842
7264000000 0.0541284 -0.2067143 0.9458716 0.2067143 0.9458716 0.2067143 0.0541284 -0.2067143
7313750000 0.0530641 -0.2043612 0.9469359 0.2043612 0.9469359 0.2043612 0.0530641 -0.2043612
7363500000 0.0520219 -0.2020247 0.9479781 0.2020247 0.9479781 0.2020247 0.0520219 -0.2020247
7413250000 0.0510013 -0.1997047 0.9489987 0.1997047 0.9489987 0.1997047 0.0510013 -0.1997047
7463000000 0.0500019 -0.1974009 0.9499981 0.1974009 0.9499981 0.1974009 0.0500019 -0.1974009
7512750000 0.0490231 -0.1951132 0.9509769 0.1951132 0.9509769 0.1951132 0.0490231 -0.1951132
7562500000 0.0480646 -0.1928414 0.9519354 0.1928414 0.9519354 0.1928414 0.0480646 -0.1928414
7612250000 0.0471259 -0.1905853 0.9528741 0.1905853 0.9528741 0.1905853 0.0471259 -0.1905853
7662000000 0.0462066 -0.1883448 0.9537934 0.1883448 0.9537934 0.1883448 0.0462066 -0.1883448
7711750000 0.0453062 -0.1861197 0.9546938 0.1861197 0.9546938 0.1861197 0.0453062 -0.1861197
7761500000 0.0444244 -0.1839098 0.9555756 0.1839098 0.9555756 0.1839098 0.0444244 -0.1839098
7811250000 0.0435607 -0.1817150 0.9564393 0.1817150 0.9564393 0.1817150 0.0435607 -0.1817150
7861000000 0.0427148 -0.1795351 0.9572852 0.1795351 0.9572852 0.1795351 0.0427148 -0.1795351
7910750000 0.0418863 -0.1773698 0.9581137 0.1773698 0.9581137 0.1773698 0.0418863 -0.1773698
7960500000 0.0410749 -0.1752191 0.9589251 0.1752191 0.9589251 0.1752191 0.0410749 -0.1752191
8010250000 0.0402802 -0.1730828 0.9597198 0.1730828 0.9597198 0.1730828 0.0402802 -0.1730828
8060000000 0.0395018 -0.1709608 0.9604982 0.1709608 0.9604982 0.1709608 0.0395018 -0.1709608
8109750000 0.0387395 -0.1688528 0.9612605 0.1688528 0.9612605 0.1688528 0.0387395 -0.1688528
8159500000 0.0379928 -0.1667587 0.9620072 0.1667587 0.9620072 0.1667587 0.0379928 -0.1667587
8209250000 0.0372615 -0.1646784 0.9627385 0.1646784 0.9627385 0.1646784 0.0372615 -0.1646784
8259000000 0.0365453 -0.1626116 0.9634547 0.1626116 0.9634547 0.1626116 0.0365453 -0.1626116
8308750000 0.0358438 -0.1605583 0.9641562 0.1605583 0.9641562 0.1605583 0.0358438 -0.1605583
8358500000 0.0351568 -0.1585183 0.9648432 0.1585183 0.9648432 0.1585183 0.0351568 -0.1585183
8408250000 0.0344840 -0.1564915 0.9655160 0.1564915 0.9655160 0.1564915 0.0344840 -0.1564915
8458000000 0.0338250 -0.1544776 0.9661750 0.1544776 0.9661750 0.1544776 0.0338250 -0.1544776
8507750000 0.0331797 -0.1524766 0.9668203 0.1524766 0.9668203 0.1524766 0.0331797 -0.1524766
8557500000 0.0325478 -0.1504882 0.9674522 0.1504882 0.9674522 0.1504882 0.0325478 -0.1504882
8607250000 0.0319290 -0.1485124 0.9680710 0.1485124 0.9680710 0.1485124 0.0319290 -0.1485124
8657000000 0.0313230 -0.1465490 0.9686770 0.1465490 0.9686770 0.1465490 0.0313230 -0.1465490
8706750000 0.0307296 -0.1445979 0.9692704 0.1445979 0.9692704 0.1445979 0.0307296 -0.1445979
8756500000 0.0301486 -0.1426589 0.9698514 0.1426589 0.9698514 0.1426589 0.0301486 -0.1426589
8806250000 0.0295797 -0.1407319 0.9704203 0.1407319 0.9704203 0.1407319 0.0295797 -0.1407319
8856000000 0.0290227 -0.1388167 0.9709773 0.1388167 0.9709773 0.1388167 0.0290227 -0.1388167
8905750000 0.0284774 -0.1369132 0.9715226 0.1369132 0.9715226 0.1369132 0.0284774 -0.1369132
8955500000 0.0279436 -0.1350214 0.9720564 0.1350214 0.9720564 0.1350214 0.0279436 -0.1350214
9005250000 0.0274209 -0.1331410 0.9725791 0.1331410 0.9725791 0.1331410 0.0274209 -0.1331410
9055000000 0.0269094 -0.1312718 0.9730906 0.1312718 0.9730906 0.1312718 0.0269094 -0.1312718
9104750000 0.0264086 -0.1294139 0.9735914 0.1294139 0.9735914 0.1294139 0.0264086 -0.1294139
9154500000 0.0259185 -0.1275671 0.9740815 0.1275671 0.9740815 0.1275671 0.0259185 -0.1275671
9204250000 0.0254389 -0.1257312 0.9745611 0.1257312 0.9745611 0.1257312 0.0254389 -0.1257312
9254000000 0.0249695 -0.1239061 0.9750305 0.1239061 0.9750305 0.1239061 0.0249695 -0.1239061
9303750000 0.0245101 -0.1220917 0.9754899 0.1220917 0.9754899 0.1220917 0.0245101 -0.1220917
9353500000 0.0240607 -0.1202878 0.9759393 0.1202878 0.9759393 0.1202878 0.0240607 -0.1202878
9403250000 0.0236210 -0.1184945 0.9763790 0.1184945 0.9763790 0.1184945 0.0236210 -0.1184945
9453000000 0.0231908 -0.1167114 0.9768092 0.1167114 0.9768092 0.1167114 0.0231908 -0.1167114
9502750000 0.0227700 -0.1149386 0.9772300 0.1149386 0.9772300 0.1149386 0.0227700 -0.1149386
9552500000 0.0223584 -0.1131759 0.9776416 0.1131759 0.9776416 0.1131759 0.0223584 -0.1131759
9602250000 0.0219558 -0.1114232 0.9780442 0.1114232 0.9780442 0.1114232 0.0219558 -0.1114232
9652000000 0.0215622 -0.1096803 0.9784378 0.1096803 0.9784378 0.1096803 0.0215622 -0.1096803
9701750000 0.0211773 -0.1079473 0.9788227 0.1079473 0.9788227 0.1079473 0.0211773 -0.1079473
9751500000 0.0208009 -0.1062238 0.9791991 0.1062238 0.9791991 0.1062238 0.0208009 -0.1062238
9801250000 0.0204331 -0.1045100 0.9795669 0.1045100 0.9795669 0.1045100 0.0204331 -0.1045100
9851000000 0.0200735 -0.1028056 0.9799265 0.1028056 0.9799265 0.1028056 0.0200735 -0.1028056
9900750000 0.0197221 -0.1011105 0.9802779 0.1011105 0.9802779 0.1011105 0.0197221 -0.1011105
9950500000 0.0193787 -0.0994247 0.9806213 0.0994247 0.9806213 0.0994247 0.0193787 -0.0994247
10000250000 0.0190432 -0.0977480 0.9809568 0.0977480 0.9809568 0.0977480 0.0190432 -0.0977480
10050000000 0.0187155 -0.0960804 0.9812845 0.0960804 0.9812845 0.0960804 0.0187155 -0.0960804
10099750000 0.0183954 -0.0944217 0.9816046 0.0944217 0.9816046 0.0944217 0.0183954 -0.0944217
10149500000 0.0180828 -0.0927718 0.9819172 0.0927718 0.9819172 0.0927718 0.0180828 -0.0927718
10199250000 0.0177776 -0.0911307 0.9822224 0.0911307 0.9822224 0.0911307 0.0177776 -0.0911307
10249000000 0.0174797 -0.0894983 0.9825203 0.0894983 0.9825203 0.0894983 0.0174797 -0.0894983
10298750000 0.0171889 -0.0878744 0.9828111 0.0878744 0.9828111 0.0878744 0.0171889 -0.0878744
10348500000 0.0169052 -0.0862589 0.9830948 0.0862589 0.9830948 0.0862589 0.0169052 -0.0862589
10398250000 0.0166284 -0.0846519 0.9833716 0.0846519 0.9833716 0.0846519 0.0166284 -0.0846519
10448000000 0.0163584 -0.0830531 0.9836416 0.0830531 0.9836416 0.0830531 0.0163584 -0.0830531
10497750000 0.0160951 -0.0814625 0.9839049 0.0814625 0.9839049 0.0814625 0.0160951 -0.0814625
