!Murata Part Number: GRM0115C1C6R1BE01
!These Parameters are Measured in Series Mode Connection
!Data Generated on Mar 30, 2021
!       o--ll--o
!Port1            Port2
!       o------o
!Operation Temp=25[degC], DC Bias Voltage=0[V]
!Freq. Start=100[MHz] Stop=9[GHz] 401[Steps]
# Hz S RI R 50
!Freq.(Hz) S11(Real) S11(Imag) S21(Real) S21(Imag) S12(Real) S12(Imag) S22(Real) S22(Imag)
100000000 0.8717094 -0.3341357 0.1282906 0.3341357 0.1282906 0.3341357 0.8717094 -0.3341357
121000000 0.8226970 -0.3815887 0.1773030 0.3815887 0.1773030 0.3815887 0.8226970 -0.3815887
142000000 0.7710817 -0.4197410 0.2289183 0.4197410 0.2289183 0.4197410 0.7710817 -0.4197410
163000000 0.7187608 -0.4491489 0.2812392 0.4491489 0.2812392 0.4491489 0.7187608 -0.4491489
184000000 0.6672241 -0.4706919 0.3327759 0.4706919 0.3327759 0.4706919 0.6672241 -0.4706919
205000000 0.6175540 -0.4854089 0.3824460 0.4854089 0.3824460 0.4854089 0.6175540 -0.4854089
226000000 0.5704691 -0.4943723 0.4295309 0.4943723 0.4295309 0.4943723 0.5704691 -0.4943723
247000000 0.5263908 -0.4986044 0.4736092 0.4986044 0.4736092 0.4986044 0.5263908 -0.4986044
268000000 0.4855126 -0.4990290 0.5144874 0.4990290 0.5144874 0.4990290 0.4855126 -0.4990290
289000000 0.4478632 -0.4964500 0.5521368 0.4964500 0.5521368 0.4964500 0.4478632 -0.4964500
310000000 0.4133597 -0.4915480 0.5866403 0.4915480 0.5866403 0.4915480 0.4133597 -0.4915480
331000000 0.3818480 -0.4848866 0.6181520 0.4848866 0.6181520 0.4848866 0.3818480 -0.4848866
352000000 0.3531335 -0.4769250 0.6468665 0.4769250 0.6468665 0.4769250 0.3531335 -0.4769250
373000000 0.3270022 -0.4680328 0.6729978 0.4680328 0.6729978 0.4680328 0.3270022 -0.4680328
394000000 0.3032359 -0.4585035 0.6967641 0.4585035 0.6967641 0.4585035 0.3032359 -0.4585035
415000000 0.2816209 -0.4485682 0.7183791 0.4485682 0.7183791 0.4485682 0.2816209 -0.4485682
436000000 0.2619544 -0.4384071 0.7380456 0.4384071 0.7380456 0.4384071 0.2619544 -0.4384071
457000000 0.2440472 -0.4281594 0.7559528 0.4281594 0.7559528 0.4281594 0.2440472 -0.4281594
478000000 0.2277258 -0.4179314 0.7722742 0.4179314 0.7722742 0.4179314 0.2277258 -0.4179314
499000000 0.2128319 -0.4078036 0.7871681 0.4078036 0.7871681 0.4078036 0.2128319 -0.4078036
520000000 0.1992226 -0.3978355 0.8007774 0.3978355 0.8007774 0.3978355 0.1992226 -0.3978355
541000000 0.1867693 -0.3880707 0.8132307 0.3880707 0.8132307 0.3880707 0.1867693 -0.3880707
562000000 0.1753567 -0.3785400 0.8246433 0.3785400 0.8246433 0.3785400 0.1753567 -0.3785400
583000000 0.1648819 -0.3692642 0.8351181 0.3692642 0.8351181 0.3692642 0.1648819 -0.3692642
604000000 0.1552527 -0.3602567 0.8447473 0.3602567 0.8447473 0.3602567 0.1552527 -0.3602567
625000000 0.1463869 -0.3515247 0.8536131 0.3515247 0.8536131 0.3515247 0.1463869 -0.3515247
646000000 0.1382114 -0.3430710 0.8617886 0.3430710 0.8617886 0.3430710 0.1382114 -0.3430710
667000000 0.1306605 -0.3348951 0.8693395 0.3348951 0.8693395 0.3348951 0.1306605 -0.3348951
688000000 0.1236760 -0.3269936 0.8763240 0.3269936 0.8763240 0.3269936 0.1236760 -0.3269936
709000000 0.1172056 -0.3193615 0.8827944 0.3193615 0.8827944 0.3193615 0.1172056 -0.3193615
730000000 0.1112027 -0.3119922 0.8887973 0.3119922 0.8887973 0.3119922 0.1112027 -0.3119922
751000000 0.1056254 -0.3048783 0.8943746 0.3048783 0.8943746 0.3048783 0.1056254 -0.3048783
772000000 0.1004362 -0.2980116 0.8995638 0.2980116 0.8995638 0.2980116 0.1004362 -0.2980116
793000000 0.0956015 -0.2913836 0.9043985 0.2913836 0.9043985 0.2913836 0.0956015 -0.2913836
814000000 0.0910911 -0.2849856 0.9089089 0.2849856 0.9089089 0.2849856 0.0910911 -0.2849856
835000000 0.0868777 -0.2788087 0.9131223 0.2788087 0.9131223 0.2788087 0.0868777 -0.2788087
856000000 0.0829369 -0.2728441 0.9170631 0.2728441 0.9170631 0.2728441 0.0829369 -0.2728441
877000000 0.0792464 -0.2670833 0.9207536 0.2670833 0.9207536 0.2670833 0.0792464 -0.2670833
898000000 0.0757862 -0.2615177 0.9242138 0.2615177 0.9242138 0.2615177 0.0757862 -0.2615177
919000000 0.0725383 -0.2561393 0.9274617 0.2561393 0.9274617 0.2561393 0.0725383 -0.2561393
940000000 0.0694862 -0.2509399 0.9305138 0.2509399 0.9305138 0.2509399 0.0694862 -0.2509399
961000000 0.0666149 -0.2459120 0.9333851 0.2459120 0.9333851 0.2459120 0.0666149 -0.2459120
982000000 0.0639109 -0.2410481 0.9360891 0.2410481 0.9360891 0.2410481 0.0639109 -0.2410481
1003000000 0.0613618 -0.2363413 0.9386382 0.2363413 0.9386382 0.2363413 0.0613618 -0.2363413
1024000000 0.0589565 -0.2317847 0.9410435 0.2317847 0.9410435 0.2317847 0.0589565 -0.2317847
1045000000 0.0566845 -0.2273719 0.9433155 0.2273719 0.9433155 0.2273719 0.0566845 -0.2273719
1066000000 0.0545365 -0.2230966 0.9454635 0.2230966 0.9454635 0.2230966 0.0545365 -0.2230966
1087000000 0.0525039 -0.2189530 0.9474961 0.2189530 0.9474961 0.2189530 0.0525039 -0.2189530
1108000000 0.0505789 -0.2149355 0.9494211 0.2149355 0.9494211 0.2149355 0.0505789 -0.2149355
1129000000 0.0487540 -0.2110387 0.9512460 0.2110387 0.9512460 0.2110387 0.0487540 -0.2110387
1150000000 0.0470228 -0.2072576 0.9529772 0.2072576 0.9529772 0.2072576 0.0470228 -0.2072576
1171000000 0.0453791 -0.2035872 0.9546209 0.2035872 0.9546209 0.2035872 0.0453791 -0.2035872
1192000000 0.0438172 -0.2000230 0.9561828 0.2000230 0.9561828 0.2000230 0.0438172 -0.2000230
1213000000 0.0423319 -0.1965606 0.9576681 0.1965606 0.9576681 0.1965606 0.0423319 -0.1965606
1234000000 0.0409185 -0.1931958 0.9590815 0.1931958 0.9590815 0.1931958 0.0409185 -0.1931958
1255000000 0.0395725 -0.1899247 0.9604275 0.1899247 0.9604275 0.1899247 0.0395725 -0.1899247
1276000000 0.0382898 -0.1867435 0.9617102 0.1867435 0.9617102 0.1867435 0.0382898 -0.1867435
1297000000 0.0370666 -0.1836485 0.9629334 0.1836485 0.9629334 0.1836485 0.0370666 -0.1836485
1318000000 0.0358993 -0.1806364 0.9641007 0.1806364 0.9641007 0.1806364 0.0358993 -0.1806364
1339000000 0.0347848 -0.1777038 0.9652152 0.1777038 0.9652152 0.1777038 0.0347848 -0.1777038
1360000000 0.0337199 -0.1748478 0.9662801 0.1748478 0.9662801 0.1748478 0.0337199 -0.1748478
1381000000 0.0327019 -0.1720654 0.9672981 0.1720654 0.9672981 0.1720654 0.0327019 -0.1720654
1402000000 0.0317280 -0.1693537 0.9682720 0.1693537 0.9682720 0.1693537 0.0317280 -0.1693537
1423000000 0.0307959 -0.1667101 0.9692041 0.1667101 0.9692041 0.1667101 0.0307959 -0.1667101
1444000000 0.0299032 -0.1641319 0.9700968 0.1641319 0.9700968 0.1641319 0.0299032 -0.1641319
1465000000 0.0290479 -0.1616169 0.9709521 0.1616169 0.9709521 0.1616169 0.0290479 -0.1616169
1486000000 0.0282279 -0.1591626 0.9717721 0.1591626 0.9717721 0.1591626 0.0282279 -0.1591626
1507000000 0.0274413 -0.1567669 0.9725587 0.1567669 0.9725587 0.1567669 0.0274413 -0.1567669
1528000000 0.0266865 -0.1544276 0.9733135 0.1544276 0.9733135 0.1544276 0.0266865 -0.1544276
1549000000 0.0259618 -0.1521427 0.9740382 0.1521427 0.9740382 0.1521427 0.0259618 -0.1521427
1570000000 0.0252656 -0.1499103 0.9747344 0.1499103 0.9747344 0.1499103 0.0252656 -0.1499103
1591000000 0.0245965 -0.1477286 0.9754035 0.1477286 0.9754035 0.1477286 0.0245965 -0.1477286
1612000000 0.0239532 -0.1455957 0.9760468 0.1455957 0.9760468 0.1455957 0.0239532 -0.1455957
1633000000 0.0233344 -0.1435100 0.9766656 0.1435100 0.9766656 0.1435100 0.0233344 -0.1435100
1654000000 0.0227389 -0.1414700 0.9772611 0.1414700 0.9772611 0.1414700 0.0227389 -0.1414700
1675000000 0.0221656 -0.1394740 0.9778344 0.1394740 0.9778344 0.1394740 0.0221656 -0.1394740
1696000000 0.0216135 -0.1375206 0.9783865 0.1375206 0.9783865 0.1375206 0.0216135 -0.1375206
1717000000 0.0210815 -0.1356083 0.9789185 0.1356083 0.9789185 0.1356083 0.0210815 -0.1356083
1738000000 0.0205687 -0.1337359 0.9794313 0.1337359 0.9794313 0.1337359 0.0205687 -0.1337359
1759000000 0.0200742 -0.1319020 0.9799258 0.1319020 0.9799258 0.1319020 0.0200742 -0.1319020
1780000000 0.0195972 -0.1301053 0.9804028 0.1301053 0.9804028 0.1301053 0.0195972 -0.1301053
1801000000 0.0191370 -0.1283448 0.9808630 0.1283448 0.9808630 0.1283448 0.0191370 -0.1283448
1822000000 0.0186927 -0.1266192 0.9813073 0.1266192 0.9813073 0.1266192 0.0186927 -0.1266192
1843000000 0.0182636 -0.1249275 0.9817364 0.1249275 0.9817364 0.1249275 0.0182636 -0.1249275
1864000000 0.0178492 -0.1232686 0.9821508 0.1232686 0.9821508 0.1232686 0.0178492 -0.1232686
1885000000 0.0174488 -0.1216415 0.9825512 0.1216415 0.9825512 0.1216415 0.0174488 -0.1216415
1906000000 0.0170617 -0.1200452 0.9829383 0.1200452 0.9829383 0.1200452 0.0170617 -0.1200452
1927000000 0.0166874 -0.1184787 0.9833126 0.1184787 0.9833126 0.1184787 0.0166874 -0.1184787
1948000000 0.0163254 -0.1169413 0.9836746 0.1169413 0.9836746 0.1169413 0.0163254 -0.1169413
1969000000 0.0159752 -0.1154321 0.9840248 0.1154321 0.9840248 0.1154321 0.0159752 -0.1154321
1990000000 0.0156363 -0.1139501 0.9843637 0.1139501 0.9843637 0.1139501 0.0156363 -0.1139501
2011000000 0.0153082 -0.1124946 0.9846918 0.1124946 0.9846918 0.1124946 0.0153082 -0.1124946
2032000000 0.0149904 -0.1110649 0.9850096 0.1110649 0.9850096 0.1110649 0.0149904 -0.1110649
2053000000 0.0146827 -0.1096602 0.9853173 0.1096602 0.9853173 0.1096602 0.0146827 -0.1096602
2074000000 0.0143845 -0.1082798 0.9856155 0.1082798 0.9856155 0.1082798 0.0143845 -0.1082798
2095000000 0.0140956 -0.1069230 0.9859044 0.1069230 0.9859044 0.1069230 0.0140956 -0.1069230
2116000000 0.0138155 -0.1055892 0.9861845 0.1055892 0.9861845 0.1055892 0.0138155 -0.1055892
2137000000 0.0135440 -0.1042776 0.9864560 0.1042776 0.9864560 0.1042776 0.0135440 -0.1042776
2158000000 0.0132806 -0.1029878 0.9867194 0.1029878 0.9867194 0.1029878 0.0132806 -0.1029878
2179000000 0.0130251 -0.1017191 0.9869749 0.1017191 0.9869749 0.1017191 0.0130251 -0.1017191
2200000000 0.0127773 -0.1004709 0.9872227 0.1004709 0.9872227 0.1004709 0.0127773 -0.1004709
2221000000 0.0125367 -0.0992427 0.9874633 0.0992427 0.9874633 0.0992427 0.0125367 -0.0992427
2242000000 0.0123032 -0.0980339 0.9876968 0.0980339 0.9876968 0.0980339 0.0123032 -0.0980339
2263000000 0.0120764 -0.0968441 0.9879236 0.0968441 0.9879236 0.0968441 0.0120764 -0.0968441
2284000000 0.0118563 -0.0956728 0.9881437 0.0956728 0.9881437 0.0956728 0.0118563 -0.0956728
2305000000 0.0116424 -0.0945194 0.9883576 0.0945194 0.9883576 0.0945194 0.0116424 -0.0945194
2326000000 0.0114346 -0.0933835 0.9885654 0.0933835 0.9885654 0.0933835 0.0114346 -0.0933835
2347000000 0.0112328 -0.0922647 0.9887672 0.0922647 0.9887672 0.0922647 0.0112328 -0.0922647
2368000000 0.0110366 -0.0911625 0.9889634 0.0911625 0.9889634 0.0911625 0.0110366 -0.0911625
2389000000 0.0108458 -0.0900765 0.9891542 0.0900765 0.9891542 0.0900765 0.0108458 -0.0900765
2410000000 0.0106604 -0.0890063 0.9893396 0.0890063 0.9893396 0.0890063 0.0106604 -0.0890063
2431000000 0.0104801 -0.0879516 0.9895199 0.0879516 0.9895199 0.0879516 0.0104801 -0.0879516
2452000000 0.0103048 -0.0869118 0.9896952 0.0869118 0.9896952 0.0869118 0.0103048 -0.0869118
2473000000 0.0101342 -0.0858867 0.9898658 0.0858867 0.9898658 0.0858867 0.0101342 -0.0858867
2494000000 0.0099682 -0.0848760 0.9900318 0.0848760 0.9900318 0.0848760 0.0099682 -0.0848760
2515000000 0.0098068 -0.0838792 0.9901932 0.0838792 0.9901932 0.0838792 0.0098068 -0.0838792
2536000000 0.0096496 -0.0828960 0.9903504 0.0828960 0.9903504 0.0828960 0.0096496 -0.0828960
2557000000 0.0094967 -0.0819262 0.9905033 0.0819262 0.9905033 0.0819262 0.0094967 -0.0819262
2578000000 0.0093478 -0.0809694 0.9906522 0.0809694 0.9906522 0.0809694 0.0093478 -0.0809694
2599000000 0.0092028 -0.0800252 0.9907972 0.0800252 0.9907972 0.0800252 0.0092028 -0.0800252
2620000000 0.0090617 -0.0790935 0.9909383 0.0790935 0.9909383 0.0790935 0.0090617 -0.0790935
2641000000 0.0089243 -0.0781738 0.9910757 0.0781738 0.9910757 0.0781738 0.0089243 -0.0781738
2662000000 0.0087904 -0.0772660 0.9912096 0.0772660 0.9912096 0.0772660 0.0087904 -0.0772660
2683000000 0.0086600 -0.0763698 0.9913400 0.0763698 0.9913400 0.0763698 0.0086600 -0.0763698
2704000000 0.0085330 -0.0754849 0.9914670 0.0754849 0.9914670 0.0754849 0.0085330 -0.0754849
2725000000 0.0084092 -0.0746111 0.9915908 0.0746111 0.9915908 0.0746111 0.0084092 -0.0746111
2746000000 0.0082886 -0.0737481 0.9917114 0.0737481 0.9917114 0.0737481 0.0082886 -0.0737481
2767000000 0.0081711 -0.0728956 0.9918289 0.0728956 0.9918289 0.0728956 0.0081711 -0.0728956
2788000000 0.0080565 -0.0720535 0.9919435 0.0720535 0.9919435 0.0720535 0.0080565 -0.0720535
2809000000 0.0079449 -0.0712215 0.9920551 0.0712215 0.9920551 0.0712215 0.0079449 -0.0712215
2830000000 0.0078361 -0.0703994 0.9921639 0.0703994 0.9921639 0.0703994 0.0078361 -0.0703994
2851000000 0.0077300 -0.0695870 0.9922700 0.0695870 0.9922700 0.0695870 0.0077300 -0.0695870
2872000000 0.0076265 -0.0687841 0.9923735 0.0687841 0.9923735 0.0687841 0.0076265 -0.0687841
2893000000 0.0075257 -0.0679905 0.9924743 0.0679905 0.9924743 0.0679905 0.0075257 -0.0679905
2914000000 0.0074274 -0.0672060 0.9925726 0.0672060 0.9925726 0.0672060 0.0074274 -0.0672060
2935000000 0.0073315 -0.0664303 0.9926685 0.0664303 0.9926685 0.0664303 0.0073315 -0.0664303
2956000000 0.0072380 -0.0656634 0.9927620 0.0656634 0.9927620 0.0656634 0.0072380 -0.0656634
2977000000 0.0071468 -0.0649050 0.9928532 0.0649050 0.9928532 0.0649050 0.0071468 -0.0649050
2998000000 0.0070578 -0.0641550 0.9929422 0.0641550 0.9929422 0.0641550 0.0070578 -0.0641550
3019000000 0.0069710 -0.0634131 0.9930290 0.0634131 0.9930290 0.0634131 0.0069710 -0.0634131
3040000000 0.0068864 -0.0626793 0.9931136 0.0626793 0.9931136 0.0626793 0.0068864 -0.0626793
3061000000 0.0068038 -0.0619534 0.9931962 0.0619534 0.9931962 0.0619534 0.0068038 -0.0619534
3082000000 0.0067233 -0.0612351 0.9932767 0.0612351 0.9932767 0.0612351 0.0067233 -0.0612351
3103000000 0.0066447 -0.0605244 0.9933553 0.0605244 0.9933553 0.0605244 0.0066447 -0.0605244
3124000000 0.0065681 -0.0598211 0.9934319 0.0598211 0.9934319 0.0598211 0.0065681 -0.0598211
3145000000 0.0064933 -0.0591251 0.9935067 0.0591251 0.9935067 0.0591251 0.0064933 -0.0591251
3166000000 0.0064204 -0.0584362 0.9935796 0.0584362 0.9935796 0.0584362 0.0064204 -0.0584362
3187000000 0.0063492 -0.0577543 0.9936508 0.0577543 0.9936508 0.0577543 0.0063492 -0.0577543
3208000000 0.0062797 -0.0570792 0.9937203 0.0570792 0.9937203 0.0570792 0.0062797 -0.0570792
3229000000 0.0062120 -0.0564109 0.9937880 0.0564109 0.9937880 0.0564109 0.0062120 -0.0564109
3250000000 0.0061459 -0.0557491 0.9938541 0.0557491 0.9938541 0.0557491 0.0061459 -0.0557491
3271000000 0.0060814 -0.0550938 0.9939186 0.0550938 0.9939186 0.0550938 0.0060814 -0.0550938
3292000000 0.0060184 -0.0544449 0.9939816 0.0544449 0.9939816 0.0544449 0.0060184 -0.0544449
3313000000 0.0059570 -0.0538021 0.9940430 0.0538021 0.9940430 0.0538021 0.0059570 -0.0538021
3334000000 0.0058971 -0.0531655 0.9941029 0.0531655 0.9941029 0.0531655 0.0058971 -0.0531655
3355000000 0.0058387 -0.0525349 0.9941613 0.0525349 0.9941613 0.0525349 0.0058387 -0.0525349
3376000000 0.0057817 -0.0519102 0.9942183 0.0519102 0.9942183 0.0519102 0.0057817 -0.0519102
3397000000 0.0057261 -0.0512913 0.9942739 0.0512913 0.9942739 0.0512913 0.0057261 -0.0512913
3418000000 0.0056718 -0.0506780 0.9943282 0.0506780 0.9943282 0.0506780 0.0056718 -0.0506780
3439000000 0.0056189 -0.0500703 0.9943811 0.0500703 0.9943811 0.0500703 0.0056189 -0.0500703
3460000000 0.0055673 -0.0494681 0.9944327 0.0494681 0.9944327 0.0494681 0.0055673 -0.0494681
3481000000 0.0055170 -0.0488713 0.9944830 0.0488713 0.9944830 0.0488713 0.0055170 -0.0488713
3502000000 0.0054679 -0.0482798 0.9945321 0.0482798 0.9945321 0.0482798 0.0054679 -0.0482798
3523000000 0.0054200 -0.0476934 0.9945800 0.0476934 0.9945800 0.0476934 0.0054200 -0.0476934
3544000000 0.0053733 -0.0471122 0.9946267 0.0471122 0.9946267 0.0471122 0.0053733 -0.0471122
3565000000 0.0053278 -0.0465360 0.9946722 0.0465360 0.9946722 0.0465360 0.0053278 -0.0465360
3586000000 0.0052834 -0.0459647 0.9947166 0.0459647 0.9947166 0.0459647 0.0052834 -0.0459647
3607000000 0.0052401 -0.0453982 0.9947599 0.0453982 0.9947599 0.0453982 0.0052401 -0.0453982
3628000000 0.0051979 -0.0448365 0.9948021 0.0448365 0.9948021 0.0448365 0.0051979 -0.0448365
3649000000 0.0051568 -0.0442795 0.9948432 0.0442795 0.9948432 0.0442795 0.0051568 -0.0442795
3670000000 0.0051167 -0.0437271 0.9948833 0.0437271 0.9948833 0.0437271 0.0051167 -0.0437271
3691000000 0.0050777 -0.0431792 0.9949223 0.0431792 0.9949223 0.0431792 0.0050777 -0.0431792
3712000000 0.0050397 -0.0426357 0.9949603 0.0426357 0.9949603 0.0426357 0.0050397 -0.0426357
3733000000 0.0050026 -0.0420967 0.9949974 0.0420967 0.9949974 0.0420967 0.0050026 -0.0420967
3754000000 0.0049665 -0.0415619 0.9950335 0.0415619 0.9950335 0.0415619 0.0049665 -0.0415619
3775000000 0.0049314 -0.0410313 0.9950686 0.0410313 0.9950686 0.0410313 0.0049314 -0.0410313
3796000000 0.0048972 -0.0405050 0.9951028 0.0405050 0.9951028 0.0405050 0.0048972 -0.0405050
3817000000 0.0048638 -0.0399827 0.9951362 0.0399827 0.9951362 0.0399827 0.0048638 -0.0399827
3838000000 0.0048314 -0.0394644 0.9951686 0.0394644 0.9951686 0.0394644 0.0048314 -0.0394644
3859000000 0.0047999 -0.0389501 0.9952001 0.0389501 0.9952001 0.0389501 0.0047999 -0.0389501
3880000000 0.0047692 -0.0384397 0.9952308 0.0384397 0.9952308 0.0384397 0.0047692 -0.0384397
3901000000 0.0047394 -0.0379332 0.9952606 0.0379332 0.9952606 0.0379332 0.0047394 -0.0379332
3922000000 0.0047103 -0.0374304 0.9952897 0.0374304 0.9952897 0.0374304 0.0047103 -0.0374304
3943000000 0.0046821 -0.0369313 0.9953179 0.0369313 0.9953179 0.0369313 0.0046821 -0.0369313
3964000000 0.0046547 -0.0364359 0.9953453 0.0364359 0.9953453 0.0364359 0.0046547 -0.0364359
3985000000 0.0046281 -0.0359441 0.9953719 0.0359441 0.9953719 0.0359441 0.0046281 -0.0359441
4006000000 0.0046022 -0.0354559 0.9953978 0.0354559 0.9953978 0.0354559 0.0046022 -0.0354559
4027000000 0.0045771 -0.0349711 0.9954229 0.0349711 0.9954229 0.0349711 0.0045771 -0.0349711
4048000000 0.0045527 -0.0344898 0.9954473 0.0344898 0.9954473 0.0344898 0.0045527 -0.0344898
4069000000 0.0045290 -0.0340119 0.9954710 0.0340119 0.9954710 0.0340119 0.0045290 -0.0340119
4090000000 0.0045061 -0.0335373 0.9954939 0.0335373 0.9954939 0.0335373 0.0045061 -0.0335373
4111000000 0.0044839 -0.0330660 0.9955161 0.0330660 0.9955161 0.0330660 0.0044839 -0.0330660
4132000000 0.0044623 -0.0325979 0.9955377 0.0325979 0.9955377 0.0325979 0.0044623 -0.0325979
4153000000 0.0044414 -0.0321330 0.9955586 0.0321330 0.9955586 0.0321330 0.0044414 -0.0321330
4174000000 0.0044212 -0.0316713 0.9955788 0.0316713 0.9955788 0.0316713 0.0044212 -0.0316713
4195000000 0.0044017 -0.0312126 0.9955983 0.0312126 0.9955983 0.0312126 0.0044017 -0.0312126
4216000000 0.0043828 -0.0307570 0.9956172 0.0307570 0.9956172 0.0307570 0.0043828 -0.0307570
4237000000 0.0043645 -0.0303044 0.9956355 0.0303044 0.9956355 0.0303044 0.0043645 -0.0303044
4258000000 0.0043468 -0.0298548 0.9956532 0.0298548 0.9956532 0.0298548 0.0043468 -0.0298548
4279000000 0.0043298 -0.0294081 0.9956702 0.0294081 0.9956702 0.0294081 0.0043298 -0.0294081
4300000000 0.0043133 -0.0289642 0.9956867 0.0289642 0.9956867 0.0289642 0.0043133 -0.0289642
4321000000 0.0042975 -0.0285232 0.9957025 0.0285232 0.9957025 0.0285232 0.0042975 -0.0285232
4342000000 0.0042822 -0.0280850 0.9957178 0.0280850 0.9957178 0.0280850 0.0042822 -0.0280850
4363000000 0.0042676 -0.0276496 0.9957324 0.0276496 0.9957324 0.0276496 0.0042676 -0.0276496
4384000000 0.0042534 -0.0272168 0.9957466 0.0272168 0.9957466 0.0272168 0.0042534 -0.0272168
4405000000 0.0042399 -0.0267867 0.9957601 0.0267867 0.9957601 0.0267867 0.0042399 -0.0267867
4426000000 0.0042269 -0.0263593 0.9957731 0.0263593 0.9957731 0.0263593 0.0042269 -0.0263593
4447000000 0.0042144 -0.0259345 0.9957856 0.0259345 0.9957856 0.0259345 0.0042144 -0.0259345
4468000000 0.0042025 -0.0255122 0.9957975 0.0255122 0.9957975 0.0255122 0.0042025 -0.0255122
4489000000 0.0041910 -0.0250925 0.9958090 0.0250925 0.9958090 0.0250925 0.0041910 -0.0250925
4510000000 0.0041802 -0.0246753 0.9958198 0.0246753 0.9958198 0.0246753 0.0041802 -0.0246753
