!Murata Part Number: GRM0115C1E2R3WE01
!These Parameters are Measured in Series Mode Connection
!Data Generated on Mar 30, 2021
!       o--ll--o
!Port1            Port2
!       o------o
!Operation Temp=25[degC], DC Bias Voltage=0[V]
!Freq. Start=100[MHz] Stop=9[GHz] 401[Steps]
# Hz S RI R 50
!Freq.(Hz) S11(Real) S11(Imag) S21(Real) S21(Imag) S12(Real) S12(Imag) S22(Real) S22(Imag)
100000000 0.9794949 -0.1415601 0.0205051 0.1415601 0.0205051 0.1415601 0.9794949 -0.1415601
121000000 0.9702589 -0.1696783 0.0297411 0.1696783 0.0297411 0.1696783 0.9702589 -0.1696783
142000000 0.9594900 -0.1969242 0.0405100 0.1969242 0.0405100 0.1969242 0.9594900 -0.1969242
163000000 0.9472940 -0.2231837 0.0527060 0.2231837 0.0527060 0.2231837 0.9472940 -0.2231837
184000000 0.9337867 -0.2483579 0.0662133 0.2483579 0.0662133 0.2483579 0.9337867 -0.2483579
205000000 0.9190910 -0.2723640 0.0809090 0.2723640 0.0809090 0.2723640 0.9190910 -0.2723640
226000000 0.9033343 -0.2951357 0.0966657 0.2951357 0.0966657 0.2951357 0.9033343 -0.2951357
247000000 0.8866464 -0.3166229 0.1133536 0.3166229 0.1133536 0.3166229 0.8866464 -0.3166229
268000000 0.8691573 -0.3367911 0.1308427 0.3367911 0.1308427 0.3367911 0.8691573 -0.3367911
289000000 0.8509946 -0.3556207 0.1490054 0.3556207 0.1490054 0.3556207 0.8509946 -0.3556207
310000000 0.8322825 -0.3731059 0.1677175 0.3731059 0.1677175 0.3731059 0.8322825 -0.3731059
331000000 0.8131396 -0.3892534 0.1868604 0.3892534 0.1868604 0.3892534 0.8131396 -0.3892534
352000000 0.7936784 -0.4040810 0.2063216 0.4040810 0.2063216 0.4040810 0.7936784 -0.4040810
373000000 0.7740039 -0.4176162 0.2259961 0.4176162 0.2259961 0.4176162 0.7740039 -0.4176162
394000000 0.7542130 -0.4298945 0.2457870 0.4298945 0.2457870 0.4298945 0.7542130 -0.4298945
415000000 0.7343946 -0.4409583 0.2656054 0.4409583 0.2656054 0.4409583 0.7343946 -0.4409583
436000000 0.7146289 -0.4508556 0.2853711 0.4508556 0.2853711 0.4508556 0.7146289 -0.4508556
457000000 0.6949875 -0.4596380 0.3050125 0.4596380 0.3050125 0.4596380 0.6949875 -0.4596380
478000000 0.6755339 -0.4673606 0.3244661 0.4673606 0.3244661 0.4673606 0.6755339 -0.4673606
499000000 0.6563235 -0.4740801 0.3436765 0.4740801 0.3436765 0.4740801 0.6563235 -0.4740801
520000000 0.6374040 -0.4798542 0.3625960 0.4798542 0.3625960 0.4798542 0.6374040 -0.4798542
541000000 0.6188162 -0.4847410 0.3811838 0.4847410 0.3811838 0.4847410 0.6188162 -0.4847410
562000000 0.6005940 -0.4887980 0.3994060 0.4887980 0.3994060 0.4887980 0.6005940 -0.4887980
583000000 0.5827653 -0.4920818 0.4172347 0.4920818 0.4172347 0.4920818 0.5827653 -0.4920818
604000000 0.5653524 -0.4946474 0.4346476 0.4946474 0.4346476 0.4946474 0.5653524 -0.4946474
625000000 0.5483726 -0.4965480 0.4516274 0.4965480 0.4516274 0.4965480 0.5483726 -0.4965480
646000000 0.5318388 -0.4978349 0.4681612 0.4978349 0.4681612 0.4978349 0.5318388 -0.4978349
667000000 0.5157596 -0.4985569 0.4842404 0.4985569 0.4842404 0.4985569 0.5157596 -0.4985569
688000000 0.5001405 -0.4987604 0.4998595 0.4987604 0.4998595 0.4987604 0.5001405 -0.4987604
709000000 0.4849836 -0.4984895 0.5150164 0.4984895 0.5150164 0.4984895 0.4849836 -0.4984895
730000000 0.4702884 -0.4977856 0.5297116 0.4977856 0.5297116 0.4977856 0.4702884 -0.4977856
751000000 0.4560523 -0.4966875 0.5439477 0.4966875 0.5439477 0.4966875 0.4560523 -0.4966875
772000000 0.4422705 -0.4952319 0.5577295 0.4952319 0.5577295 0.4952319 0.4422705 -0.4952319
793000000 0.4289367 -0.4934525 0.5710633 0.4934525 0.5710633 0.4934525 0.4289367 -0.4934525
814000000 0.4160433 -0.4913812 0.5839567 0.4913812 0.5839567 0.4913812 0.4160433 -0.4913812
835000000 0.4035814 -0.4890472 0.5964186 0.4890472 0.5964186 0.4890472 0.4035814 -0.4890472
856000000 0.3915414 -0.4864778 0.6084586 0.4864778 0.6084586 0.4864778 0.3915414 -0.4864778
877000000 0.3799130 -0.4836983 0.6200870 0.4836983 0.6200870 0.4836983 0.3799130 -0.4836983
898000000 0.3686851 -0.4807317 0.6313149 0.4807317 0.6313149 0.4807317 0.3686851 -0.4807317
919000000 0.3578466 -0.4775996 0.6421534 0.4775996 0.6421534 0.4775996 0.3578466 -0.4775996
940000000 0.3473857 -0.4743215 0.6526143 0.4743215 0.6526143 0.4743215 0.3473857 -0.4743215
961000000 0.3372909 -0.4709156 0.6627091 0.4709156 0.6627091 0.4709156 0.3372909 -0.4709156
982000000 0.3275503 -0.4673985 0.6724497 0.4673985 0.6724497 0.4673985 0.3275503 -0.4673985
1003000000 0.3181522 -0.4637852 0.6818478 0.4637852 0.6818478 0.4637852 0.3181522 -0.4637852
1024000000 0.3090849 -0.4600897 0.6909151 0.4600897 0.6909151 0.4600897 0.3090849 -0.4600897
1045000000 0.3003368 -0.4563246 0.6996632 0.4563246 0.6996632 0.4563246 0.3003368 -0.4563246
1066000000 0.2918965 -0.4525015 0.7081035 0.4525015 0.7081035 0.4525015 0.2918965 -0.4525015
1087000000 0.2837530 -0.4486308 0.7162470 0.4486308 0.7162470 0.4486308 0.2837530 -0.4486308
1108000000 0.2758953 -0.4447222 0.7241047 0.4447222 0.7241047 0.4447222 0.2758953 -0.4447222
1129000000 0.2683128 -0.4407842 0.7316872 0.4407842 0.7316872 0.4407842 0.2683128 -0.4407842
1150000000 0.2609952 -0.4368248 0.7390048 0.4368248 0.7390048 0.4368248 0.2609952 -0.4368248
1171000000 0.2539324 -0.4328511 0.7460676 0.4328511 0.7460676 0.4328511 0.2539324 -0.4328511
1192000000 0.2471146 -0.4288695 0.7528854 0.4288695 0.7528854 0.4288695 0.2471146 -0.4288695
1213000000 0.2405326 -0.4248859 0.7594674 0.4248859 0.7594674 0.4248859 0.2405326 -0.4248859
1234000000 0.2341770 -0.4209054 0.7658230 0.4209054 0.7658230 0.4209054 0.2341770 -0.4209054
1255000000 0.2280393 -0.4169328 0.7719607 0.4169328 0.7719607 0.4169328 0.2280393 -0.4169328
1276000000 0.2221109 -0.4129723 0.7778891 0.4129723 0.7778891 0.4129723 0.2221109 -0.4129723
1297000000 0.2163837 -0.4090278 0.7836163 0.4090278 0.7836163 0.4090278 0.2163837 -0.4090278
1318000000 0.2108498 -0.4051025 0.7891502 0.4051025 0.7891502 0.4051025 0.2108498 -0.4051025
1339000000 0.2055016 -0.4011995 0.7944984 0.4011995 0.7944984 0.4011995 0.2055016 -0.4011995
1360000000 0.2003320 -0.3973214 0.7996680 0.3973214 0.7996680 0.3973214 0.2003320 -0.3973214
1381000000 0.1953339 -0.3934707 0.8046661 0.3934707 0.8046661 0.3934707 0.1953339 -0.3934707
1402000000 0.1905007 -0.3896494 0.8094993 0.3896494 0.8094993 0.3896494 0.1905007 -0.3896494
1423000000 0.1858260 -0.3858594 0.8141740 0.3858594 0.8141740 0.3858594 0.1858260 -0.3858594
1444000000 0.1813035 -0.3821022 0.8186965 0.3821022 0.8186965 0.3821022 0.1813035 -0.3821022
1465000000 0.1769275 -0.3783793 0.8230725 0.3783793 0.8230725 0.3783793 0.1769275 -0.3783793
1486000000 0.1726922 -0.3746918 0.8273078 0.3746918 0.8273078 0.3746918 0.1726922 -0.3746918
1507000000 0.1685922 -0.3710408 0.8314078 0.3710408 0.8314078 0.3710408 0.1685922 -0.3710408
1528000000 0.1646223 -0.3674270 0.8353777 0.3674270 0.8353777 0.3674270 0.1646223 -0.3674270
1549000000 0.1607776 -0.3638513 0.8392224 0.3638513 0.8392224 0.3638513 0.1607776 -0.3638513
1570000000 0.1570532 -0.3603143 0.8429468 0.3603143 0.8429468 0.3603143 0.1570532 -0.3603143
1591000000 0.1534446 -0.3568163 0.8465554 0.3568163 0.8465554 0.3568163 0.1534446 -0.3568163
1612000000 0.1499475 -0.3533577 0.8500525 0.3533577 0.8500525 0.3533577 0.1499475 -0.3533577
1633000000 0.1465576 -0.3499389 0.8534424 0.3499389 0.8534424 0.3499389 0.1465576 -0.3499389
1654000000 0.1432708 -0.3465599 0.8567292 0.3465599 0.8567292 0.3465599 0.1432708 -0.3465599
1675000000 0.1400835 -0.3432209 0.8599165 0.3432209 0.8599165 0.3432209 0.1400835 -0.3432209
1696000000 0.1369918 -0.3399218 0.8630082 0.3399218 0.8630082 0.3399218 0.1369918 -0.3399218
1717000000 0.1339923 -0.3366628 0.8660077 0.3366628 0.8660077 0.3366628 0.1339923 -0.3366628
1738000000 0.1310815 -0.3334436 0.8689185 0.3334436 0.8689185 0.3334436 0.1310815 -0.3334436
1759000000 0.1282562 -0.3302641 0.8717438 0.3302641 0.8717438 0.3302641 0.1282562 -0.3302641
1780000000 0.1255133 -0.3271241 0.8744867 0.3271241 0.8744867 0.3271241 0.1255133 -0.3271241
1801000000 0.1228499 -0.3240234 0.8771501 0.3240234 0.8771501 0.3240234 0.1228499 -0.3240234
1822000000 0.1202631 -0.3209616 0.8797369 0.3209616 0.8797369 0.3209616 0.1202631 -0.3209616
1843000000 0.1177500 -0.3179386 0.8822500 0.3179386 0.8822500 0.3179386 0.1177500 -0.3179386
1864000000 0.1153082 -0.3149540 0.8846918 0.3149540 0.8846918 0.3149540 0.1153082 -0.3149540
1885000000 0.1129352 -0.3120074 0.8870648 0.3120074 0.8870648 0.3120074 0.1129352 -0.3120074
1906000000 0.1106284 -0.3090984 0.8893716 0.3090984 0.8893716 0.3090984 0.1106284 -0.3090984
1927000000 0.1083855 -0.3062266 0.8916145 0.3062266 0.8916145 0.3062266 0.1083855 -0.3062266
1948000000 0.1062045 -0.3033916 0.8937955 0.3033916 0.8937955 0.3033916 0.1062045 -0.3033916
1969000000 0.1040830 -0.3005931 0.8959170 0.3005931 0.8959170 0.3005931 0.1040830 -0.3005931
1990000000 0.1020192 -0.2978304 0.8979808 0.2978304 0.8979808 0.2978304 0.1020192 -0.2978304
2011000000 0.1000109 -0.2951033 0.8999891 0.2951033 0.8999891 0.2951033 0.1000109 -0.2951033
2032000000 0.0980565 -0.2924112 0.9019435 0.2924112 0.9019435 0.2924112 0.0980565 -0.2924112
2053000000 0.0961539 -0.2897537 0.9038461 0.2897537 0.9038461 0.2897537 0.0961539 -0.2897537
2074000000 0.0943015 -0.2871303 0.9056985 0.2871303 0.9056985 0.2871303 0.0943015 -0.2871303
2095000000 0.0924977 -0.2845405 0.9075023 0.2845405 0.9075023 0.2845405 0.0924977 -0.2845405
2116000000 0.0907408 -0.2819839 0.9092592 0.2819839 0.9092592 0.2819839 0.0907408 -0.2819839
2137000000 0.0890293 -0.2794599 0.9109707 0.2794599 0.9109707 0.2794599 0.0890293 -0.2794599
2158000000 0.0873617 -0.2769681 0.9126383 0.2769681 0.9126383 0.2769681 0.0873617 -0.2769681
2179000000 0.0857366 -0.2745080 0.9142634 0.2745080 0.9142634 0.2745080 0.0857366 -0.2745080
2200000000 0.0841526 -0.2720792 0.9158474 0.2720792 0.9158474 0.2720792 0.0841526 -0.2720792
2221000000 0.0826084 -0.2696811 0.9173916 0.2696811 0.9173916 0.2696811 0.0826084 -0.2696811
2242000000 0.0811027 -0.2673133 0.9188973 0.2673133 0.9188973 0.2673133 0.0811027 -0.2673133
2263000000 0.0796343 -0.2649753 0.9203657 0.2649753 0.9203657 0.2649753 0.0796343 -0.2649753
2284000000 0.0782021 -0.2626667 0.9217979 0.2626667 0.9217979 0.2626667 0.0782021 -0.2626667
2305000000 0.0768050 -0.2603869 0.9231950 0.2603869 0.9231950 0.2603869 0.0768050 -0.2603869
2326000000 0.0754417 -0.2581356 0.9245583 0.2581356 0.9245583 0.2581356 0.0754417 -0.2581356
2347000000 0.0741113 -0.2559122 0.9258887 0.2559122 0.9258887 0.2559122 0.0741113 -0.2559122
2368000000 0.0728129 -0.2537163 0.9271871 0.2537163 0.9271871 0.2537163 0.0728129 -0.2537163
2389000000 0.0715453 -0.2515475 0.9284547 0.2515475 0.9284547 0.2515475 0.0715453 -0.2515475
2410000000 0.0703077 -0.2494054 0.9296923 0.2494054 0.9296923 0.2494054 0.0703077 -0.2494054
2431000000 0.0690992 -0.2472894 0.9309008 0.2472894 0.9309008 0.2472894 0.0690992 -0.2472894
2452000000 0.0679189 -0.2451992 0.9320811 0.2451992 0.9320811 0.2451992 0.0679189 -0.2451992
2473000000 0.0667659 -0.2431343 0.9332341 0.2431343 0.9332341 0.2431343 0.0667659 -0.2431343
2494000000 0.0656396 -0.2410944 0.9343604 0.2410944 0.9343604 0.2410944 0.0656396 -0.2410944
2515000000 0.0645390 -0.2390789 0.9354610 0.2390789 0.9354610 0.2390789 0.0645390 -0.2390789
2536000000 0.0634635 -0.2370876 0.9365365 0.2370876 0.9365365 0.2370876 0.0634635 -0.2370876
2557000000 0.0624122 -0.2351200 0.9375878 0.2351200 0.9375878 0.2351200 0.0624122 -0.2351200
2578000000 0.0613846 -0.2331758 0.9386154 0.2331758 0.9386154 0.2331758 0.0613846 -0.2331758
2599000000 0.0603799 -0.2312544 0.9396201 0.2312544 0.9396201 0.2312544 0.0603799 -0.2312544
2620000000 0.0593976 -0.2293556 0.9406024 0.2293556 0.9406024 0.2293556 0.0593976 -0.2293556
2641000000 0.0584368 -0.2274790 0.9415632 0.2274790 0.9415632 0.2274790 0.0584368 -0.2274790
2662000000 0.0574972 -0.2256242 0.9425028 0.2256242 0.9425028 0.2256242 0.0574972 -0.2256242
2683000000 0.0565779 -0.2237908 0.9434221 0.2237908 0.9434221 0.2237908 0.0565779 -0.2237908
2704000000 0.0556786 -0.2219786 0.9443214 0.2219786 0.9443214 0.2219786 0.0556786 -0.2219786
2725000000 0.0547987 -0.2201871 0.9452013 0.2201871 0.9452013 0.2201871 0.0547987 -0.2201871
2746000000 0.0539376 -0.2184160 0.9460624 0.2184160 0.9460624 0.2184160 0.0539376 -0.2184160
2767000000 0.0530947 -0.2166650 0.9469053 0.2166650 0.9469053 0.2166650 0.0530947 -0.2166650
2788000000 0.0522697 -0.2149337 0.9477303 0.2149337 0.9477303 0.2149337 0.0522697 -0.2149337
2809000000 0.0514620 -0.2132218 0.9485380 0.2132218 0.9485380 0.2132218 0.0514620 -0.2132218
2830000000 0.0506712 -0.2115290 0.9493288 0.2115290 0.9493288 0.2115290 0.0506712 -0.2115290
2851000000 0.0498969 -0.2098549 0.9501031 0.2098549 0.9501031 0.2098549 0.0498969 -0.2098549
2872000000 0.0491385 -0.2081994 0.9508615 0.2081994 0.9508615 0.2081994 0.0491385 -0.2081994
2893000000 0.0483957 -0.2065620 0.9516043 0.2065620 0.9516043 0.2065620 0.0483957 -0.2065620
2914000000 0.0476681 -0.2049425 0.9523319 0.2049425 0.9523319 0.2049425 0.0476681 -0.2049425
2935000000 0.0469552 -0.2033406 0.9530448 0.2033406 0.9530448 0.2033406 0.0469552 -0.2033406
2956000000 0.0462567 -0.2017560 0.9537433 0.2017560 0.9537433 0.2017560 0.0462567 -0.2017560
2977000000 0.0455723 -0.2001883 0.9544277 0.2001883 0.9544277 0.2001883 0.0455723 -0.2001883
2998000000 0.0449015 -0.1986375 0.9550985 0.1986375 0.9550985 0.1986375 0.0449015 -0.1986375
3019000000 0.0442441 -0.1971031 0.9557559 0.1971031 0.9557559 0.1971031 0.0442441 -0.1971031
3040000000 0.0435996 -0.1955848 0.9564004 0.1955848 0.9564004 0.1955848 0.0435996 -0.1955848
3061000000 0.0429678 -0.1940826 0.9570322 0.1940826 0.9570322 0.1940826 0.0429678 -0.1940826
3082000000 0.0423483 -0.1925960 0.9576517 0.1925960 0.9576517 0.1925960 0.0423483 -0.1925960
3103000000 0.0417409 -0.1911249 0.9582591 0.1911249 0.9582591 0.1911249 0.0417409 -0.1911249
3124000000 0.0411453 -0.1896689 0.9588547 0.1896689 0.9588547 0.1896689 0.0411453 -0.1896689
3145000000 0.0405611 -0.1882279 0.9594389 0.1882279 0.9594389 0.1882279 0.0405611 -0.1882279
3166000000 0.0399880 -0.1868017 0.9600120 0.1868017 0.9600120 0.1868017 0.0399880 -0.1868017
3187000000 0.0394259 -0.1853899 0.9605741 0.1853899 0.9605741 0.1853899 0.0394259 -0.1853899
3208000000 0.0388745 -0.1839923 0.9611255 0.1839923 0.9611255 0.1839923 0.0388745 -0.1839923
3229000000 0.0383334 -0.1826088 0.9616666 0.1826088 0.9616666 0.1826088 0.0383334 -0.1826088
3250000000 0.0378025 -0.1812391 0.9621975 0.1812391 0.9621975 0.1812391 0.0378025 -0.1812391
3271000000 0.0372815 -0.1798830 0.9627185 0.1798830 0.9627185 0.1798830 0.0372815 -0.1798830
3292000000 0.0367701 -0.1785403 0.9632299 0.1785403 0.9632299 0.1785403 0.0367701 -0.1785403
3313000000 0.0362683 -0.1772107 0.9637317 0.1772107 0.9637317 0.1772107 0.0362683 -0.1772107
3334000000 0.0357756 -0.1758942 0.9642244 0.1758942 0.9642244 0.1758942 0.0357756 -0.1758942
3355000000 0.0352920 -0.1745904 0.9647080 0.1745904 0.9647080 0.1745904 0.0352920 -0.1745904
3376000000 0.0348172 -0.1732991 0.9651828 0.1732991 0.9651828 0.1732991 0.0348172 -0.1732991
3397000000 0.0343509 -0.1720203 0.9656491 0.1720203 0.9656491 0.1720203 0.0343509 -0.1720203
3418000000 0.0338931 -0.1707537 0.9661069 0.1707537 0.9661069 0.1707537 0.0338931 -0.1707537
3439000000 0.0334436 -0.1694991 0.9665564 0.1694991 0.9665564 0.1694991 0.0334436 -0.1694991
3460000000 0.0330020 -0.1682563 0.9669980 0.1682563 0.9669980 0.1682563 0.0330020 -0.1682563
3481000000 0.0325684 -0.1670251 0.9674316 0.1670251 0.9674316 0.1670251 0.0325684 -0.1670251
3502000000 0.0321424 -0.1658055 0.9678576 0.1658055 0.9678576 0.1658055 0.0321424 -0.1658055
3523000000 0.0317239 -0.1645971 0.9682761 0.1645971 0.9682761 0.1645971 0.0317239 -0.1645971
3544000000 0.0313128 -0.1633999 0.9686872 0.1633999 0.9686872 0.1633999 0.0313128 -0.1633999
3565000000 0.0309089 -0.1622137 0.9690911 0.1622137 0.9690911 0.1622137 0.0309089 -0.1622137
3586000000 0.0305120 -0.1610383 0.9694880 0.1610383 0.9694880 0.1610383 0.0305120 -0.1610383
3607000000 0.0301220 -0.1598735 0.9698780 0.1598735 0.9698780 0.1598735 0.0301220 -0.1598735
3628000000 0.0297388 -0.1587192 0.9702612 0.1587192 0.9702612 0.1587192 0.0297388 -0.1587192
3649000000 0.0293621 -0.1575753 0.9706379 0.1575753 0.9706379 0.1575753 0.0293621 -0.1575753
3670000000 0.0289919 -0.1564415 0.9710081 0.1564415 0.9710081 0.1564415 0.0289919 -0.1564415
3691000000 0.0286279 -0.1553178 0.9713721 0.1553178 0.9713721 0.1553178 0.0286279 -0.1553178
3712000000 0.0282702 -0.1542040 0.9717298 0.1542040 0.9717298 0.1542040 0.0282702 -0.1542040
3733000000 0.0279186 -0.1531000 0.9720814 0.1531000 0.9720814 0.1531000 0.0279186 -0.1531000
3754000000 0.0275728 -0.1520056 0.9724272 0.1520056 0.9724272 0.1520056 0.0275728 -0.1520056
3775000000 0.0272329 -0.1509206 0.9727671 0.1509206 0.9727671 0.1509206 0.0272329 -0.1509206
3796000000 0.0268986 -0.1498450 0.9731014 0.1498450 0.9731014 0.1498450 0.0268986 -0.1498450
3817000000 0.0265699 -0.1487786 0.9734301 0.1487786 0.9734301 0.1487786 0.0265699 -0.1487786
3838000000 0.0262467 -0.1477213 0.9737533 0.1477213 0.9737533 0.1477213 0.0262467 -0.1477213
3859000000 0.0259288 -0.1466729 0.9740712 0.1466729 0.9740712 0.1466729 0.0259288 -0.1466729
3880000000 0.0256162 -0.1456334 0.9743838 0.1456334 0.9743838 0.1456334 0.0256162 -0.1456334
3901000000 0.0253087 -0.1446026 0.9746913 0.1446026 0.9746913 0.1446026 0.0253087 -0.1446026
3922000000 0.0250062 -0.1435803 0.9749938 0.1435803 0.9749938 0.1435803 0.0250062 -0.1435803
3943000000 0.0247086 -0.1425665 0.9752914 0.1425665 0.9752914 0.1425665 0.0247086 -0.1425665
3964000000 0.0244159 -0.1415611 0.9755841 0.1415611 0.9755841 0.1415611 0.0244159 -0.1415611
3985000000 0.0241279 -0.1405639 0.9758721 0.1405639 0.9758721 0.1405639 0.0241279 -0.1405639
4006000000 0.0238446 -0.1395748 0.9761554 0.1395748 0.9761554 0.1395748 0.0238446 -0.1395748
4027000000 0.0235658 -0.1385937 0.9764342 0.1385937 0.9764342 0.1385937 0.0235658 -0.1385937
4048000000 0.0232915 -0.1376205 0.9767085 0.1376205 0.9767085 0.1376205 0.0232915 -0.1376205
4069000000 0.0230216 -0.1366551 0.9769784 0.1366551 0.9769784 0.1366551 0.0230216 -0.1366551
4090000000 0.0227559 -0.1356974 0.9772441 0.1356974 0.9772441 0.1356974 0.0227559 -0.1356974
4111000000 0.0224945 -0.1347473 0.9775055 0.1347473 0.9775055 0.1347473 0.0224945 -0.1347473
4132000000 0.0222372 -0.1338047 0.9777628 0.1338047 0.9777628 0.1338047 0.0222372 -0.1338047
4153000000 0.0219840 -0.1328695 0.9780160 0.1328695 0.9780160 0.1328695 0.0219840 -0.1328695
4174000000 0.0217348 -0.1319415 0.9782652 0.1319415 0.9782652 0.1319415 0.0217348 -0.1319415
4195000000 0.0214894 -0.1310207 0.9785106 0.1310207 0.9785106 0.1310207 0.0214894 -0.1310207
4216000000 0.0212479 -0.1301071 0.9787521 0.1301071 0.9787521 0.1301071 0.0212479 -0.1301071
4237000000 0.0210102 -0.1292004 0.9789898 0.1292004 0.9789898 0.1292004 0.0210102 -0.1292004
4258000000 0.0207762 -0.1283006 0.9792238 0.1283006 0.9792238 0.1283006 0.0207762 -0.1283006
4279000000 0.0205458 -0.1274077 0.9794542 0.1274077 0.9794542 0.1274077 0.0205458 -0.1274077
4300000000 0.0203189 -0.1265215 0.9796811 0.1265215 0.9796811 0.1265215 0.0203189 -0.1265215
4321000000 0.0200956 -0.1256419 0.9799044 0.1256419 0.9799044 0.1256419 0.0200956 -0.1256419
4342000000 0.0198756 -0.1247689 0.9801244 0.1247689 0.9801244 0.1247689 0.0198756 -0.1247689
4363000000 0.0196591 -0.1239024 0.9803409 0.1239024 0.9803409 0.1239024 0.0196591 -0.1239024
4384000000 0.0194458 -0.1230423 0.9805542 0.1230423 0.9805542 0.1230423 0.0194458 -0.1230423
4405000000 0.0192359 -0.1221885 0.9807641 0.1221885 0.9807641 0.1221885 0.0192359 -0.1221885
4426000000 0.0190291 -0.1213409 0.9809709 0.1213409 0.9809709 0.1213409 0.0190291 -0.1213409
4447000000 0.0188254 -0.1204995 0.9811746 0.1204995 0.9811746 0.1204995 0.0188254 -0.1204995
4468000000 0.0186249 -0.1196641 0.9813751 0.1196641 0.9813751 0.1196641 0.0186249 -0.1196641
4489000000 0.0184273 -0.1188348 0.9815727 0.1188348 0.9815727 0.1188348 0.0184273 -0.1188348
4510000000 0.0182328 -0.1180114 0.9817672 0.1180114 0.9817672 0.1180114 0.0182328 -0.1180114
