!Murata Part Number: GRM0115C1E7R8BE01
!These Parameters are Measured in Series Mode Connection
!Data Generated on Mar 30, 2021
!       o--ll--o
!Port1            Port2
!       o------o
!Operation Temp=25[degC], DC Bias Voltage=0[V]
!Freq. Start=100[MHz] Stop=9[GHz] 401[Steps]
# Hz S RI R 50
!Freq.(Hz) S11(Real) S11(Imag) S21(Real) S21(Imag) S12(Real) S12(Imag) S22(Real) S22(Imag)
100000000 0.8060565 -0.3950725 0.1939435 0.3950725 0.1939435 0.3950725 0.8060565 -0.3950725
121000000 0.7394523 -0.4385544 0.2605477 0.4385544 0.2605477 0.4385544 0.7394523 -0.4385544
142000000 0.6732204 -0.4685901 0.3267796 0.4685901 0.3267796 0.4685901 0.6732204 -0.4685901
163000000 0.6098389 -0.4872731 0.3901611 0.4872731 0.3901611 0.4872731 0.6098389 -0.4872731
184000000 0.5508036 -0.4968314 0.4491964 0.4968314 0.4491964 0.4968314 0.5508036 -0.4968314
205000000 0.4968460 -0.4993407 0.5031540 0.4993407 0.5031540 0.4993407 0.4968460 -0.4993407
226000000 0.4481640 -0.4965873 0.5518360 0.4965873 0.5518360 0.4965873 0.4481640 -0.4965873
247000000 0.4046174 -0.4900295 0.5953826 0.4900295 0.5953826 0.4900295 0.4046174 -0.4900295
268000000 0.3658732 -0.4808151 0.6341268 0.4808151 0.6341268 0.4808151 0.3658732 -0.4808151
289000000 0.3315061 -0.4698239 0.6684939 0.4698239 0.6684939 0.4698239 0.3315061 -0.4698239
310000000 0.3010615 -0.4577162 0.6989385 0.4577162 0.6989385 0.4577162 0.3010615 -0.4577162
331000000 0.2740935 -0.4449796 0.7259065 0.4449796 0.7259065 0.4449796 0.2740935 -0.4449796
352000000 0.2501854 -0.4319684 0.7498146 0.4319684 0.7498146 0.4319684 0.2501854 -0.4319684
373000000 0.2289592 -0.4189359 0.7710408 0.4189359 0.7710408 0.4189359 0.2289592 -0.4189359
394000000 0.2100781 -0.4060599 0.7899219 0.4060599 0.7899219 0.4060599 0.2100781 -0.4060599
415000000 0.1932461 -0.3934623 0.8067539 0.3934623 0.8067539 0.3934623 0.1932461 -0.3934623
436000000 0.1782051 -0.3812238 0.8217949 0.3812238 0.8217949 0.3812238 0.1782051 -0.3812238
457000000 0.1647309 -0.3693952 0.8352691 0.3693952 0.8352691 0.3693952 0.1647309 -0.3693952
478000000 0.1526292 -0.3580053 0.8473708 0.3580053 0.8473708 0.3580053 0.1526292 -0.3580053
499000000 0.1417324 -0.3470674 0.8582676 0.3470674 0.8582676 0.3470674 0.1417324 -0.3470674
520000000 0.1318953 -0.3365838 0.8681047 0.3365838 0.8681047 0.3365838 0.1318953 -0.3365838
541000000 0.1229925 -0.3265488 0.8770075 0.3265488 0.8770075 0.3265488 0.1229925 -0.3265488
562000000 0.1149154 -0.3169519 0.8850846 0.3169519 0.8850846 0.3169519 0.1149154 -0.3169519
583000000 0.1075697 -0.3077785 0.8924303 0.3077785 0.8924303 0.3077785 0.1075697 -0.3077785
604000000 0.1008737 -0.2990122 0.8991263 0.2990122 0.8991263 0.2990122 0.1008737 -0.2990122
625000000 0.0947560 -0.2906354 0.9052440 0.2906354 0.9052440 0.2906354 0.0947560 -0.2906354
646000000 0.0891546 -0.2826296 0.9108454 0.2826296 0.9108454 0.2826296 0.0891546 -0.2826296
667000000 0.0840150 -0.2749765 0.9159850 0.2749765 0.9159850 0.2749765 0.0840150 -0.2749765
688000000 0.0792896 -0.2676581 0.9207104 0.2676581 0.9207104 0.2676581 0.0792896 -0.2676581
709000000 0.0749366 -0.2606566 0.9250634 0.2606566 0.9250634 0.2606566 0.0749366 -0.2606566
730000000 0.0709190 -0.2539550 0.9290810 0.2539550 0.9290810 0.2539550 0.0709190 -0.2539550
751000000 0.0672043 -0.2475371 0.9327957 0.2475371 0.9327957 0.2475371 0.0672043 -0.2475371
772000000 0.0637637 -0.2413873 0.9362363 0.2413873 0.9362363 0.2413873 0.0637637 -0.2413873
793000000 0.0605716 -0.2354910 0.9394284 0.2354910 0.9394284 0.2354910 0.0605716 -0.2354910
814000000 0.0576054 -0.2298343 0.9423946 0.2298343 0.9423946 0.2298343 0.0576054 -0.2298343
835000000 0.0548448 -0.2244040 0.9451552 0.2244040 0.9451552 0.2244040 0.0548448 -0.2244040
856000000 0.0522717 -0.2191878 0.9477283 0.2191878 0.9477283 0.2191878 0.0522717 -0.2191878
877000000 0.0498700 -0.2141742 0.9501300 0.2141742 0.9501300 0.2141742 0.0498700 -0.2141742
898000000 0.0476252 -0.2093522 0.9523748 0.2093522 0.9523748 0.2093522 0.0476252 -0.2093522
919000000 0.0455242 -0.2047117 0.9544758 0.2047117 0.9544758 0.2047117 0.0455242 -0.2047117
940000000 0.0435554 -0.2002429 0.9564446 0.2002429 0.9564446 0.2002429 0.0435554 -0.2002429
961000000 0.0417081 -0.1959371 0.9582919 0.1959371 0.9582919 0.1959371 0.0417081 -0.1959371
982000000 0.0399729 -0.1917856 0.9600271 0.1917856 0.9600271 0.1917856 0.0399729 -0.1917856
1003000000 0.0383410 -0.1877805 0.9616590 0.1877805 0.9616590 0.1877805 0.0383410 -0.1877805
1024000000 0.0368046 -0.1839146 0.9631954 0.1839146 0.9631954 0.1839146 0.0368046 -0.1839146
1045000000 0.0353567 -0.1801807 0.9646433 0.1801807 0.9646433 0.1801807 0.0353567 -0.1801807
1066000000 0.0339906 -0.1765723 0.9660094 0.1765723 0.9660094 0.1765723 0.0339906 -0.1765723
1087000000 0.0327006 -0.1730833 0.9672994 0.1730833 0.9672994 0.1730833 0.0327006 -0.1730833
1108000000 0.0314812 -0.1697079 0.9685188 0.1697079 0.9685188 0.1697079 0.0314812 -0.1697079
1129000000 0.0303275 -0.1664407 0.9696725 0.1664407 0.9696725 0.1664407 0.0303275 -0.1664407
1150000000 0.0292350 -0.1632765 0.9707650 0.1632765 0.9707650 0.1632765 0.0292350 -0.1632765
1171000000 0.0281996 -0.1602106 0.9718004 0.1602106 0.9718004 0.1602106 0.0281996 -0.1602106
1192000000 0.0272174 -0.1572383 0.9727826 0.1572383 0.9727826 0.1572383 0.0272174 -0.1572383
1213000000 0.0262850 -0.1543556 0.9737150 0.1543556 0.9737150 0.1543556 0.0262850 -0.1543556
1234000000 0.0253992 -0.1515582 0.9746008 0.1515582 0.9746008 0.1515582 0.0253992 -0.1515582
1255000000 0.0245570 -0.1488425 0.9754430 0.1488425 0.9754430 0.1488425 0.0245570 -0.1488425
1276000000 0.0237556 -0.1462049 0.9762444 0.1462049 0.9762444 0.1462049 0.0237556 -0.1462049
1297000000 0.0229926 -0.1436418 0.9770074 0.1436418 0.9770074 0.1436418 0.0229926 -0.1436418
1318000000 0.0222657 -0.1411503 0.9777343 0.1411503 0.9777343 0.1411503 0.0222657 -0.1411503
1339000000 0.0215726 -0.1387272 0.9784274 0.1387272 0.9784274 0.1387272 0.0215726 -0.1387272
1360000000 0.0209113 -0.1363697 0.9790887 0.1363697 0.9790887 0.1363697 0.0209113 -0.1363697
1381000000 0.0202801 -0.1340750 0.9797199 0.1340750 0.9797199 0.1340750 0.0202801 -0.1340750
1402000000 0.0196771 -0.1318407 0.9803229 0.1318407 0.9803229 0.1318407 0.0196771 -0.1318407
1423000000 0.0191008 -0.1296642 0.9808992 0.1296642 0.9808992 0.1296642 0.0191008 -0.1296642
1444000000 0.0185497 -0.1275433 0.9814503 0.1275433 0.9814503 0.1275433 0.0185497 -0.1275433
1465000000 0.0180224 -0.1254758 0.9819776 0.1254758 0.9819776 0.1254758 0.0180224 -0.1254758
1486000000 0.0175175 -0.1234596 0.9824825 0.1234596 0.9824825 0.1234596 0.0175175 -0.1234596
1507000000 0.0170340 -0.1214927 0.9829660 0.1214927 0.9829660 0.1214927 0.0170340 -0.1214927
1528000000 0.0165705 -0.1195732 0.9834295 0.1195732 0.9834295 0.1195732 0.0165705 -0.1195732
1549000000 0.0161262 -0.1176994 0.9838738 0.1176994 0.9838738 0.1176994 0.0161262 -0.1176994
1570000000 0.0156999 -0.1158696 0.9843001 0.1158696 0.9843001 0.1158696 0.0156999 -0.1158696
1591000000 0.0152908 -0.1140821 0.9847092 0.1140821 0.9847092 0.1140821 0.0152908 -0.1140821
1612000000 0.0148980 -0.1123354 0.9851020 0.1123354 0.9851020 0.1123354 0.0148980 -0.1123354
1633000000 0.0145207 -0.1106280 0.9854793 0.1106280 0.9854793 0.1106280 0.0145207 -0.1106280
1654000000 0.0141581 -0.1089586 0.9858419 0.1089586 0.9858419 0.1089586 0.0141581 -0.1089586
1675000000 0.0138094 -0.1073258 0.9861906 0.1073258 0.9861906 0.1073258 0.0138094 -0.1073258
1696000000 0.0134741 -0.1057283 0.9865259 0.1057283 0.9865259 0.1057283 0.0134741 -0.1057283
1717000000 0.0131515 -0.1041649 0.9868485 0.1041649 0.9868485 0.1041649 0.0131515 -0.1041649
1738000000 0.0128409 -0.1026345 0.9871591 0.1026345 0.9871591 0.1026345 0.0128409 -0.1026345
1759000000 0.0125419 -0.1011358 0.9874581 0.1011358 0.9874581 0.1011358 0.0125419 -0.1011358
1780000000 0.0122538 -0.0996680 0.9877462 0.0996680 0.9877462 0.0996680 0.0122538 -0.0996680
1801000000 0.0119762 -0.0982299 0.9880238 0.0982299 0.9880238 0.0982299 0.0119762 -0.0982299
1822000000 0.0117086 -0.0968206 0.9882914 0.0968206 0.9882914 0.0968206 0.0117086 -0.0968206
1843000000 0.0114506 -0.0954391 0.9885494 0.0954391 0.9885494 0.0954391 0.0114506 -0.0954391
1864000000 0.0112017 -0.0940846 0.9887983 0.0940846 0.9887983 0.0940846 0.0112017 -0.0940846
1885000000 0.0109615 -0.0927561 0.9890385 0.0927561 0.9890385 0.0927561 0.0109615 -0.0927561
1906000000 0.0107297 -0.0914530 0.9892703 0.0914530 0.9892703 0.0914530 0.0107297 -0.0914530
1927000000 0.0105058 -0.0901743 0.9894942 0.0901743 0.9894942 0.0901743 0.0105058 -0.0901743
1948000000 0.0102897 -0.0889193 0.9897103 0.0889193 0.9897103 0.0889193 0.0102897 -0.0889193
1969000000 0.0100808 -0.0876874 0.9899192 0.0876874 0.9899192 0.0876874 0.0100808 -0.0876874
1990000000 0.0098790 -0.0864777 0.9901210 0.0864777 0.9901210 0.0864777 0.0098790 -0.0864777
2011000000 0.0096838 -0.0852897 0.9903162 0.0852897 0.9903162 0.0852897 0.0096838 -0.0852897
2032000000 0.0094952 -0.0841227 0.9905048 0.0841227 0.9905048 0.0841227 0.0094952 -0.0841227
2053000000 0.0093127 -0.0829761 0.9906873 0.0829761 0.9906873 0.0829761 0.0093127 -0.0829761
2074000000 0.0091362 -0.0818492 0.9908638 0.0818492 0.9908638 0.0818492 0.0091362 -0.0818492
2095000000 0.0089654 -0.0807416 0.9910346 0.0807416 0.9910346 0.0807416 0.0089654 -0.0807416
2116000000 0.0088001 -0.0796526 0.9911999 0.0796526 0.9911999 0.0796526 0.0088001 -0.0796526
2137000000 0.0086401 -0.0785818 0.9913599 0.0785818 0.9913599 0.0785818 0.0086401 -0.0785818
2158000000 0.0084851 -0.0775285 0.9915149 0.0775285 0.9915149 0.0775285 0.0084851 -0.0775285
2179000000 0.0083350 -0.0764924 0.9916650 0.0764924 0.9916650 0.0764924 0.0083350 -0.0764924
2200000000 0.0081896 -0.0754730 0.9918104 0.0754730 0.9918104 0.0754730 0.0081896 -0.0754730
2221000000 0.0080487 -0.0744697 0.9919513 0.0744697 0.9919513 0.0744697 0.0080487 -0.0744697
2242000000 0.0079121 -0.0734822 0.9920879 0.0734822 0.9920879 0.0734822 0.0079121 -0.0734822
2263000000 0.0077797 -0.0725101 0.9922203 0.0725101 0.9922203 0.0725101 0.0077797 -0.0725101
2284000000 0.0076514 -0.0715528 0.9923486 0.0715528 0.9923486 0.0715528 0.0076514 -0.0715528
2305000000 0.0075269 -0.0706101 0.9924731 0.0706101 0.9924731 0.0706101 0.0075269 -0.0706101
2326000000 0.0074062 -0.0696816 0.9925938 0.0696816 0.9925938 0.0696816 0.0074062 -0.0696816
2347000000 0.0072891 -0.0687668 0.9927109 0.0687668 0.9927109 0.0687668 0.0072891 -0.0687668
2368000000 0.0071755 -0.0678654 0.9928245 0.0678654 0.9928245 0.0678654 0.0071755 -0.0678654
2389000000 0.0070652 -0.0669771 0.9929348 0.0669771 0.9929348 0.0669771 0.0070652 -0.0669771
2410000000 0.0069582 -0.0661015 0.9930418 0.0661015 0.9930418 0.0661015 0.0069582 -0.0661015
2431000000 0.0068543 -0.0652384 0.9931457 0.0652384 0.9931457 0.0652384 0.0068543 -0.0652384
2452000000 0.0067535 -0.0643874 0.9932465 0.0643874 0.9932465 0.0643874 0.0067535 -0.0643874
2473000000 0.0066555 -0.0635482 0.9933445 0.0635482 0.9933445 0.0635482 0.0066555 -0.0635482
2494000000 0.0065604 -0.0627204 0.9934396 0.0627204 0.9934396 0.0627204 0.0065604 -0.0627204
2515000000 0.0064681 -0.0619040 0.9935319 0.0619040 0.9935319 0.0619040 0.0064681 -0.0619040
2536000000 0.0063783 -0.0610985 0.9936217 0.0610985 0.9936217 0.0610985 0.0063783 -0.0610985
2557000000 0.0062912 -0.0603037 0.9937088 0.0603037 0.9937088 0.0603037 0.0062912 -0.0603037
2578000000 0.0062065 -0.0595193 0.9937935 0.0595193 0.9937935 0.0595193 0.0062065 -0.0595193
2599000000 0.0061242 -0.0587451 0.9938758 0.0587451 0.9938758 0.0587451 0.0061242 -0.0587451
2620000000 0.0060442 -0.0579809 0.9939558 0.0579809 0.9939558 0.0579809 0.0060442 -0.0579809
2641000000 0.0059664 -0.0572264 0.9940336 0.0572264 0.9940336 0.0572264 0.0059664 -0.0572264
2662000000 0.0058909 -0.0564814 0.9941091 0.0564814 0.9941091 0.0564814 0.0058909 -0.0564814
2683000000 0.0058174 -0.0557457 0.9941826 0.0557457 0.9941826 0.0557457 0.0058174 -0.0557457
2704000000 0.0057460 -0.0550190 0.9942540 0.0550190 0.9942540 0.0550190 0.0057460 -0.0550190
2725000000 0.0056765 -0.0543012 0.9943235 0.0543012 0.9943235 0.0543012 0.0056765 -0.0543012
2746000000 0.0056090 -0.0535921 0.9943910 0.0535921 0.9943910 0.0535921 0.0056090 -0.0535921
2767000000 0.0055433 -0.0528914 0.9944567 0.0528914 0.9944567 0.0528914 0.0055433 -0.0528914
2788000000 0.0054795 -0.0521990 0.9945205 0.0521990 0.9945205 0.0521990 0.0054795 -0.0521990
2809000000 0.0054174 -0.0515147 0.9945826 0.0515147 0.9945826 0.0515147 0.0054174 -0.0515147
2830000000 0.0053570 -0.0508383 0.9946430 0.0508383 0.9946430 0.0508383 0.0053570 -0.0508383
2851000000 0.0052983 -0.0501696 0.9947017 0.0501696 0.9947017 0.0501696 0.0052983 -0.0501696
2872000000 0.0052411 -0.0495086 0.9947589 0.0495086 0.9947589 0.0495086 0.0052411 -0.0495086
2893000000 0.0051855 -0.0488549 0.9948145 0.0488549 0.9948145 0.0488549 0.0051855 -0.0488549
2914000000 0.0051315 -0.0482085 0.9948685 0.0482085 0.9948685 0.0482085 0.0051315 -0.0482085
2935000000 0.0050789 -0.0475692 0.9949211 0.0475692 0.9949211 0.0475692 0.0050789 -0.0475692
2956000000 0.0050277 -0.0469368 0.9949723 0.0469368 0.9949723 0.0469368 0.0050277 -0.0469368
2977000000 0.0049779 -0.0463113 0.9950221 0.0463113 0.9950221 0.0463113 0.0049779 -0.0463113
2998000000 0.0049295 -0.0456924 0.9950705 0.0456924 0.9950705 0.0456924 0.0049295 -0.0456924
3019000000 0.0048824 -0.0450800 0.9951176 0.0450800 0.9951176 0.0450800 0.0048824 -0.0450800
3040000000 0.0048366 -0.0444740 0.9951634 0.0444740 0.9951634 0.0444740 0.0048366 -0.0444740
3061000000 0.0047921 -0.0438743 0.9952079 0.0438743 0.9952079 0.0438743 0.0047921 -0.0438743
3082000000 0.0047487 -0.0432807 0.9952513 0.0432807 0.9952513 0.0432807 0.0047487 -0.0432807
3103000000 0.0047065 -0.0426932 0.9952935 0.0426932 0.9952935 0.0426932 0.0047065 -0.0426932
3124000000 0.0046655 -0.0421115 0.9953345 0.0421115 0.9953345 0.0421115 0.0046655 -0.0421115
3145000000 0.0046256 -0.0415356 0.9953744 0.0415356 0.9953744 0.0415356 0.0046256 -0.0415356
3166000000 0.0045868 -0.0409654 0.9954132 0.0409654 0.9954132 0.0409654 0.0045868 -0.0409654
3187000000 0.0045491 -0.0404007 0.9954509 0.0404007 0.9954509 0.0404007 0.0045491 -0.0404007
3208000000 0.0045124 -0.0398415 0.9954876 0.0398415 0.9954876 0.0398415 0.0045124 -0.0398415
3229000000 0.0044767 -0.0392876 0.9955233 0.0392876 0.9955233 0.0392876 0.0044767 -0.0392876
3250000000 0.0044420 -0.0387389 0.9955580 0.0387389 0.9955580 0.0387389 0.0044420 -0.0387389
3271000000 0.0044083 -0.0381953 0.9955917 0.0381953 0.9955917 0.0381953 0.0044083 -0.0381953
3292000000 0.0043755 -0.0376568 0.9956245 0.0376568 0.9956245 0.0376568 0.0043755 -0.0376568
3313000000 0.0043437 -0.0371233 0.9956563 0.0371233 0.9956563 0.0371233 0.0043437 -0.0371233
3334000000 0.0043127 -0.0365945 0.9956873 0.0365945 0.9956873 0.0365945 0.0043127 -0.0365945
3355000000 0.0042826 -0.0360706 0.9957174 0.0360706 0.9957174 0.0360706 0.0042826 -0.0360706
3376000000 0.0042534 -0.0355513 0.9957466 0.0355513 0.9957466 0.0355513 0.0042534 -0.0355513
3397000000 0.0042250 -0.0350366 0.9957750 0.0350366 0.9957750 0.0350366 0.0042250 -0.0350366
3418000000 0.0041974 -0.0345263 0.9958026 0.0345263 0.9958026 0.0345263 0.0041974 -0.0345263
3439000000 0.0041706 -0.0340205 0.9958294 0.0340205 0.9958294 0.0340205 0.0041706 -0.0340205
3460000000 0.0041446 -0.0335191 0.9958554 0.0335191 0.9958554 0.0335191 0.0041446 -0.0335191
3481000000 0.0041194 -0.0330219 0.9958806 0.0330219 0.9958806 0.0330219 0.0041194 -0.0330219
3502000000 0.0040949 -0.0325288 0.9959051 0.0325288 0.9959051 0.0325288 0.0040949 -0.0325288
3523000000 0.0040712 -0.0320399 0.9959288 0.0320399 0.9959288 0.0320399 0.0040712 -0.0320399
3544000000 0.0040481 -0.0315550 0.9959519 0.0315550 0.9959519 0.0315550 0.0040481 -0.0315550
3565000000 0.0040258 -0.0310741 0.9959742 0.0310741 0.9959742 0.0310741 0.0040258 -0.0310741
3586000000 0.0040041 -0.0305970 0.9959959 0.0305970 0.9959959 0.0305970 0.0040041 -0.0305970
3607000000 0.0039831 -0.0301238 0.9960169 0.0301238 0.9960169 0.0301238 0.0039831 -0.0301238
3628000000 0.0039628 -0.0296544 0.9960372 0.0296544 0.9960372 0.0296544 0.0039628 -0.0296544
3649000000 0.0039431 -0.0291886 0.9960569 0.0291886 0.9960569 0.0291886 0.0039431 -0.0291886
3670000000 0.0039240 -0.0287265 0.9960760 0.0287265 0.9960760 0.0287265 0.0039240 -0.0287265
3691000000 0.0039056 -0.0282679 0.9960944 0.0282679 0.9960944 0.0282679 0.0039056 -0.0282679
3712000000 0.0038878 -0.0278128 0.9961122 0.0278128 0.9961122 0.0278128 0.0038878 -0.0278128
3733000000 0.0038705 -0.0273612 0.9961295 0.0273612 0.9961295 0.0273612 0.0038705 -0.0273612
3754000000 0.0038539 -0.0269130 0.9961461 0.0269130 0.9961461 0.0269130 0.0038539 -0.0269130
3775000000 0.0038378 -0.0264681 0.9961622 0.0264681 0.9961622 0.0264681 0.0038378 -0.0264681
3796000000 0.0038223 -0.0260265 0.9961777 0.0260265 0.9961777 0.0260265 0.0038223 -0.0260265
3817000000 0.0038073 -0.0255881 0.9961927 0.0255881 0.9961927 0.0255881 0.0038073 -0.0255881
3838000000 0.0037929 -0.0251529 0.9962071 0.0251529 0.9962071 0.0251529 0.0037929 -0.0251529
3859000000 0.0037789 -0.0247208 0.9962211 0.0247208 0.9962211 0.0247208 0.0037789 -0.0247208
3880000000 0.0037656 -0.0242918 0.9962344 0.0242918 0.9962344 0.0242918 0.0037656 -0.0242918
3901000000 0.0037527 -0.0238658 0.9962473 0.0238658 0.9962473 0.0238658 0.0037527 -0.0238658
3922000000 0.0037403 -0.0234427 0.9962597 0.0234427 0.9962597 0.0234427 0.0037403 -0.0234427
3943000000 0.0037284 -0.0230226 0.9962716 0.0230226 0.9962716 0.0230226 0.0037284 -0.0230226
3964000000 0.0037170 -0.0226053 0.9962830 0.0226053 0.9962830 0.0226053 0.0037170 -0.0226053
3985000000 0.0037061 -0.0221909 0.9962939 0.0221909 0.9962939 0.0221909 0.0037061 -0.0221909
4006000000 0.0036957 -0.0217793 0.9963043 0.0217793 0.9963043 0.0217793 0.0036957 -0.0217793
4027000000 0.0036857 -0.0213704 0.9963143 0.0213704 0.9963143 0.0213704 0.0036857 -0.0213704
4048000000 0.0036762 -0.0209642 0.9963238 0.0209642 0.9963238 0.0209642 0.0036762 -0.0209642
4069000000 0.0036671 -0.0205607 0.9963329 0.0205607 0.9963329 0.0205607 0.0036671 -0.0205607
4090000000 0.0036584 -0.0201597 0.9963416 0.0201597 0.9963416 0.0201597 0.0036584 -0.0201597
4111000000 0.0036502 -0.0197614 0.9963498 0.0197614 0.9963498 0.0197614 0.0036502 -0.0197614
4132000000 0.0036424 -0.0193656 0.9963576 0.0193656 0.9963576 0.0193656 0.0036424 -0.0193656
4153000000 0.0036351 -0.0189723 0.9963649 0.0189723 0.9963649 0.0189723 0.0036351 -0.0189723
4174000000 0.0036281 -0.0185814 0.9963719 0.0185814 0.9963719 0.0185814 0.0036281 -0.0185814
4195000000 0.0036216 -0.0181930 0.9963784 0.0181930 0.9963784 0.0181930 0.0036216 -0.0181930
4216000000 0.0036154 -0.0178069 0.9963846 0.0178069 0.9963846 0.0178069 0.0036154 -0.0178069
4237000000 0.0036097 -0.0174232 0.9963903 0.0174232 0.9963903 0.0174232 0.0036097 -0.0174232
4258000000 0.0036043 -0.0170418 0.9963957 0.0170418 0.9963957 0.0170418 0.0036043 -0.0170418
4279000000 0.0035993 -0.0166627 0.9964007 0.0166627 0.9964007 0.0166627 0.0035993 -0.0166627
4300000000 0.0035948 -0.0162859 0.9964052 0.0162859 0.9964052 0.0162859 0.0035948 -0.0162859
4321000000 0.0035905 -0.0159113 0.9964095 0.0159113 0.9964095 0.0159113 0.0035905 -0.0159113
4342000000 0.0035867 -0.0155388 0.9964133 0.0155388 0.9964133 0.0155388 0.0035867 -0.0155388
4363000000 0.0035832 -0.0151685 0.9964168 0.0151685 0.9964168 0.0151685 0.0035832 -0.0151685
4384000000 0.0035801 -0.0148003 0.9964199 0.0148003 0.9964199 0.0148003 0.0035801 -0.0148003
4405000000 0.0035773 -0.0144342 0.9964227 0.0144342 0.9964227 0.0144342 0.0035773 -0.0144342
4426000000 0.0035749 -0.0140702 0.9964251 0.0140702 0.9964251 0.0140702 0.0035749 -0.0140702
4447000000 0.0035729 -0.0137082 0.9964271 0.0137082 0.9964271 0.0137082 0.0035729 -0.0137082
4468000000 0.0035711 -0.0133482 0.9964289 0.0133482 0.9964289 0.0133482 0.0035711 -0.0133482
4489000000 0.0035698 -0.0129901 0.9964302 0.0129901 0.9964302 0.0129901 0.0035698 -0.0129901
4510000000 0.0035687 -0.0126340 0.9964313 0.0126340 0.9964313 0.0126340 0.0035687 -0.0126340
