!Murata Part Number: GRM0115C1C6R9CE01
!These Parameters are Measured in Series Mode Connection
!Data Generated on Mar 30, 2021
!       o--ll--o
!Port1            Port2
!       o------o
!Operation Temp=25[degC], DC Bias Voltage=0[V]
!Freq. Start=100[MHz] Stop=9[GHz] 401[Steps]
# Hz S RI R 50
!Freq.(Hz) S11(Real) S11(Imag) S21(Real) S21(Imag) S12(Real) S12(Imag) S22(Real) S22(Imag)
100000000 0.8415491 -0.3648795 0.1584509 0.3648795 0.1584509 0.3648795 0.8415491 -0.3648795
121000000 0.7838687 -0.4112608 0.2161313 0.4112608 0.2161313 0.4112608 0.7838687 -0.4112608
142000000 0.7247288 -0.4462461 0.2752712 0.4462461 0.2752712 0.4462461 0.7247288 -0.4462461
163000000 0.6663928 -0.4710353 0.3336072 0.4710353 0.3336072 0.4710353 0.6663928 -0.4710353
184000000 0.6104555 -0.4871193 0.3895445 0.4871193 0.3895445 0.4871193 0.6104555 -0.4871193
205000000 0.5579202 -0.4960439 0.4420798 0.4960439 0.4420798 0.4960439 0.5579202 -0.4960439
226000000 0.5093205 -0.4992601 0.4906795 0.4992601 0.4906795 0.4992601 0.5093205 -0.4992601
247000000 0.4648468 -0.4980460 0.5351532 0.4980460 0.5351532 0.4980460 0.4648468 -0.4980460
268000000 0.4244572 -0.4934791 0.5755428 0.4934791 0.5755428 0.4934791 0.4244572 -0.4934791
289000000 0.3879647 -0.4864398 0.6120353 0.4864398 0.6120353 0.4864398 0.3879647 -0.4864398
310000000 0.3551004 -0.4776308 0.6448996 0.4776308 0.6448996 0.4776308 0.3551004 -0.4776308
331000000 0.3255578 -0.4676027 0.6744422 0.4676027 0.6744422 0.4676027 0.3255578 -0.4676027
352000000 0.2990212 -0.4567807 0.7009788 0.4567807 0.7009788 0.4567807 0.2990212 -0.4567807
373000000 0.2751836 -0.4454890 0.7248164 0.4454890 0.7248164 0.4454890 0.2751836 -0.4454890
394000000 0.2537564 -0.4339716 0.7462436 0.4339716 0.7462436 0.4339716 0.2537564 -0.4339716
415000000 0.2344748 -0.4224103 0.7655252 0.4224103 0.7655252 0.4224103 0.2344748 -0.4224103
436000000 0.2170993 -0.4109381 0.7829007 0.4109381 0.7829007 0.4109381 0.2170993 -0.4109381
457000000 0.2014156 -0.3996511 0.7985844 0.3996511 0.7985844 0.3996511 0.2014156 -0.3996511
478000000 0.1872335 -0.3886168 0.8127665 0.3886168 0.8127665 0.3886168 0.1872335 -0.3886168
499000000 0.1743846 -0.3778812 0.8256154 0.3778812 0.8256154 0.3778812 0.1743846 -0.3778812
520000000 0.1627206 -0.3674739 0.8372794 0.3674739 0.8372794 0.3674739 0.1627206 -0.3674739
541000000 0.1521111 -0.3574125 0.8478889 0.3574125 0.8478889 0.3574125 0.1521111 -0.3574125
562000000 0.1424412 -0.3477052 0.8575588 0.3477052 0.8575588 0.3477052 0.1424412 -0.3477052
583000000 0.1336102 -0.3383539 0.8663898 0.3383539 0.8663898 0.3383539 0.1336102 -0.3383539
604000000 0.1255294 -0.3293554 0.8744706 0.3293554 0.8744706 0.3293554 0.1255294 -0.3293554
625000000 0.1181206 -0.3207029 0.8818794 0.3207029 0.8818794 0.3207029 0.1181206 -0.3207029
646000000 0.1113151 -0.3123872 0.8886849 0.3123872 0.8886849 0.3123872 0.1113151 -0.3123872
667000000 0.1050523 -0.3043978 0.8949477 0.3043978 0.8949477 0.3043978 0.1050523 -0.3043978
688000000 0.0992783 -0.2967226 0.9007217 0.2967226 0.9007217 0.2967226 0.0992783 -0.2967226
709000000 0.0939459 -0.2893493 0.9060541 0.2893493 0.9060541 0.2893493 0.0939459 -0.2893493
730000000 0.0890127 -0.2822651 0.9109873 0.2822651 0.9109873 0.2822651 0.0890127 -0.2822651
751000000 0.0844416 -0.2754574 0.9155584 0.2754574 0.9155584 0.2754574 0.0844416 -0.2754574
772000000 0.0801990 -0.2689135 0.9198010 0.2689135 0.9198010 0.2689135 0.0801990 -0.2689135
793000000 0.0762555 -0.2626212 0.9237445 0.2626212 0.9237445 0.2626212 0.0762555 -0.2626212
814000000 0.0725844 -0.2565686 0.9274156 0.2565686 0.9274156 0.2565686 0.0725844 -0.2565686
835000000 0.0691620 -0.2507440 0.9308380 0.2507440 0.9308380 0.2507440 0.0691620 -0.2507440
856000000 0.0659670 -0.2451366 0.9340330 0.2451366 0.9340330 0.2451366 0.0659670 -0.2451366
877000000 0.0629804 -0.2397358 0.9370196 0.2397358 0.9370196 0.2397358 0.0629804 -0.2397358
898000000 0.0601849 -0.2345315 0.9398151 0.2345315 0.9398151 0.2345315 0.0601849 -0.2345315
919000000 0.0575650 -0.2295141 0.9424350 0.2295141 0.9424350 0.2295141 0.0575650 -0.2295141
940000000 0.0551067 -0.2246747 0.9448933 0.2246747 0.9448933 0.2246747 0.0551067 -0.2246747
961000000 0.0527974 -0.2200045 0.9472026 0.2200045 0.9472026 0.2200045 0.0527974 -0.2200045
982000000 0.0506255 -0.2154955 0.9493745 0.2154955 0.9493745 0.2154955 0.0506255 -0.2154955
1003000000 0.0485807 -0.2111399 0.9514193 0.2111399 0.9514193 0.2111399 0.0485807 -0.2111399
1024000000 0.0466535 -0.2069304 0.9533465 0.2069304 0.9533465 0.2069304 0.0466535 -0.2069304
1045000000 0.0448353 -0.2028602 0.9551647 0.2028602 0.9551647 0.2028602 0.0448353 -0.2028602
1066000000 0.0431182 -0.1989227 0.9568818 0.1989227 0.9568818 0.1989227 0.0431182 -0.1989227
1087000000 0.0414951 -0.1951119 0.9585049 0.1951119 0.9585049 0.1951119 0.0414951 -0.1951119
1108000000 0.0399593 -0.1914217 0.9600407 0.1914217 0.9600407 0.1914217 0.0399593 -0.1914217
1129000000 0.0385049 -0.1878468 0.9614951 0.1878468 0.9614951 0.1878468 0.0385049 -0.1878468
1150000000 0.0371264 -0.1843820 0.9628736 0.1843820 0.9628736 0.1843820 0.0371264 -0.1843820
1171000000 0.0358187 -0.1810223 0.9641813 0.1810223 0.9641813 0.1810223 0.0358187 -0.1810223
1192000000 0.0345772 -0.1777632 0.9654228 0.1777632 0.9654228 0.1777632 0.0345772 -0.1777632
1213000000 0.0333976 -0.1746001 0.9666024 0.1746001 0.9666024 0.1746001 0.0333976 -0.1746001
1234000000 0.0322759 -0.1715289 0.9677241 0.1715289 0.9677241 0.1715289 0.0322759 -0.1715289
1255000000 0.0312086 -0.1685458 0.9687914 0.1685458 0.9687914 0.1685458 0.0312086 -0.1685458
1276000000 0.0301921 -0.1656469 0.9698079 0.1656469 0.9698079 0.1656469 0.0301921 -0.1656469
1297000000 0.0292235 -0.1628287 0.9707765 0.1628287 0.9707765 0.1628287 0.0292235 -0.1628287
1318000000 0.0282999 -0.1600879 0.9717001 0.1600879 0.9717001 0.1600879 0.0282999 -0.1600879
1339000000 0.0274186 -0.1574214 0.9725814 0.1574214 0.9725814 0.1574214 0.0274186 -0.1574214
1360000000 0.0265771 -0.1548260 0.9734229 0.1548260 0.9734229 0.1548260 0.0265771 -0.1548260
1381000000 0.0257731 -0.1522989 0.9742269 0.1522989 0.9742269 0.1522989 0.0257731 -0.1522989
1402000000 0.0250044 -0.1498375 0.9749956 0.1498375 0.9749956 0.1498375 0.0250044 -0.1498375
1423000000 0.0242692 -0.1474391 0.9757308 0.1474391 0.9757308 0.1474391 0.0242692 -0.1474391
1444000000 0.0235655 -0.1451012 0.9764345 0.1451012 0.9764345 0.1451012 0.0235655 -0.1451012
1465000000 0.0228916 -0.1428217 0.9771084 0.1428217 0.9771084 0.1428217 0.0228916 -0.1428217
1486000000 0.0222459 -0.1405981 0.9777541 0.1405981 0.9777541 0.1405981 0.0222459 -0.1405981
1507000000 0.0216269 -0.1384285 0.9783731 0.1384285 0.9783731 0.1384285 0.0216269 -0.1384285
1528000000 0.0210332 -0.1363108 0.9789668 0.1363108 0.9789668 0.1363108 0.0210332 -0.1363108
1549000000 0.0204635 -0.1342431 0.9795365 0.1342431 0.9795365 0.1342431 0.0204635 -0.1342431
1570000000 0.0199164 -0.1322236 0.9800836 0.1322236 0.9800836 0.1322236 0.0199164 -0.1322236
1591000000 0.0193910 -0.1302505 0.9806090 0.1302505 0.9806090 0.1302505 0.0193910 -0.1302505
1612000000 0.0188861 -0.1283222 0.9811139 0.1283222 0.9811139 0.1283222 0.0188861 -0.1283222
1633000000 0.0184006 -0.1264371 0.9815994 0.1264371 0.9815994 0.1264371 0.0184006 -0.1264371
1654000000 0.0179337 -0.1245937 0.9820663 0.1245937 0.9820663 0.1245937 0.0179337 -0.1245937
1675000000 0.0174843 -0.1227905 0.9825157 0.1227905 0.9825157 0.1227905 0.0174843 -0.1227905
1696000000 0.0170518 -0.1210261 0.9829482 0.1210261 0.9829482 0.1210261 0.0170518 -0.1210261
1717000000 0.0166352 -0.1192993 0.9833648 0.1192993 0.9833648 0.1192993 0.0166352 -0.1192993
1738000000 0.0162339 -0.1176088 0.9837661 0.1176088 0.9837661 0.1176088 0.0162339 -0.1176088
1759000000 0.0158471 -0.1159534 0.9841529 0.1159534 0.9841529 0.1159534 0.0158471 -0.1159534
1780000000 0.0154742 -0.1143318 0.9845258 0.1143318 0.9845258 0.1143318 0.0154742 -0.1143318
1801000000 0.0151145 -0.1127431 0.9848855 0.1127431 0.9848855 0.1127431 0.0151145 -0.1127431
1822000000 0.0147675 -0.1111861 0.9852325 0.1111861 0.9852325 0.1111861 0.0147675 -0.1111861
1843000000 0.0144325 -0.1096598 0.9855675 0.1096598 0.9855675 0.1096598 0.0144325 -0.1096598
1864000000 0.0141091 -0.1081633 0.9858909 0.1081633 0.9858909 0.1081633 0.0141091 -0.1081633
1885000000 0.0137967 -0.1066956 0.9862033 0.1066956 0.9862033 0.1066956 0.0137967 -0.1066956
1906000000 0.0134949 -0.1052559 0.9865051 0.1052559 0.9865051 0.1052559 0.0134949 -0.1052559
1927000000 0.0132033 -0.1038432 0.9867967 0.1038432 0.9867967 0.1038432 0.0132033 -0.1038432
1948000000 0.0129213 -0.1024567 0.9870787 0.1024567 0.9870787 0.1024567 0.0129213 -0.1024567
1969000000 0.0126487 -0.1010957 0.9873513 0.1010957 0.9873513 0.1010957 0.0126487 -0.1010957
1990000000 0.0123849 -0.0997594 0.9876151 0.0997594 0.9876151 0.0997594 0.0123849 -0.0997594
2011000000 0.0121297 -0.0984470 0.9878703 0.0984470 0.9878703 0.0984470 0.0121297 -0.0984470
2032000000 0.0118827 -0.0971578 0.9881173 0.0971578 0.9881173 0.0971578 0.0118827 -0.0971578
2053000000 0.0116436 -0.0958913 0.9883564 0.0958913 0.9883564 0.0958913 0.0116436 -0.0958913
2074000000 0.0114121 -0.0946466 0.9885879 0.0946466 0.9885879 0.0946466 0.0114121 -0.0946466
2095000000 0.0111878 -0.0934232 0.9888122 0.0934232 0.9888122 0.0934232 0.0111878 -0.0934232
2116000000 0.0109705 -0.0922205 0.9890295 0.0922205 0.9890295 0.0922205 0.0109705 -0.0922205
2137000000 0.0107599 -0.0910379 0.9892401 0.0910379 0.9892401 0.0910379 0.0107599 -0.0910379
2158000000 0.0105558 -0.0898749 0.9894442 0.0898749 0.9894442 0.0898749 0.0105558 -0.0898749
2179000000 0.0103579 -0.0887308 0.9896421 0.0887308 0.9896421 0.0887308 0.0103579 -0.0887308
2200000000 0.0101660 -0.0876052 0.9898340 0.0876052 0.9898340 0.0876052 0.0101660 -0.0876052
2221000000 0.0099799 -0.0864976 0.9900201 0.0864976 0.9900201 0.0864976 0.0099799 -0.0864976
2242000000 0.0097993 -0.0854075 0.9902007 0.0854075 0.9902007 0.0854075 0.0097993 -0.0854075
2263000000 0.0096240 -0.0843344 0.9903760 0.0843344 0.9903760 0.0843344 0.0096240 -0.0843344
2284000000 0.0094539 -0.0832779 0.9905461 0.0832779 0.9905461 0.0832779 0.0094539 -0.0832779
2305000000 0.0092888 -0.0822375 0.9907112 0.0822375 0.9907112 0.0822375 0.0092888 -0.0822375
2326000000 0.0091285 -0.0812128 0.9908715 0.0812128 0.9908715 0.0812128 0.0091285 -0.0812128
2347000000 0.0089729 -0.0802034 0.9910271 0.0802034 0.9910271 0.0802034 0.0089729 -0.0802034
2368000000 0.0088217 -0.0792090 0.9911783 0.0792090 0.9911783 0.0792090 0.0088217 -0.0792090
2389000000 0.0086748 -0.0782291 0.9913252 0.0782291 0.9913252 0.0782291 0.0086748 -0.0782291
2410000000 0.0085321 -0.0772633 0.9914679 0.0772633 0.9914679 0.0772633 0.0085321 -0.0772633
2431000000 0.0083934 -0.0763113 0.9916066 0.0763113 0.9916066 0.0763113 0.0083934 -0.0763113
2452000000 0.0082586 -0.0753728 0.9917414 0.0753728 0.9917414 0.0753728 0.0082586 -0.0753728
2473000000 0.0081276 -0.0744475 0.9918724 0.0744475 0.9918724 0.0744475 0.0081276 -0.0744475
2494000000 0.0080002 -0.0735349 0.9919998 0.0735349 0.9919998 0.0735349 0.0080002 -0.0735349
2515000000 0.0078764 -0.0726349 0.9921236 0.0726349 0.9921236 0.0726349 0.0078764 -0.0726349
2536000000 0.0077559 -0.0717470 0.9922441 0.0717470 0.9922441 0.0717470 0.0077559 -0.0717470
2557000000 0.0076388 -0.0708711 0.9923612 0.0708711 0.9923612 0.0708711 0.0076388 -0.0708711
2578000000 0.0075249 -0.0700068 0.9924751 0.0700068 0.9924751 0.0700068 0.0075249 -0.0700068
2599000000 0.0074140 -0.0691538 0.9925860 0.0691538 0.9925860 0.0691538 0.0074140 -0.0691538
2620000000 0.0073062 -0.0683119 0.9926938 0.0683119 0.9926938 0.0683119 0.0073062 -0.0683119
2641000000 0.0072013 -0.0674809 0.9927987 0.0674809 0.9927987 0.0674809 0.0072013 -0.0674809
2662000000 0.0070991 -0.0666604 0.9929009 0.0666604 0.9929009 0.0666604 0.0070991 -0.0666604
2683000000 0.0069998 -0.0658503 0.9930002 0.0658503 0.9930002 0.0658503 0.0069998 -0.0658503
2704000000 0.0069030 -0.0650502 0.9930970 0.0650502 0.9930970 0.0650502 0.0069030 -0.0650502
2725000000 0.0068089 -0.0642600 0.9931911 0.0642600 0.9931911 0.0642600 0.0068089 -0.0642600
2746000000 0.0067172 -0.0634795 0.9932828 0.0634795 0.9932828 0.0634795 0.0067172 -0.0634795
2767000000 0.0066280 -0.0627084 0.9933720 0.0627084 0.9933720 0.0627084 0.0066280 -0.0627084
2788000000 0.0065411 -0.0619466 0.9934589 0.0619466 0.9934589 0.0619466 0.0065411 -0.0619466
2809000000 0.0064565 -0.0611937 0.9935435 0.0611937 0.9935435 0.0611937 0.0064565 -0.0611937
2830000000 0.0063741 -0.0604497 0.9936259 0.0604497 0.9936259 0.0604497 0.0063741 -0.0604497
2851000000 0.0062939 -0.0597143 0.9937061 0.0597143 0.9937061 0.0597143 0.0062939 -0.0597143
2872000000 0.0062158 -0.0589874 0.9937842 0.0589874 0.9937842 0.0589874 0.0062158 -0.0589874
2893000000 0.0061397 -0.0582687 0.9938603 0.0582687 0.9938603 0.0582687 0.0061397 -0.0582687
2914000000 0.0060656 -0.0575582 0.9939344 0.0575582 0.9939344 0.0575582 0.0060656 -0.0575582
2935000000 0.0059934 -0.0568555 0.9940066 0.0568555 0.9940066 0.0568555 0.0059934 -0.0568555
2956000000 0.0059231 -0.0561606 0.9940769 0.0561606 0.9940769 0.0561606 0.0059231 -0.0561606
2977000000 0.0058546 -0.0554733 0.9941454 0.0554733 0.9941454 0.0554733 0.0058546 -0.0554733
2998000000 0.0057879 -0.0547935 0.9942121 0.0547935 0.9942121 0.0547935 0.0057879 -0.0547935
3019000000 0.0057229 -0.0541209 0.9942771 0.0541209 0.9942771 0.0541209 0.0057229 -0.0541209
3040000000 0.0056596 -0.0534555 0.9943404 0.0534555 0.9943404 0.0534555 0.0056596 -0.0534555
3061000000 0.0055980 -0.0527970 0.9944020 0.0527970 0.9944020 0.0527970 0.0055980 -0.0527970
3082000000 0.0055379 -0.0521454 0.9944621 0.0521454 0.9944621 0.0521454 0.0055379 -0.0521454
3103000000 0.0054794 -0.0515006 0.9945206 0.0515006 0.9945206 0.0515006 0.0054794 -0.0515006
3124000000 0.0054225 -0.0508623 0.9945775 0.0508623 0.9945775 0.0508623 0.0054225 -0.0508623
3145000000 0.0053670 -0.0502304 0.9946330 0.0502304 0.9946330 0.0502304 0.0053670 -0.0502304
3166000000 0.0053129 -0.0496049 0.9946871 0.0496049 0.9946871 0.0496049 0.0053129 -0.0496049
3187000000 0.0052603 -0.0489856 0.9947397 0.0489856 0.9947397 0.0489856 0.0052603 -0.0489856
3208000000 0.0052090 -0.0483724 0.9947910 0.0483724 0.9947910 0.0483724 0.0052090 -0.0483724
3229000000 0.0051591 -0.0477651 0.9948409 0.0477651 0.9948409 0.0477651 0.0051591 -0.0477651
3250000000 0.0051104 -0.0471637 0.9948896 0.0471637 0.9948896 0.0471637 0.0051104 -0.0471637
3271000000 0.0050631 -0.0465680 0.9949369 0.0465680 0.9949369 0.0465680 0.0050631 -0.0465680
3292000000 0.0050170 -0.0459779 0.9949830 0.0459779 0.9949830 0.0459779 0.0050170 -0.0459779
3313000000 0.0049721 -0.0453934 0.9950279 0.0453934 0.9950279 0.0453934 0.0049721 -0.0453934
3334000000 0.0049284 -0.0448143 0.9950716 0.0448143 0.9950716 0.0448143 0.0049284 -0.0448143
3355000000 0.0048858 -0.0442405 0.9951142 0.0442405 0.9951142 0.0442405 0.0048858 -0.0442405
3376000000 0.0048444 -0.0436719 0.9951556 0.0436719 0.9951556 0.0436719 0.0048444 -0.0436719
3397000000 0.0048041 -0.0431085 0.9951959 0.0431085 0.9951959 0.0431085 0.0048041 -0.0431085
3418000000 0.0047649 -0.0425501 0.9952351 0.0425501 0.9952351 0.0425501 0.0047649 -0.0425501
3439000000 0.0047268 -0.0419966 0.9952732 0.0419966 0.9952732 0.0419966 0.0047268 -0.0419966
3460000000 0.0046896 -0.0414480 0.9953104 0.0414480 0.9953104 0.0414480 0.0046896 -0.0414480
3481000000 0.0046535 -0.0409041 0.9953465 0.0409041 0.9953465 0.0409041 0.0046535 -0.0409041
3502000000 0.0046184 -0.0403649 0.9953816 0.0403649 0.9953816 0.0403649 0.0046184 -0.0403649
3523000000 0.0045843 -0.0398303 0.9954157 0.0398303 0.9954157 0.0398303 0.0045843 -0.0398303
3544000000 0.0045511 -0.0393002 0.9954489 0.0393002 0.9954489 0.0393002 0.0045511 -0.0393002
3565000000 0.0045188 -0.0387746 0.9954812 0.0387746 0.9954812 0.0387746 0.0045188 -0.0387746
3586000000 0.0044875 -0.0382533 0.9955125 0.0382533 0.9955125 0.0382533 0.0044875 -0.0382533
3607000000 0.0044570 -0.0377363 0.9955430 0.0377363 0.9955430 0.0377363 0.0044570 -0.0377363
3628000000 0.0044275 -0.0372235 0.9955725 0.0372235 0.9955725 0.0372235 0.0044275 -0.0372235
3649000000 0.0043987 -0.0367149 0.9956013 0.0367149 0.9956013 0.0367149 0.0043987 -0.0367149
3670000000 0.0043709 -0.0362103 0.9956291 0.0362103 0.9956291 0.0362103 0.0043709 -0.0362103
3691000000 0.0043438 -0.0357097 0.9956562 0.0357097 0.9956562 0.0357097 0.0043438 -0.0357097
3712000000 0.0043175 -0.0352130 0.9956825 0.0352130 0.9956825 0.0352130 0.0043175 -0.0352130
3733000000 0.0042921 -0.0347202 0.9957079 0.0347202 0.9957079 0.0347202 0.0042921 -0.0347202
3754000000 0.0042674 -0.0342312 0.9957326 0.0342312 0.9957326 0.0342312 0.0042674 -0.0342312
3775000000 0.0042434 -0.0337459 0.9957566 0.0337459 0.9957566 0.0337459 0.0042434 -0.0337459
3796000000 0.0042203 -0.0332643 0.9957797 0.0332643 0.9957797 0.0332643 0.0042203 -0.0332643
3817000000 0.0041978 -0.0327863 0.9958022 0.0327863 0.9958022 0.0327863 0.0041978 -0.0327863
3838000000 0.0041761 -0.0323118 0.9958239 0.0323118 0.9958239 0.0323118 0.0041761 -0.0323118
3859000000 0.0041550 -0.0318409 0.9958450 0.0318409 0.9958450 0.0318409 0.0041550 -0.0318409
3880000000 0.0041347 -0.0313734 0.9958653 0.0313734 0.9958653 0.0313734 0.0041347 -0.0313734
3901000000 0.0041150 -0.0309092 0.9958850 0.0309092 0.9958850 0.0309092 0.0041150 -0.0309092
3922000000 0.0040960 -0.0304484 0.9959040 0.0304484 0.9959040 0.0304484 0.0040960 -0.0304484
3943000000 0.0040777 -0.0299909 0.9959223 0.0299909 0.9959223 0.0299909 0.0040777 -0.0299909
3964000000 0.0040600 -0.0295366 0.9959400 0.0295366 0.9959400 0.0295366 0.0040600 -0.0295366
3985000000 0.0040430 -0.0290855 0.9959570 0.0290855 0.9959570 0.0290855 0.0040430 -0.0290855
4006000000 0.0040265 -0.0286374 0.9959735 0.0286374 0.9959735 0.0286374 0.0040265 -0.0286374
4027000000 0.0040107 -0.0281925 0.9959893 0.0281925 0.9959893 0.0281925 0.0040107 -0.0281925
4048000000 0.0039955 -0.0277506 0.9960045 0.0277506 0.9960045 0.0277506 0.0039955 -0.0277506
4069000000 0.0039808 -0.0273117 0.9960192 0.0273117 0.9960192 0.0273117 0.0039808 -0.0273117
4090000000 0.0039668 -0.0268757 0.9960332 0.0268757 0.9960332 0.0268757 0.0039668 -0.0268757
4111000000 0.0039533 -0.0264425 0.9960467 0.0264425 0.9960467 0.0264425 0.0039533 -0.0264425
4132000000 0.0039404 -0.0260123 0.9960596 0.0260123 0.9960596 0.0260123 0.0039404 -0.0260123
4153000000 0.0039280 -0.0255848 0.9960720 0.0255848 0.9960720 0.0255848 0.0039280 -0.0255848
4174000000 0.0039162 -0.0251601 0.9960838 0.0251601 0.9960838 0.0251601 0.0039162 -0.0251601
4195000000 0.0039049 -0.0247381 0.9960951 0.0247381 0.9960951 0.0247381 0.0039049 -0.0247381
4216000000 0.0038942 -0.0243187 0.9961058 0.0243187 0.9961058 0.0243187 0.0038942 -0.0243187
4237000000 0.0038840 -0.0239020 0.9961160 0.0239020 0.9961160 0.0239020 0.0038840 -0.0239020
4258000000 0.0038742 -0.0234880 0.9961258 0.0234880 0.9961258 0.0234880 0.0038742 -0.0234880
4279000000 0.0038650 -0.0230764 0.9961350 0.0230764 0.9961350 0.0230764 0.0038650 -0.0230764
4300000000 0.0038563 -0.0226674 0.9961437 0.0226674 0.9961437 0.0226674 0.0038563 -0.0226674
4321000000 0.0038481 -0.0222609 0.9961519 0.0222609 0.9961519 0.0222609 0.0038481 -0.0222609
4342000000 0.0038404 -0.0218568 0.9961596 0.0218568 0.9961596 0.0218568 0.0038404 -0.0218568
4363000000 0.0038331 -0.0214551 0.9961669 0.0214551 0.9961669 0.0214551 0.0038331 -0.0214551
4384000000 0.0038263 -0.0210558 0.9961737 0.0210558 0.9961737 0.0210558 0.0038263 -0.0210558
4405000000 0.0038200 -0.0206588 0.9961800 0.0206588 0.9961800 0.0206588 0.0038200 -0.0206588
4426000000 0.0038141 -0.0202642 0.9961859 0.0202642 0.9961859 0.0202642 0.0038141 -0.0202642
4447000000 0.0038087 -0.0198718 0.9961913 0.0198718 0.9961913 0.0198718 0.0038087 -0.0198718
4468000000 0.0038037 -0.0194817 0.9961963 0.0194817 0.9961963 0.0194817 0.0038037 -0.0194817
4489000000 0.0037992 -0.0190937 0.9962008 0.0190937 0.9962008 0.0190937 0.0037992 -0.0190937
4510000000 0.0037951 -0.0187080 0.9962049 0.0187080 0.9962049 0.0187080 0.0037951 -0.0187080
