!Murata Part Number: GRM0115C1C120JE01
!These Parameters are Measured in Series Mode Connection
!Data Generated on Mar 30, 2021
!       o--ll--o
!Port1            Port2
!       o------o
!Operation Temp=25[degC], DC Bias Voltage=0[V]
!Freq. Start=100[MHz] Stop=9[GHz] 401[Steps]
# Hz S RI R 50
!Freq.(Hz) S11(Real) S11(Imag) S21(Real) S21(Imag) S12(Real) S12(Imag) S22(Real) S22(Imag)
100000000 0.6372084 -0.4803714 0.3627916 0.4803714 0.3627916 0.4803714 0.6372084 -0.4803714
121000000 0.5453409 -0.4974145 0.4546591 0.4974145 0.4546591 0.4974145 0.5453409 -0.4974145
142000000 0.4654538 -0.4981881 0.5345462 0.4981881 0.5345462 0.4981881 0.4654538 -0.4981881
163000000 0.3978390 -0.4887431 0.6021610 0.4887431 0.6021610 0.4887431 0.3978390 -0.4887431
184000000 0.3413903 -0.4733753 0.6586097 0.4733753 0.6586097 0.4733753 0.3413903 -0.4733753
205000000 0.2945184 -0.4549329 0.7054816 0.4549329 0.7054816 0.4549329 0.2945184 -0.4549329
226000000 0.2556113 -0.4352186 0.7443887 0.4352186 0.7443887 0.4352186 0.2556113 -0.4352186
247000000 0.2232273 -0.4153310 0.7767727 0.4153310 0.7767727 0.4153310 0.2232273 -0.4153310
268000000 0.1961506 -0.3959121 0.8038494 0.3959121 0.8038494 0.3959121 0.1961506 -0.3959121
289000000 0.1733869 -0.3773161 0.8266131 0.3773161 0.8266131 0.3773161 0.1733869 -0.3773161
310000000 0.1541347 -0.3597185 0.8458653 0.3597185 0.8458653 0.3597185 0.1541347 -0.3597185
331000000 0.1377525 -0.3431863 0.8622475 0.3431863 0.8622475 0.3431863 0.1377525 -0.3431863
352000000 0.1237276 -0.3277219 0.8762724 0.3277219 0.8762724 0.3277219 0.1237276 -0.3277219
373000000 0.1116496 -0.3132909 0.8883504 0.3132909 0.8883504 0.3132909 0.1116496 -0.3132909
394000000 0.1011889 -0.2998390 0.8988111 0.2998390 0.8988111 0.2998390 0.1011889 -0.2998390
415000000 0.0920798 -0.2873023 0.9079202 0.2873023 0.9079202 0.2873023 0.0920798 -0.2873023
436000000 0.0841066 -0.2756144 0.9158934 0.2756144 0.9158934 0.2756144 0.0841066 -0.2756144
457000000 0.0770936 -0.2647090 0.9229064 0.2647090 0.9229064 0.2647090 0.0770936 -0.2647090
478000000 0.0708967 -0.2545232 0.9291033 0.2545232 0.9291033 0.2545232 0.0708967 -0.2545232
499000000 0.0653972 -0.2449975 0.9346028 0.2449975 0.9346028 0.2449975 0.0653972 -0.2449975
520000000 0.0604966 -0.2360771 0.9395034 0.2360771 0.9395034 0.2360771 0.0604966 -0.2360771
541000000 0.0561129 -0.2277116 0.9438871 0.2277116 0.9438871 0.2277116 0.0561129 -0.2277116
562000000 0.0521772 -0.2198551 0.9478228 0.2198551 0.9478228 0.2198551 0.0521772 -0.2198551
583000000 0.0486316 -0.2124658 0.9513684 0.2124658 0.9513684 0.2124658 0.0486316 -0.2124658
604000000 0.0454272 -0.2055056 0.9545728 0.2055056 0.9545728 0.2055056 0.0454272 -0.2055056
625000000 0.0425222 -0.1989401 0.9574778 0.1989401 0.9574778 0.1989401 0.0425222 -0.1989401
646000000 0.0398811 -0.1927383 0.9601189 0.1927383 0.9601189 0.1927383 0.0398811 -0.1927383
667000000 0.0374733 -0.1868717 0.9625267 0.1868717 0.9625267 0.1868717 0.0374733 -0.1868717
688000000 0.0352725 -0.1813147 0.9647275 0.1813147 0.9647275 0.1813147 0.0352725 -0.1813147
709000000 0.0332561 -0.1760442 0.9667439 0.1760442 0.9667439 0.1760442 0.0332561 -0.1760442
730000000 0.0314042 -0.1710389 0.9685958 0.1710389 0.9685958 0.1710389 0.0314042 -0.1710389
751000000 0.0296997 -0.1662797 0.9703003 0.1662797 0.9703003 0.1662797 0.0296997 -0.1662797
772000000 0.0281276 -0.1617490 0.9718724 0.1617490 0.9718724 0.1617490 0.0281276 -0.1617490
793000000 0.0266746 -0.1574309 0.9733254 0.1574309 0.9733254 0.1574309 0.0266746 -0.1574309
814000000 0.0253292 -0.1533109 0.9746708 0.1533109 0.9746708 0.1533109 0.0253292 -0.1533109
835000000 0.0240812 -0.1493756 0.9759188 0.1493756 0.9759188 0.1493756 0.0240812 -0.1493756
856000000 0.0229216 -0.1456127 0.9770784 0.1456127 0.9770784 0.1456127 0.0229216 -0.1456127
877000000 0.0218422 -0.1420113 0.9781578 0.1420113 0.9781578 0.1420113 0.0218422 -0.1420113
898000000 0.0208360 -0.1385609 0.9791640 0.1385609 0.9791640 0.1385609 0.0208360 -0.1385609
919000000 0.0198966 -0.1352522 0.9801034 0.1352522 0.9801034 0.1352522 0.0198966 -0.1352522
940000000 0.0190183 -0.1320764 0.9809817 0.1320764 0.9809817 0.1320764 0.0190183 -0.1320764
961000000 0.0181960 -0.1290255 0.9818040 0.1290255 0.9818040 0.1290255 0.0181960 -0.1290255
982000000 0.0174251 -0.1260922 0.9825749 0.1260922 0.9825749 0.1260922 0.0174251 -0.1260922
1003000000 0.0167015 -0.1232697 0.9832985 0.1232697 0.9832985 0.1232697 0.0167015 -0.1232697
1024000000 0.0160215 -0.1205515 0.9839785 0.1205515 0.9839785 0.1205515 0.0160215 -0.1205515
1045000000 0.0153816 -0.1179318 0.9846184 0.1179318 0.9846184 0.1179318 0.0153816 -0.1179318
1066000000 0.0147790 -0.1154052 0.9852210 0.1154052 0.9852210 0.1154052 0.0147790 -0.1154052
1087000000 0.0142107 -0.1129666 0.9857893 0.1129666 0.9857893 0.1129666 0.0142107 -0.1129666
1108000000 0.0136743 -0.1106114 0.9863257 0.1106114 0.9863257 0.1106114 0.0136743 -0.1106114
1129000000 0.0131675 -0.1083350 0.9868325 0.1083350 0.9868325 0.1083350 0.0131675 -0.1083350
1150000000 0.0126882 -0.1061336 0.9873118 0.1061336 0.9873118 0.1061336 0.0126882 -0.1061336
1171000000 0.0122346 -0.1040032 0.9877654 0.1040032 0.9877654 0.1040032 0.0122346 -0.1040032
1192000000 0.0118047 -0.1019402 0.9881953 0.1019402 0.9881953 0.1019402 0.0118047 -0.1019402
1213000000 0.0113972 -0.0999414 0.9886028 0.0999414 0.9886028 0.0999414 0.0113972 -0.0999414
1234000000 0.0110105 -0.0980037 0.9889895 0.0980037 0.9889895 0.0980037 0.0110105 -0.0980037
1255000000 0.0106432 -0.0961241 0.9893568 0.0961241 0.9893568 0.0961241 0.0106432 -0.0961241
1276000000 0.0102941 -0.0942998 0.9897059 0.0942998 0.9897059 0.0942998 0.0102941 -0.0942998
1297000000 0.0099621 -0.0925284 0.9900379 0.0925284 0.9900379 0.0925284 0.0099621 -0.0925284
1318000000 0.0096462 -0.0908074 0.9903538 0.0908074 0.9903538 0.0908074 0.0096462 -0.0908074
1339000000 0.0093452 -0.0891345 0.9906548 0.0891345 0.9906548 0.0891345 0.0093452 -0.0891345
1360000000 0.0090585 -0.0875075 0.9909415 0.0875075 0.9909415 0.0875075 0.0090585 -0.0875075
1381000000 0.0087850 -0.0859245 0.9912150 0.0859245 0.9912150 0.0859245 0.0087850 -0.0859245
1402000000 0.0085241 -0.0843836 0.9914759 0.0843836 0.9914759 0.0843836 0.0085241 -0.0843836
1423000000 0.0082750 -0.0828830 0.9917250 0.0828830 0.9917250 0.0828830 0.0082750 -0.0828830
1444000000 0.0080371 -0.0814209 0.9919629 0.0814209 0.9919629 0.0814209 0.0080371 -0.0814209
1465000000 0.0078097 -0.0799958 0.9921903 0.0799958 0.9921903 0.0799958 0.0078097 -0.0799958
1486000000 0.0075922 -0.0786061 0.9924078 0.0786061 0.9924078 0.0786061 0.0075922 -0.0786061
1507000000 0.0073842 -0.0772505 0.9926158 0.0772505 0.9926158 0.0772505 0.0073842 -0.0772505
1528000000 0.0071851 -0.0759275 0.9928149 0.0759275 0.9928149 0.0759275 0.0071851 -0.0759275
1549000000 0.0069945 -0.0746359 0.9930055 0.0746359 0.9930055 0.0746359 0.0069945 -0.0746359
1570000000 0.0068119 -0.0733745 0.9931881 0.0733745 0.9931881 0.0733745 0.0068119 -0.0733745
1591000000 0.0066369 -0.0721421 0.9933631 0.0721421 0.9933631 0.0721421 0.0066369 -0.0721421
1612000000 0.0064691 -0.0709375 0.9935309 0.0709375 0.9935309 0.0709375 0.0064691 -0.0709375
1633000000 0.0063082 -0.0697599 0.9936918 0.0697599 0.9936918 0.0697599 0.0063082 -0.0697599
1654000000 0.0061539 -0.0686080 0.9938461 0.0686080 0.9938461 0.0686080 0.0061539 -0.0686080
1675000000 0.0060057 -0.0674811 0.9939943 0.0674811 0.9939943 0.0674811 0.0060057 -0.0674811
1696000000 0.0058635 -0.0663782 0.9941365 0.0663782 0.9941365 0.0663782 0.0058635 -0.0663782
1717000000 0.0057269 -0.0652985 0.9942731 0.0652985 0.9942731 0.0652985 0.0057269 -0.0652985
1738000000 0.0055956 -0.0642411 0.9944044 0.0642411 0.9944044 0.0642411 0.0055956 -0.0642411
1759000000 0.0054695 -0.0632052 0.9945305 0.0632052 0.9945305 0.0632052 0.0054695 -0.0632052
1780000000 0.0053483 -0.0621901 0.9946517 0.0621901 0.9946517 0.0621901 0.0053483 -0.0621901
1801000000 0.0052318 -0.0611952 0.9947682 0.0611952 0.9947682 0.0611952 0.0052318 -0.0611952
1822000000 0.0051197 -0.0602197 0.9948803 0.0602197 0.9948803 0.0602197 0.0051197 -0.0602197
1843000000 0.0050120 -0.0592629 0.9949880 0.0592629 0.9949880 0.0592629 0.0050120 -0.0592629
1864000000 0.0049083 -0.0583243 0.9950917 0.0583243 0.9950917 0.0583243 0.0049083 -0.0583243
1885000000 0.0048085 -0.0574033 0.9951915 0.0574033 0.9951915 0.0574033 0.0048085 -0.0574033
1906000000 0.0047125 -0.0564992 0.9952875 0.0564992 0.9952875 0.0564992 0.0047125 -0.0564992
1927000000 0.0046200 -0.0556116 0.9953800 0.0556116 0.9953800 0.0556116 0.0046200 -0.0556116
1948000000 0.0045311 -0.0547399 0.9954689 0.0547399 0.9954689 0.0547399 0.0045311 -0.0547399
1969000000 0.0044454 -0.0538837 0.9955546 0.0538837 0.9955546 0.0538837 0.0044454 -0.0538837
1990000000 0.0043629 -0.0530424 0.9956371 0.0530424 0.9956371 0.0530424 0.0043629 -0.0530424
2011000000 0.0042834 -0.0522156 0.9957166 0.0522156 0.9957166 0.0522156 0.0042834 -0.0522156
2032000000 0.0042069 -0.0514028 0.9957931 0.0514028 0.9957931 0.0514028 0.0042069 -0.0514028
2053000000 0.0041332 -0.0506037 0.9958668 0.0506037 0.9958668 0.0506037 0.0041332 -0.0506037
2074000000 0.0040622 -0.0498178 0.9959378 0.0498178 0.9959378 0.0498178 0.0040622 -0.0498178
2095000000 0.0039938 -0.0490447 0.9960062 0.0490447 0.9960062 0.0490447 0.0039938 -0.0490447
2116000000 0.0039279 -0.0482841 0.9960721 0.0482841 0.9960721 0.0482841 0.0039279 -0.0482841
2137000000 0.0038644 -0.0475356 0.9961356 0.0475356 0.9961356 0.0475356 0.0038644 -0.0475356
2158000000 0.0038033 -0.0467989 0.9961967 0.0467989 0.9961967 0.0467989 0.0038033 -0.0467989
2179000000 0.0037443 -0.0460735 0.9962557 0.0460735 0.9962557 0.0460735 0.0037443 -0.0460735
2200000000 0.0036876 -0.0453593 0.9963124 0.0453593 0.9963124 0.0453593 0.0036876 -0.0453593
2221000000 0.0036329 -0.0446558 0.9963671 0.0446558 0.9963671 0.0446558 0.0036329 -0.0446558
2242000000 0.0035803 -0.0439629 0.9964197 0.0439629 0.9964197 0.0439629 0.0035803 -0.0439629
2263000000 0.0035296 -0.0432801 0.9964704 0.0432801 0.9964704 0.0432801 0.0035296 -0.0432801
2284000000 0.0034807 -0.0426073 0.9965193 0.0426073 0.9965193 0.0426073 0.0034807 -0.0426073
2305000000 0.0034337 -0.0419441 0.9965663 0.0419441 0.9965663 0.0419441 0.0034337 -0.0419441
2326000000 0.0033884 -0.0412904 0.9966116 0.0412904 0.9966116 0.0412904 0.0033884 -0.0412904
2347000000 0.0033448 -0.0406458 0.9966552 0.0406458 0.9966552 0.0406458 0.0033448 -0.0406458
2368000000 0.0033029 -0.0400101 0.9966971 0.0400101 0.9966971 0.0400101 0.0033029 -0.0400101
2389000000 0.0032626 -0.0393831 0.9967374 0.0393831 0.9967374 0.0393831 0.0032626 -0.0393831
2410000000 0.0032237 -0.0387646 0.9967763 0.0387646 0.9967763 0.0387646 0.0032237 -0.0387646
2431000000 0.0031864 -0.0381543 0.9968136 0.0381543 0.9968136 0.0381543 0.0031864 -0.0381543
2452000000 0.0031505 -0.0375520 0.9968495 0.0375520 0.9968495 0.0375520 0.0031505 -0.0375520
2473000000 0.0031160 -0.0369576 0.9968840 0.0369576 0.9968840 0.0369576 0.0031160 -0.0369576
2494000000 0.0030829 -0.0363709 0.9969171 0.0363709 0.9969171 0.0363709 0.0030829 -0.0363709
2515000000 0.0030510 -0.0357916 0.9969490 0.0357916 0.9969490 0.0357916 0.0030510 -0.0357916
2536000000 0.0030205 -0.0352196 0.9969795 0.0352196 0.9969795 0.0352196 0.0030205 -0.0352196
2557000000 0.0029911 -0.0346546 0.9970089 0.0346546 0.9970089 0.0346546 0.0029911 -0.0346546
2578000000 0.0029630 -0.0340966 0.9970370 0.0340966 0.9970370 0.0340966 0.0029630 -0.0340966
2599000000 0.0029361 -0.0335454 0.9970639 0.0335454 0.9970639 0.0335454 0.0029361 -0.0335454
2620000000 0.0029102 -0.0330008 0.9970898 0.0330008 0.9970898 0.0330008 0.0029102 -0.0330008
2641000000 0.0028855 -0.0324626 0.9971145 0.0324626 0.9971145 0.0324626 0.0028855 -0.0324626
2662000000 0.0028618 -0.0319307 0.9971382 0.0319307 0.9971382 0.0319307 0.0028618 -0.0319307
2683000000 0.0028392 -0.0314050 0.9971608 0.0314050 0.9971608 0.0314050 0.0028392 -0.0314050
2704000000 0.0028176 -0.0308853 0.9971824 0.0308853 0.9971824 0.0308853 0.0028176 -0.0308853
2725000000 0.0027969 -0.0303714 0.9972031 0.0303714 0.9972031 0.0303714 0.0027969 -0.0303714
2746000000 0.0027772 -0.0298633 0.9972228 0.0298633 0.9972228 0.0298633 0.0027772 -0.0298633
2767000000 0.0027585 -0.0293609 0.9972415 0.0293609 0.9972415 0.0293609 0.0027585 -0.0293609
2788000000 0.0027406 -0.0288639 0.9972594 0.0288639 0.9972594 0.0288639 0.0027406 -0.0288639
2809000000 0.0027237 -0.0283723 0.9972763 0.0283723 0.9972763 0.0283723 0.0027237 -0.0283723
2830000000 0.0027076 -0.0278859 0.9972924 0.0278859 0.9972924 0.0278859 0.0027076 -0.0278859
2851000000 0.0026923 -0.0274047 0.9973077 0.0274047 0.9973077 0.0274047 0.0026923 -0.0274047
2872000000 0.0026778 -0.0269285 0.9973222 0.0269285 0.9973222 0.0269285 0.0026778 -0.0269285
2893000000 0.0026642 -0.0264573 0.9973358 0.0264573 0.9973358 0.0264573 0.0026642 -0.0264573
2914000000 0.0026513 -0.0259908 0.9973487 0.0259908 0.9973487 0.0259908 0.0026513 -0.0259908
2935000000 0.0026392 -0.0255291 0.9973608 0.0255291 0.9973608 0.0255291 0.0026392 -0.0255291
2956000000 0.0026278 -0.0250720 0.9973722 0.0250720 0.9973722 0.0250720 0.0026278 -0.0250720
2977000000 0.0026171 -0.0246194 0.9973829 0.0246194 0.9973829 0.0246194 0.0026171 -0.0246194
2998000000 0.0026072 -0.0241713 0.9973928 0.0241713 0.9973928 0.0241713 0.0026072 -0.0241713
3019000000 0.0025979 -0.0237274 0.9974021 0.0237274 0.9974021 0.0237274 0.0025979 -0.0237274
3040000000 0.0025893 -0.0232879 0.9974107 0.0232879 0.9974107 0.0232879 0.0025893 -0.0232879
3061000000 0.0025814 -0.0228525 0.9974186 0.0228525 0.9974186 0.0228525 0.0025814 -0.0228525
3082000000 0.0025741 -0.0224212 0.9974259 0.0224212 0.9974259 0.0224212 0.0025741 -0.0224212
3103000000 0.0025674 -0.0219939 0.9974326 0.0219939 0.9974326 0.0219939 0.0025674 -0.0219939
3124000000 0.0025613 -0.0215705 0.9974387 0.0215705 0.9974387 0.0215705 0.0025613 -0.0215705
3145000000 0.0025559 -0.0211509 0.9974441 0.0211509 0.9974441 0.0211509 0.0025559 -0.0211509
3166000000 0.0025510 -0.0207351 0.9974490 0.0207351 0.9974490 0.0207351 0.0025510 -0.0207351
3187000000 0.0025467 -0.0203231 0.9974533 0.0203231 0.9974533 0.0203231 0.0025467 -0.0203231
3208000000 0.0025430 -0.0199146 0.9974570 0.0199146 0.9974570 0.0199146 0.0025430 -0.0199146
3229000000 0.0025398 -0.0195097 0.9974602 0.0195097 0.9974602 0.0195097 0.0025398 -0.0195097
3250000000 0.0025372 -0.0191083 0.9974628 0.0191083 0.9974628 0.0191083 0.0025372 -0.0191083
3271000000 0.0025351 -0.0187104 0.9974649 0.0187104 0.9974649 0.0187104 0.0025351 -0.0187104
3292000000 0.0025335 -0.0183158 0.9974665 0.0183158 0.9974665 0.0183158 0.0025335 -0.0183158
3313000000 0.0025324 -0.0179244 0.9974676 0.0179244 0.9974676 0.0179244 0.0025324 -0.0179244
3334000000 0.0025318 -0.0175364 0.9974682 0.0175364 0.9974682 0.0175364 0.0025318 -0.0175364
3355000000 0.0025317 -0.0171515 0.9974683 0.0171515 0.9974683 0.0171515 0.0025317 -0.0171515
3376000000 0.0025321 -0.0167697 0.9974679 0.0167697 0.9974679 0.0167697 0.0025321 -0.0167697
3397000000 0.0025329 -0.0163910 0.9974671 0.0163910 0.9974671 0.0163910 0.0025329 -0.0163910
3418000000 0.0025342 -0.0160153 0.9974658 0.0160153 0.9974658 0.0160153 0.0025342 -0.0160153
3439000000 0.0025360 -0.0156426 0.9974640 0.0156426 0.9974640 0.0156426 0.0025360 -0.0156426
3460000000 0.0025382 -0.0152728 0.9974618 0.0152728 0.9974618 0.0152728 0.0025382 -0.0152728
3481000000 0.0025408 -0.0149058 0.9974592 0.0149058 0.9974592 0.0149058 0.0025408 -0.0149058
3502000000 0.0025439 -0.0145416 0.9974561 0.0145416 0.9974561 0.0145416 0.0025439 -0.0145416
3523000000 0.0025474 -0.0141802 0.9974526 0.0141802 0.9974526 0.0141802 0.0025474 -0.0141802
3544000000 0.0025513 -0.0138215 0.9974487 0.0138215 0.9974487 0.0138215 0.0025513 -0.0138215
3565000000 0.0025556 -0.0134654 0.9974444 0.0134654 0.9974444 0.0134654 0.0025556 -0.0134654
3586000000 0.0025603 -0.0131120 0.9974397 0.0131120 0.9974397 0.0131120 0.0025603 -0.0131120
3607000000 0.0025654 -0.0127611 0.9974346 0.0127611 0.9974346 0.0127611 0.0025654 -0.0127611
3628000000 0.0025708 -0.0124128 0.9974292 0.0124128 0.9974292 0.0124128 0.0025708 -0.0124128
3649000000 0.0025767 -0.0120670 0.9974233 0.0120670 0.9974233 0.0120670 0.0025767 -0.0120670
3670000000 0.0025829 -0.0117236 0.9974171 0.0117236 0.9974171 0.0117236 0.0025829 -0.0117236
3691000000 0.0025895 -0.0113826 0.9974105 0.0113826 0.9974105 0.0113826 0.0025895 -0.0113826
3712000000 0.0025964 -0.0110440 0.9974036 0.0110440 0.9974036 0.0110440 0.0025964 -0.0110440
3733000000 0.0026037 -0.0107077 0.9973963 0.0107077 0.9973963 0.0107077 0.0026037 -0.0107077
3754000000 0.0026114 -0.0103736 0.9973886 0.0103736 0.9973886 0.0103736 0.0026114 -0.0103736
3775000000 0.0026194 -0.0100419 0.9973806 0.0100419 0.9973806 0.0100419 0.0026194 -0.0100419
3796000000 0.0026277 -0.0097123 0.9973723 0.0097123 0.9973723 0.0097123 0.0026277 -0.0097123
3817000000 0.0026364 -0.0093850 0.9973636 0.0093850 0.9973636 0.0093850 0.0026364 -0.0093850
3838000000 0.0026453 -0.0090598 0.9973547 0.0090598 0.9973547 0.0090598 0.0026453 -0.0090598
3859000000 0.0026546 -0.0087367 0.9973454 0.0087367 0.9973454 0.0087367 0.0026546 -0.0087367
3880000000 0.0026643 -0.0084157 0.9973357 0.0084157 0.9973357 0.0084157 0.0026643 -0.0084157
3901000000 0.0026742 -0.0080967 0.9973258 0.0080967 0.9973258 0.0080967 0.0026742 -0.0080967
3922000000 0.0026844 -0.0077797 0.9973156 0.0077797 0.9973156 0.0077797 0.0026844 -0.0077797
3943000000 0.0026950 -0.0074648 0.9973050 0.0074648 0.9973050 0.0074648 0.0026950 -0.0074648
3964000000 0.0027058 -0.0071518 0.9972942 0.0071518 0.9972942 0.0071518 0.0027058 -0.0071518
3985000000 0.0027170 -0.0068407 0.9972830 0.0068407 0.9972830 0.0068407 0.0027170 -0.0068407
4006000000 0.0027284 -0.0065315 0.9972716 0.0065315 0.9972716 0.0065315 0.0027284 -0.0065315
4027000000 0.0027401 -0.0062242 0.9972599 0.0062242 0.9972599 0.0062242 0.0027401 -0.0062242
4048000000 0.0027521 -0.0059187 0.9972479 0.0059187 0.9972479 0.0059187 0.0027521 -0.0059187
4069000000 0.0027644 -0.0056150 0.9972356 0.0056150 0.9972356 0.0056150 0.0027644 -0.0056150
4090000000 0.0027770 -0.0053132 0.9972230 0.0053132 0.9972230 0.0053132 0.0027770 -0.0053132
4111000000 0.0027898 -0.0050130 0.9972102 0.0050130 0.9972102 0.0050130 0.0027898 -0.0050130
4132000000 0.0028029 -0.0047147 0.9971971 0.0047147 0.9971971 0.0047147 0.0028029 -0.0047147
4153000000 0.0028162 -0.0044180 0.9971838 0.0044180 0.9971838 0.0044180 0.0028162 -0.0044180
4174000000 0.0028299 -0.0041230 0.9971701 0.0041230 0.9971701 0.0041230 0.0028299 -0.0041230
4195000000 0.0028437 -0.0038297 0.9971563 0.0038297 0.9971563 0.0038297 0.0028437 -0.0038297
4216000000 0.0028579 -0.0035380 0.9971421 0.0035380 0.9971421 0.0035380 0.0028579 -0.0035380
4237000000 0.0028723 -0.0032479 0.9971277 0.0032479 0.9971277 0.0032479 0.0028723 -0.0032479
4258000000 0.0028869 -0.0029595 0.9971131 0.0029595 0.9971131 0.0029595 0.0028869 -0.0029595
4279000000 0.0029018 -0.0026725 0.9970982 0.0026725 0.9970982 0.0026725 0.0029018 -0.0026725
4300000000 0.0029169 -0.0023872 0.9970831 0.0023872 0.9970831 0.0023872 0.0029169 -0.0023872
4321000000 0.0029322 -0.0021034 0.9970678 0.0021034 0.9970678 0.0021034 0.0029322 -0.0021034
4342000000 0.0029478 -0.0018210 0.9970522 0.0018210 0.9970522 0.0018210 0.0029478 -0.0018210
4363000000 0.0029637 -0.0015402 0.9970363 0.0015402 0.9970363 0.0015402 0.0029637 -0.0015402
4384000000 0.0029797 -0.0012608 0.9970203 0.0012608 0.9970203 0.0012608 0.0029797 -0.0012608
4405000000 0.0029960 -0.0009829 0.9970040 0.0009829 0.9970040 0.0009829 0.0029960 -0.0009829
4426000000 0.0030125 -0.0007064 0.9969875 0.0007064 0.9969875 0.0007064 0.0030125 -0.0007064
4447000000 0.0030292 -0.0004313 0.9969708 0.0004313 0.9969708 0.0004313 0.0030292 -0.0004313
4468000000 0.0030462 -0.0001576 0.9969538 0.0001576 0.9969538 0.0001576 0.0030462 -0.0001576
4489000000 0.0030634 0.0001147 0.9969366 -0.0001147 0.9969366 -0.0001147 0.0030634 0.0001147
4510000000 0.0030807 0.0003857 0.9969193 -0.0003857 0.9969193 -0.0003857 0.0030807 0.0003857
