!Murata Part Number: GRM0115C1ER80BE01
!These Parameters are Measured in Series Mode Connection
!Data Generated on Mar 30, 2021
!       o--ll--o
!Port1            Port2
!       o------o
!Operation Temp=25[degC], DC Bias Voltage=0[V]
!Freq. Start=100[MHz] Stop=20[GHz] 401[Steps]
# Hz S RI R 50
!Freq.(Hz) S11(Real) S11(Imag) S21(Real) S21(Imag) S12(Real) S12(Imag) S22(Real) S22(Imag)
100000000 0.9974628 -0.0501404 0.0025372 0.0501404 0.0025372 0.0501404 0.9974628 -0.0501404
149750000 0.9943275 -0.0748538 0.0056725 0.0748538 0.0056725 0.0748538 0.9943275 -0.0748538
199500000 0.9899744 -0.0992937 0.0100256 0.0992937 0.0100256 0.0992937 0.9899744 -0.0992937
249250000 0.9844342 -0.1233743 0.0155658 0.1233743 0.0155658 0.1233743 0.9844342 -0.1233743
299000000 0.9777454 -0.1470138 0.0222546 0.1470138 0.0222546 0.1470138 0.9777454 -0.1470138
348750000 0.9699535 -0.1701356 0.0300465 0.1701356 0.0300465 0.1701356 0.9699535 -0.1701356
398500000 0.9611104 -0.1926687 0.0388896 0.1926687 0.0388896 0.1926687 0.9611104 -0.1926687
448250000 0.9512737 -0.2145485 0.0487263 0.2145485 0.0487263 0.2145485 0.9512737 -0.2145485
498000000 0.9405057 -0.2357169 0.0594943 0.2357169 0.0594943 0.2357169 0.9405057 -0.2357169
547750000 0.9288721 -0.2561234 0.0711279 0.2561234 0.0711279 0.2561234 0.9288721 -0.2561234
597500000 0.9164419 -0.2757244 0.0835581 0.2757244 0.0835581 0.2757244 0.9164419 -0.2757244
647250000 0.9032858 -0.2944837 0.0967142 0.2944837 0.0967142 0.2944837 0.9032858 -0.2944837
697000000 0.8894755 -0.3123725 0.1105245 0.3123725 0.1105245 0.3123725 0.8894755 -0.3123725
746750000 0.8750830 -0.3293691 0.1249170 0.3293691 0.1249170 0.3293691 0.8750830 -0.3293691
796500000 0.8601796 -0.3454585 0.1398204 0.3454585 0.1398204 0.3454585 0.8601796 -0.3454585
846250000 0.8448357 -0.3606324 0.1551643 0.3606324 0.1551643 0.3606324 0.8448357 -0.3606324
896000000 0.8291194 -0.3748884 0.1708806 0.3748884 0.1708806 0.3748884 0.8291194 -0.3748884
945750000 0.8130969 -0.3882296 0.1869031 0.3882296 0.1869031 0.3882296 0.8130969 -0.3882296
995500000 0.7968313 -0.4006645 0.2031687 0.4006645 0.2031687 0.4006645 0.7968313 -0.4006645
1045250000 0.7803826 -0.4122059 0.2196174 0.4122059 0.2196174 0.4122059 0.7803826 -0.4122059
1095000000 0.7638073 -0.4228707 0.2361927 0.4228707 0.2361927 0.4228707 0.7638073 -0.4228707
1144750000 0.7471585 -0.4326793 0.2528415 0.4326793 0.2528415 0.4326793 0.7471585 -0.4326793
1194500000 0.7304853 -0.4416552 0.2695147 0.4416552 0.2695147 0.4416552 0.7304853 -0.4416552
1244250000 0.7138331 -0.4498242 0.2861669 0.4498242 0.2861669 0.4498242 0.7138331 -0.4498242
1294000000 0.6972435 -0.4572143 0.3027565 0.4572143 0.3027565 0.4572143 0.6972435 -0.4572143
1343750000 0.6807543 -0.4638548 0.3192457 0.4638548 0.3192457 0.4638548 0.6807543 -0.4638548
1393500000 0.6643996 -0.4697766 0.3356004 0.4697766 0.3356004 0.4697766 0.6643996 -0.4697766
1443250000 0.6482099 -0.4750110 0.3517901 0.4750110 0.3517901 0.4750110 0.6482099 -0.4750110
1493000000 0.6322124 -0.4795899 0.3677876 0.4795899 0.3677876 0.4795899 0.6322124 -0.4795899
1542750000 0.6164308 -0.4835456 0.3835692 0.4835456 0.3835692 0.4835456 0.6164308 -0.4835456
1592500000 0.6008859 -0.4869100 0.3991141 0.4869100 0.3991141 0.4869100 0.6008859 -0.4869100
1642250000 0.5855956 -0.4897149 0.4144044 0.4897149 0.4144044 0.4897149 0.5855956 -0.4897149
1692000000 0.5705751 -0.4919916 0.4294249 0.4919916 0.4294249 0.4919916 0.5705751 -0.4919916
1741750000 0.5558370 -0.4937705 0.4441630 0.4937705 0.4441630 0.4937705 0.5558370 -0.4937705
1791500000 0.5413917 -0.4950816 0.4586083 0.4950816 0.4586083 0.4950816 0.5413917 -0.4950816
1841250000 0.5272474 -0.4959538 0.4727526 0.4959538 0.4727526 0.4959538 0.5272474 -0.4959538
1891000000 0.5134104 -0.4964149 0.4865896 0.4964149 0.4865896 0.4964149 0.5134104 -0.4964149
1940750000 0.4998854 -0.4964919 0.5001146 0.4964919 0.5001146 0.4964919 0.4998854 -0.4964919
1990500000 0.4866753 -0.4962106 0.5133247 0.4962106 0.5133247 0.4962106 0.4866753 -0.4962106
2040250000 0.4737819 -0.4955957 0.5262181 0.4955957 0.5262181 0.4955957 0.4737819 -0.4955957
2090000000 0.4612053 -0.4946707 0.5387947 0.4946707 0.5387947 0.4946707 0.4612053 -0.4946707
2139750000 0.4489449 -0.4934580 0.5510551 0.4934580 0.5510551 0.4934580 0.4489449 -0.4934580
2189500000 0.4369989 -0.4919791 0.5630011 0.4919791 0.5630011 0.4919791 0.4369989 -0.4919791
2239250000 0.4253647 -0.4902539 0.5746353 0.4902539 0.5746353 0.4902539 0.4253647 -0.4902539
2289000000 0.4140389 -0.4883017 0.5859611 0.4883017 0.5859611 0.4883017 0.4140389 -0.4883017
2338750000 0.4030177 -0.4861405 0.5969823 0.4861405 0.5969823 0.4861405 0.4030177 -0.4861405
2388500000 0.3922963 -0.4837872 0.6077037 0.4837872 0.6077037 0.4837872 0.3922963 -0.4837872
2438250000 0.3818699 -0.4812578 0.6181301 0.4812578 0.6181301 0.4812578 0.3818699 -0.4812578
2488000000 0.3717330 -0.4785674 0.6282670 0.4785674 0.6282670 0.4785674 0.3717330 -0.4785674
2537750000 0.3618799 -0.4757300 0.6381201 0.4757300 0.6381201 0.4757300 0.3618799 -0.4757300
2587500000 0.3523046 -0.4727589 0.6476954 0.4727589 0.6476954 0.4727589 0.3523046 -0.4727589
2637250000 0.3430010 -0.4696664 0.6569990 0.4696664 0.6569990 0.4696664 0.3430010 -0.4696664
2687000000 0.3339628 -0.4664641 0.6660372 0.4664641 0.6660372 0.4664641 0.3339628 -0.4664641
2736750000 0.3251834 -0.4631629 0.6748166 0.4631629 0.6748166 0.4631629 0.3251834 -0.4631629
2786500000 0.3166565 -0.4597727 0.6833435 0.4597727 0.6833435 0.4597727 0.3166565 -0.4597727
2836250000 0.3083755 -0.4563029 0.6916245 0.4563029 0.6916245 0.4563029 0.3083755 -0.4563029
2886000000 0.3003338 -0.4527624 0.6996662 0.4527624 0.6996662 0.4527624 0.3003338 -0.4527624
2935750000 0.2925249 -0.4491593 0.7074751 0.4491593 0.7074751 0.4491593 0.2925249 -0.4491593
2985500000 0.2849424 -0.4455011 0.7150576 0.4455011 0.7150576 0.4455011 0.2849424 -0.4455011
3035250000 0.2775798 -0.4417949 0.7224202 0.4417949 0.7224202 0.4417949 0.2775798 -0.4417949
3085000000 0.2704309 -0.4380471 0.7295691 0.4380471 0.7295691 0.4380471 0.2704309 -0.4380471
3134750000 0.2634893 -0.4342639 0.7365107 0.4342639 0.7365107 0.4342639 0.2634893 -0.4342639
3184500000 0.2567489 -0.4304509 0.7432511 0.4304509 0.7432511 0.4304509 0.2567489 -0.4304509
3234250000 0.2502038 -0.4266131 0.7497962 0.4266131 0.7497962 0.4266131 0.2502038 -0.4266131
3284000000 0.2438481 -0.4227555 0.7561519 0.4227555 0.7561519 0.4227555 0.2438481 -0.4227555
3333750000 0.2376758 -0.4188824 0.7623242 0.4188824 0.7623242 0.4188824 0.2376758 -0.4188824
3383500000 0.2316816 -0.4149979 0.7683184 0.4149979 0.7683184 0.4149979 0.2316816 -0.4149979
3433250000 0.2258597 -0.4111058 0.7741403 0.4111058 0.7741403 0.4111058 0.2258597 -0.4111058
3483000000 0.2202050 -0.4072095 0.7797950 0.4072095 0.7797950 0.4072095 0.2202050 -0.4072095
3532750000 0.2147121 -0.4033123 0.7852879 0.4033123 0.7852879 0.4033123 0.2147121 -0.4033123
3582500000 0.2093760 -0.3994170 0.7906240 0.3994170 0.7906240 0.3994170 0.2093760 -0.3994170
3632250000 0.2041918 -0.3955264 0.7958082 0.3955264 0.7958082 0.3955264 0.2041918 -0.3955264
3682000000 0.1991547 -0.3916429 0.8008453 0.3916429 0.8008453 0.3916429 0.1991547 -0.3916429
3731750000 0.1942601 -0.3877688 0.8057399 0.3877688 0.8057399 0.3877688 0.1942601 -0.3877688
3781500000 0.1895034 -0.3839062 0.8104966 0.3839062 0.8104966 0.3839062 0.1895034 -0.3839062
3831250000 0.1848803 -0.3800568 0.8151197 0.3800568 0.8151197 0.3800568 0.1848803 -0.3800568
3881000000 0.1803866 -0.3762225 0.8196134 0.3762225 0.8196134 0.3762225 0.1803866 -0.3762225
3930750000 0.1760181 -0.3724048 0.8239819 0.3724048 0.8239819 0.3724048 0.1760181 -0.3724048
3980500000 0.1717709 -0.3686051 0.8282291 0.3686051 0.8282291 0.3686051 0.1717709 -0.3686051
4030250000 0.1676412 -0.3648246 0.8323588 0.3648246 0.8323588 0.3648246 0.1676412 -0.3648246
4080000000 0.1636253 -0.3610646 0.8363747 0.3610646 0.8363747 0.3610646 0.1636253 -0.3610646
4129750000 0.1597195 -0.3573260 0.8402805 0.3573260 0.8402805 0.3573260 0.1597195 -0.3573260
4179500000 0.1559205 -0.3536098 0.8440795 0.3536098 0.8440795 0.3536098 0.1559205 -0.3536098
4229250000 0.1522247 -0.3499168 0.8477753 0.3499168 0.8477753 0.3499168 0.1522247 -0.3499168
4279000000 0.1486291 -0.3462478 0.8513709 0.3462478 0.8513709 0.3462478 0.1486291 -0.3462478
4328750000 0.1451305 -0.3426034 0.8548695 0.3426034 0.8548695 0.3426034 0.1451305 -0.3426034
4378500000 0.1417258 -0.3389841 0.8582742 0.3389841 0.8582742 0.3389841 0.1417258 -0.3389841
4428250000 0.1384121 -0.3353905 0.8615879 0.3353905 0.8615879 0.3353905 0.1384121 -0.3353905
4478000000 0.1351866 -0.3318230 0.8648134 0.3318230 0.8648134 0.3318230 0.1351866 -0.3318230
4527750000 0.1320467 -0.3282820 0.8679533 0.3282820 0.8679533 0.3282820 0.1320467 -0.3282820
4577500000 0.1289895 -0.3247678 0.8710105 0.3247678 0.8710105 0.3247678 0.1289895 -0.3247678
4627250000 0.1260127 -0.3212806 0.8739873 0.3212806 0.8739873 0.3212806 0.1260127 -0.3212806
4677000000 0.1231136 -0.3178207 0.8768864 0.3178207 0.8768864 0.3178207 0.1231136 -0.3178207
4726750000 0.1202901 -0.3143882 0.8797099 0.3143882 0.8797099 0.3143882 0.1202901 -0.3143882
4776500000 0.1175397 -0.3109832 0.8824603 0.3109832 0.8824603 0.3109832 0.1175397 -0.3109832
4826250000 0.1148603 -0.3076058 0.8851397 0.3076058 0.8851397 0.3076058 0.1148603 -0.3076058
4876000000 0.1122498 -0.3042561 0.8877502 0.3042561 0.8877502 0.3042561 0.1122498 -0.3042561
4925750000 0.1097060 -0.3009341 0.8902940 0.3009341 0.8902940 0.3009341 0.1097060 -0.3009341
4975500000 0.1072269 -0.2976398 0.8927731 0.2976398 0.8927731 0.2976398 0.1072269 -0.2976398
5025250000 0.1048108 -0.2943731 0.8951892 0.2943731 0.8951892 0.2943731 0.1048108 -0.2943731
5075000000 0.1024556 -0.2911339 0.8975444 0.2911339 0.8975444 0.2911339 0.1024556 -0.2911339
5124750000 0.1001596 -0.2879223 0.8998404 0.2879223 0.8998404 0.2879223 0.1001596 -0.2879223
5174500000 0.0979210 -0.2847380 0.9020790 0.2847380 0.9020790 0.2847380 0.0979210 -0.2847380
5224250000 0.0957383 -0.2815810 0.9042617 0.2815810 0.9042617 0.2815810 0.0957383 -0.2815810
5274000000 0.0936097 -0.2784510 0.9063903 0.2784510 0.9063903 0.2784510 0.0936097 -0.2784510
5323750000 0.0915337 -0.2753480 0.9084663 0.2753480 0.9084663 0.2753480 0.0915337 -0.2753480
5373500000 0.0895088 -0.2722718 0.9104912 0.2722718 0.9104912 0.2722718 0.0895088 -0.2722718
5423250000 0.0875336 -0.2692221 0.9124664 0.2692221 0.9124664 0.2692221 0.0875336 -0.2692221
5473000000 0.0856066 -0.2661989 0.9143934 0.2661989 0.9143934 0.2661989 0.0856066 -0.2661989
5522750000 0.0837264 -0.2632018 0.9162736 0.2632018 0.9162736 0.2632018 0.0837264 -0.2632018
5572500000 0.0818918 -0.2602306 0.9181082 0.2602306 0.9181082 0.2602306 0.0818918 -0.2602306
5622250000 0.0801014 -0.2572852 0.9198986 0.2572852 0.9198986 0.2572852 0.0801014 -0.2572852
5672000000 0.0783541 -0.2543653 0.9216459 0.2543653 0.9216459 0.2543653 0.0783541 -0.2543653
5721750000 0.0766486 -0.2514707 0.9233514 0.2514707 0.9233514 0.2514707 0.0766486 -0.2514707
5771500000 0.0749838 -0.2486011 0.9250162 0.2486011 0.9250162 0.2486011 0.0749838 -0.2486011
5821250000 0.0733586 -0.2457563 0.9266414 0.2457563 0.9266414 0.2457563 0.0733586 -0.2457563
5871000000 0.0717718 -0.2429359 0.9282282 0.2429359 0.9282282 0.2429359 0.0717718 -0.2429359
5920750000 0.0702226 -0.2401398 0.9297774 0.2401398 0.9297774 0.2401398 0.0702226 -0.2401398
5970500000 0.0687097 -0.2373678 0.9312903 0.2373678 0.9312903 0.2373678 0.0687097 -0.2373678
6020250000 0.0672324 -0.2346194 0.9327676 0.2346194 0.9327676 0.2346194 0.0672324 -0.2346194
6070000000 0.0657896 -0.2318946 0.9342104 0.2318946 0.9342104 0.2318946 0.0657896 -0.2318946
6119750000 0.0643803 -0.2291929 0.9356197 0.2291929 0.9356197 0.2291929 0.0643803 -0.2291929
6169500000 0.0630038 -0.2265142 0.9369962 0.2265142 0.9369962 0.2265142 0.0630038 -0.2265142
6219250000 0.0616592 -0.2238582 0.9383408 0.2238582 0.9383408 0.2238582 0.0616592 -0.2238582
6269000000 0.0603456 -0.2212245 0.9396544 0.2212245 0.9396544 0.2212245 0.0603456 -0.2212245
6318750000 0.0590623 -0.2186131 0.9409377 0.2186131 0.9409377 0.2186131 0.0590623 -0.2186131
6368500000 0.0578084 -0.2160234 0.9421916 0.2160234 0.9421916 0.2160234 0.0578084 -0.2160234
6418250000 0.0565832 -0.2134554 0.9434168 0.2134554 0.9434168 0.2134554 0.0565832 -0.2134554
6468000000 0.0553860 -0.2109088 0.9446140 0.2109088 0.9446140 0.2109088 0.0553860 -0.2109088
6517750000 0.0542160 -0.2083832 0.9457840 0.2083832 0.9457840 0.2083832 0.0542160 -0.2083832
6567500000 0.0530727 -0.2058784 0.9469273 0.2058784 0.9469273 0.2058784 0.0530727 -0.2058784
6617250000 0.0519552 -0.2033942 0.9480448 0.2033942 0.9480448 0.2033942 0.0519552 -0.2033942
6667000000 0.0508630 -0.2009302 0.9491370 0.2009302 0.9491370 0.2009302 0.0508630 -0.2009302
6716750000 0.0497955 -0.1984863 0.9502045 0.1984863 0.9502045 0.1984863 0.0497955 -0.1984863
6766500000 0.0487520 -0.1960622 0.9512480 0.1960622 0.9512480 0.1960622 0.0487520 -0.1960622
6816250000 0.0477319 -0.1936576 0.9522681 0.1936576 0.9522681 0.1936576 0.0477319 -0.1936576
6866000000 0.0467348 -0.1912723 0.9532652 0.1912723 0.9532652 0.1912723 0.0467348 -0.1912723
6915750000 0.0457599 -0.1889060 0.9542401 0.1889060 0.9542401 0.1889060 0.0457599 -0.1889060
6965500000 0.0448069 -0.1865584 0.9551931 0.1865584 0.9551931 0.1865584 0.0448069 -0.1865584
7015250000 0.0438751 -0.1842294 0.9561249 0.1842294 0.9561249 0.1842294 0.0438751 -0.1842294
7065000000 0.0429641 -0.1819187 0.9570359 0.1819187 0.9570359 0.1819187 0.0429641 -0.1819187
7114750000 0.0420734 -0.1796261 0.9579266 0.1796261 0.9579266 0.1796261 0.0420734 -0.1796261
7164500000 0.0412025 -0.1773512 0.9587975 0.1773512 0.9587975 0.1773512 0.0412025 -0.1773512
7214250000 0.0403510 -0.1750939 0.9596490 0.1750939 0.9596490 0.1750939 0.0403510 -0.1750939
7264000000 0.0395183 -0.1728540 0.9604817 0.1728540 0.9604817 0.1728540 0.0395183 -0.1728540
7313750000 0.0387041 -0.1706312 0.9612959 0.1706312 0.9612959 0.1706312 0.0387041 -0.1706312
7363500000 0.0379079 -0.1684252 0.9620921 0.1684252 0.9620921 0.1684252 0.0379079 -0.1684252
7413250000 0.0371294 -0.1662360 0.9628706 0.1662360 0.9628706 0.1662360 0.0371294 -0.1662360
7463000000 0.0363681 -0.1640632 0.9636319 0.1640632 0.9636319 0.1640632 0.0363681 -0.1640632
7512750000 0.0356237 -0.1619066 0.9643763 0.1619066 0.9643763 0.1619066 0.0356237 -0.1619066
7562500000 0.0348957 -0.1597660 0.9651043 0.1597660 0.9651043 0.1597660 0.0348957 -0.1597660
7612250000 0.0341838 -0.1576412 0.9658162 0.1576412 0.9658162 0.1576412 0.0341838 -0.1576412
7662000000 0.0334876 -0.1555321 0.9665124 0.1555321 0.9665124 0.1555321 0.0334876 -0.1555321
7711750000 0.0328069 -0.1534383 0.9671931 0.1534383 0.9671931 0.1534383 0.0328069 -0.1534383
7761500000 0.0321412 -0.1513597 0.9678588 0.1513597 0.9678588 0.1513597 0.0321412 -0.1513597
7811250000 0.0314903 -0.1492960 0.9685097 0.1492960 0.9685097 0.1492960 0.0314903 -0.1492960
7861000000 0.0308538 -0.1472472 0.9691462 0.1472472 0.9691462 0.1472472 0.0308538 -0.1472472
7910750000 0.0302314 -0.1452129 0.9697686 0.1452129 0.9697686 0.1452129 0.0302314 -0.1452129
7960500000 0.0296228 -0.1431931 0.9703772 0.1431931 0.9703772 0.1431931 0.0296228 -0.1431931
8010250000 0.0290277 -0.1411874 0.9709723 0.1411874 0.9709723 0.1411874 0.0290277 -0.1411874
8060000000 0.0284459 -0.1391958 0.9715541 0.1391958 0.9715541 0.1391958 0.0284459 -0.1391958
8109750000 0.0278770 -0.1372180 0.9721230 0.1372180 0.9721230 0.1372180 0.0278770 -0.1372180
8159500000 0.0273208 -0.1352539 0.9726792 0.1352539 0.9726792 0.1352539 0.0273208 -0.1352539
8209250000 0.0267771 -0.1333032 0.9732229 0.1333032 0.9732229 0.1333032 0.0267771 -0.1333032
8259000000 0.0262455 -0.1313659 0.9737545 0.1313659 0.9737545 0.1313659 0.0262455 -0.1313659
8308750000 0.0257258 -0.1294416 0.9742742 0.1294416 0.9742742 0.1294416 0.0257258 -0.1294416
8358500000 0.0252178 -0.1275304 0.9747822 0.1275304 0.9747822 0.1275304 0.0252178 -0.1275304
8408250000 0.0247213 -0.1256319 0.9752787 0.1256319 0.9752787 0.1256319 0.0247213 -0.1256319
8458000000 0.0242360 -0.1237460 0.9757640 0.1237460 0.9757640 0.1237460 0.0242360 -0.1237460
8507750000 0.0237617 -0.1218726 0.9762383 0.1218726 0.9762383 0.1218726 0.0237617 -0.1218726
8557500000 0.0232981 -0.1200115 0.9767019 0.1200115 0.9767019 0.1200115 0.0232981 -0.1200115
8607250000 0.0228452 -0.1181625 0.9771548 0.1181625 0.9771548 0.1181625 0.0228452 -0.1181625
8657000000 0.0224026 -0.1163255 0.9775974 0.1163255 0.9775974 0.1163255 0.0224026 -0.1163255
8706750000 0.0219701 -0.1145004 0.9780299 0.1145004 0.9780299 0.1145004 0.0219701 -0.1145004
8756500000 0.0215476 -0.1126869 0.9784524 0.1126869 0.9784524 0.1126869 0.0215476 -0.1126869
8806250000 0.0211349 -0.1108849 0.9788651 0.1108849 0.9788651 0.1108849 0.0211349 -0.1108849
8856000000 0.0207317 -0.1090944 0.9792683 0.1090944 0.9792683 0.1090944 0.0207317 -0.1090944
8905750000 0.0203380 -0.1073150 0.9796620 0.1073150 0.9796620 0.1073150 0.0203380 -0.1073150
8955500000 0.0199535 -0.1055468 0.9800465 0.1055468 0.9800465 0.1055468 0.0199535 -0.1055468
9005250000 0.0195780 -0.1037895 0.9804220 0.1037895 0.9804220 0.1037895 0.0195780 -0.1037895
9055000000 0.0192114 -0.1020431 0.9807886 0.1020431 0.9807886 0.1020431 0.0192114 -0.1020431
9104750000 0.0188536 -0.1003073 0.9811464 0.1003073 0.9811464 0.1003073 0.0188536 -0.1003073
9154500000 0.0185042 -0.0985821 0.9814958 0.0985821 0.9814958 0.0985821 0.0185042 -0.0985821
9204250000 0.0181633 -0.0968673 0.9818367 0.0968673 0.9818367 0.0968673 0.0181633 -0.0968673
9254000000 0.0178307 -0.0951628 0.9821693 0.0951628 0.9821693 0.0951628 0.0178307 -0.0951628
9303750000 0.0175061 -0.0934684 0.9824939 0.0934684 0.9824939 0.0934684 0.0175061 -0.0934684
9353500000 0.0171896 -0.0917841 0.9828104 0.0917841 0.9828104 0.0917841 0.0171896 -0.0917841
9403250000 0.0168808 -0.0901097 0.9831192 0.0901097 0.9831192 0.0901097 0.0168808 -0.0901097
9453000000 0.0165797 -0.0884451 0.9834203 0.0884451 0.9834203 0.0884451 0.0165797 -0.0884451
9502750000 0.0162861 -0.0867902 0.9837139 0.0867902 0.9837139 0.0867902 0.0162861 -0.0867902
9552500000 0.0160000 -0.0851448 0.9840000 0.0851448 0.9840000 0.0851448 0.0160000 -0.0851448
9602250000 0.0157211 -0.0835088 0.9842789 0.0835088 0.9842789 0.0835088 0.0157211 -0.0835088
9652000000 0.0154494 -0.0818822 0.9845506 0.0818822 0.9845506 0.0818822 0.0154494 -0.0818822
9701750000 0.0151847 -0.0802648 0.9848153 0.0802648 0.9848153 0.0802648 0.0151847 -0.0802648
9751500000 0.0149269 -0.0786564 0.9850731 0.0786564 0.9850731 0.0786564 0.0149269 -0.0786564
9801250000 0.0146759 -0.0770571 0.9853241 0.0770571 0.9853241 0.0770571 0.0146759 -0.0770571
9851000000 0.0144316 -0.0754667 0.9855684 0.0754667 0.9855684 0.0754667 0.0144316 -0.0754667
9900750000 0.0141939 -0.0738850 0.9858061 0.0738850 0.9858061 0.0738850 0.0141939 -0.0738850
9950500000 0.0139626 -0.0723120 0.9860374 0.0723120 0.9860374 0.0723120 0.0139626 -0.0723120
10000250000 0.0137377 -0.0707476 0.9862623 0.0707476 0.9862623 0.0707476 0.0137377 -0.0707476
10050000000 0.0135190 -0.0691916 0.9864810 0.0691916 0.9864810 0.0691916 0.0135190 -0.0691916
10099750000 0.0133064 -0.0676440 0.9866936 0.0676440 0.9866936 0.0676440 0.0133064 -0.0676440
10149500000 0.0130999 -0.0661047 0.9869001 0.0661047 0.9869001 0.0661047 0.0130999 -0.0661047
10199250000 0.0128994 -0.0645736 0.9871006 0.0645736 0.9871006 0.0645736 0.0128994 -0.0645736
10249000000 0.0127047 -0.0630505 0.9872953 0.0630505 0.9872953 0.0630505 0.0127047 -0.0630505
10298750000 0.0125158 -0.0615354 0.9874842 0.0615354 0.9874842 0.0615354 0.0125158 -0.0615354
10348500000 0.0123325 -0.0600283 0.9876675 0.0600283 0.9876675 0.0600283 0.0123325 -0.0600283
10398250000 0.0121548 -0.0585289 0.9878452 0.0585289 0.9878452 0.0585289 0.0121548 -0.0585289
10448000000 0.0119826 -0.0570372 0.9880174 0.0570372 0.9880174 0.0570372 0.0119826 -0.0570372
10497750000 0.0118158 -0.0555532 0.9881842 0.0555532 0.9881842 0.0555532 0.0118158 -0.0555532
