!Murata Part Number: GRM0115C1E101GE01
!These Parameters are Measured in Series Mode Connection
!Data Generated on Mar 30, 2021
!       o--ll--o
!Port1            Port2
!       o------o
!Operation Temp=25[degC], DC Bias Voltage=0[V]
!Freq. Start=100[MHz] Stop=9[GHz] 401[Steps]
# Hz S RI R 50
!Freq.(Hz) S11(Real) S11(Imag) S21(Real) S21(Imag) S12(Real) S12(Imag) S22(Real) S22(Imag)
100000000 0.0252614 -0.1542873 0.9747386 0.1542873 0.9747386 0.1542873 0.0252614 -0.1542873
121000000 0.0175806 -0.1282376 0.9824194 0.1282376 0.9824194 0.1282376 0.0175806 -0.1282376
142000000 0.0129915 -0.1095009 0.9870085 0.1095009 0.9870085 0.1095009 0.0129915 -0.1095009
163000000 0.0100373 -0.0953927 0.9899627 0.0953927 0.9899627 0.0953927 0.0100373 -0.0953927
184000000 0.0080266 -0.0843881 0.9919734 0.0843881 0.9919734 0.0843881 0.0080266 -0.0843881
205000000 0.0065977 -0.0755613 0.9934023 0.0755613 0.9934023 0.0755613 0.0065977 -0.0755613
226000000 0.0055468 -0.0683197 0.9944532 0.0683197 0.9944532 0.0683197 0.0055468 -0.0683197
247000000 0.0047520 -0.0622667 0.9952480 0.0622667 0.9952480 0.0622667 0.0047520 -0.0622667
268000000 0.0041370 -0.0571275 0.9958630 0.0571275 0.9958630 0.0571275 0.0041370 -0.0571275
289000000 0.0036517 -0.0527057 0.9963483 0.0527057 0.9963483 0.0527057 0.0036517 -0.0527057
310000000 0.0032625 -0.0488572 0.9967375 0.0488572 0.9967375 0.0488572 0.0032625 -0.0488572
331000000 0.0029460 -0.0454739 0.9970540 0.0454739 0.9970540 0.0454739 0.0029460 -0.0454739
352000000 0.0026855 -0.0424735 0.9973145 0.0424735 0.9973145 0.0424735 0.0026855 -0.0424735
373000000 0.0024688 -0.0397918 0.9975312 0.0397918 0.9975312 0.0397918 0.0024688 -0.0397918
394000000 0.0022870 -0.0373781 0.9977130 0.0373781 0.9977130 0.0373781 0.0022870 -0.0373781
415000000 0.0021332 -0.0351921 0.9978668 0.0351921 0.9978668 0.0351921 0.0021332 -0.0351921
436000000 0.0020024 -0.0332011 0.9979976 0.0332011 0.9979976 0.0332011 0.0020024 -0.0332011
457000000 0.0018903 -0.0313783 0.9981097 0.0313783 0.9981097 0.0313783 0.0018903 -0.0313783
478000000 0.0017939 -0.0297017 0.9982061 0.0297017 0.9982061 0.0297017 0.0017939 -0.0297017
499000000 0.0017106 -0.0281530 0.9982894 0.0281530 0.9982894 0.0281530 0.0017106 -0.0281530
520000000 0.0016385 -0.0267166 0.9983615 0.0267166 0.9983615 0.0267166 0.0016385 -0.0267166
541000000 0.0015758 -0.0253796 0.9984242 0.0253796 0.9984242 0.0253796 0.0015758 -0.0253796
562000000 0.0015212 -0.0241309 0.9984788 0.0241309 0.9984788 0.0241309 0.0015212 -0.0241309
583000000 0.0014737 -0.0229609 0.9985263 0.0229609 0.9985263 0.0229609 0.0014737 -0.0229609
604000000 0.0014322 -0.0218616 0.9985678 0.0218616 0.9985678 0.0218616 0.0014322 -0.0218616
625000000 0.0013961 -0.0208258 0.9986039 0.0208258 0.9986039 0.0208258 0.0013961 -0.0208258
646000000 0.0013647 -0.0198473 0.9986353 0.0198473 0.9986353 0.0198473 0.0013647 -0.0198473
667000000 0.0013375 -0.0189208 0.9986625 0.0189208 0.9986625 0.0189208 0.0013375 -0.0189208
688000000 0.0013140 -0.0180414 0.9986860 0.0180414 0.9986860 0.0180414 0.0013140 -0.0180414
709000000 0.0012937 -0.0172052 0.9987063 0.0172052 0.9987063 0.0172052 0.0012937 -0.0172052
730000000 0.0012765 -0.0164082 0.9987235 0.0164082 0.9987235 0.0164082 0.0012765 -0.0164082
751000000 0.0012619 -0.0156474 0.9987381 0.0156474 0.9987381 0.0156474 0.0012619 -0.0156474
772000000 0.0012497 -0.0149196 0.9987503 0.0149196 0.9987503 0.0149196 0.0012497 -0.0149196
793000000 0.0012397 -0.0142224 0.9987603 0.0142224 0.9987603 0.0142224 0.0012397 -0.0142224
814000000 0.0012317 -0.0135533 0.9987683 0.0135533 0.9987683 0.0135533 0.0012317 -0.0135533
835000000 0.0012255 -0.0129103 0.9987745 0.0129103 0.9987745 0.0129103 0.0012255 -0.0129103
856000000 0.0012210 -0.0122915 0.9987790 0.0122915 0.9987790 0.0122915 0.0012210 -0.0122915
877000000 0.0012181 -0.0116950 0.9987819 0.0116950 0.9987819 0.0116950 0.0012181 -0.0116950
898000000 0.0012166 -0.0111195 0.9987834 0.0111195 0.9987834 0.0111195 0.0012166 -0.0111195
919000000 0.0012165 -0.0105634 0.9987835 0.0105634 0.9987835 0.0105634 0.0012165 -0.0105634
940000000 0.0012176 -0.0100254 0.9987824 0.0100254 0.9987824 0.0100254 0.0012176 -0.0100254
961000000 0.0012198 -0.0095044 0.9987802 0.0095044 0.9987802 0.0095044 0.0012198 -0.0095044
982000000 0.0012231 -0.0089993 0.9987769 0.0089993 0.9987769 0.0089993 0.0012231 -0.0089993
1003000000 0.0012275 -0.0085092 0.9987725 0.0085092 0.9987725 0.0085092 0.0012275 -0.0085092
1024000000 0.0012328 -0.0080330 0.9987672 0.0080330 0.9987672 0.0080330 0.0012328 -0.0080330
1045000000 0.0012390 -0.0075700 0.9987610 0.0075700 0.9987610 0.0075700 0.0012390 -0.0075700
1066000000 0.0012461 -0.0071194 0.9987539 0.0071194 0.9987539 0.0071194 0.0012461 -0.0071194
1087000000 0.0012539 -0.0066805 0.9987461 0.0066805 0.9987461 0.0066805 0.0012539 -0.0066805
1108000000 0.0012626 -0.0062526 0.9987374 0.0062526 0.9987374 0.0062526 0.0012626 -0.0062526
1129000000 0.0012719 -0.0058352 0.9987281 0.0058352 0.9987281 0.0058352 0.0012719 -0.0058352
1150000000 0.0012820 -0.0054277 0.9987180 0.0054277 0.9987180 0.0054277 0.0012820 -0.0054277
1171000000 0.0012928 -0.0050295 0.9987072 0.0050295 0.9987072 0.0050295 0.0012928 -0.0050295
1192000000 0.0013042 -0.0046401 0.9986958 0.0046401 0.9986958 0.0046401 0.0013042 -0.0046401
1213000000 0.0013162 -0.0042592 0.9986838 0.0042592 0.9986838 0.0042592 0.0013162 -0.0042592
1234000000 0.0013288 -0.0038863 0.9986712 0.0038863 0.9986712 0.0038863 0.0013288 -0.0038863
1255000000 0.0013419 -0.0035210 0.9986581 0.0035210 0.9986581 0.0035210 0.0013419 -0.0035210
1276000000 0.0013556 -0.0031629 0.9986444 0.0031629 0.9986444 0.0031629 0.0013556 -0.0031629
1297000000 0.0013699 -0.0028117 0.9986301 0.0028117 0.9986301 0.0028117 0.0013699 -0.0028117
1318000000 0.0013846 -0.0024671 0.9986154 0.0024671 0.9986154 0.0024671 0.0013846 -0.0024671
1339000000 0.0013998 -0.0021288 0.9986002 0.0021288 0.9986002 0.0021288 0.0013998 -0.0021288
1360000000 0.0014156 -0.0017965 0.9985844 0.0017965 0.9985844 0.0017965 0.0014156 -0.0017965
1381000000 0.0014318 -0.0014699 0.9985682 0.0014699 0.9985682 0.0014699 0.0014318 -0.0014699
1402000000 0.0014484 -0.0011488 0.9985516 0.0011488 0.9985516 0.0011488 0.0014484 -0.0011488
1423000000 0.0014655 -0.0008329 0.9985345 0.0008329 0.9985345 0.0008329 0.0014655 -0.0008329
1444000000 0.0014830 -0.0005221 0.9985170 0.0005221 0.9985170 0.0005221 0.0014830 -0.0005221
1465000000 0.0015009 -0.0002161 0.9984991 0.0002161 0.9984991 0.0002161 0.0015009 -0.0002161
1486000000 0.0015192 0.0000853 0.9984808 -0.0000853 0.9984808 -0.0000853 0.0015192 0.0000853
1507000000 0.0015379 0.0003823 0.9984621 -0.0003823 0.9984621 -0.0003823 0.0015379 0.0003823
1528000000 0.0015570 0.0006749 0.9984430 -0.0006749 0.9984430 -0.0006749 0.0015570 0.0006749
1549000000 0.0015765 0.0009635 0.9984235 -0.0009635 0.9984235 -0.0009635 0.0015765 0.0009635
1570000000 0.0015964 0.0012481 0.9984036 -0.0012481 0.9984036 -0.0012481 0.0015964 0.0012481
1591000000 0.0016166 0.0015289 0.9983834 -0.0015289 0.9983834 -0.0015289 0.0016166 0.0015289
1612000000 0.0016371 0.0018061 0.9983629 -0.0018061 0.9983629 -0.0018061 0.0016371 0.0018061
1633000000 0.0016581 0.0020797 0.9983419 -0.0020797 0.9983419 -0.0020797 0.0016581 0.0020797
1654000000 0.0016793 0.0023499 0.9983207 -0.0023499 0.9983207 -0.0023499 0.0016793 0.0023499
1675000000 0.0017009 0.0026169 0.9982991 -0.0026169 0.9982991 -0.0026169 0.0017009 0.0026169
1696000000 0.0017228 0.0028807 0.9982772 -0.0028807 0.9982772 -0.0028807 0.0017228 0.0028807
1717000000 0.0017450 0.0031414 0.9982550 -0.0031414 0.9982550 -0.0031414 0.0017450 0.0031414
1738000000 0.0017676 0.0033991 0.9982324 -0.0033991 0.9982324 -0.0033991 0.0017676 0.0033991
1759000000 0.0017904 0.0036540 0.9982096 -0.0036540 0.9982096 -0.0036540 0.0017904 0.0036540
1780000000 0.0018135 0.0039062 0.9981865 -0.0039062 0.9981865 -0.0039062 0.0018135 0.0039062
1801000000 0.0018370 0.0041556 0.9981630 -0.0041556 0.9981630 -0.0041556 0.0018370 0.0041556
1822000000 0.0018607 0.0044025 0.9981393 -0.0044025 0.9981393 -0.0044025 0.0018607 0.0044025
1843000000 0.0018847 0.0046468 0.9981153 -0.0046468 0.9981153 -0.0046468 0.0018847 0.0046468
1864000000 0.0019090 0.0048887 0.9980910 -0.0048887 0.9980910 -0.0048887 0.0019090 0.0048887
1885000000 0.0019336 0.0051282 0.9980664 -0.0051282 0.9980664 -0.0051282 0.0019336 0.0051282
1906000000 0.0019585 0.0053655 0.9980415 -0.0053655 0.9980415 -0.0053655 0.0019585 0.0053655
1927000000 0.0019836 0.0056005 0.9980164 -0.0056005 0.9980164 -0.0056005 0.0019836 0.0056005
1948000000 0.0020090 0.0058334 0.9979910 -0.0058334 0.9979910 -0.0058334 0.0020090 0.0058334
1969000000 0.0020346 0.0060641 0.9979654 -0.0060641 0.9979654 -0.0060641 0.0020346 0.0060641
1990000000 0.0020605 0.0062928 0.9979395 -0.0062928 0.9979395 -0.0062928 0.0020605 0.0062928
2011000000 0.0020867 0.0065195 0.9979133 -0.0065195 0.9979133 -0.0065195 0.0020867 0.0065195
2032000000 0.0021131 0.0067443 0.9978869 -0.0067443 0.9978869 -0.0067443 0.0021131 0.0067443
2053000000 0.0021397 0.0069673 0.9978603 -0.0069673 0.9978603 -0.0069673 0.0021397 0.0069673
2074000000 0.0021666 0.0071884 0.9978334 -0.0071884 0.9978334 -0.0071884 0.0021666 0.0071884
2095000000 0.0021937 0.0074077 0.9978063 -0.0074077 0.9978063 -0.0074077 0.0021937 0.0074077
2116000000 0.0022211 0.0076252 0.9977789 -0.0076252 0.9977789 -0.0076252 0.0022211 0.0076252
2137000000 0.0022487 0.0078411 0.9977513 -0.0078411 0.9977513 -0.0078411 0.0022487 0.0078411
2158000000 0.0022765 0.0080553 0.9977235 -0.0080553 0.9977235 -0.0080553 0.0022765 0.0080553
2179000000 0.0023045 0.0082680 0.9976955 -0.0082680 0.9976955 -0.0082680 0.0023045 0.0082680
2200000000 0.0023327 0.0084790 0.9976673 -0.0084790 0.9976673 -0.0084790 0.0023327 0.0084790
2221000000 0.0023612 0.0086885 0.9976388 -0.0086885 0.9976388 -0.0086885 0.0023612 0.0086885
2242000000 0.0023899 0.0088965 0.9976101 -0.0088965 0.9976101 -0.0088965 0.0023899 0.0088965
2263000000 0.0024188 0.0091031 0.9975812 -0.0091031 0.9975812 -0.0091031 0.0024188 0.0091031
2284000000 0.0024479 0.0093082 0.9975521 -0.0093082 0.9975521 -0.0093082 0.0024479 0.0093082
2305000000 0.0024772 0.0095120 0.9975228 -0.0095120 0.9975228 -0.0095120 0.0024772 0.0095120
2326000000 0.0025066 0.0097143 0.9974934 -0.0097143 0.9974934 -0.0097143 0.0025066 0.0097143
2347000000 0.0025363 0.0099154 0.9974637 -0.0099154 0.9974637 -0.0099154 0.0025363 0.0099154
2368000000 0.0025662 0.0101151 0.9974338 -0.0101151 0.9974338 -0.0101151 0.0025662 0.0101151
2389000000 0.0025963 0.0103136 0.9974037 -0.0103136 0.9974037 -0.0103136 0.0025963 0.0103136
2410000000 0.0026266 0.0105108 0.9973734 -0.0105108 0.9973734 -0.0105108 0.0026266 0.0105108
2431000000 0.0026570 0.0107067 0.9973430 -0.0107067 0.9973430 -0.0107067 0.0026570 0.0107067
2452000000 0.0026876 0.0109015 0.9973124 -0.0109015 0.9973124 -0.0109015 0.0026876 0.0109015
2473000000 0.0027184 0.0110951 0.9972816 -0.0110951 0.9972816 -0.0110951 0.0027184 0.0110951
2494000000 0.0027494 0.0112876 0.9972506 -0.0112876 0.9972506 -0.0112876 0.0027494 0.0112876
2515000000 0.0027806 0.0114789 0.9972194 -0.0114789 0.9972194 -0.0114789 0.0027806 0.0114789
2536000000 0.0028119 0.0116691 0.9971881 -0.0116691 0.9971881 -0.0116691 0.0028119 0.0116691
2557000000 0.0028434 0.0118583 0.9971566 -0.0118583 0.9971566 -0.0118583 0.0028434 0.0118583
2578000000 0.0028751 0.0120463 0.9971249 -0.0120463 0.9971249 -0.0120463 0.0028751 0.0120463
2599000000 0.0029069 0.0122333 0.9970931 -0.0122333 0.9970931 -0.0122333 0.0029069 0.0122333
2620000000 0.0029389 0.0124193 0.9970611 -0.0124193 0.9970611 -0.0124193 0.0029389 0.0124193
2641000000 0.0029710 0.0126043 0.9970290 -0.0126043 0.9970290 -0.0126043 0.0029710 0.0126043
2662000000 0.0030033 0.0127883 0.9969967 -0.0127883 0.9969967 -0.0127883 0.0030033 0.0127883
2683000000 0.0030358 0.0129714 0.9969642 -0.0129714 0.9969642 -0.0129714 0.0030358 0.0129714
2704000000 0.0030684 0.0131534 0.9969316 -0.0131534 0.9969316 -0.0131534 0.0030684 0.0131534
2725000000 0.0031011 0.0133346 0.9968989 -0.0133346 0.9968989 -0.0133346 0.0031011 0.0133346
2746000000 0.0031340 0.0135148 0.9968660 -0.0135148 0.9968660 -0.0135148 0.0031340 0.0135148
2767000000 0.0031671 0.0136941 0.9968329 -0.0136941 0.9968329 -0.0136941 0.0031671 0.0136941
2788000000 0.0032002 0.0138725 0.9967998 -0.0138725 0.9967998 -0.0138725 0.0032002 0.0138725
2809000000 0.0032336 0.0140501 0.9967664 -0.0140501 0.9967664 -0.0140501 0.0032336 0.0140501
2830000000 0.0032670 0.0142267 0.9967330 -0.0142267 0.9967330 -0.0142267 0.0032670 0.0142267
2851000000 0.0033006 0.0144026 0.9966994 -0.0144026 0.9966994 -0.0144026 0.0033006 0.0144026
2872000000 0.0033343 0.0145776 0.9966657 -0.0145776 0.9966657 -0.0145776 0.0033343 0.0145776
2893000000 0.0033681 0.0147517 0.9966319 -0.0147517 0.9966319 -0.0147517 0.0033681 0.0147517
2914000000 0.0034021 0.0149251 0.9965979 -0.0149251 0.9965979 -0.0149251 0.0034021 0.0149251
2935000000 0.0034362 0.0150977 0.9965638 -0.0150977 0.9965638 -0.0150977 0.0034362 0.0150977
2956000000 0.0034704 0.0152695 0.9965296 -0.0152695 0.9965296 -0.0152695 0.0034704 0.0152695
2977000000 0.0035047 0.0154405 0.9964953 -0.0154405 0.9964953 -0.0154405 0.0035047 0.0154405
2998000000 0.0035392 0.0156107 0.9964608 -0.0156107 0.9964608 -0.0156107 0.0035392 0.0156107
3019000000 0.0035737 0.0157802 0.9964263 -0.0157802 0.9964263 -0.0157802 0.0035737 0.0157802
3040000000 0.0036084 0.0159490 0.9963916 -0.0159490 0.9963916 -0.0159490 0.0036084 0.0159490
3061000000 0.0036432 0.0161171 0.9963568 -0.0161171 0.9963568 -0.0161171 0.0036432 0.0161171
3082000000 0.0036781 0.0162844 0.9963219 -0.0162844 0.9963219 -0.0162844 0.0036781 0.0162844
3103000000 0.0037130 0.0164510 0.9962870 -0.0164510 0.9962870 -0.0164510 0.0037130 0.0164510
3124000000 0.0037481 0.0166169 0.9962519 -0.0166169 0.9962519 -0.0166169 0.0037481 0.0166169
3145000000 0.0037833 0.0167821 0.9962167 -0.0167821 0.9962167 -0.0167821 0.0037833 0.0167821
3166000000 0.0038186 0.0169467 0.9961814 -0.0169467 0.9961814 -0.0169467 0.0038186 0.0169467
3187000000 0.0038540 0.0171105 0.9961460 -0.0171105 0.9961460 -0.0171105 0.0038540 0.0171105
3208000000 0.0038895 0.0172738 0.9961105 -0.0172738 0.9961105 -0.0172738 0.0038895 0.0172738
3229000000 0.0039251 0.0174363 0.9960749 -0.0174363 0.9960749 -0.0174363 0.0039251 0.0174363
3250000000 0.0039607 0.0175982 0.9960393 -0.0175982 0.9960393 -0.0175982 0.0039607 0.0175982
3271000000 0.0039965 0.0177595 0.9960035 -0.0177595 0.9960035 -0.0177595 0.0039965 0.0177595
3292000000 0.0040323 0.0179202 0.9959677 -0.0179202 0.9959677 -0.0179202 0.0040323 0.0179202
3313000000 0.0040683 0.0180802 0.9959317 -0.0180802 0.9959317 -0.0180802 0.0040683 0.0180802
3334000000 0.0041043 0.0182396 0.9958957 -0.0182396 0.9958957 -0.0182396 0.0041043 0.0182396
3355000000 0.0041404 0.0183985 0.9958596 -0.0183985 0.9958596 -0.0183985 0.0041404 0.0183985
3376000000 0.0041765 0.0185567 0.9958235 -0.0185567 0.9958235 -0.0185567 0.0041765 0.0185567
3397000000 0.0042128 0.0187143 0.9957872 -0.0187143 0.9957872 -0.0187143 0.0042128 0.0187143
3418000000 0.0042491 0.0188714 0.9957509 -0.0188714 0.9957509 -0.0188714 0.0042491 0.0188714
3439000000 0.0042855 0.0190279 0.9957145 -0.0190279 0.9957145 -0.0190279 0.0042855 0.0190279
3460000000 0.0043220 0.0191838 0.9956780 -0.0191838 0.9956780 -0.0191838 0.0043220 0.0191838
3481000000 0.0043585 0.0193391 0.9956415 -0.0193391 0.9956415 -0.0193391 0.0043585 0.0193391
3502000000 0.0043951 0.0194939 0.9956049 -0.0194939 0.9956049 -0.0194939 0.0043951 0.0194939
3523000000 0.0044317 0.0196481 0.9955683 -0.0196481 0.9955683 -0.0196481 0.0044317 0.0196481
3544000000 0.0044685 0.0198018 0.9955315 -0.0198018 0.9955315 -0.0198018 0.0044685 0.0198018
3565000000 0.0045053 0.0199550 0.9954947 -0.0199550 0.9954947 -0.0199550 0.0045053 0.0199550
3586000000 0.0045421 0.0201076 0.9954579 -0.0201076 0.9954579 -0.0201076 0.0045421 0.0201076
3607000000 0.0045790 0.0202598 0.9954210 -0.0202598 0.9954210 -0.0202598 0.0045790 0.0202598
3628000000 0.0046160 0.0204113 0.9953840 -0.0204113 0.9953840 -0.0204113 0.0046160 0.0204113
3649000000 0.0046530 0.0205624 0.9953470 -0.0205624 0.9953470 -0.0205624 0.0046530 0.0205624
3670000000 0.0046900 0.0207130 0.9953100 -0.0207130 0.9953100 -0.0207130 0.0046900 0.0207130
3691000000 0.0047272 0.0208631 0.9952728 -0.0208631 0.9952728 -0.0208631 0.0047272 0.0208631
3712000000 0.0047643 0.0210126 0.9952357 -0.0210126 0.9952357 -0.0210126 0.0047643 0.0210126
3733000000 0.0048015 0.0211617 0.9951985 -0.0211617 0.9951985 -0.0211617 0.0048015 0.0211617
3754000000 0.0048388 0.0213103 0.9951612 -0.0213103 0.9951612 -0.0213103 0.0048388 0.0213103
3775000000 0.0048761 0.0214584 0.9951239 -0.0214584 0.9951239 -0.0214584 0.0048761 0.0214584
3796000000 0.0049134 0.0216061 0.9950866 -0.0216061 0.9950866 -0.0216061 0.0049134 0.0216061
3817000000 0.0049508 0.0217533 0.9950492 -0.0217533 0.9950492 -0.0217533 0.0049508 0.0217533
3838000000 0.0049883 0.0219000 0.9950117 -0.0219000 0.9950117 -0.0219000 0.0049883 0.0219000
3859000000 0.0050257 0.0220462 0.9949743 -0.0220462 0.9949743 -0.0220462 0.0050257 0.0220462
3880000000 0.0050632 0.0221920 0.9949368 -0.0221920 0.9949368 -0.0221920 0.0050632 0.0221920
3901000000 0.0051008 0.0223373 0.9948992 -0.0223373 0.9948992 -0.0223373 0.0051008 0.0223373
3922000000 0.0051383 0.0224822 0.9948617 -0.0224822 0.9948617 -0.0224822 0.0051383 0.0224822
3943000000 0.0051759 0.0226267 0.9948241 -0.0226267 0.9948241 -0.0226267 0.0051759 0.0226267
3964000000 0.0052135 0.0227707 0.9947865 -0.0227707 0.9947865 -0.0227707 0.0052135 0.0227707
3985000000 0.0052512 0.0229143 0.9947488 -0.0229143 0.9947488 -0.0229143 0.0052512 0.0229143
4006000000 0.0052889 0.0230574 0.9947111 -0.0230574 0.9947111 -0.0230574 0.0052889 0.0230574
4027000000 0.0053266 0.0232001 0.9946734 -0.0232001 0.9946734 -0.0232001 0.0053266 0.0232001
4048000000 0.0053643 0.0233424 0.9946357 -0.0233424 0.9946357 -0.0233424 0.0053643 0.0233424
4069000000 0.0054021 0.0234843 0.9945979 -0.0234843 0.9945979 -0.0234843 0.0054021 0.0234843
4090000000 0.0054398 0.0236258 0.9945602 -0.0236258 0.9945602 -0.0236258 0.0054398 0.0236258
4111000000 0.0054776 0.0237668 0.9945224 -0.0237668 0.9945224 -0.0237668 0.0054776 0.0237668
4132000000 0.0055154 0.0239075 0.9944846 -0.0239075 0.9944846 -0.0239075 0.0055154 0.0239075
4153000000 0.0055533 0.0240478 0.9944467 -0.0240478 0.9944467 -0.0240478 0.0055533 0.0240478
4174000000 0.0055911 0.0241876 0.9944089 -0.0241876 0.9944089 -0.0241876 0.0055911 0.0241876
4195000000 0.0056290 0.0243271 0.9943710 -0.0243271 0.9943710 -0.0243271 0.0056290 0.0243271
4216000000 0.0056668 0.0244662 0.9943332 -0.0244662 0.9943332 -0.0244662 0.0056668 0.0244662
4237000000 0.0057047 0.0246049 0.9942953 -0.0246049 0.9942953 -0.0246049 0.0057047 0.0246049
4258000000 0.0057426 0.0247432 0.9942574 -0.0247432 0.9942574 -0.0247432 0.0057426 0.0247432
4279000000 0.0057805 0.0248811 0.9942195 -0.0248811 0.9942195 -0.0248811 0.0057805 0.0248811
4300000000 0.0058184 0.0250187 0.9941816 -0.0250187 0.9941816 -0.0250187 0.0058184 0.0250187
4321000000 0.0058563 0.0251558 0.9941437 -0.0251558 0.9941437 -0.0251558 0.0058563 0.0251558
4342000000 0.0058943 0.0252927 0.9941057 -0.0252927 0.9941057 -0.0252927 0.0058943 0.0252927
4363000000 0.0059322 0.0254291 0.9940678 -0.0254291 0.9940678 -0.0254291 0.0059322 0.0254291
4384000000 0.0059701 0.0255652 0.9940299 -0.0255652 0.9940299 -0.0255652 0.0059701 0.0255652
4405000000 0.0060080 0.0257009 0.9939920 -0.0257009 0.9939920 -0.0257009 0.0060080 0.0257009
4426000000 0.0060460 0.0258363 0.9939540 -0.0258363 0.9939540 -0.0258363 0.0060460 0.0258363
4447000000 0.0060839 0.0259713 0.9939161 -0.0259713 0.9939161 -0.0259713 0.0060839 0.0259713
4468000000 0.0061218 0.0261060 0.9938782 -0.0261060 0.9938782 -0.0261060 0.0061218 0.0261060
4489000000 0.0061598 0.0262403 0.9938402 -0.0262403 0.9938402 -0.0262403 0.0061598 0.0262403
4510000000 0.0061977 0.0263743 0.9938023 -0.0263743 0.9938023 -0.0263743 0.0061977 0.0263743
