!Murata Part Number: GRM011R61A331KE01
!These Parameters are Measured in Series Mode Connection
!Data Generated on Mar 30, 2021
!       o--ll--o
!Port1            Port2
!       o------o
!Operation Temp=25[degC], DC Bias Voltage=0[V]
!Freq. Start=100[Hz] Stop=6[GHz] 401[Steps]
# Hz S RI R 50
!Freq.(Hz) S11(Real) S11(Imag) S21(Real) S21(Imag) S12(Real) S12(Imag) S22(Real) S22(Imag)
100 0.9999996 -0.0000151 0.0000004 0.0000151 0.0000004 0.0000151 0.9999996 -0.0000151
105 0.9999996 -0.0000158 0.0000004 0.0000158 0.0000004 0.0000158 0.9999996 -0.0000158
109 0.9999996 -0.0000165 0.0000004 0.0000165 0.0000004 0.0000165 0.9999996 -0.0000165
114 0.9999996 -0.0000172 0.0000004 0.0000172 0.0000004 0.0000172 0.9999996 -0.0000172
120 0.9999996 -0.0000180 0.0000004 0.0000180 0.0000004 0.0000180 0.9999996 -0.0000180
125 0.9999995 -0.0000188 0.0000005 0.0000188 0.0000005 0.0000188 0.9999995 -0.0000188
131 0.9999995 -0.0000197 0.0000005 0.0000197 0.0000005 0.0000197 0.9999995 -0.0000197
137 0.9999995 -0.0000206 0.0000005 0.0000206 0.0000005 0.0000206 0.9999995 -0.0000206
143 0.9999995 -0.0000215 0.0000005 0.0000215 0.0000005 0.0000215 0.9999995 -0.0000215
150 0.9999995 -0.0000225 0.0000005 0.0000225 0.0000005 0.0000225 0.9999995 -0.0000225
156 0.9999994 -0.0000235 0.0000006 0.0000235 0.0000006 0.0000235 0.9999994 -0.0000235
164 0.9999994 -0.0000245 0.0000006 0.0000245 0.0000006 0.0000245 0.9999994 -0.0000245
171 0.9999994 -0.0000256 0.0000006 0.0000256 0.0000006 0.0000256 0.9999994 -0.0000256
179 0.9999994 -0.0000268 0.0000006 0.0000268 0.0000006 0.0000268 0.9999994 -0.0000268
187 0.9999993 -0.0000280 0.0000007 0.0000280 0.0000007 0.0000280 0.9999993 -0.0000280
196 0.9999993 -0.0000293 0.0000007 0.0000293 0.0000007 0.0000293 0.9999993 -0.0000293
205 0.9999993 -0.0000306 0.0000007 0.0000306 0.0000007 0.0000306 0.9999993 -0.0000306
214 0.9999992 -0.0000319 0.0000008 0.0000319 0.0000008 0.0000319 0.9999992 -0.0000319
224 0.9999992 -0.0000334 0.0000008 0.0000334 0.0000008 0.0000334 0.9999992 -0.0000334
234 0.9999992 -0.0000349 0.0000008 0.0000349 0.0000008 0.0000349 0.9999992 -0.0000349
245 0.9999991 -0.0000365 0.0000009 0.0000365 0.0000009 0.0000365 0.9999991 -0.0000365
256 0.9999991 -0.0000381 0.0000009 0.0000381 0.0000009 0.0000381 0.9999991 -0.0000381
268 0.9999991 -0.0000398 0.0000009 0.0000398 0.0000009 0.0000398 0.9999991 -0.0000398
280 0.9999990 -0.0000416 0.0000010 0.0000416 0.0000010 0.0000416 0.9999990 -0.0000416
293 0.9999990 -0.0000435 0.0000010 0.0000435 0.0000010 0.0000435 0.9999990 -0.0000435
306 0.9999990 -0.0000455 0.0000010 0.0000455 0.0000010 0.0000455 0.9999990 -0.0000455
320 0.9999989 -0.0000475 0.0000011 0.0000475 0.0000011 0.0000475 0.9999989 -0.0000475
335 0.9999989 -0.0000497 0.0000011 0.0000497 0.0000011 0.0000497 0.9999989 -0.0000497
350 0.9999989 -0.0000519 0.0000011 0.0000519 0.0000011 0.0000519 0.9999989 -0.0000519
366 0.9999988 -0.0000542 0.0000012 0.0000542 0.0000012 0.0000542 0.9999988 -0.0000542
383 0.9999988 -0.0000567 0.0000012 0.0000567 0.0000012 0.0000567 0.9999988 -0.0000567
401 0.9999987 -0.0000593 0.0000013 0.0000593 0.0000013 0.0000593 0.9999987 -0.0000593
419 0.9999987 -0.0000619 0.0000013 0.0000619 0.0000013 0.0000619 0.9999987 -0.0000619
438 0.9999986 -0.0000648 0.0000014 0.0000648 0.0000014 0.0000648 0.9999986 -0.0000648
458 0.9999986 -0.0000677 0.0000014 0.0000677 0.0000014 0.0000677 0.9999986 -0.0000677
479 0.9999985 -0.0000707 0.0000015 0.0000707 0.0000015 0.0000707 0.9999985 -0.0000707
501 0.9999985 -0.0000740 0.0000015 0.0000740 0.0000015 0.0000740 0.9999985 -0.0000740
524 0.9999984 -0.0000773 0.0000016 0.0000773 0.0000016 0.0000773 0.9999984 -0.0000773
548 0.9999983 -0.0000808 0.0000017 0.0000808 0.0000017 0.0000808 0.9999983 -0.0000808
573 0.9999982 -0.0000845 0.0000018 0.0000845 0.0000018 0.0000845 0.9999982 -0.0000845
600 0.9999982 -0.0000883 0.0000018 0.0000883 0.0000018 0.0000883 0.9999982 -0.0000883
627 0.9999981 -0.0000923 0.0000019 0.0000923 0.0000019 0.0000923 0.9999981 -0.0000923
656 0.9999980 -0.0000965 0.0000020 0.0000965 0.0000020 0.0000965 0.9999980 -0.0000965
686 0.9999979 -0.0001009 0.0000021 0.0001009 0.0000021 0.0001009 0.9999979 -0.0001009
717 0.9999978 -0.0001054 0.0000022 0.0001054 0.0000022 0.0001054 0.9999978 -0.0001054
750 0.9999977 -0.0001102 0.0000023 0.0001102 0.0000023 0.0001102 0.9999977 -0.0001102
784 0.9999976 -0.0001152 0.0000024 0.0001152 0.0000024 0.0001152 0.9999976 -0.0001152
820 0.9999974 -0.0001204 0.0000026 0.0001204 0.0000026 0.0001204 0.9999974 -0.0001204
858 0.9999973 -0.0001259 0.0000027 0.0001259 0.0000027 0.0001259 0.9999973 -0.0001259
897 0.9999972 -0.0001316 0.0000028 0.0001316 0.0000028 0.0001316 0.9999972 -0.0001316
938 0.9999970 -0.0001375 0.0000030 0.0001375 0.0000030 0.0001375 0.9999970 -0.0001375
981 0.9999969 -0.0001437 0.0000031 0.0001437 0.0000031 0.0001437 0.9999969 -0.0001437
1026 0.9999967 -0.0001502 0.0000033 0.0001502 0.0000033 0.0001502 0.9999967 -0.0001502
1073 0.9999965 -0.0001570 0.0000035 0.0001570 0.0000035 0.0001570 0.9999965 -0.0001570
1122 0.9999963 -0.0001641 0.0000037 0.0001641 0.0000037 0.0001641 0.9999963 -0.0001641
1174 0.9999961 -0.0001715 0.0000039 0.0001715 0.0000039 0.0001715 0.9999961 -0.0001715
1227 0.9999959 -0.0001792 0.0000041 0.0001792 0.0000041 0.0001792 0.9999959 -0.0001792
1283 0.9999957 -0.0001873 0.0000043 0.0001873 0.0000043 0.0001873 0.9999957 -0.0001873
1342 0.9999955 -0.0001958 0.0000045 0.0001958 0.0000045 0.0001958 0.9999955 -0.0001958
1404 0.9999952 -0.0002046 0.0000048 0.0002046 0.0000048 0.0002046 0.9999952 -0.0002046
1468 0.9999950 -0.0002138 0.0000050 0.0002138 0.0000050 0.0002138 0.9999950 -0.0002138
1535 0.9999947 -0.0002234 0.0000053 0.0002234 0.0000053 0.0002234 0.9999947 -0.0002234
1606 0.9999944 -0.0002335 0.0000056 0.0002335 0.0000056 0.0002335 0.9999944 -0.0002335
1679 0.9999941 -0.0002440 0.0000059 0.0002440 0.0000059 0.0002440 0.9999941 -0.0002440
1756 0.9999938 -0.0002550 0.0000062 0.0002550 0.0000062 0.0002550 0.9999938 -0.0002550
1836 0.9999935 -0.0002664 0.0000065 0.0002664 0.0000065 0.0002664 0.9999935 -0.0002664
1920 0.9999932 -0.0002784 0.0000068 0.0002784 0.0000068 0.0002784 0.9999932 -0.0002784
2008 0.9999929 -0.0002909 0.0000071 0.0002909 0.0000071 0.0002909 0.9999929 -0.0002909
2100 0.9999925 -0.0003040 0.0000075 0.0003040 0.0000075 0.0003040 0.9999925 -0.0003040
2196 0.9999922 -0.0003177 0.0000078 0.0003177 0.0000078 0.0003177 0.9999922 -0.0003177
2297 0.9999918 -0.0003320 0.0000082 0.0003320 0.0000082 0.0003320 0.9999918 -0.0003320
2402 0.9999914 -0.0003469 0.0000086 0.0003469 0.0000086 0.0003469 0.9999914 -0.0003469
2512 0.9999911 -0.0003625 0.0000089 0.0003625 0.0000089 0.0003625 0.9999911 -0.0003625
2627 0.9999907 -0.0003788 0.0000093 0.0003788 0.0000093 0.0003788 0.9999907 -0.0003788
2748 0.9999903 -0.0003959 0.0000097 0.0003959 0.0000097 0.0003959 0.9999903 -0.0003959
2873 0.9999898 -0.0004137 0.0000102 0.0004137 0.0000102 0.0004137 0.9999898 -0.0004137
3005 0.9999894 -0.0004323 0.0000106 0.0004323 0.0000106 0.0004323 0.9999894 -0.0004323
3143 0.9999890 -0.0004518 0.0000110 0.0004518 0.0000110 0.0004518 0.9999890 -0.0004518
3287 0.9999885 -0.0004721 0.0000115 0.0004721 0.0000115 0.0004721 0.9999885 -0.0004721
3437 0.9999880 -0.0004934 0.0000120 0.0004934 0.0000120 0.0004934 0.9999880 -0.0004934
3594 0.9999875 -0.0005157 0.0000125 0.0005157 0.0000125 0.0005157 0.9999875 -0.0005157
3759 0.9999870 -0.0005389 0.0000130 0.0005389 0.0000130 0.0005389 0.9999870 -0.0005389
3931 0.9999864 -0.0005632 0.0000136 0.0005632 0.0000136 0.0005632 0.9999864 -0.0005632
4111 0.9999858 -0.0005887 0.0000142 0.0005887 0.0000142 0.0005887 0.9999858 -0.0005887
4299 0.9999852 -0.0006153 0.0000148 0.0006153 0.0000148 0.0006153 0.9999852 -0.0006153
4496 0.9999845 -0.0006431 0.0000155 0.0006431 0.0000155 0.0006431 0.9999845 -0.0006431
4702 0.9999838 -0.0006721 0.0000162 0.0006721 0.0000162 0.0006721 0.9999838 -0.0006721
4918 0.9999831 -0.0007025 0.0000169 0.0007025 0.0000169 0.0007025 0.9999831 -0.0007025
5143 0.9999823 -0.0007343 0.0000177 0.0007343 0.0000177 0.0007343 0.9999823 -0.0007343
5378 0.9999815 -0.0007675 0.0000185 0.0007675 0.0000185 0.0007675 0.9999815 -0.0007675
5625 0.9999806 -0.0008022 0.0000194 0.0008022 0.0000194 0.0008022 0.9999806 -0.0008022
5882 0.9999797 -0.0008385 0.0000203 0.0008385 0.0000203 0.0008385 0.9999797 -0.0008385
6151 0.9999787 -0.0008764 0.0000213 0.0008764 0.0000213 0.0008764 0.9999787 -0.0008764
6433 0.9999776 -0.0009160 0.0000224 0.0009160 0.0000224 0.0009160 0.9999776 -0.0009160
6728 0.9999765 -0.0009574 0.0000235 0.0009574 0.0000235 0.0009574 0.9999765 -0.0009574
7036 0.9999753 -0.0010007 0.0000247 0.0010007 0.0000247 0.0010007 0.9999753 -0.0010007
7358 0.9999739 -0.0010460 0.0000261 0.0010460 0.0000261 0.0010460 0.9999739 -0.0010460
7695 0.9999725 -0.0010933 0.0000275 0.0010933 0.0000275 0.0010933 0.9999725 -0.0010933
8047 0.9999711 -0.0011427 0.0000289 0.0011427 0.0000289 0.0011427 0.9999711 -0.0011427
8416 0.9999695 -0.0011943 0.0000305 0.0011943 0.0000305 0.0011943 0.9999695 -0.0011943
8801 0.9999678 -0.0012483 0.0000322 0.0012483 0.0000322 0.0012483 0.9999678 -0.0012483
9204 0.9999659 -0.0013047 0.0000341 0.0013047 0.0000341 0.0013047 0.9999659 -0.0013047
9626 0.9999640 -0.0013636 0.0000360 0.0013636 0.0000360 0.0013636 0.9999640 -0.0013636
10066 0.9999619 -0.0014251 0.0000381 0.0014251 0.0000381 0.0014251 0.9999619 -0.0014251
10527 0.9999597 -0.0014894 0.0000403 0.0014894 0.0000403 0.0014894 0.9999597 -0.0014894
11009 0.9999574 -0.0015565 0.0000426 0.0015565 0.0000426 0.0015565 0.9999574 -0.0015565
11514 0.9999549 -0.0016266 0.0000451 0.0016266 0.0000451 0.0016266 0.9999549 -0.0016266
12041 0.9999523 -0.0016999 0.0000477 0.0016999 0.0000477 0.0016999 0.9999523 -0.0016999
12592 0.9999495 -0.0017764 0.0000505 0.0017764 0.0000505 0.0017764 0.9999495 -0.0017764
13169 0.9999466 -0.0018563 0.0000534 0.0018563 0.0000534 0.0018563 0.9999466 -0.0018563
13772 0.9999435 -0.0019398 0.0000565 0.0019398 0.0000565 0.0019398 0.9999435 -0.0019398
14402 0.9999402 -0.0020270 0.0000598 0.0020270 0.0000598 0.0020270 0.9999402 -0.0020270
15062 0.9999368 -0.0021181 0.0000632 0.0021181 0.0000632 0.0021181 0.9999368 -0.0021181
15752 0.9999331 -0.0022132 0.0000669 0.0022132 0.0000669 0.0022132 0.9999331 -0.0022132
16473 0.9999293 -0.0023126 0.0000707 0.0023126 0.0000707 0.0023126 0.9999293 -0.0023126
17227 0.9999253 -0.0024164 0.0000747 0.0024164 0.0000747 0.0024164 0.9999253 -0.0024164
18016 0.9999210 -0.0025248 0.0000790 0.0025248 0.0000790 0.0025248 0.9999210 -0.0025248
18841 0.9999166 -0.0026381 0.0000834 0.0026381 0.0000834 0.0026381 0.9999166 -0.0026381
19704 0.9999119 -0.0027564 0.0000881 0.0027564 0.0000881 0.0027564 0.9999119 -0.0027564
20606 0.9999070 -0.0028799 0.0000930 0.0028799 0.0000930 0.0028799 0.9999070 -0.0028799
21550 0.9999018 -0.0030090 0.0000982 0.0030090 0.0000982 0.0030090 0.9999018 -0.0030090
22537 0.9998964 -0.0031439 0.0001036 0.0031439 0.0001036 0.0031439 0.9998964 -0.0031439
23569 0.9998907 -0.0032847 0.0001093 0.0032847 0.0001093 0.0032847 0.9998907 -0.0032847
24648 0.9998848 -0.0034319 0.0001152 0.0034319 0.0001152 0.0034319 0.9998848 -0.0034319
25777 0.9998785 -0.0035856 0.0001215 0.0035856 0.0001215 0.0035856 0.9998785 -0.0035856
26957 0.9998719 -0.0037462 0.0001281 0.0037462 0.0001281 0.0037462 0.9998719 -0.0037462
28191 0.9998649 -0.0039140 0.0001351 0.0039140 0.0001351 0.0039140 0.9998649 -0.0039140
29482 0.9998576 -0.0040893 0.0001424 0.0040893 0.0001424 0.0040893 0.9998576 -0.0040893
30832 0.9998499 -0.0042724 0.0001501 0.0042724 0.0001501 0.0042724 0.9998499 -0.0042724
32244 0.9998418 -0.0044638 0.0001582 0.0044638 0.0001582 0.0044638 0.9998418 -0.0044638
33721 0.9998333 -0.0046636 0.0001667 0.0046636 0.0001667 0.0046636 0.9998333 -0.0046636
35265 0.9998244 -0.0048725 0.0001756 0.0048725 0.0001756 0.0048725 0.9998244 -0.0048725
36880 0.9998149 -0.0050906 0.0001851 0.0050906 0.0001851 0.0050906 0.9998149 -0.0050906
38569 0.9998049 -0.0053185 0.0001951 0.0053185 0.0001951 0.0053185 0.9998049 -0.0053185
40335 0.9997944 -0.0055567 0.0002056 0.0055567 0.0002056 0.0055567 0.9997944 -0.0055567
42182 0.9997834 -0.0058054 0.0002166 0.0058054 0.0002166 0.0058054 0.9997834 -0.0058054
44113 0.9997717 -0.0060653 0.0002283 0.0060653 0.0002283 0.0060653 0.9997717 -0.0060653
46134 0.9997594 -0.0063369 0.0002406 0.0063369 0.0002406 0.0063369 0.9997594 -0.0063369
48246 0.9997464 -0.0066206 0.0002536 0.0066206 0.0002536 0.0066206 0.9997464 -0.0066206
50455 0.9997327 -0.0069170 0.0002673 0.0069170 0.0002673 0.0069170 0.9997327 -0.0069170
52766 0.9997183 -0.0072267 0.0002817 0.0072267 0.0002817 0.0072267 0.9997183 -0.0072267
55182 0.9997030 -0.0075503 0.0002970 0.0075503 0.0002970 0.0075503 0.9997030 -0.0075503
57709 0.9996869 -0.0078885 0.0003131 0.0078885 0.0003131 0.0078885 0.9996869 -0.0078885
60352 0.9996698 -0.0082418 0.0003302 0.0082418 0.0003302 0.0082418 0.9996698 -0.0082418
63115 0.9996517 -0.0086110 0.0003483 0.0086110 0.0003483 0.0086110 0.9996517 -0.0086110
66005 0.9996326 -0.0089968 0.0003674 0.0089968 0.0003674 0.0089968 0.9996326 -0.0089968
69028 0.9996123 -0.0093999 0.0003877 0.0093999 0.0003877 0.0093999 0.9996123 -0.0093999
72189 0.9995908 -0.0098212 0.0004092 0.0098212 0.0004092 0.0098212 0.9995908 -0.0098212
75495 0.9995679 -0.0102614 0.0004321 0.0102614 0.0004321 0.0102614 0.9995679 -0.0102614
78952 0.9995436 -0.0107215 0.0004564 0.0107215 0.0004564 0.0107215 0.9995436 -0.0107215
82567 0.9995177 -0.0112023 0.0004823 0.0112023 0.0004823 0.0112023 0.9995177 -0.0112023
86348 0.9994900 -0.0117048 0.0005100 0.0117048 0.0005100 0.0117048 0.9994900 -0.0117048
90302 0.9994605 -0.0122299 0.0005395 0.0122299 0.0005395 0.0122299 0.9994605 -0.0122299
94437 0.9994290 -0.0127787 0.0005710 0.0127787 0.0005710 0.0127787 0.9994290 -0.0127787
98762 0.9993952 -0.0133522 0.0006048 0.0133522 0.0006048 0.0133522 0.9993952 -0.0133522
103284 0.9993590 -0.0139515 0.0006410 0.0139515 0.0006410 0.0139515 0.9993590 -0.0139515
108014 0.9993202 -0.0145777 0.0006798 0.0145777 0.0006798 0.0145777 0.9993202 -0.0145777
112960 0.9992785 -0.0152321 0.0007215 0.0152321 0.0007215 0.0152321 0.9992785 -0.0152321
118133 0.9992338 -0.0159159 0.0007662 0.0159159 0.0007662 0.0159159 0.9992338 -0.0159159
123542 0.9991856 -0.0166303 0.0008144 0.0166303 0.0008144 0.0166303 0.9991856 -0.0166303
129199 0.9991338 -0.0173767 0.0008662 0.0173767 0.0008662 0.0173767 0.9991338 -0.0173767
135116 0.9990780 -0.0181564 0.0009220 0.0181564 0.0009220 0.0181564 0.9990780 -0.0181564
141303 0.9990179 -0.0189710 0.0009821 0.0189710 0.0009821 0.0189710 0.9990179 -0.0189710
147774 0.9989531 -0.0198218 0.0010469 0.0198218 0.0010469 0.0198218 0.9989531 -0.0198218
154540 0.9988833 -0.0207104 0.0011167 0.0207104 0.0011167 0.0207104 0.9988833 -0.0207104
161617 0.9988081 -0.0216385 0.0011919 0.0216385 0.0011919 0.0216385 0.9988081 -0.0216385
169018 0.9987270 -0.0226076 0.0012730 0.0226076 0.0012730 0.0226076 0.9987270 -0.0226076
176758 0.9986397 -0.0236196 0.0013603 0.0236196 0.0013603 0.0236196 0.9986397 -0.0236196
184852 0.9985456 -0.0246762 0.0014544 0.0246762 0.0014544 0.0246762 0.9985456 -0.0246762
193316 0.9984443 -0.0257793 0.0015557 0.0257793 0.0015557 0.0257793 0.9984443 -0.0257793
202169 0.9983351 -0.0269309 0.0016649 0.0269309 0.0016649 0.0269309 0.9983351 -0.0269309
211427 0.9982177 -0.0281329 0.0017823 0.0281329 0.0017823 0.0281329 0.9982177 -0.0281329
221108 0.9980913 -0.0293875 0.0019087 0.0293875 0.0019087 0.0293875 0.9980913 -0.0293875
231233 0.9979553 -0.0306968 0.0020447 0.0306968 0.0020447 0.0306968 0.9979553 -0.0306968
241822 0.9978092 -0.0320633 0.0021908 0.0320633 0.0021908 0.0320633 0.9978092 -0.0320633
252896 0.9976521 -0.0334892 0.0023479 0.0334892 0.0023479 0.0334892 0.9976521 -0.0334892
264476 0.9974834 -0.0349772 0.0025166 0.0349772 0.0025166 0.0349772 0.9974834 -0.0349772
276587 0.9973022 -0.0365297 0.0026978 0.0365297 0.0026978 0.0365297 0.9973022 -0.0365297
289253 0.9971076 -0.0381496 0.0028924 0.0381496 0.0028924 0.0381496 0.9971076 -0.0381496
302498 0.9968988 -0.0398397 0.0031012 0.0398397 0.0031012 0.0398397 0.9968988 -0.0398397
316350 0.9966747 -0.0416031 0.0033253 0.0416031 0.0033253 0.0416031 0.9966747 -0.0416031
330837 0.9964342 -0.0434429 0.0035658 0.0434429 0.0035658 0.0434429 0.9964342 -0.0434429
345986 0.9961762 -0.0453624 0.0038238 0.0453624 0.0038238 0.0453624 0.9961762 -0.0453624
361830 0.9958992 -0.0473650 0.0041008 0.0473650 0.0041008 0.0473650 0.9958992 -0.0473650
378399 0.9956020 -0.0494544 0.0043980 0.0494544 0.0043980 0.0494544 0.9956020 -0.0494544
395726 0.9952829 -0.0516343 0.0047171 0.0516343 0.0047171 0.0516343 0.9952829 -0.0516343
413847 0.9949401 -0.0539086 0.0050599 0.0539086 0.0050599 0.0539086 0.9949401 -0.0539086
432798 0.9945718 -0.0562815 0.0054282 0.0562815 0.0054282 0.0562815 0.9945718 -0.0562815
452617 0.9941759 -0.0587572 0.0058241 0.0587572 0.0058241 0.0587572 0.9941759 -0.0587572
473344 0.9937501 -0.0613400 0.0062499 0.0613400 0.0062499 0.0613400 0.9937501 -0.0613400
495019 0.9932918 -0.0640347 0.0067082 0.0640347 0.0067082 0.0640347 0.9932918 -0.0640347
517687 0.9927982 -0.0668459 0.0072018 0.0668459 0.0072018 0.0668459 0.9927982 -0.0668459
541393 0.9922662 -0.0697784 0.0077338 0.0697784 0.0077338 0.0697784 0.9922662 -0.0697784
566185 0.9916924 -0.0728374 0.0083076 0.0728374 0.0083076 0.0728374 0.9916924 -0.0728374
592111 0.9910733 -0.0760279 0.0089267 0.0760279 0.0089267 0.0760279 0.9910733 -0.0760279
619225 0.9904046 -0.0793553 0.0095954 0.0793553 0.0095954 0.0793553 0.9904046 -0.0793553
647581 0.9896819 -0.0828248 0.0103181 0.0828248 0.0103181 0.0828248 0.9896819 -0.0828248
677235 0.9889006 -0.0864419 0.0110994 0.0864419 0.0110994 0.0864419 0.9889006 -0.0864419
708247 0.9880552 -0.0902122 0.0119448 0.0902122 0.0119448 0.0902122 0.9880552 -0.0902122
740679 0.9871402 -0.0941412 0.0128598 0.0941412 0.0128598 0.0941412 0.9871402 -0.0941412
774597 0.9861495 -0.0982345 0.0138505 0.0982345 0.0138505 0.0982345 0.9861495 -0.0982345
810067 0.9850762 -0.1024977 0.0149238 0.1024977 0.0149238 0.1024977 0.9850762 -0.1024977
847162 0.9839134 -0.1069364 0.0160866 0.1069364 0.0160866 0.1069364 0.9839134 -0.1069364
885955 0.9826532 -0.1115560 0.0173468 0.1115560 0.0173468 0.1115560 0.9826532 -0.1115560
926525 0.9812874 -0.1163619 0.0187126 0.1163619 0.0187126 0.1163619 0.9812874 -0.1163619
968953 0.9798070 -0.1213594 0.0201930 0.1213594 0.0201930 0.1213594 0.9798070 -0.1213594
1013323 0.9782026 -0.1265535 0.0217974 0.1265535 0.0217974 0.1265535 0.9782026 -0.1265535
1059725 0.9764640 -0.1319490 0.0235360 0.1319490 0.0235360 0.1319490 0.9764640 -0.1319490
1108252 0.9745804 -0.1375504 0.0254196 0.1375504 0.0254196 0.1375504 0.9745804 -0.1375504
1159002 0.9725403 -0.1433619 0.0274597 0.1433619 0.0274597 0.1433619 0.9725403 -0.1433619
1212075 0.9703314 -0.1493872 0.0296686 0.1493872 0.0296686 0.1493872 0.9703314 -0.1493872
1267578 0.9679408 -0.1556296 0.0320592 0.1556296 0.0320592 0.1556296 0.9679408 -0.1556296
1325623 0.9653550 -0.1620917 0.0346450 0.1620917 0.0346450 0.1620917 0.9653550 -0.1620917
1386327 0.9625597 -0.1687755 0.0374403 0.1687755 0.0374403 0.1687755 0.9625597 -0.1687755
1449809 0.9595397 -0.1756824 0.0404603 0.1756824 0.0404603 0.1756824 0.9595397 -0.1756824
1516199 0.9562794 -0.1828128 0.0437206 0.1828128 0.0437206 0.1828128 0.9562794 -0.1828128
1585629 0.9527625 -0.1901663 0.0472375 0.1901663 0.0472375 0.1901663 0.9527625 -0.1901663
1658239 0.9489718 -0.1977415 0.0510282 0.1977415 0.0510282 0.1977415 0.9489718 -0.1977415
1734173 0.9448899 -0.2055358 0.0551101 0.2055358 0.0551101 0.2055358 0.9448899 -0.2055358
1813585 0.9404985 -0.2135455 0.0595015 0.2135455 0.0595015 0.2135455 0.9404985 -0.2135455
1896632 0.9357791 -0.2217657 0.0642209 0.2217657 0.0642209 0.2217657 0.9357791 -0.2217657
1983483 0.9307125 -0.2301900 0.0692875 0.2301900 0.0692875 0.2301900 0.9307125 -0.2301900
2074311 0.9252793 -0.2388104 0.0747207 0.2388104 0.0747207 0.2388104 0.9252793 -0.2388104
