!Murata Part Number: GRM011R61A101KE01
!These Parameters are Measured in Series Mode Connection
!Data Generated on Mar 30, 2021
!       o--ll--o
!Port1            Port2
!       o------o
!Operation Temp=25[degC], DC Bias Voltage=0[V]
!Freq. Start=100[Hz] Stop=6[GHz] 401[Steps]
# Hz S RI R 50
!Freq.(Hz) S11(Real) S11(Imag) S21(Real) S21(Imag) S12(Real) S12(Imag) S22(Real) S22(Imag)
100 0.9999998 -0.0000053 0.0000002 0.0000053 0.0000002 0.0000053 0.9999998 -0.0000053
105 0.9999998 -0.0000055 0.0000002 0.0000055 0.0000002 0.0000055 0.9999998 -0.0000055
109 0.9999998 -0.0000058 0.0000002 0.0000058 0.0000002 0.0000058 0.9999998 -0.0000058
114 0.9999998 -0.0000061 0.0000002 0.0000061 0.0000002 0.0000061 0.9999998 -0.0000061
120 0.9999998 -0.0000063 0.0000002 0.0000063 0.0000002 0.0000063 0.9999998 -0.0000063
125 0.9999998 -0.0000066 0.0000002 0.0000066 0.0000002 0.0000066 0.9999998 -0.0000066
131 0.9999997 -0.0000069 0.0000003 0.0000069 0.0000003 0.0000069 0.9999997 -0.0000069
137 0.9999997 -0.0000072 0.0000003 0.0000072 0.0000003 0.0000072 0.9999997 -0.0000072
143 0.9999997 -0.0000075 0.0000003 0.0000075 0.0000003 0.0000075 0.9999997 -0.0000075
150 0.9999997 -0.0000079 0.0000003 0.0000079 0.0000003 0.0000079 0.9999997 -0.0000079
156 0.9999997 -0.0000082 0.0000003 0.0000082 0.0000003 0.0000082 0.9999997 -0.0000082
164 0.9999997 -0.0000086 0.0000003 0.0000086 0.0000003 0.0000086 0.9999997 -0.0000086
171 0.9999997 -0.0000090 0.0000003 0.0000090 0.0000003 0.0000090 0.9999997 -0.0000090
179 0.9999997 -0.0000094 0.0000003 0.0000094 0.0000003 0.0000094 0.9999997 -0.0000094
187 0.9999997 -0.0000098 0.0000003 0.0000098 0.0000003 0.0000098 0.9999997 -0.0000098
196 0.9999997 -0.0000103 0.0000003 0.0000103 0.0000003 0.0000103 0.9999997 -0.0000103
205 0.9999997 -0.0000107 0.0000003 0.0000107 0.0000003 0.0000107 0.9999997 -0.0000107
214 0.9999996 -0.0000112 0.0000004 0.0000112 0.0000004 0.0000112 0.9999996 -0.0000112
224 0.9999996 -0.0000117 0.0000004 0.0000117 0.0000004 0.0000117 0.9999996 -0.0000117
234 0.9999996 -0.0000122 0.0000004 0.0000122 0.0000004 0.0000122 0.9999996 -0.0000122
245 0.9999996 -0.0000128 0.0000004 0.0000128 0.0000004 0.0000128 0.9999996 -0.0000128
256 0.9999996 -0.0000134 0.0000004 0.0000134 0.0000004 0.0000134 0.9999996 -0.0000134
268 0.9999996 -0.0000140 0.0000004 0.0000140 0.0000004 0.0000140 0.9999996 -0.0000140
280 0.9999996 -0.0000146 0.0000004 0.0000146 0.0000004 0.0000146 0.9999996 -0.0000146
293 0.9999996 -0.0000153 0.0000004 0.0000153 0.0000004 0.0000153 0.9999996 -0.0000153
306 0.9999996 -0.0000159 0.0000004 0.0000159 0.0000004 0.0000159 0.9999996 -0.0000159
320 0.9999995 -0.0000167 0.0000005 0.0000167 0.0000005 0.0000167 0.9999995 -0.0000167
335 0.9999995 -0.0000174 0.0000005 0.0000174 0.0000005 0.0000174 0.9999995 -0.0000174
350 0.9999995 -0.0000182 0.0000005 0.0000182 0.0000005 0.0000182 0.9999995 -0.0000182
366 0.9999995 -0.0000190 0.0000005 0.0000190 0.0000005 0.0000190 0.9999995 -0.0000190
383 0.9999995 -0.0000199 0.0000005 0.0000199 0.0000005 0.0000199 0.9999995 -0.0000199
401 0.9999995 -0.0000208 0.0000005 0.0000208 0.0000005 0.0000208 0.9999995 -0.0000208
419 0.9999994 -0.0000217 0.0000006 0.0000217 0.0000006 0.0000217 0.9999994 -0.0000217
438 0.9999994 -0.0000227 0.0000006 0.0000227 0.0000006 0.0000227 0.9999994 -0.0000227
458 0.9999994 -0.0000237 0.0000006 0.0000237 0.0000006 0.0000237 0.9999994 -0.0000237
479 0.9999994 -0.0000248 0.0000006 0.0000248 0.0000006 0.0000248 0.9999994 -0.0000248
501 0.9999994 -0.0000259 0.0000006 0.0000259 0.0000006 0.0000259 0.9999994 -0.0000259
524 0.9999993 -0.0000271 0.0000007 0.0000271 0.0000007 0.0000271 0.9999993 -0.0000271
548 0.9999993 -0.0000283 0.0000007 0.0000283 0.0000007 0.0000283 0.9999993 -0.0000283
573 0.9999993 -0.0000296 0.0000007 0.0000296 0.0000007 0.0000296 0.9999993 -0.0000296
600 0.9999993 -0.0000310 0.0000007 0.0000310 0.0000007 0.0000310 0.9999993 -0.0000310
627 0.9999992 -0.0000324 0.0000008 0.0000324 0.0000008 0.0000324 0.9999992 -0.0000324
656 0.9999992 -0.0000338 0.0000008 0.0000338 0.0000008 0.0000338 0.9999992 -0.0000338
686 0.9999992 -0.0000354 0.0000008 0.0000354 0.0000008 0.0000354 0.9999992 -0.0000354
717 0.9999991 -0.0000370 0.0000009 0.0000370 0.0000009 0.0000370 0.9999991 -0.0000370
750 0.9999991 -0.0000386 0.0000009 0.0000386 0.0000009 0.0000386 0.9999991 -0.0000386
784 0.9999991 -0.0000404 0.0000009 0.0000404 0.0000009 0.0000404 0.9999991 -0.0000404
820 0.9999990 -0.0000422 0.0000010 0.0000422 0.0000010 0.0000422 0.9999990 -0.0000422
858 0.9999990 -0.0000441 0.0000010 0.0000441 0.0000010 0.0000441 0.9999990 -0.0000441
897 0.9999989 -0.0000461 0.0000011 0.0000461 0.0000011 0.0000461 0.9999989 -0.0000461
938 0.9999989 -0.0000482 0.0000011 0.0000482 0.0000011 0.0000482 0.9999989 -0.0000482
981 0.9999988 -0.0000504 0.0000012 0.0000504 0.0000012 0.0000504 0.9999988 -0.0000504
1026 0.9999988 -0.0000527 0.0000012 0.0000527 0.0000012 0.0000527 0.9999988 -0.0000527
1073 0.9999987 -0.0000550 0.0000013 0.0000550 0.0000013 0.0000550 0.9999987 -0.0000550
1122 0.9999986 -0.0000575 0.0000014 0.0000575 0.0000014 0.0000575 0.9999986 -0.0000575
1174 0.9999986 -0.0000601 0.0000014 0.0000601 0.0000014 0.0000601 0.9999986 -0.0000601
1227 0.9999985 -0.0000628 0.0000015 0.0000628 0.0000015 0.0000628 0.9999985 -0.0000628
1283 0.9999984 -0.0000657 0.0000016 0.0000657 0.0000016 0.0000657 0.9999984 -0.0000657
1342 0.9999983 -0.0000686 0.0000017 0.0000686 0.0000017 0.0000686 0.9999983 -0.0000686
1404 0.9999983 -0.0000717 0.0000017 0.0000717 0.0000017 0.0000717 0.9999983 -0.0000717
1468 0.9999982 -0.0000750 0.0000018 0.0000750 0.0000018 0.0000750 0.9999982 -0.0000750
1535 0.9999981 -0.0000783 0.0000019 0.0000783 0.0000019 0.0000783 0.9999981 -0.0000783
1606 0.9999980 -0.0000819 0.0000020 0.0000819 0.0000020 0.0000819 0.9999980 -0.0000819
1679 0.9999979 -0.0000856 0.0000021 0.0000856 0.0000021 0.0000856 0.9999979 -0.0000856
1756 0.9999978 -0.0000894 0.0000022 0.0000894 0.0000022 0.0000894 0.9999978 -0.0000894
1836 0.9999977 -0.0000934 0.0000023 0.0000934 0.0000023 0.0000934 0.9999977 -0.0000934
1920 0.9999976 -0.0000976 0.0000024 0.0000976 0.0000024 0.0000976 0.9999976 -0.0000976
2008 0.9999975 -0.0001020 0.0000025 0.0001020 0.0000025 0.0001020 0.9999975 -0.0001020
2100 0.9999974 -0.0001066 0.0000026 0.0001066 0.0000026 0.0001066 0.9999974 -0.0001066
2196 0.9999972 -0.0001114 0.0000028 0.0001114 0.0000028 0.0001114 0.9999972 -0.0001114
2297 0.9999971 -0.0001164 0.0000029 0.0001164 0.0000029 0.0001164 0.9999971 -0.0001164
2402 0.9999970 -0.0001217 0.0000030 0.0001217 0.0000030 0.0001217 0.9999970 -0.0001217
2512 0.9999969 -0.0001271 0.0000031 0.0001271 0.0000031 0.0001271 0.9999969 -0.0001271
2627 0.9999967 -0.0001328 0.0000033 0.0001328 0.0000033 0.0001328 0.9999967 -0.0001328
2748 0.9999966 -0.0001388 0.0000034 0.0001388 0.0000034 0.0001388 0.9999966 -0.0001388
2873 0.9999964 -0.0001451 0.0000036 0.0001451 0.0000036 0.0001451 0.9999964 -0.0001451
3005 0.9999963 -0.0001516 0.0000037 0.0001516 0.0000037 0.0001516 0.9999963 -0.0001516
3143 0.9999962 -0.0001584 0.0000038 0.0001584 0.0000038 0.0001584 0.9999962 -0.0001584
3287 0.9999960 -0.0001656 0.0000040 0.0001656 0.0000040 0.0001656 0.9999960 -0.0001656
3437 0.9999958 -0.0001731 0.0000042 0.0001731 0.0000042 0.0001731 0.9999958 -0.0001731
3594 0.9999957 -0.0001809 0.0000043 0.0001809 0.0000043 0.0001809 0.9999957 -0.0001809
3759 0.9999955 -0.0001890 0.0000045 0.0001890 0.0000045 0.0001890 0.9999955 -0.0001890
3931 0.9999953 -0.0001976 0.0000047 0.0001976 0.0000047 0.0001976 0.9999953 -0.0001976
4111 0.9999951 -0.0002065 0.0000049 0.0002065 0.0000049 0.0002065 0.9999951 -0.0002065
4299 0.9999949 -0.0002158 0.0000051 0.0002158 0.0000051 0.0002158 0.9999949 -0.0002158
4496 0.9999947 -0.0002256 0.0000053 0.0002256 0.0000053 0.0002256 0.9999947 -0.0002256
4702 0.9999945 -0.0002358 0.0000055 0.0002358 0.0000055 0.0002358 0.9999945 -0.0002358
4918 0.9999942 -0.0002464 0.0000058 0.0002464 0.0000058 0.0002464 0.9999942 -0.0002464
5143 0.9999940 -0.0002576 0.0000060 0.0002576 0.0000060 0.0002576 0.9999940 -0.0002576
5378 0.9999937 -0.0002692 0.0000063 0.0002692 0.0000063 0.0002692 0.9999937 -0.0002692
5625 0.9999934 -0.0002814 0.0000066 0.0002814 0.0000066 0.0002814 0.9999934 -0.0002814
5882 0.9999931 -0.0002941 0.0000069 0.0002941 0.0000069 0.0002941 0.9999931 -0.0002941
6151 0.9999927 -0.0003075 0.0000073 0.0003075 0.0000073 0.0003075 0.9999927 -0.0003075
6433 0.9999924 -0.0003214 0.0000076 0.0003214 0.0000076 0.0003214 0.9999924 -0.0003214
6728 0.9999920 -0.0003359 0.0000080 0.0003359 0.0000080 0.0003359 0.9999920 -0.0003359
7036 0.9999916 -0.0003511 0.0000084 0.0003511 0.0000084 0.0003511 0.9999916 -0.0003511
7358 0.9999912 -0.0003670 0.0000088 0.0003670 0.0000088 0.0003670 0.9999912 -0.0003670
7695 0.9999907 -0.0003836 0.0000093 0.0003836 0.0000093 0.0003836 0.9999907 -0.0003836
8047 0.9999902 -0.0004009 0.0000098 0.0004009 0.0000098 0.0004009 0.9999902 -0.0004009
8416 0.9999897 -0.0004191 0.0000103 0.0004191 0.0000103 0.0004191 0.9999897 -0.0004191
8801 0.9999891 -0.0004380 0.0000109 0.0004380 0.0000109 0.0004380 0.9999891 -0.0004380
9204 0.9999885 -0.0004578 0.0000115 0.0004578 0.0000115 0.0004578 0.9999885 -0.0004578
9626 0.9999879 -0.0004785 0.0000121 0.0004785 0.0000121 0.0004785 0.9999879 -0.0004785
10066 0.9999872 -0.0005001 0.0000128 0.0005001 0.0000128 0.0005001 0.9999872 -0.0005001
10527 0.9999864 -0.0005226 0.0000136 0.0005226 0.0000136 0.0005226 0.9999864 -0.0005226
11009 0.9999857 -0.0005462 0.0000143 0.0005462 0.0000143 0.0005462 0.9999857 -0.0005462
11514 0.9999848 -0.0005708 0.0000152 0.0005708 0.0000152 0.0005708 0.9999848 -0.0005708
12041 0.9999840 -0.0005966 0.0000160 0.0005966 0.0000160 0.0005966 0.9999840 -0.0005966
12592 0.9999831 -0.0006234 0.0000169 0.0006234 0.0000169 0.0006234 0.9999831 -0.0006234
13169 0.9999821 -0.0006515 0.0000179 0.0006515 0.0000179 0.0006515 0.9999821 -0.0006515
13772 0.9999811 -0.0006808 0.0000189 0.0006808 0.0000189 0.0006808 0.9999811 -0.0006808
14402 0.9999800 -0.0007114 0.0000200 0.0007114 0.0000200 0.0007114 0.9999800 -0.0007114
15062 0.9999788 -0.0007434 0.0000212 0.0007434 0.0000212 0.0007434 0.9999788 -0.0007434
15752 0.9999776 -0.0007768 0.0000224 0.0007768 0.0000224 0.0007768 0.9999776 -0.0007768
16473 0.9999764 -0.0008117 0.0000236 0.0008117 0.0000236 0.0008117 0.9999764 -0.0008117
17227 0.9999750 -0.0008481 0.0000250 0.0008481 0.0000250 0.0008481 0.9999750 -0.0008481
18016 0.9999737 -0.0008861 0.0000263 0.0008861 0.0000263 0.0008861 0.9999737 -0.0008861
18841 0.9999722 -0.0009259 0.0000278 0.0009259 0.0000278 0.0009259 0.9999722 -0.0009259
19704 0.9999707 -0.0009674 0.0000293 0.0009674 0.0000293 0.0009674 0.9999707 -0.0009674
20606 0.9999691 -0.0010108 0.0000309 0.0010108 0.0000309 0.0010108 0.9999691 -0.0010108
21550 0.9999675 -0.0010561 0.0000325 0.0010561 0.0000325 0.0010561 0.9999675 -0.0010561
22537 0.9999657 -0.0011034 0.0000343 0.0011034 0.0000343 0.0011034 0.9999657 -0.0011034
23569 0.9999639 -0.0011529 0.0000361 0.0011529 0.0000361 0.0011529 0.9999639 -0.0011529
24648 0.9999620 -0.0012045 0.0000380 0.0012045 0.0000380 0.0012045 0.9999620 -0.0012045
25777 0.9999600 -0.0012585 0.0000400 0.0012585 0.0000400 0.0012585 0.9999600 -0.0012585
26957 0.9999580 -0.0013148 0.0000420 0.0013148 0.0000420 0.0013148 0.9999580 -0.0013148
28191 0.9999558 -0.0013738 0.0000442 0.0013738 0.0000442 0.0013738 0.9999558 -0.0013738
29482 0.9999535 -0.0014353 0.0000465 0.0014353 0.0000465 0.0014353 0.9999535 -0.0014353
30832 0.9999511 -0.0014996 0.0000489 0.0014996 0.0000489 0.0014996 0.9999511 -0.0014996
32244 0.9999486 -0.0015668 0.0000514 0.0015668 0.0000514 0.0015668 0.9999486 -0.0015668
33721 0.9999460 -0.0016370 0.0000540 0.0016370 0.0000540 0.0016370 0.9999460 -0.0016370
35265 0.9999432 -0.0017103 0.0000568 0.0017103 0.0000568 0.0017103 0.9999432 -0.0017103
36880 0.9999403 -0.0017869 0.0000597 0.0017869 0.0000597 0.0017869 0.9999403 -0.0017869
38569 0.9999373 -0.0018669 0.0000627 0.0018669 0.0000627 0.0018669 0.9999373 -0.0018669
40335 0.9999341 -0.0019506 0.0000659 0.0019506 0.0000659 0.0019506 0.9999341 -0.0019506
42182 0.9999307 -0.0020379 0.0000693 0.0020379 0.0000693 0.0020379 0.9999307 -0.0020379
44113 0.9999272 -0.0021292 0.0000728 0.0021292 0.0000728 0.0021292 0.9999272 -0.0021292
46134 0.9999235 -0.0022245 0.0000765 0.0022245 0.0000765 0.0022245 0.9999235 -0.0022245
48246 0.9999196 -0.0023241 0.0000804 0.0023241 0.0000804 0.0023241 0.9999196 -0.0023241
50455 0.9999155 -0.0024282 0.0000845 0.0024282 0.0000845 0.0024282 0.9999155 -0.0024282
52766 0.9999112 -0.0025369 0.0000888 0.0025369 0.0000888 0.0025369 0.9999112 -0.0025369
55182 0.9999066 -0.0026504 0.0000934 0.0026504 0.0000934 0.0026504 0.9999066 -0.0026504
57709 0.9999019 -0.0027690 0.0000981 0.0027690 0.0000981 0.0027690 0.9999019 -0.0027690
60352 0.9998969 -0.0028930 0.0001031 0.0028930 0.0001031 0.0028930 0.9998969 -0.0028930
63115 0.9998917 -0.0030224 0.0001083 0.0030224 0.0001083 0.0030224 0.9998917 -0.0030224
66005 0.9998862 -0.0031576 0.0001138 0.0031576 0.0001138 0.0031576 0.9998862 -0.0031576
69028 0.9998804 -0.0032989 0.0001196 0.0032989 0.0001196 0.0032989 0.9998804 -0.0032989
72189 0.9998744 -0.0034465 0.0001256 0.0034465 0.0001256 0.0034465 0.9998744 -0.0034465
75495 0.9998681 -0.0036007 0.0001319 0.0036007 0.0001319 0.0036007 0.9998681 -0.0036007
78952 0.9998615 -0.0037618 0.0001385 0.0037618 0.0001385 0.0037618 0.9998615 -0.0037618
82567 0.9998546 -0.0039301 0.0001454 0.0039301 0.0001454 0.0039301 0.9998546 -0.0039301
86348 0.9998473 -0.0041060 0.0001527 0.0041060 0.0001527 0.0041060 0.9998473 -0.0041060
90302 0.9998397 -0.0042897 0.0001603 0.0042897 0.0001603 0.0042897 0.9998397 -0.0042897
94437 0.9998317 -0.0044818 0.0001683 0.0044818 0.0001683 0.0044818 0.9998317 -0.0044818
98762 0.9998233 -0.0046825 0.0001767 0.0046825 0.0001767 0.0046825 0.9998233 -0.0046825
103284 0.9998144 -0.0048922 0.0001856 0.0048922 0.0001856 0.0048922 0.9998144 -0.0048922
108014 0.9998051 -0.0051114 0.0001949 0.0051114 0.0001949 0.0051114 0.9998051 -0.0051114
112960 0.9997953 -0.0053404 0.0002047 0.0053404 0.0002047 0.0053404 0.9997953 -0.0053404
118133 0.9997849 -0.0055798 0.0002151 0.0055798 0.0002151 0.0055798 0.9997849 -0.0055798
123542 0.9997739 -0.0058300 0.0002261 0.0058300 0.0002261 0.0058300 0.9997739 -0.0058300
129199 0.9997623 -0.0060915 0.0002377 0.0060915 0.0002377 0.0060915 0.9997623 -0.0060915
135116 0.9997499 -0.0063648 0.0002501 0.0063648 0.0002501 0.0063648 0.9997499 -0.0063648
141303 0.9997368 -0.0066505 0.0002632 0.0066505 0.0002632 0.0066505 0.9997368 -0.0066505
147774 0.9997228 -0.0069491 0.0002772 0.0069491 0.0002772 0.0069491 0.9997228 -0.0069491
154540 0.9997079 -0.0072611 0.0002921 0.0072611 0.0002921 0.0072611 0.9997079 -0.0072611
161617 0.9996920 -0.0075872 0.0003080 0.0075872 0.0003080 0.0075872 0.9996920 -0.0075872
169018 0.9996750 -0.0079280 0.0003250 0.0079280 0.0003250 0.0079280 0.9996750 -0.0079280
176758 0.9996568 -0.0082841 0.0003432 0.0082841 0.0003432 0.0082841 0.9996568 -0.0082841
184852 0.9996373 -0.0086563 0.0003627 0.0086563 0.0003627 0.0086563 0.9996373 -0.0086563
193316 0.9996164 -0.0090451 0.0003836 0.0090451 0.0003836 0.0090451 0.9996164 -0.0090451
202169 0.9995940 -0.0094514 0.0004060 0.0094514 0.0004060 0.0094514 0.9995940 -0.0094514
211427 0.9995700 -0.0098759 0.0004300 0.0098759 0.0004300 0.0098759 0.9995700 -0.0098759
221108 0.9995441 -0.0103194 0.0004559 0.0103194 0.0004559 0.0103194 0.9995441 -0.0103194
231233 0.9995164 -0.0107827 0.0004836 0.0107827 0.0004836 0.0107827 0.9995164 -0.0107827
241822 0.9994867 -0.0112666 0.0005133 0.0112666 0.0005133 0.0112666 0.9994867 -0.0112666
252896 0.9994547 -0.0117721 0.0005453 0.0117721 0.0005453 0.0117721 0.9994547 -0.0117721
264476 0.9994204 -0.0123000 0.0005796 0.0123000 0.0005796 0.0123000 0.9994204 -0.0123000
276587 0.9993835 -0.0128513 0.0006165 0.0128513 0.0006165 0.0128513 0.9993835 -0.0128513
289253 0.9993440 -0.0134270 0.0006560 0.0134270 0.0006560 0.0134270 0.9993440 -0.0134270
302498 0.9993017 -0.0140281 0.0006983 0.0140281 0.0006983 0.0140281 0.9993017 -0.0140281
316350 0.9992562 -0.0146558 0.0007438 0.0146558 0.0007438 0.0146558 0.9992562 -0.0146558
330837 0.9992075 -0.0153111 0.0007925 0.0153111 0.0007925 0.0153111 0.9992075 -0.0153111
345986 0.9991554 -0.0159952 0.0008446 0.0159952 0.0008446 0.0159952 0.9991554 -0.0159952
361830 0.9990996 -0.0167095 0.0009004 0.0167095 0.0009004 0.0167095 0.9990996 -0.0167095
378399 0.9990398 -0.0174551 0.0009602 0.0174551 0.0009602 0.0174551 0.9990398 -0.0174551
395726 0.9989760 -0.0182334 0.0010240 0.0182334 0.0010240 0.0182334 0.9989760 -0.0182334
413847 0.9989077 -0.0190458 0.0010923 0.0190458 0.0010923 0.0190458 0.9989077 -0.0190458
432798 0.9988347 -0.0198939 0.0011653 0.0198939 0.0011653 0.0198939 0.9988347 -0.0198939
452617 0.9987568 -0.0207791 0.0012432 0.0207791 0.0012432 0.0207791 0.9987568 -0.0207791
473344 0.9986736 -0.0217032 0.0013264 0.0217032 0.0013264 0.0217032 0.9986736 -0.0217032
495019 0.9985847 -0.0226677 0.0014153 0.0226677 0.0014153 0.0226677 0.9985847 -0.0226677
517687 0.9984897 -0.0236746 0.0015103 0.0236746 0.0015103 0.0236746 0.9984897 -0.0236746
541393 0.9983883 -0.0247256 0.0016117 0.0247256 0.0016117 0.0247256 0.9983883 -0.0247256
566185 0.9982800 -0.0258227 0.0017200 0.0258227 0.0017200 0.0258227 0.9982800 -0.0258227
592111 0.9981642 -0.0269680 0.0018358 0.0269680 0.0018358 0.0269680 0.9981642 -0.0269680
619225 0.9980404 -0.0281636 0.0019596 0.0281636 0.0019596 0.0281636 0.9980404 -0.0281636
647581 0.9979080 -0.0294117 0.0020920 0.0294117 0.0020920 0.0294117 0.9979080 -0.0294117
677235 0.9977664 -0.0307147 0.0022336 0.0307147 0.0022336 0.0307147 0.9977664 -0.0307147
708247 0.9976146 -0.0320749 0.0023854 0.0320749 0.0023854 0.0320749 0.9976146 -0.0320749
740679 0.9974520 -0.0334949 0.0025480 0.0334949 0.0025480 0.0334949 0.9974520 -0.0334949
774597 0.9972776 -0.0349774 0.0027224 0.0349774 0.0027224 0.0349774 0.9972776 -0.0349774
810067 0.9970905 -0.0365249 0.0029095 0.0365249 0.0029095 0.0365249 0.9970905 -0.0365249
847162 0.9968894 -0.0381403 0.0031106 0.0381403 0.0031106 0.0381403 0.9968894 -0.0381403
885955 0.9966733 -0.0398266 0.0033267 0.0398266 0.0033267 0.0398266 0.9966733 -0.0398266
926525 0.9964409 -0.0415866 0.0035591 0.0415866 0.0035591 0.0415866 0.9964409 -0.0415866
968953 0.9961907 -0.0434234 0.0038093 0.0434234 0.0038093 0.0434234 0.9961907 -0.0434234
1013323 0.9959213 -0.0453404 0.0040787 0.0453404 0.0040787 0.0453404 0.9959213 -0.0453404
1059725 0.9956309 -0.0473406 0.0043691 0.0473406 0.0043691 0.0473406 0.9956309 -0.0473406
1108252 0.9953179 -0.0494275 0.0046821 0.0494275 0.0046821 0.0494275 0.9953179 -0.0494275
1159002 0.9949803 -0.0516045 0.0050197 0.0516045 0.0050197 0.0516045 0.9949803 -0.0516045
1212075 0.9946161 -0.0538751 0.0053839 0.0538751 0.0053839 0.0538751 0.9946161 -0.0538751
1267578 0.9942231 -0.0562431 0.0057769 0.0562431 0.0057769 0.0562431 0.9942231 -0.0562431
1325623 0.9937990 -0.0587120 0.0062010 0.0587120 0.0062010 0.0587120 0.9937990 -0.0587120
1386327 0.9933413 -0.0612858 0.0066587 0.0612858 0.0066587 0.0612858 0.9933413 -0.0612858
1449809 0.9928473 -0.0639683 0.0071527 0.0639683 0.0071527 0.0639683 0.9928473 -0.0639683
1516199 0.9923143 -0.0667636 0.0076857 0.0667636 0.0076857 0.0667636 0.9923143 -0.0667636
1585629 0.9917392 -0.0696757 0.0082608 0.0696757 0.0082608 0.0696757 0.9917392 -0.0696757
1658239 0.9911189 -0.0727088 0.0088811 0.0727088 0.0088811 0.0727088 0.9911189 -0.0727088
1734173 0.9904499 -0.0758672 0.0095501 0.0758672 0.0095501 0.0758672 0.9904499 -0.0758672
1813585 0.9897286 -0.0791553 0.0102714 0.0791553 0.0102714 0.0791553 0.9897286 -0.0791553
1896632 0.9889512 -0.0825777 0.0110488 0.0825777 0.0110488 0.0825777 0.9889512 -0.0825777
1983483 0.9881136 -0.0861390 0.0118864 0.0861390 0.0118864 0.0861390 0.9881136 -0.0861390
2074311 0.9872115 -0.0898439 0.0127885 0.0898439 0.0127885 0.0898439 0.9872115 -0.0898439
