! This data is being provided by Wuerth Elektronik eiSos GmbH & Co. KG to the industry for analysis.
!
! Document information:
! Version:rev19a Date: 16/12/2019
!
! Component information:
! Match Code: WE-CNSW P/N: 744230121 Size: 0603
!------------------------------------------------------------------------------------------------------------------
! Disclaimer:  While Würth Elektronik eiSos has made every reasonable effort to ensure the accuracy
! of the information provided, Würth Elektronik eiSos does not guarantee the exemption of error on the
! data collection measurements, nor does Würth Elektronik eiSos guarantee that the information is current.
! Würth Elektronik eiSos reserves the right to make any adjustments at any time without notice.
! Würth Elektronik eiSos expressly disclaims all implied warranties regarding this measurement data collection.
!
! Note 1 – This data measurement is representative according to the product implementation into the fixture.
! Component behavior is sensitive to implementation into the fixture, which includes board
! materials, trace geometry information, connector pin out, layer connection, use of de-embedding
! techniques, etc.
!
! Note 2 - The fixture was designed specifically to match the 50 Ohm line impedance, as well as the connector impedance,
! in order to accomplish a reliable measurement without reflections in the trace. Any other implementation of the fixture will change the obtained
! measurement performance. The used fixture behavior was de-embedded to accomplish reliable measurement results.
!
!------------------------------------------------------------------------------------------------------------------
!
! The test setup consisted of the following:
!   - Agilent VNA E5071C or E5071B
!   - Calibrations are SOLT (short open load thru)
!   - De-embedding of the SMA's or line cards were included
!   - Equipment Settings -
!            - Sampling - 501 points
!            - IF BW – 70 kHz
!            - Averaging – Not used
!
!
!
!             Port 1----->|1|        |2| -----> Port 3
!                            |   DUT  |
!             Port 2----->|3|        |4| -----> Port 4
!
!
!*VNA Port --> |Port in Datasheet|
! |Port in Datasheet| --> VNA Port
!
!
! For further information regarding this testing, please contact
! Wuerth Elektronik eiSos
! Contact: EDA team in QDC
! Email: libraries@we-online.com or libraries@we-online.de
!
!
# Hz S dB R 50
300000	-3.575923e+001	7.566719e+001	-6.603898e-002	-5.527319e-001	-3.750839e+001	9.693187e+001	-3.852319e+001	-8.513807e+001
	-4.765170e-002	-8.341880e-001	-3.783545e+001	6.875675e+001	-3.859206e+001	-9.361907e+001	-3.702930e+001	7.791584e+001
	-3.819812e+001	8.744859e+001	-3.895880e+001	-8.722511e+001	-3.656683e+001	8.664213e+001	-7.963799e-002	-5.620853e-001
	-3.900935e+001	-9.387544e+001	-3.918510e+001	9.162987e+001	-4.271811e-002	-5.907022e-001	-3.797985e+001	5.941090e+001
307335	-3.594594e+001	7.501626e+001	-4.081142e-002	-5.311918e-001	-3.764794e+001	8.915004e+001	-3.880007e+001	-9.845457e+001
	-6.607660e-002	-5.461537e-001	-3.708634e+001	6.630842e+001	-3.866977e+001	-8.964791e+001	-3.779895e+001	8.848617e+001
	-3.816946e+001	9.142360e+001	-3.809733e+001	-9.310941e+001	-3.526857e+001	8.012209e+001	-7.071300e-002	-6.872192e-001
	-3.854656e+001	-9.558496e+001	-3.793459e+001	8.685708e+001	-5.134746e-002	-7.660632e-001	-3.811112e+001	6.659000e+001
314670	-3.633709e+001	7.214829e+001	-4.762373e-002	-6.489007e-001	-3.736208e+001	8.684652e+001	-3.857614e+001	-9.471004e+001
	-7.384127e-002	-7.334893e-001	-3.802303e+001	6.282737e+001	-3.847520e+001	-9.536645e+001	-3.800556e+001	9.219301e+001
	-3.783244e+001	8.895180e+001	-3.804779e+001	-9.207338e+001	-3.702385e+001	7.287465e+001	-8.640452e-002	-5.233972e-001
	-3.764721e+001	-9.033582e+001	-3.761657e+001	8.539216e+001	-6.986308e-002	-7.665426e-001	-3.793455e+001	6.147691e+001
322004	-3.719046e+001	6.678515e+001	-6.295741e-002	-6.881266e-001	-3.792401e+001	9.237192e+001	-3.794481e+001	-8.831908e+001
	-6.199648e-002	-6.852477e-001	-3.788451e+001	7.142465e+001	-3.716985e+001	-9.280971e+001	-3.787339e+001	9.131669e+001
	-3.837113e+001	8.918752e+001	-3.790117e+001	-9.425203e+001	-3.662691e+001	7.529872e+001	-4.319430e-002	-8.975237e-001
	-3.820976e+001	-9.675701e+001	-3.846895e+001	8.857319e+001	-5.580913e-002	-6.464505e-001	-3.782333e+001	7.416172e+001
329339	-3.744931e+001	6.406956e+001	-4.958175e-002	-5.912211e-001	-3.793829e+001	8.584516e+001	-3.796479e+001	-9.249859e+001
	-7.467790e-002	-7.330820e-001	-3.822678e+001	5.917030e+001	-3.767219e+001	-9.955219e+001	-3.733935e+001	8.404336e+001
	-3.829696e+001	8.932365e+001	-3.837042e+001	-9.728339e+001	-3.748433e+001	6.674509e+001	-3.802260e-002	-5.892851e-001
	-3.762186e+001	-8.791788e+001	-3.761497e+001	9.045020e+001	-6.640666e-002	-7.029618e-001	-3.830682e+001	7.675939e+001
336674	-3.502423e+001	7.475952e+001	-5.337474e-002	-6.921451e-001	-3.643450e+001	8.688000e+001	-3.767393e+001	-9.789837e+001
	-5.609609e-002	-7.973245e-001	-3.578121e+001	7.029287e+001	-3.805547e+001	-9.322790e+001	-3.731696e+001	8.926191e+001
	-3.685764e+001	9.014008e+001	-3.733319e+001	-9.683067e+001	-3.718424e+001	6.769240e+001	-7.178997e-002	-8.359127e-001
	-3.714468e+001	-9.633103e+001	-3.804225e+001	8.073063e+001	-6.268142e-002	-6.293544e-001	-3.786796e+001	7.024454e+001
344009	-3.447161e+001	7.367385e+001	-3.355104e-002	-7.099172e-001	-3.761905e+001	8.434426e+001	-3.703780e+001	-9.418757e+001
	-4.366002e-002	-9.582196e-001	-3.610310e+001	7.361750e+001	-3.798068e+001	-9.843627e+001	-3.728639e+001	8.820077e+001
	-3.646938e+001	8.116443e+001	-3.725637e+001	-9.394782e+001	-3.544898e+001	7.829276e+001	-9.102608e-002	-6.702615e-001
	-3.705286e+001	-9.331988e+001	-3.769766e+001	8.708054e+001	-7.536691e-002	-8.218763e-001	-3.650733e+001	6.827600e+001
351344	-3.650318e+001	7.417214e+001	-4.156619e-002	-8.923111e-001	-3.647080e+001	8.600287e+001	-3.685112e+001	-9.659626e+001
	-2.869290e-002	-9.051963e-001	-3.578587e+001	7.467399e+001	-3.670568e+001	-9.610247e+001	-3.671799e+001	8.398436e+001
	-3.740713e+001	9.194221e+001	-3.743119e+001	-8.977678e+001	-3.601356e+001	8.189297e+001	-4.677880e-002	-7.773595e-001
	-3.778953e+001	-9.176016e+001	-3.684109e+001	8.746364e+001	-5.227899e-002	-7.618447e-001	-3.733880e+001	8.030194e+001
358679	-3.536643e+001	6.873404e+001	-3.686887e-002	-8.051977e-001	-3.687833e+001	8.398022e+001	-3.755495e+001	-9.499353e+001
	-6.049600e-002	-8.650499e-001	-3.762106e+001	8.090668e+001	-3.760625e+001	-9.426231e+001	-3.697187e+001	8.804195e+001
	-3.702620e+001	8.379080e+001	-3.682406e+001	-9.374681e+001	-3.593036e+001	7.862079e+001	-7.174448e-002	-7.844512e-001
	-3.760313e+001	-9.334682e+001	-3.651770e+001	9.038479e+001	-4.508006e-002	-9.169847e-001	-3.750913e+001	7.446376e+001
366013	-3.777322e+001	7.577543e+001	-1.071579e-002	-7.772292e-001	-3.672436e+001	8.393319e+001	-3.636594e+001	-9.016844e+001
	-5.287175e-002	-9.046901e-001	-3.626929e+001	8.122623e+001	-3.744804e+001	-9.082306e+001	-3.661203e+001	8.634279e+001
	-3.724952e+001	9.052594e+001	-3.721394e+001	-9.238756e+001	-3.533383e+001	8.163820e+001	-6.470122e-002	-7.815832e-001
	-3.669536e+001	-9.391505e+001	-3.740440e+001	8.484712e+001	-5.444777e-002	-8.400897e-001	-3.734196e+001	7.791581e+001
373348	-3.605235e+001	6.536792e+001	-4.718314e-002	-7.658518e-001	-3.565229e+001	8.983854e+001	-3.659316e+001	-9.609080e+001
	-4.885015e-002	-7.723219e-001	-3.555318e+001	7.256026e+001	-3.674248e+001	-9.301123e+001	-3.593459e+001	8.346786e+001
	-3.678816e+001	8.442452e+001	-3.652111e+001	-9.435664e+001	-3.510528e+001	7.547381e+001	-5.995187e-002	-7.886806e-001
	-3.732286e+001	-8.949310e+001	-3.665802e+001	8.528929e+001	-6.979914e-002	-7.721039e-001	-3.790676e+001	7.640869e+001
380683	-3.550058e+001	6.703628e+001	-5.928580e-002	-7.213106e-001	-3.632440e+001	8.611081e+001	-3.645439e+001	-9.194735e+001
	-3.635015e-002	-9.069686e-001	-3.679857e+001	6.637757e+001	-3.606691e+001	-8.748759e+001	-3.713909e+001	8.976975e+001
	-3.667801e+001	8.295271e+001	-3.618148e+001	-9.741024e+001	-3.549923e+001	7.888693e+001	-6.436584e-002	-8.618423e-001
	-3.646636e+001	-9.120847e+001	-3.598354e+001	8.993801e+001	-4.297095e-002	-8.284397e-001	-3.494650e+001	6.769166e+001
388018	-3.474361e+001	7.676621e+001	-3.045434e-002	-7.858415e-001	-3.575854e+001	8.898222e+001	-3.690393e+001	-8.597539e+001
	-4.895783e-002	-9.041134e-001	-3.588829e+001	7.876758e+001	-3.635319e+001	-9.354191e+001	-3.647998e+001	9.059142e+001
	-3.644095e+001	8.696352e+001	-3.612996e+001	-9.140652e+001	-3.478944e+001	7.228632e+001	-6.725837e-002	-9.034138e-001
	-3.641129e+001	-9.454533e+001	-3.630836e+001	8.913990e+001	-3.750056e-002	-8.482890e-001	-3.605343e+001	7.506001e+001
395353	-3.653091e+001	7.076004e+001	-3.861243e-002	-9.637879e-001	-3.604007e+001	9.029881e+001	-3.693065e+001	-9.307986e+001
	-4.306906e-002	-9.071147e-001	-3.463222e+001	7.920986e+001	-3.574295e+001	-9.422307e+001	-3.613194e+001	8.861149e+001
	-3.634168e+001	8.826644e+001	-3.642199e+001	-8.906150e+001	-3.474194e+001	7.493546e+001	-5.366419e-002	-7.877397e-001
	-3.654966e+001	-9.562153e+001	-3.602721e+001	8.690958e+001	-4.229782e-002	-1.009149e+000	-3.618197e+001	8.127133e+001
402688	-3.528725e+001	7.766084e+001	-4.249426e-002	-9.198241e-001	-3.630298e+001	8.446573e+001	-3.643937e+001	-9.296079e+001
	-3.171430e-002	-8.961194e-001	-3.491917e+001	7.300134e+001	-3.578956e+001	-9.367061e+001	-3.625824e+001	8.954164e+001
	-3.596275e+001	8.584246e+001	-3.600577e+001	-9.345745e+001	-3.520335e+001	7.346998e+001	-5.403982e-002	-8.587284e-001
	-3.619164e+001	-9.096788e+001	-3.573667e+001	8.524411e+001	-3.708607e-002	-8.986804e-001	-3.541432e+001	7.413229e+001
410022	-3.468308e+001	7.672393e+001	-4.929974e-002	-9.111057e-001	-3.632150e+001	8.539367e+001	-3.626380e+001	-9.456909e+001
	-6.398003e-002	-1.017381e+000	-3.635526e+001	6.934802e+001	-3.629434e+001	-9.312240e+001	-3.603031e+001	8.763964e+001
	-3.566191e+001	8.800501e+001	-3.608245e+001	-9.198313e+001	-3.465902e+001	7.002271e+001	-6.158710e-002	-8.330756e-001
	-3.594463e+001	-9.540442e+001	-3.560269e+001	8.656690e+001	-4.137706e-002	-9.512687e-001	-3.565593e+001	7.603820e+001
418652	-3.501910e+001	7.243433e+001	-4.696574e-002	-9.042119e-001	-3.588748e+001	8.733462e+001	-3.550548e+001	-9.214144e+001
	-5.773802e-002	-9.013084e-001	-3.542813e+001	6.758665e+001	-3.550263e+001	-9.528636e+001	-3.596877e+001	8.694285e+001
	-3.588955e+001	8.787626e+001	-3.611786e+001	-9.183393e+001	-3.407018e+001	7.321863e+001	-4.539739e-002	-9.657969e-001
	-3.583427e+001	-9.388721e+001	-3.583336e+001	8.923015e+001	-4.148567e-002	-1.058238e+000	-3.518448e+001	7.289992e+001
428777	-3.446207e+001	7.800196e+001	-4.890345e-002	-1.000478e+000	-3.521929e+001	8.299934e+001	-3.563767e+001	-9.565596e+001
	-4.419282e-002	-1.010962e+000	-3.640887e+001	7.490374e+001	-3.576629e+001	-9.048718e+001	-3.549336e+001	9.036128e+001
	-3.509763e+001	8.578576e+001	-3.584720e+001	-9.515120e+001	-3.447164e+001	7.180727e+001	-6.989061e-002	-1.015178e+000
	-3.498048e+001	-9.175911e+001	-3.580868e+001	8.858845e+001	-5.292026e-002	-9.249812e-001	-3.479457e+001	6.667308e+001
438901	-3.479761e+001	6.862521e+001	-3.500110e-002	-8.978351e-001	-3.504851e+001	8.432131e+001	-3.523151e+001	-8.787575e+001
	-5.092724e-002	-1.000999e+000	-3.463624e+001	6.587425e+001	-3.538497e+001	-8.987802e+001	-3.542683e+001	8.829664e+001
	-3.543628e+001	8.780464e+001	-3.538236e+001	-9.299328e+001	-3.513540e+001	8.196539e+001	-5.634792e-002	-1.054535e+000
	-3.497607e+001	-9.563246e+001	-3.502928e+001	8.627998e+001	-6.693922e-002	-1.068578e+000	-3.532346e+001	7.294757e+001
449026	-3.423650e+001	6.886632e+001	-7.268425e-002	-1.033654e+000	-3.480532e+001	9.052085e+001	-3.501642e+001	-9.029257e+001
	-4.483482e-002	-9.032664e-001	-3.550323e+001	6.633518e+001	-3.511389e+001	-9.258967e+001	-3.568256e+001	8.659766e+001
	-3.508170e+001	8.653955e+001	-3.502757e+001	-9.480424e+001	-3.377926e+001	7.844980e+001	-5.828172e-002	-1.012158e+000
	-3.504610e+001	-9.544132e+001	-3.505067e+001	8.411819e+001	-6.219613e-002	-1.023403e+000	-3.382045e+001	7.476772e+001
459150	-3.431552e+001	8.031422e+001	-3.233124e-002	-1.053488e+000	-3.390475e+001	8.646114e+001	-3.529722e+001	-9.318575e+001
	-3.777634e-002	-1.059959e+000	-3.412897e+001	8.314168e+001	-3.496400e+001	-9.081828e+001	-3.389536e+001	8.415904e+001
	-3.526534e+001	9.023529e+001	-3.516802e+001	-9.532354e+001	-3.365681e+001	7.469108e+001	-6.743108e-002	-1.009708e+000
	-3.480858e+001	-9.355561e+001	-3.499967e+001	8.752076e+001	-5.931469e-002	-9.503854e-001	-3.575021e+001	7.423086e+001
469275	-3.438517e+001	6.889990e+001	-2.469240e-002	-1.029555e+000	-3.481145e+001	9.071026e+001	-3.479031e+001	-8.987203e+001
	-3.347640e-002	-1.072090e+000	-3.506966e+001	7.219498e+001	-3.411648e+001	-9.565116e+001	-3.508199e+001	9.179141e+001
	-3.513527e+001	8.647678e+001	-3.513268e+001	-9.367800e+001	-3.393767e+001	6.968139e+001	-6.496866e-002	-1.106199e+000
	-3.499549e+001	-9.628140e+001	-3.480252e+001	8.958199e+001	-4.784125e-002	-1.010686e+000	-3.526480e+001	6.903364e+001
479399	-3.433121e+001	7.251357e+001	-4.815128e-002	-1.027082e+000	-3.449200e+001	8.164938e+001	-3.457957e+001	-9.393243e+001
	-5.749472e-002	-1.057756e+000	-3.585888e+001	7.395256e+001	-3.465949e+001	-9.023912e+001	-3.426935e+001	8.612627e+001
	-3.443645e+001	8.730037e+001	-3.463724e+001	-9.370740e+001	-3.295193e+001	7.565018e+001	-5.622052e-002	-1.036966e+000
	-3.426280e+001	-8.983936e+001	-3.476716e+001	8.571177e+001	-4.774390e-002	-1.106470e+000	-3.550363e+001	7.213913e+001
489523	-3.456862e+001	7.006713e+001	-2.630795e-002	-1.020273e+000	-3.452952e+001	8.882687e+001	-3.461916e+001	-9.227308e+001
	-3.544378e-002	-1.095187e+000	-3.489388e+001	7.618674e+001	-3.413523e+001	-9.442255e+001	-3.403290e+001	8.887496e+001
	-3.406747e+001	8.467957e+001	-3.406447e+001	-9.001632e+001	-3.312645e+001	7.368775e+001	-6.483314e-002	-1.156525e+000
	-3.466472e+001	-9.436807e+001	-3.407068e+001	8.566483e+001	-6.319002e-002	-1.024223e+000	-3.429025e+001	6.649778e+001
499648	-3.381284e+001	7.171234e+001	-5.148672e-002	-1.195514e+000	-3.441010e+001	8.437754e+001	-3.408374e+001	-9.347226e+001
	-4.186929e-002	-1.181477e+000	-3.292196e+001	6.830572e+001	-3.484380e+001	-9.235918e+001	-3.396521e+001	8.329259e+001
	-3.470648e+001	9.000633e+001	-3.446878e+001	-9.356720e+001	-3.462362e+001	7.088583e+001	-7.165235e-002	-9.979827e-001
	-3.445279e+001	-9.332998e+001	-3.396660e+001	8.630998e+001	-4.586560e-002	-1.008558e+000	-3.488689e+001	6.997540e+001
509772	-3.386974e+001	7.061441e+001	-6.943258e-002	-9.429804e-001	-3.406182e+001	8.630269e+001	-3.433605e+001	-8.927907e+001
	-5.462177e-002	-1.055353e+000	-3.444167e+001	7.212971e+001	-3.370040e+001	-9.259462e+001	-3.383598e+001	8.860687e+001
	-3.385088e+001	8.661739e+001	-3.381567e+001	-9.267511e+001	-3.303211e+001	6.609789e+001	-5.918004e-002	-1.138939e+000
	-3.381125e+001	-9.346210e+001	-3.398028e+001	8.489247e+001	-7.530975e-002	-1.096205e+000	-3.467172e+001	6.850490e+001
519897	-3.329422e+001	6.819746e+001	-2.526383e-002	-1.075685e+000	-3.368633e+001	8.634812e+001	-3.343302e+001	-9.166948e+001
	-4.386307e-002	-1.142767e+000	-3.388186e+001	7.362646e+001	-3.391608e+001	-9.543130e+001	-3.390622e+001	8.781077e+001
	-3.377130e+001	8.493223e+001	-3.406250e+001	-9.220683e+001	-3.336899e+001	7.283347e+001	-6.622075e-002	-1.147861e+000
	-3.394968e+001	-9.072600e+001	-3.333872e+001	8.535155e+001	-5.480670e-002	-1.214545e+000	-3.366255e+001	7.187188e+001
530021	-3.286017e+001	7.646471e+001	-5.201739e-002	-1.115662e+000	-3.365617e+001	8.635877e+001	-3.395662e+001	-9.574814e+001
	-4.448708e-002	-1.322925e+000	-3.385117e+001	7.359556e+001	-3.377643e+001	-9.176441e+001	-3.309922e+001	8.562497e+001
	-3.387850e+001	8.727007e+001	-3.379069e+001	-9.393270e+001	-3.274201e+001	7.113930e+001	-7.144223e-002	-1.098777e+000
	-3.405890e+001	-9.386783e+001	-3.340095e+001	8.643896e+001	-6.653003e-002	-1.174521e+000	-3.332322e+001	7.176640e+001
540146	-3.353062e+001	7.551184e+001	-7.392063e-002	-1.174396e+000	-3.331148e+001	8.464175e+001	-3.379245e+001	-9.177802e+001
	-4.719978e-002	-1.204437e+000	-3.379526e+001	6.914470e+001	-3.326446e+001	-9.524489e+001	-3.369102e+001	8.524858e+001
	-3.376833e+001	8.632286e+001	-3.355763e+001	-9.237783e+001	-3.330165e+001	7.459615e+001	-6.221451e-002	-1.120767e+000
	-3.380491e+001	-9.332017e+001	-3.306101e+001	8.580852e+001	-5.432725e-002	-1.107027e+000	-3.380252e+001	6.920145e+001
550270	-3.251224e+001	6.924712e+001	-3.846314e-002	-1.343961e+000	-3.373191e+001	8.671526e+001	-3.314895e+001	-9.460419e+001
	-5.666914e-002	-1.186997e+000	-3.303390e+001	7.310739e+001	-3.349811e+001	-9.186313e+001	-3.350358e+001	9.021454e+001
	-3.315067e+001	8.799106e+001	-3.329124e+001	-9.301625e+001	-3.298250e+001	6.858075e+001	-5.220214e-002	-1.184491e+000
	-3.347113e+001	-9.415255e+001	-3.344684e+001	8.732441e+001	-5.936307e-002	-1.270135e+000	-3.304244e+001	7.553804e+001
560395	-3.267269e+001	6.951900e+001	-4.211012e-002	-1.250962e+000	-3.270451e+001	8.734525e+001	-3.362300e+001	-9.203794e+001
	-5.140006e-002	-1.344733e+000	-3.269141e+001	7.460286e+001	-3.331980e+001	-9.246369e+001	-3.240997e+001	8.682364e+001
	-3.325054e+001	8.687588e+001	-3.328737e+001	-9.682071e+001	-3.233603e+001	7.945821e+001	-6.909021e-002	-1.226990e+000
	-3.356529e+001	-9.776640e+001	-3.297718e+001	8.672470e+001	-5.177261e-002	-1.227918e+000	-3.260825e+001	7.561226e+001
572189	-3.295281e+001	7.073252e+001	-3.299533e-002	-1.105615e+000	-3.316750e+001	8.626402e+001	-3.312499e+001	-9.233607e+001
	-4.004322e-002	-1.248389e+000	-3.202222e+001	7.180813e+001	-3.262492e+001	-9.191750e+001	-3.297458e+001	8.263371e+001
	-3.318231e+001	8.819261e+001	-3.336603e+001	-9.523017e+001	-3.290560e+001	7.564040e+001	-6.844020e-002	-1.271261e+000
	-3.271051e+001	-9.279525e+001	-3.271956e+001	8.585656e+001	-5.578545e-002	-1.185552e+000	-3.234498e+001	7.052379e+001
586179	-3.207982e+001	7.215086e+001	-4.779200e-002	-1.313636e+000	-3.236420e+001	8.629739e+001	-3.250609e+001	-9.208546e+001
	-6.541399e-002	-1.295282e+000	-3.250777e+001	7.439442e+001	-3.272132e+001	-9.101462e+001	-3.297357e+001	8.697747e+001
	-3.265923e+001	8.570411e+001	-3.285722e+001	-9.384221e+001	-3.248083e+001	7.540777e+001	-7.759177e-002	-1.393576e+000
	-3.276053e+001	-9.395615e+001	-3.286955e+001	8.679023e+001	-5.387404e-002	-1.275533e+000	-3.241838e+001	7.214562e+001
600169	-3.249861e+001	7.560212e+001	-4.317628e-002	-1.345074e+000	-3.259779e+001	8.593632e+001	-3.263115e+001	-9.436045e+001
	-3.215239e-002	-1.359049e+000	-3.276081e+001	7.650068e+001	-3.274325e+001	-9.185700e+001	-3.268905e+001	8.415182e+001
	-3.215567e+001	8.682174e+001	-3.282269e+001	-9.465691e+001	-3.257644e+001	7.195997e+001	-6.590933e-002	-1.311997e+000
	-3.315146e+001	-9.516170e+001	-3.303853e+001	8.762518e+001	-7.660150e-002	-1.293294e+000	-3.305871e+001	7.466892e+001
614158	-3.220700e+001	6.727377e+001	-6.769779e-002	-1.324540e+000	-3.234823e+001	8.496298e+001	-3.213707e+001	-9.226318e+001
	-6.148918e-002	-1.327559e+000	-3.266242e+001	7.054923e+001	-3.216603e+001	-9.499015e+001	-3.232169e+001	8.539240e+001
	-3.236802e+001	8.721202e+001	-3.259496e+001	-9.541743e+001	-3.200167e+001	7.450835e+001	-6.847496e-002	-1.443750e+000
	-3.262982e+001	-9.430627e+001	-3.198883e+001	8.731610e+001	-3.828809e-002	-1.383870e+000	-3.245610e+001	7.353430e+001
628148	-3.294708e+001	7.583599e+001	-6.424833e-002	-1.355253e+000	-3.177855e+001	8.848918e+001	-3.242277e+001	-9.447622e+001
	-4.768420e-002	-1.347190e+000	-3.265080e+001	7.328779e+001	-3.242425e+001	-9.495601e+001	-3.204434e+001	8.573448e+001
	-3.196088e+001	8.539860e+001	-3.235390e+001	-9.434818e+001	-3.259716e+001	7.361130e+001	-5.141639e-002	-1.409668e+000
	-3.252167e+001	-9.134051e+001	-3.189883e+001	8.495793e+001	-7.391588e-002	-1.335622e+000	-3.179338e+001	8.125156e+001
642138	-3.260901e+001	6.985194e+001	-5.552984e-002	-1.401102e+000	-3.149167e+001	8.792840e+001	-3.210260e+001	-9.423219e+001
