! This data is being provided by Wuerth Elektronik eiSos GmbH & Co. KG to the industry for analysis.
!
! Document information:
! Version:rev19a Date: 16/12/2019
!
! Component information:
! Match Code: WE-CNSW P/N: 744230900 Size: 0603
!------------------------------------------------------------------------------------------------------------------
! Disclaimer:  While Würth Elektronik eiSos has made every reasonable effort to ensure the accuracy
! of the information provided, Würth Elektronik eiSos does not guarantee the exemption of error on the
! data collection measurements, nor does Würth Elektronik eiSos guarantee that the information is current.
! Würth Elektronik eiSos reserves the right to make any adjustments at any time without notice.
! Würth Elektronik eiSos expressly disclaims all implied warranties regarding this measurement data collection.
!
! Note 1 – This data measurement is representative according to the product implementation into the fixture.
! Component behavior is sensitive to implementation into the fixture, which includes board
! materials, trace geometry information, connector pin out, layer connection, use of de-embedding
! techniques, etc.
!
! Note 2 - The fixture was designed specifically to match the 50 Ohm line impedance, as well as the connector impedance,
! in order to accomplish a reliable measurement without reflections in the trace. Any other implementation of the fixture will change the obtained
! measurement performance. The used fixture behavior was de-embedded to accomplish reliable measurement results.
!
!------------------------------------------------------------------------------------------------------------------
!
! The test setup consisted of the following:
!   - Agilent VNA E5071C or E5071B
!   - Calibrations are SOLT (short open load thru)
!   - De-embedding of the SMA's or line cards were included
!   - Equipment Settings -
!            - Sampling - 501 points
!            - IF BW – 70 kHz
!            - Averaging – Not used
!
!
!
!             Port 1----->|1|        |2| -----> Port 3
!                            |   DUT  |
!             Port 2----->|3|        |4| -----> Port 4
!
!
!*VNA Port --> |Port in Datasheet|
! |Port in Datasheet| --> VNA Port
!
!
! For further information regarding this testing, please contact
! Wuerth Elektronik eiSos
! Contact: EDA team in QDC
! Email: libraries@we-online.com or libraries@we-online.de
!
!
# Hz S dB R 50
300000	-4.293210e+001	4.979122e+001	-4.685299e-002	-3.303363e-001	-4.620068e+001	9.324498e+001	-4.597074e+001	-9.780666e+001
	-7.458971e-002	-1.408446e-001	-4.319882e+001	4.352903e+001	-5.144080e+001	-1.150070e+002	-4.718071e+001	7.069997e+001
	-4.482041e+001	8.438605e+001	-4.585352e+001	-8.000282e+001	-4.335538e+001	7.004203e+001	-5.897671e-002	-4.708076e-001
	-4.715449e+001	-8.446301e+001	-4.612825e+001	9.678568e+001	-4.187119e-002	-3.362964e-001	-4.181530e+001	4.406432e+001
307335	-3.984398e+001	6.925789e+001	9.564717e-004	-1.826744e-001	-4.715443e+001	7.094921e+001	-5.100818e+001	-8.392622e+001
	-1.366003e-002	-3.420158e-001	-5.154019e+001	8.908574e+001	-4.766630e+001	-8.938589e+001	-4.581667e+001	8.363187e+001
	-4.574143e+001	8.410859e+001	-4.609634e+001	-9.504126e+001	-4.564180e+001	6.913971e+001	-3.580114e-002	-2.368692e-001
	-4.705928e+001	-8.816963e+001	-4.736029e+001	9.856354e+001	-3.368797e-002	-3.643510e-001	-4.718764e+001	1.080323e+002
314670	-4.734985e+001	4.029033e+001	-2.376454e-002	-2.622621e-002	-4.597685e+001	8.308726e+001	-4.571265e+001	-1.122782e+002
	-3.031761e-002	-3.650139e-001	-4.710352e+001	-6.944898e+000	-4.683013e+001	-9.877956e+001	-4.841642e+001	8.297456e+001
	-4.684555e+001	7.815975e+001	-4.825959e+001	-9.963437e+001	-4.727295e+001	6.179911e+001	-4.561203e-002	-3.170085e-001
	-4.645719e+001	-9.806575e+001	-4.557173e+001	8.803284e+001	-3.974021e-002	-2.242140e-001	-4.438276e+001	2.053809e+001
322004	-4.435249e+001	4.371866e+001	-5.335235e-002	-3.164826e-001	-4.895967e+001	7.880826e+001	-4.508216e+001	-8.330501e+001
	-3.951250e-002	-1.363684e-001	-4.551877e+001	1.706196e+001	-4.730385e+001	-9.331263e+001	-4.652788e+001	8.881193e+001
	-4.740121e+001	8.233533e+001	-4.713094e+001	-9.104193e+001	-4.442513e+001	5.216589e+001	-5.506075e-002	-1.129007e-001
	-4.794039e+001	-9.846847e+001	-4.473423e+001	8.352587e+001	-3.515708e-002	-1.542372e-001	-4.619038e+001	3.666100e+001
329339	-4.330501e+001	3.458117e+001	-3.357530e-002	-1.199680e-001	-4.686636e+001	1.005781e+002	-4.636342e+001	-8.978245e+001
	-5.149357e-002	-2.369052e-001	-4.529789e+001	-5.085906e+000	-4.865517e+001	-8.111471e+001	-4.638226e+001	9.102212e+001
	-4.455597e+001	8.876256e+001	-4.685745e+001	-9.171071e+001	-4.669589e+001	6.944348e+001	-2.567464e-002	-1.960122e-001
	-4.659918e+001	-7.537981e+001	-4.695736e+001	8.593093e+001	-4.124890e-002	-1.899466e-001	-4.679755e+001	6.178107e+001
336674	-4.453805e+001	3.971449e+001	-3.138382e-002	-1.758559e-001	-4.686355e+001	8.687745e+001	-4.560166e+001	-8.846888e+001
	-3.085489e-002	-3.278890e-001	-4.760731e+001	5.029816e+000	-4.504213e+001	-9.100301e+001	-4.688529e+001	9.068946e+001
	-4.516988e+001	7.019946e+001	-4.683800e+001	-1.011391e+002	-4.649578e+001	7.413988e+001	-7.561429e-002	-2.963765e-001
	-4.710049e+001	-9.470083e+001	-4.663806e+001	7.242981e+001	-3.327962e-002	-2.831713e-001	-4.227499e+001	2.541580e+001
344009	-4.564018e+001	1.877902e+001	-3.407034e-002	-1.942148e-001	-4.629088e+001	9.513742e+001	-4.614012e+001	-8.707257e+001
	-4.007083e-002	-2.031513e-001	-4.300462e+001	1.666519e+001	-4.694841e+001	-9.687380e+001	-4.613244e+001	7.855495e+001
	-4.572985e+001	9.204689e+001	-4.473479e+001	-8.902846e+001	-4.419948e+001	7.035759e+001	-3.426966e-002	-2.290519e-001
	-4.917492e+001	-1.121910e+002	-4.560583e+001	8.821822e+001	-4.744667e-002	-2.921981e-001	-4.958006e+001	5.191442e+001
351344	-4.844782e+001	6.479133e+001	-2.962330e-002	-3.029210e-001	-4.540963e+001	8.048149e+001	-4.616306e+001	-9.852964e+001
	-1.453043e-002	-4.030351e-001	-4.691844e+001	4.204872e+001	-4.716178e+001	-1.008319e+002	-4.447943e+001	7.779052e+001
	-4.693566e+001	9.880596e+001	-4.670071e+001	-8.194803e+001	-4.729666e+001	6.881706e+001	-5.317013e-002	-2.020477e-001
	-4.752929e+001	-1.023163e+002	-4.631757e+001	8.484842e+001	-2.260042e-002	-2.360683e-001	-4.473220e+001	3.916999e+001
358679	-4.252837e+001	6.152037e+001	-2.319349e-002	-2.273903e-001	-4.724289e+001	9.169295e+001	-4.543198e+001	-9.299462e+001
	-3.592343e-002	-3.695066e-001	-4.628841e+001	7.134252e+001	-4.533338e+001	-9.144877e+001	-4.507312e+001	9.249984e+001
	-4.616521e+001	1.031117e+002	-4.590897e+001	-8.581855e+001	-4.504263e+001	6.043385e+001	-2.711666e-002	-1.777643e-001
	-4.576695e+001	-9.017844e+001	-4.504118e+001	8.571923e+001	-2.395381e-002	-2.413434e-001	-5.275277e+001	6.495295e+001
366013	-4.265665e+001	5.714790e+001	-1.508802e-002	-4.180678e-001	-4.513613e+001	8.785263e+001	-4.765748e+001	-9.692507e+001
	-3.555443e-002	-3.938991e-001	-4.495750e+001	3.437357e+001	-4.537292e+001	-8.043911e+001	-4.470662e+001	9.291450e+001
	-4.621782e+001	9.531440e+001	-4.593824e+001	-7.699199e+001	-4.532614e+001	6.731339e+001	-2.899886e-002	-2.769047e-001
	-4.419828e+001	-1.031628e+002	-4.533388e+001	1.016325e+002	-3.824816e-002	-2.738458e-001	-4.794142e+001	5.006752e+001
373348	-4.666041e+001	5.597979e+001	-4.619391e-002	-2.225914e-001	-4.483478e+001	9.232357e+001	-4.561040e+001	-9.834810e+001
	-2.486198e-002	-3.433638e-001	-4.786930e+001	6.454009e+001	-4.691153e+001	-8.989609e+001	-4.630788e+001	9.058445e+001
	-4.600855e+001	8.892870e+001	-4.663892e+001	-8.714446e+001	-4.653714e+001	8.699415e+001	-2.059235e-002	-3.727663e-001
	-4.554279e+001	-9.728716e+001	-4.566592e+001	8.404739e+001	-2.223886e-002	-1.208926e-001	-4.734548e+001	7.524645e+001
380683	-4.736657e+001	5.371620e+001	-1.173557e-002	-3.232410e-001	-4.544195e+001	8.682870e+001	-4.639306e+001	-1.034738e+002
	-3.152632e-002	-3.882666e-001	-4.550110e+001	4.803436e+001	-4.340888e+001	-9.600250e+001	-4.452784e+001	7.861122e+001
	-4.564018e+001	1.054500e+002	-4.526756e+001	-8.938605e+001	-4.444916e+001	6.033694e+001	-2.433558e-002	-3.328129e-001
	-4.447177e+001	-9.764649e+001	-4.431386e+001	8.996781e+001	-2.248013e-002	-2.463118e-001	-5.899044e+001	4.529345e+001
388018	-4.412523e+001	3.921989e+001	-2.727423e-002	-2.825881e-001	-4.552839e+001	1.003689e+002	-4.466975e+001	-9.209189e+001
	-3.224327e-002	-3.224164e-001	-4.912500e+001	5.371450e+001	-4.589727e+001	-9.012582e+001	-4.546626e+001	8.040869e+001
	-4.390244e+001	9.747291e+001	-4.598094e+001	-7.897011e+001	-4.682099e+001	9.154018e+001	-3.320925e-002	-2.772306e-001
	-4.535203e+001	-8.267762e+001	-4.393676e+001	9.345959e+001	3.793824e-003	-3.133904e-001	-4.974072e+001	5.395930e+001
395353	-4.156896e+001	7.339689e+001	-3.292413e-002	-3.049451e-001	-4.348525e+001	8.473377e+001	-4.606125e+001	-9.627696e+001
	-5.553759e-003	-3.850686e-001	-4.550692e+001	3.456922e+001	-4.452992e+001	-1.010481e+002	-4.482710e+001	8.061395e+001
	-4.530359e+001	1.062977e+002	-4.420646e+001	-9.650542e+001	-4.536130e+001	7.071643e+001	-6.245466e-002	-3.763495e-001
	-4.437260e+001	-1.001504e+002	-4.539757e+001	8.374762e+001	-1.464978e-002	-2.245377e-001	-4.659000e+001	6.647284e+001
402688	-4.771804e+001	5.476209e+001	-1.736411e-002	-2.762098e-001	-4.464618e+001	9.520387e+001	-4.549130e+001	-8.260569e+001
	-1.040420e-002	-2.991542e-001	-4.537925e+001	4.718149e+001	-4.513278e+001	-1.010776e+002	-4.470760e+001	1.008918e+002
	-4.545968e+001	9.031060e+001	-4.544066e+001	-8.554775e+001	-4.507771e+001	4.596901e+001	-1.552910e-002	-2.977064e-001
	-4.379774e+001	-9.882198e+001	-4.399233e+001	9.489221e+001	-5.349842e-002	-1.979620e-001	-4.761954e+001	6.156848e+001
410022	-4.302802e+001	5.586781e+001	-3.760905e-002	-2.805024e-001	-4.509702e+001	8.101100e+001	-4.531391e+001	-8.359616e+001
	-4.288127e-002	-4.045863e-001	-4.437153e+001	5.177656e+001	-4.537222e+001	-8.957882e+001	-4.372909e+001	9.591568e+001
	-4.543671e+001	8.973336e+001	-4.402486e+001	-9.328819e+001	-4.388189e+001	6.693727e+001	-2.197021e-002	-3.577259e-001
	-4.531654e+001	-9.042485e+001	-4.327923e+001	8.881297e+001	-3.670648e-002	-1.962092e-001	-4.602274e+001	6.422481e+001
418652	-4.395326e+001	5.282599e+001	-3.933031e-002	-3.027346e-001	-4.280144e+001	9.409335e+001	-4.361595e+001	-8.994328e+001
	-2.495232e-002	-5.101367e-001	-4.536667e+001	3.793229e+001	-4.542026e+001	-9.827574e+001	-4.474645e+001	9.479651e+001
	-4.469776e+001	8.935599e+001	-4.347500e+001	-9.423324e+001	-4.448944e+001	5.895855e+001	-4.330220e-002	-3.207094e-001
	-4.415103e+001	-8.041205e+001	-4.613019e+001	9.300245e+001	-4.173298e-002	-3.356044e-001	-4.698179e+001	2.851564e+001
428777	-4.527262e+001	2.853860e+001	-5.124669e-002	-3.333578e-001	-4.405923e+001	7.730735e+001	-4.501864e+001	-9.069508e+001
	-3.726935e-002	-1.439569e-001	-4.447381e+001	3.504163e+001	-4.547441e+001	-8.015978e+001	-4.352300e+001	1.022589e+002
	-4.649434e+001	9.249660e+001	-4.518603e+001	-9.397867e+001	-4.341576e+001	6.894231e+001	-1.197854e-002	-4.584331e-001
	-4.567633e+001	-8.581722e+001	-4.352302e+001	8.675425e+001	-3.268984e-002	-2.905554e-001	-4.399872e+001	7.161004e+001
438901	-4.595767e+001	2.700218e+001	-3.643777e-002	-3.759404e-001	-4.359812e+001	8.512967e+001	-4.429433e+001	-9.055911e+001
	-2.475646e-002	-1.701851e-001	-4.475048e+001	4.947467e+001	-4.547335e+001	-9.342322e+001	-4.283366e+001	8.870916e+001
	-4.229242e+001	8.210298e+001	-4.509067e+001	-8.916284e+001	-4.325091e+001	6.776311e+001	-4.317802e-002	-3.504633e-001
	-4.547898e+001	-8.973591e+001	-4.385548e+001	8.349735e+001	-2.457256e-002	-4.088249e-001	-4.869784e+001	6.355116e+001
449026	-4.196983e+001	3.894748e+001	-3.685148e-002	-3.322597e-001	-4.438316e+001	9.164831e+001	-4.338170e+001	-9.342076e+001
	-2.798950e-002	-2.315495e-001	-4.638077e+001	6.644388e+001	-4.397382e+001	-9.140947e+001	-4.388954e+001	8.153883e+001
	-4.363158e+001	8.985509e+001	-4.315344e+001	-9.590367e+001	-4.174771e+001	6.290832e+001	-2.408931e-002	-4.564237e-001
	-4.412825e+001	-8.814652e+001	-4.412526e+001	8.435273e+001	-4.007641e-002	-2.705312e-001	-4.321492e+001	6.935419e+001
459150	-4.305733e+001	6.617233e+001	-3.059830e-002	-3.271168e-001	-4.325641e+001	8.286577e+001	-4.476928e+001	-9.228582e+001
	-3.316866e-002	-4.268009e-001	-4.553442e+001	2.081462e+001	-4.443451e+001	-9.520288e+001	-4.247617e+001	8.691210e+001
	-4.373257e+001	9.201922e+001	-4.471051e+001	-9.249705e+001	-4.158611e+001	6.447679e+001	-2.511187e-002	-3.890400e-001
	-4.364462e+001	-8.172036e+001	-4.337476e+001	9.274175e+001	-3.642898e-002	-3.256976e-001	-4.576278e+001	6.681870e+001
469275	-4.217562e+001	3.045688e+001	-4.035755e-002	-2.631351e-001	-4.260580e+001	9.353721e+001	-4.316607e+001	-9.513638e+001
	-4.722335e-002	-4.264560e-001	-4.607665e+001	1.184472e+001	-4.364333e+001	-9.856505e+001	-4.303754e+001	1.006265e+002
	-4.299527e+001	8.787100e+001	-4.377373e+001	-9.569054e+001	-4.453321e+001	5.318176e+001	-4.470564e-002	-3.778432e-001
	-4.520361e+001	-9.075387e+001	-4.211396e+001	8.800243e+001	-1.064347e-002	-4.246897e-001	-4.553635e+001	5.402076e+001
479399	-4.068121e+001	5.071351e+001	-4.849339e-002	-4.317734e-001	-4.416073e+001	8.532550e+001	-4.308143e+001	-8.940154e+001
	-4.229163e-002	-3.551677e-001	-4.365865e+001	2.241655e+001	-4.439956e+001	-9.261947e+001	-4.288526e+001	8.925851e+001
	-4.327415e+001	8.597112e+001	-4.310534e+001	-9.085507e+001	-4.458640e+001	5.626298e+001	-1.766593e-002	-3.073086e-001
	-4.401829e+001	-8.802754e+001	-4.490022e+001	8.707524e+001	-1.139054e-002	-3.175748e-001	-5.106658e+001	6.338622e+001
489523	-4.488866e+001	4.731156e+001	-2.081565e-002	-4.209044e-001	-4.228835e+001	8.918892e+001	-4.229548e+001	-8.692853e+001
	-1.618942e-002	-5.504184e-001	-4.223543e+001	3.464080e+001	-4.443597e+001	-9.584774e+001	-4.426022e+001	8.381975e+001
	-4.224483e+001	7.808588e+001	-4.250624e+001	-8.616884e+001	-4.349291e+001	5.479209e+001	-3.594763e-002	-2.483413e-001
	-4.282547e+001	-8.875088e+001	-4.363007e+001	9.003757e+001	-1.594651e-002	-4.287320e-001	-4.657697e+001	5.589040e+001
499648	-4.162799e+001	5.423272e+001	-4.221426e-002	-3.179052e-001	-4.177934e+001	9.078703e+001	-4.181128e+001	-9.298497e+001
	-2.948074e-002	-4.055052e-001	-4.468228e+001	3.528274e+001	-4.273695e+001	-8.925216e+001	-4.295090e+001	8.765189e+001
	-4.298307e+001	8.758927e+001	-4.301647e+001	-9.296828e+001	-4.382740e+001	6.227054e+001	-4.423858e-002	-4.269918e-001
	-4.261396e+001	-9.556022e+001	-4.257988e+001	8.776952e+001	-3.723615e-002	-3.172514e-001	-4.710363e+001	4.908230e+001
509772	-4.560772e+001	4.696832e+001	-5.189220e-002	-1.992932e-001	-4.231342e+001	9.225735e+001	-4.199282e+001	-8.665858e+001
	-4.310374e-002	-4.091745e-001	-4.327380e+001	4.429166e+001	-4.395589e+001	-8.903923e+001	-4.284772e+001	9.211594e+001
	-4.200863e+001	8.712803e+001	-4.365221e+001	-9.562405e+001	-4.388090e+001	4.386924e+001	-1.787834e-002	-3.935949e-001
	-4.376416e+001	-9.970276e+001	-4.413397e+001	7.940421e+001	-3.031956e-002	-4.341320e-001	-4.701969e+001	6.276272e+001
519897	-4.040528e+001	4.398927e+001	-3.549741e-002	-3.557970e-001	-4.129650e+001	8.931721e+001	-4.251843e+001	-9.263578e+001
	-4.056521e-002	-4.434701e-001	-4.302709e+001	6.150977e+001	-4.199326e+001	-9.260432e+001	-4.194939e+001	8.677010e+001
	-4.286565e+001	8.581850e+001	-4.284953e+001	-9.020013e+001	-4.319171e+001	6.476165e+001	-4.370042e-002	-4.352863e-001
	-4.142514e+001	-9.156596e+001	-4.210676e+001	8.596323e+001	-3.708776e-002	-3.162221e-001	-4.472616e+001	4.722909e+001
530021	-4.134468e+001	4.352120e+001	1.798349e-003	-3.910359e-001	-4.130300e+001	8.775185e+001	-4.290278e+001	-9.594180e+001
	-2.686819e-002	-2.993577e-001	-4.345432e+001	5.431459e+001	-4.296635e+001	-9.567584e+001	-4.332355e+001	9.865110e+001
	-4.346643e+001	9.441869e+001	-4.261169e+001	-9.487067e+001	-4.234850e+001	6.132387e+001	-3.299502e-002	-4.442321e-001
	-4.341350e+001	-9.444947e+001	-4.247332e+001	9.062475e+001	-2.041912e-002	-3.864080e-001	-4.343323e+001	4.858832e+001
540146	-4.349259e+001	3.075471e+001	-6.383317e-002	-4.351262e-001	-4.315911e+001	8.872239e+001	-4.300596e+001	-9.683806e+001
	-4.233225e-002	-4.308543e-001	-4.180933e+001	4.656471e+001	-4.163377e+001	-8.398996e+001	-4.107154e+001	7.610126e+001
	-4.178899e+001	8.650098e+001	-4.309014e+001	-9.491765e+001	-4.344139e+001	4.417392e+001	-3.315879e-002	-4.873518e-001
	-4.257271e+001	-8.790615e+001	-4.194973e+001	9.533522e+001	-3.400991e-002	-4.006569e-001	-4.326507e+001	4.662544e+001
550270	-3.997592e+001	5.829522e+001	-3.871725e-002	-3.357355e-001	-4.269501e+001	8.787106e+001	-4.143446e+001	-9.524111e+001
	-2.869055e-002	-4.714619e-001	-4.206329e+001	5.730522e+001	-4.204093e+001	-9.436492e+001	-4.400230e+001	8.237623e+001
	-4.146649e+001	9.050070e+001	-4.180655e+001	-9.194838e+001	-4.530004e+001	5.081228e+001	-2.536849e-002	-4.082856e-001
	-4.177124e+001	-8.584770e+001	-4.069702e+001	9.075214e+001	-2.906486e-002	-4.650085e-001	-4.254478e+001	4.961194e+001
560395	-4.052447e+001	4.216384e+001	-3.111308e-002	-5.689359e-001	-4.123571e+001	9.358501e+001	-4.044055e+001	-9.437889e+001
	-4.649448e-002	-5.326031e-001	-3.877646e+001	5.187538e+001	-4.369638e+001	-1.037906e+002	-4.494912e+001	9.691031e+001
	-4.271654e+001	8.905843e+001	-4.154141e+001	-9.526770e+001	-4.297336e+001	5.630897e+001	-2.787586e-002	-3.665498e-001
	-4.240151e+001	-8.918424e+001	-4.170589e+001	9.242789e+001	-6.214937e-002	-3.830715e-001	-4.276867e+001	6.661704e+001
572189	-4.609631e+001	3.936525e+001	-5.963601e-002	-5.190231e-001	-4.254328e+001	9.131298e+001	-4.089998e+001	-9.835343e+001
	-3.648373e-002	-4.186433e-001	-4.153435e+001	5.454540e+001	-4.037639e+001	-9.173608e+001	-4.161348e+001	7.833730e+001
	-4.126744e+001	8.673105e+001	-4.135917e+001	-9.639794e+001	-4.418912e+001	6.417766e+001	-5.257332e-002	-4.826873e-001
	-4.145667e+001	-8.874592e+001	-4.131642e+001	8.307965e+001	-3.680875e-002	-5.013746e-001	-4.199731e+001	6.291025e+001
586179	-4.205905e+001	4.482303e+001	-1.366560e-002	-5.451511e-001	-4.198682e+001	8.942545e+001	-4.255265e+001	-9.150124e+001
	-3.020457e-002	-4.722099e-001	-4.242061e+001	5.638821e+001	-4.084489e+001	-8.472461e+001	-4.125603e+001	8.669318e+001
	-4.058619e+001	8.631335e+001	-4.070213e+001	-9.269991e+001	-4.187617e+001	5.861205e+001	-4.029916e-002	-5.115371e-001
	-4.194704e+001	-9.357841e+001	-4.127700e+001	8.842047e+001	-3.589214e-002	-5.108491e-001	-4.294670e+001	5.459194e+001
600169	-4.265681e+001	5.696495e+001	-2.306662e-002	-5.321699e-001	-4.124655e+001	8.691392e+001	-4.131584e+001	-9.181170e+001
	-4.013529e-002	-4.745753e-001	-4.127326e+001	5.319757e+001	-4.099369e+001	-9.211959e+001	-4.103775e+001	8.869767e+001
	-4.203039e+001	8.551639e+001	-4.159043e+001	-9.763769e+001	-4.328695e+001	6.442498e+001	-3.369319e-002	-4.535442e-001
	-4.145975e+001	-9.363553e+001	-4.158724e+001	8.746911e+001	-3.979287e-002	-6.014509e-001	-4.256958e+001	7.946409e+001
614158	-4.196523e+001	5.637592e+001	-4.085661e-002	-4.092354e-001	-4.221174e+001	9.213080e+001	-4.184291e+001	-9.284140e+001
	-2.408057e-002	-5.258049e-001	-4.154559e+001	5.514224e+001	-4.130914e+001	-8.966276e+001	-4.092115e+001	8.935997e+001
	-4.095110e+001	8.886243e+001	-4.240453e+001	-8.781611e+001	-4.160106e+001	6.945972e+001	-3.004939e-002	-5.364010e-001
	-4.133520e+001	-9.636485e+001	-4.097064e+001	8.759427e+001	-3.486467e-002	-5.016339e-001	-4.179437e+001	7.874653e+001
628148	-4.114375e+001	4.569807e+001	-3.917912e-002	-6.447081e-001	-4.031735e+001	8.441730e+001	-4.112757e+001	-9.479487e+001
	-3.753173e-002	-3.658349e-001	-4.064766e+001	4.716884e+001	-4.182474e+001	-8.366927e+001	-4.036054e+001	8.101187e+001
	-4.082131e+001	8.692285e+001	-4.087453e+001	-8.747721e+001	-4.195839e+001	6.252722e+001	-5.954026e-003	-4.287433e-001
	-4.058405e+001	-8.986181e+001	-4.156459e+001	8.154100e+001	-1.753070e-002	-4.831915e-001	-4.538388e+001	8.483351e+001
642138	-4.274934e+001	5.500302e+001	-3.964291e-002	-4.657350e-001	-4.022864e+001	8.745792e+001	-4.199982e+001	-9.071895e+001
