! This data is being provided by Wuerth Elektronik eiSos GmbH & Co. KG to the industry for analysis.
!
! Document information:
! Version:rev19a Date: 19/11/2019
!
! Component information:
! Match Code: WE-SL5 P/N: 744272102 Size:
!------------------------------------------------------------------------------------------------------------------
! Disclaimer:  While Würth Elektronik eiSos has made every reasonable effort to ensure the accuracy
! of the information provided, Würth Elektronik eiSos does not guarantee the exemption of error on the
! data collection measurements, nor does Würth Elektronik eiSos guarantee that the information is current.
! Würth Elektronik eiSos reserves the right to make any adjustments at any time without notice.
! Würth Elektronik eiSos expressly disclaims all implied warranties regarding this measurement data collection.
!
! Note 1 – This data measurement is representative according to the product implementation into the fixture.
! Component behavior is sensitive to implementation into the fixture, which includes board
! materials, trace geometry information, connector pin out, layer connection, use of de-embedding
! techniques, etc.
!
! Note 2 - The fixture was designed specifically to match the 50 Ohm line impedance, as well as the connector impedance,
! in order to accomplish a reliable measurement without reflections in the trace. Any other implementation of the fixture will change the obtained
! measurement performance. The used fixture behavior was de-embedded to accomplish reliable measurement results.
!
!------------------------------------------------------------------------------------------------------------------
!
! The test setup consisted of the following:
!   - Agilent VNA E5071C or E5071B
!   - Calibrations are SOLT (short open load thru)
!   - De-embedding of the SMA's or line cards were included
!   - Equipment Settings -
!            - Sampling - 801 points
!            - IF BW – 70 kHz
!            - Averaging – Not used
!
!
!
!             Port 1----->|1 |-@@@@@-|2 | -----> Port 3
!                            
!             Port 2----->|4 |-@@@@@-|3 | -----> Port 4
!
!
!*VNA Port --> |Port in Datasheet|
! |Port in Datasheet| --> VNA Port
!
!
! For further information regarding this testing, please contact
! Wuerth Elektronik eiSos
! Contact: EDA team in QDC
! Email: libraries@we-online.com or libraries@we-online.de
!
!
# Hz S  RI   R 50
10000 0.35357898 0.17664181 0.35223845 0.17553286 0.64632326 -0.17828245 -0.35207346 -0.17526756
0.35211182 0.17529784 0.35318759 0.17662421 -0.35244465 -0.17542858 0.64681727 -0.17811958
0.64636695 -0.17764144 -0.35258108 -0.17536339 0.35343686 0.17677802 0.35242027 0.1751208
-0.35213187 -0.17537293 0.64690828 -0.17844163 0.35246792 0.17554064 0.3532469 0.17648613
10144.952080687 0.35569212 0.17554848 0.35435948 0.17440426 0.6441682 -0.17714545 -0.35422507 -0.17415334
0.35419029 0.17419009 0.3554526 0.17559874 -0.35449988 -0.17436981 0.64458668 -0.17700969
0.64423758 -0.17662218 -0.35470754 -0.17425384 0.35558471 0.17563146 0.35457477 0.17404163
-0.35428357 -0.17428245 0.64471972 -0.1773454 0.35458788 0.17449427 0.35541433 0.17547938
10292.005271944 0.35767207 0.17438233 0.3564541 0.17326179 0.64206922 -0.1761011 -0.35624018 -0.1729669
0.35628071 0.17308459 0.35760772 0.17454199 -0.35667756 -0.17329223 0.64249837 -0.17596729
0.64214587 -0.17559277 -0.35687578 -0.17316459 0.35767692 0.17476448 0.35667077 0.1728977
-0.35633895 -0.17314343 0.64267755 -0.17627873 0.35673195 0.17337592 0.35760605 0.17448181
10441.190029806 0.35989505 0.1735803 0.35846618 0.17232665 0.63999474 -0.17505507 -0.35833666 -0.1720701
0.35833398 0.17209059 0.35962361 0.1735407 -0.35872 -0.17219499 0.64046854 -0.17513368
0.64017349 -0.17455854 -0.35887539 -0.17220013 0.35980529 0.17375086 0.35874376 0.17196359
-0.35841033 -0.17217979 0.64058852 -0.17545709 0.35880357 0.17230697 0.3594988 0.17352761
10592.537251773 0.36188009 0.17258993 0.36043218 0.17126773 0.63803613 -0.17414138 -0.36020362 -0.17102858
0.36036548 0.17108215 0.3616344 0.17244385 -0.36071602 -0.17122269 0.63852906 -0.17403533
0.6381532 -0.17360617 -0.36082256 -0.17111331 0.36191562 0.17274669 0.36059228 0.17090109
-0.36036098 -0.17115425 0.6385501 -0.17429306 0.36070973 0.17132625 0.36147019 0.17240995
10746.078283213 0.36380684 0.17159057 0.36235148 0.17030641 0.63600707 -0.17306858 -0.36215284 -0.17006463
0.36228898 0.17006852 0.36373982 0.17162557 -0.36263382 -0.17012642 0.63653058 -0.17302814
0.63619226 -0.17270197 -0.36273885 -0.17010951 0.36385188 0.17187469 0.3625553 0.16988899
-0.36234415 -0.1701782 0.63665354 -0.17333658 0.36267817 0.17026623 0.36352468 0.17153019
10901.844923851 0.36560959 0.17055817 0.36430538 0.16922408 0.63407934 -0.17214477 -0.36415905 -0.16893134
0.36416784 0.16904087 0.36562085 0.17066044 -0.36450645 -0.16922985 0.6344915 -0.17188573
0.63413888 -0.17167115 -0.36454323 -0.16917776 0.36579126 0.17077424 0.36440074 0.16891022
-0.3642956 -0.1691262 0.63468033 -0.17222691 0.3646439 0.16933975 0.36545625 0.17063402
11059.869434356 0.36771414 0.16959539 0.36621743 0.16823676 0.63214755 -0.17118798 -0.36603722 -0.16792189
0.36607805 0.16808634 0.36746922 0.1698063 -0.36634615 -0.16827697 0.63248885 -0.17072262
0.63234848 -0.17079538 -0.36648372 -0.16823834 0.36754656 0.16987199 0.36631545 0.16795442
-0.36622187 -0.16806154 0.6326465 -0.17117634 0.36649668 0.16827907 0.36748278 0.1698412
11220.18454302 0.36956266 0.16878967 0.36814541 0.16725907 0.63027978 -0.17023444 -0.36791256 -0.16708581
0.36802721 0.16708744 0.36932197 0.16868088 -0.36825341 -0.16718569 0.63065308 -0.16983721
0.63037896 -0.16972864 -0.36825445 -0.16721791 0.36955953 0.16875447 0.36801738 0.16707133
-0.36806116 -0.16711661 0.63066745 -0.17021875 0.36828557 0.16724099 0.3693015 0.16888517
11382.82345254 0.37136275 0.1677697 0.36980471 0.16627413 0.62843812 -0.16922213 -0.36960095 -0.16610189
0.3697899 0.16604957 0.37133476 0.16784589 -0.37000215 -0.16614978 0.62861919 -0.16890484
0.62860388 -0.16888574 -0.37001923 -0.16617811 0.37144196 0.16804364 0.36981502 0.16602932
-0.36990434 -0.16615598 0.62875271 -0.16913734 0.37010208 0.16628763 0.37107465 0.16773006
11547.819846895 0.37328067 0.16677569 0.37177444 0.16511737 0.62655592 -0.16821952 -0.3715387 -0.16497816
0.37172914 0.16498293 0.37312925 0.16673702 -0.37187928 -0.16518149 0.62687105 -0.16779365
0.62666315 -0.16776486 -0.3718507 -0.16516866 0.37334991 0.16695924 0.37160078 0.16506208
-0.37175307 -0.16506173 0.62687081 -0.16805486 0.37191969 0.16529484 0.37301171 0.16677904
11715.207898316 0.3751016 0.16583848 0.37362918 0.16413921 0.62468404 -0.16709191 -0.37345317 -0.16392308
0.37357864 0.16393018 0.37490189 0.16585267 -0.37387753 -0.16397366 0.62511659 -0.16693471
0.62482774 -0.16673414 -0.37383541 -0.16402665 0.37541127 0.16587926 0.37365645 0.16383366
-0.37363151 -0.1640197 0.62516266 -0.16708364 0.37392849 0.16408217 0.37492275 0.16560817
11885.02227437 0.37697488 0.1646307 0.37546802 0.1629833 0.62274861 -0.16595779 -0.37522104 -0.16279823
0.37546024 0.16284736 0.37676126 0.16481088 -0.37577084 -0.16285047 0.62327522 -0.16575463
0.62300223 -0.16573524 -0.37571421 -0.16289338 0.37698874 0.16480781 0.37546211 0.16273555
-0.37542683 -0.16292241 0.62328517 -0.16605459 0.37573135 0.16296494 0.37660909 0.16459793
12057.298145139 0.37862703 0.16366921 0.37734368 0.161929 0.62097919 -0.16488253 -0.37709722 -0.1618102
0.37723461 0.16168584 0.37856343 0.16352585 -0.37753758 -0.1616852 0.62146854 -0.16489026
0.62108332 -0.16450348 -0.37755328 -0.16176413 0.37892294 0.16364832 0.37729722 0.16167001
-0.37734205 -0.16179132 0.62155175 -0.16510853 0.37764663 0.16181125 0.3784216 0.16362001
12232.071190499 0.38056493 0.16246465 0.37916893 0.16078833 0.61925769 -0.16373248 -0.37890255 -0.16065772
0.37905014 0.16061686 0.38031775 0.16261415 -0.37933418 -0.16060154 0.6197471 -0.16372567
0.61938858 -0.16353256 -0.37942785 -0.16058129 0.38071704 0.16266298 0.37917253 0.1604802
-0.37916204 -0.16060986 0.61976498 -0.16409354 0.37944195 0.16064717 0.3801533 0.16263187
12409.377607517 0.38237989 0.16154943 0.38087308 0.15974917 0.61741078 -0.16268708 -0.3806183 -0.15957065
0.38081795 0.15953793 0.38222164 0.16145939 -0.38116086 -0.15951097 0.61798239 -0.16278119
0.6176542 -0.16243245 -0.38118416 -0.15962219 0.38245562 0.16166982 0.3809396 0.15946764
-0.38090107 -0.15960811 0.61808616 -0.16299422 0.38124484 0.1596165 0.38198557 0.16149323
12589.254117942 0.38405532 0.16048118 0.38261178 0.15857857 0.61564136 -0.16163333 -0.38238287 -0.15844071
0.38257402 0.1584079 0.3838805 0.16047606 -0.38291445 -0.15829961 0.61620045 -0.16177809
0.61593223 -0.16132686 -0.38291234 -0.15843324 0.38402566 0.16040412 0.38268143 0.15833066
-0.3826274 -0.15851809 0.61626244 -0.16196689 0.38298789 0.15844256 0.38370249 0.16053344
12771.737975811 0.38576418 0.1594792 0.38433915 0.15741578 0.61406183 -0.16061816 -0.38410327 -0.15729408
0.38428158 0.15727912 0.38556504 0.15939936 -0.38471949 -0.15723813 0.61454636 -0.16072734
0.61424971 -0.16025044 -0.3846105 -0.15734501 0.38581696 0.15940678 0.38438156 0.15725477
-0.38426518 -0.15742336 0.61453217 -0.16082461 0.3846862 0.15741342 0.38540947 0.15940303
12956.86697517 0.38744384 0.15842837 0.3860032 0.15633446 0.61228812 -0.15949914 -0.38578686 -0.15610035
0.38591093 0.15622586 0.38723853 0.158492 -0.38641292 -0.15607898 0.61279154 -0.15960062
0.61258608 -0.15918675 -0.38634187 -0.15623972 0.3874785 0.15840772 0.3861247 0.15604436
-0.38598856 -0.15629071 0.61296421 -0.15986158 0.38649258 0.1561804 0.38708884 0.15838499
13144.679457894 0.38912916 0.15721446 0.38765866 0.15524751 0.6105755 -0.15842347 -0.38743013 -0.15516353
0.38758472 0.15506798 0.38895336 0.15723871 -0.38798136 -0.15498622 0.61118215 -0.15860698
0.61082733 -0.15816355 -0.38802731 -0.15508147 0.38915148 0.15739579 0.3877874 0.15503228
-0.38766548 -0.15517215 0.61117703 -0.1587902 0.38805336 0.15512203 0.38874158 0.15726684
13335.214321633 0.39077064 0.1561946 0.38933671 0.15418416 0.60906684 -0.15740962 -0.38908061 -0.15405275
0.38926715 0.1540304 0.39055711 0.15631035 -0.3896417 -0.15402755 0.60959888 -0.15748461
0.60915107 -0.1570908 -0.38960296 -0.15404546 0.39092764 0.1562921 0.38934955 0.15393472
-0.3893196 -0.15400623 0.60954911 -0.15768754 0.3897014 0.15403929 0.39041212 0.15640046
13528.511027866 0.39236489 0.15520173 0.39093262 0.15299709 0.60742474 -0.15633678 -0.39070144 -0.1528911
0.39081913 0.15285532 0.39228451 0.15529183 -0.39120829 -0.15281832 0.6077981 -0.15639251
0.60757124 -0.15601671 -0.39116442 -0.15290742 0.3923943 0.15528677 0.39093137 0.1528376
-0.39093611 -0.15298599 0.60794288 -0.15658006 0.39131507 0.15299575 0.39203957 0.15523207
13724.609610076 0.39394253 0.15421453 0.39249527 0.15193102 0.60573846 -0.15532336 -0.3922174 -0.15182924
0.3924554 0.15184024 0.39385182 0.15409808 -0.39273423 -0.15184131 0.60625535 -0.15524738
0.60597277 -0.15492776 -0.39271706 -0.15190418 0.39400917 0.15426792 0.39243573 0.15182376
-0.39252791 -0.15187229 0.60626817 -0.15540825 0.39281169 0.15190569 0.39384723 0.15422603
13923.550682036 0.39557478 0.15308666 0.39402789 0.15090054 0.60420233 -0.15413186 -0.39382046 -0.1507587
0.39400595 0.15077868 0.39536622 0.15318654 -0.39432058 -0.15075231 0.60466987 -0.15407875
0.60444736 -0.15396248 -0.39424059 -0.15084292 0.39553034 0.1531665 0.39402819 0.15073006
-0.39402306 -0.15081923 0.6046676 -0.15426308 0.39433181 0.15082712 0.39531761 0.15316857
14125.375446228 0.39700985 0.15211053 0.3955532 0.14980026 0.60260254 -0.15309669 -0.39526394 -0.14965147
0.39548537 0.14968143 0.39710054 0.15212311 -0.39584136 -0.14964762 0.60306692 -0.15298373
0.60294235 -0.15295425 -0.39583856 -0.14975834 0.3970851 0.15210709 0.39555636 0.14964753
-0.39545861 -0.14974616 0.6031118 -0.15318879 0.39580274 0.14974606 0.39689434 0.15205869
14330.12570237 0.39856097 0.15101095 0.39707333 0.148821 0.60111034 -0.15208746 -0.39684486 -0.14862278
0.39704001 0.14858344 0.3985692 0.15116908 -0.39727306 -0.14863247 0.60157239 -0.15186335
0.60122764 -0.15193056 -0.39719021 -0.14874052 0.39882708 0.15122953 0.3969619 0.1485754
-0.39712632 -0.14864428 0.60169864 -0.15197448 0.39735594 0.14872125 0.39835566 0.15107752
14537.843856077 0.40009359 0.15003081 0.39865267 0.14756978 0.59958518 -0.15098713 -0.39840588 -0.1473943
0.39849401 0.14744546 0.40006578 0.14991948 -0.39877635 -0.14744374 0.59996074 -0.1507549
0.59989065 -0.1507445 -0.39882612 -0.14763366 0.40023264 0.14997895 0.39857033 0.14749342
-0.39854118 -0.14750732 0.6000675 -0.15101881 0.39883819 0.14754151 0.40004402 0.15002158
14748.572927641 0.40168065 0.14889649 0.40016699 0.14642312 0.59814209 -0.14992094 -0.3999286 -0.14637989
0.40012738 0.14628857 0.40147242 0.14887042 -0.40040535 -0.14627817 0.59856039 -0.14983161
0.59829772 -0.14975594 -0.40034342 -0.14632225 0.40182367 0.14899302 0.40010643 0.14632329
-0.40014851 -0.14642188 0.59853417 -0.14992182 0.40043858 0.14644648 0.40134442 0.14900185
14962.356560944 0.40310967 0.14777973 0.40165812 0.14533979 0.59662324 -0.14877939 -0.40144593 -0.1451778
0.40162086 0.14523026 0.40300465 0.14792815 -0.40195552 -0.14518651 0.5971325 -0.14873166
0.59679747 -0.14865661 -0.40184152 -0.14524651 0.40325853 0.14787039 0.4016234 0.14513397
-0.40158442 -0.14525376 0.59704959 -0.14887211 0.40191719 0.14524418 0.4030422 0.14786787
15179.239032494 0.40468299 0.14681497 0.40308276 0.14424361 0.59509385 -0.14766073 -0.40282524 -0.14410932
0.40301779 0.1441115 0.40448713 0.14670226 -0.40332958 -0.14405727 0.59560061 -0.14772247
0.59537655 -0.14753737 -0.40336365 -0.14412048 0.40475237 0.14684401 0.40309563 0.14403524
-0.40311974 -0.14411499 0.59565949 -0.14790781 0.40343308 0.14410287 0.40434793 0.14681351
15399.265260595 0.4060981 0.14579351 0.40461597 0.14303815 0.59372979 -0.14663526 -0.40429622 -0.14296468
0.40452337 0.14297652 0.40597883 0.14555189 -0.40485048 -0.14286065 0.59415048 -0.14674787
0.59394407 -0.14634384 -0.40484276 -0.14292866 0.40620223 0.14563952 0.40452504 0.14289339
-0.40454927 -0.14296821 0.59411967 -0.14687787 0.40488753 0.14289849 0.40569562 0.14574178
15622.480814653 0.40740606 0.14452562 0.40600407 0.14192508 0.59228027 -0.14545861 -0.40577388 -0.14185205
0.40587682 0.14182964 0.40736681 0.14453539 -0.40626553 -0.14168037 0.59270686 -0.14556611
0.59250474 -0.14540368 -0.40627626 -0.14170726 0.40753183 0.1446773 0.4060474 0.14167535
-0.40603238 -0.14190517 0.59281009 -0.145762 0.40641457 0.14179195 0.40717435 0.14465985
15848.931924611 0.40878987 0.1435663 0.40743855 0.14080863 0.5908649 -0.14442688 -0.40716556 -0.14070529
0.40728018 0.14073549 0.40878972 0.14351067 -0.407666 -0.14054757 0.59136838 -0.14453994
0.59107888 -0.14421242 -0.40770122 -0.14057921 0.40889069 0.14341827 0.40744239 0.14052556
-0.40742028 -0.14071149 0.5914132 -0.14469734 0.40779564 0.140561 0.40864483 0.14354697
16078.665490526 0.41018131 0.14251122 0.40883622 0.1396423 0.58947074 -0.14329284 -0.40857419 -0.13951464
0.4086954 0.1395756 0.41008708 0.14253716 -0.40911067 -0.1394159 0.59001303 -0.14349446
0.58974379 -0.14308287 -0.40910417 -0.13955446 0.41037011 0.14247176 0.40885931 0.13945711
-0.4087593 -0.13958028 0.59006196 -0.1436266 0.40917361 0.13945867 0.4099766 0.1425233
16311.729092278 0.41161358 0.14125632 0.4102779 0.13853528 0.58823544 -0.14217067 -0.40998173 -0.1385286
0.41010275 0.13840155 0.41141328 0.14143065 -0.41047898 -0.1383296 0.58866882 -0.14242029
0.58834755 -0.14197919 -0.41049144 -0.13840629 0.41171458 0.14128542 0.41019887 0.1384279
-0.41014192 -0.13839296 0.58859718 -0.14252928 0.41051632 0.13837503 0.41122615 0.14163202
16548.170999432 0.41300157 0.1404389 0.41151246 0.13740067 0.58676106 -0.14114101 -0.41123798 -0.13735577
0.41140163 0.13736257 0.4128291 0.14021136 -0.41182631 -0.13716522 0.58727515 -0.14137247
0.58705568 -0.14100969 -0.41181344 -0.13724931 0.41315463 0.140356 0.41154712 0.1372384
-0.41147944 -0.13741253 0.58733022 -0.14150047 0.4119077 0.13725348 0.41266271 0.14042686
16788.040181226 0.414318 0.13923101 0.41287962 0.13633569 0.58548683 -0.14008531 -0.41258696 -0.1363264
0.41275522 0.13617808 0.41424665 0.13931386 -0.4130615 -0.13606603 0.58589321 -0.14024392
0.58563459 -0.13994896 -0.41305557 -0.13613763 0.41445979 0.139257 0.41275588 0.13615949
-0.41285604 -0.13627104 0.58596361 -0.14028639 0.4131549 0.1361841 0.41384146 0.13931388
17031.386316719 0.4155733 0.13809016 0.41412711 0.13515384 0.58417487 -0.1390333 -0.41395053 -0.13513516
0.41399395 0.13504431 0.41552836 0.13821685 -0.41437331 -0.13487382 0.58460635 -0.13924201
0.58439523 -0.13889641 -0.41433784 -0.13501316 0.41569665 0.13814598 0.41417363 0.13502818
-0.41407281 -0.13516913 0.58461052 -0.1392424 0.41447234 0.13504346 0.41536266 0.13822617
17278.259805079 0.41684568 0.13717304 0.41543773 0.1340768 0.58284825 -0.13796961 -0.41514781 -0.13408716
0.41524148 0.13398777 0.41683793 0.13707675 -0.41560444 -0.13387825 0.58332568 -0.13809282
0.58308202 -0.13780379 -0.41567779 -0.1339709 0.41708657 0.13713484 0.41538638 0.13401549
-0.41540897 -0.1340196 0.58343536 -0.13827462 0.41577065 0.13393907 0.41649649 0.13744941
17528.711776019 0.4181453 0.13607694 0.4167079 0.13305663 0.58157903 -0.13681577 -0.41642758 -0.1330481
0.41661745 0.13288999 0.41800511 0.1361382 -0.41696537 -0.13277011 0.58209413 -0.13702822
0.58171654 -0.13678721 -0.41685885 -0.13288675 0.41837466 0.13607801 0.41657123 0.13292149
-0.41662529 -0.13299923 0.58209234 -0.13701108 0.41696778 0.13292803 0.41778088 0.13605982
17782.794100389 0.41944158 0.13521263 0.41788137 0.13186076 0.58028185 -0.13585241 -0.41758832 -0.13188511
0.41782889 0.13179293 0.41921237 0.13508493 -0.41813645 -0.13166545 0.58078951 -0.13589509
0.58056134 -0.13571636 -0.41806328 -0.13178506 0.41962507 0.13512768 0.41777977 0.13185312
-0.41784042 -0.13190317 0.58075869 -0.13588558 0.41814613 0.13182253 0.41919187 0.13511972
18040.559400918 0.42071536 0.13408232 0.41915968 0.13077751 0.57906723 -0.13482095 -0.41888914 -0.13072006
0.41901267 0.13074367 0.42055967 0.13390866 -0.41928807 -0.13069394 0.57945794 -0.13471219
0.57937104 -0.13468163 -0.4193123 -0.13080896 0.42078862 0.13401183 0.41903555 0.13079365
-0.4190892 -0.13075349 0.57949668 -0.13478957 0.41936111 0.13075031 0.42044356 0.13416496
18302.061063111 0.42189121 0.13295262 0.42039183 0.12970577 0.5778634 -0.13375606 -0.4200303 -0.12969719
0.42024136 0.1296149 0.42194092 0.13294546 -0.42054415 -0.12956591 0.57823318 -0.1337077
0.57816476 -0.13367656 -0.42060503 -0.12970126 0.42207208 0.13297671 0.42024404 0.12972517
-0.4202458 -0.1296948 0.57829046 -0.13365941 0.4205505 0.12969795 0.42168641 0.13293964
18567.353246307 0.42297781 0.13201122 0.42155042 0.12859511 0.57665569 -0.13267833 -0.42128488 -0.12857696
0.42142388 0.1285096 0.4230673 0.13197581 -0.42174986 -0.12838252 0.57707727 -0.13266903
0.57685775 -0.13255952 -0.42169029 -0.1285224 0.42326272 0.13194303 0.42142981 0.12854919
-0.42153928 -0.12855782 0.57714695 -0.13275857 0.42185867 0.12845881 0.42287311 0.13205487
18836.490894898 0.42426842 0.13091183 0.42273065 0.12743717 0.57546264 -0.13162194 -0.42243889 -0.1274416
0.4226388 0.12742789 0.42421067 0.13084841 -0.42294142 -0.12734756 0.57593822 -0.13166887
0.57571381 -0.13151821 -0.42291269 -0.12738857 0.42435896 0.13083367 0.42262128 0.12744807
-0.42267475 -0.12741351 0.57589734 -0.13172893 0.4229719 0.12736927 0.42416093 0.13104983
19109.529749704 0.42526633 0.12983289 0.42396379 0.12634237 0.57437259 -0.13056397 -0.42374486 -0.12628514
0.42376107 0.12624788 0.42531344 0.12972556 -0.42415798 -0.12613 0.57472801 -0.13067377
0.5745011 -0.13042441 -0.42409256 -0.12630937 0.42558485 0.12977575 0.42387193 0.12630327
-0.42386636 -0.12632324 0.57479376 -0.13061494 0.42426398 0.12625214 0.42535758 0.12990525
19386.526359522 0.426658 0.12874533 0.4250842 0.12528311 0.57313722 -0.12948063 -0.4247992 -0.12521999
0.42497656 0.12522937 0.42641008 0.1287865 -0.42528635 -0.12508008 0.5735774 -0.12958613
