!Murata Part Number: GRM31BR73A332KW01
!These Parameters are Measured in Series Mode Connection
!Data Generated on Mar 30, 2021
!       o--ll--o
!Port1            Port2
!       o------o
!Operation Temp=25[degC], DC Bias Voltage=0[V]
!Freq. Start=100[kHz] Stop=6[GHz] 401[Steps]
# Hz S RI R 50
!Freq.(Hz) S11(Real) S11(Imag) S21(Real) S21(Imag) S12(Real) S12(Imag) S22(Real) S22(Imag)
100000 0.9617393 -0.1858620 0.0382607 0.1858620 0.0382607 0.1858620 0.9617393 -0.1858620
102789 0.9597537 -0.1905947 0.0402463 0.1905947 0.0402463 0.1905947 0.9597537 -0.1905947
105655 0.9576674 -0.1954274 0.0423326 0.1954274 0.0423326 0.1954274 0.9576674 -0.1954274
108602 0.9554757 -0.2003603 0.0445243 0.2003603 0.0445243 0.2003603 0.9554757 -0.2003603
111630 0.9531736 -0.2053937 0.0468264 0.2053937 0.0468264 0.2053937 0.9531736 -0.2053937
114743 0.9507560 -0.2105275 0.0492440 0.2105275 0.0492440 0.2105275 0.9507560 -0.2105275
117943 0.9482177 -0.2157616 0.0517823 0.2157616 0.0517823 0.2157616 0.9482177 -0.2157616
121232 0.9455532 -0.2210956 0.0544468 0.2210956 0.0544468 0.2210956 0.9455532 -0.2210956
124613 0.9427569 -0.2265287 0.0572431 0.2265287 0.0572431 0.2265287 0.9427569 -0.2265287
128088 0.9398230 -0.2320600 0.0601770 0.2320600 0.0601770 0.2320600 0.9398230 -0.2320600
131660 0.9367457 -0.2376883 0.0632543 0.2376883 0.0632543 0.2376883 0.9367457 -0.2376883
135332 0.9335188 -0.2434122 0.0664812 0.2434122 0.0664812 0.2434122 0.9335188 -0.2434122
139106 0.9301363 -0.2492298 0.0698637 0.2492298 0.0698637 0.2492298 0.9301363 -0.2492298
142985 0.9265916 -0.2551389 0.0734084 0.2551389 0.0734084 0.2551389 0.9265916 -0.2551389
146972 0.9228785 -0.2611371 0.0771215 0.2611371 0.0771215 0.2611371 0.9228785 -0.2611371
151071 0.9189904 -0.2672214 0.0810096 0.2672214 0.0810096 0.2672214 0.9189904 -0.2672214
155284 0.9149207 -0.2733886 0.0850793 0.2733886 0.0850793 0.2733886 0.9149207 -0.2733886
159614 0.9106627 -0.2796350 0.0893373 0.2796350 0.0893373 0.2796350 0.9106627 -0.2796350
164065 0.9062097 -0.2859563 0.0937903 0.2859563 0.0937903 0.2859563 0.9062097 -0.2859563
168641 0.9015549 -0.2923480 0.0984451 0.2923480 0.0984451 0.2923480 0.9015549 -0.2923480
173344 0.8966918 -0.2988049 0.1033082 0.2988049 0.1033082 0.2988049 0.8966918 -0.2988049
178178 0.8916136 -0.3053215 0.1083864 0.3053215 0.1083864 0.3053215 0.8916136 -0.3053215
183146 0.8863137 -0.3118916 0.1136863 0.3118916 0.1136863 0.3118916 0.8863137 -0.3118916
188254 0.8807856 -0.3185085 0.1192144 0.3185085 0.1192144 0.3185085 0.8807856 -0.3185085
193504 0.8750230 -0.3251651 0.1249770 0.3251651 0.1249770 0.3251651 0.8750230 -0.3251651
198900 0.8690197 -0.3318535 0.1309803 0.3318535 0.1309803 0.3318535 0.8690197 -0.3318535
204447 0.8627697 -0.3385654 0.1372303 0.3385654 0.1372303 0.3385654 0.8627697 -0.3385654
210148 0.8562676 -0.3452919 0.1437324 0.3452919 0.1437324 0.3452919 0.8562676 -0.3452919
216008 0.8495078 -0.3520235 0.1504922 0.3520235 0.1504922 0.3520235 0.8495078 -0.3520235
222032 0.8424855 -0.3587501 0.1575145 0.3587501 0.1575145 0.3587501 0.8424855 -0.3587501
228224 0.8351961 -0.3654610 0.1648039 0.3654610 0.1648039 0.3654610 0.8351961 -0.3654610
234589 0.8276356 -0.3721451 0.1723644 0.3721451 0.1723644 0.3721451 0.8276356 -0.3721451
241130 0.8198004 -0.3787905 0.1801996 0.3787905 0.1801996 0.3787905 0.8198004 -0.3787905
247855 0.8116876 -0.3853850 0.1883124 0.3853850 0.1883124 0.3853850 0.8116876 -0.3853850
254767 0.8032950 -0.3919158 0.1967050 0.3919158 0.1967050 0.3919158 0.8032950 -0.3919158
261871 0.7946210 -0.3983696 0.2053790 0.3983696 0.2053790 0.3983696 0.7946210 -0.3983696
269174 0.7856647 -0.4047327 0.2143353 0.4047327 0.2143353 0.4047327 0.7856647 -0.4047327
276681 0.7764261 -0.4109911 0.2235739 0.4109911 0.2235739 0.4109911 0.7764261 -0.4109911
284397 0.7669061 -0.4171303 0.2330939 0.4171303 0.2330939 0.4171303 0.7669061 -0.4171303
292328 0.7571065 -0.4231357 0.2428935 0.4231357 0.2428935 0.4231357 0.7571065 -0.4231357
300480 0.7470300 -0.4289923 0.2529700 0.4289923 0.2529700 0.4289923 0.7470300 -0.4289923
308859 0.7366803 -0.4346852 0.2633197 0.4346852 0.2633197 0.4346852 0.7366803 -0.4346852
317472 0.7260621 -0.4401992 0.2739379 0.4401992 0.2739379 0.4401992 0.7260621 -0.4401992
326326 0.7151813 -0.4455191 0.2848187 0.4455191 0.2848187 0.4455191 0.7151813 -0.4455191
335426 0.7040447 -0.4506300 0.2959553 0.4506300 0.2959553 0.4506300 0.7040447 -0.4506300
344780 0.6926603 -0.4555171 0.3073397 0.4555171 0.3073397 0.4555171 0.6926603 -0.4555171
354395 0.6810371 -0.4601658 0.3189629 0.4601658 0.3189629 0.4601658 0.6810371 -0.4601658
364278 0.6691854 -0.4645620 0.3308146 0.4645620 0.3308146 0.4645620 0.6691854 -0.4645620
374436 0.6571162 -0.4686918 0.3428838 0.4686918 0.3428838 0.4686918 0.6571162 -0.4686918
384878 0.6448419 -0.4725423 0.3551581 0.4725423 0.3551581 0.4725423 0.6448419 -0.4725423
395611 0.6323758 -0.4761009 0.3676242 0.4761009 0.3676242 0.4761009 0.6323758 -0.4761009
406644 0.6197322 -0.4793558 0.3802678 0.4793558 0.3802678 0.4793558 0.6197322 -0.4793558
417984 0.6069261 -0.4822962 0.3930739 0.4822962 0.3930739 0.4822962 0.6069261 -0.4822962
429640 0.5939737 -0.4849121 0.4060263 0.4849121 0.4060263 0.4849121 0.5939737 -0.4849121
441622 0.5808917 -0.4871946 0.4191083 0.4871946 0.4191083 0.4871946 0.5808917 -0.4871946
453937 0.5676976 -0.4891357 0.4323024 0.4891357 0.4323024 0.4891357 0.5676976 -0.4891357
466596 0.5544096 -0.4907287 0.4455904 0.4907287 0.4455904 0.4907287 0.5544096 -0.4907287
479608 0.5410463 -0.4919681 0.4589537 0.4919681 0.4589537 0.4919681 0.5410463 -0.4919681
492983 0.5276267 -0.4928495 0.4723733 0.4928495 0.4723733 0.4928495 0.5276267 -0.4928495
506731 0.5141701 -0.4933700 0.4858299 0.4933700 0.4858299 0.4933700 0.5141701 -0.4933700
520862 0.5006962 -0.4935277 0.4993038 0.4935277 0.4993038 0.4935277 0.5006962 -0.4935277
535387 0.4872245 -0.4933223 0.5127755 0.4933223 0.5127755 0.4933223 0.4872245 -0.4933223
550318 0.4737746 -0.4927547 0.5262254 0.4927547 0.5262254 0.4927547 0.4737746 -0.4927547
565664 0.4603659 -0.4918271 0.5396341 0.4918271 0.5396341 0.4918271 0.4603659 -0.4918271
581439 0.4470177 -0.4905429 0.5529823 0.4905429 0.5529823 0.4905429 0.4470177 -0.4905429
597654 0.4337488 -0.4889070 0.5662512 0.4889070 0.5662512 0.4889070 0.4337488 -0.4889070
614320 0.4205776 -0.4869252 0.5794224 0.4869252 0.5794224 0.4869252 0.4205776 -0.4869252
631452 0.4075219 -0.4846047 0.5924781 0.4846047 0.5924781 0.4846047 0.4075219 -0.4846047
649061 0.3945988 -0.4819537 0.6054012 0.4819537 0.6054012 0.4819537 0.3945988 -0.4819537
667162 0.3818248 -0.4789814 0.6181752 0.4789814 0.6181752 0.4789814 0.3818248 -0.4789814
685767 0.3692155 -0.4756980 0.6307845 0.4756980 0.6307845 0.4756980 0.3692155 -0.4756980
704891 0.3567858 -0.4721147 0.6432142 0.4721147 0.6432142 0.4721147 0.3567858 -0.4721147
724548 0.3445493 -0.4682431 0.6554507 0.4682431 0.6554507 0.4682431 0.3445493 -0.4682431
744754 0.3325190 -0.4640960 0.6674810 0.4640960 0.6674810 0.4640960 0.3325190 -0.4640960
765523 0.3207068 -0.4596864 0.6792932 0.4596864 0.6792932 0.4596864 0.3207068 -0.4596864
786871 0.3091234 -0.4550281 0.6908766 0.4550281 0.6908766 0.4550281 0.3091234 -0.4550281
808814 0.2977786 -0.4501351 0.7022214 0.4501351 0.7022214 0.4501351 0.2977786 -0.4501351
831370 0.2866812 -0.4450218 0.7133188 0.4450218 0.7133188 0.4450218 0.2866812 -0.4450218
854554 0.2758386 -0.4397029 0.7241614 0.4397029 0.7241614 0.4397029 0.2758386 -0.4397029
878385 0.2652575 -0.4341933 0.7347425 0.4341933 0.7347425 0.4341933 0.2652575 -0.4341933
902880 0.2549434 -0.4285078 0.7450566 0.4285078 0.7450566 0.4285078 0.2549434 -0.4285078
928059 0.2449007 -0.4226613 0.7550993 0.4226613 0.7550993 0.4226613 0.2449007 -0.4226613
953940 0.2351331 -0.4166685 0.7648669 0.4166685 0.7648669 0.4166685 0.2351331 -0.4166685
980542 0.2256430 -0.4105442 0.7743570 0.4105442 0.7743570 0.4105442 0.2256430 -0.4105442
1007887 0.2164321 -0.4043027 0.7835679 0.4043027 0.7835679 0.4043027 0.2164321 -0.4043027
1035994 0.2075011 -0.3979581 0.7924989 0.3979581 0.7924989 0.3979581 0.2075011 -0.3979581
1064885 0.1988499 -0.3915243 0.8011501 0.3915243 0.8011501 0.3915243 0.1988499 -0.3915243
1094581 0.1904777 -0.3850147 0.8095223 0.3850147 0.8095223 0.3850147 0.1904777 -0.3850147
1125106 0.1823829 -0.3784422 0.8176171 0.3784422 0.8176171 0.3784422 0.1823829 -0.3784422
1156481 0.1745633 -0.3718193 0.8254367 0.3718193 0.8254367 0.3718193 0.1745633 -0.3718193
1188732 0.1670159 -0.3651582 0.8329841 0.3651582 0.8329841 0.3651582 0.1670159 -0.3651582
1221882 0.1597373 -0.3584704 0.8402627 0.3584704 0.8402627 0.3584704 0.1597373 -0.3584704
1255957 0.1527235 -0.3517669 0.8472765 0.3517669 0.8472765 0.3517669 0.1527235 -0.3517669
1290982 0.1459700 -0.3450581 0.8540300 0.3450581 0.8540300 0.3450581 0.1459700 -0.3450581
1326984 0.1394722 -0.3383540 0.8605278 0.3383540 0.8605278 0.3383540 0.1394722 -0.3383540
1363989 0.1332246 -0.3316639 0.8667754 0.3316639 0.8667754 0.3316639 0.1332246 -0.3316639
1402027 0.1272218 -0.3249966 0.8727782 0.3249966 0.8727782 0.3249966 0.1272218 -0.3249966
1441125 0.1214580 -0.3183603 0.8785420 0.3183603 0.8785420 0.3183603 0.1214580 -0.3183603
1481314 0.1159272 -0.3117627 0.8840728 0.3117627 0.8840728 0.3117627 0.1159272 -0.3117627
1522623 0.1106232 -0.3052109 0.8893768 0.3052109 0.8893768 0.3052109 0.1106232 -0.3052109
1565085 0.1055396 -0.2987116 0.8944604 0.2987116 0.8944604 0.2987116 0.1055396 -0.2987116
1608730 0.1006699 -0.2922708 0.8993301 0.2922708 0.8993301 0.2922708 0.1006699 -0.2922708
1653593 0.0960076 -0.2858941 0.9039924 0.2858941 0.9039924 0.2858941 0.0960076 -0.2858941
1699707 0.0915462 -0.2795865 0.9084538 0.2795865 0.9084538 0.2795865 0.0915462 -0.2795865
1747106 0.0872790 -0.2733527 0.9127210 0.2733527 0.9127210 0.2733527 0.0872790 -0.2733527
1795828 0.0831994 -0.2671968 0.9168006 0.2671968 0.9168006 0.2671968 0.0831994 -0.2671968
1845908 0.0793009 -0.2611225 0.9206991 0.2611225 0.9206991 0.2611225 0.0793009 -0.2611225
1897385 0.0755770 -0.2551332 0.9244230 0.2551332 0.9244230 0.2551332 0.0755770 -0.2551332
1950297 0.0720212 -0.2492318 0.9279788 0.2492318 0.9279788 0.2492318 0.0720212 -0.2492318
2004685 0.0686272 -0.2434207 0.9313728 0.2434207 0.9313728 0.2434207 0.0686272 -0.2434207
2060590 0.0653888 -0.2377022 0.9346112 0.2377022 0.9346112 0.2377022 0.0653888 -0.2377022
2118054 0.0622999 -0.2320782 0.9377001 0.2320782 0.9377001 0.2320782 0.0622999 -0.2320782
2177120 0.0593544 -0.2265501 0.9406456 0.2265501 0.9406456 0.2265501 0.0593544 -0.2265501
2237833 0.0565466 -0.2211192 0.9434534 0.2211192 0.9434534 0.2211192 0.0565466 -0.2211192
2300240 0.0538706 -0.2157865 0.9461294 0.2157865 0.9461294 0.2157865 0.0538706 -0.2157865
2364387 0.0513211 -0.2105527 0.9486789 0.2105527 0.9486789 0.2105527 0.0513211 -0.2105527
2430322 0.0488925 -0.2054182 0.9511075 0.2054182 0.9511075 0.2054182 0.0488925 -0.2054182
2498097 0.0465796 -0.2003834 0.9534204 0.2003834 0.9534204 0.2003834 0.0465796 -0.2003834
2567761 0.0443774 -0.1954482 0.9556226 0.1954482 0.9556226 0.1954482 0.0443774 -0.1954482
2639368 0.0422810 -0.1906126 0.9577190 0.1906126 0.9577190 0.1906126 0.0422810 -0.1906126
2712972 0.0402856 -0.1858762 0.9597144 0.1858762 0.9597144 0.1858762 0.0402856 -0.1858762
2788629 0.0383867 -0.1812386 0.9616133 0.1812386 0.9616133 0.1812386 0.0383867 -0.1812386
2866396 0.0365799 -0.1766992 0.9634201 0.1766992 0.9634201 0.1766992 0.0365799 -0.1766992
2946331 0.0348609 -0.1722572 0.9651391 0.1722572 0.9651391 0.1722572 0.0348609 -0.1722572
3028495 0.0332256 -0.1679117 0.9667744 0.1679117 0.9667744 0.1679117 0.0332256 -0.1679117
3112951 0.0316702 -0.1636619 0.9683298 0.1636619 0.9683298 0.1636619 0.0316702 -0.1636619
3199762 0.0301909 -0.1595067 0.9698091 0.1595067 0.9698091 0.1595067 0.0301909 -0.1595067
3288994 0.0287841 -0.1554449 0.9712159 0.1554449 0.9712159 0.1554449 0.0287841 -0.1554449
3380714 0.0274463 -0.1514753 0.9725537 0.1514753 0.9725537 0.1514753 0.0274463 -0.1514753
3474992 0.0261743 -0.1475967 0.9738257 0.1475967 0.9738257 0.1475967 0.0261743 -0.1475967
3571899 0.0249648 -0.1438076 0.9750352 0.1438076 0.9750352 0.1438076 0.0249648 -0.1438076
3671508 0.0238149 -0.1401069 0.9761851 0.1401069 0.9761851 0.1401069 0.0238149 -0.1401069
3773896 0.0227217 -0.1364929 0.9772783 0.1364929 0.9772783 0.1364929 0.0227217 -0.1364929
3879139 0.0216824 -0.1329643 0.9783176 0.1329643 0.9783176 0.1329643 0.0216824 -0.1329643
3987316 0.0206944 -0.1295196 0.9793056 0.1295196 0.9793056 0.1295196 0.0206944 -0.1295196
4098510 0.0197553 -0.1261572 0.9802447 0.1261572 0.9802447 0.1261572 0.0197553 -0.1261572
4212806 0.0188625 -0.1228757 0.9811375 0.1228757 0.9811375 0.1228757 0.0188625 -0.1228757
4330288 0.0180138 -0.1196736 0.9819862 0.1196736 0.9819862 0.1196736 0.0180138 -0.1196736
4451047 0.0172072 -0.1165492 0.9827928 0.1165492 0.9827928 0.1165492 0.0172072 -0.1165492
4575173 0.0164404 -0.1135010 0.9835596 0.1135010 0.9835596 0.1135010 0.0164404 -0.1135010
4702761 0.0157116 -0.1105275 0.9842884 0.1105275 0.9842884 0.1105275 0.0157116 -0.1105275
4833907 0.0150189 -0.1076272 0.9849811 0.1076272 0.9849811 0.1076272 0.0150189 -0.1076272
4968711 0.0143604 -0.1047985 0.9856396 0.1047985 0.9856396 0.1047985 0.0143604 -0.1047985
5107273 0.0137346 -0.1020399 0.9862654 0.1020399 0.9862654 0.1020399 0.0137346 -0.1020399
5249700 0.0131398 -0.0993499 0.9868602 0.0993499 0.9868602 0.0993499 0.0131398 -0.0993499
5396098 0.0125744 -0.0967270 0.9874256 0.0967270 0.9874256 0.0967270 0.0125744 -0.0967270
5546579 0.0120371 -0.0941696 0.9879629 0.0941696 0.9879629 0.0941696 0.0120371 -0.0941696
5701257 0.0115264 -0.0916764 0.9884736 0.0916764 0.9884736 0.0916764 0.0115264 -0.0916764
5860248 0.0110410 -0.0892459 0.9889590 0.0892459 0.9889590 0.0892459 0.0110410 -0.0892459
6023672 0.0105797 -0.0868767 0.9894203 0.0868767 0.9894203 0.0868767 0.0105797 -0.0868767
6191655 0.0101413 -0.0845672 0.9898587 0.0845672 0.9898587 0.0845672 0.0101413 -0.0845672
6364321 0.0097246 -0.0823163 0.9902754 0.0823163 0.9902754 0.0823163 0.0097246 -0.0823163
6541803 0.0093286 -0.0801224 0.9906714 0.0801224 0.9906714 0.0801224 0.0093286 -0.0801224
6724235 0.0089523 -0.0779843 0.9910477 0.0779843 0.9910477 0.0779843 0.0089523 -0.0779843
6911753 0.0085946 -0.0759006 0.9914054 0.0759006 0.9914054 0.0759006 0.0085946 -0.0759006
7104501 0.0082547 -0.0738701 0.9917453 0.0738701 0.9917453 0.0738701 0.0082547 -0.0738701
7302625 0.0079317 -0.0718914 0.9920683 0.0718914 0.9920683 0.0718914 0.0079317 -0.0718914
7506273 0.0076247 -0.0699633 0.9923753 0.0699633 0.9923753 0.0699633 0.0076247 -0.0699633
7715601 0.0073329 -0.0680845 0.9926671 0.0680845 0.9926671 0.0680845 0.0073329 -0.0680845
7930766 0.0070556 -0.0662540 0.9929444 0.0662540 0.9929444 0.0662540 0.0070556 -0.0662540
8151931 0.0067921 -0.0644704 0.9932079 0.0644704 0.9932079 0.0644704 0.0067921 -0.0644704
8379264 0.0065416 -0.0627326 0.9934584 0.0627326 0.9934584 0.0627326 0.0065416 -0.0627326
8612937 0.0063035 -0.0610396 0.9936965 0.0610396 0.9936965 0.0610396 0.0063035 -0.0610396
8853126 0.0060772 -0.0593901 0.9939228 0.0593901 0.9939228 0.0593901 0.0060772 -0.0593901
9100013 0.0058621 -0.0577830 0.9941379 0.0577830 0.9941379 0.0577830 0.0058621 -0.0577830
9353785 0.0056577 -0.0562174 0.9943423 0.0562174 0.9943423 0.0562174 0.0056577 -0.0562174
9614634 0.0054633 -0.0546922 0.9945367 0.0546922 0.9945367 0.0546922 0.0054633 -0.0546922
9882758 0.0052784 -0.0532062 0.9947216 0.0532062 0.9947216 0.0532062 0.0052784 -0.0532062
10158358 0.0051027 -0.0517586 0.9948973 0.0517586 0.9948973 0.0517586 0.0051027 -0.0517586
10441645 0.0049355 -0.0503484 0.9950645 0.0503484 0.9950645 0.0503484 0.0049355 -0.0503484
10732831 0.0047765 -0.0489745 0.9952235 0.0489745 0.9952235 0.0489745 0.0047765 -0.0489745
11032137 0.0046253 -0.0476360 0.9953747 0.0476360 0.9953747 0.0476360 0.0046253 -0.0476360
11339791 0.0044814 -0.0463321 0.9955186 0.0463321 0.9955186 0.0463321 0.0044814 -0.0463321
11656024 0.0043445 -0.0450617 0.9956555 0.0450617 0.9956555 0.0450617 0.0043445 -0.0450617
11981075 0.0042142 -0.0438241 0.9957858 0.0438241 0.9957858 0.0438241 0.0042142 -0.0438241
12315192 0.0040902 -0.0426183 0.9959098 0.0426183 0.9959098 0.0426183 0.0040902 -0.0426183
12658625 0.0039720 -0.0414434 0.9960280 0.0414434 0.9960280 0.0414434 0.0039720 -0.0414434
13011637 0.0038595 -0.0402988 0.9961405 0.0402988 0.9961405 0.0402988 0.0038595 -0.0402988
13374492 0.0037523 -0.0391835 0.9962477 0.0391835 0.9962477 0.0391835 0.0037523 -0.0391835
13747467 0.0036502 -0.0380967 0.9963498 0.0380967 0.9963498 0.0380967 0.0036502 -0.0380967
14130843 0.0035528 -0.0370377 0.9964472 0.0370377 0.9964472 0.0370377 0.0035528 -0.0370377
14524910 0.0034599 -0.0360058 0.9965401 0.0360058 0.9965401 0.0360058 0.0034599 -0.0360058
14929966 0.0033713 -0.0350000 0.9966287 0.0350000 0.9966287 0.0350000 0.0033713 -0.0350000
15346318 0.0032868 -0.0340199 0.9967132 0.0340199 0.9967132 0.0340199 0.0032868 -0.0340199
15774281 0.0032060 -0.0330645 0.9967940 0.0330645 0.9967940 0.0330645 0.0032060 -0.0330645
16214179 0.0031290 -0.0321333 0.9968710 0.0321333 0.9968710 0.0321333 0.0031290 -0.0321333
16666344 0.0030553 -0.0312255 0.9969447 0.0312255 0.9969447 0.0312255 0.0030553 -0.0312255
17131118 0.0029849 -0.0303405 0.9970151 0.0303405 0.9970151 0.0303405 0.0029849 -0.0303405
17608854 0.0029176 -0.0294776 0.9970824 0.0294776 0.9970824 0.0294776 0.0029176 -0.0294776
18099912 0.0028532 -0.0286362 0.9971468 0.0286362 0.9971468 0.0286362 0.0028532 -0.0286362
18604665 0.0027916 -0.0278156 0.9972084 0.0278156 0.9972084 0.0278156 0.0027916 -0.0278156
19123493 0.0027326 -0.0270153 0.9972674 0.0270153 0.9972674 0.0270153 0.0027326 -0.0270153
19656790 0.0026761 -0.0262347 0.9973239 0.0262347 0.9973239 0.0262347 0.0026761 -0.0262347
20204959 0.0026219 -0.0254732 0.9973781 0.0254732 0.9973781 0.0254732 0.0026219 -0.0254732
20768415 0.0025700 -0.0247301 0.9974300 0.0247301 0.9974300 0.0247301 0.0025700 -0.0247301
21347584 0.0025202 -0.0240051 0.9974798 0.0240051 0.9974798 0.0240051 0.0025202 -0.0240051
21942904 0.0024725 -0.0232974 0.9975275 0.0232974 0.9975275 0.0232974 0.0024725 -0.0232974
22554827 0.0024267 -0.0226066 0.9975733 0.0226066 0.9975733 0.0226066 0.0024267 -0.0226066
23183813 0.0023827 -0.0219322 0.9976173 0.0219322 0.9976173 0.0219322 0.0023827 -0.0219322
23830340 0.0023405 -0.0212737 0.9976595 0.0212737 0.9976595 0.0212737 0.0023405 -0.0212737
24494897 0.0022999 -0.0206305 0.9977001 0.0206305 0.9977001 0.0206305 0.0022999 -0.0206305
25177987 0.0022610 -0.0200023 0.9977390 0.0200023 0.9977390 0.0200023 0.0022610 -0.0200023
25880126 0.0022236 -0.0193885 0.9977764 0.0193885 0.9977764 0.0193885 0.0022236 -0.0193885
26601845 0.0021876 -0.0187886 0.9978124 0.0187886 0.9978124 0.0187886 0.0021876 -0.0187886
27343691 0.0021531 -0.0182023 0.9978469 0.0182023 0.9978469 0.0182023 0.0021531 -0.0182023
28106225 0.0021199 -0.0176291 0.9978801 0.0176291 0.9978801 0.0176291 0.0021199 -0.0176291
28890023 0.0020880 -0.0170685 0.9979120 0.0170685 0.9979120 0.0170685 0.0020880 -0.0170685
29695680 0.0020574 -0.0165202 0.9979426 0.0165202 0.9979426 0.0165202 0.0020574 -0.0165202
30523804 0.0020280 -0.0159837 0.9979720 0.0159837 0.9979720 0.0159837 0.0020280 -0.0159837
31375021 0.0019997 -0.0154587 0.9980003 0.0154587 0.9980003 0.0154587 0.0019997 -0.0154587
32249977 0.0019726 -0.0149448 0.9980274 0.0149448 0.9980274 0.0149448 0.0019726 -0.0149448
33149332 0.0019465 -0.0144416 0.9980535 0.0144416 0.9980535 0.0144416 0.0019465 -0.0144416
34073768 0.0019215 -0.0139487 0.9980785 0.0139487 0.9980785 0.0139487 0.0019215 -0.0139487
35023984 0.0018976 -0.0134657 0.9981024 0.0134657 0.9981024 0.0134657 0.0018976 -0.0134657
36000698 0.0018746 -0.0129924 0.9981254 0.0129924 0.9981254 0.0129924 0.0018746 -0.0129924
37004650 0.0018526 -0.0125284 0.9981474 0.0125284 0.9981474 0.0125284 0.0018526 -0.0125284
38036599 0.0018315 -0.0120733 0.9981685 0.0120733 0.9981685 0.0120733 0.0018315 -0.0120733
39097326 0.0018113 -0.0116268 0.9981887 0.0116268 0.9981887 0.0116268 0.0018113 -0.0116268
