!Murata Part Number: GRM31MR11C225MA35
!These Parameters are Measured in Series Mode Connection
!Data Generated on Mar 30, 2021
!       o--ll--o
!Port1            Port2
!       o------o
!Operation Temp=25[degC], DC Bias Voltage=0[V]
!Freq. Start=100[Hz] Stop=6[GHz] 401[Steps]
# Hz S RI R 50
!Freq.(Hz) S11(Real) S11(Imag) S21(Real) S21(Imag) S12(Real) S12(Imag) S22(Real) S22(Imag)
100 0.9820527 -0.1295048 0.0179473 0.1295048 0.0179473 0.1295048 0.9820527 -0.1295048
105 0.9804510 -0.1351806 0.0195490 0.1351806 0.0195490 0.1351806 0.9804510 -0.1351806
109 0.9787082 -0.1410843 0.0212918 0.1410843 0.0212918 0.1410843 0.9787082 -0.1410843
114 0.9768124 -0.1472221 0.0231876 0.1472221 0.0231876 0.1472221 0.9768124 -0.1472221
120 0.9747506 -0.1536001 0.0252494 0.1536001 0.0252494 0.1536001 0.9747506 -0.1536001
125 0.9725090 -0.1602240 0.0274910 0.1602240 0.0274910 0.1602240 0.9725090 -0.1602240
131 0.9700727 -0.1670990 0.0299273 0.1670990 0.0299273 0.1670990 0.9700727 -0.1670990
137 0.9674258 -0.1742299 0.0325742 0.1742299 0.0325742 0.1742299 0.9674258 -0.1742299
143 0.9645512 -0.1816208 0.0354488 0.1816208 0.0354488 0.1816208 0.9645512 -0.1816208
150 0.9614308 -0.1892752 0.0385692 0.1892752 0.0385692 0.1892752 0.9614308 -0.1892752
156 0.9580451 -0.1971954 0.0419549 0.1971954 0.0419549 0.1971954 0.9580451 -0.1971954
164 0.9543738 -0.2053829 0.0456262 0.2053829 0.0456262 0.2053829 0.9543738 -0.2053829
171 0.9503949 -0.2138379 0.0496051 0.2138379 0.0496051 0.2138379 0.9503949 -0.2138379
179 0.9460856 -0.2225592 0.0539144 0.2225592 0.0539144 0.2225592 0.9460856 -0.2225592
187 0.9414219 -0.2315438 0.0585781 0.2315438 0.0585781 0.2315438 0.9414219 -0.2315438
196 0.9363786 -0.2407873 0.0636214 0.2407873 0.0636214 0.2407873 0.9363786 -0.2407873
205 0.9309295 -0.2502829 0.0690705 0.2502829 0.0690705 0.2502829 0.9309295 -0.2502829
214 0.9250475 -0.2600217 0.0749525 0.2600217 0.0749525 0.2600217 0.9250475 -0.2600217
224 0.9187048 -0.2699922 0.0812952 0.2699922 0.0812952 0.2699922 0.9187048 -0.2699922
234 0.9118728 -0.2801803 0.0881272 0.2801803 0.0881272 0.2801803 0.9118728 -0.2801803
245 0.9045228 -0.2905687 0.0954772 0.2905687 0.0954772 0.2905687 0.9045228 -0.2905687
256 0.8966257 -0.3011372 0.1033743 0.3011372 0.1033743 0.3011372 0.8966257 -0.3011372
268 0.8881526 -0.3118617 0.1118474 0.3118617 0.1118474 0.3118617 0.8881526 -0.3118617
280 0.8790754 -0.3227149 0.1209246 0.3227149 0.1209246 0.3227149 0.8790754 -0.3227149
293 0.8693665 -0.3336655 0.1306335 0.3336655 0.1306335 0.3336655 0.8693665 -0.3336655
306 0.8590002 -0.3446780 0.1409998 0.3446780 0.1409998 0.3446780 0.8590002 -0.3446780
320 0.8479522 -0.3557132 0.1520478 0.3557132 0.1520478 0.3557132 0.8479522 -0.3557132
335 0.8362011 -0.3667278 0.1637989 0.3667278 0.1637989 0.3667278 0.8362011 -0.3667278
350 0.8237281 -0.3776743 0.1762719 0.3776743 0.1762719 0.3776743 0.8237281 -0.3776743
366 0.8105185 -0.3885015 0.1894815 0.3885015 0.1894815 0.3885015 0.8105185 -0.3885015
383 0.7965615 -0.3991544 0.2034385 0.3991544 0.2034385 0.3991544 0.7965615 -0.3991544
401 0.7818515 -0.4095749 0.2181485 0.4095749 0.2181485 0.4095749 0.7818515 -0.4095749
419 0.7663884 -0.4197018 0.2336116 0.4197018 0.2336116 0.4197018 0.7663884 -0.4197018
438 0.7501782 -0.4294717 0.2498218 0.4294717 0.2498218 0.4294717 0.7501782 -0.4294717
458 0.7332336 -0.4388198 0.2667664 0.4388198 0.2667664 0.4388198 0.7332336 -0.4388198
479 0.7155745 -0.4476802 0.2844255 0.4476802 0.2844255 0.4476802 0.7155745 -0.4476802
501 0.6972283 -0.4559872 0.3027717 0.4559872 0.3027717 0.4559872 0.6972283 -0.4559872
524 0.6782299 -0.4636761 0.3217701 0.4636761 0.3217701 0.4636761 0.6782299 -0.4636761
548 0.6586223 -0.4706846 0.3413777 0.4706846 0.3413777 0.4706846 0.6586223 -0.4706846
573 0.6384559 -0.4769534 0.3615441 0.4769534 0.3615441 0.4769534 0.6384559 -0.4769534
600 0.6177887 -0.4824275 0.3822113 0.4824275 0.3822113 0.4824275 0.6177887 -0.4824275
627 0.5966854 -0.4870577 0.4033146 0.4870577 0.4033146 0.4870577 0.5966854 -0.4870577
656 0.5752170 -0.4908009 0.4247830 0.4908009 0.4247830 0.4908009 0.5752170 -0.4908009
686 0.5534601 -0.4936217 0.4465399 0.4936217 0.4465399 0.4936217 0.5534601 -0.4936217
717 0.5314954 -0.4954927 0.4685046 0.4954927 0.4685046 0.4954927 0.5314954 -0.4954927
750 0.5094070 -0.4963957 0.4905930 0.4963957 0.4905930 0.4963957 0.5094070 -0.4963957
784 0.4872808 -0.4963214 0.5127192 0.4963214 0.5127192 0.4963214 0.4872808 -0.4963214
820 0.4652037 -0.4952703 0.5347963 0.4952703 0.5347963 0.4952703 0.4652037 -0.4952703
858 0.4432615 -0.4932523 0.5567385 0.4932523 0.5567385 0.4932523 0.4432615 -0.4932523
897 0.4215383 -0.4902868 0.5784617 0.4902868 0.5784617 0.4902868 0.4215383 -0.4902868
938 0.4001146 -0.4864018 0.5998854 0.4864018 0.5998854 0.4864018 0.4001146 -0.4864018
981 0.3790668 -0.4816338 0.6209332 0.4816338 0.6209332 0.4816338 0.3790668 -0.4816338
1026 0.3584655 -0.4760267 0.6415345 0.4760267 0.6415345 0.4760267 0.3584655 -0.4760267
1073 0.3383752 -0.4696307 0.6616248 0.4696307 0.6616248 0.4696307 0.3383752 -0.4696307
1122 0.3188533 -0.4625016 0.6811467 0.4625016 0.6811467 0.4625016 0.3188533 -0.4625016
1174 0.2999495 -0.4546996 0.7000505 0.4546996 0.7000505 0.4546996 0.2999495 -0.4546996
1227 0.2817061 -0.4462879 0.7182939 0.4462879 0.7182939 0.4462879 0.2817061 -0.4462879
1283 0.2641572 -0.4373320 0.7358428 0.4373320 0.7358428 0.4373320 0.2641572 -0.4373320
1342 0.2473292 -0.4278981 0.7526708 0.4278981 0.7526708 0.4278981 0.2473292 -0.4278981
1404 0.2312409 -0.4180526 0.7687591 0.4180526 0.7687591 0.4180526 0.2312409 -0.4180526
1468 0.2159040 -0.4078608 0.7840960 0.4078608 0.7840960 0.4078608 0.2159040 -0.4078608
1535 0.2013232 -0.3973864 0.7986768 0.3973864 0.7986768 0.3973864 0.2013232 -0.3973864
1606 0.1874974 -0.3866905 0.8125026 0.3866905 0.8125026 0.3866905 0.1874974 -0.3866905
1679 0.1744195 -0.3758314 0.8255805 0.3758314 0.8255805 0.3758314 0.1744195 -0.3758314
1756 0.1620780 -0.3648636 0.8379220 0.3648636 0.8379220 0.3648636 0.1620780 -0.3648636
1836 0.1504567 -0.3538381 0.8495433 0.3538381 0.8495433 0.3538381 0.1504567 -0.3538381
1920 0.1395360 -0.3428019 0.8604640 0.3428019 0.8604640 0.3428019 0.1395360 -0.3428019
2008 0.1292936 -0.3317976 0.8707064 0.3317976 0.8707064 0.3317976 0.1292936 -0.3317976
2100 0.1197043 -0.3208640 0.8802957 0.3208640 0.8802957 0.3208640 0.1197043 -0.3208640
2196 0.1107417 -0.3100356 0.8892583 0.3100356 0.8892583 0.3100356 0.1107417 -0.3100356
2297 0.1023778 -0.2993428 0.8976222 0.2993428 0.8976222 0.2993428 0.1023778 -0.2993428
2402 0.0945837 -0.2888124 0.9054163 0.2888124 0.9054163 0.2888124 0.0945837 -0.2888124
2512 0.0873304 -0.2784672 0.9126696 0.2784672 0.9126696 0.2784672 0.0873304 -0.2784672
2627 0.0805886 -0.2683270 0.9194114 0.2683270 0.9194114 0.2683270 0.0805886 -0.2683270
2748 0.0743293 -0.2584079 0.9256707 0.2584079 0.9256707 0.2584079 0.0743293 -0.2584079
2873 0.0685241 -0.2487234 0.9314759 0.2487234 0.9314759 0.2487234 0.0685241 -0.2487234
3005 0.0631451 -0.2392841 0.9368549 0.2392841 0.9368549 0.2392841 0.0631451 -0.2392841
3143 0.0581655 -0.2300983 0.9418345 0.2300983 0.9418345 0.2300983 0.0581655 -0.2300983
3287 0.0535592 -0.2211720 0.9464408 0.2211720 0.9464408 0.2211720 0.0535592 -0.2211720
3437 0.0493014 -0.2125091 0.9506986 0.2125091 0.9506986 0.2125091 0.0493014 -0.2125091
3594 0.0453683 -0.2041121 0.9546317 0.2041121 0.9546317 0.2041121 0.0453683 -0.2041121
3759 0.0417376 -0.1959816 0.9582624 0.1959816 0.9582624 0.1959816 0.0417376 -0.1959816
3931 0.0383877 -0.1881171 0.9616123 0.1881171 0.9616123 0.1881171 0.0383877 -0.1881171
4111 0.0352986 -0.1805169 0.9647014 0.1805169 0.9647014 0.1805169 0.0352986 -0.1805169
4299 0.0324514 -0.1731782 0.9675486 0.1731782 0.9675486 0.1731782 0.0324514 -0.1731782
4496 0.0298282 -0.1660975 0.9701718 0.1660975 0.9701718 0.1660975 0.0298282 -0.1660975
4702 0.0274125 -0.1592705 0.9725875 0.1592705 0.9725875 0.1592705 0.0274125 -0.1592705
4918 0.0251886 -0.1526923 0.9748114 0.1526923 0.9748114 0.1526923 0.0251886 -0.1526923
5143 0.0231421 -0.1463577 0.9768579 0.1463577 0.9768579 0.1463577 0.0231421 -0.1463577
5378 0.0212595 -0.1402610 0.9787405 0.1402610 0.9787405 0.1402610 0.0212595 -0.1402610
5625 0.0195282 -0.1343961 0.9804718 0.1343961 0.9804718 0.1343961 0.0195282 -0.1343961
5882 0.0179364 -0.1287569 0.9820636 0.1287569 0.9820636 0.1287569 0.0179364 -0.1287569
6151 0.0164734 -0.1233369 0.9835266 0.1233369 0.9835266 0.1233369 0.0164734 -0.1233369
6433 0.0151292 -0.1181297 0.9848708 0.1181297 0.9848708 0.1181297 0.0151292 -0.1181297
6728 0.0138943 -0.1131287 0.9861057 0.1131287 0.9861057 0.1131287 0.0138943 -0.1131287
7036 0.0127601 -0.1083275 0.9872399 0.1083275 0.9872399 0.1083275 0.0127601 -0.1083275
7358 0.0117187 -0.1037193 0.9882813 0.1037193 0.9882813 0.1037193 0.0117187 -0.1037193
7695 0.0107627 -0.0992978 0.9892373 0.0992978 0.9892373 0.0992978 0.0107627 -0.0992978
8047 0.0098853 -0.0950565 0.9901147 0.0950565 0.9901147 0.0950565 0.0098853 -0.0950565
8416 0.0090801 -0.0909891 0.9909199 0.0909891 0.9909199 0.0909891 0.0090801 -0.0909891
8801 0.0083413 -0.0870893 0.9916587 0.0870893 0.9916587 0.0870893 0.0083413 -0.0870893
9204 0.0076635 -0.0833510 0.9923365 0.0833510 0.9923365 0.0833510 0.0076635 -0.0833510
9626 0.0070419 -0.0797683 0.9929581 0.0797683 0.9929581 0.0797683 0.0070419 -0.0797683
10066 0.0064718 -0.0763352 0.9935282 0.0763352 0.9935282 0.0763352 0.0064718 -0.0763352
10527 0.0059489 -0.0730461 0.9940511 0.0730461 0.9940511 0.0730461 0.0059489 -0.0730461
11009 0.0054695 -0.0698955 0.9945305 0.0698955 0.9945305 0.0698955 0.0054695 -0.0698955
11514 0.0050299 -0.0668779 0.9949701 0.0668779 0.9949701 0.0668779 0.0050299 -0.0668779
12041 0.0046269 -0.0639881 0.9953731 0.0639881 0.9953731 0.0639881 0.0046269 -0.0639881
12592 0.0042574 -0.0612211 0.9957426 0.0612211 0.9957426 0.0612211 0.0042574 -0.0612211
13169 0.0039185 -0.0585718 0.9960815 0.0585718 0.9960815 0.0585718 0.0039185 -0.0585718
13772 0.0036079 -0.0560357 0.9963921 0.0560357 0.9963921 0.0560357 0.0036079 -0.0560357
14402 0.0033230 -0.0536080 0.9966770 0.0536080 0.9966770 0.0536080 0.0033230 -0.0536080
15062 0.0030617 -0.0512844 0.9969383 0.0512844 0.9969383 0.0512844 0.0030617 -0.0512844
15752 0.0028221 -0.0490605 0.9971779 0.0490605 0.9971779 0.0490605 0.0028221 -0.0490605
16473 0.0026023 -0.0469322 0.9973977 0.0469322 0.9973977 0.0469322 0.0026023 -0.0469322
17227 0.0024007 -0.0448956 0.9975993 0.0448956 0.9975993 0.0448956 0.0024007 -0.0448956
18016 0.0022156 -0.0429468 0.9977844 0.0429468 0.9977844 0.0429468 0.0022156 -0.0429468
18841 0.0020458 -0.0410821 0.9979542 0.0410821 0.9979542 0.0410821 0.0020458 -0.0410821
19704 0.0018898 -0.0392980 0.9981102 0.0392980 0.9981102 0.0392980 0.0018898 -0.0392980
20606 0.0017466 -0.0375910 0.9982534 0.0375910 0.9982534 0.0375910 0.0017466 -0.0375910
21550 0.0016150 -0.0359579 0.9983850 0.0359579 0.9983850 0.0359579 0.0016150 -0.0359579
22537 0.0014941 -0.0343955 0.9985059 0.0343955 0.9985059 0.0343955 0.0014941 -0.0343955
23569 0.0013829 -0.0329008 0.9986171 0.0329008 0.9986171 0.0329008 0.0013829 -0.0329008
24648 0.0012807 -0.0314708 0.9987193 0.0314708 0.9987193 0.0314708 0.0012807 -0.0314708
25777 0.0011866 -0.0301029 0.9988134 0.0301029 0.9988134 0.0301029 0.0011866 -0.0301029
26957 0.0011000 -0.0287943 0.9989000 0.0287943 0.9989000 0.0287943 0.0011000 -0.0287943
28191 0.0010203 -0.0275424 0.9989797 0.0275424 0.9989797 0.0275424 0.0010203 -0.0275424
29482 0.0009469 -0.0263449 0.9990531 0.0263449 0.9990531 0.0263449 0.0009469 -0.0263449
30832 0.0008792 -0.0251993 0.9991208 0.0251993 0.9991208 0.0251993 0.0008792 -0.0251993
32244 0.0008169 -0.0241034 0.9991831 0.0241034 0.9991831 0.0241034 0.0008169 -0.0241034
33721 0.0007594 -0.0230551 0.9992406 0.0230551 0.9992406 0.0230551 0.0007594 -0.0230551
35265 0.0007064 -0.0220523 0.9992936 0.0220523 0.9992936 0.0220523 0.0007064 -0.0220523
36880 0.0006574 -0.0210930 0.9993426 0.0210930 0.9993426 0.0210930 0.0006574 -0.0210930
38569 0.0006123 -0.0201753 0.9993877 0.0201753 0.9993877 0.0201753 0.0006123 -0.0201753
40335 0.0005706 -0.0192975 0.9994294 0.0192975 0.9994294 0.0192975 0.0005706 -0.0192975
42182 0.0005322 -0.0184577 0.9994678 0.0184577 0.9994678 0.0184577 0.0005322 -0.0184577
44113 0.0004966 -0.0176544 0.9995034 0.0176544 0.9995034 0.0176544 0.0004966 -0.0176544
46134 0.0004638 -0.0168860 0.9995362 0.0168860 0.9995362 0.0168860 0.0004638 -0.0168860
48246 0.0004336 -0.0161509 0.9995664 0.0161509 0.9995664 0.0161509 0.0004336 -0.0161509
50455 0.0004056 -0.0154478 0.9995944 0.0154478 0.9995944 0.0154478 0.0004056 -0.0154478
52766 0.0003797 -0.0147752 0.9996203 0.0147752 0.9996203 0.0147752 0.0003797 -0.0147752
55182 0.0003559 -0.0141318 0.9996441 0.0141318 0.9996441 0.0141318 0.0003559 -0.0141318
57709 0.0003338 -0.0135163 0.9996662 0.0135163 0.9996662 0.0135163 0.0003338 -0.0135163
60352 0.0003134 -0.0129276 0.9996866 0.0129276 0.9996866 0.0129276 0.0003134 -0.0129276
63115 0.0002945 -0.0123645 0.9997055 0.0123645 0.9997055 0.0123645 0.0002945 -0.0123645
66005 0.0002771 -0.0118258 0.9997229 0.0118258 0.9997229 0.0118258 0.0002771 -0.0118258
69028 0.0002610 -0.0113106 0.9997390 0.0113106 0.9997390 0.0113106 0.0002610 -0.0113106
72189 0.0002461 -0.0108178 0.9997539 0.0108178 0.9997539 0.0108178 0.0002461 -0.0108178
75495 0.0002323 -0.0103464 0.9997677 0.0103464 0.9997677 0.0103464 0.0002323 -0.0103464
78952 0.0002195 -0.0098956 0.9997805 0.0098956 0.9997805 0.0098956 0.0002195 -0.0098956
82567 0.0002076 -0.0094643 0.9997924 0.0094643 0.9997924 0.0094643 0.0002076 -0.0094643
86348 0.0001966 -0.0090518 0.9998034 0.0090518 0.9998034 0.0090518 0.0001966 -0.0090518
90302 0.0001864 -0.0086572 0.9998136 0.0086572 0.9998136 0.0086572 0.0001864 -0.0086572
94437 0.0001769 -0.0082799 0.9998231 0.0082799 0.9998231 0.0082799 0.0001769 -0.0082799
98762 0.0001681 -0.0079189 0.9998319 0.0079189 0.9998319 0.0079189 0.0001681 -0.0079189
103284 0.0001599 -0.0075736 0.9998401 0.0075736 0.9998401 0.0075736 0.0001599 -0.0075736
108014 0.0001523 -0.0072434 0.9998477 0.0072434 0.9998477 0.0072434 0.0001523 -0.0072434
112960 0.0001452 -0.0069275 0.9998548 0.0069275 0.9998548 0.0069275 0.0001452 -0.0069275
118133 0.0001386 -0.0066254 0.9998614 0.0066254 0.9998614 0.0066254 0.0001386 -0.0066254
123542 0.0001324 -0.0063364 0.9998676 0.0063364 0.9998676 0.0063364 0.0001324 -0.0063364
129199 0.0001266 -0.0060599 0.9998734 0.0060599 0.9998734 0.0060599 0.0001266 -0.0060599
135116 0.0001211 -0.0057954 0.9998789 0.0057954 0.9998789 0.0057954 0.0001211 -0.0057954
141303 0.0001161 -0.0055424 0.9998839 0.0055424 0.9998839 0.0055424 0.0001161 -0.0055424
147774 0.0001113 -0.0053004 0.9998887 0.0053004 0.9998887 0.0053004 0.0001113 -0.0053004
154540 0.0001069 -0.0050689 0.9998931 0.0050689 0.9998931 0.0050689 0.0001069 -0.0050689
161617 0.0001027 -0.0048474 0.9998973 0.0048474 0.9998973 0.0048474 0.0001027 -0.0048474
169018 0.0000988 -0.0046355 0.9999012 0.0046355 0.9999012 0.0046355 0.0000988 -0.0046355
176758 0.0000951 -0.0044328 0.9999049 0.0044328 0.9999049 0.0044328 0.0000951 -0.0044328
184852 0.0000916 -0.0042388 0.9999084 0.0042388 0.9999084 0.0042388 0.0000916 -0.0042388
193316 0.0000884 -0.0040533 0.9999116 0.0040533 0.9999116 0.0040533 0.0000884 -0.0040533
202169 0.0000853 -0.0038757 0.9999147 0.0038757 0.9999147 0.0038757 0.0000853 -0.0038757
211427 0.0000825 -0.0037058 0.9999175 0.0037058 0.9999175 0.0037058 0.0000825 -0.0037058
221108 0.0000798 -0.0035432 0.9999202 0.0035432 0.9999202 0.0035432 0.0000798 -0.0035432
231233 0.0000773 -0.0033876 0.9999227 0.0033876 0.9999227 0.0033876 0.0000773 -0.0033876
241822 0.0000750 -0.0032388 0.9999250 0.0032388 0.9999250 0.0032388 0.0000750 -0.0032388
252896 0.0000728 -0.0030963 0.9999272 0.0030963 0.9999272 0.0030963 0.0000728 -0.0030963
264476 0.0000707 -0.0029600 0.9999293 0.0029600 0.9999293 0.0029600 0.0000707 -0.0029600
276587 0.0000688 -0.0028295 0.9999312 0.0028295 0.9999312 0.0028295 0.0000688 -0.0028295
289253 0.0000671 -0.0027046 0.9999329 0.0027046 0.9999329 0.0027046 0.0000671 -0.0027046
302498 0.0000654 -0.0025851 0.9999346 0.0025851 0.9999346 0.0025851 0.0000654 -0.0025851
316350 0.0000639 -0.0024707 0.9999361 0.0024707 0.9999361 0.0024707 0.0000639 -0.0024707
330837 0.0000624 -0.0023612 0.9999376 0.0023612 0.9999376 0.0023612 0.0000624 -0.0023612
345986 0.0000611 -0.0022564 0.9999389 0.0022564 0.9999389 0.0022564 0.0000611 -0.0022564
361830 0.0000599 -0.0021561 0.9999401 0.0021561 0.9999401 0.0021561 0.0000599 -0.0021561
378399 0.0000587 -0.0020600 0.9999413 0.0020600 0.9999413 0.0020600 0.0000587 -0.0020600
395726 0.0000577 -0.0019681 0.9999423 0.0019681 0.9999423 0.0019681 0.0000577 -0.0019681
413847 0.0000567 -0.0018800 0.9999433 0.0018800 0.9999433 0.0018800 0.0000567 -0.0018800
432798 0.0000558 -0.0017957 0.9999442 0.0017957 0.9999442 0.0017957 0.0000558 -0.0017957
452617 0.0000550 -0.0017149 0.9999450 0.0017149 0.9999450 0.0017149 0.0000550 -0.0017149
473344 0.0000542 -0.0016376 0.9999458 0.0016376 0.9999458 0.0016376 0.0000542 -0.0016376
495019 0.0000535 -0.0015635 0.9999465 0.0015635 0.9999465 0.0015635 0.0000535 -0.0015635
517687 0.0000529 -0.0014926 0.9999471 0.0014926 0.9999471 0.0014926 0.0000529 -0.0014926
541393 0.0000523 -0.0014246 0.9999477 0.0014246 0.9999477 0.0014246 0.0000523 -0.0014246
566185 0.0000518 -0.0013594 0.9999482 0.0013594 0.9999482 0.0013594 0.0000518 -0.0013594
592111 0.0000513 -0.0012970 0.9999487 0.0012970 0.9999487 0.0012970 0.0000513 -0.0012970
619225 0.0000509 -0.0012372 0.9999491 0.0012372 0.9999491 0.0012372 0.0000509 -0.0012372
647581 0.0000505 -0.0011798 0.9999495 0.0011798 0.9999495 0.0011798 0.0000505 -0.0011798
677235 0.0000502 -0.0011248 0.9999498 0.0011248 0.9999498 0.0011248 0.0000502 -0.0011248
708247 0.0000499 -0.0010720 0.9999501 0.0010720 0.9999501 0.0010720 0.0000499 -0.0010720
740679 0.0000496 -0.0010214 0.9999504 0.0010214 0.9999504 0.0010214 0.0000496 -0.0010214
774597 0.0000494 -0.0009728 0.9999506 0.0009728 0.9999506 0.0009728 0.0000494 -0.0009728
810067 0.0000492 -0.0009261 0.9999508 0.0009261 0.9999508 0.0009261 0.0000492 -0.0009261
847162 0.0000490 -0.0008813 0.9999510 0.0008813 0.9999510 0.0008813 0.0000490 -0.0008813
885955 0.0000489 -0.0008383 0.9999511 0.0008383 0.9999511 0.0008383 0.0000489 -0.0008383
926525 0.0000488 -0.0007969 0.9999512 0.0007969 0.9999512 0.0007969 0.0000488 -0.0007969
968953 0.0000487 -0.0007571 0.9999513 0.0007571 0.9999513 0.0007571 0.0000487 -0.0007571
1013323 0.0000486 -0.0007189 0.9999514 0.0007189 0.9999514 0.0007189 0.0000486 -0.0007189
1059725 0.0000486 -0.0006821 0.9999514 0.0006821 0.9999514 0.0006821 0.0000486 -0.0006821
1108252 0.0000486 -0.0006466 0.9999514 0.0006466 0.9999514 0.0006466 0.0000486 -0.0006466
1159002 0.0000487 -0.0006124 0.9999513 0.0006124 0.9999513 0.0006124 0.0000487 -0.0006124
1212075 0.0000488 -0.0005795 0.9999512 0.0005795 0.9999512 0.0005795 0.0000488 -0.0005795
1267578 0.0000489 -0.0005477 0.9999511 0.0005477 0.9999511 0.0005477 0.0000489 -0.0005477
1325623 0.0000490 -0.0005170 0.9999510 0.0005170 0.9999510 0.0005170 0.0000490 -0.0005170
1386327 0.0000492 -0.0004874 0.9999508 0.0004874 0.9999508 0.0004874 0.0000492 -0.0004874
1449809 0.0000494 -0.0004587 0.9999506 0.0004587 0.9999506 0.0004587 0.0000494 -0.0004587
1516199 0.0000496 -0.0004310 0.9999504 0.0004310 0.9999504 0.0004310 0.0000496 -0.0004310
1585629 0.0000499 -0.0004041 0.9999501 0.0004041 0.9999501 0.0004041 0.0000499 -0.0004041
1658239 0.0000503 -0.0003780 0.9999497 0.0003780 0.9999497 0.0003780 0.0000503 -0.0003780
1734173 0.0000506 -0.0003526 0.9999494 0.0003526 0.9999494 0.0003526 0.0000506 -0.0003526
1813585 0.0000510 -0.0003280 0.9999490 0.0003280 0.9999490 0.0003280 0.0000510 -0.0003280
1896632 0.0000515 -0.0003040 0.9999485 0.0003040 0.9999485 0.0003040 0.0000515 -0.0003040
1983483 0.0000520 -0.0002807 0.9999480 0.0002807 0.9999480 0.0002807 0.0000520 -0.0002807
2074311 0.0000526 -0.0002578 0.9999474 0.0002578 0.9999474 0.0002578 0.0000526 -0.0002578
