!Murata Part Number: GRM319B31C335KA75
!These Parameters are Measured in Series Mode Connection
!Data Generated on Mar 30, 2021
!       o--ll--o
!Port1            Port2
!       o------o
!Operation Temp=25[degC], DC Bias Voltage=0[V]
!Freq. Start=100[Hz] Stop=6[GHz] 401[Steps]
# Hz S RI R 50
!Freq.(Hz) S11(Real) S11(Imag) S21(Real) S21(Imag) S12(Real) S12(Imag) S22(Real) S22(Imag)
100 0.9599833 -0.1940244 0.0400167 0.1940244 0.0400167 0.1940244 0.9599833 -0.1940244
105 0.9564394 -0.2021266 0.0435606 0.2021266 0.0435606 0.2021266 0.9564394 -0.2021266
109 0.9525962 -0.2104981 0.0474038 0.2104981 0.0474038 0.2104981 0.9525962 -0.2104981
114 0.9484311 -0.2191383 0.0515689 0.2191383 0.0515689 0.2191383 0.9484311 -0.2191383
120 0.9439204 -0.2280451 0.0560796 0.2280451 0.0560796 0.2280451 0.9439204 -0.2280451
125 0.9390391 -0.2372146 0.0609609 0.2372146 0.0609609 0.2372146 0.9390391 -0.2372146
131 0.9337612 -0.2466411 0.0662388 0.2466411 0.0662388 0.2466411 0.9337612 -0.2466411
137 0.9280598 -0.2563167 0.0719402 0.2563167 0.0719402 0.2563167 0.9280598 -0.2563167
143 0.9219070 -0.2662308 0.0780930 0.2662308 0.0780930 0.2662308 0.9219070 -0.2662308
150 0.9152741 -0.2763705 0.0847259 0.2763705 0.0847259 0.2763705 0.9152741 -0.2763705
156 0.9081323 -0.2867197 0.0918677 0.2867197 0.0918677 0.2867197 0.9081323 -0.2867197
164 0.9004520 -0.2972592 0.0995480 0.2972592 0.0995480 0.2972592 0.9004520 -0.2972592
171 0.8922041 -0.3079665 0.1077959 0.3079665 0.1077959 0.3079665 0.8922041 -0.3079665
179 0.8833596 -0.3188152 0.1166404 0.3188152 0.1166404 0.3188152 0.8833596 -0.3188152
187 0.8738903 -0.3297752 0.1261097 0.3297752 0.1261097 0.3297752 0.8738903 -0.3297752
196 0.8637693 -0.3408126 0.1362307 0.3408126 0.1362307 0.3408126 0.8637693 -0.3408126
205 0.8529714 -0.3518892 0.1470286 0.3518892 0.1470286 0.3518892 0.8529714 -0.3518892
214 0.8414737 -0.3629626 0.1585263 0.3629626 0.1585263 0.3629626 0.8414737 -0.3629626
224 0.8292560 -0.3739864 0.1707440 0.3739864 0.1707440 0.3739864 0.8292560 -0.3739864
234 0.8163018 -0.3849103 0.1836982 0.3849103 0.1836982 0.3849103 0.8163018 -0.3849103
245 0.8025986 -0.3956798 0.1974014 0.3956798 0.1974014 0.3956798 0.8025986 -0.3956798
256 0.7881388 -0.4062374 0.2118612 0.4062374 0.2118612 0.4062374 0.7881388 -0.4062374
268 0.7729203 -0.4165221 0.2270797 0.4165221 0.2270797 0.4165221 0.7729203 -0.4165221
280 0.7569469 -0.4264706 0.2430531 0.4264706 0.2430531 0.4264706 0.7569469 -0.4264706
293 0.7402292 -0.4360176 0.2597708 0.4360176 0.2597708 0.4360176 0.7402292 -0.4360176
306 0.7227848 -0.4450969 0.2772152 0.4450969 0.2772152 0.4450969 0.7227848 -0.4450969
320 0.7046391 -0.4536420 0.2953609 0.4536420 0.2953609 0.4536420 0.7046391 -0.4536420
335 0.6858249 -0.4615872 0.3141751 0.4615872 0.3141751 0.4615872 0.6858249 -0.4615872
350 0.6663831 -0.4688688 0.3336169 0.4688688 0.3336169 0.4688688 0.6663831 -0.4688688
366 0.6463624 -0.4754261 0.3536376 0.4754261 0.3536376 0.4754261 0.6463624 -0.4754261
383 0.6258190 -0.4812025 0.3741810 0.4812025 0.3741810 0.4812025 0.6258190 -0.4812025
401 0.6048161 -0.4861465 0.3951839 0.4861465 0.3951839 0.4861465 0.6048161 -0.4861465
419 0.5834237 -0.4902132 0.4165763 0.4902132 0.4165763 0.4902132 0.5834237 -0.4902132
438 0.5617170 -0.4933649 0.4382830 0.4933649 0.4382830 0.4933649 0.5617170 -0.4933649
458 0.5397760 -0.4955719 0.4602240 0.4955719 0.4602240 0.4955719 0.5397760 -0.4955719
479 0.5176844 -0.4968133 0.4823156 0.4968133 0.4823156 0.4968133 0.5176844 -0.4968133
501 0.4955277 -0.4970776 0.5044723 0.4970776 0.5044723 0.4970776 0.4955277 -0.4970776
524 0.4733927 -0.4963625 0.5266073 0.4963625 0.5266073 0.4963625 0.4733927 -0.4963625
548 0.4513656 -0.4946756 0.5486344 0.4946756 0.5486344 0.4946756 0.4513656 -0.4946756
573 0.4295310 -0.4920335 0.5704690 0.4920335 0.5704690 0.4920335 0.4295310 -0.4920335
600 0.4079704 -0.4884619 0.5920296 0.4884619 0.5920296 0.4884619 0.4079704 -0.4884619
627 0.3867611 -0.4839948 0.6132389 0.4839948 0.6132389 0.4839948 0.3867611 -0.4839948
656 0.3659752 -0.4786740 0.6340248 0.4786740 0.6340248 0.4786740 0.3659752 -0.4786740
686 0.3456789 -0.4725475 0.6543211 0.4725475 0.6543211 0.4725475 0.3456789 -0.4725475
717 0.3259313 -0.4656694 0.6740687 0.4656694 0.6740687 0.4656694 0.3259313 -0.4656694
750 0.3067844 -0.4580980 0.6932156 0.4580980 0.6932156 0.4580980 0.3067844 -0.4580980
784 0.2882827 -0.4498954 0.7117173 0.4498954 0.7117173 0.4498954 0.2882827 -0.4498954
820 0.2704626 -0.4411259 0.7295374 0.4411259 0.7295374 0.4411259 0.2704626 -0.4411259
858 0.2533532 -0.4318550 0.7466468 0.4318550 0.7466468 0.4318550 0.2533532 -0.4318550
897 0.2369757 -0.4221485 0.7630243 0.4221485 0.7630243 0.4221485 0.2369757 -0.4221485
938 0.2213443 -0.4120718 0.7786557 0.4120718 0.7786557 0.4120718 0.2213443 -0.4120718
981 0.2064663 -0.4016885 0.7935337 0.4016885 0.7935337 0.4016885 0.2064663 -0.4016885
1026 0.1923429 -0.3910604 0.8076571 0.3910604 0.8076571 0.3910604 0.1923429 -0.3910604
1073 0.1789694 -0.3802462 0.8210306 0.3802462 0.8210306 0.3802462 0.1789694 -0.3802462
1122 0.1663362 -0.3693017 0.8336638 0.3693017 0.8336638 0.3693017 0.1663362 -0.3693017
1174 0.1544292 -0.3582789 0.8455708 0.3582789 0.8455708 0.3582789 0.1544292 -0.3582789
1227 0.1432306 -0.3472261 0.8567694 0.3472261 0.8567694 0.3472261 0.1432306 -0.3472261
1283 0.1327193 -0.3361876 0.8672807 0.3361876 0.8672807 0.3361876 0.1327193 -0.3361876
1342 0.1228718 -0.3252035 0.8771282 0.3252035 0.8771282 0.3252035 0.1228718 -0.3252035
1404 0.1136623 -0.3143100 0.8863377 0.3143100 0.8863377 0.3143100 0.1136623 -0.3143100
1468 0.1050638 -0.3035393 0.8949362 0.3035393 0.8949362 0.3035393 0.1050638 -0.3035393
1535 0.0970481 -0.2929197 0.9029519 0.2929197 0.9029519 0.2929197 0.0970481 -0.2929197
1606 0.0895865 -0.2824760 0.9104135 0.2824760 0.9104135 0.2824760 0.0895865 -0.2824760
1679 0.0826499 -0.2722292 0.9173501 0.2722292 0.9173501 0.2722292 0.0826499 -0.2722292
1756 0.0762094 -0.2621973 0.9237906 0.2621973 0.9237906 0.2621973 0.0762094 -0.2621973
1836 0.0702364 -0.2523951 0.9297636 0.2523951 0.9297636 0.2523951 0.0702364 -0.2523951
1920 0.0647027 -0.2428346 0.9352973 0.2428346 0.9352973 0.2428346 0.0647027 -0.2428346
2008 0.0595812 -0.2335253 0.9404188 0.2335253 0.9404188 0.2335253 0.0595812 -0.2335253
2100 0.0548452 -0.2244745 0.9451548 0.2244745 0.9451548 0.2244745 0.0548452 -0.2244745
2196 0.0504695 -0.2156871 0.9495305 0.2156871 0.9495305 0.2156871 0.0504695 -0.2156871
2297 0.0464295 -0.2071665 0.9535705 0.2071665 0.9535705 0.2071665 0.0464295 -0.2071665
2402 0.0427021 -0.1989142 0.9572979 0.1989142 0.9572979 0.1989142 0.0427021 -0.1989142
2512 0.0392653 -0.1909302 0.9607347 0.1909302 0.9607347 0.1909302 0.0392653 -0.1909302
2627 0.0360981 -0.1832135 0.9639019 0.1832135 0.9639019 0.1832135 0.0360981 -0.1832135
2748 0.0331808 -0.1757617 0.9668192 0.1757617 0.9668192 0.1757617 0.0331808 -0.1757617
2873 0.0304949 -0.1685717 0.9695051 0.1685717 0.9695051 0.1685717 0.0304949 -0.1685717
3005 0.0280231 -0.1616395 0.9719769 0.1616395 0.9719769 0.1616395 0.0280231 -0.1616395
3143 0.0257491 -0.1549605 0.9742509 0.1549605 0.9742509 0.1549605 0.0257491 -0.1549605
3287 0.0236576 -0.1485292 0.9763424 0.1485292 0.9763424 0.1485292 0.0236576 -0.1485292
3437 0.0217346 -0.1423402 0.9782654 0.1423402 0.9782654 0.1423402 0.0217346 -0.1423402
3594 0.0199669 -0.1363874 0.9800331 0.1363874 0.9800331 0.1363874 0.0199669 -0.1363874
3759 0.0183422 -0.1306643 0.9816578 0.1306643 0.9816578 0.1306643 0.0183422 -0.1306643
3931 0.0168493 -0.1251647 0.9831507 0.1251647 0.9831507 0.1251647 0.0168493 -0.1251647
4111 0.0154777 -0.1198817 0.9845223 0.1198817 0.9845223 0.1198817 0.0154777 -0.1198817
4299 0.0142176 -0.1148086 0.9857824 0.1148086 0.9857824 0.1148086 0.0142176 -0.1148086
4496 0.0130601 -0.1099387 0.9869399 0.1099387 0.9869399 0.1099387 0.0130601 -0.1099387
4702 0.0119970 -0.1052653 0.9880030 0.1052653 0.9880030 0.1052653 0.0119970 -0.1052653
4918 0.0110206 -0.1007815 0.9889794 0.1007815 0.9889794 0.1007815 0.0110206 -0.1007815
5143 0.0101239 -0.0964807 0.9898761 0.0964807 0.9898761 0.0964807 0.0101239 -0.0964807
5378 0.0093005 -0.0923565 0.9906995 0.0923565 0.9906995 0.0923565 0.0093005 -0.0923565
5625 0.0085444 -0.0884022 0.9914556 0.0884022 0.9914556 0.0884022 0.0085444 -0.0884022
5882 0.0078502 -0.0846117 0.9921498 0.0846117 0.9921498 0.0846117 0.0078502 -0.0846117
6151 0.0072128 -0.0809788 0.9927872 0.0809788 0.9927872 0.0809788 0.0072128 -0.0809788
6433 0.0066276 -0.0774974 0.9933724 0.0774974 0.9933724 0.0774974 0.0066276 -0.0774974
6728 0.0060904 -0.0741618 0.9939096 0.0741618 0.9939096 0.0741618 0.0060904 -0.0741618
7036 0.0055973 -0.0709662 0.9944027 0.0709662 0.9944027 0.0709662 0.0055973 -0.0709662
7358 0.0051448 -0.0679052 0.9948552 0.0679052 0.9948552 0.0679052 0.0051448 -0.0679052
7695 0.0047294 -0.0649734 0.9952706 0.0649734 0.9952706 0.0649734 0.0047294 -0.0649734
8047 0.0043482 -0.0621657 0.9956518 0.0621657 0.9956518 0.0621657 0.0043482 -0.0621657
8416 0.0039984 -0.0594771 0.9960016 0.0594771 0.9960016 0.0594771 0.0039984 -0.0594771
8801 0.0036775 -0.0569028 0.9963225 0.0569028 0.9963225 0.0569028 0.0036775 -0.0569028
9204 0.0033830 -0.0544382 0.9966170 0.0544382 0.9966170 0.0544382 0.0033830 -0.0544382
9626 0.0031129 -0.0520787 0.9968871 0.0520787 0.9968871 0.0520787 0.0031129 -0.0520787
10066 0.0028652 -0.0498202 0.9971348 0.0498202 0.9971348 0.0498202 0.0028652 -0.0498202
10527 0.0026379 -0.0476584 0.9973621 0.0476584 0.9973621 0.0476584 0.0026379 -0.0476584
11009 0.0024295 -0.0455893 0.9975705 0.0455893 0.9975705 0.0455893 0.0024295 -0.0455893
11514 0.0022384 -0.0436092 0.9977616 0.0436092 0.9977616 0.0436092 0.0022384 -0.0436092
12041 0.0020631 -0.0417142 0.9979369 0.0417142 0.9979369 0.0417142 0.0020631 -0.0417142
12592 0.0019024 -0.0399009 0.9980976 0.0399009 0.9980976 0.0399009 0.0019024 -0.0399009
13169 0.0017550 -0.0381658 0.9982450 0.0381658 0.9982450 0.0381658 0.0017550 -0.0381658
13772 0.0016199 -0.0365056 0.9983801 0.0365056 0.9983801 0.0365056 0.0016199 -0.0365056
14402 0.0014959 -0.0349173 0.9985041 0.0349173 0.9985041 0.0349173 0.0014959 -0.0349173
15062 0.0013823 -0.0333977 0.9986177 0.0333977 0.9986177 0.0333977 0.0013823 -0.0333977
15752 0.0012781 -0.0319439 0.9987219 0.0319439 0.9987219 0.0319439 0.0012781 -0.0319439
16473 0.0011825 -0.0305531 0.9988175 0.0305531 0.9988175 0.0305531 0.0011825 -0.0305531
17227 0.0010948 -0.0292228 0.9989052 0.0292228 0.9989052 0.0292228 0.0010948 -0.0292228
18016 0.0010143 -0.0279502 0.9989857 0.0279502 0.9989857 0.0279502 0.0010143 -0.0279502
18841 0.0009404 -0.0267329 0.9990596 0.0267329 0.9990596 0.0267329 0.0009404 -0.0267329
19704 0.0008726 -0.0255685 0.9991274 0.0255685 0.9991274 0.0255685 0.0008726 -0.0255685
20606 0.0008104 -0.0244548 0.9991896 0.0244548 0.9991896 0.0244548 0.0008104 -0.0244548
21550 0.0007532 -0.0233897 0.9992468 0.0233897 0.9992468 0.0233897 0.0007532 -0.0233897
22537 0.0007006 -0.0223709 0.9992994 0.0223709 0.9992994 0.0223709 0.0007006 -0.0223709
23569 0.0006523 -0.0213964 0.9993477 0.0213964 0.9993477 0.0213964 0.0006523 -0.0213964
24648 0.0006078 -0.0204645 0.9993922 0.0204645 0.9993922 0.0204645 0.0006078 -0.0204645
25777 0.0005669 -0.0195732 0.9994331 0.0195732 0.9994331 0.0195732 0.0005669 -0.0195732
26957 0.0005292 -0.0187207 0.9994708 0.0187207 0.9994708 0.0187207 0.0005292 -0.0187207
28191 0.0004944 -0.0179054 0.9995056 0.0179054 0.9995056 0.0179054 0.0004944 -0.0179054
29482 0.0004623 -0.0171257 0.9995377 0.0171257 0.9995377 0.0171257 0.0004623 -0.0171257
30832 0.0004327 -0.0163799 0.9995673 0.0163799 0.9995673 0.0163799 0.0004327 -0.0163799
32244 0.0004053 -0.0156667 0.9995947 0.0156667 0.9995947 0.0156667 0.0004053 -0.0156667
33721 0.0003800 -0.0149846 0.9996200 0.0149846 0.9996200 0.0149846 0.0003800 -0.0149846
35265 0.0003566 -0.0143322 0.9996434 0.0143322 0.9996434 0.0143322 0.0003566 -0.0143322
36880 0.0003349 -0.0137082 0.9996651 0.0137082 0.9996651 0.0137082 0.0003349 -0.0137082
38569 0.0003148 -0.0131114 0.9996852 0.0131114 0.9996852 0.0131114 0.0003148 -0.0131114
40335 0.0002962 -0.0125405 0.9997038 0.0125405 0.9997038 0.0125405 0.0002962 -0.0125405
42182 0.0002788 -0.0119946 0.9997212 0.0119946 0.9997212 0.0119946 0.0002788 -0.0119946
44113 0.0002628 -0.0114723 0.9997372 0.0114723 0.9997372 0.0114723 0.0002628 -0.0114723
46134 0.0002478 -0.0109728 0.9997522 0.0109728 0.9997522 0.0109728 0.0002478 -0.0109728
48246 0.0002339 -0.0104950 0.9997661 0.0104950 0.9997661 0.0104950 0.0002339 -0.0104950
50455 0.0002209 -0.0100380 0.9997791 0.0100380 0.9997791 0.0100380 0.0002209 -0.0100380
52766 0.0002089 -0.0096008 0.9997911 0.0096008 0.9997911 0.0096008 0.0002089 -0.0096008
55182 0.0001977 -0.0091826 0.9998023 0.0091826 0.9998023 0.0091826 0.0001977 -0.0091826
57709 0.0001872 -0.0087826 0.9998128 0.0087826 0.9998128 0.0087826 0.0001872 -0.0087826
60352 0.0001775 -0.0083999 0.9998225 0.0083999 0.9998225 0.0083999 0.0001775 -0.0083999
63115 0.0001685 -0.0080339 0.9998315 0.0080339 0.9998315 0.0080339 0.0001685 -0.0080339
66005 0.0001600 -0.0076837 0.9998400 0.0076837 0.9998400 0.0076837 0.0001600 -0.0076837
69028 0.0001522 -0.0073487 0.9998478 0.0073487 0.9998478 0.0073487 0.0001522 -0.0073487
72189 0.0001449 -0.0070283 0.9998551 0.0070283 0.9998551 0.0070283 0.0001449 -0.0070283
75495 0.0001381 -0.0067217 0.9998619 0.0067217 0.9998619 0.0067217 0.0001381 -0.0067217
78952 0.0001318 -0.0064285 0.9998682 0.0064285 0.9998682 0.0064285 0.0001318 -0.0064285
82567 0.0001259 -0.0061479 0.9998741 0.0061479 0.9998741 0.0061479 0.0001259 -0.0061479
86348 0.0001205 -0.0058796 0.9998795 0.0058796 0.9998795 0.0058796 0.0001205 -0.0058796
90302 0.0001154 -0.0056228 0.9998846 0.0056228 0.9998846 0.0056228 0.0001154 -0.0056228
94437 0.0001107 -0.0053773 0.9998893 0.0053773 0.9998893 0.0053773 0.0001107 -0.0053773
98762 0.0001063 -0.0051423 0.9998937 0.0051423 0.9998937 0.0051423 0.0001063 -0.0051423
103284 0.0001023 -0.0049176 0.9998977 0.0049176 0.9998977 0.0049176 0.0001023 -0.0049176
108014 0.0000985 -0.0047026 0.9999015 0.0047026 0.9999015 0.0047026 0.0000985 -0.0047026
112960 0.0000951 -0.0044970 0.9999049 0.0044970 0.9999049 0.0044970 0.0000951 -0.0044970
118133 0.0000918 -0.0043003 0.9999082 0.0043003 0.9999082 0.0043003 0.0000918 -0.0043003
123542 0.0000888 -0.0041121 0.9999112 0.0041121 0.9999112 0.0041121 0.0000888 -0.0041121
129199 0.0000861 -0.0039321 0.9999139 0.0039321 0.9999139 0.0039321 0.0000861 -0.0039321
135116 0.0000835 -0.0037599 0.9999165 0.0037599 0.9999165 0.0037599 0.0000835 -0.0037599
141303 0.0000811 -0.0035952 0.9999189 0.0035952 0.9999189 0.0035952 0.0000811 -0.0035952
147774 0.0000789 -0.0034376 0.9999211 0.0034376 0.9999211 0.0034376 0.0000789 -0.0034376
154540 0.0000768 -0.0032869 0.9999232 0.0032869 0.9999232 0.0032869 0.0000768 -0.0032869
161617 0.0000749 -0.0031427 0.9999251 0.0031427 0.9999251 0.0031427 0.0000749 -0.0031427
169018 0.0000732 -0.0030048 0.9999268 0.0030048 0.9999268 0.0030048 0.0000732 -0.0030048
176758 0.0000715 -0.0028728 0.9999285 0.0028728 0.9999285 0.0028728 0.0000715 -0.0028728
184852 0.0000700 -0.0027466 0.9999300 0.0027466 0.9999300 0.0027466 0.0000700 -0.0027466
193316 0.0000685 -0.0026258 0.9999315 0.0026258 0.9999315 0.0026258 0.0000685 -0.0026258
202169 0.0000672 -0.0025103 0.9999328 0.0025103 0.9999328 0.0025103 0.0000672 -0.0025103
211427 0.0000660 -0.0023998 0.9999340 0.0023998 0.9999340 0.0023998 0.0000660 -0.0023998
221108 0.0000648 -0.0022940 0.9999352 0.0022940 0.9999352 0.0022940 0.0000648 -0.0022940
231233 0.0000637 -0.0021929 0.9999363 0.0021929 0.9999363 0.0021929 0.0000637 -0.0021929
241822 0.0000627 -0.0020961 0.9999373 0.0020961 0.9999373 0.0020961 0.0000627 -0.0020961
252896 0.0000617 -0.0020034 0.9999383 0.0020034 0.9999383 0.0020034 0.0000617 -0.0020034
264476 0.0000608 -0.0019148 0.9999392 0.0019148 0.9999392 0.0019148 0.0000608 -0.0019148
276587 0.0000600 -0.0018299 0.9999400 0.0018299 0.9999400 0.0018299 0.0000600 -0.0018299
289253 0.0000592 -0.0017487 0.9999408 0.0017487 0.9999408 0.0017487 0.0000592 -0.0017487
302498 0.0000584 -0.0016710 0.9999416 0.0016710 0.9999416 0.0016710 0.0000584 -0.0016710
316350 0.0000577 -0.0015966 0.9999423 0.0015966 0.9999423 0.0015966 0.0000577 -0.0015966
330837 0.0000570 -0.0015254 0.9999430 0.0015254 0.9999430 0.0015254 0.0000570 -0.0015254
345986 0.0000564 -0.0014572 0.9999436 0.0014572 0.9999436 0.0014572 0.0000564 -0.0014572
361830 0.0000558 -0.0013919 0.9999442 0.0013919 0.9999442 0.0013919 0.0000558 -0.0013919
378399 0.0000552 -0.0013293 0.9999448 0.0013293 0.9999448 0.0013293 0.0000552 -0.0013293
395726 0.0000547 -0.0012694 0.9999453 0.0012694 0.9999453 0.0012694 0.0000547 -0.0012694
413847 0.0000542 -0.0012121 0.9999458 0.0012121 0.9999458 0.0012121 0.0000542 -0.0012121
432798 0.0000537 -0.0011571 0.9999463 0.0011571 0.9999463 0.0011571 0.0000537 -0.0011571
452617 0.0000533 -0.0011044 0.9999467 0.0011044 0.9999467 0.0011044 0.0000533 -0.0011044
473344 0.0000529 -0.0010540 0.9999471 0.0010540 0.9999471 0.0010540 0.0000529 -0.0010540
495019 0.0000525 -0.0010056 0.9999475 0.0010056 0.9999475 0.0010056 0.0000525 -0.0010056
517687 0.0000521 -0.0009592 0.9999479 0.0009592 0.9999479 0.0009592 0.0000521 -0.0009592
541393 0.0000518 -0.0009147 0.9999482 0.0009147 0.9999482 0.0009147 0.0000518 -0.0009147
566185 0.0000515 -0.0008721 0.9999485 0.0008721 0.9999485 0.0008721 0.0000515 -0.0008721
592111 0.0000512 -0.0008311 0.9999488 0.0008311 0.9999488 0.0008311 0.0000512 -0.0008311
619225 0.0000509 -0.0007918 0.9999491 0.0007918 0.9999491 0.0007918 0.0000509 -0.0007918
647581 0.0000507 -0.0007541 0.9999493 0.0007541 0.9999493 0.0007541 0.0000507 -0.0007541
677235 0.0000505 -0.0007179 0.9999495 0.0007179 0.9999495 0.0007179 0.0000505 -0.0007179
708247 0.0000503 -0.0006831 0.9999497 0.0006831 0.9999497 0.0006831 0.0000503 -0.0006831
740679 0.0000502 -0.0006497 0.9999498 0.0006497 0.9999498 0.0006497 0.0000502 -0.0006497
774597 0.0000500 -0.0006176 0.9999500 0.0006176 0.9999500 0.0006176 0.0000500 -0.0006176
810067 0.0000499 -0.0005867 0.9999501 0.0005867 0.9999501 0.0005867 0.0000499 -0.0005867
847162 0.0000498 -0.0005569 0.9999502 0.0005569 0.9999502 0.0005569 0.0000498 -0.0005569
885955 0.0000498 -0.0005283 0.9999502 0.0005283 0.9999502 0.0005283 0.0000498 -0.0005283
926525 0.0000497 -0.0005007 0.9999503 0.0005007 0.9999503 0.0005007 0.0000497 -0.0005007
968953 0.0000497 -0.0004742 0.9999503 0.0004742 0.9999503 0.0004742 0.0000497 -0.0004742
1013323 0.0000497 -0.0004485 0.9999503 0.0004485 0.9999503 0.0004485 0.0000497 -0.0004485
1059725 0.0000497 -0.0004238 0.9999503 0.0004238 0.9999503 0.0004238 0.0000497 -0.0004238
1108252 0.0000498 -0.0003999 0.9999502 0.0003999 0.9999502 0.0003999 0.0000498 -0.0003999
1159002 0.0000499 -0.0003768 0.9999501 0.0003768 0.9999501 0.0003768 0.0000499 -0.0003768
1212075 0.0000500 -0.0003544 0.9999500 0.0003544 0.9999500 0.0003544 0.0000500 -0.0003544
1267578 0.0000501 -0.0003328 0.9999499 0.0003328 0.9999499 0.0003328 0.0000501 -0.0003328
1325623 0.0000503 -0.0003118 0.9999497 0.0003118 0.9999497 0.0003118 0.0000503 -0.0003118
1386327 0.0000505 -0.0002915 0.9999495 0.0002915 0.9999495 0.0002915 0.0000505 -0.0002915
1449809 0.0000507 -0.0002717 0.9999493 0.0002717 0.9999493 0.0002717 0.0000507 -0.0002717
1516199 0.0000510 -0.0002524 0.9999490 0.0002524 0.9999490 0.0002524 0.0000510 -0.0002524
1585629 0.0000513 -0.0002337 0.9999487 0.0002337 0.9999487 0.0002337 0.0000513 -0.0002337
1658239 0.0000516 -0.0002154 0.9999484 0.0002154 0.9999484 0.0002154 0.0000516 -0.0002154
1734173 0.0000520 -0.0001976 0.9999480 0.0001976 0.9999480 0.0001976 0.0000520 -0.0001976
1813585 0.0000525 -0.0001801 0.9999475 0.0001801 0.9999475 0.0001801 0.0000525 -0.0001801
1896632 0.0000530 -0.0001631 0.9999470 0.0001631 0.9999470 0.0001631 0.0000530 -0.0001631
1983483 0.0000535 -0.0001463 0.9999465 0.0001463 0.9999465 0.0001463 0.0000535 -0.0001463
2074311 0.0000541 -0.0001298 0.9999459 0.0001298 0.9999459 0.0001298 0.0000541 -0.0001298
