!Murata Part Number: GRM31BR72E153KW01
!These Parameters are Measured in Series Mode Connection
!Data Generated on Mar 30, 2021
!       o--ll--o
!Port1            Port2
!       o------o
!Operation Temp=25[degC], DC Bias Voltage=0[V]
!Freq. Start=100[kHz] Stop=6[GHz] 401[Steps]
# Hz S RI R 50
!Freq.(Hz) S11(Real) S11(Imag) S21(Real) S21(Imag) S12(Real) S12(Imag) S22(Real) S22(Imag)
100000 0.5486861 -0.4924014 0.4513139 0.4924014 0.4513139 0.4924014 0.5486861 -0.4924014
102789 0.5352646 -0.4935268 0.4647354 0.4935268 0.4647354 0.4935268 0.5352646 -0.4935268
105655 0.5217903 -0.4942915 0.4782097 0.4942915 0.4782097 0.4942915 0.5217903 -0.4942915
108602 0.5082830 -0.4946924 0.4917170 0.4946924 0.4917170 0.4946924 0.5082830 -0.4946924
111630 0.4947622 -0.4947280 0.5052378 0.4947280 0.5052378 0.4947280 0.4947622 -0.4947280
114743 0.4812481 -0.4943978 0.5187519 0.4943978 0.5187519 0.4943978 0.4812481 -0.4943978
117943 0.4677604 -0.4937027 0.5322396 0.4937027 0.5322396 0.4937027 0.4677604 -0.4937027
121232 0.4543190 -0.4926451 0.5456810 0.4926451 0.5456810 0.4926451 0.4543190 -0.4926451
124613 0.4409433 -0.4912287 0.5590567 0.4912287 0.5590567 0.4912287 0.4409433 -0.4912287
128088 0.4276525 -0.4894584 0.5723475 0.4894584 0.5723475 0.4894584 0.4276525 -0.4894584
131660 0.4144653 -0.4873405 0.5855347 0.4873405 0.5855347 0.4873405 0.4144653 -0.4873405
135332 0.4013998 -0.4848823 0.5986002 0.4848823 0.5986002 0.4848823 0.4013998 -0.4848823
139106 0.3884733 -0.4820925 0.6115267 0.4820925 0.6115267 0.4820925 0.3884733 -0.4820925
142985 0.3757027 -0.4789806 0.6242973 0.4789806 0.6242973 0.4789806 0.3757027 -0.4789806
146972 0.3631037 -0.4755574 0.6368963 0.4755574 0.6368963 0.4755574 0.3631037 -0.4755574
151071 0.3506911 -0.4718342 0.6493089 0.4718342 0.6493089 0.4718342 0.3506911 -0.4718342
155284 0.3384791 -0.4678235 0.6615209 0.4678235 0.6615209 0.4678235 0.3384791 -0.4678235
159614 0.3264803 -0.4635384 0.6735197 0.4635384 0.6735197 0.4635384 0.3264803 -0.4635384
164065 0.3147068 -0.4589925 0.6852932 0.4589925 0.6852932 0.4589925 0.3147068 -0.4589925
168641 0.3031692 -0.4542000 0.6968308 0.4542000 0.6968308 0.4542000 0.3031692 -0.4542000
173344 0.2918772 -0.4491755 0.7081228 0.4491755 0.7081228 0.4491755 0.2918772 -0.4491755
178178 0.2808393 -0.4439339 0.7191607 0.4439339 0.7191607 0.4439339 0.2808393 -0.4439339
183146 0.2700629 -0.4384905 0.7299371 0.4384905 0.7299371 0.4384905 0.2700629 -0.4384905
188254 0.2595542 -0.4328605 0.7404458 0.4328605 0.7404458 0.4328605 0.2595542 -0.4328605
193504 0.2493185 -0.4270593 0.7506815 0.4270593 0.7506815 0.4270593 0.2493185 -0.4270593
198900 0.2393599 -0.4211020 0.7606401 0.4211020 0.7606401 0.4211020 0.2393599 -0.4211020
204447 0.2296814 -0.4150039 0.7703186 0.4150039 0.7703186 0.4150039 0.2296814 -0.4150039
210148 0.2202853 -0.4087800 0.7797147 0.4087800 0.7797147 0.4087800 0.2202853 -0.4087800
216008 0.2111726 -0.4024448 0.7888274 0.4024448 0.7888274 0.4024448 0.2111726 -0.4024448
222032 0.2023437 -0.3960128 0.7976563 0.3960128 0.7976563 0.3960128 0.2023437 -0.3960128
228224 0.1937979 -0.3894978 0.8062021 0.3894978 0.8062021 0.3894978 0.1937979 -0.3894978
234589 0.1855339 -0.3829136 0.8144661 0.3829136 0.8144661 0.3829136 0.1855339 -0.3829136
241130 0.1775497 -0.3762731 0.8224503 0.3762731 0.8224503 0.3762731 0.1775497 -0.3762731
247855 0.1698423 -0.3695890 0.8301577 0.3695890 0.8301577 0.3695890 0.1698423 -0.3695890
254767 0.1624085 -0.3628731 0.8375915 0.3628731 0.8375915 0.3628731 0.1624085 -0.3628731
261871 0.1552444 -0.3561371 0.8447556 0.3561371 0.8447556 0.3561371 0.1552444 -0.3561371
269174 0.1483454 -0.3493919 0.8516546 0.3493919 0.8516546 0.3493919 0.1483454 -0.3493919
276681 0.1417067 -0.3426477 0.8582933 0.3426477 0.8582933 0.3426477 0.1417067 -0.3426477
284397 0.1353231 -0.3359143 0.8646769 0.3359143 0.8646769 0.3359143 0.1353231 -0.3359143
292328 0.1291888 -0.3292008 0.8708112 0.3292008 0.8708112 0.3292008 0.1291888 -0.3292008
300480 0.1232981 -0.3225159 0.8767019 0.3225159 0.8767019 0.3225159 0.1232981 -0.3225159
308859 0.1176448 -0.3158674 0.8823552 0.3158674 0.8823552 0.3158674 0.1176448 -0.3158674
317472 0.1122225 -0.3092628 0.8877775 0.3092628 0.8877775 0.3092628 0.1122225 -0.3092628
326326 0.1070249 -0.3027090 0.8929751 0.3027090 0.8929751 0.3027090 0.1070249 -0.3027090
335426 0.1020452 -0.2962121 0.8979548 0.2962121 0.8979548 0.2962121 0.1020452 -0.2962121
344780 0.0972768 -0.2897781 0.9027232 0.2897781 0.9027232 0.2897781 0.0972768 -0.2897781
354395 0.0927131 -0.2834121 0.9072869 0.2834121 0.9072869 0.2834121 0.0927131 -0.2834121
364278 0.0883473 -0.2771189 0.9116527 0.2771189 0.9116527 0.2771189 0.0883473 -0.2771189
374436 0.0841726 -0.2709027 0.9158274 0.2709027 0.9158274 0.2709027 0.0841726 -0.2709027
384878 0.0801824 -0.2647676 0.9198176 0.2647676 0.9198176 0.2647676 0.0801824 -0.2647676
395611 0.0763701 -0.2587167 0.9236299 0.2587167 0.9236299 0.2587167 0.0763701 -0.2587167
406644 0.0727292 -0.2527532 0.9272708 0.2527532 0.9272708 0.2527532 0.0727292 -0.2527532
417984 0.0692531 -0.2468797 0.9307469 0.2468797 0.9307469 0.2468797 0.0692531 -0.2468797
429640 0.0659357 -0.2410984 0.9340643 0.2410984 0.9340643 0.2410984 0.0659357 -0.2410984
441622 0.0627707 -0.2354112 0.9372293 0.2354112 0.9372293 0.2354112 0.0627707 -0.2354112
453937 0.0597520 -0.2298198 0.9402480 0.2298198 0.9402480 0.2298198 0.0597520 -0.2298198
466596 0.0568738 -0.2243254 0.9431262 0.2243254 0.9431262 0.2243254 0.0568738 -0.2243254
479608 0.0541302 -0.2189291 0.9458698 0.2189291 0.9458698 0.2189291 0.0541302 -0.2189291
492983 0.0515157 -0.2136316 0.9484843 0.2136316 0.9484843 0.2136316 0.0515157 -0.2136316
506731 0.0490249 -0.2084335 0.9509751 0.2084335 0.9509751 0.2084335 0.0490249 -0.2084335
520862 0.0466524 -0.2033351 0.9533476 0.2033351 0.9533476 0.2033351 0.0466524 -0.2033351
535387 0.0443931 -0.1983364 0.9556069 0.1983364 0.9556069 0.1983364 0.0443931 -0.1983364
550318 0.0422422 -0.1934375 0.9577578 0.1934375 0.9577578 0.1934375 0.0422422 -0.1934375
565664 0.0401948 -0.1886380 0.9598052 0.1886380 0.9598052 0.1886380 0.0401948 -0.1886380
581439 0.0382463 -0.1839376 0.9617537 0.1839376 0.9617537 0.1839376 0.0382463 -0.1839376
597654 0.0363924 -0.1793357 0.9636076 0.1793357 0.9636076 0.1793357 0.0363924 -0.1793357
614320 0.0346287 -0.1748317 0.9653713 0.1748317 0.9653713 0.1748317 0.0346287 -0.1748317
631452 0.0329511 -0.1704247 0.9670489 0.1704247 0.9670489 0.1704247 0.0329511 -0.1704247
649061 0.0313558 -0.1661139 0.9686442 0.1661139 0.9686442 0.1661139 0.0313558 -0.1661139
667162 0.0298388 -0.1618983 0.9701612 0.1618983 0.9701612 0.1618983 0.0298388 -0.1618983
685767 0.0283966 -0.1577768 0.9716034 0.1577768 0.9716034 0.1577768 0.0283966 -0.1577768
704891 0.0270257 -0.1537482 0.9729743 0.1537482 0.9729743 0.1537482 0.0270257 -0.1537482
724548 0.0257227 -0.1498115 0.9742773 0.1498115 0.9742773 0.1498115 0.0257227 -0.1498115
744754 0.0244845 -0.1459652 0.9755155 0.1459652 0.9755155 0.1459652 0.0244845 -0.1459652
765523 0.0233079 -0.1422082 0.9766921 0.1422082 0.9766921 0.1422082 0.0233079 -0.1422082
786871 0.0221900 -0.1385390 0.9778100 0.1385390 0.9778100 0.1385390 0.0221900 -0.1385390
808814 0.0211280 -0.1349563 0.9788720 0.1349563 0.9788720 0.1349563 0.0211280 -0.1349563
831370 0.0201192 -0.1314586 0.9798808 0.1314586 0.9798808 0.1314586 0.0201192 -0.1314586
854554 0.0191610 -0.1280445 0.9808390 0.1280445 0.9808390 0.1280445 0.0191610 -0.1280445
878385 0.0182510 -0.1247126 0.9817490 0.1247126 0.9817490 0.1247126 0.0182510 -0.1247126
902880 0.0173869 -0.1214613 0.9826131 0.1214613 0.9826131 0.1214613 0.0173869 -0.1214613
928059 0.0165663 -0.1182892 0.9834337 0.1182892 0.9834337 0.1182892 0.0165663 -0.1182892
953940 0.0157872 -0.1151947 0.9842128 0.1151947 0.9842128 0.1151947 0.0157872 -0.1151947
980542 0.0150475 -0.1121763 0.9849525 0.1121763 0.9849525 0.1121763 0.0150475 -0.1121763
1007887 0.0143453 -0.1092327 0.9856547 0.1092327 0.9856547 0.1092327 0.0143453 -0.1092327
1035994 0.0136786 -0.1063621 0.9863214 0.1063621 0.9863214 0.1063621 0.0136786 -0.1063621
1064885 0.0130458 -0.1035632 0.9869542 0.1035632 0.9869542 0.1035632 0.0130458 -0.1035632
1094581 0.0124451 -0.1008345 0.9875549 0.1008345 0.9875549 0.1008345 0.0124451 -0.1008345
1125106 0.0118749 -0.0981744 0.9881251 0.0981744 0.9881251 0.0981744 0.0118749 -0.0981744
1156481 0.0113336 -0.0955815 0.9886664 0.0955815 0.9886664 0.0955815 0.0113336 -0.0955815
1188732 0.0108199 -0.0930543 0.9891801 0.0930543 0.9891801 0.0930543 0.0108199 -0.0930543
1221882 0.0103323 -0.0905913 0.9896677 0.0905913 0.9896677 0.0905913 0.0103323 -0.0905913
1255957 0.0098695 -0.0881912 0.9901305 0.0881912 0.9901305 0.0881912 0.0098695 -0.0881912
1290982 0.0094303 -0.0858525 0.9905697 0.0858525 0.9905697 0.0858525 0.0094303 -0.0858525
1326984 0.0090133 -0.0835738 0.9909867 0.0835738 0.9909867 0.0835738 0.0090133 -0.0835738
1363989 0.0086175 -0.0813538 0.9913825 0.0813538 0.9913825 0.0813538 0.0086175 -0.0813538
1402027 0.0082418 -0.0791910 0.9917582 0.0791910 0.9917582 0.0791910 0.0082418 -0.0791910
1441125 0.0078852 -0.0770840 0.9921148 0.0770840 0.9921148 0.0770840 0.0078852 -0.0770840
1481314 0.0075467 -0.0750317 0.9924533 0.0750317 0.9924533 0.0750317 0.0075467 -0.0750317
1522623 0.0072252 -0.0730326 0.9927748 0.0730326 0.9927748 0.0730326 0.0072252 -0.0730326
1565085 0.0069201 -0.0710855 0.9930799 0.0710855 0.9930799 0.0710855 0.0069201 -0.0710855
1608730 0.0066303 -0.0691891 0.9933697 0.0691891 0.9933697 0.0691891 0.0066303 -0.0691891
1653593 0.0063551 -0.0673422 0.9936449 0.0673422 0.9936449 0.0673422 0.0063551 -0.0673422
1699707 0.0060938 -0.0655436 0.9939062 0.0655436 0.9939062 0.0655436 0.0060938 -0.0655436
1747106 0.0058455 -0.0637920 0.9941545 0.0637920 0.9941545 0.0637920 0.0058455 -0.0637920
1795828 0.0056097 -0.0620863 0.9943903 0.0620863 0.9943903 0.0620863 0.0056097 -0.0620863
1845908 0.0053857 -0.0604253 0.9946143 0.0604253 0.9946143 0.0604253 0.0053857 -0.0604253
1897385 0.0051729 -0.0588079 0.9948271 0.0588079 0.9948271 0.0588079 0.0051729 -0.0588079
1950297 0.0049706 -0.0572330 0.9950294 0.0572330 0.9950294 0.0572330 0.0049706 -0.0572330
2004685 0.0047784 -0.0556995 0.9952216 0.0556995 0.9952216 0.0556995 0.0047784 -0.0556995
2060590 0.0045956 -0.0542064 0.9954044 0.0542064 0.9954044 0.0542064 0.0045956 -0.0542064
2118054 0.0044219 -0.0527525 0.9955781 0.0527525 0.9955781 0.0527525 0.0044219 -0.0527525
2177120 0.0042567 -0.0513369 0.9957433 0.0513369 0.9957433 0.0513369 0.0042567 -0.0513369
2237833 0.0040996 -0.0499587 0.9959004 0.0499587 0.9959004 0.0499587 0.0040996 -0.0499587
2300240 0.0039502 -0.0486167 0.9960498 0.0486167 0.9960498 0.0486167 0.0039502 -0.0486167
2364387 0.0038080 -0.0473101 0.9961920 0.0473101 0.9961920 0.0473101 0.0038080 -0.0473101
2430322 0.0036727 -0.0460379 0.9963273 0.0460379 0.9963273 0.0460379 0.0036727 -0.0460379
2498097 0.0035440 -0.0447993 0.9964560 0.0447993 0.9964560 0.0447993 0.0035440 -0.0447993
2567761 0.0034215 -0.0435934 0.9965785 0.0435934 0.9965785 0.0435934 0.0034215 -0.0435934
2639368 0.0033049 -0.0424192 0.9966951 0.0424192 0.9966951 0.0424192 0.0033049 -0.0424192
2712972 0.0031938 -0.0412759 0.9968062 0.0412759 0.9968062 0.0412759 0.0031938 -0.0412759
2788629 0.0030881 -0.0401628 0.9969119 0.0401628 0.9969119 0.0401628 0.0030881 -0.0401628
2866396 0.0029874 -0.0390790 0.9970126 0.0390790 0.9970126 0.0390790 0.0029874 -0.0390790
2946331 0.0028914 -0.0380237 0.9971086 0.0380237 0.9971086 0.0380237 0.0028914 -0.0380237
3028495 0.0028001 -0.0369962 0.9971999 0.0369962 0.9971999 0.0369962 0.0028001 -0.0369962
3112951 0.0027130 -0.0359957 0.9972870 0.0359957 0.9972870 0.0359957 0.0027130 -0.0359957
3199762 0.0026301 -0.0350215 0.9973699 0.0350215 0.9973699 0.0350215 0.0026301 -0.0350215
3288994 0.0025510 -0.0340730 0.9974490 0.0340730 0.9974490 0.0340730 0.0025510 -0.0340730
3380714 0.0024757 -0.0331493 0.9975243 0.0331493 0.9975243 0.0331493 0.0024757 -0.0331493
3474992 0.0024039 -0.0322499 0.9975961 0.0322499 0.9975961 0.0322499 0.0024039 -0.0322499
3571899 0.0023354 -0.0313741 0.9976646 0.0313741 0.9976646 0.0313741 0.0023354 -0.0313741
3671508 0.0022702 -0.0305212 0.9977298 0.0305212 0.9977298 0.0305212 0.0022702 -0.0305212
3773896 0.0022079 -0.0296907 0.9977921 0.0296907 0.9977921 0.0296907 0.0022079 -0.0296907
3879139 0.0021486 -0.0288819 0.9978514 0.0288819 0.9978514 0.0288819 0.0021486 -0.0288819
3987316 0.0020921 -0.0280943 0.9979079 0.0280943 0.9979079 0.0280943 0.0020921 -0.0280943
4098510 0.0020382 -0.0273273 0.9979618 0.0273273 0.9979618 0.0273273 0.0020382 -0.0273273
4212806 0.0019868 -0.0265803 0.9980132 0.0265803 0.9980132 0.0265803 0.0019868 -0.0265803
4330288 0.0019378 -0.0258528 0.9980622 0.0258528 0.9980622 0.0258528 0.0019378 -0.0258528
4451047 0.0018910 -0.0251442 0.9981090 0.0251442 0.9981090 0.0251442 0.0018910 -0.0251442
4575173 0.0018464 -0.0244541 0.9981536 0.0244541 0.9981536 0.0244541 0.0018464 -0.0244541
4702761 0.0018039 -0.0237820 0.9981961 0.0237820 0.9981961 0.0237820 0.0018039 -0.0237820
4833907 0.0017634 -0.0231273 0.9982366 0.0231273 0.9982366 0.0231273 0.0017634 -0.0231273
4968711 0.0017248 -0.0224896 0.9982752 0.0224896 0.9982752 0.0224896 0.0017248 -0.0224896
5107273 0.0016879 -0.0218684 0.9983121 0.0218684 0.9983121 0.0218684 0.0016879 -0.0218684
5249700 0.0016528 -0.0212634 0.9983472 0.0212634 0.9983472 0.0212634 0.0016528 -0.0212634
5396098 0.0016193 -0.0206739 0.9983807 0.0206739 0.9983807 0.0206739 0.0016193 -0.0206739
5546579 0.0015873 -0.0200997 0.9984127 0.0200997 0.9984127 0.0200997 0.0015873 -0.0200997
5701257 0.0015568 -0.0195403 0.9984432 0.0195403 0.9984432 0.0195403 0.0015568 -0.0195403
5860248 0.0015277 -0.0189952 0.9984723 0.0189952 0.9984723 0.0189952 0.0015277 -0.0189952
6023672 0.0015000 -0.0184642 0.9985000 0.0184642 0.9985000 0.0184642 0.0015000 -0.0184642
6191655 0.0014736 -0.0179467 0.9985264 0.0179467 0.9985264 0.0179467 0.0014736 -0.0179467
6364321 0.0014483 -0.0174425 0.9985517 0.0174425 0.9985517 0.0174425 0.0014483 -0.0174425
6541803 0.0014243 -0.0169512 0.9985757 0.0169512 0.9985757 0.0169512 0.0014243 -0.0169512
6724235 0.0014013 -0.0164724 0.9985987 0.0164724 0.9985987 0.0164724 0.0014013 -0.0164724
6911753 0.0013794 -0.0160057 0.9986206 0.0160057 0.9986206 0.0160057 0.0013794 -0.0160057
7104501 0.0013585 -0.0155509 0.9986415 0.0155509 0.9986415 0.0155509 0.0013585 -0.0155509
7302625 0.0013386 -0.0151076 0.9986614 0.0151076 0.9986614 0.0151076 0.0013386 -0.0151076
7506273 0.0013196 -0.0146754 0.9986804 0.0146754 0.9986804 0.0146754 0.0013196 -0.0146754
7715601 0.0013014 -0.0142540 0.9986986 0.0142540 0.9986986 0.0142540 0.0013014 -0.0142540
7930766 0.0012841 -0.0138433 0.9987159 0.0138433 0.9987159 0.0138433 0.0012841 -0.0138433
8151931 0.0012676 -0.0134427 0.9987324 0.0134427 0.9987324 0.0134427 0.0012676 -0.0134427
8379264 0.0012518 -0.0130521 0.9987482 0.0130521 0.9987482 0.0130521 0.0012518 -0.0130521
8612937 0.0012367 -0.0126711 0.9987633 0.0126711 0.9987633 0.0126711 0.0012367 -0.0126711
8853126 0.0012223 -0.0122995 0.9987777 0.0122995 0.9987777 0.0122995 0.0012223 -0.0122995
9100013 0.0012086 -0.0119371 0.9987914 0.0119371 0.9987914 0.0119371 0.0012086 -0.0119371
9353785 0.0011955 -0.0115834 0.9988045 0.0115834 0.9988045 0.0115834 0.0011955 -0.0115834
9614634 0.0011830 -0.0112383 0.9988170 0.0112383 0.9988170 0.0112383 0.0011830 -0.0112383
9882758 0.0011710 -0.0109016 0.9988290 0.0109016 0.9988290 0.0109016 0.0011710 -0.0109016
10158358 0.0011596 -0.0105729 0.9988404 0.0105729 0.9988404 0.0105729 0.0011596 -0.0105729
10441645 0.0011487 -0.0102521 0.9988513 0.0102521 0.9988513 0.0102521 0.0011487 -0.0102521
10732831 0.0011383 -0.0099388 0.9988617 0.0099388 0.9988617 0.0099388 0.0011383 -0.0099388
11032137 0.0011283 -0.0096329 0.9988717 0.0096329 0.9988717 0.0096329 0.0011283 -0.0096329
11339791 0.0011188 -0.0093341 0.9988812 0.0093341 0.9988812 0.0093341 0.0011188 -0.0093341
11656024 0.0011098 -0.0090423 0.9988902 0.0090423 0.9988902 0.0090423 0.0011098 -0.0090423
11981075 0.0011011 -0.0087571 0.9988989 0.0087571 0.9988989 0.0087571 0.0011011 -0.0087571
12315192 0.0010928 -0.0084784 0.9989072 0.0084784 0.9989072 0.0084784 0.0010928 -0.0084784
12658625 0.0010850 -0.0082060 0.9989150 0.0082060 0.9989150 0.0082060 0.0010850 -0.0082060
13011637 0.0010774 -0.0079397 0.9989226 0.0079397 0.9989226 0.0079397 0.0010774 -0.0079397
13374492 0.0010703 -0.0076792 0.9989297 0.0076792 0.9989297 0.0076792 0.0010703 -0.0076792
13747467 0.0010634 -0.0074244 0.9989366 0.0074244 0.9989366 0.0074244 0.0010634 -0.0074244
14130843 0.0010569 -0.0071752 0.9989431 0.0071752 0.9989431 0.0071752 0.0010569 -0.0071752
14524910 0.0010507 -0.0069312 0.9989493 0.0069312 0.9989493 0.0069312 0.0010507 -0.0069312
14929966 0.0010448 -0.0066924 0.9989552 0.0066924 0.9989552 0.0066924 0.0010448 -0.0066924
15346318 0.0010392 -0.0064585 0.9989608 0.0064585 0.9989608 0.0064585 0.0010392 -0.0064585
15774281 0.0010338 -0.0062294 0.9989662 0.0062294 0.9989662 0.0062294 0.0010338 -0.0062294
16214179 0.0010288 -0.0060049 0.9989712 0.0060049 0.9989712 0.0060049 0.0010288 -0.0060049
16666344 0.0010239 -0.0057849 0.9989761 0.0057849 0.9989761 0.0057849 0.0010239 -0.0057849
17131118 0.0010194 -0.0055691 0.9989806 0.0055691 0.9989806 0.0055691 0.0010194 -0.0055691
17608854 0.0010151 -0.0053575 0.9989849 0.0053575 0.9989849 0.0053575 0.0010151 -0.0053575
18099912 0.0010110 -0.0051499 0.9989890 0.0051499 0.9989890 0.0051499 0.0010110 -0.0051499
18604665 0.0010071 -0.0049460 0.9989929 0.0049460 0.9989929 0.0049460 0.0010071 -0.0049460
19123493 0.0010035 -0.0047458 0.9989965 0.0047458 0.9989965 0.0047458 0.0010035 -0.0047458
19656790 0.0010001 -0.0045492 0.9989999 0.0045492 0.9989999 0.0045492 0.0010001 -0.0045492
20204959 0.0009969 -0.0043559 0.9990031 0.0043559 0.9990031 0.0043559 0.0009969 -0.0043559
20768415 0.0009939 -0.0041658 0.9990061 0.0041658 0.9990061 0.0041658 0.0009939 -0.0041658
21347584 0.0009911 -0.0039789 0.9990089 0.0039789 0.9990089 0.0039789 0.0009911 -0.0039789
21942904 0.0009885 -0.0037948 0.9990115 0.0037948 0.9990115 0.0037948 0.0009885 -0.0037948
22554827 0.0009861 -0.0036136 0.9990139 0.0036136 0.9990139 0.0036136 0.0009861 -0.0036136
23183813 0.0009839 -0.0034351 0.9990161 0.0034351 0.9990161 0.0034351 0.0009839 -0.0034351
23830340 0.0009819 -0.0032591 0.9990181 0.0032591 0.9990181 0.0032591 0.0009819 -0.0032591
24494897 0.0009800 -0.0030856 0.9990200 0.0030856 0.9990200 0.0030856 0.0009800 -0.0030856
25177987 0.0009783 -0.0029143 0.9990217 0.0029143 0.9990217 0.0029143 0.0009783 -0.0029143
25880126 0.0009769 -0.0027452 0.9990231 0.0027452 0.9990231 0.0027452 0.0009769 -0.0027452
26601845 0.0009755 -0.0025782 0.9990245 0.0025782 0.9990245 0.0025782 0.0009755 -0.0025782
27343691 0.0009744 -0.0024130 0.9990256 0.0024130 0.9990256 0.0024130 0.0009744 -0.0024130
28106225 0.0009734 -0.0022497 0.9990266 0.0022497 0.9990266 0.0022497 0.0009734 -0.0022497
28890023 0.0009726 -0.0020880 0.9990274 0.0020880 0.9990274 0.0020880 0.0009726 -0.0020880
29695680 0.0009720 -0.0019279 0.9990280 0.0019279 0.9990280 0.0019279 0.0009720 -0.0019279
30523804 0.0009716 -0.0017692 0.9990284 0.0017692 0.9990284 0.0017692 0.0009716 -0.0017692
31375021 0.0009713 -0.0016119 0.9990287 0.0016119 0.9990287 0.0016119 0.0009713 -0.0016119
32249977 0.0009712 -0.0014557 0.9990288 0.0014557 0.9990288 0.0014557 0.0009712 -0.0014557
33149332 0.0009712 -0.0013007 0.9990288 0.0013007 0.9990288 0.0013007 0.0009712 -0.0013007
34073768 0.0009714 -0.0011466 0.9990286 0.0011466 0.9990286 0.0011466 0.0009714 -0.0011466
35023984 0.0009718 -0.0009934 0.9990282 0.0009934 0.9990282 0.0009934 0.0009718 -0.0009934
36000698 0.0009724 -0.0008409 0.9990276 0.0008409 0.9990276 0.0008409 0.0009724 -0.0008409
37004650 0.0009732 -0.0006891 0.9990268 0.0006891 0.9990268 0.0006891 0.0009732 -0.0006891
38036599 0.0009741 -0.0005378 0.9990259 0.0005378 0.9990259 0.0005378 0.0009741 -0.0005378
39097326 0.0009752 -0.0003869 0.9990248 0.0003869 0.9990248 0.0003869 0.0009752 -0.0003869
