!Murata Part Number: GRM31CR72J153KW03
!These Parameters are Measured in Series Mode Connection
!Data Generated on Mar 30, 2021
!       o--ll--o
!Port1            Port2
!       o------o
!Operation Temp=25[degC], DC Bias Voltage=0[V]
!Freq. Start=100[kHz] Stop=6[GHz] 401[Steps]
# Hz S RI R 50
!Freq.(Hz) S11(Real) S11(Imag) S21(Real) S21(Imag) S12(Real) S12(Imag) S22(Real) S22(Imag)
100000 0.5714440 -0.4899197 0.4285560 0.4899197 0.4285560 0.4899197 0.5714440 -0.4899197
102789 0.5581468 -0.4916559 0.4418532 0.4916559 0.4418532 0.4916559 0.5581468 -0.4916559
105655 0.5447641 -0.4930391 0.4552359 0.4930391 0.4552359 0.4930391 0.5447641 -0.4930391
108602 0.5313148 -0.4940639 0.4686852 0.4940639 0.4686852 0.4940639 0.5313148 -0.4940639
111630 0.5178185 -0.4947265 0.4821815 0.4947265 0.4821815 0.4947265 0.5178185 -0.4947265
114743 0.5042947 -0.4950241 0.4957053 0.4950241 0.4957053 0.4950241 0.5042947 -0.4950241
117943 0.4907634 -0.4949554 0.5092366 0.4949554 0.5092366 0.4949554 0.4907634 -0.4949554
121232 0.4772446 -0.4945205 0.5227554 0.4945205 0.5227554 0.4945205 0.4772446 -0.4945205
124613 0.4637582 -0.4937208 0.5362418 0.4937208 0.5362418 0.4937208 0.4637582 -0.4937208
128088 0.4503239 -0.4925591 0.5496761 0.4925591 0.5496761 0.4925591 0.4503239 -0.4925591
131660 0.4369612 -0.4910394 0.5630388 0.4910394 0.5630388 0.4910394 0.4369612 -0.4910394
135332 0.4236892 -0.4891671 0.5763108 0.4891671 0.5763108 0.4891671 0.4236892 -0.4891671
139106 0.4105265 -0.4869488 0.5894735 0.4869488 0.5894735 0.4869488 0.4105265 -0.4869488
142985 0.3974908 -0.4843924 0.6025092 0.4843924 0.6025092 0.4843924 0.3974908 -0.4843924
146972 0.3845996 -0.4815067 0.6154004 0.4815067 0.6154004 0.4815067 0.3845996 -0.4815067
151071 0.3718692 -0.4783018 0.6281308 0.4783018 0.6281308 0.4783018 0.3718692 -0.4783018
155284 0.3593151 -0.4747886 0.6406849 0.4747886 0.6406849 0.4747886 0.3593151 -0.4747886
159614 0.3469521 -0.4709789 0.6530479 0.4709789 0.6530479 0.4709789 0.3469521 -0.4709789
164065 0.3347937 -0.4668853 0.6652063 0.4668853 0.6652063 0.4668853 0.3347937 -0.4668853
168641 0.3228525 -0.4625212 0.6771475 0.4625212 0.6771475 0.4625212 0.3228525 -0.4625212
173344 0.3111400 -0.4579004 0.6888600 0.4579004 0.6888600 0.4579004 0.3111400 -0.4579004
178178 0.2996667 -0.4530373 0.7003333 0.4530373 0.7003333 0.4530373 0.2996667 -0.4530373
183146 0.2884418 -0.4479466 0.7115582 0.4479466 0.7115582 0.4479466 0.2884418 -0.4479466
188254 0.2774734 -0.4426433 0.7225266 0.4426433 0.7225266 0.4426433 0.2774734 -0.4426433
193504 0.2667686 -0.4371428 0.7332314 0.4371428 0.7332314 0.4371428 0.2667686 -0.4371428
198900 0.2563333 -0.4314602 0.7436667 0.4314602 0.7436667 0.4314602 0.2563333 -0.4314602
204447 0.2461724 -0.4256110 0.7538276 0.4256110 0.7538276 0.4256110 0.2461724 -0.4256110
210148 0.2362896 -0.4196103 0.7637104 0.4196103 0.7637104 0.4196103 0.2362896 -0.4196103
216008 0.2266878 -0.4134733 0.7733122 0.4134733 0.7733122 0.4134733 0.2266878 -0.4134733
222032 0.2173687 -0.4072148 0.7826313 0.4072148 0.7826313 0.4072148 0.2173687 -0.4072148
228224 0.2083332 -0.4008495 0.7916668 0.4008495 0.7916668 0.4008495 0.2083332 -0.4008495
234589 0.1995812 -0.3943916 0.8004188 0.3943916 0.8004188 0.3943916 0.1995812 -0.3943916
241130 0.1911121 -0.3878548 0.8088879 0.3878548 0.8088879 0.3878548 0.1911121 -0.3878548
247855 0.1829240 -0.3812527 0.8170760 0.3812527 0.8170760 0.3812527 0.1829240 -0.3812527
254767 0.1750148 -0.3745980 0.8249852 0.3745980 0.8249852 0.3745980 0.1750148 -0.3745980
261871 0.1673815 -0.3679032 0.8326185 0.3679032 0.8326185 0.3679032 0.1673815 -0.3679032
269174 0.1600204 -0.3611802 0.8399796 0.3611802 0.8399796 0.3611802 0.1600204 -0.3611802
276681 0.1529276 -0.3544401 0.8470724 0.3544401 0.8470724 0.3544401 0.1529276 -0.3544401
284397 0.1460984 -0.3476938 0.8539016 0.3476938 0.8539016 0.3476938 0.1460984 -0.3476938
292328 0.1395278 -0.3409513 0.8604722 0.3409513 0.8604722 0.3409513 0.1395278 -0.3409513
300480 0.1332105 -0.3342223 0.8667895 0.3342223 0.8667895 0.3342223 0.1332105 -0.3342223
308859 0.1271408 -0.3275155 0.8728592 0.3275155 0.8728592 0.3275155 0.1271408 -0.3275155
317472 0.1213127 -0.3208395 0.8786873 0.3208395 0.8786873 0.3208395 0.1213127 -0.3208395
326326 0.1157201 -0.3142019 0.8842799 0.3142019 0.8842799 0.3142019 0.1157201 -0.3142019
335426 0.1103565 -0.3076100 0.8896435 0.3076100 0.8896435 0.3076100 0.1103565 -0.3076100
344780 0.1052155 -0.3010705 0.8947845 0.3010705 0.8947845 0.3010705 0.1052155 -0.3010705
354395 0.1002906 -0.2945894 0.8997094 0.2945894 0.8997094 0.2945894 0.1002906 -0.2945894
364278 0.0955749 -0.2881724 0.9044251 0.2881724 0.9044251 0.2881724 0.0955749 -0.2881724
374436 0.0910620 -0.2818246 0.9089380 0.2818246 0.9089380 0.2818246 0.0910620 -0.2818246
384878 0.0867450 -0.2755506 0.9132550 0.2755506 0.9132550 0.2755506 0.0867450 -0.2755506
395611 0.0826172 -0.2693545 0.9173828 0.2693545 0.9173828 0.2693545 0.0826172 -0.2693545
406644 0.0786721 -0.2632401 0.9213279 0.2632401 0.9213279 0.2632401 0.0786721 -0.2632401
417984 0.0749032 -0.2572106 0.9250968 0.2572106 0.9250968 0.2572106 0.0749032 -0.2572106
429640 0.0713038 -0.2512689 0.9286962 0.2512689 0.9286962 0.2512689 0.0713038 -0.2512689
441622 0.0678677 -0.2454176 0.9321323 0.2454176 0.9321323 0.2454176 0.0678677 -0.2454176
453937 0.0645886 -0.2396589 0.9354114 0.2396589 0.9354114 0.2396589 0.0645886 -0.2396589
466596 0.0614603 -0.2339945 0.9385397 0.2339945 0.9385397 0.2339945 0.0614603 -0.2339945
479608 0.0584769 -0.2284260 0.9415231 0.2284260 0.9415231 0.2284260 0.0584769 -0.2284260
492983 0.0556325 -0.2229547 0.9443675 0.2229547 0.9443675 0.2229547 0.0556325 -0.2229547
506731 0.0529214 -0.2175815 0.9470786 0.2175815 0.9470786 0.2175815 0.0529214 -0.2175815
520862 0.0503381 -0.2123071 0.9496619 0.2123071 0.9496619 0.2123071 0.0503381 -0.2123071
535387 0.0478772 -0.2071320 0.9521228 0.2071320 0.9521228 0.2071320 0.0478772 -0.2071320
550318 0.0455335 -0.2020565 0.9544665 0.2020565 0.9544665 0.2020565 0.0455335 -0.2020565
565664 0.0433019 -0.1970808 0.9566981 0.1970808 0.9566981 0.1970808 0.0433019 -0.1970808
581439 0.0411776 -0.1922046 0.9588224 0.1922046 0.9588224 0.1922046 0.0411776 -0.1922046
597654 0.0391558 -0.1874277 0.9608442 0.1874277 0.9608442 0.1874277 0.0391558 -0.1874277
614320 0.0372320 -0.1827497 0.9627680 0.1827497 0.9627680 0.1827497 0.0372320 -0.1827497
631452 0.0354019 -0.1781700 0.9645981 0.1781700 0.9645981 0.1781700 0.0354019 -0.1781700
649061 0.0336610 -0.1736880 0.9663390 0.1736880 0.9663390 0.1736880 0.0336610 -0.1736880
667162 0.0320055 -0.1693029 0.9679945 0.1693029 0.9679945 0.1693029 0.0320055 -0.1693029
685767 0.0304314 -0.1650137 0.9695686 0.1650137 0.9695686 0.1650137 0.0304314 -0.1650137
704891 0.0289349 -0.1608196 0.9710651 0.1608196 0.9710651 0.1608196 0.0289349 -0.1608196
724548 0.0275124 -0.1567193 0.9724876 0.1567193 0.9724876 0.1567193 0.0275124 -0.1567193
744754 0.0261605 -0.1527118 0.9738395 0.1527118 0.9738395 0.1527118 0.0261605 -0.1527118
765523 0.0248759 -0.1487959 0.9751241 0.1487959 0.9751241 0.1487959 0.0248759 -0.1487959
786871 0.0236552 -0.1449703 0.9763448 0.1449703 0.9763448 0.1449703 0.0236552 -0.1449703
808814 0.0224956 -0.1412336 0.9775044 0.1412336 0.9775044 0.1412336 0.0224956 -0.1412336
831370 0.0213941 -0.1375846 0.9786059 0.1375846 0.9786059 0.1375846 0.0213941 -0.1375846
854554 0.0203479 -0.1340219 0.9796521 0.1340219 0.9796521 0.1340219 0.0203479 -0.1340219
878385 0.0193542 -0.1305439 0.9806458 0.1305439 0.9806458 0.1305439 0.0193542 -0.1305439
902880 0.0184107 -0.1271493 0.9815893 0.1271493 0.9815893 0.1271493 0.0184107 -0.1271493
928059 0.0175147 -0.1238367 0.9824853 0.1238367 0.9824853 0.1238367 0.0175147 -0.1238367
953940 0.0166640 -0.1206044 0.9833360 0.1206044 0.9833360 0.1206044 0.0166640 -0.1206044
980542 0.0158564 -0.1174511 0.9841436 0.1174511 0.9841436 0.1174511 0.0158564 -0.1174511
1007887 0.0150897 -0.1143751 0.9849103 0.1143751 0.9849103 0.1143751 0.0150897 -0.1143751
1035994 0.0143618 -0.1113751 0.9856382 0.1113751 0.9856382 0.1113751 0.0143618 -0.1113751
1064885 0.0136710 -0.1084495 0.9863290 0.1084495 0.9863290 0.1084495 0.0136710 -0.1084495
1094581 0.0130152 -0.1055967 0.9869848 0.1055967 0.9869848 0.1055967 0.0130152 -0.1055967
1125106 0.0123927 -0.1028154 0.9876073 0.1028154 0.9876073 0.1028154 0.0123927 -0.1028154
1156481 0.0118019 -0.1001039 0.9881981 0.1001039 0.9881981 0.1001039 0.0118019 -0.1001039
1188732 0.0112412 -0.0974607 0.9887588 0.0974607 0.9887588 0.0974607 0.0112412 -0.0974607
1221882 0.0107090 -0.0948845 0.9892910 0.0948845 0.9892910 0.0948845 0.0107090 -0.0948845
1255957 0.0102039 -0.0923737 0.9897961 0.0923737 0.9897961 0.0923737 0.0102039 -0.0923737
1290982 0.0097245 -0.0899268 0.9902755 0.0899268 0.9902755 0.0899268 0.0097245 -0.0899268
1326984 0.0092695 -0.0875425 0.9907305 0.0875425 0.9907305 0.0875425 0.0092695 -0.0875425
1363989 0.0088376 -0.0852193 0.9911624 0.0852193 0.9911624 0.0852193 0.0088376 -0.0852193
1402027 0.0084277 -0.0829557 0.9915723 0.0829557 0.9915723 0.0829557 0.0084277 -0.0829557
1441125 0.0080386 -0.0807505 0.9919614 0.0807505 0.9919614 0.0807505 0.0080386 -0.0807505
1481314 0.0076693 -0.0786022 0.9923307 0.0786022 0.9923307 0.0786022 0.0076693 -0.0786022
1522623 0.0073186 -0.0765094 0.9926814 0.0765094 0.9926814 0.0765094 0.0073186 -0.0765094
1565085 0.0069858 -0.0744709 0.9930142 0.0744709 0.9930142 0.0744709 0.0069858 -0.0744709
1608730 0.0066698 -0.0724853 0.9933302 0.0724853 0.9933302 0.0724853 0.0066698 -0.0724853
1653593 0.0063698 -0.0705514 0.9936302 0.0705514 0.9936302 0.0705514 0.0063698 -0.0705514
1699707 0.0060849 -0.0686678 0.9939151 0.0686678 0.9939151 0.0686678 0.0060849 -0.0686678
1747106 0.0058144 -0.0668334 0.9941856 0.0668334 0.9941856 0.0668334 0.0058144 -0.0668334
1795828 0.0055574 -0.0650469 0.9944426 0.0650469 0.9944426 0.0650469 0.0055574 -0.0650469
1845908 0.0053135 -0.0633071 0.9946865 0.0633071 0.9946865 0.0633071 0.0053135 -0.0633071
1897385 0.0050817 -0.0616129 0.9949183 0.0616129 0.9949183 0.0616129 0.0050817 -0.0616129
1950297 0.0048615 -0.0599631 0.9951385 0.0599631 0.9951385 0.0599631 0.0048615 -0.0599631
2004685 0.0046524 -0.0583565 0.9953476 0.0583565 0.9953476 0.0583565 0.0046524 -0.0583565
2060590 0.0044537 -0.0567922 0.9955463 0.0567922 0.9955463 0.0567922 0.0044537 -0.0567922
2118054 0.0042649 -0.0552689 0.9957351 0.0552689 0.9957351 0.0552689 0.0042649 -0.0552689
2177120 0.0040855 -0.0537857 0.9959145 0.0537857 0.9959145 0.0537857 0.0040855 -0.0537857
2237833 0.0039150 -0.0523414 0.9960850 0.0523414 0.9960850 0.0523414 0.0039150 -0.0523414
2300240 0.0037529 -0.0509352 0.9962471 0.0509352 0.9962471 0.0509352 0.0037529 -0.0509352
2364387 0.0035989 -0.0495660 0.9964011 0.0495660 0.9964011 0.0495660 0.0035989 -0.0495660
2430322 0.0034524 -0.0482329 0.9965476 0.0482329 0.9965476 0.0482329 0.0034524 -0.0482329
2498097 0.0033132 -0.0469348 0.9966868 0.0469348 0.9966868 0.0469348 0.0033132 -0.0469348
2567761 0.0031809 -0.0456710 0.9968191 0.0456710 0.9968191 0.0456710 0.0031809 -0.0456710
2639368 0.0030550 -0.0444405 0.9969450 0.0444405 0.9969450 0.0444405 0.0030550 -0.0444405
2712972 0.0029353 -0.0432424 0.9970647 0.0432424 0.9970647 0.0432424 0.0029353 -0.0432424
2788629 0.0028215 -0.0420759 0.9971785 0.0420759 0.9971785 0.0420759 0.0028215 -0.0420759
2866396 0.0027133 -0.0409401 0.9972867 0.0409401 0.9972867 0.0409401 0.0027133 -0.0409401
2946331 0.0026103 -0.0398343 0.9973897 0.0398343 0.9973897 0.0398343 0.0026103 -0.0398343
3028495 0.0025124 -0.0387576 0.9974876 0.0387576 0.9974876 0.0387576 0.0025124 -0.0387576
3112951 0.0024193 -0.0377093 0.9975807 0.0377093 0.9975807 0.0377093 0.0024193 -0.0377093
3199762 0.0023307 -0.0366886 0.9976693 0.0366886 0.9976693 0.0366886 0.0023307 -0.0366886
3288994 0.0022464 -0.0356949 0.9977536 0.0356949 0.9977536 0.0356949 0.0022464 -0.0356949
3380714 0.0021662 -0.0347273 0.9978338 0.0347273 0.9978338 0.0347273 0.0021662 -0.0347273
3474992 0.0020899 -0.0337852 0.9979101 0.0337852 0.9979101 0.0337852 0.0020899 -0.0337852
3571899 0.0020173 -0.0328679 0.9979827 0.0328679 0.9979827 0.0328679 0.0020173 -0.0328679
3671508 0.0019483 -0.0319748 0.9980517 0.0319748 0.9980517 0.0319748 0.0019483 -0.0319748
3773896 0.0018825 -0.0311052 0.9981175 0.0311052 0.9981175 0.0311052 0.0018825 -0.0311052
3879139 0.0018200 -0.0302584 0.9981800 0.0302584 0.9981800 0.0302584 0.0018200 -0.0302584
3987316 0.0017605 -0.0294340 0.9982395 0.0294340 0.9982395 0.0294340 0.0017605 -0.0294340
4098510 0.0017038 -0.0286312 0.9982962 0.0286312 0.9982962 0.0286312 0.0017038 -0.0286312
4212806 0.0016499 -0.0278495 0.9983501 0.0278495 0.9983501 0.0278495 0.0016499 -0.0278495
4330288 0.0015986 -0.0270884 0.9984014 0.0270884 0.9984014 0.0270884 0.0015986 -0.0270884
4451047 0.0015498 -0.0263472 0.9984502 0.0263472 0.9984502 0.0263472 0.0015498 -0.0263472
4575173 0.0015033 -0.0256255 0.9984967 0.0256255 0.9984967 0.0256255 0.0015033 -0.0256255
4702761 0.0014590 -0.0249227 0.9985410 0.0249227 0.9985410 0.0249227 0.0014590 -0.0249227
4833907 0.0014168 -0.0242384 0.9985832 0.0242384 0.9985832 0.0242384 0.0014168 -0.0242384
4968711 0.0013767 -0.0235719 0.9986233 0.0235719 0.9986233 0.0235719 0.0013767 -0.0235719
5107273 0.0013384 -0.0229229 0.9986616 0.0229229 0.9986616 0.0229229 0.0013384 -0.0229229
5249700 0.0013020 -0.0222908 0.9986980 0.0222908 0.9986980 0.0222908 0.0013020 -0.0222908
5396098 0.0012673 -0.0216752 0.9987327 0.0216752 0.9987327 0.0216752 0.0012673 -0.0216752
5546579 0.0012342 -0.0210757 0.9987658 0.0210757 0.9987658 0.0210757 0.0012342 -0.0210757
5701257 0.0012027 -0.0204918 0.9987973 0.0204918 0.9987973 0.0204918 0.0012027 -0.0204918
5860248 0.0011726 -0.0199231 0.9988274 0.0199231 0.9988274 0.0199231 0.0011726 -0.0199231
6023672 0.0011440 -0.0193691 0.9988560 0.0193691 0.9988560 0.0193691 0.0011440 -0.0193691
6191655 0.0011166 -0.0188295 0.9988834 0.0188295 0.9988834 0.0188295 0.0011166 -0.0188295
6364321 0.0010906 -0.0183038 0.9989094 0.0183038 0.9989094 0.0183038 0.0010906 -0.0183038
6541803 0.0010657 -0.0177917 0.9989343 0.0177917 0.9989343 0.0177917 0.0010657 -0.0177917
6724235 0.0010419 -0.0172928 0.9989581 0.0172928 0.9989581 0.0172928 0.0010419 -0.0172928
6911753 0.0010192 -0.0168067 0.9989808 0.0168067 0.9989808 0.0168067 0.0010192 -0.0168067
7104501 0.0009975 -0.0163331 0.9990025 0.0163331 0.9990025 0.0163331 0.0009975 -0.0163331
7302625 0.0009767 -0.0158716 0.9990233 0.0158716 0.9990233 0.0158716 0.0009767 -0.0158716
7506273 0.0009569 -0.0154218 0.9990431 0.0154218 0.9990431 0.0154218 0.0009569 -0.0154218
7715601 0.0009379 -0.0149835 0.9990621 0.0149835 0.9990621 0.0149835 0.0009379 -0.0149835
7930766 0.0009198 -0.0145563 0.9990802 0.0145563 0.9990802 0.0145563 0.0009198 -0.0145563
8151931 0.0009024 -0.0141399 0.9990976 0.0141399 0.9990976 0.0141399 0.0009024 -0.0141399
8379264 0.0008857 -0.0137339 0.9991143 0.0137339 0.9991143 0.0137339 0.0008857 -0.0137339
8612937 0.0008698 -0.0133381 0.9991302 0.0133381 0.9991302 0.0133381 0.0008698 -0.0133381
8853126 0.0008545 -0.0129522 0.9991455 0.0129522 0.9991455 0.0129522 0.0008545 -0.0129522
9100013 0.0008398 -0.0125758 0.9991602 0.0125758 0.9991602 0.0125758 0.0008398 -0.0125758
9353785 0.0008257 -0.0122088 0.9991743 0.0122088 0.9991743 0.0122088 0.0008257 -0.0122088
9614634 0.0008122 -0.0118508 0.9991878 0.0118508 0.9991878 0.0118508 0.0008122 -0.0118508
9882758 0.0007992 -0.0115015 0.9992008 0.0115015 0.9992008 0.0115015 0.0007992 -0.0115015
10158358 0.0007867 -0.0111607 0.9992133 0.0111607 0.9992133 0.0111607 0.0007867 -0.0111607
10441645 0.0007747 -0.0108281 0.9992253 0.0108281 0.9992253 0.0108281 0.0007747 -0.0108281
10732831 0.0007631 -0.0105036 0.9992369 0.0105036 0.9992369 0.0105036 0.0007631 -0.0105036
11032137 0.0007521 -0.0101867 0.9992479 0.0101867 0.9992479 0.0101867 0.0007521 -0.0101867
11339791 0.0007414 -0.0098774 0.9992586 0.0098774 0.9992586 0.0098774 0.0007414 -0.0098774
11656024 0.0007311 -0.0095753 0.9992689 0.0095753 0.9992689 0.0095753 0.0007311 -0.0095753
11981075 0.0007212 -0.0092802 0.9992788 0.0092802 0.9992788 0.0092802 0.0007212 -0.0092802
12315192 0.0007117 -0.0089920 0.9992883 0.0089920 0.9992883 0.0089920 0.0007117 -0.0089920
12658625 0.0007026 -0.0087103 0.9992974 0.0087103 0.9992974 0.0087103 0.0007026 -0.0087103
13011637 0.0006938 -0.0084350 0.9993062 0.0084350 0.9993062 0.0084350 0.0006938 -0.0084350
13374492 0.0006853 -0.0081659 0.9993147 0.0081659 0.9993147 0.0081659 0.0006853 -0.0081659
13747467 0.0006772 -0.0079028 0.9993228 0.0079028 0.9993228 0.0079028 0.0006772 -0.0079028
14130843 0.0006694 -0.0076455 0.9993306 0.0076455 0.9993306 0.0076455 0.0006694 -0.0076455
14524910 0.0006619 -0.0073937 0.9993381 0.0073937 0.9993381 0.0073937 0.0006619 -0.0073937
14929966 0.0006547 -0.0071473 0.9993453 0.0071473 0.9993453 0.0071473 0.0006547 -0.0071473
15346318 0.0006477 -0.0069061 0.9993523 0.0069061 0.9993523 0.0069061 0.0006477 -0.0069061
15774281 0.0006411 -0.0066700 0.9993589 0.0066700 0.9993589 0.0066700 0.0006411 -0.0066700
16214179 0.0006348 -0.0064387 0.9993652 0.0064387 0.9993652 0.0064387 0.0006348 -0.0064387
16666344 0.0006287 -0.0062120 0.9993713 0.0062120 0.9993713 0.0062120 0.0006287 -0.0062120
17131118 0.0006229 -0.0059899 0.9993771 0.0059899 0.9993771 0.0059899 0.0006229 -0.0059899
17608854 0.0006174 -0.0057722 0.9993826 0.0057722 0.9993826 0.0057722 0.0006174 -0.0057722
18099912 0.0006121 -0.0055586 0.9993879 0.0055586 0.9993879 0.0055586 0.0006121 -0.0055586
18604665 0.0006072 -0.0053490 0.9993928 0.0053490 0.9993928 0.0053490 0.0006072 -0.0053490
19123493 0.0006024 -0.0051434 0.9993976 0.0051434 0.9993976 0.0051434 0.0006024 -0.0051434
19656790 0.0005980 -0.0049414 0.9994020 0.0049414 0.9994020 0.0049414 0.0005980 -0.0049414
20204959 0.0005938 -0.0047430 0.9994062 0.0047430 0.9994062 0.0047430 0.0005938 -0.0047430
20768415 0.0005898 -0.0045480 0.9994102 0.0045480 0.9994102 0.0045480 0.0005898 -0.0045480
21347584 0.0005862 -0.0043564 0.9994138 0.0043564 0.9994138 0.0043564 0.0005862 -0.0043564
21942904 0.0005827 -0.0041678 0.9994173 0.0041678 0.9994173 0.0041678 0.0005827 -0.0041678
22554827 0.0005796 -0.0039823 0.9994204 0.0039823 0.9994204 0.0039823 0.0005796 -0.0039823
23183813 0.0005767 -0.0037996 0.9994233 0.0037996 0.9994233 0.0037996 0.0005767 -0.0037996
23830340 0.0005741 -0.0036197 0.9994259 0.0036197 0.9994259 0.0036197 0.0005741 -0.0036197
24494897 0.0005717 -0.0034423 0.9994283 0.0034423 0.9994283 0.0034423 0.0005717 -0.0034423
25177987 0.0005696 -0.0032675 0.9994304 0.0032675 0.9994304 0.0032675 0.0005696 -0.0032675
25880126 0.0005677 -0.0030950 0.9994323 0.0030950 0.9994323 0.0030950 0.0005677 -0.0030950
26601845 0.0005662 -0.0029247 0.9994338 0.0029247 0.9994338 0.0029247 0.0005662 -0.0029247
27343691 0.0005649 -0.0027564 0.9994351 0.0027564 0.9994351 0.0027564 0.0005649 -0.0027564
28106225 0.0005638 -0.0025902 0.9994362 0.0025902 0.9994362 0.0025902 0.0005638 -0.0025902
28890023 0.0005631 -0.0024258 0.9994369 0.0024258 0.9994369 0.0024258 0.0005631 -0.0024258
29695680 0.0005627 -0.0022631 0.9994373 0.0022631 0.9994373 0.0022631 0.0005627 -0.0022631
30523804 0.0005625 -0.0021020 0.9994375 0.0021020 0.9994375 0.0021020 0.0005625 -0.0021020
31375021 0.0005626 -0.0019424 0.9994374 0.0019424 0.9994374 0.0019424 0.0005626 -0.0019424
32249977 0.0005631 -0.0017842 0.9994369 0.0017842 0.9994369 0.0017842 0.0005631 -0.0017842
33149332 0.0005638 -0.0016271 0.9994362 0.0016271 0.9994362 0.0016271 0.0005638 -0.0016271
34073768 0.0005649 -0.0014713 0.9994351 0.0014713 0.9994351 0.0014713 0.0005649 -0.0014713
35023984 0.0005663 -0.0013164 0.9994337 0.0013164 0.9994337 0.0013164 0.0005663 -0.0013164
36000698 0.0005680 -0.0011624 0.9994320 0.0011624 0.9994320 0.0011624 0.0005680 -0.0011624
37004650 0.0005701 -0.0010091 0.9994299 0.0010091 0.9994299 0.0010091 0.0005701 -0.0010091
38036599 0.0005726 -0.0008566 0.9994274 0.0008566 0.9994274 0.0008566 0.0005726 -0.0008566
39097326 0.0005755 -0.0007045 0.9994245 0.0007045 0.9994245 0.0007045 0.0005755 -0.0007045
