!Murata Part Number: GRM319C80J226ME15
!These Parameters are Measured in Series Mode Connection
!Data Generated on Mar 30, 2021
!       o--ll--o
!Port1            Port2
!       o------o
!Operation Temp=25[degC], DC Bias Voltage=0[V]
!Freq. Start=100[Hz] Stop=6[GHz] 401[Steps]
# Hz S RI R 50
!Freq.(Hz) S11(Real) S11(Imag) S21(Real) S21(Imag) S12(Real) S12(Imag) S22(Real) S22(Imag)
100 0.5969039 -0.4778437 0.4030961 0.4778437 0.4030961 0.4778437 0.5969039 -0.4778437
105 0.5760843 -0.4815017 0.4239157 0.4815017 0.4239157 0.4815017 0.5760843 -0.4815017
109 0.5549848 -0.4842890 0.4450152 0.4842890 0.4450152 0.4842890 0.5549848 -0.4842890
114 0.5336811 -0.4861795 0.4663189 0.4861795 0.4663189 0.4861795 0.5336811 -0.4861795
120 0.5122520 -0.4871552 0.4877480 0.4871552 0.4877480 0.4871552 0.5122520 -0.4871552
125 0.4907781 -0.4872070 0.5092219 0.4872070 0.5092219 0.4872070 0.4907781 -0.4872070
131 0.4693408 -0.4863347 0.5306592 0.4863347 0.5306592 0.4863347 0.4693408 -0.4863347
137 0.4480206 -0.4845471 0.5519794 0.4845471 0.5519794 0.4845471 0.4480206 -0.4845471
143 0.4268962 -0.4818616 0.5731038 0.4818616 0.5731038 0.4818616 0.4268962 -0.4818616
150 0.4060432 -0.4783037 0.5939568 0.4783037 0.5939568 0.4783037 0.4060432 -0.4783037
156 0.3855329 -0.4739068 0.6144671 0.4739068 0.6144671 0.4739068 0.3855329 -0.4739068
164 0.3654316 -0.4687109 0.6345684 0.4687109 0.6345684 0.4687109 0.3654316 -0.4687109
171 0.3457998 -0.4627621 0.6542002 0.4627621 0.6542002 0.4627621 0.3457998 -0.4627621
179 0.3266916 -0.4561113 0.6733084 0.4561113 0.6733084 0.4561113 0.3266916 -0.4561113
187 0.3081540 -0.4488137 0.6918460 0.4488137 0.6918460 0.4488137 0.3081540 -0.4488137
196 0.2902270 -0.4409269 0.7097730 0.4409269 0.7097730 0.4409269 0.2902270 -0.4409269
205 0.2729437 -0.4325107 0.7270563 0.4325107 0.7270563 0.4325107 0.2729437 -0.4325107
214 0.2563297 -0.4236258 0.7436703 0.4236258 0.7436703 0.4236258 0.2563297 -0.4236258
224 0.2404043 -0.4143329 0.7595957 0.4143329 0.7595957 0.4143329 0.2404043 -0.4143329
234 0.2251798 -0.4046918 0.7748202 0.4046918 0.7748202 0.4046918 0.2251798 -0.4046918
245 0.2106629 -0.3947611 0.7893371 0.3947611 0.7893371 0.3947611 0.2106629 -0.3947611
256 0.1968544 -0.3845971 0.8031456 0.3845971 0.8031456 0.3845971 0.1968544 -0.3845971
268 0.1837503 -0.3742535 0.8162497 0.3742535 0.8162497 0.3742535 0.1837503 -0.3742535
280 0.1713420 -0.3637815 0.8286580 0.3637815 0.8286580 0.3637815 0.1713420 -0.3637815
293 0.1596171 -0.3532285 0.8403829 0.3532285 0.8403829 0.3532285 0.1596171 -0.3532285
306 0.1485599 -0.3426389 0.8514401 0.3426389 0.8514401 0.3426389 0.1485599 -0.3426389
320 0.1381516 -0.3320534 0.8618484 0.3320534 0.8618484 0.3320534 0.1381516 -0.3320534
335 0.1283716 -0.3215093 0.8716284 0.3215093 0.8716284 0.3215093 0.1283716 -0.3215093
350 0.1191970 -0.3110402 0.8808030 0.3110402 0.8808030 0.3110402 0.1191970 -0.3110402
366 0.1106038 -0.3006761 0.8893962 0.3006761 0.8893962 0.3006761 0.1106038 -0.3006761
383 0.1025669 -0.2904440 0.8974331 0.2904440 0.8974331 0.2904440 0.1025669 -0.2904440
401 0.0950606 -0.2803672 0.9049394 0.2803672 0.9049394 0.2803672 0.0950606 -0.2803672
419 0.0880587 -0.2704663 0.9119413 0.2704663 0.9119413 0.2704663 0.0880587 -0.2704663
438 0.0815351 -0.2607587 0.9184649 0.2607587 0.9184649 0.2607587 0.0815351 -0.2607587
458 0.0754639 -0.2512591 0.9245361 0.2512591 0.9245361 0.2512591 0.0754639 -0.2512591
479 0.0698194 -0.2419799 0.9301806 0.2419799 0.9301806 0.2419799 0.0698194 -0.2419799
501 0.0645766 -0.2329310 0.9354234 0.2329310 0.9354234 0.2329310 0.0645766 -0.2329310
524 0.0597111 -0.2241200 0.9402889 0.2241200 0.9402889 0.2241200 0.0597111 -0.2241200
548 0.0551992 -0.2155527 0.9448008 0.2155527 0.9448008 0.2155527 0.0551992 -0.2155527
573 0.0510183 -0.2072333 0.9489817 0.2072333 0.9489817 0.2072333 0.0510183 -0.2072333
600 0.0471466 -0.1991641 0.9528534 0.1991641 0.9528534 0.1991641 0.0471466 -0.1991641
627 0.0435633 -0.1913461 0.9564367 0.1913461 0.9564367 0.1913461 0.0435633 -0.1913461
656 0.0402485 -0.1837792 0.9597515 0.1837792 0.9597515 0.1837792 0.0402485 -0.1837792
686 0.0371837 -0.1764620 0.9628163 0.1764620 0.9628163 0.1764620 0.0371837 -0.1764620
717 0.0343510 -0.1693923 0.9656490 0.1693923 0.9656490 0.1693923 0.0343510 -0.1693923
750 0.0317338 -0.1625669 0.9682662 0.1625669 0.9682662 0.1625669 0.0317338 -0.1625669
784 0.0293165 -0.1559822 0.9706835 0.1559822 0.9706835 0.1559822 0.0293165 -0.1559822
820 0.0270843 -0.1496337 0.9729157 0.1496337 0.9729157 0.1496337 0.0270843 -0.1496337
858 0.0250236 -0.1435165 0.9749764 0.1435165 0.9749764 0.1435165 0.0250236 -0.1435165
897 0.0231216 -0.1376255 0.9768784 0.1376255 0.9768784 0.1376255 0.0231216 -0.1376255
938 0.0213663 -0.1319551 0.9786337 0.1319551 0.9786337 0.1319551 0.0213663 -0.1319551
981 0.0197466 -0.1264996 0.9802534 0.1264996 0.9802534 0.1264996 0.0197466 -0.1264996
1026 0.0182522 -0.1212529 0.9817478 0.1212529 0.9817478 0.1212529 0.0182522 -0.1212529
1073 0.0168737 -0.1162091 0.9831263 0.1162091 0.9831263 0.1162091 0.0168737 -0.1162091
1122 0.0156020 -0.1113619 0.9843980 0.1113619 0.9843980 0.1113619 0.0156020 -0.1113619
1174 0.0144290 -0.1067053 0.9855710 0.1067053 0.9855710 0.1067053 0.0144290 -0.1067053
1227 0.0133472 -0.1022330 0.9866528 0.1022330 0.9866528 0.1022330 0.0133472 -0.1022330
1283 0.0123494 -0.0979391 0.9876506 0.0979391 0.9876506 0.0979391 0.0123494 -0.0979391
1342 0.0114292 -0.0938175 0.9885708 0.0938175 0.9885708 0.0938175 0.0114292 -0.0938175
1404 0.0105805 -0.0898621 0.9894195 0.0898621 0.9894195 0.0898621 0.0105805 -0.0898621
1468 0.0097978 -0.0860672 0.9902022 0.0860672 0.9902022 0.0860672 0.0097978 -0.0860672
1535 0.0090759 -0.0824269 0.9909241 0.0824269 0.9909241 0.0824269 0.0090759 -0.0824269
1606 0.0084100 -0.0789358 0.9915900 0.0789358 0.9915900 0.0789358 0.0084100 -0.0789358
1679 0.0077958 -0.0755882 0.9922042 0.0755882 0.9922042 0.0755882 0.0077958 -0.0755882
1756 0.0072292 -0.0723788 0.9927708 0.0723788 0.9927708 0.0723788 0.0072292 -0.0723788
1836 0.0067065 -0.0693024 0.9932935 0.0693024 0.9932935 0.0693024 0.0067065 -0.0693024
1920 0.0062240 -0.0663539 0.9937760 0.0663539 0.9937760 0.0663539 0.0062240 -0.0663539
2008 0.0057788 -0.0635284 0.9942212 0.0635284 0.9942212 0.0635284 0.0057788 -0.0635284
2100 0.0053677 -0.0608209 0.9946323 0.0608209 0.9946323 0.0608209 0.0053677 -0.0608209
2196 0.0049881 -0.0582270 0.9950119 0.0582270 0.9950119 0.0582270 0.0049881 -0.0582270
2297 0.0046374 -0.0557421 0.9953626 0.0557421 0.9953626 0.0557421 0.0046374 -0.0557421
2402 0.0043134 -0.0533617 0.9956866 0.0533617 0.9956866 0.0533617 0.0043134 -0.0533617
2512 0.0040139 -0.0510818 0.9959861 0.0510818 0.9959861 0.0510818 0.0040139 -0.0510818
2627 0.0037370 -0.0488982 0.9962630 0.0488982 0.9962630 0.0488982 0.0037370 -0.0488982
2748 0.0034808 -0.0468069 0.9965192 0.0468069 0.9965192 0.0468069 0.0034808 -0.0468069
2873 0.0032437 -0.0448041 0.9967563 0.0448041 0.9967563 0.0448041 0.0032437 -0.0448041
3005 0.0030242 -0.0428863 0.9969758 0.0428863 0.9969758 0.0428863 0.0030242 -0.0428863
3143 0.0028209 -0.0410499 0.9971791 0.0410499 0.9971791 0.0410499 0.0028209 -0.0410499
3287 0.0026326 -0.0392914 0.9973674 0.0392914 0.9973674 0.0392914 0.0026326 -0.0392914
3437 0.0024580 -0.0376076 0.9975420 0.0376076 0.9975420 0.0376076 0.0024580 -0.0376076
3594 0.0022962 -0.0359954 0.9977038 0.0359954 0.9977038 0.0359954 0.0022962 -0.0359954
3759 0.0021462 -0.0344519 0.9978538 0.0344519 0.9978538 0.0344519 0.0021462 -0.0344519
3931 0.0020070 -0.0329740 0.9979930 0.0329740 0.9979930 0.0329740 0.0020070 -0.0329740
4111 0.0018778 -0.0315590 0.9981222 0.0315590 0.9981222 0.0315590 0.0018778 -0.0315590
4299 0.0017580 -0.0302044 0.9982420 0.0302044 0.9982420 0.0302044 0.0017580 -0.0302044
4496 0.0016467 -0.0289075 0.9983533 0.0289075 0.9983533 0.0289075 0.0016467 -0.0289075
4702 0.0015434 -0.0276659 0.9984566 0.0276659 0.9984566 0.0276659 0.0015434 -0.0276659
4918 0.0014475 -0.0264774 0.9985525 0.0264774 0.9985525 0.0264774 0.0014475 -0.0264774
5143 0.0013585 -0.0253396 0.9986415 0.0253396 0.9986415 0.0253396 0.0013585 -0.0253396
5378 0.0012757 -0.0242505 0.9987243 0.0242505 0.9987243 0.0242505 0.0012757 -0.0242505
5625 0.0011989 -0.0232080 0.9988011 0.0232080 0.9988011 0.0232080 0.0011989 -0.0232080
5882 0.0011275 -0.0222101 0.9988725 0.0222101 0.9988725 0.0222101 0.0011275 -0.0222101
6151 0.0010611 -0.0212549 0.9989389 0.0212549 0.9989389 0.0212549 0.0010611 -0.0212549
6433 0.0009994 -0.0203408 0.9990006 0.0203408 0.9990006 0.0203408 0.0009994 -0.0203408
6728 0.0009420 -0.0194659 0.9990580 0.0194659 0.9990580 0.0194659 0.0009420 -0.0194659
7036 0.0008886 -0.0186286 0.9991114 0.0186286 0.9991114 0.0186286 0.0008886 -0.0186286
7358 0.0008389 -0.0178272 0.9991611 0.0178272 0.9991611 0.0178272 0.0008389 -0.0178272
7695 0.0007926 -0.0170604 0.9992074 0.0170604 0.9992074 0.0170604 0.0007926 -0.0170604
8047 0.0007494 -0.0163266 0.9992506 0.0163266 0.9992506 0.0163266 0.0007494 -0.0163266
8416 0.0007091 -0.0156244 0.9992909 0.0156244 0.9992909 0.0156244 0.0007091 -0.0156244
8801 0.0006715 -0.0149524 0.9993285 0.0149524 0.9993285 0.0149524 0.0006715 -0.0149524
9204 0.0006363 -0.0143095 0.9993637 0.0143095 0.9993637 0.0143095 0.0006363 -0.0143095
9626 0.0006034 -0.0136943 0.9993966 0.0136943 0.9993966 0.0136943 0.0006034 -0.0136943
10066 0.0005726 -0.0131056 0.9994274 0.0131056 0.9994274 0.0131056 0.0005726 -0.0131056
10527 0.0005437 -0.0125423 0.9994563 0.0125423 0.9994563 0.0125423 0.0005437 -0.0125423
11009 0.0005166 -0.0120033 0.9994834 0.0120033 0.9994834 0.0120033 0.0005166 -0.0120033
11514 0.0004911 -0.0114876 0.9995089 0.0114876 0.9995089 0.0114876 0.0004911 -0.0114876
12041 0.0004671 -0.0109940 0.9995329 0.0109940 0.9995329 0.0109940 0.0004671 -0.0109940
12592 0.0004445 -0.0105218 0.9995555 0.0105218 0.9995555 0.0105218 0.0004445 -0.0105218
13169 0.0004231 -0.0100699 0.9995769 0.0100699 0.9995769 0.0100699 0.0004231 -0.0100699
13772 0.0004030 -0.0096374 0.9995970 0.0096374 0.9995970 0.0096374 0.0004030 -0.0096374
14402 0.0003840 -0.0092236 0.9996160 0.0092236 0.9996160 0.0092236 0.0003840 -0.0092236
15062 0.0003660 -0.0088275 0.9996340 0.0088275 0.9996340 0.0088275 0.0003660 -0.0088275
15752 0.0003490 -0.0084485 0.9996510 0.0084485 0.9996510 0.0084485 0.0003490 -0.0084485
16473 0.0003329 -0.0080857 0.9996671 0.0080857 0.9996671 0.0080857 0.0003329 -0.0080857
17227 0.0003177 -0.0077385 0.9996823 0.0077385 0.9996823 0.0077385 0.0003177 -0.0077385
18016 0.0003032 -0.0074062 0.9996968 0.0074062 0.9996968 0.0074062 0.0003032 -0.0074062
18841 0.0002896 -0.0070881 0.9997104 0.0070881 0.9997104 0.0070881 0.0002896 -0.0070881
19704 0.0002766 -0.0067836 0.9997234 0.0067836 0.9997234 0.0067836 0.0002766 -0.0067836
20606 0.0002644 -0.0064922 0.9997356 0.0064922 0.9997356 0.0064922 0.0002644 -0.0064922
21550 0.0002528 -0.0062132 0.9997472 0.0062132 0.9997472 0.0062132 0.0002528 -0.0062132
22537 0.0002419 -0.0059462 0.9997581 0.0059462 0.9997581 0.0059462 0.0002419 -0.0059462
23569 0.0002315 -0.0056906 0.9997685 0.0056906 0.9997685 0.0056906 0.0002315 -0.0056906
24648 0.0002217 -0.0054459 0.9997783 0.0054459 0.9997783 0.0054459 0.0002217 -0.0054459
25777 0.0002125 -0.0052118 0.9997875 0.0052118 0.9997875 0.0052118 0.0002125 -0.0052118
26957 0.0002037 -0.0049876 0.9997963 0.0049876 0.9997963 0.0049876 0.0002037 -0.0049876
28191 0.0001955 -0.0047731 0.9998045 0.0047731 0.9998045 0.0047731 0.0001955 -0.0047731
29482 0.0001877 -0.0045678 0.9998123 0.0045678 0.9998123 0.0045678 0.0001877 -0.0045678
30832 0.0001804 -0.0043712 0.9998196 0.0043712 0.9998196 0.0043712 0.0001804 -0.0043712
32244 0.0001734 -0.0041832 0.9998266 0.0041832 0.9998266 0.0041832 0.0001734 -0.0041832
33721 0.0001669 -0.0040032 0.9998331 0.0040032 0.9998331 0.0040032 0.0001669 -0.0040032
35265 0.0001607 -0.0038309 0.9998393 0.0038309 0.9998393 0.0038309 0.0001607 -0.0038309
36880 0.0001549 -0.0036661 0.9998451 0.0036661 0.9998451 0.0036661 0.0001549 -0.0036661
38569 0.0001494 -0.0035084 0.9998506 0.0035084 0.9998506 0.0035084 0.0001494 -0.0035084
40335 0.0001442 -0.0033575 0.9998558 0.0033575 0.9998558 0.0033575 0.0001442 -0.0033575
42182 0.0001392 -0.0032130 0.9998608 0.0032130 0.9998608 0.0032130 0.0001392 -0.0032130
44113 0.0001346 -0.0030749 0.9998654 0.0030749 0.9998654 0.0030749 0.0001346 -0.0030749
46134 0.0001301 -0.0029427 0.9998699 0.0029427 0.9998699 0.0029427 0.0001301 -0.0029427
48246 0.0001259 -0.0028162 0.9998741 0.0028162 0.9998741 0.0028162 0.0001259 -0.0028162
50455 0.0001218 -0.0026952 0.9998782 0.0026952 0.9998782 0.0026952 0.0001218 -0.0026952
52766 0.0001180 -0.0025794 0.9998820 0.0025794 0.9998820 0.0025794 0.0001180 -0.0025794
55182 0.0001143 -0.0024686 0.9998857 0.0024686 0.9998857 0.0024686 0.0001143 -0.0024686
57709 0.0001107 -0.0023626 0.9998893 0.0023626 0.9998893 0.0023626 0.0001107 -0.0023626
60352 0.0001073 -0.0022611 0.9998927 0.0022611 0.9998927 0.0022611 0.0001073 -0.0022611
63115 0.0001040 -0.0021641 0.9998960 0.0021641 0.9998960 0.0021641 0.0001040 -0.0021641
66005 0.0001009 -0.0020712 0.9998991 0.0020712 0.9998991 0.0020712 0.0001009 -0.0020712
69028 0.0000978 -0.0019823 0.9999022 0.0019823 0.9999022 0.0019823 0.0000978 -0.0019823
72189 0.0000949 -0.0018972 0.9999051 0.0018972 0.9999051 0.0018972 0.0000949 -0.0018972
75495 0.0000920 -0.0018158 0.9999080 0.0018158 0.9999080 0.0018158 0.0000920 -0.0018158
78952 0.0000892 -0.0017378 0.9999108 0.0017378 0.9999108 0.0017378 0.0000892 -0.0017378
82567 0.0000865 -0.0016632 0.9999135 0.0016632 0.9999135 0.0016632 0.0000865 -0.0016632
86348 0.0000839 -0.0015918 0.9999161 0.0015918 0.9999161 0.0015918 0.0000839 -0.0015918
90302 0.0000813 -0.0015234 0.9999187 0.0015234 0.9999187 0.0015234 0.0000813 -0.0015234
94437 0.0000788 -0.0014579 0.9999212 0.0014579 0.9999212 0.0014579 0.0000788 -0.0014579
98762 0.0000765 -0.0013951 0.9999235 0.0013951 0.9999235 0.0013951 0.0000765 -0.0013951
103284 0.0000741 -0.0013350 0.9999259 0.0013350 0.9999259 0.0013350 0.0000741 -0.0013350
108014 0.0000719 -0.0012775 0.9999281 0.0012775 0.9999281 0.0012775 0.0000719 -0.0012775
112960 0.0000697 -0.0012223 0.9999303 0.0012223 0.9999303 0.0012223 0.0000697 -0.0012223
118133 0.0000676 -0.0011695 0.9999324 0.0011695 0.9999324 0.0011695 0.0000676 -0.0011695
123542 0.0000656 -0.0011188 0.9999344 0.0011188 0.9999344 0.0011188 0.0000656 -0.0011188
129199 0.0000636 -0.0010703 0.9999364 0.0010703 0.9999364 0.0010703 0.0000636 -0.0010703
135116 0.0000618 -0.0010238 0.9999382 0.0010238 0.9999382 0.0010238 0.0000618 -0.0010238
141303 0.0000600 -0.0009792 0.9999400 0.0009792 0.9999400 0.0009792 0.0000600 -0.0009792
147774 0.0000583 -0.0009364 0.9999417 0.0009364 0.9999417 0.0009364 0.0000583 -0.0009364
154540 0.0000566 -0.0008954 0.9999434 0.0008954 0.9999434 0.0008954 0.0000566 -0.0008954
161617 0.0000551 -0.0008562 0.9999449 0.0008562 0.9999449 0.0008562 0.0000551 -0.0008562
169018 0.0000536 -0.0008185 0.9999464 0.0008185 0.9999464 0.0008185 0.0000536 -0.0008185
176758 0.0000522 -0.0007824 0.9999478 0.0007824 0.9999478 0.0007824 0.0000522 -0.0007824
184852 0.0000509 -0.0007477 0.9999491 0.0007477 0.9999491 0.0007477 0.0000509 -0.0007477
193316 0.0000497 -0.0007145 0.9999503 0.0007145 0.9999503 0.0007145 0.0000497 -0.0007145
202169 0.0000485 -0.0006826 0.9999515 0.0006826 0.9999515 0.0006826 0.0000485 -0.0006826
211427 0.0000474 -0.0006521 0.9999526 0.0006521 0.9999526 0.0006521 0.0000474 -0.0006521
221108 0.0000464 -0.0006227 0.9999536 0.0006227 0.9999536 0.0006227 0.0000464 -0.0006227
231233 0.0000454 -0.0005946 0.9999546 0.0005946 0.9999546 0.0005946 0.0000454 -0.0005946
241822 0.0000445 -0.0005676 0.9999555 0.0005676 0.9999555 0.0005676 0.0000445 -0.0005676
252896 0.0000437 -0.0005417 0.9999563 0.0005417 0.9999563 0.0005417 0.0000437 -0.0005417
264476 0.0000429 -0.0005169 0.9999571 0.0005169 0.9999571 0.0005169 0.0000429 -0.0005169
276587 0.0000422 -0.0004930 0.9999578 0.0004930 0.9999578 0.0004930 0.0000422 -0.0004930
289253 0.0000415 -0.0004701 0.9999585 0.0004701 0.9999585 0.0004701 0.0000415 -0.0004701
302498 0.0000409 -0.0004481 0.9999591 0.0004481 0.9999591 0.0004481 0.0000409 -0.0004481
316350 0.0000404 -0.0004270 0.9999596 0.0004270 0.9999596 0.0004270 0.0000404 -0.0004270
330837 0.0000399 -0.0004067 0.9999601 0.0004067 0.9999601 0.0004067 0.0000399 -0.0004067
345986 0.0000394 -0.0003872 0.9999606 0.0003872 0.9999606 0.0003872 0.0000394 -0.0003872
361830 0.0000390 -0.0003685 0.9999610 0.0003685 0.9999610 0.0003685 0.0000390 -0.0003685
378399 0.0000386 -0.0003505 0.9999614 0.0003505 0.9999614 0.0003505 0.0000386 -0.0003505
395726 0.0000382 -0.0003331 0.9999618 0.0003331 0.9999618 0.0003331 0.0000382 -0.0003331
413847 0.0000379 -0.0003165 0.9999621 0.0003165 0.9999621 0.0003165 0.0000379 -0.0003165
432798 0.0000376 -0.0003004 0.9999624 0.0003004 0.9999624 0.0003004 0.0000376 -0.0003004
452617 0.0000374 -0.0002849 0.9999626 0.0002849 0.9999626 0.0002849 0.0000374 -0.0002849
473344 0.0000372 -0.0002700 0.9999628 0.0002700 0.9999628 0.0002700 0.0000372 -0.0002700
495019 0.0000370 -0.0002556 0.9999630 0.0002556 0.9999630 0.0002556 0.0000370 -0.0002556
517687 0.0000369 -0.0002418 0.9999631 0.0002418 0.9999631 0.0002418 0.0000369 -0.0002418
541393 0.0000367 -0.0002284 0.9999633 0.0002284 0.9999633 0.0002284 0.0000367 -0.0002284
566185 0.0000366 -0.0002154 0.9999634 0.0002154 0.9999634 0.0002154 0.0000366 -0.0002154
592111 0.0000366 -0.0002029 0.9999634 0.0002029 0.9999634 0.0002029 0.0000366 -0.0002029
619225 0.0000365 -0.0001908 0.9999635 0.0001908 0.9999635 0.0001908 0.0000365 -0.0001908
647581 0.0000365 -0.0001791 0.9999635 0.0001791 0.9999635 0.0001791 0.0000365 -0.0001791
677235 0.0000365 -0.0001677 0.9999635 0.0001677 0.9999635 0.0001677 0.0000365 -0.0001677
708247 0.0000366 -0.0001567 0.9999634 0.0001567 0.9999634 0.0001567 0.0000366 -0.0001567
740679 0.0000367 -0.0001459 0.9999633 0.0001459 0.9999633 0.0001459 0.0000367 -0.0001459
774597 0.0000368 -0.0001355 0.9999632 0.0001355 0.9999632 0.0001355 0.0000368 -0.0001355
810067 0.0000369 -0.0001253 0.9999631 0.0001253 0.9999631 0.0001253 0.0000369 -0.0001253
847162 0.0000371 -0.0001154 0.9999629 0.0001154 0.9999629 0.0001154 0.0000371 -0.0001154
885955 0.0000373 -0.0001057 0.9999627 0.0001057 0.9999627 0.0001057 0.0000373 -0.0001057
926525 0.0000375 -0.0000962 0.9999625 0.0000962 0.9999625 0.0000962 0.0000375 -0.0000962
968953 0.0000378 -0.0000869 0.9999622 0.0000869 0.9999622 0.0000869 0.0000378 -0.0000869
1013323 0.0000381 -0.0000777 0.9999619 0.0000777 0.9999619 0.0000777 0.0000381 -0.0000777
1059725 0.0000385 -0.0000687 0.9999615 0.0000687 0.9999615 0.0000687 0.0000385 -0.0000687
1108252 0.0000389 -0.0000599 0.9999611 0.0000599 0.9999611 0.0000599 0.0000389 -0.0000599
1159002 0.0000393 -0.0000511 0.9999607 0.0000511 0.9999607 0.0000511 0.0000393 -0.0000511
1212075 0.0000399 -0.0000425 0.9999601 0.0000425 0.9999601 0.0000425 0.0000399 -0.0000425
1267578 0.0000404 -0.0000339 0.9999596 0.0000339 0.9999596 0.0000339 0.0000404 -0.0000339
1325623 0.0000411 -0.0000254 0.9999589 0.0000254 0.9999589 0.0000254 0.0000411 -0.0000254
1386327 0.0000418 -0.0000169 0.9999582 0.0000169 0.9999582 0.0000169 0.0000418 -0.0000169
1449809 0.0000427 -0.0000085 0.9999573 0.0000085 0.9999573 0.0000085 0.0000427 -0.0000085
1516199 0.0000436 0.0000000 0.9999564 0.0000000 0.9999564 0.0000000 0.0000436 0.0000000
1585629 0.0000447 0.0000084 0.9999553 -0.0000084 0.9999553 -0.0000084 0.0000447 0.0000084
1658239 0.0000459 0.0000170 0.9999541 -0.0000170 0.9999541 -0.0000170 0.0000459 0.0000170
1734173 0.0000472 0.0000255 0.9999528 -0.0000255 0.9999528 -0.0000255 0.0000472 0.0000255
1813585 0.0000488 0.0000342 0.9999512 -0.0000342 0.9999512 -0.0000342 0.0000488 0.0000342
1896632 0.0000505 0.0000429 0.9999495 -0.0000429 0.9999495 -0.0000429 0.0000505 0.0000429
1983483 0.0000526 0.0000518 0.9999474 -0.0000518 0.9999474 -0.0000518 0.0000526 0.0000518
2074311 0.0000550 0.0000608 0.9999450 -0.0000608 0.9999450 -0.0000608 0.0000550 0.0000608
