!Murata Part Number: GRM31CC72A475ME11
!These Parameters are Measured in Series Mode Connection
!Data Generated on Mar 30, 2021
!       o--ll--o
!Port1            Port2
!       o------o
!Operation Temp=25[degC], DC Bias Voltage=0[V]
!Freq. Start=100[Hz] Stop=6[GHz] 401[Steps]
# Hz S RI R 50
!Freq.(Hz) S11(Real) S11(Imag) S21(Real) S21(Imag) S12(Real) S12(Imag) S22(Real) S22(Imag)
100 0.9235879 -0.2622429 0.0764121 0.2622429 0.0764121 0.2622429 0.9235879 -0.2622429
105 0.9171315 -0.2722664 0.0828685 0.2722664 0.0828685 0.2722664 0.9171315 -0.2722664
109 0.9101780 -0.2825031 0.0898220 0.2825031 0.0898220 0.2825031 0.9101780 -0.2825031
114 0.9026985 -0.2929349 0.0973015 0.2929349 0.0973015 0.2929349 0.9026985 -0.2929349
120 0.8946641 -0.3035405 0.1053359 0.3035405 0.1053359 0.3035405 0.8946641 -0.3035405
125 0.8860461 -0.3142949 0.1139539 0.3142949 0.1139539 0.3142949 0.8860461 -0.3142949
131 0.8768165 -0.3251695 0.1231835 0.3251695 0.1231835 0.3251695 0.8768165 -0.3251695
137 0.8669483 -0.3361317 0.1330517 0.3361317 0.1330517 0.3361317 0.8669483 -0.3361317
143 0.8564163 -0.3471451 0.1435837 0.3471451 0.1435837 0.3471451 0.8564163 -0.3471451
150 0.8451971 -0.3581692 0.1548029 0.3581692 0.1548029 0.3581692 0.8451971 -0.3581692
156 0.8332701 -0.3691594 0.1667299 0.3691594 0.1667299 0.3691594 0.8332701 -0.3691594
164 0.8206180 -0.3800673 0.1793820 0.3800673 0.1793820 0.3800673 0.8206180 -0.3800673
171 0.8072271 -0.3908405 0.1927729 0.3908405 0.1927729 0.3908405 0.8072271 -0.3908405
179 0.7930884 -0.4014233 0.2069116 0.4014233 0.2069116 0.4014233 0.7930884 -0.4014233
187 0.7781981 -0.4117569 0.2218019 0.4117569 0.2218019 0.4117569 0.7781981 -0.4117569
196 0.7625580 -0.4217795 0.2374420 0.4217795 0.2374420 0.4217795 0.7625580 -0.4217795
205 0.7461763 -0.4314276 0.2538237 0.4314276 0.2538237 0.4314276 0.7461763 -0.4314276
214 0.7290678 -0.4406363 0.2709322 0.4406363 0.2709322 0.4406363 0.7290678 -0.4406363
224 0.7112547 -0.4493403 0.2887453 0.4493403 0.2887453 0.4493403 0.7112547 -0.4493403
234 0.6927666 -0.4574746 0.3072334 0.4574746 0.3072334 0.4574746 0.6927666 -0.4574746
245 0.6736409 -0.4649757 0.3263591 0.4649757 0.3263591 0.4649757 0.6736409 -0.4649757
256 0.6539224 -0.4717826 0.3460776 0.4717826 0.3460776 0.4717826 0.6539224 -0.4717826
268 0.6336636 -0.4778379 0.3663364 0.4778379 0.3663364 0.4778379 0.6336636 -0.4778379
280 0.6129239 -0.4830890 0.3870761 0.4830890 0.3870761 0.4830890 0.6129239 -0.4830890
293 0.5917695 -0.4874888 0.4082305 0.4874888 0.4082305 0.4874888 0.5917695 -0.4874888
306 0.5702723 -0.4909971 0.4297277 0.4909971 0.4297277 0.4909971 0.5702723 -0.4909971
320 0.5485093 -0.4935811 0.4514907 0.4935811 0.4514907 0.4935811 0.5485093 -0.4935811
335 0.5265612 -0.4952163 0.4734388 0.4952163 0.4734388 0.4952163 0.5265612 -0.4952163
350 0.5045118 -0.4958872 0.4954882 0.4958872 0.4954882 0.4958872 0.5045118 -0.4958872
366 0.4824461 -0.4955873 0.5175539 0.4955873 0.5175539 0.4955873 0.4824461 -0.4955873
383 0.4604497 -0.4943194 0.5395503 0.4943194 0.5395503 0.4943194 0.4604497 -0.4943194
401 0.4386069 -0.4920959 0.5613931 0.4920959 0.5613931 0.4920959 0.4386069 -0.4920959
419 0.4169998 -0.4889377 0.5830002 0.4889377 0.5830002 0.4889377 0.4169998 -0.4889377
438 0.3957071 -0.4848746 0.6042929 0.4848746 0.6042929 0.4848746 0.3957071 -0.4848746
458 0.3748025 -0.4799441 0.6251975 0.4799441 0.6251975 0.4799441 0.3748025 -0.4799441
479 0.3543547 -0.4741908 0.6456453 0.4741908 0.6456453 0.4741908 0.3543547 -0.4741908
501 0.3344257 -0.4676655 0.6655743 0.4676655 0.6655743 0.4676655 0.3344257 -0.4676655
524 0.3150708 -0.4604239 0.6849292 0.4604239 0.6849292 0.4604239 0.3150708 -0.4604239
548 0.2963376 -0.4525258 0.7036624 0.4525258 0.7036624 0.4525258 0.2963376 -0.4525258
573 0.2782664 -0.4440341 0.7217336 0.4440341 0.7217336 0.4440341 0.2782664 -0.4440341
600 0.2608897 -0.4350132 0.7391103 0.4350132 0.7391103 0.4350132 0.2608897 -0.4350132
627 0.2442325 -0.4255287 0.7557675 0.4255287 0.7557675 0.4255287 0.2442325 -0.4255287
656 0.2283122 -0.4156457 0.7716878 0.4156457 0.7716878 0.4156457 0.2283122 -0.4156457
686 0.2131395 -0.4054286 0.7868605 0.4054286 0.7868605 0.4054286 0.2131395 -0.4054286
717 0.1987185 -0.3949398 0.8012815 0.3949398 0.8012815 0.3949398 0.1987185 -0.3949398
750 0.1850472 -0.3842393 0.8149528 0.3842393 0.8149528 0.3842393 0.1850472 -0.3842393
784 0.1721184 -0.3733841 0.8278816 0.3733841 0.8278816 0.3733841 0.1721184 -0.3733841
820 0.1599201 -0.3624280 0.8400799 0.3624280 0.8400799 0.3624280 0.1599201 -0.3624280
858 0.1484362 -0.3514209 0.8515638 0.3514209 0.8515638 0.3514209 0.1484362 -0.3514209
897 0.1376470 -0.3404087 0.8623530 0.3404087 0.8623530 0.3404087 0.1376470 -0.3404087
938 0.1275301 -0.3294336 0.8724699 0.3294336 0.8724699 0.3294336 0.1275301 -0.3294336
981 0.1180608 -0.3185334 0.8819392 0.3185334 0.8819392 0.3185334 0.1180608 -0.3185334
1026 0.1092126 -0.3077421 0.8907874 0.3077421 0.8907874 0.3077421 0.1092126 -0.3077421
1073 0.1009577 -0.2970897 0.8990423 0.2970897 0.8990423 0.2970897 0.1009577 -0.2970897
1122 0.0932677 -0.2866023 0.9067323 0.2866023 0.9067323 0.2866023 0.0932677 -0.2866023
1174 0.0861136 -0.2763027 0.9138864 0.2763027 0.9138864 0.2763027 0.0861136 -0.2763027
1227 0.0794663 -0.2662100 0.9205337 0.2662100 0.9205337 0.2662100 0.0794663 -0.2662100
1283 0.0732972 -0.2563403 0.9267028 0.2563403 0.9267028 0.2563403 0.0732972 -0.2563403
1342 0.0675777 -0.2467068 0.9324223 0.2467068 0.9324223 0.2467068 0.0675777 -0.2467068
1404 0.0622804 -0.2373200 0.9377196 0.2373200 0.9377196 0.2373200 0.0622804 -0.2373200
1468 0.0573784 -0.2281879 0.9426216 0.2281879 0.9426216 0.2281879 0.0573784 -0.2281879
1535 0.0528457 -0.2193165 0.9471543 0.2193165 0.9471543 0.2193165 0.0528457 -0.2193165
1606 0.0486578 -0.2107096 0.9513422 0.2107096 0.9513422 0.2107096 0.0486578 -0.2107096
1679 0.0447907 -0.2023693 0.9552093 0.2023693 0.9552093 0.2023693 0.0447907 -0.2023693
1756 0.0412222 -0.1942964 0.9587778 0.1942964 0.9587778 0.1942964 0.0412222 -0.1942964
1836 0.0379307 -0.1864901 0.9620693 0.1864901 0.9620693 0.1864901 0.0379307 -0.1864901
1920 0.0348964 -0.1789485 0.9651036 0.1789485 0.9651036 0.1789485 0.0348964 -0.1789485
2008 0.0321001 -0.1716687 0.9678999 0.1716687 0.9678999 0.1716687 0.0321001 -0.1716687
2100 0.0295242 -0.1646470 0.9704758 0.1646470 0.9704758 0.1646470 0.0295242 -0.1646470
2196 0.0271520 -0.1578789 0.9728480 0.1578789 0.9728480 0.1578789 0.0271520 -0.1578789
2297 0.0249681 -0.1513594 0.9750319 0.1513594 0.9750319 0.1513594 0.0249681 -0.1513594
2402 0.0229580 -0.1450830 0.9770420 0.1450830 0.9770420 0.1450830 0.0229580 -0.1450830
2512 0.0211082 -0.1390437 0.9788918 0.1390437 0.9788918 0.1390437 0.0211082 -0.1390437
2627 0.0194063 -0.1332354 0.9805937 0.1332354 0.9805937 0.1332354 0.0194063 -0.1332354
2748 0.0178407 -0.1276516 0.9821593 0.1276516 0.9821593 0.1276516 0.0178407 -0.1276516
2873 0.0164008 -0.1222858 0.9835992 0.1222858 0.9835992 0.1222858 0.0164008 -0.1222858
3005 0.0150765 -0.1171313 0.9849235 0.1171313 0.9849235 0.1171313 0.0150765 -0.1171313
3143 0.0138589 -0.1121814 0.9861411 0.1121814 0.9861411 0.1121814 0.0138589 -0.1121814
3287 0.0127393 -0.1074295 0.9872607 0.1074295 0.9872607 0.1074295 0.0127393 -0.1074295
3437 0.0117101 -0.1028688 0.9882899 0.1028688 0.9882899 0.1028688 0.0117101 -0.1028688
3594 0.0107641 -0.0984928 0.9892359 0.0984928 0.9892359 0.0984928 0.0107641 -0.0984928
3759 0.0098946 -0.0942950 0.9901054 0.0942950 0.9901054 0.0942950 0.0098946 -0.0942950
3931 0.0090956 -0.0902689 0.9909044 0.0902689 0.9909044 0.0902689 0.0090956 -0.0902689
4111 0.0083614 -0.0864084 0.9916386 0.0864084 0.9916386 0.0864084 0.0083614 -0.0864084
4299 0.0076869 -0.0827074 0.9923131 0.0827074 0.9923131 0.0827074 0.0076869 -0.0827074
4496 0.0070672 -0.0791597 0.9929328 0.0791597 0.9929328 0.0791597 0.0070672 -0.0791597
4702 0.0064981 -0.0757597 0.9935019 0.0757597 0.9935019 0.0757597 0.0064981 -0.0757597
4918 0.0059755 -0.0725017 0.9940245 0.0725017 0.9940245 0.0725017 0.0059755 -0.0725017
5143 0.0054956 -0.0693802 0.9945044 0.0693802 0.9945044 0.0693802 0.0054956 -0.0693802
5378 0.0050549 -0.0663898 0.9949451 0.0663898 0.9949451 0.0663898 0.0050549 -0.0663898
5625 0.0046505 -0.0635255 0.9953495 0.0635255 0.9953495 0.0635255 0.0046505 -0.0635255
5882 0.0042792 -0.0607823 0.9957208 0.0607823 0.9957208 0.0607823 0.0042792 -0.0607823
6151 0.0039385 -0.0581553 0.9960615 0.0581553 0.9960615 0.0581553 0.0039385 -0.0581553
6433 0.0036259 -0.0556398 0.9963741 0.0556398 0.9963741 0.0556398 0.0036259 -0.0556398
6728 0.0033391 -0.0532315 0.9966609 0.0532315 0.9966609 0.0532315 0.0033391 -0.0532315
7036 0.0030759 -0.0509259 0.9969241 0.0509259 0.9969241 0.0509259 0.0030759 -0.0509259
7358 0.0028345 -0.0487188 0.9971655 0.0487188 0.9971655 0.0487188 0.0028345 -0.0487188
7695 0.0026130 -0.0466063 0.9973870 0.0466063 0.9973870 0.0466063 0.0026130 -0.0466063
8047 0.0024099 -0.0445843 0.9975901 0.0445843 0.9975901 0.0445843 0.0024099 -0.0445843
8416 0.0022236 -0.0426493 0.9977764 0.0426493 0.9977764 0.0426493 0.0022236 -0.0426493
8801 0.0020526 -0.0407976 0.9979474 0.0407976 0.9979474 0.0407976 0.0020526 -0.0407976
9204 0.0018959 -0.0390257 0.9981041 0.0390257 0.9981041 0.0390257 0.0018959 -0.0390257
9626 0.0017520 -0.0373302 0.9982480 0.0373302 0.9982480 0.0373302 0.0017520 -0.0373302
10066 0.0016201 -0.0357080 0.9983799 0.0357080 0.9983799 0.0357080 0.0016201 -0.0357080
10527 0.0014990 -0.0341560 0.9985010 0.0341560 0.9985010 0.0341560 0.0014990 -0.0341560
11009 0.0013878 -0.0326712 0.9986122 0.0326712 0.9986122 0.0326712 0.0013878 -0.0326712
11514 0.0012858 -0.0312508 0.9987142 0.0312508 0.9987142 0.0312508 0.0012858 -0.0312508
12041 0.0011921 -0.0298920 0.9988079 0.0298920 0.9988079 0.0298920 0.0011921 -0.0298920
12592 0.0011060 -0.0285922 0.9988940 0.0285922 0.9988940 0.0285922 0.0011060 -0.0285922
13169 0.0010269 -0.0273489 0.9989731 0.0273489 0.9989731 0.0273489 0.0010269 -0.0273489
13772 0.0009541 -0.0261596 0.9990459 0.0261596 0.9990459 0.0261596 0.0009541 -0.0261596
14402 0.0008872 -0.0250221 0.9991128 0.0250221 0.9991128 0.0250221 0.0008872 -0.0250221
15062 0.0008256 -0.0239341 0.9991744 0.0239341 0.9991744 0.0239341 0.0008256 -0.0239341
15752 0.0007689 -0.0228934 0.9992311 0.0228934 0.9992311 0.0228934 0.0007689 -0.0228934
16473 0.0007166 -0.0218981 0.9992834 0.0218981 0.9992834 0.0218981 0.0007166 -0.0218981
17227 0.0006684 -0.0209461 0.9993316 0.0209461 0.9993316 0.0209461 0.0006684 -0.0209461
18016 0.0006238 -0.0200355 0.9993762 0.0200355 0.9993762 0.0200355 0.0006238 -0.0200355
18841 0.0005827 -0.0191646 0.9994173 0.0191646 0.9994173 0.0191646 0.0005827 -0.0191646
19704 0.0005446 -0.0183316 0.9994554 0.0183316 0.9994554 0.0183316 0.0005446 -0.0183316
20606 0.0005094 -0.0175349 0.9994906 0.0175349 0.9994906 0.0175349 0.0005094 -0.0175349
21550 0.0004768 -0.0167729 0.9995232 0.0167729 0.9995232 0.0167729 0.0004768 -0.0167729
22537 0.0004465 -0.0160440 0.9995535 0.0160440 0.9995535 0.0160440 0.0004465 -0.0160440
23569 0.0004184 -0.0153468 0.9995816 0.0153468 0.9995816 0.0153468 0.0004184 -0.0153468
24648 0.0003923 -0.0146800 0.9996077 0.0146800 0.9996077 0.0146800 0.0003923 -0.0146800
25777 0.0003681 -0.0140421 0.9996319 0.0140421 0.9996319 0.0140421 0.0003681 -0.0140421
26957 0.0003455 -0.0134319 0.9996545 0.0134319 0.9996545 0.0134319 0.0003455 -0.0134319
28191 0.0003245 -0.0128482 0.9996755 0.0128482 0.9996755 0.0128482 0.0003245 -0.0128482
29482 0.0003050 -0.0122899 0.9996950 0.0122899 0.9996950 0.0122899 0.0003050 -0.0122899
30832 0.0002868 -0.0117558 0.9997132 0.0117558 0.9997132 0.0117558 0.0002868 -0.0117558
32244 0.0002698 -0.0112448 0.9997302 0.0112448 0.9997302 0.0112448 0.0002698 -0.0112448
33721 0.0002540 -0.0107560 0.9997460 0.0107560 0.9997460 0.0107560 0.0002540 -0.0107560
35265 0.0002392 -0.0102884 0.9997608 0.0102884 0.9997608 0.0102884 0.0002392 -0.0102884
36880 0.0002255 -0.0098410 0.9997745 0.0098410 0.9997745 0.0098410 0.0002255 -0.0098410
38569 0.0002126 -0.0094130 0.9997874 0.0094130 0.9997874 0.0094130 0.0002126 -0.0094130
40335 0.0002007 -0.0090035 0.9997993 0.0090035 0.9997993 0.0090035 0.0002007 -0.0090035
42182 0.0001895 -0.0086117 0.9998105 0.0086117 0.9998105 0.0086117 0.0001895 -0.0086117
44113 0.0001792 -0.0082370 0.9998208 0.0082370 0.9998208 0.0082370 0.0001792 -0.0082370
46134 0.0001695 -0.0078784 0.9998305 0.0078784 0.9998305 0.0078784 0.0001695 -0.0078784
48246 0.0001605 -0.0075353 0.9998395 0.0075353 0.9998395 0.0075353 0.0001605 -0.0075353
50455 0.0001521 -0.0072071 0.9998479 0.0072071 0.9998479 0.0072071 0.0001521 -0.0072071
52766 0.0001444 -0.0068932 0.9998556 0.0068932 0.9998556 0.0068932 0.0001444 -0.0068932
55182 0.0001371 -0.0065928 0.9998629 0.0065928 0.9998629 0.0065928 0.0001371 -0.0065928
57709 0.0001304 -0.0063054 0.9998696 0.0063054 0.9998696 0.0063054 0.0001304 -0.0063054
60352 0.0001242 -0.0060305 0.9998758 0.0060305 0.9998758 0.0060305 0.0001242 -0.0060305
63115 0.0001184 -0.0057675 0.9998816 0.0057675 0.9998816 0.0057675 0.0001184 -0.0057675
66005 0.0001130 -0.0055159 0.9998870 0.0055159 0.9998870 0.0055159 0.0001130 -0.0055159
69028 0.0001080 -0.0052752 0.9998920 0.0052752 0.9998920 0.0052752 0.0001080 -0.0052752
72189 0.0001034 -0.0050450 0.9998966 0.0050450 0.9998966 0.0050450 0.0001034 -0.0050450
75495 0.0000992 -0.0048247 0.9999008 0.0048247 0.9999008 0.0048247 0.0000992 -0.0048247
78952 0.0000952 -0.0046141 0.9999048 0.0046141 0.9999048 0.0046141 0.0000952 -0.0046141
82567 0.0000915 -0.0044125 0.9999085 0.0044125 0.9999085 0.0044125 0.0000915 -0.0044125
86348 0.0000881 -0.0042198 0.9999119 0.0042198 0.9999119 0.0042198 0.0000881 -0.0042198
90302 0.0000850 -0.0040354 0.9999150 0.0040354 0.9999150 0.0040354 0.0000850 -0.0040354
94437 0.0000820 -0.0038590 0.9999180 0.0038590 0.9999180 0.0038590 0.0000820 -0.0038590
98762 0.0000793 -0.0036903 0.9999207 0.0036903 0.9999207 0.0036903 0.0000793 -0.0036903
103284 0.0000768 -0.0035289 0.9999232 0.0035289 0.9999232 0.0035289 0.0000768 -0.0035289
108014 0.0000744 -0.0033745 0.9999256 0.0033745 0.9999256 0.0033745 0.0000744 -0.0033745
112960 0.0000723 -0.0032269 0.9999277 0.0032269 0.9999277 0.0032269 0.0000723 -0.0032269
118133 0.0000702 -0.0030856 0.9999298 0.0030856 0.9999298 0.0030856 0.0000702 -0.0030856
123542 0.0000683 -0.0029505 0.9999317 0.0029505 0.9999317 0.0029505 0.0000683 -0.0029505
129199 0.0000666 -0.0028213 0.9999334 0.0028213 0.9999334 0.0028213 0.0000666 -0.0028213
135116 0.0000649 -0.0026977 0.9999351 0.0026977 0.9999351 0.0026977 0.0000649 -0.0026977
141303 0.0000633 -0.0025795 0.9999367 0.0025795 0.9999367 0.0025795 0.0000633 -0.0025795
147774 0.0000619 -0.0024664 0.9999381 0.0024664 0.9999381 0.0024664 0.0000619 -0.0024664
154540 0.0000605 -0.0023582 0.9999395 0.0023582 0.9999395 0.0023582 0.0000605 -0.0023582
161617 0.0000592 -0.0022547 0.9999408 0.0022547 0.9999408 0.0022547 0.0000592 -0.0022547
169018 0.0000580 -0.0021556 0.9999420 0.0021556 0.9999420 0.0021556 0.0000580 -0.0021556
176758 0.0000568 -0.0020609 0.9999432 0.0020609 0.9999432 0.0020609 0.0000568 -0.0020609
184852 0.0000557 -0.0019702 0.9999443 0.0019702 0.9999443 0.0019702 0.0000557 -0.0019702
193316 0.0000546 -0.0018835 0.9999454 0.0018835 0.9999454 0.0018835 0.0000546 -0.0018835
202169 0.0000536 -0.0018005 0.9999464 0.0018005 0.9999464 0.0018005 0.0000536 -0.0018005
211427 0.0000526 -0.0017211 0.9999474 0.0017211 0.9999474 0.0017211 0.0000526 -0.0017211
221108 0.0000516 -0.0016451 0.9999484 0.0016451 0.9999484 0.0016451 0.0000516 -0.0016451
231233 0.0000507 -0.0015723 0.9999493 0.0015723 0.9999493 0.0015723 0.0000507 -0.0015723
241822 0.0000499 -0.0015026 0.9999501 0.0015026 0.9999501 0.0015026 0.0000499 -0.0015026
252896 0.0000490 -0.0014360 0.9999510 0.0014360 0.9999510 0.0014360 0.0000490 -0.0014360
264476 0.0000482 -0.0013721 0.9999518 0.0013721 0.9999518 0.0013721 0.0000482 -0.0013721
276587 0.0000474 -0.0013110 0.9999526 0.0013110 0.9999526 0.0013110 0.0000474 -0.0013110
289253 0.0000467 -0.0012524 0.9999533 0.0012524 0.9999533 0.0012524 0.0000467 -0.0012524
302498 0.0000459 -0.0011964 0.9999541 0.0011964 0.9999541 0.0011964 0.0000459 -0.0011964
316350 0.0000452 -0.0011426 0.9999548 0.0011426 0.9999548 0.0011426 0.0000452 -0.0011426
330837 0.0000445 -0.0010911 0.9999555 0.0010911 0.9999555 0.0010911 0.0000445 -0.0010911
345986 0.0000439 -0.0010418 0.9999561 0.0010418 0.9999561 0.0010418 0.0000439 -0.0010418
361830 0.0000433 -0.0009945 0.9999567 0.0009945 0.9999567 0.0009945 0.0000433 -0.0009945
378399 0.0000427 -0.0009492 0.9999573 0.0009492 0.9999573 0.0009492 0.0000427 -0.0009492
395726 0.0000421 -0.0009057 0.9999579 0.0009057 0.9999579 0.0009057 0.0000421 -0.0009057
413847 0.0000416 -0.0008640 0.9999584 0.0008640 0.9999584 0.0008640 0.0000416 -0.0008640
432798 0.0000410 -0.0008240 0.9999590 0.0008240 0.9999590 0.0008240 0.0000410 -0.0008240
452617 0.0000406 -0.0007856 0.9999594 0.0007856 0.9999594 0.0007856 0.0000406 -0.0007856
473344 0.0000401 -0.0007488 0.9999599 0.0007488 0.9999599 0.0007488 0.0000401 -0.0007488
495019 0.0000397 -0.0007134 0.9999603 0.0007134 0.9999603 0.0007134 0.0000397 -0.0007134
517687 0.0000393 -0.0006794 0.9999607 0.0006794 0.9999607 0.0006794 0.0000393 -0.0006794
541393 0.0000389 -0.0006468 0.9999611 0.0006468 0.9999611 0.0006468 0.0000389 -0.0006468
566185 0.0000386 -0.0006154 0.9999614 0.0006154 0.9999614 0.0006154 0.0000386 -0.0006154
592111 0.0000383 -0.0005853 0.9999617 0.0005853 0.9999617 0.0005853 0.0000383 -0.0005853
619225 0.0000380 -0.0005563 0.9999620 0.0005563 0.9999620 0.0005563 0.0000380 -0.0005563
647581 0.0000377 -0.0005283 0.9999623 0.0005283 0.9999623 0.0005283 0.0000377 -0.0005283
677235 0.0000375 -0.0005015 0.9999625 0.0005015 0.9999625 0.0005015 0.0000375 -0.0005015
708247 0.0000373 -0.0004756 0.9999627 0.0004756 0.9999627 0.0004756 0.0000373 -0.0004756
740679 0.0000372 -0.0004506 0.9999628 0.0004506 0.9999628 0.0004506 0.0000372 -0.0004506
774597 0.0000371 -0.0004265 0.9999629 0.0004265 0.9999629 0.0004265 0.0000371 -0.0004265
810067 0.0000370 -0.0004033 0.9999630 0.0004033 0.9999630 0.0004033 0.0000370 -0.0004033
847162 0.0000369 -0.0003809 0.9999631 0.0003809 0.9999631 0.0003809 0.0000369 -0.0003809
885955 0.0000369 -0.0003592 0.9999631 0.0003592 0.9999631 0.0003592 0.0000369 -0.0003592
926525 0.0000369 -0.0003382 0.9999631 0.0003382 0.9999631 0.0003382 0.0000369 -0.0003382
968953 0.0000370 -0.0003179 0.9999630 0.0003179 0.9999630 0.0003179 0.0000370 -0.0003179
1013323 0.0000370 -0.0002982 0.9999630 0.0002982 0.9999630 0.0002982 0.0000370 -0.0002982
1059725 0.0000372 -0.0002791 0.9999628 0.0002791 0.9999628 0.0002791 0.0000372 -0.0002791
1108252 0.0000373 -0.0002606 0.9999627 0.0002606 0.9999627 0.0002606 0.0000373 -0.0002606
1159002 0.0000375 -0.0002425 0.9999625 0.0002425 0.9999625 0.0002425 0.0000375 -0.0002425
1212075 0.0000378 -0.0002250 0.9999622 0.0002250 0.9999622 0.0002250 0.0000378 -0.0002250
1267578 0.0000381 -0.0002078 0.9999619 0.0002078 0.9999619 0.0002078 0.0000381 -0.0002078
1325623 0.0000384 -0.0001911 0.9999616 0.0001911 0.9999616 0.0001911 0.0000384 -0.0001911
1386327 0.0000388 -0.0001748 0.9999612 0.0001748 0.9999612 0.0001748 0.0000388 -0.0001748
1449809 0.0000392 -0.0001587 0.9999608 0.0001587 0.9999608 0.0001587 0.0000392 -0.0001587
1516199 0.0000398 -0.0001430 0.9999602 0.0001430 0.9999602 0.0001430 0.0000398 -0.0001430
1585629 0.0000403 -0.0001276 0.9999597 0.0001276 0.9999597 0.0001276 0.0000403 -0.0001276
1658239 0.0000410 -0.0001123 0.9999590 0.0001123 0.9999590 0.0001123 0.0000410 -0.0001123
1734173 0.0000418 -0.0000973 0.9999582 0.0000973 0.9999582 0.0000973 0.0000418 -0.0000973
1813585 0.0000426 -0.0000824 0.9999574 0.0000824 0.9999574 0.0000824 0.0000426 -0.0000824
1896632 0.0000435 -0.0000677 0.9999565 0.0000677 0.9999565 0.0000677 0.0000435 -0.0000677
1983483 0.0000446 -0.0000530 0.9999554 0.0000530 0.9999554 0.0000530 0.0000446 -0.0000530
2074311 0.0000458 -0.0000384 0.9999542 0.0000384 0.9999542 0.0000384 0.0000458 -0.0000384
