!Murata Part Number: GRM31CR73A682KW03
!These Parameters are Measured in Series Mode Connection
!Data Generated on Mar 30, 2021
!       o--ll--o
!Port1            Port2
!       o------o
!Operation Temp=25[degC], DC Bias Voltage=0[V]
!Freq. Start=100[kHz] Stop=6[GHz] 401[Steps]
# Hz S RI R 50
!Freq.(Hz) S11(Real) S11(Imag) S21(Real) S21(Imag) S12(Real) S12(Imag) S22(Real) S22(Imag)
100000 0.8415607 -0.3591637 0.1584393 0.3591637 0.1584393 0.3591637 0.8415607 -0.3591637
102789 0.8342794 -0.3658206 0.1657206 0.3658206 0.1657206 0.3658206 0.8342794 -0.3658206
105655 0.8267326 -0.3724523 0.1732674 0.3724523 0.1732674 0.3724523 0.8267326 -0.3724523
108602 0.8189164 -0.3790477 0.1810836 0.3790477 0.1810836 0.3790477 0.8189164 -0.3790477
111630 0.8108280 -0.3855949 0.1891720 0.3855949 0.1891720 0.3855949 0.8108280 -0.3855949
114743 0.8024646 -0.3920819 0.1975354 0.3920819 0.1975354 0.3920819 0.8024646 -0.3920819
117943 0.7938244 -0.3984958 0.2061756 0.3984958 0.2061756 0.3984958 0.7938244 -0.3984958
121232 0.7849062 -0.4048236 0.2150938 0.4048236 0.2150938 0.4048236 0.7849062 -0.4048236
124613 0.7757096 -0.4110516 0.2242904 0.4110516 0.2242904 0.4110516 0.7757096 -0.4110516
128088 0.7662349 -0.4171660 0.2337651 0.4171660 0.2337651 0.4171660 0.7662349 -0.4171660
131660 0.7564832 -0.4231523 0.2435168 0.4231523 0.2435168 0.4231523 0.7564832 -0.4231523
135332 0.7464567 -0.4289960 0.2535433 0.4289960 0.2535433 0.4289960 0.7464567 -0.4289960
139106 0.7361585 -0.4346824 0.2638415 0.4346824 0.2638415 0.4346824 0.7361585 -0.4346824
142985 0.7255925 -0.4401964 0.2744075 0.4401964 0.2744075 0.4401964 0.7255925 -0.4401964
146972 0.7147639 -0.4455232 0.2852361 0.4455232 0.2852361 0.4455232 0.7147639 -0.4455232
151071 0.7036787 -0.4506478 0.2963213 0.4506478 0.2963213 0.4506478 0.7036787 -0.4506478
155284 0.6923443 -0.4555551 0.3076557 0.4555551 0.3076557 0.4555551 0.6923443 -0.4555551
159614 0.6807688 -0.4602306 0.3192312 0.4602306 0.3192312 0.4602306 0.6807688 -0.4602306
164065 0.6689617 -0.4646598 0.3310383 0.4646598 0.3310383 0.4646598 0.6689617 -0.4646598
168641 0.6569335 -0.4688286 0.3430665 0.4688286 0.3430665 0.4688286 0.6569335 -0.4688286
173344 0.6446958 -0.4727236 0.3553042 0.4727236 0.3553042 0.4727236 0.6446958 -0.4727236
178178 0.6322613 -0.4763317 0.3677387 0.4763317 0.3677387 0.4763317 0.6322613 -0.4763317
183146 0.6196437 -0.4796405 0.3803563 0.4796405 0.3803563 0.4796405 0.6196437 -0.4796405
188254 0.6068576 -0.4826386 0.3931424 0.4826386 0.3931424 0.4826386 0.6068576 -0.4826386
193504 0.5939187 -0.4853153 0.4060813 0.4853153 0.4060813 0.4853153 0.5939187 -0.4853153
198900 0.5808435 -0.4876608 0.4191565 0.4876608 0.4191565 0.4876608 0.5808435 -0.4876608
204447 0.5676492 -0.4896666 0.4323508 0.4896666 0.4323508 0.4896666 0.5676492 -0.4896666
210148 0.5543539 -0.4913250 0.4456461 0.4913250 0.4456461 0.4913250 0.5543539 -0.4913250
216008 0.5409761 -0.4926296 0.4590239 0.4926296 0.4590239 0.4926296 0.5409761 -0.4926296
222032 0.5275350 -0.4935755 0.4724650 0.4935755 0.4724650 0.4935755 0.5275350 -0.4935755
228224 0.5140500 -0.4941586 0.4859500 0.4941586 0.4859500 0.4941586 0.5140500 -0.4941586
234589 0.5005410 -0.4943767 0.4994590 0.4943767 0.4994590 0.4943767 0.5005410 -0.4943767
241130 0.4870279 -0.4942284 0.5129721 0.4942284 0.5129721 0.4942284 0.4870279 -0.4942284
247855 0.4735308 -0.4937141 0.5264692 0.4937141 0.5264692 0.4937141 0.4735308 -0.4937141
254767 0.4600696 -0.4928353 0.5399304 0.4928353 0.5399304 0.4928353 0.4600696 -0.4928353
261871 0.4466641 -0.4915951 0.5533359 0.4915951 0.5533359 0.4915951 0.4466641 -0.4915951
269174 0.4333337 -0.4899976 0.5666663 0.4899976 0.5666663 0.4899976 0.4333337 -0.4899976
276681 0.4200975 -0.4880485 0.5799025 0.4880485 0.5799025 0.4880485 0.4200975 -0.4880485
284397 0.4069740 -0.4857547 0.5930260 0.4857547 0.5930260 0.4857547 0.4069740 -0.4857547
292328 0.3939811 -0.4831240 0.6060189 0.4831240 0.6060189 0.4831240 0.3939811 -0.4831240
300480 0.3811360 -0.4801658 0.6188640 0.4801658 0.6188640 0.4801658 0.3811360 -0.4801658
308859 0.3684549 -0.4768901 0.6315451 0.4768901 0.6315451 0.4768901 0.3684549 -0.4768901
317472 0.3559534 -0.4733081 0.6440466 0.4733081 0.6440466 0.4733081 0.3559534 -0.4733081
326326 0.3436460 -0.4694318 0.6563540 0.4694318 0.6563540 0.4694318 0.3436460 -0.4694318
335426 0.3315460 -0.4652740 0.6684540 0.4652740 0.6684540 0.4652740 0.3315460 -0.4652740
344780 0.3196661 -0.4608482 0.6803339 0.4608482 0.6803339 0.4608482 0.3196661 -0.4608482
354395 0.3080174 -0.4561682 0.6919826 0.4561682 0.6919826 0.4561682 0.3080174 -0.4561682
364278 0.2966104 -0.4512487 0.7033896 0.4512487 0.7033896 0.4512487 0.2966104 -0.4512487
374436 0.2854539 -0.4461045 0.7145461 0.4461045 0.7145461 0.4461045 0.2854539 -0.4461045
384878 0.2745561 -0.4407507 0.7254439 0.4407507 0.7254439 0.4407507 0.2745561 -0.4407507
395611 0.2639238 -0.4352027 0.7360762 0.4352027 0.7360762 0.4352027 0.2639238 -0.4352027
406644 0.2535627 -0.4294758 0.7464373 0.4294758 0.7464373 0.4294758 0.2535627 -0.4294758
417984 0.2434774 -0.4235854 0.7565226 0.4235854 0.7565226 0.4235854 0.2434774 -0.4235854
429640 0.2336716 -0.4175468 0.7663284 0.4175468 0.7663284 0.4175468 0.2336716 -0.4175468
441622 0.2241479 -0.4113751 0.7758521 0.4113751 0.7758521 0.4113751 0.2241479 -0.4113751
453937 0.2149079 -0.4050852 0.7850921 0.4050852 0.7850921 0.4050852 0.2149079 -0.4050852
466596 0.2059522 -0.3986917 0.7940478 0.3986917 0.7940478 0.3986917 0.2059522 -0.3986917
479608 0.1972807 -0.3922089 0.8027193 0.3922089 0.8027193 0.3922089 0.1972807 -0.3922089
492983 0.1888924 -0.3856505 0.8111076 0.3856505 0.8111076 0.3856505 0.1888924 -0.3856505
506731 0.1807854 -0.3790299 0.8192146 0.3790299 0.8192146 0.3790299 0.1807854 -0.3790299
520862 0.1729574 -0.3723600 0.8270426 0.3723600 0.8270426 0.3723600 0.1729574 -0.3723600
535387 0.1654051 -0.3656531 0.8345949 0.3656531 0.8345949 0.3656531 0.1654051 -0.3656531
550318 0.1581250 -0.3589210 0.8418750 0.3589210 0.8418750 0.3589210 0.1581250 -0.3589210
565664 0.1511126 -0.3521750 0.8488874 0.3521750 0.8488874 0.3521750 0.1511126 -0.3521750
581439 0.1443635 -0.3454257 0.8556365 0.3454257 0.8556365 0.3454257 0.1443635 -0.3454257
597654 0.1378722 -0.3386831 0.8621278 0.3386831 0.8621278 0.3386831 0.1378722 -0.3386831
614320 0.1316335 -0.3319568 0.8683665 0.3319568 0.8683665 0.3319568 0.1316335 -0.3319568
631452 0.1256415 -0.3252555 0.8743585 0.3252555 0.8743585 0.3252555 0.1256415 -0.3252555
649061 0.1198901 -0.3185876 0.8801099 0.3185876 0.8801099 0.3185876 0.1198901 -0.3185876
667162 0.1143730 -0.3119608 0.8856270 0.3119608 0.8856270 0.3119608 0.1143730 -0.3119608
685767 0.1090837 -0.3053823 0.8909163 0.3053823 0.8909163 0.3053823 0.1090837 -0.3053823
704891 0.1040157 -0.2988585 0.8959843 0.2988585 0.8959843 0.2988585 0.1040157 -0.2988585
724548 0.0991623 -0.2923955 0.9008377 0.2923955 0.9008377 0.2923955 0.0991623 -0.2923955
744754 0.0945167 -0.2859988 0.9054833 0.2859988 0.9054833 0.2859988 0.0945167 -0.2859988
765523 0.0900721 -0.2796734 0.9099279 0.2796734 0.9099279 0.2796734 0.0900721 -0.2796734
786871 0.0858218 -0.2734239 0.9141782 0.2734239 0.9141782 0.2734239 0.0858218 -0.2734239
808814 0.0817589 -0.2672542 0.9182411 0.2672542 0.9182411 0.2672542 0.0817589 -0.2672542
831370 0.0778769 -0.2611680 0.9221231 0.2611680 0.9221231 0.2611680 0.0778769 -0.2611680
854554 0.0741690 -0.2551684 0.9258310 0.2551684 0.9258310 0.2551684 0.0741690 -0.2551684
878385 0.0706287 -0.2492582 0.9293713 0.2492582 0.9293713 0.2492582 0.0706287 -0.2492582
902880 0.0672496 -0.2434399 0.9327504 0.2434399 0.9327504 0.2434399 0.0672496 -0.2434399
928059 0.0640254 -0.2377155 0.9359746 0.2377155 0.9359746 0.2377155 0.0640254 -0.2377155
953940 0.0609500 -0.2320867 0.9390500 0.2320867 0.9390500 0.2320867 0.0609500 -0.2320867
980542 0.0580172 -0.2265548 0.9419828 0.2265548 0.9419828 0.2265548 0.0580172 -0.2265548
1007887 0.0552212 -0.2211211 0.9447788 0.2211211 0.9447788 0.2211211 0.0552212 -0.2211211
1035994 0.0525562 -0.2157864 0.9474438 0.2157864 0.9474438 0.2157864 0.0525562 -0.2157864
1064885 0.0500168 -0.2105512 0.9499832 0.2105512 0.9499832 0.2105512 0.0500168 -0.2105512
1094581 0.0475976 -0.2054159 0.9524024 0.2054159 0.9524024 0.2054159 0.0475976 -0.2054159
1125106 0.0452933 -0.2003806 0.9547067 0.2003806 0.9547067 0.2003806 0.0452933 -0.2003806
1156481 0.0430988 -0.1954454 0.9569012 0.1954454 0.9569012 0.1954454 0.0430988 -0.1954454
1188732 0.0410094 -0.1906099 0.9589906 0.1906099 0.9589906 0.1906099 0.0410094 -0.1906099
1221882 0.0390203 -0.1858739 0.9609797 0.1858739 0.9609797 0.1858739 0.0390203 -0.1858739
1255957 0.0371270 -0.1812366 0.9628730 0.1812366 0.9628730 0.1812366 0.0371270 -0.1812366
1290982 0.0353252 -0.1766976 0.9646748 0.1766976 0.9646748 0.1766976 0.0353252 -0.1766976
1326984 0.0336106 -0.1722560 0.9663894 0.1722560 0.9663894 0.1722560 0.0336106 -0.1722560
1363989 0.0319794 -0.1679108 0.9680206 0.1679108 0.9680206 0.1679108 0.0319794 -0.1679108
1402027 0.0304275 -0.1636611 0.9695725 0.1636611 0.9695725 0.1636611 0.0304275 -0.1636611
1441125 0.0289514 -0.1595058 0.9710486 0.1595058 0.9710486 0.1595058 0.0289514 -0.1595058
1481314 0.0275475 -0.1554437 0.9724525 0.1554437 0.9724525 0.1554437 0.0275475 -0.1554437
1522623 0.0262124 -0.1514737 0.9737876 0.1514737 0.9737876 0.1514737 0.0262124 -0.1514737
1565085 0.0249428 -0.1475944 0.9750572 0.1475944 0.9750572 0.1475944 0.0249428 -0.1475944
1608730 0.0237357 -0.1438044 0.9762643 0.1438044 0.9762643 0.1438044 0.0237357 -0.1438044
1653593 0.0225881 -0.1401025 0.9774119 0.1401025 0.9774119 0.1401025 0.0225881 -0.1401025
1699707 0.0214972 -0.1364872 0.9785028 0.1364872 0.9785028 0.1364872 0.0214972 -0.1364872
1747106 0.0204603 -0.1329570 0.9795397 0.1329570 0.9795397 0.1329570 0.0204603 -0.1329570
1795828 0.0194747 -0.1295106 0.9805253 0.1295106 0.9805253 0.1295106 0.0194747 -0.1295106
1845908 0.0185381 -0.1261464 0.9814619 0.1261464 0.9814619 0.1261464 0.0185381 -0.1261464
1897385 0.0176480 -0.1228628 0.9823520 0.1228628 0.9823520 0.1228628 0.0176480 -0.1228628
1950297 0.0168023 -0.1196586 0.9831977 0.1196586 0.9831977 0.1196586 0.0168023 -0.1196586
2004685 0.0159988 -0.1165320 0.9840012 0.1165320 0.9840012 0.1165320 0.0159988 -0.1165320
2060590 0.0152354 -0.1134816 0.9847646 0.1134816 0.9847646 0.1134816 0.0152354 -0.1134816
2118054 0.0145102 -0.1105059 0.9854898 0.1105059 0.9854898 0.1105059 0.0145102 -0.1105059
2177120 0.0138214 -0.1076035 0.9861786 0.1076035 0.9861786 0.1076035 0.0138214 -0.1076035
2237833 0.0131672 -0.1047727 0.9868328 0.1047727 0.9868328 0.1047727 0.0131672 -0.1047727
2300240 0.0125458 -0.1020121 0.9874542 0.1020121 0.9874542 0.1020121 0.0125458 -0.1020121
2364387 0.0119558 -0.0993202 0.9880442 0.0993202 0.9880442 0.0993202 0.0119558 -0.0993202
2430322 0.0113955 -0.0966956 0.9886045 0.0966956 0.9886045 0.0966956 0.0113955 -0.0966956
2498097 0.0108636 -0.0941367 0.9891364 0.0941367 0.9891364 0.0941367 0.0108636 -0.0941367
2567761 0.0103585 -0.0916423 0.9896415 0.0916423 0.9896415 0.0916423 0.0103585 -0.0916423
2639368 0.0098791 -0.0892107 0.9901209 0.0892107 0.9901209 0.0892107 0.0098791 -0.0892107
2712972 0.0094240 -0.0868407 0.9905760 0.0868407 0.9905760 0.0868407 0.0094240 -0.0868407
2788629 0.0089920 -0.0845309 0.9910080 0.0845309 0.9910080 0.0845309 0.0089920 -0.0845309
2866396 0.0085819 -0.0822798 0.9914181 0.0822798 0.9914181 0.0822798 0.0085819 -0.0822798
2946331 0.0081928 -0.0800862 0.9918072 0.0800862 0.9918072 0.0800862 0.0081928 -0.0800862
3028495 0.0078236 -0.0779486 0.9921764 0.0779486 0.9921764 0.0779486 0.0078236 -0.0779486
3112951 0.0074732 -0.0758659 0.9925268 0.0758659 0.9925268 0.0758659 0.0074732 -0.0758659
3199762 0.0071407 -0.0738367 0.9928593 0.0738367 0.9928593 0.0738367 0.0071407 -0.0738367
3288994 0.0068252 -0.0718597 0.9931748 0.0718597 0.9931748 0.0718597 0.0068252 -0.0718597
3380714 0.0065259 -0.0699337 0.9934741 0.0699337 0.9934741 0.0699337 0.0065259 -0.0699337
3474992 0.0062420 -0.0680575 0.9937580 0.0680575 0.9937580 0.0680575 0.0062420 -0.0680575
3571899 0.0059726 -0.0662298 0.9940274 0.0662298 0.9940274 0.0662298 0.0059726 -0.0662298
3671508 0.0057171 -0.0644496 0.9942829 0.0644496 0.9942829 0.0644496 0.0057171 -0.0644496
3773896 0.0054748 -0.0627156 0.9945252 0.0627156 0.9945252 0.0627156 0.0054748 -0.0627156
3879139 0.0052449 -0.0610267 0.9947551 0.0610267 0.9947551 0.0610267 0.0052449 -0.0610267
3987316 0.0050268 -0.0593819 0.9949732 0.0593819 0.9949732 0.0593819 0.0050268 -0.0593819
4098510 0.0048200 -0.0577799 0.9951800 0.0577799 0.9951800 0.0577799 0.0048200 -0.0577799
4212806 0.0046238 -0.0562197 0.9953762 0.0562197 0.9953762 0.0562197 0.0046238 -0.0562197
4330288 0.0044377 -0.0547004 0.9955623 0.0547004 0.9955623 0.0547004 0.0044377 -0.0547004
4451047 0.0042613 -0.0532208 0.9957387 0.0532208 0.9957387 0.0532208 0.0042613 -0.0532208
4575173 0.0040939 -0.0517799 0.9959061 0.0517799 0.9959061 0.0517799 0.0040939 -0.0517799
4702761 0.0039351 -0.0503769 0.9960649 0.0503769 0.9960649 0.0503769 0.0039351 -0.0503769
4833907 0.0037845 -0.0490106 0.9962155 0.0490106 0.9962155 0.0490106 0.0037845 -0.0490106
4968711 0.0036417 -0.0476802 0.9963583 0.0476802 0.9963583 0.0476802 0.0036417 -0.0476802
5107273 0.0035062 -0.0463847 0.9964938 0.0463847 0.9964938 0.0463847 0.0035062 -0.0463847
5249700 0.0033777 -0.0451233 0.9966223 0.0451233 0.9966223 0.0451233 0.0033777 -0.0451233
5396098 0.0032557 -0.0438950 0.9967443 0.0438950 0.9967443 0.0438950 0.0032557 -0.0438950
5546579 0.0031400 -0.0426990 0.9968600 0.0426990 0.9968600 0.0426990 0.0031400 -0.0426990
5701257 0.0030303 -0.0415345 0.9969697 0.0415345 0.9969697 0.0415345 0.0030303 -0.0415345
5860248 0.0029261 -0.0404006 0.9970739 0.0404006 0.9970739 0.0404006 0.0029261 -0.0404006
6023672 0.0028272 -0.0392965 0.9971728 0.0392965 0.9971728 0.0392965 0.0028272 -0.0392965
6191655 0.0027334 -0.0382214 0.9972666 0.0382214 0.9972666 0.0382214 0.0027334 -0.0382214
6364321 0.0026443 -0.0371746 0.9973557 0.0371746 0.9973557 0.0371746 0.0026443 -0.0371746
6541803 0.0025597 -0.0361553 0.9974403 0.0361553 0.9974403 0.0361553 0.0025597 -0.0361553
6724235 0.0024794 -0.0351627 0.9975206 0.0351627 0.9975206 0.0351627 0.0024794 -0.0351627
6911753 0.0024031 -0.0341962 0.9975969 0.0341962 0.9975969 0.0341962 0.0024031 -0.0341962
7104501 0.0023306 -0.0332550 0.9976694 0.0332550 0.9976694 0.0332550 0.0023306 -0.0332550
7302625 0.0022618 -0.0323385 0.9977382 0.0323385 0.9977382 0.0323385 0.0022618 -0.0323385
7506273 0.0021963 -0.0314460 0.9978037 0.0314460 0.9978037 0.0314460 0.0021963 -0.0314460
7715601 0.0021341 -0.0305768 0.9978659 0.0305768 0.9978659 0.0305768 0.0021341 -0.0305768
7930766 0.0020749 -0.0297303 0.9979251 0.0297303 0.9979251 0.0297303 0.0020749 -0.0297303
8151931 0.0020187 -0.0289059 0.9979813 0.0289059 0.9979813 0.0289059 0.0020187 -0.0289059
8379264 0.0019651 -0.0281029 0.9980349 0.0281029 0.9980349 0.0281029 0.0019651 -0.0281029
8612937 0.0019141 -0.0273209 0.9980859 0.0273209 0.9980859 0.0273209 0.0019141 -0.0273209
8853126 0.0018656 -0.0265591 0.9981344 0.0265591 0.9981344 0.0265591 0.0018656 -0.0265591
9100013 0.0018194 -0.0258170 0.9981806 0.0258170 0.9981806 0.0258170 0.0018194 -0.0258170
9353785 0.0017754 -0.0250941 0.9982246 0.0250941 0.9982246 0.0250941 0.0017754 -0.0250941
9614634 0.0017334 -0.0243898 0.9982666 0.0243898 0.9982666 0.0243898 0.0017334 -0.0243898
9882758 0.0016934 -0.0237037 0.9983066 0.0237037 0.9983066 0.0237037 0.0016934 -0.0237037
10158358 0.0016553 -0.0230351 0.9983447 0.0230351 0.9983447 0.0230351 0.0016553 -0.0230351
10441645 0.0016189 -0.0223836 0.9983811 0.0223836 0.9983811 0.0223836 0.0016189 -0.0223836
10732831 0.0015841 -0.0217488 0.9984159 0.0217488 0.9984159 0.0217488 0.0015841 -0.0217488
11032137 0.0015509 -0.0211300 0.9984491 0.0211300 0.9984491 0.0211300 0.0015509 -0.0211300
11339791 0.0015193 -0.0205269 0.9984807 0.0205269 0.9984807 0.0205269 0.0015193 -0.0205269
11656024 0.0014890 -0.0199390 0.9985110 0.0199390 0.9985110 0.0199390 0.0014890 -0.0199390
11981075 0.0014600 -0.0193659 0.9985400 0.0193659 0.9985400 0.0193659 0.0014600 -0.0193659
12315192 0.0014324 -0.0188071 0.9985676 0.0188071 0.9985676 0.0188071 0.0014324 -0.0188071
12658625 0.0014059 -0.0182622 0.9985941 0.0182622 0.9985941 0.0182622 0.0014059 -0.0182622
13011637 0.0013806 -0.0177308 0.9986194 0.0177308 0.9986194 0.0177308 0.0013806 -0.0177308
13374492 0.0013564 -0.0172125 0.9986436 0.0172125 0.9986436 0.0172125 0.0013564 -0.0172125
13747467 0.0013332 -0.0167070 0.9986668 0.0167070 0.9986668 0.0167070 0.0013332 -0.0167070
14130843 0.0013110 -0.0162137 0.9986890 0.0162137 0.9986890 0.0162137 0.0013110 -0.0162137
14524910 0.0012897 -0.0157324 0.9987103 0.0157324 0.9987103 0.0157324 0.0012897 -0.0157324
14929966 0.0012694 -0.0152627 0.9987306 0.0152627 0.9987306 0.0152627 0.0012694 -0.0152627
15346318 0.0012499 -0.0148042 0.9987501 0.0148042 0.9987501 0.0148042 0.0012499 -0.0148042
15774281 0.0012312 -0.0143566 0.9987688 0.0143566 0.9987688 0.0143566 0.0012312 -0.0143566
16214179 0.0012134 -0.0139196 0.9987866 0.0139196 0.9987866 0.0139196 0.0012134 -0.0139196
16666344 0.0011963 -0.0134928 0.9988037 0.0134928 0.9988037 0.0134928 0.0011963 -0.0134928
17131118 0.0011799 -0.0130760 0.9988201 0.0130760 0.9988201 0.0130760 0.0011799 -0.0130760
17608854 0.0011642 -0.0126687 0.9988358 0.0126687 0.9988358 0.0126687 0.0011642 -0.0126687
18099912 0.0011492 -0.0122707 0.9988508 0.0122707 0.9988508 0.0122707 0.0011492 -0.0122707
18604665 0.0011349 -0.0118817 0.9988651 0.0118817 0.9988651 0.0118817 0.0011349 -0.0118817
19123493 0.0011212 -0.0115015 0.9988788 0.0115015 0.9988788 0.0115015 0.0011212 -0.0115015
19656790 0.0011081 -0.0111297 0.9988919 0.0111297 0.9988919 0.0111297 0.0011081 -0.0111297
20204959 0.0010956 -0.0107660 0.9989044 0.0107660 0.9989044 0.0107660 0.0010956 -0.0107660
20768415 0.0010836 -0.0104102 0.9989164 0.0104102 0.9989164 0.0104102 0.0010836 -0.0104102
21347584 0.0010722 -0.0100620 0.9989278 0.0100620 0.9989278 0.0100620 0.0010722 -0.0100620
21942904 0.0010614 -0.0097212 0.9989386 0.0097212 0.9989386 0.0097212 0.0010614 -0.0097212
22554827 0.0010511 -0.0093875 0.9989489 0.0093875 0.9989489 0.0093875 0.0010511 -0.0093875
23183813 0.0010413 -0.0090607 0.9989587 0.0090607 0.9989587 0.0090607 0.0010413 -0.0090607
23830340 0.0010320 -0.0087405 0.9989680 0.0087405 0.9989680 0.0087405 0.0010320 -0.0087405
24494897 0.0010232 -0.0084267 0.9989768 0.0084267 0.9989768 0.0084267 0.0010232 -0.0084267
25177987 0.0010149 -0.0081191 0.9989851 0.0081191 0.9989851 0.0081191 0.0010149 -0.0081191
25880126 0.0010070 -0.0078174 0.9989930 0.0078174 0.9989930 0.0078174 0.0010070 -0.0078174
26601845 0.0009996 -0.0075215 0.9990004 0.0075215 0.9990004 0.0075215 0.0009996 -0.0075215
27343691 0.0009927 -0.0072310 0.9990073 0.0072310 0.9990073 0.0072310 0.0009927 -0.0072310
28106225 0.0009862 -0.0069459 0.9990138 0.0069459 0.9990138 0.0069459 0.0009862 -0.0069459
28890023 0.0009801 -0.0066658 0.9990199 0.0066658 0.9990199 0.0066658 0.0009801 -0.0066658
29695680 0.0009745 -0.0063907 0.9990255 0.0063907 0.9990255 0.0063907 0.0009745 -0.0063907
30523804 0.0009692 -0.0061202 0.9990308 0.0061202 0.9990308 0.0061202 0.0009692 -0.0061202
31375021 0.0009644 -0.0058542 0.9990356 0.0058542 0.9990356 0.0058542 0.0009644 -0.0058542
32249977 0.0009600 -0.0055925 0.9990400 0.0055925 0.9990400 0.0055925 0.0009600 -0.0055925
33149332 0.0009560 -0.0053349 0.9990440 0.0053349 0.9990440 0.0053349 0.0009560 -0.0053349
34073768 0.0009524 -0.0050812 0.9990476 0.0050812 0.9990476 0.0050812 0.0009524 -0.0050812
35023984 0.0009492 -0.0048312 0.9990508 0.0048312 0.9990508 0.0048312 0.0009492 -0.0048312
36000698 0.0009464 -0.0045848 0.9990536 0.0045848 0.9990536 0.0045848 0.0009464 -0.0045848
37004650 0.0009440 -0.0043418 0.9990560 0.0043418 0.9990560 0.0043418 0.0009440 -0.0043418
38036599 0.0009420 -0.0041020 0.9990580 0.0041020 0.9990580 0.0041020 0.0009420 -0.0041020
39097326 0.0009404 -0.0038652 0.9990596 0.0038652 0.9990596 0.0038652 0.0009404 -0.0038652
