!Murata Part Number: GRM31CR61E335KA88
!These Parameters are Measured in Series Mode Connection
!Data Generated on Mar 30, 2021
!       o--ll--o
!Port1            Port2
!       o------o
!Operation Temp=25[degC], DC Bias Voltage=0[V]
!Freq. Start=100[Hz] Stop=6[GHz] 401[Steps]
# Hz S RI R 50
!Freq.(Hz) S11(Real) S11(Imag) S21(Real) S21(Imag) S12(Real) S12(Imag) S22(Real) S22(Imag)
100 0.9607682 -0.1924200 0.0392318 0.1924200 0.0392318 0.1924200 0.9607682 -0.1924200
105 0.9572846 -0.2004760 0.0427154 0.2004760 0.0427154 0.2004760 0.9572846 -0.2004760
109 0.9535056 -0.2088012 0.0464944 0.2088012 0.0464944 0.2088012 0.9535056 -0.2088012
114 0.9494088 -0.2173951 0.0505912 0.2173951 0.0505912 0.2173951 0.9494088 -0.2173951
120 0.9449708 -0.2262560 0.0550292 0.2262560 0.0550292 0.2262560 0.9449708 -0.2262560
125 0.9401671 -0.2353804 0.0598329 0.2353804 0.0598329 0.2353804 0.9401671 -0.2353804
131 0.9349720 -0.2447627 0.0650280 0.2447627 0.0650280 0.2447627 0.9349720 -0.2447627
137 0.9293588 -0.2543956 0.0706412 0.2543956 0.0706412 0.2543956 0.9293588 -0.2543956
143 0.9233001 -0.2642691 0.0766999 0.2642691 0.0766999 0.2642691 0.9233001 -0.2642691
150 0.9167675 -0.2743709 0.0832325 0.2743709 0.0832325 0.2743709 0.9167675 -0.2743709
156 0.9097322 -0.2846855 0.0902678 0.2846855 0.0902678 0.2846855 0.9097322 -0.2846855
164 0.9021651 -0.2951947 0.0978349 0.2951947 0.0978349 0.2951947 0.9021651 -0.2951947
171 0.8940370 -0.3058768 0.1059630 0.3058768 0.1059630 0.3058768 0.8940370 -0.3058768
179 0.8853189 -0.3167065 0.1146811 0.3167065 0.1146811 0.3167065 0.8853189 -0.3167065
187 0.8759825 -0.3276547 0.1240175 0.3276547 0.1240175 0.3276547 0.8759825 -0.3276547
196 0.8660005 -0.3386887 0.1339995 0.3386887 0.1339995 0.3386887 0.8660005 -0.3386887
205 0.8553473 -0.3497715 0.1446527 0.3497715 0.1446527 0.3497715 0.8553473 -0.3497715
214 0.8439992 -0.3608618 0.1560008 0.3608618 0.1560008 0.3608618 0.8439992 -0.3608618
224 0.8319352 -0.3719146 0.1680648 0.3719146 0.1680648 0.3719146 0.8319352 -0.3719146
234 0.8191376 -0.3828804 0.1808624 0.3828804 0.1808624 0.3828804 0.8191376 -0.3828804
245 0.8055926 -0.3937060 0.1944074 0.3937060 0.1944074 0.3937060 0.8055926 -0.3937060
256 0.7912910 -0.4043346 0.2087090 0.4043346 0.2087090 0.4043346 0.7912910 -0.4043346
268 0.7762288 -0.4147059 0.2237712 0.4147059 0.2237712 0.4147059 0.7762288 -0.4147059
280 0.7604079 -0.4247570 0.2395921 0.4247570 0.2395921 0.4247570 0.7604079 -0.4247570
293 0.7438367 -0.4344228 0.2561633 0.4344228 0.2561633 0.4344228 0.7438367 -0.4344228
306 0.7265308 -0.4436367 0.2734692 0.4436367 0.2734692 0.4436367 0.7265308 -0.4436367
320 0.7085130 -0.4523319 0.2914870 0.4523319 0.2914870 0.4523319 0.7085130 -0.4523319
335 0.6898142 -0.4604415 0.3101858 0.4604415 0.3101858 0.4604415 0.6898142 -0.4604415
350 0.6704731 -0.4679007 0.3295269 0.4679007 0.3295269 0.4679007 0.6704731 -0.4679007
366 0.6505365 -0.4746468 0.3494635 0.4746468 0.3494635 0.4746468 0.6505365 -0.4746468
383 0.6300588 -0.4806212 0.3699412 0.4806212 0.3699412 0.4806212 0.6300588 -0.4806212
401 0.6091022 -0.4857703 0.3908978 0.4857703 0.3908978 0.4857703 0.6091022 -0.4857703
419 0.5877354 -0.4900466 0.4122646 0.4900466 0.4122646 0.4900466 0.5877354 -0.4900466
438 0.5660333 -0.4934094 0.4339667 0.4934094 0.4339667 0.4934094 0.5660333 -0.4934094
458 0.5440759 -0.4958265 0.4559241 0.4958265 0.4559241 0.4958265 0.5440759 -0.4958265
479 0.5219472 -0.4972742 0.4780528 0.4972742 0.4780528 0.4972742 0.5219472 -0.4972742
501 0.4997338 -0.4977383 0.5002662 0.4977383 0.5002662 0.4977383 0.4997338 -0.4977383
524 0.4775236 -0.4972144 0.5224764 0.4972144 0.5224764 0.4972144 0.4775236 -0.4972144
548 0.4554045 -0.4957077 0.5445955 0.4957077 0.5445955 0.4957077 0.4554045 -0.4957077
573 0.4334631 -0.4932331 0.5665369 0.4932331 0.5665369 0.4932331 0.4334631 -0.4932331
600 0.4117830 -0.4898152 0.5882170 0.4898152 0.5882170 0.4898152 0.4117830 -0.4898152
627 0.3904438 -0.4854869 0.6095562 0.4854869 0.6095562 0.4854869 0.3904438 -0.4854869
656 0.3695200 -0.4802894 0.6304800 0.4802894 0.6304800 0.4802894 0.3695200 -0.4802894
686 0.3490798 -0.4742707 0.6509202 0.4742707 0.6509202 0.4742707 0.3490798 -0.4742707
717 0.3291846 -0.4674851 0.6708154 0.4674851 0.6708154 0.4674851 0.3291846 -0.4674851
750 0.3098883 -0.4599916 0.6901117 0.4599916 0.6901117 0.4599916 0.3098883 -0.4599916
784 0.2912370 -0.4518529 0.7087630 0.4518529 0.7087630 0.4518529 0.2912370 -0.4518529
820 0.2732688 -0.4431343 0.7267312 0.4431343 0.7267312 0.4431343 0.2732688 -0.4431343
858 0.2560136 -0.4339025 0.7439864 0.4339025 0.7439864 0.4339025 0.2560136 -0.4339025
897 0.2394937 -0.4242245 0.7605063 0.4242245 0.7605063 0.4242245 0.2394937 -0.4242245
938 0.2237240 -0.4141667 0.7762760 0.4141667 0.7762760 0.4141667 0.2237240 -0.4141667
981 0.2087121 -0.4037940 0.7912879 0.4037940 0.7912879 0.4037940 0.2087121 -0.4037940
1026 0.1944595 -0.3931692 0.8055405 0.3931692 0.8055405 0.3931692 0.1944595 -0.3931692
1073 0.1809615 -0.3823519 0.8190385 0.3823519 0.8190385 0.3823519 0.1809615 -0.3823519
1122 0.1682086 -0.3713988 0.8317914 0.3713988 0.8317914 0.3713988 0.1682086 -0.3713988
1174 0.1561865 -0.3603626 0.8438135 0.3603626 0.8438135 0.3603626 0.1561865 -0.3603626
1227 0.1448771 -0.3492922 0.8551229 0.3492922 0.8551229 0.3492922 0.1448771 -0.3492922
1283 0.1342592 -0.3382323 0.8657408 0.3382323 0.8657408 0.3382323 0.1342592 -0.3382323
1342 0.1243089 -0.3272235 0.8756911 0.3272235 0.8756911 0.3272235 0.1243089 -0.3272235
1404 0.1150006 -0.3163022 0.8849994 0.3163022 0.8849994 0.3163022 0.1150006 -0.3163022
1468 0.1063068 -0.3055008 0.8936932 0.3055008 0.8936932 0.3055008 0.1063068 -0.3055008
1535 0.0981994 -0.2948480 0.9018006 0.2948480 0.9018006 0.2948480 0.0981994 -0.2948480
1606 0.0906494 -0.2843684 0.9093506 0.2843684 0.9093506 0.2843684 0.0906494 -0.2843684
1679 0.0836279 -0.2740833 0.9163721 0.2740833 0.9163721 0.2740833 0.0836279 -0.2740833
1756 0.0771058 -0.2640108 0.9228942 0.2640108 0.9228942 0.2640108 0.0771058 -0.2640108
1836 0.0710545 -0.2541658 0.9289455 0.2541658 0.9289455 0.2541658 0.0710545 -0.2541658
1920 0.0654461 -0.2445606 0.9345539 0.2445606 0.9345539 0.2445606 0.0654461 -0.2445606
2008 0.0602533 -0.2352046 0.9397467 0.2352046 0.9397467 0.2352046 0.0602533 -0.2352046
2100 0.0554496 -0.2261054 0.9445504 0.2261054 0.9445504 0.2261054 0.0554496 -0.2261054
2196 0.0510098 -0.2172680 0.9489902 0.2172680 0.9489902 0.2172680 0.0510098 -0.2172680
2297 0.0469094 -0.2086961 0.9530906 0.2086961 0.9530906 0.2086961 0.0469094 -0.2086961
2402 0.0431254 -0.2003913 0.9568746 0.2003913 0.9568746 0.2003913 0.0431254 -0.2003913
2512 0.0396358 -0.1923540 0.9603642 0.1923540 0.9603642 0.1923540 0.0396358 -0.1923540
2627 0.0364195 -0.1845833 0.9635805 0.1845833 0.9635805 0.1845833 0.0364195 -0.1845833
2748 0.0334570 -0.1770772 0.9665430 0.1770772 0.9665430 0.1770772 0.0334570 -0.1770772
2873 0.0307297 -0.1698328 0.9692703 0.1698328 0.9692703 0.1698328 0.0307297 -0.1698328
3005 0.0282202 -0.1628463 0.9717798 0.1628463 0.9717798 0.1628463 0.0282202 -0.1628463
3143 0.0259121 -0.1561133 0.9740879 0.1561133 0.9740879 0.1561133 0.0259121 -0.1561133
3287 0.0237901 -0.1496288 0.9762099 0.1496288 0.9762099 0.1496288 0.0237901 -0.1496288
3437 0.0218400 -0.1433873 0.9781600 0.1433873 0.9781600 0.1433873 0.0218400 -0.1433873
3594 0.0200484 -0.1373831 0.9799516 0.1373831 0.9799516 0.1373831 0.0200484 -0.1373831
3759 0.0184030 -0.1316100 0.9815970 0.1316100 0.9815970 0.1316100 0.0184030 -0.1316100
3931 0.0168923 -0.1260618 0.9831077 0.1260618 0.9831077 0.1260618 0.0168923 -0.1260618
4111 0.0155056 -0.1207318 0.9844944 0.1207318 0.9844944 0.1207318 0.0155056 -0.1207318
4299 0.0142329 -0.1156135 0.9857671 0.1156135 0.9857671 0.1156135 0.0142329 -0.1156135
4496 0.0130652 -0.1107003 0.9869348 0.1107003 0.9869348 0.1107003 0.0130652 -0.1107003
4702 0.0119939 -0.1059855 0.9880061 0.1059855 0.9880061 0.1059855 0.0119939 -0.1059855
4918 0.0110112 -0.1014623 0.9889888 0.1014623 0.9889888 0.1014623 0.0110112 -0.1014623
5143 0.0101098 -0.0971243 0.9898902 0.0971243 0.9898902 0.0971243 0.0101098 -0.0971243
5378 0.0092832 -0.0929648 0.9907168 0.0929648 0.9907168 0.0929648 0.0092832 -0.0929648
5625 0.0085251 -0.0889774 0.9914749 0.0889774 0.9914749 0.0889774 0.0085251 -0.0889774
5882 0.0078298 -0.0851558 0.9921702 0.0851558 0.9921702 0.0851558 0.0078298 -0.0851558
6151 0.0071922 -0.0814938 0.9928078 0.0814938 0.9928078 0.0814938 0.0071922 -0.0814938
6433 0.0066075 -0.0779853 0.9933925 0.0779853 0.9933925 0.0779853 0.0066075 -0.0779853
6728 0.0060713 -0.0746244 0.9939287 0.0746244 0.9939287 0.0746244 0.0060713 -0.0746244
7036 0.0055795 -0.0714053 0.9944205 0.0714053 0.9944205 0.0714053 0.0055795 -0.0714053
7358 0.0051283 -0.0683224 0.9948717 0.0683224 0.9948717 0.0683224 0.0051283 -0.0683224
7695 0.0047145 -0.0653703 0.9952855 0.0653703 0.9952855 0.0653703 0.0047145 -0.0653703
8047 0.0043349 -0.0625438 0.9956651 0.0625438 0.9956651 0.0625438 0.0043349 -0.0625438
8416 0.0039866 -0.0598376 0.9960134 0.0598376 0.9960134 0.0598376 0.0039866 -0.0598376
8801 0.0036669 -0.0572470 0.9963331 0.0572470 0.9963331 0.0572470 0.0036669 -0.0572470
9204 0.0033736 -0.0547672 0.9966264 0.0547672 0.9966264 0.0547672 0.0033736 -0.0547672
9626 0.0031044 -0.0523935 0.9968956 0.0523935 0.9968956 0.0523935 0.0031044 -0.0523935
10066 0.0028572 -0.0501216 0.9971428 0.0501216 0.9971428 0.0501216 0.0028572 -0.0501216
10527 0.0026304 -0.0479473 0.9973696 0.0479473 0.9973696 0.0479473 0.0026304 -0.0479473
11009 0.0024221 -0.0458663 0.9975779 0.0458663 0.9975779 0.0458663 0.0024221 -0.0458663
11514 0.0022308 -0.0438749 0.9977692 0.0438749 0.9977692 0.0438749 0.0022308 -0.0438749
12041 0.0020552 -0.0419691 0.9979448 0.0419691 0.9979448 0.0419691 0.0020552 -0.0419691
12592 0.0018939 -0.0401455 0.9981061 0.0401455 0.9981061 0.0401455 0.0018939 -0.0401455
13169 0.0017458 -0.0384005 0.9982542 0.0384005 0.9982542 0.0384005 0.0017458 -0.0384005
13772 0.0016097 -0.0367308 0.9983903 0.0367308 0.9983903 0.0367308 0.0016097 -0.0367308
14402 0.0014848 -0.0351332 0.9985152 0.0351332 0.9985152 0.0351332 0.0014848 -0.0351332
15062 0.0013701 -0.0336046 0.9986299 0.0336046 0.9986299 0.0336046 0.0013701 -0.0336046
15752 0.0012647 -0.0321421 0.9987353 0.0321421 0.9987353 0.0321421 0.0012647 -0.0321421
16473 0.0011680 -0.0307428 0.9988320 0.0307428 0.9988320 0.0307428 0.0011680 -0.0307428
17227 0.0010791 -0.0294041 0.9989209 0.0294041 0.9989209 0.0294041 0.0010791 -0.0294041
18016 0.0009975 -0.0281234 0.9990025 0.0281234 0.9990025 0.0281234 0.0009975 -0.0281234
18841 0.0009226 -0.0268981 0.9990774 0.0268981 0.9990774 0.0268981 0.0009226 -0.0268981
19704 0.0008538 -0.0257260 0.9991462 0.0257260 0.9991462 0.0257260 0.0008538 -0.0257260
20606 0.0007907 -0.0246047 0.9992093 0.0246047 0.9992093 0.0246047 0.0007907 -0.0246047
21550 0.0007327 -0.0235321 0.9992673 0.0235321 0.9992673 0.0235321 0.0007327 -0.0235321
22537 0.0006795 -0.0225061 0.9993205 0.0225061 0.9993205 0.0225061 0.0006795 -0.0225061
23569 0.0006307 -0.0215246 0.9993693 0.0215246 0.9993693 0.0215246 0.0006307 -0.0215246
24648 0.0005859 -0.0205858 0.9994141 0.0205858 0.9994141 0.0205858 0.0005859 -0.0205858
25777 0.0005447 -0.0196879 0.9994553 0.0196879 0.9994553 0.0196879 0.0005447 -0.0196879
26957 0.0005070 -0.0188290 0.9994930 0.0188290 0.9994930 0.0188290 0.0005070 -0.0188290
28191 0.0004723 -0.0180075 0.9995277 0.0180075 0.9995277 0.0180075 0.0004723 -0.0180075
29482 0.0004405 -0.0172218 0.9995595 0.0172218 0.9995595 0.0172218 0.0004405 -0.0172218
30832 0.0004113 -0.0164704 0.9995887 0.0164704 0.9995887 0.0164704 0.0004113 -0.0164704
32244 0.0003844 -0.0157516 0.9996156 0.0157516 0.9996156 0.0157516 0.0003844 -0.0157516
33721 0.0003598 -0.0150643 0.9996402 0.0150643 0.9996402 0.0150643 0.0003598 -0.0150643
35265 0.0003371 -0.0144069 0.9996629 0.0144069 0.9996629 0.0144069 0.0003371 -0.0144069
36880 0.0003163 -0.0137782 0.9996837 0.0137782 0.9996837 0.0137782 0.0003163 -0.0137782
38569 0.0002972 -0.0131770 0.9997028 0.0131770 0.9997028 0.0131770 0.0002972 -0.0131770
40335 0.0002796 -0.0126020 0.9997204 0.0126020 0.9997204 0.0126020 0.0002796 -0.0126020
42182 0.0002634 -0.0120521 0.9997366 0.0120521 0.9997366 0.0120521 0.0002634 -0.0120521
44113 0.0002485 -0.0115262 0.9997515 0.0115262 0.9997515 0.0115262 0.0002485 -0.0115262
46134 0.0002347 -0.0110233 0.9997653 0.0110233 0.9997653 0.0110233 0.0002347 -0.0110233
48246 0.0002220 -0.0105424 0.9997780 0.0105424 0.9997780 0.0105424 0.0002220 -0.0105424
50455 0.0002103 -0.0100825 0.9997897 0.0100825 0.9997897 0.0100825 0.0002103 -0.0100825
52766 0.0001994 -0.0096427 0.9998006 0.0096427 0.9998006 0.0096427 0.0001994 -0.0096427
55182 0.0001894 -0.0092222 0.9998106 0.0092222 0.9998106 0.0092222 0.0001894 -0.0092222
57709 0.0001801 -0.0088200 0.9998199 0.0088200 0.9998199 0.0088200 0.0001801 -0.0088200
60352 0.0001715 -0.0084353 0.9998285 0.0084353 0.9998285 0.0084353 0.0001715 -0.0084353
63115 0.0001634 -0.0080675 0.9998366 0.0080675 0.9998366 0.0080675 0.0001634 -0.0080675
66005 0.0001560 -0.0077157 0.9998440 0.0077157 0.9998440 0.0077157 0.0001560 -0.0077157
69028 0.0001490 -0.0073793 0.9998510 0.0073793 0.9998510 0.0073793 0.0001490 -0.0073793
72189 0.0001425 -0.0070576 0.9998575 0.0070576 0.9998575 0.0070576 0.0001425 -0.0070576
75495 0.0001364 -0.0067499 0.9998636 0.0067499 0.9998636 0.0067499 0.0001364 -0.0067499
78952 0.0001307 -0.0064556 0.9998693 0.0064556 0.9998693 0.0064556 0.0001307 -0.0064556
82567 0.0001253 -0.0061741 0.9998747 0.0061741 0.9998747 0.0061741 0.0001253 -0.0061741
86348 0.0001203 -0.0059049 0.9998797 0.0059049 0.9998797 0.0059049 0.0001203 -0.0059049
90302 0.0001155 -0.0056474 0.9998845 0.0056474 0.9998845 0.0056474 0.0001155 -0.0056474
94437 0.0001111 -0.0054011 0.9998889 0.0054011 0.9998889 0.0054011 0.0001111 -0.0054011
98762 0.0001069 -0.0051655 0.9998931 0.0051655 0.9998931 0.0051655 0.0001069 -0.0051655
103284 0.0001029 -0.0049401 0.9998971 0.0049401 0.9998971 0.0049401 0.0001029 -0.0049401
108014 0.0000991 -0.0047246 0.9999009 0.0047246 0.9999009 0.0047246 0.0000991 -0.0047246
112960 0.0000956 -0.0045183 0.9999044 0.0045183 0.9999044 0.0045183 0.0000956 -0.0045183
118133 0.0000922 -0.0043210 0.9999078 0.0043210 0.9999078 0.0043210 0.0000922 -0.0043210
123542 0.0000891 -0.0041322 0.9999109 0.0041322 0.9999109 0.0041322 0.0000891 -0.0041322
129199 0.0000861 -0.0039516 0.9999139 0.0039516 0.9999139 0.0039516 0.0000861 -0.0039516
135116 0.0000832 -0.0037788 0.9999168 0.0037788 0.9999168 0.0037788 0.0000832 -0.0037788
141303 0.0000805 -0.0036135 0.9999195 0.0036135 0.9999195 0.0036135 0.0000805 -0.0036135
147774 0.0000780 -0.0034553 0.9999220 0.0034553 0.9999220 0.0034553 0.0000780 -0.0034553
154540 0.0000756 -0.0033039 0.9999244 0.0033039 0.9999244 0.0033039 0.0000756 -0.0033039
161617 0.0000734 -0.0031590 0.9999266 0.0031590 0.9999266 0.0031590 0.0000734 -0.0031590
169018 0.0000713 -0.0030204 0.9999287 0.0030204 0.9999287 0.0030204 0.0000713 -0.0030204
176758 0.0000693 -0.0028877 0.9999307 0.0028877 0.9999307 0.0028877 0.0000693 -0.0028877
184852 0.0000674 -0.0027608 0.9999326 0.0027608 0.9999326 0.0027608 0.0000674 -0.0027608
193316 0.0000657 -0.0026392 0.9999343 0.0026392 0.9999343 0.0026392 0.0000657 -0.0026392
202169 0.0000641 -0.0025230 0.9999359 0.0025230 0.9999359 0.0025230 0.0000641 -0.0025230
211427 0.0000625 -0.0024117 0.9999375 0.0024117 0.9999375 0.0024117 0.0000625 -0.0024117
221108 0.0000611 -0.0023051 0.9999389 0.0023051 0.9999389 0.0023051 0.0000611 -0.0023051
231233 0.0000598 -0.0022032 0.9999402 0.0022032 0.9999402 0.0022032 0.0000598 -0.0022032
241822 0.0000585 -0.0021055 0.9999415 0.0021055 0.9999415 0.0021055 0.0000585 -0.0021055
252896 0.0000574 -0.0020121 0.9999426 0.0020121 0.9999426 0.0020121 0.0000574 -0.0020121
264476 0.0000563 -0.0019227 0.9999437 0.0019227 0.9999437 0.0019227 0.0000563 -0.0019227
276587 0.0000553 -0.0018370 0.9999447 0.0018370 0.9999447 0.0018370 0.0000553 -0.0018370
289253 0.0000544 -0.0017550 0.9999456 0.0017550 0.9999456 0.0017550 0.0000544 -0.0017550
302498 0.0000536 -0.0016765 0.9999464 0.0016765 0.9999464 0.0016765 0.0000536 -0.0016765
316350 0.0000528 -0.0016014 0.9999472 0.0016014 0.9999472 0.0016014 0.0000528 -0.0016014
330837 0.0000521 -0.0015294 0.9999479 0.0015294 0.9999479 0.0015294 0.0000521 -0.0015294
345986 0.0000514 -0.0014604 0.9999486 0.0014604 0.9999486 0.0014604 0.0000514 -0.0014604
361830 0.0000508 -0.0013944 0.9999492 0.0013944 0.9999492 0.0013944 0.0000508 -0.0013944
378399 0.0000502 -0.0013311 0.9999498 0.0013311 0.9999498 0.0013311 0.0000502 -0.0013311
395726 0.0000497 -0.0012705 0.9999503 0.0012705 0.9999503 0.0012705 0.0000497 -0.0012705
413847 0.0000493 -0.0012124 0.9999507 0.0012124 0.9999507 0.0012124 0.0000493 -0.0012124
432798 0.0000488 -0.0011567 0.9999512 0.0011567 0.9999512 0.0011567 0.0000488 -0.0011567
452617 0.0000485 -0.0011034 0.9999515 0.0011034 0.9999515 0.0011034 0.0000485 -0.0011034
473344 0.0000481 -0.0010522 0.9999519 0.0010522 0.9999519 0.0010522 0.0000481 -0.0010522
495019 0.0000478 -0.0010031 0.9999522 0.0010031 0.9999522 0.0010031 0.0000478 -0.0010031
517687 0.0000476 -0.0009561 0.9999524 0.0009561 0.9999524 0.0009561 0.0000476 -0.0009561
541393 0.0000473 -0.0009109 0.9999527 0.0009109 0.9999527 0.0009109 0.0000473 -0.0009109
566185 0.0000471 -0.0008676 0.9999529 0.0008676 0.9999529 0.0008676 0.0000471 -0.0008676
592111 0.0000469 -0.0008260 0.9999531 0.0008260 0.9999531 0.0008260 0.0000469 -0.0008260
619225 0.0000468 -0.0007861 0.9999532 0.0007861 0.9999532 0.0007861 0.0000468 -0.0007861
647581 0.0000467 -0.0007477 0.9999533 0.0007477 0.9999533 0.0007477 0.0000467 -0.0007477
677235 0.0000466 -0.0007108 0.9999534 0.0007108 0.9999534 0.0007108 0.0000466 -0.0007108
708247 0.0000465 -0.0006754 0.9999535 0.0006754 0.9999535 0.0006754 0.0000465 -0.0006754
740679 0.0000464 -0.0006413 0.9999536 0.0006413 0.9999536 0.0006413 0.0000464 -0.0006413
774597 0.0000464 -0.0006085 0.9999536 0.0006085 0.9999536 0.0006085 0.0000464 -0.0006085
810067 0.0000464 -0.0005769 0.9999536 0.0005769 0.9999536 0.0005769 0.0000464 -0.0005769
847162 0.0000465 -0.0005464 0.9999535 0.0005464 0.9999535 0.0005464 0.0000465 -0.0005464
885955 0.0000465 -0.0005171 0.9999535 0.0005171 0.9999535 0.0005171 0.0000465 -0.0005171
926525 0.0000466 -0.0004887 0.9999534 0.0004887 0.9999534 0.0004887 0.0000466 -0.0004887
968953 0.0000467 -0.0004614 0.9999533 0.0004614 0.9999533 0.0004614 0.0000467 -0.0004614
1013323 0.0000468 -0.0004350 0.9999532 0.0004350 0.9999532 0.0004350 0.0000468 -0.0004350
1059725 0.0000470 -0.0004095 0.9999530 0.0004095 0.9999530 0.0004095 0.0000470 -0.0004095
1108252 0.0000472 -0.0003847 0.9999528 0.0003847 0.9999528 0.0003847 0.0000472 -0.0003847
1159002 0.0000474 -0.0003608 0.9999526 0.0003608 0.9999526 0.0003608 0.0000474 -0.0003608
1212075 0.0000477 -0.0003376 0.9999523 0.0003376 0.9999523 0.0003376 0.0000477 -0.0003376
1267578 0.0000480 -0.0003150 0.9999520 0.0003150 0.9999520 0.0003150 0.0000480 -0.0003150
1325623 0.0000483 -0.0002931 0.9999517 0.0002931 0.9999517 0.0002931 0.0000483 -0.0002931
1386327 0.0000487 -0.0002718 0.9999513 0.0002718 0.9999513 0.0002718 0.0000487 -0.0002718
1449809 0.0000491 -0.0002510 0.9999509 0.0002510 0.9999509 0.0002510 0.0000491 -0.0002510
1516199 0.0000496 -0.0002308 0.9999504 0.0002308 0.9999504 0.0002308 0.0000496 -0.0002308
1585629 0.0000501 -0.0002109 0.9999499 0.0002109 0.9999499 0.0002109 0.0000501 -0.0002109
1658239 0.0000507 -0.0001916 0.9999493 0.0001916 0.9999493 0.0001916 0.0000507 -0.0001916
1734173 0.0000513 -0.0001726 0.9999487 0.0001726 0.9999487 0.0001726 0.0000513 -0.0001726
1813585 0.0000520 -0.0001539 0.9999480 0.0001539 0.9999480 0.0001539 0.0000520 -0.0001539
1896632 0.0000528 -0.0001356 0.9999472 0.0001356 0.9999472 0.0001356 0.0000528 -0.0001356
1983483 0.0000536 -0.0001176 0.9999464 0.0001176 0.9999464 0.0001176 0.0000536 -0.0001176
2074311 0.0000545 -0.0000997 0.9999455 0.0000997 0.9999455 0.0000997 0.0000545 -0.0000997
