!Murata Part Number: GRM31CD7YA106KE11
!These Parameters are Measured in Series Mode Connection
!Data Generated on Mar 30, 2021
!       o--ll--o
!Port1            Port2
!       o------o
!Operation Temp=25[degC], DC Bias Voltage=0[V]
!Freq. Start=100[Hz] Stop=6[GHz] 401[Steps]
# Hz S RI R 50
!Freq.(Hz) S11(Real) S11(Imag) S21(Real) S21(Imag) S12(Real) S12(Imag) S22(Real) S22(Imag)
100 0.7280462 -0.4412276 0.2719538 0.4412276 0.2719538 0.4412276 0.7280462 -0.4412276
105 0.7101843 -0.4498960 0.2898157 0.4498960 0.2898157 0.4498960 0.7101843 -0.4498960
109 0.6916490 -0.4579894 0.3083510 0.4579894 0.3083510 0.4579894 0.6916490 -0.4579894
114 0.6724784 -0.4654442 0.3275216 0.4654442 0.3275216 0.4654442 0.6724784 -0.4654442
120 0.6527181 -0.4721996 0.3472819 0.4721996 0.3472819 0.4721996 0.6527181 -0.4721996
125 0.6324215 -0.4781982 0.3675785 0.4781982 0.3675785 0.4781982 0.6324215 -0.4781982
131 0.6116489 -0.4833878 0.3883511 0.4833878 0.3883511 0.4833878 0.6116489 -0.4833878
137 0.5904672 -0.4877218 0.4095328 0.4877218 0.4095328 0.4877218 0.5904672 -0.4877218
143 0.5689491 -0.4911606 0.4310509 0.4911606 0.4310509 0.4911606 0.5689491 -0.4911606
150 0.5471721 -0.4936725 0.4528279 0.4936725 0.4528279 0.4936725 0.5471721 -0.4936725
156 0.5252177 -0.4952337 0.4747823 0.4952337 0.4747823 0.4952337 0.5252177 -0.4952337
164 0.5031696 -0.4958298 0.4968304 0.4958298 0.4968304 0.4958298 0.5031696 -0.4958298
171 0.4811133 -0.4954554 0.5188867 0.4954554 0.5188867 0.4954554 0.4811133 -0.4954554
179 0.4591340 -0.4941146 0.5408660 0.4941146 0.5408660 0.4941146 0.4591340 -0.4941146
187 0.4373160 -0.4918205 0.5626840 0.4918205 0.5626840 0.4918205 0.4373160 -0.4918205
196 0.4157408 -0.4885953 0.5842592 0.4885953 0.5842592 0.4885953 0.4157408 -0.4885953
205 0.3944863 -0.4844697 0.6055137 0.4844697 0.6055137 0.4844697 0.3944863 -0.4844697
214 0.3736257 -0.4794819 0.6263743 0.4794819 0.6263743 0.4794819 0.3736257 -0.4794819
224 0.3532267 -0.4736772 0.6467733 0.4736772 0.6467733 0.4736772 0.3532267 -0.4736772
234 0.3333503 -0.4671067 0.6666497 0.4671067 0.6666497 0.4671067 0.3333503 -0.4671067
245 0.3140508 -0.4598265 0.6859492 0.4598265 0.6859492 0.4598265 0.3140508 -0.4598265
256 0.2953750 -0.4518964 0.7046250 0.4518964 0.7046250 0.4518964 0.2953750 -0.4518964
268 0.2773620 -0.4433791 0.7226380 0.4433791 0.7226380 0.4433791 0.2773620 -0.4433791
280 0.2600436 -0.4343390 0.7399564 0.4343390 0.7399564 0.4343390 0.2600436 -0.4343390
293 0.2434439 -0.4248412 0.7565561 0.4248412 0.7565561 0.4248412 0.2434439 -0.4248412
306 0.2275798 -0.4149504 0.7724202 0.4149504 0.7724202 0.4149504 0.2275798 -0.4149504
320 0.2124613 -0.4047303 0.7875387 0.4047303 0.7875387 0.4047303 0.2124613 -0.4047303
335 0.1980920 -0.3942430 0.8019080 0.3942430 0.8019080 0.3942430 0.1980920 -0.3942430
350 0.1844697 -0.3835477 0.8155303 0.3835477 0.8155303 0.3835477 0.1844697 -0.3835477
366 0.1715870 -0.3727011 0.8284130 0.3727011 0.8284130 0.3727011 0.1715870 -0.3727011
383 0.1594317 -0.3617561 0.8405683 0.3617561 0.8405683 0.3617561 0.1594317 -0.3617561
401 0.1479877 -0.3507622 0.8520123 0.3507622 0.8520123 0.3507622 0.1479877 -0.3507622
419 0.1372354 -0.3397649 0.8627646 0.3397649 0.8627646 0.3397649 0.1372354 -0.3397649
438 0.1271525 -0.3288058 0.8728475 0.3288058 0.8728475 0.3288058 0.1271525 -0.3288058
458 0.1177143 -0.3179225 0.8822857 0.3179225 0.8822857 0.3179225 0.1177143 -0.3179225
479 0.1088946 -0.3071486 0.8911054 0.3071486 0.8911054 0.3071486 0.1088946 -0.3071486
501 0.1006659 -0.2965137 0.8993341 0.2965137 0.8993341 0.2965137 0.1006659 -0.2965137
524 0.0929997 -0.2860439 0.9070003 0.2860439 0.9070003 0.2860439 0.0929997 -0.2860439
548 0.0858675 -0.2757615 0.9141325 0.2757615 0.9141325 0.2757615 0.0858675 -0.2757615
573 0.0792403 -0.2656859 0.9207597 0.2656859 0.9207597 0.2656859 0.0792403 -0.2656859
600 0.0730897 -0.2558328 0.9269103 0.2558328 0.9269103 0.2558328 0.0730897 -0.2558328
627 0.0673874 -0.2462155 0.9326126 0.2462155 0.9326126 0.2462155 0.0673874 -0.2462155
656 0.0621060 -0.2368443 0.9378940 0.2368443 0.9378940 0.2368443 0.0621060 -0.2368443
686 0.0572189 -0.2277274 0.9427811 0.2277274 0.9427811 0.2277274 0.0572189 -0.2277274
717 0.0527003 -0.2188706 0.9472997 0.2188706 0.9472997 0.2188706 0.0527003 -0.2188706
750 0.0485255 -0.2102779 0.9514745 0.2102779 0.9514745 0.2102779 0.0485255 -0.2102779
784 0.0446710 -0.2019514 0.9553290 0.2019514 0.9553290 0.2019514 0.0446710 -0.2019514
820 0.0411143 -0.1938919 0.9588857 0.1938919 0.9588857 0.1938919 0.0411143 -0.1938919
858 0.0378343 -0.1860986 0.9621657 0.1860986 0.9621657 0.1860986 0.0378343 -0.1860986
897 0.0348108 -0.1785697 0.9651892 0.1785697 0.9651892 0.1785697 0.0348108 -0.1785697
938 0.0320250 -0.1713023 0.9679750 0.1713023 0.9679750 0.1713023 0.0320250 -0.1713023
981 0.0294592 -0.1642929 0.9705408 0.1642929 0.9705408 0.1642929 0.0294592 -0.1642929
1026 0.0270967 -0.1575369 0.9729033 0.1575369 0.9729033 0.1575369 0.0270967 -0.1575369
1073 0.0249221 -0.1510293 0.9750779 0.1510293 0.9750779 0.1510293 0.0249221 -0.1510293
1122 0.0229208 -0.1447648 0.9770792 0.1447648 0.9770792 0.1447648 0.0229208 -0.1447648
1174 0.0210795 -0.1387372 0.9789205 0.1387372 0.9789205 0.1387372 0.0210795 -0.1387372
1227 0.0193856 -0.1329406 0.9806144 0.1329406 0.9806144 0.1329406 0.0193856 -0.1329406
1283 0.0178277 -0.1273684 0.9821723 0.1273684 0.9821723 0.1273684 0.0178277 -0.1273684
1342 0.0163948 -0.1220142 0.9836052 0.1220142 0.9836052 0.1220142 0.0163948 -0.1220142
1404 0.0150773 -0.1168712 0.9849227 0.1168712 0.9849227 0.1168712 0.0150773 -0.1168712
1468 0.0138658 -0.1119328 0.9861342 0.1119328 0.9861342 0.1119328 0.0138658 -0.1119328
1535 0.0127520 -0.1071921 0.9872480 0.1071921 0.9872480 0.1071921 0.0127520 -0.1071921
1606 0.0117281 -0.1026426 0.9882719 0.1026426 0.9882719 0.1026426 0.0117281 -0.1026426
1679 0.0107868 -0.0982777 0.9892132 0.0982777 0.9892132 0.0982777 0.0107868 -0.0982777
1756 0.0099216 -0.0940908 0.9900784 0.0940908 0.9900784 0.0940908 0.0099216 -0.0940908
1836 0.0091263 -0.0900754 0.9908737 0.0900754 0.9908737 0.0900754 0.0091263 -0.0900754
1920 0.0083955 -0.0862254 0.9916045 0.0862254 0.9916045 0.0862254 0.0083955 -0.0862254
2008 0.0077238 -0.0825346 0.9922762 0.0825346 0.9922762 0.0825346 0.0077238 -0.0825346
2100 0.0071066 -0.0789969 0.9928934 0.0789969 0.9928934 0.0789969 0.0071066 -0.0789969
2196 0.0065395 -0.0756066 0.9934605 0.0756066 0.9934605 0.0756066 0.0065395 -0.0756066
2297 0.0060185 -0.0723580 0.9939815 0.0723580 0.9939815 0.0723580 0.0060185 -0.0723580
2402 0.0055398 -0.0692456 0.9944602 0.0692456 0.9944602 0.0692456 0.0055398 -0.0692456
2512 0.0051001 -0.0662641 0.9948999 0.0662641 0.9948999 0.0662641 0.0051001 -0.0662641
2627 0.0046961 -0.0634083 0.9953039 0.0634083 0.9953039 0.0634083 0.0046961 -0.0634083
2748 0.0043252 -0.0606732 0.9956748 0.0606732 0.9956748 0.0606732 0.0043252 -0.0606732
2873 0.0039844 -0.0580540 0.9960156 0.0580540 0.9960156 0.0580540 0.0039844 -0.0580540
3005 0.0036715 -0.0555461 0.9963285 0.0555461 0.9963285 0.0555461 0.0036715 -0.0555461
3143 0.0033841 -0.0531449 0.9966159 0.0531449 0.9966159 0.0531449 0.0033841 -0.0531449
3287 0.0031202 -0.0508461 0.9968798 0.0508461 0.9968798 0.0508461 0.0031202 -0.0508461
3437 0.0028778 -0.0486456 0.9971222 0.0486456 0.9971222 0.0486456 0.0028778 -0.0486456
3594 0.0026552 -0.0465393 0.9973448 0.0465393 0.9973448 0.0465393 0.0026552 -0.0465393
3759 0.0024507 -0.0445232 0.9975493 0.0445232 0.9975493 0.0445232 0.0024507 -0.0445232
3931 0.0022629 -0.0425938 0.9977371 0.0425938 0.9977371 0.0425938 0.0022629 -0.0425938
4111 0.0020904 -0.0407473 0.9979096 0.0407473 0.9979096 0.0407473 0.0020904 -0.0407473
4299 0.0019319 -0.0389803 0.9980681 0.0389803 0.9980681 0.0389803 0.0019319 -0.0389803
4496 0.0017862 -0.0372895 0.9982138 0.0372895 0.9982138 0.0372895 0.0017862 -0.0372895
4702 0.0016523 -0.0356716 0.9983477 0.0356716 0.9983477 0.0356716 0.0016523 -0.0356716
4918 0.0015291 -0.0341236 0.9984709 0.0341236 0.9984709 0.0341236 0.0015291 -0.0341236
5143 0.0014159 -0.0326425 0.9985841 0.0326425 0.9985841 0.0326425 0.0014159 -0.0326425
5378 0.0013117 -0.0312255 0.9986883 0.0312255 0.9986883 0.0312255 0.0013117 -0.0312255
5625 0.0012158 -0.0298699 0.9987842 0.0298699 0.9987842 0.0298699 0.0012158 -0.0298699
5882 0.0011274 -0.0285729 0.9988726 0.0285729 0.9988726 0.0285729 0.0011274 -0.0285729
6151 0.0010461 -0.0273322 0.9989539 0.0273322 0.9989539 0.0273322 0.0010461 -0.0273322
6433 0.0009711 -0.0261452 0.9990289 0.0261452 0.9990289 0.0261452 0.0009711 -0.0261452
6728 0.0009019 -0.0250096 0.9990981 0.0250096 0.9990981 0.0250096 0.0009019 -0.0250096
7036 0.0008381 -0.0239233 0.9991619 0.0239233 0.9991619 0.0239233 0.0008381 -0.0239233
7358 0.0007792 -0.0228841 0.9992208 0.0228841 0.9992208 0.0228841 0.0007792 -0.0228841
7695 0.0007249 -0.0218900 0.9992751 0.0218900 0.9992751 0.0218900 0.0007249 -0.0218900
8047 0.0006746 -0.0209389 0.9993254 0.0209389 0.9993254 0.0209389 0.0006746 -0.0209389
8416 0.0006282 -0.0200291 0.9993718 0.0200291 0.9993718 0.0200291 0.0006282 -0.0200291
8801 0.0005853 -0.0191588 0.9994147 0.0191588 0.9994147 0.0191588 0.0005853 -0.0191588
9204 0.0005456 -0.0183262 0.9994544 0.0183262 0.9994544 0.0183262 0.0005456 -0.0183262
9626 0.0005089 -0.0175297 0.9994911 0.0175297 0.9994911 0.0175297 0.0005089 -0.0175297
10066 0.0004749 -0.0167677 0.9995251 0.0167677 0.9995251 0.0167677 0.0004749 -0.0167677
10527 0.0004434 -0.0160387 0.9995566 0.0160387 0.9995566 0.0160387 0.0004434 -0.0160387
11009 0.0004143 -0.0153413 0.9995857 0.0153413 0.9995857 0.0153413 0.0004143 -0.0153413
11514 0.0003874 -0.0146742 0.9996126 0.0146742 0.9996126 0.0146742 0.0003874 -0.0146742
12041 0.0003624 -0.0140360 0.9996376 0.0140360 0.9996376 0.0140360 0.0003624 -0.0140360
12592 0.0003393 -0.0134254 0.9996607 0.0134254 0.9996607 0.0134254 0.0003393 -0.0134254
13169 0.0003180 -0.0128413 0.9996820 0.0128413 0.9996820 0.0128413 0.0003180 -0.0128413
13772 0.0002982 -0.0122826 0.9997018 0.0122826 0.9997018 0.0122826 0.0002982 -0.0122826
14402 0.0002799 -0.0117481 0.9997201 0.0117481 0.9997201 0.0117481 0.0002799 -0.0117481
15062 0.0002629 -0.0112367 0.9997371 0.0112367 0.9997371 0.0112367 0.0002629 -0.0112367
15752 0.0002472 -0.0107476 0.9997528 0.0107476 0.9997528 0.0107476 0.0002472 -0.0107476
16473 0.0002327 -0.0102797 0.9997673 0.0102797 0.9997673 0.0102797 0.0002327 -0.0102797
17227 0.0002193 -0.0098321 0.9997807 0.0098321 0.9997807 0.0098321 0.0002193 -0.0098321
18016 0.0002069 -0.0094040 0.9997931 0.0094040 0.9997931 0.0094040 0.0002069 -0.0094040
18841 0.0001954 -0.0089944 0.9998046 0.0089944 0.9998046 0.0089944 0.0001954 -0.0089944
19704 0.0001848 -0.0086027 0.9998152 0.0086027 0.9998152 0.0086027 0.0001848 -0.0086027
20606 0.0001749 -0.0082280 0.9998251 0.0082280 0.9998251 0.0082280 0.0001749 -0.0082280
21550 0.0001658 -0.0078696 0.9998342 0.0078696 0.9998342 0.0078696 0.0001658 -0.0078696
22537 0.0001574 -0.0075268 0.9998426 0.0075268 0.9998426 0.0075268 0.0001574 -0.0075268
23569 0.0001496 -0.0071989 0.9998504 0.0071989 0.9998504 0.0071989 0.0001496 -0.0071989
24648 0.0001424 -0.0068853 0.9998576 0.0068853 0.9998576 0.0068853 0.0001424 -0.0068853
25777 0.0001357 -0.0065854 0.9998643 0.0065854 0.9998643 0.0065854 0.0001357 -0.0065854
26957 0.0001295 -0.0062986 0.9998705 0.0062986 0.9998705 0.0062986 0.0001295 -0.0062986
28191 0.0001237 -0.0060243 0.9998763 0.0060243 0.9998763 0.0060243 0.0001237 -0.0060243
29482 0.0001183 -0.0057619 0.9998817 0.0057619 0.9998817 0.0057619 0.0001183 -0.0057619
30832 0.0001133 -0.0055110 0.9998867 0.0055110 0.9998867 0.0055110 0.0001133 -0.0055110
32244 0.0001087 -0.0052710 0.9998913 0.0052710 0.9998913 0.0052710 0.0001087 -0.0052710
33721 0.0001043 -0.0050415 0.9998957 0.0050415 0.9998957 0.0050415 0.0001043 -0.0050415
35265 0.0001003 -0.0048220 0.9998997 0.0048220 0.9998997 0.0048220 0.0001003 -0.0048220
36880 0.0000964 -0.0046121 0.9999036 0.0046121 0.9999036 0.0046121 0.0000964 -0.0046121
38569 0.0000929 -0.0044114 0.9999071 0.0044114 0.9999071 0.0044114 0.0000929 -0.0044114
40335 0.0000895 -0.0042194 0.9999105 0.0042194 0.9999105 0.0042194 0.0000895 -0.0042194
42182 0.0000863 -0.0040357 0.9999137 0.0040357 0.9999137 0.0040357 0.0000863 -0.0040357
44113 0.0000833 -0.0038601 0.9999167 0.0038601 0.9999167 0.0038601 0.0000833 -0.0038601
46134 0.0000805 -0.0036922 0.9999195 0.0036922 0.9999195 0.0036922 0.0000805 -0.0036922
48246 0.0000778 -0.0035315 0.9999222 0.0035315 0.9999222 0.0035315 0.0000778 -0.0035315
50455 0.0000752 -0.0033779 0.9999248 0.0033779 0.9999248 0.0033779 0.0000752 -0.0033779
52766 0.0000728 -0.0032309 0.9999272 0.0032309 0.9999272 0.0032309 0.0000728 -0.0032309
55182 0.0000704 -0.0030903 0.9999296 0.0030903 0.9999296 0.0030903 0.0000704 -0.0030903
57709 0.0000682 -0.0029559 0.9999318 0.0029559 0.9999318 0.0029559 0.0000682 -0.0029559
60352 0.0000661 -0.0028272 0.9999339 0.0028272 0.9999339 0.0028272 0.0000661 -0.0028272
63115 0.0000640 -0.0027042 0.9999360 0.0027042 0.9999360 0.0027042 0.0000640 -0.0027042
66005 0.0000621 -0.0025865 0.9999379 0.0025865 0.9999379 0.0025865 0.0000621 -0.0025865
69028 0.0000602 -0.0024738 0.9999398 0.0024738 0.9999398 0.0024738 0.0000602 -0.0024738
72189 0.0000584 -0.0023661 0.9999416 0.0023661 0.9999416 0.0023661 0.0000584 -0.0023661
75495 0.0000567 -0.0022629 0.9999433 0.0022629 0.9999433 0.0022629 0.0000567 -0.0022629
78952 0.0000550 -0.0021643 0.9999450 0.0021643 0.9999450 0.0021643 0.0000550 -0.0021643
82567 0.0000535 -0.0020699 0.9999465 0.0020699 0.9999465 0.0020699 0.0000535 -0.0020699
86348 0.0000520 -0.0019795 0.9999480 0.0019795 0.9999480 0.0019795 0.0000520 -0.0019795
90302 0.0000505 -0.0018931 0.9999495 0.0018931 0.9999495 0.0018931 0.0000505 -0.0018931
94437 0.0000491 -0.0018103 0.9999509 0.0018103 0.9999509 0.0018103 0.0000491 -0.0018103
98762 0.0000478 -0.0017311 0.9999522 0.0017311 0.9999522 0.0017311 0.0000478 -0.0017311
103284 0.0000466 -0.0016553 0.9999534 0.0016553 0.9999534 0.0016553 0.0000466 -0.0016553
108014 0.0000454 -0.0015828 0.9999546 0.0015828 0.9999546 0.0015828 0.0000454 -0.0015828
112960 0.0000442 -0.0015133 0.9999558 0.0015133 0.9999558 0.0015133 0.0000442 -0.0015133
118133 0.0000432 -0.0014469 0.9999568 0.0014469 0.9999568 0.0014469 0.0000432 -0.0014469
123542 0.0000422 -0.0013832 0.9999578 0.0013832 0.9999578 0.0013832 0.0000422 -0.0013832
129199 0.0000412 -0.0013223 0.9999588 0.0013223 0.9999588 0.0013223 0.0000412 -0.0013223
135116 0.0000403 -0.0012640 0.9999597 0.0012640 0.9999597 0.0012640 0.0000403 -0.0012640
141303 0.0000395 -0.0012082 0.9999605 0.0012082 0.9999605 0.0012082 0.0000395 -0.0012082
147774 0.0000387 -0.0011547 0.9999613 0.0011547 0.9999613 0.0011547 0.0000387 -0.0011547
154540 0.0000380 -0.0011036 0.9999620 0.0011036 0.9999620 0.0011036 0.0000380 -0.0011036
161617 0.0000373 -0.0010546 0.9999627 0.0010546 0.9999627 0.0010546 0.0000373 -0.0010546
169018 0.0000366 -0.0010077 0.9999634 0.0010077 0.9999634 0.0010077 0.0000366 -0.0010077
176758 0.0000360 -0.0009627 0.9999640 0.0009627 0.9999640 0.0009627 0.0000360 -0.0009627
184852 0.0000355 -0.0009197 0.9999645 0.0009197 0.9999645 0.0009197 0.0000355 -0.0009197
193316 0.0000349 -0.0008785 0.9999651 0.0008785 0.9999651 0.0008785 0.0000349 -0.0008785
202169 0.0000345 -0.0008390 0.9999655 0.0008390 0.9999655 0.0008390 0.0000345 -0.0008390
211427 0.0000340 -0.0008012 0.9999660 0.0008012 0.9999660 0.0008012 0.0000340 -0.0008012
221108 0.0000336 -0.0007650 0.9999664 0.0007650 0.9999664 0.0007650 0.0000336 -0.0007650
231233 0.0000332 -0.0007303 0.9999668 0.0007303 0.9999668 0.0007303 0.0000332 -0.0007303
241822 0.0000329 -0.0006970 0.9999671 0.0006970 0.9999671 0.0006970 0.0000329 -0.0006970
252896 0.0000326 -0.0006652 0.9999674 0.0006652 0.9999674 0.0006652 0.0000326 -0.0006652
264476 0.0000323 -0.0006346 0.9999677 0.0006346 0.9999677 0.0006346 0.0000323 -0.0006346
276587 0.0000320 -0.0006053 0.9999680 0.0006053 0.9999680 0.0006053 0.0000320 -0.0006053
289253 0.0000318 -0.0005772 0.9999682 0.0005772 0.9999682 0.0005772 0.0000318 -0.0005772
302498 0.0000316 -0.0005503 0.9999684 0.0005503 0.9999684 0.0005503 0.0000316 -0.0005503
316350 0.0000314 -0.0005245 0.9999686 0.0005245 0.9999686 0.0005245 0.0000314 -0.0005245
330837 0.0000312 -0.0004997 0.9999688 0.0004997 0.9999688 0.0004997 0.0000312 -0.0004997
345986 0.0000311 -0.0004759 0.9999689 0.0004759 0.9999689 0.0004759 0.0000311 -0.0004759
361830 0.0000310 -0.0004530 0.9999690 0.0004530 0.9999690 0.0004530 0.0000310 -0.0004530
378399 0.0000308 -0.0004311 0.9999692 0.0004311 0.9999692 0.0004311 0.0000308 -0.0004311
395726 0.0000308 -0.0004100 0.9999692 0.0004100 0.9999692 0.0004100 0.0000308 -0.0004100
413847 0.0000307 -0.0003897 0.9999693 0.0003897 0.9999693 0.0003897 0.0000307 -0.0003897
432798 0.0000306 -0.0003702 0.9999694 0.0003702 0.9999694 0.0003702 0.0000306 -0.0003702
452617 0.0000306 -0.0003515 0.9999694 0.0003515 0.9999694 0.0003515 0.0000306 -0.0003515
473344 0.0000305 -0.0003334 0.9999695 0.0003334 0.9999695 0.0003334 0.0000305 -0.0003334
495019 0.0000305 -0.0003160 0.9999695 0.0003160 0.9999695 0.0003160 0.0000305 -0.0003160
517687 0.0000305 -0.0002993 0.9999695 0.0002993 0.9999695 0.0002993 0.0000305 -0.0002993
541393 0.0000306 -0.0002831 0.9999694 0.0002831 0.9999694 0.0002831 0.0000306 -0.0002831
566185 0.0000306 -0.0002675 0.9999694 0.0002675 0.9999694 0.0002675 0.0000306 -0.0002675
592111 0.0000307 -0.0002524 0.9999693 0.0002524 0.9999693 0.0002524 0.0000307 -0.0002524
619225 0.0000307 -0.0002379 0.9999693 0.0002379 0.9999693 0.0002379 0.0000307 -0.0002379
647581 0.0000308 -0.0002238 0.9999692 0.0002238 0.9999692 0.0002238 0.0000308 -0.0002238
677235 0.0000309 -0.0002101 0.9999691 0.0002101 0.9999691 0.0002101 0.0000309 -0.0002101
708247 0.0000311 -0.0001969 0.9999689 0.0001969 0.9999689 0.0001969 0.0000311 -0.0001969
740679 0.0000312 -0.0001841 0.9999688 0.0001841 0.9999688 0.0001841 0.0000312 -0.0001841
774597 0.0000314 -0.0001716 0.9999686 0.0001716 0.9999686 0.0001716 0.0000314 -0.0001716
810067 0.0000316 -0.0001594 0.9999684 0.0001594 0.9999684 0.0001594 0.0000316 -0.0001594
847162 0.0000318 -0.0001476 0.9999682 0.0001476 0.9999682 0.0001476 0.0000318 -0.0001476
885955 0.0000321 -0.0001361 0.9999679 0.0001361 0.9999679 0.0001361 0.0000321 -0.0001361
926525 0.0000324 -0.0001248 0.9999676 0.0001248 0.9999676 0.0001248 0.0000324 -0.0001248
968953 0.0000327 -0.0001138 0.9999673 0.0001138 0.9999673 0.0001138 0.0000327 -0.0001138
1013323 0.0000331 -0.0001029 0.9999669 0.0001029 0.9999669 0.0001029 0.0000331 -0.0001029
1059725 0.0000335 -0.0000923 0.9999665 0.0000923 0.9999665 0.0000923 0.0000335 -0.0000923
1108252 0.0000340 -0.0000818 0.9999660 0.0000818 0.9999660 0.0000818 0.0000340 -0.0000818
1159002 0.0000345 -0.0000715 0.9999655 0.0000715 0.9999655 0.0000715 0.0000345 -0.0000715
1212075 0.0000351 -0.0000613 0.9999649 0.0000613 0.9999649 0.0000613 0.0000351 -0.0000613
1267578 0.0000357 -0.0000512 0.9999643 0.0000512 0.9999643 0.0000512 0.0000357 -0.0000512
1325623 0.0000365 -0.0000411 0.9999635 0.0000411 0.9999635 0.0000411 0.0000365 -0.0000411
1386327 0.0000373 -0.0000311 0.9999627 0.0000311 0.9999627 0.0000311 0.0000373 -0.0000311
1449809 0.0000383 -0.0000211 0.9999617 0.0000211 0.9999617 0.0000211 0.0000383 -0.0000211
1516199 0.0000393 -0.0000111 0.9999607 0.0000111 0.9999607 0.0000111 0.0000393 -0.0000111
1585629 0.0000405 -0.0000010 0.9999595 0.0000010 0.9999595 0.0000010 0.0000405 -0.0000010
1658239 0.0000419 0.0000092 0.9999581 -0.0000092 0.9999581 -0.0000092 0.0000419 0.0000092
1734173 0.0000436 0.0000195 0.9999564 -0.0000195 0.9999564 -0.0000195 0.0000436 0.0000195
1813585 0.0000455 0.0000299 0.9999545 -0.0000299 0.9999545 -0.0000299 0.0000455 0.0000299
1896632 0.0000477 0.0000406 0.9999523 -0.0000406 0.9999523 -0.0000406 0.0000477 0.0000406
1983483 0.0000504 0.0000515 0.9999496 -0.0000515 0.9999496 -0.0000515 0.0000504 0.0000515
2074311 0.0000537 0.0000627 0.9999463 -0.0000627 0.9999463 -0.0000627 0.0000537 0.0000627
