!Murata Part Number: GRM319C81A106MA12
!These Parameters are Measured in Series Mode Connection
!Data Generated on Mar 30, 2021
!       o--ll--o
!Port1            Port2
!       o------o
!Operation Temp=25[degC], DC Bias Voltage=0[V]
!Freq. Start=100[Hz] Stop=6[GHz] 401[Steps]
# Hz S RI R 50
!Freq.(Hz) S11(Real) S11(Imag) S21(Real) S21(Imag) S12(Real) S12(Imag) S22(Real) S22(Imag)
100 0.8269146 -0.3669356 0.1730854 0.3669356 0.1730854 0.3669356 0.8269146 -0.3669356
105 0.8142527 -0.3774380 0.1857473 0.3774380 0.1857473 0.3774380 0.8142527 -0.3774380
109 0.8008818 -0.3877866 0.1991182 0.3877866 0.1991182 0.3877866 0.8008818 -0.3877866
114 0.7867965 -0.3979276 0.2132035 0.3979276 0.2132035 0.3979276 0.7867965 -0.3979276
120 0.7719965 -0.4078044 0.2280035 0.4078044 0.2280035 0.4078044 0.7719965 -0.4078044
125 0.7564872 -0.4173587 0.2435128 0.4173587 0.2435128 0.4173587 0.7564872 -0.4173587
131 0.7402801 -0.4265307 0.2597199 0.4265307 0.2597199 0.4265307 0.7402801 -0.4265307
137 0.7233929 -0.4352601 0.2766071 0.4352601 0.2766071 0.4352601 0.7233929 -0.4352601
143 0.7058505 -0.4434867 0.2941495 0.4434867 0.2941495 0.4434867 0.7058505 -0.4434867
150 0.6876840 -0.4511515 0.3123160 0.4511515 0.3123160 0.4511515 0.6876840 -0.4511515
156 0.6689319 -0.4581973 0.3310681 0.4581973 0.3310681 0.4581973 0.6689319 -0.4581973
164 0.6496389 -0.4645703 0.3503611 0.4645703 0.3503611 0.4645703 0.6496389 -0.4645703
171 0.6298566 -0.4702199 0.3701434 0.4702199 0.3701434 0.4702199 0.6298566 -0.4702199
179 0.6096421 -0.4751009 0.3903579 0.4751009 0.3903579 0.4751009 0.6096421 -0.4751009
187 0.5890582 -0.4791733 0.4109418 0.4791733 0.4109418 0.4791733 0.5890582 -0.4791733
196 0.5681720 -0.4824034 0.4318280 0.4824034 0.4318280 0.4824034 0.5681720 -0.4824034
205 0.5470547 -0.4847648 0.4529453 0.4847648 0.4529453 0.4847648 0.5470547 -0.4847648
214 0.5257802 -0.4862381 0.4742198 0.4862381 0.4742198 0.4862381 0.5257802 -0.4862381
224 0.5044244 -0.4868120 0.4955756 0.4868120 0.4955756 0.4868120 0.5044244 -0.4868120
234 0.4830637 -0.4864828 0.5169363 0.4864828 0.5169363 0.4864828 0.4830637 -0.4864828
245 0.4617747 -0.4852551 0.5382253 0.4852551 0.5382253 0.4852551 0.4617747 -0.4852551
256 0.4406324 -0.4831411 0.5593676 0.4831411 0.5593676 0.4831411 0.4406324 -0.4831411
268 0.4197097 -0.4801605 0.5802903 0.4801605 0.5802903 0.4801605 0.4197097 -0.4801605
280 0.3990764 -0.4763400 0.6009236 0.4763400 0.6009236 0.4763400 0.3990764 -0.4763400
293 0.3787982 -0.4717130 0.6212018 0.4717130 0.6212018 0.4717130 0.3787982 -0.4717130
306 0.3589362 -0.4663186 0.6410638 0.4663186 0.6410638 0.4663186 0.3589362 -0.4663186
320 0.3395464 -0.4602010 0.6604536 0.4602010 0.6604536 0.4602010 0.3395464 -0.4602010
335 0.3206787 -0.4534087 0.6793213 0.4534087 0.6793213 0.4534087 0.3206787 -0.4534087
350 0.3023773 -0.4459939 0.6976227 0.4459939 0.6976227 0.4459939 0.3023773 -0.4459939
366 0.2846799 -0.4380113 0.7153201 0.4380113 0.7153201 0.4380113 0.2846799 -0.4380113
383 0.2676179 -0.4295173 0.7323821 0.4295173 0.7323821 0.4295173 0.2676179 -0.4295173
401 0.2512163 -0.4205695 0.7487837 0.4205695 0.7487837 0.4205695 0.2512163 -0.4205695
419 0.2354940 -0.4112259 0.7645060 0.4112259 0.7645060 0.4112259 0.2354940 -0.4112259
438 0.2204639 -0.4015438 0.7795361 0.4015438 0.7795361 0.4015438 0.2204639 -0.4015438
458 0.2061332 -0.3915796 0.7938668 0.3915796 0.7938668 0.3915796 0.2061332 -0.3915796
479 0.1925037 -0.3813880 0.8074963 0.3813880 0.8074963 0.3813880 0.1925037 -0.3813880
501 0.1795725 -0.3710216 0.8204275 0.3710216 0.8204275 0.3710216 0.1795725 -0.3710216
524 0.1673321 -0.3605305 0.8326679 0.3605305 0.8326679 0.3605305 0.1673321 -0.3605305
548 0.1557712 -0.3499618 0.8442288 0.3499618 0.8442288 0.3499618 0.1557712 -0.3499618
573 0.1448749 -0.3393596 0.8551251 0.3393596 0.8551251 0.3393596 0.1448749 -0.3393596
600 0.1346255 -0.3287647 0.8653745 0.3287647 0.8653745 0.3287647 0.1346255 -0.3287647
627 0.1250026 -0.3182145 0.8749974 0.3182145 0.8749974 0.3182145 0.1250026 -0.3182145
656 0.1159841 -0.3077429 0.8840159 0.3077429 0.8840159 0.3077429 0.1159841 -0.3077429
686 0.1075460 -0.2973805 0.8924540 0.2973805 0.8924540 0.2973805 0.1075460 -0.2973805
717 0.0996634 -0.2871544 0.9003366 0.2871544 0.9003366 0.2871544 0.0996634 -0.2871544
750 0.0923105 -0.2770884 0.9076895 0.2770884 0.9076895 0.2770884 0.0923105 -0.2770884
784 0.0854610 -0.2672033 0.9145390 0.2672033 0.9145390 0.2672033 0.0854610 -0.2672033
820 0.0790884 -0.2575169 0.9209116 0.2575169 0.9209116 0.2575169 0.0790884 -0.2575169
858 0.0731666 -0.2480440 0.9268334 0.2480440 0.9268334 0.2480440 0.0731666 -0.2480440
897 0.0676693 -0.2387971 0.9323307 0.2387971 0.9323307 0.2387971 0.0676693 -0.2387971
938 0.0625713 -0.2297859 0.9374287 0.2297859 0.9374287 0.2297859 0.0625713 -0.2297859
981 0.0578475 -0.2210182 0.9421525 0.2210182 0.9421525 0.2210182 0.0578475 -0.2210182
1026 0.0534741 -0.2124997 0.9465259 0.2124997 0.9465259 0.2124997 0.0534741 -0.2124997
1073 0.0494279 -0.2042342 0.9505721 0.2042342 0.9505721 0.2042342 0.0494279 -0.2042342
1122 0.0456867 -0.1962240 0.9543133 0.1962240 0.9543133 0.1962240 0.0456867 -0.1962240
1174 0.0422294 -0.1884696 0.9577706 0.1884696 0.9577706 0.1884696 0.0422294 -0.1884696
1227 0.0390358 -0.1809707 0.9609642 0.1809707 0.9609642 0.1809707 0.0390358 -0.1809707
1283 0.0360869 -0.1737255 0.9639131 0.1737255 0.9639131 0.1737255 0.0360869 -0.1737255
1342 0.0333648 -0.1667315 0.9666352 0.1667315 0.9666352 0.1667315 0.0333648 -0.1667315
1404 0.0308525 -0.1599850 0.9691475 0.1599850 0.9691475 0.1599850 0.0308525 -0.1599850
1468 0.0285342 -0.1534820 0.9714658 0.1534820 0.9714658 0.1534820 0.0285342 -0.1534820
1535 0.0263951 -0.1472176 0.9736049 0.1472176 0.9736049 0.1472176 0.0263951 -0.1472176
1606 0.0244213 -0.1411866 0.9755787 0.1411866 0.9755787 0.1411866 0.0244213 -0.1411866
1679 0.0225999 -0.1353832 0.9774001 0.1353832 0.9774001 0.1353832 0.0225999 -0.1353832
1756 0.0209190 -0.1298013 0.9790810 0.1298013 0.9790810 0.1298013 0.0209190 -0.1298013
1836 0.0193674 -0.1244349 0.9806326 0.1244349 0.9806326 0.1244349 0.0193674 -0.1244349
1920 0.0179350 -0.1192774 0.9820650 0.1192774 0.9820650 0.1192774 0.0179350 -0.1192774
2008 0.0166122 -0.1143223 0.9833878 0.1143223 0.9833878 0.1143223 0.0166122 -0.1143223
2100 0.0153903 -0.1095631 0.9846097 0.1095631 0.9846097 0.1095631 0.0153903 -0.1095631
2196 0.0142612 -0.1049931 0.9857388 0.1049931 0.9857388 0.1049931 0.0142612 -0.1049931
2297 0.0132177 -0.1006058 0.9867823 0.1006058 0.9867823 0.1006058 0.0132177 -0.1006058
2402 0.0122530 -0.0963946 0.9877470 0.0963946 0.9877470 0.0963946 0.0122530 -0.0963946
2512 0.0113607 -0.0923532 0.9886393 0.0923532 0.9886393 0.0923532 0.0113607 -0.0923532
2627 0.0105353 -0.0884754 0.9894647 0.0884754 0.9894647 0.0884754 0.0105353 -0.0884754
2748 0.0097716 -0.0847549 0.9902284 0.0847549 0.9902284 0.0847549 0.0097716 -0.0847549
2873 0.0090648 -0.0811858 0.9909352 0.0811858 0.9909352 0.0811858 0.0090648 -0.0811858
3005 0.0084105 -0.0777623 0.9915895 0.0777623 0.9915895 0.0777623 0.0084105 -0.0777623
3143 0.0078048 -0.0744787 0.9921952 0.0744787 0.9921952 0.0744787 0.0078048 -0.0744787
3287 0.0072440 -0.0713297 0.9927560 0.0713297 0.9927560 0.0713297 0.0072440 -0.0713297
3437 0.0067248 -0.0683099 0.9932752 0.0683099 0.9932752 0.0683099 0.0067248 -0.0683099
3594 0.0062441 -0.0654144 0.9937559 0.0654144 0.9937559 0.0654144 0.0062441 -0.0654144
3759 0.0057991 -0.0626382 0.9942009 0.0626382 0.9942009 0.0626382 0.0057991 -0.0626382
3931 0.0053871 -0.0599766 0.9946129 0.0599766 0.9946129 0.0599766 0.0053871 -0.0599766
4111 0.0050059 -0.0574251 0.9949941 0.0574251 0.9949941 0.0574251 0.0050059 -0.0574251
4299 0.0046530 -0.0549795 0.9953470 0.0549795 0.9953470 0.0549795 0.0046530 -0.0549795
4496 0.0043266 -0.0526354 0.9956734 0.0526354 0.9956734 0.0526354 0.0043266 -0.0526354
4702 0.0040247 -0.0503890 0.9959753 0.0503890 0.9959753 0.0503890 0.0040247 -0.0503890
4918 0.0037456 -0.0482363 0.9962544 0.0482363 0.9962544 0.0482363 0.0037456 -0.0482363
5143 0.0034875 -0.0461737 0.9965125 0.0461737 0.9965125 0.0461737 0.0034875 -0.0461737
5378 0.0032489 -0.0441975 0.9967511 0.0441975 0.9967511 0.0441975 0.0032489 -0.0441975
5625 0.0030285 -0.0423044 0.9969715 0.0423044 0.9969715 0.0423044 0.0030285 -0.0423044
5882 0.0028249 -0.0404910 0.9971751 0.0404910 0.9971751 0.0404910 0.0028249 -0.0404910
6151 0.0026368 -0.0387542 0.9973632 0.0387542 0.9973632 0.0387542 0.0026368 -0.0387542
6433 0.0024631 -0.0370909 0.9975369 0.0370909 0.9975369 0.0370909 0.0024631 -0.0370909
6728 0.0023027 -0.0354981 0.9976973 0.0354981 0.9976973 0.0354981 0.0023027 -0.0354981
7036 0.0021546 -0.0339731 0.9978454 0.0339731 0.9978454 0.0339731 0.0021546 -0.0339731
7358 0.0020178 -0.0325130 0.9979822 0.0325130 0.9979822 0.0325130 0.0020178 -0.0325130
7695 0.0018915 -0.0311153 0.9981085 0.0311153 0.9981085 0.0311153 0.0018915 -0.0311153
8047 0.0017748 -0.0297774 0.9982252 0.0297774 0.9982252 0.0297774 0.0017748 -0.0297774
8416 0.0016669 -0.0284968 0.9983331 0.0284968 0.9983331 0.0284968 0.0016669 -0.0284968
8801 0.0015672 -0.0272713 0.9984328 0.0272713 0.9984328 0.0272713 0.0015672 -0.0272713
9204 0.0014749 -0.0260984 0.9985251 0.0260984 0.9985251 0.0260984 0.0014749 -0.0260984
9626 0.0013896 -0.0249761 0.9986104 0.0249761 0.9986104 0.0249761 0.0013896 -0.0249761
10066 0.0013105 -0.0239022 0.9986895 0.0239022 0.9986895 0.0239022 0.0013105 -0.0239022
10527 0.0012371 -0.0228747 0.9987629 0.0228747 0.9987629 0.0228747 0.0012371 -0.0228747
11009 0.0011690 -0.0218916 0.9988310 0.0218916 0.9988310 0.0218916 0.0011690 -0.0218916
11514 0.0011058 -0.0209511 0.9988942 0.0209511 0.9988942 0.0209511 0.0011058 -0.0209511
12041 0.0010469 -0.0200513 0.9989531 0.0200513 0.9989531 0.0200513 0.0010469 -0.0200513
12592 0.0009920 -0.0191905 0.9990080 0.0191905 0.9990080 0.0191905 0.0009920 -0.0191905
13169 0.0009407 -0.0183670 0.9990593 0.0183670 0.9990593 0.0183670 0.0009407 -0.0183670
13772 0.0008928 -0.0175792 0.9991072 0.0175792 0.9991072 0.0175792 0.0008928 -0.0175792
14402 0.0008479 -0.0168256 0.9991521 0.0168256 0.9991521 0.0168256 0.0008479 -0.0168256
15062 0.0008058 -0.0161046 0.9991942 0.0161046 0.9991942 0.0161046 0.0008058 -0.0161046
15752 0.0007662 -0.0154148 0.9992338 0.0154148 0.9992338 0.0154148 0.0007662 -0.0154148
16473 0.0007289 -0.0147549 0.9992711 0.0147549 0.9992711 0.0147549 0.0007289 -0.0147549
17227 0.0006937 -0.0141235 0.9993063 0.0141235 0.9993063 0.0141235 0.0006937 -0.0141235
18016 0.0006604 -0.0135194 0.9993396 0.0135194 0.9993396 0.0135194 0.0006604 -0.0135194
18841 0.0006289 -0.0129413 0.9993711 0.0129413 0.9993711 0.0129413 0.0006289 -0.0129413
19704 0.0005990 -0.0123882 0.9994010 0.0123882 0.9994010 0.0123882 0.0005990 -0.0123882
20606 0.0005707 -0.0118588 0.9994293 0.0118588 0.9994293 0.0118588 0.0005707 -0.0118588
21550 0.0005437 -0.0113521 0.9994563 0.0113521 0.9994563 0.0113521 0.0005437 -0.0113521
22537 0.0005181 -0.0108672 0.9994819 0.0108672 0.9994819 0.0108672 0.0005181 -0.0108672
23569 0.0004937 -0.0104030 0.9995063 0.0104030 0.9995063 0.0104030 0.0004937 -0.0104030
24648 0.0004705 -0.0099586 0.9995295 0.0099586 0.9995295 0.0099586 0.0004705 -0.0099586
25777 0.0004483 -0.0095332 0.9995517 0.0095332 0.9995517 0.0095332 0.0004483 -0.0095332
26957 0.0004273 -0.0091258 0.9995727 0.0091258 0.9995727 0.0091258 0.0004273 -0.0091258
28191 0.0004072 -0.0087359 0.9995928 0.0087359 0.9995928 0.0087359 0.0004072 -0.0087359
29482 0.0003882 -0.0083624 0.9996118 0.0083624 0.9996118 0.0083624 0.0003882 -0.0083624
30832 0.0003700 -0.0080048 0.9996300 0.0080048 0.9996300 0.0080048 0.0003700 -0.0080048
32244 0.0003528 -0.0076624 0.9996472 0.0076624 0.9996472 0.0076624 0.0003528 -0.0076624
33721 0.0003364 -0.0073345 0.9996636 0.0073345 0.9996636 0.0073345 0.0003364 -0.0073345
35265 0.0003209 -0.0070205 0.9996791 0.0070205 0.9996791 0.0070205 0.0003209 -0.0070205
36880 0.0003062 -0.0067197 0.9996938 0.0067197 0.9996938 0.0067197 0.0003062 -0.0067197
38569 0.0002922 -0.0064317 0.9997078 0.0064317 0.9997078 0.0064317 0.0002922 -0.0064317
40335 0.0002791 -0.0061559 0.9997209 0.0061559 0.9997209 0.0061559 0.0002791 -0.0061559
42182 0.0002666 -0.0058918 0.9997334 0.0058918 0.9997334 0.0058918 0.0002666 -0.0058918
44113 0.0002549 -0.0056389 0.9997451 0.0056389 0.9997451 0.0056389 0.0002549 -0.0056389
46134 0.0002438 -0.0053967 0.9997562 0.0053967 0.9997562 0.0053967 0.0002438 -0.0053967
48246 0.0002334 -0.0051648 0.9997666 0.0051648 0.9997666 0.0051648 0.0002334 -0.0051648
50455 0.0002236 -0.0049427 0.9997764 0.0049427 0.9997764 0.0049427 0.0002236 -0.0049427
52766 0.0002144 -0.0047301 0.9997856 0.0047301 0.9997856 0.0047301 0.0002144 -0.0047301
55182 0.0002058 -0.0045266 0.9997942 0.0045266 0.9997942 0.0045266 0.0002058 -0.0045266
57709 0.0001976 -0.0043318 0.9998024 0.0043318 0.9998024 0.0043318 0.0001976 -0.0043318
60352 0.0001900 -0.0041453 0.9998100 0.0041453 0.9998100 0.0041453 0.0001900 -0.0041453
63115 0.0001828 -0.0039667 0.9998172 0.0039667 0.9998172 0.0039667 0.0001828 -0.0039667
66005 0.0001761 -0.0037958 0.9998239 0.0037958 0.9998239 0.0037958 0.0001761 -0.0037958
69028 0.0001698 -0.0036323 0.9998302 0.0036323 0.9998302 0.0036323 0.0001698 -0.0036323
72189 0.0001638 -0.0034758 0.9998362 0.0034758 0.9998362 0.0034758 0.0001638 -0.0034758
75495 0.0001583 -0.0033260 0.9998417 0.0033260 0.9998417 0.0033260 0.0001583 -0.0033260
78952 0.0001530 -0.0031826 0.9998470 0.0031826 0.9998470 0.0031826 0.0001530 -0.0031826
82567 0.0001480 -0.0030454 0.9998520 0.0030454 0.9998520 0.0030454 0.0001480 -0.0030454
86348 0.0001433 -0.0029142 0.9998567 0.0029142 0.9998567 0.0029142 0.0001433 -0.0029142
90302 0.0001389 -0.0027885 0.9998611 0.0027885 0.9998611 0.0027885 0.0001389 -0.0027885
94437 0.0001347 -0.0026683 0.9998653 0.0026683 0.9998653 0.0026683 0.0001347 -0.0026683
98762 0.0001307 -0.0025533 0.9998693 0.0025533 0.9998693 0.0025533 0.0001307 -0.0025533
103284 0.0001269 -0.0024433 0.9998731 0.0024433 0.9998731 0.0024433 0.0001269 -0.0024433
108014 0.0001233 -0.0023380 0.9998767 0.0023380 0.9998767 0.0023380 0.0001233 -0.0023380
112960 0.0001198 -0.0022372 0.9998802 0.0022372 0.9998802 0.0022372 0.0001198 -0.0022372
118133 0.0001165 -0.0021407 0.9998835 0.0021407 0.9998835 0.0021407 0.0001165 -0.0021407
123542 0.0001133 -0.0020484 0.9998867 0.0020484 0.9998867 0.0020484 0.0001133 -0.0020484
129199 0.0001103 -0.0019601 0.9998897 0.0019601 0.9998897 0.0019601 0.0001103 -0.0019601
135116 0.0001073 -0.0018755 0.9998927 0.0018755 0.9998927 0.0018755 0.0001073 -0.0018755
141303 0.0001045 -0.0017946 0.9998955 0.0017946 0.9998955 0.0017946 0.0001045 -0.0017946
147774 0.0001017 -0.0017171 0.9998983 0.0017171 0.9998983 0.0017171 0.0001017 -0.0017171
154540 0.0000991 -0.0016429 0.9999009 0.0016429 0.9999009 0.0016429 0.0000991 -0.0016429
161617 0.0000965 -0.0015719 0.9999035 0.0015719 0.9999035 0.0015719 0.0000965 -0.0015719
169018 0.0000941 -0.0015038 0.9999059 0.0015038 0.9999059 0.0015038 0.0000941 -0.0015038
176758 0.0000917 -0.0014387 0.9999083 0.0014387 0.9999083 0.0014387 0.0000917 -0.0014387
184852 0.0000894 -0.0013763 0.9999106 0.0013763 0.9999106 0.0013763 0.0000894 -0.0013763
193316 0.0000871 -0.0013165 0.9999129 0.0013165 0.9999129 0.0013165 0.0000871 -0.0013165
202169 0.0000850 -0.0012592 0.9999150 0.0012592 0.9999150 0.0012592 0.0000850 -0.0012592
211427 0.0000829 -0.0012043 0.9999171 0.0012043 0.9999171 0.0012043 0.0000829 -0.0012043
221108 0.0000809 -0.0011516 0.9999191 0.0011516 0.9999191 0.0011516 0.0000809 -0.0011516
231233 0.0000790 -0.0011012 0.9999210 0.0011012 0.9999210 0.0011012 0.0000790 -0.0011012
241822 0.0000771 -0.0010528 0.9999229 0.0010528 0.9999229 0.0010528 0.0000771 -0.0010528
252896 0.0000753 -0.0010065 0.9999247 0.0010065 0.9999247 0.0010065 0.0000753 -0.0010065
264476 0.0000736 -0.0009620 0.9999264 0.0009620 0.9999264 0.0009620 0.0000736 -0.0009620
276587 0.0000720 -0.0009193 0.9999280 0.0009193 0.9999280 0.0009193 0.0000720 -0.0009193
289253 0.0000705 -0.0008784 0.9999295 0.0008784 0.9999295 0.0008784 0.0000705 -0.0008784
302498 0.0000690 -0.0008392 0.9999310 0.0008392 0.9999310 0.0008392 0.0000690 -0.0008392
316350 0.0000677 -0.0008016 0.9999323 0.0008016 0.9999323 0.0008016 0.0000677 -0.0008016
330837 0.0000664 -0.0007654 0.9999336 0.0007654 0.9999336 0.0007654 0.0000664 -0.0007654
345986 0.0000651 -0.0007308 0.9999349 0.0007308 0.9999349 0.0007308 0.0000651 -0.0007308
361830 0.0000640 -0.0006975 0.9999360 0.0006975 0.9999360 0.0006975 0.0000640 -0.0006975
378399 0.0000629 -0.0006655 0.9999371 0.0006655 0.9999371 0.0006655 0.0000629 -0.0006655
395726 0.0000619 -0.0006349 0.9999381 0.0006349 0.9999381 0.0006349 0.0000619 -0.0006349
413847 0.0000609 -0.0006054 0.9999391 0.0006054 0.9999391 0.0006054 0.0000609 -0.0006054
432798 0.0000600 -0.0005771 0.9999400 0.0005771 0.9999400 0.0005771 0.0000600 -0.0005771
452617 0.0000592 -0.0005499 0.9999408 0.0005499 0.9999408 0.0005499 0.0000592 -0.0005499
473344 0.0000584 -0.0005238 0.9999416 0.0005238 0.9999416 0.0005238 0.0000584 -0.0005238
495019 0.0000577 -0.0004986 0.9999423 0.0004986 0.9999423 0.0004986 0.0000577 -0.0004986
517687 0.0000571 -0.0004745 0.9999429 0.0004745 0.9999429 0.0004745 0.0000571 -0.0004745
541393 0.0000565 -0.0004512 0.9999435 0.0004512 0.9999435 0.0004512 0.0000565 -0.0004512
566185 0.0000560 -0.0004289 0.9999440 0.0004289 0.9999440 0.0004289 0.0000560 -0.0004289
592111 0.0000555 -0.0004073 0.9999445 0.0004073 0.9999445 0.0004073 0.0000555 -0.0004073
619225 0.0000550 -0.0003866 0.9999450 0.0003866 0.9999450 0.0003866 0.0000550 -0.0003866
647581 0.0000547 -0.0003666 0.9999453 0.0003666 0.9999453 0.0003666 0.0000547 -0.0003666
677235 0.0000543 -0.0003473 0.9999457 0.0003473 0.9999457 0.0003473 0.0000543 -0.0003473
708247 0.0000540 -0.0003287 0.9999460 0.0003287 0.9999460 0.0003287 0.0000540 -0.0003287
740679 0.0000537 -0.0003108 0.9999463 0.0003108 0.9999463 0.0003108 0.0000537 -0.0003108
774597 0.0000535 -0.0002935 0.9999465 0.0002935 0.9999465 0.0002935 0.0000535 -0.0002935
810067 0.0000533 -0.0002767 0.9999467 0.0002767 0.9999467 0.0002767 0.0000533 -0.0002767
847162 0.0000532 -0.0002605 0.9999468 0.0002605 0.9999468 0.0002605 0.0000532 -0.0002605
885955 0.0000531 -0.0002448 0.9999469 0.0002448 0.9999469 0.0002448 0.0000531 -0.0002448
926525 0.0000530 -0.0002296 0.9999470 0.0002296 0.9999470 0.0002296 0.0000530 -0.0002296
968953 0.0000529 -0.0002148 0.9999471 0.0002148 0.9999471 0.0002148 0.0000529 -0.0002148
1013323 0.0000530 -0.0002004 0.9999470 0.0002004 0.9999470 0.0002004 0.0000530 -0.0002004
1059725 0.0000530 -0.0001865 0.9999470 0.0001865 0.9999470 0.0001865 0.0000530 -0.0001865
1108252 0.0000531 -0.0001729 0.9999469 0.0001729 0.9999469 0.0001729 0.0000531 -0.0001729
1159002 0.0000532 -0.0001596 0.9999468 0.0001596 0.9999468 0.0001596 0.0000532 -0.0001596
1212075 0.0000534 -0.0001467 0.9999466 0.0001467 0.9999466 0.0001467 0.0000534 -0.0001467
1267578 0.0000536 -0.0001341 0.9999464 0.0001341 0.9999464 0.0001341 0.0000536 -0.0001341
1325623 0.0000538 -0.0001217 0.9999462 0.0001217 0.9999462 0.0001217 0.0000538 -0.0001217
1386327 0.0000541 -0.0001095 0.9999459 0.0001095 0.9999459 0.0001095 0.0000541 -0.0001095
1449809 0.0000545 -0.0000976 0.9999455 0.0000976 0.9999455 0.0000976 0.0000545 -0.0000976
1516199 0.0000549 -0.0000859 0.9999451 0.0000859 0.9999451 0.0000859 0.0000549 -0.0000859
1585629 0.0000554 -0.0000743 0.9999446 0.0000743 0.9999446 0.0000743 0.0000554 -0.0000743
1658239 0.0000559 -0.0000629 0.9999441 0.0000629 0.9999441 0.0000629 0.0000559 -0.0000629
1734173 0.0000565 -0.0000516 0.9999435 0.0000516 0.9999435 0.0000516 0.0000565 -0.0000516
1813585 0.0000572 -0.0000403 0.9999428 0.0000403 0.9999428 0.0000403 0.0000572 -0.0000403
1896632 0.0000580 -0.0000292 0.9999420 0.0000292 0.9999420 0.0000292 0.0000580 -0.0000292
1983483 0.0000589 -0.0000181 0.9999411 0.0000181 0.9999411 0.0000181 0.0000589 -0.0000181
2074311 0.0000599 -0.0000070 0.9999401 0.0000070 0.9999401 0.0000070 0.0000599 -0.0000070
