!Murata Part Number: GRM319R11E334KA01
!These Parameters are Measured in Series Mode Connection
!Data Generated on Mar 30, 2021
!       o--ll--o
!Port1            Port2
!       o------o
!Operation Temp=25[degC], DC Bias Voltage=0[V]
!Freq. Start=100[Hz] Stop=6[GHz] 401[Steps]
# Hz S RI R 50
!Freq.(Hz) S11(Real) S11(Imag) S21(Real) S21(Imag) S12(Real) S12(Imag) S22(Real) S22(Imag)
100 0.9994415 -0.0212832 0.0005585 0.0212832 0.0005585 0.0212832 0.9994415 -0.0212832
105 0.9993949 -0.0222535 0.0006051 0.0222535 0.0006051 0.0222535 0.9993949 -0.0222535
109 0.9993441 -0.0232679 0.0006559 0.0232679 0.0006559 0.0232679 0.9993441 -0.0232679
114 0.9992888 -0.0243286 0.0007112 0.0243286 0.0007112 0.0243286 0.9992888 -0.0243286
120 0.9992286 -0.0254374 0.0007714 0.0254374 0.0007714 0.0254374 0.9992286 -0.0254374
125 0.9991630 -0.0265967 0.0008370 0.0265967 0.0008370 0.0265967 0.9991630 -0.0265967
131 0.9990915 -0.0278087 0.0009085 0.0278087 0.0009085 0.0278087 0.9990915 -0.0278087
137 0.9990136 -0.0290757 0.0009864 0.0290757 0.0009864 0.0290757 0.9990136 -0.0290757
143 0.9989287 -0.0304002 0.0010713 0.0304002 0.0010713 0.0304002 0.9989287 -0.0304002
150 0.9988362 -0.0317849 0.0011638 0.0317849 0.0011638 0.0317849 0.9988362 -0.0317849
156 0.9987354 -0.0332323 0.0012646 0.0332323 0.0012646 0.0332323 0.9987354 -0.0332323
164 0.9986255 -0.0347453 0.0013745 0.0347453 0.0013745 0.0347453 0.9986255 -0.0347453
171 0.9985057 -0.0363269 0.0014943 0.0363269 0.0014943 0.0363269 0.9985057 -0.0363269
179 0.9983752 -0.0379800 0.0016248 0.0379800 0.0016248 0.0379800 0.9983752 -0.0379800
187 0.9982328 -0.0397079 0.0017672 0.0397079 0.0017672 0.0397079 0.9982328 -0.0397079
196 0.9980776 -0.0415138 0.0019224 0.0415138 0.0019224 0.0415138 0.9980776 -0.0415138
205 0.9979084 -0.0434013 0.0020916 0.0434013 0.0020916 0.0434013 0.9979084 -0.0434013
214 0.9977239 -0.0453739 0.0022761 0.0453739 0.0022761 0.0453739 0.9977239 -0.0453739
224 0.9975227 -0.0474354 0.0024773 0.0474354 0.0024773 0.0474354 0.9975227 -0.0474354
234 0.9973032 -0.0495897 0.0026968 0.0495897 0.0026968 0.0495897 0.9973032 -0.0495897
245 0.9970639 -0.0518408 0.0029361 0.0518408 0.0029361 0.0518408 0.9970639 -0.0518408
256 0.9968029 -0.0541929 0.0031971 0.0541929 0.0031971 0.0541929 0.9968029 -0.0541929
268 0.9965182 -0.0566505 0.0034818 0.0566505 0.0034818 0.0566505 0.9965182 -0.0566505
280 0.9962076 -0.0592181 0.0037924 0.0592181 0.0037924 0.0592181 0.9962076 -0.0592181
293 0.9958687 -0.0619003 0.0041313 0.0619003 0.0041313 0.0619003 0.9958687 -0.0619003
306 0.9954991 -0.0647021 0.0045009 0.0647021 0.0045009 0.0647021 0.9954991 -0.0647021
320 0.9950957 -0.0676285 0.0049043 0.0676285 0.0049043 0.0676285 0.9950957 -0.0676285
335 0.9946557 -0.0706847 0.0053443 0.0706847 0.0053443 0.0706847 0.9946557 -0.0706847
350 0.9941755 -0.0738761 0.0058245 0.0738761 0.0058245 0.0738761 0.9941755 -0.0738761
366 0.9936516 -0.0772082 0.0063484 0.0772082 0.0063484 0.0772082 0.9936516 -0.0772082
383 0.9930800 -0.0806868 0.0069200 0.0806868 0.0069200 0.0806868 0.9930800 -0.0806868
401 0.9924563 -0.0843177 0.0075437 0.0843177 0.0075437 0.0843177 0.9924563 -0.0843177
419 0.9917758 -0.0881069 0.0082242 0.0881069 0.0082242 0.0881069 0.9917758 -0.0881069
438 0.9910335 -0.0920607 0.0089665 0.0920607 0.0089665 0.0920607 0.9910335 -0.0920607
458 0.9902237 -0.0961852 0.0097763 0.0961852 0.0097763 0.0961852 0.9902237 -0.0961852
479 0.9893405 -0.1004869 0.0106595 0.1004869 0.0106595 0.1004869 0.9893405 -0.1004869
501 0.9883772 -0.1049724 0.0116228 0.1049724 0.0116228 0.1049724 0.9883772 -0.1049724
524 0.9873267 -0.1096481 0.0126733 0.1096481 0.0126733 0.1096481 0.9873267 -0.1096481
548 0.9861815 -0.1145207 0.0138185 0.1145207 0.0138185 0.1145207 0.9861815 -0.1145207
573 0.9849331 -0.1195970 0.0150669 0.1195970 0.0150669 0.1195970 0.9849331 -0.1195970
600 0.9835725 -0.1248835 0.0164275 0.1248835 0.0164275 0.1248835 0.9835725 -0.1248835
627 0.9820901 -0.1303869 0.0179099 0.1303869 0.0179099 0.1303869 0.9820901 -0.1303869
656 0.9804754 -0.1361137 0.0195246 0.1361137 0.0195246 0.1361137 0.9804754 -0.1361137
686 0.9787170 -0.1420703 0.0212830 0.1420703 0.0212830 0.1420703 0.9787170 -0.1420703
717 0.9768027 -0.1482628 0.0231973 0.1482628 0.0231973 0.1482628 0.9768027 -0.1482628
750 0.9747196 -0.1546973 0.0252804 0.1546973 0.0252804 0.1546973 0.9747196 -0.1546973
784 0.9724535 -0.1613792 0.0275465 0.1613792 0.0275465 0.1613792 0.9724535 -0.1613792
820 0.9699894 -0.1683136 0.0300106 0.1683136 0.0300106 0.1683136 0.9699894 -0.1683136
858 0.9673112 -0.1755053 0.0326888 0.1755053 0.0326888 0.1755053 0.9673112 -0.1755053
897 0.9644017 -0.1829580 0.0355983 0.1829580 0.0355983 0.1829580 0.9644017 -0.1829580
938 0.9612425 -0.1906751 0.0387575 0.1906751 0.0387575 0.1906751 0.9612425 -0.1906751
981 0.9578143 -0.1986588 0.0421857 0.1986588 0.0421857 0.1986588 0.9578143 -0.1986588
1026 0.9540962 -0.2069103 0.0459038 0.2069103 0.0459038 0.2069103 0.9540962 -0.2069103
1073 0.9500666 -0.2154296 0.0499334 0.2154296 0.0499334 0.2154296 0.9500666 -0.2154296
1122 0.9457023 -0.2242153 0.0542977 0.2242153 0.0542977 0.2242153 0.9457023 -0.2242153
1174 0.9409793 -0.2332644 0.0590207 0.2332644 0.0590207 0.2332644 0.9409793 -0.2332644
1227 0.9358722 -0.2425721 0.0641278 0.2425721 0.0641278 0.2425721 0.9358722 -0.2425721
1283 0.9303547 -0.2521316 0.0696453 0.2521316 0.0696453 0.2521316 0.9303547 -0.2521316
1342 0.9243996 -0.2619337 0.0756004 0.2619337 0.0756004 0.2619337 0.9243996 -0.2619337
1404 0.9179788 -0.2719668 0.0820212 0.2719668 0.0820212 0.2719668 0.9179788 -0.2719668
1468 0.9110637 -0.2822164 0.0889363 0.2822164 0.0889363 0.2822164 0.9110637 -0.2822164
1535 0.9036252 -0.2926652 0.0963748 0.2926652 0.0963748 0.2926652 0.9036252 -0.2926652
1606 0.8956339 -0.3032924 0.1043661 0.3032924 0.1043661 0.3032924 0.8956339 -0.3032924
1679 0.8870609 -0.3140738 0.1129391 0.3140738 0.1129391 0.3140738 0.8870609 -0.3140738
1756 0.8778774 -0.3249816 0.1221226 0.3249816 0.1221226 0.3249816 0.8778774 -0.3249816
1836 0.8680560 -0.3359838 0.1319440 0.3359838 0.1319440 0.3359838 0.8680560 -0.3359838
1920 0.8575701 -0.3470445 0.1424299 0.3470445 0.1424299 0.3470445 0.8575701 -0.3470445
2008 0.8463957 -0.3581237 0.1536043 0.3581237 0.1536043 0.3581237 0.8463957 -0.3581237
2100 0.8345108 -0.3691771 0.1654892 0.3691771 0.1654892 0.3691771 0.8345108 -0.3691771
2196 0.8218967 -0.3801563 0.1781033 0.3801563 0.1781033 0.3801563 0.8218967 -0.3801563
2297 0.8085386 -0.3910091 0.1914614 0.3910091 0.1914614 0.3910091 0.8085386 -0.3910091
2402 0.7944260 -0.4016792 0.2055740 0.4016792 0.2055740 0.4016792 0.7944260 -0.4016792
2512 0.7795534 -0.4121071 0.2204466 0.4121071 0.2204466 0.4121071 0.7795534 -0.4121071
2627 0.7639215 -0.4222303 0.2360785 0.4222303 0.2360785 0.4222303 0.7639215 -0.4222303
2748 0.7475370 -0.4319842 0.2524630 0.4319842 0.2524630 0.4319842 0.7475370 -0.4319842
2873 0.7304137 -0.4413024 0.2695863 0.4413024 0.2695863 0.4413024 0.7304137 -0.4413024
3005 0.7125728 -0.4501178 0.2874272 0.4501178 0.2874272 0.4501178 0.7125728 -0.4501178
3143 0.6940435 -0.4583636 0.3059565 0.4583636 0.3059565 0.4583636 0.6940435 -0.4583636
3287 0.6748626 -0.4659743 0.3251374 0.4659743 0.3251374 0.4659743 0.6748626 -0.4659743
3437 0.6550752 -0.4728867 0.3449248 0.4728867 0.3449248 0.4728867 0.6550752 -0.4728867
3594 0.6347342 -0.4790413 0.3652658 0.4790413 0.3652658 0.4790413 0.6347342 -0.4790413
3759 0.6138998 -0.4843833 0.3861002 0.4843833 0.3861002 0.4843833 0.6138998 -0.4843833
3931 0.5926395 -0.4888638 0.4073605 0.4888638 0.4073605 0.4888638 0.5926395 -0.4888638
4111 0.5710268 -0.4924409 0.4289732 0.4924409 0.4289732 0.4924409 0.5710268 -0.4924409
4299 0.5491406 -0.4950804 0.4508594 0.4950804 0.4508594 0.4950804 0.5491406 -0.4950804
4496 0.5270638 -0.4967569 0.4729362 0.4967569 0.4729362 0.4967569 0.5270638 -0.4967569
4702 0.5048823 -0.4974541 0.4951177 0.4974541 0.4951177 0.4974541 0.5048823 -0.4974541
4918 0.4826836 -0.4971654 0.5173164 0.4971654 0.5173164 0.4971654 0.4826836 -0.4971654
5143 0.4605556 -0.4958941 0.5394444 0.4958941 0.5394444 0.4958941 0.4605556 -0.4958941
5378 0.4385847 -0.4936529 0.5614153 0.4936529 0.5614153 0.4936529 0.4385847 -0.4936529
5625 0.4168550 -0.4904641 0.5831450 0.4904641 0.5831450 0.4904641 0.4168550 -0.4904641
5882 0.3954468 -0.4863587 0.6045532 0.4863587 0.6045532 0.4863587 0.3954468 -0.4863587
6151 0.3744353 -0.4813758 0.6255647 0.4813758 0.6255647 0.4813758 0.3744353 -0.4813758
6433 0.3538900 -0.4755618 0.6461100 0.4755618 0.6461100 0.4755618 0.3538900 -0.4755618
6728 0.3338736 -0.4689692 0.6661264 0.4689692 0.6661264 0.4689692 0.3338736 -0.4689692
7036 0.3144416 -0.4616556 0.6855584 0.4616556 0.6855584 0.4616556 0.3144416 -0.4616556
7358 0.2956418 -0.4536824 0.7043582 0.4536824 0.7043582 0.4536824 0.2956418 -0.4536824
7695 0.2775138 -0.4451141 0.7224862 0.4451141 0.7224862 0.4451141 0.2775138 -0.4451141
8047 0.2600898 -0.4360165 0.7399102 0.4360165 0.7399102 0.4360165 0.2600898 -0.4360165
8416 0.2433938 -0.4264563 0.7566062 0.4264563 0.7566062 0.4264563 0.2433938 -0.4264563
8801 0.2274425 -0.4164996 0.7725575 0.4164996 0.7725575 0.4164996 0.2274425 -0.4164996
9204 0.2122455 -0.4062113 0.7877545 0.4062113 0.7877545 0.4062113 0.2122455 -0.4062113
9626 0.1978061 -0.3956545 0.8021939 0.3956545 0.8021939 0.3956545 0.1978061 -0.3956545
10066 0.1841214 -0.3848893 0.8158786 0.3848893 0.8158786 0.3848893 0.1841214 -0.3848893
10527 0.1711832 -0.3739729 0.8288168 0.3739729 0.8288168 0.3739729 0.1711832 -0.3739729
11009 0.1589788 -0.3629589 0.8410212 0.3629589 0.8410212 0.3629589 0.1589788 -0.3629589
11514 0.1474915 -0.3518972 0.8525085 0.3518972 0.8525085 0.3518972 0.1474915 -0.3518972
12041 0.1367010 -0.3408334 0.8632990 0.3408334 0.8632990 0.3408334 0.1367010 -0.3408334
12592 0.1265846 -0.3298094 0.8734154 0.3298094 0.8734154 0.3298094 0.1265846 -0.3298094
13169 0.1171170 -0.3188626 0.8828830 0.3188626 0.8828830 0.3188626 0.1171170 -0.3188626
13772 0.1082717 -0.3080268 0.8917283 0.3080268 0.8917283 0.3080268 0.1082717 -0.3080268
14402 0.1000208 -0.2973316 0.8999792 0.2973316 0.8999792 0.2973316 0.1000208 -0.2973316
15062 0.0923356 -0.2868030 0.9076644 0.2868030 0.9076644 0.2868030 0.0923356 -0.2868030
15752 0.0851872 -0.2764634 0.9148128 0.2764634 0.9148128 0.2764634 0.0851872 -0.2764634
16473 0.0785467 -0.2663317 0.9214533 0.2663317 0.9214533 0.2663317 0.0785467 -0.2663317
17227 0.0723853 -0.2564241 0.9276147 0.2564241 0.9276147 0.2564241 0.0723853 -0.2564241
18016 0.0666749 -0.2467534 0.9333251 0.2467534 0.9333251 0.2467534 0.0666749 -0.2467534
18841 0.0613877 -0.2373303 0.9386123 0.2373303 0.9386123 0.2373303 0.0613877 -0.2373303
19704 0.0564972 -0.2281627 0.9435028 0.2281627 0.9435028 0.2281627 0.0564972 -0.2281627
20606 0.0519776 -0.2192566 0.9480224 0.2192566 0.9480224 0.2192566 0.0519776 -0.2192566
21550 0.0478041 -0.2106159 0.9521959 0.2106159 0.9521959 0.2106159 0.0478041 -0.2106159
22537 0.0439531 -0.2022429 0.9560469 0.2022429 0.9560469 0.2022429 0.0439531 -0.2022429
23569 0.0404021 -0.1941384 0.9595979 0.1941384 0.9595979 0.1941384 0.0404021 -0.1941384
24648 0.0371299 -0.1863017 0.9628701 0.1863017 0.9628701 0.1863017 0.0371299 -0.1863017
25777 0.0341163 -0.1787311 0.9658837 0.1787311 0.9658837 0.1787311 0.0341163 -0.1787311
26957 0.0313423 -0.1714238 0.9686577 0.1714238 0.9686577 0.1714238 0.0313423 -0.1714238
28191 0.0287901 -0.1643763 0.9712099 0.1643763 0.9712099 0.1643763 0.0287901 -0.1643763
29482 0.0264430 -0.1575842 0.9735570 0.1575842 0.9735570 0.1575842 0.0264430 -0.1575842
30832 0.0242853 -0.1510427 0.9757147 0.1510427 0.9757147 0.1510427 0.0242853 -0.1510427
32244 0.0223025 -0.1447462 0.9776975 0.1447462 0.9776975 0.1447462 0.0223025 -0.1447462
33721 0.0204808 -0.1386890 0.9795192 0.1386890 0.9795192 0.1386890 0.0204808 -0.1386890
35265 0.0188078 -0.1328649 0.9811922 0.1328649 0.9811922 0.1328649 0.0188078 -0.1328649
36880 0.0172715 -0.1272676 0.9827285 0.1272676 0.9827285 0.1272676 0.0172715 -0.1272676
38569 0.0158612 -0.1218906 0.9841388 0.1218906 0.9841388 0.1218906 0.0158612 -0.1218906
40335 0.0145666 -0.1167271 0.9854334 0.1167271 0.9854334 0.1167271 0.0145666 -0.1167271
42182 0.0133785 -0.1117704 0.9866215 0.1117704 0.9866215 0.1117704 0.0133785 -0.1117704
44113 0.0122882 -0.1070137 0.9877118 0.1070137 0.9877118 0.1070137 0.0122882 -0.1070137
46134 0.0112878 -0.1024504 0.9887122 0.1024504 0.9887122 0.1024504 0.0112878 -0.1024504
48246 0.0103698 -0.0980737 0.9896302 0.0980737 0.9896302 0.0980737 0.0103698 -0.0980737
50455 0.0095276 -0.0938771 0.9904724 0.0938771 0.9904724 0.0938771 0.0095276 -0.0938771
52766 0.0087549 -0.0898539 0.9912451 0.0898539 0.9912451 0.0898539 0.0087549 -0.0898539
55182 0.0080459 -0.0859977 0.9919541 0.0859977 0.9919541 0.0859977 0.0080459 -0.0859977
57709 0.0073954 -0.0823024 0.9926046 0.0823024 0.9926046 0.0823024 0.0073954 -0.0823024
60352 0.0067985 -0.0787617 0.9932015 0.0787617 0.9932015 0.0787617 0.0067985 -0.0787617
63115 0.0062508 -0.0753697 0.9937492 0.0753697 0.9937492 0.0753697 0.0062508 -0.0753697
66005 0.0057483 -0.0721206 0.9942517 0.0721206 0.9942517 0.0721206 0.0057483 -0.0721206
69028 0.0052871 -0.0690087 0.9947129 0.0690087 0.9947129 0.0690087 0.0052871 -0.0690087
72189 0.0048638 -0.0660285 0.9951362 0.0660285 0.9951362 0.0660285 0.0048638 -0.0660285
75495 0.0044754 -0.0631748 0.9955246 0.0631748 0.9955246 0.0631748 0.0044754 -0.0631748
78952 0.0041189 -0.0604424 0.9958811 0.0604424 0.9958811 0.0604424 0.0041189 -0.0604424
82567 0.0037917 -0.0578263 0.9962083 0.0578263 0.9962083 0.0578263 0.0037917 -0.0578263
86348 0.0034913 -0.0553219 0.9965087 0.0553219 0.9965087 0.0553219 0.0034913 -0.0553219
90302 0.0032156 -0.0529245 0.9967844 0.0529245 0.9967844 0.0529245 0.0032156 -0.0529245
94437 0.0029626 -0.0506297 0.9970374 0.0506297 0.9970374 0.0506297 0.0029626 -0.0506297
98762 0.0027303 -0.0484332 0.9972697 0.0484332 0.9972697 0.0484332 0.0027303 -0.0484332
103284 0.0025172 -0.0463309 0.9974828 0.0463309 0.9974828 0.0463309 0.0025172 -0.0463309
108014 0.0023215 -0.0443189 0.9976785 0.0443189 0.9976785 0.0443189 0.0023215 -0.0443189
112960 0.0021419 -0.0423934 0.9978581 0.0423934 0.9978581 0.0423934 0.0021419 -0.0423934
118133 0.0019770 -0.0405508 0.9980230 0.0405508 0.9980230 0.0405508 0.0019770 -0.0405508
123542 0.0018258 -0.0387876 0.9981742 0.0387876 0.9981742 0.0387876 0.0018258 -0.0387876
129199 0.0016869 -0.0371004 0.9983131 0.0371004 0.9983131 0.0371004 0.0016869 -0.0371004
135116 0.0015595 -0.0354860 0.9984405 0.0354860 0.9984405 0.0354860 0.0015595 -0.0354860
141303 0.0014426 -0.0339413 0.9985574 0.0339413 0.9985574 0.0339413 0.0014426 -0.0339413
147774 0.0013353 -0.0324635 0.9986647 0.0324635 0.9986647 0.0324635 0.0013353 -0.0324635
154540 0.0012369 -0.0310496 0.9987631 0.0310496 0.9987631 0.0310496 0.0012369 -0.0310496
161617 0.0011465 -0.0296969 0.9988535 0.0296969 0.9988535 0.0296969 0.0011465 -0.0296969
169018 0.0010636 -0.0284028 0.9989364 0.0284028 0.9989364 0.0284028 0.0010636 -0.0284028
176758 0.0009876 -0.0271649 0.9990124 0.0271649 0.9990124 0.0271649 0.0009876 -0.0271649
184852 0.0009178 -0.0259807 0.9990822 0.0259807 0.9990822 0.0259807 0.0009178 -0.0259807
193316 0.0008537 -0.0248478 0.9991463 0.0248478 0.9991463 0.0248478 0.0008537 -0.0248478
202169 0.0007949 -0.0237642 0.9992051 0.0237642 0.9992051 0.0237642 0.0007949 -0.0237642
211427 0.0007409 -0.0227277 0.9992591 0.0227277 0.9992591 0.0227277 0.0007409 -0.0227277
221108 0.0006914 -0.0217363 0.9993086 0.0217363 0.9993086 0.0217363 0.0006914 -0.0217363
231233 0.0006458 -0.0207880 0.9993542 0.0207880 0.9993542 0.0207880 0.0006458 -0.0207880
241822 0.0006040 -0.0198810 0.9993960 0.0198810 0.9993960 0.0198810 0.0006040 -0.0198810
252896 0.0005656 -0.0190134 0.9994344 0.0190134 0.9994344 0.0190134 0.0005656 -0.0190134
264476 0.0005303 -0.0181836 0.9994697 0.0181836 0.9994697 0.0181836 0.0005303 -0.0181836
276587 0.0004977 -0.0173900 0.9995023 0.0173900 0.9995023 0.0173900 0.0004977 -0.0173900
289253 0.0004678 -0.0166310 0.9995322 0.0166310 0.9995322 0.0166310 0.0004678 -0.0166310
302498 0.0004403 -0.0159050 0.9995597 0.0159050 0.9995597 0.0159050 0.0004403 -0.0159050
316350 0.0004149 -0.0152106 0.9995851 0.0152106 0.9995851 0.0152106 0.0004149 -0.0152106
330837 0.0003915 -0.0145465 0.9996085 0.0145465 0.9996085 0.0145465 0.0003915 -0.0145465
345986 0.0003698 -0.0139113 0.9996302 0.0139113 0.9996302 0.0139113 0.0003698 -0.0139113
361830 0.0003499 -0.0133038 0.9996501 0.0133038 0.9996501 0.0133038 0.0003499 -0.0133038
378399 0.0003314 -0.0127227 0.9996686 0.0127227 0.9996686 0.0127227 0.0003314 -0.0127227
395726 0.0003143 -0.0121669 0.9996857 0.0121669 0.9996857 0.0121669 0.0003143 -0.0121669
413847 0.0002984 -0.0116353 0.9997016 0.0116353 0.9997016 0.0116353 0.0002984 -0.0116353
432798 0.0002837 -0.0111268 0.9997163 0.0111268 0.9997163 0.0111268 0.0002837 -0.0111268
452617 0.0002701 -0.0106404 0.9997299 0.0106404 0.9997299 0.0106404 0.0002701 -0.0106404
473344 0.0002574 -0.0101751 0.9997426 0.0101751 0.9997426 0.0101751 0.0002574 -0.0101751
495019 0.0002456 -0.0097301 0.9997544 0.0097301 0.9997544 0.0097301 0.0002456 -0.0097301
517687 0.0002346 -0.0093043 0.9997654 0.0093043 0.9997654 0.0093043 0.0002346 -0.0093043
541393 0.0002244 -0.0088969 0.9997756 0.0088969 0.9997756 0.0088969 0.0002244 -0.0088969
566185 0.0002148 -0.0085072 0.9997852 0.0085072 0.9997852 0.0085072 0.0002148 -0.0085072
592111 0.0002059 -0.0081344 0.9997941 0.0081344 0.9997941 0.0081344 0.0002059 -0.0081344
619225 0.0001975 -0.0077776 0.9998025 0.0077776 0.9998025 0.0077776 0.0001975 -0.0077776
647581 0.0001897 -0.0074363 0.9998103 0.0074363 0.9998103 0.0074363 0.0001897 -0.0074363
677235 0.0001824 -0.0071096 0.9998176 0.0071096 0.9998176 0.0071096 0.0001824 -0.0071096
708247 0.0001756 -0.0067970 0.9998244 0.0067970 0.9998244 0.0067970 0.0001756 -0.0067970
740679 0.0001693 -0.0064979 0.9998307 0.0064979 0.9998307 0.0064979 0.0001693 -0.0064979
774597 0.0001633 -0.0062116 0.9998367 0.0062116 0.9998367 0.0062116 0.0001633 -0.0062116
810067 0.0001577 -0.0059376 0.9998423 0.0059376 0.9998423 0.0059376 0.0001577 -0.0059376
847162 0.0001525 -0.0056753 0.9998475 0.0056753 0.9998475 0.0056753 0.0001525 -0.0056753
885955 0.0001477 -0.0054242 0.9998523 0.0054242 0.9998523 0.0054242 0.0001477 -0.0054242
926525 0.0001432 -0.0051839 0.9998568 0.0051839 0.9998568 0.0051839 0.0001432 -0.0051839
968953 0.0001389 -0.0049538 0.9998611 0.0049538 0.9998611 0.0049538 0.0001389 -0.0049538
1013323 0.0001350 -0.0047335 0.9998650 0.0047335 0.9998650 0.0047335 0.0001350 -0.0047335
1059725 0.0001313 -0.0045226 0.9998687 0.0045226 0.9998687 0.0045226 0.0001313 -0.0045226
1108252 0.0001279 -0.0043206 0.9998721 0.0043206 0.9998721 0.0043206 0.0001279 -0.0043206
1159002 0.0001247 -0.0041272 0.9998753 0.0041272 0.9998753 0.0041272 0.0001247 -0.0041272
1212075 0.0001218 -0.0039419 0.9998782 0.0039419 0.9998782 0.0039419 0.0001218 -0.0039419
1267578 0.0001191 -0.0037644 0.9998809 0.0037644 0.9998809 0.0037644 0.0001191 -0.0037644
1325623 0.0001166 -0.0035944 0.9998834 0.0035944 0.9998834 0.0035944 0.0001166 -0.0035944
1386327 0.0001142 -0.0034316 0.9998858 0.0034316 0.9998858 0.0034316 0.0001142 -0.0034316
1449809 0.0001121 -0.0032755 0.9998879 0.0032755 0.9998879 0.0032755 0.0001121 -0.0032755
1516199 0.0001101 -0.0031260 0.9998899 0.0031260 0.9998899 0.0031260 0.0001101 -0.0031260
1585629 0.0001083 -0.0029826 0.9998917 0.0029826 0.9998917 0.0029826 0.0001083 -0.0029826
1658239 0.0001066 -0.0028452 0.9998934 0.0028452 0.9998934 0.0028452 0.0001066 -0.0028452
1734173 0.0001051 -0.0027134 0.9998949 0.0027134 0.9998949 0.0027134 0.0001051 -0.0027134
1813585 0.0001037 -0.0025870 0.9998963 0.0025870 0.9998963 0.0025870 0.0001037 -0.0025870
1896632 0.0001024 -0.0024658 0.9998976 0.0024658 0.9998976 0.0024658 0.0001024 -0.0024658
1983483 0.0001012 -0.0023495 0.9998988 0.0023495 0.9998988 0.0023495 0.0001012 -0.0023495
2074311 0.0001002 -0.0022378 0.9998998 0.0022378 0.9998998 0.0022378 0.0001002 -0.0022378
