!Murata Part Number: GRM31CR71A226KE15
!These Parameters are Measured in Series Mode Connection
!Data Generated on Mar 30, 2021
!       o--ll--o
!Port1            Port2
!       o------o
!Operation Temp=25[degC], DC Bias Voltage=0[V]
!Freq. Start=100[Hz] Stop=6[GHz] 401[Steps]
# Hz S RI R 50
!Freq.(Hz) S11(Real) S11(Imag) S21(Real) S21(Imag) S12(Real) S12(Imag) S22(Real) S22(Imag)
100 0.5316570 -0.4873103 0.4683430 0.4873103 0.4683430 0.4873103 0.5316570 -0.4873103
105 0.5100958 -0.4882324 0.4899042 0.4882324 0.4899042 0.4882324 0.5100958 -0.4882324
109 0.4884951 -0.4882130 0.5115049 0.4882130 0.5115049 0.4882130 0.4884951 -0.4882130
114 0.4669387 -0.4872528 0.5330613 0.4872528 0.5330613 0.4872528 0.4669387 -0.4872528
120 0.4455098 -0.4853614 0.5544902 0.4853614 0.5544902 0.4853614 0.4455098 -0.4853614
125 0.4242892 -0.4825579 0.5757108 0.4825579 0.5757108 0.4825579 0.4242892 -0.4825579
131 0.4033546 -0.4788698 0.5966454 0.4788698 0.5966454 0.4788698 0.4033546 -0.4788698
137 0.3827792 -0.4743326 0.6172208 0.4743326 0.6172208 0.4743326 0.3827792 -0.4743326
143 0.3626305 -0.4689887 0.6373695 0.4689887 0.6373695 0.4689887 0.3626305 -0.4689887
150 0.3429699 -0.4628869 0.6570301 0.4628869 0.6570301 0.4628869 0.3429699 -0.4628869
156 0.3238518 -0.4560811 0.6761482 0.4560811 0.6761482 0.4560811 0.3238518 -0.4560811
164 0.3053235 -0.4486290 0.6946765 0.4486290 0.6946765 0.4486290 0.3053235 -0.4486290
171 0.2874245 -0.4405911 0.7125755 0.4405911 0.7125755 0.4405911 0.2874245 -0.4405911
179 0.2701867 -0.4320299 0.7298133 0.4320299 0.7298133 0.4320299 0.2701867 -0.4320299
187 0.2536347 -0.4230084 0.7463653 0.4230084 0.7463653 0.4230084 0.2536347 -0.4230084
196 0.2377858 -0.4135894 0.7622142 0.4135894 0.7622142 0.4135894 0.2377858 -0.4135894
205 0.2226505 -0.4038346 0.7773495 0.4038346 0.7773495 0.4038346 0.2226505 -0.4038346
214 0.2082331 -0.3938038 0.7917669 0.3938038 0.7917669 0.3938038 0.2082331 -0.3938038
224 0.1945321 -0.3835543 0.8054679 0.3835543 0.8054679 0.3835543 0.1945321 -0.3835543
234 0.1815411 -0.3731406 0.8184589 0.3731406 0.8184589 0.3731406 0.1815411 -0.3731406
245 0.1692490 -0.3626135 0.8307510 0.3626135 0.8307510 0.3626135 0.1692490 -0.3626135
256 0.1576411 -0.3520205 0.8423589 0.3520205 0.8423589 0.3520205 0.1576411 -0.3520205
268 0.1466993 -0.3414051 0.8533007 0.3414051 0.8533007 0.3414051 0.1466993 -0.3414051
280 0.1364033 -0.3308071 0.8635967 0.3308071 0.8635967 0.3308071 0.1364033 -0.3308071
293 0.1267303 -0.3202624 0.8732697 0.3202624 0.8732697 0.3202624 0.1267303 -0.3202624
306 0.1176564 -0.3098032 0.8823436 0.3098032 0.8823436 0.3098032 0.1176564 -0.3098032
320 0.1091564 -0.2994579 0.8908436 0.2994579 0.8908436 0.2994579 0.1091564 -0.2994579
335 0.1012045 -0.2892517 0.8987955 0.2892517 0.8987955 0.2892517 0.1012045 -0.2892517
350 0.0937744 -0.2792063 0.9062256 0.2792063 0.9062256 0.2792063 0.0937744 -0.2792063
366 0.0868401 -0.2693405 0.9131599 0.2693405 0.9131599 0.2693405 0.0868401 -0.2693405
383 0.0803756 -0.2596704 0.9196244 0.2596704 0.9196244 0.2596704 0.0803756 -0.2596704
401 0.0743552 -0.2502092 0.9256448 0.2502092 0.9256448 0.2502092 0.0743552 -0.2502092
419 0.0687539 -0.2409678 0.9312461 0.2409678 0.9312461 0.2409678 0.0687539 -0.2409678
438 0.0635476 -0.2319553 0.9364524 0.2319553 0.9364524 0.2319553 0.0635476 -0.2319553
458 0.0587125 -0.2231784 0.9412875 0.2231784 0.9412875 0.2231784 0.0587125 -0.2231784
479 0.0542261 -0.2146424 0.9457739 0.2146424 0.9457739 0.2146424 0.0542261 -0.2146424
501 0.0500666 -0.2063507 0.9499334 0.2063507 0.9499334 0.2063507 0.0500666 -0.2063507
524 0.0462130 -0.1983055 0.9537870 0.1983055 0.9537870 0.1983055 0.0462130 -0.1983055
548 0.0426457 -0.1905079 0.9573543 0.1905079 0.9573543 0.1905079 0.0426457 -0.1905079
573 0.0393455 -0.1829576 0.9606545 0.1829576 0.9606545 0.1829576 0.0393455 -0.1829576
600 0.0362945 -0.1756535 0.9637055 0.1756535 0.9637055 0.1756535 0.0362945 -0.1756535
627 0.0334758 -0.1685937 0.9665242 0.1685937 0.9665242 0.1685937 0.0334758 -0.1685937
656 0.0308731 -0.1617755 0.9691269 0.1617755 0.9691269 0.1617755 0.0308731 -0.1617755
686 0.0284713 -0.1551954 0.9715287 0.1551954 0.9715287 0.1551954 0.0284713 -0.1551954
717 0.0262561 -0.1488496 0.9737439 0.1488496 0.9737439 0.1488496 0.0262561 -0.1488496
750 0.0242138 -0.1427337 0.9757862 0.1427337 0.9757862 0.1427337 0.0242138 -0.1427337
784 0.0223320 -0.1368430 0.9776680 0.1368430 0.9776680 0.1368430 0.0223320 -0.1368430
820 0.0205987 -0.1311724 0.9794013 0.1311724 0.9794013 0.1311724 0.0205987 -0.1311724
858 0.0190028 -0.1257165 0.9809972 0.1257165 0.9809972 0.1257165 0.0190028 -0.1257165
897 0.0175338 -0.1204698 0.9824662 0.1204698 0.9824662 0.1204698 0.0175338 -0.1204698
938 0.0161821 -0.1154266 0.9838179 0.1154266 0.9838179 0.1154266 0.0161821 -0.1154266
981 0.0149386 -0.1105810 0.9850614 0.1105810 0.9850614 0.1105810 0.0149386 -0.1105810
1026 0.0137949 -0.1059271 0.9862051 0.1059271 0.9862051 0.1059271 0.0137949 -0.1059271
1073 0.0127432 -0.1014590 0.9872568 0.1014590 0.9872568 0.1014590 0.0127432 -0.1014590
1122 0.0117760 -0.0971706 0.9882240 0.0971706 0.9882240 0.0971706 0.0117760 -0.0971706
1174 0.0108867 -0.0930561 0.9891133 0.0930561 0.9891133 0.0930561 0.0108867 -0.0930561
1227 0.0100690 -0.0891095 0.9899310 0.0891095 0.9899310 0.0891095 0.0100690 -0.0891095
1283 0.0093171 -0.0853250 0.9906829 0.0853250 0.9906829 0.0853250 0.0093171 -0.0853250
1342 0.0086255 -0.0816967 0.9913745 0.0816967 0.9913745 0.0816967 0.0086255 -0.0816967
1404 0.0079893 -0.0782189 0.9920107 0.0782189 0.9920107 0.0782189 0.0079893 -0.0782189
1468 0.0074040 -0.0748862 0.9925960 0.0748862 0.9925960 0.0748862 0.0074040 -0.0748862
1535 0.0068652 -0.0716930 0.9931348 0.0716930 0.9931348 0.0716930 0.0068652 -0.0716930
1606 0.0063692 -0.0686339 0.9936308 0.0686339 0.9936308 0.0686339 0.0063692 -0.0686339
1679 0.0059122 -0.0657037 0.9940878 0.0657037 0.9940878 0.0657037 0.0059122 -0.0657037
1756 0.0054910 -0.0628974 0.9945090 0.0628974 0.9945090 0.0628974 0.0054910 -0.0628974
1836 0.0051026 -0.0602099 0.9948974 0.0602099 0.9948974 0.0602099 0.0051026 -0.0602099
1920 0.0047441 -0.0576366 0.9952559 0.0576366 0.9952559 0.0576366 0.0047441 -0.0576366
2008 0.0044131 -0.0551726 0.9955869 0.0551726 0.9955869 0.0551726 0.0044131 -0.0551726
2100 0.0041072 -0.0528135 0.9958928 0.0528135 0.9958928 0.0528135 0.0041072 -0.0528135
2196 0.0038243 -0.0505549 0.9961757 0.0505549 0.9961757 0.0505549 0.0038243 -0.0505549
2297 0.0035624 -0.0483927 0.9964376 0.0483927 0.9964376 0.0483927 0.0035624 -0.0483927
2402 0.0033199 -0.0463226 0.9966801 0.0463226 0.9966801 0.0463226 0.0033199 -0.0463226
2512 0.0030950 -0.0443409 0.9969050 0.0443409 0.9969050 0.0443409 0.0030950 -0.0443409
2627 0.0028864 -0.0424438 0.9971136 0.0424438 0.9971136 0.0424438 0.0028864 -0.0424438
2748 0.0026926 -0.0406275 0.9973074 0.0406275 0.9973074 0.0406275 0.0026926 -0.0406275
2873 0.0025126 -0.0388887 0.9974874 0.0388887 0.9974874 0.0388887 0.0025126 -0.0388887
3005 0.0023452 -0.0372240 0.9976548 0.0372240 0.9976548 0.0372240 0.0023452 -0.0372240
3143 0.0021895 -0.0356302 0.9978105 0.0356302 0.9978105 0.0356302 0.0021895 -0.0356302
3287 0.0020446 -0.0341043 0.9979554 0.0341043 0.9979554 0.0341043 0.0020446 -0.0341043
3437 0.0019096 -0.0326432 0.9980904 0.0326432 0.9980904 0.0326432 0.0019096 -0.0326432
3594 0.0017839 -0.0312443 0.9982161 0.0312443 0.9982161 0.0312443 0.0017839 -0.0312443
3759 0.0016668 -0.0299048 0.9983332 0.0299048 0.9983332 0.0299048 0.0016668 -0.0299048
3931 0.0015577 -0.0286222 0.9984423 0.0286222 0.9984423 0.0286222 0.0015577 -0.0286222
4111 0.0014560 -0.0273941 0.9985440 0.0273941 0.9985440 0.0273941 0.0014560 -0.0273941
4299 0.0013612 -0.0262181 0.9986388 0.0262181 0.9986388 0.0262181 0.0013612 -0.0262181
4496 0.0012730 -0.0250921 0.9987270 0.0250921 0.9987270 0.0250921 0.0012730 -0.0250921
4702 0.0011907 -0.0240138 0.9988093 0.0240138 0.9988093 0.0240138 0.0011907 -0.0240138
4918 0.0011142 -0.0229814 0.9988858 0.0229814 0.9988858 0.0229814 0.0011142 -0.0229814
5143 0.0010429 -0.0219928 0.9989571 0.0219928 0.9989571 0.0219928 0.0010429 -0.0219928
5378 0.0009767 -0.0210462 0.9990233 0.0210462 0.9990233 0.0210462 0.0009767 -0.0210462
5625 0.0009150 -0.0201399 0.9990850 0.0201399 0.9990850 0.0201399 0.0009150 -0.0201399
5882 0.0008577 -0.0192721 0.9991423 0.0192721 0.9991423 0.0192721 0.0008577 -0.0192721
6151 0.0008045 -0.0184413 0.9991955 0.0184413 0.9991955 0.0184413 0.0008045 -0.0184413
6433 0.0007550 -0.0176460 0.9992450 0.0176460 0.9992450 0.0176460 0.0007550 -0.0176460
6728 0.0007091 -0.0168847 0.9992909 0.0168847 0.9992909 0.0168847 0.0007091 -0.0168847
7036 0.0006666 -0.0161558 0.9993334 0.0161558 0.9993334 0.0161558 0.0006666 -0.0161558
7358 0.0006271 -0.0154582 0.9993729 0.0154582 0.9993729 0.0154582 0.0006271 -0.0154582
7695 0.0005904 -0.0147905 0.9994096 0.0147905 0.9994096 0.0147905 0.0005904 -0.0147905
8047 0.0005565 -0.0141515 0.9994435 0.0141515 0.9994435 0.0141515 0.0005565 -0.0141515
8416 0.0005250 -0.0135399 0.9994750 0.0135399 0.9994750 0.0135399 0.0005250 -0.0135399
8801 0.0004958 -0.0129546 0.9995042 0.0129546 0.9995042 0.0129546 0.0004958 -0.0129546
9204 0.0004688 -0.0123946 0.9995312 0.0123946 0.9995312 0.0123946 0.0004688 -0.0123946
9626 0.0004437 -0.0118587 0.9995563 0.0118587 0.9995563 0.0118587 0.0004437 -0.0118587
10066 0.0004204 -0.0113460 0.9995796 0.0113460 0.9995796 0.0113460 0.0004204 -0.0113460
10527 0.0003988 -0.0108555 0.9996012 0.0108555 0.9996012 0.0108555 0.0003988 -0.0108555
11009 0.0003788 -0.0103862 0.9996212 0.0103862 0.9996212 0.0103862 0.0003788 -0.0103862
11514 0.0003601 -0.0099372 0.9996399 0.0099372 0.9996399 0.0099372 0.0003601 -0.0099372
12041 0.0003428 -0.0095077 0.9996572 0.0095077 0.9996572 0.0095077 0.0003428 -0.0095077
12592 0.0003266 -0.0090969 0.9996734 0.0090969 0.9996734 0.0090969 0.0003266 -0.0090969
13169 0.0003116 -0.0087039 0.9996884 0.0087039 0.9996884 0.0087039 0.0003116 -0.0087039
13772 0.0002975 -0.0083280 0.9997025 0.0083280 0.9997025 0.0083280 0.0002975 -0.0083280
14402 0.0002844 -0.0079685 0.9997156 0.0079685 0.9997156 0.0079685 0.0002844 -0.0079685
15062 0.0002720 -0.0076246 0.9997280 0.0076246 0.9997280 0.0076246 0.0002720 -0.0076246
15752 0.0002604 -0.0072957 0.9997396 0.0072957 0.9997396 0.0072957 0.0002604 -0.0072957
16473 0.0002495 -0.0069811 0.9997505 0.0069811 0.9997505 0.0069811 0.0002495 -0.0069811
17227 0.0002392 -0.0066803 0.9997608 0.0066803 0.9997608 0.0066803 0.0002392 -0.0066803
18016 0.0002295 -0.0063925 0.9997705 0.0063925 0.9997705 0.0063925 0.0002295 -0.0063925
18841 0.0002202 -0.0061172 0.9997798 0.0061172 0.9997798 0.0061172 0.0002202 -0.0061172
19704 0.0002114 -0.0058539 0.9997886 0.0058539 0.9997886 0.0058539 0.0002114 -0.0058539
20606 0.0002031 -0.0056020 0.9997969 0.0056020 0.9997969 0.0056020 0.0002031 -0.0056020
21550 0.0001951 -0.0053611 0.9998049 0.0053611 0.9998049 0.0053611 0.0001951 -0.0053611
22537 0.0001874 -0.0051306 0.9998126 0.0051306 0.9998126 0.0051306 0.0001874 -0.0051306
23569 0.0001801 -0.0049101 0.9998199 0.0049101 0.9998199 0.0049101 0.0001801 -0.0049101
24648 0.0001731 -0.0046992 0.9998269 0.0046992 0.9998269 0.0046992 0.0001731 -0.0046992
25777 0.0001663 -0.0044973 0.9998337 0.0044973 0.9998337 0.0044973 0.0001663 -0.0044973
26957 0.0001598 -0.0043042 0.9998402 0.0043042 0.9998402 0.0043042 0.0001598 -0.0043042
28191 0.0001536 -0.0041193 0.9998464 0.0041193 0.9998464 0.0041193 0.0001536 -0.0041193
29482 0.0001475 -0.0039424 0.9998525 0.0039424 0.9998525 0.0039424 0.0001475 -0.0039424
30832 0.0001417 -0.0037731 0.9998583 0.0037731 0.9998583 0.0037731 0.0001417 -0.0037731
32244 0.0001361 -0.0036111 0.9998639 0.0036111 0.9998639 0.0036111 0.0001361 -0.0036111
33721 0.0001307 -0.0034560 0.9998693 0.0034560 0.9998693 0.0034560 0.0001307 -0.0034560
35265 0.0001255 -0.0033075 0.9998745 0.0033075 0.9998745 0.0033075 0.0001255 -0.0033075
36880 0.0001206 -0.0031654 0.9998794 0.0031654 0.9998794 0.0031654 0.0001206 -0.0031654
38569 0.0001158 -0.0030293 0.9998842 0.0030293 0.9998842 0.0030293 0.0001158 -0.0030293
40335 0.0001112 -0.0028989 0.9998888 0.0028989 0.9998888 0.0028989 0.0001112 -0.0028989
42182 0.0001068 -0.0027742 0.9998932 0.0027742 0.9998932 0.0027742 0.0001068 -0.0027742
44113 0.0001026 -0.0026547 0.9998974 0.0026547 0.9998974 0.0026547 0.0001026 -0.0026547
46134 0.0000986 -0.0025403 0.9999014 0.0025403 0.9999014 0.0025403 0.0000986 -0.0025403
48246 0.0000947 -0.0024308 0.9999053 0.0024308 0.9999053 0.0024308 0.0000947 -0.0024308
50455 0.0000911 -0.0023259 0.9999089 0.0023259 0.9999089 0.0023259 0.0000911 -0.0023259
52766 0.0000877 -0.0022254 0.9999123 0.0022254 0.9999123 0.0022254 0.0000877 -0.0022254
55182 0.0000844 -0.0021292 0.9999156 0.0021292 0.9999156 0.0021292 0.0000844 -0.0021292
57709 0.0000813 -0.0020371 0.9999187 0.0020371 0.9999187 0.0020371 0.0000813 -0.0020371
60352 0.0000784 -0.0019490 0.9999216 0.0019490 0.9999216 0.0019490 0.0000784 -0.0019490
63115 0.0000756 -0.0018645 0.9999244 0.0018645 0.9999244 0.0018645 0.0000756 -0.0018645
66005 0.0000730 -0.0017837 0.9999270 0.0017837 0.9999270 0.0017837 0.0000730 -0.0017837
69028 0.0000705 -0.0017062 0.9999295 0.0017062 0.9999295 0.0017062 0.0000705 -0.0017062
72189 0.0000682 -0.0016321 0.9999318 0.0016321 0.9999318 0.0016321 0.0000682 -0.0016321
75495 0.0000661 -0.0015611 0.9999339 0.0015611 0.9999339 0.0015611 0.0000661 -0.0015611
78952 0.0000641 -0.0014932 0.9999359 0.0014932 0.9999359 0.0014932 0.0000641 -0.0014932
82567 0.0000622 -0.0014282 0.9999378 0.0014282 0.9999378 0.0014282 0.0000622 -0.0014282
86348 0.0000604 -0.0013659 0.9999396 0.0013659 0.9999396 0.0013659 0.0000604 -0.0013659
90302 0.0000587 -0.0013063 0.9999413 0.0013063 0.9999413 0.0013063 0.0000587 -0.0013063
94437 0.0000571 -0.0012492 0.9999429 0.0012492 0.9999429 0.0012492 0.0000571 -0.0012492
98762 0.0000557 -0.0011946 0.9999443 0.0011946 0.9999443 0.0011946 0.0000557 -0.0011946
103284 0.0000543 -0.0011423 0.9999457 0.0011423 0.9999457 0.0011423 0.0000543 -0.0011423
108014 0.0000530 -0.0010922 0.9999470 0.0010922 0.9999470 0.0010922 0.0000530 -0.0010922
112960 0.0000518 -0.0010443 0.9999482 0.0010443 0.9999482 0.0010443 0.0000518 -0.0010443
118133 0.0000507 -0.0009984 0.9999493 0.0009984 0.9999493 0.0009984 0.0000507 -0.0009984
123542 0.0000496 -0.0009545 0.9999504 0.0009545 0.9999504 0.0009545 0.0000496 -0.0009545
129199 0.0000486 -0.0009124 0.9999514 0.0009124 0.9999514 0.0009124 0.0000486 -0.0009124
135116 0.0000477 -0.0008722 0.9999523 0.0008722 0.9999523 0.0008722 0.0000477 -0.0008722
141303 0.0000468 -0.0008336 0.9999532 0.0008336 0.9999532 0.0008336 0.0000468 -0.0008336
147774 0.0000459 -0.0007967 0.9999541 0.0007967 0.9999541 0.0007967 0.0000459 -0.0007967
154540 0.0000451 -0.0007614 0.9999549 0.0007614 0.9999549 0.0007614 0.0000451 -0.0007614
161617 0.0000443 -0.0007275 0.9999557 0.0007275 0.9999557 0.0007275 0.0000443 -0.0007275
169018 0.0000436 -0.0006951 0.9999564 0.0006951 0.9999564 0.0006951 0.0000436 -0.0006951
176758 0.0000429 -0.0006641 0.9999571 0.0006641 0.9999571 0.0006641 0.0000429 -0.0006641
184852 0.0000422 -0.0006343 0.9999578 0.0006343 0.9999578 0.0006343 0.0000422 -0.0006343
193316 0.0000415 -0.0006058 0.9999585 0.0006058 0.9999585 0.0006058 0.0000415 -0.0006058
202169 0.0000409 -0.0005784 0.9999591 0.0005784 0.9999591 0.0005784 0.0000409 -0.0005784
211427 0.0000403 -0.0005522 0.9999597 0.0005522 0.9999597 0.0005522 0.0000403 -0.0005522
221108 0.0000397 -0.0005271 0.9999603 0.0005271 0.9999603 0.0005271 0.0000397 -0.0005271
231233 0.0000392 -0.0005030 0.9999608 0.0005030 0.9999608 0.0005030 0.0000392 -0.0005030
241822 0.0000386 -0.0004798 0.9999614 0.0004798 0.9999614 0.0004798 0.0000386 -0.0004798
252896 0.0000381 -0.0004576 0.9999619 0.0004576 0.9999619 0.0004576 0.0000381 -0.0004576
264476 0.0000376 -0.0004363 0.9999624 0.0004363 0.9999624 0.0004363 0.0000376 -0.0004363
276587 0.0000371 -0.0004158 0.9999629 0.0004158 0.9999629 0.0004158 0.0000371 -0.0004158
289253 0.0000366 -0.0003961 0.9999634 0.0003961 0.9999634 0.0003961 0.0000366 -0.0003961
302498 0.0000361 -0.0003772 0.9999639 0.0003772 0.9999639 0.0003772 0.0000361 -0.0003772
316350 0.0000357 -0.0003590 0.9999643 0.0003590 0.9999643 0.0003590 0.0000357 -0.0003590
330837 0.0000353 -0.0003415 0.9999647 0.0003415 0.9999647 0.0003415 0.0000353 -0.0003415
345986 0.0000349 -0.0003247 0.9999651 0.0003247 0.9999651 0.0003247 0.0000349 -0.0003247
361830 0.0000345 -0.0003084 0.9999655 0.0003084 0.9999655 0.0003084 0.0000345 -0.0003084
378399 0.0000341 -0.0002928 0.9999659 0.0002928 0.9999659 0.0002928 0.0000341 -0.0002928
395726 0.0000338 -0.0002776 0.9999662 0.0002776 0.9999662 0.0002776 0.0000338 -0.0002776
413847 0.0000335 -0.0002631 0.9999665 0.0002631 0.9999665 0.0002631 0.0000335 -0.0002631
432798 0.0000332 -0.0002490 0.9999668 0.0002490 0.9999668 0.0002490 0.0000332 -0.0002490
452617 0.0000329 -0.0002354 0.9999671 0.0002354 0.9999671 0.0002354 0.0000329 -0.0002354
473344 0.0000327 -0.0002222 0.9999673 0.0002222 0.9999673 0.0002222 0.0000327 -0.0002222
495019 0.0000325 -0.0002095 0.9999675 0.0002095 0.9999675 0.0002095 0.0000325 -0.0002095
517687 0.0000323 -0.0001971 0.9999677 0.0001971 0.9999677 0.0001971 0.0000323 -0.0001971
541393 0.0000321 -0.0001852 0.9999679 0.0001852 0.9999679 0.0001852 0.0000321 -0.0001852
566185 0.0000320 -0.0001735 0.9999680 0.0001735 0.9999680 0.0001735 0.0000320 -0.0001735
592111 0.0000320 -0.0001622 0.9999680 0.0001622 0.9999680 0.0001622 0.0000320 -0.0001622
619225 0.0000319 -0.0001512 0.9999681 0.0001512 0.9999681 0.0001512 0.0000319 -0.0001512
647581 0.0000319 -0.0001405 0.9999681 0.0001405 0.9999681 0.0001405 0.0000319 -0.0001405
677235 0.0000320 -0.0001301 0.9999680 0.0001301 0.9999680 0.0001301 0.0000320 -0.0001301
708247 0.0000320 -0.0001199 0.9999680 0.0001199 0.9999680 0.0001199 0.0000320 -0.0001199
740679 0.0000322 -0.0001099 0.9999678 0.0001099 0.9999678 0.0001099 0.0000322 -0.0001099
774597 0.0000324 -0.0001002 0.9999676 0.0001002 0.9999676 0.0001002 0.0000324 -0.0001002
810067 0.0000326 -0.0000906 0.9999674 0.0000906 0.9999674 0.0000906 0.0000326 -0.0000906
847162 0.0000329 -0.0000812 0.9999671 0.0000812 0.9999671 0.0000812 0.0000329 -0.0000812
885955 0.0000332 -0.0000719 0.9999668 0.0000719 0.9999668 0.0000719 0.0000332 -0.0000719
926525 0.0000336 -0.0000628 0.9999664 0.0000628 0.9999664 0.0000628 0.0000336 -0.0000628
968953 0.0000341 -0.0000537 0.9999659 0.0000537 0.9999659 0.0000537 0.0000341 -0.0000537
1013323 0.0000346 -0.0000448 0.9999654 0.0000448 0.9999654 0.0000448 0.0000346 -0.0000448
1059725 0.0000353 -0.0000360 0.9999647 0.0000360 0.9999647 0.0000360 0.0000353 -0.0000360
1108252 0.0000360 -0.0000272 0.9999640 0.0000272 0.9999640 0.0000272 0.0000360 -0.0000272
1159002 0.0000368 -0.0000184 0.9999632 0.0000184 0.9999632 0.0000184 0.0000368 -0.0000184
1212075 0.0000377 -0.0000096 0.9999623 0.0000096 0.9999623 0.0000096 0.0000377 -0.0000096
1267578 0.0000388 -0.0000009 0.9999612 0.0000009 0.9999612 0.0000009 0.0000388 -0.0000009
1325623 0.0000400 0.0000079 0.9999600 -0.0000079 0.9999600 -0.0000079 0.0000400 0.0000079
1386327 0.0000414 0.0000168 0.9999586 -0.0000168 0.9999586 -0.0000168 0.0000414 0.0000168
1449809 0.0000430 0.0000257 0.9999570 -0.0000257 0.9999570 -0.0000257 0.0000430 0.0000257
1516199 0.0000448 0.0000348 0.9999552 -0.0000348 0.9999552 -0.0000348 0.0000448 0.0000348
1585629 0.0000470 0.0000439 0.9999530 -0.0000439 0.9999530 -0.0000439 0.0000470 0.0000439
1658239 0.0000495 0.0000532 0.9999505 -0.0000532 0.9999505 -0.0000532 0.0000495 0.0000532
1734173 0.0000525 0.0000627 0.9999475 -0.0000627 0.9999475 -0.0000627 0.0000525 0.0000627
1813585 0.0000561 0.0000723 0.9999439 -0.0000723 0.9999439 -0.0000723 0.0000561 0.0000723
1896632 0.0000605 0.0000820 0.9999395 -0.0000820 0.9999395 -0.0000820 0.0000605 0.0000820
1983483 0.0000660 0.0000916 0.9999340 -0.0000916 0.9999340 -0.0000916 0.0000660 0.0000916
2074311 0.0000728 0.0001009 0.9999272 -0.0001009 0.9999272 -0.0001009 0.0000728 0.0001009
