!Murata Part Number: GRM31CD71H106KE11
!These Parameters are Measured in Series Mode Connection
!Data Generated on Mar 30, 2021
!       o--ll--o
!Port1            Port2
!       o------o
!Operation Temp=25[degC], DC Bias Voltage=0[V]
!Freq. Start=100[Hz] Stop=6[GHz] 401[Steps]
# Hz S RI R 50
!Freq.(Hz) S11(Real) S11(Imag) S21(Real) S21(Imag) S12(Real) S12(Imag) S22(Real) S22(Imag)
100 0.7300819 -0.4403408 0.2699181 0.4403408 0.2699181 0.4403408 0.7300819 -0.4403408
105 0.7122965 -0.4491139 0.2877035 0.4491139 0.2877035 0.4491139 0.7122965 -0.4491139
109 0.6938262 -0.4573203 0.3061738 0.4573203 0.3061738 0.4573203 0.6938262 -0.4573203
114 0.6747078 -0.4648950 0.3252922 0.4648950 0.3252922 0.4648950 0.6747078 -0.4648950
120 0.6549864 -0.4717751 0.3450136 0.4717751 0.3450136 0.4717751 0.6549864 -0.4717751
125 0.6347143 -0.4779014 0.3652857 0.4779014 0.3652857 0.4779014 0.6347143 -0.4779014
131 0.6139518 -0.4832194 0.3860482 0.4832194 0.3860482 0.4832194 0.6139518 -0.4832194
137 0.5927660 -0.4876806 0.4072340 0.4876806 0.4072340 0.4876806 0.5927660 -0.4876806
143 0.5712299 -0.4912433 0.4287701 0.4912433 0.4287701 0.4912433 0.5712299 -0.4912433
150 0.5494222 -0.4938737 0.4505778 0.4938737 0.4505778 0.4938737 0.5494222 -0.4938737
156 0.5274253 -0.4955465 0.4725747 0.4955465 0.4725747 0.4955465 0.5274253 -0.4955465
164 0.5053246 -0.4962459 0.4946754 0.4962459 0.4946754 0.4962459 0.5053246 -0.4962459
171 0.4832073 -0.4959653 0.5167927 0.4959653 0.5167927 0.4959653 0.4832073 -0.4959653
179 0.4611605 -0.4947080 0.5388395 0.4947080 0.5388395 0.4947080 0.4611605 -0.4947080
187 0.4392703 -0.4924871 0.5607297 0.4924871 0.5607297 0.4924871 0.4392703 -0.4924871
196 0.4176199 -0.4893248 0.5823801 0.4893248 0.5823801 0.4893248 0.4176199 -0.4893248
205 0.3962892 -0.4852520 0.6037108 0.4852520 0.6037108 0.4852520 0.3962892 -0.4852520
214 0.3753527 -0.4803078 0.6246473 0.4803078 0.6246473 0.4803078 0.3753527 -0.4803078
224 0.3548793 -0.4745384 0.6451207 0.4745384 0.6451207 0.4745384 0.3548793 -0.4745384
234 0.3349312 -0.4679959 0.6650688 0.4679959 0.6650688 0.4679959 0.3349312 -0.4679959
245 0.3155631 -0.4607377 0.6844369 0.4607377 0.6844369 0.4607377 0.3155631 -0.4607377
256 0.2968223 -0.4528248 0.7031777 0.4528248 0.7031777 0.4528248 0.2968223 -0.4528248
268 0.2787481 -0.4443211 0.7212519 0.4443211 0.7212519 0.4443211 0.2787481 -0.4443211
280 0.2613719 -0.4352920 0.7386281 0.4352920 0.7386281 0.4352920 0.2613719 -0.4352920
293 0.2447176 -0.4258034 0.7552824 0.4258034 0.7552824 0.4258034 0.2447176 -0.4258034
306 0.2288015 -0.4159209 0.7711985 0.4159209 0.7711985 0.4159209 0.2288015 -0.4159209
320 0.2136331 -0.4057087 0.7863669 0.4057087 0.7863669 0.4057087 0.2136331 -0.4057087
335 0.1992154 -0.3952291 0.8007846 0.3952291 0.8007846 0.3952291 0.1992154 -0.3952291
350 0.1855455 -0.3845415 0.8144545 0.3845415 0.8144545 0.3845415 0.1855455 -0.3845415
366 0.1726153 -0.3737025 0.8273847 0.3737025 0.8273847 0.3737025 0.1726153 -0.3737025
383 0.1604124 -0.3627648 0.8395876 0.3627648 0.8395876 0.3627648 0.1604124 -0.3627648
401 0.1489201 -0.3517777 0.8510799 0.3517777 0.8510799 0.3517777 0.1489201 -0.3517777
419 0.1381186 -0.3407864 0.8618814 0.3407864 0.8618814 0.3407864 0.1381186 -0.3407864
438 0.1279854 -0.3298318 0.8720146 0.3298318 0.8720146 0.3298318 0.1279854 -0.3298318
458 0.1184960 -0.3189513 0.8815040 0.3189513 0.8815040 0.3189513 0.1184960 -0.3189513
479 0.1096241 -0.3081781 0.8903759 0.3081781 0.8903759 0.3081781 0.1096241 -0.3081781
501 0.1013424 -0.2975413 0.8986576 0.2975413 0.8986576 0.2975413 0.1013424 -0.2975413
524 0.0936229 -0.2870669 0.9063771 0.2870669 0.9063771 0.2870669 0.0936229 -0.2870669
548 0.0864372 -0.2767770 0.9135628 0.2767770 0.9135628 0.2767770 0.0864372 -0.2767770
573 0.0797568 -0.2666905 0.9202432 0.2666905 0.9202432 0.2666905 0.0797568 -0.2666905
600 0.0735537 -0.2568234 0.9264463 0.2568234 0.9264463 0.2568234 0.0735537 -0.2568234
627 0.0678000 -0.2471888 0.9322000 0.2471888 0.9322000 0.2471888 0.0678000 -0.2471888
656 0.0624687 -0.2377973 0.9375313 0.2377973 0.9375313 0.2377973 0.0624687 -0.2377973
686 0.0575335 -0.2286570 0.9424665 0.2286570 0.9424665 0.2286570 0.0575335 -0.2286570
717 0.0529691 -0.2197741 0.9470309 0.2197741 0.9470309 0.2197741 0.0529691 -0.2197741
750 0.0487510 -0.2111527 0.9512490 0.2111527 0.9512490 0.2111527 0.0487510 -0.2111527
784 0.0448561 -0.2027955 0.9551439 0.2027955 0.9551439 0.2027955 0.0448561 -0.2027955
820 0.0412620 -0.1947033 0.9587380 0.1947033 0.9587380 0.1947033 0.0412620 -0.1947033
858 0.0379478 -0.1868758 0.9620522 0.1868758 0.9620522 0.1868758 0.0379478 -0.1868758
897 0.0348933 -0.1793116 0.9651067 0.1793116 0.9651067 0.1793116 0.0348933 -0.1793116
938 0.0320799 -0.1720083 0.9679201 0.1720083 0.9679201 0.1720083 0.0320799 -0.1720083
981 0.0294897 -0.1649624 0.9705103 0.1649624 0.9705103 0.1649624 0.0294897 -0.1649624
1026 0.0271062 -0.1581700 0.9728938 0.1581700 0.9728938 0.1581700 0.0271062 -0.1581700
1073 0.0249136 -0.1516263 0.9750864 0.1516263 0.9750864 0.1516263 0.0249136 -0.1516263
1122 0.0228975 -0.1453262 0.9771025 0.1453262 0.9771025 0.1453262 0.0228975 -0.1453262
1174 0.0210443 -0.1392640 0.9789557 0.1392640 0.9789557 0.1392640 0.0210443 -0.1392640
1227 0.0193411 -0.1334339 0.9806589 0.1334339 0.9806589 0.1334339 0.0193411 -0.1334339
1283 0.0177763 -0.1278297 0.9822237 0.1278297 0.9822237 0.1278297 0.0177763 -0.1278297
1342 0.0163389 -0.1224449 0.9836611 0.1224449 0.9836611 0.1224449 0.0163389 -0.1224449
1404 0.0150187 -0.1172731 0.9849813 0.1172731 0.9849813 0.1172731 0.0150187 -0.1172731
1468 0.0138064 -0.1123076 0.9861936 0.1123076 0.9861936 0.1123076 0.0138064 -0.1123076
1535 0.0126931 -0.1075419 0.9873069 0.1075419 0.9873069 0.1075419 0.0126931 -0.1075419
1606 0.0116708 -0.1029692 0.9883292 0.1029692 0.9883292 0.1029692 0.0116708 -0.1029692
1679 0.0107321 -0.0985830 0.9892679 0.0985830 0.9892679 0.0985830 0.0107321 -0.0985830
1756 0.0098702 -0.0943767 0.9901298 0.0943767 0.9901298 0.0943767 0.0098702 -0.0943767
1836 0.0090788 -0.0903438 0.9909212 0.0903438 0.9909212 0.0903438 0.0090788 -0.0903438
1920 0.0083519 -0.0864779 0.9916481 0.0864779 0.9916481 0.0864779 0.0083519 -0.0864779
2008 0.0076843 -0.0827729 0.9923157 0.0827729 0.9923157 0.0827729 0.0076843 -0.0827729
2100 0.0070711 -0.0792227 0.9929289 0.0792227 0.9929289 0.0792227 0.0070711 -0.0792227
2196 0.0065078 -0.0758211 0.9934922 0.0758211 0.9934922 0.0758211 0.0065078 -0.0758211
2297 0.0059902 -0.0725625 0.9940098 0.0725625 0.9940098 0.0725625 0.0059902 -0.0725625
2402 0.0055145 -0.0694413 0.9944855 0.0694413 0.9944855 0.0694413 0.0055145 -0.0694413
2512 0.0050773 -0.0664518 0.9949227 0.0664518 0.9949227 0.0664518 0.0050773 -0.0664518
2627 0.0046754 -0.0635888 0.9953246 0.0635888 0.9953246 0.0635888 0.0046754 -0.0635888
2748 0.0043059 -0.0608473 0.9956941 0.0608473 0.9956941 0.0608473 0.0043059 -0.0608473
2873 0.0039661 -0.0582221 0.9960339 0.0582221 0.9960339 0.0582221 0.0039661 -0.0582221
3005 0.0036536 -0.0557087 0.9963464 0.0557087 0.9963464 0.0557087 0.0036536 -0.0557087
3143 0.0033662 -0.0533022 0.9966338 0.0533022 0.9966338 0.0533022 0.0033662 -0.0533022
3287 0.0031017 -0.0509984 0.9968983 0.0509984 0.9968983 0.0509984 0.0031017 -0.0509984
3437 0.0028585 -0.0487929 0.9971415 0.0487929 0.9971415 0.0487929 0.0028585 -0.0487929
3594 0.0026346 -0.0466816 0.9973654 0.0466816 0.9973654 0.0466816 0.0026346 -0.0466816
3759 0.0024287 -0.0446606 0.9975713 0.0446606 0.9975713 0.0446606 0.0024287 -0.0446606
3931 0.0022392 -0.0427262 0.9977608 0.0427262 0.9977608 0.0427262 0.0022392 -0.0427262
4111 0.0020649 -0.0408746 0.9979351 0.0408746 0.9979351 0.0408746 0.0020649 -0.0408746
4299 0.0019045 -0.0391024 0.9980955 0.0391024 0.9980955 0.0391024 0.0019045 -0.0391024
4496 0.0017570 -0.0374063 0.9982430 0.0374063 0.9982430 0.0374063 0.0017570 -0.0374063
4702 0.0016213 -0.0357831 0.9983787 0.0357831 0.9983787 0.0357831 0.0016213 -0.0357831
4918 0.0014964 -0.0342296 0.9985036 0.0342296 0.9985036 0.0342296 0.0014964 -0.0342296
5143 0.0013816 -0.0327430 0.9986184 0.0327430 0.9986184 0.0327430 0.0013816 -0.0327430
5378 0.0012761 -0.0313204 0.9987239 0.0313204 0.9987239 0.0313204 0.0012761 -0.0313204
5625 0.0011790 -0.0299591 0.9988210 0.0299591 0.9988210 0.0299591 0.0011790 -0.0299591
5882 0.0010898 -0.0286566 0.9989102 0.0286566 0.9989102 0.0286566 0.0010898 -0.0286566
6151 0.0010078 -0.0274103 0.9989922 0.0274103 0.9989922 0.0274103 0.0010078 -0.0274103
6433 0.0009324 -0.0262178 0.9990676 0.0262178 0.9990676 0.0262178 0.0009324 -0.0262178
6728 0.0008632 -0.0250769 0.9991368 0.0250769 0.9991368 0.0250769 0.0008632 -0.0250769
7036 0.0007996 -0.0239854 0.9992004 0.0239854 0.9992004 0.0239854 0.0007996 -0.0239854
7358 0.0007411 -0.0229411 0.9992589 0.0229411 0.9992589 0.0229411 0.0007411 -0.0229411
7695 0.0006874 -0.0219422 0.9993126 0.0219422 0.9993126 0.0219422 0.0006874 -0.0219422
8047 0.0006381 -0.0209865 0.9993619 0.0209865 0.9993619 0.0209865 0.0006381 -0.0209865
8416 0.0005927 -0.0200724 0.9994073 0.0200724 0.9994073 0.0200724 0.0005927 -0.0200724
8801 0.0005511 -0.0191979 0.9994489 0.0191979 0.9994489 0.0191979 0.0005511 -0.0191979
9204 0.0005128 -0.0183615 0.9994872 0.0183615 0.9994872 0.0183615 0.0005128 -0.0183615
9626 0.0004777 -0.0175614 0.9995223 0.0175614 0.9995223 0.0175614 0.0004777 -0.0175614
10066 0.0004454 -0.0167962 0.9995546 0.0167962 0.9995546 0.0167962 0.0004454 -0.0167962
10527 0.0004157 -0.0160643 0.9995843 0.0160643 0.9995843 0.0160643 0.0004157 -0.0160643
11009 0.0003884 -0.0153642 0.9996116 0.0153642 0.9996116 0.0153642 0.0003884 -0.0153642
11514 0.0003632 -0.0146947 0.9996368 0.0146947 0.9996368 0.0146947 0.0003632 -0.0146947
12041 0.0003401 -0.0140544 0.9996599 0.0140544 0.9996599 0.0140544 0.0003401 -0.0140544
12592 0.0003188 -0.0134420 0.9996812 0.0134420 0.9996812 0.0134420 0.0003188 -0.0134420
13169 0.0002992 -0.0128564 0.9997008 0.0128564 0.9997008 0.0128564 0.0002992 -0.0128564
13772 0.0002811 -0.0122963 0.9997189 0.0122963 0.9997189 0.0122963 0.0002811 -0.0122963
14402 0.0002644 -0.0117607 0.9997356 0.0117607 0.9997356 0.0117607 0.0002644 -0.0117607
15062 0.0002489 -0.0112484 0.9997511 0.0112484 0.9997511 0.0112484 0.0002489 -0.0112484
15752 0.0002346 -0.0107585 0.9997654 0.0107585 0.9997654 0.0107585 0.0002346 -0.0107585
16473 0.0002214 -0.0102901 0.9997786 0.0102901 0.9997786 0.0102901 0.0002214 -0.0102901
17227 0.0002091 -0.0098420 0.9997909 0.0098420 0.9997909 0.0098420 0.0002091 -0.0098420
18016 0.0001978 -0.0094136 0.9998022 0.0094136 0.9998022 0.0094136 0.0001978 -0.0094136
18841 0.0001872 -0.0090039 0.9998128 0.0090039 0.9998128 0.0090039 0.0001872 -0.0090039
19704 0.0001773 -0.0086120 0.9998227 0.0086120 0.9998227 0.0086120 0.0001773 -0.0086120
20606 0.0001681 -0.0082372 0.9998319 0.0082372 0.9998319 0.0082372 0.0001681 -0.0082372
21550 0.0001595 -0.0078789 0.9998405 0.0078789 0.9998405 0.0078789 0.0001595 -0.0078789
22537 0.0001515 -0.0075361 0.9998485 0.0075361 0.9998485 0.0075361 0.0001515 -0.0075361
23569 0.0001440 -0.0072083 0.9998560 0.0072083 0.9998560 0.0072083 0.0001440 -0.0072083
24648 0.0001369 -0.0068947 0.9998631 0.0068947 0.9998631 0.0068947 0.0001369 -0.0068947
25777 0.0001303 -0.0065948 0.9998697 0.0065948 0.9998697 0.0065948 0.0001303 -0.0065948
26957 0.0001241 -0.0063080 0.9998759 0.0063080 0.9998759 0.0063080 0.0001241 -0.0063080
28191 0.0001182 -0.0060337 0.9998818 0.0060337 0.9998818 0.0060337 0.0001182 -0.0060337
29482 0.0001127 -0.0057712 0.9998873 0.0057712 0.9998873 0.0057712 0.0001127 -0.0057712
30832 0.0001075 -0.0055202 0.9998925 0.0055202 0.9998925 0.0055202 0.0001075 -0.0055202
32244 0.0001026 -0.0052801 0.9998974 0.0052801 0.9998974 0.0052801 0.0001026 -0.0052801
33721 0.0000979 -0.0050504 0.9999021 0.0050504 0.9999021 0.0050504 0.0000979 -0.0050504
35265 0.0000935 -0.0048307 0.9999065 0.0048307 0.9999065 0.0048307 0.0000935 -0.0048307
36880 0.0000894 -0.0046205 0.9999106 0.0046205 0.9999106 0.0046205 0.0000894 -0.0046205
38569 0.0000855 -0.0044194 0.9999145 0.0044194 0.9999145 0.0044194 0.0000855 -0.0044194
40335 0.0000818 -0.0042270 0.9999182 0.0042270 0.9999182 0.0042270 0.0000818 -0.0042270
42182 0.0000784 -0.0040429 0.9999216 0.0040429 0.9999216 0.0040429 0.0000784 -0.0040429
44113 0.0000751 -0.0038668 0.9999249 0.0038668 0.9999249 0.0038668 0.0000751 -0.0038668
46134 0.0000720 -0.0036983 0.9999280 0.0036983 0.9999280 0.0036983 0.0000720 -0.0036983
48246 0.0000692 -0.0035371 0.9999308 0.0035371 0.9999308 0.0035371 0.0000692 -0.0035371
50455 0.0000664 -0.0033829 0.9999336 0.0033829 0.9999336 0.0033829 0.0000664 -0.0033829
52766 0.0000639 -0.0032354 0.9999361 0.0032354 0.9999361 0.0032354 0.0000639 -0.0032354
55182 0.0000615 -0.0030942 0.9999385 0.0030942 0.9999385 0.0030942 0.0000615 -0.0030942
57709 0.0000592 -0.0029592 0.9999408 0.0029592 0.9999408 0.0029592 0.0000592 -0.0029592
60352 0.0000571 -0.0028299 0.9999429 0.0028299 0.9999429 0.0028299 0.0000571 -0.0028299
63115 0.0000552 -0.0027063 0.9999448 0.0027063 0.9999448 0.0027063 0.0000552 -0.0027063
66005 0.0000533 -0.0025880 0.9999467 0.0025880 0.9999467 0.0025880 0.0000533 -0.0025880
69028 0.0000516 -0.0024749 0.9999484 0.0024749 0.9999484 0.0024749 0.0000516 -0.0024749
72189 0.0000500 -0.0023666 0.9999500 0.0023666 0.9999500 0.0023666 0.0000500 -0.0023666
75495 0.0000485 -0.0022630 0.9999515 0.0022630 0.9999515 0.0022630 0.0000485 -0.0022630
78952 0.0000471 -0.0021639 0.9999529 0.0021639 0.9999529 0.0021639 0.0000471 -0.0021639
82567 0.0000458 -0.0020691 0.9999542 0.0020691 0.9999542 0.0020691 0.0000458 -0.0020691
86348 0.0000446 -0.0019784 0.9999554 0.0019784 0.9999554 0.0019784 0.0000446 -0.0019784
90302 0.0000435 -0.0018916 0.9999565 0.0018916 0.9999565 0.0018916 0.0000435 -0.0018916
94437 0.0000425 -0.0018085 0.9999575 0.0018085 0.9999575 0.0018085 0.0000425 -0.0018085
98762 0.0000415 -0.0017291 0.9999585 0.0017291 0.9999585 0.0017291 0.0000415 -0.0017291
103284 0.0000406 -0.0016531 0.9999594 0.0016531 0.9999594 0.0016531 0.0000406 -0.0016531
108014 0.0000397 -0.0015804 0.9999603 0.0015804 0.9999603 0.0015804 0.0000397 -0.0015804
112960 0.0000389 -0.0015108 0.9999611 0.0015108 0.9999611 0.0015108 0.0000389 -0.0015108
118133 0.0000382 -0.0014442 0.9999618 0.0014442 0.9999618 0.0014442 0.0000382 -0.0014442
123542 0.0000375 -0.0013805 0.9999625 0.0013805 0.9999625 0.0013805 0.0000375 -0.0013805
129199 0.0000369 -0.0013195 0.9999631 0.0013195 0.9999631 0.0013195 0.0000369 -0.0013195
135116 0.0000363 -0.0012612 0.9999637 0.0012612 0.9999637 0.0012612 0.0000363 -0.0012612
141303 0.0000357 -0.0012053 0.9999643 0.0012053 0.9999643 0.0012053 0.0000357 -0.0012053
147774 0.0000352 -0.0011519 0.9999648 0.0011519 0.9999648 0.0011519 0.0000352 -0.0011519
154540 0.0000347 -0.0011008 0.9999653 0.0011008 0.9999653 0.0011008 0.0000347 -0.0011008
161617 0.0000342 -0.0010518 0.9999658 0.0010518 0.9999658 0.0010518 0.0000342 -0.0010518
169018 0.0000338 -0.0010049 0.9999662 0.0010049 0.9999662 0.0010049 0.0000338 -0.0010049
176758 0.0000334 -0.0009601 0.9999666 0.0009601 0.9999666 0.0009601 0.0000334 -0.0009601
184852 0.0000330 -0.0009171 0.9999670 0.0009171 0.9999670 0.0009171 0.0000330 -0.0009171
193316 0.0000326 -0.0008760 0.9999674 0.0008760 0.9999674 0.0008760 0.0000326 -0.0008760
202169 0.0000323 -0.0008366 0.9999677 0.0008366 0.9999677 0.0008366 0.0000323 -0.0008366
211427 0.0000319 -0.0007989 0.9999681 0.0007989 0.9999681 0.0007989 0.0000319 -0.0007989
221108 0.0000316 -0.0007627 0.9999684 0.0007627 0.9999684 0.0007627 0.0000316 -0.0007627
231233 0.0000313 -0.0007281 0.9999687 0.0007281 0.9999687 0.0007281 0.0000313 -0.0007281
241822 0.0000311 -0.0006949 0.9999689 0.0006949 0.9999689 0.0006949 0.0000311 -0.0006949
252896 0.0000308 -0.0006631 0.9999692 0.0006631 0.9999692 0.0006631 0.0000308 -0.0006631
264476 0.0000305 -0.0006327 0.9999695 0.0006327 0.9999695 0.0006327 0.0000305 -0.0006327
276587 0.0000303 -0.0006034 0.9999697 0.0006034 0.9999697 0.0006034 0.0000303 -0.0006034
289253 0.0000301 -0.0005754 0.9999699 0.0005754 0.9999699 0.0005754 0.0000301 -0.0005754
302498 0.0000299 -0.0005485 0.9999701 0.0005485 0.9999701 0.0005485 0.0000299 -0.0005485
316350 0.0000297 -0.0005227 0.9999703 0.0005227 0.9999703 0.0005227 0.0000297 -0.0005227
330837 0.0000296 -0.0004979 0.9999704 0.0004979 0.9999704 0.0004979 0.0000296 -0.0004979
345986 0.0000294 -0.0004742 0.9999706 0.0004742 0.9999706 0.0004742 0.0000294 -0.0004742
361830 0.0000293 -0.0004513 0.9999707 0.0004513 0.9999707 0.0004513 0.0000293 -0.0004513
378399 0.0000292 -0.0004294 0.9999708 0.0004294 0.9999708 0.0004294 0.0000292 -0.0004294
395726 0.0000291 -0.0004083 0.9999709 0.0004083 0.9999709 0.0004083 0.0000291 -0.0004083
413847 0.0000290 -0.0003880 0.9999710 0.0003880 0.9999710 0.0003880 0.0000290 -0.0003880
432798 0.0000289 -0.0003685 0.9999711 0.0003685 0.9999711 0.0003685 0.0000289 -0.0003685
452617 0.0000288 -0.0003497 0.9999712 0.0003497 0.9999712 0.0003497 0.0000288 -0.0003497
473344 0.0000288 -0.0003316 0.9999712 0.0003316 0.9999712 0.0003316 0.0000288 -0.0003316
495019 0.0000288 -0.0003141 0.9999712 0.0003141 0.9999712 0.0003141 0.0000288 -0.0003141
517687 0.0000288 -0.0002973 0.9999712 0.0002973 0.9999712 0.0002973 0.0000288 -0.0002973
541393 0.0000288 -0.0002811 0.9999712 0.0002811 0.9999712 0.0002811 0.0000288 -0.0002811
566185 0.0000289 -0.0002654 0.9999711 0.0002654 0.9999711 0.0002654 0.0000289 -0.0002654
592111 0.0000289 -0.0002503 0.9999711 0.0002503 0.9999711 0.0002503 0.0000289 -0.0002503
619225 0.0000290 -0.0002356 0.9999710 0.0002356 0.9999710 0.0002356 0.0000290 -0.0002356
647581 0.0000291 -0.0002215 0.9999709 0.0002215 0.9999709 0.0002215 0.0000291 -0.0002215
677235 0.0000292 -0.0002077 0.9999708 0.0002077 0.9999708 0.0002077 0.0000292 -0.0002077
708247 0.0000294 -0.0001944 0.9999706 0.0001944 0.9999706 0.0001944 0.0000294 -0.0001944
740679 0.0000296 -0.0001814 0.9999704 0.0001814 0.9999704 0.0001814 0.0000296 -0.0001814
774597 0.0000298 -0.0001688 0.9999702 0.0001688 0.9999702 0.0001688 0.0000298 -0.0001688
810067 0.0000300 -0.0001566 0.9999700 0.0001566 0.9999700 0.0001566 0.0000300 -0.0001566
847162 0.0000303 -0.0001447 0.9999697 0.0001447 0.9999697 0.0001447 0.0000303 -0.0001447
885955 0.0000306 -0.0001330 0.9999694 0.0001330 0.9999694 0.0001330 0.0000306 -0.0001330
926525 0.0000310 -0.0001216 0.9999690 0.0001216 0.9999690 0.0001216 0.0000310 -0.0001216
968953 0.0000314 -0.0001104 0.9999686 0.0001104 0.9999686 0.0001104 0.0000314 -0.0001104
1013323 0.0000319 -0.0000995 0.9999681 0.0000995 0.9999681 0.0000995 0.0000319 -0.0000995
1059725 0.0000324 -0.0000887 0.9999676 0.0000887 0.9999676 0.0000887 0.0000324 -0.0000887
1108252 0.0000329 -0.0000781 0.9999671 0.0000781 0.9999671 0.0000781 0.0000329 -0.0000781
1159002 0.0000335 -0.0000677 0.9999665 0.0000677 0.9999665 0.0000677 0.0000335 -0.0000677
1212075 0.0000342 -0.0000574 0.9999658 0.0000574 0.9999658 0.0000574 0.0000342 -0.0000574
1267578 0.0000350 -0.0000471 0.9999650 0.0000471 0.9999650 0.0000471 0.0000350 -0.0000471
1325623 0.0000358 -0.0000370 0.9999642 0.0000370 0.9999642 0.0000370 0.0000358 -0.0000370
1386327 0.0000368 -0.0000269 0.9999632 0.0000269 0.9999632 0.0000269 0.0000368 -0.0000269
1449809 0.0000378 -0.0000168 0.9999622 0.0000168 0.9999622 0.0000168 0.0000378 -0.0000168
1516199 0.0000390 -0.0000067 0.9999610 0.0000067 0.9999610 0.0000067 0.0000390 -0.0000067
1585629 0.0000403 0.0000034 0.9999597 -0.0000034 0.9999597 -0.0000034 0.0000403 0.0000034
1658239 0.0000418 0.0000136 0.9999582 -0.0000136 0.9999582 -0.0000136 0.0000418 0.0000136
1734173 0.0000435 0.0000239 0.9999565 -0.0000239 0.9999565 -0.0000239 0.0000435 0.0000239
1813585 0.0000454 0.0000343 0.9999546 -0.0000343 0.9999546 -0.0000343 0.0000454 0.0000343
1896632 0.0000477 0.0000450 0.9999523 -0.0000450 0.9999523 -0.0000450 0.0000477 0.0000450
1983483 0.0000502 0.0000558 0.9999498 -0.0000558 0.9999498 -0.0000558 0.0000502 0.0000558
2074311 0.0000533 0.0000670 0.9999467 -0.0000670 0.9999467 -0.0000670 0.0000533 0.0000670
