!Murata Part Number: GRM31BR72E683KW01
!These Parameters are Measured in Series Mode Connection
!Data Generated on Mar 30, 2021
!       o--ll--o
!Port1            Port2
!       o------o
!Operation Temp=25[degC], DC Bias Voltage=0[V]
!Freq. Start=100[kHz] Stop=6[GHz] 401[Steps]
# Hz S RI R 50
!Freq.(Hz) S11(Real) S11(Imag) S21(Real) S21(Imag) S12(Real) S12(Imag) S22(Real) S22(Imag)
100000 0.0591761 -0.2304719 0.9408239 0.2304719 0.9408239 0.2304719 0.0591761 -0.2304719
102789 0.0562818 -0.2249703 0.9437182 0.2249703 0.9437182 0.2249703 0.0562818 -0.2249703
105655 0.0535222 -0.2195658 0.9464778 0.2195658 0.9464778 0.2195658 0.0535222 -0.2195658
108602 0.0508919 -0.2142592 0.9491081 0.2142592 0.9491081 0.2142592 0.0508919 -0.2142592
111630 0.0483857 -0.2090511 0.9516143 0.2090511 0.9516143 0.2090511 0.0483857 -0.2090511
114743 0.0459981 -0.2039420 0.9540019 0.2039420 0.9540019 0.2039420 0.0459981 -0.2039420
117943 0.0437244 -0.1989319 0.9562756 0.1989319 0.9562756 0.1989319 0.0437244 -0.1989319
121232 0.0415595 -0.1940209 0.9584405 0.1940209 0.9584405 0.1940209 0.0415595 -0.1940209
124613 0.0394988 -0.1892088 0.9605012 0.1892088 0.9605012 0.1892088 0.0394988 -0.1892088
128088 0.0375377 -0.1844952 0.9624623 0.1844952 0.9624623 0.1844952 0.0375377 -0.1844952
131660 0.0356719 -0.1798798 0.9643281 0.1798798 0.9643281 0.1798798 0.0356719 -0.1798798
135332 0.0338970 -0.1753618 0.9661030 0.1753618 0.9661030 0.1753618 0.0338970 -0.1753618
139106 0.0322090 -0.1709407 0.9677910 0.1709407 0.9677910 0.1709407 0.0322090 -0.1709407
142985 0.0306040 -0.1666155 0.9693960 0.1666155 0.9693960 0.1666155 0.0306040 -0.1666155
146972 0.0290782 -0.1623854 0.9709218 0.1623854 0.9709218 0.1623854 0.0290782 -0.1623854
151071 0.0276279 -0.1582494 0.9723721 0.1582494 0.9723721 0.1582494 0.0276279 -0.1582494
155284 0.0262496 -0.1542063 0.9737504 0.1542063 0.9737504 0.1542063 0.0262496 -0.1542063
159614 0.0249399 -0.1502551 0.9750601 0.1502551 0.9750601 0.1502551 0.0249399 -0.1502551
164065 0.0236957 -0.1463946 0.9763043 0.1463946 0.9763043 0.1463946 0.0236957 -0.1463946
168641 0.0225138 -0.1426234 0.9774862 0.1426234 0.9774862 0.1426234 0.0225138 -0.1426234
173344 0.0213913 -0.1389403 0.9786087 0.1389403 0.9786087 0.1389403 0.0213913 -0.1389403
178178 0.0203253 -0.1353439 0.9796747 0.1353439 0.9796747 0.1353439 0.0203253 -0.1353439
183146 0.0193131 -0.1318328 0.9806869 0.1318328 0.9806869 0.1318328 0.0193131 -0.1318328
188254 0.0183522 -0.1284056 0.9816478 0.1284056 0.9816478 0.1284056 0.0183522 -0.1284056
193504 0.0174399 -0.1250609 0.9825601 0.1250609 0.9825601 0.1250609 0.0174399 -0.1250609
198900 0.0165739 -0.1217973 0.9834261 0.1217973 0.9834261 0.1217973 0.0165739 -0.1217973
204447 0.0157520 -0.1186131 0.9842480 0.1186131 0.9842480 0.1186131 0.0157520 -0.1186131
210148 0.0149720 -0.1155071 0.9850280 0.1155071 0.9850280 0.1155071 0.0149720 -0.1155071
216008 0.0142318 -0.1124776 0.9857682 0.1124776 0.9857682 0.1124776 0.0142318 -0.1124776
222032 0.0135293 -0.1095231 0.9864707 0.1095231 0.9864707 0.1095231 0.0135293 -0.1095231
228224 0.0128628 -0.1066422 0.9871372 0.1066422 0.9871372 0.1066422 0.0128628 -0.1066422
234589 0.0122304 -0.1038334 0.9877696 0.1038334 0.9877696 0.1038334 0.0122304 -0.1038334
241130 0.0116304 -0.1010952 0.9883696 0.1010952 0.9883696 0.1010952 0.0116304 -0.1010952
247855 0.0110612 -0.0984260 0.9889388 0.0984260 0.9889388 0.0984260 0.0110612 -0.0984260
254767 0.0105211 -0.0958244 0.9894789 0.0958244 0.9894789 0.0958244 0.0105211 -0.0958244
261871 0.0100088 -0.0932889 0.9899912 0.0932889 0.9899912 0.0932889 0.0100088 -0.0932889
269174 0.0095228 -0.0908182 0.9904772 0.0908182 0.9904772 0.0908182 0.0095228 -0.0908182
276681 0.0090617 -0.0884106 0.9909383 0.0884106 0.9909383 0.0884106 0.0090617 -0.0884106
284397 0.0086242 -0.0860649 0.9913758 0.0860649 0.9913758 0.0860649 0.0086242 -0.0860649
292328 0.0082092 -0.0837795 0.9917908 0.0837795 0.9917908 0.0837795 0.0082092 -0.0837795
300480 0.0078155 -0.0815531 0.9921845 0.0815531 0.9921845 0.0815531 0.0078155 -0.0815531
308859 0.0074420 -0.0793844 0.9925580 0.0793844 0.9925580 0.0793844 0.0074420 -0.0793844
317472 0.0070876 -0.0772719 0.9929124 0.0772719 0.9929124 0.0772719 0.0070876 -0.0772719
326326 0.0067513 -0.0752143 0.9932487 0.0752143 0.9932487 0.0752143 0.0067513 -0.0752143
335426 0.0064323 -0.0732103 0.9935677 0.0732103 0.9935677 0.0732103 0.0064323 -0.0732103
344780 0.0061295 -0.0712586 0.9938705 0.0712586 0.9938705 0.0712586 0.0061295 -0.0712586
354395 0.0058422 -0.0693580 0.9941578 0.0693580 0.9941578 0.0693580 0.0058422 -0.0693580
364278 0.0055695 -0.0675071 0.9944305 0.0675071 0.9944305 0.0675071 0.0055695 -0.0675071
374436 0.0053107 -0.0657048 0.9946893 0.0657048 0.9946893 0.0657048 0.0053107 -0.0657048
384878 0.0050650 -0.0639499 0.9949350 0.0639499 0.9949350 0.0639499 0.0050650 -0.0639499
395611 0.0048318 -0.0622411 0.9951682 0.0622411 0.9951682 0.0622411 0.0048318 -0.0622411
406644 0.0046103 -0.0605773 0.9953897 0.0605773 0.9953897 0.0605773 0.0046103 -0.0605773
417984 0.0044001 -0.0589574 0.9955999 0.0589574 0.9955999 0.0589574 0.0044001 -0.0589574
429640 0.0042005 -0.0573802 0.9957995 0.0573802 0.9957995 0.0573802 0.0042005 -0.0573802
441622 0.0040108 -0.0558448 0.9959892 0.0558448 0.9959892 0.0558448 0.0040108 -0.0558448
453937 0.0038307 -0.0543499 0.9961693 0.0543499 0.9961693 0.0543499 0.0038307 -0.0543499
466596 0.0036597 -0.0528945 0.9963403 0.0528945 0.9963403 0.0528945 0.0036597 -0.0528945
479608 0.0034971 -0.0514777 0.9965029 0.0514777 0.9965029 0.0514777 0.0034971 -0.0514777
492983 0.0033427 -0.0500985 0.9966573 0.0500985 0.9966573 0.0500985 0.0033427 -0.0500985
506731 0.0031959 -0.0487558 0.9968041 0.0487558 0.9968041 0.0487558 0.0031959 -0.0487558
520862 0.0030565 -0.0474487 0.9969435 0.0474487 0.9969435 0.0474487 0.0030565 -0.0474487
535387 0.0029239 -0.0461763 0.9970761 0.0461763 0.9970761 0.0461763 0.0029239 -0.0461763
550318 0.0027979 -0.0449377 0.9972021 0.0449377 0.9972021 0.0449377 0.0027979 -0.0449377
565664 0.0026780 -0.0437320 0.9973220 0.0437320 0.9973220 0.0437320 0.0026780 -0.0437320
581439 0.0025641 -0.0425582 0.9974359 0.0425582 0.9974359 0.0425582 0.0025641 -0.0425582
597654 0.0024558 -0.0414157 0.9975442 0.0414157 0.9975442 0.0414157 0.0024558 -0.0414157
614320 0.0023528 -0.0403035 0.9976472 0.0403035 0.9976472 0.0403035 0.0023528 -0.0403035
631452 0.0022548 -0.0392209 0.9977452 0.0392209 0.9977452 0.0392209 0.0022548 -0.0392209
649061 0.0021616 -0.0381671 0.9978384 0.0381671 0.9978384 0.0381671 0.0021616 -0.0381671
667162 0.0020729 -0.0371413 0.9979271 0.0371413 0.9979271 0.0371413 0.0020729 -0.0371413
685767 0.0019886 -0.0361427 0.9980114 0.0361427 0.9980114 0.0361427 0.0019886 -0.0361427
704891 0.0019084 -0.0351707 0.9980916 0.0351707 0.9980916 0.0351707 0.0019084 -0.0351707
724548 0.0018320 -0.0342246 0.9981680 0.0342246 0.9981680 0.0342246 0.0018320 -0.0342246
744754 0.0017594 -0.0333036 0.9982406 0.0333036 0.9982406 0.0333036 0.0017594 -0.0333036
765523 0.0016903 -0.0324071 0.9983097 0.0324071 0.9983097 0.0324071 0.0016903 -0.0324071
786871 0.0016245 -0.0315345 0.9983755 0.0315345 0.9983755 0.0315345 0.0016245 -0.0315345
808814 0.0015620 -0.0306851 0.9984380 0.0306851 0.9984380 0.0306851 0.0015620 -0.0306851
831370 0.0015024 -0.0298583 0.9984976 0.0298583 0.9984976 0.0298583 0.0015024 -0.0298583
854554 0.0014458 -0.0290535 0.9985542 0.0290535 0.9985542 0.0290535 0.0014458 -0.0290535
878385 0.0013919 -0.0282701 0.9986081 0.0282701 0.9986081 0.0282701 0.0013919 -0.0282701
902880 0.0013406 -0.0275075 0.9986594 0.0275075 0.9986594 0.0275075 0.0013406 -0.0275075
928059 0.0012918 -0.0267652 0.9987082 0.0267652 0.9987082 0.0267652 0.0012918 -0.0267652
953940 0.0012454 -0.0260427 0.9987546 0.0260427 0.9987546 0.0260427 0.0012454 -0.0260427
980542 0.0012012 -0.0253395 0.9987988 0.0253395 0.9987988 0.0253395 0.0012012 -0.0253395
1007887 0.0011592 -0.0246549 0.9988408 0.0246549 0.9988408 0.0246549 0.0011592 -0.0246549
1035994 0.0011192 -0.0239886 0.9988808 0.0239886 0.9988808 0.0239886 0.0011192 -0.0239886
1064885 0.0010812 -0.0233400 0.9989188 0.0233400 0.9989188 0.0233400 0.0010812 -0.0233400
1094581 0.0010450 -0.0227087 0.9989550 0.0227087 0.9989550 0.0227087 0.0010450 -0.0227087
1125106 0.0010106 -0.0220942 0.9989894 0.0220942 0.9989894 0.0220942 0.0010106 -0.0220942
1156481 0.0009778 -0.0214961 0.9990222 0.0214961 0.9990222 0.0214961 0.0009778 -0.0214961
1188732 0.0009467 -0.0209139 0.9990533 0.0209139 0.9990533 0.0209139 0.0009467 -0.0209139
1221882 0.0009171 -0.0203472 0.9990829 0.0203472 0.9990829 0.0203472 0.0009171 -0.0203472
1255957 0.0008889 -0.0197957 0.9991111 0.0197957 0.9991111 0.0197957 0.0008889 -0.0197957
1290982 0.0008621 -0.0192588 0.9991379 0.0192588 0.9991379 0.0192588 0.0008621 -0.0192588
1326984 0.0008367 -0.0187362 0.9991633 0.0187362 0.9991633 0.0187362 0.0008367 -0.0187362
1363989 0.0008124 -0.0182275 0.9991876 0.0182275 0.9991876 0.0182275 0.0008124 -0.0182275
1402027 0.0007894 -0.0177324 0.9992106 0.0177324 0.9992106 0.0177324 0.0007894 -0.0177324
1441125 0.0007675 -0.0172505 0.9992325 0.0172505 0.9992325 0.0172505 0.0007675 -0.0172505
1481314 0.0007466 -0.0167815 0.9992534 0.0167815 0.9992534 0.0167815 0.0007466 -0.0167815
1522623 0.0007268 -0.0163249 0.9992732 0.0163249 0.9992732 0.0163249 0.0007268 -0.0163249
1565085 0.0007080 -0.0158805 0.9992920 0.0158805 0.9992920 0.0158805 0.0007080 -0.0158805
1608730 0.0006900 -0.0154479 0.9993100 0.0154479 0.9993100 0.0154479 0.0006900 -0.0154479
1653593 0.0006730 -0.0150269 0.9993270 0.0150269 0.9993270 0.0150269 0.0006730 -0.0150269
1699707 0.0006567 -0.0146170 0.9993433 0.0146170 0.9993433 0.0146170 0.0006567 -0.0146170
1747106 0.0006413 -0.0142181 0.9993587 0.0142181 0.9993587 0.0142181 0.0006413 -0.0142181
1795828 0.0006266 -0.0138297 0.9993734 0.0138297 0.9993734 0.0138297 0.0006266 -0.0138297
1845908 0.0006126 -0.0134518 0.9993874 0.0134518 0.9993874 0.0134518 0.0006126 -0.0134518
1897385 0.0005993 -0.0130838 0.9994007 0.0130838 0.9994007 0.0130838 0.0005993 -0.0130838
1950297 0.0005866 -0.0127256 0.9994134 0.0127256 0.9994134 0.0127256 0.0005866 -0.0127256
2004685 0.0005745 -0.0123770 0.9994255 0.0123770 0.9994255 0.0123770 0.0005745 -0.0123770
2060590 0.0005630 -0.0120376 0.9994370 0.0120376 0.9994370 0.0120376 0.0005630 -0.0120376
2118054 0.0005520 -0.0117072 0.9994480 0.0117072 0.9994480 0.0117072 0.0005520 -0.0117072
2177120 0.0005415 -0.0113855 0.9994585 0.0113855 0.9994585 0.0113855 0.0005415 -0.0113855
2237833 0.0005315 -0.0110724 0.9994685 0.0110724 0.9994685 0.0110724 0.0005315 -0.0110724
2300240 0.0005220 -0.0107676 0.9994780 0.0107676 0.9994780 0.0107676 0.0005220 -0.0107676
2364387 0.0005129 -0.0104708 0.9994871 0.0104708 0.9994871 0.0104708 0.0005129 -0.0104708
2430322 0.0005042 -0.0101818 0.9994958 0.0101818 0.9994958 0.0101818 0.0005042 -0.0101818
2498097 0.0004959 -0.0099005 0.9995041 0.0099005 0.9995041 0.0099005 0.0004959 -0.0099005
2567761 0.0004880 -0.0096266 0.9995120 0.0096266 0.9995120 0.0096266 0.0004880 -0.0096266
2639368 0.0004804 -0.0093599 0.9995196 0.0093599 0.9995196 0.0093599 0.0004804 -0.0093599
2712972 0.0004731 -0.0091001 0.9995269 0.0091001 0.9995269 0.0091001 0.0004731 -0.0091001
2788629 0.0004662 -0.0088472 0.9995338 0.0088472 0.9995338 0.0088472 0.0004662 -0.0088472
2866396 0.0004595 -0.0086009 0.9995405 0.0086009 0.9995405 0.0086009 0.0004595 -0.0086009
2946331 0.0004531 -0.0083611 0.9995469 0.0083611 0.9995469 0.0083611 0.0004531 -0.0083611
3028495 0.0004469 -0.0081274 0.9995531 0.0081274 0.9995531 0.0081274 0.0004469 -0.0081274
3112951 0.0004410 -0.0078999 0.9995590 0.0078999 0.9995590 0.0078999 0.0004410 -0.0078999
3199762 0.0004353 -0.0076783 0.9995647 0.0076783 0.9995647 0.0076783 0.0004353 -0.0076783
3288994 0.0004299 -0.0074624 0.9995701 0.0074624 0.9995701 0.0074624 0.0004299 -0.0074624
3380714 0.0004246 -0.0072520 0.9995754 0.0072520 0.9995754 0.0072520 0.0004246 -0.0072520
3474992 0.0004195 -0.0070471 0.9995805 0.0070471 0.9995805 0.0070471 0.0004195 -0.0070471
3571899 0.0004146 -0.0068474 0.9995854 0.0068474 0.9995854 0.0068474 0.0004146 -0.0068474
3671508 0.0004099 -0.0066528 0.9995901 0.0066528 0.9995901 0.0066528 0.0004099 -0.0066528
3773896 0.0004053 -0.0064632 0.9995947 0.0064632 0.9995947 0.0064632 0.0004053 -0.0064632
3879139 0.0004009 -0.0062784 0.9995991 0.0062784 0.9995991 0.0062784 0.0004009 -0.0062784
3987316 0.0003966 -0.0060982 0.9996034 0.0060982 0.9996034 0.0060982 0.0003966 -0.0060982
4098510 0.0003925 -0.0059226 0.9996075 0.0059226 0.9996075 0.0059226 0.0003925 -0.0059226
4212806 0.0003885 -0.0057514 0.9996115 0.0057514 0.9996115 0.0057514 0.0003885 -0.0057514
4330288 0.0003846 -0.0055845 0.9996154 0.0055845 0.9996154 0.0055845 0.0003846 -0.0055845
4451047 0.0003808 -0.0054216 0.9996192 0.0054216 0.9996192 0.0054216 0.0003808 -0.0054216
4575173 0.0003771 -0.0052628 0.9996229 0.0052628 0.9996229 0.0052628 0.0003771 -0.0052628
4702761 0.0003736 -0.0051079 0.9996264 0.0051079 0.9996264 0.0051079 0.0003736 -0.0051079
4833907 0.0003701 -0.0049568 0.9996299 0.0049568 0.9996299 0.0049568 0.0003701 -0.0049568
4968711 0.0003668 -0.0048093 0.9996332 0.0048093 0.9996332 0.0048093 0.0003668 -0.0048093
5107273 0.0003635 -0.0046654 0.9996365 0.0046654 0.9996365 0.0046654 0.0003635 -0.0046654
5249700 0.0003603 -0.0045249 0.9996397 0.0045249 0.9996397 0.0045249 0.0003603 -0.0045249
5396098 0.0003572 -0.0043877 0.9996428 0.0043877 0.9996428 0.0043877 0.0003572 -0.0043877
5546579 0.0003542 -0.0042538 0.9996458 0.0042538 0.9996458 0.0042538 0.0003542 -0.0042538
5701257 0.0003513 -0.0041230 0.9996487 0.0041230 0.9996487 0.0041230 0.0003513 -0.0041230
5860248 0.0003485 -0.0039952 0.9996515 0.0039952 0.9996515 0.0039952 0.0003485 -0.0039952
6023672 0.0003458 -0.0038704 0.9996542 0.0038704 0.9996542 0.0038704 0.0003458 -0.0038704
6191655 0.0003431 -0.0037484 0.9996569 0.0037484 0.9996569 0.0037484 0.0003431 -0.0037484
6364321 0.0003405 -0.0036291 0.9996595 0.0036291 0.9996595 0.0036291 0.0003405 -0.0036291
6541803 0.0003380 -0.0035125 0.9996620 0.0035125 0.9996620 0.0035125 0.0003380 -0.0035125
6724235 0.0003356 -0.0033984 0.9996644 0.0033984 0.9996644 0.0033984 0.0003356 -0.0033984
6911753 0.0003333 -0.0032868 0.9996667 0.0032868 0.9996667 0.0032868 0.0003333 -0.0032868
7104501 0.0003310 -0.0031776 0.9996690 0.0031776 0.9996690 0.0031776 0.0003310 -0.0031776
7302625 0.0003289 -0.0030708 0.9996711 0.0030708 0.9996711 0.0030708 0.0003289 -0.0030708
7506273 0.0003268 -0.0029661 0.9996732 0.0029661 0.9996732 0.0029661 0.0003268 -0.0029661
7715601 0.0003248 -0.0028637 0.9996752 0.0028637 0.9996752 0.0028637 0.0003248 -0.0028637
7930766 0.0003229 -0.0027633 0.9996771 0.0027633 0.9996771 0.0027633 0.0003229 -0.0027633
8151931 0.0003210 -0.0026649 0.9996790 0.0026649 0.9996790 0.0026649 0.0003210 -0.0026649
8379264 0.0003193 -0.0025685 0.9996807 0.0025685 0.9996807 0.0025685 0.0003193 -0.0025685
8612937 0.0003176 -0.0024739 0.9996824 0.0024739 0.9996824 0.0024739 0.0003176 -0.0024739
8853126 0.0003160 -0.0023811 0.9996840 0.0023811 0.9996840 0.0023811 0.0003160 -0.0023811
9100013 0.0003145 -0.0022901 0.9996855 0.0022901 0.9996855 0.0022901 0.0003145 -0.0022901
9353785 0.0003131 -0.0022007 0.9996869 0.0022007 0.9996869 0.0022007 0.0003131 -0.0022007
9614634 0.0003118 -0.0021129 0.9996882 0.0021129 0.9996882 0.0021129 0.0003118 -0.0021129
9882758 0.0003105 -0.0020266 0.9996895 0.0020266 0.9996895 0.0020266 0.0003105 -0.0020266
10158358 0.0003094 -0.0019418 0.9996906 0.0019418 0.9996906 0.0019418 0.0003094 -0.0019418
10441645 0.0003083 -0.0018584 0.9996917 0.0018584 0.9996917 0.0018584 0.0003083 -0.0018584
10732831 0.0003074 -0.0017763 0.9996926 0.0017763 0.9996926 0.0017763 0.0003074 -0.0017763
11032137 0.0003065 -0.0016956 0.9996935 0.0016956 0.9996935 0.0016956 0.0003065 -0.0016956
11339791 0.0003058 -0.0016160 0.9996942 0.0016160 0.9996942 0.0016160 0.0003058 -0.0016160
11656024 0.0003051 -0.0015377 0.9996949 0.0015377 0.9996949 0.0015377 0.0003051 -0.0015377
11981075 0.0003045 -0.0014604 0.9996955 0.0014604 0.9996955 0.0014604 0.0003045 -0.0014604
12315192 0.0003040 -0.0013842 0.9996960 0.0013842 0.9996960 0.0013842 0.0003040 -0.0013842
12658625 0.0003037 -0.0013090 0.9996963 0.0013090 0.9996963 0.0013090 0.0003037 -0.0013090
13011637 0.0003034 -0.0012347 0.9996966 0.0012347 0.9996966 0.0012347 0.0003034 -0.0012347
13374492 0.0003032 -0.0011613 0.9996968 0.0011613 0.9996968 0.0011613 0.0003032 -0.0011613
13747467 0.0003032 -0.0010888 0.9996968 0.0010888 0.9996968 0.0010888 0.0003032 -0.0010888
14130843 0.0003033 -0.0010170 0.9996967 0.0010170 0.9996967 0.0010170 0.0003033 -0.0010170
14524910 0.0003034 -0.0009460 0.9996966 0.0009460 0.9996966 0.0009460 0.0003034 -0.0009460
14929966 0.0003037 -0.0008756 0.9996963 0.0008756 0.9996963 0.0008756 0.0003037 -0.0008756
15346318 0.0003041 -0.0008059 0.9996959 0.0008059 0.9996959 0.0008059 0.0003041 -0.0008059
15774281 0.0003047 -0.0007367 0.9996953 0.0007367 0.9996953 0.0007367 0.0003047 -0.0007367
16214179 0.0003053 -0.0006680 0.9996947 0.0006680 0.9996947 0.0006680 0.0003053 -0.0006680
16666344 0.0003061 -0.0005999 0.9996939 0.0005999 0.9996939 0.0005999 0.0003061 -0.0005999
17131118 0.0003071 -0.0005321 0.9996929 0.0005321 0.9996929 0.0005321 0.0003071 -0.0005321
17608854 0.0003082 -0.0004647 0.9996918 0.0004647 0.9996918 0.0004647 0.0003082 -0.0004647
18099912 0.0003094 -0.0003976 0.9996906 0.0003976 0.9996906 0.0003976 0.0003094 -0.0003976
18604665 0.0003108 -0.0003307 0.9996892 0.0003307 0.9996892 0.0003307 0.0003108 -0.0003307
19123493 0.0003123 -0.0002641 0.9996877 0.0002641 0.9996877 0.0002641 0.0003123 -0.0002641
19656790 0.0003141 -0.0001976 0.9996859 0.0001976 0.9996859 0.0001976 0.0003141 -0.0001976
20204959 0.0003160 -0.0001313 0.9996840 0.0001313 0.9996840 0.0001313 0.0003160 -0.0001313
20768415 0.0003181 -0.0000650 0.9996819 0.0000650 0.9996819 0.0000650 0.0003181 -0.0000650
21347584 0.0003204 0.0000013 0.9996796 -0.0000013 0.9996796 -0.0000013 0.0003204 0.0000013
21942904 0.0003229 0.0000677 0.9996771 -0.0000677 0.9996771 -0.0000677 0.0003229 0.0000677
22554827 0.0003257 0.0001341 0.9996743 -0.0001341 0.9996743 -0.0001341 0.0003257 0.0001341
23183813 0.0003287 0.0002008 0.9996713 -0.0002008 0.9996713 -0.0002008 0.0003287 0.0002008
23830340 0.0003320 0.0002676 0.9996680 -0.0002676 0.9996680 -0.0002676 0.0003320 0.0002676
24494897 0.0003355 0.0003347 0.9996645 -0.0003347 0.9996645 -0.0003347 0.0003355 0.0003347
25177987 0.0003394 0.0004021 0.9996606 -0.0004021 0.9996606 -0.0004021 0.0003394 0.0004021
25880126 0.0003436 0.0004700 0.9996564 -0.0004700 0.9996564 -0.0004700 0.0003436 0.0004700
26601845 0.0003482 0.0005382 0.9996518 -0.0005382 0.9996518 -0.0005382 0.0003482 0.0005382
27343691 0.0003532 0.0006070 0.9996468 -0.0006070 0.9996468 -0.0006070 0.0003532 0.0006070
28106225 0.0003586 0.0006763 0.9996414 -0.0006763 0.9996414 -0.0006763 0.0003586 0.0006763
28890023 0.0003646 0.0007462 0.9996354 -0.0007462 0.9996354 -0.0007462 0.0003646 0.0007462
29695680 0.0003710 0.0008168 0.9996290 -0.0008168 0.9996290 -0.0008168 0.0003710 0.0008168
30523804 0.0003781 0.0008882 0.9996219 -0.0008882 0.9996219 -0.0008882 0.0003781 0.0008882
31375021 0.0003859 0.0009603 0.9996141 -0.0009603 0.9996141 -0.0009603 0.0003859 0.0009603
32249977 0.0003945 0.0010333 0.9996055 -0.0010333 0.9996055 -0.0010333 0.0003945 0.0010333
33149332 0.0004040 0.0011073 0.9995960 -0.0011073 0.9995960 -0.0011073 0.0004040 0.0011073
34073768 0.0004145 0.0011822 0.9995855 -0.0011822 0.9995855 -0.0011822 0.0004145 0.0011822
35023984 0.0004262 0.0012580 0.9995738 -0.0012580 0.9995738 -0.0012580 0.0004262 0.0012580
36000698 0.0004393 0.0013349 0.9995607 -0.0013349 0.9995607 -0.0013349 0.0004393 0.0013349
37004650 0.0004541 0.0014127 0.9995459 -0.0014127 0.9995459 -0.0014127 0.0004541 0.0014127
38036599 0.0004709 0.0014914 0.9995291 -0.0014914 0.9995291 -0.0014914 0.0004709 0.0014914
39097326 0.0004900 0.0015707 0.9995100 -0.0015707 0.9995100 -0.0015707 0.0004900 0.0015707
