!Murata Part Number: GRM31CR72E333KW03
!These Parameters are Measured in Series Mode Connection
!Data Generated on Mar 30, 2021
!       o--ll--o
!Port1            Port2
!       o------o
!Operation Temp=25[degC], DC Bias Voltage=0[V]
!Freq. Start=100[kHz] Stop=6[GHz] 401[Steps]
# Hz S RI R 50
!Freq.(Hz) S11(Real) S11(Imag) S21(Real) S21(Imag) S12(Real) S12(Imag) S22(Real) S22(Imag)
100000 0.2063898 -0.3998785 0.7936102 0.3998785 0.7936102 0.3998785 0.2063898 -0.3998785
102789 0.1976957 -0.3934054 0.8023043 0.3934054 0.8023043 0.3934054 0.1976957 -0.3934054
105655 0.1892823 -0.3868564 0.8107177 0.3868564 0.8107177 0.3868564 0.1892823 -0.3868564
108602 0.1811480 -0.3802444 0.8188520 0.3802444 0.8188520 0.3802444 0.1811480 -0.3802444
111630 0.1732904 -0.3735821 0.8267096 0.3735821 0.8267096 0.3735821 0.1732904 -0.3735821
114743 0.1657067 -0.3668815 0.8342933 0.3668815 0.8342933 0.3668815 0.1657067 -0.3668815
117943 0.1583934 -0.3601542 0.8416066 0.3601542 0.8416066 0.3601542 0.1583934 -0.3601542
121232 0.1513463 -0.3534113 0.8486537 0.3534113 0.8486537 0.3534113 0.1513463 -0.3534113
124613 0.1445611 -0.3466632 0.8554389 0.3466632 0.8554389 0.3466632 0.1445611 -0.3466632
128088 0.1380328 -0.3399199 0.8619672 0.3399199 0.8619672 0.3399199 0.1380328 -0.3399199
131660 0.1317563 -0.3331908 0.8682437 0.3331908 0.8682437 0.3331908 0.1317563 -0.3331908
135332 0.1257259 -0.3264846 0.8742741 0.3264846 0.8742741 0.3264846 0.1257259 -0.3264846
139106 0.1199358 -0.3198096 0.8800642 0.3198096 0.8800642 0.3198096 0.1199358 -0.3198096
142985 0.1143801 -0.3131735 0.8856199 0.3131735 0.8856199 0.3131735 0.1143801 -0.3131735
146972 0.1090524 -0.3065834 0.8909476 0.3065834 0.8909476 0.3065834 0.1090524 -0.3065834
151071 0.1039463 -0.3000461 0.8960537 0.3000461 0.8960537 0.3000461 0.1039463 -0.3000461
155284 0.0990555 -0.2935675 0.9009445 0.2935675 0.9009445 0.2935675 0.0990555 -0.2935675
159614 0.0943733 -0.2871533 0.9056267 0.2871533 0.9056267 0.2871533 0.0943733 -0.2871533
164065 0.0898932 -0.2808085 0.9101068 0.2808085 0.9101068 0.2808085 0.0898932 -0.2808085
168641 0.0856085 -0.2745379 0.9143915 0.2745379 0.9143915 0.2745379 0.0856085 -0.2745379
173344 0.0815126 -0.2683455 0.9184874 0.2683455 0.9184874 0.2683455 0.0815126 -0.2683455
178178 0.0775990 -0.2622351 0.9224010 0.2622351 0.9224010 0.2622351 0.0775990 -0.2622351
183146 0.0738611 -0.2562101 0.9261389 0.2562101 0.9261389 0.2562101 0.0738611 -0.2562101
188254 0.0702925 -0.2502733 0.9297075 0.2502733 0.9297075 0.2502733 0.0702925 -0.2502733
193504 0.0668868 -0.2444274 0.9331132 0.2444274 0.9331132 0.2444274 0.0668868 -0.2444274
198900 0.0636379 -0.2386746 0.9363621 0.2386746 0.9363621 0.2386746 0.0636379 -0.2386746
204447 0.0605394 -0.2330167 0.9394606 0.2330167 0.9394606 0.2330167 0.0605394 -0.2330167
210148 0.0575856 -0.2274553 0.9424144 0.2274553 0.9424144 0.2274553 0.0575856 -0.2274553
216008 0.0547704 -0.2219916 0.9452296 0.2219916 0.9452296 0.2219916 0.0547704 -0.2219916
222032 0.0520881 -0.2166267 0.9479119 0.2166267 0.9479119 0.2166267 0.0520881 -0.2166267
228224 0.0495333 -0.2113613 0.9504667 0.2113613 0.9504667 0.2113613 0.0495333 -0.2113613
234589 0.0471004 -0.2061960 0.9528996 0.2061960 0.9528996 0.2061960 0.0471004 -0.2061960
241130 0.0447842 -0.2011309 0.9552158 0.2011309 0.9552158 0.2011309 0.0447842 -0.2011309
247855 0.0425797 -0.1961662 0.9574203 0.1961662 0.9574203 0.1961662 0.0425797 -0.1961662
254767 0.0404818 -0.1913017 0.9595182 0.1913017 0.9595182 0.1913017 0.0404818 -0.1913017
261871 0.0384859 -0.1865372 0.9615141 0.1865372 0.9615141 0.1865372 0.0384859 -0.1865372
269174 0.0365873 -0.1818723 0.9634127 0.1818723 0.9634127 0.1818723 0.0365873 -0.1818723
276681 0.0347816 -0.1773063 0.9652184 0.1773063 0.9652184 0.1773063 0.0347816 -0.1773063
284397 0.0330646 -0.1728386 0.9669354 0.1728386 0.9669354 0.1728386 0.0330646 -0.1728386
292328 0.0314321 -0.1684683 0.9685679 0.1684683 0.9685679 0.1684683 0.0314321 -0.1684683
300480 0.0298802 -0.1641944 0.9701198 0.1641944 0.9701198 0.1641944 0.0298802 -0.1641944
308859 0.0284051 -0.1600160 0.9715949 0.1600160 0.9715949 0.1600160 0.0284051 -0.1600160
317472 0.0270031 -0.1559319 0.9729969 0.1559319 0.9729969 0.1559319 0.0270031 -0.1559319
326326 0.0256708 -0.1519410 0.9743292 0.1519410 0.9743292 0.1519410 0.0256708 -0.1519410
335426 0.0244049 -0.1480419 0.9755951 0.1480419 0.9755951 0.1480419 0.0244049 -0.1480419
344780 0.0232021 -0.1442334 0.9767979 0.1442334 0.9767979 0.1442334 0.0232021 -0.1442334
354395 0.0220595 -0.1405140 0.9779405 0.1405140 0.9779405 0.1405140 0.0220595 -0.1405140
364278 0.0209739 -0.1368824 0.9790261 0.1368824 0.9790261 0.1368824 0.0209739 -0.1368824
374436 0.0199428 -0.1333372 0.9800572 0.1333372 0.9800572 0.1333372 0.0199428 -0.1333372
384878 0.0189634 -0.1298767 0.9810366 0.1298767 0.9810366 0.1298767 0.0189634 -0.1298767
395611 0.0180332 -0.1264996 0.9819668 0.1264996 0.9819668 0.1264996 0.0180332 -0.1264996
406644 0.0171497 -0.1232044 0.9828503 0.1232044 0.9828503 0.1232044 0.0171497 -0.1232044
417984 0.0163107 -0.1199894 0.9836893 0.1199894 0.9836893 0.1199894 0.0163107 -0.1199894
429640 0.0155139 -0.1168531 0.9844861 0.1168531 0.9844861 0.1168531 0.0155139 -0.1168531
441622 0.0147573 -0.1137940 0.9852427 0.1137940 0.9852427 0.1137940 0.0147573 -0.1137940
453937 0.0140388 -0.1108106 0.9859612 0.1108106 0.9859612 0.1108106 0.0140388 -0.1108106
466596 0.0133565 -0.1079013 0.9866435 0.1079013 0.9866435 0.1079013 0.0133565 -0.1079013
479608 0.0127087 -0.1050645 0.9872913 0.1050645 0.9872913 0.1050645 0.0127087 -0.1050645
492983 0.0120937 -0.1022987 0.9879063 0.1022987 0.9879063 0.1022987 0.0120937 -0.1022987
506731 0.0115097 -0.0996024 0.9884903 0.0996024 0.9884903 0.0996024 0.0115097 -0.0996024
520862 0.0109552 -0.0969741 0.9890448 0.0969741 0.9890448 0.0969741 0.0109552 -0.0969741
535387 0.0104288 -0.0944123 0.9895712 0.0944123 0.9895712 0.0944123 0.0104288 -0.0944123
550318 0.0099290 -0.0919155 0.9900710 0.0919155 0.9900710 0.0919155 0.0099290 -0.0919155
565664 0.0094545 -0.0894822 0.9905455 0.0894822 0.9905455 0.0894822 0.0094545 -0.0894822
581439 0.0090041 -0.0871110 0.9909959 0.0871110 0.9909959 0.0871110 0.0090041 -0.0871110
597654 0.0085765 -0.0848005 0.9914235 0.0848005 0.9914235 0.0848005 0.0085765 -0.0848005
614320 0.0081706 -0.0825492 0.9918294 0.0825492 0.9918294 0.0825492 0.0081706 -0.0825492
631452 0.0077853 -0.0803558 0.9922147 0.0803558 0.9922147 0.0803558 0.0077853 -0.0803558
649061 0.0074195 -0.0782189 0.9925805 0.0782189 0.9925805 0.0782189 0.0074195 -0.0782189
667162 0.0070723 -0.0761372 0.9929277 0.0761372 0.9929277 0.0761372 0.0070723 -0.0761372
685767 0.0067427 -0.0741094 0.9932573 0.0741094 0.9932573 0.0741094 0.0067427 -0.0741094
704891 0.0064299 -0.0721341 0.9935701 0.0721341 0.9935701 0.0721341 0.0064299 -0.0721341
724548 0.0061329 -0.0702102 0.9938671 0.0702102 0.9938671 0.0702102 0.0061329 -0.0702102
744754 0.0058511 -0.0683363 0.9941489 0.0683363 0.9941489 0.0683363 0.0058511 -0.0683363
765523 0.0055836 -0.0665112 0.9944164 0.0665112 0.9944164 0.0665112 0.0055836 -0.0665112
786871 0.0053296 -0.0647338 0.9946704 0.0647338 0.9946704 0.0647338 0.0053296 -0.0647338
808814 0.0050887 -0.0630029 0.9949113 0.0630029 0.9949113 0.0630029 0.0050887 -0.0630029
831370 0.0048599 -0.0613173 0.9951401 0.0613173 0.9951401 0.0613173 0.0048599 -0.0613173
854554 0.0046428 -0.0596759 0.9953572 0.0596759 0.9953572 0.0596759 0.0046428 -0.0596759
878385 0.0044368 -0.0580776 0.9955632 0.0580776 0.9955632 0.0580776 0.0044368 -0.0580776
902880 0.0042412 -0.0565214 0.9957588 0.0565214 0.9957588 0.0565214 0.0042412 -0.0565214
928059 0.0040556 -0.0550061 0.9959444 0.0550061 0.9959444 0.0550061 0.0040556 -0.0550061
953940 0.0038794 -0.0535308 0.9961206 0.0535308 0.9961206 0.0535308 0.0038794 -0.0535308
980542 0.0037121 -0.0520943 0.9962879 0.0520943 0.9962879 0.0520943 0.0037121 -0.0520943
1007887 0.0035533 -0.0506959 0.9964467 0.0506959 0.9964467 0.0506959 0.0035533 -0.0506959
1035994 0.0034026 -0.0493344 0.9965974 0.0493344 0.9965974 0.0493344 0.0034026 -0.0493344
1064885 0.0032596 -0.0480089 0.9967404 0.0480089 0.9967404 0.0480089 0.0032596 -0.0480089
1094581 0.0031237 -0.0467186 0.9968763 0.0467186 0.9968763 0.0467186 0.0031237 -0.0467186
1125106 0.0029948 -0.0454624 0.9970052 0.0454624 0.9970052 0.0454624 0.0029948 -0.0454624
1156481 0.0028723 -0.0442396 0.9971277 0.0442396 0.9971277 0.0442396 0.0028723 -0.0442396
1188732 0.0027560 -0.0430493 0.9972440 0.0430493 0.9972440 0.0430493 0.0027560 -0.0430493
1221882 0.0026456 -0.0418906 0.9973544 0.0418906 0.9973544 0.0418906 0.0026456 -0.0418906
1255957 0.0025407 -0.0407627 0.9974593 0.0407627 0.9974593 0.0407627 0.0025407 -0.0407627
1290982 0.0024410 -0.0396648 0.9975590 0.0396648 0.9975590 0.0396648 0.0024410 -0.0396648
1326984 0.0023463 -0.0385961 0.9976537 0.0385961 0.9976537 0.0385961 0.0023463 -0.0385961
1363989 0.0022564 -0.0375559 0.9977436 0.0375559 0.9977436 0.0375559 0.0022564 -0.0375559
1402027 0.0021708 -0.0365433 0.9978292 0.0365433 0.9978292 0.0365433 0.0021708 -0.0365433
1441125 0.0020896 -0.0355578 0.9979104 0.0355578 0.9979104 0.0355578 0.0020896 -0.0355578
1481314 0.0020123 -0.0345985 0.9979877 0.0345985 0.9979877 0.0345985 0.0020123 -0.0345985
1522623 0.0019388 -0.0336647 0.9980612 0.0336647 0.9980612 0.0336647 0.0019388 -0.0336647
1565085 0.0018689 -0.0327558 0.9981311 0.0327558 0.9981311 0.0327558 0.0018689 -0.0327558
1608730 0.0018024 -0.0318712 0.9981976 0.0318712 0.9981976 0.0318712 0.0018024 -0.0318712
1653593 0.0017391 -0.0310101 0.9982609 0.0310101 0.9982609 0.0310101 0.0017391 -0.0310101
1699707 0.0016789 -0.0301720 0.9983211 0.0301720 0.9983211 0.0301720 0.0016789 -0.0301720
1747106 0.0016215 -0.0293562 0.9983785 0.0293562 0.9983785 0.0293562 0.0016215 -0.0293562
1795828 0.0015669 -0.0285621 0.9984331 0.0285621 0.9984331 0.0285621 0.0015669 -0.0285621
1845908 0.0015149 -0.0277892 0.9984851 0.0277892 0.9984851 0.0277892 0.0015149 -0.0277892
1897385 0.0014653 -0.0270368 0.9985347 0.0270368 0.9985347 0.0270368 0.0014653 -0.0270368
1950297 0.0014180 -0.0263045 0.9985820 0.0263045 0.9985820 0.0263045 0.0014180 -0.0263045
2004685 0.0013730 -0.0255916 0.9986270 0.0255916 0.9986270 0.0255916 0.0013730 -0.0255916
2060590 0.0013300 -0.0248976 0.9986700 0.0248976 0.9986700 0.0248976 0.0013300 -0.0248976
2118054 0.0012890 -0.0242221 0.9987110 0.0242221 0.9987110 0.0242221 0.0012890 -0.0242221
2177120 0.0012498 -0.0235645 0.9987502 0.0235645 0.9987502 0.0235645 0.0012498 -0.0235645
2237833 0.0012125 -0.0229243 0.9987875 0.0229243 0.9987875 0.0229243 0.0012125 -0.0229243
2300240 0.0011768 -0.0223011 0.9988232 0.0223011 0.9988232 0.0223011 0.0011768 -0.0223011
2364387 0.0011427 -0.0216943 0.9988573 0.0216943 0.9988573 0.0216943 0.0011427 -0.0216943
2430322 0.0011102 -0.0211036 0.9988898 0.0211036 0.9988898 0.0211036 0.0011102 -0.0211036
2498097 0.0010791 -0.0205285 0.9989209 0.0205285 0.9989209 0.0205285 0.0010791 -0.0205285
2567761 0.0010494 -0.0199686 0.9989506 0.0199686 0.9989506 0.0199686 0.0010494 -0.0199686
2639368 0.0010209 -0.0194234 0.9989791 0.0194234 0.9989791 0.0194234 0.0010209 -0.0194234
2712972 0.0009938 -0.0188926 0.9990062 0.0188926 0.9990062 0.0188926 0.0009938 -0.0188926
2788629 0.0009678 -0.0183757 0.9990322 0.0183757 0.9990322 0.0183757 0.0009678 -0.0183757
2866396 0.0009429 -0.0178723 0.9990571 0.0178723 0.9990571 0.0178723 0.0009429 -0.0178723
2946331 0.0009191 -0.0173822 0.9990809 0.0173822 0.9990809 0.0173822 0.0009191 -0.0173822
3028495 0.0008963 -0.0169048 0.9991037 0.0169048 0.9991037 0.0169048 0.0008963 -0.0169048
3112951 0.0008745 -0.0164400 0.9991255 0.0164400 0.9991255 0.0164400 0.0008745 -0.0164400
3199762 0.0008537 -0.0159872 0.9991463 0.0159872 0.9991463 0.0159872 0.0008537 -0.0159872
3288994 0.0008337 -0.0155463 0.9991663 0.0155463 0.9991663 0.0155463 0.0008337 -0.0155463
3380714 0.0008146 -0.0151168 0.9991854 0.0151168 0.9991854 0.0151168 0.0008146 -0.0151168
3474992 0.0007963 -0.0146984 0.9992037 0.0146984 0.9992037 0.0146984 0.0007963 -0.0146984
3571899 0.0007789 -0.0142909 0.9992211 0.0142909 0.9992211 0.0142909 0.0007789 -0.0142909
3671508 0.0007621 -0.0138939 0.9992379 0.0138939 0.9992379 0.0138939 0.0007621 -0.0138939
3773896 0.0007461 -0.0135071 0.9992539 0.0135071 0.9992539 0.0135071 0.0007461 -0.0135071
3879139 0.0007308 -0.0131303 0.9992692 0.0131303 0.9992692 0.0131303 0.0007308 -0.0131303
3987316 0.0007161 -0.0127632 0.9992839 0.0127632 0.9992839 0.0127632 0.0007161 -0.0127632
4098510 0.0007021 -0.0124055 0.9992979 0.0124055 0.9992979 0.0124055 0.0007021 -0.0124055
4212806 0.0006887 -0.0120569 0.9993113 0.0120569 0.9993113 0.0120569 0.0006887 -0.0120569
4330288 0.0006759 -0.0117173 0.9993241 0.0117173 0.9993241 0.0117173 0.0006759 -0.0117173
4451047 0.0006636 -0.0113862 0.9993364 0.0113862 0.9993364 0.0113862 0.0006636 -0.0113862
4575173 0.0006519 -0.0110636 0.9993481 0.0110636 0.9993481 0.0110636 0.0006519 -0.0110636
4702761 0.0006407 -0.0107491 0.9993593 0.0107491 0.9993593 0.0107491 0.0006407 -0.0107491
4833907 0.0006300 -0.0104426 0.9993700 0.0104426 0.9993700 0.0104426 0.0006300 -0.0104426
4968711 0.0006198 -0.0101438 0.9993802 0.0101438 0.9993802 0.0101438 0.0006198 -0.0101438
5107273 0.0006100 -0.0098525 0.9993900 0.0098525 0.9993900 0.0098525 0.0006100 -0.0098525
5249700 0.0006007 -0.0095684 0.9993993 0.0095684 0.9993993 0.0095684 0.0006007 -0.0095684
5396098 0.0005919 -0.0092915 0.9994081 0.0092915 0.9994081 0.0092915 0.0005919 -0.0092915
5546579 0.0005834 -0.0090214 0.9994166 0.0090214 0.9994166 0.0090214 0.0005834 -0.0090214
5701257 0.0005754 -0.0087580 0.9994246 0.0087580 0.9994246 0.0087580 0.0005754 -0.0087580
5860248 0.0005677 -0.0085010 0.9994323 0.0085010 0.9994323 0.0085010 0.0005677 -0.0085010
6023672 0.0005604 -0.0082504 0.9994396 0.0082504 0.9994396 0.0082504 0.0005604 -0.0082504
6191655 0.0005534 -0.0080059 0.9994466 0.0080059 0.9994466 0.0080059 0.0005534 -0.0080059
6364321 0.0005468 -0.0077673 0.9994532 0.0077673 0.9994532 0.0077673 0.0005468 -0.0077673
6541803 0.0005405 -0.0075345 0.9994595 0.0075345 0.9994595 0.0075345 0.0005405 -0.0075345
6724235 0.0005345 -0.0073073 0.9994655 0.0073073 0.9994655 0.0073073 0.0005345 -0.0073073
6911753 0.0005288 -0.0070855 0.9994712 0.0070855 0.9994712 0.0070855 0.0005288 -0.0070855
7104501 0.0005234 -0.0068690 0.9994766 0.0068690 0.9994766 0.0068690 0.0005234 -0.0068690
7302625 0.0005182 -0.0066575 0.9994818 0.0066575 0.9994818 0.0066575 0.0005182 -0.0066575
7506273 0.0005134 -0.0064511 0.9994866 0.0064511 0.9994866 0.0064511 0.0005134 -0.0064511
7715601 0.0005087 -0.0062494 0.9994913 0.0062494 0.9994913 0.0062494 0.0005087 -0.0062494
7930766 0.0005044 -0.0060524 0.9994956 0.0060524 0.9994956 0.0060524 0.0005044 -0.0060524
8151931 0.0005002 -0.0058599 0.9994998 0.0058599 0.9994998 0.0058599 0.0005002 -0.0058599
8379264 0.0004963 -0.0056718 0.9995037 0.0056718 0.9995037 0.0056718 0.0004963 -0.0056718
8612937 0.0004926 -0.0054879 0.9995074 0.0054879 0.9995074 0.0054879 0.0004926 -0.0054879
8853126 0.0004891 -0.0053081 0.9995109 0.0053081 0.9995109 0.0053081 0.0004891 -0.0053081
9100013 0.0004859 -0.0051322 0.9995141 0.0051322 0.9995141 0.0051322 0.0004859 -0.0051322
9353785 0.0004828 -0.0049602 0.9995172 0.0049602 0.9995172 0.0049602 0.0004828 -0.0049602
9614634 0.0004799 -0.0047919 0.9995201 0.0047919 0.9995201 0.0047919 0.0004799 -0.0047919
9882758 0.0004771 -0.0046272 0.9995229 0.0046272 0.9995229 0.0046272 0.0004771 -0.0046272
10158358 0.0004746 -0.0044659 0.9995254 0.0044659 0.9995254 0.0044659 0.0004746 -0.0044659
10441645 0.0004722 -0.0043080 0.9995278 0.0043080 0.9995278 0.0043080 0.0004722 -0.0043080
10732831 0.0004700 -0.0041533 0.9995300 0.0041533 0.9995300 0.0041533 0.0004700 -0.0041533
11032137 0.0004679 -0.0040017 0.9995321 0.0040017 0.9995321 0.0040017 0.0004679 -0.0040017
11339791 0.0004660 -0.0038531 0.9995340 0.0038531 0.9995340 0.0038531 0.0004660 -0.0038531
11656024 0.0004642 -0.0037074 0.9995358 0.0037074 0.9995358 0.0037074 0.0004642 -0.0037074
11981075 0.0004625 -0.0035645 0.9995375 0.0035645 0.9995375 0.0035645 0.0004625 -0.0035645
12315192 0.0004610 -0.0034242 0.9995390 0.0034242 0.9995390 0.0034242 0.0004610 -0.0034242
12658625 0.0004597 -0.0032865 0.9995403 0.0032865 0.9995403 0.0032865 0.0004597 -0.0032865
13011637 0.0004584 -0.0031513 0.9995416 0.0031513 0.9995416 0.0031513 0.0004584 -0.0031513
13374492 0.0004573 -0.0030184 0.9995427 0.0030184 0.9995427 0.0030184 0.0004573 -0.0030184
13747467 0.0004563 -0.0028878 0.9995437 0.0028878 0.9995437 0.0028878 0.0004563 -0.0028878
14130843 0.0004554 -0.0027594 0.9995446 0.0027594 0.9995446 0.0027594 0.0004554 -0.0027594
14524910 0.0004547 -0.0026331 0.9995453 0.0026331 0.9995453 0.0026331 0.0004547 -0.0026331
14929966 0.0004540 -0.0025087 0.9995460 0.0025087 0.9995460 0.0025087 0.0004540 -0.0025087
15346318 0.0004535 -0.0023862 0.9995465 0.0023862 0.9995465 0.0023862 0.0004535 -0.0023862
15774281 0.0004531 -0.0022655 0.9995469 0.0022655 0.9995469 0.0022655 0.0004531 -0.0022655
16214179 0.0004528 -0.0021465 0.9995472 0.0021465 0.9995472 0.0021465 0.0004528 -0.0021465
16666344 0.0004527 -0.0020291 0.9995473 0.0020291 0.9995473 0.0020291 0.0004527 -0.0020291
17131118 0.0004526 -0.0019132 0.9995474 0.0019132 0.9995474 0.0019132 0.0004526 -0.0019132
17608854 0.0004527 -0.0017988 0.9995473 0.0017988 0.9995473 0.0017988 0.0004527 -0.0017988
18099912 0.0004529 -0.0016857 0.9995471 0.0016857 0.9995471 0.0016857 0.0004529 -0.0016857
18604665 0.0004531 -0.0015739 0.9995469 0.0015739 0.9995469 0.0015739 0.0004531 -0.0015739
19123493 0.0004536 -0.0014632 0.9995464 0.0014632 0.9995464 0.0014632 0.0004536 -0.0014632
19656790 0.0004541 -0.0013537 0.9995459 0.0013537 0.9995459 0.0013537 0.0004541 -0.0013537
20204959 0.0004547 -0.0012451 0.9995453 0.0012451 0.9995453 0.0012451 0.0004547 -0.0012451
20768415 0.0004555 -0.0011375 0.9995445 0.0011375 0.9995445 0.0011375 0.0004555 -0.0011375
21347584 0.0004564 -0.0010308 0.9995436 0.0010308 0.9995436 0.0010308 0.0004564 -0.0010308
21942904 0.0004575 -0.0009248 0.9995425 0.0009248 0.9995425 0.0009248 0.0004575 -0.0009248
22554827 0.0004586 -0.0008195 0.9995414 0.0008195 0.9995414 0.0008195 0.0004586 -0.0008195
23183813 0.0004599 -0.0007148 0.9995401 0.0007148 0.9995401 0.0007148 0.0004599 -0.0007148
23830340 0.0004614 -0.0006107 0.9995386 0.0006107 0.9995386 0.0006107 0.0004614 -0.0006107
24494897 0.0004630 -0.0005070 0.9995370 0.0005070 0.9995370 0.0005070 0.0004630 -0.0005070
25177987 0.0004648 -0.0004037 0.9995352 0.0004037 0.9995352 0.0004037 0.0004648 -0.0004037
25880126 0.0004667 -0.0003007 0.9995333 0.0003007 0.9995333 0.0003007 0.0004667 -0.0003007
26601845 0.0004689 -0.0001978 0.9995311 0.0001978 0.9995311 0.0001978 0.0004689 -0.0001978
27343691 0.0004712 -0.0000952 0.9995288 0.0000952 0.9995288 0.0000952 0.0004712 -0.0000952
28106225 0.0004736 0.0000075 0.9995264 -0.0000075 0.9995264 -0.0000075 0.0004736 0.0000075
28890023 0.0004763 0.0001101 0.9995237 -0.0001101 0.9995237 -0.0001101 0.0004763 0.0001101
29695680 0.0004792 0.0002128 0.9995208 -0.0002128 0.9995208 -0.0002128 0.0004792 0.0002128
30523804 0.0004824 0.0003157 0.9995176 -0.0003157 0.9995176 -0.0003157 0.0004824 0.0003157
31375021 0.0004858 0.0004189 0.9995142 -0.0004189 0.9995142 -0.0004189 0.0004858 0.0004189
32249977 0.0004894 0.0005224 0.9995106 -0.0005224 0.9995106 -0.0005224 0.0004894 0.0005224
33149332 0.0004933 0.0006263 0.9995067 -0.0006263 0.9995067 -0.0006263 0.0004933 0.0006263
34073768 0.0004975 0.0007307 0.9995025 -0.0007307 0.9995025 -0.0007307 0.0004975 0.0007307
35023984 0.0005020 0.0008357 0.9994980 -0.0008357 0.9994980 -0.0008357 0.0005020 0.0008357
36000698 0.0005069 0.0009414 0.9994931 -0.0009414 0.9994931 -0.0009414 0.0005069 0.0009414
37004650 0.0005121 0.0010477 0.9994879 -0.0010477 0.9994879 -0.0010477 0.0005121 0.0010477
38036599 0.0005178 0.0011549 0.9994822 -0.0011549 0.9994822 -0.0011549 0.0005178 0.0011549
39097326 0.0005238 0.0012630 0.9994762 -0.0012630 0.9994762 -0.0012630 0.0005238 0.0012630
