!Murata Part Number: GRM31CR72E473KW03
!These Parameters are Measured in Series Mode Connection
!Data Generated on Mar 30, 2021
!       o--ll--o
!Port1            Port2
!       o------o
!Operation Temp=25[degC], DC Bias Voltage=0[V]
!Freq. Start=100[kHz] Stop=6[GHz] 401[Steps]
# Hz S RI R 50
!Freq.(Hz) S11(Real) S11(Imag) S21(Real) S21(Imag) S12(Real) S12(Imag) S22(Real) S22(Imag)
100000 0.1206931 -0.3209502 0.8793069 0.3209502 0.8793069 0.3209502 0.1206931 -0.3209502
102789 0.1151056 -0.3143091 0.8848944 0.3143091 0.8848944 0.3143091 0.1151056 -0.3143091
105655 0.1097464 -0.3077134 0.8902536 0.3077134 0.8902536 0.3077134 0.1097464 -0.3077134
108602 0.1046089 -0.3011698 0.8953911 0.3011698 0.8953911 0.3011698 0.1046089 -0.3011698
111630 0.0996869 -0.2946842 0.9003131 0.2946842 0.9003131 0.2946842 0.0996869 -0.2946842
114743 0.0949738 -0.2882623 0.9050262 0.2882623 0.9050262 0.2882623 0.0949738 -0.2882623
117943 0.0904630 -0.2819091 0.9095370 0.2819091 0.9095370 0.2819091 0.0904630 -0.2819091
121232 0.0861479 -0.2756292 0.9138521 0.2756292 0.9138521 0.2756292 0.0861479 -0.2756292
124613 0.0820220 -0.2694268 0.9179780 0.2694268 0.9179780 0.2694268 0.0820220 -0.2694268
128088 0.0780788 -0.2633057 0.9219212 0.2633057 0.9219212 0.2633057 0.0780788 -0.2633057
131660 0.0743119 -0.2572692 0.9256881 0.2572692 0.9256881 0.2572692 0.0743119 -0.2572692
135332 0.0707147 -0.2513203 0.9292853 0.2513203 0.9292853 0.2513203 0.0707147 -0.2513203
139106 0.0672811 -0.2454615 0.9327189 0.2454615 0.9327189 0.2454615 0.0672811 -0.2454615
142985 0.0640047 -0.2396950 0.9359953 0.2396950 0.9359953 0.2396950 0.0640047 -0.2396950
146972 0.0608796 -0.2340228 0.9391204 0.2340228 0.9391204 0.2340228 0.0608796 -0.2340228
151071 0.0578997 -0.2284465 0.9421003 0.2284465 0.9421003 0.2284465 0.0578997 -0.2284465
155284 0.0550593 -0.2229674 0.9449407 0.2229674 0.9449407 0.2229674 0.0550593 -0.2229674
159614 0.0523526 -0.2175865 0.9476474 0.2175865 0.9476474 0.2175865 0.0523526 -0.2175865
164065 0.0497740 -0.2123046 0.9502260 0.2123046 0.9502260 0.2123046 0.0497740 -0.2123046
168641 0.0473183 -0.2071223 0.9526817 0.2071223 0.9526817 0.2071223 0.0473183 -0.2071223
173344 0.0449802 -0.2020399 0.9550198 0.2020399 0.9550198 0.2020399 0.0449802 -0.2020399
178178 0.0427545 -0.1970575 0.9572455 0.1970575 0.9572455 0.1970575 0.0427545 -0.1970575
183146 0.0406364 -0.1921751 0.9593636 0.1921751 0.9593636 0.1921751 0.0406364 -0.1921751
188254 0.0386212 -0.1873924 0.9613788 0.1873924 0.9613788 0.1873924 0.0386212 -0.1873924
193504 0.0367041 -0.1827091 0.9632959 0.1827091 0.9632959 0.1827091 0.0367041 -0.1827091
198900 0.0348809 -0.1781246 0.9651191 0.1781246 0.9651191 0.1781246 0.0348809 -0.1781246
204447 0.0331471 -0.1736383 0.9668529 0.1736383 0.9668529 0.1736383 0.0331471 -0.1736383
210148 0.0314988 -0.1692493 0.9685012 0.1692493 0.9685012 0.1692493 0.0314988 -0.1692493
216008 0.0299319 -0.1649569 0.9700681 0.1649569 0.9700681 0.1649569 0.0299319 -0.1649569
222032 0.0284427 -0.1607599 0.9715573 0.1607599 0.9715573 0.1607599 0.0284427 -0.1607599
228224 0.0270275 -0.1566574 0.9729725 0.1566574 0.9729725 0.1566574 0.0270275 -0.1566574
234589 0.0256827 -0.1526481 0.9743173 0.1526481 0.9743173 0.1526481 0.0256827 -0.1526481
241130 0.0244051 -0.1487309 0.9755949 0.1487309 0.9755949 0.1487309 0.0244051 -0.1487309
247855 0.0231913 -0.1449044 0.9768087 0.1449044 0.9768087 0.1449044 0.0231913 -0.1449044
254767 0.0220384 -0.1411674 0.9779616 0.1411674 0.9779616 0.1411674 0.0220384 -0.1411674
261871 0.0209433 -0.1375184 0.9790567 0.1375184 0.9790567 0.1375184 0.0209433 -0.1375184
269174 0.0199032 -0.1339560 0.9800968 0.1339560 0.9800968 0.1339560 0.0199032 -0.1339560
276681 0.0189156 -0.1304788 0.9810844 0.1304788 0.9810844 0.1304788 0.0189156 -0.1304788
284397 0.0179776 -0.1270853 0.9820224 0.1270853 0.9820224 0.1270853 0.0179776 -0.1270853
292328 0.0170870 -0.1237739 0.9829130 0.1237739 0.9829130 0.1237739 0.0170870 -0.1237739
300480 0.0162414 -0.1205432 0.9837586 0.1205432 0.9837586 0.1205432 0.0162414 -0.1205432
308859 0.0154384 -0.1173917 0.9845616 0.1173917 0.9845616 0.1173917 0.0154384 -0.1173917
317472 0.0146761 -0.1143177 0.9853239 0.1143177 0.9853239 0.1143177 0.0146761 -0.1143177
326326 0.0139524 -0.1113197 0.9860476 0.1113197 0.9860476 0.1113197 0.0139524 -0.1113197
335426 0.0132653 -0.1083963 0.9867347 0.1083963 0.9867347 0.1083963 0.0132653 -0.1083963
344780 0.0126129 -0.1055458 0.9873871 0.1055458 0.9873871 0.1055458 0.0126129 -0.1055458
354395 0.0119937 -0.1027667 0.9880063 0.1027667 0.9880063 0.1027667 0.0119937 -0.1027667
364278 0.0114058 -0.1000575 0.9885942 0.1000575 0.9885942 0.1000575 0.0114058 -0.1000575
374436 0.0108477 -0.0974166 0.9891523 0.0974166 0.9891523 0.0974166 0.0108477 -0.0974166
384878 0.0103180 -0.0948426 0.9896820 0.0948426 0.9896820 0.0948426 0.0103180 -0.0948426
395611 0.0098151 -0.0923340 0.9901849 0.0923340 0.9901849 0.0923340 0.0098151 -0.0923340
406644 0.0093377 -0.0898893 0.9906623 0.0898893 0.9906623 0.0898893 0.0093377 -0.0898893
417984 0.0088845 -0.0875071 0.9911155 0.0875071 0.9911155 0.0875071 0.0088845 -0.0875071
429640 0.0084543 -0.0851858 0.9915457 0.0851858 0.9915457 0.0851858 0.0084543 -0.0851858
441622 0.0080460 -0.0829241 0.9919540 0.0829241 0.9919540 0.0829241 0.0080460 -0.0829241
453937 0.0076583 -0.0807206 0.9923417 0.0807206 0.9923417 0.0807206 0.0076583 -0.0807206
466596 0.0072904 -0.0785740 0.9927096 0.0785740 0.9927096 0.0785740 0.0072904 -0.0785740
479608 0.0069411 -0.0764828 0.9930589 0.0764828 0.9930589 0.0764828 0.0069411 -0.0764828
492983 0.0066096 -0.0744457 0.9933904 0.0744457 0.9933904 0.0744457 0.0066096 -0.0744457
506731 0.0062949 -0.0724615 0.9937051 0.0724615 0.9937051 0.0724615 0.0062949 -0.0724615
520862 0.0059962 -0.0705288 0.9940038 0.0705288 0.9940038 0.0705288 0.0059962 -0.0705288
535387 0.0057127 -0.0686464 0.9942873 0.0686464 0.9942873 0.0686464 0.0057127 -0.0686464
550318 0.0054436 -0.0668131 0.9945564 0.0668131 0.9945564 0.0668131 0.0054436 -0.0668131
565664 0.0051882 -0.0650277 0.9948118 0.0650277 0.9948118 0.0650277 0.0051882 -0.0650277
581439 0.0049458 -0.0632889 0.9950542 0.0632889 0.9950542 0.0632889 0.0049458 -0.0632889
597654 0.0047157 -0.0615957 0.9952843 0.0615957 0.9952843 0.0615957 0.0047157 -0.0615957
614320 0.0044973 -0.0599469 0.9955027 0.0599469 0.9955027 0.0599469 0.0044973 -0.0599469
631452 0.0042900 -0.0583413 0.9957100 0.0583413 0.9957100 0.0583413 0.0042900 -0.0583413
649061 0.0040933 -0.0567780 0.9959067 0.0567780 0.9959067 0.0567780 0.0040933 -0.0567780
667162 0.0039066 -0.0552558 0.9960934 0.0552558 0.9960934 0.0552558 0.0039066 -0.0552558
685767 0.0037294 -0.0537737 0.9962706 0.0537737 0.9962706 0.0537737 0.0037294 -0.0537737
704891 0.0035612 -0.0523307 0.9964388 0.0523307 0.9964388 0.0523307 0.0035612 -0.0523307
724548 0.0034017 -0.0509258 0.9965983 0.0509258 0.9965983 0.0509258 0.0034017 -0.0509258
744754 0.0032502 -0.0495580 0.9967498 0.0495580 0.9967498 0.0495580 0.0032502 -0.0495580
765523 0.0031065 -0.0482264 0.9968935 0.0482264 0.9968935 0.0482264 0.0031065 -0.0482264
786871 0.0029701 -0.0469301 0.9970299 0.0469301 0.9970299 0.0469301 0.0029701 -0.0469301
808814 0.0028407 -0.0456681 0.9971593 0.0456681 0.9971593 0.0456681 0.0028407 -0.0456681
831370 0.0027178 -0.0444396 0.9972822 0.0444396 0.9972822 0.0444396 0.0027178 -0.0444396
854554 0.0026013 -0.0432437 0.9973987 0.0432437 0.9973987 0.0432437 0.0026013 -0.0432437
878385 0.0024906 -0.0420796 0.9975094 0.0420796 0.9975094 0.0420796 0.0024906 -0.0420796
902880 0.0023856 -0.0409464 0.9976144 0.0409464 0.9976144 0.0409464 0.0023856 -0.0409464
928059 0.0022860 -0.0398434 0.9977140 0.0398434 0.9977140 0.0398434 0.0022860 -0.0398434
953940 0.0021914 -0.0387697 0.9978086 0.0387697 0.9978086 0.0387697 0.0021914 -0.0387697
980542 0.0021016 -0.0377247 0.9978984 0.0377247 0.9978984 0.0377247 0.0021016 -0.0377247
1007887 0.0020164 -0.0367075 0.9979836 0.0367075 0.9979836 0.0367075 0.0020164 -0.0367075
1035994 0.0019355 -0.0357175 0.9980645 0.0357175 0.9980645 0.0357175 0.0019355 -0.0357175
1064885 0.0018587 -0.0347538 0.9981413 0.0347538 0.9981413 0.0347538 0.0018587 -0.0347538
1094581 0.0017857 -0.0338159 0.9982143 0.0338159 0.9982143 0.0338159 0.0017857 -0.0338159
1125106 0.0017165 -0.0329031 0.9982835 0.0329031 0.9982835 0.0329031 0.0017165 -0.0329031
1156481 0.0016507 -0.0320146 0.9983493 0.0320146 0.9983493 0.0320146 0.0016507 -0.0320146
1188732 0.0015883 -0.0311499 0.9984117 0.0311499 0.9984117 0.0311499 0.0015883 -0.0311499
1221882 0.0015289 -0.0303083 0.9984711 0.0303083 0.9984711 0.0303083 0.0015289 -0.0303083
1255957 0.0014726 -0.0294892 0.9985274 0.0294892 0.9985274 0.0294892 0.0014726 -0.0294892
1290982 0.0014190 -0.0286920 0.9985810 0.0286920 0.9985810 0.0286920 0.0014190 -0.0286920
1326984 0.0013681 -0.0279162 0.9986319 0.0279162 0.9986319 0.0279162 0.0013681 -0.0279162
1363989 0.0013197 -0.0271611 0.9986803 0.0271611 0.9986803 0.0271611 0.0013197 -0.0271611
1402027 0.0012737 -0.0264262 0.9987263 0.0264262 0.9987263 0.0264262 0.0012737 -0.0264262
1441125 0.0012299 -0.0257110 0.9987701 0.0257110 0.9987701 0.0257110 0.0012299 -0.0257110
1481314 0.0011882 -0.0250149 0.9988118 0.0250149 0.9988118 0.0250149 0.0011882 -0.0250149
1522623 0.0011486 -0.0243374 0.9988514 0.0243374 0.9988514 0.0243374 0.0011486 -0.0243374
1565085 0.0011109 -0.0236780 0.9988891 0.0236780 0.9988891 0.0236780 0.0011109 -0.0236780
1608730 0.0010750 -0.0230363 0.9989250 0.0230363 0.9989250 0.0230363 0.0010750 -0.0230363
1653593 0.0010407 -0.0224117 0.9989593 0.0224117 0.9989593 0.0224117 0.0010407 -0.0224117
1699707 0.0010081 -0.0218039 0.9989919 0.0218039 0.9989919 0.0218039 0.0010081 -0.0218039
1747106 0.0009771 -0.0212122 0.9990229 0.0212122 0.9990229 0.0212122 0.0009771 -0.0212122
1795828 0.0009474 -0.0206364 0.9990526 0.0206364 0.9990526 0.0206364 0.0009474 -0.0206364
1845908 0.0009191 -0.0200759 0.9990809 0.0200759 0.9990809 0.0200759 0.0009191 -0.0200759
1897385 0.0008922 -0.0195303 0.9991078 0.0195303 0.9991078 0.0195303 0.0008922 -0.0195303
1950297 0.0008664 -0.0189993 0.9991336 0.0189993 0.9991336 0.0189993 0.0008664 -0.0189993
2004685 0.0008418 -0.0184824 0.9991582 0.0184824 0.9991582 0.0184824 0.0008418 -0.0184824
2060590 0.0008183 -0.0179793 0.9991817 0.0179793 0.9991817 0.0179793 0.0008183 -0.0179793
2118054 0.0007958 -0.0174895 0.9992042 0.0174895 0.9992042 0.0174895 0.0007958 -0.0174895
2177120 0.0007743 -0.0170127 0.9992257 0.0170127 0.9992257 0.0170127 0.0007743 -0.0170127
2237833 0.0007538 -0.0165486 0.9992462 0.0165486 0.9992462 0.0165486 0.0007538 -0.0165486
2300240 0.0007341 -0.0160967 0.9992659 0.0160967 0.9992659 0.0160967 0.0007341 -0.0160967
2364387 0.0007153 -0.0156568 0.9992847 0.0156568 0.9992847 0.0156568 0.0007153 -0.0156568
2430322 0.0006972 -0.0152286 0.9993028 0.0152286 0.9993028 0.0152286 0.0006972 -0.0152286
2498097 0.0006799 -0.0148116 0.9993201 0.0148116 0.9993201 0.0148116 0.0006799 -0.0148116
2567761 0.0006634 -0.0144056 0.9993366 0.0144056 0.9993366 0.0144056 0.0006634 -0.0144056
2639368 0.0006475 -0.0140103 0.9993525 0.0140103 0.9993525 0.0140103 0.0006475 -0.0140103
2712972 0.0006322 -0.0136253 0.9993678 0.0136253 0.9993678 0.0136253 0.0006322 -0.0136253
2788629 0.0006176 -0.0132505 0.9993824 0.0132505 0.9993824 0.0132505 0.0006176 -0.0132505
2866396 0.0006036 -0.0128854 0.9993964 0.0128854 0.9993964 0.0128854 0.0006036 -0.0128854
2946331 0.0005901 -0.0125299 0.9994099 0.0125299 0.9994099 0.0125299 0.0005901 -0.0125299
3028495 0.0005772 -0.0121836 0.9994228 0.0121836 0.9994228 0.0121836 0.0005772 -0.0121836
3112951 0.0005648 -0.0118464 0.9994352 0.0118464 0.9994352 0.0118464 0.0005648 -0.0118464
3199762 0.0005529 -0.0115179 0.9994471 0.0115179 0.9994471 0.0115179 0.0005529 -0.0115179
3288994 0.0005414 -0.0111979 0.9994586 0.0111979 0.9994586 0.0111979 0.0005414 -0.0111979
3380714 0.0005304 -0.0108862 0.9994696 0.0108862 0.9994696 0.0108862 0.0005304 -0.0108862
3474992 0.0005199 -0.0105825 0.9994801 0.0105825 0.9994801 0.0105825 0.0005199 -0.0105825
3571899 0.0005097 -0.0102866 0.9994903 0.0102866 0.9994903 0.0102866 0.0005097 -0.0102866
3671508 0.0005000 -0.0099983 0.9995000 0.0099983 0.9995000 0.0099983 0.0005000 -0.0099983
3773896 0.0004907 -0.0097174 0.9995093 0.0097174 0.9995093 0.0097174 0.0004907 -0.0097174
3879139 0.0004817 -0.0094436 0.9995183 0.0094436 0.9995183 0.0094436 0.0004817 -0.0094436
3987316 0.0004731 -0.0091768 0.9995269 0.0091768 0.9995269 0.0091768 0.0004731 -0.0091768
4098510 0.0004648 -0.0089168 0.9995352 0.0089168 0.9995352 0.0089168 0.0004648 -0.0089168
4212806 0.0004569 -0.0086633 0.9995431 0.0086633 0.9995431 0.0086633 0.0004569 -0.0086633
4330288 0.0004493 -0.0084163 0.9995507 0.0084163 0.9995507 0.0084163 0.0004493 -0.0084163
4451047 0.0004420 -0.0081754 0.9995580 0.0081754 0.9995580 0.0081754 0.0004420 -0.0081754
4575173 0.0004351 -0.0079406 0.9995649 0.0079406 0.9995649 0.0079406 0.0004351 -0.0079406
4702761 0.0004284 -0.0077116 0.9995716 0.0077116 0.9995716 0.0077116 0.0004284 -0.0077116
4833907 0.0004220 -0.0074883 0.9995780 0.0074883 0.9995780 0.0074883 0.0004220 -0.0074883
4968711 0.0004158 -0.0072705 0.9995842 0.0072705 0.9995842 0.0072705 0.0004158 -0.0072705
5107273 0.0004100 -0.0070581 0.9995900 0.0070581 0.9995900 0.0070581 0.0004100 -0.0070581
5249700 0.0004044 -0.0068509 0.9995956 0.0068509 0.9995956 0.0068509 0.0004044 -0.0068509
5396098 0.0003990 -0.0066488 0.9996010 0.0066488 0.9996010 0.0066488 0.0003990 -0.0066488
5546579 0.0003939 -0.0064516 0.9996061 0.0064516 0.9996061 0.0064516 0.0003939 -0.0064516
5701257 0.0003891 -0.0062591 0.9996109 0.0062591 0.9996109 0.0062591 0.0003891 -0.0062591
5860248 0.0003844 -0.0060713 0.9996156 0.0060713 0.9996156 0.0060713 0.0003844 -0.0060713
6023672 0.0003800 -0.0058880 0.9996200 0.0058880 0.9996200 0.0058880 0.0003800 -0.0058880
6191655 0.0003758 -0.0057090 0.9996242 0.0057090 0.9996242 0.0057090 0.0003758 -0.0057090
6364321 0.0003718 -0.0055342 0.9996282 0.0055342 0.9996282 0.0055342 0.0003718 -0.0055342
6541803 0.0003679 -0.0053636 0.9996321 0.0053636 0.9996321 0.0053636 0.0003679 -0.0053636
6724235 0.0003643 -0.0051969 0.9996357 0.0051969 0.9996357 0.0051969 0.0003643 -0.0051969
6911753 0.0003609 -0.0050340 0.9996391 0.0050340 0.9996391 0.0050340 0.0003609 -0.0050340
7104501 0.0003577 -0.0048749 0.9996423 0.0048749 0.9996423 0.0048749 0.0003577 -0.0048749
7302625 0.0003546 -0.0047194 0.9996454 0.0047194 0.9996454 0.0047194 0.0003546 -0.0047194
7506273 0.0003517 -0.0045675 0.9996483 0.0045675 0.9996483 0.0045675 0.0003517 -0.0045675
7715601 0.0003490 -0.0044189 0.9996510 0.0044189 0.9996510 0.0044189 0.0003490 -0.0044189
7930766 0.0003464 -0.0042736 0.9996536 0.0042736 0.9996536 0.0042736 0.0003464 -0.0042736
8151931 0.0003440 -0.0041314 0.9996560 0.0041314 0.9996560 0.0041314 0.0003440 -0.0041314
8379264 0.0003417 -0.0039924 0.9996583 0.0039924 0.9996583 0.0039924 0.0003417 -0.0039924
8612937 0.0003396 -0.0038563 0.9996604 0.0038563 0.9996604 0.0038563 0.0003396 -0.0038563
8853126 0.0003376 -0.0037230 0.9996624 0.0037230 0.9996624 0.0037230 0.0003376 -0.0037230
9100013 0.0003358 -0.0035926 0.9996642 0.0035926 0.9996642 0.0035926 0.0003358 -0.0035926
9353785 0.0003341 -0.0034648 0.9996659 0.0034648 0.9996659 0.0034648 0.0003341 -0.0034648
9614634 0.0003325 -0.0033396 0.9996675 0.0033396 0.9996675 0.0033396 0.0003325 -0.0033396
9882758 0.0003311 -0.0032169 0.9996689 0.0032169 0.9996689 0.0032169 0.0003311 -0.0032169
10158358 0.0003298 -0.0030966 0.9996702 0.0030966 0.9996702 0.0030966 0.0003298 -0.0030966
10441645 0.0003286 -0.0029786 0.9996714 0.0029786 0.9996714 0.0029786 0.0003286 -0.0029786
10732831 0.0003275 -0.0028629 0.9996725 0.0028629 0.9996725 0.0028629 0.0003275 -0.0028629
11032137 0.0003266 -0.0027492 0.9996734 0.0027492 0.9996734 0.0027492 0.0003266 -0.0027492
11339791 0.0003258 -0.0026376 0.9996742 0.0026376 0.9996742 0.0026376 0.0003258 -0.0026376
11656024 0.0003251 -0.0025280 0.9996749 0.0025280 0.9996749 0.0025280 0.0003251 -0.0025280
11981075 0.0003245 -0.0024203 0.9996755 0.0024203 0.9996755 0.0024203 0.0003245 -0.0024203
12315192 0.0003240 -0.0023144 0.9996760 0.0023144 0.9996760 0.0023144 0.0003240 -0.0023144
12658625 0.0003237 -0.0022102 0.9996763 0.0022102 0.9996763 0.0022102 0.0003237 -0.0022102
13011637 0.0003235 -0.0021076 0.9996765 0.0021076 0.9996765 0.0021076 0.0003235 -0.0021076
13374492 0.0003233 -0.0020066 0.9996767 0.0020066 0.9996767 0.0020066 0.0003233 -0.0020066
13747467 0.0003233 -0.0019072 0.9996767 0.0019072 0.9996767 0.0019072 0.0003233 -0.0019072
14130843 0.0003235 -0.0018091 0.9996765 0.0018091 0.9996765 0.0018091 0.0003235 -0.0018091
14524910 0.0003237 -0.0017124 0.9996763 0.0017124 0.9996763 0.0017124 0.0003237 -0.0017124
14929966 0.0003240 -0.0016170 0.9996760 0.0016170 0.9996760 0.0016170 0.0003240 -0.0016170
15346318 0.0003245 -0.0015227 0.9996755 0.0015227 0.9996755 0.0015227 0.0003245 -0.0015227
15774281 0.0003251 -0.0014296 0.9996749 0.0014296 0.9996749 0.0014296 0.0003251 -0.0014296
16214179 0.0003259 -0.0013376 0.9996741 0.0013376 0.9996741 0.0013376 0.0003259 -0.0013376
16666344 0.0003267 -0.0012465 0.9996733 0.0012465 0.9996733 0.0012465 0.0003267 -0.0012465
17131118 0.0003278 -0.0011564 0.9996722 0.0011564 0.9996722 0.0011564 0.0003278 -0.0011564
17608854 0.0003289 -0.0010671 0.9996711 0.0010671 0.9996711 0.0010671 0.0003289 -0.0010671
18099912 0.0003302 -0.0009787 0.9996698 0.0009787 0.9996698 0.0009787 0.0003302 -0.0009787
18604665 0.0003316 -0.0008909 0.9996684 0.0008909 0.9996684 0.0008909 0.0003316 -0.0008909
19123493 0.0003332 -0.0008038 0.9996668 0.0008038 0.9996668 0.0008038 0.0003332 -0.0008038
19656790 0.0003350 -0.0007172 0.9996650 0.0007172 0.9996650 0.0007172 0.0003350 -0.0007172
20204959 0.0003370 -0.0006312 0.9996630 0.0006312 0.9996630 0.0006312 0.0003370 -0.0006312
20768415 0.0003391 -0.0005456 0.9996609 0.0005456 0.9996609 0.0005456 0.0003391 -0.0005456
21347584 0.0003414 -0.0004604 0.9996586 0.0004604 0.9996586 0.0004604 0.0003414 -0.0004604
21942904 0.0003439 -0.0003755 0.9996561 0.0003755 0.9996561 0.0003755 0.0003439 -0.0003755
22554827 0.0003467 -0.0002908 0.9996533 0.0002908 0.9996533 0.0002908 0.0003467 -0.0002908
23183813 0.0003496 -0.0002064 0.9996504 0.0002064 0.9996504 0.0002064 0.0003496 -0.0002064
23830340 0.0003528 -0.0001220 0.9996472 0.0001220 0.9996472 0.0001220 0.0003528 -0.0001220
24494897 0.0003563 -0.0000377 0.9996437 0.0000377 0.9996437 0.0000377 0.0003563 -0.0000377
25177987 0.0003601 0.0000466 0.9996399 -0.0000466 0.9996399 -0.0000466 0.0003601 0.0000466
25880126 0.0003641 0.0001311 0.9996359 -0.0001311 0.9996359 -0.0001311 0.0003641 0.0001311
26601845 0.0003685 0.0002157 0.9996315 -0.0002157 0.9996315 -0.0002157 0.0003685 0.0002157
27343691 0.0003733 0.0003005 0.9996267 -0.0003005 0.9996267 -0.0003005 0.0003733 0.0003005
28106225 0.0003784 0.0003856 0.9996216 -0.0003856 0.9996216 -0.0003856 0.0003784 0.0003856
28890023 0.0003839 0.0004711 0.9996161 -0.0004711 0.9996161 -0.0004711 0.0003839 0.0004711
29695680 0.0003899 0.0005571 0.9996101 -0.0005571 0.9996101 -0.0005571 0.0003899 0.0005571
30523804 0.0003964 0.0006435 0.9996036 -0.0006435 0.9996036 -0.0006435 0.0003964 0.0006435
31375021 0.0004034 0.0007305 0.9995966 -0.0007305 0.9995966 -0.0007305 0.0004034 0.0007305
32249977 0.0004111 0.0008182 0.9995889 -0.0008182 0.9995889 -0.0008182 0.0004111 0.0008182
33149332 0.0004194 0.0009066 0.9995806 -0.0009066 0.9995806 -0.0009066 0.0004194 0.0009066
34073768 0.0004285 0.0009958 0.9995715 -0.0009958 0.9995715 -0.0009958 0.0004285 0.0009958
35023984 0.0004384 0.0010859 0.9995616 -0.0010859 0.9995616 -0.0010859 0.0004384 0.0010859
36000698 0.0004492 0.0011768 0.9995508 -0.0011768 0.9995508 -0.0011768 0.0004492 0.0011768
37004650 0.0004611 0.0012688 0.9995389 -0.0012688 0.9995389 -0.0012688 0.0004611 0.0012688
38036599 0.0004742 0.0013617 0.9995258 -0.0013617 0.9995258 -0.0013617 0.0004742 0.0013617
39097326 0.0004886 0.0014557 0.9995114 -0.0014557 0.9995114 -0.0014557 0.0004886 0.0014557
