!Murata Part Number: GRM31MR71H474JA01
!These Parameters are Measured in Series Mode Connection
!Data Generated on Mar 30, 2021
!       o--ll--o
!Port1            Port2
!       o------o
!Operation Temp=25[degC], DC Bias Voltage=0[V]
!Freq. Start=100[kHz] Stop=6[GHz] 401[Steps]
# Hz S RI R 50
!Freq.(Hz) S11(Real) S11(Imag) S21(Real) S21(Imag) S12(Real) S12(Imag) S22(Real) S22(Imag)
100000 0.0015478 -0.0347452 0.9984522 0.0347452 0.9984522 0.0347452 0.0015478 -0.0347452
102789 0.0014739 -0.0338100 0.9985261 0.0338100 0.9985261 0.0338100 0.0014739 -0.0338100
105655 0.0014038 -0.0328997 0.9985962 0.0328997 0.9985962 0.0328997 0.0014038 -0.0328997
108602 0.0013372 -0.0320137 0.9986628 0.0320137 0.9986628 0.0320137 0.0013372 -0.0320137
111630 0.0012740 -0.0311512 0.9987260 0.0311512 0.9987260 0.0311512 0.0012740 -0.0311512
114743 0.0012140 -0.0303118 0.9987860 0.0303118 0.9987860 0.0303118 0.0012140 -0.0303118
117943 0.0011571 -0.0294947 0.9988429 0.0294947 0.9988429 0.0294947 0.0011571 -0.0294947
121232 0.0011030 -0.0286995 0.9988970 0.0286995 0.9988970 0.0286995 0.0011030 -0.0286995
124613 0.0010517 -0.0279255 0.9989483 0.0279255 0.9989483 0.0279255 0.0010517 -0.0279255
128088 0.0010030 -0.0271722 0.9989970 0.0271722 0.9989970 0.0271722 0.0010030 -0.0271722
131660 0.0009568 -0.0264390 0.9990432 0.0264390 0.9990432 0.0264390 0.0009568 -0.0264390
135332 0.0009129 -0.0257255 0.9990871 0.0257255 0.9990871 0.0257255 0.0009129 -0.0257255
139106 0.0008713 -0.0250311 0.9991287 0.0250311 0.9991287 0.0250311 0.0008713 -0.0250311
142985 0.0008318 -0.0243553 0.9991682 0.0243553 0.9991682 0.0243553 0.0008318 -0.0243553
146972 0.0007944 -0.0236975 0.9992056 0.0236975 0.9992056 0.0236975 0.0007944 -0.0236975
151071 0.0007588 -0.0230575 0.9992412 0.0230575 0.9992412 0.0230575 0.0007588 -0.0230575
155284 0.0007251 -0.0224346 0.9992749 0.0224346 0.9992749 0.0224346 0.0007251 -0.0224346
159614 0.0006931 -0.0218284 0.9993069 0.0218284 0.9993069 0.0218284 0.0006931 -0.0218284
164065 0.0006628 -0.0212385 0.9993372 0.0212385 0.9993372 0.0212385 0.0006628 -0.0212385
168641 0.0006340 -0.0206644 0.9993660 0.0206644 0.9993660 0.0206644 0.0006340 -0.0206644
173344 0.0006067 -0.0201058 0.9993933 0.0201058 0.9993933 0.0201058 0.0006067 -0.0201058
178178 0.0005808 -0.0195622 0.9994192 0.0195622 0.9994192 0.0195622 0.0005808 -0.0195622
183146 0.0005563 -0.0190332 0.9994437 0.0190332 0.9994437 0.0190332 0.0005563 -0.0190332
188254 0.0005330 -0.0185184 0.9994670 0.0185184 0.9994670 0.0185184 0.0005330 -0.0185184
193504 0.0005109 -0.0180175 0.9994891 0.0180175 0.9994891 0.0180175 0.0005109 -0.0180175
198900 0.0004899 -0.0175301 0.9995101 0.0175301 0.9995101 0.0175301 0.0004899 -0.0175301
204447 0.0004700 -0.0170558 0.9995300 0.0170558 0.9995300 0.0170558 0.0004700 -0.0170558
210148 0.0004512 -0.0165943 0.9995488 0.0165943 0.9995488 0.0165943 0.0004512 -0.0165943
216008 0.0004333 -0.0161453 0.9995667 0.0161453 0.9995667 0.0161453 0.0004333 -0.0161453
222032 0.0004163 -0.0157083 0.9995837 0.0157083 0.9995837 0.0157083 0.0004163 -0.0157083
228224 0.0004002 -0.0152831 0.9995998 0.0152831 0.9995998 0.0152831 0.0004002 -0.0152831
234589 0.0003849 -0.0148694 0.9996151 0.0148694 0.9996151 0.0148694 0.0003849 -0.0148694
241130 0.0003704 -0.0144668 0.9996296 0.0144668 0.9996296 0.0144668 0.0003704 -0.0144668
247855 0.0003566 -0.0140751 0.9996434 0.0140751 0.9996434 0.0140751 0.0003566 -0.0140751
254767 0.0003436 -0.0136940 0.9996564 0.0136940 0.9996564 0.0136940 0.0003436 -0.0136940
261871 0.0003312 -0.0133231 0.9996688 0.0133231 0.9996688 0.0133231 0.0003312 -0.0133231
269174 0.0003194 -0.0129623 0.9996806 0.0129623 0.9996806 0.0129623 0.0003194 -0.0129623
276681 0.0003082 -0.0126112 0.9996918 0.0126112 0.9996918 0.0126112 0.0003082 -0.0126112
284397 0.0002975 -0.0122695 0.9997025 0.0122695 0.9997025 0.0122695 0.0002975 -0.0122695
292328 0.0002874 -0.0119371 0.9997126 0.0119371 0.9997126 0.0119371 0.0002874 -0.0119371
300480 0.0002778 -0.0116137 0.9997222 0.0116137 0.9997222 0.0116137 0.0002778 -0.0116137
308859 0.0002687 -0.0112990 0.9997313 0.0112990 0.9997313 0.0112990 0.0002687 -0.0112990
317472 0.0002600 -0.0109928 0.9997400 0.0109928 0.9997400 0.0109928 0.0002600 -0.0109928
326326 0.0002518 -0.0106948 0.9997482 0.0106948 0.9997482 0.0106948 0.0002518 -0.0106948
335426 0.0002439 -0.0104049 0.9997561 0.0104049 0.9997561 0.0104049 0.0002439 -0.0104049
344780 0.0002364 -0.0101229 0.9997636 0.0101229 0.9997636 0.0101229 0.0002364 -0.0101229
354395 0.0002293 -0.0098484 0.9997707 0.0098484 0.9997707 0.0098484 0.0002293 -0.0098484
364278 0.0002225 -0.0095813 0.9997775 0.0095813 0.9997775 0.0095813 0.0002225 -0.0095813
374436 0.0002160 -0.0093215 0.9997840 0.0093215 0.9997840 0.0093215 0.0002160 -0.0093215
384878 0.0002099 -0.0090686 0.9997901 0.0090686 0.9997901 0.0090686 0.0002099 -0.0090686
395611 0.0002040 -0.0088226 0.9997960 0.0088226 0.9997960 0.0088226 0.0002040 -0.0088226
406644 0.0001984 -0.0085831 0.9998016 0.0085831 0.9998016 0.0085831 0.0001984 -0.0085831
417984 0.0001930 -0.0083502 0.9998070 0.0083502 0.9998070 0.0083502 0.0001930 -0.0083502
429640 0.0001879 -0.0081235 0.9998121 0.0081235 0.9998121 0.0081235 0.0001879 -0.0081235
441622 0.0001830 -0.0079029 0.9998170 0.0079029 0.9998170 0.0079029 0.0001830 -0.0079029
453937 0.0001783 -0.0076883 0.9998217 0.0076883 0.9998217 0.0076883 0.0001783 -0.0076883
466596 0.0001739 -0.0074794 0.9998261 0.0074794 0.9998261 0.0074794 0.0001739 -0.0074794
479608 0.0001696 -0.0072761 0.9998304 0.0072761 0.9998304 0.0072761 0.0001696 -0.0072761
492983 0.0001655 -0.0070783 0.9998345 0.0070783 0.9998345 0.0070783 0.0001655 -0.0070783
506731 0.0001616 -0.0068858 0.9998384 0.0068858 0.9998384 0.0068858 0.0001616 -0.0068858
520862 0.0001578 -0.0066985 0.9998422 0.0066985 0.9998422 0.0066985 0.0001578 -0.0066985
535387 0.0001542 -0.0065162 0.9998458 0.0065162 0.9998458 0.0065162 0.0001542 -0.0065162
550318 0.0001507 -0.0063388 0.9998493 0.0063388 0.9998493 0.0063388 0.0001507 -0.0063388
565664 0.0001474 -0.0061661 0.9998526 0.0061661 0.9998526 0.0061661 0.0001474 -0.0061661
581439 0.0001442 -0.0059981 0.9998558 0.0059981 0.9998558 0.0059981 0.0001442 -0.0059981
597654 0.0001412 -0.0058346 0.9998588 0.0058346 0.9998588 0.0058346 0.0001412 -0.0058346
614320 0.0001382 -0.0056754 0.9998618 0.0056754 0.9998618 0.0056754 0.0001382 -0.0056754
631452 0.0001354 -0.0055205 0.9998646 0.0055205 0.9998646 0.0055205 0.0001354 -0.0055205
649061 0.0001327 -0.0053697 0.9998673 0.0053697 0.9998673 0.0053697 0.0001327 -0.0053697
667162 0.0001301 -0.0052229 0.9998699 0.0052229 0.9998699 0.0052229 0.0001301 -0.0052229
685767 0.0001276 -0.0050800 0.9998724 0.0050800 0.9998724 0.0050800 0.0001276 -0.0050800
704891 0.0001251 -0.0049409 0.9998749 0.0049409 0.9998749 0.0049409 0.0001251 -0.0049409
724548 0.0001228 -0.0048056 0.9998772 0.0048056 0.9998772 0.0048056 0.0001228 -0.0048056
744754 0.0001206 -0.0046738 0.9998794 0.0046738 0.9998794 0.0046738 0.0001206 -0.0046738
765523 0.0001184 -0.0045455 0.9998816 0.0045455 0.9998816 0.0045455 0.0001184 -0.0045455
786871 0.0001164 -0.0044206 0.9998836 0.0044206 0.9998836 0.0044206 0.0001164 -0.0044206
808814 0.0001144 -0.0042990 0.9998856 0.0042990 0.9998856 0.0042990 0.0001144 -0.0042990
831370 0.0001124 -0.0041806 0.9998876 0.0041806 0.9998876 0.0041806 0.0001124 -0.0041806
854554 0.0001106 -0.0040654 0.9998894 0.0040654 0.9998894 0.0040654 0.0001106 -0.0040654
878385 0.0001088 -0.0039531 0.9998912 0.0039531 0.9998912 0.0039531 0.0001088 -0.0039531
902880 0.0001071 -0.0038439 0.9998929 0.0038439 0.9998929 0.0038439 0.0001071 -0.0038439
928059 0.0001055 -0.0037375 0.9998945 0.0037375 0.9998945 0.0037375 0.0001055 -0.0037375
953940 0.0001039 -0.0036338 0.9998961 0.0036338 0.9998961 0.0036338 0.0001039 -0.0036338
980542 0.0001024 -0.0035329 0.9998976 0.0035329 0.9998976 0.0035329 0.0001024 -0.0035329
1007887 0.0001009 -0.0034347 0.9998991 0.0034347 0.9998991 0.0034347 0.0001009 -0.0034347
1035994 0.0000995 -0.0033390 0.9999005 0.0033390 0.9999005 0.0033390 0.0000995 -0.0033390
1064885 0.0000982 -0.0032458 0.9999018 0.0032458 0.9999018 0.0032458 0.0000982 -0.0032458
1094581 0.0000969 -0.0031550 0.9999031 0.0031550 0.9999031 0.0031550 0.0000969 -0.0031550
1125106 0.0000957 -0.0030666 0.9999043 0.0030666 0.9999043 0.0030666 0.0000957 -0.0030666
1156481 0.0000945 -0.0029805 0.9999055 0.0029805 0.9999055 0.0029805 0.0000945 -0.0029805
1188732 0.0000934 -0.0028965 0.9999066 0.0028965 0.9999066 0.0028965 0.0000934 -0.0028965
1221882 0.0000923 -0.0028148 0.9999077 0.0028148 0.9999077 0.0028148 0.0000923 -0.0028148
1255957 0.0000913 -0.0027352 0.9999087 0.0027352 0.9999087 0.0027352 0.0000913 -0.0027352
1290982 0.0000903 -0.0026576 0.9999097 0.0026576 0.9999097 0.0026576 0.0000903 -0.0026576
1326984 0.0000893 -0.0025820 0.9999107 0.0025820 0.9999107 0.0025820 0.0000893 -0.0025820
1363989 0.0000884 -0.0025083 0.9999116 0.0025083 0.9999116 0.0025083 0.0000884 -0.0025083
1402027 0.0000876 -0.0024365 0.9999124 0.0024365 0.9999124 0.0024365 0.0000876 -0.0024365
1441125 0.0000867 -0.0023665 0.9999133 0.0023665 0.9999133 0.0023665 0.0000867 -0.0023665
1481314 0.0000860 -0.0022983 0.9999140 0.0022983 0.9999140 0.0022983 0.0000860 -0.0022983
1522623 0.0000852 -0.0022318 0.9999148 0.0022318 0.9999148 0.0022318 0.0000852 -0.0022318
1565085 0.0000845 -0.0021670 0.9999155 0.0021670 0.9999155 0.0021670 0.0000845 -0.0021670
1608730 0.0000838 -0.0021037 0.9999162 0.0021037 0.9999162 0.0021037 0.0000838 -0.0021037
1653593 0.0000832 -0.0020421 0.9999168 0.0020421 0.9999168 0.0020421 0.0000832 -0.0020421
1699707 0.0000826 -0.0019820 0.9999174 0.0019820 0.9999174 0.0019820 0.0000826 -0.0019820
1747106 0.0000821 -0.0019234 0.9999179 0.0019234 0.9999179 0.0019234 0.0000821 -0.0019234
1795828 0.0000815 -0.0018662 0.9999185 0.0018662 0.9999185 0.0018662 0.0000815 -0.0018662
1845908 0.0000810 -0.0018104 0.9999190 0.0018104 0.9999190 0.0018104 0.0000810 -0.0018104
1897385 0.0000806 -0.0017560 0.9999194 0.0017560 0.9999194 0.0017560 0.0000806 -0.0017560
1950297 0.0000801 -0.0017029 0.9999199 0.0017029 0.9999199 0.0017029 0.0000801 -0.0017029
2004685 0.0000797 -0.0016511 0.9999203 0.0016511 0.9999203 0.0016511 0.0000797 -0.0016511
2060590 0.0000793 -0.0016005 0.9999207 0.0016005 0.9999207 0.0016005 0.0000793 -0.0016005
2118054 0.0000790 -0.0015511 0.9999210 0.0015511 0.9999210 0.0015511 0.0000790 -0.0015511
2177120 0.0000787 -0.0015029 0.9999213 0.0015029 0.9999213 0.0015029 0.0000787 -0.0015029
2237833 0.0000784 -0.0014558 0.9999216 0.0014558 0.9999216 0.0014558 0.0000784 -0.0014558
2300240 0.0000781 -0.0014098 0.9999219 0.0014098 0.9999219 0.0014098 0.0000781 -0.0014098
2364387 0.0000779 -0.0013648 0.9999221 0.0013648 0.9999221 0.0013648 0.0000779 -0.0013648
2430322 0.0000777 -0.0013209 0.9999223 0.0013209 0.9999223 0.0013209 0.0000777 -0.0013209
2498097 0.0000775 -0.0012779 0.9999225 0.0012779 0.9999225 0.0012779 0.0000775 -0.0012779
2567761 0.0000773 -0.0012359 0.9999227 0.0012359 0.9999227 0.0012359 0.0000773 -0.0012359
2639368 0.0000772 -0.0011949 0.9999228 0.0011949 0.9999228 0.0011949 0.0000772 -0.0011949
2712972 0.0000771 -0.0011547 0.9999229 0.0011547 0.9999229 0.0011547 0.0000771 -0.0011547
2788629 0.0000771 -0.0011154 0.9999229 0.0011154 0.9999229 0.0011154 0.0000771 -0.0011154
2866396 0.0000770 -0.0010770 0.9999230 0.0010770 0.9999230 0.0010770 0.0000770 -0.0010770
2946331 0.0000770 -0.0010393 0.9999230 0.0010393 0.9999230 0.0010393 0.0000770 -0.0010393
3028495 0.0000770 -0.0010025 0.9999230 0.0010025 0.9999230 0.0010025 0.0000770 -0.0010025
3112951 0.0000770 -0.0009663 0.9999230 0.0009663 0.9999230 0.0009663 0.0000770 -0.0009663
3199762 0.0000771 -0.0009309 0.9999229 0.0009309 0.9999229 0.0009309 0.0000771 -0.0009309
3288994 0.0000772 -0.0008963 0.9999228 0.0008963 0.9999228 0.0008963 0.0000772 -0.0008963
3380714 0.0000773 -0.0008622 0.9999227 0.0008622 0.9999227 0.0008622 0.0000773 -0.0008622
3474992 0.0000775 -0.0008289 0.9999225 0.0008289 0.9999225 0.0008289 0.0000775 -0.0008289
3571899 0.0000777 -0.0007961 0.9999223 0.0007961 0.9999223 0.0007961 0.0000777 -0.0007961
3671508 0.0000779 -0.0007639 0.9999221 0.0007639 0.9999221 0.0007639 0.0000779 -0.0007639
3773896 0.0000782 -0.0007324 0.9999218 0.0007324 0.9999218 0.0007324 0.0000782 -0.0007324
3879139 0.0000785 -0.0007013 0.9999215 0.0007013 0.9999215 0.0007013 0.0000785 -0.0007013
3987316 0.0000788 -0.0006708 0.9999212 0.0006708 0.9999212 0.0006708 0.0000788 -0.0006708
4098510 0.0000792 -0.0006408 0.9999208 0.0006408 0.9999208 0.0006408 0.0000792 -0.0006408
4212806 0.0000796 -0.0006113 0.9999204 0.0006113 0.9999204 0.0006113 0.0000796 -0.0006113
4330288 0.0000800 -0.0005822 0.9999200 0.0005822 0.9999200 0.0005822 0.0000800 -0.0005822
4451047 0.0000805 -0.0005535 0.9999195 0.0005535 0.9999195 0.0005535 0.0000805 -0.0005535
4575173 0.0000810 -0.0005253 0.9999190 0.0005253 0.9999190 0.0005253 0.0000810 -0.0005253
4702761 0.0000816 -0.0004975 0.9999184 0.0004975 0.9999184 0.0004975 0.0000816 -0.0004975
4833907 0.0000822 -0.0004700 0.9999178 0.0004700 0.9999178 0.0004700 0.0000822 -0.0004700
4968711 0.0000829 -0.0004429 0.9999171 0.0004429 0.9999171 0.0004429 0.0000829 -0.0004429
5107273 0.0000836 -0.0004161 0.9999164 0.0004161 0.9999164 0.0004161 0.0000836 -0.0004161
5249700 0.0000844 -0.0003896 0.9999156 0.0003896 0.9999156 0.0003896 0.0000844 -0.0003896
5396098 0.0000852 -0.0003634 0.9999148 0.0003634 0.9999148 0.0003634 0.0000852 -0.0003634
5546579 0.0000861 -0.0003375 0.9999139 0.0003375 0.9999139 0.0003375 0.0000861 -0.0003375
5701257 0.0000871 -0.0003118 0.9999129 0.0003118 0.9999129 0.0003118 0.0000871 -0.0003118
5860248 0.0000881 -0.0002864 0.9999119 0.0002864 0.9999119 0.0002864 0.0000881 -0.0002864
6023672 0.0000892 -0.0002612 0.9999108 0.0002612 0.9999108 0.0002612 0.0000892 -0.0002612
6191655 0.0000904 -0.0002361 0.9999096 0.0002361 0.9999096 0.0002361 0.0000904 -0.0002361
6364321 0.0000916 -0.0002112 0.9999084 0.0002112 0.9999084 0.0002112 0.0000916 -0.0002112
6541803 0.0000930 -0.0001865 0.9999070 0.0001865 0.9999070 0.0001865 0.0000930 -0.0001865
6724235 0.0000944 -0.0001618 0.9999056 0.0001618 0.9999056 0.0001618 0.0000944 -0.0001618
6911753 0.0000959 -0.0001373 0.9999041 0.0001373 0.9999041 0.0001373 0.0000959 -0.0001373
7104501 0.0000975 -0.0001129 0.9999025 0.0001129 0.9999025 0.0001129 0.0000975 -0.0001129
7302625 0.0000992 -0.0000885 0.9999008 0.0000885 0.9999008 0.0000885 0.0000992 -0.0000885
7506273 0.0001011 -0.0000642 0.9998989 0.0000642 0.9998989 0.0000642 0.0001011 -0.0000642
7715601 0.0001030 -0.0000399 0.9998970 0.0000399 0.9998970 0.0000399 0.0001030 -0.0000399
7930766 0.0001051 -0.0000155 0.9998949 0.0000155 0.9998949 0.0000155 0.0001051 -0.0000155
8151931 0.0001073 0.0000088 0.9998927 -0.0000088 0.9998927 -0.0000088 0.0001073 0.0000088
8379264 0.0001097 0.0000332 0.9998903 -0.0000332 0.9998903 -0.0000332 0.0001097 0.0000332
8612937 0.0001122 0.0000577 0.9998878 -0.0000577 0.9998878 -0.0000577 0.0001122 0.0000577
8853126 0.0001149 0.0000823 0.9998851 -0.0000823 0.9998851 -0.0000823 0.0001149 0.0000823
9100013 0.0001178 0.0001071 0.9998822 -0.0001071 0.9998822 -0.0001071 0.0001178 0.0001071
9353785 0.0001210 0.0001320 0.9998790 -0.0001320 0.9998790 -0.0001320 0.0001210 0.0001320
9614634 0.0001243 0.0001572 0.9998757 -0.0001572 0.9998757 -0.0001572 0.0001243 0.0001572
9882758 0.0001279 0.0001825 0.9998721 -0.0001825 0.9998721 -0.0001825 0.0001279 0.0001825
10158358 0.0001319 0.0002082 0.9998681 -0.0002082 0.9998681 -0.0002082 0.0001319 0.0002082
10441645 0.0001361 0.0002342 0.9998639 -0.0002342 0.9998639 -0.0002342 0.0001361 0.0002342
10732831 0.0001408 0.0002607 0.9998592 -0.0002607 0.9998592 -0.0002607 0.0001408 0.0002607
11032137 0.0001459 0.0002875 0.9998541 -0.0002875 0.9998541 -0.0002875 0.0001459 0.0002875
11339791 0.0001516 0.0003149 0.9998484 -0.0003149 0.9998484 -0.0003149 0.0001516 0.0003149
11656024 0.0001579 0.0003430 0.9998421 -0.0003430 0.9998421 -0.0003430 0.0001579 0.0003430
11981075 0.0001650 0.0003717 0.9998350 -0.0003717 0.9998350 -0.0003717 0.0001650 0.0003717
12315192 0.0001732 0.0004011 0.9998268 -0.0004011 0.9998268 -0.0004011 0.0001732 0.0004011
12658625 0.0001826 0.0004315 0.9998174 -0.0004315 0.9998174 -0.0004315 0.0001826 0.0004315
13011637 0.0001938 0.0004628 0.9998062 -0.0004628 0.9998062 -0.0004628 0.0001938 0.0004628
13374492 0.0002073 0.0004951 0.9997927 -0.0004951 0.9997927 -0.0004951 0.0002073 0.0004951
13747467 0.0002239 0.0005283 0.9997761 -0.0005283 0.9997761 -0.0005283 0.0002239 0.0005283
14130843 0.0002448 0.0005620 0.9997552 -0.0005620 0.9997552 -0.0005620 0.0002448 0.0005620
14524910 0.0002717 0.0005949 0.9997283 -0.0005949 0.9997283 -0.0005949 0.0002717 0.0005949
14929966 0.0003063 0.0006245 0.9996937 -0.0006245 0.9996937 -0.0006245 0.0003063 0.0006245
15346318 0.0003497 0.0006457 0.9996503 -0.0006457 0.9996503 -0.0006457 0.0003497 0.0006457
15774281 0.0003985 0.0006504 0.9996015 -0.0006504 0.9996015 -0.0006504 0.0003985 0.0006504
16214179 0.0004408 0.0006322 0.9995592 -0.0006322 0.9995592 -0.0006322 0.0004408 0.0006322
16666344 0.0004584 0.0005980 0.9995416 -0.0005980 0.9995416 -0.0005980 0.0004584 0.0005980
17131118 0.0004456 0.0005700 0.9995544 -0.0005700 0.9995544 -0.0005700 0.0004456 0.0005700
17608854 0.0004169 0.0005647 0.9995831 -0.0005647 0.9995831 -0.0005647 0.0004169 0.0005647
18099912 0.0003892 0.0005812 0.9996108 -0.0005812 0.9996108 -0.0005812 0.0003892 0.0005812
18604665 0.0003703 0.0006111 0.9996297 -0.0006111 0.9996297 -0.0006111 0.0003703 0.0006111
19123493 0.0003615 0.0006475 0.9996385 -0.0006475 0.9996385 -0.0006475 0.0003615 0.0006475
19656790 0.0003615 0.0006863 0.9996385 -0.0006863 0.9996385 -0.0006863 0.0003615 0.0006863
20204959 0.0003692 0.0007254 0.9996308 -0.0007254 0.9996308 -0.0007254 0.0003692 0.0007254
20768415 0.0003837 0.0007633 0.9996163 -0.0007633 0.9996163 -0.0007633 0.0003837 0.0007633
21347584 0.0004049 0.0007988 0.9995951 -0.0007988 0.9995951 -0.0007988 0.0004049 0.0007988
21942904 0.0004324 0.0008299 0.9995676 -0.0008299 0.9995676 -0.0008299 0.0004324 0.0008299
22554827 0.0004655 0.0008543 0.9995345 -0.0008543 0.9995345 -0.0008543 0.0004655 0.0008543
23183813 0.0005023 0.0008688 0.9994977 -0.0008688 0.9994977 -0.0008688 0.0005023 0.0008688
23830340 0.0005384 0.0008708 0.9994616 -0.0008708 0.9994616 -0.0008708 0.0005384 0.0008708
24494897 0.0005673 0.0008598 0.9994327 -0.0008598 0.9994327 -0.0008598 0.0005673 0.0008598
25177987 0.0005820 0.0008402 0.9994180 -0.0008402 0.9994180 -0.0008402 0.0005820 0.0008402
25880126 0.0005794 0.0008205 0.9994206 -0.0008205 0.9994206 -0.0008205 0.0005794 0.0008205
26601845 0.0005623 0.0008090 0.9994377 -0.0008090 0.9994377 -0.0008090 0.0005623 0.0008090
27343691 0.0005374 0.0008103 0.9994626 -0.0008103 0.9994626 -0.0008103 0.0005374 0.0008103
28106225 0.0005112 0.0008240 0.9994888 -0.0008240 0.9994888 -0.0008240 0.0005112 0.0008240
28890023 0.0004877 0.0008474 0.9995123 -0.0008474 0.9995123 -0.0008474 0.0004877 0.0008474
29695680 0.0004686 0.0008773 0.9995314 -0.0008773 0.9995314 -0.0008773 0.0004686 0.0008773
30523804 0.0004542 0.0009113 0.9995458 -0.0009113 0.9995458 -0.0009113 0.0004542 0.0009113
31375021 0.0004440 0.0009477 0.9995560 -0.0009477 0.9995560 -0.0009477 0.0004440 0.0009477
32249977 0.0004373 0.0009853 0.9995627 -0.0009853 0.9995627 -0.0009853 0.0004373 0.0009853
33149332 0.0004334 0.0010235 0.9995666 -0.0010235 0.9995666 -0.0010235 0.0004334 0.0010235
34073768 0.0004317 0.0010620 0.9995683 -0.0010620 0.9995683 -0.0010620 0.0004317 0.0010620
35023984 0.0004318 0.0011006 0.9995682 -0.0011006 0.9995682 -0.0011006 0.0004318 0.0011006
36000698 0.0004333 0.0011393 0.9995667 -0.0011393 0.9995667 -0.0011393 0.0004333 0.0011393
37004650 0.0004360 0.0011781 0.9995640 -0.0011781 0.9995640 -0.0011781 0.0004360 0.0011781
38036599 0.0004395 0.0012169 0.9995605 -0.0012169 0.9995605 -0.0012169 0.0004395 0.0012169
39097326 0.0004437 0.0012559 0.9995563 -0.0012559 0.9995563 -0.0012559 0.0004437 0.0012559
