!Murata Part Number: GRM31CR72E104KW03
!These Parameters are Measured in Series Mode Connection
!Data Generated on Mar 30, 2021
!       o--ll--o
!Port1            Port2
!       o------o
!Operation Temp=25[degC], DC Bias Voltage=0[V]
!Freq. Start=100[kHz] Stop=6[GHz] 401[Steps]
# Hz S RI R 50
!Freq.(Hz) S11(Real) S11(Imag) S21(Real) S21(Imag) S12(Real) S12(Imag) S22(Real) S22(Imag)
100000 0.0282798 -0.1608222 0.9717202 0.1608222 0.9717202 0.1608222 0.0282798 -0.1608222
102789 0.0268650 -0.1567214 0.9731350 0.1567214 0.9731350 0.1567214 0.0268650 -0.1567214
105655 0.0255202 -0.1527134 0.9744798 0.1527134 0.9744798 0.1527134 0.0255202 -0.1527134
108602 0.0242421 -0.1487972 0.9757579 0.1487972 0.9757579 0.1487972 0.0242421 -0.1487972
111630 0.0230276 -0.1449712 0.9769724 0.1449712 0.9769724 0.1449712 0.0230276 -0.1449712
114743 0.0218737 -0.1412343 0.9781263 0.1412343 0.9781263 0.1412343 0.0218737 -0.1412343
117943 0.0207775 -0.1375851 0.9792225 0.1375851 0.9792225 0.1375851 0.0207775 -0.1375851
121232 0.0197362 -0.1340220 0.9802638 0.1340220 0.9802638 0.1340220 0.0197362 -0.1340220
124613 0.0187473 -0.1305438 0.9812527 0.1305438 0.9812527 0.1305438 0.0187473 -0.1305438
128088 0.0178081 -0.1271488 0.9821919 0.1271488 0.9821919 0.1271488 0.0178081 -0.1271488
131660 0.0169163 -0.1238358 0.9830837 0.1238358 0.9830837 0.1238358 0.0169163 -0.1238358
135332 0.0160696 -0.1206031 0.9839304 0.1206031 0.9839304 0.1206031 0.0160696 -0.1206031
139106 0.0152657 -0.1174493 0.9847343 0.1174493 0.9847343 0.1174493 0.0152657 -0.1174493
142985 0.0145027 -0.1143729 0.9854973 0.1143729 0.9854973 0.1143729 0.0145027 -0.1143729
146972 0.0137784 -0.1113723 0.9862216 0.1113723 0.9862216 0.1113723 0.0137784 -0.1113723
151071 0.0130909 -0.1084461 0.9869091 0.1084461 0.9869091 0.1084461 0.0130909 -0.1084461
155284 0.0124385 -0.1055927 0.9875615 0.1055927 0.9875615 0.1055927 0.0124385 -0.1055927
159614 0.0118193 -0.1028107 0.9881807 0.1028107 0.9881807 0.1028107 0.0118193 -0.1028107
164065 0.0112318 -0.1000985 0.9887682 0.1000985 0.9887682 0.1000985 0.0112318 -0.1000985
168641 0.0106743 -0.0974547 0.9893257 0.0974547 0.9893257 0.0974547 0.0106743 -0.0974547
173344 0.0101454 -0.0948779 0.9898546 0.0948779 0.9898546 0.0948779 0.0101454 -0.0948779
178178 0.0096436 -0.0923664 0.9903564 0.0923664 0.9903564 0.0923664 0.0096436 -0.0923664
183146 0.0091675 -0.0899190 0.9908325 0.0899190 0.9908325 0.0899190 0.0091675 -0.0899190
188254 0.0087158 -0.0875341 0.9912842 0.0875341 0.9912842 0.0875341 0.0087158 -0.0875341
193504 0.0082873 -0.0852104 0.9917127 0.0852104 0.9917127 0.0852104 0.0082873 -0.0852104
198900 0.0078808 -0.0829465 0.9921192 0.0829465 0.9921192 0.0829465 0.0078808 -0.0829465
204447 0.0074952 -0.0807410 0.9925048 0.0807410 0.9925048 0.0807410 0.0074952 -0.0807410
210148 0.0071294 -0.0785924 0.9928706 0.0785924 0.9928706 0.0785924 0.0071294 -0.0785924
216008 0.0067825 -0.0764996 0.9932175 0.0764996 0.9932175 0.0764996 0.0067825 -0.0764996
222032 0.0064533 -0.0744611 0.9935467 0.0744611 0.9935467 0.0744611 0.0064533 -0.0744611
228224 0.0061410 -0.0724758 0.9938590 0.0724758 0.9938590 0.0724758 0.0061410 -0.0724758
234589 0.0058448 -0.0705422 0.9941552 0.0705422 0.9941552 0.0705422 0.0058448 -0.0705422
241130 0.0055638 -0.0686591 0.9944362 0.0686591 0.9944362 0.0686591 0.0055638 -0.0686591
247855 0.0052972 -0.0668254 0.9947028 0.0668254 0.9947028 0.0668254 0.0052972 -0.0668254
254767 0.0050442 -0.0650398 0.9949558 0.0650398 0.9949558 0.0650398 0.0050442 -0.0650398
261871 0.0048042 -0.0633011 0.9951958 0.0633011 0.9951958 0.0633011 0.0048042 -0.0633011
269174 0.0045765 -0.0616082 0.9954235 0.0616082 0.9954235 0.0616082 0.0045765 -0.0616082
276681 0.0043604 -0.0599599 0.9956396 0.0599599 0.9956396 0.0599599 0.0043604 -0.0599599
284397 0.0041553 -0.0583550 0.9958447 0.0583550 0.9958447 0.0583550 0.0041553 -0.0583550
292328 0.0039606 -0.0567926 0.9960394 0.0567926 0.9960394 0.0567926 0.0039606 -0.0567926
300480 0.0037759 -0.0552715 0.9962241 0.0552715 0.9962241 0.0552715 0.0037759 -0.0552715
308859 0.0036005 -0.0537906 0.9963995 0.0537906 0.9963995 0.0537906 0.0036005 -0.0537906
317472 0.0034340 -0.0523491 0.9965660 0.0523491 0.9965660 0.0523491 0.0034340 -0.0523491
326326 0.0032759 -0.0509457 0.9967241 0.0509457 0.9967241 0.0509457 0.0032759 -0.0509457
335426 0.0031257 -0.0495796 0.9968743 0.0495796 0.9968743 0.0495796 0.0031257 -0.0495796
344780 0.0029832 -0.0482498 0.9970168 0.0482498 0.9970168 0.0482498 0.0029832 -0.0482498
354395 0.0028478 -0.0469553 0.9971522 0.0469553 0.9971522 0.0469553 0.0028478 -0.0469553
364278 0.0027191 -0.0456953 0.9972809 0.0456953 0.9972809 0.0456953 0.0027191 -0.0456953
374436 0.0025969 -0.0444688 0.9974031 0.0444688 0.9974031 0.0444688 0.0025969 -0.0444688
384878 0.0024808 -0.0432749 0.9975192 0.0432749 0.9975192 0.0432749 0.0024808 -0.0432749
395611 0.0023704 -0.0421128 0.9976296 0.0421128 0.9976296 0.0421128 0.0023704 -0.0421128
406644 0.0022655 -0.0409817 0.9977345 0.0409817 0.9977345 0.0409817 0.0022655 -0.0409817
417984 0.0021658 -0.0398808 0.9978342 0.0398808 0.9978342 0.0398808 0.0021658 -0.0398808
429640 0.0020710 -0.0388091 0.9979290 0.0388091 0.9979290 0.0388091 0.0020710 -0.0388091
441622 0.0019809 -0.0377661 0.9980191 0.0377661 0.9980191 0.0377661 0.0019809 -0.0377661
453937 0.0018951 -0.0367509 0.9981049 0.0367509 0.9981049 0.0367509 0.0018951 -0.0367509
466596 0.0018136 -0.0357627 0.9981864 0.0357627 0.9981864 0.0357627 0.0018136 -0.0357627
479608 0.0017361 -0.0348009 0.9982639 0.0348009 0.9982639 0.0348009 0.0017361 -0.0348009
492983 0.0016623 -0.0338647 0.9983377 0.0338647 0.9983377 0.0338647 0.0016623 -0.0338647
506731 0.0015921 -0.0329535 0.9984079 0.0329535 0.9984079 0.0329535 0.0015921 -0.0329535
520862 0.0015253 -0.0320667 0.9984747 0.0320667 0.9984747 0.0320667 0.0015253 -0.0320667
535387 0.0014618 -0.0312034 0.9985382 0.0312034 0.9985382 0.0312034 0.0014618 -0.0312034
550318 0.0014013 -0.0303632 0.9985987 0.0303632 0.9985987 0.0303632 0.0014013 -0.0303632
565664 0.0013437 -0.0295454 0.9986563 0.0295454 0.9986563 0.0295454 0.0013437 -0.0295454
581439 0.0012889 -0.0287495 0.9987111 0.0287495 0.9987111 0.0287495 0.0012889 -0.0287495
597654 0.0012368 -0.0279747 0.9987632 0.0279747 0.9987632 0.0279747 0.0012368 -0.0279747
614320 0.0011871 -0.0272206 0.9988129 0.0272206 0.9988129 0.0272206 0.0011871 -0.0272206
631452 0.0011399 -0.0264866 0.9988601 0.0264866 0.9988601 0.0264866 0.0011399 -0.0264866
649061 0.0010949 -0.0257722 0.9989051 0.0257722 0.9989051 0.0257722 0.0010949 -0.0257722
667162 0.0010521 -0.0250769 0.9989479 0.0250769 0.9989479 0.0250769 0.0010521 -0.0250769
685767 0.0010113 -0.0244001 0.9989887 0.0244001 0.9989887 0.0244001 0.0010113 -0.0244001
704891 0.0009725 -0.0237413 0.9990275 0.0237413 0.9990275 0.0237413 0.0009725 -0.0237413
724548 0.0009355 -0.0231001 0.9990645 0.0231001 0.9990645 0.0231001 0.0009355 -0.0231001
744754 0.0009004 -0.0224760 0.9990996 0.0224760 0.9990996 0.0224760 0.0009004 -0.0224760
765523 0.0008669 -0.0218685 0.9991331 0.0218685 0.9991331 0.0218685 0.0008669 -0.0218685
786871 0.0008350 -0.0212772 0.9991650 0.0212772 0.9991650 0.0212772 0.0008350 -0.0212772
808814 0.0008047 -0.0207017 0.9991953 0.0207017 0.9991953 0.0207017 0.0008047 -0.0207017
831370 0.0007758 -0.0201415 0.9992242 0.0201415 0.9992242 0.0201415 0.0007758 -0.0201415
854554 0.0007484 -0.0195963 0.9992516 0.0195963 0.9992516 0.0195963 0.0007484 -0.0195963
878385 0.0007222 -0.0190656 0.9992778 0.0190656 0.9992778 0.0190656 0.0007222 -0.0190656
902880 0.0006973 -0.0185491 0.9993027 0.0185491 0.9993027 0.0185491 0.0006973 -0.0185491
928059 0.0006737 -0.0180463 0.9993263 0.0180463 0.9993263 0.0180463 0.0006737 -0.0180463
953940 0.0006511 -0.0175569 0.9993489 0.0175569 0.9993489 0.0175569 0.0006511 -0.0175569
980542 0.0006297 -0.0170806 0.9993703 0.0170806 0.9993703 0.0170806 0.0006297 -0.0170806
1007887 0.0006093 -0.0166169 0.9993907 0.0166169 0.9993907 0.0166169 0.0006093 -0.0166169
1035994 0.0005899 -0.0161657 0.9994101 0.0161657 0.9994101 0.0161657 0.0005899 -0.0161657
1064885 0.0005715 -0.0157264 0.9994285 0.0157264 0.9994285 0.0157264 0.0005715 -0.0157264
1094581 0.0005539 -0.0152989 0.9994461 0.0152989 0.9994461 0.0152989 0.0005539 -0.0152989
1125106 0.0005372 -0.0148827 0.9994628 0.0148827 0.9994628 0.0148827 0.0005372 -0.0148827
1156481 0.0005213 -0.0144776 0.9994787 0.0144776 0.9994787 0.0144776 0.0005213 -0.0144776
1188732 0.0005062 -0.0140834 0.9994938 0.0140834 0.9994938 0.0140834 0.0005062 -0.0140834
1221882 0.0004919 -0.0136996 0.9995081 0.0136996 0.9995081 0.0136996 0.0004919 -0.0136996
1255957 0.0004782 -0.0133261 0.9995218 0.0133261 0.9995218 0.0133261 0.0004782 -0.0133261
1290982 0.0004652 -0.0129624 0.9995348 0.0129624 0.9995348 0.0129624 0.0004652 -0.0129624
1326984 0.0004528 -0.0126085 0.9995472 0.0126085 0.9995472 0.0126085 0.0004528 -0.0126085
1363989 0.0004411 -0.0122640 0.9995589 0.0122640 0.9995589 0.0122640 0.0004411 -0.0122640
1402027 0.0004299 -0.0119287 0.9995701 0.0119287 0.9995701 0.0119287 0.0004299 -0.0119287
1441125 0.0004193 -0.0116022 0.9995807 0.0116022 0.9995807 0.0116022 0.0004193 -0.0116022
1481314 0.0004092 -0.0112845 0.9995908 0.0112845 0.9995908 0.0112845 0.0004092 -0.0112845
1522623 0.0003995 -0.0109752 0.9996005 0.0109752 0.9996005 0.0109752 0.0003995 -0.0109752
1565085 0.0003904 -0.0106741 0.9996096 0.0106741 0.9996096 0.0106741 0.0003904 -0.0106741
1608730 0.0003817 -0.0103810 0.9996183 0.0103810 0.9996183 0.0103810 0.0003817 -0.0103810
1653593 0.0003734 -0.0100956 0.9996266 0.0100956 0.9996266 0.0100956 0.0003734 -0.0100956
1699707 0.0003655 -0.0098179 0.9996345 0.0098179 0.9996345 0.0098179 0.0003655 -0.0098179
1747106 0.0003579 -0.0095474 0.9996421 0.0095474 0.9996421 0.0095474 0.0003579 -0.0095474
1795828 0.0003508 -0.0092842 0.9996492 0.0092842 0.9996492 0.0092842 0.0003508 -0.0092842
1845908 0.0003439 -0.0090279 0.9996561 0.0090279 0.9996561 0.0090279 0.0003439 -0.0090279
1897385 0.0003374 -0.0087783 0.9996626 0.0087783 0.9996626 0.0087783 0.0003374 -0.0087783
1950297 0.0003312 -0.0085353 0.9996688 0.0085353 0.9996688 0.0085353 0.0003312 -0.0085353
2004685 0.0003253 -0.0082988 0.9996747 0.0082988 0.9996747 0.0082988 0.0003253 -0.0082988
2060590 0.0003197 -0.0080684 0.9996803 0.0080684 0.9996803 0.0080684 0.0003197 -0.0080684
2118054 0.0003143 -0.0078441 0.9996857 0.0078441 0.9996857 0.0078441 0.0003143 -0.0078441
2177120 0.0003092 -0.0076257 0.9996908 0.0076257 0.9996908 0.0076257 0.0003092 -0.0076257
2237833 0.0003042 -0.0074130 0.9996958 0.0074130 0.9996958 0.0074130 0.0003042 -0.0074130
2300240 0.0002995 -0.0072059 0.9997005 0.0072059 0.9997005 0.0072059 0.0002995 -0.0072059
2364387 0.0002951 -0.0070041 0.9997049 0.0070041 0.9997049 0.0070041 0.0002951 -0.0070041
2430322 0.0002908 -0.0068076 0.9997092 0.0068076 0.9997092 0.0068076 0.0002908 -0.0068076
2498097 0.0002866 -0.0066162 0.9997134 0.0066162 0.9997134 0.0066162 0.0002866 -0.0066162
2567761 0.0002827 -0.0064298 0.9997173 0.0064298 0.9997173 0.0064298 0.0002827 -0.0064298
2639368 0.0002789 -0.0062482 0.9997211 0.0062482 0.9997211 0.0062482 0.0002789 -0.0062482
2712972 0.0002753 -0.0060713 0.9997247 0.0060713 0.9997247 0.0060713 0.0002753 -0.0060713
2788629 0.0002718 -0.0058989 0.9997282 0.0058989 0.9997282 0.0058989 0.0002718 -0.0058989
2866396 0.0002685 -0.0057309 0.9997315 0.0057309 0.9997315 0.0057309 0.0002685 -0.0057309
2946331 0.0002653 -0.0055672 0.9997347 0.0055672 0.9997347 0.0055672 0.0002653 -0.0055672
3028495 0.0002622 -0.0054077 0.9997378 0.0054077 0.9997378 0.0054077 0.0002622 -0.0054077
3112951 0.0002592 -0.0052522 0.9997408 0.0052522 0.9997408 0.0052522 0.0002592 -0.0052522
3199762 0.0002564 -0.0051007 0.9997436 0.0051007 0.9997436 0.0051007 0.0002564 -0.0051007
3288994 0.0002536 -0.0049529 0.9997464 0.0049529 0.9997464 0.0049529 0.0002536 -0.0049529
3380714 0.0002510 -0.0048089 0.9997490 0.0048089 0.9997490 0.0048089 0.0002510 -0.0048089
3474992 0.0002484 -0.0046684 0.9997516 0.0046684 0.9997516 0.0046684 0.0002484 -0.0046684
3571899 0.0002459 -0.0045315 0.9997541 0.0045315 0.9997541 0.0045315 0.0002459 -0.0045315
3671508 0.0002435 -0.0043979 0.9997565 0.0043979 0.9997565 0.0043979 0.0002435 -0.0043979
3773896 0.0002412 -0.0042675 0.9997588 0.0042675 0.9997588 0.0042675 0.0002412 -0.0042675
3879139 0.0002390 -0.0041404 0.9997610 0.0041404 0.9997610 0.0041404 0.0002390 -0.0041404
3987316 0.0002369 -0.0040163 0.9997631 0.0040163 0.9997631 0.0040163 0.0002369 -0.0040163
4098510 0.0002348 -0.0038953 0.9997652 0.0038953 0.9997652 0.0038953 0.0002348 -0.0038953
4212806 0.0002328 -0.0037771 0.9997672 0.0037771 0.9997672 0.0037771 0.0002328 -0.0037771
4330288 0.0002309 -0.0036617 0.9997691 0.0036617 0.9997691 0.0036617 0.0002309 -0.0036617
4451047 0.0002290 -0.0035490 0.9997710 0.0035490 0.9997710 0.0035490 0.0002290 -0.0035490
4575173 0.0002272 -0.0034390 0.9997728 0.0034390 0.9997728 0.0034390 0.0002272 -0.0034390
4702761 0.0002255 -0.0033315 0.9997745 0.0033315 0.9997745 0.0033315 0.0002255 -0.0033315
4833907 0.0002239 -0.0032265 0.9997761 0.0032265 0.9997761 0.0032265 0.0002239 -0.0032265
4968711 0.0002223 -0.0031239 0.9997777 0.0031239 0.9997777 0.0031239 0.0002223 -0.0031239
5107273 0.0002207 -0.0030235 0.9997793 0.0030235 0.9997793 0.0030235 0.0002207 -0.0030235
5249700 0.0002193 -0.0029254 0.9997807 0.0029254 0.9997807 0.0029254 0.0002193 -0.0029254
5396098 0.0002178 -0.0028295 0.9997822 0.0028295 0.9997822 0.0028295 0.0002178 -0.0028295
5546579 0.0002165 -0.0027357 0.9997835 0.0027357 0.9997835 0.0027357 0.0002165 -0.0027357
5701257 0.0002152 -0.0026438 0.9997848 0.0026438 0.9997848 0.0026438 0.0002152 -0.0026438
5860248 0.0002140 -0.0025540 0.9997860 0.0025540 0.9997860 0.0025540 0.0002140 -0.0025540
6023672 0.0002128 -0.0024660 0.9997872 0.0024660 0.9997872 0.0024660 0.0002128 -0.0024660
6191655 0.0002117 -0.0023798 0.9997883 0.0023798 0.9997883 0.0023798 0.0002117 -0.0023798
6364321 0.0002107 -0.0022953 0.9997893 0.0022953 0.9997893 0.0022953 0.0002107 -0.0022953
6541803 0.0002097 -0.0022126 0.9997903 0.0022126 0.9997903 0.0022126 0.0002097 -0.0022126
6724235 0.0002088 -0.0021315 0.9997912 0.0021315 0.9997912 0.0021315 0.0002088 -0.0021315
6911753 0.0002080 -0.0020519 0.9997920 0.0020519 0.9997920 0.0020519 0.0002080 -0.0020519
7104501 0.0002072 -0.0019739 0.9997928 0.0019739 0.9997928 0.0019739 0.0002072 -0.0019739
7302625 0.0002065 -0.0018972 0.9997935 0.0018972 0.9997935 0.0018972 0.0002065 -0.0018972
7506273 0.0002058 -0.0018220 0.9997942 0.0018220 0.9997942 0.0018220 0.0002058 -0.0018220
7715601 0.0002053 -0.0017481 0.9997947 0.0017481 0.9997947 0.0017481 0.0002053 -0.0017481
7930766 0.0002048 -0.0016755 0.9997952 0.0016755 0.9997952 0.0016755 0.0002048 -0.0016755
8151931 0.0002044 -0.0016042 0.9997956 0.0016042 0.9997956 0.0016042 0.0002044 -0.0016042
8379264 0.0002040 -0.0015340 0.9997960 0.0015340 0.9997960 0.0015340 0.0002040 -0.0015340
8612937 0.0002038 -0.0014649 0.9997962 0.0014649 0.9997962 0.0014649 0.0002038 -0.0014649
8853126 0.0002036 -0.0013969 0.9997964 0.0013969 0.9997964 0.0013969 0.0002036 -0.0013969
9100013 0.0002035 -0.0013299 0.9997965 0.0013299 0.9997965 0.0013299 0.0002035 -0.0013299
9353785 0.0002035 -0.0012638 0.9997965 0.0012638 0.9997965 0.0012638 0.0002035 -0.0012638
9614634 0.0002035 -0.0011987 0.9997965 0.0011987 0.9997965 0.0011987 0.0002035 -0.0011987
9882758 0.0002037 -0.0011345 0.9997963 0.0011345 0.9997963 0.0011345 0.0002037 -0.0011345
10158358 0.0002039 -0.0010711 0.9997961 0.0010711 0.9997961 0.0010711 0.0002039 -0.0010711
10441645 0.0002043 -0.0010084 0.9997957 0.0010084 0.9997957 0.0010084 0.0002043 -0.0010084
10732831 0.0002047 -0.0009465 0.9997953 0.0009465 0.9997953 0.0009465 0.0002047 -0.0009465
11032137 0.0002053 -0.0008853 0.9997947 0.0008853 0.9997947 0.0008853 0.0002053 -0.0008853
11339791 0.0002059 -0.0008247 0.9997941 0.0008247 0.9997941 0.0008247 0.0002059 -0.0008247
11656024 0.0002067 -0.0007647 0.9997933 0.0007647 0.9997933 0.0007647 0.0002067 -0.0007647
11981075 0.0002076 -0.0007052 0.9997924 0.0007052 0.9997924 0.0007052 0.0002076 -0.0007052
12315192 0.0002086 -0.0006463 0.9997914 0.0006463 0.9997914 0.0006463 0.0002086 -0.0006463
12658625 0.0002097 -0.0005877 0.9997903 0.0005877 0.9997903 0.0005877 0.0002097 -0.0005877
13011637 0.0002110 -0.0005296 0.9997890 0.0005296 0.9997890 0.0005296 0.0002110 -0.0005296
13374492 0.0002124 -0.0004719 0.9997876 0.0004719 0.9997876 0.0004719 0.0002124 -0.0004719
13747467 0.0002139 -0.0004145 0.9997861 0.0004145 0.9997861 0.0004145 0.0002139 -0.0004145
14130843 0.0002156 -0.0003573 0.9997844 0.0003573 0.9997844 0.0003573 0.0002156 -0.0003573
14524910 0.0002175 -0.0003004 0.9997825 0.0003004 0.9997825 0.0003004 0.0002175 -0.0003004
14929966 0.0002195 -0.0002436 0.9997805 0.0002436 0.9997805 0.0002436 0.0002195 -0.0002436
15346318 0.0002218 -0.0001870 0.9997782 0.0001870 0.9997782 0.0001870 0.0002218 -0.0001870
15774281 0.0002242 -0.0001305 0.9997758 0.0001305 0.9997758 0.0001305 0.0002242 -0.0001305
16214179 0.0002269 -0.0000741 0.9997731 0.0000741 0.9997731 0.0000741 0.0002269 -0.0000741
16666344 0.0002298 -0.0000176 0.9997702 0.0000176 0.9997702 0.0000176 0.0002298 -0.0000176
17131118 0.0002329 0.0000389 0.9997671 -0.0000389 0.9997671 -0.0000389 0.0002329 0.0000389
17608854 0.0002364 0.0000956 0.9997636 -0.0000956 0.9997636 -0.0000956 0.0002364 0.0000956
18099912 0.0002401 0.0001523 0.9997599 -0.0001523 0.9997599 -0.0001523 0.0002401 0.0001523
18604665 0.0002441 0.0002093 0.9997559 -0.0002093 0.9997559 -0.0002093 0.0002441 0.0002093
19123493 0.0002485 0.0002665 0.9997515 -0.0002665 0.9997515 -0.0002665 0.0002485 0.0002665
19656790 0.0002533 0.0003239 0.9997467 -0.0003239 0.9997467 -0.0003239 0.0002533 0.0003239
20204959 0.0002585 0.0003818 0.9997415 -0.0003818 0.9997415 -0.0003818 0.0002585 0.0003818
20768415 0.0002642 0.0004400 0.9997358 -0.0004400 0.9997358 -0.0004400 0.0002642 0.0004400
21347584 0.0002704 0.0004986 0.9997296 -0.0004986 0.9997296 -0.0004986 0.0002704 0.0004986
21942904 0.0002773 0.0005577 0.9997227 -0.0005577 0.9997227 -0.0005577 0.0002773 0.0005577
22554827 0.0002847 0.0006173 0.9997153 -0.0006173 0.9997153 -0.0006173 0.0002847 0.0006173
23183813 0.0002930 0.0006775 0.9997070 -0.0006775 0.9997070 -0.0006775 0.0002930 0.0006775
23830340 0.0003021 0.0007383 0.9996979 -0.0007383 0.9996979 -0.0007383 0.0003021 0.0007383
24494897 0.0003122 0.0007997 0.9996878 -0.0007997 0.9996878 -0.0007997 0.0003122 0.0007997
25177987 0.0003234 0.0008618 0.9996766 -0.0008618 0.9996766 -0.0008618 0.0003234 0.0008618
25880126 0.0003360 0.0009244 0.9996640 -0.0009244 0.9996640 -0.0009244 0.0003360 0.0009244
26601845 0.0003500 0.0009875 0.9996500 -0.0009875 0.9996500 -0.0009875 0.0003500 0.0009875
27343691 0.0003657 0.0010511 0.9996343 -0.0010511 0.9996343 -0.0010511 0.0003657 0.0010511
28106225 0.0003834 0.0011150 0.9996166 -0.0011150 0.9996166 -0.0011150 0.0003834 0.0011150
28890023 0.0004033 0.0011788 0.9995967 -0.0011788 0.9995967 -0.0011788 0.0004033 0.0011788
29695680 0.0004257 0.0012422 0.9995743 -0.0012422 0.9995743 -0.0012422 0.0004257 0.0012422
30523804 0.0004506 0.0013045 0.9995494 -0.0013045 0.9995494 -0.0013045 0.0004506 0.0013045
31375021 0.0004782 0.0013650 0.9995218 -0.0013650 0.9995218 -0.0013650 0.0004782 0.0013650
32249977 0.0005080 0.0014227 0.9994920 -0.0014227 0.9994920 -0.0014227 0.0005080 0.0014227
33149332 0.0005394 0.0014766 0.9994606 -0.0014766 0.9994606 -0.0014766 0.0005394 0.0014766
34073768 0.0005708 0.0015259 0.9994292 -0.0015259 0.9994292 -0.0015259 0.0005708 0.0015259
35023984 0.0006003 0.0015704 0.9993997 -0.0015704 0.9993997 -0.0015704 0.0006003 0.0015704
36000698 0.0006257 0.0016108 0.9993743 -0.0016108 0.9993743 -0.0016108 0.0006257 0.0016108
37004650 0.0006454 0.0016493 0.9993546 -0.0016493 0.9993546 -0.0016493 0.0006454 0.0016493
38036599 0.0006586 0.0016885 0.9993414 -0.0016885 0.9993414 -0.0016885 0.0006586 0.0016885
39097326 0.0006663 0.0017312 0.9993337 -0.0017312 0.9993337 -0.0017312 0.0006663 0.0017312
