!Murata Part Number: GRM155R72A221MA01
!These Parameters are Measured in Series Mode Connection
!Data Generated on Mar 30, 2021
!       o--ll--o
!Port1            Port2
!       o------o
!Operation Temp=25[degC], DC Bias Voltage=0[V]
!Freq. Start=100[Hz] Stop=6[GHz] 401[Steps]
# Hz S RI R 50
!Freq.(Hz) S11(Real) S11(Imag) S21(Real) S21(Imag) S12(Real) S12(Imag) S22(Real) S22(Imag)
100 0.9999999 -0.0000133 0.0000001 0.0000133 0.0000001 0.0000133 0.9999999 -0.0000133
105 0.9999999 -0.0000139 0.0000001 0.0000139 0.0000001 0.0000139 0.9999999 -0.0000139
109 0.9999999 -0.0000145 0.0000001 0.0000145 0.0000001 0.0000145 0.9999999 -0.0000145
114 0.9999999 -0.0000152 0.0000001 0.0000152 0.0000001 0.0000152 0.9999999 -0.0000152
120 0.9999999 -0.0000158 0.0000001 0.0000158 0.0000001 0.0000158 0.9999999 -0.0000158
125 0.9999999 -0.0000166 0.0000001 0.0000166 0.0000001 0.0000166 0.9999999 -0.0000166
131 0.9999999 -0.0000173 0.0000001 0.0000173 0.0000001 0.0000173 0.9999999 -0.0000173
137 0.9999999 -0.0000181 0.0000001 0.0000181 0.0000001 0.0000181 0.9999999 -0.0000181
143 0.9999999 -0.0000189 0.0000001 0.0000189 0.0000001 0.0000189 0.9999999 -0.0000189
150 0.9999998 -0.0000198 0.0000002 0.0000198 0.0000002 0.0000198 0.9999998 -0.0000198
156 0.9999998 -0.0000207 0.0000002 0.0000207 0.0000002 0.0000207 0.9999998 -0.0000207
164 0.9999998 -0.0000216 0.0000002 0.0000216 0.0000002 0.0000216 0.9999998 -0.0000216
171 0.9999998 -0.0000226 0.0000002 0.0000226 0.0000002 0.0000226 0.9999998 -0.0000226
179 0.9999998 -0.0000236 0.0000002 0.0000236 0.0000002 0.0000236 0.9999998 -0.0000236
187 0.9999998 -0.0000247 0.0000002 0.0000247 0.0000002 0.0000247 0.9999998 -0.0000247
196 0.9999998 -0.0000258 0.0000002 0.0000258 0.0000002 0.0000258 0.9999998 -0.0000258
205 0.9999998 -0.0000270 0.0000002 0.0000270 0.0000002 0.0000270 0.9999998 -0.0000270
214 0.9999998 -0.0000283 0.0000002 0.0000283 0.0000002 0.0000283 0.9999998 -0.0000283
224 0.9999998 -0.0000295 0.0000002 0.0000295 0.0000002 0.0000295 0.9999998 -0.0000295
234 0.9999998 -0.0000309 0.0000002 0.0000309 0.0000002 0.0000309 0.9999998 -0.0000309
245 0.9999998 -0.0000323 0.0000002 0.0000323 0.0000002 0.0000323 0.9999998 -0.0000323
256 0.9999998 -0.0000338 0.0000002 0.0000338 0.0000002 0.0000338 0.9999998 -0.0000338
268 0.9999998 -0.0000353 0.0000002 0.0000353 0.0000002 0.0000353 0.9999998 -0.0000353
280 0.9999998 -0.0000369 0.0000002 0.0000369 0.0000002 0.0000369 0.9999998 -0.0000369
293 0.9999998 -0.0000386 0.0000002 0.0000386 0.0000002 0.0000386 0.9999998 -0.0000386
306 0.9999998 -0.0000404 0.0000002 0.0000404 0.0000002 0.0000404 0.9999998 -0.0000404
320 0.9999998 -0.0000422 0.0000002 0.0000422 0.0000002 0.0000422 0.9999998 -0.0000422
335 0.9999998 -0.0000442 0.0000002 0.0000442 0.0000002 0.0000442 0.9999998 -0.0000442
350 0.9999998 -0.0000462 0.0000002 0.0000462 0.0000002 0.0000462 0.9999998 -0.0000462
366 0.9999997 -0.0000483 0.0000003 0.0000483 0.0000003 0.0000483 0.9999997 -0.0000483
383 0.9999997 -0.0000505 0.0000003 0.0000505 0.0000003 0.0000505 0.9999997 -0.0000505
401 0.9999997 -0.0000528 0.0000003 0.0000528 0.0000003 0.0000528 0.9999997 -0.0000528
419 0.9999997 -0.0000552 0.0000003 0.0000552 0.0000003 0.0000552 0.9999997 -0.0000552
438 0.9999997 -0.0000577 0.0000003 0.0000577 0.0000003 0.0000577 0.9999997 -0.0000577
458 0.9999997 -0.0000604 0.0000003 0.0000604 0.0000003 0.0000604 0.9999997 -0.0000604
479 0.9999997 -0.0000631 0.0000003 0.0000631 0.0000003 0.0000631 0.9999997 -0.0000631
501 0.9999997 -0.0000660 0.0000003 0.0000660 0.0000003 0.0000660 0.9999997 -0.0000660
524 0.9999997 -0.0000690 0.0000003 0.0000690 0.0000003 0.0000690 0.9999997 -0.0000690
548 0.9999997 -0.0000722 0.0000003 0.0000722 0.0000003 0.0000722 0.9999997 -0.0000722
573 0.9999996 -0.0000755 0.0000004 0.0000755 0.0000004 0.0000755 0.9999996 -0.0000755
600 0.9999996 -0.0000789 0.0000004 0.0000789 0.0000004 0.0000789 0.9999996 -0.0000789
627 0.9999996 -0.0000825 0.0000004 0.0000825 0.0000004 0.0000825 0.9999996 -0.0000825
656 0.9999996 -0.0000863 0.0000004 0.0000863 0.0000004 0.0000863 0.9999996 -0.0000863
686 0.9999996 -0.0000902 0.0000004 0.0000902 0.0000004 0.0000902 0.9999996 -0.0000902
717 0.9999996 -0.0000944 0.0000004 0.0000944 0.0000004 0.0000944 0.9999996 -0.0000944
750 0.9999996 -0.0000987 0.0000004 0.0000987 0.0000004 0.0000987 0.9999996 -0.0000987
784 0.9999995 -0.0001032 0.0000005 0.0001032 0.0000005 0.0001032 0.9999995 -0.0001032
820 0.9999995 -0.0001079 0.0000005 0.0001079 0.0000005 0.0001079 0.9999995 -0.0001079
858 0.9999995 -0.0001128 0.0000005 0.0001128 0.0000005 0.0001128 0.9999995 -0.0001128
897 0.9999995 -0.0001180 0.0000005 0.0001180 0.0000005 0.0001180 0.9999995 -0.0001180
938 0.9999995 -0.0001234 0.0000005 0.0001234 0.0000005 0.0001234 0.9999995 -0.0001234
981 0.9999994 -0.0001290 0.0000006 0.0001290 0.0000006 0.0001290 0.9999994 -0.0001290
1026 0.9999994 -0.0001349 0.0000006 0.0001349 0.0000006 0.0001349 0.9999994 -0.0001349
1073 0.9999994 -0.0001411 0.0000006 0.0001411 0.0000006 0.0001411 0.9999994 -0.0001411
1122 0.9999994 -0.0001475 0.0000006 0.0001475 0.0000006 0.0001475 0.9999994 -0.0001475
1174 0.9999993 -0.0001542 0.0000007 0.0001542 0.0000007 0.0001542 0.9999993 -0.0001542
1227 0.9999993 -0.0001613 0.0000007 0.0001613 0.0000007 0.0001613 0.9999993 -0.0001613
1283 0.9999993 -0.0001686 0.0000007 0.0001686 0.0000007 0.0001686 0.9999993 -0.0001686
1342 0.9999992 -0.0001764 0.0000008 0.0001764 0.0000008 0.0001764 0.9999992 -0.0001764
1404 0.9999992 -0.0001844 0.0000008 0.0001844 0.0000008 0.0001844 0.9999992 -0.0001844
1468 0.9999992 -0.0001928 0.0000008 0.0001928 0.0000008 0.0001928 0.9999992 -0.0001928
1535 0.9999991 -0.0002016 0.0000009 0.0002016 0.0000009 0.0002016 0.9999991 -0.0002016
1606 0.9999991 -0.0002109 0.0000009 0.0002109 0.0000009 0.0002109 0.9999991 -0.0002109
1679 0.9999990 -0.0002205 0.0000010 0.0002205 0.0000010 0.0002205 0.9999990 -0.0002205
1756 0.9999990 -0.0002306 0.0000010 0.0002306 0.0000010 0.0002306 0.9999990 -0.0002306
1836 0.9999989 -0.0002411 0.0000011 0.0002411 0.0000011 0.0002411 0.9999989 -0.0002411
1920 0.9999989 -0.0002521 0.0000011 0.0002521 0.0000011 0.0002521 0.9999989 -0.0002521
2008 0.9999988 -0.0002636 0.0000012 0.0002636 0.0000012 0.0002636 0.9999988 -0.0002636
2100 0.9999988 -0.0002757 0.0000012 0.0002757 0.0000012 0.0002757 0.9999988 -0.0002757
2196 0.9999987 -0.0002883 0.0000013 0.0002883 0.0000013 0.0002883 0.9999987 -0.0002883
2297 0.9999986 -0.0003014 0.0000014 0.0003014 0.0000014 0.0003014 0.9999986 -0.0003014
2402 0.9999986 -0.0003152 0.0000014 0.0003152 0.0000014 0.0003152 0.9999986 -0.0003152
2512 0.9999985 -0.0003296 0.0000015 0.0003296 0.0000015 0.0003296 0.9999985 -0.0003296
2627 0.9999984 -0.0003447 0.0000016 0.0003447 0.0000016 0.0003447 0.9999984 -0.0003447
2748 0.9999983 -0.0003604 0.0000017 0.0003604 0.0000017 0.0003604 0.9999983 -0.0003604
2873 0.9999982 -0.0003769 0.0000018 0.0003769 0.0000018 0.0003769 0.9999982 -0.0003769
3005 0.9999981 -0.0003941 0.0000019 0.0003941 0.0000019 0.0003941 0.9999981 -0.0003941
3143 0.9999980 -0.0004121 0.0000020 0.0004121 0.0000020 0.0004121 0.9999980 -0.0004121
3287 0.9999979 -0.0004309 0.0000021 0.0004309 0.0000021 0.0004309 0.9999979 -0.0004309
3437 0.9999978 -0.0004506 0.0000022 0.0004506 0.0000022 0.0004506 0.9999978 -0.0004506
3594 0.9999977 -0.0004712 0.0000023 0.0004712 0.0000023 0.0004712 0.9999977 -0.0004712
3759 0.9999975 -0.0004927 0.0000025 0.0004927 0.0000025 0.0004927 0.9999975 -0.0004927
3931 0.9999974 -0.0005152 0.0000026 0.0005152 0.0000026 0.0005152 0.9999974 -0.0005152
4111 0.9999972 -0.0005387 0.0000028 0.0005387 0.0000028 0.0005387 0.9999972 -0.0005387
4299 0.9999971 -0.0005633 0.0000029 0.0005633 0.0000029 0.0005633 0.9999971 -0.0005633
4496 0.9999969 -0.0005890 0.0000031 0.0005890 0.0000031 0.0005890 0.9999969 -0.0005890
4702 0.9999968 -0.0006159 0.0000032 0.0006159 0.0000032 0.0006159 0.9999968 -0.0006159
4918 0.9999966 -0.0006440 0.0000034 0.0006440 0.0000034 0.0006440 0.9999966 -0.0006440
5143 0.9999964 -0.0006734 0.0000036 0.0006734 0.0000036 0.0006734 0.9999964 -0.0006734
5378 0.9999962 -0.0007041 0.0000038 0.0007041 0.0000038 0.0007041 0.9999962 -0.0007041
5625 0.9999960 -0.0007362 0.0000040 0.0007362 0.0000040 0.0007362 0.9999960 -0.0007362
5882 0.9999957 -0.0007698 0.0000043 0.0007698 0.0000043 0.0007698 0.9999957 -0.0007698
6151 0.9999955 -0.0008049 0.0000045 0.0008049 0.0000045 0.0008049 0.9999955 -0.0008049
6433 0.9999953 -0.0008417 0.0000047 0.0008417 0.0000047 0.0008417 0.9999953 -0.0008417
6728 0.9999950 -0.0008801 0.0000050 0.0008801 0.0000050 0.0008801 0.9999950 -0.0008801
7036 0.9999947 -0.0009202 0.0000053 0.0009202 0.0000053 0.0009202 0.9999947 -0.0009202
7358 0.9999945 -0.0009622 0.0000055 0.0009622 0.0000055 0.0009622 0.9999945 -0.0009622
7695 0.9999942 -0.0010061 0.0000058 0.0010061 0.0000058 0.0010061 0.9999942 -0.0010061
8047 0.9999939 -0.0010520 0.0000061 0.0010520 0.0000061 0.0010520 0.9999939 -0.0010520
8416 0.9999935 -0.0011001 0.0000065 0.0011001 0.0000065 0.0011001 0.9999935 -0.0011001
8801 0.9999932 -0.0011503 0.0000068 0.0011503 0.0000068 0.0011503 0.9999932 -0.0011503
9204 0.9999928 -0.0012028 0.0000072 0.0012028 0.0000072 0.0012028 0.9999928 -0.0012028
9626 0.9999925 -0.0012577 0.0000075 0.0012577 0.0000075 0.0012577 0.9999925 -0.0012577
10066 0.9999921 -0.0013151 0.0000079 0.0013151 0.0000079 0.0013151 0.9999921 -0.0013151
10527 0.9999916 -0.0013751 0.0000084 0.0013751 0.0000084 0.0013751 0.9999916 -0.0013751
11009 0.9999912 -0.0014379 0.0000088 0.0014379 0.0000088 0.0014379 0.9999912 -0.0014379
11514 0.9999907 -0.0015035 0.0000093 0.0015035 0.0000093 0.0015035 0.9999907 -0.0015035
12041 0.9999902 -0.0015722 0.0000098 0.0015722 0.0000098 0.0015722 0.9999902 -0.0015722
12592 0.9999897 -0.0016440 0.0000103 0.0016440 0.0000103 0.0016440 0.9999897 -0.0016440
13169 0.9999891 -0.0017190 0.0000109 0.0017190 0.0000109 0.0017190 0.9999891 -0.0017190
13772 0.9999885 -0.0017976 0.0000115 0.0017976 0.0000115 0.0017976 0.9999885 -0.0017976
14402 0.9999878 -0.0018797 0.0000122 0.0018797 0.0000122 0.0018797 0.9999878 -0.0018797
15062 0.9999871 -0.0019655 0.0000129 0.0019655 0.0000129 0.0019655 0.9999871 -0.0019655
15752 0.9999863 -0.0020553 0.0000137 0.0020553 0.0000137 0.0020553 0.9999863 -0.0020553
16473 0.9999855 -0.0021492 0.0000145 0.0021492 0.0000145 0.0021492 0.9999855 -0.0021492
17227 0.9999846 -0.0022474 0.0000154 0.0022474 0.0000154 0.0022474 0.9999846 -0.0022474
18016 0.9999837 -0.0023500 0.0000163 0.0023500 0.0000163 0.0023500 0.9999837 -0.0023500
18841 0.9999826 -0.0024574 0.0000174 0.0024574 0.0000174 0.0024574 0.9999826 -0.0024574
19704 0.9999815 -0.0025697 0.0000185 0.0025697 0.0000185 0.0025697 0.9999815 -0.0025697
20606 0.9999803 -0.0026871 0.0000197 0.0026871 0.0000197 0.0026871 0.9999803 -0.0026871
21550 0.9999790 -0.0028098 0.0000210 0.0028098 0.0000210 0.0028098 0.9999790 -0.0028098
22537 0.9999776 -0.0029382 0.0000224 0.0029382 0.0000224 0.0029382 0.9999776 -0.0029382
23569 0.9999760 -0.0030724 0.0000240 0.0030724 0.0000240 0.0030724 0.9999760 -0.0030724
24648 0.9999744 -0.0032128 0.0000256 0.0032128 0.0000256 0.0032128 0.9999744 -0.0032128
25777 0.9999725 -0.0033595 0.0000275 0.0033595 0.0000275 0.0033595 0.9999725 -0.0033595
26957 0.9999706 -0.0035130 0.0000294 0.0035130 0.0000294 0.0035130 0.9999706 -0.0035130
28191 0.9999685 -0.0036734 0.0000315 0.0036734 0.0000315 0.0036734 0.9999685 -0.0036734
29482 0.9999662 -0.0038412 0.0000338 0.0038412 0.0000338 0.0038412 0.9999662 -0.0038412
30832 0.9999637 -0.0040166 0.0000363 0.0040166 0.0000363 0.0040166 0.9999637 -0.0040166
32244 0.9999610 -0.0042000 0.0000390 0.0042000 0.0000390 0.0042000 0.9999610 -0.0042000
33721 0.9999581 -0.0043918 0.0000419 0.0043918 0.0000419 0.0043918 0.9999581 -0.0043918
35265 0.9999550 -0.0045923 0.0000450 0.0045923 0.0000450 0.0045923 0.9999550 -0.0045923
36880 0.9999516 -0.0048019 0.0000484 0.0048019 0.0000484 0.0048019 0.9999516 -0.0048019
38569 0.9999480 -0.0050210 0.0000520 0.0050210 0.0000520 0.0050210 0.9999480 -0.0050210
40335 0.9999440 -0.0052502 0.0000560 0.0052502 0.0000560 0.0052502 0.9999440 -0.0052502
42182 0.9999398 -0.0054897 0.0000602 0.0054897 0.0000602 0.0054897 0.9999398 -0.0054897
44113 0.9999352 -0.0057402 0.0000648 0.0057402 0.0000648 0.0057402 0.9999352 -0.0057402
46134 0.9999302 -0.0060020 0.0000698 0.0060020 0.0000698 0.0060020 0.9999302 -0.0060020
48246 0.9999249 -0.0062758 0.0000751 0.0062758 0.0000751 0.0062758 0.9999249 -0.0062758
50455 0.9999191 -0.0065620 0.0000809 0.0065620 0.0000809 0.0065620 0.9999191 -0.0065620
52766 0.9999129 -0.0068612 0.0000871 0.0068612 0.0000871 0.0068612 0.9999129 -0.0068612
55182 0.9999063 -0.0071741 0.0000937 0.0071741 0.0000937 0.0071741 0.9999063 -0.0071741
57709 0.9998991 -0.0075011 0.0001009 0.0075011 0.0001009 0.0075011 0.9998991 -0.0075011
60352 0.9998914 -0.0078431 0.0001086 0.0078431 0.0001086 0.0078431 0.9998914 -0.0078431
63115 0.9998830 -0.0082006 0.0001170 0.0082006 0.0001170 0.0082006 0.9998830 -0.0082006
66005 0.9998741 -0.0085744 0.0001259 0.0085744 0.0001259 0.0085744 0.9998741 -0.0085744
69028 0.9998644 -0.0089651 0.0001356 0.0089651 0.0001356 0.0089651 0.9998644 -0.0089651
72189 0.9998540 -0.0093737 0.0001460 0.0093737 0.0001460 0.0093737 0.9998540 -0.0093737
75495 0.9998428 -0.0098009 0.0001572 0.0098009 0.0001572 0.0098009 0.9998428 -0.0098009
78952 0.9998307 -0.0102476 0.0001693 0.0102476 0.0001693 0.0102476 0.9998307 -0.0102476
82567 0.9998177 -0.0107146 0.0001823 0.0107146 0.0001823 0.0107146 0.9998177 -0.0107146
86348 0.9998036 -0.0112029 0.0001964 0.0112029 0.0001964 0.0112029 0.9998036 -0.0112029
90302 0.9997884 -0.0117134 0.0002116 0.0117134 0.0002116 0.0117134 0.9997884 -0.0117134
94437 0.9997719 -0.0122472 0.0002281 0.0122472 0.0002281 0.0122472 0.9997719 -0.0122472
98762 0.9997541 -0.0128054 0.0002459 0.0128054 0.0002459 0.0128054 0.9997541 -0.0128054
103284 0.9997348 -0.0133890 0.0002652 0.0133890 0.0002652 0.0133890 0.9997348 -0.0133890
108014 0.9997140 -0.0139993 0.0002860 0.0139993 0.0002860 0.0139993 0.9997140 -0.0139993
112960 0.9996913 -0.0146373 0.0003087 0.0146373 0.0003087 0.0146373 0.9996913 -0.0146373
118133 0.9996668 -0.0153045 0.0003332 0.0153045 0.0003332 0.0153045 0.9996668 -0.0153045
123542 0.9996402 -0.0160021 0.0003598 0.0160021 0.0003598 0.0160021 0.9996402 -0.0160021
129199 0.9996112 -0.0167316 0.0003888 0.0167316 0.0003888 0.0167316 0.9996112 -0.0167316
135116 0.9995798 -0.0174943 0.0004202 0.0174943 0.0004202 0.0174943 0.9995798 -0.0174943
141303 0.9995456 -0.0182918 0.0004544 0.0182918 0.0004544 0.0182918 0.9995456 -0.0182918
147774 0.9995084 -0.0191256 0.0004916 0.0191256 0.0004916 0.0191256 0.9995084 -0.0191256
154540 0.9994679 -0.0199974 0.0005321 0.0199974 0.0005321 0.0199974 0.9994679 -0.0199974
161617 0.9994238 -0.0209089 0.0005762 0.0209089 0.0005762 0.0209089 0.9994238 -0.0209089
169018 0.9993758 -0.0218620 0.0006242 0.0218620 0.0006242 0.0218620 0.9993758 -0.0218620
176758 0.9993235 -0.0228584 0.0006765 0.0228584 0.0006765 0.0228584 0.9993235 -0.0228584
184852 0.9992665 -0.0239001 0.0007335 0.0239001 0.0007335 0.0239001 0.9992665 -0.0239001
193316 0.9992043 -0.0249892 0.0007957 0.0249892 0.0007957 0.0249892 0.9992043 -0.0249892
202169 0.9991366 -0.0261277 0.0008634 0.0261277 0.0008634 0.0261277 0.9991366 -0.0261277
211427 0.9990627 -0.0273179 0.0009373 0.0273179 0.0009373 0.0273179 0.9990627 -0.0273179
221108 0.9989822 -0.0285621 0.0010178 0.0285621 0.0010178 0.0285621 0.9989822 -0.0285621
231233 0.9988944 -0.0298627 0.0011056 0.0298627 0.0011056 0.0298627 0.9988944 -0.0298627
241822 0.9987986 -0.0312221 0.0012014 0.0312221 0.0012014 0.0312221 0.9987986 -0.0312221
252896 0.9986942 -0.0326430 0.0013058 0.0326430 0.0013058 0.0326430 0.9986942 -0.0326430
264476 0.9985803 -0.0341281 0.0014197 0.0341281 0.0014197 0.0341281 0.9985803 -0.0341281
276587 0.9984561 -0.0356802 0.0015439 0.0356802 0.0015439 0.0356802 0.9984561 -0.0356802
289253 0.9983207 -0.0373023 0.0016793 0.0373023 0.0016793 0.0373023 0.9983207 -0.0373023
302498 0.9981731 -0.0389974 0.0018269 0.0389974 0.0018269 0.0389974 0.9981731 -0.0389974
316350 0.9980121 -0.0407686 0.0019879 0.0407686 0.0019879 0.0407686 0.9980121 -0.0407686
330837 0.9978367 -0.0426194 0.0021633 0.0426194 0.0021633 0.0426194 0.9978367 -0.0426194
345986 0.9976455 -0.0445531 0.0023545 0.0445531 0.0023545 0.0445531 0.9976455 -0.0445531
361830 0.9974371 -0.0465734 0.0025629 0.0465734 0.0025629 0.0465734 0.9974371 -0.0465734
378399 0.9972101 -0.0486839 0.0027899 0.0486839 0.0027899 0.0486839 0.9972101 -0.0486839
395726 0.9969627 -0.0508885 0.0030373 0.0508885 0.0030373 0.0508885 0.9969627 -0.0508885
413847 0.9966933 -0.0531912 0.0033067 0.0531912 0.0033067 0.0531912 0.9966933 -0.0531912
432798 0.9963998 -0.0555963 0.0036002 0.0555963 0.0036002 0.0555963 0.9963998 -0.0555963
452617 0.9960802 -0.0581080 0.0039198 0.0581080 0.0039198 0.0581080 0.9960802 -0.0581080
473344 0.9957322 -0.0607308 0.0042678 0.0607308 0.0042678 0.0607308 0.9957322 -0.0607308
495019 0.9953532 -0.0634694 0.0046468 0.0634694 0.0046468 0.0634694 0.9953532 -0.0634694
517687 0.9949407 -0.0663287 0.0050593 0.0663287 0.0050593 0.0663287 0.9949407 -0.0663287
541393 0.9944917 -0.0693135 0.0055083 0.0693135 0.0055083 0.0693135 0.9944917 -0.0693135
566185 0.9940030 -0.0724291 0.0059970 0.0724291 0.0059970 0.0724291 0.9940030 -0.0724291
592111 0.9934710 -0.0756808 0.0065290 0.0756808 0.0065290 0.0756808 0.9934710 -0.0756808
619225 0.9928921 -0.0790741 0.0071079 0.0790741 0.0071079 0.0790741 0.9928921 -0.0790741
647581 0.9922622 -0.0826147 0.0077378 0.0826147 0.0077378 0.0826147 0.9922622 -0.0826147
677235 0.9915767 -0.0863085 0.0084233 0.0863085 0.0084233 0.0863085 0.9915767 -0.0863085
708247 0.9908308 -0.0901613 0.0091692 0.0901613 0.0091692 0.0901613 0.9908308 -0.0901613
740679 0.9900191 -0.0941794 0.0099809 0.0941794 0.0099809 0.0941794 0.9900191 -0.0941794
774597 0.9891360 -0.0983690 0.0108640 0.0983690 0.0108640 0.0983690 0.9891360 -0.0983690
810067 0.9881751 -0.1027365 0.0118249 0.1027365 0.0118249 0.1027365 0.9881751 -0.1027365
847162 0.9871296 -0.1072884 0.0128704 0.1072884 0.0128704 0.1072884 0.9871296 -0.1072884
885955 0.9859922 -0.1120312 0.0140078 0.1120312 0.0140078 0.1120312 0.9859922 -0.1120312
926525 0.9847547 -0.1169715 0.0152453 0.1169715 0.0152453 0.1169715 0.9847547 -0.1169715
968953 0.9834085 -0.1221159 0.0165915 0.1221159 0.0165915 0.1221159 0.9834085 -0.1221159
1013323 0.9819441 -0.1274709 0.0180559 0.1274709 0.0180559 0.1274709 0.9819441 -0.1274709
1059725 0.9803513 -0.1330430 0.0196487 0.1330430 0.0196487 0.1330430 0.9803513 -0.1330430
1108252 0.9786191 -0.1388386 0.0213809 0.1388386 0.0213809 0.1388386 0.9786191 -0.1388386
1159002 0.9767355 -0.1448638 0.0232645 0.1448638 0.0232645 0.1448638 0.9767355 -0.1448638
1212075 0.9746878 -0.1511244 0.0253122 0.1511244 0.0253122 0.1511244 0.9746878 -0.1511244
1267578 0.9724621 -0.1576258 0.0275379 0.1576258 0.0275379 0.1576258 0.9724621 -0.1576258
1325623 0.9700436 -0.1643733 0.0299564 0.1643733 0.0299564 0.1643733 0.9700436 -0.1643733
1386327 0.9674166 -0.1713712 0.0325834 0.1713712 0.0325834 0.1713712 0.9674166 -0.1713712
1449809 0.9645640 -0.1786234 0.0354360 0.1786234 0.0354360 0.1786234 0.9645640 -0.1786234
1516199 0.9614678 -0.1861329 0.0385322 0.1861329 0.0385322 0.1861329 0.9614678 -0.1861329
1585629 0.9581088 -0.1939018 0.0418912 0.1939018 0.0418912 0.1939018 0.9581088 -0.1939018
1658239 0.9544668 -0.2019311 0.0455332 0.2019311 0.0455332 0.2019311 0.9544668 -0.2019311
1734173 0.9505202 -0.2102206 0.0494798 0.2102206 0.0494798 0.2102206 0.9505202 -0.2102206
1813585 0.9462465 -0.2187686 0.0537535 0.2187686 0.0537535 0.2187686 0.9462465 -0.2187686
1896632 0.9416219 -0.2275719 0.0583781 0.2275719 0.0583781 0.2275719 0.9416219 -0.2275719
1983483 0.9366219 -0.2366252 0.0633781 0.2366252 0.0633781 0.2366252 0.9366219 -0.2366252
2074311 0.9312207 -0.2459213 0.0687793 0.2459213 0.0687793 0.2459213 0.9312207 -0.2459213
