!Murata Part Number: GRM155C81C105ME11
!These Parameters are Measured in Series Mode Connection
!Data Generated on Mar 30, 2021
!       o--ll--o
!Port1            Port2
!       o------o
!Operation Temp=25[degC], DC Bias Voltage=0[V]
!Freq. Start=100[Hz] Stop=6[GHz] 401[Steps]
# Hz S RI R 50
!Freq.(Hz) S11(Real) S11(Imag) S21(Real) S21(Imag) S12(Real) S12(Imag) S22(Real) S22(Imag)
100 0.9971835 -0.0458427 0.0028165 0.0458427 0.0028165 0.0458427 0.9971835 -0.0458427
105 0.9969598 -0.0479076 0.0030402 0.0479076 0.0030402 0.0479076 0.9969598 -0.0479076
109 0.9967169 -0.0500652 0.0032831 0.0500652 0.0032831 0.0500652 0.9967169 -0.0500652
114 0.9964529 -0.0523193 0.0035471 0.0523193 0.0035471 0.0523193 0.9964529 -0.0523193
120 0.9961661 -0.0546741 0.0038339 0.0546741 0.0038339 0.0546741 0.9961661 -0.0546741
125 0.9958542 -0.0571339 0.0041458 0.0571339 0.0041458 0.0571339 0.9958542 -0.0571339
131 0.9955149 -0.0597032 0.0044851 0.0597032 0.0044851 0.0597032 0.9955149 -0.0597032
137 0.9951458 -0.0623864 0.0048542 0.0623864 0.0048542 0.0623864 0.9951458 -0.0623864
143 0.9947442 -0.0651883 0.0052558 0.0651883 0.0052558 0.0651883 0.9947442 -0.0651883
150 0.9943071 -0.0681138 0.0056929 0.0681138 0.0056929 0.0681138 0.9943071 -0.0681138
156 0.9938314 -0.0711678 0.0061686 0.0711678 0.0061686 0.0711678 0.9938314 -0.0711678
164 0.9933136 -0.0743555 0.0066864 0.0743555 0.0066864 0.0743555 0.9933136 -0.0743555
171 0.9927500 -0.0776823 0.0072500 0.0776823 0.0072500 0.0776823 0.9927500 -0.0776823
179 0.9921365 -0.0811535 0.0078635 0.0811535 0.0078635 0.0811535 0.9921365 -0.0811535
187 0.9914688 -0.0847747 0.0085312 0.0847747 0.0085312 0.0847747 0.9914688 -0.0847747
196 0.9907422 -0.0885516 0.0092578 0.0885516 0.0092578 0.0885516 0.9907422 -0.0885516
205 0.9899516 -0.0924900 0.0100484 0.0924900 0.0100484 0.0924900 0.9899516 -0.0924900
214 0.9890915 -0.0965959 0.0109085 0.0965959 0.0109085 0.0965959 0.9890915 -0.0965959
224 0.9881559 -0.1008754 0.0118441 0.1008754 0.0118441 0.1008754 0.9881559 -0.1008754
234 0.9871385 -0.1053344 0.0128615 0.1053344 0.0128615 0.1053344 0.9871385 -0.1053344
245 0.9860322 -0.1099792 0.0139678 0.1099792 0.0139678 0.1099792 0.9860322 -0.1099792
256 0.9848296 -0.1148162 0.0151704 0.1148162 0.0151704 0.1148162 0.9848296 -0.1148162
268 0.9835227 -0.1198515 0.0164773 0.1198515 0.0164773 0.1198515 0.9835227 -0.1198515
280 0.9821027 -0.1250914 0.0178973 0.1250914 0.0178973 0.1250914 0.9821027 -0.1250914
293 0.9805604 -0.1305423 0.0194396 0.1305423 0.0194396 0.1305423 0.9805604 -0.1305423
306 0.9788855 -0.1362102 0.0211145 0.1362102 0.0211145 0.1362102 0.9788855 -0.1362102
320 0.9770674 -0.1421014 0.0229326 0.1421014 0.0229326 0.1421014 0.9770674 -0.1421014
335 0.9750941 -0.1482215 0.0249059 0.1482215 0.0249059 0.1482215 0.9750941 -0.1482215
350 0.9729534 -0.1545765 0.0270466 0.1545765 0.0270466 0.1545765 0.9729534 -0.1545765
366 0.9706315 -0.1611715 0.0293685 0.1611715 0.0293685 0.1611715 0.9706315 -0.1611715
383 0.9681141 -0.1680116 0.0318859 0.1680116 0.0318859 0.1680116 0.9681141 -0.1680116
401 0.9653858 -0.1751013 0.0346142 0.1751013 0.0346142 0.1751013 0.9653858 -0.1751013
419 0.9624298 -0.1824445 0.0375702 0.1824445 0.0375702 0.1824445 0.9624298 -0.1824445
438 0.9592285 -0.1900443 0.0407715 0.1900443 0.0407715 0.1900443 0.9592285 -0.1900443
458 0.9557632 -0.1979032 0.0442368 0.1979032 0.0442368 0.1979032 0.9557632 -0.1979032
479 0.9520137 -0.2060224 0.0479863 0.2060224 0.0479863 0.2060224 0.9520137 -0.2060224
501 0.9479588 -0.2144021 0.0520412 0.2144021 0.0520412 0.2144021 0.9479588 -0.2144021
524 0.9435763 -0.2230410 0.0564237 0.2230410 0.0564237 0.2230410 0.9435763 -0.2230410
548 0.9388425 -0.2319365 0.0611575 0.2319365 0.0611575 0.2319365 0.9388425 -0.2319365
573 0.9337328 -0.2410839 0.0662672 0.2410839 0.0662672 0.2410839 0.9337328 -0.2410839
600 0.9282215 -0.2504766 0.0717785 0.2504766 0.0717785 0.2504766 0.9282215 -0.2504766
627 0.9222819 -0.2601060 0.0777181 0.2601060 0.0777181 0.2601060 0.9222819 -0.2601060
656 0.9158866 -0.2699606 0.0841134 0.2699606 0.0841134 0.2699606 0.9158866 -0.2699606
686 0.9090077 -0.2800264 0.0909923 0.2800264 0.0909923 0.2800264 0.9090077 -0.2800264
717 0.9016165 -0.2902865 0.0983835 0.2902865 0.0983835 0.2902865 0.9016165 -0.2902865
750 0.8936846 -0.3007205 0.1063154 0.3007205 0.1063154 0.3007205 0.8936846 -0.3007205
784 0.8851834 -0.3113048 0.1148166 0.3113048 0.1148166 0.3113048 0.8851834 -0.3113048
820 0.8760852 -0.3220120 0.1239148 0.3220120 0.1239148 0.3220120 0.8760852 -0.3220120
858 0.8663631 -0.3328108 0.1336369 0.3328108 0.1336369 0.3328108 0.8663631 -0.3328108
897 0.8559915 -0.3436661 0.1440085 0.3436661 0.1440085 0.3436661 0.8559915 -0.3436661
938 0.8449470 -0.3545388 0.1550530 0.3545388 0.1550530 0.3545388 0.8449470 -0.3545388
981 0.8332085 -0.3653855 0.1667915 0.3653855 0.1667915 0.3653855 0.8332085 -0.3653855
1026 0.8207582 -0.3761590 0.1792418 0.3761590 0.1792418 0.3761590 0.8207582 -0.3761590
1073 0.8075820 -0.3868084 0.1924180 0.3868084 0.1924180 0.3868084 0.8075820 -0.3868084
1122 0.7936701 -0.3972789 0.2063299 0.3972789 0.2063299 0.3972789 0.7936701 -0.3972789
1174 0.7790179 -0.4075128 0.2209821 0.4075128 0.2209821 0.4075128 0.7790179 -0.4075128
1227 0.7636262 -0.4174496 0.2363738 0.4174496 0.2363738 0.4174496 0.7636262 -0.4174496
1283 0.7475023 -0.4270267 0.2524977 0.4270267 0.2524977 0.4270267 0.7475023 -0.4270267
1342 0.7306600 -0.4361801 0.2693400 0.4361801 0.2693400 0.4361801 0.7306600 -0.4361801
1404 0.7131204 -0.4448453 0.2868796 0.4448453 0.2868796 0.4448453 0.7131204 -0.4448453
1468 0.6949119 -0.4529582 0.3050881 0.4529582 0.3050881 0.4529582 0.6949119 -0.4529582
1535 0.6760706 -0.4604560 0.3239294 0.4604560 0.3239294 0.4604560 0.6760706 -0.4604560
1606 0.6566401 -0.4672784 0.3433599 0.4672784 0.3433599 0.4672784 0.6566401 -0.4672784
1679 0.6366714 -0.4733686 0.3633286 0.4733686 0.3633286 0.4733686 0.6366714 -0.4733686
1756 0.6162226 -0.4786746 0.3837774 0.4786746 0.3837774 0.4786746 0.6162226 -0.4786746
1836 0.5953583 -0.4831497 0.4046417 0.4831497 0.4046417 0.4831497 0.5953583 -0.4831497
1920 0.5741486 -0.4867542 0.4258514 0.4867542 0.4258514 0.4867542 0.5741486 -0.4867542
2008 0.5526688 -0.4894557 0.4473312 0.4894557 0.4473312 0.4894557 0.5526688 -0.4894557
2100 0.5309979 -0.4912298 0.4690021 0.4912298 0.4690021 0.4912298 0.5309979 -0.4912298
2196 0.5092173 -0.4920610 0.4907827 0.4920610 0.4907827 0.4920610 0.5092173 -0.4920610
2297 0.4874101 -0.4919426 0.5125899 0.4919426 0.5125899 0.4919426 0.4874101 -0.4919426
2402 0.4656596 -0.4908770 0.5343404 0.4908770 0.5343404 0.4908770 0.4656596 -0.4908770
2512 0.4440478 -0.4888758 0.5559522 0.4888758 0.5559522 0.4888758 0.4440478 -0.4888758
2627 0.4226544 -0.4859590 0.5773456 0.4859590 0.5773456 0.4859590 0.4226544 -0.4859590
2748 0.4015558 -0.4821548 0.5984442 0.4821548 0.5984442 0.4821548 0.4015558 -0.4821548
2873 0.3808239 -0.4774990 0.6191761 0.4774990 0.6191761 0.4774990 0.3808239 -0.4774990
3005 0.3605250 -0.4720342 0.6394750 0.4720342 0.6394750 0.4720342 0.3605250 -0.4720342
3143 0.3407196 -0.4658085 0.6592804 0.4658085 0.6592804 0.4658085 0.3407196 -0.4658085
3287 0.3214616 -0.4588750 0.6785384 0.4588750 0.6785384 0.4588750 0.3214616 -0.4588750
3437 0.3027978 -0.4512907 0.6972022 0.4512907 0.6972022 0.4512907 0.3027978 -0.4512907
3594 0.2847679 -0.4431152 0.7152321 0.4431152 0.7152321 0.4431152 0.2847679 -0.4431152
3759 0.2674042 -0.4344098 0.7325958 0.4344098 0.7325958 0.4344098 0.2674042 -0.4344098
3931 0.2507320 -0.4252370 0.7492680 0.4252370 0.7492680 0.4252370 0.2507320 -0.4252370
4111 0.2347699 -0.4156589 0.7652301 0.4156589 0.7652301 0.4156589 0.2347699 -0.4156589
4299 0.2195296 -0.4057369 0.7804704 0.4057369 0.7804704 0.4057369 0.2195296 -0.4057369
4496 0.2050169 -0.3955310 0.7949831 0.3955310 0.7949831 0.3955310 0.2050169 -0.3955310
4702 0.1912319 -0.3850987 0.8087681 0.3850987 0.8087681 0.3850987 0.1912319 -0.3850987
4918 0.1781695 -0.3744952 0.8218305 0.3744952 0.8218305 0.3744952 0.1781695 -0.3744952
5143 0.1658201 -0.3637727 0.8341799 0.3637727 0.8341799 0.3637727 0.1658201 -0.3637727
5378 0.1541701 -0.3529799 0.8458299 0.3529799 0.8458299 0.3529799 0.1541701 -0.3529799
5625 0.1432026 -0.3421620 0.8567974 0.3421620 0.8567974 0.3421620 0.1432026 -0.3421620
5882 0.1328975 -0.3313606 0.8671025 0.3313606 0.8671025 0.3313606 0.1328975 -0.3313606
6151 0.1232328 -0.3206137 0.8767672 0.3206137 0.8767672 0.3206137 0.1232328 -0.3206137
6433 0.1141842 -0.3099553 0.8858158 0.3099553 0.8858158 0.3099553 0.1141842 -0.3099553
6728 0.1057263 -0.2994159 0.8942737 0.2994159 0.8942737 0.2994159 0.1057263 -0.2994159
7036 0.0978325 -0.2890227 0.9021675 0.2890227 0.9021675 0.2890227 0.0978325 -0.2890227
7358 0.0904757 -0.2787991 0.9095243 0.2787991 0.9095243 0.2787991 0.0904757 -0.2787991
7695 0.0836286 -0.2687655 0.9163714 0.2687655 0.9163714 0.2687655 0.0836286 -0.2687655
8047 0.0772636 -0.2589392 0.9227364 0.2589392 0.9227364 0.2589392 0.0772636 -0.2589392
8416 0.0713536 -0.2493347 0.9286464 0.2493347 0.9286464 0.2493347 0.0713536 -0.2493347
8801 0.0658719 -0.2399638 0.9341281 0.2399638 0.9341281 0.2399638 0.0658719 -0.2399638
9204 0.0607924 -0.2308358 0.9392076 0.2308358 0.9392076 0.2308358 0.0607924 -0.2308358
9626 0.0560898 -0.2219581 0.9439102 0.2219581 0.9439102 0.2219581 0.0560898 -0.2219581
10066 0.0517397 -0.2133358 0.9482603 0.2133358 0.9482603 0.2133358 0.0517397 -0.2133358
10527 0.0477186 -0.2049722 0.9522814 0.2049722 0.9522814 0.2049722 0.0477186 -0.2049722
11009 0.0440042 -0.1968693 0.9559958 0.1968693 0.9559958 0.1968693 0.0440042 -0.1968693
11514 0.0405750 -0.1890274 0.9594250 0.1890274 0.9594250 0.1890274 0.0405750 -0.1890274
12041 0.0374108 -0.1814455 0.9625892 0.1814455 0.9625892 0.1814455 0.0374108 -0.1814455
12592 0.0344925 -0.1741218 0.9655075 0.1741218 0.9655075 0.1741218 0.0344925 -0.1741218
13169 0.0318020 -0.1670534 0.9681980 0.1670534 0.9681980 0.1670534 0.0318020 -0.1670534
13772 0.0293224 -0.1602365 0.9706776 0.1602365 0.9706776 0.1602365 0.0293224 -0.1602365
14402 0.0270377 -0.1536668 0.9729623 0.1536668 0.9729623 0.1536668 0.0270377 -0.1536668
15062 0.0249331 -0.1473392 0.9750669 0.1473392 0.9750669 0.1473392 0.0249331 -0.1473392
15752 0.0229947 -0.1412484 0.9770053 0.1412484 0.9770053 0.1412484 0.0229947 -0.1412484
16473 0.0212096 -0.1353885 0.9787904 0.1353885 0.9787904 0.1353885 0.0212096 -0.1353885
17227 0.0195658 -0.1297535 0.9804342 0.1297535 0.9804342 0.1297535 0.0195658 -0.1297535
18016 0.0180521 -0.1243371 0.9819479 0.1243371 0.9819479 0.1243371 0.0180521 -0.1243371
18841 0.0166583 -0.1191327 0.9833417 0.1191327 0.9833417 0.1191327 0.0166583 -0.1191327
19704 0.0153748 -0.1141338 0.9846252 0.1141338 0.9846252 0.1141338 0.0153748 -0.1141338
20606 0.0141928 -0.1093338 0.9858072 0.1093338 0.9858072 0.1093338 0.0141928 -0.1093338
21550 0.0131042 -0.1047261 0.9868958 0.1047261 0.9868958 0.1047261 0.0131042 -0.1047261
22537 0.0121015 -0.1003041 0.9878985 0.1003041 0.9878985 0.1003041 0.0121015 -0.1003041
23569 0.0111778 -0.0960612 0.9888222 0.0960612 0.9888222 0.0960612 0.0111778 -0.0960612
24648 0.0103269 -0.0919910 0.9896731 0.0919910 0.9896731 0.0919910 0.0103269 -0.0919910
25777 0.0095429 -0.0880873 0.9904571 0.0880873 0.9904571 0.0880873 0.0095429 -0.0880873
26957 0.0088205 -0.0843438 0.9911795 0.0843438 0.9911795 0.0843438 0.0088205 -0.0843438
28191 0.0081549 -0.0807545 0.9918451 0.0807545 0.9918451 0.0807545 0.0081549 -0.0807545
29482 0.0075414 -0.0773135 0.9924586 0.0773135 0.9924586 0.0773135 0.0075414 -0.0773135
30832 0.0069760 -0.0740152 0.9930240 0.0740152 0.9930240 0.0740152 0.0069760 -0.0740152
32244 0.0064550 -0.0708539 0.9935450 0.0708539 0.9935450 0.0708539 0.0064550 -0.0708539
33721 0.0059748 -0.0678244 0.9940252 0.0678244 0.9940252 0.0678244 0.0059748 -0.0678244
35265 0.0055322 -0.0649215 0.9944678 0.0649215 0.9944678 0.0649215 0.0055322 -0.0649215
36880 0.0051243 -0.0621401 0.9948757 0.0621401 0.9948757 0.0621401 0.0051243 -0.0621401
38569 0.0047484 -0.0594754 0.9952516 0.0594754 0.9952516 0.0594754 0.0047484 -0.0594754
40335 0.0044020 -0.0569228 0.9955980 0.0569228 0.9955980 0.0569228 0.0044020 -0.0569228
42182 0.0040829 -0.0544779 0.9959171 0.0544779 0.9959171 0.0544779 0.0040829 -0.0544779
44113 0.0037888 -0.0521361 0.9962112 0.0521361 0.9962112 0.0521361 0.0037888 -0.0521361
46134 0.0035178 -0.0498935 0.9964822 0.0498935 0.9964822 0.0498935 0.0035178 -0.0498935
48246 0.0032682 -0.0477460 0.9967318 0.0477460 0.9967318 0.0477460 0.0032682 -0.0477460
50455 0.0030382 -0.0456898 0.9969618 0.0456898 0.9969618 0.0456898 0.0030382 -0.0456898
52766 0.0028264 -0.0437210 0.9971736 0.0437210 0.9971736 0.0437210 0.0028264 -0.0437210
55182 0.0026312 -0.0418362 0.9973688 0.0418362 0.9973688 0.0418362 0.0026312 -0.0418362
57709 0.0024514 -0.0400320 0.9975486 0.0400320 0.9975486 0.0400320 0.0024514 -0.0400320
60352 0.0022857 -0.0383049 0.9977143 0.0383049 0.9977143 0.0383049 0.0022857 -0.0383049
63115 0.0021330 -0.0366519 0.9978670 0.0366519 0.9978670 0.0366519 0.0021330 -0.0366519
66005 0.0019922 -0.0350698 0.9980078 0.0350698 0.9980078 0.0350698 0.0019922 -0.0350698
69028 0.0018624 -0.0335557 0.9981376 0.0335557 0.9981376 0.0335557 0.0018624 -0.0335557
72189 0.0017427 -0.0321068 0.9982573 0.0321068 0.9982573 0.0321068 0.0017427 -0.0321068
75495 0.0016323 -0.0307204 0.9983677 0.0307204 0.9983677 0.0307204 0.0016323 -0.0307204
78952 0.0015303 -0.0293937 0.9984697 0.0293937 0.9984697 0.0293937 0.0015303 -0.0293937
82567 0.0014361 -0.0281244 0.9985639 0.0281244 0.9985639 0.0281244 0.0014361 -0.0281244
86348 0.0013490 -0.0269099 0.9986510 0.0269099 0.9986510 0.0269099 0.0013490 -0.0269099
90302 0.0012684 -0.0257479 0.9987316 0.0257479 0.9987316 0.0257479 0.0012684 -0.0257479
94437 0.0011938 -0.0246362 0.9988062 0.0246362 0.9988062 0.0246362 0.0011938 -0.0246362
98762 0.0011247 -0.0235727 0.9988753 0.0235727 0.9988753 0.0235727 0.0011247 -0.0235727
103284 0.0010606 -0.0225552 0.9989394 0.0225552 0.9989394 0.0225552 0.0010606 -0.0225552
108014 0.0010010 -0.0215818 0.9989990 0.0215818 0.9989990 0.0215818 0.0010010 -0.0215818
112960 0.0009456 -0.0206506 0.9990544 0.0206506 0.9990544 0.0206506 0.0009456 -0.0206506
118133 0.0008941 -0.0197597 0.9991059 0.0197597 0.9991059 0.0197597 0.0008941 -0.0197597
123542 0.0008461 -0.0189074 0.9991539 0.0189074 0.9991539 0.0189074 0.0008461 -0.0189074
129199 0.0008013 -0.0180920 0.9991987 0.0180920 0.9991987 0.0180920 0.0008013 -0.0180920
135116 0.0007594 -0.0173119 0.9992406 0.0173119 0.9992406 0.0173119 0.0007594 -0.0173119
141303 0.0007203 -0.0165655 0.9992797 0.0165655 0.9992797 0.0165655 0.0007203 -0.0165655
147774 0.0006836 -0.0158514 0.9993164 0.0158514 0.9993164 0.0158514 0.0006836 -0.0158514
154540 0.0006493 -0.0151681 0.9993507 0.0151681 0.9993507 0.0151681 0.0006493 -0.0151681
161617 0.0006171 -0.0145144 0.9993829 0.0145144 0.9993829 0.0145144 0.0006171 -0.0145144
169018 0.0005869 -0.0138888 0.9994131 0.0138888 0.9994131 0.0138888 0.0005869 -0.0138888
176758 0.0005586 -0.0132902 0.9994414 0.0132902 0.9994414 0.0132902 0.0005586 -0.0132902
184852 0.0005319 -0.0127173 0.9994681 0.0127173 0.9994681 0.0127173 0.0005319 -0.0127173
193316 0.0005068 -0.0121692 0.9994932 0.0121692 0.9994932 0.0121692 0.0005068 -0.0121692
202169 0.0004833 -0.0116446 0.9995167 0.0116446 0.9995167 0.0116446 0.0004833 -0.0116446
211427 0.0004611 -0.0111426 0.9995389 0.0111426 0.9995389 0.0111426 0.0004611 -0.0111426
221108 0.0004403 -0.0106621 0.9995597 0.0106621 0.9995597 0.0106621 0.0004403 -0.0106621
231233 0.0004206 -0.0102023 0.9995794 0.0102023 0.9995794 0.0102023 0.0004206 -0.0102023
241822 0.0004022 -0.0097622 0.9995978 0.0097622 0.9995978 0.0097622 0.0004022 -0.0097622
252896 0.0003848 -0.0093411 0.9996152 0.0093411 0.9996152 0.0093411 0.0003848 -0.0093411
264476 0.0003685 -0.0089380 0.9996315 0.0089380 0.9996315 0.0089380 0.0003685 -0.0089380
276587 0.0003531 -0.0085523 0.9996469 0.0085523 0.9996469 0.0085523 0.0003531 -0.0085523
289253 0.0003386 -0.0081831 0.9996614 0.0081831 0.9996614 0.0081831 0.0003386 -0.0081831
302498 0.0003250 -0.0078298 0.9996750 0.0078298 0.9996750 0.0078298 0.0003250 -0.0078298
316350 0.0003122 -0.0074916 0.9996878 0.0074916 0.9996878 0.0074916 0.0003122 -0.0074916
330837 0.0003002 -0.0071680 0.9996998 0.0071680 0.9996998 0.0071680 0.0003002 -0.0071680
345986 0.0002888 -0.0068583 0.9997112 0.0068583 0.9997112 0.0068583 0.0002888 -0.0068583
361830 0.0002781 -0.0065620 0.9997219 0.0065620 0.9997219 0.0065620 0.0002781 -0.0065620
378399 0.0002681 -0.0062783 0.9997319 0.0062783 0.9997319 0.0062783 0.0002681 -0.0062783
395726 0.0002586 -0.0060069 0.9997414 0.0060069 0.9997414 0.0060069 0.0002586 -0.0060069
413847 0.0002496 -0.0057472 0.9997504 0.0057472 0.9997504 0.0057472 0.0002496 -0.0057472
432798 0.0002412 -0.0054986 0.9997588 0.0054986 0.9997588 0.0054986 0.0002412 -0.0054986
452617 0.0002332 -0.0052607 0.9997668 0.0052607 0.9997668 0.0052607 0.0002332 -0.0052607
473344 0.0002256 -0.0050331 0.9997744 0.0050331 0.9997744 0.0050331 0.0002256 -0.0050331
495019 0.0002184 -0.0048152 0.9997816 0.0048152 0.9997816 0.0048152 0.0002184 -0.0048152
517687 0.0002116 -0.0046067 0.9997884 0.0046067 0.9997884 0.0046067 0.0002116 -0.0046067
541393 0.0002051 -0.0044072 0.9997949 0.0044072 0.9997949 0.0044072 0.0002051 -0.0044072
566185 0.0001990 -0.0042162 0.9998010 0.0042162 0.9998010 0.0042162 0.0001990 -0.0042162
592111 0.0001931 -0.0040334 0.9998069 0.0040334 0.9998069 0.0040334 0.0001931 -0.0040334
619225 0.0001875 -0.0038584 0.9998125 0.0038584 0.9998125 0.0038584 0.0001875 -0.0038584
647581 0.0001822 -0.0036910 0.9998178 0.0036910 0.9998178 0.0036910 0.0001822 -0.0036910
677235 0.0001771 -0.0035306 0.9998229 0.0035306 0.9998229 0.0035306 0.0001771 -0.0035306
708247 0.0001722 -0.0033771 0.9998278 0.0033771 0.9998278 0.0033771 0.0001722 -0.0033771
740679 0.0001676 -0.0032302 0.9998324 0.0032302 0.9998324 0.0032302 0.0001676 -0.0032302
774597 0.0001631 -0.0030894 0.9998369 0.0030894 0.9998369 0.0030894 0.0001631 -0.0030894
810067 0.0001589 -0.0029547 0.9998411 0.0029547 0.9998411 0.0029547 0.0001589 -0.0029547
847162 0.0001548 -0.0028256 0.9998452 0.0028256 0.9998452 0.0028256 0.0001548 -0.0028256
885955 0.0001509 -0.0027020 0.9998491 0.0027020 0.9998491 0.0027020 0.0001509 -0.0027020
926525 0.0001472 -0.0025836 0.9998528 0.0025836 0.9998528 0.0025836 0.0001472 -0.0025836
968953 0.0001437 -0.0024701 0.9998563 0.0024701 0.9998563 0.0024701 0.0001437 -0.0024701
1013323 0.0001403 -0.0023615 0.9998597 0.0023615 0.9998597 0.0023615 0.0001403 -0.0023615
1059725 0.0001371 -0.0022573 0.9998629 0.0022573 0.9998629 0.0022573 0.0001371 -0.0022573
1108252 0.0001341 -0.0021575 0.9998659 0.0021575 0.9998659 0.0021575 0.0001341 -0.0021575
1159002 0.0001312 -0.0020619 0.9998688 0.0020619 0.9998688 0.0020619 0.0001312 -0.0020619
1212075 0.0001284 -0.0019702 0.9998716 0.0019702 0.9998716 0.0019702 0.0001284 -0.0019702
1267578 0.0001258 -0.0018823 0.9998742 0.0018823 0.9998742 0.0018823 0.0001258 -0.0018823
1325623 0.0001234 -0.0017981 0.9998766 0.0017981 0.9998766 0.0017981 0.0001234 -0.0017981
1386327 0.0001211 -0.0017173 0.9998789 0.0017173 0.9998789 0.0017173 0.0001211 -0.0017173
1449809 0.0001189 -0.0016398 0.9998811 0.0016398 0.9998811 0.0016398 0.0001189 -0.0016398
1516199 0.0001169 -0.0015655 0.9998831 0.0015655 0.9998831 0.0015655 0.0001169 -0.0015655
1585629 0.0001150 -0.0014943 0.9998850 0.0014943 0.9998850 0.0014943 0.0001150 -0.0014943
1658239 0.0001132 -0.0014259 0.9998868 0.0014259 0.9998868 0.0014259 0.0001132 -0.0014259
1734173 0.0001115 -0.0013603 0.9998885 0.0013603 0.9998885 0.0013603 0.0001115 -0.0013603
1813585 0.0001100 -0.0012973 0.9998900 0.0012973 0.9998900 0.0012973 0.0001100 -0.0012973
1896632 0.0001086 -0.0012369 0.9998914 0.0012369 0.9998914 0.0012369 0.0001086 -0.0012369
1983483 0.0001073 -0.0011788 0.9998927 0.0011788 0.9998927 0.0011788 0.0001073 -0.0011788
2074311 0.0001061 -0.0011231 0.9998939 0.0011231 0.9998939 0.0011231 0.0001061 -0.0011231
