!Murata Part Number: GRM155C81A225KE44
!These Parameters are Measured in Series Mode Connection
!Data Generated on Mar 30, 2021
!       o--ll--o
!Port1            Port2
!       o------o
!Operation Temp=25[degC], DC Bias Voltage=0[V]
!Freq. Start=100[Hz] Stop=6[GHz] 401[Steps]
# Hz S RI R 50
!Freq.(Hz) S11(Real) S11(Imag) S21(Real) S21(Imag) S12(Real) S12(Imag) S22(Real) S22(Imag)
100 0.9876048 -0.1027009 0.0123952 0.1027009 0.0123952 0.1027009 0.9876048 -0.1027009
105 0.9865376 -0.1072280 0.0134624 0.1072280 0.0134624 0.1072280 0.9865376 -0.1072280
109 0.9853782 -0.1119421 0.0146218 0.1119421 0.0146218 0.1119421 0.9853782 -0.1119421
114 0.9841190 -0.1168495 0.0158810 0.1168495 0.0158810 0.1168495 0.9841190 -0.1168495
120 0.9827517 -0.1219565 0.0172483 0.1219565 0.0172483 0.1219565 0.9827517 -0.1219565
125 0.9812674 -0.1272692 0.0187326 0.1272692 0.0187326 0.1272692 0.9812674 -0.1272692
131 0.9796567 -0.1327939 0.0203433 0.1327939 0.0203433 0.1327939 0.9796567 -0.1327939
137 0.9779089 -0.1385368 0.0220911 0.1385368 0.0220911 0.1385368 0.9779089 -0.1385368
143 0.9760132 -0.1445037 0.0239868 0.1445037 0.0239868 0.1445037 0.9760132 -0.1445037
150 0.9739573 -0.1507005 0.0260427 0.1507005 0.0260427 0.1507005 0.9739573 -0.1507005
156 0.9717284 -0.1571328 0.0282716 0.1571328 0.0282716 0.1571328 0.9717284 -0.1571328
164 0.9693127 -0.1638056 0.0306873 0.1638056 0.0306873 0.1638056 0.9693127 -0.1638056
171 0.9666952 -0.1707236 0.0333048 0.1707236 0.0333048 0.1707236 0.9666952 -0.1707236
179 0.9638599 -0.1778912 0.0361401 0.1778912 0.0361401 0.1778912 0.9638599 -0.1778912
187 0.9607899 -0.1853118 0.0392101 0.1853118 0.0392101 0.1853118 0.9607899 -0.1853118
196 0.9574670 -0.1929881 0.0425330 0.1929881 0.0425330 0.1929881 0.9574670 -0.1929881
205 0.9538718 -0.2009219 0.0461282 0.2009219 0.0461282 0.2009219 0.9538718 -0.2009219
214 0.9499839 -0.2091138 0.0500161 0.2091138 0.0500161 0.2091138 0.9499839 -0.2091138
224 0.9457815 -0.2175632 0.0542185 0.2175632 0.0542185 0.2175632 0.9457815 -0.2175632
234 0.9412419 -0.2262680 0.0587581 0.2262680 0.0587581 0.2262680 0.9412419 -0.2262680
245 0.9363412 -0.2352244 0.0636588 0.2352244 0.0636588 0.2352244 0.9363412 -0.2352244
256 0.9310545 -0.2444267 0.0689455 0.2444267 0.0689455 0.2444267 0.9310545 -0.2444267
268 0.9253559 -0.2538670 0.0746441 0.2538670 0.0746441 0.2538670 0.9253559 -0.2538670
280 0.9192188 -0.2635352 0.0807812 0.2635352 0.0807812 0.2635352 0.9192188 -0.2635352
293 0.9126158 -0.2734186 0.0873842 0.2734186 0.0873842 0.2734186 0.9126158 -0.2734186
306 0.9055192 -0.2835014 0.0944808 0.2835014 0.0944808 0.2835014 0.9055192 -0.2835014
320 0.8979011 -0.2937650 0.1020989 0.2937650 0.1020989 0.2937650 0.8979011 -0.2937650
335 0.8897337 -0.3041875 0.1102663 0.3041875 0.1102663 0.3041875 0.8897337 -0.3041875
350 0.8809894 -0.3147435 0.1190106 0.3147435 0.1190106 0.3147435 0.8809894 -0.3147435
366 0.8716419 -0.3254039 0.1283581 0.3254039 0.1283581 0.3254039 0.8716419 -0.3254039
383 0.8616656 -0.3361359 0.1383344 0.3361359 0.1383344 0.3361359 0.8616656 -0.3361359
401 0.8510371 -0.3469029 0.1489629 0.3469029 0.1489629 0.3469029 0.8510371 -0.3469029
419 0.8397350 -0.3576643 0.1602650 0.3576643 0.1602650 0.3576643 0.8397350 -0.3576643
438 0.8277407 -0.3683759 0.1722593 0.3683759 0.1722593 0.3683759 0.8277407 -0.3683759
458 0.8150391 -0.3789895 0.1849609 0.3789895 0.1849609 0.3789895 0.8150391 -0.3789895
479 0.8016190 -0.3894537 0.1983810 0.3894537 0.1983810 0.3894537 0.8016190 -0.3894537
501 0.7874738 -0.3997138 0.2125262 0.3997138 0.2125262 0.3997138 0.7874738 -0.3997138
524 0.7726020 -0.4097125 0.2273980 0.4097125 0.2273980 0.4097125 0.7726020 -0.4097125
548 0.7570078 -0.4193900 0.2429922 0.4193900 0.2429922 0.4193900 0.7570078 -0.4193900
573 0.7407017 -0.4286852 0.2592983 0.4286852 0.2592983 0.4286852 0.7407017 -0.4286852
600 0.7237007 -0.4375361 0.2762993 0.4375361 0.2762993 0.4375361 0.7237007 -0.4375361
627 0.7060286 -0.4458806 0.2939714 0.4458806 0.2939714 0.4458806 0.7060286 -0.4458806
656 0.6877165 -0.4536574 0.3122835 0.4536574 0.3122835 0.4536574 0.6877165 -0.4536574
686 0.6688025 -0.4608070 0.3311975 0.4608070 0.3311975 0.4608070 0.6688025 -0.4608070
717 0.6493319 -0.4672730 0.3506681 0.4672730 0.3506681 0.4672730 0.6493319 -0.4672730
750 0.6293567 -0.4730024 0.3706433 0.4730024 0.3706433 0.4730024 0.6293567 -0.4730024
784 0.6089354 -0.4779472 0.3910646 0.4779472 0.3910646 0.4779472 0.6089354 -0.4779472
820 0.5881323 -0.4820650 0.4118677 0.4820650 0.4118677 0.4820650 0.5881323 -0.4820650
858 0.5670167 -0.4853198 0.4329833 0.4853198 0.4329833 0.4853198 0.5670167 -0.4853198
897 0.5456624 -0.4876831 0.4543376 0.4876831 0.4543376 0.4876831 0.5456624 -0.4876831
938 0.5241462 -0.4891340 0.4758538 0.4891340 0.4758538 0.4891340 0.5241462 -0.4891340
981 0.5025472 -0.4896598 0.4974528 0.4896598 0.4974528 0.4896598 0.5025472 -0.4896598
1026 0.4809457 -0.4892564 0.5190543 0.4892564 0.5190543 0.4892564 0.4809457 -0.4892564
1073 0.4594217 -0.4879281 0.5405783 0.4879281 0.5405783 0.4879281 0.4594217 -0.4879281
1122 0.4380542 -0.4856878 0.5619458 0.4856878 0.5619458 0.4856878 0.4380542 -0.4856878
1174 0.4169197 -0.4825564 0.5830803 0.4825564 0.5830803 0.4825564 0.4169197 -0.4825564
1227 0.3960914 -0.4785626 0.6039086 0.4785626 0.6039086 0.4785626 0.3960914 -0.4785626
1283 0.3756383 -0.4737420 0.6243617 0.4737420 0.6243617 0.4737420 0.3756383 -0.4737420
1342 0.3556242 -0.4681367 0.6443758 0.4681367 0.6443758 0.4681367 0.3556242 -0.4681367
1404 0.3361070 -0.4617942 0.6638930 0.4617942 0.6638930 0.4617942 0.3361070 -0.4617942
1468 0.3171386 -0.4547668 0.6828614 0.4547668 0.6828614 0.4547668 0.3171386 -0.4547668
1535 0.2987638 -0.4471103 0.7012362 0.4471103 0.7012362 0.4471103 0.2987638 -0.4471103
1606 0.2810208 -0.4388833 0.7189792 0.4388833 0.7189792 0.4388833 0.2810208 -0.4388833
1679 0.2639406 -0.4301461 0.7360594 0.4301461 0.7360594 0.4301461 0.2639406 -0.4301461
1756 0.2475474 -0.4209599 0.7524526 0.4209599 0.7524526 0.4209599 0.2475474 -0.4209599
1836 0.2318586 -0.4113859 0.7681414 0.4113859 0.7681414 0.4113859 0.2318586 -0.4113859
1920 0.2168852 -0.4014846 0.7831148 0.4014846 0.7831148 0.4014846 0.2168852 -0.4014846
2008 0.2026320 -0.3913148 0.7973680 0.3913148 0.7973680 0.3913148 0.2026320 -0.3913148
2100 0.1890984 -0.3809334 0.8109016 0.3809334 0.8109016 0.3809334 0.1890984 -0.3809334
2196 0.1762786 -0.3703946 0.8237214 0.3703946 0.8237214 0.3703946 0.1762786 -0.3703946
2297 0.1641623 -0.3597496 0.8358377 0.3597496 0.8358377 0.3597496 0.1641623 -0.3597496
2402 0.1527352 -0.3490463 0.8472648 0.3490463 0.8472648 0.3490463 0.1527352 -0.3490463
2512 0.1419798 -0.3383289 0.8580202 0.3383289 0.8580202 0.3383289 0.1419798 -0.3383289
2627 0.1318755 -0.3276382 0.8681245 0.3276382 0.8681245 0.3276382 0.1318755 -0.3276382
2748 0.1223995 -0.3170108 0.8776005 0.3170108 0.8776005 0.3170108 0.1223995 -0.3170108
2873 0.1135273 -0.3064800 0.8864727 0.3064800 0.8864727 0.3064800 0.1135273 -0.3064800
3005 0.1052329 -0.2960751 0.8947671 0.2960751 0.8947671 0.2960751 0.1052329 -0.2960751
3143 0.0974895 -0.2858219 0.9025105 0.2858219 0.9025105 0.2858219 0.0974895 -0.2858219
3287 0.0902699 -0.2757429 0.9097301 0.2757429 0.9097301 0.2757429 0.0902699 -0.2757429
3437 0.0835465 -0.2658572 0.9164535 0.2658572 0.9164535 0.2658572 0.0835465 -0.2658572
3594 0.0772919 -0.2561809 0.9227081 0.2561809 0.9227081 0.2561809 0.0772919 -0.2561809
3759 0.0714791 -0.2467273 0.9285209 0.2467273 0.9285209 0.2467273 0.0714791 -0.2467273
3931 0.0660816 -0.2375070 0.9339184 0.2375070 0.9339184 0.2375070 0.0660816 -0.2375070
4111 0.0610738 -0.2285283 0.9389262 0.2285283 0.9389262 0.2285283 0.0610738 -0.2285283
4299 0.0564309 -0.2197974 0.9435691 0.2197974 0.9435691 0.2197974 0.0564309 -0.2197974
4496 0.0521290 -0.2113186 0.9478710 0.2113186 0.9478710 0.2113186 0.0521290 -0.2113186
4702 0.0481454 -0.2030943 0.9518546 0.2030943 0.9518546 0.2030943 0.0481454 -0.2030943
4918 0.0444584 -0.1951255 0.9555416 0.1951255 0.9555416 0.1951255 0.0444584 -0.1951255
5143 0.0410475 -0.1874119 0.9589525 0.1874119 0.9589525 0.1874119 0.0410475 -0.1874119
5378 0.0378933 -0.1799522 0.9621067 0.1799522 0.9621067 0.1799522 0.0378933 -0.1799522
5625 0.0349775 -0.1727438 0.9650225 0.1727438 0.9650225 0.1727438 0.0349775 -0.1727438
5882 0.0322832 -0.1657836 0.9677168 0.1657836 0.9677168 0.1657836 0.0322832 -0.1657836
6151 0.0297942 -0.1590675 0.9702058 0.1590675 0.9702058 0.1590675 0.0297942 -0.1590675
6433 0.0274955 -0.1525912 0.9725045 0.1525912 0.9725045 0.1525912 0.0274955 -0.1525912
6728 0.0253732 -0.1463496 0.9746268 0.1463496 0.9746268 0.1463496 0.0253732 -0.1463496
7036 0.0234143 -0.1403374 0.9765857 0.1403374 0.9765857 0.1403374 0.0234143 -0.1403374
7358 0.0216067 -0.1345491 0.9783933 0.1345491 0.9783933 0.1345491 0.0216067 -0.1345491
7695 0.0199391 -0.1289787 0.9800609 0.1289787 0.9800609 0.1289787 0.0199391 -0.1289787
8047 0.0184010 -0.1236204 0.9815990 0.1236204 0.9815990 0.1236204 0.0184010 -0.1236204
8416 0.0169827 -0.1184681 0.9830173 0.1184681 0.9830173 0.1184681 0.0169827 -0.1184681
8801 0.0156752 -0.1135156 0.9843248 0.1135156 0.9843248 0.1135156 0.0156752 -0.1135156
9204 0.0144701 -0.1087569 0.9855299 0.1087569 0.9855299 0.1087569 0.0144701 -0.1087569
9626 0.0133597 -0.1041857 0.9866403 0.1041857 0.9866403 0.1041857 0.0133597 -0.1041857
10066 0.0123368 -0.0997962 0.9876632 0.0997962 0.9876632 0.0997962 0.0123368 -0.0997962
10527 0.0113947 -0.0955821 0.9886053 0.0955821 0.9886053 0.0955821 0.0113947 -0.0955821
11009 0.0105271 -0.0915377 0.9894729 0.0915377 0.9894729 0.0915377 0.0105271 -0.0915377
11514 0.0097284 -0.0876570 0.9902716 0.0876570 0.9902716 0.0876570 0.0097284 -0.0876570
12041 0.0089932 -0.0839343 0.9910068 0.0839343 0.9910068 0.0839343 0.0089932 -0.0839343
12592 0.0083165 -0.0803640 0.9916835 0.0803640 0.9916835 0.0803640 0.0083165 -0.0803640
13169 0.0076938 -0.0769406 0.9923062 0.0769406 0.9923062 0.0769406 0.0076938 -0.0769406
13772 0.0071208 -0.0736587 0.9928792 0.0736587 0.9928792 0.0736587 0.0071208 -0.0736587
14402 0.0065936 -0.0705130 0.9934064 0.0705130 0.9934064 0.0705130 0.0065936 -0.0705130
15062 0.0061085 -0.0674985 0.9938915 0.0674985 0.9938915 0.0674985 0.0061085 -0.0674985
15752 0.0056622 -0.0646101 0.9943378 0.0646101 0.9943378 0.0646101 0.0056622 -0.0646101
16473 0.0052515 -0.0618430 0.9947485 0.0618430 0.9947485 0.0618430 0.0052515 -0.0618430
17227 0.0048735 -0.0591925 0.9951265 0.0591925 0.9951265 0.0591925 0.0048735 -0.0591925
18016 0.0045255 -0.0566540 0.9954745 0.0566540 0.9954745 0.0566540 0.0045255 -0.0566540
18841 0.0042052 -0.0542231 0.9957948 0.0542231 0.9957948 0.0542231 0.0042052 -0.0542231
19704 0.0039101 -0.0518955 0.9960899 0.0518955 0.9960899 0.0518955 0.0039101 -0.0518955
20606 0.0036383 -0.0496670 0.9963617 0.0496670 0.9963617 0.0496670 0.0036383 -0.0496670
21550 0.0033877 -0.0475335 0.9966123 0.0475335 0.9966123 0.0475335 0.0033877 -0.0475335
22537 0.0031566 -0.0454913 0.9968434 0.0454913 0.9968434 0.0454913 0.0031566 -0.0454913
23569 0.0029433 -0.0435364 0.9970567 0.0435364 0.9970567 0.0435364 0.0029433 -0.0435364
24648 0.0027464 -0.0416654 0.9972536 0.0416654 0.9972536 0.0416654 0.0027464 -0.0416654
25777 0.0025645 -0.0398746 0.9974355 0.0398746 0.9974355 0.0398746 0.0025645 -0.0398746
26957 0.0023962 -0.0381607 0.9976038 0.0381607 0.9976038 0.0381607 0.0023962 -0.0381607
28191 0.0022404 -0.0365205 0.9977596 0.0365205 0.9977596 0.0365205 0.0022404 -0.0365205
29482 0.0020962 -0.0349508 0.9979038 0.0349508 0.9979038 0.0349508 0.0020962 -0.0349508
30832 0.0019625 -0.0334485 0.9980375 0.0334485 0.9980375 0.0334485 0.0019625 -0.0334485
32244 0.0018384 -0.0320109 0.9981616 0.0320109 0.9981616 0.0320109 0.0018384 -0.0320109
33721 0.0017232 -0.0306350 0.9982768 0.0306350 0.9982768 0.0306350 0.0017232 -0.0306350
35265 0.0016161 -0.0293183 0.9983839 0.0293183 0.9983839 0.0293183 0.0016161 -0.0293183
36880 0.0015165 -0.0280581 0.9984835 0.0280581 0.9984835 0.0280581 0.0015165 -0.0280581
38569 0.0014238 -0.0268521 0.9985762 0.0268521 0.9985762 0.0268521 0.0014238 -0.0268521
40335 0.0013374 -0.0256978 0.9986626 0.0256978 0.9986626 0.0256978 0.0013374 -0.0256978
42182 0.0012570 -0.0245931 0.9987430 0.0245931 0.9987430 0.0245931 0.0012570 -0.0245931
44113 0.0011819 -0.0235357 0.9988181 0.0235357 0.9988181 0.0235357 0.0011819 -0.0235357
46134 0.0011119 -0.0225236 0.9988881 0.0225236 0.9988881 0.0225236 0.0011119 -0.0225236
48246 0.0010466 -0.0215548 0.9989534 0.0215548 0.9989534 0.0215548 0.0010466 -0.0215548
50455 0.0009856 -0.0206275 0.9990144 0.0206275 0.9990144 0.0206275 0.0009856 -0.0206275
52766 0.0009287 -0.0197399 0.9990713 0.0197399 0.9990713 0.0197399 0.0009287 -0.0197399
55182 0.0008755 -0.0188903 0.9991245 0.0188903 0.9991245 0.0188903 0.0008755 -0.0188903
57709 0.0008259 -0.0180770 0.9991741 0.0180770 0.9991741 0.0180770 0.0008259 -0.0180770
60352 0.0007796 -0.0172985 0.9992204 0.0172985 0.9992204 0.0172985 0.0007796 -0.0172985
63115 0.0007364 -0.0165534 0.9992636 0.0165534 0.9992636 0.0165534 0.0007364 -0.0165534
66005 0.0006961 -0.0158401 0.9993039 0.0158401 0.9993039 0.0158401 0.0006961 -0.0158401
69028 0.0006585 -0.0151573 0.9993415 0.0151573 0.9993415 0.0151573 0.0006585 -0.0151573
72189 0.0006234 -0.0145038 0.9993766 0.0145038 0.9993766 0.0145038 0.0006234 -0.0145038
75495 0.0005907 -0.0138783 0.9994093 0.0138783 0.9994093 0.0138783 0.0005907 -0.0138783
78952 0.0005603 -0.0132796 0.9994397 0.0132796 0.9994397 0.0132796 0.0005603 -0.0132796
82567 0.0005319 -0.0127066 0.9994681 0.0127066 0.9994681 0.0127066 0.0005319 -0.0127066
86348 0.0005055 -0.0121582 0.9994945 0.0121582 0.9994945 0.0121582 0.0005055 -0.0121582
90302 0.0004808 -0.0116334 0.9995192 0.0116334 0.9995192 0.0116334 0.0004808 -0.0116334
94437 0.0004579 -0.0111312 0.9995421 0.0111312 0.9995421 0.0111312 0.0004579 -0.0111312
98762 0.0004365 -0.0106506 0.9995635 0.0106506 0.9995635 0.0106506 0.0004365 -0.0106506
103284 0.0004166 -0.0101908 0.9995834 0.0101908 0.9995834 0.0101908 0.0004166 -0.0101908
108014 0.0003980 -0.0097508 0.9996020 0.0097508 0.9996020 0.0097508 0.0003980 -0.0097508
112960 0.0003807 -0.0093298 0.9996193 0.0093298 0.9996193 0.0093298 0.0003807 -0.0093298
118133 0.0003645 -0.0089270 0.9996355 0.0089270 0.9996355 0.0089270 0.0003645 -0.0089270
123542 0.0003494 -0.0085417 0.9996506 0.0085417 0.9996506 0.0085417 0.0003494 -0.0085417
129199 0.0003352 -0.0081731 0.9996648 0.0081731 0.9996648 0.0081731 0.0003352 -0.0081731
135116 0.0003220 -0.0078204 0.9996780 0.0078204 0.9996780 0.0078204 0.0003220 -0.0078204
141303 0.0003096 -0.0074831 0.9996904 0.0074831 0.9996904 0.0074831 0.0003096 -0.0074831
147774 0.0002979 -0.0071604 0.9997021 0.0071604 0.9997021 0.0071604 0.0002979 -0.0071604
154540 0.0002869 -0.0068517 0.9997131 0.0068517 0.9997131 0.0068517 0.0002869 -0.0068517
161617 0.0002765 -0.0065564 0.9997235 0.0065564 0.9997235 0.0065564 0.0002765 -0.0065564
169018 0.0002667 -0.0062739 0.9997333 0.0062739 0.9997333 0.0062739 0.0002667 -0.0062739
176758 0.0002574 -0.0060037 0.9997426 0.0060037 0.9997426 0.0060037 0.0002574 -0.0060037
184852 0.0002486 -0.0057452 0.9997514 0.0057452 0.9997514 0.0057452 0.0002486 -0.0057452
193316 0.0002402 -0.0054980 0.9997598 0.0054980 0.9997598 0.0054980 0.0002402 -0.0054980
202169 0.0002322 -0.0052615 0.9997678 0.0052615 0.9997678 0.0052615 0.0002322 -0.0052615
211427 0.0002245 -0.0050352 0.9997755 0.0050352 0.9997755 0.0050352 0.0002245 -0.0050352
221108 0.0002172 -0.0048187 0.9997828 0.0048187 0.9997828 0.0048187 0.0002172 -0.0048187
231233 0.0002101 -0.0046116 0.9997899 0.0046116 0.9997899 0.0046116 0.0002101 -0.0046116
241822 0.0002033 -0.0044134 0.9997967 0.0044134 0.9997967 0.0044134 0.0002033 -0.0044134
252896 0.0001968 -0.0042237 0.9998032 0.0042237 0.9998032 0.0042237 0.0001968 -0.0042237
264476 0.0001904 -0.0040422 0.9998096 0.0040422 0.9998096 0.0040422 0.0001904 -0.0040422
276587 0.0001843 -0.0038685 0.9998157 0.0038685 0.9998157 0.0038685 0.0001843 -0.0038685
289253 0.0001784 -0.0037022 0.9998216 0.0037022 0.9998216 0.0037022 0.0001784 -0.0037022
302498 0.0001727 -0.0035431 0.9998273 0.0035431 0.9998273 0.0035431 0.0001727 -0.0035431
316350 0.0001672 -0.0033907 0.9998328 0.0033907 0.9998328 0.0033907 0.0001672 -0.0033907
330837 0.0001618 -0.0032448 0.9998382 0.0032448 0.9998382 0.0032448 0.0001618 -0.0032448
345986 0.0001566 -0.0031051 0.9998434 0.0031051 0.9998434 0.0031051 0.0001566 -0.0031051
361830 0.0001516 -0.0029713 0.9998484 0.0029713 0.9998484 0.0029713 0.0001516 -0.0029713
378399 0.0001468 -0.0028431 0.9998532 0.0028431 0.9998532 0.0028431 0.0001468 -0.0028431
395726 0.0001422 -0.0027204 0.9998578 0.0027204 0.9998578 0.0027204 0.0001422 -0.0027204
413847 0.0001377 -0.0026028 0.9998623 0.0026028 0.9998623 0.0026028 0.0001377 -0.0026028
432798 0.0001335 -0.0024902 0.9998665 0.0024902 0.9998665 0.0024902 0.0001335 -0.0024902
452617 0.0001294 -0.0023823 0.9998706 0.0023823 0.9998706 0.0023823 0.0001294 -0.0023823
473344 0.0001254 -0.0022789 0.9998746 0.0022789 0.9998746 0.0022789 0.0001254 -0.0022789
495019 0.0001217 -0.0021798 0.9998783 0.0021798 0.9998783 0.0021798 0.0001217 -0.0021798
517687 0.0001181 -0.0020849 0.9998819 0.0020849 0.9998819 0.0020849 0.0001181 -0.0020849
541393 0.0001147 -0.0019939 0.9998853 0.0019939 0.9998853 0.0019939 0.0001147 -0.0019939
566185 0.0001115 -0.0019067 0.9998885 0.0019067 0.9998885 0.0019067 0.0001115 -0.0019067
592111 0.0001085 -0.0018231 0.9998915 0.0018231 0.9998915 0.0018231 0.0001085 -0.0018231
619225 0.0001056 -0.0017430 0.9998944 0.0017430 0.9998944 0.0017430 0.0001056 -0.0017430
647581 0.0001029 -0.0016663 0.9998971 0.0016663 0.9998971 0.0016663 0.0001029 -0.0016663
677235 0.0001003 -0.0015927 0.9998997 0.0015927 0.9998997 0.0015927 0.0001003 -0.0015927
708247 0.0000979 -0.0015221 0.9999021 0.0015221 0.9999021 0.0015221 0.0000979 -0.0015221
740679 0.0000957 -0.0014545 0.9999043 0.0014545 0.9999043 0.0014545 0.0000957 -0.0014545
774597 0.0000936 -0.0013897 0.9999064 0.0013897 0.9999064 0.0013897 0.0000936 -0.0013897
810067 0.0000916 -0.0013276 0.9999084 0.0013276 0.9999084 0.0013276 0.0000916 -0.0013276
847162 0.0000898 -0.0012680 0.9999102 0.0012680 0.9999102 0.0012680 0.0000898 -0.0012680
885955 0.0000881 -0.0012109 0.9999119 0.0012109 0.9999119 0.0012109 0.0000881 -0.0012109
926525 0.0000866 -0.0011561 0.9999134 0.0011561 0.9999134 0.0011561 0.0000866 -0.0011561
968953 0.0000851 -0.0011035 0.9999149 0.0011035 0.9999149 0.0011035 0.0000851 -0.0011035
1013323 0.0000838 -0.0010531 0.9999162 0.0010531 0.9999162 0.0010531 0.0000838 -0.0010531
1059725 0.0000825 -0.0010048 0.9999175 0.0010048 0.9999175 0.0010048 0.0000825 -0.0010048
1108252 0.0000814 -0.0009584 0.9999186 0.0009584 0.9999186 0.0009584 0.0000814 -0.0009584
1159002 0.0000804 -0.0009139 0.9999196 0.0009139 0.9999196 0.0009139 0.0000804 -0.0009139
1212075 0.0000794 -0.0008712 0.9999206 0.0008712 0.9999206 0.0008712 0.0000794 -0.0008712
1267578 0.0000785 -0.0008302 0.9999215 0.0008302 0.9999215 0.0008302 0.0000785 -0.0008302
1325623 0.0000777 -0.0007908 0.9999223 0.0007908 0.9999223 0.0007908 0.0000777 -0.0007908
1386327 0.0000770 -0.0007530 0.9999230 0.0007530 0.9999230 0.0007530 0.0000770 -0.0007530
1449809 0.0000764 -0.0007166 0.9999236 0.0007166 0.9999236 0.0007166 0.0000764 -0.0007166
1516199 0.0000758 -0.0006817 0.9999242 0.0006817 0.9999242 0.0006817 0.0000758 -0.0006817
1585629 0.0000753 -0.0006481 0.9999247 0.0006481 0.9999247 0.0006481 0.0000753 -0.0006481
1658239 0.0000749 -0.0006158 0.9999251 0.0006158 0.9999251 0.0006158 0.0000749 -0.0006158
1734173 0.0000745 -0.0005847 0.9999255 0.0005847 0.9999255 0.0005847 0.0000745 -0.0005847
1813585 0.0000742 -0.0005548 0.9999258 0.0005548 0.9999258 0.0005548 0.0000742 -0.0005548
1896632 0.0000739 -0.0005260 0.9999261 0.0005260 0.9999261 0.0005260 0.0000739 -0.0005260
1983483 0.0000737 -0.0004982 0.9999263 0.0004982 0.9999263 0.0004982 0.0000737 -0.0004982
2074311 0.0000735 -0.0004714 0.9999265 0.0004714 0.9999265 0.0004714 0.0000735 -0.0004714
