!Murata Part Number: GRM155R61A684KE15
!These Parameters are Measured in Series Mode Connection
!Data Generated on Mar 30, 2021
!       o--ll--o
!Port1            Port2
!       o------o
!Operation Temp=25[degC], DC Bias Voltage=0[V]
!Freq. Start=100[Hz] Stop=6[GHz] 401[Steps]
# Hz S RI R 50
!Freq.(Hz) S11(Real) S11(Imag) S21(Real) S21(Imag) S12(Real) S12(Imag) S22(Real) S22(Imag)
100 0.9980293 -0.0403945 0.0019707 0.0403945 0.0019707 0.0403945 0.9980293 -0.0403945
105 0.9978625 -0.0422266 0.0021375 0.0422266 0.0021375 0.0422266 0.9978625 -0.0422266
109 0.9976809 -0.0441412 0.0023191 0.0441412 0.0023191 0.0441412 0.9976809 -0.0441412
114 0.9974830 -0.0461419 0.0025170 0.0461419 0.0025170 0.0461419 0.9974830 -0.0461419
120 0.9972675 -0.0482323 0.0027325 0.0482323 0.0027325 0.0482323 0.9972675 -0.0482323
125 0.9970327 -0.0504165 0.0029673 0.0504165 0.0029673 0.0504165 0.9970327 -0.0504165
131 0.9967770 -0.0526983 0.0032230 0.0526983 0.0032230 0.0526983 0.9967770 -0.0526983
137 0.9964983 -0.0550820 0.0035017 0.0550820 0.0035017 0.0550820 0.9964983 -0.0550820
143 0.9961948 -0.0575720 0.0038052 0.0575720 0.0038052 0.0575720 0.9961948 -0.0575720
150 0.9958641 -0.0601728 0.0041359 0.0601728 0.0041359 0.0601728 0.9958641 -0.0601728
156 0.9955039 -0.0628889 0.0044961 0.0628889 0.0044961 0.0628889 0.9955039 -0.0628889
164 0.9951115 -0.0657253 0.0048885 0.0657253 0.0048885 0.0657253 0.9951115 -0.0657253
171 0.9946840 -0.0686869 0.0053160 0.0686869 0.0053160 0.0686869 0.9946840 -0.0686869
179 0.9942185 -0.0717790 0.0057815 0.0717790 0.0057815 0.0717790 0.9942185 -0.0717790
187 0.9937114 -0.0750069 0.0062886 0.0750069 0.0062886 0.0750069 0.9937114 -0.0750069
196 0.9931592 -0.0783761 0.0068408 0.0783761 0.0068408 0.0783761 0.9931592 -0.0783761
205 0.9925578 -0.0818923 0.0074422 0.0818923 0.0074422 0.0818923 0.9925578 -0.0818923
214 0.9919029 -0.0855613 0.0080971 0.0855613 0.0080971 0.0855613 0.9919029 -0.0855613
224 0.9911898 -0.0893893 0.0088102 0.0893893 0.0088102 0.0893893 0.9911898 -0.0893893
234 0.9904133 -0.0933822 0.0095867 0.0933822 0.0095867 0.0933822 0.9904133 -0.0933822
245 0.9895678 -0.0975466 0.0104322 0.0975466 0.0104322 0.0975466 0.9895678 -0.0975466
256 0.9886473 -0.1018887 0.0113527 0.1018887 0.0113527 0.1018887 0.9886473 -0.1018887
268 0.9876451 -0.1064152 0.0123549 0.1064152 0.0123549 0.1064152 0.9876451 -0.1064152
280 0.9865541 -0.1111326 0.0134459 0.1111326 0.0134459 0.1111326 0.9865541 -0.1111326
293 0.9853666 -0.1160476 0.0146334 0.1160476 0.0146334 0.1160476 0.9853666 -0.1160476
306 0.9840740 -0.1211671 0.0159260 0.1211671 0.0159260 0.1211671 0.9840740 -0.1211671
320 0.9826674 -0.1264976 0.0173326 0.1264976 0.0173326 0.1264976 0.9826674 -0.1264976
335 0.9811367 -0.1320459 0.0188633 0.1320459 0.0188633 0.1320459 0.9811367 -0.1320459
350 0.9794713 -0.1378184 0.0205287 0.1378184 0.0205287 0.1378184 0.9794713 -0.1378184
366 0.9776597 -0.1438217 0.0223403 0.1438217 0.0223403 0.1438217 0.9776597 -0.1438217
383 0.9756894 -0.1500618 0.0243106 0.1500618 0.0243106 0.1500618 0.9756894 -0.1500618
401 0.9735472 -0.1565446 0.0264528 0.1565446 0.0264528 0.1565446 0.9735472 -0.1565446
419 0.9712186 -0.1632757 0.0287814 0.1632757 0.0287814 0.1632757 0.9712186 -0.1632757
438 0.9686882 -0.1702601 0.0313118 0.1702601 0.0313118 0.1702601 0.9686882 -0.1702601
458 0.9659397 -0.1775021 0.0340603 0.1775021 0.0340603 0.1775021 0.9659397 -0.1775021
479 0.9629554 -0.1850055 0.0370446 0.1850055 0.0370446 0.1850055 0.9629554 -0.1850055
501 0.9597166 -0.1927731 0.0402834 0.1927731 0.0402834 0.1927731 0.9597166 -0.1927731
524 0.9562034 -0.2008070 0.0437966 0.2008070 0.0437966 0.2008070 0.9562034 -0.2008070
548 0.9523950 -0.2091078 0.0476050 0.2091078 0.0476050 0.2091078 0.9523950 -0.2091078
573 0.9482689 -0.2176751 0.0517311 0.2176751 0.0517311 0.2176751 0.9482689 -0.2176751
600 0.9438020 -0.2265068 0.0561980 0.2265068 0.0561980 0.2265068 0.9438020 -0.2265068
627 0.9389698 -0.2355993 0.0610302 0.2355993 0.0610302 0.2355993 0.9389698 -0.2355993
656 0.9337468 -0.2449468 0.0662532 0.2449468 0.0662532 0.2449468 0.9337468 -0.2449468
686 0.9281066 -0.2545419 0.0718934 0.2545419 0.0718934 0.2545419 0.9281066 -0.2545419
717 0.9220220 -0.2643743 0.0779780 0.2643743 0.0779780 0.2643743 0.9220220 -0.2643743
750 0.9154650 -0.2744314 0.0845350 0.2744314 0.0845350 0.2744314 0.9154650 -0.2744314
784 0.9084072 -0.2846979 0.0915928 0.2846979 0.0915928 0.2846979 0.9084072 -0.2846979
820 0.9008200 -0.2951552 0.0991800 0.2951552 0.0991800 0.2951552 0.9008200 -0.2951552
858 0.8926745 -0.3057816 0.1073255 0.3057816 0.1073255 0.3057816 0.8926745 -0.3057816
897 0.8839425 -0.3165518 0.1160575 0.3165518 0.1160575 0.3165518 0.8839425 -0.3165518
938 0.8745962 -0.3274369 0.1254038 0.3274369 0.1254038 0.3274369 0.8745962 -0.3274369
981 0.8646090 -0.3384043 0.1353910 0.3384043 0.1353910 0.3384043 0.8646090 -0.3384043
1026 0.8539559 -0.3494171 0.1460441 0.3494171 0.1460441 0.3494171 0.8539559 -0.3494171
1073 0.8426140 -0.3604348 0.1573860 0.3604348 0.1573860 0.3604348 0.8426140 -0.3604348
1122 0.8305628 -0.3714126 0.1694372 0.3714126 0.1694372 0.3714126 0.8305628 -0.3714126
1174 0.8177853 -0.3823018 0.1822147 0.3823018 0.1822147 0.3823018 0.8177853 -0.3823018
1227 0.8042683 -0.3930502 0.1957317 0.3930502 0.1957317 0.3930502 0.8042683 -0.3930502
1283 0.7900030 -0.4036016 0.2099970 0.4036016 0.2099970 0.4036016 0.7900030 -0.4036016
1342 0.7749856 -0.4138971 0.2250144 0.4138971 0.2250144 0.4138971 0.7749856 -0.4138971
1404 0.7592183 -0.4238749 0.2407817 0.4238749 0.2407817 0.4238749 0.7592183 -0.4238749
1468 0.7427094 -0.4334711 0.2572906 0.4334711 0.2572906 0.4334711 0.7427094 -0.4334711
1535 0.7254742 -0.4426205 0.2745258 0.4426205 0.2745258 0.4426205 0.7254742 -0.4426205
1606 0.7075351 -0.4512573 0.2924649 0.4512573 0.2924649 0.4512573 0.7075351 -0.4512573
1679 0.6889221 -0.4593163 0.3110779 0.4593163 0.3110779 0.4593163 0.6889221 -0.4593163
1756 0.6696731 -0.4667333 0.3303269 0.4667333 0.3303269 0.4667333 0.6696731 -0.4667333
1836 0.6498335 -0.4734471 0.3501665 0.4734471 0.3501665 0.4734471 0.6498335 -0.4734471
1920 0.6294566 -0.4793996 0.3705434 0.4793996 0.3705434 0.4793996 0.6294566 -0.4793996
2008 0.6086028 -0.4845379 0.3913972 0.4845379 0.3913972 0.4845379 0.6086028 -0.4845379
2100 0.5873395 -0.4888146 0.4126605 0.4888146 0.4126605 0.4888146 0.5873395 -0.4888146
2196 0.5657397 -0.4921892 0.4342603 0.4921892 0.4342603 0.4921892 0.5657397 -0.4921892
2297 0.5438818 -0.4946291 0.4561182 0.4946291 0.4561182 0.4946291 0.5438818 -0.4946291
2402 0.5218481 -0.4961102 0.4781519 0.4961102 0.4781519 0.4961102 0.5218481 -0.4961102
2512 0.4997239 -0.4966173 0.5002761 0.4966173 0.5002761 0.4966173 0.4997239 -0.4966173
2627 0.4775958 -0.4961449 0.5224042 0.4961449 0.5224042 0.4961449 0.4775958 -0.4961449
2748 0.4555506 -0.4946970 0.5444494 0.4946970 0.5444494 0.4946970 0.4555506 -0.4946970
2873 0.4336741 -0.4922872 0.5663259 0.4922872 0.5663259 0.4922872 0.4336741 -0.4922872
3005 0.4120492 -0.4889383 0.5879508 0.4889383 0.5879508 0.4889383 0.4120492 -0.4889383
3143 0.3907554 -0.4846819 0.6092446 0.4846819 0.6092446 0.4846819 0.3907554 -0.4846819
3287 0.3698671 -0.4795576 0.6301329 0.4795576 0.6301329 0.4795576 0.3698671 -0.4795576
3437 0.3494528 -0.4736120 0.6505472 0.4736120 0.6505472 0.4736120 0.3494528 -0.4736120
3594 0.3295744 -0.4668979 0.6704256 0.4668979 0.6704256 0.4668979 0.3295744 -0.4668979
3759 0.3102865 -0.4594732 0.6897135 0.4594732 0.6897135 0.4594732 0.3102865 -0.4594732
3931 0.2916360 -0.4513996 0.7083640 0.4513996 0.7083640 0.4513996 0.2916360 -0.4513996
4111 0.2736618 -0.4427414 0.7263382 0.4427414 0.7263382 0.4427414 0.2736618 -0.4427414
4299 0.2563951 -0.4335649 0.7436049 0.4335649 0.7436049 0.4335649 0.2563951 -0.4335649
4496 0.2398592 -0.4239366 0.7601408 0.4239366 0.7601408 0.4239366 0.2398592 -0.4239366
4702 0.2240698 -0.4139227 0.7759302 0.4139227 0.7759302 0.4139227 0.2240698 -0.4139227
4918 0.2090359 -0.4035880 0.7909641 0.4035880 0.7909641 0.4035880 0.2090359 -0.4035880
5143 0.1947597 -0.3929953 0.8052403 0.3929953 0.8052403 0.3929953 0.1947597 -0.3929953
5378 0.1812375 -0.3822047 0.8187625 0.3822047 0.8187625 0.3822047 0.1812375 -0.3822047
5625 0.1684605 -0.3712730 0.8315395 0.3712730 0.8315395 0.3712730 0.1684605 -0.3712730
5882 0.1564150 -0.3602536 0.8435850 0.3602536 0.8435850 0.3602536 0.1564150 -0.3602536
6151 0.1450835 -0.3491956 0.8549165 0.3491956 0.8549165 0.3491956 0.1450835 -0.3491956
6433 0.1344453 -0.3381445 0.8655547 0.3381445 0.8655547 0.3381445 0.1344453 -0.3381445
6728 0.1244768 -0.3271413 0.8755232 0.3271413 0.8755232 0.3271413 0.1244768 -0.3271413
7036 0.1151524 -0.3162231 0.8848476 0.3162231 0.8848476 0.3162231 0.1151524 -0.3162231
7358 0.1064450 -0.3054228 0.8935550 0.3054228 0.8935550 0.3054228 0.1064450 -0.3054228
7695 0.0983263 -0.2947695 0.9016737 0.2947695 0.9016737 0.2947695 0.0983263 -0.2947695
8047 0.0907674 -0.2842883 0.9092326 0.2842883 0.9092326 0.2842883 0.0907674 -0.2842883
8416 0.0837391 -0.2740011 0.9162609 0.2740011 0.9162609 0.2740011 0.0837391 -0.2740011
8801 0.0772124 -0.2639262 0.9227876 0.2639262 0.9227876 0.2639262 0.0772124 -0.2639262
9204 0.0711583 -0.2540788 0.9288417 0.2540788 0.9288417 0.2540788 0.0711583 -0.2540788
9626 0.0655488 -0.2444714 0.9344512 0.2444714 0.9344512 0.2444714 0.0655488 -0.2444714
10066 0.0603562 -0.2351139 0.9396438 0.2351139 0.9396438 0.2351139 0.0603562 -0.2351139
10527 0.0555541 -0.2260137 0.9444459 0.2260137 0.9444459 0.2260137 0.0555541 -0.2260137
11009 0.0511167 -0.2171763 0.9488833 0.2171763 0.9488833 0.2171763 0.0511167 -0.2171763
11514 0.0470196 -0.2086050 0.9529804 0.2086050 0.9529804 0.2086050 0.0470196 -0.2086050
12041 0.0432393 -0.2003018 0.9567607 0.2003018 0.9567607 0.2003018 0.0432393 -0.2003018
12592 0.0397536 -0.1922670 0.9602464 0.1922670 0.9602464 0.1922670 0.0397536 -0.1922670
13169 0.0365414 -0.1844997 0.9634586 0.1844997 0.9634586 0.1844997 0.0365414 -0.1844997
13772 0.0335830 -0.1769978 0.9664170 0.1769978 0.9664170 0.1769978 0.0335830 -0.1769978
14402 0.0308595 -0.1697583 0.9691405 0.1697583 0.9691405 0.1697583 0.0308595 -0.1697583
15062 0.0283535 -0.1627773 0.9716465 0.1627773 0.9716465 0.1627773 0.0283535 -0.1627773
15752 0.0260484 -0.1560504 0.9739516 0.1560504 0.9739516 0.1560504 0.0260484 -0.1560504
16473 0.0239290 -0.1495725 0.9760710 0.1495725 0.9760710 0.1495725 0.0239290 -0.1495725
17227 0.0219808 -0.1433380 0.9780192 0.1433380 0.9780192 0.1433380 0.0219808 -0.1433380
18016 0.0201905 -0.1373411 0.9798095 0.1373411 0.9798095 0.1373411 0.0201905 -0.1373411
18841 0.0185457 -0.1315754 0.9814543 0.1315754 0.9814543 0.1315754 0.0185457 -0.1315754
19704 0.0170349 -0.1260346 0.9829651 0.1260346 0.9829651 0.1260346 0.0170349 -0.1260346
20606 0.0156474 -0.1207120 0.9843526 0.1207120 0.9843526 0.1207120 0.0156474 -0.1207120
21550 0.0143733 -0.1156010 0.9856267 0.1156010 0.9856267 0.1156010 0.0143733 -0.1156010
22537 0.0132035 -0.1106948 0.9867965 0.1106948 0.9867965 0.1106948 0.0132035 -0.1106948
23569 0.0121295 -0.1059866 0.9878705 0.1059866 0.9878705 0.1059866 0.0121295 -0.1059866
24648 0.0111436 -0.1014698 0.9888564 0.1014698 0.9888564 0.1014698 0.0111436 -0.1014698
25777 0.0102385 -0.0971376 0.9897615 0.0971376 0.9897615 0.0971376 0.0102385 -0.0971376
26957 0.0094077 -0.0929835 0.9905923 0.0929835 0.9905923 0.0929835 0.0094077 -0.0929835
28191 0.0086451 -0.0890009 0.9913549 0.0890009 0.9913549 0.0890009 0.0086451 -0.0890009
29482 0.0079450 -0.0851835 0.9920550 0.0851835 0.9920550 0.0851835 0.0079450 -0.0851835
30832 0.0073024 -0.0815251 0.9926976 0.0815251 0.9926976 0.0815251 0.0073024 -0.0815251
32244 0.0067125 -0.0780196 0.9932875 0.0780196 0.9932875 0.0780196 0.0067125 -0.0780196
33721 0.0061710 -0.0746611 0.9938290 0.0746611 0.9938290 0.0746611 0.0061710 -0.0746611
35265 0.0056739 -0.0714438 0.9943261 0.0714438 0.9943261 0.0714438 0.0056739 -0.0714438
36880 0.0052176 -0.0683621 0.9947824 0.0683621 0.9947824 0.0683621 0.0052176 -0.0683621
38569 0.0047987 -0.0654107 0.9952013 0.0654107 0.9952013 0.0654107 0.0047987 -0.0654107
40335 0.0044142 -0.0625843 0.9955858 0.0625843 0.9955858 0.0625843 0.0044142 -0.0625843
42182 0.0040612 -0.0598779 0.9959388 0.0598779 0.9959388 0.0598779 0.0040612 -0.0598779
44113 0.0037372 -0.0572866 0.9962628 0.0572866 0.9962628 0.0572866 0.0037372 -0.0572866
46134 0.0034398 -0.0548057 0.9965602 0.0548057 0.9965602 0.0548057 0.0034398 -0.0548057
48246 0.0031668 -0.0524306 0.9968332 0.0524306 0.9968332 0.0524306 0.0031668 -0.0524306
50455 0.0029163 -0.0501571 0.9970837 0.0501571 0.9970837 0.0501571 0.0029163 -0.0501571
52766 0.0026864 -0.0479809 0.9973136 0.0479809 0.9973136 0.0479809 0.0026864 -0.0479809
55182 0.0024755 -0.0458979 0.9975245 0.0458979 0.9975245 0.0458979 0.0024755 -0.0458979
57709 0.0022819 -0.0439043 0.9977181 0.0439043 0.9977181 0.0439043 0.0022819 -0.0439043
60352 0.0021043 -0.0419964 0.9978957 0.0419964 0.9978957 0.0419964 0.0021043 -0.0419964
63115 0.0019414 -0.0401706 0.9980586 0.0401706 0.9980586 0.0401706 0.0019414 -0.0401706
66005 0.0017919 -0.0384234 0.9982081 0.0384234 0.9982081 0.0384234 0.0017919 -0.0384234
69028 0.0016549 -0.0367515 0.9983451 0.0367515 0.9983451 0.0367515 0.0016549 -0.0367515
72189 0.0015291 -0.0351518 0.9984709 0.0351518 0.9984709 0.0351518 0.0015291 -0.0351518
75495 0.0014139 -0.0336212 0.9985861 0.0336212 0.9985861 0.0336212 0.0014139 -0.0336212
78952 0.0013082 -0.0321567 0.9986918 0.0321567 0.9986918 0.0321567 0.0013082 -0.0321567
82567 0.0012112 -0.0307557 0.9987888 0.0307557 0.9987888 0.0307557 0.0012112 -0.0307557
86348 0.0011224 -0.0294153 0.9988776 0.0294153 0.9988776 0.0294153 0.0011224 -0.0294153
90302 0.0010409 -0.0281331 0.9989591 0.0281331 0.9989591 0.0281331 0.0010409 -0.0281331
94437 0.0009662 -0.0269065 0.9990338 0.0269065 0.9990338 0.0269065 0.0009662 -0.0269065
98762 0.0008978 -0.0257331 0.9991022 0.0257331 0.9991022 0.0257331 0.0008978 -0.0257331
103284 0.0008350 -0.0246107 0.9991650 0.0246107 0.9991650 0.0246107 0.0008350 -0.0246107
108014 0.0007775 -0.0235371 0.9992225 0.0235371 0.9992225 0.0235371 0.0007775 -0.0235371
112960 0.0007247 -0.0225102 0.9992753 0.0225102 0.9992753 0.0225102 0.0007247 -0.0225102
118133 0.0006763 -0.0215280 0.9993237 0.0215280 0.9993237 0.0215280 0.0006763 -0.0215280
123542 0.0006320 -0.0205886 0.9993680 0.0205886 0.9993680 0.0205886 0.0006320 -0.0205886
129199 0.0005913 -0.0196901 0.9994087 0.0196901 0.9994087 0.0196901 0.0005913 -0.0196901
135116 0.0005540 -0.0188308 0.9994460 0.0188308 0.9994460 0.0188308 0.0005540 -0.0188308
141303 0.0005197 -0.0180089 0.9994803 0.0180089 0.9994803 0.0180089 0.0005197 -0.0180089
147774 0.0004883 -0.0172229 0.9995117 0.0172229 0.9995117 0.0172229 0.0004883 -0.0172229
154540 0.0004595 -0.0164712 0.9995405 0.0164712 0.9995405 0.0164712 0.0004595 -0.0164712
161617 0.0004329 -0.0157523 0.9995671 0.0157523 0.9995671 0.0157523 0.0004329 -0.0157523
169018 0.0004086 -0.0150647 0.9995914 0.0150647 0.9995914 0.0150647 0.0004086 -0.0150647
176758 0.0003862 -0.0144072 0.9996138 0.0144072 0.9996138 0.0144072 0.0003862 -0.0144072
184852 0.0003655 -0.0137785 0.9996345 0.0137785 0.9996345 0.0137785 0.0003655 -0.0137785
193316 0.0003465 -0.0131771 0.9996535 0.0131771 0.9996535 0.0131771 0.0003465 -0.0131771
202169 0.0003290 -0.0126021 0.9996710 0.0126021 0.9996710 0.0126021 0.0003290 -0.0126021
211427 0.0003129 -0.0120521 0.9996871 0.0120521 0.9996871 0.0120521 0.0003129 -0.0120521
221108 0.0002980 -0.0115262 0.9997020 0.0115262 0.9997020 0.0115262 0.0002980 -0.0115262
231233 0.0002842 -0.0110233 0.9997158 0.0110233 0.9997158 0.0110233 0.0002842 -0.0110233
241822 0.0002714 -0.0105423 0.9997286 0.0105423 0.9997286 0.0105423 0.0002714 -0.0105423
252896 0.0002596 -0.0100823 0.9997404 0.0100823 0.9997404 0.0100823 0.0002596 -0.0100823
264476 0.0002486 -0.0096423 0.9997514 0.0096423 0.9997514 0.0096423 0.0002486 -0.0096423
276587 0.0002385 -0.0092216 0.9997615 0.0092216 0.9997615 0.0092216 0.0002385 -0.0092216
289253 0.0002290 -0.0088192 0.9997710 0.0088192 0.9997710 0.0088192 0.0002290 -0.0088192
302498 0.0002202 -0.0084343 0.9997798 0.0084343 0.9997798 0.0084343 0.0002202 -0.0084343
316350 0.0002120 -0.0080662 0.9997880 0.0080662 0.9997880 0.0080662 0.0002120 -0.0080662
330837 0.0002043 -0.0077142 0.9997957 0.0077142 0.9997957 0.0077142 0.0002043 -0.0077142
345986 0.0001971 -0.0073774 0.9998029 0.0073774 0.9998029 0.0073774 0.0001971 -0.0073774
361830 0.0001904 -0.0070553 0.9998096 0.0070553 0.9998096 0.0070553 0.0001904 -0.0070553
378399 0.0001842 -0.0067472 0.9998158 0.0067472 0.9998158 0.0067472 0.0001842 -0.0067472
395726 0.0001783 -0.0064525 0.9998217 0.0064525 0.9998217 0.0064525 0.0001783 -0.0064525
413847 0.0001728 -0.0061706 0.9998272 0.0061706 0.9998272 0.0061706 0.0001728 -0.0061706
432798 0.0001677 -0.0059008 0.9998323 0.0059008 0.9998323 0.0059008 0.0001677 -0.0059008
452617 0.0001628 -0.0056428 0.9998372 0.0056428 0.9998372 0.0056428 0.0001628 -0.0056428
473344 0.0001583 -0.0053960 0.9998417 0.0053960 0.9998417 0.0053960 0.0001583 -0.0053960
495019 0.0001541 -0.0051598 0.9998459 0.0051598 0.9998459 0.0051598 0.0001541 -0.0051598
517687 0.0001501 -0.0049338 0.9998499 0.0049338 0.9998499 0.0049338 0.0001501 -0.0049338
541393 0.0001463 -0.0047176 0.9998537 0.0047176 0.9998537 0.0047176 0.0001463 -0.0047176
566185 0.0001428 -0.0045108 0.9998572 0.0045108 0.9998572 0.0045108 0.0001428 -0.0045108
592111 0.0001396 -0.0043128 0.9998604 0.0043128 0.9998604 0.0043128 0.0001396 -0.0043128
619225 0.0001365 -0.0041234 0.9998635 0.0041234 0.9998635 0.0041234 0.0001365 -0.0041234
647581 0.0001336 -0.0039422 0.9998664 0.0039422 0.9998664 0.0039422 0.0001336 -0.0039422
677235 0.0001309 -0.0037688 0.9998691 0.0037688 0.9998691 0.0037688 0.0001309 -0.0037688
708247 0.0001284 -0.0036028 0.9998716 0.0036028 0.9998716 0.0036028 0.0001284 -0.0036028
740679 0.0001261 -0.0034440 0.9998739 0.0034440 0.9998739 0.0034440 0.0001261 -0.0034440
774597 0.0001239 -0.0032919 0.9998761 0.0032919 0.9998761 0.0032919 0.0001239 -0.0032919
810067 0.0001219 -0.0031464 0.9998781 0.0031464 0.9998781 0.0031464 0.0001219 -0.0031464
847162 0.0001200 -0.0030072 0.9998800 0.0030072 0.9998800 0.0030072 0.0001200 -0.0030072
885955 0.0001183 -0.0028739 0.9998817 0.0028739 0.9998817 0.0028739 0.0001183 -0.0028739
926525 0.0001167 -0.0027463 0.9998833 0.0027463 0.9998833 0.0027463 0.0001167 -0.0027463
968953 0.0001152 -0.0026242 0.9998848 0.0026242 0.9998848 0.0026242 0.0001152 -0.0026242
1013323 0.0001138 -0.0025072 0.9998862 0.0025072 0.9998862 0.0025072 0.0001138 -0.0025072
1059725 0.0001125 -0.0023953 0.9998875 0.0023953 0.9998875 0.0023953 0.0001125 -0.0023953
1108252 0.0001114 -0.0022881 0.9998886 0.0022881 0.9998886 0.0022881 0.0001114 -0.0022881
1159002 0.0001103 -0.0021855 0.9998897 0.0021855 0.9998897 0.0021855 0.0001103 -0.0021855
1212075 0.0001093 -0.0020872 0.9998907 0.0020872 0.9998907 0.0020872 0.0001093 -0.0020872
1267578 0.0001084 -0.0019931 0.9998916 0.0019931 0.9998916 0.0019931 0.0001084 -0.0019931
1325623 0.0001075 -0.0019029 0.9998925 0.0019029 0.9998925 0.0019029 0.0001075 -0.0019029
1386327 0.0001068 -0.0018166 0.9998932 0.0018166 0.9998932 0.0018166 0.0001068 -0.0018166
1449809 0.0001061 -0.0017338 0.9998939 0.0017338 0.9998939 0.0017338 0.0001061 -0.0017338
1516199 0.0001054 -0.0016546 0.9998946 0.0016546 0.9998946 0.0016546 0.0001054 -0.0016546
1585629 0.0001049 -0.0015786 0.9998951 0.0015786 0.9998951 0.0015786 0.0001049 -0.0015786
1658239 0.0001043 -0.0015057 0.9998957 0.0015057 0.9998957 0.0015057 0.0001043 -0.0015057
1734173 0.0001039 -0.0014359 0.9998961 0.0014359 0.9998961 0.0014359 0.0001039 -0.0014359
1813585 0.0001035 -0.0013690 0.9998965 0.0013690 0.9998965 0.0013690 0.0001035 -0.0013690
1896632 0.0001031 -0.0013047 0.9998969 0.0013047 0.9998969 0.0013047 0.0001031 -0.0013047
1983483 0.0001028 -0.0012431 0.9998972 0.0012431 0.9998972 0.0012431 0.0001028 -0.0012431
2074311 0.0001025 -0.0011840 0.9998975 0.0011840 0.9998975 0.0011840 0.0001025 -0.0011840
