!Murata Part Number: GRM155R61A334ME15
!These Parameters are Measured in Series Mode Connection
!Data Generated on Mar 30, 2021
!       o--ll--o
!Port1            Port2
!       o------o
!Operation Temp=25[degC], DC Bias Voltage=0[V]
!Freq. Start=100[Hz] Stop=6[GHz] 401[Steps]
# Hz S RI R 50
!Freq.(Hz) S11(Real) S11(Imag) S21(Real) S21(Imag) S12(Real) S12(Imag) S22(Real) S22(Imag)
100 0.9994670 -0.0196900 0.0005330 0.0196900 0.0005330 0.0196900 0.9994670 -0.0196900
105 0.9994248 -0.0205862 0.0005752 0.0205862 0.0005752 0.0205862 0.9994248 -0.0205862
109 0.9993789 -0.0215233 0.0006211 0.0215233 0.0006211 0.0215233 0.9993789 -0.0215233
114 0.9993290 -0.0225029 0.0006710 0.0225029 0.0006710 0.0225029 0.9993290 -0.0225029
120 0.9992749 -0.0235270 0.0007251 0.0235270 0.0007251 0.0235270 0.9992749 -0.0235270
125 0.9992159 -0.0245976 0.0007841 0.0245976 0.0007841 0.0245976 0.9992159 -0.0245976
131 0.9991518 -0.0257168 0.0008482 0.0257168 0.0008482 0.0257168 0.9991518 -0.0257168
137 0.9990822 -0.0268867 0.0009178 0.0268867 0.0009178 0.0268867 0.9990822 -0.0268867
143 0.9990064 -0.0281097 0.0009936 0.0281097 0.0009936 0.0281097 0.9990064 -0.0281097
150 0.9989239 -0.0293881 0.0010761 0.0293881 0.0010761 0.0293881 0.9989239 -0.0293881
156 0.9988342 -0.0307244 0.0011658 0.0307244 0.0011658 0.0307244 0.9988342 -0.0307244
164 0.9987366 -0.0321211 0.0012634 0.0321211 0.0012634 0.0321211 0.9987366 -0.0321211
171 0.9986305 -0.0335810 0.0013695 0.0335810 0.0013695 0.0335810 0.9986305 -0.0335810
179 0.9985150 -0.0351069 0.0014850 0.0351069 0.0014850 0.0351069 0.9985150 -0.0351069
187 0.9983893 -0.0367017 0.0016107 0.0367017 0.0016107 0.0367017 0.9983893 -0.0367017
196 0.9982526 -0.0383684 0.0017474 0.0383684 0.0017474 0.0383684 0.9982526 -0.0383684
205 0.9981038 -0.0401104 0.0018962 0.0401104 0.0018962 0.0401104 0.9981038 -0.0401104
214 0.9979418 -0.0419308 0.0020582 0.0419308 0.0020582 0.0419308 0.9979418 -0.0419308
224 0.9977656 -0.0438333 0.0022344 0.0438333 0.0022344 0.0438333 0.9977656 -0.0438333
234 0.9975737 -0.0458213 0.0024263 0.0458213 0.0024263 0.0458213 0.9975737 -0.0458213
245 0.9973648 -0.0478987 0.0026352 0.0478987 0.0026352 0.0478987 0.9973648 -0.0478987
256 0.9971373 -0.0500694 0.0028627 0.0500694 0.0028627 0.0500694 0.9971373 -0.0500694
268 0.9968896 -0.0523375 0.0031104 0.0523375 0.0031104 0.0523375 0.9968896 -0.0523375
280 0.9966198 -0.0547072 0.0033802 0.0547072 0.0033802 0.0547072 0.9966198 -0.0547072
293 0.9963259 -0.0571830 0.0036741 0.0571830 0.0036741 0.0571830 0.9963259 -0.0571830
306 0.9960057 -0.0597693 0.0039943 0.0597693 0.0039943 0.0597693 0.9960057 -0.0597693
320 0.9956568 -0.0624710 0.0043432 0.0624710 0.0043432 0.0624710 0.9956568 -0.0624710
335 0.9952766 -0.0652929 0.0047234 0.0652929 0.0047234 0.0652929 0.9952766 -0.0652929
350 0.9948622 -0.0682402 0.0051378 0.0682402 0.0051378 0.0682402 0.9948622 -0.0682402
366 0.9944105 -0.0713180 0.0055895 0.0713180 0.0055895 0.0713180 0.9944105 -0.0713180
383 0.9939180 -0.0745318 0.0060820 0.0745318 0.0060820 0.0745318 0.9939180 -0.0745318
401 0.9933811 -0.0778872 0.0066189 0.0778872 0.0066189 0.0778872 0.9933811 -0.0778872
419 0.9927957 -0.0813899 0.0072043 0.0813899 0.0072043 0.0813899 0.9927957 -0.0813899
438 0.9921575 -0.0850458 0.0078425 0.0850458 0.0078425 0.0850458 0.9921575 -0.0850458
458 0.9914615 -0.0888609 0.0085385 0.0888609 0.0085385 0.0888609 0.9914615 -0.0888609
479 0.9907026 -0.0928414 0.0092974 0.0928414 0.0092974 0.0928414 0.9907026 -0.0928414
501 0.9898752 -0.0969937 0.0101248 0.0969937 0.0101248 0.0969937 0.9898752 -0.0969937
524 0.9889731 -0.1013241 0.0110269 0.1013241 0.0110269 0.1013241 0.9889731 -0.1013241
548 0.9879896 -0.1058391 0.0120104 0.1058391 0.0120104 0.1058391 0.9879896 -0.1058391
573 0.9869176 -0.1105454 0.0130824 0.1105454 0.0130824 0.1105454 0.9869176 -0.1105454
600 0.9857492 -0.1154495 0.0142508 0.1154495 0.0142508 0.1154495 0.9857492 -0.1154495
627 0.9844759 -0.1205580 0.0155241 0.1205580 0.0155241 0.1205580 0.9844759 -0.1205580
656 0.9830886 -0.1258776 0.0169114 0.1258776 0.0169114 0.1258776 0.9830886 -0.1258776
686 0.9815775 -0.1314149 0.0184225 0.1314149 0.0184225 0.1314149 0.9815775 -0.1314149
717 0.9799319 -0.1371763 0.0200681 0.1371763 0.0200681 0.1371763 0.9799319 -0.1371763
750 0.9781404 -0.1431681 0.0218596 0.1431681 0.0218596 0.1431681 0.9781404 -0.1431681
784 0.9761906 -0.1493963 0.0238094 0.1493963 0.0238094 0.1493963 0.9761906 -0.1493963
820 0.9740693 -0.1558668 0.0259307 0.1558668 0.0259307 0.1558668 0.9740693 -0.1558668
858 0.9717622 -0.1625849 0.0282378 0.1625849 0.0282378 0.1625849 0.9717622 -0.1625849
897 0.9692542 -0.1695556 0.0307458 0.1695556 0.0307458 0.1695556 0.9692542 -0.1695556
938 0.9665291 -0.1767834 0.0334709 0.1767834 0.0334709 0.1767834 0.9665291 -0.1767834
981 0.9635694 -0.1842719 0.0364306 0.1842719 0.0364306 0.1842719 0.9635694 -0.1842719
1026 0.9603568 -0.1920240 0.0396432 0.1920240 0.0396432 0.1920240 0.9603568 -0.1920240
1073 0.9568716 -0.2000418 0.0431284 0.2000418 0.0431284 0.2000418 0.9568716 -0.2000418
1122 0.9530931 -0.2083263 0.0469069 0.2083263 0.0469069 0.2083263 0.9530931 -0.2083263
1174 0.9489994 -0.2168770 0.0510006 0.2168770 0.0510006 0.2168770 0.9489994 -0.2168770
1227 0.9445674 -0.2256922 0.0554326 0.2256922 0.0554326 0.2256922 0.9445674 -0.2256922
1283 0.9397729 -0.2347686 0.0602271 0.2347686 0.0602271 0.2347686 0.9397729 -0.2347686
1342 0.9345907 -0.2441009 0.0654093 0.2441009 0.0654093 0.2441009 0.9345907 -0.2441009
1404 0.9289946 -0.2536819 0.0710054 0.2536819 0.0710054 0.2536819 0.9289946 -0.2536819
1468 0.9229573 -0.2635021 0.0770427 0.2635021 0.0770427 0.2635021 0.9229573 -0.2635021
1535 0.9164511 -0.2735495 0.0835489 0.2735495 0.0835489 0.2735495 0.9164511 -0.2735495
1606 0.9094473 -0.2838090 0.0905527 0.2838090 0.0905527 0.2838090 0.9094473 -0.2838090
1679 0.9019171 -0.2942630 0.0980829 0.2942630 0.0980829 0.2942630 0.9019171 -0.2942630
1756 0.8938315 -0.3048903 0.1061685 0.3048903 0.1061685 0.3048903 0.8938315 -0.3048903
1836 0.8851617 -0.3156662 0.1148383 0.3156662 0.1148383 0.3156662 0.8851617 -0.3156662
1920 0.8758796 -0.3265625 0.1241204 0.3265625 0.1241204 0.3265625 0.8758796 -0.3265625
2008 0.8659579 -0.3375468 0.1340421 0.3375468 0.1340421 0.3375468 0.8659579 -0.3375468
2100 0.8553707 -0.3485831 0.1446293 0.3485831 0.1446293 0.3485831 0.8553707 -0.3485831
2196 0.8440943 -0.3596308 0.1559057 0.3596308 0.1559057 0.3596308 0.8440943 -0.3596308
2297 0.8321074 -0.3706454 0.1678926 0.3706454 0.1678926 0.3706454 0.8321074 -0.3706454
2402 0.8193919 -0.3815783 0.1806081 0.3815783 0.1806081 0.3815783 0.8193919 -0.3815783
2512 0.8059336 -0.3923770 0.1940664 0.3923770 0.1940664 0.3923770 0.8059336 -0.3923770
2627 0.7917226 -0.4029852 0.2082774 0.4029852 0.2082774 0.4029852 0.7917226 -0.4029852
2748 0.7767544 -0.4133432 0.2232456 0.4133432 0.2232456 0.4133432 0.7767544 -0.4133432
2873 0.7610303 -0.4233886 0.2389697 0.4233886 0.2389697 0.4233886 0.7610303 -0.4233886
3005 0.7445577 -0.4330567 0.2554423 0.4330567 0.2554423 0.4330567 0.7445577 -0.4330567
3143 0.7273514 -0.4422814 0.2726486 0.4422814 0.2726486 0.4422814 0.7273514 -0.4422814
3287 0.7094335 -0.4509957 0.2905665 0.4509957 0.2905665 0.4509957 0.7094335 -0.4509957
3437 0.6908337 -0.4591333 0.3091663 0.4591333 0.3091663 0.4591333 0.6908337 -0.4591333
3594 0.6715898 -0.4666290 0.3284102 0.4666290 0.3284102 0.4666290 0.6715898 -0.4666290
3759 0.6517478 -0.4734202 0.3482522 0.4734202 0.3482522 0.4734202 0.6517478 -0.4734202
3931 0.6313611 -0.4794481 0.3686389 0.4794481 0.3686389 0.4794481 0.6313611 -0.4794481
4111 0.6104908 -0.4846587 0.3895092 0.4846587 0.3895092 0.4846587 0.6104908 -0.4846587
4299 0.5892050 -0.4890039 0.4107950 0.4890039 0.4107950 0.4890039 0.5892050 -0.4890039
4496 0.5675776 -0.4924427 0.4324224 0.4924427 0.4324224 0.4924427 0.5675776 -0.4924427
4702 0.5456879 -0.4949420 0.4543121 0.4949420 0.4543121 0.4949420 0.5456879 -0.4949420
4918 0.5236192 -0.4964775 0.4763808 0.4964775 0.4763808 0.4964775 0.5236192 -0.4964775
5143 0.5014575 -0.4970341 0.4985425 0.4970341 0.4985425 0.4970341 0.5014575 -0.4970341
5378 0.4792903 -0.4966064 0.5207097 0.4966064 0.5207097 0.4966064 0.4792903 -0.4966064
5625 0.4572052 -0.4951988 0.5427948 0.4951988 0.5427948 0.4951988 0.4572052 -0.4951988
5882 0.4352885 -0.4928252 0.5647115 0.4928252 0.5647115 0.4928252 0.4352885 -0.4928252
6151 0.4136237 -0.4895090 0.5863763 0.4895090 0.5863763 0.4895090 0.4136237 -0.4895090
6433 0.3922904 -0.4852823 0.6077096 0.4852823 0.6077096 0.4852823 0.3922904 -0.4852823
6728 0.3713633 -0.4801851 0.6286367 0.4801851 0.6286367 0.4801851 0.3713633 -0.4801851
7036 0.3509109 -0.4742647 0.6490891 0.4742647 0.6490891 0.4742647 0.3509109 -0.4742647
7358 0.3309950 -0.4675743 0.6690050 0.4675743 0.6690050 0.4675743 0.3309950 -0.4675743
7695 0.3116699 -0.4601721 0.6883301 0.4601721 0.6883301 0.4601721 0.3116699 -0.4601721
8047 0.2929824 -0.4521201 0.7070176 0.4521201 0.7070176 0.4521201 0.2929824 -0.4521201
8416 0.2749712 -0.4434829 0.7250288 0.4434829 0.7250288 0.4434829 0.2749712 -0.4434829
8801 0.2576670 -0.4343266 0.7423330 0.4343266 0.7423330 0.4343266 0.2576670 -0.4343266
9204 0.2410929 -0.4247178 0.7589071 0.4247178 0.7589071 0.4247178 0.2410929 -0.4247178
9626 0.2252645 -0.4147225 0.7747355 0.4147225 0.7747355 0.4147225 0.2252645 -0.4147225
10066 0.2101904 -0.4044055 0.7898096 0.4044055 0.7898096 0.4044055 0.2101904 -0.4044055
10527 0.1958729 -0.3938293 0.8041271 0.3938293 0.8041271 0.3938293 0.1958729 -0.3938293
11009 0.1823082 -0.3830536 0.8176918 0.3830536 0.8176918 0.3830536 0.1823082 -0.3830536
11514 0.1694874 -0.3721352 0.8305126 0.3721352 0.8305126 0.3721352 0.1694874 -0.3721352
12041 0.1573971 -0.3611270 0.8426029 0.3611270 0.8426029 0.3611270 0.1573971 -0.3611270
12592 0.1460199 -0.3500781 0.8539801 0.3500781 0.8539801 0.3500781 0.1460199 -0.3500781
13169 0.1353352 -0.3390336 0.8646648 0.3390336 0.8646648 0.3390336 0.1353352 -0.3390336
13772 0.1253197 -0.3280345 0.8746803 0.3280345 0.8746803 0.3280345 0.1253197 -0.3280345
14402 0.1159482 -0.3171177 0.8840518 0.3171177 0.8840518 0.3171177 0.1159482 -0.3171177
15062 0.1071937 -0.3063162 0.8928063 0.3063162 0.8928063 0.3063162 0.1071937 -0.3063162
15752 0.0990283 -0.2956589 0.9009717 0.2956589 0.9009717 0.2956589 0.0990283 -0.2956589
16473 0.0914234 -0.2851712 0.9085766 0.2851712 0.9085766 0.2851712 0.0914234 -0.2851712
17227 0.0843500 -0.2748749 0.9156500 0.2748749 0.9156500 0.2748749 0.0843500 -0.2748749
18016 0.0777793 -0.2647885 0.9222207 0.2647885 0.9222207 0.2647885 0.0777793 -0.2647885
18841 0.0716828 -0.2549273 0.9283172 0.2549273 0.9283172 0.2549273 0.0716828 -0.2549273
19704 0.0660323 -0.2453042 0.9339677 0.2453042 0.9339677 0.2453042 0.0660323 -0.2453042
20606 0.0608005 -0.2359290 0.9391995 0.2359290 0.9391995 0.2359290 0.0608005 -0.2359290
21550 0.0559610 -0.2268095 0.9440390 0.2268095 0.9440390 0.2268095 0.0559610 -0.2268095
22537 0.0514881 -0.2179514 0.9485119 0.2179514 0.9485119 0.2179514 0.0514881 -0.2179514
23569 0.0473576 -0.2093582 0.9526424 0.2093582 0.9526424 0.2093582 0.0473576 -0.2093582
24648 0.0435459 -0.2010320 0.9564541 0.2010320 0.9564541 0.2010320 0.0435459 -0.2010320
25777 0.0400308 -0.1929735 0.9599692 0.1929735 0.9599692 0.1929735 0.0400308 -0.1929735
26957 0.0367913 -0.1851818 0.9632087 0.1851818 0.9632087 0.1851818 0.0367913 -0.1851818
28191 0.0338076 -0.1776550 0.9661924 0.1776550 0.9661924 0.1776550 0.0338076 -0.1776550
29482 0.0310607 -0.1703904 0.9689393 0.1703904 0.9689393 0.1703904 0.0310607 -0.1703904
30832 0.0285332 -0.1633842 0.9714668 0.1633842 0.9714668 0.1633842 0.0285332 -0.1633842
32244 0.0262085 -0.1566321 0.9737915 0.1566321 0.9737915 0.1566321 0.0262085 -0.1566321
33721 0.0240712 -0.1501290 0.9759288 0.1501290 0.9759288 0.1501290 0.0240712 -0.1501290
35265 0.0221069 -0.1438696 0.9778931 0.1438696 0.9778931 0.1438696 0.0221069 -0.1438696
36880 0.0203021 -0.1378481 0.9796979 0.1378481 0.9796979 0.1378481 0.0203021 -0.1378481
38569 0.0186443 -0.1320583 0.9813557 0.1320583 0.9813557 0.1320583 0.0186443 -0.1320583
40335 0.0171220 -0.1264938 0.9828780 0.1264938 0.9828780 0.1264938 0.0171220 -0.1264938
42182 0.0157243 -0.1211480 0.9842757 0.1211480 0.9842757 0.1211480 0.0157243 -0.1211480
44113 0.0144414 -0.1160145 0.9855586 0.1160145 0.9855586 0.1160145 0.0144414 -0.1160145
46134 0.0132639 -0.1110864 0.9867361 0.1110864 0.9867361 0.1110864 0.0132639 -0.1110864
48246 0.0121834 -0.1063571 0.9878166 0.1063571 0.9878166 0.1063571 0.0121834 -0.1063571
50455 0.0111920 -0.1018198 0.9888080 0.1018198 0.9888080 0.1018198 0.0111920 -0.1018198
52766 0.0102825 -0.0974680 0.9897175 0.0974680 0.9897175 0.0974680 0.0102825 -0.0974680
55182 0.0094481 -0.0932949 0.9905519 0.0932949 0.9905519 0.0932949 0.0094481 -0.0932949
57709 0.0086827 -0.0892943 0.9913173 0.0892943 0.9913173 0.0892943 0.0086827 -0.0892943
60352 0.0079806 -0.0854596 0.9920194 0.0854596 0.9920194 0.0854596 0.0079806 -0.0854596
63115 0.0073367 -0.0817848 0.9926633 0.0817848 0.9926633 0.0817848 0.0073367 -0.0817848
66005 0.0067461 -0.0782637 0.9932539 0.0782637 0.9932539 0.0782637 0.0067461 -0.0782637
69028 0.0062044 -0.0748904 0.9937956 0.0748904 0.9937956 0.0748904 0.0062044 -0.0748904
72189 0.0057077 -0.0716591 0.9942923 0.0716591 0.9942923 0.0716591 0.0057077 -0.0716591
75495 0.0052521 -0.0685643 0.9947479 0.0685643 0.9947479 0.0685643 0.0052521 -0.0685643
78952 0.0048343 -0.0656006 0.9951657 0.0656006 0.9951657 0.0656006 0.0048343 -0.0656006
82567 0.0044512 -0.0627627 0.9955488 0.0627627 0.9955488 0.0627627 0.0044512 -0.0627627
86348 0.0041000 -0.0600456 0.9959000 0.0600456 0.9959000 0.0600456 0.0041000 -0.0600456
90302 0.0037778 -0.0574442 0.9962222 0.0574442 0.9962222 0.0574442 0.0037778 -0.0574442
94437 0.0034824 -0.0549540 0.9965176 0.0549540 0.9965176 0.0549540 0.0034824 -0.0549540
98762 0.0032116 -0.0525704 0.9967884 0.0525704 0.9967884 0.0525704 0.0032116 -0.0525704
103284 0.0029633 -0.0502890 0.9970367 0.0502890 0.9970367 0.0502890 0.0029633 -0.0502890
108014 0.0027356 -0.0481055 0.9972644 0.0481055 0.9972644 0.0481055 0.0027356 -0.0481055
112960 0.0025268 -0.0460158 0.9974732 0.0460158 0.9974732 0.0460158 0.0025268 -0.0460158
118133 0.0023354 -0.0440162 0.9976646 0.0440162 0.9976646 0.0440162 0.0023354 -0.0440162
123542 0.0021599 -0.0421027 0.9978401 0.0421027 0.9978401 0.0421027 0.0021599 -0.0421027
129199 0.0019990 -0.0402718 0.9980010 0.0402718 0.9980010 0.0402718 0.0019990 -0.0402718
135116 0.0018514 -0.0385200 0.9981486 0.0385200 0.9981486 0.0385200 0.0018514 -0.0385200
141303 0.0017161 -0.0368440 0.9982839 0.0368440 0.9982839 0.0368440 0.0017161 -0.0368440
147774 0.0015920 -0.0352406 0.9984080 0.0352406 0.9984080 0.0352406 0.0015920 -0.0352406
154540 0.0014781 -0.0337066 0.9985219 0.0337066 0.9985219 0.0337066 0.0014781 -0.0337066
161617 0.0013737 -0.0322391 0.9986263 0.0322391 0.9986263 0.0322391 0.0013737 -0.0322391
169018 0.0012779 -0.0308354 0.9987221 0.0308354 0.9987221 0.0308354 0.0012779 -0.0308354
176758 0.0011900 -0.0294926 0.9988100 0.0294926 0.9988100 0.0294926 0.0011900 -0.0294926
184852 0.0011093 -0.0282081 0.9988907 0.0282081 0.9988907 0.0282081 0.0011093 -0.0282081
193316 0.0010352 -0.0269796 0.9989648 0.0269796 0.9989648 0.0269796 0.0010352 -0.0269796
202169 0.0009671 -0.0258044 0.9990329 0.0258044 0.9990329 0.0258044 0.0009671 -0.0258044
211427 0.0009045 -0.0246804 0.9990955 0.0246804 0.9990955 0.0246804 0.0009045 -0.0246804
221108 0.0008470 -0.0236054 0.9991530 0.0236054 0.9991530 0.0236054 0.0008470 -0.0236054
231233 0.0007941 -0.0225771 0.9992059 0.0225771 0.9992059 0.0225771 0.0007941 -0.0225771
241822 0.0007454 -0.0215937 0.9992546 0.0215937 0.9992546 0.0215937 0.0007454 -0.0215937
252896 0.0007006 -0.0206531 0.9992994 0.0206531 0.9992994 0.0206531 0.0007006 -0.0206531
264476 0.0006593 -0.0197535 0.9993407 0.0197535 0.9993407 0.0197535 0.0006593 -0.0197535
276587 0.0006211 -0.0188931 0.9993789 0.0188931 0.9993789 0.0188931 0.0006211 -0.0188931
289253 0.0005860 -0.0180702 0.9994140 0.0180702 0.9994140 0.0180702 0.0005860 -0.0180702
302498 0.0005534 -0.0172831 0.9994466 0.0172831 0.9994466 0.0172831 0.0005534 -0.0172831
316350 0.0005234 -0.0165303 0.9994766 0.0165303 0.9994766 0.0165303 0.0005234 -0.0165303
330837 0.0004956 -0.0158103 0.9995044 0.0158103 0.9995044 0.0158103 0.0004956 -0.0158103
345986 0.0004698 -0.0151216 0.9995302 0.0151216 0.9995302 0.0151216 0.0004698 -0.0151216
361830 0.0004460 -0.0144629 0.9995540 0.0144629 0.9995540 0.0144629 0.0004460 -0.0144629
378399 0.0004238 -0.0138329 0.9995762 0.0138329 0.9995762 0.0138329 0.0004238 -0.0138329
395726 0.0004033 -0.0132302 0.9995967 0.0132302 0.9995967 0.0132302 0.0004033 -0.0132302
413847 0.0003842 -0.0126537 0.9996158 0.0126537 0.9996158 0.0126537 0.0003842 -0.0126537
432798 0.0003664 -0.0121022 0.9996336 0.0121022 0.9996336 0.0121022 0.0003664 -0.0121022
452617 0.0003499 -0.0115747 0.9996501 0.0115747 0.9996501 0.0115747 0.0003499 -0.0115747
473344 0.0003345 -0.0110701 0.9996655 0.0110701 0.9996655 0.0110701 0.0003345 -0.0110701
495019 0.0003202 -0.0105873 0.9996798 0.0105873 0.9996798 0.0105873 0.0003202 -0.0105873
517687 0.0003069 -0.0101255 0.9996931 0.0101255 0.9996931 0.0101255 0.0003069 -0.0101255
541393 0.0002944 -0.0096836 0.9997056 0.0096836 0.9997056 0.0096836 0.0002944 -0.0096836
566185 0.0002829 -0.0092609 0.9997171 0.0092609 0.9997171 0.0092609 0.0002829 -0.0092609
592111 0.0002721 -0.0088565 0.9997279 0.0088565 0.9997279 0.0088565 0.0002721 -0.0088565
619225 0.0002620 -0.0084695 0.9997380 0.0084695 0.9997380 0.0084695 0.0002620 -0.0084695
647581 0.0002527 -0.0080993 0.9997473 0.0080993 0.9997473 0.0080993 0.0002527 -0.0080993
677235 0.0002440 -0.0077450 0.9997560 0.0077450 0.9997560 0.0077450 0.0002440 -0.0077450
708247 0.0002359 -0.0074061 0.9997641 0.0074061 0.9997641 0.0074061 0.0002359 -0.0074061
740679 0.0002283 -0.0070817 0.9997717 0.0070817 0.9997717 0.0070817 0.0002283 -0.0070817
774597 0.0002213 -0.0067714 0.9997787 0.0067714 0.9997787 0.0067714 0.0002213 -0.0067714
810067 0.0002148 -0.0064745 0.9997852 0.0064745 0.9997852 0.0064745 0.0002148 -0.0064745
847162 0.0002088 -0.0061903 0.9997912 0.0061903 0.9997912 0.0061903 0.0002088 -0.0061903
885955 0.0002032 -0.0059184 0.9997968 0.0059184 0.9997968 0.0059184 0.0002032 -0.0059184
926525 0.0001980 -0.0056582 0.9998020 0.0056582 0.9998020 0.0056582 0.0001980 -0.0056582
968953 0.0001932 -0.0054092 0.9998068 0.0054092 0.9998068 0.0054092 0.0001932 -0.0054092
1013323 0.0001887 -0.0051709 0.9998113 0.0051709 0.9998113 0.0051709 0.0001887 -0.0051709
1059725 0.0001846 -0.0049429 0.9998154 0.0049429 0.9998154 0.0049429 0.0001846 -0.0049429
1108252 0.0001808 -0.0047247 0.9998192 0.0047247 0.9998192 0.0047247 0.0001808 -0.0047247
1159002 0.0001773 -0.0045158 0.9998227 0.0045158 0.9998227 0.0045158 0.0001773 -0.0045158
1212075 0.0001740 -0.0043159 0.9998260 0.0043159 0.9998260 0.0043159 0.0001740 -0.0043159
1267578 0.0001710 -0.0041246 0.9998290 0.0041246 0.9998290 0.0041246 0.0001710 -0.0041246
1325623 0.0001683 -0.0039415 0.9998317 0.0039415 0.9998317 0.0039415 0.0001683 -0.0039415
1386327 0.0001657 -0.0037662 0.9998343 0.0037662 0.9998343 0.0037662 0.0001657 -0.0037662
1449809 0.0001634 -0.0035984 0.9998366 0.0035984 0.9998366 0.0035984 0.0001634 -0.0035984
1516199 0.0001613 -0.0034378 0.9998387 0.0034378 0.9998387 0.0034378 0.0001613 -0.0034378
1585629 0.0001593 -0.0032840 0.9998407 0.0032840 0.9998407 0.0032840 0.0001593 -0.0032840
1658239 0.0001575 -0.0031367 0.9998425 0.0031367 0.9998425 0.0031367 0.0001575 -0.0031367
1734173 0.0001558 -0.0029957 0.9998442 0.0029957 0.9998442 0.0029957 0.0001558 -0.0029957
1813585 0.0001543 -0.0028607 0.9998457 0.0028607 0.9998457 0.0028607 0.0001543 -0.0028607
1896632 0.0001529 -0.0027314 0.9998471 0.0027314 0.9998471 0.0027314 0.0001529 -0.0027314
1983483 0.0001517 -0.0026076 0.9998483 0.0026076 0.9998483 0.0026076 0.0001517 -0.0026076
2074311 0.0001505 -0.0024889 0.9998495 0.0024889 0.9998495 0.0024889 0.0001505 -0.0024889
