!Murata Part Number: GRM155R11H471KA01
!These Parameters are Measured in Series Mode Connection
!Data Generated on Mar 30, 2021
!       o--ll--o
!Port1            Port2
!       o------o
!Operation Temp=25[degC], DC Bias Voltage=0[V]
!Freq. Start=100[Hz] Stop=6[GHz] 401[Steps]
# Hz S RI R 50
!Freq.(Hz) S11(Real) S11(Imag) S21(Real) S21(Imag) S12(Real) S12(Imag) S22(Real) S22(Imag)
100 0.9999998 -0.0000306 0.0000002 0.0000306 0.0000002 0.0000306 0.9999998 -0.0000306
105 0.9999998 -0.0000320 0.0000002 0.0000320 0.0000002 0.0000320 0.9999998 -0.0000320
109 0.9999998 -0.0000335 0.0000002 0.0000335 0.0000002 0.0000335 0.9999998 -0.0000335
114 0.9999997 -0.0000350 0.0000003 0.0000350 0.0000003 0.0000350 0.9999997 -0.0000350
120 0.9999997 -0.0000366 0.0000003 0.0000366 0.0000003 0.0000366 0.9999997 -0.0000366
125 0.9999997 -0.0000383 0.0000003 0.0000383 0.0000003 0.0000383 0.9999997 -0.0000383
131 0.9999997 -0.0000400 0.0000003 0.0000400 0.0000003 0.0000400 0.9999997 -0.0000400
137 0.9999997 -0.0000419 0.0000003 0.0000419 0.0000003 0.0000419 0.9999997 -0.0000419
143 0.9999997 -0.0000438 0.0000003 0.0000438 0.0000003 0.0000438 0.9999997 -0.0000438
150 0.9999997 -0.0000458 0.0000003 0.0000458 0.0000003 0.0000458 0.9999997 -0.0000458
156 0.9999997 -0.0000478 0.0000003 0.0000478 0.0000003 0.0000478 0.9999997 -0.0000478
164 0.9999997 -0.0000500 0.0000003 0.0000500 0.0000003 0.0000500 0.9999997 -0.0000500
171 0.9999997 -0.0000523 0.0000003 0.0000523 0.0000003 0.0000523 0.9999997 -0.0000523
179 0.9999997 -0.0000547 0.0000003 0.0000547 0.0000003 0.0000547 0.9999997 -0.0000547
187 0.9999996 -0.0000572 0.0000004 0.0000572 0.0000004 0.0000572 0.9999996 -0.0000572
196 0.9999996 -0.0000598 0.0000004 0.0000598 0.0000004 0.0000598 0.9999996 -0.0000598
205 0.9999996 -0.0000625 0.0000004 0.0000625 0.0000004 0.0000625 0.9999996 -0.0000625
214 0.9999996 -0.0000654 0.0000004 0.0000654 0.0000004 0.0000654 0.9999996 -0.0000654
224 0.9999996 -0.0000684 0.0000004 0.0000684 0.0000004 0.0000684 0.9999996 -0.0000684
234 0.9999996 -0.0000715 0.0000004 0.0000715 0.0000004 0.0000715 0.9999996 -0.0000715
245 0.9999996 -0.0000747 0.0000004 0.0000747 0.0000004 0.0000747 0.9999996 -0.0000747
256 0.9999996 -0.0000782 0.0000004 0.0000782 0.0000004 0.0000782 0.9999996 -0.0000782
268 0.9999996 -0.0000817 0.0000004 0.0000817 0.0000004 0.0000817 0.9999996 -0.0000817
280 0.9999995 -0.0000855 0.0000005 0.0000855 0.0000005 0.0000855 0.9999995 -0.0000855
293 0.9999995 -0.0000894 0.0000005 0.0000894 0.0000005 0.0000894 0.9999995 -0.0000894
306 0.9999995 -0.0000934 0.0000005 0.0000934 0.0000005 0.0000934 0.9999995 -0.0000934
320 0.9999995 -0.0000977 0.0000005 0.0000977 0.0000005 0.0000977 0.9999995 -0.0000977
335 0.9999995 -0.0001022 0.0000005 0.0001022 0.0000005 0.0001022 0.9999995 -0.0001022
350 0.9999995 -0.0001068 0.0000005 0.0001068 0.0000005 0.0001068 0.9999995 -0.0001068
366 0.9999994 -0.0001117 0.0000006 0.0001117 0.0000006 0.0001117 0.9999994 -0.0001117
383 0.9999994 -0.0001168 0.0000006 0.0001168 0.0000006 0.0001168 0.9999994 -0.0001168
401 0.9999994 -0.0001222 0.0000006 0.0001222 0.0000006 0.0001222 0.9999994 -0.0001222
419 0.9999994 -0.0001277 0.0000006 0.0001277 0.0000006 0.0001277 0.9999994 -0.0001277
438 0.9999994 -0.0001336 0.0000006 0.0001336 0.0000006 0.0001336 0.9999994 -0.0001336
458 0.9999993 -0.0001397 0.0000007 0.0001397 0.0000007 0.0001397 0.9999993 -0.0001397
479 0.9999993 -0.0001461 0.0000007 0.0001461 0.0000007 0.0001461 0.9999993 -0.0001461
501 0.9999993 -0.0001527 0.0000007 0.0001527 0.0000007 0.0001527 0.9999993 -0.0001527
524 0.9999993 -0.0001597 0.0000007 0.0001597 0.0000007 0.0001597 0.9999993 -0.0001597
548 0.9999992 -0.0001670 0.0000008 0.0001670 0.0000008 0.0001670 0.9999992 -0.0001670
573 0.9999992 -0.0001746 0.0000008 0.0001746 0.0000008 0.0001746 0.9999992 -0.0001746
600 0.9999992 -0.0001826 0.0000008 0.0001826 0.0000008 0.0001826 0.9999992 -0.0001826
627 0.9999991 -0.0001910 0.0000009 0.0001910 0.0000009 0.0001910 0.9999991 -0.0001910
656 0.9999991 -0.0001997 0.0000009 0.0001997 0.0000009 0.0001997 0.9999991 -0.0001997
686 0.9999991 -0.0002088 0.0000009 0.0002088 0.0000009 0.0002088 0.9999991 -0.0002088
717 0.9999990 -0.0002184 0.0000010 0.0002184 0.0000010 0.0002184 0.9999990 -0.0002184
750 0.9999990 -0.0002283 0.0000010 0.0002283 0.0000010 0.0002283 0.9999990 -0.0002283
784 0.9999989 -0.0002388 0.0000011 0.0002388 0.0000011 0.0002388 0.9999989 -0.0002388
820 0.9999989 -0.0002497 0.0000011 0.0002497 0.0000011 0.0002497 0.9999989 -0.0002497
858 0.9999988 -0.0002611 0.0000012 0.0002611 0.0000012 0.0002611 0.9999988 -0.0002611
897 0.9999988 -0.0002730 0.0000012 0.0002730 0.0000012 0.0002730 0.9999988 -0.0002730
938 0.9999987 -0.0002855 0.0000013 0.0002855 0.0000013 0.0002855 0.9999987 -0.0002855
981 0.9999986 -0.0002986 0.0000014 0.0002986 0.0000014 0.0002986 0.9999986 -0.0002986
1026 0.9999986 -0.0003122 0.0000014 0.0003122 0.0000014 0.0003122 0.9999986 -0.0003122
1073 0.9999985 -0.0003265 0.0000015 0.0003265 0.0000015 0.0003265 0.9999985 -0.0003265
1122 0.9999984 -0.0003414 0.0000016 0.0003414 0.0000016 0.0003414 0.9999984 -0.0003414
1174 0.9999983 -0.0003570 0.0000017 0.0003570 0.0000017 0.0003570 0.9999983 -0.0003570
1227 0.9999982 -0.0003733 0.0000018 0.0003733 0.0000018 0.0003733 0.9999982 -0.0003733
1283 0.9999981 -0.0003903 0.0000019 0.0003903 0.0000019 0.0003903 0.9999981 -0.0003903
1342 0.9999980 -0.0004081 0.0000020 0.0004081 0.0000020 0.0004081 0.9999980 -0.0004081
1404 0.9999979 -0.0004268 0.0000021 0.0004268 0.0000021 0.0004268 0.9999979 -0.0004268
1468 0.9999978 -0.0004463 0.0000022 0.0004463 0.0000022 0.0004463 0.9999978 -0.0004463
1535 0.9999977 -0.0004666 0.0000023 0.0004666 0.0000023 0.0004666 0.9999977 -0.0004666
1606 0.9999976 -0.0004880 0.0000024 0.0004880 0.0000024 0.0004880 0.9999976 -0.0004880
1679 0.9999974 -0.0005102 0.0000026 0.0005102 0.0000026 0.0005102 0.9999974 -0.0005102
1756 0.9999973 -0.0005335 0.0000027 0.0005335 0.0000027 0.0005335 0.9999973 -0.0005335
1836 0.9999971 -0.0005579 0.0000029 0.0005579 0.0000029 0.0005579 0.9999971 -0.0005579
1920 0.9999970 -0.0005833 0.0000030 0.0005833 0.0000030 0.0005833 0.9999970 -0.0005833
2008 0.9999968 -0.0006100 0.0000032 0.0006100 0.0000032 0.0006100 0.9999968 -0.0006100
2100 0.9999967 -0.0006378 0.0000033 0.0006378 0.0000033 0.0006378 0.9999967 -0.0006378
2196 0.9999965 -0.0006669 0.0000035 0.0006669 0.0000035 0.0006669 0.9999965 -0.0006669
2297 0.9999963 -0.0006973 0.0000037 0.0006973 0.0000037 0.0006973 0.9999963 -0.0006973
2402 0.9999961 -0.0007292 0.0000039 0.0007292 0.0000039 0.0007292 0.9999961 -0.0007292
2512 0.9999959 -0.0007624 0.0000041 0.0007624 0.0000041 0.0007624 0.9999959 -0.0007624
2627 0.9999957 -0.0007972 0.0000043 0.0007972 0.0000043 0.0007972 0.9999957 -0.0007972
2748 0.9999955 -0.0008336 0.0000045 0.0008336 0.0000045 0.0008336 0.9999955 -0.0008336
2873 0.9999952 -0.0008717 0.0000048 0.0008717 0.0000048 0.0008717 0.9999952 -0.0008717
3005 0.9999950 -0.0009114 0.0000050 0.0009114 0.0000050 0.0009114 0.9999950 -0.0009114
3143 0.9999947 -0.0009530 0.0000053 0.0009530 0.0000053 0.0009530 0.9999947 -0.0009530
3287 0.9999945 -0.0009965 0.0000055 0.0009965 0.0000055 0.0009965 0.9999945 -0.0009965
3437 0.9999942 -0.0010420 0.0000058 0.0010420 0.0000058 0.0010420 0.9999942 -0.0010420
3594 0.9999939 -0.0010896 0.0000061 0.0010896 0.0000061 0.0010896 0.9999939 -0.0010896
3759 0.9999936 -0.0011394 0.0000064 0.0011394 0.0000064 0.0011394 0.9999936 -0.0011394
3931 0.9999933 -0.0011914 0.0000067 0.0011914 0.0000067 0.0011914 0.9999933 -0.0011914
4111 0.9999929 -0.0012458 0.0000071 0.0012458 0.0000071 0.0012458 0.9999929 -0.0012458
4299 0.9999926 -0.0013027 0.0000074 0.0013027 0.0000074 0.0013027 0.9999926 -0.0013027
4496 0.9999922 -0.0013622 0.0000078 0.0013622 0.0000078 0.0013622 0.9999922 -0.0013622
4702 0.9999918 -0.0014244 0.0000082 0.0014244 0.0000082 0.0014244 0.9999918 -0.0014244
4918 0.9999913 -0.0014894 0.0000087 0.0014894 0.0000087 0.0014894 0.9999913 -0.0014894
5143 0.9999908 -0.0015575 0.0000092 0.0015575 0.0000092 0.0015575 0.9999908 -0.0015575
5378 0.9999903 -0.0016286 0.0000097 0.0016286 0.0000097 0.0016286 0.9999903 -0.0016286
5625 0.9999898 -0.0017030 0.0000102 0.0017030 0.0000102 0.0017030 0.9999898 -0.0017030
5882 0.9999892 -0.0017809 0.0000108 0.0017809 0.0000108 0.0017809 0.9999892 -0.0017809
6151 0.9999885 -0.0018622 0.0000115 0.0018622 0.0000115 0.0018622 0.9999885 -0.0018622
6433 0.9999879 -0.0019473 0.0000121 0.0019473 0.0000121 0.0019473 0.9999879 -0.0019473
6728 0.9999871 -0.0020363 0.0000129 0.0020363 0.0000129 0.0020363 0.9999871 -0.0020363
7036 0.9999863 -0.0021293 0.0000137 0.0021293 0.0000137 0.0021293 0.9999863 -0.0021293
7358 0.9999854 -0.0022266 0.0000146 0.0022266 0.0000146 0.0022266 0.9999854 -0.0022266
7695 0.9999845 -0.0023284 0.0000155 0.0023284 0.0000155 0.0023284 0.9999845 -0.0023284
8047 0.9999835 -0.0024348 0.0000165 0.0024348 0.0000165 0.0024348 0.9999835 -0.0024348
8416 0.9999824 -0.0025460 0.0000176 0.0025460 0.0000176 0.0025460 0.9999824 -0.0025460
8801 0.9999812 -0.0026623 0.0000188 0.0026623 0.0000188 0.0026623 0.9999812 -0.0026623
9204 0.9999799 -0.0027840 0.0000201 0.0027840 0.0000201 0.0027840 0.9999799 -0.0027840
9626 0.9999785 -0.0029111 0.0000215 0.0029111 0.0000215 0.0029111 0.9999785 -0.0029111
10066 0.9999770 -0.0030441 0.0000230 0.0030441 0.0000230 0.0030441 0.9999770 -0.0030441
10527 0.9999754 -0.0031832 0.0000246 0.0031832 0.0000246 0.0031832 0.9999754 -0.0031832
11009 0.9999736 -0.0033286 0.0000264 0.0033286 0.0000264 0.0033286 0.9999736 -0.0033286
11514 0.9999717 -0.0034806 0.0000283 0.0034806 0.0000283 0.0034806 0.9999717 -0.0034806
12041 0.9999697 -0.0036396 0.0000303 0.0036396 0.0000303 0.0036396 0.9999697 -0.0036396
12592 0.9999675 -0.0038057 0.0000325 0.0038057 0.0000325 0.0038057 0.9999675 -0.0038057
13169 0.9999651 -0.0039795 0.0000349 0.0039795 0.0000349 0.0039795 0.9999651 -0.0039795
13772 0.9999625 -0.0041612 0.0000375 0.0041612 0.0000375 0.0041612 0.9999625 -0.0041612
14402 0.9999597 -0.0043511 0.0000403 0.0043511 0.0000403 0.0043511 0.9999597 -0.0043511
15062 0.9999567 -0.0045497 0.0000433 0.0045497 0.0000433 0.0045497 0.9999567 -0.0045497
15752 0.9999535 -0.0047574 0.0000465 0.0047574 0.0000465 0.0047574 0.9999535 -0.0047574
16473 0.9999500 -0.0049745 0.0000500 0.0049745 0.0000500 0.0049745 0.9999500 -0.0049745
17227 0.9999462 -0.0052014 0.0000538 0.0052014 0.0000538 0.0052014 0.9999462 -0.0052014
18016 0.9999422 -0.0054387 0.0000578 0.0054387 0.0000578 0.0054387 0.9999422 -0.0054387
18841 0.9999379 -0.0056869 0.0000621 0.0056869 0.0000621 0.0056869 0.9999379 -0.0056869
19704 0.9999332 -0.0059463 0.0000668 0.0059463 0.0000668 0.0059463 0.9999332 -0.0059463
20606 0.9999282 -0.0062175 0.0000718 0.0062175 0.0000718 0.0062175 0.9999282 -0.0062175
21550 0.9999228 -0.0065010 0.0000772 0.0065010 0.0000772 0.0065010 0.9999228 -0.0065010
22537 0.9999170 -0.0067975 0.0000830 0.0067975 0.0000830 0.0067975 0.9999170 -0.0067975
23569 0.9999108 -0.0071074 0.0000892 0.0071074 0.0000892 0.0071074 0.9999108 -0.0071074
24648 0.9999040 -0.0074315 0.0000960 0.0074315 0.0000960 0.0074315 0.9999040 -0.0074315
25777 0.9998968 -0.0077704 0.0001032 0.0077704 0.0001032 0.0077704 0.9998968 -0.0077704
26957 0.9998891 -0.0081247 0.0001109 0.0081247 0.0001109 0.0081247 0.9998891 -0.0081247
28191 0.9998807 -0.0084951 0.0001193 0.0084951 0.0001193 0.0084951 0.9998807 -0.0084951
29482 0.9998717 -0.0088825 0.0001283 0.0088825 0.0001283 0.0088825 0.9998717 -0.0088825
30832 0.9998619 -0.0092875 0.0001381 0.0092875 0.0001381 0.0092875 0.9998619 -0.0092875
32244 0.9998514 -0.0097110 0.0001486 0.0097110 0.0001486 0.0097110 0.9998514 -0.0097110
33721 0.9998401 -0.0101538 0.0001599 0.0101538 0.0001599 0.0101538 0.9998401 -0.0101538
35265 0.9998278 -0.0106168 0.0001722 0.0106168 0.0001722 0.0106168 0.9998278 -0.0106168
36880 0.9998146 -0.0111010 0.0001854 0.0111010 0.0001854 0.0111010 0.9998146 -0.0111010
38569 0.9998002 -0.0116072 0.0001998 0.0116072 0.0001998 0.0116072 0.9998002 -0.0116072
40335 0.9997847 -0.0121366 0.0002153 0.0121366 0.0002153 0.0121366 0.9997847 -0.0121366
42182 0.9997679 -0.0126901 0.0002321 0.0126901 0.0002321 0.0126901 0.9997679 -0.0126901
44113 0.9997496 -0.0132690 0.0002504 0.0132690 0.0002504 0.0132690 0.9997496 -0.0132690
46134 0.9997298 -0.0138742 0.0002702 0.0138742 0.0002702 0.0138742 0.9997298 -0.0138742
48246 0.9997082 -0.0145071 0.0002918 0.0145071 0.0002918 0.0145071 0.9997082 -0.0145071
50455 0.9996848 -0.0151689 0.0003152 0.0151689 0.0003152 0.0151689 0.9996848 -0.0151689
52766 0.9996593 -0.0158609 0.0003407 0.0158609 0.0003407 0.0158609 0.9996593 -0.0158609
55182 0.9996316 -0.0165844 0.0003684 0.0165844 0.0003684 0.0165844 0.9996316 -0.0165844
57709 0.9996015 -0.0173410 0.0003985 0.0173410 0.0003985 0.0173410 0.9996015 -0.0173410
60352 0.9995686 -0.0181321 0.0004314 0.0181321 0.0004314 0.0181321 0.9995686 -0.0181321
63115 0.9995328 -0.0189593 0.0004672 0.0189593 0.0004672 0.0189593 0.9995328 -0.0189593
66005 0.9994939 -0.0198241 0.0005061 0.0198241 0.0005061 0.0198241 0.9994939 -0.0198241
69028 0.9994514 -0.0207284 0.0005486 0.0207284 0.0005486 0.0207284 0.9994514 -0.0207284
72189 0.9994050 -0.0216738 0.0005950 0.0216738 0.0005950 0.0216738 0.9994050 -0.0216738
75495 0.9993545 -0.0226623 0.0006455 0.0226623 0.0006455 0.0226623 0.9993545 -0.0226623
78952 0.9992994 -0.0236957 0.0007006 0.0236957 0.0007006 0.0236957 0.9992994 -0.0236957
82567 0.9992393 -0.0247761 0.0007607 0.0247761 0.0007607 0.0247761 0.9992393 -0.0247761
86348 0.9991738 -0.0259056 0.0008262 0.0259056 0.0008262 0.0259056 0.9991738 -0.0259056
90302 0.9991023 -0.0270863 0.0008977 0.0270863 0.0008977 0.0270863 0.9991023 -0.0270863
94437 0.9990243 -0.0283206 0.0009757 0.0283206 0.0009757 0.0283206 0.9990243 -0.0283206
98762 0.9989393 -0.0296108 0.0010607 0.0296108 0.0010607 0.0296108 0.9989393 -0.0296108
103284 0.9988465 -0.0309594 0.0011535 0.0309594 0.0011535 0.0309594 0.9988465 -0.0309594
108014 0.9987453 -0.0323690 0.0012547 0.0323690 0.0012547 0.0323690 0.9987453 -0.0323690
112960 0.9986350 -0.0338423 0.0013650 0.0338423 0.0013650 0.0338423 0.9986350 -0.0338423
118133 0.9985147 -0.0353822 0.0014853 0.0353822 0.0014853 0.0353822 0.9985147 -0.0353822
123542 0.9983835 -0.0369914 0.0016165 0.0369914 0.0016165 0.0369914 0.9983835 -0.0369914
129199 0.9982404 -0.0386731 0.0017596 0.0386731 0.0017596 0.0386731 0.9982404 -0.0386731
135116 0.9980845 -0.0404305 0.0019155 0.0404305 0.0019155 0.0404305 0.9980845 -0.0404305
141303 0.9979145 -0.0422668 0.0020855 0.0422668 0.0020855 0.0422668 0.9979145 -0.0422668
147774 0.9977292 -0.0441855 0.0022708 0.0441855 0.0022708 0.0441855 0.9977292 -0.0441855
154540 0.9975274 -0.0461901 0.0024726 0.0461901 0.0024726 0.0461901 0.9975274 -0.0461901
161617 0.9973074 -0.0482844 0.0026926 0.0482844 0.0026926 0.0482844 0.9973074 -0.0482844
169018 0.9970678 -0.0504723 0.0029322 0.0504723 0.0029322 0.0504723 0.9970678 -0.0504723
176758 0.9968067 -0.0527577 0.0031933 0.0527577 0.0031933 0.0527577 0.9968067 -0.0527577
184852 0.9965224 -0.0551448 0.0034776 0.0551448 0.0034776 0.0551448 0.9965224 -0.0551448
193316 0.9962127 -0.0576380 0.0037873 0.0576380 0.0037873 0.0576380 0.9962127 -0.0576380
202169 0.9958755 -0.0602418 0.0041245 0.0602418 0.0041245 0.0602418 0.9958755 -0.0602418
211427 0.9955082 -0.0629609 0.0044918 0.0629609 0.0044918 0.0629609 0.9955082 -0.0629609
221108 0.9951084 -0.0658000 0.0048916 0.0658000 0.0048916 0.0658000 0.9951084 -0.0658000
231233 0.9946730 -0.0687642 0.0053270 0.0687642 0.0053270 0.0687642 0.9946730 -0.0687642
241822 0.9941990 -0.0718587 0.0058010 0.0718587 0.0058010 0.0718587 0.9941990 -0.0718587
252896 0.9936829 -0.0750889 0.0063171 0.0750889 0.0063171 0.0750889 0.9936829 -0.0750889
264476 0.9931211 -0.0784603 0.0068789 0.0784603 0.0068789 0.0784603 0.9931211 -0.0784603
276587 0.9925095 -0.0819786 0.0074905 0.0819786 0.0074905 0.0819786 0.9925095 -0.0819786
289253 0.9918436 -0.0856496 0.0081564 0.0856496 0.0081564 0.0856496 0.9918436 -0.0856496
302498 0.9911186 -0.0894795 0.0088814 0.0894795 0.0088814 0.0894795 0.9911186 -0.0894795
316350 0.9903294 -0.0934743 0.0096706 0.0934743 0.0096706 0.0934743 0.9903294 -0.0934743
330837 0.9894702 -0.0976403 0.0105298 0.0976403 0.0105298 0.0976403 0.9894702 -0.0976403
345986 0.9885348 -0.1019840 0.0114652 0.1019840 0.0114652 0.1019840 0.9885348 -0.1019840
361830 0.9875165 -0.1065119 0.0124835 0.1065119 0.0124835 0.1065119 0.9875165 -0.1065119
378399 0.9864079 -0.1112306 0.0135921 0.1112306 0.0135921 0.1112306 0.9864079 -0.1112306
395726 0.9852011 -0.1161467 0.0147989 0.1161467 0.0147989 0.1161467 0.9852011 -0.1161467
413847 0.9838875 -0.1212668 0.0161125 0.1212668 0.0161125 0.1212668 0.9838875 -0.1212668
432798 0.9824578 -0.1265976 0.0175422 0.1265976 0.0175422 0.1265976 0.9824578 -0.1265976
452617 0.9809018 -0.1321455 0.0190982 0.1321455 0.0190982 0.1321455 0.9809018 -0.1321455
473344 0.9792087 -0.1379169 0.0207913 0.1379169 0.0207913 0.1379169 0.9792087 -0.1379169
495019 0.9773667 -0.1439182 0.0226333 0.1439182 0.0226333 0.1439182 0.9773667 -0.1439182
517687 0.9753632 -0.1501551 0.0246368 0.1501551 0.0246368 0.1501551 0.9753632 -0.1501551
541393 0.9731845 -0.1566334 0.0268155 0.1566334 0.0268155 0.1566334 0.9731845 -0.1566334
566185 0.9708161 -0.1633581 0.0291839 0.1633581 0.0291839 0.1633581 0.9708161 -0.1633581
592111 0.9682422 -0.1703340 0.0317578 0.1703340 0.0317578 0.1703340 0.9682422 -0.1703340
619225 0.9654463 -0.1775651 0.0345537 0.1775651 0.0345537 0.1775651 0.9654463 -0.1775651
647581 0.9624104 -0.1850546 0.0375896 0.1850546 0.0375896 0.1850546 0.9624104 -0.1850546
677235 0.9591157 -0.1928049 0.0408843 0.1928049 0.0408843 0.1928049 0.9591157 -0.1928049
708247 0.9555420 -0.2008173 0.0444580 0.2008173 0.0444580 0.2008173 0.9555420 -0.2008173
740679 0.9516683 -0.2090920 0.0483317 0.2090920 0.0483317 0.2090920 0.9516683 -0.2090920
774597 0.9474721 -0.2176276 0.0525279 0.2176276 0.0525279 0.2176276 0.9474721 -0.2176276
810067 0.9429300 -0.2264214 0.0570700 0.2264214 0.0570700 0.2264214 0.9429300 -0.2264214
847162 0.9380175 -0.2354687 0.0619825 0.2354687 0.0619825 0.2354687 0.9380175 -0.2354687
885955 0.9327093 -0.2447630 0.0672907 0.2447630 0.0672907 0.2447630 0.9327093 -0.2447630
926525 0.9269791 -0.2542954 0.0730209 0.2542954 0.0730209 0.2542954 0.9269791 -0.2542954
968953 0.9207998 -0.2640548 0.0792002 0.2640548 0.0792002 0.2640548 0.9207998 -0.2640548
1013323 0.9141440 -0.2740273 0.0858560 0.2740273 0.0858560 0.2740273 0.9141440 -0.2740273
1059725 0.9069837 -0.2841961 0.0930163 0.2841961 0.0930163 0.2841961 0.9069837 -0.2841961
1108252 0.8992910 -0.2945414 0.1007090 0.2945414 0.1007090 0.2945414 0.8992910 -0.2945414
1159002 0.8910382 -0.3050400 0.1089618 0.3050400 0.1089618 0.3050400 0.8910382 -0.3050400
1212075 0.8821982 -0.3156653 0.1178018 0.3156653 0.1178018 0.3156653 0.8821982 -0.3156653
1267578 0.8727446 -0.3263869 0.1272554 0.3263869 0.1272554 0.3263869 0.8727446 -0.3263869
1325623 0.8626527 -0.3371707 0.1373473 0.3371707 0.1373473 0.3371707 0.8626527 -0.3371707
1386327 0.8518996 -0.3479790 0.1481004 0.3479790 0.1481004 0.3479790 0.8518996 -0.3479790
1449809 0.8404647 -0.3587699 0.1595353 0.3587699 0.1595353 0.3587699 0.8404647 -0.3587699
1516199 0.8283304 -0.3694980 0.1716696 0.3694980 0.1716696 0.3694980 0.8283304 -0.3694980
1585629 0.8154828 -0.3801142 0.1845172 0.3801142 0.1845172 0.3801142 0.8154828 -0.3801142
1658239 0.8019118 -0.3905659 0.1980882 0.3905659 0.1980882 0.3905659 0.8019118 -0.3905659
1734173 0.7876123 -0.4007978 0.2123877 0.4007978 0.2123877 0.4007978 0.7876123 -0.4007978
1813585 0.7725843 -0.4107517 0.2274157 0.4107517 0.2274157 0.4107517 0.7725843 -0.4107517
1896632 0.7568336 -0.4203674 0.2431664 0.4203674 0.2431664 0.4203674 0.7568336 -0.4203674
1983483 0.7403725 -0.4295833 0.2596275 0.4295833 0.2596275 0.4295833 0.7403725 -0.4295833
2074311 0.7232196 -0.4383373 0.2767804 0.4383373 0.2767804 0.4383373 0.7232196 -0.4383373
