!Murata Part Number: GRM155R71E223JA61
!These Parameters are Measured in Series Mode Connection
!Data Generated on Mar 30, 2021
!       o--ll--o
!Port1            Port2
!       o------o
!Operation Temp=25[degC], DC Bias Voltage=0[V]
!Freq. Start=100[Hz] Stop=6[GHz] 401[Steps]
# Hz S RI R 50
!Freq.(Hz) S11(Real) S11(Imag) S21(Real) S21(Imag) S12(Real) S12(Imag) S22(Real) S22(Imag)
100 0.9999906 -0.0013748 0.0000094 0.0013748 0.0000094 0.0013748 0.9999906 -0.0013748
105 0.9999901 -0.0014374 0.0000099 0.0014374 0.0000099 0.0014374 0.9999901 -0.0014374
109 0.9999896 -0.0015029 0.0000104 0.0015029 0.0000104 0.0015029 0.9999896 -0.0015029
114 0.9999890 -0.0015714 0.0000110 0.0015714 0.0000110 0.0015714 0.9999890 -0.0015714
120 0.9999884 -0.0016431 0.0000116 0.0016431 0.0000116 0.0016431 0.9999884 -0.0016431
125 0.9999878 -0.0017180 0.0000122 0.0017180 0.0000122 0.0017180 0.9999878 -0.0017180
131 0.9999872 -0.0017963 0.0000128 0.0017963 0.0000128 0.0017963 0.9999872 -0.0017963
137 0.9999865 -0.0018782 0.0000135 0.0018782 0.0000135 0.0018782 0.9999865 -0.0018782
143 0.9999858 -0.0019638 0.0000142 0.0019638 0.0000142 0.0019638 0.9999858 -0.0019638
150 0.9999850 -0.0020534 0.0000150 0.0020534 0.0000150 0.0020534 0.9999850 -0.0020534
156 0.9999842 -0.0021471 0.0000158 0.0021471 0.0000158 0.0021471 0.9999842 -0.0021471
164 0.9999834 -0.0022450 0.0000166 0.0022450 0.0000166 0.0022450 0.9999834 -0.0022450
171 0.9999825 -0.0023475 0.0000175 0.0023475 0.0000175 0.0023475 0.9999825 -0.0023475
179 0.9999815 -0.0024546 0.0000185 0.0024546 0.0000185 0.0024546 0.9999815 -0.0024546
187 0.9999805 -0.0025666 0.0000195 0.0025666 0.0000195 0.0025666 0.9999805 -0.0025666
196 0.9999794 -0.0026838 0.0000206 0.0026838 0.0000206 0.0026838 0.9999794 -0.0026838
205 0.9999782 -0.0028063 0.0000218 0.0028063 0.0000218 0.0028063 0.9999782 -0.0028063
214 0.9999769 -0.0029344 0.0000231 0.0029344 0.0000231 0.0029344 0.9999769 -0.0029344
224 0.9999756 -0.0030684 0.0000244 0.0030684 0.0000244 0.0030684 0.9999756 -0.0030684
234 0.9999741 -0.0032085 0.0000259 0.0032085 0.0000259 0.0032085 0.9999741 -0.0032085
245 0.9999725 -0.0033550 0.0000275 0.0033550 0.0000275 0.0033550 0.9999725 -0.0033550
256 0.9999708 -0.0035082 0.0000292 0.0035082 0.0000292 0.0035082 0.9999708 -0.0035082
268 0.9999690 -0.0036684 0.0000310 0.0036684 0.0000310 0.0036684 0.9999690 -0.0036684
280 0.9999670 -0.0038359 0.0000330 0.0038359 0.0000330 0.0038359 0.9999670 -0.0038359
293 0.9999648 -0.0040111 0.0000352 0.0040111 0.0000352 0.0040111 0.9999648 -0.0040111
306 0.9999625 -0.0041943 0.0000375 0.0041943 0.0000375 0.0041943 0.9999625 -0.0041943
320 0.9999600 -0.0043859 0.0000400 0.0043859 0.0000400 0.0043859 0.9999600 -0.0043859
335 0.9999572 -0.0045862 0.0000428 0.0045862 0.0000428 0.0045862 0.9999572 -0.0045862
350 0.9999543 -0.0047956 0.0000457 0.0047956 0.0000457 0.0047956 0.9999543 -0.0047956
366 0.9999510 -0.0050147 0.0000490 0.0050147 0.0000490 0.0050147 0.9999510 -0.0050147
383 0.9999476 -0.0052437 0.0000524 0.0052437 0.0000524 0.0052437 0.9999476 -0.0052437
401 0.9999438 -0.0054831 0.0000562 0.0054831 0.0000562 0.0054831 0.9999438 -0.0054831
419 0.9999397 -0.0057335 0.0000603 0.0057335 0.0000603 0.0057335 0.9999397 -0.0057335
438 0.9999353 -0.0059953 0.0000647 0.0059953 0.0000647 0.0059953 0.9999353 -0.0059953
458 0.9999305 -0.0062690 0.0000695 0.0062690 0.0000695 0.0062690 0.9999305 -0.0062690
479 0.9999253 -0.0065552 0.0000747 0.0065552 0.0000747 0.0065552 0.9999253 -0.0065552
501 0.9999196 -0.0068545 0.0000804 0.0068545 0.0000804 0.0068545 0.9999196 -0.0068545
524 0.9999135 -0.0071674 0.0000865 0.0071674 0.0000865 0.0071674 0.9999135 -0.0071674
548 0.9999070 -0.0074945 0.0000930 0.0074945 0.0000930 0.0074945 0.9999070 -0.0074945
573 0.9998998 -0.0078365 0.0001002 0.0078365 0.0001002 0.0078365 0.9998998 -0.0078365
600 0.9998921 -0.0081941 0.0001079 0.0081941 0.0001079 0.0081941 0.9998921 -0.0081941
627 0.9998838 -0.0085680 0.0001162 0.0085680 0.0001162 0.0085680 0.9998838 -0.0085680
656 0.9998748 -0.0089590 0.0001252 0.0089590 0.0001252 0.0089590 0.9998748 -0.0089590
686 0.9998650 -0.0093677 0.0001350 0.0093677 0.0001350 0.0093677 0.9998650 -0.0093677
717 0.9998545 -0.0097951 0.0001455 0.0097951 0.0001455 0.0097951 0.9998545 -0.0097951
750 0.9998430 -0.0102419 0.0001570 0.0102419 0.0001570 0.0102419 0.9998430 -0.0102419
784 0.9998307 -0.0107090 0.0001693 0.0107090 0.0001693 0.0107090 0.9998307 -0.0107090
820 0.9998173 -0.0111975 0.0001827 0.0111975 0.0001827 0.0111975 0.9998173 -0.0111975
858 0.9998029 -0.0117082 0.0001971 0.0117082 0.0001971 0.0117082 0.9998029 -0.0117082
897 0.9997873 -0.0122421 0.0002127 0.0122421 0.0002127 0.0122421 0.9997873 -0.0122421
938 0.9997703 -0.0128004 0.0002297 0.0128004 0.0002297 0.0128004 0.9997703 -0.0128004
981 0.9997520 -0.0133842 0.0002480 0.0133842 0.0002480 0.0133842 0.9997520 -0.0133842
1026 0.9997321 -0.0139945 0.0002679 0.0139945 0.0002679 0.0139945 0.9997321 -0.0139945
1073 0.9997106 -0.0146327 0.0002894 0.0146327 0.0002894 0.0146327 0.9997106 -0.0146327
1122 0.9996872 -0.0153000 0.0003128 0.0153000 0.0003128 0.0153000 0.9996872 -0.0153000
1174 0.9996619 -0.0159977 0.0003381 0.0159977 0.0003381 0.0159977 0.9996619 -0.0159977
1227 0.9996343 -0.0167272 0.0003657 0.0167272 0.0003657 0.0167272 0.9996343 -0.0167272
1283 0.9996044 -0.0174899 0.0003956 0.0174899 0.0003956 0.0174899 0.9996044 -0.0174899
1342 0.9995719 -0.0182874 0.0004281 0.0182874 0.0004281 0.0182874 0.9995719 -0.0182874
1404 0.9995366 -0.0191213 0.0004634 0.0191213 0.0004634 0.0191213 0.9995366 -0.0191213
1468 0.9994982 -0.0199932 0.0005018 0.0199932 0.0005018 0.0199932 0.9994982 -0.0199932
1535 0.9994564 -0.0209049 0.0005436 0.0209049 0.0005436 0.0209049 0.9994564 -0.0209049
1606 0.9994110 -0.0218580 0.0005890 0.0218580 0.0005890 0.0218580 0.9994110 -0.0218580
1679 0.9993614 -0.0228546 0.0006386 0.0228546 0.0006386 0.0228546 0.9993614 -0.0228546
1756 0.9993075 -0.0238965 0.0006925 0.0238965 0.0006925 0.0238965 0.9993075 -0.0238965
1836 0.9992487 -0.0249859 0.0007513 0.0249859 0.0007513 0.0249859 0.9992487 -0.0249859
1920 0.9991847 -0.0261248 0.0008153 0.0261248 0.0008153 0.0261248 0.9991847 -0.0261248
2008 0.9991149 -0.0273155 0.0008851 0.0273155 0.0008851 0.0273155 0.9991149 -0.0273155
2100 0.9990387 -0.0285604 0.0009613 0.0285604 0.0009613 0.0285604 0.9990387 -0.0285604
2196 0.9989558 -0.0298617 0.0010442 0.0298617 0.0010442 0.0298617 0.9989558 -0.0298617
2297 0.9988653 -0.0312221 0.0011347 0.0312221 0.0011347 0.0312221 0.9988653 -0.0312221
2402 0.9987666 -0.0326442 0.0012334 0.0326442 0.0012334 0.0326442 0.9987666 -0.0326442
2512 0.9986589 -0.0341307 0.0013411 0.0341307 0.0013411 0.0341307 0.9986589 -0.0341307
2627 0.9985415 -0.0356845 0.0014585 0.0356845 0.0014585 0.0356845 0.9985415 -0.0356845
2748 0.9984135 -0.0373086 0.0015865 0.0373086 0.0015865 0.0373086 0.9984135 -0.0373086
2873 0.9982738 -0.0390060 0.0017262 0.0390060 0.0017262 0.0390060 0.9982738 -0.0390060
3005 0.9981215 -0.0407801 0.0018785 0.0407801 0.0018785 0.0407801 0.9981215 -0.0407801
3143 0.9979553 -0.0426341 0.0020447 0.0426341 0.0020447 0.0426341 0.9979553 -0.0426341
3287 0.9977741 -0.0445715 0.0022259 0.0445715 0.0022259 0.0445715 0.9977741 -0.0445715
3437 0.9975765 -0.0465961 0.0024235 0.0465961 0.0024235 0.0465961 0.9975765 -0.0465961
3594 0.9973610 -0.0487116 0.0026390 0.0487116 0.0026390 0.0487116 0.9973610 -0.0487116
3759 0.9971260 -0.0509219 0.0028740 0.0509219 0.0028740 0.0509219 0.9971260 -0.0509219
3931 0.9968697 -0.0532312 0.0031303 0.0532312 0.0031303 0.0532312 0.9968697 -0.0532312
4111 0.9965903 -0.0556436 0.0034097 0.0556436 0.0034097 0.0556436 0.9965903 -0.0556436
4299 0.9962857 -0.0581637 0.0037143 0.0581637 0.0037143 0.0581637 0.9962857 -0.0581637
4496 0.9959537 -0.0607959 0.0040463 0.0607959 0.0040463 0.0607959 0.9959537 -0.0607959
4702 0.9955917 -0.0635451 0.0044083 0.0635451 0.0044083 0.0635451 0.9955917 -0.0635451
4918 0.9951971 -0.0664162 0.0048029 0.0664162 0.0048029 0.0664162 0.9951971 -0.0664162
5143 0.9947669 -0.0694143 0.0052331 0.0694143 0.0052331 0.0694143 0.9947669 -0.0694143
5378 0.9942982 -0.0725446 0.0057018 0.0725446 0.0057018 0.0725446 0.9942982 -0.0725446
5625 0.9937872 -0.0758127 0.0062128 0.0758127 0.0062128 0.0758127 0.9937872 -0.0758127
5882 0.9932304 -0.0792241 0.0067696 0.0792241 0.0067696 0.0792241 0.9932304 -0.0792241
6151 0.9926235 -0.0827846 0.0073765 0.0827846 0.0073765 0.0827846 0.9926235 -0.0827846
6433 0.9919622 -0.0865003 0.0080378 0.0865003 0.0080378 0.0865003 0.9919622 -0.0865003
6728 0.9912416 -0.0903772 0.0087584 0.0903772 0.0087584 0.0903772 0.9912416 -0.0903772
7036 0.9904563 -0.0944216 0.0095437 0.0944216 0.0095437 0.0944216 0.9904563 -0.0944216
7358 0.9896006 -0.0986398 0.0103994 0.0986398 0.0103994 0.0986398 0.9896006 -0.0986398
7695 0.9886683 -0.1030386 0.0113317 0.1030386 0.0113317 0.1030386 0.9886683 -0.1030386
8047 0.9876525 -0.1076243 0.0123475 0.1076243 0.0123475 0.1076243 0.9876525 -0.1076243
8416 0.9865458 -0.1124039 0.0134542 0.1124039 0.0134542 0.1124039 0.9865458 -0.1124039
8801 0.9853403 -0.1173839 0.0146597 0.1173839 0.0146597 0.1173839 0.9853403 -0.1173839
9204 0.9840273 -0.1225712 0.0159727 0.1225712 0.0159727 0.1225712 0.9840273 -0.1225712
9626 0.9825973 -0.1279726 0.0174027 0.1279726 0.0174027 0.1279726 0.9825973 -0.1279726
10066 0.9810401 -0.1335946 0.0189599 0.1335946 0.0189599 0.1335946 0.9810401 -0.1335946
10527 0.9793449 -0.1394440 0.0206551 0.1394440 0.0206551 0.1394440 0.9793449 -0.1394440
11009 0.9774996 -0.1455269 0.0225004 0.1455269 0.0225004 0.1455269 0.9774996 -0.1455269
11514 0.9754915 -0.1518496 0.0245085 0.1518496 0.0245085 0.1518496 0.9754915 -0.1518496
12041 0.9733070 -0.1584179 0.0266930 0.1584179 0.0266930 0.1584179 0.9733070 -0.1584179
12592 0.9709311 -0.1652372 0.0290689 0.1652372 0.0290689 0.1652372 0.9709311 -0.1652372
13169 0.9683483 -0.1723123 0.0316517 0.1723123 0.0316517 0.1723123 0.9683483 -0.1723123
13772 0.9655414 -0.1796475 0.0344586 0.1796475 0.0344586 0.1796475 0.9655414 -0.1796475
14402 0.9624926 -0.1872464 0.0375074 0.1872464 0.0375074 0.1872464 0.9624926 -0.1872464
15062 0.9591825 -0.1951115 0.0408175 0.1951115 0.0408175 0.1951115 0.9591825 -0.1951115
15752 0.9555910 -0.2032444 0.0444090 0.2032444 0.0444090 0.2032444 0.9555910 -0.2032444
16473 0.9516963 -0.2116456 0.0483037 0.2116456 0.0483037 0.2116456 0.9516963 -0.2116456
17227 0.9474759 -0.2203142 0.0525241 0.2203142 0.0525241 0.2203142 0.9474759 -0.2203142
18016 0.9429059 -0.2292475 0.0570941 0.2292475 0.0570941 0.2292475 0.9429059 -0.2292475
18841 0.9379613 -0.2384413 0.0620387 0.2384413 0.0620387 0.2384413 0.9379613 -0.2384413
19704 0.9326161 -0.2478892 0.0673839 0.2478892 0.0673839 0.2478892 0.9326161 -0.2478892
20606 0.9268434 -0.2575829 0.0731566 0.2575829 0.0731566 0.2575829 0.9268434 -0.2575829
21550 0.9206156 -0.2675114 0.0793844 0.2675114 0.0793844 0.2675114 0.9206156 -0.2675114
22537 0.9139042 -0.2776610 0.0860958 0.2776610 0.0860958 0.2776610 0.9139042 -0.2776610
23569 0.9066805 -0.2880151 0.0933195 0.2880151 0.0933195 0.2880151 0.9066805 -0.2880151
24648 0.8989155 -0.2985541 0.1010845 0.2985541 0.1010845 0.2985541 0.8989155 -0.2985541
25777 0.8905804 -0.3092548 0.1094196 0.3092548 0.1094196 0.3092548 0.8905804 -0.3092548
26957 0.8816468 -0.3200905 0.1183532 0.3200905 0.1183532 0.3200905 0.8816468 -0.3200905
28191 0.8720871 -0.3310308 0.1279129 0.3310308 0.1279129 0.3310308 0.8720871 -0.3310308
29482 0.8618751 -0.3420411 0.1381249 0.3420411 0.1381249 0.3420411 0.8618751 -0.3420411
30832 0.8509862 -0.3530831 0.1490138 0.3530831 0.1490138 0.3530831 0.8509862 -0.3530831
32244 0.8393983 -0.3641143 0.1606017 0.3641143 0.1606017 0.3641143 0.8393983 -0.3641143
33721 0.8270923 -0.3750882 0.1729077 0.3750882 0.1729077 0.3750882 0.8270923 -0.3750882
35265 0.8140522 -0.3859545 0.1859478 0.3859545 0.1859478 0.3859545 0.8140522 -0.3859545
36880 0.8002666 -0.3966589 0.1997334 0.3966589 0.1997334 0.3966589 0.8002666 -0.3966589
38569 0.7857287 -0.4071441 0.2142713 0.4071441 0.2142713 0.4071441 0.7857287 -0.4071441
40335 0.7704369 -0.4173496 0.2295631 0.4173496 0.2295631 0.4173496 0.7704369 -0.4173496
42182 0.7543959 -0.4272125 0.2456041 0.4272125 0.2456041 0.4272125 0.7543959 -0.4272125
44113 0.7376169 -0.4366683 0.2623831 0.4366683 0.2623831 0.4366683 0.7376169 -0.4366683
46134 0.7201182 -0.4456512 0.2798818 0.4456512 0.2798818 0.4456512 0.7201182 -0.4456512
48246 0.7019252 -0.4540955 0.2980748 0.4540955 0.2980748 0.4540955 0.7019252 -0.4540955
50455 0.6830712 -0.4619363 0.3169288 0.4619363 0.3169288 0.4619363 0.6830712 -0.4619363
52766 0.6635973 -0.4691106 0.3364027 0.4691106 0.3364027 0.4691106 0.6635973 -0.4691106
55182 0.6435523 -0.4755582 0.3564477 0.4755582 0.3564477 0.4755582 0.6435523 -0.4755582
57709 0.6229922 -0.4812233 0.3770078 0.4812233 0.3770078 0.4812233 0.6229922 -0.4812233
60352 0.6019803 -0.4860551 0.3980197 0.4860551 0.3980197 0.4860551 0.6019803 -0.4860551
63115 0.5805863 -0.4900089 0.4194137 0.4900089 0.4194137 0.4900089 0.5805863 -0.4900089
66005 0.5588853 -0.4930476 0.4411147 0.4930476 0.4411147 0.4930476 0.5588853 -0.4930476
69028 0.5369573 -0.4951418 0.4630427 0.4951418 0.4630427 0.4951418 0.5369573 -0.4951418
72189 0.5148856 -0.4962709 0.4851144 0.4962709 0.4851144 0.4962709 0.5148856 -0.4962709
75495 0.4927560 -0.4964237 0.5072440 0.4964237 0.5072440 0.4964237 0.4927560 -0.4964237
78952 0.4706551 -0.4955982 0.5293449 0.4955982 0.5293449 0.4955982 0.4706551 -0.4955982
82567 0.4486691 -0.4938021 0.5513309 0.4938021 0.5513309 0.4938021 0.4486691 -0.4938021
86348 0.4268828 -0.4910525 0.5731172 0.4910525 0.5731172 0.4910525 0.4268828 -0.4910525
90302 0.4053776 -0.4873756 0.5946224 0.4873756 0.5946224 0.4873756 0.4053776 -0.4873756
94437 0.3842310 -0.4828058 0.6157690 0.4828058 0.6157690 0.4828058 0.3842310 -0.4828058
98762 0.3635151 -0.4773853 0.6364849 0.4773853 0.6364849 0.4773853 0.3635151 -0.4773853
103284 0.3432961 -0.4711629 0.6567039 0.4711629 0.6567039 0.4711629 0.3432961 -0.4711629
108014 0.3236330 -0.4641933 0.6763670 0.4641933 0.6763670 0.4641933 0.3236330 -0.4641933
112960 0.3045777 -0.4565357 0.6954223 0.4565357 0.6954223 0.4565357 0.3045777 -0.4565357
118133 0.2861741 -0.4482528 0.7138259 0.4482528 0.7138259 0.4482528 0.2861741 -0.4482528
123542 0.2684584 -0.4394095 0.7315416 0.4394095 0.7315416 0.4394095 0.2684584 -0.4394095
129199 0.2514588 -0.4300722 0.7485412 0.4300722 0.7485412 0.4300722 0.2514588 -0.4300722
135116 0.2351960 -0.4203074 0.7648040 0.4203074 0.7648040 0.4203074 0.2351960 -0.4203074
141303 0.2196834 -0.4101807 0.7803166 0.4101807 0.7803166 0.4101807 0.2196834 -0.4101807
147774 0.2049273 -0.3997564 0.7950727 0.3997564 0.7950727 0.3997564 0.2049273 -0.3997564
154540 0.1909279 -0.3890963 0.8090721 0.3890963 0.8090721 0.3890963 0.1909279 -0.3890963
161617 0.1776797 -0.3782595 0.8223203 0.3782595 0.8223203 0.3782595 0.1776797 -0.3782595
169018 0.1651720 -0.3673017 0.8348280 0.3673017 0.8348280 0.3673017 0.1651720 -0.3673017
176758 0.1533897 -0.3562747 0.8466103 0.3562747 0.8466103 0.3562747 0.1533897 -0.3562747
184852 0.1423140 -0.3452265 0.8576860 0.3452265 0.8576860 0.3452265 0.1423140 -0.3452265
193316 0.1319230 -0.3342011 0.8680770 0.3342011 0.8680770 0.3342011 0.1319230 -0.3342011
202169 0.1221923 -0.3232381 0.8778077 0.3232381 0.8778077 0.3232381 0.1221923 -0.3232381
211427 0.1130956 -0.3123731 0.8869044 0.3123731 0.8869044 0.3123731 0.1130956 -0.3123731
221108 0.1046051 -0.3016377 0.8953949 0.3016377 0.8953949 0.3016377 0.1046051 -0.3016377
231233 0.0966921 -0.2910596 0.9033079 0.2910596 0.9033079 0.2910596 0.0966921 -0.2910596
241822 0.0893274 -0.2806626 0.9106726 0.2806626 0.9106726 0.2806626 0.0893274 -0.2806626
252896 0.0824818 -0.2704672 0.9175182 0.2704672 0.9175182 0.2704672 0.0824818 -0.2704672
264476 0.0761260 -0.2604905 0.9238740 0.2604905 0.9238740 0.2604905 0.0761260 -0.2604905
276587 0.0702313 -0.2507467 0.9297687 0.2507467 0.9297687 0.2507467 0.0702313 -0.2507467
289253 0.0647695 -0.2412470 0.9352305 0.2412470 0.9352305 0.2412470 0.0647695 -0.2412470
302498 0.0597134 -0.2320002 0.9402866 0.2320002 0.9402866 0.2320002 0.0597134 -0.2320002
316350 0.0550367 -0.2230129 0.9449633 0.2230129 0.9449633 0.2230129 0.0550367 -0.2230129
330837 0.0507141 -0.2142895 0.9492859 0.2142895 0.9492859 0.2142895 0.0507141 -0.2142895
345986 0.0467214 -0.2058327 0.9532786 0.2058327 0.9532786 0.2058327 0.0467214 -0.2058327
361830 0.0430358 -0.1976435 0.9569642 0.1976435 0.9569642 0.1976435 0.0430358 -0.1976435
378399 0.0396354 -0.1897216 0.9603646 0.1897216 0.9603646 0.1897216 0.0396354 -0.1897216
395726 0.0364998 -0.1820655 0.9635002 0.1820655 0.9635002 0.1820655 0.0364998 -0.1820655
413847 0.0336097 -0.1746725 0.9663903 0.1746725 0.9663903 0.1746725 0.0336097 -0.1746725
432798 0.0309468 -0.1675392 0.9690532 0.1675392 0.9690532 0.1675392 0.0309468 -0.1675392
452617 0.0284943 -0.1606614 0.9715057 0.1606614 0.9715057 0.1606614 0.0284943 -0.1606614
473344 0.0262363 -0.1540341 0.9737637 0.1540341 0.9737637 0.1540341 0.0262363 -0.1540341
495019 0.0241579 -0.1476521 0.9758421 0.1476521 0.9758421 0.1476521 0.0241579 -0.1476521
517687 0.0222455 -0.1415097 0.9777545 0.1415097 0.9777545 0.1415097 0.0222455 -0.1415097
541393 0.0204863 -0.1356007 0.9795137 0.1356007 0.9795137 0.1356007 0.0204863 -0.1356007
566185 0.0188683 -0.1299190 0.9811317 0.1299190 0.9811317 0.1299190 0.0188683 -0.1299190
592111 0.0173806 -0.1244580 0.9826194 0.1244580 0.9826194 0.1244580 0.0173806 -0.1244580
619225 0.0160130 -0.1192112 0.9839870 0.1192112 0.9839870 0.1192112 0.0160130 -0.1192112
647581 0.0147560 -0.1141720 0.9852440 0.1141720 0.9852440 0.1141720 0.0147560 -0.1141720
677235 0.0136010 -0.1093337 0.9863990 0.1093337 0.9863990 0.1093337 0.0136010 -0.1093337
708247 0.0125397 -0.1046898 0.9874603 0.1046898 0.9874603 0.1046898 0.0125397 -0.1046898
740679 0.0115649 -0.1002336 0.9884351 0.1002336 0.9884351 0.1002336 0.0115649 -0.1002336
774597 0.0106695 -0.0959587 0.9893305 0.0959587 0.9893305 0.0959587 0.0106695 -0.0959587
810067 0.0098473 -0.0918587 0.9901527 0.0918587 0.9901527 0.0918587 0.0098473 -0.0918587
847162 0.0090924 -0.0879273 0.9909076 0.0879273 0.9909076 0.0879273 0.0090924 -0.0879273
885955 0.0083993 -0.0841584 0.9916007 0.0841584 0.9916007 0.0841584 0.0083993 -0.0841584
926525 0.0077631 -0.0805459 0.9922369 0.0805459 0.9922369 0.0805459 0.0077631 -0.0805459
968953 0.0071791 -0.0770839 0.9928209 0.0770839 0.9928209 0.0770839 0.0071791 -0.0770839
1013323 0.0066431 -0.0737667 0.9933569 0.0737667 0.9933569 0.0737667 0.0066431 -0.0737667
1059725 0.0061513 -0.0705888 0.9938487 0.0705888 0.9938487 0.0705888 0.0061513 -0.0705888
1108252 0.0056999 -0.0675448 0.9943001 0.0675448 0.9943001 0.0675448 0.0056999 -0.0675448
1159002 0.0052856 -0.0646293 0.9947144 0.0646293 0.9947144 0.0646293 0.0052856 -0.0646293
1212075 0.0049055 -0.0618373 0.9950945 0.0618373 0.9950945 0.0618373 0.0049055 -0.0618373
1267578 0.0045567 -0.0591639 0.9954433 0.0591639 0.9954433 0.0591639 0.0045567 -0.0591639
1325623 0.0042365 -0.0566042 0.9957635 0.0566042 0.9957635 0.0566042 0.0042365 -0.0566042
1386327 0.0039426 -0.0541538 0.9960574 0.0541538 0.9960574 0.0541538 0.0039426 -0.0541538
1449809 0.0036728 -0.0518080 0.9963272 0.0518080 0.9963272 0.0518080 0.0036728 -0.0518080
1516199 0.0034251 -0.0495627 0.9965749 0.0495627 0.9965749 0.0495627 0.0034251 -0.0495627
1585629 0.0031976 -0.0474136 0.9968024 0.0474136 0.9968024 0.0474136 0.0031976 -0.0474136
1658239 0.0029886 -0.0453567 0.9970114 0.0453567 0.9970114 0.0453567 0.0029886 -0.0453567
1734173 0.0027966 -0.0433883 0.9972034 0.0433883 0.9972034 0.0433883 0.0027966 -0.0433883
1813585 0.0026201 -0.0415045 0.9973799 0.0415045 0.9973799 0.0415045 0.0026201 -0.0415045
1896632 0.0024579 -0.0397019 0.9975421 0.0397019 0.9975421 0.0397019 0.0024579 -0.0397019
1983483 0.0023086 -0.0379769 0.9976914 0.0379769 0.9976914 0.0379769 0.0023086 -0.0379769
2074311 0.0021712 -0.0363262 0.9978288 0.0363262 0.9978288 0.0363262 0.0021712 -0.0363262
