!Murata Part Number: GRM155C81H473KE14
!These Parameters are Measured in Series Mode Connection
!Data Generated on Mar 30, 2021
!       o--ll--o
!Port1            Port2
!       o------o
!Operation Temp=25[degC], DC Bias Voltage=0[V]
!Freq. Start=100[Hz] Stop=6[GHz] 401[Steps]
# Hz S RI R 50
!Freq.(Hz) S11(Real) S11(Imag) S21(Real) S21(Imag) S12(Real) S12(Imag) S22(Real) S22(Imag)
100 0.9999755 -0.0028908 0.0000245 0.0028908 0.0000245 0.0028908 0.9999755 -0.0028908
105 0.9999741 -0.0030226 0.0000259 0.0030226 0.0000259 0.0030226 0.9999741 -0.0030226
109 0.9999726 -0.0031605 0.0000274 0.0031605 0.0000274 0.0031605 0.9999726 -0.0031605
114 0.9999710 -0.0033046 0.0000290 0.0033046 0.0000290 0.0033046 0.9999710 -0.0033046
120 0.9999692 -0.0034553 0.0000308 0.0034553 0.0000308 0.0034553 0.9999692 -0.0034553
125 0.9999674 -0.0036129 0.0000326 0.0036129 0.0000326 0.0036129 0.9999674 -0.0036129
131 0.9999654 -0.0037778 0.0000346 0.0037778 0.0000346 0.0037778 0.9999654 -0.0037778
137 0.9999632 -0.0039501 0.0000368 0.0039501 0.0000368 0.0039501 0.9999632 -0.0039501
143 0.9999609 -0.0041304 0.0000391 0.0041304 0.0000391 0.0041304 0.9999609 -0.0041304
150 0.9999584 -0.0043188 0.0000416 0.0043188 0.0000416 0.0043188 0.9999584 -0.0043188
156 0.9999558 -0.0045159 0.0000442 0.0045159 0.0000442 0.0045159 0.9999558 -0.0045159
164 0.9999529 -0.0047220 0.0000471 0.0047220 0.0000471 0.0047220 0.9999529 -0.0047220
171 0.9999498 -0.0049376 0.0000502 0.0049376 0.0000502 0.0049376 0.9999498 -0.0049376
179 0.9999464 -0.0051629 0.0000536 0.0051629 0.0000536 0.0051629 0.9999464 -0.0051629
187 0.9999428 -0.0053986 0.0000572 0.0053986 0.0000572 0.0053986 0.9999428 -0.0053986
196 0.9999389 -0.0056450 0.0000611 0.0056450 0.0000611 0.0056450 0.9999389 -0.0056450
205 0.9999347 -0.0059027 0.0000653 0.0059027 0.0000653 0.0059027 0.9999347 -0.0059027
214 0.9999301 -0.0061721 0.0000699 0.0061721 0.0000699 0.0061721 0.9999301 -0.0061721
224 0.9999251 -0.0064538 0.0000749 0.0064538 0.0000749 0.0064538 0.9999251 -0.0064538
234 0.9999197 -0.0067484 0.0000803 0.0067484 0.0000803 0.0067484 0.9999197 -0.0067484
245 0.9999139 -0.0070564 0.0000861 0.0070564 0.0000861 0.0070564 0.9999139 -0.0070564
256 0.9999076 -0.0073785 0.0000924 0.0073785 0.0000924 0.0073785 0.9999076 -0.0073785
268 0.9999008 -0.0077152 0.0000992 0.0077152 0.0000992 0.0077152 0.9999008 -0.0077152
280 0.9998934 -0.0080673 0.0001066 0.0080673 0.0001066 0.0080673 0.9998934 -0.0080673
293 0.9998854 -0.0084355 0.0001146 0.0084355 0.0001146 0.0084355 0.9998854 -0.0084355
306 0.9998768 -0.0088204 0.0001232 0.0088204 0.0001232 0.0088204 0.9998768 -0.0088204
320 0.9998674 -0.0092229 0.0001326 0.0092229 0.0001326 0.0092229 0.9998674 -0.0092229
335 0.9998573 -0.0096438 0.0001427 0.0096438 0.0001427 0.0096438 0.9998573 -0.0096438
350 0.9998463 -0.0100838 0.0001537 0.0100838 0.0001537 0.0100838 0.9998463 -0.0100838
366 0.9998344 -0.0105439 0.0001656 0.0105439 0.0001656 0.0105439 0.9998344 -0.0105439
383 0.9998215 -0.0110250 0.0001785 0.0110250 0.0001785 0.0110250 0.9998215 -0.0110250
401 0.9998075 -0.0115280 0.0001925 0.0115280 0.0001925 0.0115280 0.9998075 -0.0115280
419 0.9997923 -0.0120539 0.0002077 0.0120539 0.0002077 0.0120539 0.9997923 -0.0120539
438 0.9997759 -0.0126038 0.0002241 0.0126038 0.0002241 0.0126038 0.9997759 -0.0126038
458 0.9997580 -0.0131787 0.0002420 0.0131787 0.0002420 0.0131787 0.9997580 -0.0131787
479 0.9997387 -0.0137799 0.0002613 0.0137799 0.0002613 0.0137799 0.9997387 -0.0137799
501 0.9997177 -0.0144084 0.0002823 0.0144084 0.0002823 0.0144084 0.9997177 -0.0144084
524 0.9996949 -0.0150656 0.0003051 0.0150656 0.0003051 0.0150656 0.9996949 -0.0150656
548 0.9996702 -0.0157528 0.0003298 0.0157528 0.0003298 0.0157528 0.9996702 -0.0157528
573 0.9996433 -0.0164713 0.0003567 0.0164713 0.0003567 0.0164713 0.9996433 -0.0164713
600 0.9996141 -0.0172225 0.0003859 0.0172225 0.0003859 0.0172225 0.9996141 -0.0172225
627 0.9995823 -0.0180080 0.0004177 0.0180080 0.0004177 0.0180080 0.9995823 -0.0180080
656 0.9995478 -0.0188293 0.0004522 0.0188293 0.0004522 0.0188293 0.9995478 -0.0188293
686 0.9995102 -0.0196879 0.0004898 0.0196879 0.0004898 0.0196879 0.9995102 -0.0196879
717 0.9994693 -0.0205857 0.0005307 0.0205857 0.0005307 0.0205857 0.9994693 -0.0205857
750 0.9994247 -0.0215243 0.0005753 0.0215243 0.0005753 0.0215243 0.9994247 -0.0215243
784 0.9993763 -0.0225057 0.0006237 0.0225057 0.0006237 0.0225057 0.9993763 -0.0225057
820 0.9993235 -0.0235317 0.0006765 0.0235317 0.0006765 0.0235317 0.9993235 -0.0235317
858 0.9992659 -0.0246043 0.0007341 0.0246043 0.0007341 0.0246043 0.9992659 -0.0246043
897 0.9992033 -0.0257258 0.0007967 0.0257258 0.0007967 0.0257258 0.9992033 -0.0257258
938 0.9991350 -0.0268981 0.0008650 0.0268981 0.0008650 0.0268981 0.9991350 -0.0268981
981 0.9990606 -0.0281237 0.0009394 0.0281237 0.0009394 0.0281237 0.9990606 -0.0281237
1026 0.9989795 -0.0294049 0.0010205 0.0294049 0.0010205 0.0294049 0.9989795 -0.0294049
1073 0.9988911 -0.0307442 0.0011089 0.0307442 0.0011089 0.0307442 0.9988911 -0.0307442
1122 0.9987948 -0.0321442 0.0012052 0.0321442 0.0012052 0.0321442 0.9987948 -0.0321442
1174 0.9986898 -0.0336076 0.0013102 0.0336076 0.0013102 0.0336076 0.9986898 -0.0336076
1227 0.9985753 -0.0351372 0.0014247 0.0351372 0.0014247 0.0351372 0.9985753 -0.0351372
1283 0.9984505 -0.0367359 0.0015495 0.0367359 0.0015495 0.0367359 0.9984505 -0.0367359
1342 0.9983145 -0.0384068 0.0016855 0.0384068 0.0016855 0.0384068 0.9983145 -0.0384068
1404 0.9981662 -0.0401531 0.0018338 0.0401531 0.0018338 0.0401531 0.9981662 -0.0401531
1468 0.9980046 -0.0419781 0.0019954 0.0419781 0.0019954 0.0419781 0.9980046 -0.0419781
1535 0.9978284 -0.0438853 0.0021716 0.0438853 0.0021716 0.0438853 0.9978284 -0.0438853
1606 0.9976364 -0.0458783 0.0023636 0.0458783 0.0023636 0.0458783 0.9976364 -0.0458783
1679 0.9974271 -0.0479608 0.0025729 0.0479608 0.0025729 0.0479608 0.9974271 -0.0479608
1756 0.9971990 -0.0501367 0.0028010 0.0501367 0.0028010 0.0501367 0.9971990 -0.0501367
1836 0.9969503 -0.0524101 0.0030497 0.0524101 0.0030497 0.0524101 0.9969503 -0.0524101
1920 0.9966793 -0.0547852 0.0033207 0.0547852 0.0033207 0.0547852 0.9966793 -0.0547852
2008 0.9963839 -0.0572664 0.0036161 0.0572664 0.0036161 0.0572664 0.9963839 -0.0572664
2100 0.9960620 -0.0598582 0.0039380 0.0598582 0.0039380 0.0598582 0.9960620 -0.0598582
2196 0.9957111 -0.0625653 0.0042889 0.0625653 0.0042889 0.0625653 0.9957111 -0.0625653
2297 0.9953286 -0.0653927 0.0046714 0.0653927 0.0046714 0.0653927 0.9953286 -0.0653927
2402 0.9949117 -0.0683454 0.0050883 0.0683454 0.0050883 0.0683454 0.9949117 -0.0683454
2512 0.9944572 -0.0714286 0.0055428 0.0714286 0.0055428 0.0714286 0.9944572 -0.0714286
2627 0.9939619 -0.0746478 0.0060381 0.0746478 0.0060381 0.0746478 0.9939619 -0.0746478
2748 0.9934219 -0.0780084 0.0065781 0.0780084 0.0065781 0.0780084 0.9934219 -0.0780084
2873 0.9928333 -0.0815163 0.0071667 0.0815163 0.0071667 0.0815163 0.9928333 -0.0815163
3005 0.9921918 -0.0851774 0.0078082 0.0851774 0.0078082 0.0851774 0.9921918 -0.0851774
3143 0.9914924 -0.0889977 0.0085076 0.0889977 0.0085076 0.0889977 0.9914924 -0.0889977
3287 0.9907301 -0.0929834 0.0092699 0.0929834 0.0092699 0.0929834 0.9907301 -0.0929834
3437 0.9898993 -0.0971408 0.0101007 0.0971408 0.0101007 0.0971408 0.9898993 -0.0971408
3594 0.9889937 -0.1014763 0.0110063 0.1014763 0.0110063 0.1014763 0.9889937 -0.1014763
3759 0.9880068 -0.1059966 0.0119932 0.1059966 0.0119932 0.1059966 0.9880068 -0.1059966
3931 0.9869313 -0.1107082 0.0130687 0.1107082 0.0130687 0.1107082 0.9869313 -0.1107082
4111 0.9857594 -0.1156178 0.0142406 0.1156178 0.0142406 0.1156178 0.9857594 -0.1156178
4299 0.9844827 -0.1207320 0.0155173 0.1207320 0.0155173 0.1207320 0.9844827 -0.1207320
4496 0.9830920 -0.1260576 0.0169080 0.1260576 0.0169080 0.1260576 0.9830920 -0.1260576
4702 0.9815775 -0.1316012 0.0184225 0.1316012 0.0184225 0.1316012 0.9815775 -0.1316012
4918 0.9799284 -0.1373692 0.0200716 0.1373692 0.0200716 0.1373692 0.9799284 -0.1373692
5143 0.9781334 -0.1433680 0.0218666 0.1433680 0.0218666 0.1433680 0.9781334 -0.1433680
5378 0.9761799 -0.1496037 0.0238201 0.1496037 0.0238201 0.1496037 0.9761799 -0.1496037
5625 0.9740548 -0.1560822 0.0259452 0.1560822 0.0259452 0.1560822 0.9740548 -0.1560822
5882 0.9717437 -0.1628090 0.0282563 0.1628090 0.0282563 0.1628090 0.9717437 -0.1628090
6151 0.9692313 -0.1697891 0.0307687 0.1697891 0.0307687 0.1697891 0.9692313 -0.1697891
6433 0.9665014 -0.1770268 0.0334986 0.1770268 0.0334986 0.1770268 0.9665014 -0.1770268
6728 0.9635364 -0.1845261 0.0364636 0.1845261 0.0364636 0.1845261 0.9635364 -0.1845261
7036 0.9603177 -0.1922898 0.0396823 0.1922898 0.0396823 0.1922898 0.9603177 -0.1922898
7358 0.9568257 -0.2003200 0.0431743 0.2003200 0.0431743 0.2003200 0.9568257 -0.2003200
7695 0.9530394 -0.2086175 0.0469606 0.2086175 0.0469606 0.2086175 0.9530394 -0.2086175
8047 0.9489368 -0.2171822 0.0510632 0.2171822 0.0510632 0.2171822 0.9489368 -0.2171822
8416 0.9444945 -0.2260121 0.0555055 0.2260121 0.0555055 0.2260121 0.9444945 -0.2260121
8801 0.9396881 -0.2351039 0.0603119 0.2351039 0.0603119 0.2351039 0.9396881 -0.2351039
9204 0.9344923 -0.2444521 0.0655077 0.2444521 0.0655077 0.2444521 0.9344923 -0.2444521
9626 0.9288805 -0.2540496 0.0711195 0.2540496 0.0711195 0.2540496 0.9288805 -0.2540496
10066 0.9228253 -0.2638864 0.0771747 0.2638864 0.0771747 0.2638864 0.9228253 -0.2638864
10527 0.9162987 -0.2739504 0.0837013 0.2739504 0.0837013 0.2739504 0.9162987 -0.2739504
11009 0.9092718 -0.2842264 0.0907282 0.2842264 0.0907282 0.2842264 0.9092718 -0.2842264
11514 0.9017157 -0.2946962 0.0982843 0.2946962 0.0982843 0.2946962 0.9017157 -0.2946962
12041 0.8936013 -0.3053383 0.1063987 0.3053383 0.1063987 0.3053383 0.8936013 -0.3053383
12592 0.8848995 -0.3161277 0.1151005 0.3161277 0.1151005 0.3161277 0.8848995 -0.3161277
13169 0.8755822 -0.3270355 0.1244178 0.3270355 0.1244178 0.3270355 0.8755822 -0.3270355
13772 0.8656222 -0.3380290 0.1343778 0.3380290 0.1343778 0.3380290 0.8656222 -0.3380290
14402 0.8549936 -0.3490714 0.1450064 0.3490714 0.1450064 0.3490714 0.8549936 -0.3490714
15062 0.8436729 -0.3601218 0.1563271 0.3601218 0.1563271 0.3601218 0.8436729 -0.3601218
15752 0.8316391 -0.3711349 0.1683609 0.3711349 0.1683609 0.3711349 0.8316391 -0.3711349
16473 0.8188745 -0.3820617 0.1811255 0.3820617 0.1811255 0.3820617 0.8188745 -0.3820617
17227 0.8053654 -0.3928490 0.1946346 0.3928490 0.1946346 0.3928490 0.8053654 -0.3928490
18016 0.7911025 -0.4034401 0.2088975 0.4034401 0.2088975 0.4034401 0.7911025 -0.4034401
18841 0.7760819 -0.4137748 0.2239181 0.4137748 0.2239181 0.4137748 0.7760819 -0.4137748
19704 0.7603057 -0.4237905 0.2396943 0.4237905 0.2396943 0.4237905 0.7603057 -0.4237905
20606 0.7437823 -0.4334223 0.2562177 0.4334223 0.2562177 0.4334223 0.7437823 -0.4334223
21550 0.7265274 -0.4426037 0.2734726 0.4426037 0.2734726 0.4426037 0.7265274 -0.4426037
22537 0.7085640 -0.4512682 0.2914360 0.4512682 0.2914360 0.4512682 0.7085640 -0.4512682
23569 0.6899229 -0.4593495 0.3100771 0.4593495 0.3100771 0.4593495 0.6899229 -0.4593495
24648 0.6706430 -0.4667828 0.3293570 0.4667828 0.3293570 0.4667828 0.6706430 -0.4667828
25777 0.6507710 -0.4735062 0.3492290 0.4735062 0.3492290 0.4735062 0.6507710 -0.4735062
26957 0.6303614 -0.4794616 0.3696386 0.4794616 0.3696386 0.4794616 0.6303614 -0.4794616
28191 0.6094759 -0.4845957 0.3905241 0.4845957 0.3905241 0.4845957 0.6094759 -0.4845957
29482 0.5881832 -0.4888617 0.4118168 0.4888617 0.4118168 0.4888617 0.5881832 -0.4888617
30832 0.5665577 -0.4922197 0.4334423 0.4922197 0.4334423 0.4922197 0.5665577 -0.4922197
32244 0.5446790 -0.4946377 0.4553210 0.4946377 0.4553210 0.4946377 0.5446790 -0.4946377
33721 0.5226303 -0.4960928 0.4773697 0.4960928 0.4773697 0.4960928 0.5226303 -0.4960928
35265 0.5004976 -0.4965710 0.4995024 0.4965710 0.4995024 0.4965710 0.5004976 -0.4965710
36880 0.4783680 -0.4960681 0.5216320 0.4960681 0.5216320 0.4960681 0.4783680 -0.4960681
38569 0.4563284 -0.4945897 0.5436716 0.4945897 0.5436716 0.4945897 0.4563284 -0.4945897
40335 0.4344644 -0.4921507 0.5655356 0.4921507 0.5655356 0.4921507 0.4344644 -0.4921507
42182 0.4128587 -0.4887754 0.5871413 0.4887754 0.5871413 0.4887754 0.4128587 -0.4887754
44113 0.3915898 -0.4844965 0.6084102 0.4844965 0.6084102 0.4844965 0.3915898 -0.4844965
46134 0.3707314 -0.4793546 0.6292686 0.4793546 0.6292686 0.4793546 0.3707314 -0.4793546
48246 0.3503508 -0.4733972 0.6496492 0.4733972 0.6496492 0.4733972 0.3503508 -0.4733972
50455 0.3305087 -0.4666777 0.6694913 0.4666777 0.6694913 0.4666777 0.3305087 -0.4666777
52766 0.3112584 -0.4592541 0.6887416 0.4592541 0.6887416 0.4592541 0.3112584 -0.4592541
55182 0.2926456 -0.4511882 0.7073544 0.4511882 0.7073544 0.4511882 0.2926456 -0.4511882
57709 0.2747081 -0.4425443 0.7252919 0.4425443 0.7252919 0.4425443 0.2747081 -0.4425443
60352 0.2574759 -0.4333880 0.7425241 0.4333880 0.7425241 0.4333880 0.2574759 -0.4333880
63115 0.2409714 -0.4237853 0.7590286 0.4237853 0.7590286 0.4237853 0.2409714 -0.4237853
66005 0.2252095 -0.4138016 0.7747905 0.4138016 0.7747905 0.4138016 0.2252095 -0.4138016
69028 0.2101986 -0.4035009 0.7898014 0.4035009 0.7898014 0.4035009 0.2101986 -0.4035009
72189 0.1959405 -0.3929452 0.8040595 0.3929452 0.8040595 0.3929452 0.1959405 -0.3929452
75495 0.1824313 -0.3821937 0.8175687 0.3821937 0.8175687 0.3821937 0.1824313 -0.3821937
78952 0.1696621 -0.3713022 0.8303379 0.3713022 0.8303379 0.3713022 0.1696621 -0.3713022
82567 0.1576194 -0.3603233 0.8423806 0.3603233 0.8423806 0.3603233 0.1576194 -0.3603233
86348 0.1462859 -0.3493056 0.8537141 0.3493056 0.8537141 0.3493056 0.1462859 -0.3493056
90302 0.1356412 -0.3382936 0.8643588 0.3382936 0.8643588 0.3382936 0.1356412 -0.3382936
94437 0.1256621 -0.3273281 0.8743379 0.3273281 0.8743379 0.3273281 0.1256621 -0.3273281
98762 0.1163235 -0.3164456 0.8836765 0.3164456 0.8836765 0.3164456 0.1163235 -0.3164456
103284 0.1075987 -0.3056787 0.8924013 0.3056787 0.8924013 0.3056787 0.1075987 -0.3056787
108014 0.0994599 -0.2950563 0.9005401 0.2950563 0.9005401 0.2950563 0.0994599 -0.2950563
112960 0.0918787 -0.2846034 0.9081213 0.2846034 0.9081213 0.2846034 0.0918787 -0.2846034
118133 0.0848264 -0.2743418 0.9151736 0.2743418 0.9151736 0.2743418 0.0848264 -0.2743418
123542 0.0782743 -0.2642898 0.9217257 0.2642898 0.9217257 0.2642898 0.0782743 -0.2642898
129199 0.0721938 -0.2544627 0.9278062 0.2544627 0.9278062 0.2544627 0.0721938 -0.2544627
135116 0.0665572 -0.2448731 0.9334428 0.2448731 0.9334428 0.2448731 0.0665572 -0.2448731
141303 0.0613372 -0.2355310 0.9386628 0.2355310 0.9386628 0.2355310 0.0613372 -0.2355310
147774 0.0565074 -0.2264441 0.9434926 0.2264441 0.9434926 0.2264441 0.0565074 -0.2264441
154540 0.0520424 -0.2176178 0.9479576 0.2176178 0.9479576 0.2176178 0.0520424 -0.2176178
161617 0.0479178 -0.2090558 0.9520822 0.2090558 0.9520822 0.2090558 0.0479178 -0.2090558
169018 0.0441103 -0.2007601 0.9558897 0.2007601 0.9558897 0.2007601 0.0441103 -0.2007601
176758 0.0405978 -0.1927312 0.9594022 0.1927312 0.9594022 0.1927312 0.0405978 -0.1927312
184852 0.0373592 -0.1849682 0.9626408 0.1849682 0.9626408 0.1849682 0.0373592 -0.1849682
193316 0.0343748 -0.1774694 0.9656252 0.1774694 0.9656252 0.1774694 0.0343748 -0.1774694
202169 0.0316259 -0.1702317 0.9683741 0.1702317 0.9683741 0.1702317 0.0316259 -0.1702317
211427 0.0290949 -0.1632514 0.9709051 0.1632514 0.9709051 0.1632514 0.0290949 -0.1632514
221108 0.0267654 -0.1565241 0.9732346 0.1565241 0.9732346 0.1565241 0.0267654 -0.1565241
231233 0.0246221 -0.1500449 0.9753779 0.1500449 0.9753779 0.1500449 0.0246221 -0.1500449
241822 0.0226507 -0.1438081 0.9773493 0.1438081 0.9773493 0.1438081 0.0226507 -0.1438081
252896 0.0208377 -0.1378079 0.9791623 0.1378079 0.9791623 0.1378079 0.0208377 -0.1378079
264476 0.0191708 -0.1320382 0.9808292 0.1320382 0.9808292 0.1320382 0.0191708 -0.1320382
276587 0.0176384 -0.1264926 0.9823616 0.1264926 0.9823616 0.1264926 0.0176384 -0.1264926
289253 0.0162300 -0.1211644 0.9837700 0.1211644 0.9837700 0.1211644 0.0162300 -0.1211644
302498 0.0149357 -0.1160471 0.9850643 0.1160471 0.9850643 0.1160471 0.0149357 -0.1160471
316350 0.0137463 -0.1111340 0.9862537 0.1111340 0.9862537 0.1111340 0.0137463 -0.1111340
330837 0.0126535 -0.1064183 0.9873465 0.1064183 0.9873465 0.1064183 0.0126535 -0.1064183
345986 0.0116495 -0.1018934 0.9883505 0.1018934 0.9883505 0.1018934 0.0116495 -0.1018934
361830 0.0107270 -0.0975525 0.9892730 0.0975525 0.9892730 0.0975525 0.0107270 -0.0975525
378399 0.0098796 -0.0933893 0.9901204 0.0933893 0.9901204 0.0933893 0.0098796 -0.0933893
395726 0.0091012 -0.0893973 0.9908988 0.0893973 0.9908988 0.0893973 0.0091012 -0.0893973
413847 0.0083861 -0.0855701 0.9916139 0.0855701 0.9916139 0.0855701 0.0083861 -0.0855701
432798 0.0077294 -0.0819017 0.9922706 0.0819017 0.9922706 0.0819017 0.0077294 -0.0819017
452617 0.0071262 -0.0783859 0.9928738 0.0783859 0.9928738 0.0783859 0.0071262 -0.0783859
473344 0.0065721 -0.0750170 0.9934279 0.0750170 0.9934279 0.0750170 0.0065721 -0.0750170
495019 0.0060633 -0.0717893 0.9939367 0.0717893 0.9939367 0.0717893 0.0060633 -0.0717893
517687 0.0055961 -0.0686972 0.9944039 0.0686972 0.9944039 0.0686972 0.0055961 -0.0686972
541393 0.0051671 -0.0657354 0.9948329 0.0657354 0.9948329 0.0657354 0.0051671 -0.0657354
566185 0.0047731 -0.0628988 0.9952269 0.0628988 0.9952269 0.0628988 0.0047731 -0.0628988
592111 0.0044114 -0.0601823 0.9955886 0.0601823 0.9955886 0.0601823 0.0044114 -0.0601823
619225 0.0040792 -0.0575811 0.9959208 0.0575811 0.9959208 0.0575811 0.0040792 -0.0575811
647581 0.0037743 -0.0550906 0.9962257 0.0550906 0.9962257 0.0550906 0.0037743 -0.0550906
677235 0.0034944 -0.0527063 0.9965056 0.0527063 0.9965056 0.0527063 0.0034944 -0.0527063
708247 0.0032374 -0.0504237 0.9967626 0.0504237 0.9967626 0.0504237 0.0032374 -0.0504237
740679 0.0030015 -0.0482388 0.9969985 0.0482388 0.9969985 0.0482388 0.0030015 -0.0482388
774597 0.0027849 -0.0461475 0.9972151 0.0461475 0.9972151 0.0461475 0.0027849 -0.0461475
810067 0.0025860 -0.0441460 0.9974140 0.0441460 0.9974140 0.0441460 0.0025860 -0.0441460
847162 0.0024034 -0.0422305 0.9975966 0.0422305 0.9975966 0.0422305 0.0024034 -0.0422305
885955 0.0022357 -0.0403974 0.9977643 0.0403974 0.9977643 0.0403974 0.0022357 -0.0403974
926525 0.0020817 -0.0386433 0.9979183 0.0386433 0.9979183 0.0386433 0.0020817 -0.0386433
968953 0.0019402 -0.0369649 0.9980598 0.0369649 0.9980598 0.0369649 0.0019402 -0.0369649
1013323 0.0018102 -0.0353589 0.9981898 0.0353589 0.9981898 0.0353589 0.0018102 -0.0353589
1059725 0.0016907 -0.0338223 0.9983093 0.0338223 0.9983093 0.0338223 0.0016907 -0.0338223
1108252 0.0015809 -0.0323522 0.9984191 0.0323522 0.9984191 0.0323522 0.0015809 -0.0323522
1159002 0.0014798 -0.0309457 0.9985202 0.0309457 0.9985202 0.0309457 0.0014798 -0.0309457
1212075 0.0013868 -0.0296002 0.9986132 0.0296002 0.9986132 0.0296002 0.0013868 -0.0296002
1267578 0.0013012 -0.0283129 0.9986988 0.0283129 0.9986988 0.0283129 0.0013012 -0.0283129
1325623 0.0012223 -0.0270814 0.9987777 0.0270814 0.9987777 0.0270814 0.0012223 -0.0270814
1386327 0.0011496 -0.0259033 0.9988504 0.0259033 0.9988504 0.0259033 0.0011496 -0.0259033
1449809 0.0010826 -0.0247763 0.9989174 0.0247763 0.9989174 0.0247763 0.0010826 -0.0247763
1516199 0.0010207 -0.0236981 0.9989793 0.0236981 0.9989793 0.0236981 0.0010207 -0.0236981
1585629 0.0009634 -0.0226667 0.9990366 0.0226667 0.9990366 0.0226667 0.0009634 -0.0226667
1658239 0.0009105 -0.0216800 0.9990895 0.0216800 0.9990895 0.0216800 0.0009105 -0.0216800
1734173 0.0008616 -0.0207360 0.9991384 0.0207360 0.9991384 0.0207360 0.0008616 -0.0207360
1813585 0.0008162 -0.0198329 0.9991838 0.0198329 0.9991838 0.0198329 0.0008162 -0.0198329
1896632 0.0007742 -0.0189689 0.9992258 0.0189689 0.9992258 0.0189689 0.0007742 -0.0189689
1983483 0.0007351 -0.0181423 0.9992649 0.0181423 0.9992649 0.0181423 0.0007351 -0.0181423
2074311 0.0006989 -0.0173513 0.9993011 0.0173513 0.9993011 0.0173513 0.0006989 -0.0173513
