!Murata Part Number: GRM15XR61A333KA86
!These Parameters are Measured in Series Mode Connection
!Data Generated on Mar 30, 2021
!       o--ll--o
!Port1            Port2
!       o------o
!Operation Temp=25[degC], DC Bias Voltage=0[V]
!Freq. Start=100[Hz] Stop=6[GHz] 401[Steps]
# Hz S RI R 50
!Freq.(Hz) S11(Real) S11(Imag) S21(Real) S21(Imag) S12(Real) S12(Imag) S22(Real) S22(Imag)
100 0.9999838 -0.0020475 0.0000162 0.0020475 0.0000162 0.0020475 0.9999838 -0.0020475
105 0.9999829 -0.0021409 0.0000171 0.0021409 0.0000171 0.0021409 0.9999829 -0.0021409
109 0.9999820 -0.0022385 0.0000180 0.0022385 0.0000180 0.0022385 0.9999820 -0.0022385
114 0.9999810 -0.0023406 0.0000190 0.0023406 0.0000190 0.0023406 0.9999810 -0.0023406
120 0.9999799 -0.0024474 0.0000201 0.0024474 0.0000201 0.0024474 0.9999799 -0.0024474
125 0.9999788 -0.0025590 0.0000212 0.0025590 0.0000212 0.0025590 0.9999788 -0.0025590
131 0.9999776 -0.0026758 0.0000224 0.0026758 0.0000224 0.0026758 0.9999776 -0.0026758
137 0.9999763 -0.0027978 0.0000237 0.0027978 0.0000237 0.0027978 0.9999763 -0.0027978
143 0.9999749 -0.0029255 0.0000251 0.0029255 0.0000251 0.0029255 0.9999749 -0.0029255
150 0.9999735 -0.0030590 0.0000265 0.0030590 0.0000265 0.0030590 0.9999735 -0.0030590
156 0.9999719 -0.0031985 0.0000281 0.0031985 0.0000281 0.0031985 0.9999719 -0.0031985
164 0.9999702 -0.0033444 0.0000298 0.0033444 0.0000298 0.0033444 0.9999702 -0.0033444
171 0.9999684 -0.0034970 0.0000316 0.0034970 0.0000316 0.0034970 0.9999684 -0.0034970
179 0.9999665 -0.0036566 0.0000335 0.0036566 0.0000335 0.0036566 0.9999665 -0.0036566
187 0.9999644 -0.0038235 0.0000356 0.0038235 0.0000356 0.0038235 0.9999644 -0.0038235
196 0.9999622 -0.0039979 0.0000378 0.0039979 0.0000378 0.0039979 0.9999622 -0.0039979
205 0.9999598 -0.0041804 0.0000402 0.0041804 0.0000402 0.0041804 0.9999598 -0.0041804
214 0.9999572 -0.0043711 0.0000428 0.0043711 0.0000428 0.0043711 0.9999572 -0.0043711
224 0.9999544 -0.0045706 0.0000456 0.0045706 0.0000456 0.0045706 0.9999544 -0.0045706
234 0.9999515 -0.0047792 0.0000485 0.0047792 0.0000485 0.0047792 0.9999515 -0.0047792
245 0.9999483 -0.0049973 0.0000517 0.0049973 0.0000517 0.0049973 0.9999483 -0.0049973
256 0.9999448 -0.0052254 0.0000552 0.0052254 0.0000552 0.0052254 0.9999448 -0.0052254
268 0.9999411 -0.0054639 0.0000589 0.0054639 0.0000589 0.0054639 0.9999411 -0.0054639
280 0.9999371 -0.0057133 0.0000629 0.0057133 0.0000629 0.0057133 0.9999371 -0.0057133
293 0.9999328 -0.0059741 0.0000672 0.0059741 0.0000672 0.0059741 0.9999328 -0.0059741
306 0.9999281 -0.0062468 0.0000719 0.0062468 0.0000719 0.0062468 0.9999281 -0.0062468
320 0.9999230 -0.0065319 0.0000770 0.0065319 0.0000770 0.0065319 0.9999230 -0.0065319
335 0.9999175 -0.0068301 0.0000825 0.0068301 0.0000825 0.0068301 0.9999175 -0.0068301
350 0.9999115 -0.0071419 0.0000885 0.0071419 0.0000885 0.0071419 0.9999115 -0.0071419
366 0.9999051 -0.0074679 0.0000949 0.0074679 0.0000949 0.0074679 0.9999051 -0.0074679
383 0.9998981 -0.0078088 0.0001019 0.0078088 0.0001019 0.0078088 0.9998981 -0.0078088
401 0.9998905 -0.0081653 0.0001095 0.0081653 0.0001095 0.0081653 0.9998905 -0.0081653
419 0.9998823 -0.0085380 0.0001177 0.0085380 0.0001177 0.0085380 0.9998823 -0.0085380
438 0.9998733 -0.0089277 0.0001267 0.0089277 0.0001267 0.0089277 0.9998733 -0.0089277
458 0.9998636 -0.0093352 0.0001364 0.0093352 0.0001364 0.0093352 0.9998636 -0.0093352
479 0.9998531 -0.0097613 0.0001469 0.0097613 0.0001469 0.0097613 0.9998531 -0.0097613
501 0.9998417 -0.0102068 0.0001583 0.0102068 0.0001583 0.0102068 0.9998417 -0.0102068
524 0.9998292 -0.0106726 0.0001708 0.0106726 0.0001708 0.0106726 0.9998292 -0.0106726
548 0.9998157 -0.0111596 0.0001843 0.0111596 0.0001843 0.0111596 0.9998157 -0.0111596
573 0.9998011 -0.0116688 0.0001989 0.0116688 0.0001989 0.0116688 0.9998011 -0.0116688
600 0.9997852 -0.0122012 0.0002148 0.0122012 0.0002148 0.0122012 0.9997852 -0.0122012
627 0.9997679 -0.0127578 0.0002321 0.0127578 0.0002321 0.0127578 0.9997679 -0.0127578
656 0.9997491 -0.0133397 0.0002509 0.0133397 0.0002509 0.0133397 0.9997491 -0.0133397
686 0.9997288 -0.0139481 0.0002712 0.0139481 0.0002712 0.0139481 0.9997288 -0.0139481
717 0.9997067 -0.0145841 0.0002933 0.0145841 0.0002933 0.0145841 0.9997067 -0.0145841
750 0.9996827 -0.0152491 0.0003173 0.0152491 0.0003173 0.0152491 0.9996827 -0.0152491
784 0.9996566 -0.0159443 0.0003434 0.0159443 0.0003434 0.0159443 0.9996566 -0.0159443
820 0.9996283 -0.0166711 0.0003717 0.0166711 0.0003717 0.0166711 0.9996283 -0.0166711
858 0.9995976 -0.0174310 0.0004024 0.0174310 0.0004024 0.0174310 0.9995976 -0.0174310
897 0.9995643 -0.0182253 0.0004357 0.0182253 0.0004357 0.0182253 0.9995643 -0.0182253
938 0.9995281 -0.0190558 0.0004719 0.0190558 0.0004719 0.0190558 0.9995281 -0.0190558
981 0.9994889 -0.0199239 0.0005111 0.0199239 0.0005111 0.0199239 0.9994889 -0.0199239
1026 0.9994462 -0.0208315 0.0005538 0.0208315 0.0005538 0.0208315 0.9994462 -0.0208315
1073 0.9994000 -0.0217803 0.0006000 0.0217803 0.0006000 0.0217803 0.9994000 -0.0217803
1122 0.9993497 -0.0227723 0.0006503 0.0227723 0.0006503 0.0227723 0.9993497 -0.0227723
1174 0.9992951 -0.0238092 0.0007049 0.0238092 0.0007049 0.0238092 0.9992951 -0.0238092
1227 0.9992359 -0.0248933 0.0007641 0.0248933 0.0007641 0.0248933 0.9992359 -0.0248933
1283 0.9991715 -0.0260265 0.0008285 0.0260265 0.0008285 0.0260265 0.9991715 -0.0260265
1342 0.9991015 -0.0272113 0.0008985 0.0272113 0.0008985 0.0272113 0.9991015 -0.0272113
1404 0.9990254 -0.0284498 0.0009746 0.0284498 0.0009746 0.0284498 0.9990254 -0.0284498
1468 0.9989426 -0.0297445 0.0010574 0.0297445 0.0010574 0.0297445 0.9989426 -0.0297445
1535 0.9988526 -0.0310980 0.0011474 0.0310980 0.0011474 0.0310980 0.9988526 -0.0310980
1606 0.9987546 -0.0325129 0.0012454 0.0325129 0.0012454 0.0325129 0.9987546 -0.0325129
1679 0.9986480 -0.0339920 0.0013520 0.0339920 0.0013520 0.0339920 0.9986480 -0.0339920
1756 0.9985319 -0.0355381 0.0014681 0.0355381 0.0014681 0.0355381 0.9985319 -0.0355381
1836 0.9984054 -0.0371542 0.0015946 0.0371542 0.0015946 0.0371542 0.9984054 -0.0371542
1920 0.9982677 -0.0388435 0.0017323 0.0388435 0.0017323 0.0388435 0.9982677 -0.0388435
2008 0.9981176 -0.0406093 0.0018824 0.0406093 0.0018824 0.0406093 0.9981176 -0.0406093
2100 0.9979540 -0.0424548 0.0020460 0.0424548 0.0020460 0.0424548 0.9979540 -0.0424548
2196 0.9977756 -0.0443838 0.0022244 0.0443838 0.0022244 0.0443838 0.9977756 -0.0443838
2297 0.9975811 -0.0463997 0.0024189 0.0463997 0.0024189 0.0463997 0.9975811 -0.0463997
2402 0.9973690 -0.0485065 0.0026310 0.0485065 0.0026310 0.0485065 0.9973690 -0.0485065
2512 0.9971376 -0.0507080 0.0028624 0.0507080 0.0028624 0.0507080 0.9971376 -0.0507080
2627 0.9968852 -0.0530085 0.0031148 0.0530085 0.0031148 0.0530085 0.9968852 -0.0530085
2748 0.9966098 -0.0554121 0.0033902 0.0554121 0.0033902 0.0554121 0.9966098 -0.0554121
2873 0.9963093 -0.0579233 0.0036907 0.0579233 0.0036907 0.0579233 0.9963093 -0.0579233
3005 0.9959814 -0.0605466 0.0040186 0.0605466 0.0040186 0.0605466 0.9959814 -0.0605466
3143 0.9956236 -0.0632869 0.0043764 0.0632869 0.0043764 0.0632869 0.9956236 -0.0632869
3287 0.9952332 -0.0661490 0.0047668 0.0661490 0.0047668 0.0661490 0.9952332 -0.0661490
3437 0.9948072 -0.0691380 0.0051928 0.0691380 0.0051928 0.0691380 0.9948072 -0.0691380
3594 0.9943424 -0.0722591 0.0056576 0.0722591 0.0056576 0.0722591 0.9943424 -0.0722591
3759 0.9938352 -0.0755177 0.0061648 0.0755177 0.0061648 0.0755177 0.9938352 -0.0755177
3931 0.9932819 -0.0789194 0.0067181 0.0789194 0.0067181 0.0789194 0.9932819 -0.0789194
4111 0.9926783 -0.0824698 0.0073217 0.0824698 0.0073217 0.0824698 0.9926783 -0.0824698
4299 0.9920199 -0.0861749 0.0079801 0.0861749 0.0079801 0.0861749 0.9920199 -0.0861749
4496 0.9913019 -0.0900406 0.0086981 0.0900406 0.0086981 0.0900406 0.9913019 -0.0900406
4702 0.9905188 -0.0940730 0.0094812 0.0940730 0.0094812 0.0940730 0.9905188 -0.0940730
4918 0.9896651 -0.0982785 0.0103349 0.0982785 0.0103349 0.0982785 0.9896651 -0.0982785
5143 0.9887344 -0.1026634 0.0112656 0.1026634 0.0112656 0.1026634 0.9887344 -0.1026634
5378 0.9877201 -0.1072342 0.0122799 0.1072342 0.0122799 0.1072342 0.9877201 -0.1072342
5625 0.9866147 -0.1119974 0.0133853 0.1119974 0.0133853 0.1119974 0.9866147 -0.1119974
5882 0.9854105 -0.1169595 0.0145895 0.1169595 0.0145895 0.1169595 0.9854105 -0.1169595
6151 0.9840988 -0.1221273 0.0159012 0.1221273 0.0159012 0.1221273 0.9840988 -0.1221273
6433 0.9826705 -0.1275073 0.0173295 0.1275073 0.0173295 0.1275073 0.9826705 -0.1275073
6728 0.9811156 -0.1331060 0.0188844 0.1331060 0.0188844 0.1331060 0.9811156 -0.1331060
7036 0.9794233 -0.1389300 0.0205767 0.1389300 0.0205767 0.1389300 0.9794233 -0.1389300
7358 0.9775820 -0.1449854 0.0224180 0.1449854 0.0224180 0.1449854 0.9775820 -0.1449854
7695 0.9755794 -0.1512784 0.0244206 0.1512784 0.0244206 0.1512784 0.9755794 -0.1512784
8047 0.9734018 -0.1578147 0.0265982 0.1578147 0.0265982 0.1578147 0.9734018 -0.1578147
8416 0.9710351 -0.1645997 0.0289649 0.1645997 0.0289649 0.1645997 0.9710351 -0.1645997
8801 0.9684636 -0.1716385 0.0315364 0.1716385 0.0315364 0.1716385 0.9684636 -0.1716385
9204 0.9656710 -0.1789354 0.0343290 0.1789354 0.0343290 0.1789354 0.9656710 -0.1789354
9626 0.9626395 -0.1864940 0.0373605 0.1864940 0.0373605 0.1864940 0.9626395 -0.1864940
10066 0.9593503 -0.1943173 0.0406497 0.1943173 0.0406497 0.1943173 0.9593503 -0.1943173
10527 0.9557835 -0.2024072 0.0442165 0.2024072 0.0442165 0.2024072 0.9557835 -0.2024072
11009 0.9519178 -0.2107643 0.0480822 0.2107643 0.0480822 0.2107643 0.9519178 -0.2107643
11514 0.9477309 -0.2193883 0.0522691 0.2193883 0.0522691 0.2193883 0.9477309 -0.2193883
12041 0.9431992 -0.2282770 0.0568008 0.2282770 0.0568008 0.2282770 0.9431992 -0.2282770
12592 0.9382978 -0.2374267 0.0617022 0.2374267 0.0617022 0.2374267 0.9382978 -0.2374267
13169 0.9330011 -0.2468317 0.0669989 0.2468317 0.0669989 0.2468317 0.9330011 -0.2468317
13772 0.9272821 -0.2564840 0.0727179 0.2564840 0.0727179 0.2564840 0.9272821 -0.2564840
14402 0.9211131 -0.2663735 0.0788869 0.2663735 0.0788869 0.2663735 0.9211131 -0.2663735
15062 0.9144657 -0.2764872 0.0855343 0.2764872 0.0855343 0.2764872 0.9144657 -0.2764872
15752 0.9073110 -0.2868092 0.0926890 0.2868092 0.0926890 0.2868092 0.9073110 -0.2868092
16473 0.8996196 -0.2973205 0.1003804 0.2973205 0.1003804 0.2973205 0.8996196 -0.2973205
17227 0.8913624 -0.3079986 0.1086376 0.3079986 0.1086376 0.3079986 0.8913624 -0.3079986
18016 0.8825104 -0.3188174 0.1174896 0.3188174 0.1174896 0.3188174 0.8825104 -0.3188174
18841 0.8730354 -0.3297470 0.1269646 0.3297470 0.1269646 0.3297470 0.8730354 -0.3297470
19704 0.8629107 -0.3407535 0.1370893 0.3407535 0.1370893 0.3407535 0.8629107 -0.3407535
20606 0.8521108 -0.3517989 0.1478892 0.3517989 0.1478892 0.3517989 0.8521108 -0.3517989
21550 0.8406128 -0.3628410 0.1593872 0.3628410 0.1593872 0.3628410 0.8406128 -0.3628410
22537 0.8283965 -0.3738334 0.1716035 0.3738334 0.1716035 0.3738334 0.8283965 -0.3738334
23569 0.8154453 -0.3847258 0.1845547 0.3847258 0.1845547 0.3847258 0.8154453 -0.3847258
24648 0.8017467 -0.3954640 0.1982533 0.3954640 0.1982533 0.3954640 0.8017467 -0.3954640
25777 0.7872929 -0.4059903 0.2127071 0.4059903 0.2127071 0.4059903 0.7872929 -0.4059903
26957 0.7720816 -0.4162438 0.2279184 0.4162438 0.2279184 0.4162438 0.7720816 -0.4162438
28191 0.7561169 -0.4261612 0.2438831 0.4261612 0.2438831 0.4261612 0.7561169 -0.4261612
29482 0.7394090 -0.4356772 0.2605910 0.4356772 0.2605910 0.4356772 0.7394090 -0.4356772
30832 0.7219757 -0.4447254 0.2780243 0.4447254 0.2780243 0.4447254 0.7219757 -0.4447254
32244 0.7038423 -0.4532392 0.2961577 0.4532392 0.2961577 0.4532392 0.7038423 -0.4532392
33721 0.6850417 -0.4611531 0.3149583 0.4611531 0.3149583 0.4611531 0.6850417 -0.4611531
35265 0.6656149 -0.4684031 0.3343851 0.4684031 0.3343851 0.4684031 0.6656149 -0.4684031
36880 0.6456107 -0.4749285 0.3543893 0.4749285 0.3543893 0.4749285 0.6456107 -0.4749285
38569 0.6250854 -0.4806726 0.3749146 0.4806726 0.3749146 0.4806726 0.6250854 -0.4806726
40335 0.6041025 -0.4855841 0.3958975 0.4855841 0.3958975 0.4855841 0.6041025 -0.4855841
42182 0.5827321 -0.4896180 0.4172679 0.4896180 0.4172679 0.4896180 0.5827321 -0.4896180
44113 0.5610497 -0.4927368 0.4389503 0.4927368 0.4389503 0.4927368 0.5610497 -0.4927368
46134 0.5391355 -0.4949109 0.4608645 0.4949109 0.4608645 0.4949109 0.5391355 -0.4949109
48246 0.5170733 -0.4961198 0.4829267 0.4961198 0.4829267 0.4961198 0.5170733 -0.4961198
50455 0.4949489 -0.4963521 0.5050511 0.4963521 0.5050511 0.4963521 0.4949489 -0.4963521
52766 0.4728491 -0.4956060 0.5271509 0.4956060 0.5271509 0.4956060 0.4728491 -0.4956060
55182 0.4508603 -0.4938893 0.5491397 0.4938893 0.5491397 0.4938893 0.4508603 -0.4938893
57709 0.4290669 -0.4912193 0.5709331 0.4912193 0.5709331 0.4912193 0.4290669 -0.4912193
60352 0.4075504 -0.4876219 0.5924496 0.4876219 0.5924496 0.4876219 0.4075504 -0.4876219
63115 0.3863879 -0.4831317 0.6136121 0.4831317 0.6136121 0.4831317 0.3863879 -0.4831317
66005 0.3656513 -0.4777906 0.6343487 0.4777906 0.6343487 0.4777906 0.3656513 -0.4777906
69028 0.3454064 -0.4716473 0.6545936 0.4716473 0.6545936 0.4716473 0.3454064 -0.4716473
72189 0.3257119 -0.4647560 0.6742881 0.4647560 0.6742881 0.4647560 0.3257119 -0.4647560
75495 0.3066194 -0.4571754 0.6933806 0.4571754 0.6933806 0.4571754 0.3066194 -0.4571754
78952 0.2881728 -0.4489676 0.7118272 0.4489676 0.7118272 0.4489676 0.2881728 -0.4489676
82567 0.2704082 -0.4401969 0.7295918 0.4401969 0.7295918 0.4401969 0.2704082 -0.4401969
86348 0.2533539 -0.4309289 0.7466461 0.4309289 0.7466461 0.4309289 0.2533539 -0.4309289
90302 0.2370309 -0.4212295 0.7629691 0.4212295 0.7629691 0.4212295 0.2370309 -0.4212295
94437 0.2214528 -0.4111636 0.7785472 0.4111636 0.7785472 0.4111636 0.2214528 -0.4111636
98762 0.2066266 -0.4007948 0.7933734 0.4007948 0.7933734 0.4007948 0.2066266 -0.4007948
103284 0.1925530 -0.3901845 0.8074470 0.3901845 0.8074470 0.3901845 0.1925530 -0.3901845
108014 0.1792271 -0.3793912 0.8207729 0.3793912 0.8207729 0.3793912 0.1792271 -0.3793912
112960 0.1666390 -0.3684703 0.8333610 0.3684703 0.8333610 0.3684703 0.1666390 -0.3684703
118133 0.1547744 -0.3574735 0.8452256 0.3574735 0.8452256 0.3574735 0.1547744 -0.3574735
123542 0.1436153 -0.3464486 0.8563847 0.3464486 0.8563847 0.3464486 0.1436153 -0.3464486
129199 0.1331406 -0.3354397 0.8668594 0.3354397 0.8668594 0.3354397 0.1331406 -0.3354397
135116 0.1233267 -0.3244866 0.8766733 0.3244866 0.8766733 0.3244866 0.1233267 -0.3244866
141303 0.1141479 -0.3136251 0.8858521 0.3136251 0.8858521 0.3136251 0.1141479 -0.3136251
147774 0.1055771 -0.3028870 0.8944229 0.3028870 0.8944229 0.3028870 0.1055771 -0.3028870
154540 0.0975863 -0.2923006 0.9024137 0.2923006 0.9024137 0.2923006 0.0975863 -0.2923006
161617 0.0901468 -0.2818901 0.9098532 0.2818901 0.9098532 0.2818901 0.0901468 -0.2818901
169018 0.0832296 -0.2716766 0.9167704 0.2716766 0.9167704 0.2716766 0.0832296 -0.2716766
176758 0.0768060 -0.2616776 0.9231940 0.2616776 0.9231940 0.2616776 0.0768060 -0.2616776
184852 0.0708474 -0.2519079 0.9291526 0.2519079 0.9291526 0.2519079 0.0708474 -0.2519079
193316 0.0653259 -0.2423794 0.9346741 0.2423794 0.9346741 0.2423794 0.0653259 -0.2423794
202169 0.0602142 -0.2331014 0.9397858 0.2331014 0.9397858 0.2331014 0.0602142 -0.2331014
211427 0.0554862 -0.2240810 0.9445138 0.2240810 0.9445138 0.2240810 0.0554862 -0.2240810
221108 0.0511165 -0.2153231 0.9488835 0.2153231 0.9488835 0.2153231 0.0511165 -0.2153231
231233 0.0470809 -0.2068309 0.9529191 0.2068309 0.9529191 0.2068309 0.0470809 -0.2068309
241822 0.0433562 -0.1986060 0.9566438 0.1986060 0.9566438 0.1986060 0.0433562 -0.1986060
252896 0.0399205 -0.1906482 0.9600795 0.1906482 0.9600795 0.1906482 0.0399205 -0.1906482
264476 0.0367532 -0.1829566 0.9632468 0.1829566 0.9632468 0.1829566 0.0367532 -0.1829566
276587 0.0338345 -0.1755286 0.9661655 0.1755286 0.9661655 0.1755286 0.0338345 -0.1755286
289253 0.0311461 -0.1683612 0.9688539 0.1683612 0.9688539 0.1683612 0.0311461 -0.1683612
302498 0.0286708 -0.1614503 0.9713292 0.1614503 0.9713292 0.1614503 0.0286708 -0.1614503
316350 0.0263925 -0.1547912 0.9736075 0.1547912 0.9736075 0.1547912 0.0263925 -0.1547912
330837 0.0242959 -0.1483787 0.9757041 0.1483787 0.9757041 0.1483787 0.0242959 -0.1483787
345986 0.0223672 -0.1422071 0.9776328 0.1422071 0.9776328 0.1422071 0.0223672 -0.1422071
361830 0.0205932 -0.1362703 0.9794068 0.1362703 0.9794068 0.1362703 0.0205932 -0.1362703
378399 0.0189619 -0.1305622 0.9810381 0.1305622 0.9810381 0.1305622 0.0189619 -0.1305622
395726 0.0174620 -0.1250763 0.9825380 0.1250763 0.9825380 0.1250763 0.0174620 -0.1250763
413847 0.0160832 -0.1198058 0.9839168 0.1198058 0.9839168 0.1198058 0.0160832 -0.1198058
432798 0.0148158 -0.1147441 0.9851842 0.1147441 0.9851842 0.1147441 0.0148158 -0.1147441
452617 0.0136509 -0.1098846 0.9863491 0.1098846 0.9863491 0.1098846 0.0136509 -0.1098846
473344 0.0125804 -0.1052204 0.9874196 0.1052204 0.9874196 0.1052204 0.0125804 -0.1052204
495019 0.0115967 -0.1007450 0.9884033 0.1007450 0.9884033 0.1007450 0.0115967 -0.1007450
517687 0.0106929 -0.0964517 0.9893071 0.0964517 0.9893071 0.0964517 0.0106929 -0.0964517
541393 0.0098625 -0.0923340 0.9901375 0.0923340 0.9901375 0.0923340 0.0098625 -0.0923340
566185 0.0090997 -0.0883857 0.9909003 0.0883857 0.9909003 0.0883857 0.0090997 -0.0883857
592111 0.0083989 -0.0846004 0.9916011 0.0846004 0.9916011 0.0846004 0.0083989 -0.0846004
619225 0.0077553 -0.0809720 0.9922447 0.0809720 0.9922447 0.0809720 0.0077553 -0.0809720
647581 0.0071642 -0.0774947 0.9928358 0.0774947 0.9928358 0.0774947 0.0071642 -0.0774947
677235 0.0066214 -0.0741626 0.9933786 0.0741626 0.9933786 0.0741626 0.0066214 -0.0741626
708247 0.0061229 -0.0709702 0.9938771 0.0709702 0.9938771 0.0709702 0.0061229 -0.0709702
740679 0.0056652 -0.0679119 0.9943348 0.0679119 0.9943348 0.0679119 0.0056652 -0.0679119
774597 0.0052450 -0.0649825 0.9947550 0.0649825 0.9947550 0.0649825 0.0052450 -0.0649825
810067 0.0048593 -0.0621769 0.9951407 0.0621769 0.9951407 0.0621769 0.0048593 -0.0621769
847162 0.0045052 -0.0594902 0.9954948 0.0594902 0.9954948 0.0594902 0.0045052 -0.0594902
885955 0.0041801 -0.0569176 0.9958199 0.0569176 0.9958199 0.0569176 0.0041801 -0.0569176
926525 0.0038818 -0.0544545 0.9961182 0.0544545 0.9961182 0.0544545 0.0038818 -0.0544545
968953 0.0036079 -0.0520964 0.9963921 0.0520964 0.9963921 0.0520964 0.0036079 -0.0520964
1013323 0.0033565 -0.0498390 0.9966435 0.0498390 0.9966435 0.0498390 0.0033565 -0.0498390
1059725 0.0031258 -0.0476783 0.9968742 0.0476783 0.9968742 0.0476783 0.0031258 -0.0476783
1108252 0.0029140 -0.0456102 0.9970860 0.0456102 0.9970860 0.0456102 0.0029140 -0.0456102
1159002 0.0027195 -0.0436308 0.9972805 0.0436308 0.9972805 0.0436308 0.0027195 -0.0436308
1212075 0.0025410 -0.0417366 0.9974590 0.0417366 0.9974590 0.0417366 0.0025410 -0.0417366
1267578 0.0023770 -0.0399239 0.9976230 0.0399239 0.9976230 0.0399239 0.0023770 -0.0399239
1325623 0.0022264 -0.0381893 0.9977736 0.0381893 0.9977736 0.0381893 0.0022264 -0.0381893
1386327 0.0020881 -0.0365296 0.9979119 0.0365296 0.9979119 0.0365296 0.0020881 -0.0365296
1449809 0.0019609 -0.0349415 0.9980391 0.0349415 0.9980391 0.0349415 0.0019609 -0.0349415
1516199 0.0018440 -0.0334220 0.9981560 0.0334220 0.9981560 0.0334220 0.0018440 -0.0334220
1585629 0.0017365 -0.0319683 0.9982635 0.0319683 0.9982635 0.0319683 0.0017365 -0.0319683
1658239 0.0016376 -0.0305774 0.9983624 0.0305774 0.9983624 0.0305774 0.0016376 -0.0305774
1734173 0.0015465 -0.0292467 0.9984535 0.0292467 0.9984535 0.0292467 0.0015465 -0.0292467
1813585 0.0014626 -0.0279736 0.9985374 0.0279736 0.9985374 0.0279736 0.0014626 -0.0279736
1896632 0.0013852 -0.0267556 0.9986148 0.0267556 0.9986148 0.0267556 0.0013852 -0.0267556
1983483 0.0013139 -0.0255904 0.9986861 0.0255904 0.9986861 0.0255904 0.0013139 -0.0255904
2074311 0.0012481 -0.0244756 0.9987519 0.0244756 0.9987519 0.0244756 0.0012481 -0.0244756
