!Murata Part Number: GRM155R61H104ME19
!These Parameters are Measured in Series Mode Connection
!Data Generated on Mar 30, 2021
!       o--ll--o
!Port1            Port2
!       o------o
!Operation Temp=25[degC], DC Bias Voltage=0[V]
!Freq. Start=100[Hz] Stop=6[GHz] 401[Steps]
# Hz S RI R 50
!Freq.(Hz) S11(Real) S11(Imag) S21(Real) S21(Imag) S12(Real) S12(Imag) S22(Real) S22(Imag)
100 0.9999396 -0.0062510 0.0000604 0.0062510 0.0000604 0.0062510 0.9999396 -0.0062510
105 0.9999351 -0.0065366 0.0000649 0.0065366 0.0000649 0.0065366 0.9999351 -0.0065366
109 0.9999302 -0.0068352 0.0000698 0.0068352 0.0000698 0.0068352 0.9999302 -0.0068352
114 0.9999249 -0.0071475 0.0000751 0.0071475 0.0000751 0.0071475 0.9999249 -0.0071475
120 0.9999191 -0.0074741 0.0000809 0.0074741 0.0000809 0.0074741 0.9999191 -0.0074741
125 0.9999129 -0.0078156 0.0000871 0.0078156 0.0000871 0.0078156 0.9999129 -0.0078156
131 0.9999061 -0.0081727 0.0000939 0.0081727 0.0000939 0.0081727 0.9999061 -0.0081727
137 0.9998987 -0.0085461 0.0001013 0.0085461 0.0001013 0.0085461 0.9998987 -0.0085461
143 0.9998906 -0.0089366 0.0001094 0.0089366 0.0001094 0.0089366 0.9998906 -0.0089366
150 0.9998819 -0.0093449 0.0001181 0.0093449 0.0001181 0.0093449 0.9998819 -0.0093449
156 0.9998724 -0.0097719 0.0001276 0.0097719 0.0001276 0.0097719 0.9998724 -0.0097719
164 0.9998620 -0.0102183 0.0001380 0.0102183 0.0001380 0.0102183 0.9998620 -0.0102183
171 0.9998508 -0.0106852 0.0001492 0.0106852 0.0001492 0.0106852 0.9998508 -0.0106852
179 0.9998386 -0.0111733 0.0001614 0.0111733 0.0001614 0.0111733 0.9998386 -0.0111733
187 0.9998252 -0.0116837 0.0001748 0.0116837 0.0001748 0.0116837 0.9998252 -0.0116837
196 0.9998108 -0.0122174 0.0001892 0.0122174 0.0001892 0.0122174 0.9998108 -0.0122174
205 0.9997950 -0.0127754 0.0002050 0.0127754 0.0002050 0.0127754 0.9997950 -0.0127754
214 0.9997779 -0.0133589 0.0002221 0.0133589 0.0002221 0.0133589 0.9997779 -0.0133589
224 0.9997593 -0.0139691 0.0002407 0.0139691 0.0002407 0.0139691 0.9997593 -0.0139691
234 0.9997390 -0.0146070 0.0002610 0.0146070 0.0002610 0.0146070 0.9997390 -0.0146070
245 0.9997170 -0.0152740 0.0002830 0.0152740 0.0002830 0.0152740 0.9997170 -0.0152740
256 0.9996930 -0.0159715 0.0003070 0.0159715 0.0003070 0.0159715 0.9996930 -0.0159715
268 0.9996669 -0.0167008 0.0003331 0.0167008 0.0003331 0.0167008 0.9996669 -0.0167008
280 0.9996385 -0.0174633 0.0003615 0.0174633 0.0003615 0.0174633 0.9996385 -0.0174633
293 0.9996076 -0.0182606 0.0003924 0.0182606 0.0003924 0.0182606 0.9996076 -0.0182606
306 0.9995739 -0.0190942 0.0004261 0.0190942 0.0004261 0.0190942 0.9995739 -0.0190942
320 0.9995373 -0.0199659 0.0004627 0.0199659 0.0004627 0.0199659 0.9995373 -0.0199659
335 0.9994974 -0.0208773 0.0005026 0.0208773 0.0005026 0.0208773 0.9994974 -0.0208773
350 0.9994539 -0.0218302 0.0005461 0.0218302 0.0005461 0.0218302 0.9994539 -0.0218302
366 0.9994065 -0.0228266 0.0005935 0.0228266 0.0005935 0.0228266 0.9994065 -0.0228266
383 0.9993549 -0.0238684 0.0006451 0.0238684 0.0006451 0.0238684 0.9993549 -0.0238684
401 0.9992986 -0.0249576 0.0007014 0.0249576 0.0007014 0.0249576 0.9992986 -0.0249576
419 0.9992373 -0.0260965 0.0007627 0.0260965 0.0007627 0.0260965 0.9992373 -0.0260965
438 0.9991704 -0.0272872 0.0008296 0.0272872 0.0008296 0.0272872 0.9991704 -0.0272872
458 0.9990974 -0.0285321 0.0009026 0.0285321 0.0009026 0.0285321 0.9990974 -0.0285321
479 0.9990178 -0.0298337 0.0009822 0.0298337 0.0009822 0.0298337 0.9990178 -0.0298337
501 0.9989310 -0.0311944 0.0010690 0.0311944 0.0010690 0.0311944 0.9989310 -0.0311944
524 0.9988362 -0.0326171 0.0011638 0.0326171 0.0011638 0.0326171 0.9988362 -0.0326171
548 0.9987327 -0.0341043 0.0012673 0.0341043 0.0012673 0.0341043 0.9987327 -0.0341043
573 0.9986198 -0.0356591 0.0013802 0.0356591 0.0013802 0.0356591 0.9986198 -0.0356591
600 0.9984965 -0.0372845 0.0015035 0.0372845 0.0015035 0.0372845 0.9984965 -0.0372845
627 0.9983619 -0.0389835 0.0016381 0.0389835 0.0016381 0.0389835 0.9983619 -0.0389835
656 0.9982150 -0.0407595 0.0017850 0.0407595 0.0017850 0.0407595 0.9982150 -0.0407595
686 0.9980545 -0.0426158 0.0019455 0.0426158 0.0019455 0.0426158 0.9980545 -0.0426158
717 0.9978792 -0.0445561 0.0021208 0.0445561 0.0021208 0.0445561 0.9978792 -0.0445561
750 0.9976878 -0.0465840 0.0023122 0.0465840 0.0023122 0.0465840 0.9976878 -0.0465840
784 0.9974788 -0.0487033 0.0025212 0.0487033 0.0025212 0.0487033 0.9974788 -0.0487033
820 0.9972504 -0.0509180 0.0027496 0.0509180 0.0027496 0.0509180 0.9972504 -0.0509180
858 0.9970011 -0.0532323 0.0029989 0.0532323 0.0029989 0.0532323 0.9970011 -0.0532323
897 0.9967288 -0.0556505 0.0032712 0.0556505 0.0032712 0.0556505 0.9967288 -0.0556505
938 0.9964314 -0.0581769 0.0035686 0.0581769 0.0035686 0.0581769 0.9964314 -0.0581769
981 0.9961067 -0.0608164 0.0038933 0.0608164 0.0038933 0.0608164 0.9961067 -0.0608164
1026 0.9957521 -0.0635735 0.0042479 0.0635735 0.0042479 0.0635735 0.9957521 -0.0635735
1073 0.9953649 -0.0664534 0.0046351 0.0664534 0.0046351 0.0664534 0.9953649 -0.0664534
1122 0.9949422 -0.0694611 0.0050578 0.0694611 0.0050578 0.0694611 0.9949422 -0.0694611
1174 0.9944806 -0.0726020 0.0055194 0.0726020 0.0055194 0.0726020 0.9944806 -0.0726020
1227 0.9939768 -0.0758814 0.0060232 0.0758814 0.0060232 0.0758814 0.9939768 -0.0758814
1283 0.9934269 -0.0793051 0.0065731 0.0793051 0.0065731 0.0793051 0.9934269 -0.0793051
1342 0.9928267 -0.0828788 0.0071733 0.0828788 0.0071733 0.0828788 0.9928267 -0.0828788
1404 0.9921718 -0.0866085 0.0078282 0.0866085 0.0078282 0.0866085 0.9921718 -0.0866085
1468 0.9914571 -0.0905003 0.0085429 0.0905003 0.0085429 0.0905003 0.9914571 -0.0905003
1535 0.9906775 -0.0945605 0.0093225 0.0945605 0.0093225 0.0945605 0.9906775 -0.0945605
1606 0.9898270 -0.0987954 0.0101730 0.0987954 0.0101730 0.0987954 0.9898270 -0.0987954
1679 0.9888994 -0.1032116 0.0111006 0.1032116 0.0111006 0.1032116 0.9888994 -0.1032116
1756 0.9878878 -0.1078156 0.0121122 0.1078156 0.0121122 0.1078156 0.9878878 -0.1078156
1836 0.9867850 -0.1126142 0.0132150 0.1126142 0.0132150 0.1126142 0.9867850 -0.1126142
1920 0.9855828 -0.1176141 0.0144172 0.1176141 0.0144172 0.1176141 0.9855828 -0.1176141
2008 0.9842726 -0.1228220 0.0157274 0.1228220 0.0157274 0.1228220 0.9842726 -0.1228220
2100 0.9828449 -0.1282446 0.0171551 0.1282446 0.0171551 0.1282446 0.9828449 -0.1282446
2196 0.9812897 -0.1338888 0.0187103 0.1338888 0.0187103 0.1338888 0.9812897 -0.1338888
2297 0.9795959 -0.1397610 0.0204041 0.1397610 0.0204041 0.1397610 0.9795959 -0.1397610
2402 0.9777517 -0.1458677 0.0222483 0.1458677 0.0222483 0.1458677 0.9777517 -0.1458677
2512 0.9757444 -0.1522149 0.0242556 0.1522149 0.0242556 0.1522149 0.9757444 -0.1522149
2627 0.9735603 -0.1588087 0.0264397 0.1588087 0.0264397 0.1588087 0.9735603 -0.1588087
2748 0.9711846 -0.1656545 0.0288154 0.1656545 0.0288154 0.1656545 0.9711846 -0.1656545
2873 0.9686015 -0.1727573 0.0313985 0.1727573 0.0313985 0.1727573 0.9686015 -0.1727573
3005 0.9657941 -0.1801213 0.0342059 0.1801213 0.0342059 0.1801213 0.9657941 -0.1801213
3143 0.9627444 -0.1877504 0.0372556 0.1877504 0.0372556 0.1877504 0.9627444 -0.1877504
3287 0.9594332 -0.1956472 0.0405668 0.1956472 0.0405668 0.1956472 0.9594332 -0.1956472
3437 0.9558400 -0.2038135 0.0441600 0.2038135 0.0441600 0.2038135 0.9558400 -0.2038135
3594 0.9519432 -0.2122499 0.0480568 0.2122499 0.0480568 0.2122499 0.9519432 -0.2122499
3759 0.9477200 -0.2209557 0.0522800 0.2209557 0.0522800 0.2209557 0.9477200 -0.2209557
3931 0.9431465 -0.2299285 0.0568535 0.2299285 0.0568535 0.2299285 0.9431465 -0.2299285
4111 0.9381973 -0.2391641 0.0618027 0.2391641 0.0618027 0.2391641 0.9381973 -0.2391641
4299 0.9328464 -0.2486566 0.0671536 0.2486566 0.0671536 0.2486566 0.9328464 -0.2486566
4496 0.9270665 -0.2583975 0.0729335 0.2583975 0.0729335 0.2583975 0.9270665 -0.2583975
4702 0.9208296 -0.2683761 0.0791704 0.2683761 0.0791704 0.2683761 0.9208296 -0.2683761
4918 0.9141069 -0.2785790 0.0858931 0.2785790 0.0858931 0.2785790 0.9141069 -0.2785790
5143 0.9068693 -0.2889896 0.0931307 0.2889896 0.0931307 0.2889896 0.9068693 -0.2889896
5378 0.8990872 -0.2995883 0.1009128 0.2995883 0.1009128 0.2995883 0.8990872 -0.2995883
5625 0.8907313 -0.3103519 0.1092687 0.3103519 0.1092687 0.3103519 0.8907313 -0.3103519
5882 0.8817725 -0.3212537 0.1182275 0.3212537 0.1182275 0.3212537 0.8817725 -0.3212537
6151 0.8721827 -0.3322629 0.1278173 0.3322629 0.1278173 0.3322629 0.8721827 -0.3322629
6433 0.8619350 -0.3433450 0.1380650 0.3433450 0.1380650 0.3433450 0.8619350 -0.3433450
6728 0.8510042 -0.3544612 0.1489958 0.3544612 0.1489958 0.3544612 0.8510042 -0.3544612
7036 0.8393674 -0.3655684 0.1606326 0.3655684 0.1606326 0.3655684 0.8393674 -0.3655684
7358 0.8270047 -0.3766195 0.1729953 0.3766195 0.1729953 0.3766195 0.8270047 -0.3766195
7695 0.8138998 -0.3875634 0.1861002 0.3875634 0.1861002 0.3875634 0.8138998 -0.3875634
8047 0.8000404 -0.3983450 0.1999596 0.3983450 0.1999596 0.3983450 0.8000404 -0.3983450
8416 0.7854194 -0.4089058 0.2145806 0.4089058 0.2145806 0.4089058 0.7854194 -0.4089058
8801 0.7700350 -0.4191841 0.2299650 0.4191841 0.2299650 0.4191841 0.7700350 -0.4191841
9204 0.7538916 -0.4291159 0.2461084 0.4291159 0.2461084 0.4291159 0.7538916 -0.4291159
9626 0.7370005 -0.4386349 0.2629995 0.4386349 0.2629995 0.4386349 0.7370005 -0.4386349
10066 0.7193801 -0.4476742 0.2806199 0.4476742 0.2806199 0.4476742 0.7193801 -0.4476742
10527 0.7010566 -0.4561664 0.2989434 0.4561664 0.2989434 0.4561664 0.7010566 -0.4561664
11009 0.6820639 -0.4640452 0.3179361 0.4640452 0.3179361 0.4640452 0.6820639 -0.4640452
11514 0.6624442 -0.4712460 0.3375558 0.4712460 0.3375558 0.4712460 0.6624442 -0.4712460
12041 0.6422475 -0.4777077 0.3577525 0.4777077 0.3577525 0.4777077 0.6422475 -0.4777077
12592 0.6215315 -0.4833731 0.3784685 0.4833731 0.3784685 0.4833731 0.6215315 -0.4833731
13169 0.6003612 -0.4881905 0.3996388 0.4881905 0.3996388 0.4881905 0.6003612 -0.4881905
13772 0.5788082 -0.4921150 0.4211918 0.4921150 0.4211918 0.4921150 0.5788082 -0.4921150
14402 0.5569497 -0.4951088 0.4430503 0.4951088 0.4430503 0.4951088 0.5569497 -0.4951088
15062 0.5348677 -0.4971429 0.4651323 0.4971429 0.4651323 0.4971429 0.5348677 -0.4971429
15752 0.5126476 -0.4981970 0.4873524 0.4981970 0.4873524 0.4981970 0.5126476 -0.4981970
16473 0.4903773 -0.4982606 0.5096227 0.4982606 0.5096227 0.4982606 0.4903773 -0.4982606
17227 0.4681450 -0.4973329 0.5318550 0.4973329 0.5318550 0.4973329 0.4681450 -0.4973329
18016 0.4460389 -0.4954230 0.5539611 0.4954230 0.5539611 0.4954230 0.4460389 -0.4954230
18841 0.4241448 -0.4925495 0.5758552 0.4925495 0.5758552 0.4925495 0.4241448 -0.4925495
19704 0.4025455 -0.4887403 0.5974545 0.4887403 0.5974545 0.4887403 0.4025455 -0.4887403
20606 0.3813190 -0.4840319 0.6186810 0.4840319 0.6186810 0.4840319 0.3813190 -0.4840319
21550 0.3605381 -0.4784684 0.6394619 0.4784684 0.6394619 0.4784684 0.3605381 -0.4784684
22537 0.3402689 -0.4721006 0.6597311 0.4721006 0.6597311 0.4721006 0.3402689 -0.4721006
23569 0.3205704 -0.4649849 0.6794296 0.4649849 0.6794296 0.4649849 0.3205704 -0.4649849
24648 0.3014938 -0.4571825 0.6985062 0.4571825 0.6985062 0.4571825 0.3014938 -0.4571825
25777 0.2830825 -0.4487575 0.7169175 0.4487575 0.7169175 0.4487575 0.2830825 -0.4487575
26957 0.2653717 -0.4397765 0.7346283 0.4397765 0.7346283 0.4397765 0.2653717 -0.4397765
28191 0.2483886 -0.4303068 0.7516114 0.4303068 0.7516114 0.4303068 0.2483886 -0.4303068
29482 0.2321528 -0.4204161 0.7678472 0.4204161 0.7678472 0.4204161 0.2321528 -0.4204161
30832 0.2166762 -0.4101707 0.7833238 0.4101707 0.7833238 0.4101707 0.2166762 -0.4101707
32244 0.2019641 -0.3996355 0.7980359 0.3996355 0.7980359 0.3996355 0.2019641 -0.3996355
33721 0.1880154 -0.3888727 0.8119846 0.3888727 0.8119846 0.3888727 0.1880154 -0.3888727
35265 0.1748233 -0.3779413 0.8251767 0.3779413 0.8251767 0.3779413 0.1748233 -0.3779413
36880 0.1623760 -0.3668972 0.8376240 0.3668972 0.8376240 0.3668972 0.1623760 -0.3668972
38569 0.1506574 -0.3557920 0.8493426 0.3557920 0.8493426 0.3557920 0.1506574 -0.3557920
40335 0.1396479 -0.3446735 0.8603521 0.3446735 0.8603521 0.3446735 0.1396479 -0.3446735
42182 0.1293245 -0.3335852 0.8706755 0.3335852 0.8706755 0.3335852 0.1293245 -0.3335852
44113 0.1196622 -0.3225664 0.8803378 0.3225664 0.8803378 0.3225664 0.1196622 -0.3225664
46134 0.1106341 -0.3116522 0.8893659 0.3116522 0.8893659 0.3116522 0.1106341 -0.3116522
48246 0.1022118 -0.3008737 0.8977882 0.3008737 0.8977882 0.3008737 0.1022118 -0.3008737
50455 0.0943663 -0.2902580 0.9056337 0.2902580 0.9056337 0.2902580 0.0943663 -0.2902580
52766 0.0870682 -0.2798285 0.9129318 0.2798285 0.9129318 0.2798285 0.0870682 -0.2798285
55182 0.0802877 -0.2696052 0.9197123 0.2696052 0.9197123 0.2696052 0.0802877 -0.2696052
57709 0.0739957 -0.2596047 0.9260043 0.2596047 0.9260043 0.2596047 0.0739957 -0.2596047
60352 0.0681633 -0.2498407 0.9318367 0.2498407 0.9318367 0.2498407 0.0681633 -0.2498407
63115 0.0627622 -0.2403242 0.9372378 0.2403242 0.9372378 0.2403242 0.0627622 -0.2403242
66005 0.0577653 -0.2310636 0.9422347 0.2310636 0.9422347 0.2310636 0.0577653 -0.2310636
69028 0.0531463 -0.2220650 0.9468537 0.2220650 0.9468537 0.2220650 0.0531463 -0.2220650
72189 0.0488799 -0.2133328 0.9511201 0.2133328 0.9511201 0.2133328 0.0488799 -0.2133328
75495 0.0449421 -0.2048694 0.9550579 0.2048694 0.9550579 0.2048694 0.0449421 -0.2048694
78952 0.0413100 -0.1966757 0.9586900 0.1966757 0.9586900 0.1966757 0.0413100 -0.1966757
82567 0.0379619 -0.1887511 0.9620381 0.1887511 0.9620381 0.1887511 0.0379619 -0.1887511
86348 0.0348774 -0.1810940 0.9651226 0.1810940 0.9651226 0.1810940 0.0348774 -0.1810940
90302 0.0320372 -0.1737018 0.9679628 0.1737018 0.9679628 0.1737018 0.0320372 -0.1737018
94437 0.0294232 -0.1665708 0.9705768 0.1665708 0.9705768 0.1665708 0.0294232 -0.1665708
98762 0.0270184 -0.1596969 0.9729816 0.1596969 0.9729816 0.1596969 0.0270184 -0.1596969
103284 0.0248071 -0.1530751 0.9751929 0.1530751 0.9751929 0.1530751 0.0248071 -0.1530751
108014 0.0227743 -0.1467000 0.9772257 0.1467000 0.9772257 0.1467000 0.0227743 -0.1467000
112960 0.0209065 -0.1405659 0.9790935 0.1405659 0.9790935 0.1405659 0.0209065 -0.1405659
118133 0.0191906 -0.1346667 0.9808094 0.1346667 0.9808094 0.1346667 0.0191906 -0.1346667
123542 0.0176148 -0.1289961 0.9823852 0.1289961 0.9823852 0.1289961 0.0176148 -0.1289961
129199 0.0161680 -0.1235474 0.9838320 0.1235474 0.9838320 0.1235474 0.0161680 -0.1235474
135116 0.0148400 -0.1183142 0.9851600 0.1183142 0.9851600 0.1183142 0.0148400 -0.1183142
141303 0.0136213 -0.1132897 0.9863787 0.1132897 0.9863787 0.1132897 0.0136213 -0.1132897
147774 0.0125031 -0.1084672 0.9874969 0.1084672 0.9874969 0.1084672 0.0125031 -0.1084672
154540 0.0114773 -0.1038400 0.9885227 0.1038400 0.9885227 0.1038400 0.0114773 -0.1038400
161617 0.0105365 -0.0994014 0.9894635 0.0994014 0.9894635 0.0994014 0.0105365 -0.0994014
169018 0.0096736 -0.0951448 0.9903264 0.0951448 0.9903264 0.0951448 0.0096736 -0.0951448
176758 0.0088823 -0.0910637 0.9911177 0.0910637 0.9911177 0.0910637 0.0088823 -0.0910637
184852 0.0081568 -0.0871517 0.9918432 0.0871517 0.9918432 0.0871517 0.0081568 -0.0871517
193316 0.0074917 -0.0834026 0.9925083 0.0834026 0.9925083 0.0834026 0.0074917 -0.0834026
202169 0.0068819 -0.0798102 0.9931181 0.0798102 0.9931181 0.0798102 0.0068819 -0.0798102
211427 0.0063229 -0.0763685 0.9936771 0.0763685 0.9936771 0.0763685 0.0063229 -0.0763685
221108 0.0058104 -0.0730717 0.9941896 0.0730717 0.9941896 0.0730717 0.0058104 -0.0730717
231233 0.0053407 -0.0699141 0.9946593 0.0699141 0.9946593 0.0699141 0.0053407 -0.0699141
241822 0.0049102 -0.0668902 0.9950898 0.0668902 0.9950898 0.0668902 0.0049102 -0.0668902
252896 0.0045155 -0.0639947 0.9954845 0.0639947 0.9954845 0.0639947 0.0045155 -0.0639947
264476 0.0041537 -0.0612225 0.9958463 0.0612225 0.9958463 0.0612225 0.0041537 -0.0612225
276587 0.0038221 -0.0585685 0.9961779 0.0585685 0.9961779 0.0585685 0.0038221 -0.0585685
289253 0.0035182 -0.0560278 0.9964818 0.0560278 0.9964818 0.0560278 0.0035182 -0.0560278
302498 0.0032396 -0.0535960 0.9967604 0.0535960 0.9967604 0.0535960 0.0032396 -0.0535960
316350 0.0029842 -0.0512683 0.9970158 0.0512683 0.9970158 0.0512683 0.0029842 -0.0512683
330837 0.0027500 -0.0490407 0.9972500 0.0490407 0.9972500 0.0490407 0.0027500 -0.0490407
345986 0.0025354 -0.0469088 0.9974646 0.0469088 0.9974646 0.0469088 0.0025354 -0.0469088
361830 0.0023387 -0.0448686 0.9976613 0.0448686 0.9976613 0.0448686 0.0023387 -0.0448686
378399 0.0021583 -0.0429164 0.9978417 0.0429164 0.9978417 0.0429164 0.0021583 -0.0429164
395726 0.0019930 -0.0410484 0.9980070 0.0410484 0.9980070 0.0410484 0.0019930 -0.0410484
413847 0.0018414 -0.0392611 0.9981586 0.0392611 0.9981586 0.0392611 0.0018414 -0.0392611
432798 0.0017024 -0.0375510 0.9982976 0.0375510 0.9982976 0.0375510 0.0017024 -0.0375510
452617 0.0015750 -0.0359149 0.9984250 0.0359149 0.9984250 0.0359149 0.0015750 -0.0359149
473344 0.0014581 -0.0343496 0.9985419 0.0343496 0.9985419 0.0343496 0.0014581 -0.0343496
495019 0.0013510 -0.0328521 0.9986490 0.0328521 0.9986490 0.0328521 0.0013510 -0.0328521
517687 0.0012527 -0.0314195 0.9987473 0.0314195 0.9987473 0.0314195 0.0012527 -0.0314195
541393 0.0011626 -0.0300490 0.9988374 0.0300490 0.9988374 0.0300490 0.0011626 -0.0300490
566185 0.0010800 -0.0287380 0.9989200 0.0287380 0.9989200 0.0287380 0.0010800 -0.0287380
592111 0.0010042 -0.0274839 0.9989958 0.0274839 0.9989958 0.0274839 0.0010042 -0.0274839
619225 0.0009346 -0.0262843 0.9990654 0.0262843 0.9990654 0.0262843 0.0009346 -0.0262843
647581 0.0008708 -0.0251368 0.9991292 0.0251368 0.9991292 0.0251368 0.0008708 -0.0251368
677235 0.0008122 -0.0240391 0.9991878 0.0240391 0.9991878 0.0240391 0.0008122 -0.0240391
708247 0.0007585 -0.0229892 0.9992415 0.0229892 0.9992415 0.0229892 0.0007585 -0.0229892
740679 0.0007091 -0.0219848 0.9992909 0.0219848 0.9992909 0.0219848 0.0007091 -0.0219848
774597 0.0006638 -0.0210242 0.9993362 0.0210242 0.9993362 0.0210242 0.0006638 -0.0210242
810067 0.0006222 -0.0201053 0.9993778 0.0201053 0.9993778 0.0201053 0.0006222 -0.0201053
847162 0.0005839 -0.0192264 0.9994161 0.0192264 0.9994161 0.0192264 0.0005839 -0.0192264
885955 0.0005488 -0.0183857 0.9994512 0.0183857 0.9994512 0.0183857 0.0005488 -0.0183857
926525 0.0005165 -0.0175816 0.9994835 0.0175816 0.9994835 0.0175816 0.0005165 -0.0175816
968953 0.0004868 -0.0168124 0.9995132 0.0168124 0.9995132 0.0168124 0.0004868 -0.0168124
1013323 0.0004595 -0.0160767 0.9995405 0.0160767 0.9995405 0.0160767 0.0004595 -0.0160767
1059725 0.0004343 -0.0153729 0.9995657 0.0153729 0.9995657 0.0153729 0.0004343 -0.0153729
1108252 0.0004112 -0.0146997 0.9995888 0.0146997 0.9995888 0.0146997 0.0004112 -0.0146997
1159002 0.0003899 -0.0140558 0.9996101 0.0140558 0.9996101 0.0140558 0.0003899 -0.0140558
1212075 0.0003703 -0.0134398 0.9996297 0.0134398 0.9996297 0.0134398 0.0003703 -0.0134398
1267578 0.0003522 -0.0128506 0.9996478 0.0128506 0.9996478 0.0128506 0.0003522 -0.0128506
1325623 0.0003356 -0.0122869 0.9996644 0.0122869 0.9996644 0.0122869 0.0003356 -0.0122869
1386327 0.0003203 -0.0117476 0.9996797 0.0117476 0.9996797 0.0117476 0.0003203 -0.0117476
1449809 0.0003062 -0.0112318 0.9996938 0.0112318 0.9996938 0.0112318 0.0003062 -0.0112318
1516199 0.0002932 -0.0107383 0.9997068 0.0107383 0.9997068 0.0107383 0.0002932 -0.0107383
1585629 0.0002812 -0.0102661 0.9997188 0.0102661 0.9997188 0.0102661 0.0002812 -0.0102661
1658239 0.0002702 -0.0098144 0.9997298 0.0098144 0.9997298 0.0098144 0.0002702 -0.0098144
1734173 0.0002600 -0.0093823 0.9997400 0.0093823 0.9997400 0.0093823 0.0002600 -0.0093823
1813585 0.0002506 -0.0089688 0.9997494 0.0089688 0.9997494 0.0089688 0.0002506 -0.0089688
1896632 0.0002420 -0.0085732 0.9997580 0.0085732 0.9997580 0.0085732 0.0002420 -0.0085732
1983483 0.0002341 -0.0081946 0.9997659 0.0081946 0.9997659 0.0081946 0.0002341 -0.0081946
2074311 0.0002268 -0.0078324 0.9997732 0.0078324 0.9997732 0.0078324 0.0002268 -0.0078324
