!Murata Part Number: GRM155R11E682KA01
!These Parameters are Measured in Series Mode Connection
!Data Generated on Mar 30, 2021
!       o--ll--o
!Port1            Port2
!       o------o
!Operation Temp=25[degC], DC Bias Voltage=0[V]
!Freq. Start=100[Hz] Stop=6[GHz] 401[Steps]
# Hz S RI R 50
!Freq.(Hz) S11(Real) S11(Imag) S21(Real) S21(Imag) S12(Real) S12(Imag) S22(Real) S22(Imag)
100 0.9999978 -0.0004126 0.0000022 0.0004126 0.0000022 0.0004126 0.9999978 -0.0004126
105 0.9999977 -0.0004314 0.0000023 0.0004314 0.0000023 0.0004314 0.9999977 -0.0004314
109 0.9999975 -0.0004511 0.0000025 0.0004511 0.0000025 0.0004511 0.9999975 -0.0004511
114 0.9999974 -0.0004717 0.0000026 0.0004717 0.0000026 0.0004717 0.9999974 -0.0004717
120 0.9999973 -0.0004932 0.0000027 0.0004932 0.0000027 0.0004932 0.9999973 -0.0004932
125 0.9999972 -0.0005156 0.0000028 0.0005156 0.0000028 0.0005156 0.9999972 -0.0005156
131 0.9999971 -0.0005392 0.0000029 0.0005392 0.0000029 0.0005392 0.9999971 -0.0005392
137 0.9999969 -0.0005638 0.0000031 0.0005638 0.0000031 0.0005638 0.9999969 -0.0005638
143 0.9999968 -0.0005895 0.0000032 0.0005895 0.0000032 0.0005895 0.9999968 -0.0005895
150 0.9999967 -0.0006164 0.0000033 0.0006164 0.0000033 0.0006164 0.9999967 -0.0006164
156 0.9999965 -0.0006445 0.0000035 0.0006445 0.0000035 0.0006445 0.9999965 -0.0006445
164 0.9999964 -0.0006739 0.0000036 0.0006739 0.0000036 0.0006739 0.9999964 -0.0006739
171 0.9999962 -0.0007047 0.0000038 0.0007047 0.0000038 0.0007047 0.9999962 -0.0007047
179 0.9999960 -0.0007368 0.0000040 0.0007368 0.0000040 0.0007368 0.9999960 -0.0007368
187 0.9999959 -0.0007705 0.0000041 0.0007705 0.0000041 0.0007705 0.9999959 -0.0007705
196 0.9999957 -0.0008056 0.0000043 0.0008056 0.0000043 0.0008056 0.9999957 -0.0008056
205 0.9999955 -0.0008424 0.0000045 0.0008424 0.0000045 0.0008424 0.9999955 -0.0008424
214 0.9999953 -0.0008809 0.0000047 0.0008809 0.0000047 0.0008809 0.9999953 -0.0008809
224 0.9999951 -0.0009211 0.0000049 0.0009211 0.0000049 0.0009211 0.9999951 -0.0009211
234 0.9999948 -0.0009632 0.0000052 0.0009632 0.0000052 0.0009632 0.9999948 -0.0009632
245 0.9999946 -0.0010072 0.0000054 0.0010072 0.0000054 0.0010072 0.9999946 -0.0010072
256 0.9999943 -0.0010532 0.0000057 0.0010532 0.0000057 0.0010532 0.9999943 -0.0010532
268 0.9999940 -0.0011013 0.0000060 0.0011013 0.0000060 0.0011013 0.9999940 -0.0011013
280 0.9999937 -0.0011516 0.0000063 0.0011516 0.0000063 0.0011516 0.9999937 -0.0011516
293 0.9999934 -0.0012043 0.0000066 0.0012043 0.0000066 0.0012043 0.9999934 -0.0012043
306 0.9999930 -0.0012593 0.0000070 0.0012593 0.0000070 0.0012593 0.9999930 -0.0012593
320 0.9999927 -0.0013168 0.0000073 0.0013168 0.0000073 0.0013168 0.9999927 -0.0013168
335 0.9999922 -0.0013770 0.0000078 0.0013770 0.0000078 0.0013770 0.9999922 -0.0013770
350 0.9999918 -0.0014399 0.0000082 0.0014399 0.0000082 0.0014399 0.9999918 -0.0014399
366 0.9999913 -0.0015057 0.0000087 0.0015057 0.0000087 0.0015057 0.9999913 -0.0015057
383 0.9999908 -0.0015745 0.0000092 0.0015745 0.0000092 0.0015745 0.9999908 -0.0015745
401 0.9999903 -0.0016464 0.0000097 0.0016464 0.0000097 0.0016464 0.9999903 -0.0016464
419 0.9999897 -0.0017216 0.0000103 0.0017216 0.0000103 0.0017216 0.9999897 -0.0017216
438 0.9999890 -0.0018003 0.0000110 0.0018003 0.0000110 0.0018003 0.9999890 -0.0018003
458 0.9999883 -0.0018825 0.0000117 0.0018825 0.0000117 0.0018825 0.9999883 -0.0018825
479 0.9999876 -0.0019685 0.0000124 0.0019685 0.0000124 0.0019685 0.9999876 -0.0019685
501 0.9999868 -0.0020584 0.0000132 0.0020584 0.0000132 0.0020584 0.9999868 -0.0020584
524 0.9999859 -0.0021524 0.0000141 0.0021524 0.0000141 0.0021524 0.9999859 -0.0021524
548 0.9999850 -0.0022507 0.0000150 0.0022507 0.0000150 0.0022507 0.9999850 -0.0022507
573 0.9999840 -0.0023535 0.0000160 0.0023535 0.0000160 0.0023535 0.9999840 -0.0023535
600 0.9999829 -0.0024610 0.0000171 0.0024610 0.0000171 0.0024610 0.9999829 -0.0024610
627 0.9999818 -0.0025733 0.0000182 0.0025733 0.0000182 0.0025733 0.9999818 -0.0025733
656 0.9999806 -0.0026908 0.0000194 0.0026908 0.0000194 0.0026908 0.9999806 -0.0026908
686 0.9999793 -0.0028137 0.0000207 0.0028137 0.0000207 0.0028137 0.9999793 -0.0028137
717 0.9999779 -0.0029421 0.0000221 0.0029421 0.0000221 0.0029421 0.9999779 -0.0029421
750 0.9999764 -0.0030764 0.0000236 0.0030764 0.0000236 0.0030764 0.9999764 -0.0030764
784 0.9999748 -0.0032168 0.0000252 0.0032168 0.0000252 0.0032168 0.9999748 -0.0032168
820 0.9999730 -0.0033636 0.0000270 0.0033636 0.0000270 0.0033636 0.9999730 -0.0033636
858 0.9999712 -0.0035171 0.0000288 0.0035171 0.0000288 0.0035171 0.9999712 -0.0035171
897 0.9999693 -0.0036776 0.0000307 0.0036776 0.0000307 0.0036776 0.9999693 -0.0036776
938 0.9999672 -0.0038454 0.0000328 0.0038454 0.0000328 0.0038454 0.9999672 -0.0038454
981 0.9999649 -0.0040208 0.0000351 0.0040208 0.0000351 0.0040208 0.9999649 -0.0040208
1026 0.9999625 -0.0042043 0.0000375 0.0042043 0.0000375 0.0042043 0.9999625 -0.0042043
1073 0.9999600 -0.0043961 0.0000400 0.0043961 0.0000400 0.0043961 0.9999600 -0.0043961
1122 0.9999573 -0.0045967 0.0000427 0.0045967 0.0000427 0.0045967 0.9999573 -0.0045967
1174 0.9999543 -0.0048064 0.0000457 0.0048064 0.0000457 0.0048064 0.9999543 -0.0048064
1227 0.9999512 -0.0050258 0.0000488 0.0050258 0.0000488 0.0050258 0.9999512 -0.0050258
1283 0.9999478 -0.0052551 0.0000522 0.0052551 0.0000522 0.0052551 0.9999478 -0.0052551
1342 0.9999442 -0.0054949 0.0000558 0.0054949 0.0000558 0.0054949 0.9999442 -0.0054949
1404 0.9999403 -0.0057457 0.0000597 0.0057457 0.0000597 0.0057457 0.9999403 -0.0057457
1468 0.9999361 -0.0060079 0.0000639 0.0060079 0.0000639 0.0060079 0.9999361 -0.0060079
1535 0.9999316 -0.0062821 0.0000684 0.0062821 0.0000684 0.0062821 0.9999316 -0.0062821
1606 0.9999268 -0.0065689 0.0000732 0.0065689 0.0000732 0.0065689 0.9999268 -0.0065689
1679 0.9999215 -0.0068687 0.0000785 0.0068687 0.0000785 0.0068687 0.9999215 -0.0068687
1756 0.9999158 -0.0071823 0.0000842 0.0071823 0.0000842 0.0071823 0.9999158 -0.0071823
1836 0.9999097 -0.0075102 0.0000903 0.0075102 0.0000903 0.0075102 0.9999097 -0.0075102
1920 0.9999030 -0.0078531 0.0000970 0.0078531 0.0000970 0.0078531 0.9999030 -0.0078531
2008 0.9998958 -0.0082116 0.0001042 0.0082116 0.0001042 0.0082116 0.9998958 -0.0082116
2100 0.9998880 -0.0085866 0.0001120 0.0085866 0.0001120 0.0085866 0.9998880 -0.0085866
2196 0.9998795 -0.0089787 0.0001205 0.0089787 0.0001205 0.0089787 0.9998795 -0.0089787
2297 0.9998703 -0.0093887 0.0001297 0.0093887 0.0001297 0.0093887 0.9998703 -0.0093887
2402 0.9998603 -0.0098175 0.0001397 0.0098175 0.0001397 0.0098175 0.9998603 -0.0098175
2512 0.9998494 -0.0102659 0.0001506 0.0102659 0.0001506 0.0102659 0.9998494 -0.0102659
2627 0.9998376 -0.0107347 0.0001624 0.0107347 0.0001624 0.0107347 0.9998376 -0.0107347
2748 0.9998247 -0.0112250 0.0001753 0.0112250 0.0001753 0.0112250 0.9998247 -0.0112250
2873 0.9998107 -0.0117376 0.0001893 0.0117376 0.0001893 0.0117376 0.9998107 -0.0117376
3005 0.9997954 -0.0122737 0.0002046 0.0122737 0.0002046 0.0122737 0.9997954 -0.0122737
3143 0.9997787 -0.0128342 0.0002213 0.0128342 0.0002213 0.0128342 0.9997787 -0.0128342
3287 0.9997606 -0.0134203 0.0002394 0.0134203 0.0002394 0.0134203 0.9997606 -0.0134203
3437 0.9997408 -0.0140331 0.0002592 0.0140331 0.0002592 0.0140331 0.9997408 -0.0140331
3594 0.9997193 -0.0146738 0.0002807 0.0146738 0.0002807 0.0146738 0.9997193 -0.0146738
3759 0.9996958 -0.0153438 0.0003042 0.0153438 0.0003042 0.0153438 0.9996958 -0.0153438
3931 0.9996703 -0.0160443 0.0003297 0.0160443 0.0003297 0.0160443 0.9996703 -0.0160443
4111 0.9996424 -0.0167767 0.0003576 0.0167767 0.0003576 0.0167767 0.9996424 -0.0167767
4299 0.9996121 -0.0175424 0.0003879 0.0175424 0.0003879 0.0175424 0.9996121 -0.0175424
4496 0.9995790 -0.0183429 0.0004210 0.0183429 0.0004210 0.0183429 0.9995790 -0.0183429
4702 0.9995430 -0.0191799 0.0004570 0.0191799 0.0004570 0.0191799 0.9995430 -0.0191799
4918 0.9995037 -0.0200549 0.0004963 0.0200549 0.0004963 0.0200549 0.9995037 -0.0200549
5143 0.9994609 -0.0209697 0.0005391 0.0209697 0.0005391 0.0209697 0.9994609 -0.0209697
5378 0.9994144 -0.0219260 0.0005856 0.0219260 0.0005856 0.0219260 0.9994144 -0.0219260
5625 0.9993637 -0.0229258 0.0006363 0.0229258 0.0006363 0.0229258 0.9993637 -0.0229258
5882 0.9993084 -0.0239709 0.0006916 0.0239709 0.0006916 0.0239709 0.9993084 -0.0239709
6151 0.9992483 -0.0250634 0.0007517 0.0250634 0.0007517 0.0250634 0.9992483 -0.0250634
6433 0.9991828 -0.0262055 0.0008172 0.0262055 0.0008172 0.0262055 0.9991828 -0.0262055
6728 0.9991116 -0.0273993 0.0008884 0.0273993 0.0008884 0.0273993 0.9991116 -0.0273993
7036 0.9990340 -0.0286471 0.0009660 0.0286471 0.0009660 0.0286471 0.9990340 -0.0286471
7358 0.9989495 -0.0299515 0.0010505 0.0299515 0.0010505 0.0299515 0.9989495 -0.0299515
7695 0.9988576 -0.0313149 0.0011424 0.0313149 0.0011424 0.0313149 0.9988576 -0.0313149
8047 0.9987576 -0.0327400 0.0012424 0.0327400 0.0012424 0.0327400 0.9987576 -0.0327400
8416 0.9986487 -0.0342295 0.0013513 0.0342295 0.0013513 0.0342295 0.9986487 -0.0342295
8801 0.9985301 -0.0357863 0.0014699 0.0357863 0.0014699 0.0357863 0.9985301 -0.0357863
9204 0.9984011 -0.0374135 0.0015989 0.0374135 0.0015989 0.0374135 0.9984011 -0.0374135
9626 0.9982606 -0.0391141 0.0017394 0.0391141 0.0017394 0.0391141 0.9982606 -0.0391141
10066 0.9981077 -0.0408914 0.0018923 0.0408914 0.0018923 0.0408914 0.9981077 -0.0408914
10527 0.9979411 -0.0427489 0.0020589 0.0427489 0.0020589 0.0427489 0.9979411 -0.0427489
11009 0.9977598 -0.0446900 0.0022402 0.0446900 0.0022402 0.0446900 0.9977598 -0.0446900
11514 0.9975623 -0.0467186 0.0024377 0.0467186 0.0024377 0.0467186 0.9975623 -0.0467186
12041 0.9973471 -0.0488384 0.0026529 0.0488384 0.0026529 0.0488384 0.9973471 -0.0488384
12592 0.9971127 -0.0510535 0.0028873 0.0510535 0.0028873 0.0510535 0.9971127 -0.0510535
13169 0.9968573 -0.0533680 0.0031427 0.0533680 0.0031427 0.0533680 0.9968573 -0.0533680
13772 0.9965790 -0.0557862 0.0034210 0.0557862 0.0034210 0.0557862 0.9965790 -0.0557862
14402 0.9962756 -0.0583128 0.0037244 0.0583128 0.0037244 0.0583128 0.9962756 -0.0583128
15062 0.9959448 -0.0609522 0.0040552 0.0609522 0.0040552 0.0609522 0.9959448 -0.0609522
15752 0.9955842 -0.0637093 0.0044158 0.0637093 0.0044158 0.0637093 0.9955842 -0.0637093
16473 0.9951910 -0.0665892 0.0048090 0.0665892 0.0048090 0.0665892 0.9951910 -0.0665892
17227 0.9947621 -0.0695970 0.0052379 0.0695970 0.0052379 0.0695970 0.9947621 -0.0695970
18016 0.9942944 -0.0727381 0.0057056 0.0727381 0.0057056 0.0727381 0.9942944 -0.0727381
18841 0.9937842 -0.0760179 0.0062158 0.0760179 0.0062158 0.0760179 0.9937842 -0.0760179
19704 0.9932277 -0.0794421 0.0067723 0.0794421 0.0067723 0.0794421 0.9932277 -0.0794421
20606 0.9926207 -0.0830165 0.0073793 0.0830165 0.0073793 0.0830165 0.9926207 -0.0830165
21550 0.9919585 -0.0867471 0.0080415 0.0867471 0.0080415 0.0867471 0.9919585 -0.0867471
22537 0.9912361 -0.0906400 0.0087639 0.0906400 0.0087639 0.0906400 0.9912361 -0.0906400
23569 0.9904481 -0.0947014 0.0095519 0.0947014 0.0095519 0.0947014 0.9904481 -0.0947014
24648 0.9895886 -0.0989378 0.0104114 0.0989378 0.0104114 0.0989378 0.9895886 -0.0989378
25777 0.9886512 -0.1033556 0.0113488 0.1033556 0.0113488 0.1033556 0.9886512 -0.1033556
26957 0.9876289 -0.1079613 0.0123711 0.1079613 0.0123711 0.1079613 0.9876289 -0.1079613
28191 0.9865142 -0.1127615 0.0134858 0.1127615 0.0134858 0.1127615 0.9865142 -0.1127615
29482 0.9852990 -0.1177629 0.0147010 0.1177629 0.0147010 0.1177629 0.9852990 -0.1177629
30832 0.9839743 -0.1229721 0.0160257 0.1229721 0.0160257 0.1229721 0.9839743 -0.1229721
32244 0.9825308 -0.1283958 0.0174692 0.1283958 0.0174692 0.1283958 0.9825308 -0.1283958
33721 0.9809580 -0.1340403 0.0190420 0.1340403 0.0190420 0.1340403 0.9809580 -0.1340403
35265 0.9792450 -0.1399121 0.0207550 0.1399121 0.0207550 0.1399121 0.9792450 -0.1399121
36880 0.9773798 -0.1460173 0.0226202 0.1460173 0.0226202 0.1460173 0.9773798 -0.1460173
38569 0.9753495 -0.1523619 0.0246505 0.1523619 0.0246505 0.1523619 0.9753495 -0.1523619
40335 0.9731403 -0.1589515 0.0268597 0.1589515 0.0268597 0.1589515 0.9731403 -0.1589515
42182 0.9707376 -0.1657911 0.0292624 0.1657911 0.0292624 0.1657911 0.9707376 -0.1657911
44113 0.9681255 -0.1728854 0.0318745 0.1728854 0.0318745 0.1728854 0.9681255 -0.1728854
46134 0.9652871 -0.1802384 0.0347129 0.1802384 0.0347129 0.1802384 0.9652871 -0.1802384
48246 0.9622046 -0.1878533 0.0377954 0.1878533 0.0377954 0.1878533 0.9622046 -0.1878533
50455 0.9588588 -0.1957325 0.0411412 0.1957325 0.0411412 0.1957325 0.9588588 -0.1957325
52766 0.9552296 -0.2038774 0.0447704 0.2038774 0.0447704 0.2038774 0.9552296 -0.2038774
55182 0.9512955 -0.2122881 0.0487045 0.2122881 0.0487045 0.2122881 0.9512955 -0.2122881
57709 0.9470342 -0.2209634 0.0529658 0.2209634 0.0529658 0.2209634 0.9470342 -0.2209634
60352 0.9424219 -0.2299006 0.0575781 0.2299006 0.0575781 0.2299006 0.9424219 -0.2299006
63115 0.9374341 -0.2390952 0.0625659 0.2390952 0.0625659 0.2390952 0.9374341 -0.2390952
66005 0.9320451 -0.2485408 0.0679549 0.2485408 0.0679549 0.2485408 0.9320451 -0.2485408
69028 0.9262282 -0.2582287 0.0737718 0.2582287 0.0737718 0.2582287 0.9262282 -0.2582287
72189 0.9199562 -0.2681481 0.0800438 0.2681481 0.0800438 0.2681481 0.9199562 -0.2681481
75495 0.9132011 -0.2782853 0.0867989 0.2782853 0.0867989 0.2782853 0.9132011 -0.2782853
78952 0.9059344 -0.2886238 0.0940656 0.2886238 0.0940656 0.2886238 0.9059344 -0.2886238
82567 0.8981275 -0.2991439 0.1018725 0.2991439 0.1018725 0.2991439 0.8981275 -0.2991439
86348 0.8897519 -0.3098228 0.1102481 0.3098228 0.1102481 0.3098228 0.8897519 -0.3098228
90302 0.8807795 -0.3206340 0.1192205 0.3206340 0.1192205 0.3206340 0.8807795 -0.3206340
94437 0.8711828 -0.3315471 0.1288172 0.3315471 0.1288172 0.3315471 0.8711828 -0.3315471
98762 0.8609359 -0.3425282 0.1390641 0.3425282 0.1390641 0.3425282 0.8609359 -0.3425282
103284 0.8500144 -0.3535391 0.1499856 0.3535391 0.1499856 0.3535391 0.8500144 -0.3535391
108014 0.8383960 -0.3645376 0.1616040 0.3645376 0.1616040 0.3645376 0.8383960 -0.3645376
112960 0.8260615 -0.3754776 0.1739385 0.3754776 0.1739385 0.3754776 0.8260615 -0.3754776
118133 0.8129949 -0.3863088 0.1870051 0.3863088 0.1870051 0.3863088 0.8129949 -0.3863088
123542 0.7991846 -0.3969774 0.2008154 0.3969774 0.2008154 0.3969774 0.7991846 -0.3969774
129199 0.7846234 -0.4074260 0.2153766 0.4074260 0.2153766 0.4074260 0.7846234 -0.4074260
135116 0.7693096 -0.4175942 0.2306904 0.4175942 0.2306904 0.4175942 0.7693096 -0.4175942
141303 0.7532477 -0.4274190 0.2467523 0.4274190 0.2467523 0.4274190 0.7532477 -0.4274190
147774 0.7364485 -0.4368355 0.2635515 0.4368355 0.2635515 0.4368355 0.7364485 -0.4368355
154540 0.7189301 -0.4457779 0.2810699 0.4457779 0.2810699 0.4457779 0.7189301 -0.4457779
161617 0.7007180 -0.4541800 0.2992820 0.4541800 0.2992820 0.4541800 0.7007180 -0.4541800
169018 0.6818456 -0.4619764 0.3181544 0.4619764 0.3181544 0.4619764 0.6818456 -0.4619764
176758 0.6623541 -0.4691036 0.3376459 0.4691036 0.3376459 0.4691036 0.6623541 -0.4691036
184852 0.6422925 -0.4755012 0.3577075 0.4755012 0.3577075 0.4755012 0.6422925 -0.4755012
193316 0.6217176 -0.4811127 0.3782824 0.4811127 0.3782824 0.4811127 0.6217176 -0.4811127
202169 0.6006932 -0.4858872 0.3993068 0.4858872 0.3993068 0.4858872 0.6006932 -0.4858872
211427 0.5792897 -0.4897798 0.4207103 0.4897798 0.4207103 0.4897798 0.5792897 -0.4897798
221108 0.5575832 -0.4927534 0.4424168 0.4927534 0.4424168 0.4927534 0.5575832 -0.4927534
231233 0.5356545 -0.4947787 0.4643455 0.4947787 0.4643455 0.4947787 0.5356545 -0.4947787
241822 0.5135878 -0.4958358 0.4864122 0.4958358 0.4864122 0.4958358 0.5135878 -0.4958358
252896 0.4914697 -0.4959138 0.5085303 0.4959138 0.5085303 0.4959138 0.4914697 -0.4959138
264476 0.4693875 -0.4950117 0.5306125 0.4950117 0.5306125 0.4950117 0.4693875 -0.4950117
276587 0.4474282 -0.4931381 0.5525718 0.4931381 0.5525718 0.4931381 0.4474282 -0.4931381
289253 0.4256767 -0.4903114 0.5743233 0.4903114 0.5743233 0.4903114 0.4256767 -0.4903114
302498 0.4042148 -0.4865588 0.5957852 0.4865588 0.5957852 0.4865588 0.4042148 -0.4865588
316350 0.3831199 -0.4819161 0.6168801 0.4819161 0.6168801 0.4819161 0.3831199 -0.4819161
330837 0.3624637 -0.4764267 0.6375363 0.4764267 0.6375363 0.4764267 0.3624637 -0.4764267
345986 0.3423120 -0.4701407 0.6576880 0.4701407 0.6576880 0.4701407 0.3423120 -0.4701407
361830 0.3227229 -0.4631137 0.6772771 0.4631137 0.6772771 0.4631137 0.3227229 -0.4631137
378399 0.3037475 -0.4554059 0.6962525 0.4554059 0.6962525 0.4554059 0.3037475 -0.4554059
395726 0.2854286 -0.4470807 0.7145714 0.4470807 0.7145714 0.4470807 0.2854286 -0.4470807
413847 0.2678012 -0.4382039 0.7321988 0.4382039 0.7321988 0.4382039 0.2678012 -0.4382039
432798 0.2508924 -0.4288418 0.7491076 0.4288418 0.7491076 0.4288418 0.2508924 -0.4288418
452617 0.2347214 -0.4190612 0.7652786 0.4190612 0.7652786 0.4190612 0.2347214 -0.4190612
473344 0.2193004 -0.4089278 0.7806996 0.4089278 0.7806996 0.4089278 0.2193004 -0.4089278
495019 0.2046347 -0.3985054 0.7953653 0.3985054 0.7953653 0.3985054 0.2046347 -0.3985054
517687 0.1907232 -0.3878554 0.8092768 0.3878554 0.8092768 0.3878554 0.1907232 -0.3878554
541393 0.1775594 -0.3770364 0.8224406 0.3770364 0.8224406 0.3770364 0.1775594 -0.3770364
566185 0.1651318 -0.3661031 0.8348682 0.3661031 0.8348682 0.3661031 0.1651318 -0.3661031
592111 0.1534246 -0.3551068 0.8465754 0.3551068 0.8465754 0.3551068 0.1534246 -0.3551068
619225 0.1424185 -0.3440945 0.8575815 0.3440945 0.8575815 0.3440945 0.1424185 -0.3440945
647581 0.1320911 -0.3331091 0.8679089 0.3331091 0.8679089 0.3331091 0.1320911 -0.3331091
677235 0.1224178 -0.3221895 0.8775822 0.3221895 0.8775822 0.3221895 0.1224178 -0.3221895
708247 0.1133721 -0.3113702 0.8866279 0.3113702 0.8866279 0.3113702 0.1133721 -0.3113702
740679 0.1049264 -0.3006819 0.8950736 0.3006819 0.8950736 0.3006819 0.1049264 -0.3006819
774597 0.0970522 -0.2901515 0.9029478 0.2901515 0.9029478 0.2901515 0.0970522 -0.2901515
810067 0.0897204 -0.2798021 0.9102796 0.2798021 0.9102796 0.2798021 0.0897204 -0.2798021
847162 0.0829023 -0.2696534 0.9170977 0.2696534 0.9170977 0.2696534 0.0829023 -0.2696534
885955 0.0765690 -0.2597219 0.9234310 0.2597219 0.9234310 0.2597219 0.0765690 -0.2597219
926525 0.0706923 -0.2500214 0.9293077 0.2500214 0.9293077 0.2500214 0.0706923 -0.2500214
968953 0.0652446 -0.2405626 0.9347554 0.2405626 0.9347554 0.2405626 0.0652446 -0.2405626
1013323 0.0601992 -0.2313543 0.9398008 0.2313543 0.9398008 0.2313543 0.0601992 -0.2313543
1059725 0.0555304 -0.2224025 0.9444696 0.2224025 0.9444696 0.2224025 0.0555304 -0.2224025
1108252 0.0512134 -0.2137118 0.9487866 0.2137118 0.9487866 0.2137118 0.0512134 -0.2137118
1159002 0.0472247 -0.2052849 0.9527753 0.2052849 0.9527753 0.2052849 0.0472247 -0.2052849
1212075 0.0435416 -0.1971227 0.9564584 0.1971227 0.9564584 0.1971227 0.0435416 -0.1971227
1267578 0.0401431 -0.1892251 0.9598569 0.1892251 0.9598569 0.1892251 0.0401431 -0.1892251
1325623 0.0370088 -0.1815907 0.9629912 0.1815907 0.9629912 0.1815907 0.0370088 -0.1815907
1386327 0.0341199 -0.1742172 0.9658801 0.1742172 0.9658801 0.1742172 0.0341199 -0.1742172
1449809 0.0314584 -0.1671013 0.9685416 0.1671013 0.9685416 0.1671013 0.0314584 -0.1671013
1516199 0.0290076 -0.1602391 0.9709924 0.1602391 0.9709924 0.1602391 0.0290076 -0.1602391
1585629 0.0267518 -0.1536260 0.9732482 0.1536260 0.9732482 0.1536260 0.0267518 -0.1536260
1658239 0.0246763 -0.1472570 0.9753237 0.1472570 0.9753237 0.1472570 0.0246763 -0.1472570
1734173 0.0227674 -0.1411265 0.9772326 0.1411265 0.9772326 0.1411265 0.0227674 -0.1411265
1813585 0.0210123 -0.1352288 0.9789877 0.1352288 0.9789877 0.1352288 0.0210123 -0.1352288
1896632 0.0193991 -0.1295578 0.9806009 0.1295578 0.9806009 0.1295578 0.0193991 -0.1295578
1983483 0.0179167 -0.1241072 0.9820833 0.1241072 0.9820833 0.1241072 0.0179167 -0.1241072
2074311 0.0165548 -0.1188708 0.9834452 0.1188708 0.9834452 0.1188708 0.0165548 -0.1188708
