!Murata Part Number: GRM155R62A104ME14
!These Parameters are Measured in Series Mode Connection
!Data Generated on Mar 30, 2021
!       o--ll--o
!Port1            Port2
!       o------o
!Operation Temp=25[degC], DC Bias Voltage=0[V]
!Freq. Start=100[Hz] Stop=6[GHz] 401[Steps]
# Hz S RI R 50
!Freq.(Hz) S11(Real) S11(Imag) S21(Real) S21(Imag) S12(Real) S12(Imag) S22(Real) S22(Imag)
100 0.9999338 -0.0058020 0.0000662 0.0058020 0.0000662 0.0058020 0.9999338 -0.0058020
105 0.9999293 -0.0060667 0.0000707 0.0060667 0.0000707 0.0060667 0.9999293 -0.0060667
109 0.9999243 -0.0063435 0.0000757 0.0063435 0.0000757 0.0063435 0.9999243 -0.0063435
114 0.9999190 -0.0066329 0.0000810 0.0066329 0.0000810 0.0066329 0.9999190 -0.0066329
120 0.9999133 -0.0069355 0.0000867 0.0069355 0.0000867 0.0069355 0.9999133 -0.0069355
125 0.9999071 -0.0072519 0.0000929 0.0072519 0.0000929 0.0072519 0.9999071 -0.0072519
131 0.9999005 -0.0075827 0.0000995 0.0075827 0.0000995 0.0075827 0.9999005 -0.0075827
137 0.9998932 -0.0079286 0.0001068 0.0079286 0.0001068 0.0079286 0.9998932 -0.0079286
143 0.9998854 -0.0082903 0.0001146 0.0082903 0.0001146 0.0082903 0.9998854 -0.0082903
150 0.9998770 -0.0086685 0.0001230 0.0086685 0.0001230 0.0086685 0.9998770 -0.0086685
156 0.9998678 -0.0090639 0.0001322 0.0090639 0.0001322 0.0090639 0.9998678 -0.0090639
164 0.9998580 -0.0094773 0.0001420 0.0094773 0.0001420 0.0094773 0.9998580 -0.0094773
171 0.9998473 -0.0099096 0.0001527 0.0099096 0.0001527 0.0099096 0.9998473 -0.0099096
179 0.9998357 -0.0103616 0.0001643 0.0103616 0.0001643 0.0103616 0.9998357 -0.0103616
187 0.9998232 -0.0108342 0.0001768 0.0108342 0.0001768 0.0108342 0.9998232 -0.0108342
196 0.9998097 -0.0113283 0.0001903 0.0113283 0.0001903 0.0113283 0.9998097 -0.0113283
205 0.9997950 -0.0118449 0.0002050 0.0118449 0.0002050 0.0118449 0.9997950 -0.0118449
214 0.9997792 -0.0123851 0.0002208 0.0123851 0.0002208 0.0123851 0.9997792 -0.0123851
224 0.9997620 -0.0129499 0.0002380 0.0129499 0.0002380 0.0129499 0.9997620 -0.0129499
234 0.9997433 -0.0135405 0.0002567 0.0135405 0.0002567 0.0135405 0.9997433 -0.0135405
245 0.9997231 -0.0141579 0.0002769 0.0141579 0.0002769 0.0141579 0.9997231 -0.0141579
256 0.9997012 -0.0148036 0.0002988 0.0148036 0.0002988 0.0148036 0.9997012 -0.0148036
268 0.9996774 -0.0154787 0.0003226 0.0154787 0.0003226 0.0154787 0.9996774 -0.0154787
280 0.9996516 -0.0161845 0.0003484 0.0161845 0.0003484 0.0161845 0.9996516 -0.0161845
293 0.9996236 -0.0169226 0.0003764 0.0169226 0.0003764 0.0169226 0.9996236 -0.0169226
306 0.9995931 -0.0176943 0.0004069 0.0176943 0.0004069 0.0176943 0.9995931 -0.0176943
320 0.9995600 -0.0185012 0.0004400 0.0185012 0.0004400 0.0185012 0.9995600 -0.0185012
335 0.9995240 -0.0193448 0.0004760 0.0193448 0.0004760 0.0193448 0.9995240 -0.0193448
350 0.9994849 -0.0202269 0.0005151 0.0202269 0.0005151 0.0202269 0.9994849 -0.0202269
366 0.9994423 -0.0211492 0.0005577 0.0211492 0.0005577 0.0211492 0.9994423 -0.0211492
383 0.9993959 -0.0221136 0.0006041 0.0221136 0.0006041 0.0221136 0.9993959 -0.0221136
401 0.9993453 -0.0231218 0.0006547 0.0231218 0.0006547 0.0231218 0.9993453 -0.0231218
419 0.9992903 -0.0241760 0.0007097 0.0241760 0.0007097 0.0241760 0.9992903 -0.0241760
438 0.9992303 -0.0252781 0.0007697 0.0252781 0.0007697 0.0252781 0.9992303 -0.0252781
458 0.9991650 -0.0264304 0.0008350 0.0264304 0.0008350 0.0264304 0.9991650 -0.0264304
479 0.9990937 -0.0276350 0.0009063 0.0276350 0.0009063 0.0276350 0.9990937 -0.0276350
501 0.9990161 -0.0288944 0.0009839 0.0288944 0.0009839 0.0288944 0.9990161 -0.0288944
524 0.9989314 -0.0302110 0.0010686 0.0302110 0.0010686 0.0302110 0.9989314 -0.0302110
548 0.9988390 -0.0315873 0.0011610 0.0315873 0.0011610 0.0315873 0.9988390 -0.0315873
573 0.9987383 -0.0330260 0.0012617 0.0330260 0.0012617 0.0330260 0.9987383 -0.0330260
600 0.9986284 -0.0345299 0.0013716 0.0345299 0.0013716 0.0345299 0.9986284 -0.0345299
627 0.9985086 -0.0361019 0.0014914 0.0361019 0.0014914 0.0361019 0.9985086 -0.0361019
656 0.9983779 -0.0377450 0.0016221 0.0377450 0.0016221 0.0377450 0.9983779 -0.0377450
686 0.9982353 -0.0394622 0.0017647 0.0394622 0.0017647 0.0394622 0.9982353 -0.0394622
717 0.9980798 -0.0412570 0.0019202 0.0412570 0.0019202 0.0412570 0.9980798 -0.0412570
750 0.9979102 -0.0431327 0.0020898 0.0431327 0.0020898 0.0431327 0.9979102 -0.0431327
784 0.9977251 -0.0450928 0.0022749 0.0450928 0.0022749 0.0450928 0.9977251 -0.0450928
820 0.9975234 -0.0471411 0.0024766 0.0471411 0.0024766 0.0471411 0.9975234 -0.0471411
858 0.9973033 -0.0492813 0.0026967 0.0492813 0.0026967 0.0492813 0.9973033 -0.0492813
897 0.9970633 -0.0515175 0.0029367 0.0515175 0.0029367 0.0515175 0.9970633 -0.0515175
938 0.9968016 -0.0538537 0.0031984 0.0538537 0.0031984 0.0538537 0.9968016 -0.0538537
981 0.9965162 -0.0562943 0.0034838 0.0562943 0.0034838 0.0562943 0.9965162 -0.0562943
1026 0.9962051 -0.0588438 0.0037949 0.0588438 0.0037949 0.0588438 0.9962051 -0.0588438
1073 0.9958658 -0.0615068 0.0041342 0.0615068 0.0041342 0.0615068 0.9958658 -0.0615068
1122 0.9954960 -0.0642881 0.0045040 0.0642881 0.0045040 0.0642881 0.9954960 -0.0642881
1174 0.9950927 -0.0671927 0.0049073 0.0671927 0.0049073 0.0671927 0.9950927 -0.0671927
1227 0.9946532 -0.0702257 0.0053468 0.0702257 0.0053468 0.0702257 0.9946532 -0.0702257
1283 0.9941740 -0.0733924 0.0058260 0.0733924 0.0058260 0.0733924 0.9941740 -0.0733924
1342 0.9936517 -0.0766984 0.0063483 0.0766984 0.0063483 0.0766984 0.9936517 -0.0766984
1404 0.9930823 -0.0801494 0.0069177 0.0801494 0.0069177 0.0801494 0.9930823 -0.0801494
1468 0.9924617 -0.0837511 0.0075383 0.0837511 0.0075383 0.0837511 0.9924617 -0.0837511
1535 0.9917854 -0.0875096 0.0082146 0.0875096 0.0082146 0.0875096 0.9917854 -0.0875096
1606 0.9910482 -0.0914310 0.0089518 0.0914310 0.0089518 0.0914310 0.9910482 -0.0914310
1679 0.9902448 -0.0955216 0.0097552 0.0955216 0.0097552 0.0955216 0.9902448 -0.0955216
1756 0.9893693 -0.0997878 0.0106307 0.0997878 0.0106307 0.0997878 0.9893693 -0.0997878
1836 0.9884152 -0.1042362 0.0115848 0.1042362 0.0115848 0.1042362 0.9884152 -0.1042362
1920 0.9873756 -0.1088735 0.0126244 0.1088735 0.0126244 0.1088735 0.9873756 -0.1088735
2008 0.9862430 -0.1137062 0.0137570 0.1137062 0.0137570 0.1137062 0.9862430 -0.1137062
2100 0.9850091 -0.1187411 0.0149909 0.1187411 0.0149909 0.1187411 0.9850091 -0.1187411
2196 0.9836651 -0.1239850 0.0163349 0.1239850 0.0163349 0.1239850 0.9836651 -0.1239850
2297 0.9822013 -0.1294446 0.0177987 0.1294446 0.0177987 0.1294446 0.9822013 -0.1294446
2402 0.9806074 -0.1351264 0.0193926 0.1351264 0.0193926 0.1351264 0.9806074 -0.1351264
2512 0.9788722 -0.1410370 0.0211278 0.1410370 0.0211278 0.1410370 0.9788722 -0.1410370
2627 0.9769835 -0.1471825 0.0230165 0.1471825 0.0230165 0.1471825 0.9769835 -0.1471825
2748 0.9749285 -0.1535691 0.0250715 0.1535691 0.0250715 0.1535691 0.9749285 -0.1535691
2873 0.9726930 -0.1602024 0.0273070 0.1602024 0.0273070 0.1602024 0.9726930 -0.1602024
3005 0.9702623 -0.1670876 0.0297377 0.1670876 0.0297377 0.1670876 0.9702623 -0.1670876
3143 0.9676201 -0.1742294 0.0323799 0.1742294 0.0323799 0.1742294 0.9676201 -0.1742294
3287 0.9647495 -0.1816318 0.0352505 0.1816318 0.0352505 0.1816318 0.9647495 -0.1816318
3437 0.9616320 -0.1892981 0.0383680 0.1892981 0.0383680 0.1892981 0.9616320 -0.1892981
3594 0.9582485 -0.1972307 0.0417515 0.1972307 0.0417515 0.1972307 0.9582485 -0.1972307
3759 0.9545782 -0.2054308 0.0454218 0.2054308 0.0454218 0.2054308 0.9545782 -0.2054308
3931 0.9505995 -0.2138985 0.0494005 0.2138985 0.0494005 0.2138985 0.9505995 -0.2138985
4111 0.9462895 -0.2226324 0.0537105 0.2226324 0.0537105 0.2226324 0.9462895 -0.2226324
4299 0.9416242 -0.2316297 0.0583758 0.2316297 0.0583758 0.2316297 0.9416242 -0.2316297
4496 0.9365784 -0.2408856 0.0634216 0.2408856 0.0634216 0.2408856 0.9365784 -0.2408856
4702 0.9311262 -0.2503933 0.0688738 0.2503933 0.0688738 0.2503933 0.9311262 -0.2503933
4918 0.9252404 -0.2601439 0.0747596 0.2601439 0.0747596 0.2601439 0.9252404 -0.2601439
5143 0.9188935 -0.2701259 0.0811065 0.2701259 0.0811065 0.2701259 0.9188935 -0.2701259
5378 0.9120570 -0.2803251 0.0879430 0.2803251 0.0879430 0.2803251 0.9120570 -0.2803251
5625 0.9047021 -0.2907244 0.0952979 0.2907244 0.0952979 0.2907244 0.9047021 -0.2907244
5882 0.8968001 -0.3013034 0.1031999 0.3013034 0.1031999 0.3013034 0.8968001 -0.3013034
6151 0.8883221 -0.3120385 0.1116779 0.3120385 0.1116779 0.3120385 0.8883221 -0.3120385
6433 0.8792400 -0.3229022 0.1207600 0.3229022 0.1207600 0.3229022 0.8792400 -0.3229022
6728 0.8695263 -0.3338635 0.1304737 0.3338635 0.1304737 0.3338635 0.8695263 -0.3338635
7036 0.8591552 -0.3448872 0.1408448 0.3448872 0.1408448 0.3448872 0.8591552 -0.3448872
7358 0.8481025 -0.3559342 0.1518975 0.3559342 0.1518975 0.3559342 0.8481025 -0.3559342
7695 0.8363464 -0.3669614 0.1636536 0.3669614 0.1636536 0.3669614 0.8363464 -0.3669614
8047 0.8238682 -0.3779216 0.1761318 0.3779216 0.1761318 0.3779216 0.8238682 -0.3779216
8416 0.8106527 -0.3887636 0.1893473 0.3887636 0.1893473 0.3887636 0.8106527 -0.3887636
8801 0.7966889 -0.3994326 0.2033111 0.3994326 0.2033111 0.3994326 0.7966889 -0.3994326
9204 0.7819707 -0.4098705 0.2180293 0.4098705 0.2180293 0.4098705 0.7819707 -0.4098705
9626 0.7664977 -0.4200160 0.2335023 0.4200160 0.2335023 0.4200160 0.7664977 -0.4200160
10066 0.7502755 -0.4298057 0.2497245 0.4298057 0.2497245 0.4298057 0.7502755 -0.4298057
10527 0.7333162 -0.4391743 0.2666838 0.4391743 0.2666838 0.4391743 0.7333162 -0.4391743
11009 0.7156394 -0.4480557 0.2843606 0.4480557 0.2843606 0.4480557 0.7156394 -0.4480557
11514 0.6972722 -0.4563836 0.3027278 0.4563836 0.3027278 0.4563836 0.6972722 -0.4563836
12041 0.6782493 -0.4640928 0.3217507 0.4640928 0.3217507 0.4640928 0.6782493 -0.4640928
12592 0.6586135 -0.4711203 0.3413865 0.4711203 0.3413865 0.4711203 0.6586135 -0.4711203
13169 0.6384153 -0.4774060 0.3615847 0.4774060 0.3615847 0.4774060 0.6384153 -0.4774060
13772 0.6177127 -0.4828945 0.3822873 0.4828945 0.3822873 0.4828945 0.6177127 -0.4828945
14402 0.5965709 -0.4875354 0.4034291 0.4875354 0.4034291 0.4875354 0.5965709 -0.4875354
15062 0.5750614 -0.4912854 0.4249386 0.4912854 0.4249386 0.4912854 0.5750614 -0.4912854
15752 0.5532613 -0.4941082 0.4467387 0.4941082 0.4467387 0.4941082 0.5532613 -0.4941082
16473 0.5312520 -0.4959763 0.4687480 0.4959763 0.4687480 0.4959763 0.5312520 -0.4959763
17227 0.5091185 -0.4968708 0.4908815 0.4968708 0.4908815 0.4968708 0.5091185 -0.4968708
18016 0.4869477 -0.4967826 0.5130523 0.4967826 0.5130523 0.4967826 0.4869477 -0.4967826
18841 0.4648271 -0.4957120 0.5351729 0.4957120 0.5351729 0.4957120 0.4648271 -0.4957120
19704 0.4428437 -0.4936694 0.5571563 0.4936694 0.5571563 0.4936694 0.4428437 -0.4936694
20606 0.4210821 -0.4906742 0.5789179 0.4906742 0.5789179 0.4906742 0.4210821 -0.4906742
21550 0.3996238 -0.4867553 0.6003762 0.4867553 0.6003762 0.4867553 0.3996238 -0.4867553
22537 0.3785457 -0.4819496 0.6214543 0.4819496 0.6214543 0.4819496 0.3785457 -0.4819496
23569 0.3579188 -0.4763017 0.6420812 0.4763017 0.6420812 0.4763017 0.3579188 -0.4763017
24648 0.3378079 -0.4698628 0.6621921 0.4698628 0.6621921 0.4698628 0.3378079 -0.4698628
25777 0.3182707 -0.4626893 0.6817293 0.4626893 0.6817293 0.4626893 0.3182707 -0.4626893
26957 0.2993569 -0.4548423 0.7006431 0.4548423 0.7006431 0.4548423 0.2993569 -0.4548423
28191 0.2811086 -0.4463857 0.7188914 0.4463857 0.7188914 0.4463857 0.2811086 -0.4463857
29482 0.2635597 -0.4373856 0.7364403 0.4373856 0.7364403 0.4373856 0.2635597 -0.4373856
30832 0.2467364 -0.4279090 0.7532636 0.4279090 0.7532636 0.4279090 0.2467364 -0.4279090
32244 0.2306569 -0.4180227 0.7693431 0.4180227 0.7693431 0.4180227 0.2306569 -0.4180227
33721 0.2153324 -0.4077925 0.7846676 0.4077925 0.7846676 0.4077925 0.2153324 -0.4077925
35265 0.2007673 -0.3972824 0.7992327 0.3972824 0.7992327 0.3972824 0.2007673 -0.3972824
36880 0.1869598 -0.3865538 0.8130402 0.3865538 0.8130402 0.3865538 0.1869598 -0.3865538
38569 0.1739025 -0.3756649 0.8260975 0.3756649 0.8260975 0.3756649 0.1739025 -0.3756649
40335 0.1615831 -0.3646704 0.8384169 0.3646704 0.8384169 0.3646704 0.1615831 -0.3646704
42182 0.1499852 -0.3536214 0.8500148 0.3536214 0.8500148 0.3536214 0.1499852 -0.3536214
44113 0.1390888 -0.3425645 0.8609112 0.3425645 0.8609112 0.3425645 0.1390888 -0.3425645
46134 0.1288710 -0.3315425 0.8711290 0.3315425 0.8711290 0.3315425 0.1288710 -0.3315425
48246 0.1193065 -0.3205937 0.8806935 0.3205937 0.8806935 0.3205937 0.1193065 -0.3205937
50455 0.1103684 -0.3097526 0.8896316 0.3097526 0.8896316 0.3097526 0.1103684 -0.3097526
52766 0.1020287 -0.2990493 0.8979713 0.2990493 0.8979713 0.2990493 0.1020287 -0.2990493
55182 0.0942582 -0.2885104 0.9057418 0.2885104 0.9057418 0.2885104 0.0942582 -0.2885104
57709 0.0870279 -0.2781585 0.9129721 0.2781585 0.9129721 0.2781585 0.0870279 -0.2781585
60352 0.0803084 -0.2680130 0.9196916 0.2680130 0.9196916 0.2680130 0.0803084 -0.2680130
63115 0.0740706 -0.2580900 0.9259294 0.2580900 0.9259294 0.2580900 0.0740706 -0.2580900
66005 0.0682861 -0.2484027 0.9317139 0.2484027 0.9317139 0.2484027 0.0682861 -0.2484027
69028 0.0629271 -0.2389616 0.9370729 0.2389616 0.9370729 0.2389616 0.0629271 -0.2389616
72189 0.0579667 -0.2297748 0.9420333 0.2297748 0.9420333 0.2297748 0.0579667 -0.2297748
75495 0.0533789 -0.2208482 0.9466211 0.2208482 0.9466211 0.2208482 0.0533789 -0.2208482
78952 0.0491391 -0.2121857 0.9508609 0.2121857 0.9508609 0.2121857 0.0491391 -0.2121857
82567 0.0452235 -0.2037895 0.9547765 0.2037895 0.9547765 0.2037895 0.0452235 -0.2037895
86348 0.0416096 -0.1956605 0.9583904 0.1956605 0.9583904 0.1956605 0.0416096 -0.1956605
90302 0.0382762 -0.1877979 0.9617238 0.1877979 0.9617238 0.1877979 0.0382762 -0.1877979
94437 0.0352032 -0.1801999 0.9647968 0.1801999 0.9647968 0.1801999 0.0352032 -0.1801999
98762 0.0323716 -0.1728640 0.9676284 0.1728640 0.9676284 0.1728640 0.0323716 -0.1728640
103284 0.0297638 -0.1657865 0.9702362 0.1657865 0.9702362 0.1657865 0.0297638 -0.1657865
108014 0.0273631 -0.1589632 0.9726369 0.1589632 0.9726369 0.1589632 0.0273631 -0.1589632
112960 0.0251539 -0.1523893 0.9748461 0.1523893 0.9748461 0.1523893 0.0251539 -0.1523893
118133 0.0231218 -0.1460593 0.9768782 0.1460593 0.9768782 0.1460593 0.0231218 -0.1460593
123542 0.0212532 -0.1399677 0.9787468 0.1399677 0.9787468 0.1399677 0.0212532 -0.1399677
129199 0.0195354 -0.1341085 0.9804646 0.1341085 0.9804646 0.1341085 0.0195354 -0.1341085
135116 0.0179569 -0.1284754 0.9820431 0.1284754 0.9820431 0.1284754 0.0179569 -0.1284754
141303 0.0165067 -0.1230620 0.9834933 0.1230620 0.9834933 0.1230620 0.0165067 -0.1230620
147774 0.0151747 -0.1178619 0.9848253 0.1178619 0.9848253 0.1178619 0.0151747 -0.1178619
154540 0.0139515 -0.1128684 0.9860485 0.1128684 0.9860485 0.1128684 0.0139515 -0.1128684
161617 0.0128286 -0.1080751 0.9871714 0.1080751 0.9871714 0.1080751 0.0128286 -0.1080751
169018 0.0117978 -0.1034753 0.9882022 0.1034753 0.9882022 0.1034753 0.0117978 -0.1034753
176758 0.0108519 -0.0990624 0.9891481 0.0990624 0.9891481 0.0990624 0.0108519 -0.0990624
184852 0.0099838 -0.0948301 0.9900162 0.0948301 0.9900162 0.0948301 0.0099838 -0.0948301
193316 0.0091874 -0.0907719 0.9908126 0.0907719 0.9908126 0.0907719 0.0091874 -0.0907719
202169 0.0084566 -0.0868815 0.9915434 0.0868815 0.9915434 0.0868815 0.0084566 -0.0868815
211427 0.0077863 -0.0831528 0.9922137 0.0831528 0.9922137 0.0831528 0.0077863 -0.0831528
221108 0.0071714 -0.0795798 0.9928286 0.0795798 0.9928286 0.0795798 0.0071714 -0.0795798
231233 0.0066073 -0.0761565 0.9933927 0.0761565 0.9933927 0.0761565 0.0066073 -0.0761565
241822 0.0060897 -0.0728772 0.9939103 0.0728772 0.9939103 0.0728772 0.0060897 -0.0728772
252896 0.0056150 -0.0697363 0.9943850 0.0697363 0.9943850 0.0697363 0.0056150 -0.0697363
264476 0.0051794 -0.0667283 0.9948206 0.0667283 0.9948206 0.0667283 0.0051794 -0.0667283
276587 0.0047797 -0.0638480 0.9952203 0.0638480 0.9952203 0.0638480 0.0047797 -0.0638480
289253 0.0044128 -0.0610903 0.9955872 0.0610903 0.9955872 0.0610903 0.0044128 -0.0610903
302498 0.0040761 -0.0584502 0.9959239 0.0584502 0.9959239 0.0584502 0.0040761 -0.0584502
316350 0.0037670 -0.0559229 0.9962330 0.0559229 0.9962330 0.0559229 0.0037670 -0.0559229
330837 0.0034831 -0.0535038 0.9965169 0.0535038 0.9965169 0.0535038 0.0034831 -0.0535038
345986 0.0032223 -0.0511883 0.9967777 0.0511883 0.9967777 0.0511883 0.0032223 -0.0511883
361830 0.0029827 -0.0489723 0.9970173 0.0489723 0.9970173 0.0489723 0.0029827 -0.0489723
378399 0.0027624 -0.0468515 0.9972376 0.0468515 0.9972376 0.0468515 0.0027624 -0.0468515
395726 0.0025599 -0.0448219 0.9974401 0.0448219 0.9974401 0.0448219 0.0025599 -0.0448219
413847 0.0023737 -0.0428797 0.9976263 0.0428797 0.9976263 0.0428797 0.0023737 -0.0428797
432798 0.0022023 -0.0410212 0.9977977 0.0410212 0.9977977 0.0410212 0.0022023 -0.0410212
452617 0.0020446 -0.0392428 0.9979554 0.0392428 0.9979554 0.0392428 0.0020446 -0.0392428
473344 0.0018994 -0.0375411 0.9981006 0.0375411 0.9981006 0.0375411 0.0018994 -0.0375411
495019 0.0017656 -0.0359128 0.9982344 0.0359128 0.9982344 0.0359128 0.0017656 -0.0359128
517687 0.0016423 -0.0343548 0.9983577 0.0343548 0.9983577 0.0343548 0.0016423 -0.0343548
541393 0.0015287 -0.0328640 0.9984713 0.0328640 0.9984713 0.0328640 0.0015287 -0.0328640
566185 0.0014240 -0.0314376 0.9985760 0.0314376 0.9985760 0.0314376 0.0014240 -0.0314376
592111 0.0013274 -0.0300727 0.9986726 0.0300727 0.9986726 0.0300727 0.0013274 -0.0300727
619225 0.0012382 -0.0287668 0.9987618 0.0287668 0.9987618 0.0287668 0.0012382 -0.0287668
647581 0.0011560 -0.0275173 0.9988440 0.0275173 0.9988440 0.0275173 0.0011560 -0.0275173
677235 0.0010801 -0.0263217 0.9989199 0.0263217 0.9989199 0.0263217 0.0010801 -0.0263217
708247 0.0010101 -0.0251778 0.9989899 0.0251778 0.9989899 0.0251778 0.0010101 -0.0251778
740679 0.0009454 -0.0240833 0.9990546 0.0240833 0.9990546 0.0240833 0.0009454 -0.0240833
774597 0.0008857 -0.0230361 0.9991143 0.0230361 0.9991143 0.0230361 0.0008857 -0.0230361
810067 0.0008306 -0.0220341 0.9991694 0.0220341 0.9991694 0.0220341 0.0008306 -0.0220341
847162 0.0007797 -0.0210754 0.9992203 0.0210754 0.9992203 0.0210754 0.0007797 -0.0210754
885955 0.0007326 -0.0201581 0.9992674 0.0201581 0.9992674 0.0201581 0.0007326 -0.0201581
926525 0.0006892 -0.0192805 0.9993108 0.0192805 0.9993108 0.0192805 0.0006892 -0.0192805
968953 0.0006491 -0.0184408 0.9993509 0.0184408 0.9993509 0.0184408 0.0006491 -0.0184408
1013323 0.0006120 -0.0176374 0.9993880 0.0176374 0.9993880 0.0176374 0.0006120 -0.0176374
1059725 0.0005777 -0.0168688 0.9994223 0.0168688 0.9994223 0.0168688 0.0005777 -0.0168688
1108252 0.0005461 -0.0161334 0.9994539 0.0161334 0.9994539 0.0161334 0.0005461 -0.0161334
1159002 0.0005168 -0.0154298 0.9994832 0.0154298 0.9994832 0.0154298 0.0005168 -0.0154298
1212075 0.0004897 -0.0147566 0.9995103 0.0147566 0.9995103 0.0147566 0.0004897 -0.0147566
1267578 0.0004647 -0.0141125 0.9995353 0.0141125 0.9995353 0.0141125 0.0004647 -0.0141125
1325623 0.0004416 -0.0134963 0.9995584 0.0134963 0.9995584 0.0134963 0.0004416 -0.0134963
1386327 0.0004201 -0.0129068 0.9995799 0.0129068 0.9995799 0.0129068 0.0004201 -0.0129068
1449809 0.0004003 -0.0123427 0.9995997 0.0123427 0.9995997 0.0123427 0.0004003 -0.0123427
1516199 0.0003819 -0.0118030 0.9996181 0.0118030 0.9996181 0.0118030 0.0003819 -0.0118030
1585629 0.0003649 -0.0112867 0.9996351 0.0112867 0.9996351 0.0112867 0.0003649 -0.0112867
1658239 0.0003491 -0.0107926 0.9996509 0.0107926 0.9996509 0.0107926 0.0003491 -0.0107926
1734173 0.0003344 -0.0103199 0.9996656 0.0103199 0.9996656 0.0103199 0.0003344 -0.0103199
1813585 0.0003208 -0.0098676 0.9996792 0.0098676 0.9996792 0.0098676 0.0003208 -0.0098676
1896632 0.0003082 -0.0094347 0.9996918 0.0094347 0.9996918 0.0094347 0.0003082 -0.0094347
1983483 0.0002964 -0.0090206 0.9997036 0.0090206 0.9997036 0.0090206 0.0002964 -0.0090206
2074311 0.0002855 -0.0086242 0.9997145 0.0086242 0.9997145 0.0086242 0.0002855 -0.0086242
