!Murata Part Number: GRM155R61H473ME19
!These Parameters are Measured in Series Mode Connection
!Data Generated on Mar 30, 2021
!       o--ll--o
!Port1            Port2
!       o------o
!Operation Temp=25[degC], DC Bias Voltage=0[V]
!Freq. Start=100[Hz] Stop=6[GHz] 401[Steps]
# Hz S RI R 50
!Freq.(Hz) S11(Real) S11(Imag) S21(Real) S21(Imag) S12(Real) S12(Imag) S22(Real) S22(Imag)
100 0.9999818 -0.0028121 0.0000182 0.0028121 0.0000182 0.0028121 0.9999818 -0.0028121
105 0.9999806 -0.0029406 0.0000194 0.0029406 0.0000194 0.0029406 0.9999806 -0.0029406
109 0.9999794 -0.0030749 0.0000206 0.0030749 0.0000206 0.0030749 0.9999794 -0.0030749
114 0.9999780 -0.0032153 0.0000220 0.0032153 0.0000220 0.0032153 0.9999780 -0.0032153
120 0.9999766 -0.0033622 0.0000234 0.0033622 0.0000234 0.0033622 0.9999766 -0.0033622
125 0.9999750 -0.0035158 0.0000250 0.0035158 0.0000250 0.0035158 0.9999750 -0.0035158
131 0.9999734 -0.0036764 0.0000266 0.0036764 0.0000266 0.0036764 0.9999734 -0.0036764
137 0.9999715 -0.0038443 0.0000285 0.0038443 0.0000285 0.0038443 0.9999715 -0.0038443
143 0.9999696 -0.0040199 0.0000304 0.0040199 0.0000304 0.0040199 0.9999696 -0.0040199
150 0.9999675 -0.0042036 0.0000325 0.0042036 0.0000325 0.0042036 0.9999675 -0.0042036
156 0.9999652 -0.0043956 0.0000348 0.0043956 0.0000348 0.0043956 0.9999652 -0.0043956
164 0.9999628 -0.0045964 0.0000372 0.0045964 0.0000372 0.0045964 0.9999628 -0.0045964
171 0.9999601 -0.0048064 0.0000399 0.0048064 0.0000399 0.0048064 0.9999601 -0.0048064
179 0.9999572 -0.0050260 0.0000428 0.0050260 0.0000428 0.0050260 0.9999572 -0.0050260
187 0.9999541 -0.0052556 0.0000459 0.0052556 0.0000459 0.0052556 0.9999541 -0.0052556
196 0.9999508 -0.0054957 0.0000492 0.0054957 0.0000492 0.0054957 0.9999508 -0.0054957
205 0.9999472 -0.0057467 0.0000528 0.0057467 0.0000528 0.0057467 0.9999472 -0.0057467
214 0.9999432 -0.0060092 0.0000568 0.0060092 0.0000568 0.0060092 0.9999432 -0.0060092
224 0.9999390 -0.0062837 0.0000610 0.0062837 0.0000610 0.0062837 0.9999390 -0.0062837
234 0.9999344 -0.0065708 0.0000656 0.0065708 0.0000656 0.0065708 0.9999344 -0.0065708
245 0.9999294 -0.0068709 0.0000706 0.0068709 0.0000706 0.0068709 0.9999294 -0.0068709
256 0.9999240 -0.0071848 0.0000760 0.0071848 0.0000760 0.0071848 0.9999240 -0.0071848
268 0.9999182 -0.0075130 0.0000818 0.0075130 0.0000818 0.0075130 0.9999182 -0.0075130
280 0.9999119 -0.0078562 0.0000881 0.0078562 0.0000881 0.0078562 0.9999119 -0.0078562
293 0.9999050 -0.0082151 0.0000950 0.0082151 0.0000950 0.0082151 0.9999050 -0.0082151
306 0.9998976 -0.0085903 0.0001024 0.0085903 0.0001024 0.0085903 0.9998976 -0.0085903
320 0.9998896 -0.0089827 0.0001104 0.0089827 0.0001104 0.0089827 0.9998896 -0.0089827
335 0.9998808 -0.0093930 0.0001192 0.0093930 0.0001192 0.0093930 0.9998808 -0.0093930
350 0.9998714 -0.0098221 0.0001286 0.0098221 0.0001286 0.0098221 0.9998714 -0.0098221
366 0.9998611 -0.0102708 0.0001389 0.0102708 0.0001389 0.0102708 0.9998611 -0.0102708
383 0.9998499 -0.0107400 0.0001501 0.0107400 0.0001501 0.0107400 0.9998499 -0.0107400
401 0.9998378 -0.0112306 0.0001622 0.0112306 0.0001622 0.0112306 0.9998378 -0.0112306
419 0.9998246 -0.0117437 0.0001754 0.0117437 0.0001754 0.0117437 0.9998246 -0.0117437
438 0.9998103 -0.0122802 0.0001897 0.0122802 0.0001897 0.0122802 0.9998103 -0.0122802
458 0.9997947 -0.0128412 0.0002053 0.0128412 0.0002053 0.0128412 0.9997947 -0.0128412
479 0.9997777 -0.0134278 0.0002223 0.0134278 0.0002223 0.0134278 0.9997777 -0.0134278
501 0.9997592 -0.0140412 0.0002408 0.0140412 0.0002408 0.0140412 0.9997592 -0.0140412
524 0.9997391 -0.0146827 0.0002609 0.0146827 0.0002609 0.0146827 0.9997391 -0.0146827
548 0.9997171 -0.0153535 0.0002829 0.0153535 0.0002829 0.0153535 0.9997171 -0.0153535
573 0.9996932 -0.0160549 0.0003068 0.0160549 0.0003068 0.0160549 0.9996932 -0.0160549
600 0.9996672 -0.0167884 0.0003328 0.0167884 0.0003328 0.0167884 0.9996672 -0.0167884
627 0.9996387 -0.0175553 0.0003613 0.0175553 0.0003613 0.0175553 0.9996387 -0.0175553
656 0.9996077 -0.0183573 0.0003923 0.0183573 0.0003923 0.0183573 0.9996077 -0.0183573
686 0.9995739 -0.0191958 0.0004261 0.0191958 0.0004261 0.0191958 0.9995739 -0.0191958
717 0.9995370 -0.0200726 0.0004630 0.0200726 0.0004630 0.0200726 0.9995370 -0.0200726
750 0.9994968 -0.0209894 0.0005032 0.0209894 0.0005032 0.0209894 0.9994968 -0.0209894
784 0.9994528 -0.0219480 0.0005472 0.0219480 0.0005472 0.0219480 0.9994528 -0.0219480
820 0.9994049 -0.0229503 0.0005951 0.0229503 0.0005951 0.0229503 0.9994049 -0.0229503
858 0.9993525 -0.0239982 0.0006475 0.0239982 0.0006475 0.0239982 0.9993525 -0.0239982
897 0.9992954 -0.0250939 0.0007046 0.0250939 0.0007046 0.0250939 0.9992954 -0.0250939
938 0.9992330 -0.0262394 0.0007670 0.0262394 0.0007670 0.0262394 0.9992330 -0.0262394
981 0.9991649 -0.0274370 0.0008351 0.0274370 0.0008351 0.0274370 0.9991649 -0.0274370
1026 0.9990906 -0.0286891 0.0009094 0.0286891 0.0009094 0.0286891 0.9990906 -0.0286891
1073 0.9990095 -0.0299981 0.0009905 0.0299981 0.0009905 0.0299981 0.9990095 -0.0299981
1122 0.9989210 -0.0313666 0.0010790 0.0313666 0.0010790 0.0313666 0.9989210 -0.0313666
1174 0.9988243 -0.0327971 0.0011757 0.0327971 0.0011757 0.0327971 0.9988243 -0.0327971
1227 0.9987188 -0.0342925 0.0012812 0.0342925 0.0012812 0.0342925 0.9987188 -0.0342925
1283 0.9986036 -0.0358557 0.0013964 0.0358557 0.0013964 0.0358557 0.9986036 -0.0358557
1342 0.9984779 -0.0374897 0.0015221 0.0374897 0.0015221 0.0374897 0.9984779 -0.0374897
1404 0.9983408 -0.0391976 0.0016592 0.0391976 0.0016592 0.0391976 0.9983408 -0.0391976
1468 0.9981910 -0.0409828 0.0018090 0.0409828 0.0018090 0.0409828 0.9981910 -0.0409828
1535 0.9980276 -0.0428485 0.0019724 0.0428485 0.0019724 0.0428485 0.9980276 -0.0428485
1606 0.9978493 -0.0447984 0.0021507 0.0447984 0.0021507 0.0447984 0.9978493 -0.0447984
1679 0.9976546 -0.0468363 0.0023454 0.0468363 0.0023454 0.0468363 0.9976546 -0.0468363
1756 0.9974422 -0.0489658 0.0025578 0.0489658 0.0025578 0.0489658 0.9974422 -0.0489658
1836 0.9972104 -0.0511911 0.0027896 0.0511911 0.0027896 0.0511911 0.9972104 -0.0511911
1920 0.9969575 -0.0535163 0.0030425 0.0535163 0.0030425 0.0535163 0.9969575 -0.0535163
2008 0.9966814 -0.0559458 0.0033186 0.0559458 0.0033186 0.0559458 0.9966814 -0.0559458
2100 0.9963802 -0.0584840 0.0036198 0.0584840 0.0036198 0.0584840 0.9963802 -0.0584840
2196 0.9960514 -0.0611356 0.0039486 0.0611356 0.0039486 0.0611356 0.9960514 -0.0611356
2297 0.9956927 -0.0639055 0.0043073 0.0639055 0.0043073 0.0639055 0.9956927 -0.0639055
2402 0.9953012 -0.0667985 0.0046988 0.0667985 0.0046988 0.0667985 0.9953012 -0.0667985
2512 0.9948740 -0.0698201 0.0051260 0.0698201 0.0051260 0.0698201 0.9948740 -0.0698201
2627 0.9944078 -0.0729754 0.0055922 0.0729754 0.0055922 0.0729754 0.9944078 -0.0729754
2748 0.9938991 -0.0762700 0.0061009 0.0762700 0.0061009 0.0762700 0.9938991 -0.0762700
2873 0.9933440 -0.0797096 0.0066560 0.0797096 0.0066560 0.0797096 0.9933440 -0.0797096
3005 0.9927383 -0.0833000 0.0072617 0.0833000 0.0072617 0.0833000 0.9927383 -0.0833000
3143 0.9920774 -0.0870473 0.0079226 0.0870473 0.0079226 0.0870473 0.9920774 -0.0870473
3287 0.9913564 -0.0909577 0.0086436 0.0909577 0.0086436 0.0909577 0.9913564 -0.0909577
3437 0.9905697 -0.0950373 0.0094303 0.0950373 0.0094303 0.0950373 0.9905697 -0.0950373
3594 0.9897115 -0.0992927 0.0102885 0.0992927 0.0102885 0.0992927 0.9897115 -0.0992927
3759 0.9887755 -0.1037305 0.0112245 0.1037305 0.0112245 0.1037305 0.9887755 -0.1037305
3931 0.9877546 -0.1083571 0.0122454 0.1083571 0.0122454 0.1083571 0.9877546 -0.1083571
4111 0.9866414 -0.1131793 0.0133586 0.1131793 0.0133586 0.1131793 0.9866414 -0.1131793
4299 0.9854277 -0.1182038 0.0145723 0.1182038 0.0145723 0.1182038 0.9854277 -0.1182038
4496 0.9841046 -0.1234375 0.0158954 0.1234375 0.0158954 0.1234375 0.9841046 -0.1234375
4702 0.9826626 -0.1288869 0.0173374 0.1288869 0.0173374 0.1288869 0.9826626 -0.1288869
4918 0.9810914 -0.1345587 0.0189086 0.1345587 0.0189086 0.1345587 0.9810914 -0.1345587
5143 0.9793798 -0.1404594 0.0206202 0.1404594 0.0206202 0.1404594 0.9793798 -0.1404594
5378 0.9775160 -0.1465953 0.0224840 0.1465953 0.0224840 0.1465953 0.9775160 -0.1465953
5625 0.9754869 -0.1529726 0.0245131 0.1529726 0.0245131 0.1529726 0.9754869 -0.1529726
5882 0.9732788 -0.1595968 0.0267212 0.1595968 0.0267212 0.1595968 0.9732788 -0.1595968
6151 0.9708768 -0.1664734 0.0291232 0.1664734 0.0291232 0.1664734 0.9708768 -0.1664734
6433 0.9682649 -0.1736071 0.0317351 0.1736071 0.0317351 0.1736071 0.9682649 -0.1736071
6728 0.9654261 -0.1810021 0.0345739 0.1810021 0.0345739 0.1810021 0.9654261 -0.1810021
7036 0.9623424 -0.1886619 0.0376576 0.1886619 0.0376576 0.1886619 0.9623424 -0.1886619
7358 0.9589944 -0.1965890 0.0410056 0.1965890 0.0410056 0.1965890 0.9589944 -0.1965890
7695 0.9553616 -0.2047850 0.0446384 0.2047850 0.0446384 0.2047850 0.9553616 -0.2047850
8047 0.9514225 -0.2132502 0.0485775 0.2132502 0.0485775 0.2132502 0.9514225 -0.2132502
8416 0.9471541 -0.2219836 0.0528459 0.2219836 0.0528459 0.2219836 0.9471541 -0.2219836
8801 0.9425325 -0.2309826 0.0574675 0.2309826 0.0574675 0.2309826 0.9425325 -0.2309826
9204 0.9375325 -0.2402429 0.0624675 0.2402429 0.0624675 0.2402429 0.9375325 -0.2402429
9626 0.9321279 -0.2497580 0.0678721 0.2497580 0.0678721 0.2497580 0.9321279 -0.2497580
10066 0.9262917 -0.2595196 0.0737083 0.2595196 0.0737083 0.2595196 0.9262917 -0.2595196
10527 0.9199959 -0.2695164 0.0800041 0.2695164 0.0800041 0.2695164 0.9199959 -0.2695164
11009 0.9132117 -0.2797349 0.0867883 0.2797349 0.0867883 0.2797349 0.9132117 -0.2797349
11514 0.9059101 -0.2901582 0.0940899 0.2901582 0.0940899 0.2901582 0.9059101 -0.2901582
12041 0.8980617 -0.3007665 0.1019383 0.3007665 0.1019383 0.3007665 0.8980617 -0.3007665
12592 0.8896373 -0.3115364 0.1103627 0.3115364 0.1103627 0.3115364 0.8896373 -0.3115364
13169 0.8806079 -0.3224408 0.1193921 0.3224408 0.1193921 0.3224408 0.8806079 -0.3224408
13772 0.8709455 -0.3334488 0.1290545 0.3334488 0.1290545 0.3334488 0.8709455 -0.3334488
14402 0.8606235 -0.3445254 0.1393765 0.3445254 0.1393765 0.3445254 0.8606235 -0.3445254
15062 0.8496166 -0.3556316 0.1503834 0.3556316 0.1503834 0.3556316 0.8496166 -0.3556316
15752 0.8379025 -0.3667240 0.1620975 0.3667240 0.1620975 0.3667240 0.8379025 -0.3667240
16473 0.8254614 -0.3777552 0.1745386 0.3777552 0.1745386 0.3777552 0.8254614 -0.3777552
17227 0.8122771 -0.3886736 0.1877229 0.3886736 0.1877229 0.3886736 0.8122771 -0.3886736
18016 0.7983381 -0.3994239 0.2016619 0.3994239 0.2016619 0.3994239 0.7983381 -0.3994239
18841 0.7836374 -0.4099472 0.2163626 0.4099472 0.2163626 0.4099472 0.7836374 -0.4099472
19704 0.7681738 -0.4201814 0.2318262 0.4201814 0.2318262 0.4201814 0.7681738 -0.4201814
20606 0.7519524 -0.4300622 0.2480476 0.4300622 0.2480476 0.4300622 0.7519524 -0.4300622
21550 0.7349850 -0.4395231 0.2650150 0.4395231 0.2650150 0.4395231 0.7349850 -0.4395231
22537 0.7172911 -0.4484969 0.2827089 0.4484969 0.2827089 0.4484969 0.7172911 -0.4484969
23569 0.6988975 -0.4569163 0.3011025 0.4569163 0.3011025 0.4569163 0.6988975 -0.4569163
24648 0.6798392 -0.4647148 0.3201608 0.4647148 0.3201608 0.4647148 0.6798392 -0.4647148
25777 0.6601593 -0.4718281 0.3398407 0.4718281 0.3398407 0.4718281 0.6601593 -0.4718281
26957 0.6399089 -0.4781954 0.3600911 0.4781954 0.3600911 0.4781954 0.6399089 -0.4781954
28191 0.6191466 -0.4837600 0.3808534 0.4837600 0.3808534 0.4837600 0.6191466 -0.4837600
29482 0.5979385 -0.4884709 0.4020615 0.4884709 0.4020615 0.4884709 0.5979385 -0.4884709
30832 0.5763570 -0.4922840 0.4236430 0.4922840 0.4236430 0.4922840 0.5763570 -0.4922840
32244 0.5544801 -0.4951626 0.4455199 0.4951626 0.4455199 0.4951626 0.5544801 -0.4951626
33721 0.5323905 -0.4970788 0.4676095 0.4970788 0.4676095 0.4970788 0.5323905 -0.4970788
35265 0.5101741 -0.4980136 0.4898259 0.4980136 0.4898259 0.4980136 0.5101741 -0.4980136
36880 0.4879189 -0.4979578 0.5120811 0.4979578 0.5120811 0.4979578 0.4879189 -0.4979578
38569 0.4657133 -0.4969122 0.5342867 0.4969122 0.5342867 0.4969122 0.4657133 -0.4969122
40335 0.4436452 -0.4948872 0.5563548 0.4948872 0.5563548 0.4948872 0.4436452 -0.4948872
42182 0.4218001 -0.4919029 0.5781999 0.4919029 0.5781999 0.4919029 0.4218001 -0.4919029
44113 0.4002600 -0.4879884 0.5997400 0.4879884 0.5997400 0.4879884 0.4002600 -0.4879884
46134 0.3791024 -0.4831816 0.6208976 0.4831816 0.6208976 0.4831816 0.3791024 -0.4831816
48246 0.3583987 -0.4775274 0.6416013 0.4775274 0.6416013 0.4775274 0.3583987 -0.4775274
50455 0.3382141 -0.4710776 0.6617859 0.4710776 0.6617859 0.4710776 0.3382141 -0.4710776
52766 0.3186061 -0.4638895 0.6813939 0.4638895 0.6813939 0.4638895 0.3186061 -0.4638895
55182 0.2996249 -0.4560244 0.7003751 0.4560244 0.7003751 0.4560244 0.2996249 -0.4560244
57709 0.2813123 -0.4475468 0.7186877 0.4475468 0.7186877 0.4475468 0.2813123 -0.4475468
60352 0.2637022 -0.4385234 0.7362978 0.4385234 0.7362978 0.4385234 0.2637022 -0.4385234
63115 0.2468206 -0.4290213 0.7531794 0.4290213 0.7531794 0.4290213 0.2468206 -0.4290213
66005 0.2306858 -0.4191077 0.7693142 0.4191077 0.7693142 0.4191077 0.2306858 -0.4191077
69028 0.2153087 -0.4088487 0.7846913 0.4088487 0.7846913 0.4088487 0.2153087 -0.4088487
72189 0.2006936 -0.3983082 0.7993064 0.3983082 0.7993064 0.3983082 0.2006936 -0.3983082
75495 0.1868385 -0.3875480 0.8131615 0.3875480 0.8131615 0.3875480 0.1868385 -0.3875480
78952 0.1737360 -0.3766262 0.8262640 0.3766262 0.8262640 0.3766262 0.1737360 -0.3766262
82567 0.1613737 -0.3655977 0.8386263 0.3655977 0.8386263 0.3655977 0.1613737 -0.3655977
86348 0.1497351 -0.3545134 0.8502649 0.3545134 0.8502649 0.3545134 0.1497351 -0.3545134
90302 0.1388004 -0.3434202 0.8611996 0.3434202 0.8611996 0.3434202 0.1388004 -0.3434202
94437 0.1285465 -0.3323607 0.8714535 0.3323607 0.8714535 0.3323607 0.1285465 -0.3323607
98762 0.1189484 -0.3213734 0.8810516 0.3213734 0.8810516 0.3213734 0.1189484 -0.3213734
103284 0.1099793 -0.3104928 0.8900207 0.3104928 0.8900207 0.3104928 0.1099793 -0.3104928
108014 0.1016110 -0.2997492 0.8983890 0.2997492 0.8983890 0.2997492 0.1016110 -0.2997492
112960 0.0938147 -0.2891692 0.9061853 0.2891692 0.9061853 0.2891692 0.0938147 -0.2891692
118133 0.0865613 -0.2787757 0.9134387 0.2787757 0.9134387 0.2787757 0.0865613 -0.2787757
123542 0.0798215 -0.2685881 0.9201785 0.2685881 0.9201785 0.2685881 0.0798215 -0.2685881
129199 0.0735664 -0.2586229 0.9264336 0.2586229 0.9264336 0.2586229 0.0735664 -0.2586229
135116 0.0677675 -0.2488935 0.9322325 0.2488935 0.9322325 0.2488935 0.0677675 -0.2488935
141303 0.0623971 -0.2394106 0.9376029 0.2394106 0.9376029 0.2394106 0.0623971 -0.2394106
147774 0.0574281 -0.2301824 0.9425719 0.2301824 0.9425719 0.2301824 0.0574281 -0.2301824
154540 0.0528346 -0.2212153 0.9471654 0.2212153 0.9471654 0.2212153 0.0528346 -0.2212153
161617 0.0485918 -0.2125132 0.9514082 0.2125132 0.9514082 0.2125132 0.0485918 -0.2125132
169018 0.0446758 -0.2040788 0.9553242 0.2040788 0.9553242 0.2040788 0.0446758 -0.2040788
176758 0.0410639 -0.1959129 0.9589361 0.1959129 0.9589361 0.1959129 0.0410639 -0.1959129
184852 0.0377348 -0.1880150 0.9622652 0.1880150 0.9622652 0.1880150 0.0377348 -0.1880150
193316 0.0346681 -0.1803837 0.9653319 0.1803837 0.9653319 0.1803837 0.0346681 -0.1803837
202169 0.0318446 -0.1730162 0.9681554 0.1730162 0.9681554 0.1730162 0.0318446 -0.1730162
211427 0.0292465 -0.1659091 0.9707535 0.1659091 0.9707535 0.1659091 0.0292465 -0.1659091
221108 0.0268569 -0.1590583 0.9731431 0.1590583 0.9731431 0.1590583 0.0268569 -0.1590583
231233 0.0246599 -0.1524588 0.9753401 0.1524588 0.9753401 0.1524588 0.0246599 -0.1524588
241822 0.0226409 -0.1461055 0.9773591 0.1461055 0.9773591 0.1461055 0.0226409 -0.1461055
252896 0.0207860 -0.1399925 0.9792140 0.1399925 0.9792140 0.1399925 0.0207860 -0.1399925
264476 0.0190825 -0.1341139 0.9809175 0.1341139 0.9809175 0.1341139 0.0190825 -0.1341139
276587 0.0175185 -0.1284634 0.9824815 0.1284634 0.9824815 0.1284634 0.0175185 -0.1284634
289253 0.0160830 -0.1230344 0.9839170 0.1230344 0.9839170 0.1230344 0.0160830 -0.1230344
302498 0.0147656 -0.1178204 0.9852344 0.1178204 0.9852344 0.1178204 0.0147656 -0.1178204
316350 0.0135569 -0.1128147 0.9864431 0.1128147 0.9864431 0.1128147 0.0135569 -0.1128147
330837 0.0124482 -0.1080107 0.9875518 0.1080107 0.9875518 0.1080107 0.0124482 -0.1080107
345986 0.0114312 -0.1034015 0.9885688 0.1034015 0.9885688 0.1034015 0.0114312 -0.1034015
361830 0.0104986 -0.0989805 0.9895014 0.0989805 0.9895014 0.0989805 0.0104986 -0.0989805
378399 0.0096434 -0.0947412 0.9903566 0.0947412 0.9903566 0.0947412 0.0096434 -0.0947412
395726 0.0088593 -0.0906770 0.9911407 0.0906770 0.9911407 0.0906770 0.0088593 -0.0906770
413847 0.0081403 -0.0867815 0.9918597 0.0867815 0.9918597 0.0867815 0.0081403 -0.0867815
432798 0.0074811 -0.0830485 0.9925189 0.0830485 0.9925189 0.0830485 0.0074811 -0.0830485
452617 0.0068767 -0.0794718 0.9931233 0.0794718 0.9931233 0.0794718 0.0068767 -0.0794718
473344 0.0063225 -0.0760453 0.9936775 0.0760453 0.9936775 0.0760453 0.0063225 -0.0760453
495019 0.0058144 -0.0727633 0.9941856 0.0727633 0.9941856 0.0727633 0.0058144 -0.0727633
517687 0.0053484 -0.0696201 0.9946516 0.0696201 0.9946516 0.0696201 0.0053484 -0.0696201
541393 0.0049211 -0.0666102 0.9950789 0.0666102 0.9950789 0.0666102 0.0049211 -0.0666102
566185 0.0045292 -0.0637281 0.9954708 0.0637281 0.9954708 0.0637281 0.0045292 -0.0637281
592111 0.0041698 -0.0609688 0.9958302 0.0609688 0.9958302 0.0609688 0.0041698 -0.0609688
619225 0.0038401 -0.0583272 0.9961599 0.0583272 0.9961599 0.0583272 0.0038401 -0.0583272
647581 0.0035375 -0.0557985 0.9964625 0.0557985 0.9964625 0.0557985 0.0035375 -0.0557985
677235 0.0032600 -0.0533779 0.9967400 0.0533779 0.9967400 0.0533779 0.0032600 -0.0533779
708247 0.0030053 -0.0510612 0.9969947 0.0510612 0.9969947 0.0510612 0.0030053 -0.0510612
740679 0.0027715 -0.0488438 0.9972285 0.0488438 0.9972285 0.0488438 0.0027715 -0.0488438
774597 0.0025569 -0.0467216 0.9974431 0.0467216 0.9974431 0.0467216 0.0025569 -0.0467216
810067 0.0023600 -0.0446906 0.9976400 0.0446906 0.9976400 0.0446906 0.0023600 -0.0446906
847162 0.0021791 -0.0427470 0.9978209 0.0427470 0.9978209 0.0427470 0.0021791 -0.0427470
885955 0.0020131 -0.0408871 0.9979869 0.0408871 0.9979869 0.0408871 0.0020131 -0.0408871
926525 0.0018607 -0.0391073 0.9981393 0.0391073 0.9981393 0.0391073 0.0018607 -0.0391073
968953 0.0017207 -0.0374042 0.9982793 0.0374042 0.9982793 0.0374042 0.0017207 -0.0374042
1013323 0.0015922 -0.0357745 0.9984078 0.0357745 0.9984078 0.0357745 0.0015922 -0.0357745
1059725 0.0014742 -0.0342151 0.9985258 0.0342151 0.9985258 0.0342151 0.0014742 -0.0342151
1108252 0.0013658 -0.0327231 0.9986342 0.0327231 0.9986342 0.0327231 0.0013658 -0.0327231
1159002 0.0012663 -0.0312954 0.9987337 0.0312954 0.9987337 0.0312954 0.0012663 -0.0312954
1212075 0.0011750 -0.0299294 0.9988250 0.0299294 0.9988250 0.0299294 0.0011750 -0.0299294
1267578 0.0010911 -0.0286225 0.9989089 0.0286225 0.9989089 0.0286225 0.0010911 -0.0286225
1325623 0.0010141 -0.0273720 0.9989859 0.0273720 0.9989859 0.0273720 0.0010141 -0.0273720
1386327 0.0009435 -0.0261755 0.9990565 0.0261755 0.9990565 0.0261755 0.0009435 -0.0261755
1449809 0.0008786 -0.0250308 0.9991214 0.0250308 0.9991214 0.0250308 0.0008786 -0.0250308
1516199 0.0008191 -0.0239357 0.9991809 0.0239357 0.9991809 0.0239357 0.0008191 -0.0239357
1585629 0.0007645 -0.0228879 0.9992355 0.0228879 0.9992355 0.0228879 0.0007645 -0.0228879
1658239 0.0007144 -0.0218854 0.9992856 0.0218854 0.9992856 0.0218854 0.0007144 -0.0218854
1734173 0.0006685 -0.0209263 0.9993315 0.0209263 0.9993315 0.0209263 0.0006685 -0.0209263
1813585 0.0006264 -0.0200087 0.9993736 0.0200087 0.9993736 0.0200087 0.0006264 -0.0200087
1896632 0.0005877 -0.0191309 0.9994123 0.0191309 0.9994123 0.0191309 0.0005877 -0.0191309
1983483 0.0005523 -0.0182910 0.9994477 0.0182910 0.9994477 0.0182910 0.0005523 -0.0182910
2074311 0.0005198 -0.0174875 0.9994802 0.0174875 0.9994802 0.0174875 0.0005198 -0.0174875
