!Murata Part Number: GRM155B31A225ME95
!These Parameters are Measured in Series Mode Connection
!Data Generated on Mar 30, 2021
!       o--ll--o
!Port1            Port2
!       o------o
!Operation Temp=25[degC], DC Bias Voltage=0[V]
!Freq. Start=100[Hz] Stop=6[GHz] 401[Steps]
# Hz S RI R 50
!Freq.(Hz) S11(Real) S11(Imag) S21(Real) S21(Imag) S12(Real) S12(Imag) S22(Real) S22(Imag)
100 0.9877730 -0.1014071 0.0122270 0.1014071 0.0122270 0.1014071 0.9877730 -0.1014071
105 0.9867531 -0.1058903 0.0132469 0.1058903 0.0132469 0.1058903 0.9867531 -0.1058903
109 0.9856439 -0.1105605 0.0143561 0.1105605 0.0143561 0.1105605 0.9856439 -0.1105605
114 0.9844378 -0.1154241 0.0155622 0.1154241 0.0155622 0.1154241 0.9844378 -0.1154241
120 0.9831269 -0.1204874 0.0168731 0.1204874 0.0168731 0.1204874 0.9831269 -0.1204874
125 0.9817022 -0.1257568 0.0182978 0.1257568 0.0182978 0.1257568 0.9817022 -0.1257568
131 0.9801544 -0.1312385 0.0198456 0.1312385 0.0198456 0.1312385 0.9801544 -0.1312385
137 0.9784733 -0.1369387 0.0215267 0.1369387 0.0215267 0.1369387 0.9784733 -0.1369387
143 0.9766481 -0.1428636 0.0233519 0.1428636 0.0233519 0.1428636 0.9766481 -0.1428636
150 0.9746669 -0.1490190 0.0253331 0.1490190 0.0253331 0.1490190 0.9746669 -0.1490190
156 0.9725172 -0.1554108 0.0274828 0.1554108 0.0274828 0.1554108 0.9725172 -0.1554108
164 0.9701854 -0.1620443 0.0298146 0.1620443 0.0298146 0.1620443 0.9701854 -0.1620443
171 0.9676569 -0.1689244 0.0323431 0.1689244 0.0323431 0.1689244 0.9676569 -0.1689244
179 0.9649162 -0.1760559 0.0350838 0.1760559 0.0350838 0.1760559 0.9649162 -0.1760559
187 0.9619466 -0.1834426 0.0380534 0.1834426 0.0380534 0.1834426 0.9619466 -0.1834426
196 0.9587303 -0.1910877 0.0412697 0.1910877 0.0412697 0.1910877 0.9587303 -0.1910877
205 0.9552485 -0.1989937 0.0447515 0.1989937 0.0447515 0.1989937 0.9552485 -0.1989937
214 0.9514809 -0.2071620 0.0485191 0.2071620 0.0485191 0.2071620 0.9514809 -0.2071620
224 0.9474062 -0.2155927 0.0525938 0.2155927 0.0525938 0.2155927 0.9474062 -0.2155927
234 0.9430019 -0.2242848 0.0569981 0.2242848 0.0569981 0.2242848 0.9430019 -0.2242848
245 0.9382442 -0.2332355 0.0617558 0.2332355 0.0617558 0.2332355 0.9382442 -0.2332355
256 0.9331084 -0.2424405 0.0668916 0.2424405 0.0668916 0.2424405 0.9331084 -0.2424405
268 0.9275684 -0.2518931 0.0724316 0.2518931 0.0724316 0.2518931 0.9275684 -0.2518931
280 0.9215974 -0.2615848 0.0784026 0.2615848 0.0784026 0.2615848 0.9215974 -0.2615848
293 0.9151676 -0.2715041 0.0848324 0.2715041 0.0848324 0.2715041 0.9151676 -0.2715041
306 0.9082506 -0.2816373 0.0917494 0.2816373 0.0917494 0.2816373 0.9082506 -0.2816373
320 0.9008175 -0.2919671 0.0991825 0.2919671 0.0991825 0.2919671 0.9008175 -0.2919671
335 0.8928393 -0.3024735 0.1071607 0.3024735 0.1071607 0.3024735 0.8928393 -0.3024735
350 0.8842871 -0.3131325 0.1157129 0.3131325 0.1157129 0.3131325 0.8842871 -0.3131325
366 0.8751325 -0.3239168 0.1248675 0.3239168 0.1248675 0.3239168 0.8751325 -0.3239168
383 0.8653479 -0.3347949 0.1346521 0.3347949 0.1346521 0.3347949 0.8653479 -0.3347949
401 0.8549073 -0.3457312 0.1450927 0.3457312 0.1450927 0.3457312 0.8549073 -0.3457312
419 0.8437864 -0.3566864 0.1562136 0.3566864 0.1562136 0.3566864 0.8437864 -0.3566864
438 0.8319637 -0.3676165 0.1680363 0.3676165 0.1680363 0.3676165 0.8319637 -0.3676165
458 0.8194205 -0.3784737 0.1805795 0.3784737 0.1805795 0.3784737 0.8194205 -0.3784737
479 0.8061421 -0.3892062 0.1938579 0.3892062 0.1938579 0.3892062 0.8061421 -0.3892062
501 0.7921182 -0.3997585 0.2078818 0.3997585 0.2078818 0.3997585 0.7921182 -0.3997585
524 0.7773434 -0.4100717 0.2226566 0.4100717 0.2226566 0.4100717 0.7773434 -0.4100717
548 0.7618183 -0.4200840 0.2381817 0.4200840 0.2381817 0.4200840 0.7618183 -0.4200840
573 0.7455498 -0.4297314 0.2544502 0.4297314 0.2544502 0.4297314 0.7455498 -0.4297314
600 0.7285516 -0.4389484 0.2714484 0.4389484 0.2714484 0.4389484 0.7285516 -0.4389484
627 0.7108448 -0.4476688 0.2891552 0.4476688 0.2891552 0.4476688 0.7108448 -0.4476688
656 0.6924583 -0.4558267 0.3075417 0.4558267 0.3075417 0.4558267 0.6924583 -0.4558267
686 0.6734286 -0.4633575 0.3265714 0.4633575 0.3265714 0.4633575 0.6734286 -0.4633575
717 0.6538004 -0.4701991 0.3461996 0.4701991 0.3461996 0.4701991 0.6538004 -0.4701991
750 0.6336259 -0.4762928 0.3663741 0.4762928 0.3663741 0.4762928 0.6336259 -0.4762928
784 0.6129647 -0.4815849 0.3870353 0.4815849 0.3870353 0.4815849 0.6129647 -0.4815849
820 0.5918834 -0.4860275 0.4081166 0.4860275 0.4081166 0.4860275 0.5918834 -0.4860275
858 0.5704545 -0.4895793 0.4295455 0.4895793 0.4295455 0.4895793 0.5704545 -0.4895793
897 0.5487556 -0.4922070 0.4512444 0.4922070 0.4512444 0.4922070 0.5487556 -0.4922070
938 0.5268683 -0.4938858 0.4731317 0.4938858 0.4731317 0.4938858 0.5268683 -0.4938858
981 0.5048772 -0.4945999 0.4951228 0.4945999 0.4951228 0.4945999 0.5048772 -0.4945999
1026 0.4828682 -0.4943431 0.5171318 0.4943431 0.5171318 0.4943431 0.4828682 -0.4943431
1073 0.4609274 -0.4931186 0.5390726 0.4931186 0.5390726 0.4931186 0.4609274 -0.4931186
1122 0.4391397 -0.4909392 0.5608603 0.4909392 0.5608603 0.4909392 0.4391397 -0.4909392
1174 0.4175875 -0.4878266 0.5824125 0.4878266 0.5824125 0.4878266 0.4175875 -0.4878266
1227 0.3963494 -0.4838114 0.6036506 0.4838114 0.6036506 0.4838114 0.3963494 -0.4838114
1283 0.3754992 -0.4789318 0.6245008 0.4789318 0.6245008 0.4789318 0.3754992 -0.4789318
1342 0.3551048 -0.4732332 0.6448952 0.4732332 0.6448952 0.4732332 0.3551048 -0.4732332
1404 0.3352278 -0.4667669 0.6647722 0.4667669 0.6647722 0.4667669 0.3352278 -0.4667669
1468 0.3159223 -0.4595890 0.6840777 0.4595890 0.6840777 0.4595890 0.3159223 -0.4595890
1535 0.2972354 -0.4517596 0.7027646 0.4517596 0.7027646 0.4517596 0.2972354 -0.4517596
1606 0.2792059 -0.4433413 0.7207941 0.4433413 0.7207941 0.4433413 0.2792059 -0.4433413
1679 0.2618656 -0.4343985 0.7381344 0.4343985 0.7381344 0.4343985 0.2618656 -0.4343985
1756 0.2452383 -0.4249959 0.7547617 0.4249959 0.7547617 0.4249959 0.2452383 -0.4249959
1836 0.2293406 -0.4151981 0.7706594 0.4151981 0.7706594 0.4151981 0.2293406 -0.4151981
1920 0.2141826 -0.4050683 0.7858174 0.4050683 0.7858174 0.4050683 0.2141826 -0.4050683
2008 0.1997678 -0.3946679 0.8002322 0.3946679 0.8002322 0.3946679 0.1997678 -0.3946679
2100 0.1860941 -0.3840558 0.8139059 0.3840558 0.8139059 0.3840558 0.1860941 -0.3840558
2196 0.1731541 -0.3732878 0.8268459 0.3732878 0.8268459 0.3732878 0.1731541 -0.3732878
2297 0.1609360 -0.3624163 0.8390640 0.3624163 0.8390640 0.3624163 0.1609360 -0.3624163
2402 0.1494240 -0.3514902 0.8505760 0.3514902 0.8505760 0.3514902 0.1494240 -0.3514902
2512 0.1385993 -0.3405545 0.8614007 0.3405545 0.8614007 0.3405545 0.1385993 -0.3405545
2627 0.1284399 -0.3296501 0.8715601 0.3296501 0.8715601 0.3296501 0.1284399 -0.3296501
2748 0.1189222 -0.3188144 0.8810778 0.3188144 0.8810778 0.3188144 0.1189222 -0.3188144
2873 0.1100204 -0.3080806 0.8899796 0.3080806 0.8899796 0.3080806 0.1100204 -0.3080806
3005 0.1017080 -0.2974783 0.8982920 0.2974783 0.8982920 0.2974783 0.1017080 -0.2974783
3143 0.0939574 -0.2870335 0.9060426 0.2870335 0.9060426 0.2870335 0.0939574 -0.2870335
3287 0.0867407 -0.2767686 0.9132593 0.2767686 0.9132593 0.2767686 0.0867407 -0.2767686
3437 0.0800299 -0.2667030 0.9199701 0.2667030 0.9199701 0.2667030 0.0800299 -0.2667030
3594 0.0737971 -0.2568529 0.9262029 0.2568529 0.9262029 0.2568529 0.0737971 -0.2568529
3759 0.0680149 -0.2472318 0.9319851 0.2472318 0.9319851 0.2472318 0.0680149 -0.2472318
3931 0.0626563 -0.2378506 0.9373437 0.2378506 0.9373437 0.2378506 0.0626563 -0.2378506
4111 0.0576954 -0.2287179 0.9423046 0.2287179 0.9423046 0.2287179 0.0576954 -0.2287179
4299 0.0531068 -0.2198401 0.9468932 0.2198401 0.9468932 0.2198401 0.0531068 -0.2198401
4496 0.0488662 -0.2112216 0.9511338 0.2112216 0.9511338 0.2112216 0.0488662 -0.2112216
4702 0.0449504 -0.2028653 0.9550496 0.2028653 0.9550496 0.2028653 0.0449504 -0.2028653
4918 0.0413371 -0.1947725 0.9586629 0.1947725 0.9586629 0.1947725 0.0413371 -0.1947725
5143 0.0380053 -0.1869431 0.9619947 0.1869431 0.9619947 0.1869431 0.0380053 -0.1869431
5378 0.0349349 -0.1793757 0.9650651 0.1793757 0.9650651 0.1793757 0.0349349 -0.1793757
5625 0.0321072 -0.1720682 0.9678928 0.1720682 0.9678928 0.1720682 0.0321072 -0.1720682
5882 0.0295042 -0.1650174 0.9704958 0.1650174 0.9704958 0.1650174 0.0295042 -0.1650174
6151 0.0271093 -0.1582194 0.9728907 0.1582194 0.9728907 0.1582194 0.0271093 -0.1582194
6433 0.0249068 -0.1516696 0.9750932 0.1516696 0.9750932 0.1516696 0.0249068 -0.1516696
6728 0.0228821 -0.1453631 0.9771179 0.1453631 0.9771179 0.1453631 0.0228821 -0.1453631
7036 0.0210215 -0.1392942 0.9789785 0.1392942 0.9789785 0.1392942 0.0210215 -0.1392942
7358 0.0193123 -0.1334573 0.9806877 0.1334573 0.9806877 0.1334573 0.0193123 -0.1334573
7695 0.0177425 -0.1278461 0.9822575 0.1278461 0.9822575 0.1278461 0.0177425 -0.1278461
8047 0.0163012 -0.1224544 0.9836988 0.1224544 0.9836988 0.1224544 0.0163012 -0.1224544
8416 0.0149780 -0.1172757 0.9850220 0.1172757 0.9850220 0.1172757 0.0149780 -0.1172757
8801 0.0137637 -0.1123035 0.9862363 0.1123035 0.9862363 0.1123035 0.0137637 -0.1123035
9204 0.0126492 -0.1075313 0.9873508 0.1075313 0.9873508 0.1075313 0.0126492 -0.1075313
9626 0.0116266 -0.1029523 0.9883734 0.1029523 0.9883734 0.1029523 0.0116266 -0.1029523
10066 0.0106884 -0.0985602 0.9893116 0.0985602 0.9893116 0.0985602 0.0106884 -0.0985602
10527 0.0098275 -0.0943483 0.9901725 0.0943483 0.9901725 0.0943483 0.0098275 -0.0943483
11009 0.0090377 -0.0903102 0.9909623 0.0903102 0.9909623 0.0903102 0.0090377 -0.0903102
11514 0.0083131 -0.0864395 0.9916869 0.0864395 0.9916869 0.0864395 0.0083131 -0.0864395
12041 0.0076482 -0.0827302 0.9923518 0.0827302 0.9923518 0.0827302 0.0076482 -0.0827302
12592 0.0070381 -0.0791760 0.9929619 0.0791760 0.9929619 0.0791760 0.0070381 -0.0791760
13169 0.0064782 -0.0757710 0.9935218 0.0757710 0.9935218 0.0757710 0.0064782 -0.0757710
13772 0.0059643 -0.0725095 0.9940357 0.0725095 0.9940357 0.0725095 0.0059643 -0.0725095
14402 0.0054926 -0.0693857 0.9945074 0.0693857 0.9945074 0.0693857 0.0054926 -0.0693857
15062 0.0050595 -0.0663943 0.9949405 0.0663943 0.9949405 0.0663943 0.0050595 -0.0663943
15752 0.0046618 -0.0635298 0.9953382 0.0635298 0.9953382 0.0635298 0.0046618 -0.0635298
16473 0.0042965 -0.0607872 0.9957035 0.0607872 0.9957035 0.0607872 0.0042965 -0.0607872
17227 0.0039609 -0.0581614 0.9960391 0.0581614 0.9960391 0.0581614 0.0039609 -0.0581614
18016 0.0036526 -0.0556478 0.9963474 0.0556478 0.9963474 0.0556478 0.0036526 -0.0556478
18841 0.0033692 -0.0532415 0.9966308 0.0532415 0.9966308 0.0532415 0.0033692 -0.0532415
19704 0.0031087 -0.0509382 0.9968913 0.0509382 0.9968913 0.0509382 0.0031087 -0.0509382
20606 0.0028692 -0.0487336 0.9971308 0.0487336 0.9971308 0.0487336 0.0028692 -0.0487336
21550 0.0026489 -0.0466234 0.9973511 0.0466234 0.9973511 0.0466234 0.0026489 -0.0466234
22537 0.0024464 -0.0446038 0.9975536 0.0446038 0.9975536 0.0446038 0.0024464 -0.0446038
23569 0.0022600 -0.0426710 0.9977400 0.0426710 0.9977400 0.0426710 0.0022600 -0.0426710
24648 0.0020886 -0.0408212 0.9979114 0.0408212 0.9979114 0.0408212 0.0020886 -0.0408212
25777 0.0019308 -0.0390509 0.9980692 0.0390509 0.9980692 0.0390509 0.0019308 -0.0390509
26957 0.0017857 -0.0373568 0.9982143 0.0373568 0.9982143 0.0373568 0.0017857 -0.0373568
28191 0.0016521 -0.0357356 0.9983479 0.0357356 0.9983479 0.0357356 0.0016521 -0.0357356
29482 0.0015292 -0.0341843 0.9984708 0.0341843 0.9984708 0.0341843 0.0015292 -0.0341843
30832 0.0014161 -0.0326998 0.9985839 0.0326998 0.9985839 0.0326998 0.0014161 -0.0326998
32244 0.0013121 -0.0312794 0.9986879 0.0312794 0.9986879 0.0312794 0.0013121 -0.0312794
33721 0.0012163 -0.0299202 0.9987837 0.0299202 0.9987837 0.0299202 0.0012163 -0.0299202
35265 0.0011282 -0.0286197 0.9988718 0.0286197 0.9988718 0.0286197 0.0011282 -0.0286197
36880 0.0010472 -0.0273754 0.9989528 0.0273754 0.9989528 0.0273754 0.0010472 -0.0273754
38569 0.0009726 -0.0261848 0.9990274 0.0261848 0.9990274 0.0261848 0.0009726 -0.0261848
40335 0.0009040 -0.0250458 0.9990960 0.0250458 0.9990960 0.0250458 0.0009040 -0.0250458
42182 0.0008409 -0.0239560 0.9991591 0.0239560 0.9991591 0.0239560 0.0008409 -0.0239560
44113 0.0007829 -0.0229135 0.9992171 0.0229135 0.9992171 0.0229135 0.0007829 -0.0229135
46134 0.0007296 -0.0219161 0.9992704 0.0219161 0.9992704 0.0219161 0.0007296 -0.0219161
48246 0.0006805 -0.0209620 0.9993195 0.0209620 0.9993195 0.0209620 0.0006805 -0.0209620
50455 0.0006354 -0.0200493 0.9993646 0.0200493 0.9993646 0.0200493 0.0006354 -0.0200493
52766 0.0005939 -0.0191762 0.9994061 0.0191762 0.9994061 0.0191762 0.0005939 -0.0191762
55182 0.0005557 -0.0183411 0.9994443 0.0183411 0.9994443 0.0183411 0.0005557 -0.0183411
57709 0.0005207 -0.0175422 0.9994793 0.0175422 0.9994793 0.0175422 0.0005207 -0.0175422
60352 0.0004884 -0.0167781 0.9995116 0.0167781 0.9995116 0.0167781 0.0004884 -0.0167781
63115 0.0004587 -0.0160473 0.9995413 0.0160473 0.9995413 0.0160473 0.0004587 -0.0160473
66005 0.0004313 -0.0153482 0.9995687 0.0153482 0.9995687 0.0153482 0.0004313 -0.0153482
69028 0.0004062 -0.0146797 0.9995938 0.0146797 0.9995938 0.0146797 0.0004062 -0.0146797
72189 0.0003830 -0.0140402 0.9996170 0.0140402 0.9996170 0.0140402 0.0003830 -0.0140402
75495 0.0003617 -0.0134287 0.9996383 0.0134287 0.9996383 0.0134287 0.0003617 -0.0134287
78952 0.0003420 -0.0128438 0.9996580 0.0128438 0.9996580 0.0128438 0.0003420 -0.0128438
82567 0.0003238 -0.0122845 0.9996762 0.0122845 0.9996762 0.0122845 0.0003238 -0.0122845
86348 0.0003070 -0.0117495 0.9996930 0.0117495 0.9996930 0.0117495 0.0003070 -0.0117495
90302 0.0002915 -0.0112380 0.9997085 0.0112380 0.9997085 0.0112380 0.0002915 -0.0112380
94437 0.0002771 -0.0107487 0.9997229 0.0107487 0.9997229 0.0107487 0.0002771 -0.0107487
98762 0.0002638 -0.0102808 0.9997362 0.0102808 0.9997362 0.0102808 0.0002638 -0.0102808
103284 0.0002514 -0.0098334 0.9997486 0.0098334 0.9997486 0.0098334 0.0002514 -0.0098334
108014 0.0002399 -0.0094055 0.9997601 0.0094055 0.9997601 0.0094055 0.0002399 -0.0094055
112960 0.0002292 -0.0089963 0.9997708 0.0089963 0.9997708 0.0089963 0.0002292 -0.0089963
118133 0.0002193 -0.0086049 0.9997807 0.0086049 0.9997807 0.0086049 0.0002193 -0.0086049
123542 0.0002099 -0.0082307 0.9997901 0.0082307 0.9997901 0.0082307 0.0002099 -0.0082307
129199 0.0002012 -0.0078727 0.9997988 0.0078727 0.9997988 0.0078727 0.0002012 -0.0078727
135116 0.0001931 -0.0075304 0.9998069 0.0075304 0.9998069 0.0075304 0.0001931 -0.0075304
141303 0.0001854 -0.0072030 0.9998146 0.0072030 0.9998146 0.0072030 0.0001854 -0.0072030
147774 0.0001782 -0.0068899 0.9998218 0.0068899 0.9998218 0.0068899 0.0001782 -0.0068899
154540 0.0001714 -0.0065903 0.9998286 0.0065903 0.9998286 0.0065903 0.0001714 -0.0065903
161617 0.0001649 -0.0063039 0.9998351 0.0063039 0.9998351 0.0063039 0.0001649 -0.0063039
169018 0.0001589 -0.0060299 0.9998411 0.0060299 0.9998411 0.0060299 0.0001589 -0.0060299
176758 0.0001531 -0.0057677 0.9998469 0.0057677 0.9998469 0.0057677 0.0001531 -0.0057677
184852 0.0001477 -0.0055170 0.9998523 0.0055170 0.9998523 0.0055170 0.0001477 -0.0055170
193316 0.0001425 -0.0052771 0.9998575 0.0052771 0.9998575 0.0052771 0.0001425 -0.0052771
202169 0.0001376 -0.0050477 0.9998624 0.0050477 0.9998624 0.0050477 0.0001376 -0.0050477
211427 0.0001330 -0.0048281 0.9998670 0.0048281 0.9998670 0.0048281 0.0001330 -0.0048281
221108 0.0001286 -0.0046181 0.9998714 0.0046181 0.9998714 0.0046181 0.0001286 -0.0046181
231233 0.0001244 -0.0044171 0.9998756 0.0044171 0.9998756 0.0044171 0.0001244 -0.0044171
241822 0.0001204 -0.0042248 0.9998796 0.0042248 0.9998796 0.0042248 0.0001204 -0.0042248
252896 0.0001167 -0.0040408 0.9998833 0.0040408 0.9998833 0.0040408 0.0001167 -0.0040408
264476 0.0001131 -0.0038648 0.9998869 0.0038648 0.9998869 0.0038648 0.0001131 -0.0038648
276587 0.0001097 -0.0036963 0.9998903 0.0036963 0.9998903 0.0036963 0.0001097 -0.0036963
289253 0.0001065 -0.0035351 0.9998935 0.0035351 0.9998935 0.0035351 0.0001065 -0.0035351
302498 0.0001035 -0.0033808 0.9998965 0.0033808 0.9998965 0.0033808 0.0001035 -0.0033808
316350 0.0001006 -0.0032331 0.9998994 0.0032331 0.9998994 0.0032331 0.0001006 -0.0032331
330837 0.0000979 -0.0030918 0.9999021 0.0030918 0.9999021 0.0030918 0.0000979 -0.0030918
345986 0.0000954 -0.0029566 0.9999046 0.0029566 0.9999046 0.0029566 0.0000954 -0.0029566
361830 0.0000930 -0.0028272 0.9999070 0.0028272 0.9999070 0.0028272 0.0000930 -0.0028272
378399 0.0000907 -0.0027033 0.9999093 0.0027033 0.9999093 0.0027033 0.0000907 -0.0027033
395726 0.0000886 -0.0025847 0.9999114 0.0025847 0.9999114 0.0025847 0.0000886 -0.0025847
413847 0.0000867 -0.0024713 0.9999133 0.0024713 0.9999133 0.0024713 0.0000867 -0.0024713
432798 0.0000848 -0.0023627 0.9999152 0.0023627 0.9999152 0.0023627 0.0000848 -0.0023627
452617 0.0000831 -0.0022587 0.9999169 0.0022587 0.9999169 0.0022587 0.0000831 -0.0022587
473344 0.0000815 -0.0021592 0.9999185 0.0021592 0.9999185 0.0021592 0.0000815 -0.0021592
495019 0.0000800 -0.0020640 0.9999200 0.0020640 0.9999200 0.0020640 0.0000800 -0.0020640
517687 0.0000786 -0.0019728 0.9999214 0.0019728 0.9999214 0.0019728 0.0000786 -0.0019728
541393 0.0000773 -0.0018856 0.9999227 0.0018856 0.9999227 0.0018856 0.0000773 -0.0018856
566185 0.0000761 -0.0018020 0.9999239 0.0018020 0.9999239 0.0018020 0.0000761 -0.0018020
592111 0.0000750 -0.0017221 0.9999250 0.0017221 0.9999250 0.0017221 0.0000750 -0.0017221
619225 0.0000740 -0.0016455 0.9999260 0.0016455 0.9999260 0.0016455 0.0000740 -0.0016455
647581 0.0000731 -0.0015722 0.9999269 0.0015722 0.9999269 0.0015722 0.0000731 -0.0015722
677235 0.0000722 -0.0015020 0.9999278 0.0015020 0.9999278 0.0015020 0.0000722 -0.0015020
708247 0.0000714 -0.0014348 0.9999286 0.0014348 0.9999286 0.0014348 0.0000714 -0.0014348
740679 0.0000706 -0.0013705 0.9999294 0.0013705 0.9999294 0.0013705 0.0000706 -0.0013705
774597 0.0000700 -0.0013089 0.9999300 0.0013089 0.9999300 0.0013089 0.0000700 -0.0013089
810067 0.0000694 -0.0012498 0.9999306 0.0012498 0.9999306 0.0012498 0.0000694 -0.0012498
847162 0.0000688 -0.0011933 0.9999312 0.0011933 0.9999312 0.0011933 0.0000688 -0.0011933
885955 0.0000683 -0.0011392 0.9999317 0.0011392 0.9999317 0.0011392 0.0000683 -0.0011392
926525 0.0000678 -0.0010873 0.9999322 0.0010873 0.9999322 0.0010873 0.0000678 -0.0010873
968953 0.0000674 -0.0010376 0.9999326 0.0010376 0.9999326 0.0010376 0.0000674 -0.0010376
1013323 0.0000670 -0.0009899 0.9999330 0.0009899 0.9999330 0.0009899 0.0000670 -0.0009899
1059725 0.0000666 -0.0009442 0.9999334 0.0009442 0.9999334 0.0009442 0.0000666 -0.0009442
1108252 0.0000663 -0.0009004 0.9999337 0.0009004 0.9999337 0.0009004 0.0000663 -0.0009004
1159002 0.0000661 -0.0008584 0.9999339 0.0008584 0.9999339 0.0008584 0.0000661 -0.0008584
1212075 0.0000658 -0.0008182 0.9999342 0.0008182 0.9999342 0.0008182 0.0000658 -0.0008182
1267578 0.0000656 -0.0007795 0.9999344 0.0007795 0.9999344 0.0007795 0.0000656 -0.0007795
1325623 0.0000654 -0.0007424 0.9999346 0.0007424 0.9999346 0.0007424 0.0000654 -0.0007424
1386327 0.0000652 -0.0007068 0.9999348 0.0007068 0.9999348 0.0007068 0.0000652 -0.0007068
1449809 0.0000651 -0.0006726 0.9999349 0.0006726 0.9999349 0.0006726 0.0000651 -0.0006726
1516199 0.0000650 -0.0006398 0.9999350 0.0006398 0.9999350 0.0006398 0.0000650 -0.0006398
1585629 0.0000649 -0.0006082 0.9999351 0.0006082 0.9999351 0.0006082 0.0000649 -0.0006082
1658239 0.0000649 -0.0005779 0.9999351 0.0005779 0.9999351 0.0005779 0.0000649 -0.0005779
1734173 0.0000648 -0.0005487 0.9999352 0.0005487 0.9999352 0.0005487 0.0000648 -0.0005487
1813585 0.0000648 -0.0005206 0.9999352 0.0005206 0.9999352 0.0005206 0.0000648 -0.0005206
1896632 0.0000648 -0.0004935 0.9999352 0.0004935 0.9999352 0.0004935 0.0000648 -0.0004935
1983483 0.0000649 -0.0004674 0.9999351 0.0004674 0.9999351 0.0004674 0.0000649 -0.0004674
2074311 0.0000650 -0.0004423 0.9999350 0.0004423 0.9999350 0.0004423 0.0000650 -0.0004423
