!Murata Part Number: GRM155R71H682KA88
!These Parameters are Measured in Series Mode Connection
!Data Generated on Mar 30, 2021
!       o--ll--o
!Port1            Port2
!       o------o
!Operation Temp=25[degC], DC Bias Voltage=0[V]
!Freq. Start=100[Hz] Stop=6[GHz] 401[Steps]
# Hz S RI R 50
!Freq.(Hz) S11(Real) S11(Imag) S21(Real) S21(Imag) S12(Real) S12(Imag) S22(Real) S22(Imag)
100 0.9999976 -0.0004132 0.0000024 0.0004132 0.0000024 0.0004132 0.9999976 -0.0004132
105 0.9999975 -0.0004321 0.0000025 0.0004321 0.0000025 0.0004321 0.9999975 -0.0004321
109 0.9999974 -0.0004518 0.0000026 0.0004518 0.0000026 0.0004518 0.9999974 -0.0004518
114 0.9999973 -0.0004724 0.0000027 0.0004724 0.0000027 0.0004724 0.9999973 -0.0004724
120 0.9999971 -0.0004939 0.0000029 0.0004939 0.0000029 0.0004939 0.9999971 -0.0004939
125 0.9999970 -0.0005164 0.0000030 0.0005164 0.0000030 0.0005164 0.9999970 -0.0005164
131 0.9999969 -0.0005400 0.0000031 0.0005400 0.0000031 0.0005400 0.9999969 -0.0005400
137 0.9999968 -0.0005646 0.0000032 0.0005646 0.0000032 0.0005646 0.9999968 -0.0005646
143 0.9999966 -0.0005904 0.0000034 0.0005904 0.0000034 0.0005904 0.9999966 -0.0005904
150 0.9999965 -0.0006173 0.0000035 0.0006173 0.0000035 0.0006173 0.9999965 -0.0006173
156 0.9999963 -0.0006455 0.0000037 0.0006455 0.0000037 0.0006455 0.9999963 -0.0006455
164 0.9999962 -0.0006749 0.0000038 0.0006749 0.0000038 0.0006749 0.9999962 -0.0006749
171 0.9999960 -0.0007057 0.0000040 0.0007057 0.0000040 0.0007057 0.9999960 -0.0007057
179 0.9999958 -0.0007380 0.0000042 0.0007380 0.0000042 0.0007380 0.9999958 -0.0007380
187 0.9999956 -0.0007716 0.0000044 0.0007716 0.0000044 0.0007716 0.9999956 -0.0007716
196 0.9999954 -0.0008069 0.0000046 0.0008069 0.0000046 0.0008069 0.9999954 -0.0008069
205 0.9999952 -0.0008437 0.0000048 0.0008437 0.0000048 0.0008437 0.9999952 -0.0008437
214 0.9999950 -0.0008823 0.0000050 0.0008823 0.0000050 0.0008823 0.9999950 -0.0008823
224 0.9999948 -0.0009226 0.0000052 0.0009226 0.0000052 0.0009226 0.9999948 -0.0009226
234 0.9999945 -0.0009647 0.0000055 0.0009647 0.0000055 0.0009647 0.9999945 -0.0009647
245 0.9999942 -0.0010088 0.0000058 0.0010088 0.0000058 0.0010088 0.9999942 -0.0010088
256 0.9999939 -0.0010548 0.0000061 0.0010548 0.0000061 0.0010548 0.9999939 -0.0010548
268 0.9999936 -0.0011030 0.0000064 0.0011030 0.0000064 0.0011030 0.9999936 -0.0011030
280 0.9999933 -0.0011534 0.0000067 0.0011534 0.0000067 0.0011534 0.9999933 -0.0011534
293 0.9999929 -0.0012061 0.0000071 0.0012061 0.0000071 0.0012061 0.9999929 -0.0012061
306 0.9999925 -0.0012612 0.0000075 0.0012612 0.0000075 0.0012612 0.9999925 -0.0012612
320 0.9999921 -0.0013188 0.0000079 0.0013188 0.0000079 0.0013188 0.9999921 -0.0013188
335 0.9999916 -0.0013790 0.0000084 0.0013790 0.0000084 0.0013790 0.9999916 -0.0013790
350 0.9999911 -0.0014420 0.0000089 0.0014420 0.0000089 0.0014420 0.9999911 -0.0014420
366 0.9999906 -0.0015079 0.0000094 0.0015079 0.0000094 0.0015079 0.9999906 -0.0015079
383 0.9999900 -0.0015768 0.0000100 0.0015768 0.0000100 0.0015768 0.9999900 -0.0015768
401 0.9999894 -0.0016488 0.0000106 0.0016488 0.0000106 0.0016488 0.9999894 -0.0016488
419 0.9999888 -0.0017241 0.0000112 0.0017241 0.0000112 0.0017241 0.9999888 -0.0017241
438 0.9999880 -0.0018028 0.0000120 0.0018028 0.0000120 0.0018028 0.9999880 -0.0018028
458 0.9999873 -0.0018851 0.0000127 0.0018851 0.0000127 0.0018851 0.9999873 -0.0018851
479 0.9999865 -0.0019712 0.0000135 0.0019712 0.0000135 0.0019712 0.9999865 -0.0019712
501 0.9999856 -0.0020612 0.0000144 0.0020612 0.0000144 0.0020612 0.9999856 -0.0020612
524 0.9999846 -0.0021553 0.0000154 0.0021553 0.0000154 0.0021553 0.9999846 -0.0021553
548 0.9999836 -0.0022537 0.0000164 0.0022537 0.0000164 0.0022537 0.9999836 -0.0022537
573 0.9999826 -0.0023565 0.0000174 0.0023565 0.0000174 0.0023565 0.9999826 -0.0023565
600 0.9999814 -0.0024641 0.0000186 0.0024641 0.0000186 0.0024641 0.9999814 -0.0024641
627 0.9999802 -0.0025765 0.0000198 0.0025765 0.0000198 0.0025765 0.9999802 -0.0025765
656 0.9999789 -0.0026941 0.0000211 0.0026941 0.0000211 0.0026941 0.9999789 -0.0026941
686 0.9999775 -0.0028170 0.0000225 0.0028170 0.0000225 0.0028170 0.9999775 -0.0028170
717 0.9999760 -0.0029455 0.0000240 0.0029455 0.0000240 0.0029455 0.9999760 -0.0029455
750 0.9999744 -0.0030798 0.0000256 0.0030798 0.0000256 0.0030798 0.9999744 -0.0030798
784 0.9999727 -0.0032203 0.0000273 0.0032203 0.0000273 0.0032203 0.9999727 -0.0032203
820 0.9999709 -0.0033672 0.0000291 0.0033672 0.0000291 0.0033672 0.9999709 -0.0033672
858 0.9999690 -0.0035208 0.0000310 0.0035208 0.0000310 0.0035208 0.9999690 -0.0035208
897 0.9999669 -0.0036814 0.0000331 0.0036814 0.0000331 0.0036814 0.9999669 -0.0036814
938 0.9999647 -0.0038493 0.0000353 0.0038493 0.0000353 0.0038493 0.9999647 -0.0038493
981 0.9999624 -0.0040248 0.0000376 0.0040248 0.0000376 0.0040248 0.9999624 -0.0040248
1026 0.9999599 -0.0042084 0.0000401 0.0042084 0.0000401 0.0042084 0.9999599 -0.0042084
1073 0.9999572 -0.0044003 0.0000428 0.0044003 0.0000428 0.0044003 0.9999572 -0.0044003
1122 0.9999544 -0.0046010 0.0000456 0.0046010 0.0000456 0.0046010 0.9999544 -0.0046010
1174 0.9999513 -0.0048109 0.0000487 0.0048109 0.0000487 0.0048109 0.9999513 -0.0048109
1227 0.9999481 -0.0050303 0.0000519 0.0050303 0.0000519 0.0050303 0.9999481 -0.0050303
1283 0.9999445 -0.0052598 0.0000555 0.0052598 0.0000555 0.0052598 0.9999445 -0.0052598
1342 0.9999408 -0.0054998 0.0000592 0.0054998 0.0000592 0.0054998 0.9999408 -0.0054998
1404 0.9999367 -0.0057507 0.0000633 0.0057507 0.0000633 0.0057507 0.9999367 -0.0057507
1468 0.9999324 -0.0060130 0.0000676 0.0060130 0.0000676 0.0060130 0.9999324 -0.0060130
1535 0.9999277 -0.0062874 0.0000723 0.0062874 0.0000723 0.0062874 0.9999277 -0.0062874
1606 0.9999226 -0.0065743 0.0000774 0.0065743 0.0000774 0.0065743 0.9999226 -0.0065743
1679 0.9999171 -0.0068743 0.0000829 0.0068743 0.0000829 0.0068743 0.9999171 -0.0068743
1756 0.9999112 -0.0071880 0.0000888 0.0071880 0.0000888 0.0071880 0.9999112 -0.0071880
1836 0.9999048 -0.0075161 0.0000952 0.0075161 0.0000952 0.0075161 0.9999048 -0.0075161
1920 0.9998978 -0.0078591 0.0001022 0.0078591 0.0001022 0.0078591 0.9998978 -0.0078591
2008 0.9998903 -0.0082179 0.0001097 0.0082179 0.0001097 0.0082179 0.9998903 -0.0082179
2100 0.9998821 -0.0085930 0.0001179 0.0085930 0.0001179 0.0085930 0.9998821 -0.0085930
2196 0.9998733 -0.0089852 0.0001267 0.0089852 0.0001267 0.0089852 0.9998733 -0.0089852
2297 0.9998637 -0.0093953 0.0001363 0.0093953 0.0001363 0.0093953 0.9998637 -0.0093953
2402 0.9998532 -0.0098242 0.0001468 0.0098242 0.0001468 0.0098242 0.9998532 -0.0098242
2512 0.9998419 -0.0102726 0.0001581 0.0102726 0.0001581 0.0102726 0.9998419 -0.0102726
2627 0.9998296 -0.0107415 0.0001704 0.0107415 0.0001704 0.0107415 0.9998296 -0.0107415
2748 0.9998162 -0.0112318 0.0001838 0.0112318 0.0001838 0.0112318 0.9998162 -0.0112318
2873 0.9998016 -0.0117444 0.0001984 0.0117444 0.0001984 0.0117444 0.9998016 -0.0117444
3005 0.9997858 -0.0122804 0.0002142 0.0122804 0.0002142 0.0122804 0.9997858 -0.0122804
3143 0.9997686 -0.0128408 0.0002314 0.0128408 0.0002314 0.0128408 0.9997686 -0.0128408
3287 0.9997498 -0.0134267 0.0002502 0.0134267 0.0002502 0.0134267 0.9997498 -0.0134267
3437 0.9997295 -0.0140393 0.0002705 0.0140393 0.0002705 0.0140393 0.9997295 -0.0140393
3594 0.9997074 -0.0146798 0.0002926 0.0146798 0.0002926 0.0146798 0.9997074 -0.0146798
3759 0.9996833 -0.0153495 0.0003167 0.0153495 0.0003167 0.0153495 0.9996833 -0.0153495
3931 0.9996571 -0.0160496 0.0003429 0.0160496 0.0003429 0.0160496 0.9996571 -0.0160496
4111 0.9996287 -0.0167816 0.0003713 0.0167816 0.0003713 0.0167816 0.9996287 -0.0167816
4299 0.9995978 -0.0175468 0.0004022 0.0175468 0.0004022 0.0175468 0.9995978 -0.0175468
4496 0.9995642 -0.0183468 0.0004358 0.0183468 0.0004358 0.0183468 0.9995642 -0.0183468
4702 0.9995276 -0.0191832 0.0004724 0.0191832 0.0004724 0.0191832 0.9995276 -0.0191832
4918 0.9994879 -0.0200575 0.0005121 0.0200575 0.0005121 0.0200575 0.9994879 -0.0200575
5143 0.9994448 -0.0209716 0.0005552 0.0209716 0.0005552 0.0209716 0.9994448 -0.0209716
5378 0.9993979 -0.0219272 0.0006021 0.0219272 0.0006021 0.0219272 0.9993979 -0.0219272
5625 0.9993469 -0.0229262 0.0006531 0.0229262 0.0006531 0.0229262 0.9993469 -0.0229262
5882 0.9992915 -0.0239705 0.0007085 0.0239705 0.0007085 0.0239705 0.9992915 -0.0239705
6151 0.9992312 -0.0250622 0.0007688 0.0250622 0.0007688 0.0250622 0.9992312 -0.0250622
6433 0.9991657 -0.0262034 0.0008343 0.0262034 0.0008343 0.0262034 0.9991657 -0.0262034
6728 0.9990945 -0.0273964 0.0009055 0.0273964 0.0009055 0.0273964 0.9990945 -0.0273964
7036 0.9990171 -0.0286435 0.0009829 0.0286435 0.0009829 0.0286435 0.9990171 -0.0286435
7358 0.9989329 -0.0299472 0.0010671 0.0299472 0.0010671 0.0299472 0.9989329 -0.0299472
7695 0.9988412 -0.0313100 0.0011588 0.0313100 0.0011588 0.0313100 0.9988412 -0.0313100
8047 0.9987415 -0.0327345 0.0012585 0.0327345 0.0012585 0.0327345 0.9987415 -0.0327345
8416 0.9986330 -0.0342236 0.0013670 0.0342236 0.0013670 0.0342236 0.9986330 -0.0342236
8801 0.9985149 -0.0357802 0.0014851 0.0357802 0.0014851 0.0357802 0.9985149 -0.0357802
9204 0.9983863 -0.0374072 0.0016137 0.0374072 0.0016137 0.0374072 0.9983863 -0.0374072
9626 0.9982462 -0.0391078 0.0017538 0.0391078 0.0017538 0.0391078 0.9982462 -0.0391078
10066 0.9980936 -0.0408853 0.0019064 0.0408853 0.0019064 0.0408853 0.9980936 -0.0408853
10527 0.9979274 -0.0427431 0.0020726 0.0427431 0.0020726 0.0427431 0.9979274 -0.0427431
11009 0.9977462 -0.0446847 0.0022538 0.0446847 0.0022538 0.0446847 0.9977462 -0.0446847
11514 0.9975486 -0.0467140 0.0024514 0.0467140 0.0024514 0.0467140 0.9975486 -0.0467140
12041 0.9973332 -0.0488346 0.0026668 0.0488346 0.0026668 0.0488346 0.9973332 -0.0488346
12592 0.9970983 -0.0510507 0.0029017 0.0510507 0.0029017 0.0510507 0.9970983 -0.0510507
13169 0.9968421 -0.0533662 0.0031579 0.0533662 0.0031579 0.0533662 0.9968421 -0.0533662
13772 0.9965627 -0.0557857 0.0034373 0.0557857 0.0034373 0.0557857 0.9965627 -0.0557857
14402 0.9962578 -0.0583134 0.0037422 0.0583134 0.0037422 0.0583134 0.9962578 -0.0583134
15062 0.9959252 -0.0609541 0.0040748 0.0609541 0.0040748 0.0609541 0.9959252 -0.0609541
15752 0.9955622 -0.0637125 0.0044378 0.0637125 0.0044378 0.0637125 0.9955622 -0.0637125
16473 0.9951661 -0.0665935 0.0048339 0.0665935 0.0048339 0.0665935 0.9951661 -0.0665935
17227 0.9947340 -0.0696023 0.0052660 0.0696023 0.0052660 0.0696023 0.9947340 -0.0696023
18016 0.9942624 -0.0727441 0.0057376 0.0727441 0.0057376 0.0727441 0.9942624 -0.0727441
18841 0.9937478 -0.0760244 0.0062522 0.0760244 0.0062522 0.0760244 0.9937478 -0.0760244
19704 0.9931863 -0.0794488 0.0068137 0.0794488 0.0068137 0.0794488 0.9931863 -0.0794488
20606 0.9925736 -0.0830228 0.0074264 0.0830228 0.0074264 0.0830228 0.9925736 -0.0830228
21550 0.9919053 -0.0867526 0.0080947 0.0867526 0.0080947 0.0867526 0.9919053 -0.0867526
22537 0.9911762 -0.0906440 0.0088238 0.0906440 0.0088238 0.0906440 0.9911762 -0.0906440
23569 0.9903809 -0.0947033 0.0096191 0.0947033 0.0096191 0.0947033 0.9903809 -0.0947033
24648 0.9895137 -0.0989366 0.0104863 0.0989366 0.0104863 0.0989366 0.9895137 -0.0989366
25777 0.9885680 -0.1033503 0.0114320 0.1033503 0.0114320 0.1033503 0.9885680 -0.1033503
26957 0.9875371 -0.1079509 0.0124629 0.1079509 0.0124629 0.1079509 0.9875371 -0.1079509
28191 0.9864135 -0.1127449 0.0135865 0.1127449 0.0135865 0.1127449 0.9864135 -0.1127449
29482 0.9851891 -0.1177387 0.0148109 0.1177387 0.0148109 0.1177387 0.9851891 -0.1177387
30832 0.9838552 -0.1229390 0.0161448 0.1229390 0.0161448 0.1229390 0.9838552 -0.1229390
32244 0.9824025 -0.1283522 0.0175975 0.1283522 0.0175975 0.1283522 0.9824025 -0.1283522
33721 0.9808207 -0.1339847 0.0191793 0.1339847 0.0191793 0.1339847 0.9808207 -0.1339847
35265 0.9790990 -0.1398428 0.0209010 0.1398428 0.0209010 0.1398428 0.9790990 -0.1398428
36880 0.9772257 -0.1459327 0.0227743 0.1459327 0.0227743 0.1459327 0.9772257 -0.1459327
38569 0.9751881 -0.1522602 0.0248119 0.1522602 0.0248119 0.1522602 0.9751881 -0.1522602
40335 0.9729727 -0.1588308 0.0270273 0.1588308 0.0270273 0.1588308 0.9729727 -0.1588308
42182 0.9705649 -0.1656498 0.0294351 0.1656498 0.0294351 0.1656498 0.9705649 -0.1656498
44113 0.9679493 -0.1727218 0.0320507 0.1727218 0.0320507 0.1727218 0.9679493 -0.1727218
46134 0.9651093 -0.1800509 0.0348907 0.1800509 0.0348907 0.1800509 0.9651093 -0.1800509
48246 0.9620272 -0.1876406 0.0379728 0.1876406 0.0379728 0.1876406 0.9620272 -0.1876406
50455 0.9586842 -0.1954933 0.0413158 0.1954933 0.0413158 0.1954933 0.9586842 -0.1954933
52766 0.9550603 -0.2036106 0.0449397 0.2036106 0.0449397 0.2036106 0.9550603 -0.2036106
55182 0.9511344 -0.2119930 0.0488656 0.2119930 0.0488656 0.2119930 0.9511344 -0.2119930
57709 0.9468842 -0.2206397 0.0531158 0.2206397 0.0531158 0.2206397 0.9468842 -0.2206397
60352 0.9422862 -0.2295482 0.0577138 0.2295482 0.0577138 0.2295482 0.9422862 -0.2295482
63115 0.9373159 -0.2387145 0.0626841 0.2387145 0.0626841 0.2387145 0.9373159 -0.2387145
66005 0.9319476 -0.2481327 0.0680524 0.2481327 0.0680524 0.2481327 0.9319476 -0.2481327
69028 0.9261548 -0.2577946 0.0738452 0.2577946 0.0738452 0.2577946 0.9261548 -0.2577946
72189 0.9199098 -0.2676896 0.0800902 0.2676896 0.0800902 0.2676896 0.9199098 -0.2676896
75495 0.9131846 -0.2778046 0.0868154 0.2778046 0.0868154 0.2778046 0.9131846 -0.2778046
78952 0.9059504 -0.2881236 0.0940496 0.2881236 0.0940496 0.2881236 0.9059504 -0.2881236
82567 0.8981782 -0.2986272 0.1018218 0.2986272 0.1018218 0.2986272 0.8981782 -0.2986272
86348 0.8898391 -0.3092930 0.1101609 0.3092930 0.1101609 0.3092930 0.8898391 -0.3092930
90302 0.8809044 -0.3200945 0.1190956 0.3200945 0.1190956 0.3200945 0.8809044 -0.3200945
94437 0.8713463 -0.3310019 0.1286537 0.3310019 0.1286537 0.3310019 0.8713463 -0.3310019
98762 0.8611381 -0.3419809 0.1388619 0.3419809 0.1388619 0.3419809 0.8611381 -0.3419809
103284 0.8502548 -0.3529935 0.1497452 0.3529935 0.1497452 0.3529935 0.8502548 -0.3529935
108014 0.8386737 -0.3639973 0.1613263 0.3639973 0.1613263 0.3639973 0.8386737 -0.3639973
112960 0.8263749 -0.3749459 0.1736251 0.3749459 0.1736251 0.3749459 0.8263749 -0.3749459
118133 0.8133422 -0.3857886 0.1866578 0.3857886 0.1866578 0.3857886 0.8133422 -0.3857886
123542 0.7995633 -0.3964712 0.2004367 0.3964712 0.2004367 0.3964712 0.7995633 -0.3964712
129199 0.7850308 -0.4069357 0.2149692 0.4069357 0.2149692 0.4069357 0.7850308 -0.4069357
135116 0.7697430 -0.4171212 0.2302570 0.4171212 0.2302570 0.4171212 0.7697430 -0.4171212
141303 0.7537042 -0.4269639 0.2462958 0.4269639 0.2462958 0.4269639 0.7537042 -0.4269639
147774 0.7369254 -0.4363987 0.2630746 0.4363987 0.2630746 0.4363987 0.7369254 -0.4363987
154540 0.7194249 -0.4453588 0.2805751 0.4453588 0.2805751 0.4453588 0.7194249 -0.4453588
161617 0.7012286 -0.4537777 0.2987714 0.4537777 0.2987714 0.4537777 0.7012286 -0.4537777
169018 0.6823703 -0.4615897 0.3176297 0.4615897 0.3176297 0.4615897 0.6823703 -0.4615897
176758 0.6628918 -0.4687310 0.3371082 0.4687310 0.3371082 0.4687310 0.6628918 -0.4687310
184852 0.6428427 -0.4751409 0.3571573 0.4751409 0.3571573 0.4751409 0.6428427 -0.4751409
193316 0.6222804 -0.4807632 0.3777196 0.4807632 0.3777196 0.4807632 0.6222804 -0.4807632
202169 0.6012694 -0.4855469 0.3987306 0.4855469 0.3987306 0.4855469 0.6012694 -0.4855469
211427 0.5798806 -0.4894478 0.4201194 0.4894478 0.4201194 0.4894478 0.5798806 -0.4894478
221108 0.5581905 -0.4924289 0.4418095 0.4924289 0.4418095 0.4924289 0.5581905 -0.4924289
231233 0.5362804 -0.4944617 0.4637196 0.4944617 0.4637196 0.4944617 0.5362804 -0.4944617
241822 0.5142346 -0.4955269 0.4857654 0.4955269 0.4857654 0.4955269 0.5142346 -0.4955269
252896 0.4921398 -0.4956144 0.5078602 0.4956144 0.5078602 0.4956144 0.4921398 -0.4956144
264476 0.4700833 -0.4947239 0.5299167 0.4947239 0.5299167 0.4947239 0.4700833 -0.4947239
276587 0.4481516 -0.4928649 0.5518484 0.4928649 0.5518484 0.4928649 0.4481516 -0.4928649
289253 0.4264293 -0.4900562 0.5735707 0.4900562 0.5735707 0.4900562 0.4264293 -0.4900562
302498 0.4049974 -0.4863257 0.5950026 0.4863257 0.5950026 0.4863257 0.4049974 -0.4863257
316350 0.3839327 -0.4817097 0.6160673 0.4817097 0.6160673 0.4817097 0.3839327 -0.4817097
330837 0.3633062 -0.4762517 0.6366938 0.4762517 0.6366938 0.4762517 0.3633062 -0.4762517
345986 0.3431824 -0.4700021 0.6568176 0.4700021 0.6568176 0.4700021 0.3431824 -0.4700021
361830 0.3236189 -0.4630163 0.6763811 0.4630163 0.6763811 0.4630163 0.3236189 -0.4630163
378399 0.3046657 -0.4553544 0.6953343 0.4553544 0.6953343 0.4553544 0.3046657 -0.4553544
395726 0.2863648 -0.4470793 0.7136352 0.4470793 0.7136352 0.4470793 0.2863648 -0.4470793
413847 0.2687504 -0.4382560 0.7312496 0.4382560 0.7312496 0.4382560 0.2687504 -0.4382560
432798 0.2518490 -0.4289505 0.7481510 0.4289505 0.7481510 0.4289505 0.2518490 -0.4289505
452617 0.2356793 -0.4192284 0.7643207 0.4192284 0.7643207 0.4192284 0.2356793 -0.4192284
473344 0.2202532 -0.4091546 0.7797468 0.4091546 0.7797468 0.4091546 0.2202532 -0.4091546
495019 0.2055758 -0.3987920 0.7944242 0.3987920 0.7944242 0.3987920 0.2055758 -0.3987920
517687 0.1916460 -0.3882011 0.8083540 0.3882011 0.8083540 0.3882011 0.1916460 -0.3882011
541393 0.1784575 -0.3774394 0.8215425 0.3774394 0.8215425 0.3774394 0.1784575 -0.3774394
566185 0.1659991 -0.3665610 0.8340009 0.3665610 0.8340009 0.3665610 0.1659991 -0.3665610
592111 0.1542554 -0.3556160 0.8457446 0.3556160 0.8457446 0.3556160 0.1542554 -0.3556160
619225 0.1432078 -0.3446509 0.8567922 0.3446509 0.8567922 0.3446509 0.1432078 -0.3446509
647581 0.1328345 -0.3337081 0.8671655 0.3337081 0.8671655 0.3337081 0.1328345 -0.3337081
677235 0.1231116 -0.3228259 0.8768884 0.3228259 0.8768884 0.3228259 0.1231116 -0.3228259
708247 0.1140136 -0.3120387 0.8859864 0.3120387 0.8859864 0.3120387 0.1140136 -0.3120387
740679 0.1055134 -0.3013768 0.8944866 0.3013768 0.8944866 0.3013768 0.1055134 -0.3013768
774597 0.0975834 -0.2908671 0.9024166 0.2908671 0.9024166 0.2908671 0.0975834 -0.2908671
810067 0.0901954 -0.2805328 0.9098046 0.2805328 0.9098046 0.2805328 0.0901954 -0.2805328
847162 0.0833212 -0.2703938 0.9166788 0.2703938 0.9166788 0.2703938 0.0833212 -0.2703938
885955 0.0769327 -0.2604669 0.9230673 0.2604669 0.9230673 0.2604669 0.0769327 -0.2604669
926525 0.0710021 -0.2507661 0.9289979 0.2507661 0.9289979 0.2507661 0.0710021 -0.2507661
968953 0.0655025 -0.2413027 0.9344975 0.2413027 0.9344975 0.2413027 0.0655025 -0.2413027
1013323 0.0604075 -0.2320858 0.9395925 0.2320858 0.9395925 0.2320858 0.0604075 -0.2320858
1059725 0.0556917 -0.2231220 0.9443083 0.2231220 0.9443083 0.2231220 0.0556917 -0.2231220
1108252 0.0513305 -0.2144162 0.9486695 0.2144162 0.9486695 0.2144162 0.0513305 -0.2144162
1159002 0.0473005 -0.2059717 0.9526995 0.2059717 0.9526995 0.2059717 0.0473005 -0.2059717
1212075 0.0435793 -0.1977899 0.9564207 0.1977899 0.9564207 0.1977899 0.0435793 -0.1977899
1267578 0.0401457 -0.1898711 0.9598543 0.1898711 0.9598543 0.1898711 0.0401457 -0.1898711
1325623 0.0369794 -0.1822144 0.9630206 0.1822144 0.9630206 0.1822144 0.0369794 -0.1822144
1386327 0.0340613 -0.1748176 0.9659387 0.1748176 0.9659387 0.1748176 0.0340613 -0.1748176
1449809 0.0313736 -0.1676780 0.9686264 0.1676780 0.9686264 0.1676780 0.0313736 -0.1676780
1516199 0.0288992 -0.1607918 0.9711008 0.1607918 0.9711008 0.1607918 0.0288992 -0.1607918
1585629 0.0266223 -0.1541548 0.9733777 0.1541548 0.9733777 0.1541548 0.0266223 -0.1541548
1658239 0.0245281 -0.1477621 0.9754719 0.1477621 0.9754719 0.1477621 0.0245281 -0.1477621
1734173 0.0226026 -0.1416084 0.9773974 0.1416084 0.9773974 0.1416084 0.0226026 -0.1416084
1813585 0.0208329 -0.1356879 0.9791671 0.1356879 0.9791671 0.1356879 0.0208329 -0.1356879
1896632 0.0192068 -0.1299949 0.9807932 0.1299949 0.9807932 0.1299949 0.0192068 -0.1299949
1983483 0.0177132 -0.1245230 0.9822868 0.1245230 0.9822868 0.1245230 0.0177132 -0.1245230
2074311 0.0163415 -0.1192660 0.9836585 0.1192660 0.9836585 0.1192660 0.0163415 -0.1192660
