!Murata Part Number: GRM155R60G106ME47
!These Parameters are Measured in Series Mode Connection
!Data Generated on Mar 30, 2021
!       o--ll--o
!Port1            Port2
!       o------o
!Operation Temp=25[degC], DC Bias Voltage=0[V]
!Freq. Start=100[Hz] Stop=6[GHz] 401[Steps]
# Hz S RI R 50
!Freq.(Hz) S11(Real) S11(Imag) S21(Real) S21(Imag) S12(Real) S12(Imag) S22(Real) S22(Imag)
100 0.8255770 -0.3743616 0.1744230 0.3743616 0.1744230 0.3743616 0.8255770 -0.3743616
105 0.8125740 -0.3851538 0.1874260 0.3851538 0.1874260 0.3851538 0.8125740 -0.3851538
109 0.7988292 -0.3957858 0.2011708 0.3957858 0.2011708 0.3957858 0.7988292 -0.3957858
114 0.7843357 -0.4061999 0.2156643 0.4061999 0.2156643 0.4061999 0.7843357 -0.4061999
120 0.7690919 -0.4163357 0.2309081 0.4163357 0.2309081 0.4163357 0.7690919 -0.4163357
125 0.7531027 -0.4261300 0.2468973 0.4261300 0.2468973 0.4261300 0.7531027 -0.4261300
131 0.7363793 -0.4355180 0.2636207 0.4355180 0.2636207 0.4355180 0.7363793 -0.4355180
137 0.7189404 -0.4444341 0.2810596 0.4444341 0.2810596 0.4444341 0.7189404 -0.4444341
143 0.7008119 -0.4528124 0.2991881 0.4528124 0.2991881 0.4528124 0.7008119 -0.4528124
150 0.6820277 -0.4605883 0.3179723 0.4605883 0.3179723 0.4605883 0.6820277 -0.4605883
156 0.6626293 -0.4676989 0.3373707 0.4676989 0.3373707 0.4676989 0.6626293 -0.4676989
164 0.6426662 -0.4740848 0.3573338 0.4740848 0.3573338 0.4740848 0.6426662 -0.4740848
171 0.6221952 -0.4796907 0.3778048 0.4796907 0.3778048 0.4796907 0.6221952 -0.4796907
179 0.6012798 -0.4844668 0.3987202 0.4844668 0.3987202 0.4844668 0.6012798 -0.4844668
187 0.5799902 -0.4883698 0.4200098 0.4883698 0.4200098 0.4883698 0.5799902 -0.4883698
196 0.5584016 -0.4913637 0.4415984 0.4913637 0.4415984 0.4913637 0.5584016 -0.4913637
205 0.5365939 -0.4934207 0.4634061 0.4934207 0.4634061 0.4934207 0.5365939 -0.4934207
214 0.5146498 -0.4945218 0.4853502 0.4945218 0.4853502 0.4945218 0.5146498 -0.4945218
224 0.4926544 -0.4946572 0.5073456 0.4946572 0.5073456 0.4946572 0.4926544 -0.4946572
234 0.4706930 -0.4938266 0.5293070 0.4938266 0.5293070 0.4938266 0.4706930 -0.4938266
245 0.4488505 -0.4920390 0.5511495 0.4920390 0.5511495 0.4920390 0.4488505 -0.4920390
256 0.4272097 -0.4893126 0.5727903 0.4893126 0.5727903 0.4893126 0.4272097 -0.4893126
268 0.4058500 -0.4856741 0.5941500 0.4856741 0.5941500 0.4856741 0.4058500 -0.4856741
280 0.3848466 -0.4811584 0.6151534 0.4811584 0.6151534 0.4811584 0.3848466 -0.4811584
293 0.3642694 -0.4758077 0.6357306 0.4758077 0.6357306 0.4758077 0.3642694 -0.4758077
306 0.3441821 -0.4696704 0.6558179 0.4696704 0.6558179 0.4696704 0.3441821 -0.4696704
320 0.3246415 -0.4628002 0.6753585 0.4628002 0.6753585 0.4628002 0.3246415 -0.4628002
335 0.3056973 -0.4552550 0.6943027 0.4552550 0.6943027 0.4552550 0.3056973 -0.4552550
350 0.2873918 -0.4470957 0.7126082 0.4470957 0.7126082 0.4470957 0.2873918 -0.4470957
366 0.2697595 -0.4383854 0.7302405 0.4383854 0.7302405 0.4383854 0.2697595 -0.4383854
383 0.2528275 -0.4291883 0.7471725 0.4291883 0.7471725 0.4291883 0.2528275 -0.4291883
401 0.2366159 -0.4195684 0.7633841 0.4195684 0.7633841 0.4195684 0.2366159 -0.4195684
419 0.2211376 -0.4095892 0.7788624 0.4095892 0.7788624 0.4095892 0.2211376 -0.4095892
438 0.2063991 -0.3993124 0.7936009 0.3993124 0.7936009 0.3993124 0.2063991 -0.3993124
458 0.1924010 -0.3887978 0.8075990 0.3887978 0.8075990 0.3887978 0.1924010 -0.3887978
479 0.1791387 -0.3781022 0.8208613 0.3781022 0.8208613 0.3781022 0.1791387 -0.3781022
501 0.1666025 -0.3672794 0.8333975 0.3672794 0.8333975 0.3672794 0.1666025 -0.3672794
524 0.1547786 -0.3563798 0.8452214 0.3563798 0.8452214 0.3563798 0.1547786 -0.3563798
548 0.1436499 -0.3454501 0.8563501 0.3454501 0.8563501 0.3454501 0.1436499 -0.3454501
573 0.1331960 -0.3345330 0.8668040 0.3345330 0.8668040 0.3345330 0.1331960 -0.3345330
600 0.1233942 -0.3236676 0.8766058 0.3236676 0.8766058 0.3236676 0.1233942 -0.3236676
627 0.1142198 -0.3128890 0.8857802 0.3128890 0.8857802 0.3128890 0.1142198 -0.3128890
656 0.1056468 -0.3022285 0.8943532 0.3022285 0.8943532 0.3022285 0.1056468 -0.3022285
686 0.0976481 -0.2917139 0.9023519 0.2917139 0.9023519 0.2917139 0.0976481 -0.2917139
717 0.0901960 -0.2813693 0.9098040 0.2813693 0.9098040 0.2813693 0.0901960 -0.2813693
750 0.0832626 -0.2712156 0.9167374 0.2712156 0.9167374 0.2712156 0.0832626 -0.2712156
784 0.0768197 -0.2612705 0.9231803 0.2612705 0.9231803 0.2612705 0.0768197 -0.2612705
820 0.0708399 -0.2515489 0.9291601 0.2515489 0.9291601 0.2515489 0.0708399 -0.2515489
858 0.0652959 -0.2420628 0.9347041 0.2420628 0.9347041 0.2420628 0.0652959 -0.2420628
897 0.0601611 -0.2328220 0.9398389 0.2328220 0.9398389 0.2328220 0.0601611 -0.2328220
938 0.0554098 -0.2238338 0.9445902 0.2238338 0.9445902 0.2238338 0.0554098 -0.2238338
981 0.0510172 -0.2151036 0.9489828 0.2151036 0.9489828 0.2151036 0.0510172 -0.2151036
1026 0.0469594 -0.2066350 0.9530406 0.2066350 0.9530406 0.2066350 0.0469594 -0.2066350
1073 0.0432137 -0.1984299 0.9567863 0.1984299 0.9567863 0.1984299 0.0432137 -0.1984299
1122 0.0397585 -0.1904887 0.9602415 0.1904887 0.9602415 0.1904887 0.0397585 -0.1904887
1174 0.0365730 -0.1828108 0.9634270 0.1828108 0.9634270 0.1828108 0.0365730 -0.1828108
1227 0.0336380 -0.1753942 0.9663620 0.1753942 0.9663620 0.1753942 0.0336380 -0.1753942
1283 0.0309350 -0.1682361 0.9690650 0.1682361 0.9690650 0.1682361 0.0309350 -0.1682361
1342 0.0284468 -0.1613329 0.9715532 0.1613329 0.9715532 0.1613329 0.0284468 -0.1613329
1404 0.0261573 -0.1546801 0.9738427 0.1546801 0.9738427 0.1546801 0.0261573 -0.1546801
1468 0.0240513 -0.1482730 0.9759487 0.1482730 0.9759487 0.1482730 0.0240513 -0.1482730
1535 0.0221146 -0.1421061 0.9778854 0.1421061 0.9778854 0.1421061 0.0221146 -0.1421061
1606 0.0203342 -0.1361737 0.9796658 0.1361737 0.9796658 0.1361737 0.0203342 -0.1361737
1679 0.0186977 -0.1304697 0.9813023 0.1304697 0.9813023 0.1304697 0.0186977 -0.1304697
1756 0.0171938 -0.1249878 0.9828062 0.1249878 0.9828062 0.1249878 0.0171938 -0.1249878
1836 0.0158119 -0.1197214 0.9841881 0.1197214 0.9841881 0.1197214 0.0158119 -0.1197214
1920 0.0145423 -0.1146642 0.9854577 0.1146642 0.9854577 0.1146642 0.0145423 -0.1146642
2008 0.0133757 -0.1098093 0.9866243 0.1098093 0.9866243 0.1098093 0.0133757 -0.1098093
2100 0.0123041 -0.1051502 0.9876959 0.1051502 0.9876959 0.1051502 0.0123041 -0.1051502
2196 0.0113195 -0.1006801 0.9886805 0.1006801 0.9886805 0.1006801 0.0113195 -0.1006801
2297 0.0104149 -0.0963926 0.9895851 0.0963926 0.9895851 0.0963926 0.0104149 -0.0963926
2402 0.0095838 -0.0922811 0.9904162 0.0922811 0.9904162 0.0922811 0.0095838 -0.0922811
2512 0.0088201 -0.0883391 0.9911799 0.0883391 0.9911799 0.0883391 0.0088201 -0.0883391
2627 0.0081183 -0.0845604 0.9918817 0.0845604 0.9918817 0.0845604 0.0081183 -0.0845604
2748 0.0074733 -0.0809388 0.9925267 0.0809388 0.9925267 0.0809388 0.0074733 -0.0809388
2873 0.0068805 -0.0774682 0.9931195 0.0774682 0.9931195 0.0774682 0.0068805 -0.0774682
3005 0.0063356 -0.0741429 0.9936644 0.0741429 0.9936644 0.0741429 0.0063356 -0.0741429
3143 0.0058347 -0.0709572 0.9941653 0.0709572 0.9941653 0.0709572 0.0058347 -0.0709572
3287 0.0053742 -0.0679054 0.9946258 0.0679054 0.9946258 0.0679054 0.0053742 -0.0679054
3437 0.0049507 -0.0649823 0.9950493 0.0649823 0.9950493 0.0649823 0.0049507 -0.0649823
3594 0.0045614 -0.0621826 0.9954386 0.0621826 0.9954386 0.0621826 0.0045614 -0.0621826
3759 0.0042034 -0.0595015 0.9957966 0.0595015 0.9957966 0.0595015 0.0042034 -0.0595015
3931 0.0038741 -0.0569340 0.9961259 0.0569340 0.9961259 0.0569340 0.0038741 -0.0569340
4111 0.0035713 -0.0544755 0.9964287 0.0544755 0.9964287 0.0544755 0.0035713 -0.0544755
4299 0.0032929 -0.0521216 0.9967071 0.0521216 0.9967071 0.0521216 0.0032929 -0.0521216
4496 0.0030369 -0.0498679 0.9969631 0.0498679 0.9969631 0.0498679 0.0030369 -0.0498679
4702 0.0028015 -0.0477103 0.9971985 0.0477103 0.9971985 0.0477103 0.0028015 -0.0477103
4918 0.0025850 -0.0456448 0.9974150 0.0456448 0.9974150 0.0456448 0.0025850 -0.0456448
5143 0.0023860 -0.0436677 0.9976140 0.0436677 0.9976140 0.0436677 0.0023860 -0.0436677
5378 0.0022031 -0.0417751 0.9977969 0.0417751 0.9977969 0.0417751 0.0022031 -0.0417751
5625 0.0020350 -0.0399637 0.9979650 0.0399637 0.9979650 0.0399637 0.0020350 -0.0399637
5882 0.0018804 -0.0382300 0.9981196 0.0382300 0.9981196 0.0382300 0.0018804 -0.0382300
6151 0.0017384 -0.0365708 0.9982616 0.0365708 0.9982616 0.0365708 0.0017384 -0.0365708
6433 0.0016079 -0.0349829 0.9983921 0.0349829 0.9983921 0.0349829 0.0016079 -0.0349829
6728 0.0014880 -0.0334634 0.9985120 0.0334634 0.9985120 0.0334634 0.0014880 -0.0334634
7036 0.0013778 -0.0320094 0.9986222 0.0320094 0.9986222 0.0320094 0.0013778 -0.0320094
7358 0.0012767 -0.0306181 0.9987233 0.0306181 0.9987233 0.0306181 0.0012767 -0.0306181
7695 0.0011837 -0.0292868 0.9988163 0.0292868 0.9988163 0.0292868 0.0011837 -0.0292868
8047 0.0010984 -0.0280132 0.9989016 0.0280132 0.9989016 0.0280132 0.0010984 -0.0280132
8416 0.0010200 -0.0267946 0.9989800 0.0267946 0.9989800 0.0267946 0.0010200 -0.0267946
8801 0.0009480 -0.0256288 0.9990520 0.0256288 0.9990520 0.0256288 0.0009480 -0.0256288
9204 0.0008818 -0.0245136 0.9991182 0.0245136 0.9991182 0.0245136 0.0008818 -0.0245136
9626 0.0008211 -0.0234467 0.9991789 0.0234467 0.9991789 0.0234467 0.0008211 -0.0234467
10066 0.0007653 -0.0224261 0.9992347 0.0224261 0.9992347 0.0224261 0.0007653 -0.0224261
10527 0.0007140 -0.0214499 0.9992860 0.0214499 0.9992860 0.0214499 0.0007140 -0.0214499
11009 0.0006669 -0.0205161 0.9993331 0.0205161 0.9993331 0.0205161 0.0006669 -0.0205161
11514 0.0006236 -0.0196230 0.9993764 0.0196230 0.9993764 0.0196230 0.0006236 -0.0196230
12041 0.0005837 -0.0187687 0.9994163 0.0187687 0.9994163 0.0187687 0.0005837 -0.0187687
12592 0.0005471 -0.0179517 0.9994529 0.0179517 0.9994529 0.0179517 0.0005471 -0.0179517
13169 0.0005133 -0.0171702 0.9994867 0.0171702 0.9994867 0.0171702 0.0005133 -0.0171702
13772 0.0004823 -0.0164228 0.9995177 0.0164228 0.9995177 0.0164228 0.0004823 -0.0164228
14402 0.0004536 -0.0157080 0.9995464 0.0157080 0.9995464 0.0157080 0.0004536 -0.0157080
15062 0.0004272 -0.0150244 0.9995728 0.0150244 0.9995728 0.0150244 0.0004272 -0.0150244
15752 0.0004028 -0.0143706 0.9995972 0.0143706 0.9995972 0.0143706 0.0004028 -0.0143706
16473 0.0003802 -0.0137454 0.9996198 0.0137454 0.9996198 0.0137454 0.0003802 -0.0137454
17227 0.0003594 -0.0131474 0.9996406 0.0131474 0.9996406 0.0131474 0.0003594 -0.0131474
18016 0.0003401 -0.0125756 0.9996599 0.0125756 0.9996599 0.0125756 0.0003401 -0.0125756
18841 0.0003222 -0.0120287 0.9996778 0.0120287 0.9996778 0.0120287 0.0003222 -0.0120287
19704 0.0003055 -0.0115056 0.9996945 0.0115056 0.9996945 0.0115056 0.0003055 -0.0115056
20606 0.0002901 -0.0110054 0.9997099 0.0110054 0.9997099 0.0110054 0.0002901 -0.0110054
21550 0.0002757 -0.0105270 0.9997243 0.0105270 0.9997243 0.0105270 0.0002757 -0.0105270
22537 0.0002623 -0.0100695 0.9997377 0.0100695 0.9997377 0.0100695 0.0002623 -0.0100695
23569 0.0002498 -0.0096319 0.9997502 0.0096319 0.9997502 0.0096319 0.0002498 -0.0096319
24648 0.0002381 -0.0092133 0.9997619 0.0092133 0.9997619 0.0092133 0.0002381 -0.0092133
25777 0.0002272 -0.0088130 0.9997728 0.0088130 0.9997728 0.0088130 0.0002272 -0.0088130
26957 0.0002170 -0.0084302 0.9997830 0.0084302 0.9997830 0.0084302 0.0002170 -0.0084302
28191 0.0002074 -0.0080639 0.9997926 0.0080639 0.9997926 0.0080639 0.0002074 -0.0080639
29482 0.0001984 -0.0077137 0.9998016 0.0077137 0.9998016 0.0077137 0.0001984 -0.0077137
30832 0.0001899 -0.0073786 0.9998101 0.0073786 0.9998101 0.0073786 0.0001899 -0.0073786
32244 0.0001820 -0.0070581 0.9998180 0.0070581 0.9998180 0.0070581 0.0001820 -0.0070581
33721 0.0001746 -0.0067515 0.9998254 0.0067515 0.9998254 0.0067515 0.0001746 -0.0067515
35265 0.0001675 -0.0064582 0.9998325 0.0064582 0.9998325 0.0064582 0.0001675 -0.0064582
36880 0.0001609 -0.0061776 0.9998391 0.0061776 0.9998391 0.0061776 0.0001609 -0.0061776
38569 0.0001548 -0.0059093 0.9998452 0.0059093 0.9998452 0.0059093 0.0001548 -0.0059093
40335 0.0001489 -0.0056525 0.9998511 0.0056525 0.9998511 0.0056525 0.0001489 -0.0056525
42182 0.0001434 -0.0054069 0.9998566 0.0054069 0.9998566 0.0054069 0.0001434 -0.0054069
44113 0.0001383 -0.0051719 0.9998617 0.0051719 0.9998617 0.0051719 0.0001383 -0.0051719
46134 0.0001335 -0.0049471 0.9998665 0.0049471 0.9998665 0.0049471 0.0001335 -0.0049471
48246 0.0001289 -0.0047320 0.9998711 0.0047320 0.9998711 0.0047320 0.0001289 -0.0047320
50455 0.0001247 -0.0045263 0.9998753 0.0045263 0.9998753 0.0045263 0.0001247 -0.0045263
52766 0.0001207 -0.0043295 0.9998793 0.0043295 0.9998793 0.0043295 0.0001207 -0.0043295
55182 0.0001169 -0.0041412 0.9998831 0.0041412 0.9998831 0.0041412 0.0001169 -0.0041412
57709 0.0001134 -0.0039610 0.9998866 0.0039610 0.9998866 0.0039610 0.0001134 -0.0039610
60352 0.0001101 -0.0037887 0.9998899 0.0037887 0.9998899 0.0037887 0.0001101 -0.0037887
63115 0.0001070 -0.0036239 0.9998930 0.0036239 0.9998930 0.0036239 0.0001070 -0.0036239
66005 0.0001041 -0.0034662 0.9998959 0.0034662 0.9998959 0.0034662 0.0001041 -0.0034662
69028 0.0001014 -0.0033154 0.9998986 0.0033154 0.9998986 0.0033154 0.0001014 -0.0033154
72189 0.0000989 -0.0031711 0.9999011 0.0031711 0.9999011 0.0031711 0.0000989 -0.0031711
75495 0.0000965 -0.0030330 0.9999035 0.0030330 0.9999035 0.0030330 0.0000965 -0.0030330
78952 0.0000943 -0.0029010 0.9999057 0.0029010 0.9999057 0.0029010 0.0000943 -0.0029010
82567 0.0000922 -0.0027747 0.9999078 0.0027747 0.9999078 0.0027747 0.0000922 -0.0027747
86348 0.0000903 -0.0026539 0.9999097 0.0026539 0.9999097 0.0026539 0.0000903 -0.0026539
90302 0.0000884 -0.0025384 0.9999116 0.0025384 0.9999116 0.0025384 0.0000884 -0.0025384
94437 0.0000867 -0.0024279 0.9999133 0.0024279 0.9999133 0.0024279 0.0000867 -0.0024279
98762 0.0000851 -0.0023222 0.9999149 0.0023222 0.9999149 0.0023222 0.0000851 -0.0023222
103284 0.0000836 -0.0022211 0.9999164 0.0022211 0.9999164 0.0022211 0.0000836 -0.0022211
108014 0.0000821 -0.0021244 0.9999179 0.0021244 0.9999179 0.0021244 0.0000821 -0.0021244
112960 0.0000807 -0.0020319 0.9999193 0.0020319 0.9999193 0.0020319 0.0000807 -0.0020319
118133 0.0000794 -0.0019435 0.9999206 0.0019435 0.9999206 0.0019435 0.0000794 -0.0019435
123542 0.0000782 -0.0018589 0.9999218 0.0018589 0.9999218 0.0018589 0.0000782 -0.0018589
129199 0.0000770 -0.0017780 0.9999230 0.0017780 0.9999230 0.0017780 0.0000770 -0.0017780
135116 0.0000759 -0.0017006 0.9999241 0.0017006 0.9999241 0.0017006 0.0000759 -0.0017006
141303 0.0000748 -0.0016266 0.9999252 0.0016266 0.9999252 0.0016266 0.0000748 -0.0016266
147774 0.0000737 -0.0015557 0.9999263 0.0015557 0.9999263 0.0015557 0.0000737 -0.0015557
154540 0.0000727 -0.0014880 0.9999273 0.0014880 0.9999273 0.0014880 0.0000727 -0.0014880
161617 0.0000717 -0.0014232 0.9999283 0.0014232 0.9999283 0.0014232 0.0000717 -0.0014232
169018 0.0000707 -0.0013612 0.9999293 0.0013612 0.9999293 0.0013612 0.0000707 -0.0013612
176758 0.0000697 -0.0013019 0.9999303 0.0013019 0.9999303 0.0013019 0.0000697 -0.0013019
184852 0.0000688 -0.0012452 0.9999312 0.0012452 0.9999312 0.0012452 0.0000688 -0.0012452
193316 0.0000679 -0.0011909 0.9999321 0.0011909 0.9999321 0.0011909 0.0000679 -0.0011909
202169 0.0000670 -0.0011389 0.9999330 0.0011389 0.9999330 0.0011389 0.0000670 -0.0011389
211427 0.0000661 -0.0010892 0.9999339 0.0010892 0.9999339 0.0010892 0.0000661 -0.0010892
221108 0.0000653 -0.0010416 0.9999347 0.0010416 0.9999347 0.0010416 0.0000653 -0.0010416
231233 0.0000644 -0.0009960 0.9999356 0.0009960 0.9999356 0.0009960 0.0000644 -0.0009960
241822 0.0000636 -0.0009524 0.9999364 0.0009524 0.9999364 0.0009524 0.0000636 -0.0009524
252896 0.0000627 -0.0009106 0.9999373 0.0009106 0.9999373 0.0009106 0.0000627 -0.0009106
264476 0.0000619 -0.0008706 0.9999381 0.0008706 0.9999381 0.0008706 0.0000619 -0.0008706
276587 0.0000612 -0.0008323 0.9999388 0.0008323 0.9999388 0.0008323 0.0000612 -0.0008323
289253 0.0000604 -0.0007956 0.9999396 0.0007956 0.9999396 0.0007956 0.0000604 -0.0007956
302498 0.0000596 -0.0007604 0.9999404 0.0007604 0.9999404 0.0007604 0.0000596 -0.0007604
316350 0.0000589 -0.0007267 0.9999411 0.0007267 0.9999411 0.0007267 0.0000589 -0.0007267
330837 0.0000582 -0.0006944 0.9999418 0.0006944 0.9999418 0.0006944 0.0000582 -0.0006944
345986 0.0000575 -0.0006635 0.9999425 0.0006635 0.9999425 0.0006635 0.0000575 -0.0006635
361830 0.0000568 -0.0006338 0.9999432 0.0006338 0.9999432 0.0006338 0.0000568 -0.0006338
378399 0.0000562 -0.0006054 0.9999438 0.0006054 0.9999438 0.0006054 0.0000562 -0.0006054
395726 0.0000555 -0.0005781 0.9999445 0.0005781 0.9999445 0.0005781 0.0000555 -0.0005781
413847 0.0000550 -0.0005519 0.9999450 0.0005519 0.9999450 0.0005519 0.0000550 -0.0005519
432798 0.0000544 -0.0005268 0.9999456 0.0005268 0.9999456 0.0005268 0.0000544 -0.0005268
452617 0.0000539 -0.0005027 0.9999461 0.0005027 0.9999461 0.0005027 0.0000539 -0.0005027
473344 0.0000533 -0.0004796 0.9999467 0.0004796 0.9999467 0.0004796 0.0000533 -0.0004796
495019 0.0000529 -0.0004573 0.9999471 0.0004573 0.9999471 0.0004573 0.0000529 -0.0004573
517687 0.0000524 -0.0004360 0.9999476 0.0004360 0.9999476 0.0004360 0.0000524 -0.0004360
541393 0.0000520 -0.0004156 0.9999480 0.0004156 0.9999480 0.0004156 0.0000520 -0.0004156
566185 0.0000516 -0.0003959 0.9999484 0.0003959 0.9999484 0.0003959 0.0000516 -0.0003959
592111 0.0000512 -0.0003770 0.9999488 0.0003770 0.9999488 0.0003770 0.0000512 -0.0003770
619225 0.0000509 -0.0003588 0.9999491 0.0003588 0.9999491 0.0003588 0.0000509 -0.0003588
647581 0.0000506 -0.0003413 0.9999494 0.0003413 0.9999494 0.0003413 0.0000506 -0.0003413
677235 0.0000503 -0.0003245 0.9999497 0.0003245 0.9999497 0.0003245 0.0000503 -0.0003245
708247 0.0000501 -0.0003083 0.9999499 0.0003083 0.9999499 0.0003083 0.0000501 -0.0003083
740679 0.0000499 -0.0002927 0.9999501 0.0002927 0.9999501 0.0002927 0.0000499 -0.0002927
774597 0.0000497 -0.0002777 0.9999503 0.0002777 0.9999503 0.0002777 0.0000497 -0.0002777
810067 0.0000495 -0.0002632 0.9999505 0.0002632 0.9999505 0.0002632 0.0000495 -0.0002632
847162 0.0000494 -0.0002493 0.9999506 0.0002493 0.9999506 0.0002493 0.0000494 -0.0002493
885955 0.0000493 -0.0002358 0.9999507 0.0002358 0.9999507 0.0002358 0.0000493 -0.0002358
926525 0.0000492 -0.0002228 0.9999508 0.0002228 0.9999508 0.0002228 0.0000492 -0.0002228
968953 0.0000491 -0.0002103 0.9999509 0.0002103 0.9999509 0.0002103 0.0000491 -0.0002103
1013323 0.0000491 -0.0001981 0.9999509 0.0001981 0.9999509 0.0001981 0.0000491 -0.0001981
1059725 0.0000491 -0.0001863 0.9999509 0.0001863 0.9999509 0.0001863 0.0000491 -0.0001863
1108252 0.0000491 -0.0001750 0.9999509 0.0001750 0.9999509 0.0001750 0.0000491 -0.0001750
1159002 0.0000492 -0.0001639 0.9999508 0.0001639 0.9999508 0.0001639 0.0000492 -0.0001639
1212075 0.0000493 -0.0001532 0.9999507 0.0001532 0.9999507 0.0001532 0.0000493 -0.0001532
1267578 0.0000494 -0.0001428 0.9999506 0.0001428 0.9999506 0.0001428 0.0000494 -0.0001428
1325623 0.0000496 -0.0001327 0.9999504 0.0001327 0.9999504 0.0001327 0.0000496 -0.0001327
1386327 0.0000498 -0.0001228 0.9999502 0.0001228 0.9999502 0.0001228 0.0000498 -0.0001228
1449809 0.0000500 -0.0001132 0.9999500 0.0001132 0.9999500 0.0001132 0.0000500 -0.0001132
1516199 0.0000503 -0.0001038 0.9999497 0.0001038 0.9999497 0.0001038 0.0000503 -0.0001038
1585629 0.0000506 -0.0000946 0.9999494 0.0000946 0.9999494 0.0000946 0.0000506 -0.0000946
1658239 0.0000509 -0.0000856 0.9999491 0.0000856 0.9999491 0.0000856 0.0000509 -0.0000856
1734173 0.0000513 -0.0000768 0.9999487 0.0000768 0.9999487 0.0000768 0.0000513 -0.0000768
1813585 0.0000518 -0.0000682 0.9999482 0.0000682 0.9999482 0.0000682 0.0000518 -0.0000682
1896632 0.0000523 -0.0000597 0.9999477 0.0000597 0.9999477 0.0000597 0.0000523 -0.0000597
1983483 0.0000528 -0.0000513 0.9999472 0.0000513 0.9999472 0.0000513 0.0000528 -0.0000513
2074311 0.0000535 -0.0000430 0.9999465 0.0000430 0.9999465 0.0000430 0.0000535 -0.0000430
