!Murata Part Number: GRM155R61H683ME19
!These Parameters are Measured in Series Mode Connection
!Data Generated on Mar 30, 2021
!       o--ll--o
!Port1            Port2
!       o------o
!Operation Temp=25[degC], DC Bias Voltage=0[V]
!Freq. Start=100[Hz] Stop=6[GHz] 401[Steps]
# Hz S RI R 50
!Freq.(Hz) S11(Real) S11(Imag) S21(Real) S21(Imag) S12(Real) S12(Imag) S22(Real) S22(Imag)
100 0.9999679 -0.0042054 0.0000321 0.0042054 0.0000321 0.0042054 0.9999679 -0.0042054
105 0.9999657 -0.0043975 0.0000343 0.0043975 0.0000343 0.0043975 0.9999657 -0.0043975
109 0.9999633 -0.0045984 0.0000367 0.0045984 0.0000367 0.0045984 0.9999633 -0.0045984
114 0.9999607 -0.0048084 0.0000393 0.0048084 0.0000393 0.0048084 0.9999607 -0.0048084
120 0.9999578 -0.0050281 0.0000422 0.0050281 0.0000422 0.0050281 0.9999578 -0.0050281
125 0.9999548 -0.0052578 0.0000452 0.0052578 0.0000452 0.0052578 0.9999548 -0.0052578
131 0.9999515 -0.0054980 0.0000485 0.0054980 0.0000485 0.0054980 0.9999515 -0.0054980
137 0.9999479 -0.0057492 0.0000521 0.0057492 0.0000521 0.0057492 0.9999479 -0.0057492
143 0.9999440 -0.0060118 0.0000560 0.0060118 0.0000560 0.0060118 0.9999440 -0.0060118
150 0.9999398 -0.0062865 0.0000602 0.0062865 0.0000602 0.0062865 0.9999398 -0.0062865
156 0.9999353 -0.0065737 0.0000647 0.0065737 0.0000647 0.0065737 0.9999353 -0.0065737
164 0.9999304 -0.0068740 0.0000696 0.0068740 0.0000696 0.0068740 0.9999304 -0.0068740
171 0.9999250 -0.0071881 0.0000750 0.0071881 0.0000750 0.0071881 0.9999250 -0.0071881
179 0.9999193 -0.0075165 0.0000807 0.0075165 0.0000807 0.0075165 0.9999193 -0.0075165
187 0.9999130 -0.0078599 0.0000870 0.0078599 0.0000870 0.0078599 0.9999130 -0.0078599
196 0.9999062 -0.0082190 0.0000938 0.0082190 0.0000938 0.0082190 0.9999062 -0.0082190
205 0.9998988 -0.0085945 0.0001012 0.0085945 0.0001012 0.0085945 0.9998988 -0.0085945
214 0.9998908 -0.0089872 0.0001092 0.0089872 0.0001092 0.0089872 0.9998908 -0.0089872
224 0.9998821 -0.0093978 0.0001179 0.0093978 0.0001179 0.0093978 0.9998821 -0.0093978
234 0.9998726 -0.0098272 0.0001274 0.0098272 0.0001274 0.0098272 0.9998726 -0.0098272
245 0.9998623 -0.0102763 0.0001377 0.0102763 0.0001377 0.0102763 0.9998623 -0.0102763
256 0.9998511 -0.0107458 0.0001489 0.0107458 0.0001489 0.0107458 0.9998511 -0.0107458
268 0.9998389 -0.0112368 0.0001611 0.0112368 0.0001611 0.0112368 0.9998389 -0.0112368
280 0.9998257 -0.0117502 0.0001743 0.0117502 0.0001743 0.0117502 0.9998257 -0.0117502
293 0.9998113 -0.0122871 0.0001887 0.0122871 0.0001887 0.0122871 0.9998113 -0.0122871
306 0.9997956 -0.0128485 0.0002044 0.0128485 0.0002044 0.0128485 0.9997956 -0.0128485
320 0.9997785 -0.0134355 0.0002215 0.0134355 0.0002215 0.0134355 0.9997785 -0.0134355
335 0.9997599 -0.0140494 0.0002401 0.0140494 0.0002401 0.0140494 0.9997599 -0.0140494
350 0.9997396 -0.0146913 0.0002604 0.0146913 0.0002604 0.0146913 0.9997396 -0.0146913
366 0.9997175 -0.0153625 0.0002825 0.0153625 0.0002825 0.0153625 0.9997175 -0.0153625
383 0.9996934 -0.0160643 0.0003066 0.0160643 0.0003066 0.0160643 0.9996934 -0.0160643
401 0.9996671 -0.0167982 0.0003329 0.0167982 0.0003329 0.0167982 0.9996671 -0.0167982
419 0.9996385 -0.0175656 0.0003615 0.0175656 0.0003615 0.0175656 0.9996385 -0.0175656
438 0.9996072 -0.0183680 0.0003928 0.0183680 0.0003928 0.0183680 0.9996072 -0.0183680
458 0.9995731 -0.0192070 0.0004269 0.0192070 0.0004269 0.0192070 0.9995731 -0.0192070
479 0.9995359 -0.0200842 0.0004641 0.0200842 0.0004641 0.0200842 0.9995359 -0.0200842
501 0.9994953 -0.0210014 0.0005047 0.0210014 0.0005047 0.0210014 0.9994953 -0.0210014
524 0.9994511 -0.0219604 0.0005489 0.0219604 0.0005489 0.0219604 0.9994511 -0.0219604
548 0.9994028 -0.0229631 0.0005972 0.0229631 0.0005972 0.0229631 0.9994028 -0.0229631
573 0.9993501 -0.0240115 0.0006499 0.0240115 0.0006499 0.0240115 0.9993501 -0.0240115
600 0.9992926 -0.0251075 0.0007074 0.0251075 0.0007074 0.0251075 0.9992926 -0.0251075
627 0.9992299 -0.0262534 0.0007701 0.0262534 0.0007701 0.0262534 0.9992299 -0.0262534
656 0.9991614 -0.0274514 0.0008386 0.0274514 0.0008386 0.0274514 0.9991614 -0.0274514
686 0.9990868 -0.0287039 0.0009132 0.0287039 0.0009132 0.0287039 0.9990868 -0.0287039
717 0.9990053 -0.0300132 0.0009947 0.0300132 0.0009947 0.0300132 0.9990053 -0.0300132
750 0.9989164 -0.0313819 0.0010836 0.0313819 0.0010836 0.0313819 0.9989164 -0.0313819
784 0.9988194 -0.0328128 0.0011806 0.0328128 0.0011806 0.0328128 0.9988194 -0.0328128
820 0.9987136 -0.0343085 0.0012864 0.0343085 0.0012864 0.0343085 0.9987136 -0.0343085
858 0.9985981 -0.0358720 0.0014019 0.0358720 0.0014019 0.0358720 0.9985981 -0.0358720
897 0.9984722 -0.0375063 0.0015278 0.0375063 0.0015278 0.0375063 0.9984722 -0.0375063
938 0.9983347 -0.0392145 0.0016653 0.0392145 0.0016653 0.0392145 0.9983347 -0.0392145
981 0.9981848 -0.0410000 0.0018152 0.0410000 0.0018152 0.0410000 0.9981848 -0.0410000
1026 0.9980213 -0.0428661 0.0019787 0.0428661 0.0019787 0.0428661 0.9980213 -0.0428661
1073 0.9978428 -0.0448164 0.0021572 0.0448164 0.0021572 0.0448164 0.9978428 -0.0448164
1122 0.9976481 -0.0468546 0.0023519 0.0468546 0.0023519 0.0468546 0.9976481 -0.0468546
1174 0.9974356 -0.0489846 0.0025644 0.0489846 0.0025644 0.0489846 0.9974356 -0.0489846
1227 0.9972038 -0.0512105 0.0027962 0.0512105 0.0027962 0.0512105 0.9972038 -0.0512105
1283 0.9969509 -0.0535363 0.0030491 0.0535363 0.0030491 0.0535363 0.9969509 -0.0535363
1342 0.9966749 -0.0559664 0.0033251 0.0559664 0.0033251 0.0559664 0.9966749 -0.0559664
1404 0.9963738 -0.0585053 0.0036262 0.0585053 0.0036262 0.0585053 0.9963738 -0.0585053
1468 0.9960451 -0.0611577 0.0039549 0.0611577 0.0039549 0.0611577 0.9960451 -0.0611577
1535 0.9956865 -0.0639285 0.0043135 0.0639285 0.0043135 0.0639285 0.9956865 -0.0639285
1606 0.9952951 -0.0668226 0.0047049 0.0668226 0.0047049 0.0668226 0.9952951 -0.0668226
1679 0.9948680 -0.0698453 0.0051320 0.0698453 0.0051320 0.0698453 0.9948680 -0.0698453
1756 0.9944018 -0.0730019 0.0055982 0.0730019 0.0055982 0.0730019 0.9944018 -0.0730019
1836 0.9938931 -0.0762978 0.0061069 0.0762978 0.0061069 0.0762978 0.9938931 -0.0762978
1920 0.9933380 -0.0797389 0.0066620 0.0797389 0.0066620 0.0797389 0.9933380 -0.0797389
2008 0.9927321 -0.0833310 0.0072679 0.0833310 0.0072679 0.0833310 0.9927321 -0.0833310
2100 0.9920710 -0.0870800 0.0079290 0.0870800 0.0079290 0.0870800 0.9920710 -0.0870800
2196 0.9913497 -0.0909921 0.0086503 0.0909921 0.0086503 0.0909921 0.9913497 -0.0909921
2297 0.9905626 -0.0950737 0.0094374 0.0950737 0.0094374 0.0950737 0.9905626 -0.0950737
2402 0.9897040 -0.0993311 0.0102960 0.0993311 0.0102960 0.0993311 0.9897040 -0.0993311
2512 0.9887673 -0.1037709 0.0112327 0.1037709 0.0112327 0.1037709 0.9887673 -0.1037709
2627 0.9877456 -0.1083997 0.0122544 0.1083997 0.0122544 0.1083997 0.9877456 -0.1083997
2748 0.9866315 -0.1132241 0.0133685 0.1132241 0.0133685 0.1132241 0.9866315 -0.1132241
2873 0.9854167 -0.1182509 0.0145833 0.1182509 0.0145833 0.1182509 0.9854167 -0.1182509
3005 0.9840924 -0.1234868 0.0159076 0.1234868 0.0159076 0.1234868 0.9840924 -0.1234868
3143 0.9826491 -0.1289386 0.0173509 0.1289386 0.0173509 0.1289386 0.9826491 -0.1289386
3287 0.9810764 -0.1346127 0.0189236 0.1346127 0.0189236 0.1346127 0.9810764 -0.1346127
3437 0.9793633 -0.1405158 0.0206367 0.1405158 0.0206367 0.1405158 0.9793633 -0.1405158
3594 0.9774977 -0.1466542 0.0225023 0.1466542 0.0225023 0.1466542 0.9774977 -0.1466542
3759 0.9754667 -0.1530338 0.0245333 0.1530338 0.0245333 0.1530338 0.9754667 -0.1530338
3931 0.9732566 -0.1596604 0.0267434 0.1596604 0.0267434 0.1596604 0.9732566 -0.1596604
4111 0.9708523 -0.1665394 0.0291477 0.1665394 0.0291477 0.1665394 0.9708523 -0.1665394
4299 0.9682381 -0.1736755 0.0317619 0.1736755 0.0317619 0.1736755 0.9682381 -0.1736755
4496 0.9653969 -0.1810729 0.0346031 0.1810729 0.0346031 0.1810729 0.9653969 -0.1810729
4702 0.9623106 -0.1887352 0.0376894 0.1887352 0.0376894 0.1887352 0.9623106 -0.1887352
4918 0.9589598 -0.1966648 0.0410402 0.1966648 0.0410402 0.1966648 0.9589598 -0.1966648
5143 0.9553242 -0.2048633 0.0446758 0.2048633 0.0446758 0.2048633 0.9553242 -0.2048633
5378 0.9513819 -0.2133310 0.0486181 0.2133310 0.0486181 0.2133310 0.9513819 -0.2133310
5625 0.9471102 -0.2220670 0.0528898 0.2220670 0.0528898 0.2220670 0.9471102 -0.2220670
5882 0.9424849 -0.2310686 0.0575151 0.2310686 0.0575151 0.2310686 0.9424849 -0.2310686
6151 0.9374810 -0.2403316 0.0625190 0.2403316 0.0625190 0.2403316 0.9374810 -0.2403316
6433 0.9320723 -0.2498494 0.0679277 0.2498494 0.0679277 0.2498494 0.9320723 -0.2498494
6728 0.9262314 -0.2596137 0.0737686 0.2596137 0.0737686 0.2596137 0.9262314 -0.2596137
7036 0.9199305 -0.2696132 0.0800695 0.2696132 0.0800695 0.2696132 0.9199305 -0.2696132
7358 0.9131408 -0.2798342 0.0868592 0.2798342 0.0868592 0.2798342 0.9131408 -0.2798342
7695 0.9058331 -0.2902599 0.0941669 0.2902599 0.0941669 0.2902599 0.9058331 -0.2902599
8047 0.8979780 -0.3008704 0.1020220 0.3008704 0.1020220 0.3008704 0.8979780 -0.3008704
8416 0.8895463 -0.3116421 0.1104537 0.3116421 0.1104537 0.3116421 0.8895463 -0.3116421
8801 0.8805090 -0.3225478 0.1194910 0.3225478 0.1194910 0.3225478 0.8805090 -0.3225478
9204 0.8708380 -0.3335566 0.1291620 0.3335566 0.1291620 0.3335566 0.8708380 -0.3335566
9626 0.8605068 -0.3446332 0.1394932 0.3446332 0.1394932 0.3446332 0.8605068 -0.3446332
10066 0.8494902 -0.3557385 0.1505098 0.3557385 0.1505098 0.3557385 0.8494902 -0.3557385
10527 0.8377659 -0.3668289 0.1622341 0.3668289 0.1622341 0.3668289 0.8377659 -0.3668289
11009 0.8253142 -0.3778570 0.1746858 0.3778570 0.1746858 0.3778570 0.8253142 -0.3778570
11514 0.8121193 -0.3887709 0.1878807 0.3887709 0.1878807 0.3887709 0.8121193 -0.3887709
12041 0.7981696 -0.3995153 0.2018304 0.3995153 0.2018304 0.3995153 0.7981696 -0.3995153
12592 0.7834585 -0.4100311 0.2165415 0.4100311 0.2165415 0.4100311 0.7834585 -0.4100311
13169 0.7679851 -0.4202563 0.2320149 0.4202563 0.2320149 0.4202563 0.7679851 -0.4202563
13772 0.7517546 -0.4301264 0.2482454 0.4301264 0.2482454 0.4301264 0.7517546 -0.4301264
14402 0.7347794 -0.4395753 0.2652206 0.4395753 0.2652206 0.4395753 0.7347794 -0.4395753
15062 0.7170789 -0.4485356 0.2829211 0.4485356 0.2829211 0.4485356 0.7170789 -0.4485356
15752 0.6986805 -0.4569402 0.3013195 0.4569402 0.3013195 0.4569402 0.6986805 -0.4569402
16473 0.6796193 -0.4647231 0.3203807 0.4647231 0.3203807 0.4647231 0.6796193 -0.4647231
17227 0.6599387 -0.4718202 0.3400613 0.4718202 0.3400613 0.4718202 0.6599387 -0.4718202
18016 0.6396899 -0.4781710 0.3603101 0.4781710 0.3603101 0.4781710 0.6396899 -0.4781710
18841 0.6189316 -0.4837192 0.3810684 0.4837192 0.3810684 0.4837192 0.6189316 -0.4837192
19704 0.5977300 -0.4884143 0.4022700 0.4884143 0.4022700 0.4884143 0.5977300 -0.4884143
20606 0.5761573 -0.4922126 0.4238427 0.4922126 0.4238427 0.4922126 0.5761573 -0.4922126
21550 0.5542914 -0.4950778 0.4457086 0.4950778 0.4457086 0.4950778 0.5542914 -0.4950778
22537 0.5322148 -0.4969825 0.4677852 0.4969825 0.4677852 0.4969825 0.5322148 -0.4969825
23569 0.5100130 -0.4979080 0.4899870 0.4979080 0.4899870 0.4979080 0.5100130 -0.4979080
24648 0.4877735 -0.4978454 0.5122265 0.4978454 0.5122265 0.4978454 0.4877735 -0.4978454
25777 0.4655843 -0.4967956 0.5344157 0.4967956 0.5344157 0.4967956 0.4655843 -0.4967956
26957 0.4435328 -0.4947693 0.5564672 0.4947693 0.5564672 0.4947693 0.4435328 -0.4947693
28191 0.4217040 -0.4917864 0.5782960 0.4917864 0.5782960 0.4917864 0.4217040 -0.4917864
29482 0.4001794 -0.4878760 0.5998206 0.4878760 0.5998206 0.4878760 0.4001794 -0.4878760
30832 0.3790358 -0.4830756 0.6209642 0.4830756 0.6209642 0.4830756 0.3790358 -0.4830756
32244 0.3583444 -0.4774301 0.6416556 0.4774301 0.6416556 0.4774301 0.3583444 -0.4774301
33721 0.3381699 -0.4709906 0.6618301 0.4709906 0.6618301 0.4709906 0.3381699 -0.4709906
35265 0.3185697 -0.4638140 0.6814303 0.4638140 0.6814303 0.4638140 0.3185697 -0.4638140
36880 0.2995937 -0.4559611 0.7004063 0.4559611 0.7004063 0.4559611 0.2995937 -0.4559611
38569 0.2812837 -0.4474960 0.7187163 0.4474960 0.7187163 0.4474960 0.2812837 -0.4474960
40335 0.2636738 -0.4384847 0.7363262 0.4384847 0.7363262 0.4384847 0.2636738 -0.4384847
42182 0.2467899 -0.4289939 0.7532101 0.4289939 0.7532101 0.4289939 0.2467899 -0.4289939
44113 0.2306507 -0.4190905 0.7693493 0.4190905 0.7693493 0.4190905 0.2306507 -0.4190905
46134 0.2152675 -0.4088401 0.7847325 0.4088401 0.7847325 0.4088401 0.2152675 -0.4088401
48246 0.2006448 -0.3983064 0.7993552 0.3983064 0.7993552 0.3983064 0.2006448 -0.3983064
50455 0.1867811 -0.3875508 0.8132189 0.3875508 0.8132189 0.3875508 0.1867811 -0.3875508
52766 0.1736694 -0.3766317 0.8263306 0.3766317 0.8263306 0.3766317 0.1736694 -0.3766317
55182 0.1612979 -0.3656036 0.8387021 0.3656036 0.8387021 0.3656036 0.1612979 -0.3656036
57709 0.1496504 -0.3545178 0.8503496 0.3545178 0.8503496 0.3545178 0.1496504 -0.3545178
60352 0.1387073 -0.3434210 0.8612927 0.3434210 0.8612927 0.3434210 0.1387073 -0.3434210
63115 0.1284461 -0.3323564 0.8715539 0.3323564 0.8715539 0.3323564 0.1284461 -0.3323564
66005 0.1188419 -0.3213625 0.8811581 0.3213625 0.8811581 0.3213625 0.1188419 -0.3213625
69028 0.1098680 -0.3104742 0.8901320 0.3104742 0.8901320 0.3104742 0.1098680 -0.3104742
72189 0.1014965 -0.2997220 0.8985035 0.2997220 0.8985035 0.2997220 0.1014965 -0.2997220
75495 0.0936988 -0.2891329 0.9063012 0.2891329 0.9063012 0.2891329 0.0936988 -0.2891329
78952 0.0864455 -0.2787301 0.9135545 0.2787301 0.9135545 0.2787301 0.0864455 -0.2787301
82567 0.0797074 -0.2685333 0.9202926 0.2685333 0.9202926 0.2685333 0.0797074 -0.2685333
86348 0.0734555 -0.2585593 0.9265445 0.2585593 0.9265445 0.2585593 0.0734555 -0.2585593
90302 0.0676612 -0.2488216 0.9323388 0.2488216 0.9323388 0.2488216 0.0676612 -0.2488216
94437 0.0622965 -0.2393311 0.9377035 0.2393311 0.9377035 0.2393311 0.0622965 -0.2393311
98762 0.0573343 -0.2300964 0.9426657 0.2300964 0.9426657 0.2300964 0.0573343 -0.2300964
103284 0.0527485 -0.2211237 0.9472515 0.2211237 0.9472515 0.2211237 0.0527485 -0.2211237
108014 0.0485139 -0.2124172 0.9514861 0.2124172 0.9514861 0.2124172 0.0485139 -0.2124172
112960 0.0446065 -0.2039795 0.9553935 0.2039795 0.9553935 0.2039795 0.0446065 -0.2039795
118133 0.0410036 -0.1958115 0.9589964 0.1958115 0.9589964 0.1958115 0.0410036 -0.1958115
123542 0.0376834 -0.1879127 0.9623166 0.1879127 0.9623166 0.1879127 0.0376834 -0.1879127
129199 0.0346254 -0.1802814 0.9653746 0.1802814 0.9653746 0.1802814 0.0346254 -0.1802814
135116 0.0318105 -0.1729151 0.9681895 0.1729151 0.9681895 0.1729151 0.0318105 -0.1729151
141303 0.0292206 -0.1658100 0.9707794 0.1658100 0.9707794 0.1658100 0.0292206 -0.1658100
147774 0.0268385 -0.1589620 0.9731615 0.1589620 0.9731615 0.1589620 0.0268385 -0.1589620
154540 0.0246486 -0.1523661 0.9753514 0.1523661 0.9753514 0.1523661 0.0246486 -0.1523661
161617 0.0226359 -0.1460169 0.9773641 0.1460169 0.9773641 0.1460169 0.0226359 -0.1460169
169018 0.0207866 -0.1399085 0.9792134 0.1399085 0.9792134 0.1399085 0.0207866 -0.1399085
176758 0.0190881 -0.1340348 0.9809119 0.1340348 0.9809119 0.1340348 0.0190881 -0.1340348
184852 0.0175283 -0.1283894 0.9824717 0.1283894 0.9824717 0.1283894 0.0175283 -0.1283894
193316 0.0160962 -0.1229656 0.9839038 0.1229656 0.9839038 0.1229656 0.0160962 -0.1229656
202169 0.0147816 -0.1177569 0.9852184 0.1177569 0.9852184 0.1177569 0.0147816 -0.1177569
211427 0.0135751 -0.1127564 0.9864249 0.1127564 0.9864249 0.1127564 0.0135751 -0.1127564
221108 0.0124679 -0.1079573 0.9875321 0.1079573 0.9875321 0.1079573 0.0124679 -0.1079573
231233 0.0114520 -0.1033529 0.9885480 0.1033529 0.9885480 0.1033529 0.0114520 -0.1033529
241822 0.0105199 -0.0989365 0.9894801 0.0989365 0.9894801 0.0989365 0.0105199 -0.0989365
252896 0.0096648 -0.0947014 0.9903352 0.0947014 0.9903352 0.0947014 0.0096648 -0.0947014
264476 0.0088805 -0.0906410 0.9911195 0.0906410 0.9911195 0.0906410 0.0088805 -0.0906410
276587 0.0081611 -0.0867490 0.9918389 0.0867490 0.9918389 0.0867490 0.0081611 -0.0867490
289253 0.0075012 -0.0830191 0.9924988 0.0830191 0.9924988 0.0830191 0.0075012 -0.0830191
302498 0.0068960 -0.0794451 0.9931040 0.0794451 0.9931040 0.0794451 0.0068960 -0.0794451
316350 0.0063410 -0.0760210 0.9936590 0.0760210 0.9936590 0.0760210 0.0063410 -0.0760210
330837 0.0058320 -0.0727411 0.9941680 0.0727411 0.9941680 0.0727411 0.0058320 -0.0727411
345986 0.0053653 -0.0695996 0.9946347 0.0695996 0.9946347 0.0695996 0.0053653 -0.0695996
361830 0.0049373 -0.0665911 0.9950627 0.0665911 0.9950627 0.0665911 0.0049373 -0.0665911
378399 0.0045448 -0.0637103 0.9954552 0.0637103 0.9954552 0.0637103 0.0045448 -0.0637103
395726 0.0041849 -0.0609520 0.9958151 0.0609520 0.9958151 0.0609520 0.0041849 -0.0609520
413847 0.0038549 -0.0583113 0.9961451 0.0583113 0.9961451 0.0583113 0.0038549 -0.0583113
432798 0.0035522 -0.0557834 0.9964478 0.0557834 0.9964478 0.0557834 0.0035522 -0.0557834
452617 0.0032747 -0.0533637 0.9967253 0.0533637 0.9967253 0.0533637 0.0032747 -0.0533637
473344 0.0030202 -0.0510476 0.9969798 0.0510476 0.9969798 0.0510476 0.0030202 -0.0510476
495019 0.0027868 -0.0488310 0.9972132 0.0488310 0.9972132 0.0488310 0.0027868 -0.0488310
517687 0.0025727 -0.0467097 0.9974273 0.0467097 0.9974273 0.0467097 0.0025727 -0.0467097
541393 0.0023763 -0.0446797 0.9976237 0.0446797 0.9976237 0.0446797 0.0023763 -0.0446797
566185 0.0021962 -0.0427371 0.9978038 0.0427371 0.9978038 0.0427371 0.0021962 -0.0427371
592111 0.0020309 -0.0408783 0.9979691 0.0408783 0.9979691 0.0408783 0.0020309 -0.0408783
619225 0.0018793 -0.0390998 0.9981207 0.0390998 0.9981207 0.0390998 0.0018793 -0.0390998
647581 0.0017401 -0.0373981 0.9982599 0.0373981 0.9982599 0.0373981 0.0017401 -0.0373981
677235 0.0016123 -0.0357700 0.9983877 0.0357700 0.9983877 0.0357700 0.0016123 -0.0357700
708247 0.0014950 -0.0342123 0.9985050 0.0342123 0.9985050 0.0342123 0.0014950 -0.0342123
740679 0.0013873 -0.0327221 0.9986127 0.0327221 0.9986127 0.0327221 0.0013873 -0.0327221
774597 0.0012883 -0.0312963 0.9987117 0.0312963 0.9987117 0.0312963 0.0012883 -0.0312963
810067 0.0011974 -0.0299324 0.9988026 0.0299324 0.9988026 0.0299324 0.0011974 -0.0299324
847162 0.0011138 -0.0286275 0.9988862 0.0286275 0.9988862 0.0286275 0.0011138 -0.0286275
885955 0.0010370 -0.0273792 0.9989630 0.0273792 0.9989630 0.0273792 0.0010370 -0.0273792
926525 0.0009664 -0.0261850 0.9990336 0.0261850 0.9990336 0.0261850 0.0009664 -0.0261850
968953 0.0009014 -0.0250425 0.9990986 0.0250425 0.9990986 0.0250425 0.0009014 -0.0250425
1013323 0.0008417 -0.0239496 0.9991583 0.0239496 0.9991583 0.0239496 0.0008417 -0.0239496
1059725 0.0007867 -0.0229041 0.9992133 0.0229041 0.9992133 0.0229041 0.0007867 -0.0229041
1108252 0.0007361 -0.0219038 0.9992639 0.0219038 0.9992639 0.0219038 0.0007361 -0.0219038
1159002 0.0006895 -0.0209470 0.9993105 0.0209470 0.9993105 0.0209470 0.0006895 -0.0209470
1212075 0.0006466 -0.0200315 0.9993534 0.0200315 0.9993534 0.0200315 0.0006466 -0.0200315
1267578 0.0006071 -0.0191558 0.9993929 0.0191558 0.9993929 0.0191558 0.0006071 -0.0191558
1325623 0.0005707 -0.0183179 0.9994293 0.0183179 0.9994293 0.0183179 0.0005707 -0.0183179
1386327 0.0005372 -0.0175164 0.9994628 0.0175164 0.9994628 0.0175164 0.0005372 -0.0175164
1449809 0.0005064 -0.0167495 0.9994936 0.0167495 0.9994936 0.0167495 0.0005064 -0.0167495
1516199 0.0004779 -0.0160158 0.9995221 0.0160158 0.9995221 0.0160158 0.0004779 -0.0160158
1585629 0.0004518 -0.0153139 0.9995482 0.0153139 0.9995482 0.0153139 0.0004518 -0.0153139
1658239 0.0004277 -0.0146424 0.9995723 0.0146424 0.9995723 0.0146424 0.0004277 -0.0146424
1734173 0.0004055 -0.0139998 0.9995945 0.0139998 0.9995945 0.0139998 0.0004055 -0.0139998
1813585 0.0003851 -0.0133851 0.9996149 0.0133851 0.9996149 0.0133851 0.0003851 -0.0133851
1896632 0.0003663 -0.0127969 0.9996337 0.0127969 0.9996337 0.0127969 0.0003663 -0.0127969
1983483 0.0003491 -0.0122341 0.9996509 0.0122341 0.9996509 0.0122341 0.0003491 -0.0122341
2074311 0.0003332 -0.0116957 0.9996668 0.0116957 0.9996668 0.0116957 0.0003332 -0.0116957
