!Murata Part Number: GRM155B11H332MA01
!These Parameters are Measured in Series Mode Connection
!Data Generated on Mar 30, 2021
!       o--ll--o
!Port1            Port2
!       o------o
!Operation Temp=25[degC], DC Bias Voltage=0[V]
!Freq. Start=100[Hz] Stop=6[GHz] 401[Steps]
# Hz S RI R 50
!Freq.(Hz) S11(Real) S11(Imag) S21(Real) S21(Imag) S12(Real) S12(Imag) S22(Real) S22(Imag)
100 0.9999990 -0.0002077 0.0000010 0.0002077 0.0000010 0.0002077 0.9999990 -0.0002077
105 0.9999989 -0.0002172 0.0000011 0.0002172 0.0000011 0.0002172 0.9999989 -0.0002172
109 0.9999989 -0.0002271 0.0000011 0.0002271 0.0000011 0.0002271 0.9999989 -0.0002271
114 0.9999988 -0.0002374 0.0000012 0.0002374 0.0000012 0.0002374 0.9999988 -0.0002374
120 0.9999988 -0.0002482 0.0000012 0.0002482 0.0000012 0.0002482 0.9999988 -0.0002482
125 0.9999987 -0.0002596 0.0000013 0.0002596 0.0000013 0.0002596 0.9999987 -0.0002596
131 0.9999986 -0.0002714 0.0000014 0.0002714 0.0000014 0.0002714 0.9999986 -0.0002714
137 0.9999986 -0.0002838 0.0000014 0.0002838 0.0000014 0.0002838 0.9999986 -0.0002838
143 0.9999985 -0.0002967 0.0000015 0.0002967 0.0000015 0.0002967 0.9999985 -0.0002967
150 0.9999985 -0.0003103 0.0000015 0.0003103 0.0000015 0.0003103 0.9999985 -0.0003103
156 0.9999984 -0.0003245 0.0000016 0.0003245 0.0000016 0.0003245 0.9999984 -0.0003245
164 0.9999983 -0.0003393 0.0000017 0.0003393 0.0000017 0.0003393 0.9999983 -0.0003393
171 0.9999983 -0.0003548 0.0000017 0.0003548 0.0000017 0.0003548 0.9999983 -0.0003548
179 0.9999982 -0.0003710 0.0000018 0.0003710 0.0000018 0.0003710 0.9999982 -0.0003710
187 0.9999981 -0.0003879 0.0000019 0.0003879 0.0000019 0.0003879 0.9999981 -0.0003879
196 0.9999980 -0.0004056 0.0000020 0.0004056 0.0000020 0.0004056 0.9999980 -0.0004056
205 0.9999980 -0.0004241 0.0000020 0.0004241 0.0000020 0.0004241 0.9999980 -0.0004241
214 0.9999979 -0.0004435 0.0000021 0.0004435 0.0000021 0.0004435 0.9999979 -0.0004435
224 0.9999978 -0.0004638 0.0000022 0.0004638 0.0000022 0.0004638 0.9999978 -0.0004638
234 0.9999977 -0.0004849 0.0000023 0.0004849 0.0000023 0.0004849 0.9999977 -0.0004849
245 0.9999976 -0.0005071 0.0000024 0.0005071 0.0000024 0.0005071 0.9999976 -0.0005071
256 0.9999974 -0.0005303 0.0000026 0.0005303 0.0000026 0.0005303 0.9999974 -0.0005303
268 0.9999973 -0.0005545 0.0000027 0.0005545 0.0000027 0.0005545 0.9999973 -0.0005545
280 0.9999972 -0.0005798 0.0000028 0.0005798 0.0000028 0.0005798 0.9999972 -0.0005798
293 0.9999971 -0.0006063 0.0000029 0.0006063 0.0000029 0.0006063 0.9999971 -0.0006063
306 0.9999969 -0.0006340 0.0000031 0.0006340 0.0000031 0.0006340 0.9999969 -0.0006340
320 0.9999967 -0.0006630 0.0000033 0.0006630 0.0000033 0.0006630 0.9999967 -0.0006630
335 0.9999966 -0.0006933 0.0000034 0.0006933 0.0000034 0.0006933 0.9999966 -0.0006933
350 0.9999964 -0.0007249 0.0000036 0.0007249 0.0000036 0.0007249 0.9999964 -0.0007249
366 0.9999962 -0.0007581 0.0000038 0.0007581 0.0000038 0.0007581 0.9999962 -0.0007581
383 0.9999960 -0.0007927 0.0000040 0.0007927 0.0000040 0.0007927 0.9999960 -0.0007927
401 0.9999957 -0.0008289 0.0000043 0.0008289 0.0000043 0.0008289 0.9999957 -0.0008289
419 0.9999955 -0.0008668 0.0000045 0.0008668 0.0000045 0.0008668 0.9999955 -0.0008668
438 0.9999952 -0.0009063 0.0000048 0.0009063 0.0000048 0.0009063 0.9999952 -0.0009063
458 0.9999949 -0.0009477 0.0000051 0.0009477 0.0000051 0.0009477 0.9999949 -0.0009477
479 0.9999946 -0.0009910 0.0000054 0.0009910 0.0000054 0.0009910 0.9999946 -0.0009910
501 0.9999943 -0.0010363 0.0000057 0.0010363 0.0000057 0.0010363 0.9999943 -0.0010363
524 0.9999940 -0.0010836 0.0000060 0.0010836 0.0000060 0.0010836 0.9999940 -0.0010836
548 0.9999936 -0.0011331 0.0000064 0.0011331 0.0000064 0.0011331 0.9999936 -0.0011331
573 0.9999932 -0.0011848 0.0000068 0.0011848 0.0000068 0.0011848 0.9999932 -0.0011848
600 0.9999928 -0.0012389 0.0000072 0.0012389 0.0000072 0.0012389 0.9999928 -0.0012389
627 0.9999924 -0.0012954 0.0000076 0.0012954 0.0000076 0.0012954 0.9999924 -0.0012954
656 0.9999919 -0.0013546 0.0000081 0.0013546 0.0000081 0.0013546 0.9999919 -0.0013546
686 0.9999914 -0.0014164 0.0000086 0.0014164 0.0000086 0.0014164 0.9999914 -0.0014164
717 0.9999909 -0.0014810 0.0000091 0.0014810 0.0000091 0.0014810 0.9999909 -0.0014810
750 0.9999904 -0.0015486 0.0000096 0.0015486 0.0000096 0.0015486 0.9999904 -0.0015486
784 0.9999898 -0.0016193 0.0000102 0.0016193 0.0000102 0.0016193 0.9999898 -0.0016193
820 0.9999892 -0.0016932 0.0000108 0.0016932 0.0000108 0.0016932 0.9999892 -0.0016932
858 0.9999885 -0.0017705 0.0000115 0.0017705 0.0000115 0.0017705 0.9999885 -0.0017705
897 0.9999879 -0.0018512 0.0000121 0.0018512 0.0000121 0.0018512 0.9999879 -0.0018512
938 0.9999871 -0.0019357 0.0000129 0.0019357 0.0000129 0.0019357 0.9999871 -0.0019357
981 0.9999864 -0.0020240 0.0000136 0.0020240 0.0000136 0.0020240 0.9999864 -0.0020240
1026 0.9999856 -0.0021164 0.0000144 0.0021164 0.0000144 0.0021164 0.9999856 -0.0021164
1073 0.9999847 -0.0022130 0.0000153 0.0022130 0.0000153 0.0022130 0.9999847 -0.0022130
1122 0.9999838 -0.0023140 0.0000162 0.0023140 0.0000162 0.0023140 0.9999838 -0.0023140
1174 0.9999828 -0.0024196 0.0000172 0.0024196 0.0000172 0.0024196 0.9999828 -0.0024196
1227 0.9999818 -0.0025300 0.0000182 0.0025300 0.0000182 0.0025300 0.9999818 -0.0025300
1283 0.9999807 -0.0026455 0.0000193 0.0026455 0.0000193 0.0026455 0.9999807 -0.0026455
1342 0.9999796 -0.0027662 0.0000204 0.0027662 0.0000204 0.0027662 0.9999796 -0.0027662
1404 0.9999783 -0.0028925 0.0000217 0.0028925 0.0000217 0.0028925 0.9999783 -0.0028925
1468 0.9999770 -0.0030245 0.0000230 0.0030245 0.0000230 0.0030245 0.9999770 -0.0030245
1535 0.9999756 -0.0031626 0.0000244 0.0031626 0.0000244 0.0031626 0.9999756 -0.0031626
1606 0.9999741 -0.0033070 0.0000259 0.0033070 0.0000259 0.0033070 0.9999741 -0.0033070
1679 0.9999724 -0.0034580 0.0000276 0.0034580 0.0000276 0.0034580 0.9999724 -0.0034580
1756 0.9999707 -0.0036159 0.0000293 0.0036159 0.0000293 0.0036159 0.9999707 -0.0036159
1836 0.9999688 -0.0037810 0.0000312 0.0037810 0.0000312 0.0037810 0.9999688 -0.0037810
1920 0.9999667 -0.0039537 0.0000333 0.0039537 0.0000333 0.0039537 0.9999667 -0.0039537
2008 0.9999645 -0.0041343 0.0000355 0.0041343 0.0000355 0.0041343 0.9999645 -0.0041343
2100 0.9999621 -0.0043231 0.0000379 0.0043231 0.0000379 0.0043231 0.9999621 -0.0043231
2196 0.9999596 -0.0045205 0.0000404 0.0045205 0.0000404 0.0045205 0.9999596 -0.0045205
2297 0.9999568 -0.0047270 0.0000432 0.0047270 0.0000432 0.0047270 0.9999568 -0.0047270
2402 0.9999538 -0.0049430 0.0000462 0.0049430 0.0000462 0.0049430 0.9999538 -0.0049430
2512 0.9999505 -0.0051687 0.0000495 0.0051687 0.0000495 0.0051687 0.9999505 -0.0051687
2627 0.9999469 -0.0054048 0.0000531 0.0054048 0.0000531 0.0054048 0.9999469 -0.0054048
2748 0.9999431 -0.0056517 0.0000569 0.0056517 0.0000569 0.0056517 0.9999431 -0.0056517
2873 0.9999389 -0.0059099 0.0000611 0.0059099 0.0000611 0.0059099 0.9999389 -0.0059099
3005 0.9999344 -0.0061798 0.0000656 0.0061798 0.0000656 0.0061798 0.9999344 -0.0061798
3143 0.9999294 -0.0064621 0.0000706 0.0064621 0.0000706 0.0064621 0.9999294 -0.0064621
3287 0.9999241 -0.0067572 0.0000759 0.0067572 0.0000759 0.0067572 0.9999241 -0.0067572
3437 0.9999183 -0.0070659 0.0000817 0.0070659 0.0000817 0.0070659 0.9999183 -0.0070659
3594 0.9999120 -0.0073885 0.0000880 0.0073885 0.0000880 0.0073885 0.9999120 -0.0073885
3759 0.9999052 -0.0077259 0.0000948 0.0077259 0.0000948 0.0077259 0.9999052 -0.0077259
3931 0.9998977 -0.0080787 0.0001023 0.0080787 0.0001023 0.0080787 0.9998977 -0.0080787
4111 0.9998897 -0.0084476 0.0001103 0.0084476 0.0001103 0.0084476 0.9998897 -0.0084476
4299 0.9998809 -0.0088332 0.0001191 0.0088332 0.0001191 0.0088332 0.9998809 -0.0088332
4496 0.9998715 -0.0092365 0.0001285 0.0092365 0.0001285 0.0092365 0.9998715 -0.0092365
4702 0.9998612 -0.0096580 0.0001388 0.0096580 0.0001388 0.0096580 0.9998612 -0.0096580
4918 0.9998500 -0.0100988 0.0001500 0.0100988 0.0001500 0.0100988 0.9998500 -0.0100988
5143 0.9998379 -0.0105597 0.0001621 0.0105597 0.0001621 0.0105597 0.9998379 -0.0105597
5378 0.9998248 -0.0110415 0.0001752 0.0110415 0.0001752 0.0110415 0.9998248 -0.0110415
5625 0.9998106 -0.0115453 0.0001894 0.0115453 0.0001894 0.0115453 0.9998106 -0.0115453
5882 0.9997952 -0.0120720 0.0002048 0.0120720 0.0002048 0.0120720 0.9997952 -0.0120720
6151 0.9997785 -0.0126227 0.0002215 0.0126227 0.0002215 0.0126227 0.9997785 -0.0126227
6433 0.9997604 -0.0131984 0.0002396 0.0131984 0.0002396 0.0131984 0.9997604 -0.0131984
6728 0.9997407 -0.0138003 0.0002593 0.0138003 0.0002593 0.0138003 0.9997407 -0.0138003
7036 0.9997195 -0.0144296 0.0002805 0.0144296 0.0002805 0.0144296 0.9997195 -0.0144296
7358 0.9996964 -0.0150876 0.0003036 0.0150876 0.0003036 0.0150876 0.9996964 -0.0150876
7695 0.9996714 -0.0157755 0.0003286 0.0157755 0.0003286 0.0157755 0.9996714 -0.0157755
8047 0.9996443 -0.0164947 0.0003557 0.0164947 0.0003557 0.0164947 0.9996443 -0.0164947
8416 0.9996149 -0.0172467 0.0003851 0.0172467 0.0003851 0.0172467 0.9996149 -0.0172467
8801 0.9995829 -0.0180329 0.0004171 0.0180329 0.0004171 0.0180329 0.9995829 -0.0180329
9204 0.9995483 -0.0188549 0.0004517 0.0188549 0.0004517 0.0188549 0.9995483 -0.0188549
9626 0.9995107 -0.0197143 0.0004893 0.0197143 0.0004893 0.0197143 0.9995107 -0.0197143
10066 0.9994698 -0.0206128 0.0005302 0.0206128 0.0005302 0.0206128 0.9994698 -0.0206128
10527 0.9994254 -0.0215523 0.0005746 0.0215523 0.0005746 0.0215523 0.9994254 -0.0215523
11009 0.9993772 -0.0225345 0.0006228 0.0225345 0.0006228 0.0225345 0.9993772 -0.0225345
11514 0.9993247 -0.0235615 0.0006753 0.0235615 0.0006753 0.0235615 0.9993247 -0.0235615
12041 0.9992676 -0.0246352 0.0007324 0.0246352 0.0007324 0.0246352 0.9992676 -0.0246352
12592 0.9992055 -0.0257578 0.0007945 0.0257578 0.0007945 0.0257578 0.9992055 -0.0257578
13169 0.9991379 -0.0269314 0.0008621 0.0269314 0.0008621 0.0269314 0.9991379 -0.0269314
13772 0.9990643 -0.0281585 0.0009357 0.0281585 0.0009357 0.0281585 0.9990643 -0.0281585
14402 0.9989840 -0.0294414 0.0010160 0.0294414 0.0010160 0.0294414 0.9989840 -0.0294414
15062 0.9988966 -0.0307826 0.0011034 0.0307826 0.0011034 0.0307826 0.9988966 -0.0307826
15752 0.9988013 -0.0321847 0.0011987 0.0321847 0.0011987 0.0321847 0.9988013 -0.0321847
16473 0.9986974 -0.0336505 0.0013026 0.0336505 0.0013026 0.0336505 0.9986974 -0.0336505
17227 0.9985841 -0.0351828 0.0014159 0.0351828 0.0014159 0.0351828 0.9985841 -0.0351828
18016 0.9984605 -0.0367846 0.0015395 0.0367846 0.0015395 0.0367846 0.9984605 -0.0367846
18841 0.9983257 -0.0384590 0.0016743 0.0384590 0.0016743 0.0384590 0.9983257 -0.0384590
19704 0.9981785 -0.0402091 0.0018215 0.0402091 0.0018215 0.0402091 0.9981785 -0.0402091
20606 0.9980180 -0.0420384 0.0019820 0.0420384 0.0019820 0.0420384 0.9980180 -0.0420384
21550 0.9978427 -0.0439503 0.0021573 0.0439503 0.0021573 0.0439503 0.9978427 -0.0439503
22537 0.9976514 -0.0459484 0.0023486 0.0459484 0.0023486 0.0459484 0.9976514 -0.0459484
23569 0.9974426 -0.0480364 0.0025574 0.0480364 0.0025574 0.0480364 0.9974426 -0.0480364
24648 0.9972147 -0.0502184 0.0027853 0.0502184 0.0027853 0.0502184 0.9972147 -0.0502184
25777 0.9969659 -0.0524983 0.0030341 0.0524983 0.0030341 0.0524983 0.9969659 -0.0524983
26957 0.9966943 -0.0548804 0.0033057 0.0548804 0.0033057 0.0548804 0.9966943 -0.0548804
28191 0.9963978 -0.0573690 0.0036022 0.0573690 0.0036022 0.0573690 0.9963978 -0.0573690
29482 0.9960742 -0.0599686 0.0039258 0.0599686 0.0039258 0.0599686 0.9960742 -0.0599686
30832 0.9957210 -0.0626840 0.0042790 0.0626840 0.0042790 0.0626840 0.9957210 -0.0626840
32244 0.9953356 -0.0655199 0.0046644 0.0655199 0.0046644 0.0655199 0.9953356 -0.0655199
33721 0.9949150 -0.0684814 0.0050850 0.0684814 0.0050850 0.0684814 0.9949150 -0.0684814
35265 0.9944560 -0.0715736 0.0055440 0.0715736 0.0055440 0.0715736 0.9944560 -0.0715736
36880 0.9939553 -0.0748019 0.0060447 0.0748019 0.0060447 0.0748019 0.9939553 -0.0748019
38569 0.9934091 -0.0781717 0.0065909 0.0781717 0.0065909 0.0781717 0.9934091 -0.0781717
40335 0.9928133 -0.0816888 0.0071867 0.0816888 0.0071867 0.0816888 0.9928133 -0.0816888
42182 0.9921635 -0.0853589 0.0078365 0.0853589 0.0078365 0.0853589 0.9921635 -0.0853589
44113 0.9914550 -0.0891879 0.0085450 0.0891879 0.0085450 0.0891879 0.9914550 -0.0891879
46134 0.9906826 -0.0931820 0.0093174 0.0931820 0.0093174 0.0931820 0.9906826 -0.0931820
48246 0.9898406 -0.0973473 0.0101594 0.0973473 0.0101594 0.0973473 0.9898406 -0.0973473
50455 0.9889231 -0.1016903 0.0110769 0.1016903 0.0110769 0.1016903 0.9889231 -0.1016903
52766 0.9879232 -0.1062173 0.0120768 0.1062173 0.0120768 0.1062173 0.9879232 -0.1062173
55182 0.9868340 -0.1109348 0.0131660 0.1109348 0.0131660 0.1109348 0.9868340 -0.1109348
57709 0.9856477 -0.1158495 0.0143523 0.1158495 0.0143523 0.1158495 0.9856477 -0.1158495
60352 0.9843559 -0.1209680 0.0156441 0.1209680 0.0156441 0.1209680 0.9843559 -0.1209680
63115 0.9829496 -0.1262969 0.0170504 0.1262969 0.0170504 0.1262969 0.9829496 -0.1262969
66005 0.9814189 -0.1318427 0.0185811 0.1318427 0.0185811 0.1318427 0.9814189 -0.1318427
69028 0.9797533 -0.1376119 0.0202467 0.1376119 0.0202467 0.1376119 0.9797533 -0.1376119
72189 0.9779414 -0.1436109 0.0220586 0.1436109 0.0220586 0.1436109 0.9779414 -0.1436109
75495 0.9759710 -0.1498459 0.0240290 0.1498459 0.0240290 0.1498459 0.9759710 -0.1498459
78952 0.9738287 -0.1563226 0.0261713 0.1563226 0.0261713 0.1563226 0.9738287 -0.1563226
82567 0.9715005 -0.1630467 0.0284995 0.1630467 0.0284995 0.1630467 0.9715005 -0.1630467
86348 0.9689711 -0.1700232 0.0310289 0.1700232 0.0310289 0.1700232 0.9689711 -0.1700232
90302 0.9662241 -0.1772567 0.0337759 0.1772567 0.0337759 0.1772567 0.9662241 -0.1772567
94437 0.9632420 -0.1847509 0.0367580 0.1847509 0.0367580 0.1847509 0.9632420 -0.1847509
98762 0.9600064 -0.1925089 0.0399936 0.1925089 0.0399936 0.1925089 0.9600064 -0.1925089
103284 0.9564973 -0.2005329 0.0435027 0.2005329 0.0435027 0.2005329 0.9564973 -0.2005329
108014 0.9526938 -0.2088238 0.0473062 0.2088238 0.0473062 0.2088238 0.9526938 -0.2088238
112960 0.9485737 -0.2173814 0.0514263 0.2173814 0.0514263 0.2173814 0.9485737 -0.2173814
118133 0.9441135 -0.2262038 0.0558865 0.2262038 0.0558865 0.2262038 0.9441135 -0.2262038
123542 0.9392887 -0.2352875 0.0607113 0.2352875 0.0607113 0.2352875 0.9392887 -0.2352875
129199 0.9340736 -0.2446273 0.0659264 0.2446273 0.0659264 0.2446273 0.9340736 -0.2446273
135116 0.9284415 -0.2542155 0.0715585 0.2542155 0.0715585 0.2542155 0.9284415 -0.2542155
141303 0.9223650 -0.2640423 0.0776350 0.2640423 0.0776350 0.2640423 0.9223650 -0.2640423
147774 0.9158156 -0.2740951 0.0841844 0.2740951 0.0841844 0.2740951 0.9158156 -0.2740951
154540 0.9087645 -0.2843585 0.0912355 0.2843585 0.0912355 0.2843585 0.9087645 -0.2843585
161617 0.9011825 -0.2948140 0.0988175 0.2948140 0.0988175 0.2948140 0.9011825 -0.2948140
169018 0.8930405 -0.3054396 0.1069595 0.3054396 0.1069595 0.3054396 0.8930405 -0.3054396
176758 0.8843095 -0.3162099 0.1156905 0.3162099 0.1156905 0.3162099 0.8843095 -0.3162099
184852 0.8749613 -0.3270954 0.1250387 0.3270954 0.1250387 0.3270954 0.8749613 -0.3270954
193316 0.8649690 -0.3380629 0.1350310 0.3380629 0.1350310 0.3380629 0.8649690 -0.3380629
202169 0.8543071 -0.3490750 0.1456929 0.3490750 0.1456929 0.3490750 0.8543071 -0.3490750
211427 0.8429523 -0.3600903 0.1570477 0.3600903 0.1570477 0.3600903 0.8429523 -0.3600903
221108 0.8308842 -0.3710632 0.1691158 0.3710632 0.1691158 0.3710632 0.8308842 -0.3710632
231233 0.8180857 -0.3819438 0.1819143 0.3819438 0.1819143 0.3819438 0.8180857 -0.3819438
241822 0.8045437 -0.3926789 0.1954563 0.3926789 0.1954563 0.3926789 0.8045437 -0.3926789
252896 0.7902500 -0.4032112 0.2097500 0.4032112 0.2097500 0.4032112 0.7902500 -0.4032112
264476 0.7752017 -0.4134806 0.2247983 0.4134806 0.2247983 0.4134806 0.7752017 -0.4134806
276587 0.7594016 -0.4234243 0.2405984 0.4234243 0.2405984 0.4234243 0.7594016 -0.4234243
289253 0.7428595 -0.4329775 0.2571405 0.4329775 0.2571405 0.4329775 0.7428595 -0.4329775
302498 0.7255920 -0.4420744 0.2744080 0.4420744 0.2744080 0.4420744 0.7255920 -0.4420744
316350 0.7076233 -0.4506486 0.2923767 0.4506486 0.2923767 0.4506486 0.7076233 -0.4506486
330837 0.6889852 -0.4586347 0.3110148 0.4586347 0.3110148 0.4586347 0.6889852 -0.4586347
345986 0.6697175 -0.4659689 0.3302825 0.4659689 0.3302825 0.4659689 0.6697175 -0.4659689
361830 0.6498677 -0.4725904 0.3501323 0.4725904 0.3501323 0.4725904 0.6498677 -0.4725904
378399 0.6294911 -0.4784423 0.3705089 0.4784423 0.3705089 0.4784423 0.6294911 -0.4784423
395726 0.6086497 -0.4834730 0.3913503 0.4834730 0.3913503 0.4834730 0.6086497 -0.4834730
413847 0.5874126 -0.4876369 0.4125874 0.4876369 0.4125874 0.4876369 0.5874126 -0.4876369
432798 0.5658540 -0.4908957 0.4341460 0.4908957 0.4341460 0.4908957 0.5658540 -0.4908957
452617 0.5440531 -0.4932193 0.4559469 0.4932193 0.4559469 0.4932193 0.5440531 -0.4932193
473344 0.5220927 -0.4945859 0.4779073 0.4945859 0.4779073 0.4945859 0.5220927 -0.4945859
495019 0.5000578 -0.4949833 0.4999422 0.4949833 0.4999422 0.4949833 0.5000578 -0.4949833
517687 0.4780345 -0.4944084 0.5219655 0.4944084 0.5219655 0.4944084 0.4780345 -0.4944084
541393 0.4561084 -0.4928680 0.5438916 0.4928680 0.5438916 0.4928680 0.4561084 -0.4928680
566185 0.4343636 -0.4903777 0.5656364 0.4903777 0.5656364 0.4903777 0.4343636 -0.4903777
592111 0.4128813 -0.4869624 0.5871187 0.4869624 0.5871187 0.4869624 0.4128813 -0.4869624
619225 0.3917383 -0.4826552 0.6082617 0.4826552 0.6082617 0.4826552 0.3917383 -0.4826552
647581 0.3710067 -0.4774966 0.6289933 0.4774966 0.6289933 0.4774966 0.3710067 -0.4774966
677235 0.3507523 -0.4715340 0.6492477 0.4715340 0.6492477 0.4715340 0.3507523 -0.4715340
708247 0.3310344 -0.4648203 0.6689656 0.4648203 0.6689656 0.4648203 0.3310344 -0.4648203
740679 0.3119048 -0.4574128 0.6880952 0.4574128 0.6880952 0.4574128 0.3119048 -0.4574128
774597 0.2934081 -0.4493724 0.7065919 0.4493724 0.7065919 0.4493724 0.2934081 -0.4493724
810067 0.2755812 -0.4407625 0.7244188 0.4407625 0.7244188 0.4407625 0.2755812 -0.4407625
847162 0.2584532 -0.4316475 0.7415468 0.4316475 0.7415468 0.4316475 0.2584532 -0.4316475
885955 0.2420461 -0.4220923 0.7579539 0.4220923 0.7579539 0.4220923 0.2420461 -0.4220923
926525 0.2263745 -0.4121613 0.7736255 0.4121613 0.7736255 0.4121613 0.2263745 -0.4121613
968953 0.2114464 -0.4019174 0.7885536 0.4019174 0.7885536 0.4019174 0.2114464 -0.4019174
1013323 0.1972639 -0.3914214 0.8027361 0.3914214 0.8027361 0.3914214 0.1972639 -0.3914214
1059725 0.1838231 -0.3807316 0.8161769 0.3807316 0.8161769 0.3807316 0.1838231 -0.3807316
1108252 0.1711153 -0.3699030 0.8288847 0.3699030 0.8288847 0.3699030 0.1711153 -0.3699030
1159002 0.1591275 -0.3589874 0.8408725 0.3589874 0.8408725 0.3589874 0.1591275 -0.3589874
1212075 0.1478427 -0.3480327 0.8521573 0.3480327 0.8521573 0.3480327 0.1478427 -0.3480327
1267578 0.1372410 -0.3370831 0.8627590 0.3370831 0.8627590 0.3370831 0.1372410 -0.3370831
1325623 0.1272998 -0.3261787 0.8727002 0.3261787 0.8727002 0.3261787 0.1272998 -0.3261787
1386327 0.1179943 -0.3153558 0.8820057 0.3153558 0.8820057 0.3153558 0.1179943 -0.3153558
1449809 0.1092984 -0.3046468 0.8907016 0.3046468 0.8907016 0.3046468 0.1092984 -0.3046468
1516199 0.1011847 -0.2940803 0.8988153 0.2940803 0.8988153 0.2940803 0.1011847 -0.2940803
1585629 0.0936253 -0.2836814 0.9063747 0.2836814 0.9063747 0.2836814 0.0936253 -0.2836814
1658239 0.0865917 -0.2734716 0.9134083 0.2734716 0.9134083 0.2734716 0.0865917 -0.2734716
1734173 0.0800557 -0.2634694 0.9199443 0.2634694 0.9199443 0.2634694 0.0800557 -0.2634694
1813585 0.0739892 -0.2536902 0.9260108 0.2536902 0.9260108 0.2536902 0.0739892 -0.2536902
1896632 0.0683644 -0.2441465 0.9316356 0.2441465 0.9316356 0.2441465 0.0683644 -0.2441465
1983483 0.0631545 -0.2348484 0.9368455 0.2348484 0.9368455 0.2348484 0.0631545 -0.2348484
2074311 0.0583332 -0.2258037 0.9416668 0.2258037 0.9416668 0.2258037 0.0583332 -0.2258037
