!Murata Part Number: GRM155R71C183KA01
!These Parameters are Measured in Series Mode Connection
!Data Generated on Mar 30, 2021
!       o--ll--o
!Port1            Port2
!       o------o
!Operation Temp=25[degC], DC Bias Voltage=0[V]
!Freq. Start=100[Hz] Stop=6[GHz] 401[Steps]
# Hz S RI R 50
!Freq.(Hz) S11(Real) S11(Imag) S21(Real) S21(Imag) S12(Real) S12(Imag) S22(Real) S22(Imag)
100 0.9999935 -0.0010768 0.0000065 0.0010768 0.0000065 0.0010768 0.9999935 -0.0010768
105 0.9999932 -0.0011259 0.0000068 0.0011259 0.0000068 0.0011259 0.9999932 -0.0011259
109 0.9999928 -0.0011773 0.0000072 0.0011773 0.0000072 0.0011773 0.9999928 -0.0011773
114 0.9999924 -0.0012311 0.0000076 0.0012311 0.0000076 0.0012311 0.9999924 -0.0012311
120 0.9999920 -0.0012873 0.0000080 0.0012873 0.0000080 0.0012873 0.9999920 -0.0012873
125 0.9999916 -0.0013460 0.0000084 0.0013460 0.0000084 0.0013460 0.9999916 -0.0013460
131 0.9999911 -0.0014075 0.0000089 0.0014075 0.0000089 0.0014075 0.9999911 -0.0014075
137 0.9999907 -0.0014717 0.0000093 0.0014717 0.0000093 0.0014717 0.9999907 -0.0014717
143 0.9999901 -0.0015389 0.0000099 0.0015389 0.0000099 0.0015389 0.9999901 -0.0015389
150 0.9999896 -0.0016092 0.0000104 0.0016092 0.0000104 0.0016092 0.9999896 -0.0016092
156 0.9999890 -0.0016826 0.0000110 0.0016826 0.0000110 0.0016826 0.9999890 -0.0016826
164 0.9999883 -0.0017595 0.0000117 0.0017595 0.0000117 0.0017595 0.9999883 -0.0017595
171 0.9999876 -0.0018398 0.0000124 0.0018398 0.0000124 0.0018398 0.9999876 -0.0018398
179 0.9999869 -0.0019238 0.0000131 0.0019238 0.0000131 0.0019238 0.9999869 -0.0019238
187 0.9999861 -0.0020116 0.0000139 0.0020116 0.0000139 0.0020116 0.9999861 -0.0020116
196 0.9999853 -0.0021034 0.0000147 0.0021034 0.0000147 0.0021034 0.9999853 -0.0021034
205 0.9999844 -0.0021994 0.0000156 0.0021994 0.0000156 0.0021994 0.9999844 -0.0021994
214 0.9999834 -0.0022998 0.0000166 0.0022998 0.0000166 0.0022998 0.9999834 -0.0022998
224 0.9999824 -0.0024047 0.0000176 0.0024047 0.0000176 0.0024047 0.9999824 -0.0024047
234 0.9999813 -0.0025145 0.0000187 0.0025145 0.0000187 0.0025145 0.9999813 -0.0025145
245 0.9999802 -0.0026292 0.0000198 0.0026292 0.0000198 0.0026292 0.9999802 -0.0026292
256 0.9999789 -0.0027492 0.0000211 0.0027492 0.0000211 0.0027492 0.9999789 -0.0027492
268 0.9999776 -0.0028747 0.0000224 0.0028747 0.0000224 0.0028747 0.9999776 -0.0028747
280 0.9999762 -0.0030059 0.0000238 0.0030059 0.0000238 0.0030059 0.9999762 -0.0030059
293 0.9999747 -0.0031430 0.0000253 0.0031430 0.0000253 0.0031430 0.9999747 -0.0031430
306 0.9999731 -0.0032865 0.0000269 0.0032865 0.0000269 0.0032865 0.9999731 -0.0032865
320 0.9999714 -0.0034365 0.0000286 0.0034365 0.0000286 0.0034365 0.9999714 -0.0034365
335 0.9999695 -0.0035933 0.0000305 0.0035933 0.0000305 0.0035933 0.9999695 -0.0035933
350 0.9999676 -0.0037573 0.0000324 0.0037573 0.0000324 0.0037573 0.9999676 -0.0037573
366 0.9999655 -0.0039287 0.0000345 0.0039287 0.0000345 0.0039287 0.9999655 -0.0039287
383 0.9999633 -0.0041080 0.0000367 0.0041080 0.0000367 0.0041080 0.9999633 -0.0041080
401 0.9999608 -0.0042955 0.0000392 0.0042955 0.0000392 0.0042955 0.9999608 -0.0042955
419 0.9999583 -0.0044916 0.0000417 0.0044916 0.0000417 0.0044916 0.9999583 -0.0044916
438 0.9999555 -0.0046966 0.0000445 0.0046966 0.0000445 0.0046966 0.9999555 -0.0046966
458 0.9999525 -0.0049110 0.0000475 0.0049110 0.0000475 0.0049110 0.9999525 -0.0049110
479 0.9999493 -0.0051352 0.0000507 0.0051352 0.0000507 0.0051352 0.9999493 -0.0051352
501 0.9999458 -0.0053697 0.0000542 0.0053697 0.0000542 0.0053697 0.9999458 -0.0053697
524 0.9999420 -0.0056148 0.0000580 0.0056148 0.0000580 0.0056148 0.9999420 -0.0056148
548 0.9999380 -0.0058712 0.0000620 0.0058712 0.0000620 0.0058712 0.9999380 -0.0058712
573 0.9999336 -0.0061392 0.0000664 0.0061392 0.0000664 0.0061392 0.9999336 -0.0061392
600 0.9999288 -0.0064196 0.0000712 0.0064196 0.0000712 0.0064196 0.9999288 -0.0064196
627 0.9999237 -0.0067127 0.0000763 0.0067127 0.0000763 0.0067127 0.9999237 -0.0067127
656 0.9999181 -0.0070192 0.0000819 0.0070192 0.0000819 0.0070192 0.9999181 -0.0070192
686 0.9999120 -0.0073398 0.0000880 0.0073398 0.0000880 0.0073398 0.9999120 -0.0073398
717 0.9999054 -0.0076749 0.0000946 0.0076749 0.0000946 0.0076749 0.9999054 -0.0076749
750 0.9998983 -0.0080254 0.0001017 0.0080254 0.0001017 0.0080254 0.9998983 -0.0080254
784 0.9998905 -0.0083919 0.0001095 0.0083919 0.0001095 0.0083919 0.9998905 -0.0083919
820 0.9998821 -0.0087751 0.0001179 0.0087751 0.0001179 0.0087751 0.9998821 -0.0087751
858 0.9998730 -0.0091758 0.0001270 0.0091758 0.0001270 0.0091758 0.9998730 -0.0091758
897 0.9998630 -0.0095947 0.0001370 0.0095947 0.0001370 0.0095947 0.9998630 -0.0095947
938 0.9998522 -0.0100328 0.0001478 0.0100328 0.0001478 0.0100328 0.9998522 -0.0100328
981 0.9998405 -0.0104909 0.0001595 0.0104909 0.0001595 0.0104909 0.9998405 -0.0104909
1026 0.9998277 -0.0109698 0.0001723 0.0109698 0.0001723 0.0109698 0.9998277 -0.0109698
1073 0.9998138 -0.0114705 0.0001862 0.0114705 0.0001862 0.0114705 0.9998138 -0.0114705
1122 0.9997987 -0.0119941 0.0002013 0.0119941 0.0002013 0.0119941 0.9997987 -0.0119941
1174 0.9997823 -0.0125415 0.0002177 0.0125415 0.0002177 0.0125415 0.9997823 -0.0125415
1227 0.9997645 -0.0131138 0.0002355 0.0131138 0.0002355 0.0131138 0.9997645 -0.0131138
1283 0.9997451 -0.0137122 0.0002549 0.0137122 0.0002549 0.0137122 0.9997451 -0.0137122
1342 0.9997240 -0.0143378 0.0002760 0.0143378 0.0002760 0.0143378 0.9997240 -0.0143378
1404 0.9997011 -0.0149918 0.0002989 0.0149918 0.0002989 0.0149918 0.9997011 -0.0149918
1468 0.9996763 -0.0156757 0.0003237 0.0156757 0.0003237 0.0156757 0.9996763 -0.0156757
1535 0.9996493 -0.0163906 0.0003507 0.0163906 0.0003507 0.0163906 0.9996493 -0.0163906
1606 0.9996200 -0.0171380 0.0003800 0.0171380 0.0003800 0.0171380 0.9996200 -0.0171380
1679 0.9995881 -0.0179193 0.0004119 0.0179193 0.0004119 0.0179193 0.9995881 -0.0179193
1756 0.9995535 -0.0187362 0.0004465 0.0187362 0.0004465 0.0187362 0.9995535 -0.0187362
1836 0.9995159 -0.0195902 0.0004841 0.0195902 0.0004841 0.0195902 0.9995159 -0.0195902
1920 0.9994751 -0.0204830 0.0005249 0.0204830 0.0005249 0.0204830 0.9994751 -0.0204830
2008 0.9994308 -0.0214164 0.0005692 0.0214164 0.0005692 0.0214164 0.9994308 -0.0214164
2100 0.9993826 -0.0223922 0.0006174 0.0223922 0.0006174 0.0223922 0.9993826 -0.0223922
2196 0.9993302 -0.0234123 0.0006698 0.0234123 0.0006698 0.0234123 0.9993302 -0.0234123
2297 0.9992733 -0.0244788 0.0007267 0.0244788 0.0007267 0.0244788 0.9992733 -0.0244788
2402 0.9992115 -0.0255937 0.0007885 0.0255937 0.0007885 0.0255937 0.9992115 -0.0255937
2512 0.9991443 -0.0267592 0.0008557 0.0267592 0.0008557 0.0267592 0.9991443 -0.0267592
2627 0.9990712 -0.0279777 0.0009288 0.0279777 0.0009288 0.0279777 0.9990712 -0.0279777
2748 0.9989917 -0.0292514 0.0010083 0.0292514 0.0010083 0.0292514 0.9989917 -0.0292514
2873 0.9989052 -0.0305830 0.0010948 0.0305830 0.0010948 0.0305830 0.9989052 -0.0305830
3005 0.9988110 -0.0319751 0.0011890 0.0319751 0.0011890 0.0319751 0.9988110 -0.0319751
3143 0.9987085 -0.0334303 0.0012915 0.0334303 0.0012915 0.0334303 0.9987085 -0.0334303
3287 0.9985969 -0.0349514 0.0014031 0.0349514 0.0014031 0.0349514 0.9985969 -0.0349514
3437 0.9984753 -0.0365415 0.0015247 0.0365415 0.0015247 0.0365415 0.9984753 -0.0365415
3594 0.9983429 -0.0382037 0.0016571 0.0382037 0.0016571 0.0382037 0.9983429 -0.0382037
3759 0.9981985 -0.0399411 0.0018015 0.0399411 0.0018015 0.0399411 0.9981985 -0.0399411
3931 0.9980412 -0.0417571 0.0019588 0.0417571 0.0019588 0.0417571 0.9980412 -0.0417571
4111 0.9978697 -0.0436552 0.0021303 0.0436552 0.0021303 0.0436552 0.9978697 -0.0436552
4299 0.9976826 -0.0456390 0.0023174 0.0456390 0.0023174 0.0456390 0.9976826 -0.0456390
4496 0.9974785 -0.0477122 0.0025215 0.0477122 0.0025215 0.0477122 0.9974785 -0.0477122
4702 0.9972559 -0.0498788 0.0027441 0.0498788 0.0027441 0.0498788 0.9972559 -0.0498788
4918 0.9970131 -0.0521429 0.0029869 0.0521429 0.0029869 0.0521429 0.9970131 -0.0521429
5143 0.9967481 -0.0545086 0.0032519 0.0545086 0.0032519 0.0545086 0.9967481 -0.0545086
5378 0.9964589 -0.0569804 0.0035411 0.0569804 0.0035411 0.0569804 0.9964589 -0.0569804
5625 0.9961433 -0.0595628 0.0038567 0.0595628 0.0038567 0.0595628 0.9961433 -0.0595628
5882 0.9957989 -0.0622604 0.0042011 0.0622604 0.0042011 0.0622604 0.9957989 -0.0622604
6151 0.9954230 -0.0650782 0.0045770 0.0650782 0.0045770 0.0650782 0.9954230 -0.0650782
6433 0.9950127 -0.0680212 0.0049873 0.0680212 0.0049873 0.0680212 0.9950127 -0.0680212
6728 0.9945650 -0.0710945 0.0054350 0.0710945 0.0054350 0.0710945 0.9945650 -0.0710945
7036 0.9940764 -0.0743035 0.0059236 0.0743035 0.0059236 0.0743035 0.9940764 -0.0743035
7358 0.9935432 -0.0776538 0.0064568 0.0776538 0.0064568 0.0776538 0.9935432 -0.0776538
7695 0.9929614 -0.0811510 0.0070386 0.0811510 0.0070386 0.0811510 0.9929614 -0.0811510
8047 0.9923266 -0.0848009 0.0076734 0.0848009 0.0076734 0.0848009 0.9923266 -0.0848009
8416 0.9916340 -0.0886096 0.0083660 0.0886096 0.0083660 0.0886096 0.9916340 -0.0886096
8801 0.9908786 -0.0925831 0.0091214 0.0925831 0.0091214 0.0925831 0.9908786 -0.0925831
9204 0.9900547 -0.0967276 0.0099453 0.0967276 0.0099453 0.0967276 0.9900547 -0.0967276
9626 0.9891562 -0.1010496 0.0108438 0.1010496 0.0108438 0.1010496 0.9891562 -0.1010496
10066 0.9881767 -0.1055555 0.0118233 0.1055555 0.0118233 0.1055555 0.9881767 -0.1055555
10527 0.9871089 -0.1102518 0.0128911 0.1102518 0.0128911 0.1102518 0.9871089 -0.1102518
11009 0.9859451 -0.1151451 0.0140549 0.1151451 0.0140549 0.1151451 0.9859451 -0.1151451
11514 0.9846771 -0.1202421 0.0153229 0.1202421 0.0153229 0.1202421 0.9846771 -0.1202421
12041 0.9832958 -0.1255495 0.0167042 0.1255495 0.0167042 0.1255495 0.9832958 -0.1255495
12592 0.9817915 -0.1310736 0.0182085 0.1310736 0.0182085 0.1310736 0.9817915 -0.1310736
13169 0.9801537 -0.1368212 0.0198463 0.1368212 0.0198463 0.1368212 0.9801537 -0.1368212
13772 0.9783711 -0.1427985 0.0216289 0.1427985 0.0216289 0.1427985 0.9783711 -0.1427985
14402 0.9764314 -0.1490117 0.0235686 0.1490117 0.0235686 0.1490117 0.9764314 -0.1490117
15062 0.9743217 -0.1554667 0.0256783 0.1554667 0.0256783 0.1554667 0.9743217 -0.1554667
15752 0.9720277 -0.1621690 0.0279723 0.1621690 0.0279723 0.1621690 0.9720277 -0.1621690
16473 0.9695345 -0.1691239 0.0304655 0.1691239 0.0304655 0.1691239 0.9695345 -0.1691239
17227 0.9668257 -0.1763359 0.0331743 0.1763359 0.0331743 0.1763359 0.9668257 -0.1763359
18016 0.9638843 -0.1838089 0.0361157 0.1838089 0.0361157 0.1838089 0.9638843 -0.1838089
18841 0.9606916 -0.1915461 0.0393084 0.1915461 0.0393084 0.1915461 0.9606916 -0.1915461
19704 0.9572282 -0.1995498 0.0427718 0.1995498 0.0427718 0.1995498 0.9572282 -0.1995498
20606 0.9534732 -0.2078212 0.0465268 0.2078212 0.0465268 0.2078212 0.9534732 -0.2078212
21550 0.9494047 -0.2163601 0.0505953 0.2163601 0.0505953 0.2163601 0.9494047 -0.2163601
22537 0.9449993 -0.2251652 0.0550007 0.2251652 0.0550007 0.2251652 0.9449993 -0.2251652
23569 0.9402328 -0.2342332 0.0597672 0.2342332 0.0597672 0.2342332 0.9402328 -0.2342332
24648 0.9350796 -0.2435593 0.0649204 0.2435593 0.0649204 0.2435593 0.9350796 -0.2435593
25777 0.9295132 -0.2531362 0.0704868 0.2531362 0.0704868 0.2531362 0.9295132 -0.2531362
26957 0.9235063 -0.2629547 0.0764937 0.2629547 0.0764937 0.2629547 0.9235063 -0.2629547
28191 0.9170304 -0.2730027 0.0829696 0.2730027 0.0829696 0.2730027 0.9170304 -0.2730027
29482 0.9100567 -0.2832655 0.0899433 0.2832655 0.0899433 0.2832655 0.9100567 -0.2832655
30832 0.9025561 -0.2937251 0.0974439 0.2937251 0.0974439 0.2937251 0.9025561 -0.2937251
32244 0.8944991 -0.3043603 0.1055009 0.3043603 0.1055009 0.3043603 0.8944991 -0.3043603
33721 0.8858566 -0.3151464 0.1141434 0.3151464 0.1141434 0.3151464 0.8858566 -0.3151464
35265 0.8766000 -0.3260547 0.1234000 0.3260547 0.1234000 0.3260547 0.8766000 -0.3260547
36880 0.8667019 -0.3370528 0.1332981 0.3370528 0.1332981 0.3370528 0.8667019 -0.3370528
38569 0.8561361 -0.3481039 0.1438639 0.3481039 0.1438639 0.3481039 0.8561361 -0.3481039
40335 0.8448788 -0.3591675 0.1551212 0.3591675 0.1551212 0.3591675 0.8448788 -0.3591675
42182 0.8329085 -0.3701984 0.1670915 0.3701984 0.1670915 0.3701984 0.8329085 -0.3701984
44113 0.8202072 -0.3811476 0.1797928 0.3811476 0.1797928 0.3811476 0.8202072 -0.3811476
46134 0.8067607 -0.3919621 0.1932393 0.3919621 0.1932393 0.3919621 0.8067607 -0.3919621
48246 0.7925594 -0.4025852 0.2074406 0.4025852 0.2074406 0.4025852 0.7925594 -0.4025852
50455 0.7775990 -0.4129569 0.2224010 0.4129569 0.2224010 0.4129569 0.7775990 -0.4129569
52766 0.7618809 -0.4230144 0.2381191 0.4230144 0.2381191 0.4230144 0.7618809 -0.4230144
55182 0.7454133 -0.4326927 0.2545867 0.4326927 0.2545867 0.4326927 0.7454133 -0.4326927
57709 0.7282112 -0.4419256 0.2717888 0.4419256 0.2717888 0.4419256 0.7282112 -0.4419256
60352 0.7102971 -0.4506460 0.2897029 0.4506460 0.2897029 0.4506460 0.7102971 -0.4506460
63115 0.6917015 -0.4587876 0.3082985 0.4587876 0.3082985 0.4587876 0.6917015 -0.4587876
66005 0.6724626 -0.4662853 0.3275374 0.4662853 0.3275374 0.4662853 0.6724626 -0.4662853
69028 0.6526266 -0.4730769 0.3473734 0.4730769 0.3473734 0.4730769 0.6526266 -0.4730769
72189 0.6322477 -0.4791038 0.3677523 0.4791038 0.3677523 0.4791038 0.6322477 -0.4791038
75495 0.6113871 -0.4843124 0.3886129 0.4843124 0.3886129 0.4843124 0.6113871 -0.4843124
78952 0.5901130 -0.4886552 0.4098870 0.4886552 0.4098870 0.4886552 0.5901130 -0.4886552
82567 0.5684997 -0.4920917 0.4315003 0.4920917 0.4315003 0.4920917 0.5684997 -0.4920917
86348 0.5466262 -0.4945893 0.4533738 0.4945893 0.4533738 0.4945893 0.5466262 -0.4945893
90302 0.5245759 -0.4961243 0.4754241 0.4961243 0.4754241 0.4961243 0.5245759 -0.4961243
94437 0.5024345 -0.4966820 0.4975655 0.4966820 0.4975655 0.4966820 0.5024345 -0.4966820
98762 0.4802891 -0.4962575 0.5197109 0.4962575 0.5197109 0.4962575 0.4802891 -0.4962575
103284 0.4582269 -0.4948555 0.5417731 0.4948555 0.5417731 0.4948555 0.4582269 -0.4948555
108014 0.4363337 -0.4924902 0.5636663 0.4924902 0.5636663 0.4924902 0.4363337 -0.4924902
112960 0.4146924 -0.4891851 0.5853076 0.4891851 0.5853076 0.4891851 0.4146924 -0.4891851
118133 0.3933823 -0.4849723 0.6066177 0.4849723 0.6066177 0.4849723 0.3933823 -0.4849723
123542 0.3724773 -0.4798917 0.6275227 0.4798917 0.6275227 0.4798917 0.3724773 -0.4798917
129199 0.3520456 -0.4739905 0.6479544 0.4739905 0.6479544 0.4739905 0.3520456 -0.4739905
135116 0.3321486 -0.4673214 0.6678514 0.4673214 0.6678514 0.4673214 0.3321486 -0.4673214
141303 0.3128403 -0.4599424 0.6871597 0.4599424 0.6871597 0.4599424 0.3128403 -0.4599424
147774 0.2941672 -0.4519151 0.7058328 0.4519151 0.7058328 0.4519151 0.2941672 -0.4519151
154540 0.2761679 -0.4433036 0.7238321 0.4433036 0.7238321 0.4433036 0.2761679 -0.4433036
161617 0.2588730 -0.4341736 0.7411270 0.4341736 0.7411270 0.4341736 0.2588730 -0.4341736
169018 0.2423058 -0.4245914 0.7576942 0.4245914 0.7576942 0.4245914 0.2423058 -0.4245914
176758 0.2264818 -0.4146227 0.7735182 0.4146227 0.7735182 0.4146227 0.2264818 -0.4146227
184852 0.2114100 -0.4043318 0.7885900 0.4043318 0.7885900 0.4043318 0.2114100 -0.4043318
193316 0.1970926 -0.3937811 0.8029074 0.3937811 0.8029074 0.3937811 0.1970926 -0.3937811
202169 0.1835263 -0.3830302 0.8164737 0.3830302 0.8164737 0.3830302 0.1835263 -0.3830302
211427 0.1707023 -0.3721357 0.8292977 0.3721357 0.8292977 0.3721357 0.1707023 -0.3721357
221108 0.1586074 -0.3611504 0.8413926 0.3611504 0.8413926 0.3611504 0.1586074 -0.3611504
231233 0.1472245 -0.3501235 0.8527755 0.3501235 0.8527755 0.3501235 0.1472245 -0.3501235
241822 0.1365332 -0.3391000 0.8634668 0.3391000 0.8634668 0.3391000 0.1365332 -0.3391000
252896 0.1265102 -0.3281212 0.8734898 0.3281212 0.8734898 0.3281212 0.1265102 -0.3281212
264476 0.1171304 -0.3172238 0.8828696 0.3172238 0.8828696 0.3172238 0.1171304 -0.3172238
276587 0.1083669 -0.3064410 0.8916331 0.3064410 0.8916331 0.3064410 0.1083669 -0.3064410
289253 0.1001918 -0.2958019 0.8998082 0.2958019 0.8998082 0.2958019 0.1001918 -0.2958019
302498 0.0925766 -0.2853317 0.9074234 0.2853317 0.9074234 0.2853317 0.0925766 -0.2853317
316350 0.0854923 -0.2750523 0.9145077 0.2750523 0.9145077 0.2750523 0.0854923 -0.2750523
330837 0.0789099 -0.2649823 0.9210901 0.2649823 0.9210901 0.2649823 0.0789099 -0.2649823
345986 0.0728009 -0.2551371 0.9271991 0.2551371 0.9271991 0.2551371 0.0728009 -0.2551371
361830 0.0671372 -0.2455292 0.9328628 0.2455292 0.9328628 0.2455292 0.0671372 -0.2455292
378399 0.0618915 -0.2361688 0.9381085 0.2361688 0.9381085 0.2361688 0.0618915 -0.2361688
395726 0.0570372 -0.2270633 0.9429628 0.2270633 0.9429628 0.2270633 0.0570372 -0.2270633
413847 0.0525487 -0.2182184 0.9474513 0.2182184 0.9474513 0.2182184 0.0525487 -0.2182184
432798 0.0484018 -0.2096376 0.9515982 0.2096376 0.9515982 0.2096376 0.0484018 -0.2096376
452617 0.0445730 -0.2013229 0.9554270 0.2013229 0.9554270 0.2013229 0.0445730 -0.2013229
473344 0.0410401 -0.1932748 0.9589599 0.1932748 0.9589599 0.1932748 0.0410401 -0.1932748
495019 0.0377822 -0.1854924 0.9622178 0.1854924 0.9622178 0.1854924 0.0377822 -0.1854924
517687 0.0347796 -0.1779738 0.9652204 0.1779738 0.9652204 0.1779738 0.0347796 -0.1779738
541393 0.0320134 -0.1707160 0.9679866 0.1707160 0.9679866 0.1707160 0.0320134 -0.1707160
566185 0.0294664 -0.1637155 0.9705336 0.1637155 0.9705336 0.1637155 0.0294664 -0.1637155
592111 0.0271220 -0.1569677 0.9728780 0.1569677 0.9728780 0.1569677 0.0271220 -0.1569677
619225 0.0249650 -0.1504677 0.9750350 0.1504677 0.9750350 0.1504677 0.0249650 -0.1504677
647581 0.0229811 -0.1442101 0.9770189 0.1442101 0.9770189 0.1442101 0.0229811 -0.1442101
677235 0.0211570 -0.1381891 0.9788430 0.1381891 0.9788430 0.1381891 0.0211570 -0.1381891
708247 0.0194803 -0.1323987 0.9805197 0.1323987 0.9805197 0.1323987 0.0194803 -0.1323987
740679 0.0179396 -0.1268324 0.9820604 0.1268324 0.9820604 0.1268324 0.0179396 -0.1268324
774597 0.0165241 -0.1214840 0.9834759 0.1214840 0.9834759 0.1214840 0.0165241 -0.1214840
810067 0.0152240 -0.1163468 0.9847760 0.1163468 0.9847760 0.1163468 0.0152240 -0.1163468
847162 0.0140301 -0.1114143 0.9859699 0.1114143 0.9859699 0.1114143 0.0140301 -0.1114143
885955 0.0129340 -0.1066799 0.9870660 0.1066799 0.9870660 0.1066799 0.0129340 -0.1066799
926525 0.0119278 -0.1021369 0.9880722 0.1021369 0.9880722 0.1021369 0.0119278 -0.1021369
968953 0.0110043 -0.0977789 0.9889957 0.0977789 0.9889957 0.0977789 0.0110043 -0.0977789
1013323 0.0101568 -0.0935993 0.9898432 0.0935993 0.9898432 0.0935993 0.0101568 -0.0935993
1059725 0.0093791 -0.0895919 0.9906209 0.0895919 0.9906209 0.0895919 0.0093791 -0.0895919
1108252 0.0086655 -0.0857504 0.9913345 0.0857504 0.9913345 0.0857504 0.0086655 -0.0857504
1159002 0.0080109 -0.0820687 0.9919891 0.0820687 0.9919891 0.0820687 0.0080109 -0.0820687
1212075 0.0074102 -0.0785407 0.9925898 0.0785407 0.9925898 0.0785407 0.0074102 -0.0785407
1267578 0.0068592 -0.0751606 0.9931408 0.0751606 0.9931408 0.0751606 0.0068592 -0.0751606
1325623 0.0063536 -0.0719228 0.9936464 0.0719228 0.9936464 0.0719228 0.0063536 -0.0719228
1386327 0.0058897 -0.0688217 0.9941103 0.0688217 0.9941103 0.0688217 0.0058897 -0.0688217
1449809 0.0054641 -0.0658518 0.9945359 0.0658518 0.9945359 0.0658518 0.0054641 -0.0658518
1516199 0.0050734 -0.0630081 0.9949266 0.0630081 0.9949266 0.0630081 0.0050734 -0.0630081
1585629 0.0047148 -0.0602853 0.9952852 0.0602853 0.9952852 0.0602853 0.0047148 -0.0602853
1658239 0.0043856 -0.0576787 0.9956144 0.0576787 0.9956144 0.0576787 0.0043856 -0.0576787
1734173 0.0040832 -0.0551835 0.9959168 0.0551835 0.9959168 0.0551835 0.0040832 -0.0551835
1813585 0.0038054 -0.0527951 0.9961946 0.0527951 0.9961946 0.0527951 0.0038054 -0.0527951
1896632 0.0035502 -0.0505091 0.9964498 0.0505091 0.9964498 0.0505091 0.0035502 -0.0505091
1983483 0.0033155 -0.0483211 0.9966845 0.0483211 0.9966845 0.0483211 0.0033155 -0.0483211
2074311 0.0030996 -0.0462272 0.9969004 0.0462272 0.9969004 0.0462272 0.0030996 -0.0462272
