!Murata Part Number: GRM155R72A102MA01
!These Parameters are Measured in Series Mode Connection
!Data Generated on Mar 30, 2021
!       o--ll--o
!Port1            Port2
!       o------o
!Operation Temp=25[degC], DC Bias Voltage=0[V]
!Freq. Start=400[kHz] Stop=6[GHz] 401[Steps]
# Hz S RI R 50
!Freq.(Hz) S11(Real) S11(Imag) S21(Real) S21(Imag) S12(Real) S12(Imag) S22(Real) S22(Imag)
400000 0.9415410 -0.2304502 0.0584590 0.2304502 0.0584590 0.2304502 0.9415410 -0.2304502
409732 0.9388721 -0.2353456 0.0611279 0.2353456 0.0611279 0.2353456 0.9388721 -0.2353456
419701 0.9360898 -0.2403128 0.0639102 0.2403128 0.0639102 0.2403128 0.9360898 -0.2403128
429913 0.9331901 -0.2453507 0.0668099 0.2453507 0.0668099 0.2453507 0.9331901 -0.2453507
440373 0.9301689 -0.2504579 0.0698311 0.2504579 0.0698311 0.2504579 0.9301689 -0.2504579
451088 0.9270221 -0.2556328 0.0729779 0.2556328 0.0729779 0.2556328 0.9270221 -0.2556328
462063 0.9237453 -0.2608735 0.0762547 0.2608735 0.0762547 0.2608735 0.9237453 -0.2608735
473306 0.9203344 -0.2661781 0.0796656 0.2661781 0.0796656 0.2661781 0.9203344 -0.2661781
484821 0.9167851 -0.2715443 0.0832149 0.2715443 0.0832149 0.2715443 0.9167851 -0.2715443
496618 0.9130929 -0.2769695 0.0869071 0.2769695 0.0869071 0.2769695 0.9130929 -0.2769695
508701 0.9092535 -0.2824511 0.0907465 0.2824511 0.0907465 0.2824511 0.9092535 -0.2824511
521078 0.9052626 -0.2879860 0.0947374 0.2879860 0.0947374 0.2879860 0.9052626 -0.2879860
533756 0.9011159 -0.2935710 0.0988841 0.2935710 0.0988841 0.2935710 0.9011159 -0.2935710
546743 0.8968089 -0.2992024 0.1031911 0.2992024 0.1031911 0.2992024 0.8968089 -0.2992024
560045 0.8923373 -0.3048765 0.1076627 0.3048765 0.1076627 0.3048765 0.8923373 -0.3048765
573672 0.8876970 -0.3105890 0.1123030 0.3105890 0.1123030 0.3105890 0.8876970 -0.3105890
587630 0.8828838 -0.3163356 0.1171162 0.3163356 0.1171162 0.3163356 0.8828838 -0.3163356
601927 0.8778935 -0.3221114 0.1221065 0.3221114 0.1221065 0.3221114 0.8778935 -0.3221114
616572 0.8727221 -0.3279114 0.1272779 0.3279114 0.1272779 0.3279114 0.8727221 -0.3279114
631574 0.8673659 -0.3337302 0.1326341 0.3337302 0.1326341 0.3337302 0.8673659 -0.3337302
646941 0.8618211 -0.3395621 0.1381789 0.3395621 0.1381789 0.3395621 0.8618211 -0.3395621
662681 0.8560842 -0.3454010 0.1439158 0.3454010 0.1439158 0.3454010 0.8560842 -0.3454010
678805 0.8501519 -0.3512405 0.1498481 0.3512405 0.1498481 0.3512405 0.8501519 -0.3512405
695321 0.8440210 -0.3570741 0.1559790 0.3570741 0.1559790 0.3570741 0.8440210 -0.3570741
712239 0.8376887 -0.3628946 0.1623113 0.3628946 0.1623113 0.3628946 0.8376887 -0.3628946
729568 0.8311525 -0.3686947 0.1688475 0.3686947 0.1688475 0.3686947 0.8311525 -0.3686947
747319 0.8244100 -0.3744669 0.1755900 0.3744669 0.1755900 0.3744669 0.8244100 -0.3744669
765502 0.8174593 -0.3802031 0.1825407 0.3802031 0.1825407 0.3802031 0.8174593 -0.3802031
784127 0.8102987 -0.3858953 0.1897013 0.3858953 0.1897013 0.3858953 0.8102987 -0.3858953
803205 0.8029272 -0.3915350 0.1970728 0.3915350 0.1970728 0.3915350 0.8029272 -0.3915350
822748 0.7953438 -0.3971133 0.2046562 0.3971133 0.2046562 0.3971133 0.7953438 -0.3971133
842766 0.7875483 -0.4026214 0.2124517 0.4026214 0.2124517 0.4026214 0.7875483 -0.4026214
863271 0.7795406 -0.4080502 0.2204594 0.4080502 0.2204594 0.4080502 0.7795406 -0.4080502
884275 0.7713213 -0.4133902 0.2286787 0.4133902 0.2286787 0.4133902 0.7713213 -0.4133902
905790 0.7628916 -0.4186320 0.2371084 0.4186320 0.2371084 0.4186320 0.7628916 -0.4186320
927829 0.7542531 -0.4237659 0.2457469 0.4237659 0.2457469 0.4237659 0.7542531 -0.4237659
950404 0.7454078 -0.4287822 0.2545922 0.4287822 0.2545922 0.4287822 0.7454078 -0.4287822
973528 0.7363585 -0.4336713 0.2636415 0.4336713 0.2636415 0.4336713 0.7363585 -0.4336713
997215 0.7271085 -0.4384231 0.2728915 0.4384231 0.2728915 0.4384231 0.7271085 -0.4384231
1021478 0.7176617 -0.4430280 0.2823383 0.4430280 0.2823383 0.4430280 0.7176617 -0.4430280
1046331 0.7080226 -0.4474763 0.2919774 0.4474763 0.2919774 0.4474763 0.7080226 -0.4474763
1071789 0.6981962 -0.4517582 0.3018038 0.4517582 0.3018038 0.4517582 0.6981962 -0.4517582
1097867 0.6881883 -0.4558644 0.3118117 0.4558644 0.3118117 0.4558644 0.6881883 -0.4558644
1124579 0.6780052 -0.4597854 0.3219948 0.4597854 0.3219948 0.4597854 0.6780052 -0.4597854
1151940 0.6676537 -0.4635124 0.3323463 0.4635124 0.3323463 0.4635124 0.6676537 -0.4635124
1179968 0.6571415 -0.4670364 0.3428585 0.4670364 0.3428585 0.4670364 0.6571415 -0.4670364
1208678 0.6464766 -0.4703489 0.3535234 0.4703489 0.3535234 0.4703489 0.6464766 -0.4703489
1238086 0.6356677 -0.4734420 0.3643323 0.4734420 0.3643323 0.4734420 0.6356677 -0.4734420
1268209 0.6247240 -0.4763080 0.3752760 0.4763080 0.3752760 0.4763080 0.6247240 -0.4763080
1299066 0.6136552 -0.4789395 0.3863448 0.4789395 0.3863448 0.4789395 0.6136552 -0.4789395
1330673 0.6024716 -0.4813300 0.3975284 0.4813300 0.3975284 0.4813300 0.6024716 -0.4813300
1363049 0.5911837 -0.4834732 0.4088163 0.4834732 0.4088163 0.4834732 0.5911837 -0.4834732
1396214 0.5798029 -0.4853635 0.4201971 0.4853635 0.4201971 0.4853635 0.5798029 -0.4853635
1430185 0.5683404 -0.4869960 0.4316596 0.4869960 0.4316596 0.4869960 0.5683404 -0.4869960
1464982 0.5568083 -0.4883662 0.4431917 0.4883662 0.4431917 0.4883662 0.5568083 -0.4883662
1500626 0.5452185 -0.4894706 0.4547815 0.4894706 0.4547815 0.4894706 0.5452185 -0.4894706
1537138 0.5335835 -0.4903061 0.4664165 0.4903061 0.4664165 0.4903061 0.5335835 -0.4903061
1574537 0.5219159 -0.4908704 0.4780841 0.4908704 0.4780841 0.4908704 0.5219159 -0.4908704
1612847 0.5102283 -0.4911621 0.4897717 0.4911621 0.4897717 0.4911621 0.5102283 -0.4911621
1652089 0.4985336 -0.4911803 0.5014664 0.4911803 0.5014664 0.4911803 0.4985336 -0.4911803
1692286 0.4868446 -0.4909250 0.5131554 0.4909250 0.5131554 0.4909250 0.4868446 -0.4909250
1733460 0.4751741 -0.4903969 0.5248259 0.4903969 0.5248259 0.4903969 0.4751741 -0.4903969
1775637 0.4635349 -0.4895973 0.5364651 0.4895973 0.5364651 0.4895973 0.4635349 -0.4895973
1818839 0.4519396 -0.4885284 0.5480604 0.4885284 0.5480604 0.4885284 0.4519396 -0.4885284
1863093 0.4404006 -0.4871932 0.5595994 0.4871932 0.5595994 0.4871932 0.4404006 -0.4871932
1908424 0.4289301 -0.4855952 0.5710699 0.4855952 0.5710699 0.4855952 0.4289301 -0.4855952
1954857 0.4175400 -0.4837386 0.5824600 0.4837386 0.5824600 0.4837386 0.4175400 -0.4837386
2002420 0.4062419 -0.4816284 0.5937581 0.4816284 0.5937581 0.4816284 0.4062419 -0.4816284
2051141 0.3950471 -0.4792702 0.6049529 0.4792702 0.6049529 0.4792702 0.3950471 -0.4792702
2101047 0.3839662 -0.4766700 0.6160338 0.4766700 0.6160338 0.4766700 0.3839662 -0.4766700
2152167 0.3730097 -0.4738345 0.6269903 0.4738345 0.6269903 0.4738345 0.3730097 -0.4738345
2204531 0.3621873 -0.4707710 0.6378127 0.4707710 0.6378127 0.4707710 0.3621873 -0.4707710
2258169 0.3515084 -0.4674870 0.6484916 0.4674870 0.6484916 0.4674870 0.3515084 -0.4674870
2313112 0.3409818 -0.4639907 0.6590182 0.4639907 0.6590182 0.4639907 0.3409818 -0.4639907
2369392 0.3306156 -0.4602906 0.6693844 0.4602906 0.6693844 0.4602906 0.3306156 -0.4602906
2427041 0.3204175 -0.4563955 0.6795825 0.4563955 0.6795825 0.4563955 0.3204175 -0.4563955
2486093 0.3103945 -0.4523145 0.6896055 0.4523145 0.6896055 0.4523145 0.3103945 -0.4523145
2546581 0.3005530 -0.4480569 0.6994470 0.4480569 0.6994470 0.4480569 0.3005530 -0.4480569
2608542 0.2908988 -0.4436324 0.7091012 0.4436324 0.7091012 0.4436324 0.2908988 -0.4436324
2672010 0.2814370 -0.4390505 0.7185630 0.4390505 0.7185630 0.4390505 0.2814370 -0.4390505
2737022 0.2721721 -0.4343211 0.7278279 0.4343211 0.7278279 0.4343211 0.2721721 -0.4343211
2803616 0.2631082 -0.4294541 0.7368918 0.4294541 0.7368918 0.4294541 0.2631082 -0.4294541
2871830 0.2542486 -0.4244593 0.7457514 0.4244593 0.7457514 0.4244593 0.2542486 -0.4244593
2941704 0.2455959 -0.4193466 0.7544041 0.4193466 0.7544041 0.4193466 0.2455959 -0.4193466
3013278 0.2371524 -0.4141259 0.7628476 0.4141259 0.7628476 0.4141259 0.2371524 -0.4141259
3086593 0.2289197 -0.4088069 0.7710803 0.4088069 0.7710803 0.4088069 0.2289197 -0.4088069
3161692 0.2208989 -0.4033991 0.7791011 0.4033991 0.7791011 0.4033991 0.2208989 -0.4033991
3238619 0.2130904 -0.3979119 0.7869096 0.3979119 0.7869096 0.3979119 0.2130904 -0.3979119
3317417 0.2054944 -0.3923546 0.7945056 0.3923546 0.7945056 0.3923546 0.2054944 -0.3923546
3398132 0.1981105 -0.3867363 0.8018895 0.3867363 0.8018895 0.3867363 0.1981105 -0.3867363
3480812 0.1909378 -0.3810657 0.8090622 0.3810657 0.8090622 0.3810657 0.1909378 -0.3810657
3565503 0.1839751 -0.3753514 0.8160249 0.3753514 0.8160249 0.3753514 0.1839751 -0.3753514
3652254 0.1772207 -0.3696016 0.8227793 0.3696016 0.8227793 0.3696016 0.1772207 -0.3696016
3741116 0.1706725 -0.3638243 0.8293275 0.3638243 0.8293275 0.3638243 0.1706725 -0.3638243
3832141 0.1643284 -0.3580272 0.8356716 0.3580272 0.8356716 0.3580272 0.1643284 -0.3580272
3925380 0.1581855 -0.3522176 0.8418145 0.3522176 0.8418145 0.3522176 0.1581855 -0.3522176
4020887 0.1522410 -0.3464026 0.8477590 0.3464026 0.8477590 0.3464026 0.1522410 -0.3464026
4118719 0.1464917 -0.3405889 0.8535083 0.3405889 0.8535083 0.3405889 0.1464917 -0.3405889
4218930 0.1409342 -0.3347828 0.8590658 0.3347828 0.8590658 0.3347828 0.1409342 -0.3347828
4321580 0.1355649 -0.3289905 0.8644351 0.3289905 0.8644351 0.3289905 0.1355649 -0.3289905
4426728 0.1303800 -0.3232177 0.8696200 0.3232177 0.8696200 0.3232177 0.1303800 -0.3232177
4534433 0.1253756 -0.3174697 0.8746244 0.3174697 0.8746244 0.3174697 0.1253756 -0.3174697
4644760 0.1205477 -0.3117517 0.8794523 0.3117517 0.8794523 0.3117517 0.1205477 -0.3117517
4757771 0.1158920 -0.3060683 0.8841080 0.3060683 0.8841080 0.3060683 0.1158920 -0.3060683
4873531 0.1114043 -0.3004241 0.8885957 0.3004241 0.8885957 0.3004241 0.1114043 -0.3004241
4992108 0.1070803 -0.2948231 0.8929197 0.2948231 0.8929197 0.2948231 0.1070803 -0.2948231
5113570 0.1029157 -0.2892691 0.8970843 0.2892691 0.8970843 0.2892691 0.1029157 -0.2892691
5237987 0.0989059 -0.2837658 0.9010941 0.2837658 0.9010941 0.2837658 0.0989059 -0.2837658
5365431 0.0950467 -0.2783162 0.9049533 0.2783162 0.9049533 0.2783162 0.0950467 -0.2783162
5495976 0.0913335 -0.2729234 0.9086665 0.2729234 0.9086665 0.2729234 0.0913335 -0.2729234
5629698 0.0877620 -0.2675902 0.9122380 0.2675902 0.9122380 0.2675902 0.0877620 -0.2675902
5766673 0.0843278 -0.2623188 0.9156722 0.2623188 0.9156722 0.2623188 0.0843278 -0.2623188
5906981 0.0810265 -0.2571116 0.9189735 0.2571116 0.9189735 0.2571116 0.0810265 -0.2571116
6050702 0.0778537 -0.2519704 0.9221463 0.2519704 0.9221463 0.2519704 0.0778537 -0.2519704
6197920 0.0748054 -0.2468971 0.9251946 0.2468971 0.9251946 0.2468971 0.0748054 -0.2468971
6348721 0.0718771 -0.2418932 0.9281229 0.2418932 0.9281229 0.2418932 0.0718771 -0.2418932
6503190 0.0690649 -0.2369599 0.9309351 0.2369599 0.9309351 0.2369599 0.0690649 -0.2369599
6661418 0.0663646 -0.2320985 0.9336354 0.2320985 0.9336354 0.2320985 0.0663646 -0.2320985
6823496 0.0637723 -0.2273097 0.9362277 0.2273097 0.9362277 0.2273097 0.0637723 -0.2273097
6989517 0.0612840 -0.2225946 0.9387160 0.2225946 0.9387160 0.2225946 0.0612840 -0.2225946
7159577 0.0588960 -0.2179536 0.9411040 0.2179536 0.9411040 0.2179536 0.0588960 -0.2179536
7333775 0.0566046 -0.2133872 0.9433954 0.2133872 0.9433954 0.2133872 0.0566046 -0.2133872
7512212 0.0544061 -0.2088957 0.9455939 0.2088957 0.9455939 0.2088957 0.0544061 -0.2088957
7694990 0.0522971 -0.2044794 0.9477029 0.2044794 0.9477029 0.2044794 0.0522971 -0.2044794
7882215 0.0502740 -0.2001382 0.9497260 0.2001382 0.9497260 0.2001382 0.0502740 -0.2001382
8073996 0.0483336 -0.1958723 0.9516664 0.1958723 0.9516664 0.1958723 0.0483336 -0.1958723
8270442 0.0464727 -0.1916813 0.9535273 0.1916813 0.9535273 0.1916813 0.0464727 -0.1916813
8471669 0.0446881 -0.1875651 0.9553119 0.1875651 0.9553119 0.1875651 0.0446881 -0.1875651
8677791 0.0429768 -0.1835233 0.9570232 0.1835233 0.9570232 0.1835233 0.0429768 -0.1835233
8888929 0.0413359 -0.1795555 0.9586641 0.1795555 0.9586641 0.1795555 0.0413359 -0.1795555
9105203 0.0397626 -0.1756612 0.9602374 0.1756612 0.9602374 0.1756612 0.0397626 -0.1756612
9326740 0.0382541 -0.1718398 0.9617459 0.1718398 0.9617459 0.1718398 0.0382541 -0.1718398
9553667 0.0368078 -0.1680907 0.9631922 0.1680907 0.9631922 0.1680907 0.0368078 -0.1680907
9786115 0.0354213 -0.1644132 0.9645787 0.1644132 0.9645787 0.1644132 0.0354213 -0.1644132
10024219 0.0340920 -0.1608066 0.9659080 0.1608066 0.9659080 0.1608066 0.0340920 -0.1608066
10268117 0.0328176 -0.1572701 0.9671824 0.1572701 0.9671824 0.1572701 0.0328176 -0.1572701
10517948 0.0315959 -0.1538028 0.9684041 0.1538028 0.9684041 0.1538028 0.0315959 -0.1538028
10773858 0.0304247 -0.1504040 0.9695753 0.1504040 0.9695753 0.1504040 0.0304247 -0.1504040
11035995 0.0293018 -0.1470727 0.9706982 0.1470727 0.9706982 0.1470727 0.0293018 -0.1470727
11304509 0.0282255 -0.1438080 0.9717745 0.1438080 0.9717745 0.1438080 0.0282255 -0.1438080
11579557 0.0271936 -0.1406090 0.9728064 0.1406090 0.9728064 0.1406090 0.0271936 -0.1406090
11861296 0.0262044 -0.1374747 0.9737956 0.1374747 0.9737956 0.1374747 0.0262044 -0.1374747
12149891 0.0252561 -0.1344041 0.9747439 0.1344041 0.9747439 0.1344041 0.0252561 -0.1344041
12445508 0.0243470 -0.1313963 0.9756530 0.1313963 0.9756530 0.1313963 0.0243470 -0.1313963
12748317 0.0234755 -0.1284503 0.9765245 0.1284503 0.9765245 0.1284503 0.0234755 -0.1284503
13058493 0.0226400 -0.1255651 0.9773600 0.1255651 0.9773600 0.1255651 0.0226400 -0.1255651
13376217 0.0218391 -0.1227397 0.9781609 0.1227397 0.9781609 0.1227397 0.0218391 -0.1227397
13701671 0.0210713 -0.1199730 0.9789287 0.1199730 0.9789287 0.1199730 0.0210713 -0.1199730
14035043 0.0203354 -0.1172642 0.9796646 0.1172642 0.9796646 0.1172642 0.0203354 -0.1172642
14376527 0.0196298 -0.1146121 0.9803702 0.1146121 0.9803702 0.1146121 0.0196298 -0.1146121
14726319 0.0189535 -0.1120157 0.9810465 0.1120157 0.9810465 0.1120157 0.0189535 -0.1120157
15084622 0.0183052 -0.1094741 0.9816948 0.1094741 0.9816948 0.1094741 0.0183052 -0.1094741
15451643 0.0176838 -0.1069864 0.9823162 0.1069864 0.9823162 0.1069864 0.0176838 -0.1069864
15827594 0.0170882 -0.1045514 0.9829118 0.1045514 0.9829118 0.1045514 0.0170882 -0.1045514
16212692 0.0165172 -0.1021683 0.9834828 0.1021683 0.9834828 0.1021683 0.0165172 -0.1021683
16607159 0.0159700 -0.0998360 0.9840300 0.0998360 0.9840300 0.0998360 0.0159700 -0.0998360
17011225 0.0154455 -0.0975537 0.9845545 0.0975537 0.9845545 0.0975537 0.0154455 -0.0975537
17425121 0.0149429 -0.0953203 0.9850571 0.0953203 0.9850571 0.0953203 0.0149429 -0.0953203
17849088 0.0144611 -0.0931350 0.9855389 0.0931350 0.9855389 0.0931350 0.0144611 -0.0931350
18283371 0.0139995 -0.0909968 0.9860005 0.0909968 0.9860005 0.0909968 0.0139995 -0.0909968
18728220 0.0135571 -0.0889049 0.9864429 0.0889049 0.9864429 0.0889049 0.0135571 -0.0889049
19183892 0.0131331 -0.0868582 0.9868669 0.0868582 0.9868669 0.0868582 0.0131331 -0.0868582
19650651 0.0127269 -0.0848560 0.9872731 0.0848560 0.9872731 0.0848560 0.0127269 -0.0848560
20128767 0.0123377 -0.0828973 0.9876623 0.0828973 0.9876623 0.0828973 0.0123377 -0.0828973
20618516 0.0119648 -0.0809814 0.9880352 0.0809814 0.9880352 0.0809814 0.0119648 -0.0809814
21120181 0.0116075 -0.0791073 0.9883925 0.0791073 0.9883925 0.0791073 0.0116075 -0.0791073
21634052 0.0112652 -0.0772742 0.9887348 0.0772742 0.9887348 0.0772742 0.0112652 -0.0772742
22160425 0.0109373 -0.0754813 0.9890627 0.0754813 0.9890627 0.0754813 0.0109373 -0.0754813
22699606 0.0106232 -0.0737278 0.9893768 0.0737278 0.9893768 0.0737278 0.0106232 -0.0737278
23251905 0.0103222 -0.0720129 0.9896778 0.0720129 0.9896778 0.0720129 0.0103222 -0.0720129
23817643 0.0100340 -0.0703358 0.9899660 0.0703358 0.9899660 0.0703358 0.0100340 -0.0703358
24397145 0.0097579 -0.0686957 0.9902421 0.0686957 0.9902421 0.0686957 0.0097579 -0.0686957
24990747 0.0094934 -0.0670919 0.9905066 0.0670919 0.9905066 0.0670919 0.0094934 -0.0670919
25598791 0.0092401 -0.0655236 0.9907599 0.0655236 0.9907599 0.0655236 0.0092401 -0.0655236
26221630 0.0089974 -0.0639901 0.9910026 0.0639901 0.9910026 0.0639901 0.0089974 -0.0639901
26859623 0.0087650 -0.0624907 0.9912350 0.0624907 0.9912350 0.0624907 0.0087650 -0.0624907
27513139 0.0085424 -0.0610246 0.9914576 0.0610246 0.9914576 0.0610246 0.0085424 -0.0610246
28182556 0.0083291 -0.0595912 0.9916709 0.0595912 0.9916709 0.0595912 0.0083291 -0.0595912
28868260 0.0081249 -0.0581897 0.9918751 0.0581897 0.9918751 0.0581897 0.0081249 -0.0581897
29570647 0.0079292 -0.0568194 0.9920708 0.0568194 0.9920708 0.0568194 0.0079292 -0.0568194
30290124 0.0077417 -0.0554798 0.9922583 0.0554798 0.9922583 0.0554798 0.0077417 -0.0554798
31027107 0.0075621 -0.0541702 0.9924379 0.0541702 0.9924379 0.0541702 0.0075621 -0.0541702
31782021 0.0073899 -0.0528898 0.9926101 0.0528898 0.9926101 0.0528898 0.0073899 -0.0528898
32555303 0.0072250 -0.0516381 0.9927750 0.0516381 0.9927750 0.0516381 0.0072250 -0.0516381
33347399 0.0070669 -0.0504144 0.9929331 0.0504144 0.9929331 0.0504144 0.0070669 -0.0504144
34158768 0.0069154 -0.0492181 0.9930846 0.0492181 0.9930846 0.0492181 0.0069154 -0.0492181
34989878 0.0067701 -0.0480487 0.9932299 0.0480487 0.9932299 0.0480487 0.0067701 -0.0480487
35841209 0.0066308 -0.0469055 0.9933692 0.0469055 0.9933692 0.0469055 0.0066308 -0.0469055
36713254 0.0064972 -0.0457879 0.9935028 0.0457879 0.9935028 0.0457879 0.0064972 -0.0457879
37606517 0.0063690 -0.0446953 0.9936310 0.0446953 0.9936310 0.0446953 0.0063690 -0.0446953
38521513 0.0062460 -0.0436273 0.9937540 0.0436273 0.9937540 0.0436273 0.0062460 -0.0436273
39458772 0.0061279 -0.0425832 0.9938721 0.0425832 0.9938721 0.0425832 0.0061279 -0.0425832
40418835 0.0060146 -0.0415624 0.9939854 0.0415624 0.9939854 0.0415624 0.0060146 -0.0415624
41402258 0.0059057 -0.0405645 0.9940943 0.0405645 0.9940943 0.0405645 0.0059057 -0.0405645
42409607 0.0058011 -0.0395890 0.9941989 0.0395890 0.9941989 0.0395890 0.0058011 -0.0395890
43441467 0.0057005 -0.0386352 0.9942995 0.0386352 0.9942995 0.0386352 0.0057005 -0.0386352
44498432 0.0056038 -0.0377027 0.9943962 0.0377027 0.9943962 0.0377027 0.0056038 -0.0377027
45581114 0.0055107 -0.0367910 0.9944893 0.0367910 0.9944893 0.0367910 0.0055107 -0.0367910
46690139 0.0054212 -0.0358995 0.9945788 0.0358995 0.9945788 0.0358995 0.0054212 -0.0358995
47826147 0.0053349 -0.0350279 0.9946651 0.0350279 0.9946651 0.0350279 0.0053349 -0.0350279
48989795 0.0052518 -0.0341756 0.9947482 0.0341756 0.9947482 0.0341756 0.0052518 -0.0341756
50181755 0.0051716 -0.0333421 0.9948284 0.0333421 0.9948284 0.0333421 0.0051716 -0.0333421
51402717 0.0050943 -0.0325270 0.9949057 0.0325270 0.9949057 0.0325270 0.0050943 -0.0325270
52653386 0.0050196 -0.0317298 0.9949804 0.0317298 0.9949804 0.0317298 0.0050196 -0.0317298
53934485 0.0049475 -0.0309501 0.9950525 0.0309501 0.9950525 0.0309501 0.0049475 -0.0309501
55246753 0.0048777 -0.0301874 0.9951223 0.0301874 0.9951223 0.0301874 0.0048777 -0.0301874
56590951 0.0048102 -0.0294413 0.9951898 0.0294413 0.9951898 0.0294413 0.0048102 -0.0294413
57967853 0.0047449 -0.0287114 0.9952551 0.0287114 0.9952551 0.0287114 0.0047449 -0.0287114
59378257 0.0046816 -0.0279972 0.9953184 0.0279972 0.9953184 0.0279972 0.0046816 -0.0279972
60822977 0.0046202 -0.0272984 0.9953798 0.0272984 0.9953798 0.0272984 0.0046202 -0.0272984
62302848 0.0045606 -0.0266146 0.9954394 0.0266146 0.9954394 0.0266146 0.0045606 -0.0266146
63818726 0.0045027 -0.0259452 0.9954973 0.0259452 0.9954973 0.0259452 0.0045027 -0.0259452
65371486 0.0044464 -0.0252900 0.9955536 0.0252900 0.9955536 0.0252900 0.0044464 -0.0252900
66962026 0.0043916 -0.0246486 0.9956084 0.0246486 0.9956084 0.0246486 0.0043916 -0.0246486
68591265 0.0043382 -0.0240206 0.9956618 0.0240206 0.9956618 0.0240206 0.0043382 -0.0240206
70260145 0.0042862 -0.0234055 0.9957138 0.0234055 0.9957138 0.0234055 0.0042862 -0.0234055
71969630 0.0042355 -0.0228031 0.9957645 0.0228031 0.9957645 0.0228031 0.0042355 -0.0228031
