!Murata Part Number: GRM155B31E333KA87
!These Parameters are Measured in Series Mode Connection
!Data Generated on Mar 30, 2021
!       o--ll--o
!Port1            Port2
!       o------o
!Operation Temp=25[degC], DC Bias Voltage=0[V]
!Freq. Start=100[Hz] Stop=6[GHz] 401[Steps]
# Hz S RI R 50
!Freq.(Hz) S11(Real) S11(Imag) S21(Real) S21(Imag) S12(Real) S12(Imag) S22(Real) S22(Imag)
100 0.9999846 -0.0020001 0.0000154 0.0020001 0.0000154 0.0020001 0.9999846 -0.0020001
105 0.9999838 -0.0020914 0.0000162 0.0020914 0.0000162 0.0020914 0.9999838 -0.0020914
109 0.9999829 -0.0021868 0.0000171 0.0021868 0.0000171 0.0021868 0.9999829 -0.0021868
114 0.9999820 -0.0022866 0.0000180 0.0022866 0.0000180 0.0022866 0.9999820 -0.0022866
120 0.9999810 -0.0023910 0.0000190 0.0023910 0.0000190 0.0023910 0.9999810 -0.0023910
125 0.9999799 -0.0025001 0.0000201 0.0025001 0.0000201 0.0025001 0.9999799 -0.0025001
131 0.9999787 -0.0026142 0.0000213 0.0026142 0.0000213 0.0026142 0.9999787 -0.0026142
137 0.9999775 -0.0027335 0.0000225 0.0027335 0.0000225 0.0027335 0.9999775 -0.0027335
143 0.9999762 -0.0028582 0.0000238 0.0028582 0.0000238 0.0028582 0.9999762 -0.0028582
150 0.9999747 -0.0029887 0.0000253 0.0029887 0.0000253 0.0029887 0.9999747 -0.0029887
156 0.9999732 -0.0031251 0.0000268 0.0031251 0.0000268 0.0031251 0.9999732 -0.0031251
164 0.9999716 -0.0032677 0.0000284 0.0032677 0.0000284 0.0032677 0.9999716 -0.0032677
171 0.9999698 -0.0034169 0.0000302 0.0034169 0.0000302 0.0034169 0.9999698 -0.0034169
179 0.9999679 -0.0035728 0.0000321 0.0035728 0.0000321 0.0035728 0.9999679 -0.0035728
187 0.9999658 -0.0037359 0.0000342 0.0037359 0.0000342 0.0037359 0.9999658 -0.0037359
196 0.9999636 -0.0039063 0.0000364 0.0039063 0.0000364 0.0039063 0.9999636 -0.0039063
205 0.9999613 -0.0040846 0.0000387 0.0040846 0.0000387 0.0040846 0.9999613 -0.0040846
214 0.9999587 -0.0042710 0.0000413 0.0042710 0.0000413 0.0042710 0.9999587 -0.0042710
224 0.9999560 -0.0044659 0.0000440 0.0044659 0.0000440 0.0044659 0.9999560 -0.0044659
234 0.9999530 -0.0046697 0.0000470 0.0046697 0.0000470 0.0046697 0.9999530 -0.0046697
245 0.9999499 -0.0048827 0.0000501 0.0048827 0.0000501 0.0048827 0.9999499 -0.0048827
256 0.9999465 -0.0051055 0.0000535 0.0051055 0.0000535 0.0051055 0.9999465 -0.0051055
268 0.9999428 -0.0053385 0.0000572 0.0053385 0.0000572 0.0053385 0.9999428 -0.0053385
280 0.9999389 -0.0055820 0.0000611 0.0055820 0.0000611 0.0055820 0.9999389 -0.0055820
293 0.9999347 -0.0058367 0.0000653 0.0058367 0.0000653 0.0058367 0.9999347 -0.0058367
306 0.9999301 -0.0061030 0.0000699 0.0061030 0.0000699 0.0061030 0.9999301 -0.0061030
320 0.9999252 -0.0063814 0.0000748 0.0063814 0.0000748 0.0063814 0.9999252 -0.0063814
335 0.9999199 -0.0066726 0.0000801 0.0066726 0.0000801 0.0066726 0.9999199 -0.0066726
350 0.9999143 -0.0069770 0.0000857 0.0069770 0.0000857 0.0069770 0.9999143 -0.0069770
366 0.9999081 -0.0072954 0.0000919 0.0072954 0.0000919 0.0072954 0.9999081 -0.0072954
383 0.9999015 -0.0076282 0.0000985 0.0076282 0.0000985 0.0076282 0.9999015 -0.0076282
401 0.9998944 -0.0079763 0.0001056 0.0079763 0.0001056 0.0079763 0.9998944 -0.0079763
419 0.9998866 -0.0083403 0.0001134 0.0083403 0.0001134 0.0083403 0.9998866 -0.0083403
438 0.9998783 -0.0087208 0.0001217 0.0087208 0.0001217 0.0087208 0.9998783 -0.0087208
458 0.9998692 -0.0091188 0.0001308 0.0091188 0.0001308 0.0091188 0.9998692 -0.0091188
479 0.9998594 -0.0095349 0.0001406 0.0095349 0.0001406 0.0095349 0.9998594 -0.0095349
501 0.9998488 -0.0099700 0.0001512 0.0099700 0.0001512 0.0099700 0.9998488 -0.0099700
524 0.9998372 -0.0104250 0.0001628 0.0104250 0.0001628 0.0104250 0.9998372 -0.0104250
548 0.9998247 -0.0109008 0.0001753 0.0109008 0.0001753 0.0109008 0.9998247 -0.0109008
573 0.9998111 -0.0113983 0.0001889 0.0113983 0.0001889 0.0113983 0.9998111 -0.0113983
600 0.9997964 -0.0119185 0.0002036 0.0119185 0.0002036 0.0119185 0.9997964 -0.0119185
627 0.9997804 -0.0124624 0.0002196 0.0124624 0.0002196 0.0124624 0.9997804 -0.0124624
656 0.9997629 -0.0130311 0.0002371 0.0130311 0.0002371 0.0130311 0.9997629 -0.0130311
686 0.9997440 -0.0136258 0.0002560 0.0136258 0.0002560 0.0136258 0.9997440 -0.0136258
717 0.9997234 -0.0142475 0.0002766 0.0142475 0.0002766 0.0142475 0.9997234 -0.0142475
750 0.9997009 -0.0148977 0.0002991 0.0148977 0.0002991 0.0148977 0.9997009 -0.0148977
784 0.9996765 -0.0155774 0.0003235 0.0155774 0.0003235 0.0155774 0.9996765 -0.0155774
820 0.9996500 -0.0162881 0.0003500 0.0162881 0.0003500 0.0162881 0.9996500 -0.0162881
858 0.9996211 -0.0170312 0.0003789 0.0170312 0.0003789 0.0170312 0.9996211 -0.0170312
897 0.9995896 -0.0178080 0.0004104 0.0178080 0.0004104 0.0178080 0.9995896 -0.0178080
938 0.9995554 -0.0186203 0.0004446 0.0186203 0.0004446 0.0186203 0.9995554 -0.0186203
981 0.9995182 -0.0194694 0.0004818 0.0194694 0.0004818 0.0194694 0.9995182 -0.0194694
1026 0.9994776 -0.0203572 0.0005224 0.0203572 0.0005224 0.0203572 0.9994776 -0.0203572
1073 0.9994335 -0.0212853 0.0005665 0.0212853 0.0005665 0.0212853 0.9994335 -0.0212853
1122 0.9993854 -0.0222556 0.0006146 0.0222556 0.0006146 0.0222556 0.9993854 -0.0222556
1174 0.9993331 -0.0232700 0.0006669 0.0232700 0.0006669 0.0232700 0.9993331 -0.0232700
1227 0.9992762 -0.0243303 0.0007238 0.0243303 0.0007238 0.0243303 0.9992762 -0.0243303
1283 0.9992143 -0.0254388 0.0007857 0.0254388 0.0007857 0.0254388 0.9992143 -0.0254388
1342 0.9991469 -0.0265976 0.0008531 0.0265976 0.0008531 0.0265976 0.9991469 -0.0265976
1404 0.9990735 -0.0278089 0.0009265 0.0278089 0.0009265 0.0278089 0.9990735 -0.0278089
1468 0.9989936 -0.0290751 0.0010064 0.0290751 0.0010064 0.0290751 0.9989936 -0.0290751
1535 0.9989067 -0.0303987 0.0010933 0.0303987 0.0010933 0.0303987 0.9989067 -0.0303987
1606 0.9988121 -0.0317821 0.0011879 0.0317821 0.0011879 0.0317821 0.9988121 -0.0317821
1679 0.9987091 -0.0332282 0.0012909 0.0332282 0.0012909 0.0332282 0.9987091 -0.0332282
1756 0.9985971 -0.0347398 0.0014029 0.0347398 0.0014029 0.0347398 0.9985971 -0.0347398
1836 0.9984750 -0.0363196 0.0015250 0.0363196 0.0015250 0.0363196 0.9984750 -0.0363196
1920 0.9983421 -0.0379709 0.0016579 0.0379709 0.0016579 0.0379709 0.9983421 -0.0379709
2008 0.9981974 -0.0396967 0.0018026 0.0396967 0.0018026 0.0396967 0.9981974 -0.0396967
2100 0.9980398 -0.0415005 0.0019602 0.0415005 0.0019602 0.0415005 0.9980398 -0.0415005
2196 0.9978681 -0.0433855 0.0021319 0.0433855 0.0021319 0.0433855 0.9978681 -0.0433855
2297 0.9976811 -0.0453555 0.0023189 0.0453555 0.0023189 0.0453555 0.9976811 -0.0453555
2402 0.9974773 -0.0474142 0.0025227 0.0474142 0.0025227 0.0474142 0.9974773 -0.0474142
2512 0.9972552 -0.0495655 0.0027448 0.0495655 0.0027448 0.0495655 0.9972552 -0.0495655
2627 0.9970132 -0.0518134 0.0029868 0.0518134 0.0029868 0.0518134 0.9970132 -0.0518134
2748 0.9967493 -0.0541622 0.0032507 0.0541622 0.0032507 0.0541622 0.9967493 -0.0541622
2873 0.9964616 -0.0566161 0.0035384 0.0566161 0.0035384 0.0566161 0.9964616 -0.0566161
3005 0.9961479 -0.0591797 0.0038521 0.0591797 0.0038521 0.0591797 0.9961479 -0.0591797
3143 0.9958059 -0.0618577 0.0041941 0.0618577 0.0041941 0.0618577 0.9958059 -0.0618577
3287 0.9954328 -0.0646550 0.0045672 0.0646550 0.0045672 0.0646550 0.9954328 -0.0646550
3437 0.9950259 -0.0675765 0.0049741 0.0675765 0.0049741 0.0675765 0.9950259 -0.0675765
3594 0.9945822 -0.0706275 0.0054178 0.0706275 0.0054178 0.0706275 0.9945822 -0.0706275
3759 0.9940981 -0.0738132 0.0059019 0.0738132 0.0059019 0.0738132 0.9940981 -0.0738132
3931 0.9935701 -0.0771392 0.0064299 0.0771392 0.0064299 0.0771392 0.9935701 -0.0771392
4111 0.9929942 -0.0806111 0.0070058 0.0806111 0.0070058 0.0806111 0.9929942 -0.0806111
4299 0.9923661 -0.0842348 0.0076339 0.0842348 0.0076339 0.0842348 0.9923661 -0.0842348
4496 0.9916810 -0.0880162 0.0083190 0.0880162 0.0083190 0.0880162 0.9916810 -0.0880162
4702 0.9909339 -0.0919614 0.0090661 0.0919614 0.0090661 0.0919614 0.9909339 -0.0919614
4918 0.9901192 -0.0960767 0.0098808 0.0960767 0.0098808 0.0960767 0.9901192 -0.0960767
5143 0.9892309 -0.1003683 0.0107691 0.1003683 0.0107691 0.1003683 0.9892309 -0.1003683
5378 0.9882625 -0.1048427 0.0117375 0.1048427 0.0117375 0.1048427 0.9882625 -0.1048427
5625 0.9872069 -0.1095064 0.0127931 0.1095064 0.0127931 0.1095064 0.9872069 -0.1095064
5882 0.9860566 -0.1143660 0.0139434 0.1143660 0.0139434 0.1143660 0.9860566 -0.1143660
6151 0.9848031 -0.1194281 0.0151969 0.1194281 0.0151969 0.1194281 0.9848031 -0.1194281
6433 0.9834378 -0.1246993 0.0165622 0.1246993 0.0165622 0.1246993 0.9834378 -0.1246993
6728 0.9819508 -0.1301860 0.0180492 0.1301860 0.0180492 0.1301860 0.9819508 -0.1301860
7036 0.9803319 -0.1358949 0.0196681 0.1358949 0.0196681 0.1358949 0.9803319 -0.1358949
7358 0.9785698 -0.1418323 0.0214302 0.1418323 0.0214302 0.1418323 0.9785698 -0.1418323
7695 0.9766526 -0.1480041 0.0233474 0.1480041 0.0233474 0.1480041 0.9766526 -0.1480041
8047 0.9745671 -0.1544165 0.0254329 0.1544165 0.0254329 0.1544165 0.9745671 -0.1544165
8416 0.9722997 -0.1610748 0.0277003 0.1610748 0.0277003 0.1610748 0.9722997 -0.1610748
8801 0.9698353 -0.1679843 0.0301647 0.1679843 0.0301647 0.1679843 0.9698353 -0.1679843
9204 0.9671580 -0.1751495 0.0328420 0.1751495 0.0328420 0.1751495 0.9671580 -0.1751495
9626 0.9642508 -0.1825745 0.0357492 0.1825745 0.0357492 0.1825745 0.9642508 -0.1825745
10066 0.9610955 -0.1902624 0.0389045 0.1902624 0.0389045 0.1902624 0.9610955 -0.1902624
10527 0.9576729 -0.1982157 0.0423271 0.1982157 0.0423271 0.1982157 0.9576729 -0.1982157
11009 0.9539624 -0.2064356 0.0460376 0.2064356 0.0460376 0.2064356 0.9539624 -0.2064356
11514 0.9499423 -0.2149223 0.0500577 0.2149223 0.0500577 0.2149223 0.9499423 -0.2149223
12041 0.9455898 -0.2236746 0.0544102 0.2236746 0.0544102 0.2236746 0.9455898 -0.2236746
12592 0.9408809 -0.2326894 0.0591191 0.2326894 0.0591191 0.2326894 0.9408809 -0.2326894
13169 0.9357903 -0.2419623 0.0642097 0.2419623 0.0642097 0.2419623 0.9357903 -0.2419623
13772 0.9302919 -0.2514866 0.0697081 0.2514866 0.0697081 0.2514866 0.9302919 -0.2514866
14402 0.9243585 -0.2612533 0.0756415 0.2612533 0.0756415 0.2612533 0.9243585 -0.2612533
15062 0.9179622 -0.2712510 0.0820378 0.2712510 0.0820378 0.2712510 0.9179622 -0.2712510
15752 0.9110743 -0.2814655 0.0889257 0.2814655 0.0889257 0.2814655 0.9110743 -0.2814655
16473 0.9036657 -0.2918796 0.0963343 0.2918796 0.0963343 0.2918796 0.9036657 -0.2918796
17227 0.8957072 -0.3024729 0.1042928 0.3024729 0.1042928 0.3024729 0.8957072 -0.3024729
18016 0.8871696 -0.3132213 0.1128304 0.3132213 0.1128304 0.3132213 0.8871696 -0.3132213
18841 0.8780244 -0.3240971 0.1219756 0.3240971 0.1219756 0.3240971 0.8780244 -0.3240971
19704 0.8682439 -0.3350687 0.1317561 0.3350687 0.1317561 0.3350687 0.8682439 -0.3350687
20606 0.8578016 -0.3461004 0.1421984 0.3461004 0.1421984 0.3461004 0.8578016 -0.3461004
21550 0.8466733 -0.3571524 0.1533267 0.3571524 0.1533267 0.3571524 0.8466733 -0.3571524
22537 0.8348369 -0.3681807 0.1651631 0.3681807 0.1651631 0.3681807 0.8348369 -0.3681807
23569 0.8222737 -0.3791370 0.1777263 0.3791370 0.1777263 0.3791370 0.8222737 -0.3791370
24648 0.8089687 -0.3899692 0.1910313 0.3899692 0.1910313 0.3899692 0.8089687 -0.3899692
25777 0.7949112 -0.4006215 0.2050888 0.4006215 0.2050888 0.4006215 0.7949112 -0.4006215
26957 0.7800957 -0.4110344 0.2199043 0.4110344 0.2199043 0.4110344 0.7800957 -0.4110344
28191 0.7645225 -0.4211457 0.2354775 0.4211457 0.2354775 0.4211457 0.7645225 -0.4211457
29482 0.7481982 -0.4308908 0.2518018 0.4308908 0.2518018 0.4308908 0.7481982 -0.4308908
30832 0.7311364 -0.4402036 0.2688636 0.4402036 0.2688636 0.4402036 0.7311364 -0.4402036
32244 0.7133582 -0.4490172 0.2866418 0.4490172 0.2866418 0.4490172 0.7133582 -0.4490172
33721 0.6948922 -0.4572649 0.3051078 0.4572649 0.3051078 0.4572649 0.6948922 -0.4572649
35265 0.6757753 -0.4648813 0.3242247 0.4648813 0.3242247 0.4648813 0.6757753 -0.4648813
36880 0.6560519 -0.4718034 0.3439481 0.4718034 0.3439481 0.4718034 0.6560519 -0.4718034
38569 0.6357749 -0.4779716 0.3642251 0.4779716 0.3642251 0.4779716 0.6357749 -0.4779716
40335 0.6150041 -0.4833314 0.3849959 0.4833314 0.3849959 0.4833314 0.6150041 -0.4833314
42182 0.5938065 -0.4878338 0.4061935 0.4878338 0.4061935 0.4878338 0.5938065 -0.4878338
44113 0.5722555 -0.4914368 0.4277445 0.4914368 0.4277445 0.4914368 0.5722555 -0.4914368
46134 0.5504294 -0.4941063 0.4495706 0.4941063 0.4495706 0.4941063 0.5504294 -0.4941063
48246 0.5284108 -0.4958167 0.4715892 0.4958167 0.4715892 0.4958167 0.5284108 -0.4958167
50455 0.5062854 -0.4965518 0.4937146 0.4965518 0.4937146 0.4965518 0.5062854 -0.4965518
52766 0.4841403 -0.4963046 0.5158597 0.4963046 0.5158597 0.4963046 0.4841403 -0.4963046
55182 0.4620629 -0.4950783 0.5379371 0.4950783 0.5379371 0.4950783 0.4620629 -0.4950783
57709 0.4401395 -0.4928855 0.5598605 0.4928855 0.5598605 0.4928855 0.4401395 -0.4928855
60352 0.4184537 -0.4897481 0.5815463 0.4897481 0.5815463 0.4897481 0.4184537 -0.4897481
63115 0.3970856 -0.4856968 0.6029144 0.4856968 0.6029144 0.4856968 0.3970856 -0.4856968
66005 0.3761103 -0.4807705 0.6238897 0.4807705 0.6238897 0.4807705 0.3761103 -0.4807705
69028 0.3555969 -0.4750151 0.6444031 0.4750151 0.6444031 0.4750151 0.3555969 -0.4750151
72189 0.3356081 -0.4684828 0.6643919 0.4684828 0.6643919 0.4684828 0.3356081 -0.4684828
75495 0.3161992 -0.4612309 0.6838008 0.4612309 0.6838008 0.4612309 0.3161992 -0.4612309
78952 0.2974178 -0.4533204 0.7025822 0.4533204 0.7025822 0.4533204 0.2974178 -0.4533204
82567 0.2793036 -0.4448153 0.7206964 0.4448153 0.7206964 0.4448153 0.2793036 -0.4448153
86348 0.2618887 -0.4357811 0.7381113 0.4357811 0.7381113 0.4357811 0.2618887 -0.4357811
90302 0.2451972 -0.4262841 0.7548028 0.4262841 0.7548028 0.4262841 0.2451972 -0.4262841
94437 0.2292459 -0.4163899 0.7707541 0.4163899 0.7707541 0.4163899 0.2292459 -0.4163899
98762 0.2140446 -0.4061632 0.7859554 0.4061632 0.7859554 0.4061632 0.2140446 -0.4061632
103284 0.1995965 -0.3956666 0.8004035 0.3956666 0.8004035 0.3956666 0.1995965 -0.3956666
108014 0.1858991 -0.3849600 0.8141009 0.3849600 0.8141009 0.3849600 0.1858991 -0.3849600
112960 0.1729444 -0.3741002 0.8270556 0.3741002 0.8270556 0.3741002 0.1729444 -0.3741002
118133 0.1607199 -0.3631407 0.8392801 0.3631407 0.8392801 0.3631407 0.1607199 -0.3631407
123542 0.1492092 -0.3521310 0.8507908 0.3521310 0.8507908 0.3521310 0.1492092 -0.3521310
129199 0.1383923 -0.3411166 0.8616077 0.3411166 0.8616077 0.3411166 0.1383923 -0.3411166
135116 0.1282468 -0.3301391 0.8717532 0.3301391 0.8717532 0.3301391 0.1282468 -0.3301391
141303 0.1187477 -0.3192361 0.8812523 0.3192361 0.8812523 0.3192361 0.1187477 -0.3192361
147774 0.1098687 -0.3084411 0.8901313 0.3084411 0.8901313 0.3084411 0.1098687 -0.3084411
154540 0.1015823 -0.2977837 0.8984177 0.2977837 0.8984177 0.2977837 0.1015823 -0.2977837
161617 0.0938601 -0.2872898 0.9061399 0.2872898 0.9061399 0.2872898 0.0938601 -0.2872898
169018 0.0866735 -0.2769819 0.9133265 0.2769819 0.9133265 0.2769819 0.0866735 -0.2769819
176758 0.0799937 -0.2668791 0.9200063 0.2668791 0.9200063 0.2668791 0.0799937 -0.2668791
184852 0.0737922 -0.2569973 0.9262078 0.2569973 0.9262078 0.2569973 0.0737922 -0.2569973
193316 0.0680410 -0.2473497 0.9319590 0.2473497 0.9319590 0.2473497 0.0680410 -0.2473497
202169 0.0627129 -0.2379469 0.9372871 0.2379469 0.9372871 0.2379469 0.0627129 -0.2379469
211427 0.0577811 -0.2287970 0.9422189 0.2287970 0.9422189 0.2287970 0.0577811 -0.2287970
221108 0.0532201 -0.2199059 0.9467799 0.2199059 0.9467799 0.2199059 0.0532201 -0.2199059
231233 0.0490054 -0.2112778 0.9509946 0.2112778 0.9509946 0.2112778 0.0490054 -0.2112778
241822 0.0451135 -0.2029151 0.9548865 0.2029151 0.9548865 0.2029151 0.0451135 -0.2029151
252896 0.0415219 -0.1948185 0.9584781 0.1948185 0.9584781 0.1948185 0.0415219 -0.1948185
264476 0.0382094 -0.1869876 0.9617906 0.1869876 0.9617906 0.1869876 0.0382094 -0.1869876
276587 0.0351561 -0.1794207 0.9648439 0.1794207 0.9648439 0.1794207 0.0351561 -0.1794207
289253 0.0323431 -0.1721152 0.9676569 0.1721152 0.9676569 0.1721152 0.0323431 -0.1721152
302498 0.0297526 -0.1650675 0.9702474 0.1650675 0.9702474 0.1650675 0.0297526 -0.1650675
316350 0.0273679 -0.1582734 0.9726321 0.1582734 0.9726321 0.1582734 0.0273679 -0.1582734
330837 0.0251735 -0.1517281 0.9748265 0.1517281 0.9748265 0.1517281 0.0251735 -0.1517281
345986 0.0231549 -0.1454262 0.9768451 0.1454262 0.9768451 0.1454262 0.0231549 -0.1454262
361830 0.0212985 -0.1393621 0.9787015 0.1393621 0.9787015 0.1393621 0.0212985 -0.1393621
378399 0.0195918 -0.1335296 0.9804082 0.1335296 0.9804082 0.1335296 0.0195918 -0.1335296
395726 0.0180231 -0.1279226 0.9819769 0.1279226 0.9819769 0.1279226 0.0180231 -0.1279226
413847 0.0165815 -0.1225345 0.9834185 0.1225345 0.9834185 0.1225345 0.0165815 -0.1225345
432798 0.0152569 -0.1173587 0.9847431 0.1173587 0.9847431 0.1173587 0.0152569 -0.1173587
452617 0.0140402 -0.1123887 0.9859598 0.1123887 0.9859598 0.1123887 0.0140402 -0.1123887
473344 0.0129227 -0.1076179 0.9870773 0.1076179 0.9870773 0.1076179 0.0129227 -0.1076179
495019 0.0118964 -0.1030395 0.9881036 0.1030395 0.9881036 0.1030395 0.0118964 -0.1030395
517687 0.0109541 -0.0986471 0.9890459 0.0986471 0.9890459 0.0986471 0.0109541 -0.0986471
541393 0.0100890 -0.0944341 0.9899110 0.0944341 0.9899110 0.0944341 0.0100890 -0.0944341
566185 0.0092949 -0.0903942 0.9907051 0.0903942 0.9907051 0.0903942 0.0092949 -0.0903942
592111 0.0085659 -0.0865210 0.9914341 0.0865210 0.9914341 0.0865210 0.0085659 -0.0865210
619225 0.0078969 -0.0828083 0.9921031 0.0828083 0.9921031 0.0828083 0.0078969 -0.0828083
647581 0.0072830 -0.0792503 0.9927170 0.0792503 0.9927170 0.0792503 0.0072830 -0.0792503
677235 0.0067196 -0.0758410 0.9932804 0.0758410 0.9932804 0.0758410 0.0067196 -0.0758410
708247 0.0062026 -0.0725748 0.9937974 0.0725748 0.9937974 0.0725748 0.0062026 -0.0725748
740679 0.0057283 -0.0694460 0.9942717 0.0694460 0.9942717 0.0694460 0.0057283 -0.0694460
774597 0.0052931 -0.0664492 0.9947069 0.0664492 0.9947069 0.0664492 0.0052931 -0.0664492
810067 0.0048938 -0.0635794 0.9951062 0.0635794 0.9951062 0.0635794 0.0048938 -0.0635794
847162 0.0045274 -0.0608313 0.9954726 0.0608313 0.9954726 0.0608313 0.0045274 -0.0608313
885955 0.0041913 -0.0582002 0.9958087 0.0582002 0.9958087 0.0582002 0.0041913 -0.0582002
926525 0.0038828 -0.0556813 0.9961172 0.0556813 0.9961172 0.0556813 0.0038828 -0.0556813
968953 0.0035998 -0.0532700 0.9964002 0.0532700 0.9964002 0.0532700 0.0035998 -0.0532700
1013323 0.0033400 -0.0509619 0.9966600 0.0509619 0.9966600 0.0509619 0.0033400 -0.0509619
1059725 0.0031015 -0.0487527 0.9968985 0.0487527 0.9968985 0.0487527 0.0031015 -0.0487527
1108252 0.0028826 -0.0466384 0.9971174 0.0466384 0.9971174 0.0466384 0.0028826 -0.0466384
1159002 0.0026816 -0.0446151 0.9973184 0.0446151 0.9973184 0.0446151 0.0026816 -0.0446151
1212075 0.0024969 -0.0426788 0.9975031 0.0426788 0.9975031 0.0426788 0.0024969 -0.0426788
1267578 0.0023272 -0.0408260 0.9976728 0.0408260 0.9976728 0.0408260 0.0023272 -0.0408260
1325623 0.0021712 -0.0390531 0.9978288 0.0390531 0.9978288 0.0390531 0.0021712 -0.0390531
1386327 0.0020277 -0.0373568 0.9979723 0.0373568 0.9979723 0.0373568 0.0020277 -0.0373568
1449809 0.0018957 -0.0357337 0.9981043 0.0357337 0.9981043 0.0357337 0.0018957 -0.0357337
1516199 0.0017743 -0.0341807 0.9982257 0.0341807 0.9982257 0.0341807 0.0017743 -0.0341807
1585629 0.0016624 -0.0326948 0.9983376 0.0326948 0.9983376 0.0326948 0.0016624 -0.0326948
1658239 0.0015593 -0.0312732 0.9984407 0.0312732 0.9984407 0.0312732 0.0015593 -0.0312732
1734173 0.0014642 -0.0299131 0.9985358 0.0299131 0.9985358 0.0299131 0.0014642 -0.0299131
1813585 0.0013765 -0.0286117 0.9986235 0.0286117 0.9986235 0.0286117 0.0013765 -0.0286117
1896632 0.0012955 -0.0273666 0.9987045 0.0273666 0.9987045 0.0273666 0.0012955 -0.0273666
1983483 0.0012207 -0.0261753 0.9987793 0.0261753 0.9987793 0.0261753 0.0012207 -0.0261753
2074311 0.0011516 -0.0250355 0.9988484 0.0250355 0.9988484 0.0250355 0.0011516 -0.0250355
