!Murata Part Number: GRM155R61A184KE19
!These Parameters are Measured in Series Mode Connection
!Data Generated on Mar 30, 2021
!       o--ll--o
!Port1            Port2
!       o------o
!Operation Temp=25[degC], DC Bias Voltage=0[V]
!Freq. Start=100[Hz] Stop=6[GHz] 401[Steps]
# Hz S RI R 50
!Freq.(Hz) S11(Real) S11(Imag) S21(Real) S21(Imag) S12(Real) S12(Imag) S22(Real) S22(Imag)
100 0.9998000 -0.0109955 0.0002000 0.0109955 0.0002000 0.0109955 0.9998000 -0.0109955
105 0.9997854 -0.0114964 0.0002146 0.0114964 0.0002146 0.0114964 0.9997854 -0.0114964
109 0.9997695 -0.0120202 0.0002305 0.0120202 0.0002305 0.0120202 0.9997695 -0.0120202
114 0.9997524 -0.0125679 0.0002476 0.0125679 0.0002476 0.0125679 0.9997524 -0.0125679
120 0.9997338 -0.0131405 0.0002662 0.0131405 0.0002662 0.0131405 0.9997338 -0.0131405
125 0.9997136 -0.0137392 0.0002864 0.0137392 0.0002864 0.0137392 0.9997136 -0.0137392
131 0.9996917 -0.0143651 0.0003083 0.0143651 0.0003083 0.0143651 0.9996917 -0.0143651
137 0.9996679 -0.0150195 0.0003321 0.0150195 0.0003321 0.0150195 0.9996679 -0.0150195
143 0.9996421 -0.0157036 0.0003579 0.0157036 0.0003579 0.0157036 0.9996421 -0.0157036
150 0.9996142 -0.0164189 0.0003858 0.0164189 0.0003858 0.0164189 0.9996142 -0.0164189
156 0.9995838 -0.0171666 0.0004162 0.0171666 0.0004162 0.0171666 0.9995838 -0.0171666
164 0.9995509 -0.0179484 0.0004491 0.0179484 0.0004491 0.0179484 0.9995509 -0.0179484
171 0.9995151 -0.0187656 0.0004849 0.0187656 0.0004849 0.0187656 0.9995151 -0.0187656
179 0.9994763 -0.0196199 0.0005237 0.0196199 0.0005237 0.0196199 0.9994763 -0.0196199
187 0.9994342 -0.0205130 0.0005658 0.0205130 0.0005658 0.0205130 0.9994342 -0.0205130
196 0.9993885 -0.0214467 0.0006115 0.0214467 0.0006115 0.0214467 0.9993885 -0.0214467
205 0.9993389 -0.0224227 0.0006611 0.0224227 0.0006611 0.0224227 0.9993389 -0.0224227
214 0.9992850 -0.0234429 0.0007150 0.0234429 0.0007150 0.0234429 0.9992850 -0.0234429
224 0.9992266 -0.0245095 0.0007734 0.0245095 0.0007734 0.0245095 0.9992266 -0.0245095
234 0.9991631 -0.0256243 0.0008369 0.0256243 0.0008369 0.0256243 0.9991631 -0.0256243
245 0.9990942 -0.0267898 0.0009058 0.0267898 0.0009058 0.0267898 0.9990942 -0.0267898
256 0.9990194 -0.0280080 0.0009806 0.0280080 0.0009806 0.0280080 0.9990194 -0.0280080
268 0.9989381 -0.0292815 0.0010619 0.0292815 0.0010619 0.0292815 0.9989381 -0.0292815
280 0.9988498 -0.0306126 0.0011502 0.0306126 0.0011502 0.0306126 0.9988498 -0.0306126
293 0.9987539 -0.0320041 0.0012461 0.0320041 0.0012461 0.0320041 0.9987539 -0.0320041
306 0.9986496 -0.0334585 0.0013504 0.0334585 0.0013504 0.0334585 0.9986496 -0.0334585
320 0.9985362 -0.0349789 0.0014638 0.0349789 0.0014638 0.0349789 0.9985362 -0.0349789
335 0.9984128 -0.0365680 0.0015872 0.0365680 0.0015872 0.0365680 0.9984128 -0.0365680
350 0.9982787 -0.0382290 0.0017213 0.0382290 0.0017213 0.0382290 0.9982787 -0.0382290
366 0.9981327 -0.0399652 0.0018673 0.0399652 0.0018673 0.0399652 0.9981327 -0.0399652
383 0.9979737 -0.0417798 0.0020263 0.0417798 0.0020263 0.0417798 0.9979737 -0.0417798
401 0.9978007 -0.0436763 0.0021993 0.0436763 0.0021993 0.0436763 0.9978007 -0.0436763
419 0.9976122 -0.0456584 0.0023878 0.0456584 0.0023878 0.0456584 0.9976122 -0.0456584
438 0.9974069 -0.0477299 0.0025931 0.0477299 0.0025931 0.0477299 0.9974069 -0.0477299
458 0.9971831 -0.0498947 0.0028169 0.0498947 0.0028169 0.0498947 0.9971831 -0.0498947
479 0.9969393 -0.0521567 0.0030607 0.0521567 0.0030607 0.0521567 0.9969393 -0.0521567
501 0.9966734 -0.0545204 0.0033266 0.0545204 0.0033266 0.0545204 0.9966734 -0.0545204
524 0.9963835 -0.0569900 0.0036165 0.0569900 0.0036165 0.0569900 0.9963835 -0.0569900
548 0.9960674 -0.0595702 0.0039326 0.0595702 0.0039326 0.0595702 0.9960674 -0.0595702
573 0.9957227 -0.0622656 0.0042773 0.0622656 0.0042773 0.0622656 0.9957227 -0.0622656
600 0.9953466 -0.0650810 0.0046534 0.0650810 0.0046534 0.0650810 0.9953466 -0.0650810
627 0.9949364 -0.0680217 0.0050636 0.0680217 0.0050636 0.0680217 0.9949364 -0.0680217
656 0.9944889 -0.0710927 0.0055111 0.0710927 0.0055111 0.0710927 0.9944889 -0.0710927
686 0.9940007 -0.0742994 0.0059993 0.0742994 0.0059993 0.0742994 0.9940007 -0.0742994
717 0.9934681 -0.0776474 0.0065319 0.0776474 0.0065319 0.0776474 0.9934681 -0.0776474
750 0.9928871 -0.0811423 0.0071129 0.0811423 0.0071129 0.0811423 0.9928871 -0.0811423
784 0.9922533 -0.0847901 0.0077467 0.0847901 0.0077467 0.0847901 0.9922533 -0.0847901
820 0.9915619 -0.0885967 0.0084381 0.0885967 0.0084381 0.0885967 0.9915619 -0.0885967
858 0.9908079 -0.0925681 0.0091921 0.0925681 0.0091921 0.0925681 0.9908079 -0.0925681
897 0.9899856 -0.0967108 0.0100144 0.0967108 0.0100144 0.0967108 0.9899856 -0.0967108
938 0.9890889 -0.1010311 0.0109111 0.1010311 0.0109111 0.1010311 0.9890889 -0.1010311
981 0.9881112 -0.1055354 0.0118888 0.1055354 0.0118888 0.1055354 0.9881112 -0.1055354
1026 0.9870455 -0.1102303 0.0129545 0.1102303 0.0129545 0.1102303 0.9870455 -0.1102303
1073 0.9858839 -0.1151225 0.0141161 0.1151225 0.0141161 0.1151225 0.9858839 -0.1151225
1122 0.9846182 -0.1202185 0.0153818 0.1202185 0.0153818 0.1202185 0.9846182 -0.1202185
1174 0.9832393 -0.1255251 0.0167607 0.1255251 0.0167607 0.1255251 0.9832393 -0.1255251
1227 0.9817374 -0.1310488 0.0182626 0.1310488 0.0182626 0.1310488 0.9817374 -0.1310488
1283 0.9801021 -0.1367961 0.0198979 0.1367961 0.0198979 0.1367961 0.9801021 -0.1367961
1342 0.9783220 -0.1427734 0.0216780 0.1427734 0.0216780 0.1427734 0.9783220 -0.1427734
1404 0.9763848 -0.1489869 0.0236152 0.1489869 0.0236152 0.1489869 0.9763848 -0.1489869
1468 0.9742774 -0.1554424 0.0257226 0.1554424 0.0257226 0.1554424 0.9742774 -0.1554424
1535 0.9719857 -0.1621455 0.0280143 0.1621455 0.0280143 0.1621455 0.9719857 -0.1621455
1606 0.9694945 -0.1691014 0.0305055 0.1691014 0.0305055 0.1691014 0.9694945 -0.1691014
1679 0.9667877 -0.1763145 0.0332123 0.1763145 0.0332123 0.1763145 0.9667877 -0.1763145
1756 0.9638479 -0.1837888 0.0361521 0.1837888 0.0361521 0.1837888 0.9638479 -0.1837888
1836 0.9606567 -0.1915275 0.0393433 0.1915275 0.0393433 0.1915275 0.9606567 -0.1915275
1920 0.9571944 -0.1995326 0.0428056 0.1995326 0.0428056 0.1995326 0.9571944 -0.1995326
2008 0.9534403 -0.2078055 0.0465597 0.2078055 0.0465597 0.2078055 0.9534403 -0.2078055
2100 0.9493723 -0.2163458 0.0506277 0.2163458 0.0506277 0.2163458 0.9493723 -0.2163458
2196 0.9449671 -0.2251521 0.0550329 0.2251521 0.0550329 0.2251521 0.9449671 -0.2251521
2297 0.9402006 -0.2342211 0.0597994 0.2342211 0.0597994 0.2342211 0.9402006 -0.2342211
2402 0.9350471 -0.2435478 0.0649529 0.2435478 0.0649529 0.2435478 0.9350471 -0.2435478
2512 0.9294804 -0.2531249 0.0705196 0.2531249 0.0705196 0.2531249 0.9294804 -0.2531249
2627 0.9234729 -0.2629430 0.0765271 0.2629430 0.0765271 0.2629430 0.9234729 -0.2629430
2748 0.9169965 -0.2729901 0.0830035 0.2729901 0.0830035 0.2729901 0.9169965 -0.2729901
2873 0.9100225 -0.2832513 0.0899775 0.2832513 0.0899775 0.2832513 0.9100225 -0.2832513
3005 0.9025219 -0.2937086 0.0974781 0.2937086 0.0974781 0.2937086 0.9025219 -0.2937086
3143 0.8944655 -0.3043408 0.1055345 0.3043408 0.1055345 0.3043408 0.8944655 -0.3043408
3287 0.8858242 -0.3151231 0.1141758 0.3151231 0.1141758 0.3151231 0.8858242 -0.3151231
3437 0.8765699 -0.3260269 0.1234301 0.3260269 0.1234301 0.3260269 0.8765699 -0.3260269
3594 0.8666751 -0.3370200 0.1333249 0.3370200 0.1333249 0.3370200 0.8666751 -0.3370200
3759 0.8561142 -0.3480657 0.1438858 0.3480657 0.1438858 0.3480657 0.8561142 -0.3480657
3931 0.8448634 -0.3591235 0.1551366 0.3591235 0.1551366 0.3591235 0.8448634 -0.3591235
4111 0.8329015 -0.3701488 0.1670985 0.3701488 0.1670985 0.3701488 0.8329015 -0.3701488
4299 0.8202107 -0.3810928 0.1797893 0.3810928 0.1797893 0.3810928 0.8202107 -0.3810928
4496 0.8067769 -0.3919028 0.1932231 0.3919028 0.1932231 0.3919028 0.8067769 -0.3919028
4702 0.7925905 -0.4025227 0.2074095 0.4025227 0.2074095 0.4025227 0.7925905 -0.4025227
4918 0.7776473 -0.4128929 0.2223527 0.4128929 0.2223527 0.4128929 0.7776473 -0.4128929
5143 0.7619487 -0.4229512 0.2380513 0.4229512 0.2380513 0.4229512 0.7619487 -0.4229512
5378 0.7455024 -0.4326331 0.2544976 0.4326331 0.2544976 0.4326331 0.7455024 -0.4326331
5625 0.7283233 -0.4418729 0.2716767 0.4418729 0.2716767 0.4418729 0.7283233 -0.4418729
5882 0.7104335 -0.4506042 0.2895665 0.4506042 0.2895665 0.4506042 0.7104335 -0.4506042
6151 0.6918626 -0.4587609 0.3081374 0.4587609 0.3081374 0.4587609 0.6918626 -0.4587609
6433 0.6726484 -0.4662785 0.3273516 0.4662785 0.3273516 0.4662785 0.6726484 -0.4662785
6728 0.6528362 -0.4730948 0.3471638 0.4730948 0.3471638 0.4730948 0.6528362 -0.4730948
7036 0.6324792 -0.4791515 0.3675208 0.4791515 0.3675208 0.4791515 0.6324792 -0.4791515
7358 0.6116377 -0.4843948 0.3883623 0.4843948 0.3883623 0.4843948 0.6116377 -0.4843948
7695 0.5903791 -0.4887769 0.4096209 0.4887769 0.4096209 0.4887769 0.5903791 -0.4887769
8047 0.5687766 -0.4922568 0.4312234 0.4922568 0.4312234 0.4922568 0.5687766 -0.4922568
8416 0.5469086 -0.4948013 0.4530914 0.4948013 0.4530914 0.4948013 0.5469086 -0.4948013
8801 0.5248575 -0.4963857 0.4751425 0.4963857 0.4751425 0.4963857 0.5248575 -0.4963857
9204 0.5027086 -0.4969945 0.4972914 0.4969945 0.4972914 0.4969945 0.5027086 -0.4969945
9626 0.4805487 -0.4966216 0.5194513 0.4966216 0.5194513 0.4966216 0.4805487 -0.4966216
10066 0.4584648 -0.4952704 0.5415352 0.4952704 0.5415352 0.4952704 0.4584648 -0.4952704
10527 0.4365428 -0.4929540 0.5634572 0.4929540 0.5634572 0.4929540 0.4365428 -0.4929540
11009 0.4148661 -0.4896947 0.5851339 0.4896947 0.5851339 0.4896947 0.4148661 -0.4896947
11514 0.3935143 -0.4855235 0.6064857 0.4855235 0.6064857 0.4855235 0.3935143 -0.4855235
12041 0.3725623 -0.4804795 0.6274377 0.4804795 0.6274377 0.4804795 0.3725623 -0.4804795
12592 0.3520792 -0.4746088 0.6479208 0.4746088 0.6479208 0.4746088 0.3520792 -0.4746088
13169 0.3321273 -0.4679638 0.6678727 0.4679638 0.6678727 0.4679638 0.3321273 -0.4679638
13772 0.3127618 -0.4606020 0.6872382 0.4606020 0.6872382 0.4606020 0.3127618 -0.4606020
14402 0.2940304 -0.4525849 0.7059696 0.4525849 0.7059696 0.4525849 0.2940304 -0.4525849
15062 0.2759727 -0.4439767 0.7240273 0.4439767 0.7240273 0.4439767 0.2759727 -0.4439767
15752 0.2586206 -0.4348434 0.7413794 0.4348434 0.7413794 0.4348434 0.2586206 -0.4348434
16473 0.2419979 -0.4252515 0.7580021 0.4252515 0.7580021 0.4252515 0.2419979 -0.4252515
17227 0.2261214 -0.4152675 0.7738786 0.4152675 0.7738786 0.4152675 0.2261214 -0.4152675
18016 0.2110005 -0.4049563 0.7889995 0.4049563 0.7889995 0.4049563 0.2110005 -0.4049563
18841 0.1966380 -0.3943810 0.8033620 0.3943810 0.8033620 0.3943810 0.1966380 -0.3943810
19704 0.1830308 -0.3836020 0.8169692 0.3836020 0.8169692 0.3836020 0.1830308 -0.3836020
20606 0.1701706 -0.3726767 0.8298294 0.3726767 0.8298294 0.3726767 0.1701706 -0.3726767
21550 0.1580442 -0.3616587 0.8419558 0.3616587 0.8419558 0.3616587 0.1580442 -0.3616587
22537 0.1466343 -0.3505978 0.8533657 0.3505978 0.8533657 0.3505978 0.1466343 -0.3505978
23569 0.1359203 -0.3395398 0.8640797 0.3395398 0.8640797 0.3395398 0.1359203 -0.3395398
24648 0.1258790 -0.3285264 0.8741210 0.3285264 0.8741210 0.3285264 0.1258790 -0.3285264
25777 0.1164848 -0.3175950 0.8835152 0.3175950 0.8835152 0.3175950 0.1164848 -0.3175950
26957 0.1077106 -0.3067790 0.8922894 0.3067790 0.8922894 0.3067790 0.1077106 -0.3067790
28191 0.0995279 -0.2961079 0.9004721 0.2961079 0.9004721 0.2961079 0.0995279 -0.2961079
29482 0.0919080 -0.2856073 0.9080920 0.2856073 0.9080920 0.2856073 0.0919080 -0.2856073
30832 0.0848214 -0.2752991 0.9151786 0.2752991 0.9151786 0.2752991 0.0848214 -0.2752991
32244 0.0782389 -0.2652020 0.9217611 0.2652020 0.9217611 0.2652020 0.0782389 -0.2652020
33721 0.0721316 -0.2553316 0.9278684 0.2553316 0.9278684 0.2553316 0.0721316 -0.2553316
35265 0.0664711 -0.2457004 0.9335289 0.2457004 0.9335289 0.2457004 0.0664711 -0.2457004
36880 0.0612297 -0.2363183 0.9387703 0.2363183 0.9387703 0.2363183 0.0612297 -0.2363183
38569 0.0563806 -0.2271931 0.9436194 0.2271931 0.9436194 0.2271931 0.0563806 -0.2271931
40335 0.0518981 -0.2183301 0.9481019 0.2183301 0.9481019 0.2183301 0.0518981 -0.2183301
42182 0.0477576 -0.2097328 0.9522424 0.2097328 0.9522424 0.2097328 0.0477576 -0.2097328
44113 0.0439356 -0.2014031 0.9560644 0.2014031 0.9560644 0.2014031 0.0439356 -0.2014031
46134 0.0404098 -0.1933414 0.9595902 0.1933414 0.9595902 0.1933414 0.0404098 -0.1933414
48246 0.0371590 -0.1855467 0.9628410 0.1855467 0.9628410 0.1855467 0.0371590 -0.1855467
50455 0.0341635 -0.1780169 0.9658365 0.1780169 0.9658365 0.1780169 0.0341635 -0.1780169
52766 0.0314045 -0.1707490 0.9685955 0.1707490 0.9685955 0.1707490 0.0314045 -0.1707490
55182 0.0288644 -0.1637393 0.9711356 0.1637393 0.9711356 0.1637393 0.0288644 -0.1637393
57709 0.0265268 -0.1569831 0.9734732 0.1569831 0.9734732 0.1569831 0.0265268 -0.1569831
60352 0.0243765 -0.1504756 0.9756235 0.1504756 0.9756235 0.1504756 0.0243765 -0.1504756
63115 0.0223991 -0.1442111 0.9776009 0.1442111 0.9776009 0.1442111 0.0223991 -0.1442111
66005 0.0205812 -0.1381839 0.9794188 0.1381839 0.9794188 0.1381839 0.0205812 -0.1381839
69028 0.0189106 -0.1323877 0.9810894 0.1323877 0.9810894 0.1323877 0.0189106 -0.1323877
72189 0.0173758 -0.1268162 0.9826242 0.1268162 0.9826242 0.1268162 0.0173758 -0.1268162
75495 0.0159660 -0.1214630 0.9840340 0.1214630 0.9840340 0.1214630 0.0159660 -0.1214630
78952 0.0146714 -0.1163214 0.9853286 0.1163214 0.9853286 0.1163214 0.0146714 -0.1163214
82567 0.0134829 -0.1113848 0.9865171 0.1113848 0.9865171 0.1113848 0.0134829 -0.1113848
86348 0.0123920 -0.1066466 0.9876080 0.1066466 0.9876080 0.1066466 0.0123920 -0.1066466
90302 0.0113909 -0.1021001 0.9886091 0.1021001 0.9886091 0.1021001 0.0113909 -0.1021001
94437 0.0104723 -0.0977388 0.9895277 0.0977388 0.9895277 0.0977388 0.0104723 -0.0977388
98762 0.0096297 -0.0935563 0.9903703 0.0935563 0.9903703 0.0935563 0.0096297 -0.0935563
103284 0.0088568 -0.0895461 0.9911432 0.0895461 0.9911432 0.0895461 0.0088568 -0.0895461
108014 0.0081479 -0.0857019 0.9918521 0.0857019 0.9918521 0.0857019 0.0081479 -0.0857019
112960 0.0074979 -0.0820177 0.9925021 0.0820177 0.9925021 0.0820177 0.0074979 -0.0820177
118133 0.0069019 -0.0784875 0.9930981 0.0784875 0.9930981 0.0784875 0.0069019 -0.0784875
123542 0.0063555 -0.0751053 0.9936445 0.0751053 0.9936445 0.0751053 0.0063555 -0.0751053
129199 0.0058545 -0.0718655 0.9941455 0.0718655 0.9941455 0.0718655 0.0058545 -0.0718655
135116 0.0053953 -0.0687625 0.9946047 0.0687625 0.9946047 0.0687625 0.0053953 -0.0687625
141303 0.0049743 -0.0657910 0.9950257 0.0657910 0.9950257 0.0657910 0.0049743 -0.0657910
147774 0.0045883 -0.0629457 0.9954117 0.0629457 0.9954117 0.0629457 0.0045883 -0.0629457
154540 0.0042345 -0.0602216 0.9957655 0.0602216 0.9957655 0.0602216 0.0042345 -0.0602216
161617 0.0039101 -0.0576138 0.9960899 0.0576138 0.9960899 0.0576138 0.0039101 -0.0576138
169018 0.0036127 -0.0551176 0.9963873 0.0551176 0.9963873 0.0551176 0.0036127 -0.0551176
176758 0.0033399 -0.0527283 0.9966601 0.0527283 0.9966601 0.0527283 0.0033399 -0.0527283
184852 0.0030898 -0.0504416 0.9969102 0.0504416 0.9969102 0.0504416 0.0030898 -0.0504416
193316 0.0028604 -0.0482533 0.9971396 0.0482533 0.9971396 0.0482533 0.0028604 -0.0482533
202169 0.0026499 -0.0461592 0.9973501 0.0461592 0.9973501 0.0461592 0.0026499 -0.0461592
211427 0.0024567 -0.0441554 0.9975433 0.0441554 0.9975433 0.0441554 0.0024567 -0.0441554
221108 0.0022794 -0.0422380 0.9977206 0.0422380 0.9977206 0.0422380 0.0022794 -0.0422380
231233 0.0021166 -0.0404035 0.9978834 0.0404035 0.9978834 0.0404035 0.0021166 -0.0404035
241822 0.0019671 -0.0386483 0.9980329 0.0386483 0.9980329 0.0386483 0.0019671 -0.0386483
252896 0.0018297 -0.0369691 0.9981703 0.0369691 0.9981703 0.0369691 0.0018297 -0.0369691
264476 0.0017034 -0.0353626 0.9982966 0.0353626 0.9982966 0.0353626 0.0017034 -0.0353626
276587 0.0015874 -0.0338256 0.9984126 0.0338256 0.9984126 0.0338256 0.0015874 -0.0338256
289253 0.0014806 -0.0323553 0.9985194 0.0323553 0.9985194 0.0323553 0.0014806 -0.0323553
302498 0.0013824 -0.0309487 0.9986176 0.0309487 0.9986176 0.0309487 0.0013824 -0.0309487
316350 0.0012919 -0.0296030 0.9987081 0.0296030 0.9987081 0.0296030 0.0012919 -0.0296030
330837 0.0012087 -0.0283157 0.9987913 0.0283157 0.9987913 0.0283157 0.0012087 -0.0283157
345986 0.0011320 -0.0270843 0.9988680 0.0270843 0.9988680 0.0270843 0.0011320 -0.0270843
361830 0.0010613 -0.0259062 0.9989387 0.0259062 0.9989387 0.0259062 0.0010613 -0.0259062
378399 0.0009961 -0.0247793 0.9990039 0.0247793 0.9990039 0.0247793 0.0009961 -0.0247793
395726 0.0009360 -0.0237012 0.9990640 0.0237012 0.9990640 0.0237012 0.0009360 -0.0237012
413847 0.0008805 -0.0226699 0.9991195 0.0226699 0.9991195 0.0226699 0.0008805 -0.0226699
432798 0.0008293 -0.0216833 0.9991707 0.0216833 0.9991707 0.0216833 0.0008293 -0.0216833
452617 0.0007821 -0.0207395 0.9992179 0.0207395 0.9992179 0.0207395 0.0007821 -0.0207395
473344 0.0007384 -0.0198366 0.9992616 0.0198366 0.9992616 0.0198366 0.0007384 -0.0198366
495019 0.0006981 -0.0189729 0.9993019 0.0189729 0.9993019 0.0189729 0.0006981 -0.0189729
517687 0.0006608 -0.0181466 0.9993392 0.0181466 0.9993392 0.0181466 0.0006608 -0.0181466
541393 0.0006264 -0.0173561 0.9993736 0.0173561 0.9993736 0.0173561 0.0006264 -0.0173561
566185 0.0005945 -0.0165999 0.9994055 0.0165999 0.9994055 0.0165999 0.0005945 -0.0165999
592111 0.0005651 -0.0158765 0.9994349 0.0158765 0.9994349 0.0158765 0.0005651 -0.0158765
619225 0.0005378 -0.0151845 0.9994622 0.0151845 0.9994622 0.0151845 0.0005378 -0.0151845
647581 0.0005126 -0.0145224 0.9994874 0.0145224 0.9994874 0.0145224 0.0005126 -0.0145224
677235 0.0004892 -0.0138890 0.9995108 0.0138890 0.9995108 0.0138890 0.0004892 -0.0138890
708247 0.0004676 -0.0132831 0.9995324 0.0132831 0.9995324 0.0132831 0.0004676 -0.0132831
740679 0.0004476 -0.0127034 0.9995524 0.0127034 0.9995524 0.0127034 0.0004476 -0.0127034
774597 0.0004290 -0.0121488 0.9995710 0.0121488 0.9995710 0.0121488 0.0004290 -0.0121488
810067 0.0004118 -0.0116182 0.9995882 0.0116182 0.9995882 0.0116182 0.0004118 -0.0116182
847162 0.0003958 -0.0111106 0.9996042 0.0111106 0.9996042 0.0111106 0.0003958 -0.0111106
885955 0.0003810 -0.0106250 0.9996190 0.0106250 0.9996190 0.0106250 0.0003810 -0.0106250
926525 0.0003673 -0.0101603 0.9996327 0.0101603 0.9996327 0.0101603 0.0003673 -0.0101603
968953 0.0003545 -0.0097158 0.9996455 0.0097158 0.9996455 0.0097158 0.0003545 -0.0097158
1013323 0.0003427 -0.0092904 0.9996573 0.0092904 0.9996573 0.0092904 0.0003427 -0.0092904
1059725 0.0003316 -0.0088835 0.9996684 0.0088835 0.9996684 0.0088835 0.0003316 -0.0088835
1108252 0.0003214 -0.0084940 0.9996786 0.0084940 0.9996786 0.0084940 0.0003214 -0.0084940
1159002 0.0003119 -0.0081214 0.9996881 0.0081214 0.9996881 0.0081214 0.0003119 -0.0081214
1212075 0.0003031 -0.0077649 0.9996969 0.0077649 0.9996969 0.0077649 0.0003031 -0.0077649
1267578 0.0002949 -0.0074237 0.9997051 0.0074237 0.9997051 0.0074237 0.0002949 -0.0074237
1325623 0.0002873 -0.0070972 0.9997127 0.0070972 0.9997127 0.0070972 0.0002873 -0.0070972
1386327 0.0002802 -0.0067847 0.9997198 0.0067847 0.9997198 0.0067847 0.0002802 -0.0067847
1449809 0.0002736 -0.0064857 0.9997264 0.0064857 0.9997264 0.0064857 0.0002736 -0.0064857
1516199 0.0002675 -0.0061995 0.9997325 0.0061995 0.9997325 0.0061995 0.0002675 -0.0061995
1585629 0.0002618 -0.0059255 0.9997382 0.0059255 0.9997382 0.0059255 0.0002618 -0.0059255
1658239 0.0002565 -0.0056633 0.9997435 0.0056633 0.9997435 0.0056633 0.0002565 -0.0056633
1734173 0.0002516 -0.0054123 0.9997484 0.0054123 0.9997484 0.0054123 0.0002516 -0.0054123
1813585 0.0002471 -0.0051721 0.9997529 0.0051721 0.9997529 0.0051721 0.0002471 -0.0051721
1896632 0.0002429 -0.0049420 0.9997571 0.0049420 0.9997571 0.0049420 0.0002429 -0.0049420
1983483 0.0002390 -0.0047218 0.9997610 0.0047218 0.9997610 0.0047218 0.0002390 -0.0047218
2074311 0.0002354 -0.0045110 0.9997646 0.0045110 0.9997646 0.0045110 0.0002354 -0.0045110
