!Murata Part Number: GRM15XB11H152KA86
!These Parameters are Measured in Series Mode Connection
!Data Generated on Mar 30, 2021
!       o--ll--o
!Port1            Port2
!       o------o
!Operation Temp=25[degC], DC Bias Voltage=0[V]
!Freq. Start=100[Hz] Stop=6[GHz] 401[Steps]
# Hz S RI R 50
!Freq.(Hz) S11(Real) S11(Imag) S21(Real) S21(Imag) S12(Real) S12(Imag) S22(Real) S22(Imag)
100 0.9999995 -0.0001024 0.0000005 0.0001024 0.0000005 0.0001024 0.9999995 -0.0001024
105 0.9999994 -0.0001071 0.0000006 0.0001071 0.0000006 0.0001071 0.9999994 -0.0001071
109 0.9999994 -0.0001119 0.0000006 0.0001119 0.0000006 0.0001119 0.9999994 -0.0001119
114 0.9999994 -0.0001170 0.0000006 0.0001170 0.0000006 0.0001170 0.9999994 -0.0001170
120 0.9999994 -0.0001224 0.0000006 0.0001224 0.0000006 0.0001224 0.9999994 -0.0001224
125 0.9999993 -0.0001280 0.0000007 0.0001280 0.0000007 0.0001280 0.9999993 -0.0001280
131 0.9999993 -0.0001338 0.0000007 0.0001338 0.0000007 0.0001338 0.9999993 -0.0001338
137 0.9999993 -0.0001399 0.0000007 0.0001399 0.0000007 0.0001399 0.9999993 -0.0001399
143 0.9999992 -0.0001463 0.0000008 0.0001463 0.0000008 0.0001463 0.9999992 -0.0001463
150 0.9999992 -0.0001530 0.0000008 0.0001530 0.0000008 0.0001530 0.9999992 -0.0001530
156 0.9999992 -0.0001600 0.0000008 0.0001600 0.0000008 0.0001600 0.9999992 -0.0001600
164 0.9999992 -0.0001673 0.0000008 0.0001673 0.0000008 0.0001673 0.9999992 -0.0001673
171 0.9999991 -0.0001749 0.0000009 0.0001749 0.0000009 0.0001749 0.9999991 -0.0001749
179 0.9999991 -0.0001829 0.0000009 0.0001829 0.0000009 0.0001829 0.9999991 -0.0001829
187 0.9999990 -0.0001912 0.0000010 0.0001912 0.0000010 0.0001912 0.9999990 -0.0001912
196 0.9999990 -0.0002000 0.0000010 0.0002000 0.0000010 0.0002000 0.9999990 -0.0002000
205 0.9999989 -0.0002091 0.0000011 0.0002091 0.0000011 0.0002091 0.9999989 -0.0002091
214 0.9999989 -0.0002187 0.0000011 0.0002187 0.0000011 0.0002187 0.9999989 -0.0002187
224 0.9999988 -0.0002286 0.0000012 0.0002286 0.0000012 0.0002286 0.9999988 -0.0002286
234 0.9999988 -0.0002391 0.0000012 0.0002391 0.0000012 0.0002391 0.9999988 -0.0002391
245 0.9999987 -0.0002500 0.0000013 0.0002500 0.0000013 0.0002500 0.9999987 -0.0002500
256 0.9999987 -0.0002614 0.0000013 0.0002614 0.0000013 0.0002614 0.9999987 -0.0002614
268 0.9999986 -0.0002733 0.0000014 0.0002733 0.0000014 0.0002733 0.9999986 -0.0002733
280 0.9999985 -0.0002858 0.0000015 0.0002858 0.0000015 0.0002858 0.9999985 -0.0002858
293 0.9999985 -0.0002989 0.0000015 0.0002989 0.0000015 0.0002989 0.9999985 -0.0002989
306 0.9999984 -0.0003125 0.0000016 0.0003125 0.0000016 0.0003125 0.9999984 -0.0003125
320 0.9999983 -0.0003268 0.0000017 0.0003268 0.0000017 0.0003268 0.9999983 -0.0003268
335 0.9999982 -0.0003417 0.0000018 0.0003417 0.0000018 0.0003417 0.9999982 -0.0003417
350 0.9999981 -0.0003573 0.0000019 0.0003573 0.0000019 0.0003573 0.9999981 -0.0003573
366 0.9999980 -0.0003736 0.0000020 0.0003736 0.0000020 0.0003736 0.9999980 -0.0003736
383 0.9999979 -0.0003906 0.0000021 0.0003906 0.0000021 0.0003906 0.9999979 -0.0003906
401 0.9999978 -0.0004085 0.0000022 0.0004085 0.0000022 0.0004085 0.9999978 -0.0004085
419 0.9999977 -0.0004271 0.0000023 0.0004271 0.0000023 0.0004271 0.9999977 -0.0004271
438 0.9999976 -0.0004466 0.0000024 0.0004466 0.0000024 0.0004466 0.9999976 -0.0004466
458 0.9999975 -0.0004670 0.0000025 0.0004670 0.0000025 0.0004670 0.9999975 -0.0004670
479 0.9999974 -0.0004883 0.0000026 0.0004883 0.0000026 0.0004883 0.9999974 -0.0004883
501 0.9999973 -0.0005106 0.0000027 0.0005106 0.0000027 0.0005106 0.9999973 -0.0005106
524 0.9999971 -0.0005339 0.0000029 0.0005339 0.0000029 0.0005339 0.9999971 -0.0005339
548 0.9999970 -0.0005582 0.0000030 0.0005582 0.0000030 0.0005582 0.9999970 -0.0005582
573 0.9999969 -0.0005837 0.0000031 0.0005837 0.0000031 0.0005837 0.9999969 -0.0005837
600 0.9999967 -0.0006103 0.0000033 0.0006103 0.0000033 0.0006103 0.9999967 -0.0006103
627 0.9999966 -0.0006382 0.0000034 0.0006382 0.0000034 0.0006382 0.9999966 -0.0006382
656 0.9999964 -0.0006673 0.0000036 0.0006673 0.0000036 0.0006673 0.9999964 -0.0006673
686 0.9999962 -0.0006978 0.0000038 0.0006978 0.0000038 0.0006978 0.9999962 -0.0006978
717 0.9999961 -0.0007296 0.0000039 0.0007296 0.0000039 0.0007296 0.9999961 -0.0007296
750 0.9999959 -0.0007629 0.0000041 0.0007629 0.0000041 0.0007629 0.9999959 -0.0007629
784 0.9999957 -0.0007978 0.0000043 0.0007978 0.0000043 0.0007978 0.9999957 -0.0007978
820 0.9999955 -0.0008342 0.0000045 0.0008342 0.0000045 0.0008342 0.9999955 -0.0008342
858 0.9999953 -0.0008723 0.0000047 0.0008723 0.0000047 0.0008723 0.9999953 -0.0008723
897 0.9999950 -0.0009121 0.0000050 0.0009121 0.0000050 0.0009121 0.9999950 -0.0009121
938 0.9999948 -0.0009538 0.0000052 0.0009538 0.0000052 0.0009538 0.9999948 -0.0009538
981 0.9999946 -0.0009973 0.0000054 0.0009973 0.0000054 0.0009973 0.9999946 -0.0009973
1026 0.9999943 -0.0010429 0.0000057 0.0010429 0.0000057 0.0010429 0.9999943 -0.0010429
1073 0.9999940 -0.0010905 0.0000060 0.0010905 0.0000060 0.0010905 0.9999940 -0.0010905
1122 0.9999937 -0.0011403 0.0000063 0.0011403 0.0000063 0.0011403 0.9999937 -0.0011403
1174 0.9999934 -0.0011924 0.0000066 0.0011924 0.0000066 0.0011924 0.9999934 -0.0011924
1227 0.9999930 -0.0012469 0.0000070 0.0012469 0.0000070 0.0012469 0.9999930 -0.0012469
1283 0.9999927 -0.0013039 0.0000073 0.0013039 0.0000073 0.0013039 0.9999927 -0.0013039
1342 0.9999923 -0.0013634 0.0000077 0.0013634 0.0000077 0.0013634 0.9999923 -0.0013634
1404 0.9999918 -0.0014257 0.0000082 0.0014257 0.0000082 0.0014257 0.9999918 -0.0014257
1468 0.9999914 -0.0014909 0.0000086 0.0014909 0.0000086 0.0014909 0.9999914 -0.0014909
1535 0.9999909 -0.0015590 0.0000091 0.0015590 0.0000091 0.0015590 0.9999909 -0.0015590
1606 0.9999903 -0.0016302 0.0000097 0.0016302 0.0000097 0.0016302 0.9999903 -0.0016302
1679 0.9999898 -0.0017047 0.0000102 0.0017047 0.0000102 0.0017047 0.9999898 -0.0017047
1756 0.9999891 -0.0017826 0.0000109 0.0017826 0.0000109 0.0017826 0.9999891 -0.0017826
1836 0.9999885 -0.0018640 0.0000115 0.0018640 0.0000115 0.0018640 0.9999885 -0.0018640
1920 0.9999877 -0.0019492 0.0000123 0.0019492 0.0000123 0.0019492 0.9999877 -0.0019492
2008 0.9999869 -0.0020383 0.0000131 0.0020383 0.0000131 0.0020383 0.9999869 -0.0020383
2100 0.9999861 -0.0021314 0.0000139 0.0021314 0.0000139 0.0021314 0.9999861 -0.0021314
2196 0.9999852 -0.0022287 0.0000148 0.0022287 0.0000148 0.0022287 0.9999852 -0.0022287
2297 0.9999842 -0.0023305 0.0000158 0.0023305 0.0000158 0.0023305 0.9999842 -0.0023305
2402 0.9999831 -0.0024370 0.0000169 0.0024370 0.0000169 0.0024370 0.9999831 -0.0024370
2512 0.9999820 -0.0025483 0.0000180 0.0025483 0.0000180 0.0025483 0.9999820 -0.0025483
2627 0.9999808 -0.0026647 0.0000192 0.0026647 0.0000192 0.0026647 0.9999808 -0.0026647
2748 0.9999795 -0.0027863 0.0000205 0.0027863 0.0000205 0.0027863 0.9999795 -0.0027863
2873 0.9999780 -0.0029136 0.0000220 0.0029136 0.0000220 0.0029136 0.9999780 -0.0029136
3005 0.9999765 -0.0030466 0.0000235 0.0030466 0.0000235 0.0030466 0.9999765 -0.0030466
3143 0.9999749 -0.0031857 0.0000251 0.0031857 0.0000251 0.0031857 0.9999749 -0.0031857
3287 0.9999731 -0.0033311 0.0000269 0.0033311 0.0000269 0.0033311 0.9999731 -0.0033311
3437 0.9999712 -0.0034831 0.0000288 0.0034831 0.0000288 0.0034831 0.9999712 -0.0034831
3594 0.9999692 -0.0036421 0.0000308 0.0036421 0.0000308 0.0036421 0.9999692 -0.0036421
3759 0.9999670 -0.0038083 0.0000330 0.0038083 0.0000330 0.0038083 0.9999670 -0.0038083
3931 0.9999647 -0.0039820 0.0000353 0.0039820 0.0000353 0.0039820 0.9999647 -0.0039820
4111 0.9999622 -0.0041637 0.0000378 0.0041637 0.0000378 0.0041637 0.9999622 -0.0041637
4299 0.9999595 -0.0043537 0.0000405 0.0043537 0.0000405 0.0043537 0.9999595 -0.0043537
4496 0.9999567 -0.0045523 0.0000433 0.0045523 0.0000433 0.0045523 0.9999567 -0.0045523
4702 0.9999536 -0.0047600 0.0000464 0.0047600 0.0000464 0.0047600 0.9999536 -0.0047600
4918 0.9999503 -0.0049771 0.0000497 0.0049771 0.0000497 0.0049771 0.9999503 -0.0049771
5143 0.9999468 -0.0052042 0.0000532 0.0052042 0.0000532 0.0052042 0.9999468 -0.0052042
5378 0.9999431 -0.0054416 0.0000569 0.0054416 0.0000569 0.0054416 0.9999431 -0.0054416
5625 0.9999390 -0.0056898 0.0000610 0.0056898 0.0000610 0.0056898 0.9999390 -0.0056898
5882 0.9999347 -0.0059493 0.0000653 0.0059493 0.0000653 0.0059493 0.9999347 -0.0059493
6151 0.9999300 -0.0062207 0.0000700 0.0062207 0.0000700 0.0062207 0.9999300 -0.0062207
6433 0.9999250 -0.0065045 0.0000750 0.0065045 0.0000750 0.0065045 0.9999250 -0.0065045
6728 0.9999196 -0.0068013 0.0000804 0.0068013 0.0000804 0.0068013 0.9999196 -0.0068013
7036 0.9999138 -0.0071116 0.0000862 0.0071116 0.0000862 0.0071116 0.9999138 -0.0071116
7358 0.9999075 -0.0074360 0.0000925 0.0074360 0.0000925 0.0074360 0.9999075 -0.0074360
7695 0.9999007 -0.0077753 0.0000993 0.0077753 0.0000993 0.0077753 0.9999007 -0.0077753
8047 0.9998934 -0.0081301 0.0001066 0.0081301 0.0001066 0.0081301 0.9998934 -0.0081301
8416 0.9998855 -0.0085011 0.0001145 0.0085011 0.0001145 0.0085011 0.9998855 -0.0085011
8801 0.9998770 -0.0088891 0.0001230 0.0088891 0.0001230 0.0088891 0.9998770 -0.0088891
9204 0.9998677 -0.0092948 0.0001323 0.0092948 0.0001323 0.0092948 0.9998677 -0.0092948
9626 0.9998577 -0.0097190 0.0001423 0.0097190 0.0001423 0.0097190 0.9998577 -0.0097190
10066 0.9998468 -0.0101626 0.0001532 0.0101626 0.0001532 0.0101626 0.9998468 -0.0101626
10527 0.9998350 -0.0106265 0.0001650 0.0106265 0.0001650 0.0106265 0.9998350 -0.0106265
11009 0.9998221 -0.0111116 0.0001779 0.0111116 0.0001779 0.0111116 0.9998221 -0.0111116
11514 0.9998082 -0.0116188 0.0001918 0.0116188 0.0001918 0.0116188 0.9998082 -0.0116188
12041 0.9997930 -0.0121492 0.0002070 0.0121492 0.0002070 0.0121492 0.9997930 -0.0121492
12592 0.9997765 -0.0127038 0.0002235 0.0127038 0.0002235 0.0127038 0.9997765 -0.0127038
13169 0.9997585 -0.0132838 0.0002415 0.0132838 0.0002415 0.0132838 0.9997585 -0.0132838
13772 0.9997390 -0.0138902 0.0002610 0.0138902 0.0002610 0.0138902 0.9997390 -0.0138902
14402 0.9997176 -0.0145243 0.0002824 0.0145243 0.0002824 0.0145243 0.9997176 -0.0145243
15062 0.9996944 -0.0151873 0.0003056 0.0151873 0.0003056 0.0151873 0.9996944 -0.0151873
15752 0.9996692 -0.0158805 0.0003308 0.0158805 0.0003308 0.0158805 0.9996692 -0.0158805
16473 0.9996416 -0.0166053 0.0003584 0.0166053 0.0003584 0.0166053 0.9996416 -0.0166053
17227 0.9996116 -0.0173631 0.0003884 0.0173631 0.0003884 0.0173631 0.9996116 -0.0173631
18016 0.9995789 -0.0181555 0.0004211 0.0181555 0.0004211 0.0181555 0.9995789 -0.0181555
18841 0.9995432 -0.0189839 0.0004568 0.0189839 0.0004568 0.0189839 0.9995432 -0.0189839
19704 0.9995044 -0.0198499 0.0004956 0.0198499 0.0004956 0.0198499 0.9995044 -0.0198499
20606 0.9994620 -0.0207554 0.0005380 0.0207554 0.0005380 0.0207554 0.9994620 -0.0207554
21550 0.9994159 -0.0217020 0.0005841 0.0217020 0.0005841 0.0217020 0.9994159 -0.0217020
22537 0.9993656 -0.0226916 0.0006344 0.0226916 0.0006344 0.0226916 0.9993656 -0.0226916
23569 0.9993108 -0.0237262 0.0006892 0.0237262 0.0006892 0.0237262 0.9993108 -0.0237262
24648 0.9992511 -0.0248076 0.0007489 0.0248076 0.0007489 0.0248076 0.9992511 -0.0248076
25777 0.9991861 -0.0259381 0.0008139 0.0259381 0.0008139 0.0259381 0.9991861 -0.0259381
26957 0.9991153 -0.0271198 0.0008847 0.0271198 0.0008847 0.0271198 0.9991153 -0.0271198
28191 0.9990381 -0.0283551 0.0009619 0.0283551 0.0009619 0.0283551 0.9990381 -0.0283551
29482 0.9989541 -0.0296462 0.0010459 0.0296462 0.0010459 0.0296462 0.9989541 -0.0296462
30832 0.9988626 -0.0309958 0.0011374 0.0309958 0.0011374 0.0309958 0.9988626 -0.0309958
32244 0.9987630 -0.0324063 0.0012370 0.0324063 0.0012370 0.0324063 0.9987630 -0.0324063
33721 0.9986545 -0.0338806 0.0013455 0.0338806 0.0013455 0.0338806 0.9986545 -0.0338806
35265 0.9985364 -0.0354215 0.0014636 0.0354215 0.0014636 0.0354215 0.9985364 -0.0354215
36880 0.9984078 -0.0370318 0.0015922 0.0370318 0.0015922 0.0370318 0.9984078 -0.0370318
38569 0.9982678 -0.0387148 0.0017322 0.0387148 0.0017322 0.0387148 0.9982678 -0.0387148
40335 0.9981154 -0.0404735 0.0018846 0.0404735 0.0018846 0.0404735 0.9981154 -0.0404735
42182 0.9979495 -0.0423115 0.0020505 0.0423115 0.0020505 0.0423115 0.9979495 -0.0423115
44113 0.9977688 -0.0442321 0.0022312 0.0442321 0.0022312 0.0442321 0.9977688 -0.0442321
46134 0.9975720 -0.0462391 0.0024280 0.0462391 0.0024280 0.0462391 0.9975720 -0.0462391
48246 0.9973578 -0.0483362 0.0026422 0.0483362 0.0026422 0.0483362 0.9973578 -0.0483362
50455 0.9971245 -0.0505273 0.0028755 0.0505273 0.0028755 0.0505273 0.9971245 -0.0505273
52766 0.9968703 -0.0528166 0.0031297 0.0528166 0.0031297 0.0528166 0.9968703 -0.0528166
55182 0.9965935 -0.0552083 0.0034065 0.0552083 0.0034065 0.0552083 0.9965935 -0.0552083
57709 0.9962920 -0.0577070 0.0037080 0.0577070 0.0037080 0.0577070 0.9962920 -0.0577070
60352 0.9959635 -0.0603171 0.0040365 0.0603171 0.0040365 0.0603171 0.9959635 -0.0603171
63115 0.9956055 -0.0630434 0.0043945 0.0630434 0.0043945 0.0630434 0.9956055 -0.0630434
66005 0.9952153 -0.0658910 0.0047847 0.0658910 0.0047847 0.0658910 0.9952153 -0.0658910
69028 0.9947901 -0.0688648 0.0052099 0.0688648 0.0052099 0.0688648 0.9947901 -0.0688648
72189 0.9943266 -0.0719702 0.0056734 0.0719702 0.0056734 0.0719702 0.9943266 -0.0719702
75495 0.9938214 -0.0752126 0.0061786 0.0752126 0.0061786 0.0752126 0.9938214 -0.0752126
78952 0.9932705 -0.0785976 0.0067295 0.0785976 0.0067295 0.0785976 0.9932705 -0.0785976
82567 0.9926699 -0.0821310 0.0073301 0.0821310 0.0073301 0.0821310 0.9926699 -0.0821310
86348 0.9920151 -0.0858187 0.0079849 0.0858187 0.0079849 0.0858187 0.9920151 -0.0858187
90302 0.9913012 -0.0896667 0.0086988 0.0896667 0.0086988 0.0896667 0.9913012 -0.0896667
94437 0.9905227 -0.0936813 0.0094773 0.0936813 0.0094773 0.0936813 0.9905227 -0.0936813
98762 0.9896740 -0.0978687 0.0103260 0.0978687 0.0103260 0.0978687 0.9896740 -0.0978687
103284 0.9887486 -0.1022353 0.0112514 0.1022353 0.0112514 0.1022353 0.9887486 -0.1022353
108014 0.9877399 -0.1067876 0.0122601 0.1067876 0.0122601 0.1067876 0.9877399 -0.1067876
112960 0.9866403 -0.1115323 0.0133597 0.1115323 0.0133597 0.1115323 0.9866403 -0.1115323
118133 0.9854419 -0.1164758 0.0145581 0.1164758 0.0145581 0.1164758 0.9854419 -0.1164758
123542 0.9841359 -0.1216247 0.0158641 0.1216247 0.0158641 0.1216247 0.9841359 -0.1216247
129199 0.9827132 -0.1269856 0.0172868 0.1269856 0.0172868 0.1269856 0.9827132 -0.1269856
135116 0.9811634 -0.1325650 0.0188366 0.1325650 0.0188366 0.1325650 0.9811634 -0.1325650
141303 0.9794758 -0.1383691 0.0205242 0.1383691 0.0205242 0.1383691 0.9794758 -0.1383691
147774 0.9776386 -0.1444041 0.0223614 0.1444041 0.0223614 0.1444041 0.9776386 -0.1444041
154540 0.9756391 -0.1506758 0.0243609 0.1506758 0.0243609 0.1506758 0.9756391 -0.1506758
161617 0.9734640 -0.1571899 0.0265360 0.1571899 0.0265360 0.1571899 0.9734640 -0.1571899
169018 0.9710987 -0.1639515 0.0289013 0.1639515 0.0289013 0.1639515 0.9710987 -0.1639515
176758 0.9685277 -0.1709652 0.0314723 0.1709652 0.0314723 0.1709652 0.9685277 -0.1709652
184852 0.9657344 -0.1782351 0.0342656 0.1782351 0.0342656 0.1782351 0.9657344 -0.1782351
193316 0.9627013 -0.1857644 0.0372987 0.1857644 0.0372987 0.1857644 0.9627013 -0.1857644
202169 0.9594096 -0.1935556 0.0405904 0.1935556 0.0405904 0.1935556 0.9594096 -0.1935556
211427 0.9558395 -0.2016102 0.0441605 0.2016102 0.0441605 0.2016102 0.9558395 -0.2016102
221108 0.9519700 -0.2099284 0.0480300 0.2099284 0.0480300 0.2099284 0.9519700 -0.2099284
231233 0.9477792 -0.2185094 0.0522208 0.2185094 0.0522208 0.2185094 0.9477792 -0.2185094
241822 0.9432437 -0.2273506 0.0567563 0.2273506 0.0567563 0.2273506 0.9432437 -0.2273506
252896 0.9383394 -0.2364479 0.0616606 0.2364479 0.0616606 0.2364479 0.9383394 -0.2364479
264476 0.9330411 -0.2457951 0.0669589 0.2457951 0.0669589 0.2457951 0.9330411 -0.2457951
276587 0.9273227 -0.2553843 0.0726773 0.2553843 0.0726773 0.2553843 0.9273227 -0.2553843
289253 0.9211572 -0.2652048 0.0788428 0.2652048 0.0788428 0.2652048 0.9211572 -0.2652048
302498 0.9145171 -0.2752437 0.0854829 0.2752437 0.0854829 0.2752437 0.9145171 -0.2752437
316350 0.9073744 -0.2854851 0.0926256 0.2854851 0.0926256 0.2854851 0.9073744 -0.2854851
330837 0.8997008 -0.2959103 0.1002992 0.2959103 0.1002992 0.2959103 0.8997008 -0.2959103
345986 0.8914681 -0.3064970 0.1085319 0.3064970 0.1085319 0.3064970 0.8914681 -0.3064970
361830 0.8826484 -0.3172199 0.1173516 0.3172199 0.1173516 0.3172199 0.8826484 -0.3172199
378399 0.8732145 -0.3280497 0.1267855 0.3280497 0.1267855 0.3280497 0.8732145 -0.3280497
395726 0.8631404 -0.3389535 0.1368596 0.3389535 0.1368596 0.3389535 0.8631404 -0.3389535
413847 0.8524016 -0.3498942 0.1475984 0.3498942 0.1475984 0.3498942 0.8524016 -0.3498942
432798 0.8409758 -0.3608311 0.1590242 0.3608311 0.1590242 0.3608311 0.8409758 -0.3608311
452617 0.8288431 -0.3717192 0.1711569 0.3717192 0.1711569 0.3717192 0.8288431 -0.3717192
473344 0.8159872 -0.3825097 0.1840128 0.3825097 0.1840128 0.3825097 0.8159872 -0.3825097
495019 0.8023955 -0.3931500 0.1976045 0.3931500 0.1976045 0.3931500 0.8023955 -0.3931500
517687 0.7880600 -0.4035840 0.2119400 0.4035840 0.2119400 0.4035840 0.7880600 -0.4035840
541393 0.7729779 -0.4137526 0.2270221 0.4137526 0.2270221 0.4137526 0.7729779 -0.4137526
566185 0.7571520 -0.4235938 0.2428480 0.4235938 0.2428480 0.4235938 0.7571520 -0.4235938
592111 0.7405919 -0.4330437 0.2594081 0.4330437 0.2594081 0.4330437 0.7405919 -0.4330437
619225 0.7233138 -0.4420374 0.2766862 0.4420374 0.2766862 0.4420374 0.7233138 -0.4420374
647581 0.7053414 -0.4505091 0.2946586 0.4505091 0.2946586 0.4505091 0.7053414 -0.4505091
677235 0.6867058 -0.4583940 0.3132942 0.4583940 0.3132942 0.4583940 0.6867058 -0.4583940
708247 0.6674463 -0.4656285 0.3325537 0.4656285 0.3325537 0.4656285 0.6674463 -0.4656285
740679 0.6476097 -0.4721519 0.3523903 0.4721519 0.3523903 0.4721519 0.6476097 -0.4721519
774597 0.6272505 -0.4779073 0.3727495 0.4779073 0.3727495 0.4779073 0.6272505 -0.4779073
810067 0.6064306 -0.4828429 0.3935694 0.4828429 0.3935694 0.4828429 0.6064306 -0.4828429
847162 0.5852183 -0.4869127 0.4147817 0.4869127 0.4147817 0.4869127 0.5852183 -0.4869127
885955 0.5636878 -0.4900780 0.4363122 0.4900780 0.4363122 0.4900780 0.5636878 -0.4900780
926525 0.5419183 -0.4923080 0.4580817 0.4923080 0.4580817 0.4923080 0.5419183 -0.4923080
968953 0.5199928 -0.4935807 0.4800072 0.4935807 0.4800072 0.4935807 0.5199928 -0.4935807
1013323 0.4979967 -0.4938833 0.5020033 0.4938833 0.5020033 0.4938833 0.4979967 -0.4938833
1059725 0.4760166 -0.4932124 0.5239834 0.4932124 0.5239834 0.4932124 0.4760166 -0.4932124
1108252 0.4541390 -0.4915746 0.5458610 0.4915746 0.5458610 0.4915746 0.4541390 -0.4915746
1159002 0.4324488 -0.4889858 0.5675512 0.4889858 0.5675512 0.4889858 0.4324488 -0.4889858
1212075 0.4110279 -0.4854711 0.5889721 0.4854711 0.5889721 0.4854711 0.4110279 -0.4854711
1267578 0.3899544 -0.4810642 0.6100456 0.4810642 0.6100456 0.4810642 0.3899544 -0.4810642
1325623 0.3693008 -0.4758064 0.6306992 0.4758064 0.6306992 0.4758064 0.3693008 -0.4758064
1386327 0.3491338 -0.4697462 0.6508662 0.4697462 0.6508662 0.4697462 0.3491338 -0.4697462
1449809 0.3295129 -0.4629377 0.6704871 0.4629377 0.6704871 0.4629377 0.3295129 -0.4629377
1516199 0.3104904 -0.4554397 0.6895096 0.4554397 0.6895096 0.4554397 0.3104904 -0.4554397
1585629 0.2921107 -0.4473146 0.7078893 0.4473146 0.7078893 0.4473146 0.2921107 -0.4473146
1658239 0.2744103 -0.4386274 0.7255897 0.4386274 0.7255897 0.4386274 0.2744103 -0.4386274
1734173 0.2574177 -0.4294439 0.7425823 0.4294439 0.7425823 0.4294439 0.2574177 -0.4294439
1813585 0.2411539 -0.4198305 0.7588461 0.4198305 0.7588461 0.4198305 0.2411539 -0.4198305
1896632 0.2256323 -0.4098527 0.7743677 0.4098527 0.7743677 0.4098527 0.2256323 -0.4098527
1983483 0.2108596 -0.3995746 0.7891404 0.3995746 0.7891404 0.3995746 0.2108596 -0.3995746
2074311 0.1968359 -0.3890577 0.8031641 0.3890577 0.8031641 0.3890577 0.1968359 -0.3890577
