!Murata Part Number: GRM155R71H821KA01
!These Parameters are Measured in Series Mode Connection
!Data Generated on Mar 30, 2021
!       o--ll--o
!Port1            Port2
!       o------o
!Operation Temp=25[degC], DC Bias Voltage=0[V]
!Freq. Start=100[Hz] Stop=6[GHz] 401[Steps]
# Hz S RI R 50
!Freq.(Hz) S11(Real) S11(Imag) S21(Real) S21(Imag) S12(Real) S12(Imag) S22(Real) S22(Imag)
100 0.9999997 -0.0000536 0.0000003 0.0000536 0.0000003 0.0000536 0.9999997 -0.0000536
105 0.9999997 -0.0000561 0.0000003 0.0000561 0.0000003 0.0000561 0.9999997 -0.0000561
109 0.9999997 -0.0000586 0.0000003 0.0000586 0.0000003 0.0000586 0.9999997 -0.0000586
114 0.9999997 -0.0000613 0.0000003 0.0000613 0.0000003 0.0000613 0.9999997 -0.0000613
120 0.9999997 -0.0000641 0.0000003 0.0000641 0.0000003 0.0000641 0.9999997 -0.0000641
125 0.9999997 -0.0000670 0.0000003 0.0000670 0.0000003 0.0000670 0.9999997 -0.0000670
131 0.9999996 -0.0000701 0.0000004 0.0000701 0.0000004 0.0000701 0.9999996 -0.0000701
137 0.9999996 -0.0000733 0.0000004 0.0000733 0.0000004 0.0000733 0.9999996 -0.0000733
143 0.9999996 -0.0000766 0.0000004 0.0000766 0.0000004 0.0000766 0.9999996 -0.0000766
150 0.9999996 -0.0000801 0.0000004 0.0000801 0.0000004 0.0000801 0.9999996 -0.0000801
156 0.9999996 -0.0000838 0.0000004 0.0000838 0.0000004 0.0000838 0.9999996 -0.0000838
164 0.9999996 -0.0000876 0.0000004 0.0000876 0.0000004 0.0000876 0.9999996 -0.0000876
171 0.9999995 -0.0000916 0.0000005 0.0000916 0.0000005 0.0000916 0.9999995 -0.0000916
179 0.9999995 -0.0000958 0.0000005 0.0000958 0.0000005 0.0000958 0.9999995 -0.0000958
187 0.9999995 -0.0001002 0.0000005 0.0001002 0.0000005 0.0001002 0.9999995 -0.0001002
196 0.9999995 -0.0001047 0.0000005 0.0001047 0.0000005 0.0001047 0.9999995 -0.0001047
205 0.9999994 -0.0001095 0.0000006 0.0001095 0.0000006 0.0001095 0.9999994 -0.0001095
214 0.9999994 -0.0001145 0.0000006 0.0001145 0.0000006 0.0001145 0.9999994 -0.0001145
224 0.9999994 -0.0001197 0.0000006 0.0001197 0.0000006 0.0001197 0.9999994 -0.0001197
234 0.9999994 -0.0001252 0.0000006 0.0001252 0.0000006 0.0001252 0.9999994 -0.0001252
245 0.9999993 -0.0001309 0.0000007 0.0001309 0.0000007 0.0001309 0.9999993 -0.0001309
256 0.9999993 -0.0001369 0.0000007 0.0001369 0.0000007 0.0001369 0.9999993 -0.0001369
268 0.9999993 -0.0001431 0.0000007 0.0001431 0.0000007 0.0001431 0.9999993 -0.0001431
280 0.9999993 -0.0001497 0.0000007 0.0001497 0.0000007 0.0001497 0.9999993 -0.0001497
293 0.9999992 -0.0001565 0.0000008 0.0001565 0.0000008 0.0001565 0.9999992 -0.0001565
306 0.9999992 -0.0001637 0.0000008 0.0001637 0.0000008 0.0001637 0.9999992 -0.0001637
320 0.9999992 -0.0001711 0.0000008 0.0001711 0.0000008 0.0001711 0.9999992 -0.0001711
335 0.9999991 -0.0001789 0.0000009 0.0001789 0.0000009 0.0001789 0.9999991 -0.0001789
350 0.9999991 -0.0001871 0.0000009 0.0001871 0.0000009 0.0001871 0.9999991 -0.0001871
366 0.9999991 -0.0001957 0.0000009 0.0001957 0.0000009 0.0001957 0.9999991 -0.0001957
383 0.9999990 -0.0002046 0.0000010 0.0002046 0.0000010 0.0002046 0.9999990 -0.0002046
401 0.9999990 -0.0002139 0.0000010 0.0002139 0.0000010 0.0002139 0.9999990 -0.0002139
419 0.9999989 -0.0002237 0.0000011 0.0002237 0.0000011 0.0002237 0.9999989 -0.0002237
438 0.9999989 -0.0002339 0.0000011 0.0002339 0.0000011 0.0002339 0.9999989 -0.0002339
458 0.9999988 -0.0002446 0.0000012 0.0002446 0.0000012 0.0002446 0.9999988 -0.0002446
479 0.9999988 -0.0002558 0.0000012 0.0002558 0.0000012 0.0002558 0.9999988 -0.0002558
501 0.9999987 -0.0002674 0.0000013 0.0002674 0.0000013 0.0002674 0.9999987 -0.0002674
524 0.9999987 -0.0002797 0.0000013 0.0002797 0.0000013 0.0002797 0.9999987 -0.0002797
548 0.9999986 -0.0002924 0.0000014 0.0002924 0.0000014 0.0002924 0.9999986 -0.0002924
573 0.9999986 -0.0003058 0.0000014 0.0003058 0.0000014 0.0003058 0.9999986 -0.0003058
600 0.9999985 -0.0003198 0.0000015 0.0003198 0.0000015 0.0003198 0.9999985 -0.0003198
627 0.9999984 -0.0003344 0.0000016 0.0003344 0.0000016 0.0003344 0.9999984 -0.0003344
656 0.9999983 -0.0003496 0.0000017 0.0003496 0.0000017 0.0003496 0.9999983 -0.0003496
686 0.9999983 -0.0003656 0.0000017 0.0003656 0.0000017 0.0003656 0.9999983 -0.0003656
717 0.9999982 -0.0003823 0.0000018 0.0003823 0.0000018 0.0003823 0.9999982 -0.0003823
750 0.9999981 -0.0003998 0.0000019 0.0003998 0.0000019 0.0003998 0.9999981 -0.0003998
784 0.9999980 -0.0004180 0.0000020 0.0004180 0.0000020 0.0004180 0.9999980 -0.0004180
820 0.9999979 -0.0004371 0.0000021 0.0004371 0.0000021 0.0004371 0.9999979 -0.0004371
858 0.9999978 -0.0004571 0.0000022 0.0004571 0.0000022 0.0004571 0.9999978 -0.0004571
897 0.9999977 -0.0004780 0.0000023 0.0004780 0.0000023 0.0004780 0.9999977 -0.0004780
938 0.9999975 -0.0004998 0.0000025 0.0004998 0.0000025 0.0004998 0.9999975 -0.0004998
981 0.9999974 -0.0005226 0.0000026 0.0005226 0.0000026 0.0005226 0.9999974 -0.0005226
1026 0.9999973 -0.0005465 0.0000027 0.0005465 0.0000027 0.0005465 0.9999973 -0.0005465
1073 0.9999971 -0.0005714 0.0000029 0.0005714 0.0000029 0.0005714 0.9999971 -0.0005714
1122 0.9999970 -0.0005975 0.0000030 0.0005975 0.0000030 0.0005975 0.9999970 -0.0005975
1174 0.9999968 -0.0006248 0.0000032 0.0006248 0.0000032 0.0006248 0.9999968 -0.0006248
1227 0.9999966 -0.0006534 0.0000034 0.0006534 0.0000034 0.0006534 0.9999966 -0.0006534
1283 0.9999964 -0.0006832 0.0000036 0.0006832 0.0000036 0.0006832 0.9999964 -0.0006832
1342 0.9999963 -0.0007144 0.0000037 0.0007144 0.0000037 0.0007144 0.9999963 -0.0007144
1404 0.9999960 -0.0007470 0.0000040 0.0007470 0.0000040 0.0007470 0.9999960 -0.0007470
1468 0.9999958 -0.0007811 0.0000042 0.0007811 0.0000042 0.0007811 0.9999958 -0.0007811
1535 0.9999956 -0.0008167 0.0000044 0.0008167 0.0000044 0.0008167 0.9999956 -0.0008167
1606 0.9999954 -0.0008540 0.0000046 0.0008540 0.0000046 0.0008540 0.9999954 -0.0008540
1679 0.9999951 -0.0008930 0.0000049 0.0008930 0.0000049 0.0008930 0.9999951 -0.0008930
1756 0.9999948 -0.0009337 0.0000052 0.0009337 0.0000052 0.0009337 0.9999948 -0.0009337
1836 0.9999946 -0.0009763 0.0000054 0.0009763 0.0000054 0.0009763 0.9999946 -0.0009763
1920 0.9999943 -0.0010209 0.0000057 0.0010209 0.0000057 0.0010209 0.9999943 -0.0010209
2008 0.9999940 -0.0010675 0.0000060 0.0010675 0.0000060 0.0010675 0.9999940 -0.0010675
2100 0.9999936 -0.0011162 0.0000064 0.0011162 0.0000064 0.0011162 0.9999936 -0.0011162
2196 0.9999933 -0.0011672 0.0000067 0.0011672 0.0000067 0.0011672 0.9999933 -0.0011672
2297 0.9999930 -0.0012204 0.0000070 0.0012204 0.0000070 0.0012204 0.9999930 -0.0012204
2402 0.9999926 -0.0012761 0.0000074 0.0012761 0.0000074 0.0012761 0.9999926 -0.0012761
2512 0.9999922 -0.0013344 0.0000078 0.0013344 0.0000078 0.0013344 0.9999922 -0.0013344
2627 0.9999918 -0.0013953 0.0000082 0.0013953 0.0000082 0.0013953 0.9999918 -0.0013953
2748 0.9999914 -0.0014590 0.0000086 0.0014590 0.0000086 0.0014590 0.9999914 -0.0014590
2873 0.9999909 -0.0015256 0.0000091 0.0015256 0.0000091 0.0015256 0.9999909 -0.0015256
3005 0.9999904 -0.0015952 0.0000096 0.0015952 0.0000096 0.0015952 0.9999904 -0.0015952
3143 0.9999899 -0.0016680 0.0000101 0.0016680 0.0000101 0.0016680 0.9999899 -0.0016680
3287 0.9999894 -0.0017442 0.0000106 0.0017442 0.0000106 0.0017442 0.9999894 -0.0017442
3437 0.9999888 -0.0018239 0.0000112 0.0018239 0.0000112 0.0018239 0.9999888 -0.0018239
3594 0.9999882 -0.0019072 0.0000118 0.0019072 0.0000118 0.0019072 0.9999882 -0.0019072
3759 0.9999875 -0.0019943 0.0000125 0.0019943 0.0000125 0.0019943 0.9999875 -0.0019943
3931 0.9999868 -0.0020854 0.0000132 0.0020854 0.0000132 0.0020854 0.9999868 -0.0020854
4111 0.9999861 -0.0021806 0.0000139 0.0021806 0.0000139 0.0021806 0.9999861 -0.0021806
4299 0.9999853 -0.0022802 0.0000147 0.0022802 0.0000147 0.0022802 0.9999853 -0.0022802
4496 0.9999844 -0.0023844 0.0000156 0.0023844 0.0000156 0.0023844 0.9999844 -0.0023844
4702 0.9999835 -0.0024933 0.0000165 0.0024933 0.0000165 0.0024933 0.9999835 -0.0024933
4918 0.9999825 -0.0026073 0.0000175 0.0026073 0.0000175 0.0026073 0.9999825 -0.0026073
5143 0.9999814 -0.0027264 0.0000186 0.0027264 0.0000186 0.0027264 0.9999814 -0.0027264
5378 0.9999802 -0.0028510 0.0000198 0.0028510 0.0000198 0.0028510 0.9999802 -0.0028510
5625 0.9999789 -0.0029813 0.0000211 0.0029813 0.0000211 0.0029813 0.9999789 -0.0029813
5882 0.9999776 -0.0031175 0.0000224 0.0031175 0.0000224 0.0031175 0.9999776 -0.0031175
6151 0.9999761 -0.0032600 0.0000239 0.0032600 0.0000239 0.0032600 0.9999761 -0.0032600
6433 0.9999745 -0.0034090 0.0000255 0.0034090 0.0000255 0.0034090 0.9999745 -0.0034090
6728 0.9999727 -0.0035648 0.0000273 0.0035648 0.0000273 0.0035648 0.9999727 -0.0035648
7036 0.9999708 -0.0037277 0.0000292 0.0037277 0.0000292 0.0037277 0.9999708 -0.0037277
7358 0.9999687 -0.0038981 0.0000313 0.0038981 0.0000313 0.0038981 0.9999687 -0.0038981
7695 0.9999665 -0.0040762 0.0000335 0.0040762 0.0000335 0.0040762 0.9999665 -0.0040762
8047 0.9999641 -0.0042625 0.0000359 0.0042625 0.0000359 0.0042625 0.9999641 -0.0042625
8416 0.9999614 -0.0044573 0.0000386 0.0044573 0.0000386 0.0044573 0.9999614 -0.0044573
8801 0.9999585 -0.0046610 0.0000415 0.0046610 0.0000415 0.0046610 0.9999585 -0.0046610
9204 0.9999554 -0.0048739 0.0000446 0.0048739 0.0000446 0.0048739 0.9999554 -0.0048739
9626 0.9999520 -0.0050966 0.0000480 0.0050966 0.0000480 0.0050966 0.9999520 -0.0050966
10066 0.9999484 -0.0053295 0.0000516 0.0053295 0.0000516 0.0053295 0.9999484 -0.0053295
10527 0.9999444 -0.0055729 0.0000556 0.0055729 0.0000556 0.0055729 0.9999444 -0.0055729
11009 0.9999400 -0.0058275 0.0000600 0.0058275 0.0000600 0.0058275 0.9999400 -0.0058275
11514 0.9999354 -0.0060936 0.0000646 0.0060936 0.0000646 0.0060936 0.9999354 -0.0060936
12041 0.9999303 -0.0063719 0.0000697 0.0063719 0.0000697 0.0063719 0.9999303 -0.0063719
12592 0.9999248 -0.0066629 0.0000752 0.0066629 0.0000752 0.0066629 0.9999248 -0.0066629
13169 0.9999188 -0.0069671 0.0000812 0.0069671 0.0000812 0.0069671 0.9999188 -0.0069671
13772 0.9999123 -0.0072851 0.0000877 0.0072851 0.0000877 0.0072851 0.9999123 -0.0072851
14402 0.9999053 -0.0076177 0.0000947 0.0076177 0.0000947 0.0076177 0.9999053 -0.0076177
15062 0.9998977 -0.0079653 0.0001023 0.0079653 0.0001023 0.0079653 0.9998977 -0.0079653
15752 0.9998895 -0.0083288 0.0001105 0.0083288 0.0001105 0.0083288 0.9998895 -0.0083288
16473 0.9998806 -0.0087088 0.0001194 0.0087088 0.0001194 0.0087088 0.9998806 -0.0087088
17227 0.9998710 -0.0091062 0.0001290 0.0091062 0.0001290 0.0091062 0.9998710 -0.0091062
18016 0.9998606 -0.0095216 0.0001394 0.0095216 0.0001394 0.0095216 0.9998606 -0.0095216
18841 0.9998494 -0.0099559 0.0001506 0.0099559 0.0001506 0.0099559 0.9998494 -0.0099559
19704 0.9998372 -0.0104100 0.0001628 0.0104100 0.0001628 0.0104100 0.9998372 -0.0104100
20606 0.9998241 -0.0108847 0.0001759 0.0108847 0.0001759 0.0108847 0.9998241 -0.0108847
21550 0.9998099 -0.0113810 0.0001901 0.0113810 0.0001901 0.0113810 0.9998099 -0.0113810
22537 0.9997945 -0.0118999 0.0002055 0.0118999 0.0002055 0.0118999 0.9997945 -0.0118999
23569 0.9997779 -0.0124425 0.0002221 0.0124425 0.0002221 0.0124425 0.9997779 -0.0124425
24648 0.9997599 -0.0130097 0.0002401 0.0130097 0.0002401 0.0130097 0.9997599 -0.0130097
25777 0.9997404 -0.0136028 0.0002596 0.0136028 0.0002596 0.0136028 0.9997404 -0.0136028
26957 0.9997193 -0.0142229 0.0002807 0.0142229 0.0002807 0.0142229 0.9997193 -0.0142229
28191 0.9996965 -0.0148712 0.0003035 0.0148712 0.0003035 0.0148712 0.9996965 -0.0148712
29482 0.9996717 -0.0155491 0.0003283 0.0155491 0.0003283 0.0155491 0.9996717 -0.0155491
30832 0.9996449 -0.0162578 0.0003551 0.0162578 0.0003551 0.0162578 0.9996449 -0.0162578
32244 0.9996158 -0.0169989 0.0003842 0.0169989 0.0003842 0.0169989 0.9996158 -0.0169989
33721 0.9995842 -0.0177737 0.0004158 0.0177737 0.0004158 0.0177737 0.9995842 -0.0177737
35265 0.9995499 -0.0185838 0.0004501 0.0185838 0.0004501 0.0185838 0.9995499 -0.0185838
36880 0.9995126 -0.0194308 0.0004874 0.0194308 0.0004874 0.0194308 0.9995126 -0.0194308
38569 0.9994721 -0.0203164 0.0005279 0.0203164 0.0005279 0.0203164 0.9994721 -0.0203164
40335 0.9994281 -0.0212423 0.0005719 0.0212423 0.0005719 0.0212423 0.9994281 -0.0212423
42182 0.9993802 -0.0222105 0.0006198 0.0222105 0.0006198 0.0222105 0.9993802 -0.0222105
44113 0.9993281 -0.0232227 0.0006719 0.0232227 0.0006719 0.0232227 0.9993281 -0.0232227
46134 0.9992713 -0.0242809 0.0007287 0.0242809 0.0007287 0.0242809 0.9992713 -0.0242809
48246 0.9992095 -0.0253874 0.0007905 0.0253874 0.0007905 0.0253874 0.9992095 -0.0253874
50455 0.9991422 -0.0265441 0.0008578 0.0265441 0.0008578 0.0265441 0.9991422 -0.0265441
52766 0.9990688 -0.0277535 0.0009312 0.0277535 0.0009312 0.0277535 0.9990688 -0.0277535
55182 0.9989888 -0.0290178 0.0010112 0.0290178 0.0010112 0.0290178 0.9989888 -0.0290178
57709 0.9989017 -0.0303394 0.0010983 0.0303394 0.0010983 0.0303394 0.9989017 -0.0303394
60352 0.9988066 -0.0317211 0.0011934 0.0317211 0.0011934 0.0317211 0.9988066 -0.0317211
63115 0.9987029 -0.0331654 0.0012971 0.0331654 0.0012971 0.0331654 0.9987029 -0.0331654
66005 0.9985899 -0.0346751 0.0014101 0.0346751 0.0014101 0.0346751 0.9985899 -0.0346751
69028 0.9984665 -0.0362531 0.0015335 0.0362531 0.0015335 0.0362531 0.9984665 -0.0362531
72189 0.9983320 -0.0379024 0.0016680 0.0379024 0.0016680 0.0379024 0.9983320 -0.0379024
75495 0.9981852 -0.0396262 0.0018148 0.0396262 0.0018148 0.0396262 0.9981852 -0.0396262
78952 0.9980252 -0.0414277 0.0019748 0.0414277 0.0019748 0.0414277 0.9980252 -0.0414277
82567 0.9978505 -0.0433104 0.0021495 0.0433104 0.0021495 0.0433104 0.9978505 -0.0433104
86348 0.9976600 -0.0452777 0.0023400 0.0452777 0.0023400 0.0452777 0.9976600 -0.0452777
90302 0.9974523 -0.0473334 0.0025477 0.0473334 0.0025477 0.0473334 0.9974523 -0.0473334
94437 0.9972256 -0.0494812 0.0027744 0.0494812 0.0027744 0.0494812 0.9972256 -0.0494812
98762 0.9969785 -0.0517252 0.0030215 0.0517252 0.0030215 0.0517252 0.9969785 -0.0517252
103284 0.9967089 -0.0540693 0.0032911 0.0540693 0.0032911 0.0540693 0.9967089 -0.0540693
108014 0.9964150 -0.0565180 0.0035850 0.0565180 0.0035850 0.0565180 0.9964150 -0.0565180
112960 0.9960945 -0.0590757 0.0039055 0.0590757 0.0039055 0.0590757 0.9960945 -0.0590757
118133 0.9957452 -0.0617468 0.0042548 0.0617468 0.0042548 0.0617468 0.9957452 -0.0617468
123542 0.9953643 -0.0645363 0.0046357 0.0645363 0.0046357 0.0645363 0.9953643 -0.0645363
129199 0.9949492 -0.0674490 0.0050508 0.0674490 0.0050508 0.0674490 0.9949492 -0.0674490
135116 0.9944967 -0.0704900 0.0055033 0.0704900 0.0055033 0.0704900 0.9944967 -0.0704900
141303 0.9940037 -0.0736645 0.0059963 0.0736645 0.0059963 0.0736645 0.9940037 -0.0736645
147774 0.9934665 -0.0769781 0.0065335 0.0769781 0.0065335 0.0769781 0.9934665 -0.0769781
154540 0.9928811 -0.0804363 0.0071189 0.0804363 0.0071189 0.0804363 0.9928811 -0.0804363
161617 0.9922435 -0.0840448 0.0077565 0.0840448 0.0077565 0.0840448 0.9922435 -0.0840448
169018 0.9915489 -0.0878096 0.0084511 0.0878096 0.0084511 0.0878096 0.9915489 -0.0878096
176758 0.9907923 -0.0917367 0.0092077 0.0917367 0.0092077 0.0917367 0.9907923 -0.0917367
184852 0.9899683 -0.0958325 0.0100317 0.0958325 0.0100317 0.0958325 0.9899683 -0.0958325
193316 0.9890711 -0.1001031 0.0109289 0.1001031 0.0109289 0.1001031 0.9890711 -0.1001031
202169 0.9880940 -0.1045550 0.0119060 0.1045550 0.0119060 0.1045550 0.9880940 -0.1045550
211427 0.9870302 -0.1091949 0.0129698 0.1091949 0.0129698 0.1091949 0.9870302 -0.1091949
221108 0.9858721 -0.1140293 0.0141279 0.1140293 0.0141279 0.1140293 0.9858721 -0.1140293
231233 0.9846115 -0.1190648 0.0153885 0.1190648 0.0153885 0.1190648 0.9846115 -0.1190648
241822 0.9832395 -0.1243081 0.0167605 0.1243081 0.0167605 0.1243081 0.9832395 -0.1243081
252896 0.9817464 -0.1297659 0.0182536 0.1297659 0.0182536 0.1297659 0.9817464 -0.1297659
264476 0.9801218 -0.1354446 0.0198782 0.1354446 0.0198782 0.1354446 0.9801218 -0.1354446
276587 0.9783545 -0.1413507 0.0216455 0.1413507 0.0216455 0.1413507 0.9783545 -0.1413507
289253 0.9764323 -0.1474902 0.0235677 0.1474902 0.0235677 0.1474902 0.9764323 -0.1474902
302498 0.9743422 -0.1538692 0.0256578 0.1538692 0.0256578 0.1538692 0.9743422 -0.1538692
316350 0.9720702 -0.1604931 0.0279298 0.1604931 0.0279298 0.1604931 0.9720702 -0.1604931
330837 0.9696011 -0.1673671 0.0303989 0.1673671 0.0303989 0.1673671 0.9696011 -0.1673671
345986 0.9669189 -0.1744956 0.0330811 0.1744956 0.0330811 0.1744956 0.9669189 -0.1744956
361830 0.9640062 -0.1818825 0.0359938 0.1818825 0.0359938 0.1818825 0.9640062 -0.1818825
378399 0.9608448 -0.1895308 0.0391552 0.1895308 0.0391552 0.1895308 0.9608448 -0.1895308
395726 0.9574151 -0.1974427 0.0425849 0.1974427 0.0425849 0.1974427 0.9574151 -0.1974427
413847 0.9536965 -0.2056190 0.0463035 0.2056190 0.0463035 0.2056190 0.9536965 -0.2056190
432798 0.9496670 -0.2140596 0.0503330 0.2140596 0.0503330 0.2140596 0.9496670 -0.2140596
452617 0.9453037 -0.2227627 0.0546963 0.2227627 0.0546963 0.2227627 0.9453037 -0.2227627
473344 0.9405826 -0.2317248 0.0594174 0.2317248 0.0594174 0.2317248 0.9405826 -0.2317248
495019 0.9354784 -0.2409407 0.0645216 0.2409407 0.0645216 0.2409407 0.9354784 -0.2409407
517687 0.9299652 -0.2504030 0.0700348 0.2504030 0.0700348 0.2504030 0.9299652 -0.2504030
541393 0.9240159 -0.2601022 0.0759841 0.2601022 0.0759841 0.2601022 0.9240159 -0.2601022
566185 0.9176029 -0.2700259 0.0823971 0.2700259 0.0823971 0.2700259 0.9176029 -0.2700259
592111 0.9106982 -0.2801593 0.0893018 0.2801593 0.0893018 0.2801593 0.9106982 -0.2801593
619225 0.9032733 -0.2904843 0.0967267 0.2904843 0.0967267 0.2904843 0.9032733 -0.2904843
647581 0.8952998 -0.3009796 0.1047002 0.3009796 0.1047002 0.3009796 0.8952998 -0.3009796
677235 0.8867497 -0.3116207 0.1132503 0.3116207 0.1132503 0.3116207 0.8867497 -0.3116207
708247 0.8775953 -0.3223792 0.1224047 0.3223792 0.1224047 0.3223792 0.8775953 -0.3223792
740679 0.8678106 -0.3332231 0.1321894 0.3332231 0.1321894 0.3332231 0.8678106 -0.3332231
774597 0.8573706 -0.3441163 0.1426294 0.3441163 0.1426294 0.3441163 0.8573706 -0.3441163
810067 0.8462526 -0.3550191 0.1537474 0.3550191 0.1537474 0.3550191 0.8462526 -0.3550191
847162 0.8344365 -0.3658875 0.1655635 0.3658875 0.1655635 0.3658875 0.8344365 -0.3658875
885955 0.8219055 -0.3766740 0.1780945 0.3766740 0.1780945 0.3766740 0.8219055 -0.3766740
926525 0.8086463 -0.3873271 0.1913537 0.3873271 0.1913537 0.3873271 0.8086463 -0.3873271
968953 0.7946502 -0.3977921 0.2053498 0.3977921 0.2053498 0.3977921 0.7946502 -0.3977921
1013323 0.7799136 -0.4080112 0.2200864 0.4080112 0.2200864 0.4080112 0.7799136 -0.4080112
1059725 0.7644382 -0.4179240 0.2355618 0.4179240 0.2355618 0.4179240 0.7644382 -0.4179240
1108252 0.7482323 -0.4274683 0.2517677 0.4274683 0.2517677 0.4274683 0.7482323 -0.4274683
1159002 0.7313104 -0.4365803 0.2686896 0.4365803 0.2686896 0.4365803 0.7313104 -0.4365803
1212075 0.7136942 -0.4451960 0.2863058 0.4451960 0.2863058 0.4451960 0.7136942 -0.4451960
1267578 0.6954127 -0.4532518 0.3045873 0.4532518 0.3045873 0.4532518 0.6954127 -0.4532518
1325623 0.6765023 -0.4606854 0.3234977 0.4606854 0.3234977 0.4606854 0.6765023 -0.4606854
1386327 0.6570071 -0.4674369 0.3429929 0.4674369 0.3429929 0.4674369 0.6570071 -0.4674369
1449809 0.6369782 -0.4734499 0.3630218 0.4734499 0.3630218 0.4734499 0.6369782 -0.4734499
1516199 0.6164737 -0.4786725 0.3835263 0.4786725 0.3835263 0.4786725 0.6164737 -0.4786725
1585629 0.5955583 -0.4830585 0.4044417 0.4830585 0.4044417 0.4830585 0.5955583 -0.4830585
1658239 0.5743025 -0.4865680 0.4256975 0.4865680 0.4256975 0.4865680 0.5743025 -0.4865680
1734173 0.5527816 -0.4891686 0.4472184 0.4891686 0.4472184 0.4891686 0.5527816 -0.4891686
1813585 0.5310747 -0.4908357 0.4689253 0.4908357 0.4689253 0.4908357 0.5310747 -0.4908357
1896632 0.5092640 -0.4915537 0.4907360 0.4915537 0.4907360 0.4915537 0.5092640 -0.4915537
1983483 0.4874332 -0.4913156 0.5125668 0.4913156 0.5125668 0.4913156 0.4874332 -0.4913156
2074311 0.4656663 -0.4901238 0.5343337 0.4901238 0.5343337 0.4901238 0.4656663 -0.4901238
