!Murata Part Number: GRM155C80E226ME11
!These Parameters are Measured in Series Mode Connection
!Data Generated on Mar 30, 2021
!       o--ll--o
!Port1            Port2
!       o------o
!Operation Temp=25[degC], DC Bias Voltage=0[V]
!Freq. Start=100[Hz] Stop=6[GHz] 401[Steps]
# Hz S RI R 50
!Freq.(Hz) S11(Real) S11(Imag) S21(Real) S21(Imag) S12(Real) S12(Imag) S22(Real) S22(Imag)
100 0.5604465 -0.4907306 0.4395535 0.4907306 0.4395535 0.4907306 0.5604465 -0.4907306
105 0.5386734 -0.4929228 0.4613266 0.4929228 0.4613266 0.4929228 0.5386734 -0.4929228
109 0.5167470 -0.4941594 0.4832530 0.4941594 0.4832530 0.4941594 0.5167470 -0.4941594
114 0.4947526 -0.4944281 0.5052474 0.4944281 0.5052474 0.4944281 0.4947526 -0.4944281
120 0.4727767 -0.4937262 0.5272233 0.4937262 0.5272233 0.4937262 0.4727767 -0.4937262
125 0.4509053 -0.4920604 0.5490947 0.4920604 0.5490947 0.4920604 0.4509053 -0.4920604
131 0.4292230 -0.4894470 0.5707770 0.4894470 0.5707770 0.4894470 0.4292230 -0.4894470
137 0.4078113 -0.4859114 0.5921887 0.4859114 0.5921887 0.4859114 0.4078113 -0.4859114
143 0.3867475 -0.4814875 0.6132525 0.4814875 0.6132525 0.4814875 0.3867475 -0.4814875
150 0.3661035 -0.4762169 0.6338965 0.4762169 0.6338965 0.4762169 0.3661035 -0.4762169
156 0.3459453 -0.4701478 0.6540547 0.4701478 0.6540547 0.4701478 0.3459453 -0.4701478
164 0.3263319 -0.4633342 0.6736681 0.4633342 0.6736681 0.4633342 0.3263319 -0.4633342
171 0.3073147 -0.4558346 0.6926853 0.4558346 0.6926853 0.4558346 0.3073147 -0.4558346
179 0.2889377 -0.4477110 0.7110623 0.4477110 0.7110623 0.4477110 0.2889377 -0.4477110
187 0.2712367 -0.4390276 0.7287633 0.4390276 0.7287633 0.4390276 0.2712367 -0.4390276
196 0.2542399 -0.4298498 0.7457601 0.4298498 0.7457601 0.4298498 0.2542399 -0.4298498
205 0.2379680 -0.4202432 0.7620320 0.4202432 0.7620320 0.4202432 0.2379680 -0.4202432
214 0.2224341 -0.4102726 0.7775659 0.4102726 0.7775659 0.4102726 0.2224341 -0.4102726
224 0.2076450 -0.4000011 0.7923550 0.4000011 0.7923550 0.4000011 0.2076450 -0.4000011
234 0.1936011 -0.3894895 0.8063989 0.3894895 0.8063989 0.3894895 0.1936011 -0.3894895
245 0.1802971 -0.3787959 0.8197029 0.3787959 0.8197029 0.3787959 0.1802971 -0.3787959
256 0.1677229 -0.3679748 0.8322771 0.3679748 0.8322771 0.3679748 0.1677229 -0.3679748
268 0.1558643 -0.3570772 0.8441357 0.3570772 0.8441357 0.3570772 0.1558643 -0.3570772
280 0.1447030 -0.3461503 0.8552970 0.3461503 0.8552970 0.3461503 0.1447030 -0.3461503
293 0.1342183 -0.3352371 0.8657817 0.3352371 0.8657817 0.3352371 0.1342183 -0.3352371
306 0.1243866 -0.3243767 0.8756134 0.3243767 0.8756134 0.3243767 0.1243866 -0.3243767
320 0.1151827 -0.3136041 0.8848173 0.3136041 0.8848173 0.3136041 0.1151827 -0.3136041
335 0.1065800 -0.3029505 0.8934200 0.3029505 0.8934200 0.3029505 0.1065800 -0.3029505
350 0.0985510 -0.2924433 0.9014490 0.2924433 0.9014490 0.2924433 0.0985510 -0.2924433
366 0.0910678 -0.2821063 0.9089322 0.2821063 0.9089322 0.2821063 0.0910678 -0.2821063
383 0.0841021 -0.2719601 0.9158979 0.2719601 0.9158979 0.2719601 0.0841021 -0.2719601
401 0.0776260 -0.2620220 0.9223740 0.2620220 0.9223740 0.2620220 0.0776260 -0.2620220
419 0.0716117 -0.2523065 0.9283883 0.2523065 0.9283883 0.2523065 0.0716117 -0.2523065
438 0.0660321 -0.2428253 0.9339679 0.2428253 0.9339679 0.2428253 0.0660321 -0.2428253
458 0.0608609 -0.2335878 0.9391391 0.2335878 0.9391391 0.2335878 0.0608609 -0.2335878
479 0.0560725 -0.2246012 0.9439275 0.2246012 0.9439275 0.2246012 0.0560725 -0.2246012
501 0.0516423 -0.2158707 0.9483577 0.2158707 0.9483577 0.2158707 0.0516423 -0.2158707
524 0.0475469 -0.2073997 0.9524531 0.2073997 0.9524531 0.2073997 0.0475469 -0.2073997
548 0.0437635 -0.1991901 0.9562365 0.1991901 0.9562365 0.1991901 0.0437635 -0.1991901
573 0.0402710 -0.1912425 0.9597290 0.1912425 0.9597290 0.1912425 0.0402710 -0.1912425
600 0.0370490 -0.1835559 0.9629510 0.1835559 0.9629510 0.1835559 0.0370490 -0.1835559
627 0.0340782 -0.1761288 0.9659218 0.1761288 0.9659218 0.1761288 0.0340782 -0.1761288
656 0.0313405 -0.1689582 0.9686595 0.1689582 0.9686595 0.1689582 0.0313405 -0.1689582
686 0.0288190 -0.1620409 0.9711810 0.1620409 0.9711810 0.1620409 0.0288190 -0.1620409
717 0.0264976 -0.1553725 0.9735024 0.1553725 0.9735024 0.1553725 0.0264976 -0.1553725
750 0.0243612 -0.1489484 0.9756388 0.1489484 0.9756388 0.1489484 0.0243612 -0.1489484
784 0.0223960 -0.1427633 0.9776040 0.1427633 0.9776040 0.1427633 0.0223960 -0.1427633
820 0.0205887 -0.1368118 0.9794113 0.1368118 0.9794113 0.1368118 0.0205887 -0.1368118
858 0.0189271 -0.1310879 0.9810729 0.1310879 0.9810729 0.1310879 0.0189271 -0.1310879
897 0.0174000 -0.1255855 0.9826000 0.1255855 0.9826000 0.1255855 0.0174000 -0.1255855
938 0.0159966 -0.1202983 0.9840034 0.1202983 0.9840034 0.1202983 0.0159966 -0.1202983
981 0.0147073 -0.1152200 0.9852927 0.1152200 0.9852927 0.1152200 0.0147073 -0.1152200
1026 0.0135229 -0.1103440 0.9864771 0.1103440 0.9864771 0.1103440 0.0135229 -0.1103440
1073 0.0124349 -0.1056640 0.9875651 0.1056640 0.9875651 0.1056640 0.0124349 -0.1056640
1122 0.0114357 -0.1011732 0.9885643 0.1011732 0.9885643 0.1011732 0.0114357 -0.1011732
1174 0.0105179 -0.0968654 0.9894821 0.0968654 0.9894821 0.0968654 0.0105179 -0.0968654
1227 0.0096751 -0.0927340 0.9903249 0.0927340 0.9903249 0.0927340 0.0096751 -0.0927340
1283 0.0089009 -0.0887728 0.9910991 0.0887728 0.9910991 0.0887728 0.0089009 -0.0887728
1342 0.0081898 -0.0849755 0.9918102 0.0849755 0.9918102 0.0849755 0.0081898 -0.0849755
1404 0.0075367 -0.0813360 0.9924633 0.0813360 0.9924633 0.0813360 0.0075367 -0.0813360
1468 0.0069366 -0.0778484 0.9930634 0.0778484 0.9930634 0.0778484 0.0069366 -0.0778484
1535 0.0063853 -0.0745067 0.9936147 0.0745067 0.9936147 0.0745067 0.0063853 -0.0745067
1606 0.0058787 -0.0713054 0.9941213 0.0713054 0.9941213 0.0713054 0.0058787 -0.0713054
1679 0.0054131 -0.0682389 0.9945869 0.0682389 0.9945869 0.0682389 0.0054131 -0.0682389
1756 0.0049852 -0.0653018 0.9950148 0.0653018 0.9950148 0.0653018 0.0049852 -0.0653018
1836 0.0045917 -0.0624889 0.9954083 0.0624889 0.9954083 0.0624889 0.0045917 -0.0624889
1920 0.0042300 -0.0597953 0.9957700 0.0597953 0.9957700 0.0597953 0.0042300 -0.0597953
2008 0.0038974 -0.0572160 0.9961026 0.0572160 0.9961026 0.0572160 0.0038974 -0.0572160
2100 0.0035914 -0.0547464 0.9964086 0.0547464 0.9964086 0.0547464 0.0035914 -0.0547464
2196 0.0033100 -0.0523819 0.9966900 0.0523819 0.9966900 0.0523819 0.0033100 -0.0523819
2297 0.0030511 -0.0501183 0.9969489 0.0501183 0.9969489 0.0501183 0.0030511 -0.0501183
2402 0.0028130 -0.0479512 0.9971870 0.0479512 0.9971870 0.0479512 0.0028130 -0.0479512
2512 0.0025938 -0.0458768 0.9974062 0.0458768 0.9974062 0.0458768 0.0025938 -0.0458768
2627 0.0023922 -0.0438911 0.9976078 0.0438911 0.9976078 0.0438911 0.0023922 -0.0438911
2748 0.0022067 -0.0419904 0.9977933 0.0419904 0.9977933 0.0419904 0.0022067 -0.0419904
2873 0.0020360 -0.0401711 0.9979640 0.0401711 0.9979640 0.0401711 0.0020360 -0.0401711
3005 0.0018790 -0.0384299 0.9981210 0.0384299 0.9981210 0.0384299 0.0018790 -0.0384299
3143 0.0017345 -0.0367634 0.9982655 0.0367634 0.9982655 0.0367634 0.0017345 -0.0367634
3287 0.0016016 -0.0351686 0.9983984 0.0351686 0.9983984 0.0351686 0.0016016 -0.0351686
3437 0.0014793 -0.0336423 0.9985207 0.0336423 0.9985207 0.0336423 0.0014793 -0.0336423
3594 0.0013668 -0.0321817 0.9986332 0.0321817 0.9986332 0.0321817 0.0013668 -0.0321817
3759 0.0012634 -0.0307841 0.9987366 0.0307841 0.9987366 0.0307841 0.0012634 -0.0307841
3931 0.0011682 -0.0294467 0.9988318 0.0294467 0.9988318 0.0294467 0.0011682 -0.0294467
4111 0.0010807 -0.0281670 0.9989193 0.0281670 0.9989193 0.0281670 0.0010807 -0.0281670
4299 0.0010002 -0.0269426 0.9989998 0.0269426 0.9989998 0.0269426 0.0010002 -0.0269426
4496 0.0009262 -0.0257711 0.9990738 0.0257711 0.9990738 0.0257711 0.0009262 -0.0257711
4702 0.0008582 -0.0246503 0.9991418 0.0246503 0.9991418 0.0246503 0.0008582 -0.0246503
4918 0.0007956 -0.0235780 0.9992044 0.0235780 0.9992044 0.0235780 0.0007956 -0.0235780
5143 0.0007381 -0.0225521 0.9992619 0.0225521 0.9992619 0.0225521 0.0007381 -0.0225521
5378 0.0006852 -0.0215708 0.9993148 0.0215708 0.9993148 0.0215708 0.0006852 -0.0215708
5625 0.0006365 -0.0206320 0.9993635 0.0206320 0.9993635 0.0206320 0.0006365 -0.0206320
5882 0.0005917 -0.0197339 0.9994083 0.0197339 0.9994083 0.0197339 0.0005917 -0.0197339
6151 0.0005505 -0.0188749 0.9994495 0.0188749 0.9994495 0.0188749 0.0005505 -0.0188749
6433 0.0005126 -0.0180532 0.9994874 0.0180532 0.9994874 0.0180532 0.0005126 -0.0180532
6728 0.0004777 -0.0172672 0.9995223 0.0172672 0.9995223 0.0172672 0.0004777 -0.0172672
7036 0.0004456 -0.0165155 0.9995544 0.0165155 0.9995544 0.0165155 0.0004456 -0.0165155
7358 0.0004160 -0.0157964 0.9995840 0.0157964 0.9995840 0.0157964 0.0004160 -0.0157964
7695 0.0003887 -0.0151086 0.9996113 0.0151086 0.9996113 0.0151086 0.0003887 -0.0151086
8047 0.0003635 -0.0144508 0.9996365 0.0144508 0.9996365 0.0144508 0.0003635 -0.0144508
8416 0.0003403 -0.0138217 0.9996597 0.0138217 0.9996597 0.0138217 0.0003403 -0.0138217
8801 0.0003188 -0.0132199 0.9996812 0.0132199 0.9996812 0.0132199 0.0003188 -0.0132199
9204 0.0002990 -0.0126444 0.9997010 0.0126444 0.9997010 0.0126444 0.0002990 -0.0126444
9626 0.0002807 -0.0120940 0.9997193 0.0120940 0.9997193 0.0120940 0.0002807 -0.0120940
10066 0.0002637 -0.0115675 0.9997363 0.0115675 0.9997363 0.0115675 0.0002637 -0.0115675
10527 0.0002480 -0.0110640 0.9997520 0.0110640 0.9997520 0.0110640 0.0002480 -0.0110640
11009 0.0002334 -0.0105824 0.9997666 0.0105824 0.9997666 0.0105824 0.0002334 -0.0105824
11514 0.0002199 -0.0101218 0.9997801 0.0101218 0.9997801 0.0101218 0.0002199 -0.0101218
12041 0.0002074 -0.0096813 0.9997926 0.0096813 0.9997926 0.0096813 0.0002074 -0.0096813
12592 0.0001957 -0.0092599 0.9998043 0.0092599 0.9998043 0.0092599 0.0001957 -0.0092599
13169 0.0001849 -0.0088570 0.9998151 0.0088570 0.9998151 0.0088570 0.0001849 -0.0088570
13772 0.0001748 -0.0084715 0.9998252 0.0084715 0.9998252 0.0084715 0.0001748 -0.0084715
14402 0.0001654 -0.0081028 0.9998346 0.0081028 0.9998346 0.0081028 0.0001654 -0.0081028
15062 0.0001567 -0.0077502 0.9998433 0.0077502 0.9998433 0.0077502 0.0001567 -0.0077502
15752 0.0001485 -0.0074129 0.9998515 0.0074129 0.9998515 0.0074129 0.0001485 -0.0074129
16473 0.0001409 -0.0070903 0.9998591 0.0070903 0.9998591 0.0070903 0.0001409 -0.0070903
17227 0.0001338 -0.0067818 0.9998662 0.0067818 0.9998662 0.0067818 0.0001338 -0.0067818
18016 0.0001272 -0.0064866 0.9998728 0.0064866 0.9998728 0.0064866 0.0001272 -0.0064866
18841 0.0001210 -0.0062043 0.9998790 0.0062043 0.9998790 0.0062043 0.0001210 -0.0062043
19704 0.0001152 -0.0059343 0.9998848 0.0059343 0.9998848 0.0059343 0.0001152 -0.0059343
20606 0.0001098 -0.0056760 0.9998902 0.0056760 0.9998902 0.0056760 0.0001098 -0.0056760
21550 0.0001048 -0.0054290 0.9998952 0.0054290 0.9998952 0.0054290 0.0001048 -0.0054290
22537 0.0001001 -0.0051927 0.9998999 0.0051927 0.9998999 0.0051927 0.0001001 -0.0051927
23569 0.0000957 -0.0049667 0.9999043 0.0049667 0.9999043 0.0049667 0.0000957 -0.0049667
24648 0.0000916 -0.0047505 0.9999084 0.0047505 0.9999084 0.0047505 0.0000916 -0.0047505
25777 0.0000877 -0.0045437 0.9999123 0.0045437 0.9999123 0.0045437 0.0000877 -0.0045437
26957 0.0000841 -0.0043459 0.9999159 0.0043459 0.9999159 0.0043459 0.0000841 -0.0043459
28191 0.0000807 -0.0041567 0.9999193 0.0041567 0.9999193 0.0041567 0.0000807 -0.0041567
29482 0.0000776 -0.0039758 0.9999224 0.0039758 0.9999224 0.0039758 0.0000776 -0.0039758
30832 0.0000746 -0.0038027 0.9999254 0.0038027 0.9999254 0.0038027 0.0000746 -0.0038027
32244 0.0000718 -0.0036372 0.9999282 0.0036372 0.9999282 0.0036372 0.0000718 -0.0036372
33721 0.0000692 -0.0034788 0.9999308 0.0034788 0.9999308 0.0034788 0.0000692 -0.0034788
35265 0.0000667 -0.0033274 0.9999333 0.0033274 0.9999333 0.0033274 0.0000667 -0.0033274
36880 0.0000644 -0.0031825 0.9999356 0.0031825 0.9999356 0.0031825 0.0000644 -0.0031825
38569 0.0000622 -0.0030440 0.9999378 0.0030440 0.9999378 0.0030440 0.0000622 -0.0030440
40335 0.0000601 -0.0029115 0.9999399 0.0029115 0.9999399 0.0029115 0.0000601 -0.0029115
42182 0.0000582 -0.0027847 0.9999418 0.0027847 0.9999418 0.0027847 0.0000582 -0.0027847
44113 0.0000563 -0.0026635 0.9999437 0.0026635 0.9999437 0.0026635 0.0000563 -0.0026635
46134 0.0000546 -0.0025475 0.9999454 0.0025475 0.9999454 0.0025475 0.0000546 -0.0025475
48246 0.0000529 -0.0024365 0.9999471 0.0024365 0.9999471 0.0024365 0.0000529 -0.0024365
50455 0.0000513 -0.0023304 0.9999487 0.0023304 0.9999487 0.0023304 0.0000513 -0.0023304
52766 0.0000498 -0.0022289 0.9999502 0.0022289 0.9999502 0.0022289 0.0000498 -0.0022289
55182 0.0000484 -0.0021318 0.9999516 0.0021318 0.9999516 0.0021318 0.0000484 -0.0021318
57709 0.0000471 -0.0020389 0.9999529 0.0020389 0.9999529 0.0020389 0.0000471 -0.0020389
60352 0.0000458 -0.0019500 0.9999542 0.0019500 0.9999542 0.0019500 0.0000458 -0.0019500
63115 0.0000446 -0.0018650 0.9999554 0.0018650 0.9999554 0.0018650 0.0000446 -0.0018650
66005 0.0000434 -0.0017837 0.9999566 0.0017837 0.9999566 0.0017837 0.0000434 -0.0017837
69028 0.0000423 -0.0017059 0.9999577 0.0017059 0.9999577 0.0017059 0.0000423 -0.0017059
72189 0.0000413 -0.0016314 0.9999587 0.0016314 0.9999587 0.0016314 0.0000413 -0.0016314
75495 0.0000403 -0.0015602 0.9999597 0.0015602 0.9999597 0.0015602 0.0000403 -0.0015602
78952 0.0000394 -0.0014921 0.9999606 0.0014921 0.9999606 0.0014921 0.0000394 -0.0014921
82567 0.0000385 -0.0014269 0.9999615 0.0014269 0.9999615 0.0014269 0.0000385 -0.0014269
86348 0.0000376 -0.0013645 0.9999624 0.0013645 0.9999624 0.0013645 0.0000376 -0.0013645
90302 0.0000368 -0.0013048 0.9999632 0.0013048 0.9999632 0.0013048 0.0000368 -0.0013048
94437 0.0000361 -0.0012477 0.9999639 0.0012477 0.9999639 0.0012477 0.0000361 -0.0012477
98762 0.0000354 -0.0011930 0.9999646 0.0011930 0.9999646 0.0011930 0.0000354 -0.0011930
103284 0.0000347 -0.0011407 0.9999653 0.0011407 0.9999653 0.0011407 0.0000347 -0.0011407
108014 0.0000341 -0.0010907 0.9999659 0.0010907 0.9999659 0.0010907 0.0000341 -0.0010907
112960 0.0000335 -0.0010428 0.9999665 0.0010428 0.9999665 0.0010428 0.0000335 -0.0010428
118133 0.0000330 -0.0009970 0.9999670 0.0009970 0.9999670 0.0009970 0.0000330 -0.0009970
123542 0.0000325 -0.0009531 0.9999675 0.0009531 0.9999675 0.0009531 0.0000325 -0.0009531
129199 0.0000320 -0.0009112 0.9999680 0.0009112 0.9999680 0.0009112 0.0000320 -0.0009112
135116 0.0000316 -0.0008710 0.9999684 0.0008710 0.9999684 0.0008710 0.0000316 -0.0008710
141303 0.0000311 -0.0008326 0.9999689 0.0008326 0.9999689 0.0008326 0.0000311 -0.0008326
147774 0.0000308 -0.0007958 0.9999692 0.0007958 0.9999692 0.0007958 0.0000308 -0.0007958
154540 0.0000304 -0.0007606 0.9999696 0.0007606 0.9999696 0.0007606 0.0000304 -0.0007606
161617 0.0000301 -0.0007269 0.9999699 0.0007269 0.9999699 0.0007269 0.0000301 -0.0007269
169018 0.0000298 -0.0006947 0.9999702 0.0006947 0.9999702 0.0006947 0.0000298 -0.0006947
176758 0.0000295 -0.0006638 0.9999705 0.0006638 0.9999705 0.0006638 0.0000295 -0.0006638
184852 0.0000292 -0.0006343 0.9999708 0.0006343 0.9999708 0.0006343 0.0000292 -0.0006343
193316 0.0000290 -0.0006060 0.9999710 0.0006060 0.9999710 0.0006060 0.0000290 -0.0006060
202169 0.0000288 -0.0005790 0.9999712 0.0005790 0.9999712 0.0005790 0.0000288 -0.0005790
211427 0.0000286 -0.0005530 0.9999714 0.0005530 0.9999714 0.0005530 0.0000286 -0.0005530
221108 0.0000284 -0.0005282 0.9999716 0.0005282 0.9999716 0.0005282 0.0000284 -0.0005282
231233 0.0000282 -0.0005045 0.9999718 0.0005045 0.9999718 0.0005045 0.0000282 -0.0005045
241822 0.0000281 -0.0004817 0.9999719 0.0004817 0.9999719 0.0004817 0.0000281 -0.0004817
252896 0.0000279 -0.0004599 0.9999721 0.0004599 0.9999721 0.0004599 0.0000279 -0.0004599
264476 0.0000278 -0.0004390 0.9999722 0.0004390 0.9999722 0.0004390 0.0000278 -0.0004390
276587 0.0000277 -0.0004190 0.9999723 0.0004190 0.9999723 0.0004190 0.0000277 -0.0004190
289253 0.0000276 -0.0003999 0.9999724 0.0003999 0.9999724 0.0003999 0.0000276 -0.0003999
302498 0.0000275 -0.0003815 0.9999725 0.0003815 0.9999725 0.0003815 0.0000275 -0.0003815
316350 0.0000274 -0.0003639 0.9999726 0.0003639 0.9999726 0.0003639 0.0000274 -0.0003639
330837 0.0000274 -0.0003470 0.9999726 0.0003470 0.9999726 0.0003470 0.0000274 -0.0003470
345986 0.0000273 -0.0003309 0.9999727 0.0003309 0.9999727 0.0003309 0.0000273 -0.0003309
361830 0.0000273 -0.0003153 0.9999727 0.0003153 0.9999727 0.0003153 0.0000273 -0.0003153
378399 0.0000272 -0.0003004 0.9999728 0.0003004 0.9999728 0.0003004 0.0000272 -0.0003004
395726 0.0000272 -0.0002862 0.9999728 0.0002862 0.9999728 0.0002862 0.0000272 -0.0002862
413847 0.0000272 -0.0002724 0.9999728 0.0002724 0.9999728 0.0002724 0.0000272 -0.0002724
432798 0.0000272 -0.0002593 0.9999728 0.0002593 0.9999728 0.0002593 0.0000272 -0.0002593
452617 0.0000271 -0.0002466 0.9999729 0.0002466 0.9999729 0.0002466 0.0000271 -0.0002466
473344 0.0000271 -0.0002345 0.9999729 0.0002345 0.9999729 0.0002345 0.0000271 -0.0002345
495019 0.0000272 -0.0002228 0.9999728 0.0002228 0.9999728 0.0002228 0.0000272 -0.0002228
517687 0.0000272 -0.0002115 0.9999728 0.0002115 0.9999728 0.0002115 0.0000272 -0.0002115
541393 0.0000272 -0.0002007 0.9999728 0.0002007 0.9999728 0.0002007 0.0000272 -0.0002007
566185 0.0000272 -0.0001903 0.9999728 0.0001903 0.9999728 0.0001903 0.0000272 -0.0001903
592111 0.0000273 -0.0001802 0.9999727 0.0001802 0.9999727 0.0001802 0.0000273 -0.0001802
619225 0.0000274 -0.0001706 0.9999726 0.0001706 0.9999726 0.0001706 0.0000274 -0.0001706
647581 0.0000274 -0.0001612 0.9999726 0.0001612 0.9999726 0.0001612 0.0000274 -0.0001612
677235 0.0000275 -0.0001522 0.9999725 0.0001522 0.9999725 0.0001522 0.0000275 -0.0001522
708247 0.0000276 -0.0001435 0.9999724 0.0001435 0.9999724 0.0001435 0.0000276 -0.0001435
740679 0.0000277 -0.0001351 0.9999723 0.0001351 0.9999723 0.0001351 0.0000277 -0.0001351
774597 0.0000278 -0.0001269 0.9999722 0.0001269 0.9999722 0.0001269 0.0000278 -0.0001269
810067 0.0000280 -0.0001190 0.9999720 0.0001190 0.9999720 0.0001190 0.0000280 -0.0001190
847162 0.0000281 -0.0001113 0.9999719 0.0001113 0.9999719 0.0001113 0.0000281 -0.0001113
885955 0.0000283 -0.0001039 0.9999717 0.0001039 0.9999717 0.0001039 0.0000283 -0.0001039
926525 0.0000285 -0.0000967 0.9999715 0.0000967 0.9999715 0.0000967 0.0000285 -0.0000967
968953 0.0000287 -0.0000896 0.9999713 0.0000896 0.9999713 0.0000896 0.0000287 -0.0000896
1013323 0.0000289 -0.0000827 0.9999711 0.0000827 0.9999711 0.0000827 0.0000289 -0.0000827
1059725 0.0000292 -0.0000760 0.9999708 0.0000760 0.9999708 0.0000760 0.0000292 -0.0000760
1108252 0.0000295 -0.0000695 0.9999705 0.0000695 0.9999705 0.0000695 0.0000295 -0.0000695
1159002 0.0000298 -0.0000631 0.9999702 0.0000631 0.9999702 0.0000631 0.0000298 -0.0000631
1212075 0.0000301 -0.0000568 0.9999699 0.0000568 0.9999699 0.0000568 0.0000301 -0.0000568
1267578 0.0000306 -0.0000506 0.9999694 0.0000506 0.9999694 0.0000506 0.0000306 -0.0000506
1325623 0.0000310 -0.0000445 0.9999690 0.0000445 0.9999690 0.0000445 0.0000310 -0.0000445
1386327 0.0000315 -0.0000385 0.9999685 0.0000385 0.9999685 0.0000385 0.0000315 -0.0000385
1449809 0.0000321 -0.0000326 0.9999679 0.0000326 0.9999679 0.0000326 0.0000321 -0.0000326
1516199 0.0000327 -0.0000267 0.9999673 0.0000267 0.9999673 0.0000267 0.0000327 -0.0000267
1585629 0.0000334 -0.0000209 0.9999666 0.0000209 0.9999666 0.0000209 0.0000334 -0.0000209
1658239 0.0000342 -0.0000151 0.9999658 0.0000151 0.9999658 0.0000151 0.0000342 -0.0000151
1734173 0.0000352 -0.0000094 0.9999648 0.0000094 0.9999648 0.0000094 0.0000352 -0.0000094
1813585 0.0000362 -0.0000037 0.9999638 0.0000037 0.9999638 0.0000037 0.0000362 -0.0000037
1896632 0.0000374 0.0000020 0.9999626 -0.0000020 0.9999626 -0.0000020 0.0000374 0.0000020
1983483 0.0000387 0.0000077 0.9999613 -0.0000077 0.9999613 -0.0000077 0.0000387 0.0000077
2074311 0.0000402 0.0000133 0.9999598 -0.0000133 0.9999598 -0.0000133 0.0000402 0.0000133
