!Murata Part Number: GRM15XR11E222KA86
!These Parameters are Measured in Series Mode Connection
!Data Generated on Mar 30, 2021
!       o--ll--o
!Port1            Port2
!       o------o
!Operation Temp=25[degC], DC Bias Voltage=0[V]
!Freq. Start=100[Hz] Stop=6[GHz] 401[Steps]
# Hz S RI R 50
!Freq.(Hz) S11(Real) S11(Imag) S21(Real) S21(Imag) S12(Real) S12(Imag) S22(Real) S22(Imag)
100 0.9999993 -0.0001402 0.0000007 0.0001402 0.0000007 0.0001402 0.9999993 -0.0001402
105 0.9999992 -0.0001466 0.0000008 0.0001466 0.0000008 0.0001466 0.9999992 -0.0001466
109 0.9999992 -0.0001533 0.0000008 0.0001533 0.0000008 0.0001533 0.9999992 -0.0001533
114 0.9999992 -0.0001603 0.0000008 0.0001603 0.0000008 0.0001603 0.9999992 -0.0001603
120 0.9999991 -0.0001676 0.0000009 0.0001676 0.0000009 0.0001676 0.9999991 -0.0001676
125 0.9999991 -0.0001752 0.0000009 0.0001752 0.0000009 0.0001752 0.9999991 -0.0001752
131 0.9999990 -0.0001832 0.0000010 0.0001832 0.0000010 0.0001832 0.9999990 -0.0001832
137 0.9999990 -0.0001916 0.0000010 0.0001916 0.0000010 0.0001916 0.9999990 -0.0001916
143 0.9999990 -0.0002003 0.0000010 0.0002003 0.0000010 0.0002003 0.9999990 -0.0002003
150 0.9999989 -0.0002095 0.0000011 0.0002095 0.0000011 0.0002095 0.9999989 -0.0002095
156 0.9999989 -0.0002190 0.0000011 0.0002190 0.0000011 0.0002190 0.9999989 -0.0002190
164 0.9999988 -0.0002290 0.0000012 0.0002290 0.0000012 0.0002290 0.9999988 -0.0002290
171 0.9999988 -0.0002395 0.0000012 0.0002395 0.0000012 0.0002395 0.9999988 -0.0002395
179 0.9999987 -0.0002504 0.0000013 0.0002504 0.0000013 0.0002504 0.9999987 -0.0002504
187 0.9999986 -0.0002618 0.0000014 0.0002618 0.0000014 0.0002618 0.9999986 -0.0002618
196 0.9999986 -0.0002738 0.0000014 0.0002738 0.0000014 0.0002738 0.9999986 -0.0002738
205 0.9999985 -0.0002863 0.0000015 0.0002863 0.0000015 0.0002863 0.9999985 -0.0002863
214 0.9999985 -0.0002994 0.0000015 0.0002994 0.0000015 0.0002994 0.9999985 -0.0002994
224 0.9999984 -0.0003130 0.0000016 0.0003130 0.0000016 0.0003130 0.9999984 -0.0003130
234 0.9999983 -0.0003273 0.0000017 0.0003273 0.0000017 0.0003273 0.9999983 -0.0003273
245 0.9999982 -0.0003422 0.0000018 0.0003422 0.0000018 0.0003422 0.9999982 -0.0003422
256 0.9999982 -0.0003579 0.0000018 0.0003579 0.0000018 0.0003579 0.9999982 -0.0003579
268 0.9999981 -0.0003742 0.0000019 0.0003742 0.0000019 0.0003742 0.9999981 -0.0003742
280 0.9999980 -0.0003913 0.0000020 0.0003913 0.0000020 0.0003913 0.9999980 -0.0003913
293 0.9999979 -0.0004091 0.0000021 0.0004091 0.0000021 0.0004091 0.9999979 -0.0004091
306 0.9999978 -0.0004278 0.0000022 0.0004278 0.0000022 0.0004278 0.9999978 -0.0004278
320 0.9999977 -0.0004473 0.0000023 0.0004473 0.0000023 0.0004473 0.9999977 -0.0004473
335 0.9999976 -0.0004678 0.0000024 0.0004678 0.0000024 0.0004678 0.9999976 -0.0004678
350 0.9999975 -0.0004891 0.0000025 0.0004891 0.0000025 0.0004891 0.9999975 -0.0004891
366 0.9999974 -0.0005114 0.0000026 0.0005114 0.0000026 0.0005114 0.9999974 -0.0005114
383 0.9999973 -0.0005348 0.0000027 0.0005348 0.0000027 0.0005348 0.9999973 -0.0005348
401 0.9999972 -0.0005592 0.0000028 0.0005592 0.0000028 0.0005592 0.9999972 -0.0005592
419 0.9999971 -0.0005848 0.0000029 0.0005848 0.0000029 0.0005848 0.9999971 -0.0005848
438 0.9999969 -0.0006115 0.0000031 0.0006115 0.0000031 0.0006115 0.9999969 -0.0006115
458 0.9999968 -0.0006394 0.0000032 0.0006394 0.0000032 0.0006394 0.9999968 -0.0006394
479 0.9999966 -0.0006686 0.0000034 0.0006686 0.0000034 0.0006686 0.9999966 -0.0006686
501 0.9999965 -0.0006991 0.0000035 0.0006991 0.0000035 0.0006991 0.9999965 -0.0006991
524 0.9999963 -0.0007311 0.0000037 0.0007311 0.0000037 0.0007311 0.9999963 -0.0007311
548 0.9999961 -0.0007645 0.0000039 0.0007645 0.0000039 0.0007645 0.9999961 -0.0007645
573 0.9999960 -0.0007994 0.0000040 0.0007994 0.0000040 0.0007994 0.9999960 -0.0007994
600 0.9999957 -0.0008359 0.0000043 0.0008359 0.0000043 0.0008359 0.9999957 -0.0008359
627 0.9999955 -0.0008741 0.0000045 0.0008741 0.0000045 0.0008741 0.9999955 -0.0008741
656 0.9999953 -0.0009140 0.0000047 0.0009140 0.0000047 0.0009140 0.9999953 -0.0009140
686 0.9999951 -0.0009558 0.0000049 0.0009558 0.0000049 0.0009558 0.9999951 -0.0009558
717 0.9999948 -0.0009995 0.0000052 0.0009995 0.0000052 0.0009995 0.9999948 -0.0009995
750 0.9999945 -0.0010451 0.0000055 0.0010451 0.0000055 0.0010451 0.9999945 -0.0010451
784 0.9999942 -0.0010929 0.0000058 0.0010929 0.0000058 0.0010929 0.9999942 -0.0010929
820 0.9999939 -0.0011428 0.0000061 0.0011428 0.0000061 0.0011428 0.9999939 -0.0011428
858 0.9999935 -0.0011950 0.0000065 0.0011950 0.0000065 0.0011950 0.9999935 -0.0011950
897 0.9999931 -0.0012496 0.0000069 0.0012496 0.0000069 0.0012496 0.9999931 -0.0012496
938 0.9999927 -0.0013067 0.0000073 0.0013067 0.0000073 0.0013067 0.9999927 -0.0013067
981 0.9999923 -0.0013664 0.0000077 0.0013664 0.0000077 0.0013664 0.9999923 -0.0013664
1026 0.9999918 -0.0014288 0.0000082 0.0014288 0.0000082 0.0014288 0.9999918 -0.0014288
1073 0.9999913 -0.0014941 0.0000087 0.0014941 0.0000087 0.0014941 0.9999913 -0.0014941
1122 0.9999908 -0.0015623 0.0000092 0.0015623 0.0000092 0.0015623 0.9999908 -0.0015623
1174 0.9999902 -0.0016337 0.0000098 0.0016337 0.0000098 0.0016337 0.9999902 -0.0016337
1227 0.9999896 -0.0017083 0.0000104 0.0017083 0.0000104 0.0017083 0.9999896 -0.0017083
1283 0.9999889 -0.0017863 0.0000111 0.0017863 0.0000111 0.0017863 0.9999889 -0.0017863
1342 0.9999882 -0.0018679 0.0000118 0.0018679 0.0000118 0.0018679 0.9999882 -0.0018679
1404 0.9999874 -0.0019532 0.0000126 0.0019532 0.0000126 0.0019532 0.9999874 -0.0019532
1468 0.9999866 -0.0020423 0.0000134 0.0020423 0.0000134 0.0020423 0.9999866 -0.0020423
1535 0.9999857 -0.0021355 0.0000143 0.0021355 0.0000143 0.0021355 0.9999857 -0.0021355
1606 0.9999848 -0.0022330 0.0000152 0.0022330 0.0000152 0.0022330 0.9999848 -0.0022330
1679 0.9999838 -0.0023349 0.0000162 0.0023349 0.0000162 0.0023349 0.9999838 -0.0023349
1756 0.9999828 -0.0024415 0.0000172 0.0024415 0.0000172 0.0024415 0.9999828 -0.0024415
1836 0.9999817 -0.0025529 0.0000183 0.0025529 0.0000183 0.0025529 0.9999817 -0.0025529
1920 0.9999805 -0.0026694 0.0000195 0.0026694 0.0000195 0.0026694 0.9999805 -0.0026694
2008 0.9999792 -0.0027913 0.0000208 0.0027913 0.0000208 0.0027913 0.9999792 -0.0027913
2100 0.9999779 -0.0029186 0.0000221 0.0029186 0.0000221 0.0029186 0.9999779 -0.0029186
2196 0.9999765 -0.0030518 0.0000235 0.0030518 0.0000235 0.0030518 0.9999765 -0.0030518
2297 0.9999749 -0.0031911 0.0000251 0.0031911 0.0000251 0.0031911 0.9999749 -0.0031911
2402 0.9999733 -0.0033367 0.0000267 0.0033367 0.0000267 0.0033367 0.9999733 -0.0033367
2512 0.9999716 -0.0034889 0.0000284 0.0034889 0.0000284 0.0034889 0.9999716 -0.0034889
2627 0.9999697 -0.0036481 0.0000303 0.0036481 0.0000303 0.0036481 0.9999697 -0.0036481
2748 0.9999678 -0.0038146 0.0000322 0.0038146 0.0000322 0.0038146 0.9999678 -0.0038146
2873 0.9999656 -0.0039887 0.0000344 0.0039887 0.0000344 0.0039887 0.9999656 -0.0039887
3005 0.9999634 -0.0041708 0.0000366 0.0041708 0.0000366 0.0041708 0.9999634 -0.0041708
3143 0.9999610 -0.0043611 0.0000390 0.0043611 0.0000390 0.0043611 0.9999610 -0.0043611
3287 0.9999584 -0.0045602 0.0000416 0.0045602 0.0000416 0.0045602 0.9999584 -0.0045602
3437 0.9999556 -0.0047684 0.0000444 0.0047684 0.0000444 0.0047684 0.9999556 -0.0047684
3594 0.9999526 -0.0049860 0.0000474 0.0049860 0.0000474 0.0049860 0.9999526 -0.0049860
3759 0.9999493 -0.0052137 0.0000507 0.0052137 0.0000507 0.0052137 0.9999493 -0.0052137
3931 0.9999458 -0.0054517 0.0000542 0.0054517 0.0000542 0.0054517 0.9999458 -0.0054517
4111 0.9999420 -0.0057006 0.0000580 0.0057006 0.0000580 0.0057006 0.9999420 -0.0057006
4299 0.9999380 -0.0059609 0.0000620 0.0059609 0.0000620 0.0059609 0.9999380 -0.0059609
4496 0.9999336 -0.0062332 0.0000664 0.0062332 0.0000664 0.0062332 0.9999336 -0.0062332
4702 0.9999288 -0.0065178 0.0000712 0.0065178 0.0000712 0.0065178 0.9999288 -0.0065178
4918 0.9999236 -0.0068155 0.0000764 0.0068155 0.0000764 0.0068155 0.9999236 -0.0068155
5143 0.9999180 -0.0071268 0.0000820 0.0071268 0.0000820 0.0071268 0.9999180 -0.0071268
5378 0.9999119 -0.0074523 0.0000881 0.0074523 0.0000881 0.0074523 0.9999119 -0.0074523
5625 0.9999052 -0.0077927 0.0000948 0.0077927 0.0000948 0.0077927 0.9999052 -0.0077927
5882 0.9998980 -0.0081487 0.0001020 0.0081487 0.0001020 0.0081487 0.9998980 -0.0081487
6151 0.9998902 -0.0085209 0.0001098 0.0085209 0.0001098 0.0085209 0.9998902 -0.0085209
6433 0.9998817 -0.0089101 0.0001183 0.0089101 0.0001183 0.0089101 0.9998817 -0.0089101
6728 0.9998724 -0.0093171 0.0001276 0.0093171 0.0001276 0.0093171 0.9998724 -0.0093171
7036 0.9998623 -0.0097427 0.0001377 0.0097427 0.0001377 0.0097427 0.9998623 -0.0097427
7358 0.9998513 -0.0101877 0.0001487 0.0101877 0.0001487 0.0101877 0.9998513 -0.0101877
7695 0.9998394 -0.0106530 0.0001606 0.0106530 0.0001606 0.0106530 0.9998394 -0.0106530
8047 0.9998264 -0.0111395 0.0001736 0.0111395 0.0001736 0.0111395 0.9998264 -0.0111395
8416 0.9998122 -0.0116483 0.0001878 0.0116483 0.0001878 0.0116483 0.9998122 -0.0116483
8801 0.9997968 -0.0121802 0.0002032 0.0121802 0.0002032 0.0121802 0.9997968 -0.0121802
9204 0.9997800 -0.0127363 0.0002200 0.0127363 0.0002200 0.0127363 0.9997800 -0.0127363
9626 0.9997617 -0.0133178 0.0002383 0.0133178 0.0002383 0.0133178 0.9997617 -0.0133178
10066 0.9997418 -0.0139258 0.0002582 0.0139258 0.0002582 0.0139258 0.9997418 -0.0139258
10527 0.9997202 -0.0145614 0.0002798 0.0145614 0.0002798 0.0145614 0.9997202 -0.0145614
11009 0.9996966 -0.0152260 0.0003034 0.0152260 0.0003034 0.0152260 0.9996966 -0.0152260
11514 0.9996709 -0.0159208 0.0003291 0.0159208 0.0003291 0.0159208 0.9996709 -0.0159208
12041 0.9996430 -0.0166472 0.0003570 0.0166472 0.0003570 0.0166472 0.9996430 -0.0166472
12592 0.9996127 -0.0174067 0.0003873 0.0174067 0.0003873 0.0174067 0.9996127 -0.0174067
13169 0.9995797 -0.0182006 0.0004203 0.0182006 0.0004203 0.0182006 0.9995797 -0.0182006
13772 0.9995437 -0.0190307 0.0004563 0.0190307 0.0004563 0.0190307 0.9995437 -0.0190307
14402 0.9995047 -0.0198984 0.0004953 0.0198984 0.0004953 0.0198984 0.9995047 -0.0198984
15062 0.9994622 -0.0208056 0.0005378 0.0208056 0.0005378 0.0208056 0.9994622 -0.0208056
15752 0.9994160 -0.0217539 0.0005840 0.0217539 0.0005840 0.0217539 0.9994160 -0.0217539
16473 0.9993658 -0.0227453 0.0006342 0.0227453 0.0006342 0.0227453 0.9993658 -0.0227453
17227 0.9993112 -0.0237816 0.0006888 0.0237816 0.0006888 0.0237816 0.9993112 -0.0237816
18016 0.9992518 -0.0248650 0.0007482 0.0248650 0.0007482 0.0248650 0.9992518 -0.0248650
18841 0.9991872 -0.0259976 0.0008128 0.0259976 0.0008128 0.0259976 0.9991872 -0.0259976
19704 0.9991170 -0.0271815 0.0008830 0.0271815 0.0008830 0.0271815 0.9991170 -0.0271815
20606 0.9990406 -0.0284190 0.0009594 0.0284190 0.0009594 0.0284190 0.9990406 -0.0284190
21550 0.9989575 -0.0297127 0.0010425 0.0297127 0.0010425 0.0297127 0.9989575 -0.0297127
22537 0.9988671 -0.0310650 0.0011329 0.0310650 0.0011329 0.0310650 0.9988671 -0.0310650
23569 0.9987687 -0.0324786 0.0012313 0.0324786 0.0012313 0.0324786 0.9987687 -0.0324786
24648 0.9986617 -0.0339562 0.0013383 0.0339562 0.0013383 0.0339562 0.9986617 -0.0339562
25777 0.9985451 -0.0355007 0.0014549 0.0355007 0.0014549 0.0355007 0.9985451 -0.0355007
26957 0.9984183 -0.0371151 0.0015817 0.0371151 0.0015817 0.0371151 0.9984183 -0.0371151
28191 0.9982801 -0.0388025 0.0017199 0.0388025 0.0017199 0.0388025 0.9982801 -0.0388025
29482 0.9981296 -0.0405662 0.0018704 0.0405662 0.0018704 0.0405662 0.9981296 -0.0405662
30832 0.9979657 -0.0424095 0.0020343 0.0424095 0.0020343 0.0424095 0.9979657 -0.0424095
32244 0.9977870 -0.0443361 0.0022130 0.0443361 0.0022130 0.0443361 0.9977870 -0.0443361
33721 0.9975923 -0.0463495 0.0024077 0.0463495 0.0024077 0.0463495 0.9975923 -0.0463495
35265 0.9973801 -0.0484536 0.0026199 0.0484536 0.0026199 0.0484536 0.9973801 -0.0484536
36880 0.9971486 -0.0506523 0.0028514 0.0506523 0.0028514 0.0506523 0.9971486 -0.0506523
38569 0.9968962 -0.0529499 0.0031038 0.0529499 0.0031038 0.0529499 0.9968962 -0.0529499
40335 0.9966210 -0.0553505 0.0033790 0.0553505 0.0033790 0.0553505 0.9966210 -0.0553505
42182 0.9963207 -0.0578585 0.0036793 0.0578585 0.0036793 0.0578585 0.9963207 -0.0578585
44113 0.9959932 -0.0604787 0.0040068 0.0604787 0.0040068 0.0604787 0.9959932 -0.0604787
46134 0.9956359 -0.0632157 0.0043641 0.0632157 0.0043641 0.0632157 0.9956359 -0.0632157
48246 0.9952460 -0.0660745 0.0047540 0.0660745 0.0047540 0.0660745 0.9952460 -0.0660745
50455 0.9948207 -0.0690601 0.0051793 0.0690601 0.0051793 0.0690601 0.9948207 -0.0690601
52766 0.9943565 -0.0721779 0.0056435 0.0721779 0.0056435 0.0721779 0.9943565 -0.0721779
55182 0.9938502 -0.0754331 0.0061498 0.0754331 0.0061498 0.0754331 0.9938502 -0.0754331
57709 0.9932977 -0.0788315 0.0067023 0.0788315 0.0067023 0.0788315 0.9932977 -0.0788315
60352 0.9926949 -0.0823786 0.0073051 0.0823786 0.0073051 0.0823786 0.9926949 -0.0823786
63115 0.9920373 -0.0860804 0.0079627 0.0860804 0.0079627 0.0860804 0.9920373 -0.0860804
66005 0.9913200 -0.0899430 0.0086800 0.0899430 0.0086800 0.0899430 0.9913200 -0.0899430
69028 0.9905376 -0.0939723 0.0094624 0.0939723 0.0094624 0.0939723 0.9905376 -0.0939723
72189 0.9896844 -0.0981748 0.0103156 0.0981748 0.0103156 0.0981748 0.9896844 -0.0981748
75495 0.9887541 -0.1025567 0.0112459 0.1025567 0.0112459 0.1025567 0.9887541 -0.1025567
78952 0.9877398 -0.1071245 0.0122602 0.1071245 0.0122602 0.1071245 0.9877398 -0.1071245
82567 0.9866343 -0.1118849 0.0133657 0.1118849 0.0133657 0.1118849 0.9866343 -0.1118849
86348 0.9854295 -0.1168442 0.0145705 0.1168442 0.0145705 0.1168442 0.9854295 -0.1168442
90302 0.9841168 -0.1220092 0.0158832 0.1220092 0.0158832 0.1220092 0.9841168 -0.1220092
94437 0.9826870 -0.1273863 0.0173130 0.1273863 0.0173130 0.1273863 0.9826870 -0.1273863
98762 0.9811299 -0.1329821 0.0188701 0.1329821 0.0188701 0.1329821 0.9811299 -0.1329821
103284 0.9794348 -0.1388029 0.0205652 0.1388029 0.0205652 0.1388029 0.9794348 -0.1388029
108014 0.9775900 -0.1448550 0.0224100 0.1448550 0.0224100 0.1448550 0.9775900 -0.1448550
112960 0.9755829 -0.1511442 0.0244171 0.1511442 0.0244171 0.1511442 0.9755829 -0.1511442
118133 0.9734002 -0.1576763 0.0265998 0.1576763 0.0265998 0.1576763 0.9734002 -0.1576763
123542 0.9710272 -0.1644566 0.0289728 0.1644566 0.0289728 0.1644566 0.9710272 -0.1644566
129199 0.9684485 -0.1714899 0.0315515 0.1714899 0.0315515 0.1714899 0.9684485 -0.1714899
135116 0.9656476 -0.1787803 0.0343524 0.1787803 0.0343524 0.1787803 0.9656476 -0.1787803
141303 0.9626068 -0.1863315 0.0373932 0.1863315 0.0373932 0.1863315 0.9626068 -0.1863315
147774 0.9593073 -0.1941460 0.0406927 0.1941460 0.0406927 0.1941460 0.9593073 -0.1941460
154540 0.9557290 -0.2022256 0.0442710 0.2022256 0.0442710 0.2022256 0.9557290 -0.2022256
161617 0.9518509 -0.2105708 0.0481491 0.2105708 0.0481491 0.2105708 0.9518509 -0.2105708
169018 0.9476505 -0.2191809 0.0523495 0.2191809 0.0523495 0.2191809 0.9476505 -0.2191809
176758 0.9431045 -0.2280536 0.0568955 0.2280536 0.0568955 0.2280536 0.9431045 -0.2280536
184852 0.9381880 -0.2371849 0.0618120 0.2371849 0.0618120 0.2371849 0.9381880 -0.2371849
193316 0.9328755 -0.2465687 0.0671245 0.2465687 0.0671245 0.2465687 0.9328755 -0.2465687
202169 0.9271404 -0.2561971 0.0728596 0.2561971 0.0728596 0.2561971 0.9271404 -0.2561971
211427 0.9209550 -0.2660595 0.0790450 0.2660595 0.0790450 0.2660595 0.9209550 -0.2660595
221108 0.9142913 -0.2761427 0.0857087 0.2761427 0.0857087 0.2761427 0.9142913 -0.2761427
231233 0.9071206 -0.2864306 0.0928794 0.2864306 0.0928794 0.2864306 0.9071206 -0.2864306
241822 0.8994139 -0.2969040 0.1005861 0.2969040 0.1005861 0.2969040 0.8994139 -0.2969040
252896 0.8911424 -0.3075402 0.1088576 0.3075402 0.1088576 0.3075402 0.8911424 -0.3075402
264476 0.8822776 -0.3183130 0.1177224 0.3183130 0.1177224 0.3183130 0.8822776 -0.3183130
276587 0.8727919 -0.3291924 0.1272081 0.3291924 0.1272081 0.3291924 0.8727919 -0.3291924
289253 0.8626587 -0.3401443 0.1373413 0.3401443 0.1373413 0.3401443 0.8626587 -0.3401443
302498 0.8518535 -0.3511309 0.1481465 0.3511309 0.1481465 0.3511309 0.8518535 -0.3511309
316350 0.8403538 -0.3621099 0.1596462 0.3621099 0.1596462 0.3621099 0.8403538 -0.3621099
330837 0.8281401 -0.3730351 0.1718599 0.3730351 0.1718599 0.3730351 0.8281401 -0.3730351
345986 0.8151963 -0.3838565 0.1848037 0.3838565 0.1848037 0.3838565 0.8151963 -0.3838565
361830 0.8015106 -0.3945202 0.1984894 0.3945202 0.1984894 0.3945202 0.8015106 -0.3945202
378399 0.7870759 -0.4049688 0.2129241 0.4049688 0.2129241 0.4049688 0.7870759 -0.4049688
395726 0.7718905 -0.4151421 0.2281095 0.4151421 0.2281095 0.4151421 0.7718905 -0.4151421
413847 0.7559588 -0.4249773 0.2440412 0.4249773 0.2440412 0.4249773 0.7559588 -0.4249773
432798 0.7392919 -0.4344101 0.2607081 0.4344101 0.2607081 0.4344101 0.7392919 -0.4344101
452617 0.7219077 -0.4433747 0.2780923 0.4433747 0.2780923 0.4433747 0.7219077 -0.4433747
473344 0.7038319 -0.4518058 0.2961681 0.4518058 0.2961681 0.4518058 0.7038319 -0.4518058
495019 0.6850974 -0.4596386 0.3149026 0.4596386 0.3149026 0.4596386 0.6850974 -0.4596386
517687 0.6657453 -0.4668104 0.3342547 0.4668104 0.3342547 0.4668104 0.6657453 -0.4668104
541393 0.6458242 -0.4732615 0.3541758 0.4732615 0.3541758 0.4732615 0.6458242 -0.4732615
566185 0.6253901 -0.4789364 0.3746099 0.4789364 0.3746099 0.4789364 0.6253901 -0.4789364
592111 0.6045059 -0.4837848 0.3954941 0.4837848 0.3954941 0.4837848 0.6045059 -0.4837848
619225 0.5832408 -0.4877628 0.4167592 0.4877628 0.4167592 0.4877628 0.5832408 -0.4877628
647581 0.5616696 -0.4908337 0.4383304 0.4908337 0.4383304 0.4908337 0.5616696 -0.4908337
677235 0.5398715 -0.4929686 0.4601285 0.4929686 0.4601285 0.4929686 0.5398715 -0.4929686
708247 0.5179290 -0.4941475 0.4820710 0.4941475 0.4820710 0.4941475 0.5179290 -0.4941475
740679 0.4959268 -0.4943596 0.5040732 0.4943596 0.5040732 0.4943596 0.4959268 -0.4943596
774597 0.4739505 -0.4936030 0.5260495 0.4936030 0.5260495 0.4936030 0.4739505 -0.4936030
810067 0.4520851 -0.4918857 0.5479149 0.4918857 0.5479149 0.4918857 0.4520851 -0.4918857
847162 0.4304139 -0.4892246 0.5695861 0.4892246 0.5695861 0.4892246 0.4304139 -0.4892246
885955 0.4090172 -0.4856453 0.5909828 0.4856453 0.5909828 0.4856453 0.4090172 -0.4856453
926525 0.3879711 -0.4811817 0.6120289 0.4811817 0.6120289 0.4811817 0.3879711 -0.4811817
968953 0.3673467 -0.4758751 0.6326533 0.4758751 0.6326533 0.4758751 0.3673467 -0.4758751
1013323 0.3472089 -0.4697734 0.6527911 0.4697734 0.6527911 0.4697734 0.3472089 -0.4697734
1059725 0.3276161 -0.4629300 0.6723839 0.4629300 0.6723839 0.4629300 0.3276161 -0.4629300
1108252 0.3086193 -0.4554026 0.6913807 0.4554026 0.6913807 0.4554026 0.3086193 -0.4554026
1159002 0.2902623 -0.4472525 0.7097377 0.4472525 0.7097377 0.4472525 0.2902623 -0.4472525
1212075 0.2725809 -0.4385431 0.7274191 0.4385431 0.7274191 0.4385431 0.2725809 -0.4385431
1267578 0.2556036 -0.4293394 0.7443964 0.4293394 0.7443964 0.4293394 0.2556036 -0.4293394
1325623 0.2393514 -0.4197064 0.7606486 0.4197064 0.7606486 0.4197064 0.2393514 -0.4197064
1386327 0.2238381 -0.4097084 0.7761619 0.4097084 0.7761619 0.4097084 0.2238381 -0.4097084
1449809 0.2090709 -0.3994086 0.7909291 0.3994086 0.7909291 0.3994086 0.2090709 -0.3994086
1516199 0.1950508 -0.3888677 0.8049492 0.3888677 0.8049492 0.3888677 0.1950508 -0.3888677
1585629 0.1817733 -0.3781440 0.8182267 0.3781440 0.8182267 0.3781440 0.1817733 -0.3781440
1658239 0.1692287 -0.3672925 0.8307713 0.3672925 0.8307713 0.3672925 0.1692287 -0.3672925
1734173 0.1574030 -0.3563647 0.8425970 0.3563647 0.8425970 0.3563647 0.1574030 -0.3563647
1813585 0.1462785 -0.3454083 0.8537215 0.3454083 0.8537215 0.3454083 0.1462785 -0.3454083
1896632 0.1358344 -0.3344670 0.8641656 0.3344670 0.8641656 0.3344670 0.1358344 -0.3344670
1983483 0.1260473 -0.3235806 0.8739527 0.3235806 0.8739527 0.3235806 0.1260473 -0.3235806
2074311 0.1168917 -0.3127849 0.8831083 0.3127849 0.8831083 0.3127849 0.1168917 -0.3127849
