!Murata Part Number: GRM155R60J156ME05
!These Parameters are Measured in Series Mode Connection
!Data Generated on Mar 30, 2021
!       o--ll--o
!Port1            Port2
!       o------o
!Operation Temp=25[degC], DC Bias Voltage=0[V]
!Freq. Start=100[Hz] Stop=6[GHz] 401[Steps]
# Hz S RI R 50
!Freq.(Hz) S11(Real) S11(Imag) S21(Real) S21(Imag) S12(Real) S12(Imag) S22(Real) S22(Imag)
100 0.6918959 -0.4568253 0.3081041 0.4568253 0.3081041 0.4568253 0.6918959 -0.4568253
105 0.6728300 -0.4642171 0.3271700 0.4642171 0.3271700 0.4642171 0.6728300 -0.4642171
109 0.6531849 -0.4709214 0.3468151 0.4709214 0.3468151 0.4709214 0.6531849 -0.4709214
114 0.6330120 -0.4768826 0.3669880 0.4768826 0.3669880 0.4768826 0.6330120 -0.4768826
120 0.6123696 -0.4820500 0.3876304 0.4820500 0.3876304 0.4820500 0.6123696 -0.4820500
125 0.5913223 -0.4863781 0.4086777 0.4863781 0.4086777 0.4863781 0.5913223 -0.4863781
131 0.5699401 -0.4898279 0.4300599 0.4898279 0.4300599 0.4898279 0.5699401 -0.4898279
137 0.5482980 -0.4923676 0.4517020 0.4923676 0.4517020 0.4923676 0.5482980 -0.4923676
143 0.5264747 -0.4939735 0.4735253 0.4939735 0.4735253 0.4939735 0.5264747 -0.4939735
150 0.5045516 -0.4946302 0.4954484 0.4946302 0.4954484 0.4946302 0.5045516 -0.4946302
156 0.4826118 -0.4943311 0.5173882 0.4943311 0.5173882 0.4943311 0.4826118 -0.4943311
164 0.4607386 -0.4930787 0.5392614 0.4930787 0.5392614 0.4930787 0.4607386 -0.4930787
171 0.4390144 -0.4908843 0.5609856 0.4908843 0.5609856 0.4908843 0.4390144 -0.4908843
179 0.4175195 -0.4877679 0.5824805 0.4877679 0.5824805 0.4877679 0.4175195 -0.4877679
187 0.3963311 -0.4837579 0.6036689 0.4837579 0.6036689 0.4837579 0.3963311 -0.4837579
196 0.3755219 -0.4788904 0.6244781 0.4788904 0.6244781 0.4788904 0.3755219 -0.4788904
205 0.3551594 -0.4732084 0.6448406 0.4732084 0.6448406 0.4732084 0.3551594 -0.4732084
214 0.3353052 -0.4667608 0.6646948 0.4667608 0.6646948 0.4667608 0.3353052 -0.4667608
224 0.3160141 -0.4596019 0.6839859 0.4596019 0.6839859 0.4596019 0.3160141 -0.4596019
234 0.2973338 -0.4517899 0.7026662 0.4517899 0.7026662 0.4517899 0.2973338 -0.4517899
245 0.2793047 -0.4433860 0.7206953 0.4433860 0.7206953 0.4433860 0.2793047 -0.4433860
256 0.2619597 -0.4344534 0.7380403 0.4344534 0.7380403 0.4344534 0.2619597 -0.4344534
268 0.2453242 -0.4250563 0.7546758 0.4250563 0.7546758 0.4250563 0.2453242 -0.4250563
280 0.2294165 -0.4152590 0.7705835 0.4152590 0.7705835 0.4152590 0.2294165 -0.4152590
293 0.2142479 -0.4051247 0.7857521 0.4051247 0.7857521 0.4051247 0.2142479 -0.4051247
306 0.1998234 -0.3947152 0.8001766 0.3947152 0.8001766 0.3947152 0.1998234 -0.3947152
320 0.1861418 -0.3840900 0.8138582 0.3840900 0.8138582 0.3840900 0.1861418 -0.3840900
335 0.1731967 -0.3733057 0.8268033 0.3733057 0.8268033 0.3733057 0.1731967 -0.3733057
350 0.1609769 -0.3624156 0.8390231 0.3624156 0.8390231 0.3624156 0.1609769 -0.3624156
366 0.1494671 -0.3514696 0.8505329 0.3514696 0.8505329 0.3514696 0.1494671 -0.3514696
383 0.1386485 -0.3405136 0.8613515 0.3405136 0.8613515 0.3405136 0.1386485 -0.3405136
401 0.1284992 -0.3295897 0.8715008 0.3295897 0.8715008 0.3295897 0.1284992 -0.3295897
419 0.1189952 -0.3187357 0.8810048 0.3187357 0.8810048 0.3187357 0.1189952 -0.3187357
438 0.1101105 -0.3079859 0.8898895 0.3079859 0.8898895 0.3079859 0.1101105 -0.3079859
458 0.1018178 -0.2973704 0.8981822 0.2973704 0.8981822 0.2973704 0.1018178 -0.2973704
479 0.0940890 -0.2869156 0.9059110 0.2869156 0.9059110 0.2869156 0.0940890 -0.2869156
501 0.0868957 -0.2766443 0.9131043 0.2766443 0.9131043 0.2766443 0.0868957 -0.2766443
524 0.0802090 -0.2665760 0.9197910 0.2665760 0.9197910 0.2665760 0.0802090 -0.2665760
548 0.0740005 -0.2567270 0.9259995 0.2567270 0.9259995 0.2567270 0.0740005 -0.2567270
573 0.0682421 -0.2471108 0.9317579 0.2471108 0.9317579 0.2471108 0.0682421 -0.2471108
600 0.0629063 -0.2377380 0.9370937 0.2377380 0.9370937 0.2377380 0.0629063 -0.2377380
627 0.0579665 -0.2286169 0.9420335 0.2286169 0.9420335 0.2286169 0.0579665 -0.2286169
656 0.0533970 -0.2197536 0.9466030 0.2197536 0.9466030 0.2197536 0.0533970 -0.2197536
686 0.0491732 -0.2111522 0.9508268 0.2111522 0.9508268 0.2111522 0.0491732 -0.2111522
717 0.0452714 -0.2028150 0.9547286 0.2028150 0.9547286 0.2028150 0.0452714 -0.2028150
750 0.0416692 -0.1947429 0.9583308 0.1947429 0.9583308 0.1947429 0.0416692 -0.1947429
784 0.0383455 -0.1869354 0.9616545 0.1869354 0.9616545 0.1869354 0.0383455 -0.1869354
820 0.0352802 -0.1793906 0.9647198 0.1793906 0.9647198 0.1793906 0.0352802 -0.1793906
858 0.0324544 -0.1721060 0.9675456 0.1721060 0.9675456 0.1721060 0.0324544 -0.1721060
897 0.0298505 -0.1650779 0.9701495 0.1650779 0.9701495 0.1650779 0.0298505 -0.1650779
938 0.0274519 -0.1583020 0.9725481 0.1583020 0.9725481 0.1583020 0.0274519 -0.1583020
981 0.0252430 -0.1517735 0.9747570 0.1517735 0.9747570 0.1517735 0.0252430 -0.1517735
1026 0.0232095 -0.1454870 0.9767905 0.1454870 0.9767905 0.1454870 0.0232095 -0.1454870
1073 0.0213380 -0.1394368 0.9786620 0.1394368 0.9786620 0.1394368 0.0213380 -0.1394368
1122 0.0196159 -0.1336169 0.9803841 0.1336169 0.9803841 0.1336169 0.0196159 -0.1336169
1174 0.0180317 -0.1280209 0.9819683 0.1280209 0.9819683 0.1280209 0.0180317 -0.1280209
1227 0.0165747 -0.1226424 0.9834253 0.1226424 0.9834253 0.1226424 0.0165747 -0.1226424
1283 0.0152349 -0.1174750 0.9847651 0.1174750 0.9847651 0.1174750 0.0152349 -0.1174750
1342 0.0140031 -0.1125121 0.9859969 0.1125121 0.9859969 0.1125121 0.0140031 -0.1125121
1404 0.0128709 -0.1077471 0.9871291 0.1077471 0.9871291 0.1077471 0.0128709 -0.1077471
1468 0.0118303 -0.1031734 0.9881697 0.1031734 0.9881697 0.1031734 0.0118303 -0.1031734
1535 0.0108741 -0.0987847 0.9891259 0.0987847 0.9891259 0.0987847 0.0108741 -0.0987847
1606 0.0099956 -0.0945744 0.9900044 0.0945744 0.9900044 0.0945744 0.0099956 -0.0945744
1679 0.0091887 -0.0905362 0.9908113 0.0905362 0.9908113 0.0905362 0.0091887 -0.0905362
1756 0.0084475 -0.0866641 0.9915525 0.0866641 0.9915525 0.0866641 0.0084475 -0.0866641
1836 0.0077669 -0.0829518 0.9922331 0.0829518 0.9922331 0.0829518 0.0077669 -0.0829518
1920 0.0071419 -0.0793935 0.9928581 0.0793935 0.9928581 0.0793935 0.0071419 -0.0793935
2008 0.0065681 -0.0759834 0.9934319 0.0759834 0.9934319 0.0759834 0.0065681 -0.0759834
2100 0.0060414 -0.0727159 0.9939586 0.0727159 0.9939586 0.0727159 0.0060414 -0.0727159
2196 0.0055579 -0.0695854 0.9944421 0.0695854 0.9944421 0.0695854 0.0055579 -0.0695854
2297 0.0051142 -0.0665867 0.9948858 0.0665867 0.9948858 0.0665867 0.0051142 -0.0665867
2402 0.0047069 -0.0637146 0.9952931 0.0637146 0.9952931 0.0637146 0.0047069 -0.0637146
2512 0.0043331 -0.0609640 0.9956669 0.0609640 0.9956669 0.0609640 0.0043331 -0.0609640
2627 0.0039901 -0.0583303 0.9960099 0.0583303 0.9960099 0.0583303 0.0039901 -0.0583303
2748 0.0036753 -0.0558086 0.9963247 0.0558086 0.9963247 0.0558086 0.0036753 -0.0558086
2873 0.0033864 -0.0533944 0.9966136 0.0533944 0.9966136 0.0533944 0.0033864 -0.0533944
3005 0.0031212 -0.0510833 0.9968788 0.0510833 0.9968788 0.0510833 0.0031212 -0.0510833
3143 0.0028778 -0.0488713 0.9971222 0.0488713 0.9971222 0.0488713 0.0028778 -0.0488713
3287 0.0026543 -0.0467540 0.9973457 0.0467540 0.9973457 0.0467540 0.0026543 -0.0467540
3437 0.0024491 -0.0447277 0.9975509 0.0447277 0.9975509 0.0447277 0.0024491 -0.0447277
3594 0.0022607 -0.0427886 0.9977393 0.0427886 0.9977393 0.0427886 0.0022607 -0.0427886
3759 0.0020876 -0.0409329 0.9979124 0.0409329 0.9979124 0.0409329 0.0020876 -0.0409329
3931 0.0019285 -0.0391572 0.9980715 0.0391572 0.9980715 0.0391572 0.0019285 -0.0391572
4111 0.0017824 -0.0374582 0.9982176 0.0374582 0.9982176 0.0374582 0.0017824 -0.0374582
4299 0.0016480 -0.0358325 0.9983520 0.0358325 0.9983520 0.0358325 0.0016480 -0.0358325
4496 0.0015244 -0.0342771 0.9984756 0.0342771 0.9984756 0.0342771 0.0015244 -0.0342771
4702 0.0014108 -0.0327889 0.9985892 0.0327889 0.9985892 0.0327889 0.0014108 -0.0327889
4918 0.0013061 -0.0313651 0.9986939 0.0313651 0.9986939 0.0313651 0.0013061 -0.0313651
5143 0.0012098 -0.0300030 0.9987902 0.0300030 0.9987902 0.0300030 0.0012098 -0.0300030
5378 0.0011212 -0.0286998 0.9988788 0.0286998 0.9988788 0.0286998 0.0011212 -0.0286998
5625 0.0010395 -0.0274531 0.9989605 0.0274531 0.9989605 0.0274531 0.0010395 -0.0274531
5882 0.0009642 -0.0262603 0.9990358 0.0262603 0.9990358 0.0262603 0.0009642 -0.0262603
6151 0.0008948 -0.0251193 0.9991052 0.0251193 0.9991052 0.0251193 0.0008948 -0.0251193
6433 0.0008307 -0.0240277 0.9991693 0.0240277 0.9991693 0.0240277 0.0008307 -0.0240277
6728 0.0007717 -0.0229833 0.9992283 0.0229833 0.9992283 0.0229833 0.0007717 -0.0229833
7036 0.0007172 -0.0219843 0.9992828 0.0219843 0.9992828 0.0219843 0.0007172 -0.0219843
7358 0.0006670 -0.0210285 0.9993330 0.0210285 0.9993330 0.0210285 0.0006670 -0.0210285
7695 0.0006206 -0.0201142 0.9993794 0.0201142 0.9993794 0.0201142 0.0006206 -0.0201142
8047 0.0005777 -0.0192395 0.9994223 0.0192395 0.9994223 0.0192395 0.0005777 -0.0192395
8416 0.0005382 -0.0184027 0.9994618 0.0184027 0.9994618 0.0184027 0.0005382 -0.0184027
8801 0.0005016 -0.0176022 0.9994984 0.0176022 0.9994984 0.0176022 0.0005016 -0.0176022
9204 0.0004679 -0.0168364 0.9995321 0.0168364 0.9995321 0.0168364 0.0004679 -0.0168364
9626 0.0004368 -0.0161039 0.9995632 0.0161039 0.9995632 0.0161039 0.0004368 -0.0161039
10066 0.0004080 -0.0154031 0.9995920 0.0154031 0.9995920 0.0154031 0.0004080 -0.0154031
10527 0.0003814 -0.0147327 0.9996186 0.0147327 0.9996186 0.0147327 0.0003814 -0.0147327
11009 0.0003569 -0.0140914 0.9996431 0.0140914 0.9996431 0.0140914 0.0003569 -0.0140914
11514 0.0003343 -0.0134780 0.9996657 0.0134780 0.9996657 0.0134780 0.0003343 -0.0134780
12041 0.0003133 -0.0128912 0.9996867 0.0128912 0.9996867 0.0128912 0.0003133 -0.0128912
12592 0.0002940 -0.0123299 0.9997060 0.0123299 0.9997060 0.0123299 0.0002940 -0.0123299
13169 0.0002762 -0.0117930 0.9997238 0.0117930 0.9997238 0.0117930 0.0002762 -0.0117930
13772 0.0002597 -0.0112795 0.9997403 0.0112795 0.9997403 0.0112795 0.0002597 -0.0112795
14402 0.0002444 -0.0107882 0.9997556 0.0107882 0.9997556 0.0107882 0.0002444 -0.0107882
15062 0.0002303 -0.0103184 0.9997697 0.0103184 0.9997697 0.0103184 0.0002303 -0.0103184
15752 0.0002173 -0.0098690 0.9997827 0.0098690 0.9997827 0.0098690 0.0002173 -0.0098690
16473 0.0002053 -0.0094391 0.9997947 0.0094391 0.9997947 0.0094391 0.0002053 -0.0094391
17227 0.0001941 -0.0090280 0.9998059 0.0090280 0.9998059 0.0090280 0.0001941 -0.0090280
18016 0.0001838 -0.0086348 0.9998162 0.0086348 0.9998162 0.0086348 0.0001838 -0.0086348
18841 0.0001742 -0.0082587 0.9998258 0.0082587 0.9998258 0.0082587 0.0001742 -0.0082587
19704 0.0001654 -0.0078991 0.9998346 0.0078991 0.9998346 0.0078991 0.0001654 -0.0078991
20606 0.0001571 -0.0075550 0.9998429 0.0075550 0.9998429 0.0075550 0.0001571 -0.0075550
21550 0.0001495 -0.0072260 0.9998505 0.0072260 0.9998505 0.0072260 0.0001495 -0.0072260
22537 0.0001424 -0.0069113 0.9998576 0.0069113 0.9998576 0.0069113 0.0001424 -0.0069113
23569 0.0001358 -0.0066104 0.9998642 0.0066104 0.9998642 0.0066104 0.0001358 -0.0066104
24648 0.0001296 -0.0063225 0.9998704 0.0063225 0.9998704 0.0063225 0.0001296 -0.0063225
25777 0.0001239 -0.0060472 0.9998761 0.0060472 0.9998761 0.0060472 0.0001239 -0.0060472
26957 0.0001185 -0.0057840 0.9998815 0.0057840 0.9998815 0.0057840 0.0001185 -0.0057840
28191 0.0001135 -0.0055321 0.9998865 0.0055321 0.9998865 0.0055321 0.0001135 -0.0055321
29482 0.0001088 -0.0052913 0.9998912 0.0052913 0.9998912 0.0052913 0.0001088 -0.0052913
30832 0.0001044 -0.0050609 0.9998956 0.0050609 0.9998956 0.0050609 0.0001044 -0.0050609
32244 0.0001003 -0.0048406 0.9998997 0.0048406 0.9998997 0.0048406 0.0001003 -0.0048406
33721 0.0000964 -0.0046298 0.9999036 0.0046298 0.9999036 0.0046298 0.0000964 -0.0046298
35265 0.0000928 -0.0044283 0.9999072 0.0044283 0.9999072 0.0044283 0.0000928 -0.0044283
36880 0.0000894 -0.0042355 0.9999106 0.0042355 0.9999106 0.0042355 0.0000894 -0.0042355
38569 0.0000862 -0.0040511 0.9999138 0.0040511 0.9999138 0.0040511 0.0000862 -0.0040511
40335 0.0000832 -0.0038747 0.9999168 0.0038747 0.9999168 0.0038747 0.0000832 -0.0038747
42182 0.0000803 -0.0037060 0.9999197 0.0037060 0.9999197 0.0037060 0.0000803 -0.0037060
44113 0.0000777 -0.0035446 0.9999223 0.0035446 0.9999223 0.0035446 0.0000777 -0.0035446
46134 0.0000751 -0.0033902 0.9999249 0.0033902 0.9999249 0.0033902 0.0000751 -0.0033902
48246 0.0000728 -0.0032425 0.9999272 0.0032425 0.9999272 0.0032425 0.0000728 -0.0032425
50455 0.0000706 -0.0031013 0.9999294 0.0031013 0.9999294 0.0031013 0.0000706 -0.0031013
52766 0.0000685 -0.0029661 0.9999315 0.0029661 0.9999315 0.0029661 0.0000685 -0.0029661
55182 0.0000665 -0.0028369 0.9999335 0.0028369 0.9999335 0.0028369 0.0000665 -0.0028369
57709 0.0000646 -0.0027132 0.9999354 0.0027132 0.9999354 0.0027132 0.0000646 -0.0027132
60352 0.0000629 -0.0025950 0.9999371 0.0025950 0.9999371 0.0025950 0.0000629 -0.0025950
63115 0.0000612 -0.0024818 0.9999388 0.0024818 0.9999388 0.0024818 0.0000612 -0.0024818
66005 0.0000597 -0.0023736 0.9999403 0.0023736 0.9999403 0.0023736 0.0000597 -0.0023736
69028 0.0000583 -0.0022701 0.9999417 0.0022701 0.9999417 0.0022701 0.0000583 -0.0022701
72189 0.0000569 -0.0021711 0.9999431 0.0021711 0.9999431 0.0021711 0.0000569 -0.0021711
75495 0.0000556 -0.0020764 0.9999444 0.0020764 0.9999444 0.0020764 0.0000556 -0.0020764
78952 0.0000544 -0.0019857 0.9999456 0.0019857 0.9999456 0.0019857 0.0000544 -0.0019857
82567 0.0000533 -0.0018991 0.9999467 0.0018991 0.9999467 0.0018991 0.0000533 -0.0018991
86348 0.0000522 -0.0018162 0.9999478 0.0018162 0.9999478 0.0018162 0.0000522 -0.0018162
90302 0.0000512 -0.0017369 0.9999488 0.0017369 0.9999488 0.0017369 0.0000512 -0.0017369
94437 0.0000502 -0.0016610 0.9999498 0.0016610 0.9999498 0.0016610 0.0000502 -0.0016610
98762 0.0000493 -0.0015884 0.9999507 0.0015884 0.9999507 0.0015884 0.0000493 -0.0015884
103284 0.0000485 -0.0015190 0.9999515 0.0015190 0.9999515 0.0015190 0.0000485 -0.0015190
108014 0.0000476 -0.0014526 0.9999524 0.0014526 0.9999524 0.0014526 0.0000476 -0.0014526
112960 0.0000469 -0.0013891 0.9999531 0.0013891 0.9999531 0.0013891 0.0000469 -0.0013891
118133 0.0000461 -0.0013283 0.9999539 0.0013283 0.9999539 0.0013283 0.0000461 -0.0013283
123542 0.0000454 -0.0012702 0.9999546 0.0012702 0.9999546 0.0012702 0.0000454 -0.0012702
129199 0.0000448 -0.0012145 0.9999552 0.0012145 0.9999552 0.0012145 0.0000448 -0.0012145
135116 0.0000441 -0.0011613 0.9999559 0.0011613 0.9999559 0.0011613 0.0000441 -0.0011613
141303 0.0000435 -0.0011104 0.9999565 0.0011104 0.9999565 0.0011104 0.0000435 -0.0011104
147774 0.0000429 -0.0010617 0.9999571 0.0010617 0.9999571 0.0010617 0.0000429 -0.0010617
154540 0.0000424 -0.0010151 0.9999576 0.0010151 0.9999576 0.0010151 0.0000424 -0.0010151
161617 0.0000418 -0.0009704 0.9999582 0.0009704 0.9999582 0.0009704 0.0000418 -0.0009704
169018 0.0000413 -0.0009278 0.9999587 0.0009278 0.9999587 0.0009278 0.0000413 -0.0009278
176758 0.0000408 -0.0008869 0.9999592 0.0008869 0.9999592 0.0008869 0.0000408 -0.0008869
184852 0.0000403 -0.0008478 0.9999597 0.0008478 0.9999597 0.0008478 0.0000403 -0.0008478
193316 0.0000398 -0.0008103 0.9999602 0.0008103 0.9999602 0.0008103 0.0000398 -0.0008103
202169 0.0000393 -0.0007745 0.9999607 0.0007745 0.9999607 0.0007745 0.0000393 -0.0007745
211427 0.0000389 -0.0007402 0.9999611 0.0007402 0.9999611 0.0007402 0.0000389 -0.0007402
221108 0.0000385 -0.0007073 0.9999615 0.0007073 0.9999615 0.0007073 0.0000385 -0.0007073
231233 0.0000381 -0.0006758 0.9999619 0.0006758 0.9999619 0.0006758 0.0000381 -0.0006758
241822 0.0000377 -0.0006457 0.9999623 0.0006457 0.9999623 0.0006457 0.0000377 -0.0006457
252896 0.0000373 -0.0006168 0.9999627 0.0006168 0.9999627 0.0006168 0.0000373 -0.0006168
264476 0.0000369 -0.0005892 0.9999631 0.0005892 0.9999631 0.0005892 0.0000369 -0.0005892
276587 0.0000366 -0.0005627 0.9999634 0.0005627 0.9999634 0.0005627 0.0000366 -0.0005627
289253 0.0000363 -0.0005373 0.9999637 0.0005373 0.9999637 0.0005373 0.0000363 -0.0005373
302498 0.0000360 -0.0005129 0.9999640 0.0005129 0.9999640 0.0005129 0.0000360 -0.0005129
316350 0.0000357 -0.0004896 0.9999643 0.0004896 0.9999643 0.0004896 0.0000357 -0.0004896
330837 0.0000354 -0.0004672 0.9999646 0.0004672 0.9999646 0.0004672 0.0000354 -0.0004672
345986 0.0000351 -0.0004457 0.9999649 0.0004457 0.9999649 0.0004457 0.0000351 -0.0004457
361830 0.0000349 -0.0004252 0.9999651 0.0004252 0.9999651 0.0004252 0.0000349 -0.0004252
378399 0.0000347 -0.0004054 0.9999653 0.0004054 0.9999653 0.0004054 0.0000347 -0.0004054
395726 0.0000345 -0.0003865 0.9999655 0.0003865 0.9999655 0.0003865 0.0000345 -0.0003865
413847 0.0000343 -0.0003683 0.9999657 0.0003683 0.9999657 0.0003683 0.0000343 -0.0003683
432798 0.0000341 -0.0003508 0.9999659 0.0003508 0.9999659 0.0003508 0.0000341 -0.0003508
452617 0.0000340 -0.0003340 0.9999660 0.0003340 0.9999660 0.0003340 0.0000340 -0.0003340
473344 0.0000339 -0.0003179 0.9999661 0.0003179 0.9999661 0.0003179 0.0000339 -0.0003179
495019 0.0000338 -0.0003024 0.9999662 0.0003024 0.9999662 0.0003024 0.0000338 -0.0003024
517687 0.0000337 -0.0002875 0.9999663 0.0002875 0.9999663 0.0002875 0.0000337 -0.0002875
541393 0.0000336 -0.0002732 0.9999664 0.0002732 0.9999664 0.0002732 0.0000336 -0.0002732
566185 0.0000336 -0.0002594 0.9999664 0.0002594 0.9999664 0.0002594 0.0000336 -0.0002594
592111 0.0000335 -0.0002462 0.9999665 0.0002462 0.9999665 0.0002462 0.0000335 -0.0002462
619225 0.0000335 -0.0002334 0.9999665 0.0002334 0.9999665 0.0002334 0.0000335 -0.0002334
647581 0.0000335 -0.0002211 0.9999665 0.0002211 0.9999665 0.0002211 0.0000335 -0.0002211
677235 0.0000336 -0.0002092 0.9999664 0.0002092 0.9999664 0.0002092 0.0000336 -0.0002092
708247 0.0000336 -0.0001977 0.9999664 0.0001977 0.9999664 0.0001977 0.0000336 -0.0001977
740679 0.0000337 -0.0001866 0.9999663 0.0001866 0.9999663 0.0001866 0.0000337 -0.0001866
774597 0.0000338 -0.0001760 0.9999662 0.0001760 0.9999662 0.0001760 0.0000338 -0.0001760
810067 0.0000339 -0.0001656 0.9999661 0.0001656 0.9999661 0.0001656 0.0000339 -0.0001656
847162 0.0000341 -0.0001556 0.9999659 0.0001556 0.9999659 0.0001556 0.0000341 -0.0001556
885955 0.0000343 -0.0001459 0.9999657 0.0001459 0.9999657 0.0001459 0.0000343 -0.0001459
926525 0.0000345 -0.0001365 0.9999655 0.0001365 0.9999655 0.0001365 0.0000345 -0.0001365
968953 0.0000347 -0.0001274 0.9999653 0.0001274 0.9999653 0.0001274 0.0000347 -0.0001274
1013323 0.0000350 -0.0001185 0.9999650 0.0001185 0.9999650 0.0001185 0.0000350 -0.0001185
1059725 0.0000353 -0.0001099 0.9999647 0.0001099 0.9999647 0.0001099 0.0000353 -0.0001099
1108252 0.0000356 -0.0001015 0.9999644 0.0001015 0.9999644 0.0001015 0.0000356 -0.0001015
1159002 0.0000360 -0.0000933 0.9999640 0.0000933 0.9999640 0.0000933 0.0000360 -0.0000933
1212075 0.0000365 -0.0000853 0.9999635 0.0000853 0.9999635 0.0000853 0.0000365 -0.0000853
1267578 0.0000370 -0.0000775 0.9999630 0.0000775 0.9999630 0.0000775 0.0000370 -0.0000775
1325623 0.0000375 -0.0000698 0.9999625 0.0000698 0.9999625 0.0000698 0.0000375 -0.0000698
1386327 0.0000381 -0.0000623 0.9999619 0.0000623 0.9999619 0.0000623 0.0000381 -0.0000623
1449809 0.0000387 -0.0000550 0.9999613 0.0000550 0.9999613 0.0000550 0.0000387 -0.0000550
1516199 0.0000395 -0.0000478 0.9999605 0.0000478 0.9999605 0.0000478 0.0000395 -0.0000478
1585629 0.0000403 -0.0000407 0.9999597 0.0000407 0.9999597 0.0000407 0.0000403 -0.0000407
1658239 0.0000412 -0.0000337 0.9999588 0.0000337 0.9999588 0.0000337 0.0000412 -0.0000337
1734173 0.0000421 -0.0000268 0.9999579 0.0000268 0.9999579 0.0000268 0.0000421 -0.0000268
1813585 0.0000432 -0.0000200 0.9999568 0.0000200 0.9999568 0.0000200 0.0000432 -0.0000200
1896632 0.0000444 -0.0000134 0.9999556 0.0000134 0.9999556 0.0000134 0.0000444 -0.0000134
1983483 0.0000457 -0.0000068 0.9999543 0.0000068 0.9999543 0.0000068 0.0000457 -0.0000068
2074311 0.0000471 -0.0000003 0.9999529 0.0000003 0.9999529 0.0000003 0.0000471 -0.0000003
