!Murata Part Number: GRM152B30J104KE19
!These Parameters are Measured in Series Mode Connection
!Data Generated on Mar 30, 2021
!       o--ll--o
!Port1            Port2
!       o------o
!Operation Temp=25[degC], DC Bias Voltage=0[V]
!Freq. Start=100[Hz] Stop=6[GHz] 401[Steps]
# Hz S RI R 50
!Freq.(Hz) S11(Real) S11(Imag) S21(Real) S21(Imag) S12(Real) S12(Imag) S22(Real) S22(Imag)
100 0.9999147 -0.0059295 0.0000853 0.0059295 0.0000853 0.0059295 0.9999147 -0.0059295
105 0.9999091 -0.0061993 0.0000909 0.0061993 0.0000909 0.0061993 0.9999091 -0.0061993
109 0.9999030 -0.0064814 0.0000970 0.0064814 0.0000970 0.0064814 0.9999030 -0.0064814
114 0.9998966 -0.0067763 0.0001034 0.0067763 0.0001034 0.0067763 0.9998966 -0.0067763
120 0.9998896 -0.0070846 0.0001104 0.0070846 0.0001104 0.0070846 0.9998896 -0.0070846
125 0.9998822 -0.0074069 0.0001178 0.0074069 0.0001178 0.0074069 0.9998822 -0.0074069
131 0.9998741 -0.0077439 0.0001259 0.0077439 0.0001259 0.0077439 0.9998741 -0.0077439
137 0.9998656 -0.0080962 0.0001344 0.0080962 0.0001344 0.0080962 0.9998656 -0.0080962
143 0.9998563 -0.0084645 0.0001437 0.0084645 0.0001437 0.0084645 0.9998563 -0.0084645
150 0.9998464 -0.0088495 0.0001536 0.0088495 0.0001536 0.0088495 0.9998464 -0.0088495
156 0.9998358 -0.0092520 0.0001642 0.0092520 0.0001642 0.0092520 0.9998358 -0.0092520
164 0.9998244 -0.0096728 0.0001756 0.0096728 0.0001756 0.0096728 0.9998244 -0.0096728
171 0.9998122 -0.0101127 0.0001878 0.0101127 0.0001878 0.0101127 0.9998122 -0.0101127
179 0.9997990 -0.0105726 0.0002010 0.0105726 0.0002010 0.0105726 0.9997990 -0.0105726
187 0.9997849 -0.0110535 0.0002151 0.0110535 0.0002151 0.0110535 0.9997849 -0.0110535
196 0.9997697 -0.0115561 0.0002303 0.0115561 0.0002303 0.0115561 0.9997697 -0.0115561
205 0.9997533 -0.0120817 0.0002467 0.0120817 0.0002467 0.0120817 0.9997533 -0.0120817
214 0.9997357 -0.0126312 0.0002643 0.0126312 0.0002643 0.0126312 0.9997357 -0.0126312
224 0.9997168 -0.0132056 0.0002832 0.0132056 0.0002832 0.0132056 0.9997168 -0.0132056
234 0.9996964 -0.0138063 0.0003036 0.0138063 0.0003036 0.0138063 0.9996964 -0.0138063
245 0.9996745 -0.0144342 0.0003255 0.0144342 0.0003255 0.0144342 0.9996745 -0.0144342
256 0.9996507 -0.0150908 0.0003493 0.0150908 0.0003493 0.0150908 0.9996507 -0.0150908
268 0.9996251 -0.0157773 0.0003749 0.0157773 0.0003749 0.0157773 0.9996251 -0.0157773
280 0.9995975 -0.0164951 0.0004025 0.0164951 0.0004025 0.0164951 0.9995975 -0.0164951
293 0.9995676 -0.0172456 0.0004324 0.0172456 0.0004324 0.0172456 0.9995676 -0.0172456
306 0.9995352 -0.0180304 0.0004648 0.0180304 0.0004648 0.0180304 0.9995352 -0.0180304
320 0.9995001 -0.0188509 0.0004999 0.0188509 0.0004999 0.0188509 0.9995001 -0.0188509
335 0.9994621 -0.0197088 0.0005379 0.0197088 0.0005379 0.0197088 0.9994621 -0.0197088
350 0.9994209 -0.0206058 0.0005791 0.0206058 0.0005791 0.0206058 0.9994209 -0.0206058
366 0.9993761 -0.0215438 0.0006239 0.0215438 0.0006239 0.0215438 0.9993761 -0.0215438
383 0.9993275 -0.0225244 0.0006725 0.0225244 0.0006725 0.0225244 0.9993275 -0.0225244
401 0.9992746 -0.0235498 0.0007254 0.0235498 0.0007254 0.0235498 0.9992746 -0.0235498
419 0.9992172 -0.0246219 0.0007828 0.0246219 0.0007828 0.0246219 0.9992172 -0.0246219
438 0.9991546 -0.0257428 0.0008454 0.0257428 0.0008454 0.0257428 0.9991546 -0.0257428
458 0.9990866 -0.0269147 0.0009134 0.0269147 0.0009134 0.0269147 0.9990866 -0.0269147
479 0.9990125 -0.0281399 0.0009875 0.0281399 0.0009875 0.0281399 0.9990125 -0.0281399
501 0.9989318 -0.0294208 0.0010682 0.0294208 0.0010682 0.0294208 0.9989318 -0.0294208
524 0.9988438 -0.0307600 0.0011562 0.0307600 0.0011562 0.0307600 0.9988438 -0.0307600
548 0.9987480 -0.0321599 0.0012520 0.0321599 0.0012520 0.0321599 0.9987480 -0.0321599
573 0.9986435 -0.0336234 0.0013565 0.0336234 0.0013565 0.0336234 0.9986435 -0.0336234
600 0.9985296 -0.0351531 0.0014704 0.0351531 0.0014704 0.0351531 0.9985296 -0.0351531
627 0.9984054 -0.0367522 0.0015946 0.0367522 0.0015946 0.0367522 0.9984054 -0.0367522
656 0.9982700 -0.0384236 0.0017300 0.0384236 0.0017300 0.0384236 0.9982700 -0.0384236
686 0.9981223 -0.0401705 0.0018777 0.0401705 0.0018777 0.0401705 0.9981223 -0.0401705
717 0.9979612 -0.0419963 0.0020388 0.0419963 0.0020388 0.0419963 0.9979612 -0.0419963
750 0.9977855 -0.0439043 0.0022145 0.0439043 0.0022145 0.0439043 0.9977855 -0.0439043
784 0.9975940 -0.0458983 0.0024060 0.0458983 0.0024060 0.0458983 0.9975940 -0.0458983
820 0.9973850 -0.0479819 0.0026150 0.0479819 0.0026150 0.0479819 0.9973850 -0.0479819
858 0.9971572 -0.0501591 0.0028428 0.0501591 0.0028428 0.0501591 0.9971572 -0.0501591
897 0.9969087 -0.0524338 0.0030913 0.0524338 0.0030913 0.0524338 0.9969087 -0.0524338
938 0.9966377 -0.0548103 0.0033623 0.0548103 0.0033623 0.0548103 0.9966377 -0.0548103
981 0.9963423 -0.0572929 0.0036577 0.0572929 0.0036577 0.0572929 0.9963423 -0.0572929
1026 0.9960201 -0.0598862 0.0039799 0.0598862 0.0039799 0.0598862 0.9960201 -0.0598862
1073 0.9956689 -0.0625948 0.0043311 0.0625948 0.0043311 0.0625948 0.9956689 -0.0625948
1122 0.9952860 -0.0654236 0.0047140 0.0654236 0.0047140 0.0654236 0.9952860 -0.0654236
1174 0.9948685 -0.0683777 0.0051315 0.0683777 0.0051315 0.0683777 0.9948685 -0.0683777
1227 0.9944135 -0.0714622 0.0055865 0.0714622 0.0055865 0.0714622 0.9944135 -0.0714622
1283 0.9939174 -0.0746826 0.0060826 0.0746826 0.0060826 0.0746826 0.9939174 -0.0746826
1342 0.9933768 -0.0780444 0.0066232 0.0780444 0.0066232 0.0780444 0.9933768 -0.0780444
1404 0.9927875 -0.0815533 0.0072125 0.0815533 0.0072125 0.0815533 0.9927875 -0.0815533
1468 0.9921453 -0.0852152 0.0078547 0.0852152 0.0078547 0.0852152 0.9921453 -0.0852152
1535 0.9914455 -0.0890362 0.0085545 0.0890362 0.0085545 0.0890362 0.9914455 -0.0890362
1606 0.9906828 -0.0930225 0.0093172 0.0930225 0.0093172 0.0930225 0.9906828 -0.0930225
1679 0.9898518 -0.0971804 0.0101482 0.0971804 0.0101482 0.0971804 0.9898518 -0.0971804
1756 0.9889463 -0.1015163 0.0110537 0.1015163 0.0110537 0.1015163 0.9889463 -0.1015163
1836 0.9879597 -0.1060370 0.0120403 0.1060370 0.0120403 0.1060370 0.9879597 -0.1060370
1920 0.9868849 -0.1107490 0.0131151 0.1107490 0.0131151 0.1107490 0.9868849 -0.1107490
2008 0.9857142 -0.1156591 0.0142858 0.1156591 0.0142858 0.1156591 0.9857142 -0.1156591
2100 0.9844390 -0.1207740 0.0155610 0.1207740 0.0155610 0.1207740 0.9844390 -0.1207740
2196 0.9830502 -0.1261005 0.0169498 0.1261005 0.0169498 0.1261005 0.9830502 -0.1261005
2297 0.9815381 -0.1316453 0.0184619 0.1316453 0.0184619 0.1316453 0.9815381 -0.1316453
2402 0.9798918 -0.1374150 0.0201082 0.1374150 0.0201082 0.1374150 0.9798918 -0.1374150
2512 0.9780999 -0.1434160 0.0219001 0.1434160 0.0219001 0.1434160 0.9780999 -0.1434160
2627 0.9761499 -0.1496546 0.0238501 0.1496546 0.0238501 0.1496546 0.9761499 -0.1496546
2748 0.9740285 -0.1561367 0.0259715 0.1561367 0.0259715 0.1561367 0.9740285 -0.1561367
2873 0.9717214 -0.1628679 0.0282786 0.1628679 0.0282786 0.1628679 0.9717214 -0.1628679
3005 0.9692131 -0.1698532 0.0307869 0.1698532 0.0307869 0.1698532 0.9692131 -0.1698532
3143 0.9664871 -0.1770972 0.0335129 0.1770972 0.0335129 0.1770972 0.9664871 -0.1770972
3287 0.9635260 -0.1846037 0.0364740 0.1846037 0.0364740 0.1846037 0.9635260 -0.1846037
3437 0.9603109 -0.1923756 0.0396891 0.1923756 0.0396891 0.1923756 0.9603109 -0.1923756
3594 0.9568220 -0.2004151 0.0431780 0.2004151 0.0431780 0.2004151 0.9568220 -0.2004151
3759 0.9530382 -0.2087230 0.0469618 0.2087230 0.0469618 0.2087230 0.9530382 -0.2087230
3931 0.9489371 -0.2172989 0.0510629 0.2172989 0.0510629 0.2172989 0.9489371 -0.2172989
4111 0.9444955 -0.2261410 0.0555045 0.2261410 0.0555045 0.2261410 0.9444955 -0.2261410
4299 0.9396888 -0.2352457 0.0603112 0.2352457 0.0603112 0.2352457 0.9396888 -0.2352457
4496 0.9344913 -0.2446075 0.0655087 0.2446075 0.0655087 0.2446075 0.9344913 -0.2446075
4702 0.9288766 -0.2542189 0.0711234 0.2542189 0.0711234 0.2542189 0.9288766 -0.2542189
4918 0.9228170 -0.2640699 0.0771830 0.2640699 0.0771830 0.2640699 0.9228170 -0.2640699
5143 0.9162845 -0.2741482 0.0837155 0.2741482 0.0837155 0.2741482 0.9162845 -0.2741482
5378 0.9092504 -0.2844382 0.0907496 0.2844382 0.0907496 0.2844382 0.9092504 -0.2844382
5625 0.9016857 -0.2949217 0.0983143 0.2949217 0.0983143 0.2949217 0.9016857 -0.2949217
5882 0.8935613 -0.3055769 0.1064387 0.3055769 0.1064387 0.3055769 0.8935613 -0.3055769
6151 0.8848484 -0.3163785 0.1151516 0.3163785 0.1151516 0.3163785 0.8848484 -0.3163785
6433 0.8755190 -0.3272977 0.1244810 0.3272977 0.1244810 0.3272977 0.8755190 -0.3272977
6728 0.8655461 -0.3383015 0.1344539 0.3383015 0.1344539 0.3383015 0.8655461 -0.3383015
7036 0.8549042 -0.3493530 0.1450958 0.3493530 0.1450958 0.3493530 0.8549042 -0.3493530
7358 0.8435699 -0.3604114 0.1564301 0.3604114 0.1564301 0.3604114 0.8435699 -0.3604114
7695 0.8315226 -0.3714315 0.1684774 0.3714315 0.1684774 0.3714315 0.8315226 -0.3714315
8047 0.8187446 -0.3823643 0.1812554 0.3823643 0.1812554 0.3823643 0.8187446 -0.3823643
8416 0.8052224 -0.3931569 0.1947776 0.3931569 0.1947776 0.3931569 0.8052224 -0.3931569
8801 0.7909471 -0.4037528 0.2090529 0.4037528 0.2090529 0.4037528 0.7909471 -0.4037528
9204 0.7759147 -0.4140922 0.2240853 0.4140922 0.2240853 0.4140922 0.7759147 -0.4140922
9626 0.7601273 -0.4241126 0.2398727 0.4241126 0.2398727 0.4241126 0.7601273 -0.4241126
10066 0.7435933 -0.4337494 0.2564067 0.4337494 0.2564067 0.4337494 0.7435933 -0.4337494
10527 0.7263280 -0.4429367 0.2736720 0.4429367 0.2736720 0.4429367 0.7263280 -0.4429367
11009 0.7083543 -0.4516080 0.2916457 0.4516080 0.2916457 0.4516080 0.7083543 -0.4516080
11514 0.6897027 -0.4596971 0.3102973 0.4596971 0.3102973 0.4596971 0.6897027 -0.4596971
12041 0.6704114 -0.4671396 0.3295886 0.4671396 0.3295886 0.4671396 0.6704114 -0.4671396
12592 0.6505269 -0.4738733 0.3494731 0.4738733 0.3494731 0.4738733 0.6505269 -0.4738733
13169 0.6301031 -0.4798399 0.3698969 0.4798399 0.3698969 0.4798399 0.6301031 -0.4798399
13772 0.6092013 -0.4849862 0.3907987 0.4849862 0.3907987 0.4849862 0.6092013 -0.4849862
14402 0.5878898 -0.4892646 0.4121102 0.4892646 0.4121102 0.4892646 0.5878898 -0.4892646
15062 0.5662428 -0.4926348 0.4337572 0.4926348 0.4337572 0.4926348 0.5662428 -0.4926348
15752 0.5443395 -0.4950643 0.4556605 0.4950643 0.4556605 0.4950643 0.5443395 -0.4950643
16473 0.5222633 -0.4965295 0.4777367 0.4965295 0.4777367 0.4965295 0.5222633 -0.4965295
17227 0.5000999 -0.4970156 0.4999001 0.4970156 0.4999001 0.4970156 0.5000999 -0.4970156
18016 0.4779370 -0.4965180 0.5220630 0.4965180 0.5220630 0.4965180 0.4779370 -0.4965180
18841 0.4558618 -0.4950413 0.5441382 0.4950413 0.5441382 0.4950413 0.4558618 -0.4950413
19704 0.4339605 -0.4926001 0.5660395 0.4926001 0.5660395 0.4926001 0.4339605 -0.4926001
20606 0.4123163 -0.4892182 0.5876837 0.4892182 0.5876837 0.4892182 0.4123163 -0.4892182
21550 0.3910087 -0.4849280 0.6089913 0.4849280 0.6089913 0.4849280 0.3910087 -0.4849280
22537 0.3701121 -0.4797699 0.6298879 0.4797699 0.6298879 0.4797699 0.3701121 -0.4797699
23569 0.3496946 -0.4737916 0.6503054 0.4737916 0.6503054 0.4737916 0.3496946 -0.4737916
24648 0.3298177 -0.4670467 0.6701823 0.4670467 0.6701823 0.4670467 0.3298177 -0.4670467
25777 0.3105357 -0.4595935 0.6894643 0.4595935 0.6894643 0.4595935 0.3105357 -0.4595935
26957 0.2918946 -0.4514945 0.7081054 0.4514945 0.7081054 0.4514945 0.2918946 -0.4514945
28191 0.2739329 -0.4428144 0.7260671 0.4428144 0.7260671 0.4428144 0.2739329 -0.4428144
29482 0.2566809 -0.4336195 0.7433191 0.4336195 0.7433191 0.4336195 0.2566809 -0.4336195
30832 0.2401613 -0.4239768 0.7598387 0.4239768 0.7598387 0.4239768 0.2401613 -0.4239768
32244 0.2243892 -0.4139523 0.7756108 0.4139523 0.7756108 0.4139523 0.2243892 -0.4139523
33721 0.2093726 -0.4036109 0.7906274 0.4036109 0.7906274 0.4036109 0.2093726 -0.4036109
35265 0.1951134 -0.3930150 0.8048866 0.3930150 0.8048866 0.3930150 0.1951134 -0.3930150
36880 0.1816073 -0.3822246 0.8183927 0.3822246 0.8183927 0.3822246 0.1816073 -0.3822246
38569 0.1688449 -0.3712961 0.8311551 0.3712961 0.8311551 0.3712961 0.1688449 -0.3712961
40335 0.1568124 -0.3602823 0.8431876 0.3602823 0.8431876 0.3602823 0.1568124 -0.3602823
42182 0.1454918 -0.3492323 0.8545082 0.3492323 0.8545082 0.3492323 0.1454918 -0.3492323
44113 0.1348622 -0.3381907 0.8651378 0.3381907 0.8651378 0.3381907 0.1348622 -0.3381907
46134 0.1249000 -0.3271984 0.8751000 0.3271984 0.8751000 0.3271984 0.1249000 -0.3271984
48246 0.1155795 -0.3162918 0.8844205 0.3162918 0.8844205 0.3162918 0.1155795 -0.3162918
50455 0.1068735 -0.3055035 0.8931265 0.3055035 0.8931265 0.3055035 0.1068735 -0.3055035
52766 0.0987539 -0.2948622 0.9012461 0.2948622 0.9012461 0.2948622 0.0987539 -0.2948622
55182 0.0911920 -0.2843927 0.9088080 0.2843927 0.9088080 0.2843927 0.0911920 -0.2843927
57709 0.0841588 -0.2741165 0.9158412 0.2741165 0.9158412 0.2741165 0.0841588 -0.2741165
60352 0.0776252 -0.2640517 0.9223748 0.2640517 0.9223748 0.2640517 0.0776252 -0.2640517
63115 0.0715629 -0.2542133 0.9284371 0.2542133 0.9284371 0.2542133 0.0715629 -0.2542133
66005 0.0659438 -0.2446137 0.9340562 0.2446137 0.9340562 0.2446137 0.0659438 -0.2446137
69028 0.0607407 -0.2352625 0.9392593 0.2352625 0.9392593 0.2352625 0.0607407 -0.2352625
72189 0.0559272 -0.2261671 0.9440728 0.2261671 0.9440728 0.2261671 0.0559272 -0.2261671
75495 0.0514779 -0.2173330 0.9485221 0.2173330 0.9485221 0.2173330 0.0514779 -0.2173330
78952 0.0473686 -0.2087636 0.9526314 0.2087636 0.9526314 0.2087636 0.0473686 -0.2087636
82567 0.0435760 -0.2004608 0.9564240 0.2004608 0.9564240 0.2004608 0.0435760 -0.2004608
86348 0.0400783 -0.1924249 0.9599217 0.1924249 0.9599217 0.1924249 0.0400783 -0.1924249
90302 0.0368544 -0.1846552 0.9631456 0.1846552 0.9631456 0.1846552 0.0368544 -0.1846552
94437 0.0338847 -0.1771497 0.9661153 0.1771497 0.9661153 0.1771497 0.0338847 -0.1771497
98762 0.0311506 -0.1699054 0.9688494 0.1699054 0.9688494 0.1699054 0.0311506 -0.1699054
103284 0.0286347 -0.1629188 0.9713653 0.1629188 0.9713653 0.1629188 0.0286347 -0.1629188
108014 0.0263207 -0.1561853 0.9736793 0.1561853 0.9736793 0.1561853 0.0263207 -0.1561853
112960 0.0241931 -0.1497002 0.9758069 0.1497002 0.9758069 0.1497002 0.0241931 -0.1497002
118133 0.0222379 -0.1434579 0.9777621 0.1434579 0.9777621 0.1434579 0.0222379 -0.1434579
123542 0.0204415 -0.1374527 0.9795585 0.1374527 0.9795585 0.1374527 0.0204415 -0.1374527
129199 0.0187918 -0.1316785 0.9812082 0.1316785 0.9812082 0.1316785 0.0187918 -0.1316785
135116 0.0172770 -0.1261290 0.9827230 0.1261290 0.9827230 0.1261290 0.0172770 -0.1261290
141303 0.0158865 -0.1207978 0.9841135 0.1207978 0.9841135 0.1207978 0.0158865 -0.1207978
147774 0.0146105 -0.1156782 0.9853895 0.1156782 0.9853895 0.1156782 0.0146105 -0.1156782
154540 0.0134396 -0.1107637 0.9865604 0.1107637 0.9865604 0.1107637 0.0134396 -0.1107637
161617 0.0123655 -0.1060476 0.9876345 0.1060476 0.9876345 0.1060476 0.0123655 -0.1060476
169018 0.0113802 -0.1015232 0.9886198 0.1015232 0.9886198 0.1015232 0.0113802 -0.1015232
176758 0.0104765 -0.0971840 0.9895235 0.0971840 0.9895235 0.0971840 0.0104765 -0.0971840
184852 0.0096477 -0.0930234 0.9903523 0.0930234 0.9903523 0.0930234 0.0096477 -0.0930234
193316 0.0088876 -0.0890351 0.9911124 0.0890351 0.9911124 0.0890351 0.0088876 -0.0890351
202169 0.0081906 -0.0852126 0.9918094 0.0852126 0.9918094 0.0852126 0.0081906 -0.0852126
211427 0.0075514 -0.0815497 0.9924486 0.0815497 0.9924486 0.0815497 0.0075514 -0.0815497
221108 0.0069651 -0.0780406 0.9930349 0.0780406 0.9930349 0.0780406 0.0069651 -0.0780406
231233 0.0064274 -0.0746791 0.9935726 0.0746791 0.9935726 0.0746791 0.0064274 -0.0746791
241822 0.0059342 -0.0714596 0.9940658 0.0714596 0.9940658 0.0714596 0.0059342 -0.0714596
252896 0.0054817 -0.0683764 0.9945183 0.0683764 0.9945183 0.0683764 0.0054817 -0.0683764
264476 0.0050666 -0.0654242 0.9949334 0.0654242 0.9949334 0.0654242 0.0050666 -0.0654242
276587 0.0046856 -0.0625976 0.9953144 0.0625976 0.9953144 0.0625976 0.0046856 -0.0625976
289253 0.0043359 -0.0598915 0.9956641 0.0598915 0.9956641 0.0598915 0.0043359 -0.0598915
302498 0.0040148 -0.0573011 0.9959852 0.0573011 0.9959852 0.0573011 0.0040148 -0.0573011
316350 0.0037200 -0.0548215 0.9962800 0.0548215 0.9962800 0.0548215 0.0037200 -0.0548215
330837 0.0034492 -0.0524482 0.9965508 0.0524482 0.9965508 0.0524482 0.0034492 -0.0524482
345986 0.0032004 -0.0501767 0.9967996 0.0501767 0.9967996 0.0501767 0.0032004 -0.0501767
361830 0.0029718 -0.0480027 0.9970282 0.0480027 0.9970282 0.0480027 0.0029718 -0.0480027
378399 0.0027616 -0.0459222 0.9972384 0.0459222 0.9972384 0.0459222 0.0027616 -0.0459222
395726 0.0025683 -0.0439312 0.9974317 0.0439312 0.9974317 0.0439312 0.0025683 -0.0439312
413847 0.0023906 -0.0420258 0.9976094 0.0420258 0.9976094 0.0420258 0.0023906 -0.0420258
432798 0.0022271 -0.0402026 0.9977729 0.0402026 0.9977729 0.0402026 0.0022271 -0.0402026
452617 0.0020766 -0.0384579 0.9979234 0.0384579 0.9979234 0.0384579 0.0020766 -0.0384579
473344 0.0019382 -0.0367884 0.9980618 0.0367884 0.9980618 0.0367884 0.0019382 -0.0367884
495019 0.0018107 -0.0351909 0.9981893 0.0351909 0.9981893 0.0351909 0.0018107 -0.0351909
517687 0.0016934 -0.0336623 0.9983066 0.0336623 0.9983066 0.0336623 0.0016934 -0.0336623
541393 0.0015853 -0.0321996 0.9984147 0.0321996 0.9984147 0.0321996 0.0015853 -0.0321996
566185 0.0014858 -0.0308001 0.9985142 0.0308001 0.9985142 0.0308001 0.0014858 -0.0308001
592111 0.0013942 -0.0294610 0.9986058 0.0294610 0.9986058 0.0294610 0.0013942 -0.0294610
619225 0.0013099 -0.0281798 0.9986901 0.0281798 0.9986901 0.0281798 0.0013099 -0.0281798
647581 0.0012321 -0.0269539 0.9987679 0.0269539 0.9987679 0.0269539 0.0012321 -0.0269539
677235 0.0011606 -0.0257809 0.9988394 0.0257809 0.9988394 0.0257809 0.0011606 -0.0257809
708247 0.0010947 -0.0246587 0.9989053 0.0246587 0.9989053 0.0246587 0.0010947 -0.0246587
740679 0.0010340 -0.0235850 0.9989660 0.0235850 0.9989660 0.0235850 0.0010340 -0.0235850
774597 0.0009781 -0.0225578 0.9990219 0.0225578 0.9990219 0.0225578 0.0009781 -0.0225578
810067 0.0009266 -0.0215750 0.9990734 0.0215750 0.9990734 0.0215750 0.0009266 -0.0215750
847162 0.0008792 -0.0206347 0.9991208 0.0206347 0.9991208 0.0206347 0.0008792 -0.0206347
885955 0.0008355 -0.0197352 0.9991645 0.0197352 0.9991645 0.0197352 0.0008355 -0.0197352
926525 0.0007953 -0.0188746 0.9992047 0.0188746 0.9992047 0.0188746 0.0007953 -0.0188746
968953 0.0007583 -0.0180513 0.9992417 0.0180513 0.9992417 0.0180513 0.0007583 -0.0180513
1013323 0.0007242 -0.0172637 0.9992758 0.0172637 0.9992758 0.0172637 0.0007242 -0.0172637
1059725 0.0006928 -0.0165102 0.9993072 0.0165102 0.9993072 0.0165102 0.0006928 -0.0165102
1108252 0.0006638 -0.0157895 0.9993362 0.0157895 0.9993362 0.0157895 0.0006638 -0.0157895
1159002 0.0006371 -0.0151000 0.9993629 0.0151000 0.9993629 0.0151000 0.0006371 -0.0151000
1212075 0.0006125 -0.0144404 0.9993875 0.0144404 0.9993875 0.0144404 0.0006125 -0.0144404
1267578 0.0005898 -0.0138094 0.9994102 0.0138094 0.9994102 0.0138094 0.0005898 -0.0138094
1325623 0.0005689 -0.0132058 0.9994311 0.0132058 0.9994311 0.0132058 0.0005689 -0.0132058
1386327 0.0005496 -0.0126284 0.9994504 0.0126284 0.9994504 0.0126284 0.0005496 -0.0126284
1449809 0.0005317 -0.0120760 0.9994683 0.0120760 0.9994683 0.0120760 0.0005317 -0.0120760
1516199 0.0005152 -0.0115476 0.9994848 0.0115476 0.9994848 0.0115476 0.0005152 -0.0115476
1585629 0.0004999 -0.0110422 0.9995001 0.0110422 0.9995001 0.0110422 0.0004999 -0.0110422
1658239 0.0004858 -0.0105586 0.9995142 0.0105586 0.9995142 0.0105586 0.0004858 -0.0105586
1734173 0.0004727 -0.0100960 0.9995273 0.0100960 0.9995273 0.0100960 0.0004727 -0.0100960
1813585 0.0004606 -0.0096534 0.9995394 0.0096534 0.9995394 0.0096534 0.0004606 -0.0096534
1896632 0.0004493 -0.0092300 0.9995507 0.0092300 0.9995507 0.0092300 0.0004493 -0.0092300
1983483 0.0004388 -0.0088248 0.9995612 0.0088248 0.9995612 0.0088248 0.0004388 -0.0088248
2074311 0.0004290 -0.0084372 0.9995710 0.0084372 0.9995710 0.0084372 0.0004290 -0.0084372
