!Murata Part Number: GRM155C80G105KE19
!These Parameters are Measured in Series Mode Connection
!Data Generated on Mar 30, 2021
!       o--ll--o
!Port1            Port2
!       o------o
!Operation Temp=25[degC], DC Bias Voltage=0[V]
!Freq. Start=100[Hz] Stop=6[GHz] 401[Steps]
# Hz S RI R 50
!Freq.(Hz) S11(Real) S11(Imag) S21(Real) S21(Imag) S12(Real) S12(Imag) S22(Real) S22(Imag)
100 0.9967048 -0.0507119 0.0032952 0.0507119 0.0032952 0.0507119 0.9967048 -0.0507119
105 0.9964380 -0.0530021 0.0035620 0.0530021 0.0035620 0.0530021 0.9964380 -0.0530021
109 0.9961473 -0.0553946 0.0038527 0.0553946 0.0038527 0.0553946 0.9961473 -0.0553946
114 0.9958305 -0.0578935 0.0041695 0.0578935 0.0041695 0.0578935 0.9958305 -0.0578935
120 0.9954852 -0.0605034 0.0045148 0.0605034 0.0045148 0.0605034 0.9954852 -0.0605034
125 0.9951090 -0.0632288 0.0048910 0.0632288 0.0048910 0.0632288 0.9951090 -0.0632288
131 0.9946991 -0.0660744 0.0053009 0.0660744 0.0053009 0.0660744 0.9946991 -0.0660744
137 0.9942524 -0.0690452 0.0057476 0.0690452 0.0057476 0.0690452 0.9942524 -0.0690452
143 0.9937659 -0.0721461 0.0062341 0.0721461 0.0062341 0.0721461 0.9937659 -0.0721461
150 0.9932359 -0.0753823 0.0067641 0.0753823 0.0067641 0.0753823 0.9932359 -0.0753823
156 0.9926587 -0.0787592 0.0073413 0.0787592 0.0073413 0.0787592 0.9926587 -0.0787592
164 0.9920301 -0.0822821 0.0079699 0.0822821 0.0079699 0.0822821 0.9920301 -0.0822821
171 0.9913459 -0.0859567 0.0086541 0.0859567 0.0086541 0.0859567 0.9913459 -0.0859567
179 0.9906011 -0.0897887 0.0093989 0.0897887 0.0093989 0.0897887 0.9906011 -0.0897887
187 0.9897906 -0.0937840 0.0102094 0.0937840 0.0102094 0.0937840 0.9897906 -0.0937840
196 0.9889089 -0.0979486 0.0110911 0.0979486 0.0110911 0.0979486 0.9889089 -0.0979486
205 0.9879498 -0.1022884 0.0120502 0.1022884 0.0120502 0.1022884 0.9879498 -0.1022884
214 0.9869070 -0.1068097 0.0130930 0.1068097 0.0130930 0.1068097 0.9869070 -0.1068097
224 0.9857733 -0.1115188 0.0142267 0.1115188 0.0142267 0.1115188 0.9857733 -0.1115188
234 0.9845411 -0.1164219 0.0154589 0.1164219 0.0154589 0.1164219 0.9845411 -0.1164219
245 0.9832024 -0.1215253 0.0167976 0.1215253 0.0167976 0.1215253 0.9832024 -0.1215253
256 0.9817482 -0.1268355 0.0182518 0.1268355 0.0182518 0.1268355 0.9817482 -0.1268355
268 0.9801691 -0.1323587 0.0198309 0.1323587 0.0198309 0.1323587 0.9801691 -0.1323587
280 0.9784547 -0.1381011 0.0215453 0.1381011 0.0215453 0.1381011 0.9784547 -0.1381011
293 0.9765940 -0.1440690 0.0234060 0.1440690 0.0234060 0.1440690 0.9765940 -0.1440690
306 0.9745752 -0.1502682 0.0254248 0.1502682 0.0254248 0.1502682 0.9745752 -0.1502682
320 0.9723854 -0.1567044 0.0276146 0.1567044 0.0276146 0.1567044 0.9723854 -0.1567044
335 0.9700108 -0.1633831 0.0299892 0.1633831 0.0299892 0.1633831 0.9700108 -0.1633831
350 0.9674367 -0.1703092 0.0325633 0.1703092 0.0325633 0.1703092 0.9674367 -0.1703092
366 0.9646473 -0.1774872 0.0353527 0.1774872 0.0353527 0.1774872 0.9646473 -0.1774872
383 0.9616256 -0.1849210 0.0383744 0.1849210 0.0383744 0.1849210 0.9616256 -0.1849210
401 0.9583535 -0.1926137 0.0416465 0.1926137 0.0416465 0.1926137 0.9583535 -0.1926137
419 0.9548118 -0.2005676 0.0451882 0.2005676 0.0451882 0.2005676 0.9548118 -0.2005676
438 0.9509799 -0.2087837 0.0490201 0.2087837 0.0490201 0.2087837 0.9509799 -0.2087837
458 0.9468363 -0.2172620 0.0531637 0.2172620 0.0531637 0.2172620 0.9468363 -0.2172620
479 0.9423580 -0.2260010 0.0576420 0.2260010 0.0576420 0.2260010 0.9423580 -0.2260010
501 0.9375209 -0.2349976 0.0624791 0.2349976 0.0624791 0.2349976 0.9375209 -0.2349976
524 0.9322999 -0.2442469 0.0677001 0.2442469 0.0677001 0.2442469 0.9322999 -0.2442469
548 0.9266688 -0.2537417 0.0733312 0.2537417 0.0733312 0.2537417 0.9266688 -0.2537417
573 0.9206004 -0.2634727 0.0793996 0.2634727 0.0793996 0.2634727 0.9206004 -0.2634727
600 0.9140667 -0.2734280 0.0859333 0.2734280 0.0859333 0.2734280 0.9140667 -0.2734280
627 0.9070393 -0.2835926 0.0929607 0.2835926 0.0929607 0.2835926 0.9070393 -0.2835926
656 0.8994892 -0.2939488 0.1005108 0.2939488 0.1005108 0.2939488 0.8994892 -0.2939488
686 0.8913874 -0.3044752 0.1086126 0.3044752 0.1086126 0.3044752 0.8913874 -0.3044752
717 0.8827053 -0.3151471 0.1172947 0.3151471 0.1172947 0.3151471 0.8827053 -0.3151471
750 0.8734147 -0.3259360 0.1265853 0.3259360 0.1265853 0.3259360 0.8734147 -0.3259360
784 0.8634886 -0.3368094 0.1365114 0.3368094 0.1365114 0.3368094 0.8634886 -0.3368094
820 0.8529015 -0.3477306 0.1470985 0.3477306 0.1470985 0.3477306 0.8529015 -0.3477306
858 0.8416302 -0.3586591 0.1583698 0.3586591 0.1583698 0.3586591 0.8416302 -0.3586591
897 0.8296538 -0.3695501 0.1703462 0.3695501 0.1703462 0.3695501 0.8296538 -0.3695501
938 0.8169550 -0.3803548 0.1830450 0.3803548 0.1830450 0.3803548 0.8169550 -0.3803548
981 0.8035204 -0.3910203 0.1964796 0.3910203 0.1964796 0.3910203 0.8035204 -0.3910203
1026 0.7893412 -0.4014906 0.2106588 0.4014906 0.2106588 0.4014906 0.7893412 -0.4014906
1073 0.7744139 -0.4117062 0.2255861 0.4117062 0.2255861 0.4117062 0.7744139 -0.4117062
1122 0.7587407 -0.4216050 0.2412593 0.4216050 0.2412593 0.4216050 0.7587407 -0.4216050
1174 0.7423306 -0.4311230 0.2576694 0.4311230 0.2576694 0.4311230 0.7423306 -0.4311230
1227 0.7251994 -0.4401947 0.2748006 0.4401947 0.2748006 0.4401947 0.7251994 -0.4401947
1283 0.7073703 -0.4487545 0.2926297 0.4487545 0.2926297 0.4487545 0.7073703 -0.4487545
1342 0.6888742 -0.4567374 0.3111258 0.4567374 0.3111258 0.4567374 0.6888742 -0.4567374
1404 0.6697498 -0.4640798 0.3302502 0.4640798 0.3302502 0.4640798 0.6697498 -0.4640798
1468 0.6500437 -0.4707211 0.3499563 0.4707211 0.3499563 0.4707211 0.6500437 -0.4707211
1535 0.6298099 -0.4766047 0.3701901 0.4766047 0.3701901 0.4766047 0.6298099 -0.4766047
1606 0.6091094 -0.4816787 0.3908906 0.4816787 0.3908906 0.4816787 0.6091094 -0.4816787
1679 0.5880100 -0.4858976 0.4119900 0.4858976 0.4119900 0.4858976 0.5880100 -0.4858976
1756 0.5665851 -0.4892228 0.4334149 0.4892228 0.4334149 0.4892228 0.5665851 -0.4892228
1836 0.5449126 -0.4916237 0.4550874 0.4916237 0.4550874 0.4916237 0.5449126 -0.4916237
1920 0.5230744 -0.4930783 0.4769256 0.4930783 0.4769256 0.4930783 0.5230744 -0.4930783
2008 0.5011545 -0.4935736 0.4988455 0.4935736 0.4988455 0.4935736 0.5011545 -0.4935736
2100 0.4792381 -0.4931061 0.5207619 0.4931061 0.5207619 0.4931061 0.4792381 -0.4931061
2196 0.4574099 -0.4916815 0.5425901 0.4916815 0.5425901 0.4916815 0.4574099 -0.4916815
2297 0.4357533 -0.4893149 0.5642467 0.4893149 0.5642467 0.4893149 0.4357533 -0.4893149
2402 0.4143488 -0.4860302 0.5856512 0.4860302 0.5856512 0.4860302 0.4143488 -0.4860302
2512 0.3932726 -0.4818597 0.6067274 0.4818597 0.6067274 0.4818597 0.3932726 -0.4818597
2627 0.3725963 -0.4768428 0.6274037 0.4768428 0.6274037 0.4768428 0.3725963 -0.4768428
2748 0.3523851 -0.4710258 0.6476149 0.4710258 0.6476149 0.4710258 0.3523851 -0.4710258
2873 0.3326981 -0.4644605 0.6673019 0.4644605 0.6673019 0.4644605 0.3326981 -0.4644605
3005 0.3135869 -0.4572032 0.6864131 0.4572032 0.6864131 0.4572032 0.3135869 -0.4572032
3143 0.2950959 -0.4493137 0.7049041 0.4493137 0.7049041 0.4493137 0.2950959 -0.4493137
3287 0.2772620 -0.4408539 0.7227380 0.4408539 0.7227380 0.4408539 0.2772620 -0.4408539
3437 0.2601146 -0.4318874 0.7398854 0.4318874 0.7398854 0.4318874 0.2601146 -0.4318874
3594 0.2436757 -0.4224778 0.7563243 0.4224778 0.7563243 0.4224778 0.2436757 -0.4224778
3759 0.2279605 -0.4126882 0.7720395 0.4126882 0.7720395 0.4126882 0.2279605 -0.4126882
3931 0.2129775 -0.4025805 0.7870225 0.4025805 0.7870225 0.4025805 0.2129775 -0.4025805
4111 0.1987292 -0.3922145 0.8012708 0.3922145 0.8012708 0.3922145 0.1987292 -0.3922145
4299 0.1852127 -0.3816475 0.8147873 0.3816475 0.8147873 0.3816475 0.1852127 -0.3816475
4496 0.1724203 -0.3709337 0.8275797 0.3709337 0.8275797 0.3709337 0.1724203 -0.3709337
4702 0.1603396 -0.3601241 0.8396604 0.3601241 0.8396604 0.3601241 0.1603396 -0.3601241
4918 0.1489550 -0.3492660 0.8510450 0.3492660 0.8510450 0.3492660 0.1489550 -0.3492660
5143 0.1382475 -0.3384032 0.8617525 0.3384032 0.8617525 0.3384032 0.1382475 -0.3384032
5378 0.1281955 -0.3275755 0.8718045 0.3275755 0.8718045 0.3275755 0.1281955 -0.3275755
5625 0.1187757 -0.3168188 0.8812243 0.3168188 0.8812243 0.3168188 0.1187757 -0.3168188
5882 0.1099627 -0.3061657 0.8900373 0.3061657 0.8900373 0.3061657 0.1099627 -0.3061657
6151 0.1017305 -0.2956449 0.8982695 0.2956449 0.8982695 0.2956449 0.1017305 -0.2956449
6433 0.0940521 -0.2852815 0.9059479 0.2852815 0.9059479 0.2852815 0.0940521 -0.2852815
6728 0.0869001 -0.2750975 0.9130999 0.2750975 0.9130999 0.2750975 0.0869001 -0.2750975
7036 0.0802470 -0.2651117 0.9197530 0.2651117 0.9197530 0.2651117 0.0802470 -0.2651117
7358 0.0740656 -0.2553399 0.9259344 0.2553399 0.9259344 0.2553399 0.0740656 -0.2553399
7695 0.0683289 -0.2457955 0.9316711 0.2457955 0.9316711 0.2457955 0.0683289 -0.2457955
8047 0.0630106 -0.2364889 0.9369894 0.2364889 0.9369894 0.2364889 0.0630106 -0.2364889
8416 0.0580851 -0.2274287 0.9419149 0.2274287 0.9419149 0.2274287 0.0580851 -0.2274287
8801 0.0535275 -0.2186210 0.9464725 0.2186210 0.9464725 0.2186210 0.0535275 -0.2186210
9204 0.0493139 -0.2100704 0.9506861 0.2100704 0.9506861 0.2100704 0.0493139 -0.2100704
9626 0.0454216 -0.2017797 0.9545784 0.2017797 0.9545784 0.2017797 0.0454216 -0.2017797
10066 0.0418285 -0.1937500 0.9581715 0.1937500 0.9581715 0.1937500 0.0418285 -0.1937500
10527 0.0385140 -0.1859813 0.9614860 0.1859813 0.9614860 0.1859813 0.0385140 -0.1859813
11009 0.0354582 -0.1784724 0.9645418 0.1784724 0.9645418 0.1784724 0.0354582 -0.1784724
11514 0.0326427 -0.1712212 0.9673573 0.1712212 0.9673573 0.1712212 0.0326427 -0.1712212
12041 0.0300497 -0.1642244 0.9699503 0.1642244 0.9699503 0.1642244 0.0300497 -0.1642244
12592 0.0276628 -0.1574783 0.9723372 0.1574783 0.9723372 0.1574783 0.0276628 -0.1574783
13169 0.0254666 -0.1509785 0.9745334 0.1509785 0.9745334 0.1509785 0.0254666 -0.1509785
13772 0.0234464 -0.1447198 0.9765536 0.1447198 0.9765536 0.1447198 0.0234464 -0.1447198
14402 0.0215888 -0.1386970 0.9784112 0.1386970 0.9784112 0.1386970 0.0215888 -0.1386970
15062 0.0198811 -0.1329042 0.9801189 0.1329042 0.9801189 0.1329042 0.0198811 -0.1329042
15752 0.0183115 -0.1273353 0.9816885 0.1273353 0.9816885 0.1273353 0.0183115 -0.1273353
16473 0.0168691 -0.1219843 0.9831309 0.1219843 0.9831309 0.1219843 0.0168691 -0.1219843
17227 0.0155438 -0.1168445 0.9844562 0.1168445 0.9844562 0.1168445 0.0155438 -0.1168445
18016 0.0143261 -0.1119097 0.9856739 0.1119097 0.9856739 0.1119097 0.0143261 -0.1119097
18841 0.0132074 -0.1071732 0.9867926 0.1071732 0.9867926 0.1071732 0.0132074 -0.1071732
19704 0.0121795 -0.1026284 0.9878205 0.1026284 0.9878205 0.1026284 0.0121795 -0.1026284
20606 0.0112350 -0.0982688 0.9887650 0.0982688 0.9887650 0.0982688 0.0112350 -0.0982688
21550 0.0103671 -0.0940880 0.9896329 0.0940880 0.9896329 0.0940880 0.0103671 -0.0940880
22537 0.0095695 -0.0900795 0.9904305 0.0900795 0.9904305 0.0900795 0.0095695 -0.0900795
23569 0.0088363 -0.0862371 0.9911637 0.0862371 0.9911637 0.0862371 0.0088363 -0.0862371
24648 0.0081621 -0.0825544 0.9918379 0.0825544 0.9918379 0.0825544 0.0081621 -0.0825544
25777 0.0075421 -0.0790255 0.9924579 0.0790255 0.9924579 0.0790255 0.0075421 -0.0790255
26957 0.0069717 -0.0756443 0.9930283 0.0756443 0.9930283 0.0756443 0.0069717 -0.0756443
28191 0.0064469 -0.0724052 0.9935531 0.0724052 0.9935531 0.0724052 0.0064469 -0.0724052
29482 0.0059637 -0.0693024 0.9940363 0.0693024 0.9940363 0.0693024 0.0059637 -0.0693024
30832 0.0055188 -0.0663306 0.9944812 0.0663306 0.9944812 0.0663306 0.0055188 -0.0663306
32244 0.0051090 -0.0634844 0.9948910 0.0634844 0.9948910 0.0634844 0.0051090 -0.0634844
33721 0.0047314 -0.0607586 0.9952686 0.0607586 0.9952686 0.0607586 0.0047314 -0.0607586
35265 0.0043833 -0.0581485 0.9956167 0.0581485 0.9956167 0.0581485 0.0043833 -0.0581485
36880 0.0040623 -0.0556491 0.9959377 0.0556491 0.9959377 0.0556491 0.0040623 -0.0556491
38569 0.0037662 -0.0532558 0.9962338 0.0532558 0.9962338 0.0532558 0.0037662 -0.0532558
40335 0.0034931 -0.0509644 0.9965069 0.0509644 0.9965069 0.0509644 0.0034931 -0.0509644
42182 0.0032410 -0.0487704 0.9967590 0.0487704 0.9967590 0.0487704 0.0032410 -0.0487704
44113 0.0030084 -0.0466698 0.9969916 0.0466698 0.9969916 0.0466698 0.0030084 -0.0466698
46134 0.0027936 -0.0446587 0.9972064 0.0446587 0.9972064 0.0446587 0.0027936 -0.0446587
48246 0.0025953 -0.0427334 0.9974047 0.0427334 0.9974047 0.0427334 0.0025953 -0.0427334
50455 0.0024122 -0.0408901 0.9975878 0.0408901 0.9975878 0.0408901 0.0024122 -0.0408901
52766 0.0022431 -0.0391255 0.9977569 0.0391255 0.9977569 0.0391255 0.0022431 -0.0391255
55182 0.0020870 -0.0374363 0.9979130 0.0374363 0.9979130 0.0374363 0.0020870 -0.0374363
57709 0.0019429 -0.0358192 0.9980571 0.0358192 0.9980571 0.0358192 0.0019429 -0.0358192
60352 0.0018098 -0.0342713 0.9981902 0.0342713 0.9981902 0.0342713 0.0018098 -0.0342713
63115 0.0016870 -0.0327897 0.9983130 0.0327897 0.9983130 0.0327897 0.0016870 -0.0327897
66005 0.0015736 -0.0313715 0.9984264 0.0313715 0.9984264 0.0313715 0.0015736 -0.0313715
69028 0.0014689 -0.0300141 0.9985311 0.0300141 0.9985311 0.0300141 0.0014689 -0.0300141
72189 0.0013723 -0.0287149 0.9986277 0.0287149 0.9986277 0.0287149 0.0013723 -0.0287149
75495 0.0012832 -0.0274715 0.9987168 0.0274715 0.9987168 0.0274715 0.0012832 -0.0274715
78952 0.0012011 -0.0262815 0.9987989 0.0262815 0.9987989 0.0262815 0.0012011 -0.0262815
82567 0.0011252 -0.0251428 0.9988748 0.0251428 0.9988748 0.0251428 0.0011252 -0.0251428
86348 0.0010553 -0.0240531 0.9989447 0.0240531 0.9989447 0.0240531 0.0010553 -0.0240531
90302 0.0009909 -0.0230104 0.9990091 0.0230104 0.9990091 0.0230104 0.0009909 -0.0230104
94437 0.0009314 -0.0220127 0.9990686 0.0220127 0.9990686 0.0220127 0.0009314 -0.0220127
98762 0.0008766 -0.0210581 0.9991234 0.0210581 0.9991234 0.0210581 0.0008766 -0.0210581
103284 0.0008260 -0.0201448 0.9991740 0.0201448 0.9991740 0.0201448 0.0008260 -0.0201448
108014 0.0007793 -0.0192710 0.9992207 0.0192710 0.9992207 0.0192710 0.0007793 -0.0192710
112960 0.0007363 -0.0184351 0.9992637 0.0184351 0.9992637 0.0184351 0.0007363 -0.0184351
118133 0.0006965 -0.0176354 0.9993035 0.0176354 0.9993035 0.0176354 0.0006965 -0.0176354
123542 0.0006598 -0.0168705 0.9993402 0.0168705 0.9993402 0.0168705 0.0006598 -0.0168705
129199 0.0006259 -0.0161387 0.9993741 0.0161387 0.9993741 0.0161387 0.0006259 -0.0161387
135116 0.0005946 -0.0154388 0.9994054 0.0154388 0.9994054 0.0154388 0.0005946 -0.0154388
141303 0.0005656 -0.0147694 0.9994344 0.0147694 0.9994344 0.0147694 0.0005656 -0.0147694
147774 0.0005387 -0.0141291 0.9994613 0.0141291 0.9994613 0.0141291 0.0005387 -0.0141291
154540 0.0005137 -0.0135167 0.9994863 0.0135167 0.9994863 0.0135167 0.0005137 -0.0135167
161617 0.0004906 -0.0129310 0.9995094 0.0129310 0.9995094 0.0129310 0.0004906 -0.0129310
169018 0.0004691 -0.0123708 0.9995309 0.0123708 0.9995309 0.0123708 0.0004691 -0.0123708
176758 0.0004490 -0.0118350 0.9995510 0.0118350 0.9995510 0.0118350 0.0004490 -0.0118350
184852 0.0004303 -0.0113226 0.9995697 0.0113226 0.9995697 0.0113226 0.0004303 -0.0113226
193316 0.0004127 -0.0108325 0.9995873 0.0108325 0.9995873 0.0108325 0.0004127 -0.0108325
202169 0.0003963 -0.0103639 0.9996037 0.0103639 0.9996037 0.0103639 0.0003963 -0.0103639
211427 0.0003809 -0.0099156 0.9996191 0.0099156 0.9996191 0.0099156 0.0003809 -0.0099156
221108 0.0003664 -0.0094869 0.9996336 0.0094869 0.9996336 0.0094869 0.0003664 -0.0094869
231233 0.0003528 -0.0090768 0.9996472 0.0090768 0.9996472 0.0090768 0.0003528 -0.0090768
241822 0.0003398 -0.0086846 0.9996602 0.0086846 0.9996602 0.0086846 0.0003398 -0.0086846
252896 0.0003276 -0.0083094 0.9996724 0.0083094 0.9996724 0.0083094 0.0003276 -0.0083094
264476 0.0003159 -0.0079506 0.9996841 0.0079506 0.9996841 0.0079506 0.0003159 -0.0079506
276587 0.0003049 -0.0076073 0.9996951 0.0076073 0.9996951 0.0076073 0.0003049 -0.0076073
289253 0.0002943 -0.0072789 0.9997057 0.0072789 0.9997057 0.0072789 0.0002943 -0.0072789
302498 0.0002842 -0.0069647 0.9997158 0.0069647 0.9997158 0.0069647 0.0002842 -0.0069647
316350 0.0002746 -0.0066640 0.9997254 0.0066640 0.9997254 0.0066640 0.0002746 -0.0066640
330837 0.0002654 -0.0063764 0.9997346 0.0063764 0.9997346 0.0063764 0.0002654 -0.0063764
345986 0.0002565 -0.0061011 0.9997435 0.0061011 0.9997435 0.0061011 0.0002565 -0.0061011
361830 0.0002481 -0.0058377 0.9997519 0.0058377 0.9997519 0.0058377 0.0002481 -0.0058377
378399 0.0002400 -0.0055855 0.9997600 0.0055855 0.9997600 0.0055855 0.0002400 -0.0055855
395726 0.0002322 -0.0053442 0.9997678 0.0053442 0.9997678 0.0053442 0.0002322 -0.0053442
413847 0.0002247 -0.0051132 0.9997753 0.0051132 0.9997753 0.0051132 0.0002247 -0.0051132
432798 0.0002176 -0.0048920 0.9997824 0.0048920 0.9997824 0.0048920 0.0002176 -0.0048920
452617 0.0002107 -0.0046803 0.9997893 0.0046803 0.9997893 0.0046803 0.0002107 -0.0046803
473344 0.0002042 -0.0044776 0.9997958 0.0044776 0.9997958 0.0044776 0.0002042 -0.0044776
495019 0.0001979 -0.0042836 0.9998021 0.0042836 0.9998021 0.0042836 0.0001979 -0.0042836
517687 0.0001920 -0.0040977 0.9998080 0.0040977 0.9998080 0.0040977 0.0001920 -0.0040977
541393 0.0001863 -0.0039197 0.9998137 0.0039197 0.9998137 0.0039197 0.0001863 -0.0039197
566185 0.0001809 -0.0037493 0.9998191 0.0037493 0.9998191 0.0037493 0.0001809 -0.0037493
592111 0.0001757 -0.0035861 0.9998243 0.0035861 0.9998243 0.0035861 0.0001757 -0.0035861
619225 0.0001709 -0.0034298 0.9998291 0.0034298 0.9998291 0.0034298 0.0001709 -0.0034298
647581 0.0001663 -0.0032801 0.9998337 0.0032801 0.9998337 0.0032801 0.0001663 -0.0032801
677235 0.0001619 -0.0031367 0.9998381 0.0031367 0.9998381 0.0031367 0.0001619 -0.0031367
708247 0.0001578 -0.0029994 0.9998422 0.0029994 0.9998422 0.0029994 0.0001578 -0.0029994
740679 0.0001540 -0.0028679 0.9998460 0.0028679 0.9998460 0.0028679 0.0001540 -0.0028679
774597 0.0001504 -0.0027419 0.9998496 0.0027419 0.9998496 0.0027419 0.0001504 -0.0027419
810067 0.0001470 -0.0026212 0.9998530 0.0026212 0.9998530 0.0026212 0.0001470 -0.0026212
847162 0.0001438 -0.0025056 0.9998562 0.0025056 0.9998562 0.0025056 0.0001438 -0.0025056
885955 0.0001408 -0.0023949 0.9998592 0.0023949 0.9998592 0.0023949 0.0001408 -0.0023949
926525 0.0001380 -0.0022889 0.9998620 0.0022889 0.9998620 0.0022889 0.0001380 -0.0022889
968953 0.0001355 -0.0021872 0.9998645 0.0021872 0.9998645 0.0021872 0.0001355 -0.0021872
1013323 0.0001331 -0.0020899 0.9998669 0.0020899 0.9998669 0.0020899 0.0001331 -0.0020899
1059725 0.0001308 -0.0019966 0.9998692 0.0019966 0.9998692 0.0019966 0.0001308 -0.0019966
1108252 0.0001288 -0.0019073 0.9998712 0.0019073 0.9998712 0.0019073 0.0001288 -0.0019073
1159002 0.0001269 -0.0018217 0.9998731 0.0018217 0.9998731 0.0018217 0.0001269 -0.0018217
1212075 0.0001251 -0.0017396 0.9998749 0.0017396 0.9998749 0.0017396 0.0001251 -0.0017396
1267578 0.0001235 -0.0016610 0.9998765 0.0016610 0.9998765 0.0016610 0.0001235 -0.0016610
1325623 0.0001220 -0.0015856 0.9998780 0.0015856 0.9998780 0.0015856 0.0001220 -0.0015856
1386327 0.0001206 -0.0015134 0.9998794 0.0015134 0.9998794 0.0015134 0.0001206 -0.0015134
1449809 0.0001193 -0.0014442 0.9998807 0.0014442 0.9998807 0.0014442 0.0001193 -0.0014442
1516199 0.0001182 -0.0013777 0.9998818 0.0013777 0.9998818 0.0013777 0.0001182 -0.0013777
1585629 0.0001171 -0.0013141 0.9998829 0.0013141 0.9998829 0.0013141 0.0001171 -0.0013141
1658239 0.0001162 -0.0012530 0.9998838 0.0012530 0.9998838 0.0012530 0.0001162 -0.0012530
1734173 0.0001153 -0.0011944 0.9998847 0.0011944 0.9998847 0.0011944 0.0001153 -0.0011944
1813585 0.0001145 -0.0011382 0.9998855 0.0011382 0.9998855 0.0011382 0.0001145 -0.0011382
1896632 0.0001138 -0.0010842 0.9998862 0.0010842 0.9998862 0.0010842 0.0001138 -0.0010842
1983483 0.0001132 -0.0010324 0.9998868 0.0010324 0.9998868 0.0010324 0.0001132 -0.0010324
2074311 0.0001126 -0.0009826 0.9998874 0.0009826 0.9998874 0.0009826 0.0001126 -0.0009826
