!Murata Part Number: GRM155R71H823KE14
!These Parameters are Measured in Series Mode Connection
!Data Generated on Mar 30, 2021
!       o--ll--o
!Port1            Port2
!       o------o
!Operation Temp=25[degC], DC Bias Voltage=0[V]
!Freq. Start=100[Hz] Stop=6[GHz] 401[Steps]
# Hz S RI R 50
!Freq.(Hz) S11(Real) S11(Imag) S21(Real) S21(Imag) S12(Real) S12(Imag) S22(Real) S22(Imag)
100 0.9999490 -0.0049359 0.0000510 0.0049359 0.0000510 0.0049359 0.9999490 -0.0049359
105 0.9999456 -0.0051611 0.0000544 0.0051611 0.0000544 0.0051611 0.9999456 -0.0051611
109 0.9999418 -0.0053966 0.0000582 0.0053966 0.0000582 0.0053966 0.9999418 -0.0053966
114 0.9999378 -0.0056429 0.0000622 0.0056429 0.0000622 0.0056429 0.9999378 -0.0056429
120 0.9999334 -0.0059004 0.0000666 0.0059004 0.0000666 0.0059004 0.9999334 -0.0059004
125 0.9999286 -0.0061696 0.0000714 0.0061696 0.0000714 0.0061696 0.9999286 -0.0061696
131 0.9999235 -0.0064511 0.0000765 0.0064511 0.0000765 0.0064511 0.9999235 -0.0064511
137 0.9999180 -0.0067454 0.0000820 0.0067454 0.0000820 0.0067454 0.9999180 -0.0067454
143 0.9999120 -0.0070531 0.0000880 0.0070531 0.0000880 0.0070531 0.9999120 -0.0070531
150 0.9999056 -0.0073749 0.0000944 0.0073749 0.0000944 0.0073749 0.9999056 -0.0073749
156 0.9998986 -0.0077113 0.0001014 0.0077113 0.0001014 0.0077113 0.9998986 -0.0077113
164 0.9998911 -0.0080630 0.0001089 0.0080630 0.0001089 0.0080630 0.9998911 -0.0080630
171 0.9998830 -0.0084308 0.0001170 0.0084308 0.0001170 0.0084308 0.9998830 -0.0084308
179 0.9998742 -0.0088153 0.0001258 0.0088153 0.0001258 0.0088153 0.9998742 -0.0088153
187 0.9998647 -0.0092174 0.0001353 0.0092174 0.0001353 0.0092174 0.9998647 -0.0092174
196 0.9998545 -0.0096377 0.0001455 0.0096377 0.0001455 0.0096377 0.9998545 -0.0096377
205 0.9998434 -0.0100772 0.0001566 0.0100772 0.0001566 0.0100772 0.9998434 -0.0100772
214 0.9998315 -0.0105368 0.0001685 0.0105368 0.0001685 0.0105368 0.9998315 -0.0105368
224 0.9998185 -0.0110173 0.0001815 0.0110173 0.0001815 0.0110173 0.9998185 -0.0110173
234 0.9998045 -0.0115196 0.0001955 0.0115196 0.0001955 0.0115196 0.9998045 -0.0115196
245 0.9997894 -0.0120449 0.0002106 0.0120449 0.0002106 0.0120449 0.9997894 -0.0120449
256 0.9997730 -0.0125941 0.0002270 0.0125941 0.0002270 0.0125941 0.9997730 -0.0125941
268 0.9997553 -0.0131684 0.0002447 0.0131684 0.0002447 0.0131684 0.9997553 -0.0131684
280 0.9997361 -0.0137688 0.0002639 0.0137688 0.0002639 0.0137688 0.9997361 -0.0137688
293 0.9997153 -0.0143967 0.0002847 0.0143967 0.0002847 0.0143967 0.9997153 -0.0143967
306 0.9996927 -0.0150531 0.0003073 0.0150531 0.0003073 0.0150531 0.9996927 -0.0150531
320 0.9996682 -0.0157396 0.0003318 0.0157396 0.0003318 0.0157396 0.9996682 -0.0157396
335 0.9996416 -0.0164573 0.0003584 0.0164573 0.0003584 0.0164573 0.9996416 -0.0164573
350 0.9996127 -0.0172077 0.0003873 0.0172077 0.0003873 0.0172077 0.9996127 -0.0172077
366 0.9995813 -0.0179924 0.0004187 0.0179924 0.0004187 0.0179924 0.9995813 -0.0179924
383 0.9995472 -0.0188129 0.0004528 0.0188129 0.0004528 0.0188129 0.9995472 -0.0188129
401 0.9995101 -0.0196708 0.0004899 0.0196708 0.0004899 0.0196708 0.9995101 -0.0196708
419 0.9994697 -0.0205678 0.0005303 0.0205678 0.0005303 0.0205678 0.9994697 -0.0205678
438 0.9994258 -0.0215057 0.0005742 0.0215057 0.0005742 0.0215057 0.9994258 -0.0215057
458 0.9993779 -0.0224863 0.0006221 0.0224863 0.0006221 0.0224863 0.9993779 -0.0224863
479 0.9993258 -0.0235116 0.0006742 0.0235116 0.0006742 0.0235116 0.9993258 -0.0235116
501 0.9992689 -0.0245836 0.0007311 0.0245836 0.0007311 0.0245836 0.9992689 -0.0245836
524 0.9992070 -0.0257043 0.0007930 0.0257043 0.0007930 0.0257043 0.9992070 -0.0257043
548 0.9991395 -0.0268761 0.0008605 0.0268761 0.0008605 0.0268761 0.9991395 -0.0268761
573 0.9990659 -0.0281012 0.0009341 0.0281012 0.0009341 0.0281012 0.9990659 -0.0281012
600 0.9989856 -0.0293819 0.0010144 0.0293819 0.0010144 0.0293819 0.9989856 -0.0293819
627 0.9988980 -0.0307207 0.0011020 0.0307207 0.0011020 0.0307207 0.9988980 -0.0307207
656 0.9988024 -0.0321203 0.0011976 0.0321203 0.0011976 0.0321203 0.9988024 -0.0321203
686 0.9986982 -0.0335834 0.0013018 0.0335834 0.0013018 0.0335834 0.9986982 -0.0335834
717 0.9985845 -0.0351127 0.0014155 0.0351127 0.0014155 0.0351127 0.9985845 -0.0351127
750 0.9984604 -0.0367112 0.0015396 0.0367112 0.0015396 0.0367112 0.9984604 -0.0367112
784 0.9983250 -0.0383820 0.0016750 0.0383820 0.0016750 0.0383820 0.9983250 -0.0383820
820 0.9981773 -0.0401282 0.0018227 0.0401282 0.0018227 0.0401282 0.9981773 -0.0401282
858 0.9980162 -0.0419532 0.0019838 0.0419532 0.0019838 0.0419532 0.9980162 -0.0419532
897 0.9978403 -0.0438603 0.0021597 0.0438603 0.0021597 0.0438603 0.9978403 -0.0438603
938 0.9976486 -0.0458533 0.0023514 0.0458533 0.0023514 0.0458533 0.9976486 -0.0458533
981 0.9974393 -0.0479357 0.0025607 0.0479357 0.0025607 0.0479357 0.9974393 -0.0479357
1026 0.9972112 -0.0501116 0.0027888 0.0501116 0.0027888 0.0501116 0.9972112 -0.0501116
1073 0.9969623 -0.0523849 0.0030377 0.0523849 0.0030377 0.0523849 0.9969623 -0.0523849
1122 0.9966908 -0.0547597 0.0033092 0.0547597 0.0033092 0.0547597 0.9966908 -0.0547597
1174 0.9963949 -0.0572405 0.0036051 0.0572405 0.0036051 0.0572405 0.9963949 -0.0572405
1227 0.9960721 -0.0598318 0.0039279 0.0598318 0.0039279 0.0598318 0.9960721 -0.0598318
1283 0.9957203 -0.0625382 0.0042797 0.0625382 0.0042797 0.0625382 0.9957203 -0.0625382
1342 0.9953367 -0.0653646 0.0046633 0.0653646 0.0046633 0.0653646 0.9953367 -0.0653646
1404 0.9949186 -0.0683160 0.0050814 0.0683160 0.0050814 0.0683160 0.9949186 -0.0683160
1468 0.9944629 -0.0713975 0.0055371 0.0713975 0.0055371 0.0713975 0.9944629 -0.0713975
1535 0.9939662 -0.0746146 0.0060338 0.0746146 0.0060338 0.0746146 0.9939662 -0.0746146
1606 0.9934249 -0.0779728 0.0065751 0.0779728 0.0065751 0.0779728 0.9934249 -0.0779728
1679 0.9928351 -0.0814778 0.0071649 0.0814778 0.0071649 0.0814778 0.9928351 -0.0814778
1756 0.9921924 -0.0851355 0.0078076 0.0851355 0.0078076 0.0851355 0.9921924 -0.0851355
1836 0.9914921 -0.0889519 0.0085079 0.0889519 0.0085079 0.0889519 0.9914921 -0.0889519
1920 0.9907293 -0.0929332 0.0092707 0.0929332 0.0092707 0.0929332 0.9907293 -0.0929332
2008 0.9898982 -0.0970858 0.0101018 0.0970858 0.0101018 0.0970858 0.9898982 -0.0970858
2100 0.9889928 -0.1014161 0.0110072 0.1014161 0.0110072 0.1014161 0.9889928 -0.1014161
2196 0.9880067 -0.1059307 0.0119933 0.1059307 0.0119933 0.1059307 0.9880067 -0.1059307
2297 0.9869327 -0.1106363 0.0130673 0.1106363 0.0130673 0.1106363 0.9869327 -0.1106363
2402 0.9857631 -0.1155396 0.0142369 0.1155396 0.0142369 0.1155396 0.9857631 -0.1155396
2512 0.9844894 -0.1206475 0.0155106 0.1206475 0.0155106 0.1206475 0.9844894 -0.1206475
2627 0.9831026 -0.1259666 0.0168974 0.1259666 0.0168974 0.1259666 0.9831026 -0.1259666
2748 0.9815928 -0.1315037 0.0184072 0.1315037 0.0184072 0.1315037 0.9815928 -0.1315037
2873 0.9799495 -0.1372656 0.0200505 0.1372656 0.0200505 0.1372656 0.9799495 -0.1372656
3005 0.9781611 -0.1432585 0.0218389 0.1432585 0.0218389 0.1432585 0.9781611 -0.1432585
3143 0.9762151 -0.1494890 0.0237849 0.1494890 0.0237849 0.1494890 0.9762151 -0.1494890
3287 0.9740984 -0.1559629 0.0259016 0.1559629 0.0259016 0.1559629 0.9740984 -0.1559629
3437 0.9717965 -0.1626859 0.0282035 0.1626859 0.0282035 0.1626859 0.9717965 -0.1626859
3594 0.9692941 -0.1696631 0.0307059 0.1696631 0.0307059 0.1696631 0.9692941 -0.1696631
3759 0.9665746 -0.1768991 0.0334254 0.1768991 0.0334254 0.1768991 0.9665746 -0.1768991
3931 0.9636205 -0.1843978 0.0363795 0.1843978 0.0363795 0.1843978 0.9636205 -0.1843978
4111 0.9604129 -0.1921624 0.0395871 0.1921624 0.0395871 0.1921624 0.9604129 -0.1921624
4299 0.9569320 -0.2001947 0.0430680 0.2001947 0.0430680 0.2001947 0.9569320 -0.2001947
4496 0.9531566 -0.2084960 0.0468434 0.2084960 0.0468434 0.2084960 0.9531566 -0.2084960
4702 0.9490644 -0.2170657 0.0509356 0.2170657 0.0509356 0.2170657 0.9490644 -0.2170657
4918 0.9446318 -0.2259021 0.0553682 0.2259021 0.0553682 0.2259021 0.9446318 -0.2259021
5143 0.9398342 -0.2350016 0.0601658 0.2350016 0.0601658 0.2350016 0.9398342 -0.2350016
5378 0.9346459 -0.2443587 0.0653541 0.2443587 0.0653541 0.2443587 0.9346459 -0.2443587
5625 0.9290402 -0.2539660 0.0709598 0.2539660 0.0709598 0.2539660 0.9290402 -0.2539660
5882 0.9229894 -0.2638134 0.0770106 0.2638134 0.0770106 0.2638134 0.9229894 -0.2638134
6151 0.9164654 -0.2738884 0.0835346 0.2738884 0.0835346 0.2738884 0.9164654 -0.2738884
6433 0.9094392 -0.2841754 0.0905608 0.2841754 0.0905608 0.2841754 0.9094392 -0.2841754
6728 0.9018819 -0.2946560 0.0981181 0.2946560 0.0981181 0.2946560 0.9018819 -0.2946560
7036 0.8937641 -0.3053082 0.1062359 0.3053082 0.1062359 0.3053082 0.8937641 -0.3053082
7358 0.8850572 -0.3161066 0.1149428 0.3161066 0.1149428 0.3161066 0.8850572 -0.3161066
7695 0.8757331 -0.3270218 0.1242669 0.3270218 0.1242669 0.3270218 0.8757331 -0.3270218
8047 0.8657647 -0.3380209 0.1342353 0.3380209 0.1342353 0.3380209 0.8657647 -0.3380209
8416 0.8551268 -0.3490667 0.1448732 0.3490667 0.1448732 0.3490667 0.8551268 -0.3490667
8801 0.8437962 -0.3601178 0.1562038 0.3601178 0.1562038 0.3601178 0.8437962 -0.3601178
9204 0.8317524 -0.3711290 0.1682476 0.3711290 0.1682476 0.3711290 0.8317524 -0.3711290
9626 0.8189783 -0.3820510 0.1810217 0.3820510 0.1810217 0.3820510 0.8189783 -0.3820510
10066 0.8054607 -0.3928306 0.1945393 0.3928306 0.1945393 0.3928306 0.8054607 -0.3928306
10527 0.7911912 -0.4034112 0.2088088 0.4034112 0.2088088 0.4034112 0.7911912 -0.4034112
11009 0.7761665 -0.4137331 0.2238335 0.4137331 0.2238335 0.4137331 0.7761665 -0.4137331
11514 0.7603893 -0.4237340 0.2396107 0.4237340 0.2396107 0.4237340 0.7603893 -0.4237340
12041 0.7438686 -0.4333496 0.2561314 0.4333496 0.2561314 0.4333496 0.7438686 -0.4333496
12592 0.7266205 -0.4425142 0.2733795 0.4425142 0.2733795 0.4425142 0.7266205 -0.4425142
13169 0.7086683 -0.4511621 0.2913317 0.4511621 0.2913317 0.4511621 0.7086683 -0.4511621
13772 0.6900429 -0.4592279 0.3099571 0.4592279 0.3099571 0.4592279 0.6900429 -0.4592279
14402 0.6707831 -0.4666479 0.3292169 0.4666479 0.3292169 0.4666479 0.6707831 -0.4666479
15062 0.6509354 -0.4733612 0.3490646 0.4733612 0.3490646 0.4733612 0.6509354 -0.4733612
15752 0.6305537 -0.4793105 0.3694463 0.4793105 0.3694463 0.4793105 0.6305537 -0.4793105
16473 0.6096990 -0.4844438 0.3903010 0.4844438 0.3903010 0.4844438 0.6096990 -0.4844438
17227 0.5884391 -0.4887146 0.4115609 0.4887146 0.4115609 0.4887146 0.5884391 -0.4887146
18016 0.5668471 -0.4920836 0.4331529 0.4920836 0.4331529 0.4920836 0.5668471 -0.4920836
18841 0.5450015 -0.4945193 0.4549985 0.4945193 0.4549985 0.4945193 0.5450015 -0.4945193
19704 0.5229842 -0.4959985 0.4770158 0.4959985 0.4770158 0.4959985 0.5229842 -0.4959985
20606 0.5008797 -0.4965072 0.4991203 0.4965072 0.4991203 0.4965072 0.5008797 -0.4965072
21550 0.4787740 -0.4960406 0.5212260 0.4960406 0.5212260 0.4960406 0.4787740 -0.4960406
22537 0.4567529 -0.4946033 0.5432471 0.4946033 0.5432471 0.4946033 0.4567529 -0.4946033
23569 0.4349010 -0.4922094 0.5650990 0.4922094 0.5650990 0.4922094 0.4349010 -0.4922094
24648 0.4133002 -0.4888818 0.5866998 0.4888818 0.5866998 0.4888818 0.4133002 -0.4888818
25777 0.3920288 -0.4846520 0.6079712 0.4846520 0.6079712 0.4846520 0.3920288 -0.4846520
26957 0.3711602 -0.4795590 0.6288398 0.4795590 0.6288398 0.4795590 0.3711602 -0.4795590
28191 0.3507619 -0.4736490 0.6492381 0.4736490 0.6492381 0.4736490 0.3507619 -0.4736490
29482 0.3308950 -0.4669741 0.6691050 0.4669741 0.6691050 0.4669741 0.3308950 -0.4669741
30832 0.3116136 -0.4595912 0.6883864 0.4595912 0.6883864 0.4595912 0.3116136 -0.4595912
32244 0.2929641 -0.4515611 0.7070359 0.4515611 0.7070359 0.4515611 0.2929641 -0.4515611
33721 0.2749854 -0.4429472 0.7250146 0.4429472 0.7250146 0.4429472 0.2749854 -0.4429472
35265 0.2577087 -0.4338145 0.7422913 0.4338145 0.7422913 0.4338145 0.2577087 -0.4338145
36880 0.2411574 -0.4242289 0.7588426 0.4242289 0.7588426 0.4242289 0.2411574 -0.4242289
38569 0.2253478 -0.4142556 0.7746522 0.4142556 0.7746522 0.4142556 0.2253478 -0.4142556
40335 0.2102892 -0.4039589 0.7897108 0.4039589 0.7897108 0.4039589 0.2102892 -0.4039589
42182 0.1959846 -0.3934009 0.8040154 0.3934009 0.8040154 0.3934009 0.1959846 -0.3934009
44113 0.1824309 -0.3826414 0.8175691 0.3826414 0.8175691 0.3826414 0.1824309 -0.3826414
46134 0.1696199 -0.3717369 0.8303801 0.3717369 0.8303801 0.3717369 0.1696199 -0.3717369
48246 0.1575387 -0.3607406 0.8424613 0.3607406 0.8424613 0.3607406 0.1575387 -0.3607406
50455 0.1461706 -0.3497018 0.8538294 0.3497018 0.8538294 0.3497018 0.1461706 -0.3497018
52766 0.1354952 -0.3386659 0.8645048 0.3386659 0.8645048 0.3386659 0.1354952 -0.3386659
55182 0.1254897 -0.3276743 0.8745103 0.3276743 0.8745103 0.3276743 0.1254897 -0.3276743
57709 0.1161288 -0.3167642 0.8838712 0.3167642 0.8838712 0.3167642 0.1161288 -0.3167642
60352 0.1073859 -0.3059689 0.8926141 0.3059689 0.8926141 0.3059689 0.1073859 -0.3059689
63115 0.0992330 -0.2953179 0.9007670 0.2953179 0.9007670 0.2953179 0.0992330 -0.2953179
66005 0.0916414 -0.2848368 0.9083586 0.2848368 0.9083586 0.2848368 0.0916414 -0.2848368
69028 0.0845820 -0.2745475 0.9154180 0.2745475 0.9154180 0.2745475 0.0845820 -0.2745475
72189 0.0780259 -0.2644690 0.9219741 0.2644690 0.9219741 0.2644690 0.0780259 -0.2644690
75495 0.0719443 -0.2546168 0.9280557 0.2546168 0.9280557 0.2546168 0.0719443 -0.2546168
78952 0.0663089 -0.2450036 0.9336911 0.2450036 0.9336911 0.2450036 0.0663089 -0.2450036
82567 0.0610921 -0.2356396 0.9389079 0.2356396 0.9389079 0.2356396 0.0610921 -0.2356396
86348 0.0562673 -0.2265326 0.9437327 0.2265326 0.9437327 0.2265326 0.0562673 -0.2265326
90302 0.0518086 -0.2176880 0.9481914 0.2176880 0.9481914 0.2176880 0.0518086 -0.2176880
94437 0.0476915 -0.2091096 0.9523085 0.2091096 0.9523085 0.2091096 0.0476915 -0.2091096
98762 0.0438923 -0.2007994 0.9561077 0.2007994 0.9561077 0.2007994 0.0438923 -0.2007994
103284 0.0403887 -0.1927577 0.9596113 0.1927577 0.9596113 0.1927577 0.0403887 -0.1927577
108014 0.0371594 -0.1849837 0.9628406 0.1849837 0.9628406 0.1849837 0.0371594 -0.1849837
112960 0.0341845 -0.1774754 0.9658155 0.1774754 0.9658155 0.1774754 0.0341845 -0.1774754
118133 0.0314451 -0.1702298 0.9685549 0.1702298 0.9685549 0.1702298 0.0314451 -0.1702298
123542 0.0289235 -0.1632430 0.9710765 0.1632430 0.9710765 0.1632430 0.0289235 -0.1632430
129199 0.0266033 -0.1565105 0.9733967 0.1565105 0.9733967 0.1565105 0.0266033 -0.1565105
135116 0.0244688 -0.1500272 0.9755312 0.1500272 0.9755312 0.1500272 0.0244688 -0.1500272
141303 0.0225058 -0.1437874 0.9774942 0.1437874 0.9774942 0.1437874 0.0225058 -0.1437874
147774 0.0207008 -0.1377852 0.9792992 0.1377852 0.9792992 0.1377852 0.0207008 -0.1377852
154540 0.0190414 -0.1320144 0.9809586 0.1320144 0.9809586 0.1320144 0.0190414 -0.1320144
161617 0.0175160 -0.1264683 0.9824840 0.1264683 0.9824840 0.1264683 0.0175160 -0.1264683
169018 0.0161139 -0.1211404 0.9838861 0.1211404 0.9838861 0.1211404 0.0161139 -0.1211404
176758 0.0148253 -0.1160239 0.9851747 0.1160239 0.9851747 0.1160239 0.0148253 -0.1160239
184852 0.0136411 -0.1111119 0.9863589 0.1111119 0.9863589 0.1111119 0.0136411 -0.1111119
193316 0.0125527 -0.1063978 0.9874473 0.1063978 0.9874473 0.1063978 0.0125527 -0.1063978
202169 0.0115525 -0.1018747 0.9884475 0.1018747 0.9884475 0.1018747 0.0115525 -0.1018747
211427 0.0106334 -0.0975359 0.9893666 0.0975359 0.9893666 0.0975359 0.0106334 -0.0975359
221108 0.0097888 -0.0933749 0.9902112 0.0933749 0.9902112 0.0933749 0.0097888 -0.0933749
231233 0.0090125 -0.0893851 0.9909875 0.0893851 0.9909875 0.0893851 0.0090125 -0.0893851
241822 0.0082992 -0.0855601 0.9917008 0.0855601 0.9917008 0.0855601 0.0082992 -0.0855601
252896 0.0076437 -0.0818938 0.9923563 0.0818938 0.9923563 0.0818938 0.0076437 -0.0818938
264476 0.0070413 -0.0783801 0.9929587 0.0783801 0.9929587 0.0783801 0.0070413 -0.0783801
276587 0.0064878 -0.0750132 0.9935122 0.0750132 0.9935122 0.0750132 0.0064878 -0.0750132
289253 0.0059791 -0.0717872 0.9940209 0.0717872 0.9940209 0.0717872 0.0059791 -0.0717872
302498 0.0055117 -0.0686967 0.9944883 0.0686967 0.9944883 0.0686967 0.0055117 -0.0686967
316350 0.0050823 -0.0657362 0.9949177 0.0657362 0.9949177 0.0657362 0.0050823 -0.0657362
330837 0.0046877 -0.0629007 0.9953123 0.0629007 0.9953123 0.0629007 0.0046877 -0.0629007
345986 0.0043253 -0.0601851 0.9956747 0.0601851 0.9956747 0.0601851 0.0043253 -0.0601851
361830 0.0039923 -0.0575846 0.9960077 0.0575846 0.9960077 0.0575846 0.0039923 -0.0575846
378399 0.0036865 -0.0550944 0.9963135 0.0550944 0.9963135 0.0550944 0.0036865 -0.0550944
395726 0.0034056 -0.0527102 0.9965944 0.0527102 0.9965944 0.0527102 0.0034056 -0.0527102
413847 0.0031476 -0.0504276 0.9968524 0.0504276 0.9968524 0.0504276 0.0031476 -0.0504276
432798 0.0029107 -0.0482424 0.9970893 0.0482424 0.9970893 0.0482424 0.0029107 -0.0482424
452617 0.0026933 -0.0461507 0.9973067 0.0461507 0.9973067 0.0461507 0.0026933 -0.0461507
473344 0.0024936 -0.0441485 0.9975064 0.0441485 0.9975064 0.0441485 0.0024936 -0.0441485
495019 0.0023104 -0.0422322 0.9976896 0.0422322 0.9976896 0.0422322 0.0023104 -0.0422322
517687 0.0021421 -0.0403981 0.9978579 0.0403981 0.9978579 0.0403981 0.0021421 -0.0403981
541393 0.0019877 -0.0386429 0.9980123 0.0386429 0.9980123 0.0386429 0.0019877 -0.0386429
566185 0.0018460 -0.0369633 0.9981540 0.0369633 0.9981540 0.0369633 0.0018460 -0.0369633
592111 0.0017159 -0.0353561 0.9982841 0.0353561 0.9982841 0.0353561 0.0017159 -0.0353561
619225 0.0015966 -0.0338183 0.9984034 0.0338183 0.9984034 0.0338183 0.0015966 -0.0338183
647581 0.0014870 -0.0323468 0.9985130 0.0323468 0.9985130 0.0323468 0.0014870 -0.0323468
677235 0.0013864 -0.0309390 0.9986136 0.0309390 0.9986136 0.0309390 0.0013864 -0.0309390
708247 0.0012941 -0.0295921 0.9987059 0.0295921 0.9987059 0.0295921 0.0012941 -0.0295921
740679 0.0012093 -0.0283036 0.9987907 0.0283036 0.9987907 0.0283036 0.0012093 -0.0283036
774597 0.0011315 -0.0270709 0.9988685 0.0270709 0.9988685 0.0270709 0.0011315 -0.0270709
810067 0.0010600 -0.0258917 0.9989400 0.0258917 0.9989400 0.0258917 0.0010600 -0.0258917
847162 0.0009943 -0.0247637 0.9990057 0.0247637 0.9990057 0.0247637 0.0009943 -0.0247637
885955 0.0009339 -0.0236847 0.9990661 0.0236847 0.9990661 0.0236847 0.0009339 -0.0236847
926525 0.0008784 -0.0226525 0.9991216 0.0226525 0.9991216 0.0226525 0.0008784 -0.0226525
968953 0.0008273 -0.0216652 0.9991727 0.0216652 0.9991727 0.0216652 0.0008273 -0.0216652
1013323 0.0007802 -0.0207209 0.9992198 0.0207209 0.9992198 0.0207209 0.0007802 -0.0207209
1059725 0.0007369 -0.0198176 0.9992631 0.0198176 0.9992631 0.0198176 0.0007369 -0.0198176
1108252 0.0006969 -0.0189536 0.9993031 0.0189536 0.9993031 0.0189536 0.0006969 -0.0189536
1159002 0.0006600 -0.0181271 0.9993400 0.0181271 0.9993400 0.0181271 0.0006600 -0.0181271
1212075 0.0006259 -0.0173366 0.9993741 0.0173366 0.9993741 0.0173366 0.0006259 -0.0173366
1267578 0.0005945 -0.0165805 0.9994055 0.0165805 0.9994055 0.0165805 0.0005945 -0.0165805
1325623 0.0005653 -0.0158572 0.9994347 0.0158572 0.9994347 0.0158572 0.0005653 -0.0158572
1386327 0.0005383 -0.0151653 0.9994617 0.0151653 0.9994617 0.0151653 0.0005383 -0.0151653
1449809 0.0005133 -0.0145035 0.9994867 0.0145035 0.9994867 0.0145035 0.0005133 -0.0145035
1516199 0.0004900 -0.0138704 0.9995100 0.0138704 0.9995100 0.0138704 0.0004900 -0.0138704
1585629 0.0004684 -0.0132647 0.9995316 0.0132647 0.9995316 0.0132647 0.0004684 -0.0132647
1658239 0.0004483 -0.0126853 0.9995517 0.0126853 0.9995517 0.0126853 0.0004483 -0.0126853
1734173 0.0004296 -0.0121310 0.9995704 0.0121310 0.9995704 0.0121310 0.0004296 -0.0121310
1813585 0.0004121 -0.0116006 0.9995879 0.0116006 0.9995879 0.0116006 0.0004121 -0.0116006
1896632 0.0003958 -0.0110932 0.9996042 0.0110932 0.9996042 0.0110932 0.0003958 -0.0110932
1983483 0.0003806 -0.0106076 0.9996194 0.0106076 0.9996194 0.0106076 0.0003806 -0.0106076
2074311 0.0003663 -0.0101429 0.9996337 0.0101429 0.9996337 0.0101429 0.0003663 -0.0101429
