!Murata Part Number: GRM15XB11C332KA86
!These Parameters are Measured in Series Mode Connection
!Data Generated on Mar 30, 2021
!       o--ll--o
!Port1            Port2
!       o------o
!Operation Temp=25[degC], DC Bias Voltage=0[V]
!Freq. Start=100[Hz] Stop=6[GHz] 401[Steps]
# Hz S RI R 50
!Freq.(Hz) S11(Real) S11(Imag) S21(Real) S21(Imag) S12(Real) S12(Imag) S22(Real) S22(Imag)
100 0.9999989 -0.0002021 0.0000011 0.0002021 0.0000011 0.0002021 0.9999989 -0.0002021
105 0.9999989 -0.0002113 0.0000011 0.0002113 0.0000011 0.0002113 0.9999989 -0.0002113
109 0.9999988 -0.0002210 0.0000012 0.0002210 0.0000012 0.0002210 0.9999988 -0.0002210
114 0.9999988 -0.0002311 0.0000012 0.0002311 0.0000012 0.0002311 0.9999988 -0.0002311
120 0.9999987 -0.0002416 0.0000013 0.0002416 0.0000013 0.0002416 0.9999987 -0.0002416
125 0.9999987 -0.0002526 0.0000013 0.0002526 0.0000013 0.0002526 0.9999987 -0.0002526
131 0.9999986 -0.0002641 0.0000014 0.0002641 0.0000014 0.0002641 0.9999986 -0.0002641
137 0.9999985 -0.0002762 0.0000015 0.0002762 0.0000015 0.0002762 0.9999985 -0.0002762
143 0.9999985 -0.0002888 0.0000015 0.0002888 0.0000015 0.0002888 0.9999985 -0.0002888
150 0.9999984 -0.0003020 0.0000016 0.0003020 0.0000016 0.0003020 0.9999984 -0.0003020
156 0.9999983 -0.0003157 0.0000017 0.0003157 0.0000017 0.0003157 0.9999983 -0.0003157
164 0.9999983 -0.0003302 0.0000017 0.0003302 0.0000017 0.0003302 0.9999983 -0.0003302
171 0.9999982 -0.0003452 0.0000018 0.0003452 0.0000018 0.0003452 0.9999982 -0.0003452
179 0.9999981 -0.0003610 0.0000019 0.0003610 0.0000019 0.0003610 0.9999981 -0.0003610
187 0.9999980 -0.0003775 0.0000020 0.0003775 0.0000020 0.0003775 0.9999980 -0.0003775
196 0.9999980 -0.0003947 0.0000020 0.0003947 0.0000020 0.0003947 0.9999980 -0.0003947
205 0.9999979 -0.0004127 0.0000021 0.0004127 0.0000021 0.0004127 0.9999979 -0.0004127
214 0.9999978 -0.0004316 0.0000022 0.0004316 0.0000022 0.0004316 0.9999978 -0.0004316
224 0.9999977 -0.0004513 0.0000023 0.0004513 0.0000023 0.0004513 0.9999977 -0.0004513
234 0.9999976 -0.0004719 0.0000024 0.0004719 0.0000024 0.0004719 0.9999976 -0.0004719
245 0.9999974 -0.0004935 0.0000026 0.0004935 0.0000026 0.0004935 0.9999974 -0.0004935
256 0.9999973 -0.0005160 0.0000027 0.0005160 0.0000027 0.0005160 0.9999973 -0.0005160
268 0.9999972 -0.0005396 0.0000028 0.0005396 0.0000028 0.0005396 0.9999972 -0.0005396
280 0.9999970 -0.0005642 0.0000030 0.0005642 0.0000030 0.0005642 0.9999970 -0.0005642
293 0.9999969 -0.0005900 0.0000031 0.0005900 0.0000031 0.0005900 0.9999969 -0.0005900
306 0.9999967 -0.0006170 0.0000033 0.0006170 0.0000033 0.0006170 0.9999967 -0.0006170
320 0.9999965 -0.0006451 0.0000035 0.0006451 0.0000035 0.0006451 0.9999965 -0.0006451
335 0.9999963 -0.0006746 0.0000037 0.0006746 0.0000037 0.0006746 0.9999963 -0.0006746
350 0.9999961 -0.0007054 0.0000039 0.0007054 0.0000039 0.0007054 0.9999961 -0.0007054
366 0.9999959 -0.0007376 0.0000041 0.0007376 0.0000041 0.0007376 0.9999959 -0.0007376
383 0.9999957 -0.0007713 0.0000043 0.0007713 0.0000043 0.0007713 0.9999957 -0.0007713
401 0.9999954 -0.0008065 0.0000046 0.0008065 0.0000046 0.0008065 0.9999954 -0.0008065
419 0.9999952 -0.0008434 0.0000048 0.0008434 0.0000048 0.0008434 0.9999952 -0.0008434
438 0.9999949 -0.0008819 0.0000051 0.0008819 0.0000051 0.0008819 0.9999949 -0.0008819
458 0.9999946 -0.0009221 0.0000054 0.0009221 0.0000054 0.0009221 0.9999946 -0.0009221
479 0.9999942 -0.0009642 0.0000058 0.0009642 0.0000058 0.0009642 0.9999942 -0.0009642
501 0.9999939 -0.0010082 0.0000061 0.0010082 0.0000061 0.0010082 0.9999939 -0.0010082
524 0.9999935 -0.0010542 0.0000065 0.0010542 0.0000065 0.0010542 0.9999935 -0.0010542
548 0.9999931 -0.0011023 0.0000069 0.0011023 0.0000069 0.0011023 0.9999931 -0.0011023
573 0.9999927 -0.0011526 0.0000073 0.0011526 0.0000073 0.0011526 0.9999927 -0.0011526
600 0.9999923 -0.0012052 0.0000077 0.0012052 0.0000077 0.0012052 0.9999923 -0.0012052
627 0.9999918 -0.0012602 0.0000082 0.0012602 0.0000082 0.0012602 0.9999918 -0.0012602
656 0.9999913 -0.0013177 0.0000087 0.0013177 0.0000087 0.0013177 0.9999913 -0.0013177
686 0.9999908 -0.0013778 0.0000092 0.0013778 0.0000092 0.0013778 0.9999908 -0.0013778
717 0.9999902 -0.0014406 0.0000098 0.0014406 0.0000098 0.0014406 0.9999902 -0.0014406
750 0.9999896 -0.0015063 0.0000104 0.0015063 0.0000104 0.0015063 0.9999896 -0.0015063
784 0.9999890 -0.0015750 0.0000110 0.0015750 0.0000110 0.0015750 0.9999890 -0.0015750
820 0.9999884 -0.0016468 0.0000116 0.0016468 0.0000116 0.0016468 0.9999884 -0.0016468
858 0.9999877 -0.0017219 0.0000123 0.0017219 0.0000123 0.0017219 0.9999877 -0.0017219
897 0.9999870 -0.0018004 0.0000130 0.0018004 0.0000130 0.0018004 0.9999870 -0.0018004
938 0.9999863 -0.0018825 0.0000137 0.0018825 0.0000137 0.0018825 0.9999863 -0.0018825
981 0.9999855 -0.0019684 0.0000145 0.0019684 0.0000145 0.0019684 0.9999855 -0.0019684
1026 0.9999846 -0.0020581 0.0000154 0.0020581 0.0000154 0.0020581 0.9999846 -0.0020581
1073 0.9999838 -0.0021520 0.0000162 0.0021520 0.0000162 0.0021520 0.9999838 -0.0021520
1122 0.9999829 -0.0022501 0.0000171 0.0022501 0.0000171 0.0022501 0.9999829 -0.0022501
1174 0.9999819 -0.0023528 0.0000181 0.0023528 0.0000181 0.0023528 0.9999819 -0.0023528
1227 0.9999809 -0.0024601 0.0000191 0.0024601 0.0000191 0.0024601 0.9999809 -0.0024601
1283 0.9999798 -0.0025723 0.0000202 0.0025723 0.0000202 0.0025723 0.9999798 -0.0025723
1342 0.9999786 -0.0026896 0.0000214 0.0026896 0.0000214 0.0026896 0.9999786 -0.0026896
1404 0.9999774 -0.0028123 0.0000226 0.0028123 0.0000226 0.0028123 0.9999774 -0.0028123
1468 0.9999761 -0.0029407 0.0000239 0.0029407 0.0000239 0.0029407 0.9999761 -0.0029407
1535 0.9999747 -0.0030748 0.0000253 0.0030748 0.0000253 0.0030748 0.9999747 -0.0030748
1606 0.9999732 -0.0032152 0.0000268 0.0032152 0.0000268 0.0032152 0.9999732 -0.0032152
1679 0.9999716 -0.0033619 0.0000284 0.0033619 0.0000284 0.0033619 0.9999716 -0.0033619
1756 0.9999699 -0.0035154 0.0000301 0.0035154 0.0000301 0.0035154 0.9999699 -0.0035154
1836 0.9999680 -0.0036758 0.0000320 0.0036758 0.0000320 0.0036758 0.9999680 -0.0036758
1920 0.9999660 -0.0038436 0.0000340 0.0038436 0.0000340 0.0038436 0.9999660 -0.0038436
2008 0.9999639 -0.0040191 0.0000361 0.0040191 0.0000361 0.0040191 0.9999639 -0.0040191
2100 0.9999616 -0.0042026 0.0000384 0.0042026 0.0000384 0.0042026 0.9999616 -0.0042026
2196 0.9999591 -0.0043945 0.0000409 0.0043945 0.0000409 0.0043945 0.9999591 -0.0043945
2297 0.9999564 -0.0045952 0.0000436 0.0045952 0.0000436 0.0045952 0.9999564 -0.0045952
2402 0.9999535 -0.0048051 0.0000465 0.0048051 0.0000465 0.0048051 0.9999535 -0.0048051
2512 0.9999503 -0.0050245 0.0000497 0.0050245 0.0000497 0.0050245 0.9999503 -0.0050245
2627 0.9999469 -0.0052540 0.0000531 0.0052540 0.0000531 0.0052540 0.9999469 -0.0052540
2748 0.9999431 -0.0054939 0.0000569 0.0054939 0.0000569 0.0054939 0.9999431 -0.0054939
2873 0.9999391 -0.0057449 0.0000609 0.0057449 0.0000609 0.0057449 0.9999391 -0.0057449
3005 0.9999347 -0.0060072 0.0000653 0.0060072 0.0000653 0.0060072 0.9999347 -0.0060072
3143 0.9999300 -0.0062816 0.0000700 0.0062816 0.0000700 0.0062816 0.9999300 -0.0062816
3287 0.9999248 -0.0065684 0.0000752 0.0065684 0.0000752 0.0065684 0.9999248 -0.0065684
3437 0.9999192 -0.0068684 0.0000808 0.0068684 0.0000808 0.0068684 0.9999192 -0.0068684
3594 0.9999131 -0.0071821 0.0000869 0.0071821 0.0000869 0.0071821 0.9999131 -0.0071821
3759 0.9999065 -0.0075100 0.0000935 0.0075100 0.0000935 0.0075100 0.9999065 -0.0075100
3931 0.9998994 -0.0078529 0.0001006 0.0078529 0.0001006 0.0078529 0.9998994 -0.0078529
4111 0.9998916 -0.0082114 0.0001084 0.0082114 0.0001084 0.0082114 0.9998916 -0.0082114
4299 0.9998832 -0.0085863 0.0001168 0.0085863 0.0001168 0.0085863 0.9998832 -0.0085863
4496 0.9998740 -0.0089782 0.0001260 0.0089782 0.0001260 0.0089782 0.9998740 -0.0089782
4702 0.9998641 -0.0093880 0.0001359 0.0093880 0.0001359 0.0093880 0.9998641 -0.0093880
4918 0.9998533 -0.0098164 0.0001467 0.0098164 0.0001467 0.0098164 0.9998533 -0.0098164
5143 0.9998416 -0.0102644 0.0001584 0.0102644 0.0001584 0.0102644 0.9998416 -0.0102644
5378 0.9998289 -0.0107327 0.0001711 0.0107327 0.0001711 0.0107327 0.9998289 -0.0107327
5625 0.9998152 -0.0112224 0.0001848 0.0112224 0.0001848 0.0112224 0.9998152 -0.0112224
5882 0.9998002 -0.0117343 0.0001998 0.0117343 0.0001998 0.0117343 0.9998002 -0.0117343
6151 0.9997841 -0.0122695 0.0002159 0.0122695 0.0002159 0.0122695 0.9997841 -0.0122695
6433 0.9997666 -0.0128290 0.0002334 0.0128290 0.0002334 0.0128290 0.9997666 -0.0128290
6728 0.9997476 -0.0134140 0.0002524 0.0134140 0.0002524 0.0134140 0.9997476 -0.0134140
7036 0.9997270 -0.0140257 0.0002730 0.0140257 0.0002730 0.0140257 0.9997270 -0.0140257
7358 0.9997047 -0.0146651 0.0002953 0.0146651 0.0002953 0.0146651 0.9997047 -0.0146651
7695 0.9996806 -0.0153336 0.0003194 0.0153336 0.0003194 0.0153336 0.9996806 -0.0153336
8047 0.9996544 -0.0160325 0.0003456 0.0160325 0.0003456 0.0160325 0.9996544 -0.0160325
8416 0.9996260 -0.0167632 0.0003740 0.0167632 0.0003740 0.0167632 0.9996260 -0.0167632
8801 0.9995952 -0.0175272 0.0004048 0.0175272 0.0004048 0.0175272 0.9995952 -0.0175272
9204 0.9995618 -0.0183259 0.0004382 0.0183259 0.0004382 0.0183259 0.9995618 -0.0183259
9626 0.9995255 -0.0191609 0.0004745 0.0191609 0.0004745 0.0191609 0.9995255 -0.0191609
10066 0.9994862 -0.0200340 0.0005138 0.0200340 0.0005138 0.0200340 0.9994862 -0.0200340
10527 0.9994434 -0.0209467 0.0005566 0.0209467 0.0005566 0.0209467 0.9994434 -0.0209467
11009 0.9993970 -0.0219010 0.0006030 0.0219010 0.0006030 0.0219010 0.9993970 -0.0219010
11514 0.9993466 -0.0228987 0.0006534 0.0228987 0.0006534 0.0228987 0.9993466 -0.0228987
12041 0.9992918 -0.0239419 0.0007082 0.0239419 0.0007082 0.0239419 0.9992918 -0.0239419
12592 0.9992322 -0.0250324 0.0007678 0.0250324 0.0007678 0.0250324 0.9992322 -0.0250324
13169 0.9991674 -0.0261726 0.0008326 0.0261726 0.0008326 0.0261726 0.9991674 -0.0261726
13772 0.9990969 -0.0273646 0.0009031 0.0273646 0.0009031 0.0273646 0.9990969 -0.0273646
14402 0.9990201 -0.0286107 0.0009799 0.0286107 0.0009799 0.0286107 0.9990201 -0.0286107
15062 0.9989365 -0.0299136 0.0010635 0.0299136 0.0010635 0.0299136 0.9989365 -0.0299136
15752 0.9988454 -0.0312755 0.0011546 0.0312755 0.0011546 0.0312755 0.9988454 -0.0312755
16473 0.9987462 -0.0326994 0.0012538 0.0326994 0.0012538 0.0326994 0.9987462 -0.0326994
17227 0.9986381 -0.0341878 0.0013619 0.0341878 0.0013619 0.0341878 0.9986381 -0.0341878
18016 0.9985202 -0.0357436 0.0014798 0.0357436 0.0014798 0.0357436 0.9985202 -0.0357436
18841 0.9983917 -0.0373700 0.0016083 0.0373700 0.0016083 0.0373700 0.9983917 -0.0373700
19704 0.9982515 -0.0390700 0.0017485 0.0390700 0.0017485 0.0390700 0.9982515 -0.0390700
20606 0.9980986 -0.0408468 0.0019014 0.0408468 0.0019014 0.0408468 0.9980986 -0.0408468
21550 0.9979318 -0.0427038 0.0020682 0.0427038 0.0020682 0.0427038 0.9979318 -0.0427038
22537 0.9977499 -0.0446447 0.0022501 0.0446447 0.0022501 0.0446447 0.9977499 -0.0446447
23569 0.9975514 -0.0466729 0.0024486 0.0466729 0.0024486 0.0466729 0.9975514 -0.0466729
24648 0.9973348 -0.0487924 0.0026652 0.0487924 0.0026652 0.0487924 0.9973348 -0.0487924
25777 0.9970985 -0.0510071 0.0029015 0.0510071 0.0029015 0.0510071 0.9970985 -0.0510071
26957 0.9968407 -0.0533211 0.0031593 0.0533211 0.0031593 0.0533211 0.9968407 -0.0533211
28191 0.9965594 -0.0557387 0.0034406 0.0557387 0.0034406 0.0557387 0.9965594 -0.0557387
29482 0.9962525 -0.0582642 0.0037475 0.0582642 0.0037475 0.0582642 0.9962525 -0.0582642
30832 0.9959176 -0.0609022 0.0040824 0.0609022 0.0040824 0.0609022 0.9959176 -0.0609022
32244 0.9955522 -0.0636576 0.0044478 0.0636576 0.0044478 0.0636576 0.9955522 -0.0636576
33721 0.9951537 -0.0665352 0.0048463 0.0665352 0.0048463 0.0665352 0.9951537 -0.0665352
35265 0.9947189 -0.0695400 0.0052811 0.0695400 0.0052811 0.0695400 0.9947189 -0.0695400
36880 0.9942447 -0.0726774 0.0057553 0.0726774 0.0057553 0.0726774 0.9942447 -0.0726774
38569 0.9937275 -0.0759526 0.0062725 0.0759526 0.0062725 0.0759526 0.9937275 -0.0759526
40335 0.9931634 -0.0793714 0.0068366 0.0793714 0.0068366 0.0793714 0.9931634 -0.0793714
42182 0.9925484 -0.0829393 0.0074516 0.0829393 0.0074516 0.0829393 0.9925484 -0.0829393
44113 0.9918778 -0.0866624 0.0081222 0.0866624 0.0081222 0.0866624 0.9918778 -0.0866624
46134 0.9911467 -0.0905465 0.0088533 0.0905465 0.0088533 0.0905465 0.9911467 -0.0905465
48246 0.9903497 -0.0945979 0.0096503 0.0945979 0.0096503 0.0945979 0.9903497 -0.0945979
50455 0.9894812 -0.0988229 0.0105188 0.0988229 0.0105188 0.0988229 0.9894812 -0.0988229
52766 0.9885346 -0.1032278 0.0114654 0.1032278 0.0114654 0.1032278 0.9885346 -0.1032278
55182 0.9875033 -0.1078192 0.0124967 0.1078192 0.0124967 0.1078192 0.9875033 -0.1078192
57709 0.9863797 -0.1126036 0.0136203 0.1126036 0.0136203 0.1126036 0.9863797 -0.1126036
60352 0.9851558 -0.1175875 0.0148442 0.1175875 0.0148442 0.1175875 0.9851558 -0.1175875
63115 0.9838230 -0.1227777 0.0161770 0.1227777 0.0161770 0.1227777 0.9838230 -0.1227777
66005 0.9823718 -0.1281806 0.0176282 0.1281806 0.0176282 0.1281806 0.9823718 -0.1281806
69028 0.9807921 -0.1338028 0.0192079 0.1338028 0.0192079 0.1338028 0.9807921 -0.1338028
72189 0.9790729 -0.1396507 0.0209271 0.1396507 0.0209271 0.1396507 0.9790729 -0.1396507
75495 0.9772024 -0.1457303 0.0227976 0.1457303 0.0227976 0.1457303 0.9772024 -0.1457303
78952 0.9751678 -0.1520477 0.0248322 0.1520477 0.0248322 0.1520477 0.9751678 -0.1520477
82567 0.9729557 -0.1586085 0.0270443 0.1586085 0.0270443 0.1586085 0.9729557 -0.1586085
86348 0.9705512 -0.1654177 0.0294488 0.1654177 0.0294488 0.1654177 0.9705512 -0.1654177
90302 0.9679387 -0.1724801 0.0320613 0.1724801 0.0320613 0.1724801 0.9679387 -0.1724801
94437 0.9651015 -0.1797997 0.0348985 0.1797997 0.0348985 0.1797997 0.9651015 -0.1797997
98762 0.9620218 -0.1873799 0.0379782 0.1873799 0.0379782 0.1873799 0.9620218 -0.1873799
103284 0.9586805 -0.1952229 0.0413195 0.1952229 0.0413195 0.1952229 0.9586805 -0.1952229
108014 0.9550577 -0.2033302 0.0449423 0.2033302 0.0449423 0.2033302 0.9550577 -0.2033302
112960 0.9511320 -0.2117021 0.0488680 0.2117021 0.0488680 0.2117021 0.9511320 -0.2117021
118133 0.9468811 -0.2203373 0.0531189 0.2203373 0.0531189 0.2203373 0.9468811 -0.2203373
123542 0.9422814 -0.2292333 0.0577186 0.2292333 0.0577186 0.2292333 0.9422814 -0.2292333
129199 0.9373086 -0.2383855 0.0626914 0.2383855 0.0626914 0.2383855 0.9373086 -0.2383855
135116 0.9319370 -0.2477877 0.0680630 0.2477877 0.0680630 0.2477877 0.9319370 -0.2477877
141303 0.9261402 -0.2574313 0.0738598 0.2574313 0.0738598 0.2574313 0.9261402 -0.2574313
147774 0.9198911 -0.2673055 0.0801089 0.2673055 0.0801089 0.2673055 0.9198911 -0.2673055
154540 0.9131617 -0.2773966 0.0868383 0.2773966 0.0868383 0.2773966 0.9131617 -0.2773966
161617 0.9059239 -0.2876884 0.0940761 0.2876884 0.0940761 0.2876884 0.9059239 -0.2876884
169018 0.8981492 -0.2981613 0.1018508 0.2981613 0.1018508 0.2981613 0.8981492 -0.2981613
176758 0.8898094 -0.3087926 0.1101906 0.3087926 0.1101906 0.3087926 0.8898094 -0.3087926
184852 0.8808764 -0.3195560 0.1191236 0.3195560 0.1191236 0.3195560 0.8808764 -0.3195560
193316 0.8713232 -0.3304215 0.1286768 0.3304215 0.1286768 0.3304215 0.8713232 -0.3304215
202169 0.8611239 -0.3413553 0.1388761 0.3413553 0.1388761 0.3413553 0.8611239 -0.3413553
211427 0.8502543 -0.3523197 0.1497457 0.3523197 0.1497457 0.3523197 0.8502543 -0.3523197
221108 0.8386925 -0.3632728 0.1613075 0.3632728 0.1613075 0.3632728 0.8386925 -0.3632728
231233 0.8264192 -0.3741689 0.1735808 0.3741689 0.1735808 0.3741689 0.8264192 -0.3741689
241822 0.8134187 -0.3849585 0.1865813 0.3849585 0.1865813 0.3849585 0.8134187 -0.3849585
252896 0.7996793 -0.3955880 0.2003207 0.3955880 0.2003207 0.3955880 0.7996793 -0.3955880
264476 0.7851939 -0.4060008 0.2148061 0.4060008 0.2148061 0.4060008 0.7851939 -0.4060008
276587 0.7699606 -0.4161371 0.2300394 0.4161371 0.2300394 0.4161371 0.7699606 -0.4161371
289253 0.7539838 -0.4259345 0.2460162 0.4259345 0.2460162 0.4259345 0.7539838 -0.4259345
302498 0.7372739 -0.4353290 0.2627261 0.4353290 0.2627261 0.4353290 0.7372739 -0.4353290
316350 0.7198487 -0.4442552 0.2801513 0.4442552 0.2801513 0.4442552 0.7198487 -0.4442552
330837 0.7017332 -0.4526476 0.2982668 0.4526476 0.2982668 0.4526476 0.7017332 -0.4526476
345986 0.6829600 -0.4604415 0.3170400 0.4604415 0.3170400 0.4604415 0.6829600 -0.4604415
361830 0.6635697 -0.4675738 0.3364303 0.4675738 0.3364303 0.4675738 0.6635697 -0.4675738
378399 0.6436105 -0.4739846 0.3563895 0.4739846 0.3563895 0.4739846 0.6436105 -0.4739846
395726 0.6231382 -0.4796177 0.3768618 0.4796177 0.3768618 0.4796177 0.6231382 -0.4796177
413847 0.6022158 -0.4844223 0.3977842 0.4844223 0.3977842 0.4844223 0.6022158 -0.4844223
432798 0.5809125 -0.4883537 0.4190875 0.4883537 0.4190875 0.4883537 0.5809125 -0.4883537
452617 0.5593034 -0.4913746 0.4406966 0.4913746 0.4406966 0.4913746 0.5593034 -0.4913746
473344 0.5374683 -0.4934556 0.4625317 0.4934556 0.4625317 0.4934556 0.5374683 -0.4934556
495019 0.5154906 -0.4945762 0.4845094 0.4945762 0.4845094 0.4945762 0.5154906 -0.4945762
517687 0.4934557 -0.4947251 0.5065443 0.4947251 0.5065443 0.4947251 0.4934557 -0.4947251
541393 0.4714503 -0.4939008 0.5285497 0.4939008 0.5285497 0.4939008 0.4714503 -0.4939008
566185 0.4495604 -0.4921110 0.5504396 0.4921110 0.5504396 0.4921110 0.4495604 -0.4921110
592111 0.4278704 -0.4893731 0.5721296 0.4893731 0.5721296 0.4893731 0.4278704 -0.4893731
619225 0.4064616 -0.4857137 0.5935384 0.4857137 0.5935384 0.4857137 0.4064616 -0.4857137
647581 0.3854109 -0.4811673 0.6145891 0.4811673 0.6145891 0.4811673 0.3854109 -0.4811673
677235 0.3647900 -0.4757765 0.6352100 0.4757765 0.6352100 0.4757765 0.3647900 -0.4757765
708247 0.3446643 -0.4695902 0.6553357 0.4695902 0.6553357 0.4695902 0.3446643 -0.4695902
740679 0.3250922 -0.4626633 0.6749078 0.4626633 0.6749078 0.4626633 0.3250922 -0.4626633
774597 0.3061248 -0.4550549 0.6938752 0.4550549 0.6938752 0.4550549 0.3061248 -0.4550549
810067 0.2878051 -0.4468274 0.7121949 0.4468274 0.7121949 0.4468274 0.2878051 -0.4468274
847162 0.2701687 -0.4380457 0.7298313 0.4380457 0.7298313 0.4380457 0.2701687 -0.4380457
885955 0.2532429 -0.4287755 0.7467571 0.4287755 0.7467571 0.4287755 0.2532429 -0.4287755
926525 0.2370476 -0.4190827 0.7629524 0.4190827 0.7629524 0.4190827 0.2370476 -0.4190827
968953 0.2215957 -0.4090324 0.7784043 0.4090324 0.7784043 0.4090324 0.2215957 -0.4090324
1013323 0.2068930 -0.3986880 0.7931070 0.3986880 0.7931070 0.3986880 0.2068930 -0.3986880
1059725 0.1929392 -0.3881104 0.8070608 0.3881104 0.8070608 0.3881104 0.1929392 -0.3881104
1108252 0.1797286 -0.3773577 0.8202714 0.3773577 0.8202714 0.3773577 0.1797286 -0.3773577
1159002 0.1672503 -0.3664847 0.8327497 0.3664847 0.8327497 0.3664847 0.1672503 -0.3664847
1212075 0.1554894 -0.3555422 0.8445106 0.3555422 0.8445106 0.3555422 0.1554894 -0.3555422
1267578 0.1444272 -0.3445773 0.8555728 0.3445773 0.8555728 0.3445773 0.1444272 -0.3445773
1325623 0.1340422 -0.3336331 0.8659578 0.3336331 0.8659578 0.3336331 0.1340422 -0.3336331
1386327 0.1243104 -0.3227483 0.8756896 0.3227483 0.8756896 0.3227483 0.1243104 -0.3227483
1449809 0.1152061 -0.3119578 0.8847939 0.3119578 0.8847939 0.3119578 0.1152061 -0.3119578
1516199 0.1067020 -0.3012926 0.8932980 0.3012926 0.8932980 0.3012926 0.1067020 -0.3012926
1585629 0.0987704 -0.2907798 0.9012296 0.2907798 0.9012296 0.2907798 0.0987704 -0.2907798
1658239 0.0913828 -0.2804430 0.9086172 0.2804430 0.9086172 0.2804430 0.0913828 -0.2804430
1734173 0.0845105 -0.2703022 0.9154895 0.2703022 0.9154895 0.2703022 0.0845105 -0.2703022
1813585 0.0781253 -0.2603745 0.9218747 0.2603745 0.9218747 0.2603745 0.0781253 -0.2603745
1896632 0.0721992 -0.2506740 0.9278008 0.2506740 0.9278008 0.2506740 0.0721992 -0.2506740
1983483 0.0667048 -0.2412122 0.9332952 0.2412122 0.9332952 0.2412122 0.0667048 -0.2412122
2074311 0.0616155 -0.2319979 0.9383845 0.2319979 0.9383845 0.2319979 0.0616155 -0.2319979
