!Murata Part Number: GRM43ER61C226ME01
!These Parameters are Measured in Series Mode Connection
!Data Generated on Mar 30, 2021
!       o--ll--o
!Port1            Port2
!       o------o
!Operation Temp=25[degC], DC Bias Voltage=0[V]
!Freq. Start=100[Hz] Stop=6[GHz] 401[Steps]
# Hz S RI R 50
!Freq.(Hz) S11(Real) S11(Imag) S21(Real) S21(Imag) S12(Real) S12(Imag) S22(Real) S22(Imag)
100 0.3458044 -0.4727569 0.6541956 0.4727569 0.6541956 0.4727569 0.3458044 -0.4727569
105 0.3260206 -0.4658840 0.6739794 0.4658840 0.6739794 0.4658840 0.3260206 -0.4658840
109 0.3068386 -0.4583115 0.6931614 0.4583115 0.6931614 0.4583115 0.3068386 -0.4583115
114 0.2883038 -0.4501020 0.7116962 0.4501020 0.7116962 0.4501020 0.2883038 -0.4501020
120 0.2704538 -0.4413203 0.7295462 0.4413203 0.7295462 0.4413203 0.2704538 -0.4413203
125 0.2533182 -0.4320330 0.7466818 0.4320330 0.7466818 0.4320330 0.2533182 -0.4320330
131 0.2369188 -0.4223069 0.7630812 0.4223069 0.7630812 0.4223069 0.2369188 -0.4223069
137 0.2212701 -0.4122081 0.7787299 0.4122081 0.7787299 0.4122081 0.2212701 -0.4122081
143 0.2063796 -0.4018014 0.7936204 0.4018014 0.7936204 0.4018014 0.2063796 -0.4018014
150 0.1922483 -0.3911493 0.8077517 0.3911493 0.8077517 0.3911493 0.1922483 -0.3911493
156 0.1788714 -0.3803115 0.8211286 0.3803115 0.8211286 0.3803115 0.1788714 -0.3803115
164 0.1662389 -0.3693445 0.8337611 0.3693445 0.8337611 0.3693445 0.1662389 -0.3693445
171 0.1543362 -0.3583008 0.8456638 0.3583008 0.8456638 0.3583008 0.1543362 -0.3583008
179 0.1431451 -0.3472293 0.8568549 0.3472293 0.8568549 0.3472293 0.1431451 -0.3472293
187 0.1326438 -0.3361746 0.8673562 0.3361746 0.8673562 0.3361746 0.1326438 -0.3361746
196 0.1228082 -0.3251771 0.8771918 0.3251771 0.8771918 0.3251771 0.1228082 -0.3251771
205 0.1136120 -0.3142732 0.8863880 0.3142732 0.8863880 0.3142732 0.1136120 -0.3142732
214 0.1050277 -0.3034950 0.8949723 0.3034950 0.8949723 0.3034950 0.1050277 -0.3034950
224 0.0970265 -0.2928708 0.9029735 0.2928708 0.9029735 0.2928708 0.0970265 -0.2928708
234 0.0895792 -0.2824252 0.9104208 0.2824252 0.9104208 0.2824252 0.0895792 -0.2824252
245 0.0826563 -0.2721791 0.9173437 0.2721791 0.9173437 0.2721791 0.0826563 -0.2721791
256 0.0762285 -0.2621501 0.9237715 0.2621501 0.9237715 0.2621501 0.0762285 -0.2621501
268 0.0702670 -0.2523528 0.9297330 0.2523528 0.9297330 0.2523528 0.0702670 -0.2523528
280 0.0647433 -0.2427989 0.9352567 0.2427989 0.9352567 0.2427989 0.0647433 -0.2427989
293 0.0596301 -0.2334975 0.9403699 0.2334975 0.9403699 0.2334975 0.0596301 -0.2334975
306 0.0549008 -0.2244556 0.9450992 0.2244556 0.9450992 0.2244556 0.0549008 -0.2244556
320 0.0505298 -0.2156779 0.9494702 0.2156779 0.9494702 0.2156779 0.0505298 -0.2156779
335 0.0464929 -0.2071672 0.9535071 0.2071672 0.9535071 0.2071672 0.0464929 -0.2071672
350 0.0427668 -0.1989249 0.9572332 0.1989249 0.9572332 0.1989249 0.0427668 -0.1989249
366 0.0393296 -0.1909508 0.9606704 0.1909508 0.9606704 0.1909508 0.0393296 -0.1909508
383 0.0361605 -0.1832435 0.9638395 0.1832435 0.9638395 0.1832435 0.0361605 -0.1832435
401 0.0332399 -0.1758005 0.9667601 0.1758005 0.9667601 0.1758005 0.0332399 -0.1758005
419 0.0305496 -0.1686185 0.9694504 0.1686185 0.9694504 0.1686185 0.0305496 -0.1686185
438 0.0280723 -0.1616933 0.9719277 0.1616933 0.9719277 0.1616933 0.0280723 -0.1616933
458 0.0257919 -0.1550201 0.9742081 0.1550201 0.9742081 0.1550201 0.0257919 -0.1550201
479 0.0236936 -0.1485937 0.9763064 0.1485937 0.9763064 0.1485937 0.0236936 -0.1485937
501 0.0217632 -0.1424084 0.9782368 0.1424084 0.9782368 0.1424084 0.0217632 -0.1424084
524 0.0199880 -0.1364581 0.9800120 0.1364581 0.9800120 0.1364581 0.0199880 -0.1364581
548 0.0183558 -0.1307366 0.9816442 0.1307366 0.9816442 0.1307366 0.0183558 -0.1307366
573 0.0168555 -0.1252374 0.9831445 0.1252374 0.9831445 0.1252374 0.0168555 -0.1252374
600 0.0154767 -0.1199539 0.9845233 0.1199539 0.9845233 0.1199539 0.0154767 -0.1199539
627 0.0142098 -0.1148794 0.9857902 0.1148794 0.9857902 0.1148794 0.0142098 -0.1148794
656 0.0130461 -0.1100074 0.9869539 0.1100074 0.9869539 0.1100074 0.0130461 -0.1100074
686 0.0119773 -0.1053312 0.9880227 0.1053312 0.9880227 0.1053312 0.0119773 -0.1053312
717 0.0109958 -0.1008442 0.9890042 0.1008442 0.9890042 0.1008442 0.0109958 -0.1008442
750 0.0100948 -0.0965398 0.9899052 0.0965398 0.9899052 0.0965398 0.0100948 -0.0965398
784 0.0092677 -0.0924116 0.9907323 0.0924116 0.9907323 0.0924116 0.0092677 -0.0924116
820 0.0085086 -0.0884533 0.9914914 0.0884533 0.9914914 0.0884533 0.0085086 -0.0884533
858 0.0078119 -0.0846586 0.9921881 0.0846586 0.9921881 0.0846586 0.0078119 -0.0846586
897 0.0071728 -0.0810216 0.9928272 0.0810216 0.9928272 0.0810216 0.0071728 -0.0810216
938 0.0065864 -0.0775363 0.9934136 0.0775363 0.9934136 0.0775363 0.0065864 -0.0775363
981 0.0060486 -0.0741968 0.9939514 0.0741968 0.9939514 0.0741968 0.0060486 -0.0741968
1026 0.0055553 -0.0709977 0.9944447 0.0709977 0.9944447 0.0709977 0.0055553 -0.0709977
1073 0.0051028 -0.0679335 0.9948972 0.0679335 0.9948972 0.0679335 0.0051028 -0.0679335
1122 0.0046879 -0.0649988 0.9953121 0.0649988 0.9953121 0.0649988 0.0046879 -0.0649988
1174 0.0043075 -0.0621885 0.9956925 0.0621885 0.9956925 0.0621885 0.0043075 -0.0621885
1227 0.0039586 -0.0594977 0.9960414 0.0594977 0.9960414 0.0594977 0.0039586 -0.0594977
1283 0.0036388 -0.0569215 0.9963612 0.0569215 0.9963612 0.0569215 0.0036388 -0.0569215
1342 0.0033455 -0.0544553 0.9966545 0.0544553 0.9966545 0.0544553 0.0033455 -0.0544553
1404 0.0030765 -0.0520947 0.9969235 0.0520947 0.9969235 0.0520947 0.0030765 -0.0520947
1468 0.0028299 -0.0498353 0.9971701 0.0498353 0.9971701 0.0498353 0.0028299 -0.0498353
1535 0.0026037 -0.0476729 0.9973963 0.0476729 0.9973963 0.0476729 0.0026037 -0.0476729
1606 0.0023963 -0.0456035 0.9976037 0.0456035 0.9976037 0.0456035 0.0023963 -0.0456035
1679 0.0022060 -0.0436232 0.9977940 0.0436232 0.9977940 0.0436232 0.0022060 -0.0436232
1756 0.0020315 -0.0417283 0.9979685 0.0417283 0.9979685 0.0417283 0.0020315 -0.0417283
1836 0.0018713 -0.0399153 0.9981287 0.0399153 0.9981287 0.0399153 0.0018713 -0.0399153
1920 0.0017243 -0.0381805 0.9982757 0.0381805 0.9982757 0.0381805 0.0017243 -0.0381805
2008 0.0015894 -0.0365208 0.9984106 0.0365208 0.9984106 0.0365208 0.0015894 -0.0365208
2100 0.0014655 -0.0349330 0.9985345 0.0349330 0.9985345 0.0349330 0.0014655 -0.0349330
2196 0.0013517 -0.0334139 0.9986483 0.0334139 0.9986483 0.0334139 0.0013517 -0.0334139
2297 0.0012471 -0.0319607 0.9987529 0.0319607 0.9987529 0.0319607 0.0012471 -0.0319607
2402 0.0011510 -0.0305704 0.9988490 0.0305704 0.9988490 0.0305704 0.0011510 -0.0305704
2512 0.0010627 -0.0292405 0.9989373 0.0292405 0.9989373 0.0292405 0.0010627 -0.0292405
2627 0.0009814 -0.0279683 0.9990186 0.0279683 0.9990186 0.0279683 0.0009814 -0.0279683
2748 0.0009067 -0.0267513 0.9990933 0.0267513 0.9990933 0.0267513 0.0009067 -0.0267513
2873 0.0008379 -0.0255871 0.9991621 0.0255871 0.9991621 0.0255871 0.0008379 -0.0255871
3005 0.0007746 -0.0244735 0.9992254 0.0244735 0.9992254 0.0244735 0.0007746 -0.0244735
3143 0.0007163 -0.0234082 0.9992837 0.0234082 0.9992837 0.0234082 0.0007163 -0.0234082
3287 0.0006626 -0.0223892 0.9993374 0.0223892 0.9993374 0.0223892 0.0006626 -0.0223892
3437 0.0006131 -0.0214145 0.9993869 0.0214145 0.9993869 0.0214145 0.0006131 -0.0214145
3594 0.0005675 -0.0204821 0.9994325 0.0204821 0.9994325 0.0204821 0.0005675 -0.0204821
3759 0.0005255 -0.0195902 0.9994745 0.0195902 0.9994745 0.0195902 0.0005255 -0.0195902
3931 0.0004867 -0.0187370 0.9995133 0.0187370 0.9995133 0.0187370 0.0004867 -0.0187370
4111 0.0004510 -0.0179209 0.9995490 0.0179209 0.9995490 0.0179209 0.0004510 -0.0179209
4299 0.0004180 -0.0171403 0.9995820 0.0171403 0.9995820 0.0171403 0.0004180 -0.0171403
4496 0.0003876 -0.0163935 0.9996124 0.0163935 0.9996124 0.0163935 0.0003876 -0.0163935
4702 0.0003596 -0.0156792 0.9996404 0.0156792 0.9996404 0.0156792 0.0003596 -0.0156792
4918 0.0003337 -0.0149960 0.9996663 0.0149960 0.9996663 0.0149960 0.0003337 -0.0149960
5143 0.0003098 -0.0143424 0.9996902 0.0143424 0.9996902 0.0143424 0.0003098 -0.0143424
5378 0.0002878 -0.0137173 0.9997122 0.0137173 0.9997122 0.0137173 0.0002878 -0.0137173
5625 0.0002675 -0.0131193 0.9997325 0.0131193 0.9997325 0.0131193 0.0002675 -0.0131193
5882 0.0002487 -0.0125473 0.9997513 0.0125473 0.9997513 0.0125473 0.0002487 -0.0125473
6151 0.0002314 -0.0120002 0.9997686 0.0120002 0.9997686 0.0120002 0.0002314 -0.0120002
6433 0.0002154 -0.0114768 0.9997846 0.0114768 0.9997846 0.0114768 0.0002154 -0.0114768
6728 0.0002007 -0.0109763 0.9997993 0.0109763 0.9997993 0.0109763 0.0002007 -0.0109763
7036 0.0001871 -0.0104975 0.9998129 0.0104975 0.9998129 0.0104975 0.0001871 -0.0104975
7358 0.0001746 -0.0100395 0.9998254 0.0100395 0.9998254 0.0100395 0.0001746 -0.0100395
7695 0.0001631 -0.0096015 0.9998369 0.0096015 0.9998369 0.0096015 0.0001631 -0.0096015
8047 0.0001524 -0.0091826 0.9998476 0.0091826 0.9998476 0.0091826 0.0001524 -0.0091826
8416 0.0001426 -0.0087819 0.9998574 0.0087819 0.9998574 0.0087819 0.0001426 -0.0087819
8801 0.0001335 -0.0083986 0.9998665 0.0083986 0.9998665 0.0083986 0.0001335 -0.0083986
9204 0.0001251 -0.0080320 0.9998749 0.0080320 0.9998749 0.0080320 0.0001251 -0.0080320
9626 0.0001174 -0.0076815 0.9998826 0.0076815 0.9998826 0.0076815 0.0001174 -0.0076815
10066 0.0001103 -0.0073461 0.9998897 0.0073461 0.9998897 0.0073461 0.0001103 -0.0073461
10527 0.0001037 -0.0070255 0.9998963 0.0070255 0.9998963 0.0070255 0.0001037 -0.0070255
11009 0.0000977 -0.0067188 0.9999023 0.0067188 0.9999023 0.0067188 0.0000977 -0.0067188
11514 0.0000921 -0.0064254 0.9999079 0.0064254 0.9999079 0.0064254 0.0000921 -0.0064254
12041 0.0000869 -0.0061449 0.9999131 0.0061449 0.9999131 0.0061449 0.0000869 -0.0061449
12592 0.0000821 -0.0058766 0.9999179 0.0058766 0.9999179 0.0058766 0.0000821 -0.0058766
13169 0.0000777 -0.0056200 0.9999223 0.0056200 0.9999223 0.0056200 0.0000777 -0.0056200
13772 0.0000736 -0.0053746 0.9999264 0.0053746 0.9999264 0.0053746 0.0000736 -0.0053746
14402 0.0000699 -0.0051399 0.9999301 0.0051399 0.9999301 0.0051399 0.0000699 -0.0051399
15062 0.0000664 -0.0049155 0.9999336 0.0049155 0.9999336 0.0049155 0.0000664 -0.0049155
15752 0.0000631 -0.0047009 0.9999369 0.0047009 0.9999369 0.0047009 0.0000631 -0.0047009
16473 0.0000601 -0.0044956 0.9999399 0.0044956 0.9999399 0.0044956 0.0000601 -0.0044956
17227 0.0000573 -0.0042993 0.9999427 0.0042993 0.9999427 0.0042993 0.0000573 -0.0042993
18016 0.0000548 -0.0041116 0.9999452 0.0041116 0.9999452 0.0041116 0.0000548 -0.0041116
18841 0.0000523 -0.0039321 0.9999477 0.0039321 0.9999477 0.0039321 0.0000523 -0.0039321
19704 0.0000501 -0.0037604 0.9999499 0.0037604 0.9999499 0.0037604 0.0000501 -0.0037604
20606 0.0000480 -0.0035962 0.9999520 0.0035962 0.9999520 0.0035962 0.0000480 -0.0035962
21550 0.0000460 -0.0034392 0.9999540 0.0034392 0.9999540 0.0034392 0.0000460 -0.0034392
22537 0.0000442 -0.0032890 0.9999558 0.0032890 0.9999558 0.0032890 0.0000442 -0.0032890
23569 0.0000425 -0.0031454 0.9999575 0.0031454 0.9999575 0.0031454 0.0000425 -0.0031454
24648 0.0000409 -0.0030080 0.9999591 0.0030080 0.9999591 0.0030080 0.0000409 -0.0030080
25777 0.0000394 -0.0028766 0.9999606 0.0028766 0.9999606 0.0028766 0.0000394 -0.0028766
26957 0.0000379 -0.0027510 0.9999621 0.0027510 0.9999621 0.0027510 0.0000379 -0.0027510
28191 0.0000366 -0.0026308 0.9999634 0.0026308 0.9999634 0.0026308 0.0000366 -0.0026308
29482 0.0000353 -0.0025159 0.9999647 0.0025159 0.9999647 0.0025159 0.0000353 -0.0025159
30832 0.0000341 -0.0024060 0.9999659 0.0024060 0.9999659 0.0024060 0.0000341 -0.0024060
32244 0.0000330 -0.0023008 0.9999670 0.0023008 0.9999670 0.0023008 0.0000330 -0.0023008
33721 0.0000319 -0.0022003 0.9999681 0.0022003 0.9999681 0.0022003 0.0000319 -0.0022003
35265 0.0000309 -0.0021041 0.9999691 0.0021041 0.9999691 0.0021041 0.0000309 -0.0021041
36880 0.0000299 -0.0020120 0.9999701 0.0020120 0.9999701 0.0020120 0.0000299 -0.0020120
38569 0.0000290 -0.0019240 0.9999710 0.0019240 0.9999710 0.0019240 0.0000290 -0.0019240
40335 0.0000282 -0.0018398 0.9999718 0.0018398 0.9999718 0.0018398 0.0000282 -0.0018398
42182 0.0000273 -0.0017592 0.9999727 0.0017592 0.9999727 0.0017592 0.0000273 -0.0017592
44113 0.0000266 -0.0016822 0.9999734 0.0016822 0.9999734 0.0016822 0.0000266 -0.0016822
46134 0.0000259 -0.0016085 0.9999741 0.0016085 0.9999741 0.0016085 0.0000259 -0.0016085
48246 0.0000252 -0.0015379 0.9999748 0.0015379 0.9999748 0.0015379 0.0000252 -0.0015379
50455 0.0000245 -0.0014705 0.9999755 0.0014705 0.9999755 0.0014705 0.0000245 -0.0014705
52766 0.0000239 -0.0014059 0.9999761 0.0014059 0.9999761 0.0014059 0.0000239 -0.0014059
55182 0.0000233 -0.0013442 0.9999767 0.0013442 0.9999767 0.0013442 0.0000233 -0.0013442
57709 0.0000228 -0.0012851 0.9999772 0.0012851 0.9999772 0.0012851 0.0000228 -0.0012851
60352 0.0000223 -0.0012285 0.9999777 0.0012285 0.9999777 0.0012285 0.0000223 -0.0012285
63115 0.0000218 -0.0011744 0.9999782 0.0011744 0.9999782 0.0011744 0.0000218 -0.0011744
66005 0.0000214 -0.0011226 0.9999786 0.0011226 0.9999786 0.0011226 0.0000214 -0.0011226
69028 0.0000210 -0.0010731 0.9999790 0.0010731 0.9999790 0.0010731 0.0000210 -0.0010731
72189 0.0000206 -0.0010257 0.9999794 0.0010257 0.9999794 0.0010257 0.0000206 -0.0010257
75495 0.0000202 -0.0009803 0.9999798 0.0009803 0.9999798 0.0009803 0.0000202 -0.0009803
78952 0.0000199 -0.0009369 0.9999801 0.0009369 0.9999801 0.0009369 0.0000199 -0.0009369
82567 0.0000196 -0.0008954 0.9999804 0.0008954 0.9999804 0.0008954 0.0000196 -0.0008954
86348 0.0000193 -0.0008556 0.9999807 0.0008556 0.9999807 0.0008556 0.0000193 -0.0008556
90302 0.0000190 -0.0008176 0.9999810 0.0008176 0.9999810 0.0008176 0.0000190 -0.0008176
94437 0.0000188 -0.0007811 0.9999812 0.0007811 0.9999812 0.0007811 0.0000188 -0.0007811
98762 0.0000186 -0.0007463 0.9999814 0.0007463 0.9999814 0.0007463 0.0000186 -0.0007463
103284 0.0000184 -0.0007129 0.9999816 0.0007129 0.9999816 0.0007129 0.0000184 -0.0007129
108014 0.0000182 -0.0006809 0.9999818 0.0006809 0.9999818 0.0006809 0.0000182 -0.0006809
112960 0.0000180 -0.0006503 0.9999820 0.0006503 0.9999820 0.0006503 0.0000180 -0.0006503
118133 0.0000179 -0.0006210 0.9999821 0.0006210 0.9999821 0.0006210 0.0000179 -0.0006210
123542 0.0000177 -0.0005929 0.9999823 0.0005929 0.9999823 0.0005929 0.0000177 -0.0005929
129199 0.0000176 -0.0005660 0.9999824 0.0005660 0.9999824 0.0005660 0.0000176 -0.0005660
135116 0.0000175 -0.0005403 0.9999825 0.0005403 0.9999825 0.0005403 0.0000175 -0.0005403
141303 0.0000174 -0.0005156 0.9999826 0.0005156 0.9999826 0.0005156 0.0000174 -0.0005156
147774 0.0000173 -0.0004920 0.9999827 0.0004920 0.9999827 0.0004920 0.0000173 -0.0004920
154540 0.0000172 -0.0004693 0.9999828 0.0004693 0.9999828 0.0004693 0.0000172 -0.0004693
161617 0.0000171 -0.0004476 0.9999829 0.0004476 0.9999829 0.0004476 0.0000171 -0.0004476
169018 0.0000171 -0.0004268 0.9999829 0.0004268 0.9999829 0.0004268 0.0000171 -0.0004268
176758 0.0000170 -0.0004068 0.9999830 0.0004068 0.9999830 0.0004068 0.0000170 -0.0004068
184852 0.0000170 -0.0003876 0.9999830 0.0003876 0.9999830 0.0003876 0.0000170 -0.0003876
193316 0.0000169 -0.0003692 0.9999831 0.0003692 0.9999831 0.0003692 0.0000169 -0.0003692
202169 0.0000169 -0.0003516 0.9999831 0.0003516 0.9999831 0.0003516 0.0000169 -0.0003516
211427 0.0000169 -0.0003347 0.9999831 0.0003347 0.9999831 0.0003347 0.0000169 -0.0003347
221108 0.0000169 -0.0003184 0.9999831 0.0003184 0.9999831 0.0003184 0.0000169 -0.0003184
231233 0.0000169 -0.0003027 0.9999831 0.0003027 0.9999831 0.0003027 0.0000169 -0.0003027
241822 0.0000169 -0.0002877 0.9999831 0.0002877 0.9999831 0.0002877 0.0000169 -0.0002877
252896 0.0000169 -0.0002733 0.9999831 0.0002733 0.9999831 0.0002733 0.0000169 -0.0002733
264476 0.0000169 -0.0002594 0.9999831 0.0002594 0.9999831 0.0002594 0.0000169 -0.0002594
276587 0.0000170 -0.0002460 0.9999830 0.0002460 0.9999830 0.0002460 0.0000170 -0.0002460
289253 0.0000170 -0.0002331 0.9999830 0.0002331 0.9999830 0.0002331 0.0000170 -0.0002331
302498 0.0000171 -0.0002207 0.9999829 0.0002207 0.9999829 0.0002207 0.0000171 -0.0002207
316350 0.0000172 -0.0002087 0.9999828 0.0002087 0.9999828 0.0002087 0.0000172 -0.0002087
330837 0.0000172 -0.0001971 0.9999828 0.0001971 0.9999828 0.0001971 0.0000172 -0.0001971
345986 0.0000173 -0.0001859 0.9999827 0.0001859 0.9999827 0.0001859 0.0000173 -0.0001859
361830 0.0000174 -0.0001751 0.9999826 0.0001751 0.9999826 0.0001751 0.0000174 -0.0001751
378399 0.0000175 -0.0001647 0.9999825 0.0001647 0.9999825 0.0001647 0.0000175 -0.0001647
395726 0.0000177 -0.0001545 0.9999823 0.0001545 0.9999823 0.0001545 0.0000177 -0.0001545
413847 0.0000178 -0.0001447 0.9999822 0.0001447 0.9999822 0.0001447 0.0000178 -0.0001447
432798 0.0000180 -0.0001352 0.9999820 0.0001352 0.9999820 0.0001352 0.0000180 -0.0001352
452617 0.0000182 -0.0001260 0.9999818 0.0001260 0.9999818 0.0001260 0.0000182 -0.0001260
473344 0.0000184 -0.0001169 0.9999816 0.0001169 0.9999816 0.0001169 0.0000184 -0.0001169
495019 0.0000186 -0.0001082 0.9999814 0.0001082 0.9999814 0.0001082 0.0000186 -0.0001082
517687 0.0000188 -0.0000996 0.9999812 0.0000996 0.9999812 0.0000996 0.0000188 -0.0000996
541393 0.0000191 -0.0000913 0.9999809 0.0000913 0.9999809 0.0000913 0.0000191 -0.0000913
566185 0.0000194 -0.0000831 0.9999806 0.0000831 0.9999806 0.0000831 0.0000194 -0.0000831
592111 0.0000198 -0.0000750 0.9999802 0.0000750 0.9999802 0.0000750 0.0000198 -0.0000750
619225 0.0000201 -0.0000672 0.9999799 0.0000672 0.9999799 0.0000672 0.0000201 -0.0000672
647581 0.0000205 -0.0000594 0.9999795 0.0000594 0.9999795 0.0000594 0.0000205 -0.0000594
677235 0.0000210 -0.0000518 0.9999790 0.0000518 0.9999790 0.0000518 0.0000210 -0.0000518
708247 0.0000215 -0.0000442 0.9999785 0.0000442 0.9999785 0.0000442 0.0000215 -0.0000442
740679 0.0000220 -0.0000368 0.9999780 0.0000368 0.9999780 0.0000368 0.0000220 -0.0000368
774597 0.0000226 -0.0000294 0.9999774 0.0000294 0.9999774 0.0000294 0.0000226 -0.0000294
810067 0.0000233 -0.0000220 0.9999767 0.0000220 0.9999767 0.0000220 0.0000233 -0.0000220
847162 0.0000241 -0.0000147 0.9999759 0.0000147 0.9999759 0.0000147 0.0000241 -0.0000147
885955 0.0000249 -0.0000073 0.9999751 0.0000073 0.9999751 0.0000073 0.0000249 -0.0000073
926525 0.0000259 0.0000000 0.9999741 0.0000000 0.9999741 0.0000000 0.0000259 0.0000000
968953 0.0000269 0.0000074 0.9999731 -0.0000074 0.9999731 -0.0000074 0.0000269 0.0000074
1013323 0.0000281 0.0000149 0.9999719 -0.0000149 0.9999719 -0.0000149 0.0000281 0.0000149
1059725 0.0000295 0.0000225 0.9999705 -0.0000225 0.9999705 -0.0000225 0.0000295 0.0000225
1108252 0.0000310 0.0000301 0.9999690 -0.0000301 0.9999690 -0.0000301 0.0000310 0.0000301
1159002 0.0000329 0.0000380 0.9999671 -0.0000380 0.9999671 -0.0000380 0.0000329 0.0000380
1212075 0.0000350 0.0000460 0.9999650 -0.0000460 0.9999650 -0.0000460 0.0000350 0.0000460
1267578 0.0000376 0.0000543 0.9999624 -0.0000543 0.9999624 -0.0000543 0.0000376 0.0000543
1325623 0.0000408 0.0000628 0.9999592 -0.0000628 0.9999592 -0.0000628 0.0000408 0.0000628
1386327 0.0000449 0.0000715 0.9999551 -0.0000715 0.9999551 -0.0000715 0.0000449 0.0000715
1449809 0.0000500 0.0000803 0.9999500 -0.0000803 0.9999500 -0.0000803 0.0000500 0.0000803
1516199 0.0000569 0.0000889 0.9999431 -0.0000889 0.9999431 -0.0000889 0.0000569 0.0000889
1585629 0.0000659 0.0000964 0.9999341 -0.0000964 0.9999341 -0.0000964 0.0000659 0.0000964
1658239 0.0000771 0.0001010 0.9999229 -0.0001010 0.9999229 -0.0001010 0.0000771 0.0001010
1734173 0.0000885 0.0001005 0.9999115 -0.0001005 0.9999115 -0.0001005 0.0000885 0.0001005
1813585 0.0000954 0.0000951 0.9999046 -0.0000951 0.9999046 -0.0000951 0.0000954 0.0000951
1896632 0.0000951 0.0000898 0.9999049 -0.0000898 0.9999049 -0.0000898 0.0000951 0.0000898
1983483 0.0000907 0.0000899 0.9999093 -0.0000899 0.9999093 -0.0000899 0.0000907 0.0000899
2074311 0.0000872 0.0000953 0.9999128 -0.0000953 0.9999128 -0.0000953 0.0000872 0.0000953
