!Murata Part Number: GRM43DR61E106KA12
!These Parameters are Measured in Series Mode Connection
!Data Generated on Mar 30, 2021
!       o--ll--o
!Port1            Port2
!       o------o
!Operation Temp=25[degC], DC Bias Voltage=0[V]
!Freq. Start=100[Hz] Stop=6[GHz] 401[Steps]
# Hz S RI R 50
!Freq.(Hz) S11(Real) S11(Imag) S21(Real) S21(Imag) S12(Real) S12(Imag) S22(Real) S22(Imag)
100 0.7259892 -0.4426062 0.2740108 0.4426062 0.2740108 0.4426062 0.7259892 -0.4426062
105 0.7080254 -0.4512562 0.2919746 0.4512562 0.2919746 0.4512562 0.7080254 -0.4512562
109 0.6893845 -0.4593224 0.3106155 0.4593224 0.3106155 0.4593224 0.6893845 -0.4593224
114 0.6701055 -0.4667399 0.3298945 0.4667399 0.3298945 0.4667399 0.6701055 -0.4667399
120 0.6502355 -0.4734469 0.3497645 0.4734469 0.3497645 0.4734469 0.6502355 -0.4734469
125 0.6298290 -0.4793852 0.3701710 0.4793852 0.3701710 0.4793852 0.6298290 -0.4793852
131 0.6089481 -0.4845019 0.3910519 0.4845019 0.3910519 0.4845019 0.6089481 -0.4845019
137 0.5876616 -0.4887502 0.4123384 0.4887502 0.4123384 0.4887502 0.5876616 -0.4887502
143 0.5660441 -0.4920902 0.4339559 0.4920902 0.4339559 0.4920902 0.5660441 -0.4920902
150 0.5441753 -0.4944905 0.4558247 0.4944905 0.4558247 0.4944905 0.5441753 -0.4944905
156 0.5221385 -0.4959282 0.4778615 0.4959282 0.4778615 0.4959282 0.5221385 -0.4959282
164 0.5000198 -0.4963897 0.4999802 0.4963897 0.4999802 0.4963897 0.5000198 -0.4963897
171 0.4779061 -0.4958713 0.5220939 0.4958713 0.5220939 0.4958713 0.4779061 -0.4958713
179 0.4558845 -0.4943787 0.5441155 0.4943787 0.5441155 0.4943787 0.4558845 -0.4943787
187 0.4340404 -0.4919273 0.5659596 0.4919273 0.5659596 0.4919273 0.4340404 -0.4919273
196 0.4124561 -0.4885415 0.5875439 0.4885415 0.5875439 0.4885415 0.4124561 -0.4885415
205 0.3912101 -0.4842545 0.6087899 0.4842545 0.6087899 0.4842545 0.3912101 -0.4842545
214 0.3703756 -0.4791070 0.6296244 0.4791070 0.6296244 0.4791070 0.3703756 -0.4791070
224 0.3500196 -0.4731467 0.6499804 0.4731467 0.6499804 0.4731467 0.3500196 -0.4731467
234 0.3302025 -0.4664272 0.6697975 0.4664272 0.6697975 0.4664272 0.3302025 -0.4664272
245 0.3109772 -0.4590065 0.6890228 0.4590065 0.6890228 0.4590065 0.3109772 -0.4590065
256 0.2923889 -0.4509466 0.7076111 0.4509466 0.7076111 0.4509466 0.2923889 -0.4509466
268 0.2744749 -0.4423114 0.7255251 0.4423114 0.7255251 0.4423114 0.2744749 -0.4423114
280 0.2572648 -0.4331666 0.7427352 0.4331666 0.7427352 0.4331666 0.2572648 -0.4331666
293 0.2407807 -0.4235779 0.7592193 0.4235779 0.7592193 0.4235779 0.2407807 -0.4235779
306 0.2250372 -0.4136104 0.7749628 0.4136104 0.7749628 0.4136104 0.2250372 -0.4136104
320 0.2100423 -0.4033278 0.7899577 0.4033278 0.7899577 0.4033278 0.2100423 -0.4033278
335 0.1957976 -0.3927918 0.8042024 0.3927918 0.8042024 0.3927918 0.1957976 -0.3927918
350 0.1822991 -0.3820609 0.8177009 0.3820609 0.8177009 0.3820609 0.1822991 -0.3820609
366 0.1695377 -0.3711909 0.8304623 0.3711909 0.8304623 0.3711909 0.1695377 -0.3711909
383 0.1575000 -0.3602337 0.8425000 0.3602337 0.8425000 0.3602337 0.1575000 -0.3602337
401 0.1461686 -0.3492375 0.8538314 0.3492375 0.8538314 0.3492375 0.1461686 -0.3492375
419 0.1355233 -0.3382466 0.8644767 0.3382466 0.8644767 0.3382466 0.1355233 -0.3382466
438 0.1255410 -0.3273013 0.8744590 0.3273013 0.8744590 0.3273013 0.1255410 -0.3273013
458 0.1161969 -0.3164377 0.8838031 0.3164377 0.8838031 0.3164377 0.1161969 -0.3164377
479 0.1074645 -0.3056883 0.8925355 0.3056883 0.8925355 0.3056883 0.1074645 -0.3056883
501 0.0993162 -0.2950816 0.9006838 0.2950816 0.9006838 0.2950816 0.0993162 -0.2950816
524 0.0917241 -0.2846426 0.9082759 0.2846426 0.9082759 0.2846426 0.0917241 -0.2846426
548 0.0846597 -0.2743928 0.9153403 0.2743928 0.9153403 0.2743928 0.0846597 -0.2743928
573 0.0780945 -0.2643505 0.9219055 0.2643505 0.9219055 0.2643505 0.0780945 -0.2643505
600 0.0720005 -0.2545311 0.9279995 0.2545311 0.9279995 0.2545311 0.0720005 -0.2545311
627 0.0663500 -0.2449471 0.9336500 0.2449471 0.9336500 0.2449471 0.0663500 -0.2449471
656 0.0611162 -0.2356085 0.9388838 0.2356085 0.9388838 0.2356085 0.0611162 -0.2356085
686 0.0562729 -0.2265231 0.9437271 0.2265231 0.9437271 0.2265231 0.0562729 -0.2265231
717 0.0517949 -0.2176966 0.9482051 0.2176966 0.9482051 0.2176966 0.0517949 -0.2176966
750 0.0476580 -0.2091327 0.9523420 0.2091327 0.9523420 0.2091327 0.0476580 -0.2091327
784 0.0438392 -0.2008337 0.9561608 0.2008337 0.9561608 0.2008337 0.0438392 -0.2008337
820 0.0403163 -0.1928002 0.9596837 0.1928002 0.9596837 0.1928002 0.0403163 -0.1928002
858 0.0370686 -0.1850315 0.9629314 0.1850315 0.9629314 0.1850315 0.0370686 -0.1850315
897 0.0340763 -0.1775261 0.9659237 0.1775261 0.9659237 0.1775261 0.0340763 -0.1775261
938 0.0313208 -0.1702811 0.9686792 0.1702811 0.9686792 0.1702811 0.0313208 -0.1702811
981 0.0287846 -0.1632930 0.9712154 0.1632930 0.9712154 0.1632930 0.0287846 -0.1632930
1026 0.0264512 -0.1565577 0.9735488 0.1565577 0.9735488 0.1565577 0.0264512 -0.1565577
1073 0.0243053 -0.1500703 0.9756947 0.1500703 0.9756947 0.1500703 0.0243053 -0.1500703
1122 0.0223324 -0.1438254 0.9776676 0.1438254 0.9776676 0.1438254 0.0223324 -0.1438254
1174 0.0205192 -0.1378174 0.9794808 0.1378174 0.9794808 0.1378174 0.0205192 -0.1378174
1227 0.0188532 -0.1320402 0.9811468 0.1320402 0.9811468 0.1320402 0.0188532 -0.1320402
1283 0.0173228 -0.1264876 0.9826772 0.1264876 0.9826772 0.1264876 0.0173228 -0.1264876
1342 0.0159171 -0.1211531 0.9840829 0.1211531 0.9840829 0.1211531 0.0159171 -0.1211531
1404 0.0146263 -0.1160302 0.9853737 0.1160302 0.9853737 0.1160302 0.0146263 -0.1160302
1468 0.0134411 -0.1111122 0.9865589 0.1111122 0.9865589 0.1111122 0.0134411 -0.1111122
1535 0.0123528 -0.1063925 0.9876472 0.1063925 0.9876472 0.1063925 0.0123528 -0.1063925
1606 0.0113537 -0.1018643 0.9886463 0.1018643 0.9886463 0.1018643 0.0113537 -0.1018643
1679 0.0104364 -0.0975212 0.9895636 0.0975212 0.9895636 0.0975212 0.0104364 -0.0975212
1756 0.0095943 -0.0933565 0.9904057 0.0933565 0.9904057 0.0933565 0.0095943 -0.0933565
1836 0.0088210 -0.0893638 0.9911790 0.0893638 0.9911790 0.0893638 0.0088210 -0.0893638
1920 0.0081110 -0.0855367 0.9918890 0.0855367 0.9918890 0.0855367 0.0081110 -0.0855367
2008 0.0074590 -0.0818690 0.9925410 0.0818690 0.9925410 0.0818690 0.0074590 -0.0818690
2100 0.0068602 -0.0783546 0.9931398 0.0783546 0.9931398 0.0783546 0.0068602 -0.0783546
2196 0.0063102 -0.0749876 0.9936898 0.0749876 0.9936898 0.0749876 0.0063102 -0.0749876
2297 0.0058050 -0.0717623 0.9941950 0.0717623 0.9941950 0.0717623 0.0058050 -0.0717623
2402 0.0053408 -0.0686729 0.9946592 0.0686729 0.9946592 0.0686729 0.0053408 -0.0686729
2512 0.0049143 -0.0657142 0.9950857 0.0657142 0.9950857 0.0657142 0.0049143 -0.0657142
2627 0.0045222 -0.0628808 0.9954778 0.0628808 0.9954778 0.0628808 0.0045222 -0.0628808
2748 0.0041619 -0.0601676 0.9958381 0.0601676 0.9958381 0.0601676 0.0041619 -0.0601676
2873 0.0038307 -0.0575697 0.9961693 0.0575697 0.9961693 0.0575697 0.0038307 -0.0575697
3005 0.0035262 -0.0550823 0.9964738 0.0550823 0.9964738 0.0550823 0.0035262 -0.0550823
3143 0.0032463 -0.0527010 0.9967537 0.0527010 0.9967537 0.0527010 0.0032463 -0.0527010
3287 0.0029888 -0.0504214 0.9970112 0.0504214 0.9970112 0.0504214 0.0029888 -0.0504214
3437 0.0027521 -0.0482391 0.9972479 0.0482391 0.9972479 0.0482391 0.0027521 -0.0482391
3594 0.0025344 -0.0461501 0.9974656 0.0461501 0.9974656 0.0461501 0.0025344 -0.0461501
3759 0.0023343 -0.0441506 0.9976657 0.0441506 0.9976657 0.0441506 0.0023343 -0.0441506
3931 0.0021502 -0.0422367 0.9978498 0.0422367 0.9978498 0.0422367 0.0021502 -0.0422367
4111 0.0019809 -0.0404050 0.9980191 0.0404050 0.9980191 0.0404050 0.0019809 -0.0404050
4299 0.0018253 -0.0386518 0.9981747 0.0386518 0.9981747 0.0386518 0.0018253 -0.0386518
4496 0.0016822 -0.0369740 0.9983178 0.0369740 0.9983178 0.0369740 0.0016822 -0.0369740
4702 0.0015507 -0.0353684 0.9984493 0.0353684 0.9984493 0.0353684 0.0015507 -0.0353684
4918 0.0014297 -0.0338319 0.9985703 0.0338319 0.9985703 0.0338319 0.0014297 -0.0338319
5143 0.0013186 -0.0323616 0.9986814 0.0323616 0.9986814 0.0323616 0.0013186 -0.0323616
5378 0.0012165 -0.0309546 0.9987835 0.0309546 0.9987835 0.0309546 0.0012165 -0.0309546
5625 0.0011226 -0.0296084 0.9988774 0.0296084 0.9988774 0.0296084 0.0011226 -0.0296084
5882 0.0010364 -0.0283203 0.9989636 0.0283203 0.9989636 0.0283203 0.0010364 -0.0283203
6151 0.0009572 -0.0270879 0.9990428 0.0270879 0.9990428 0.0270879 0.0009572 -0.0270879
6433 0.0008844 -0.0259088 0.9991156 0.0259088 0.9991156 0.0259088 0.0008844 -0.0259088
6728 0.0008175 -0.0247808 0.9991825 0.0247808 0.9991825 0.0247808 0.0008175 -0.0247808
7036 0.0007561 -0.0237016 0.9992439 0.0237016 0.9992439 0.0237016 0.0007561 -0.0237016
7358 0.0006998 -0.0226692 0.9993002 0.0226692 0.9993002 0.0226692 0.0006998 -0.0226692
7695 0.0006480 -0.0216816 0.9993520 0.0216816 0.9993520 0.0216816 0.0006480 -0.0216816
8047 0.0006004 -0.0207369 0.9993996 0.0207369 0.9993996 0.0207369 0.0006004 -0.0207369
8416 0.0005567 -0.0198332 0.9994433 0.0198332 0.9994433 0.0198332 0.0005567 -0.0198332
8801 0.0005166 -0.0189689 0.9994834 0.0189689 0.9994834 0.0189689 0.0005166 -0.0189689
9204 0.0004798 -0.0181421 0.9995202 0.0181421 0.9995202 0.0181421 0.0004798 -0.0181421
9626 0.0004459 -0.0173513 0.9995541 0.0173513 0.9995541 0.0173513 0.0004459 -0.0173513
10066 0.0004148 -0.0165949 0.9995852 0.0165949 0.9995852 0.0165949 0.0004148 -0.0165949
10527 0.0003861 -0.0158714 0.9996139 0.0158714 0.9996139 0.0158714 0.0003861 -0.0158714
11009 0.0003598 -0.0151795 0.9996402 0.0151795 0.9996402 0.0151795 0.0003598 -0.0151795
11514 0.0003356 -0.0145178 0.9996644 0.0145178 0.9996644 0.0145178 0.0003356 -0.0145178
12041 0.0003133 -0.0138849 0.9996867 0.0138849 0.9996867 0.0138849 0.0003133 -0.0138849
12592 0.0002928 -0.0132796 0.9997072 0.0132796 0.9997072 0.0132796 0.0002928 -0.0132796
13169 0.0002739 -0.0127008 0.9997261 0.0127008 0.9997261 0.0127008 0.0002739 -0.0127008
13772 0.0002564 -0.0121472 0.9997436 0.0121472 0.9997436 0.0121472 0.0002564 -0.0121472
14402 0.0002403 -0.0116177 0.9997597 0.0116177 0.9997597 0.0116177 0.0002403 -0.0116177
15062 0.0002254 -0.0111114 0.9997746 0.0111114 0.9997746 0.0111114 0.0002254 -0.0111114
15752 0.0002117 -0.0106271 0.9997883 0.0106271 0.9997883 0.0106271 0.0002117 -0.0106271
16473 0.0001990 -0.0101640 0.9998010 0.0101640 0.9998010 0.0101640 0.0001990 -0.0101640
17227 0.0001872 -0.0097211 0.9998128 0.0097211 0.9998128 0.0097211 0.0001872 -0.0097211
18016 0.0001763 -0.0092976 0.9998237 0.0092976 0.9998237 0.0092976 0.0001763 -0.0092976
18841 0.0001661 -0.0088925 0.9998339 0.0088925 0.9998339 0.0088925 0.0001661 -0.0088925
19704 0.0001567 -0.0085051 0.9998433 0.0085051 0.9998433 0.0085051 0.0001567 -0.0085051
20606 0.0001479 -0.0081346 0.9998521 0.0081346 0.9998521 0.0081346 0.0001479 -0.0081346
21550 0.0001398 -0.0077802 0.9998602 0.0077802 0.9998602 0.0077802 0.0001398 -0.0077802
22537 0.0001322 -0.0074413 0.9998678 0.0074413 0.9998678 0.0074413 0.0001322 -0.0074413
23569 0.0001251 -0.0071171 0.9998749 0.0071171 0.9998749 0.0071171 0.0001251 -0.0071171
24648 0.0001185 -0.0068071 0.9998815 0.0068071 0.9998815 0.0068071 0.0001185 -0.0068071
25777 0.0001123 -0.0065106 0.9998877 0.0065106 0.9998877 0.0065106 0.0001123 -0.0065106
26957 0.0001065 -0.0062270 0.9998935 0.0062270 0.9998935 0.0062270 0.0001065 -0.0062270
28191 0.0001011 -0.0059557 0.9998989 0.0059557 0.9998989 0.0059557 0.0001011 -0.0059557
29482 0.0000961 -0.0056963 0.9999039 0.0056963 0.9999039 0.0056963 0.0000961 -0.0056963
30832 0.0000913 -0.0054481 0.9999087 0.0054481 0.9999087 0.0054481 0.0000913 -0.0054481
32244 0.0000869 -0.0052107 0.9999131 0.0052107 0.9999131 0.0052107 0.0000869 -0.0052107
33721 0.0000828 -0.0049836 0.9999172 0.0049836 0.9999172 0.0049836 0.0000828 -0.0049836
35265 0.0000789 -0.0047665 0.9999211 0.0047665 0.9999211 0.0047665 0.0000789 -0.0047665
36880 0.0000752 -0.0045587 0.9999248 0.0045587 0.9999248 0.0045587 0.0000752 -0.0045587
38569 0.0000718 -0.0043600 0.9999282 0.0043600 0.9999282 0.0043600 0.0000718 -0.0043600
40335 0.0000686 -0.0041699 0.9999314 0.0041699 0.9999314 0.0041699 0.0000686 -0.0041699
42182 0.0000656 -0.0039881 0.9999344 0.0039881 0.9999344 0.0039881 0.0000656 -0.0039881
44113 0.0000628 -0.0038142 0.9999372 0.0038142 0.9999372 0.0038142 0.0000628 -0.0038142
46134 0.0000602 -0.0036479 0.9999398 0.0036479 0.9999398 0.0036479 0.0000602 -0.0036479
48246 0.0000577 -0.0034887 0.9999423 0.0034887 0.9999423 0.0034887 0.0000577 -0.0034887
50455 0.0000554 -0.0033365 0.9999446 0.0033365 0.9999446 0.0033365 0.0000554 -0.0033365
52766 0.0000532 -0.0031909 0.9999468 0.0031909 0.9999468 0.0031909 0.0000532 -0.0031909
55182 0.0000511 -0.0030516 0.9999489 0.0030516 0.9999489 0.0030516 0.0000511 -0.0030516
57709 0.0000492 -0.0029184 0.9999508 0.0029184 0.9999508 0.0029184 0.0000492 -0.0029184
60352 0.0000474 -0.0027909 0.9999526 0.0027909 0.9999526 0.0027909 0.0000474 -0.0027909
63115 0.0000456 -0.0026690 0.9999544 0.0026690 0.9999544 0.0026690 0.0000456 -0.0026690
66005 0.0000440 -0.0025524 0.9999560 0.0025524 0.9999560 0.0025524 0.0000440 -0.0025524
69028 0.0000425 -0.0024408 0.9999575 0.0024408 0.9999575 0.0024408 0.0000425 -0.0024408
72189 0.0000411 -0.0023341 0.9999589 0.0023341 0.9999589 0.0023341 0.0000411 -0.0023341
75495 0.0000397 -0.0022320 0.9999603 0.0022320 0.9999603 0.0022320 0.0000397 -0.0022320
78952 0.0000384 -0.0021343 0.9999616 0.0021343 0.9999616 0.0021343 0.0000384 -0.0021343
82567 0.0000372 -0.0020408 0.9999628 0.0020408 0.9999628 0.0020408 0.0000372 -0.0020408
86348 0.0000360 -0.0019514 0.9999640 0.0019514 0.9999640 0.0019514 0.0000360 -0.0019514
90302 0.0000349 -0.0018658 0.9999651 0.0018658 0.9999651 0.0018658 0.0000349 -0.0018658
94437 0.0000339 -0.0017840 0.9999661 0.0017840 0.9999661 0.0017840 0.0000339 -0.0017840
98762 0.0000329 -0.0017056 0.9999671 0.0017056 0.9999671 0.0017056 0.0000329 -0.0017056
103284 0.0000320 -0.0016307 0.9999680 0.0016307 0.9999680 0.0016307 0.0000320 -0.0016307
108014 0.0000311 -0.0015589 0.9999689 0.0015589 0.9999689 0.0015589 0.0000311 -0.0015589
112960 0.0000303 -0.0014903 0.9999697 0.0014903 0.9999697 0.0014903 0.0000303 -0.0014903
118133 0.0000295 -0.0014246 0.9999705 0.0014246 0.9999705 0.0014246 0.0000295 -0.0014246
123542 0.0000288 -0.0013617 0.9999712 0.0013617 0.9999712 0.0013617 0.0000288 -0.0013617
129199 0.0000281 -0.0013015 0.9999719 0.0013015 0.9999719 0.0013015 0.0000281 -0.0013015
135116 0.0000274 -0.0012439 0.9999726 0.0012439 0.9999726 0.0012439 0.0000274 -0.0012439
141303 0.0000268 -0.0011888 0.9999732 0.0011888 0.9999732 0.0011888 0.0000268 -0.0011888
147774 0.0000262 -0.0011360 0.9999738 0.0011360 0.9999738 0.0011360 0.0000262 -0.0011360
154540 0.0000256 -0.0010854 0.9999744 0.0010854 0.9999744 0.0010854 0.0000256 -0.0010854
161617 0.0000251 -0.0010370 0.9999749 0.0010370 0.9999749 0.0010370 0.0000251 -0.0010370
169018 0.0000246 -0.0009907 0.9999754 0.0009907 0.9999754 0.0009907 0.0000246 -0.0009907
176758 0.0000242 -0.0009463 0.9999758 0.0009463 0.9999758 0.0009463 0.0000242 -0.0009463
184852 0.0000238 -0.0009038 0.9999762 0.0009038 0.9999762 0.0009038 0.0000238 -0.0009038
193316 0.0000234 -0.0008631 0.9999766 0.0008631 0.9999766 0.0008631 0.0000234 -0.0008631
202169 0.0000230 -0.0008241 0.9999770 0.0008241 0.9999770 0.0008241 0.0000230 -0.0008241
211427 0.0000227 -0.0007867 0.9999773 0.0007867 0.9999773 0.0007867 0.0000227 -0.0007867
221108 0.0000224 -0.0007509 0.9999776 0.0007509 0.9999776 0.0007509 0.0000224 -0.0007509
231233 0.0000221 -0.0007166 0.9999779 0.0007166 0.9999779 0.0007166 0.0000221 -0.0007166
241822 0.0000218 -0.0006837 0.9999782 0.0006837 0.9999782 0.0006837 0.0000218 -0.0006837
252896 0.0000216 -0.0006522 0.9999784 0.0006522 0.9999784 0.0006522 0.0000216 -0.0006522
264476 0.0000214 -0.0006220 0.9999786 0.0006220 0.9999786 0.0006220 0.0000214 -0.0006220
276587 0.0000212 -0.0005930 0.9999788 0.0005930 0.9999788 0.0005930 0.0000212 -0.0005930
289253 0.0000210 -0.0005652 0.9999790 0.0005652 0.9999790 0.0005652 0.0000210 -0.0005652
302498 0.0000209 -0.0005385 0.9999791 0.0005385 0.9999791 0.0005385 0.0000209 -0.0005385
316350 0.0000208 -0.0005129 0.9999792 0.0005129 0.9999792 0.0005129 0.0000208 -0.0005129
330837 0.0000206 -0.0004883 0.9999794 0.0004883 0.9999794 0.0004883 0.0000206 -0.0004883
345986 0.0000205 -0.0004647 0.9999795 0.0004647 0.9999795 0.0004647 0.0000205 -0.0004647
361830 0.0000205 -0.0004420 0.9999795 0.0004420 0.9999795 0.0004420 0.0000205 -0.0004420
378399 0.0000204 -0.0004202 0.9999796 0.0004202 0.9999796 0.0004202 0.0000204 -0.0004202
395726 0.0000204 -0.0003992 0.9999796 0.0003992 0.9999796 0.0003992 0.0000204 -0.0003992
413847 0.0000203 -0.0003790 0.9999797 0.0003790 0.9999797 0.0003790 0.0000203 -0.0003790
432798 0.0000203 -0.0003596 0.9999797 0.0003596 0.9999797 0.0003596 0.0000203 -0.0003596
452617 0.0000203 -0.0003409 0.9999797 0.0003409 0.9999797 0.0003409 0.0000203 -0.0003409
473344 0.0000204 -0.0003229 0.9999796 0.0003229 0.9999796 0.0003229 0.0000204 -0.0003229
495019 0.0000204 -0.0003055 0.9999796 0.0003055 0.9999796 0.0003055 0.0000204 -0.0003055
517687 0.0000205 -0.0002887 0.9999795 0.0002887 0.9999795 0.0002887 0.0000205 -0.0002887
541393 0.0000205 -0.0002725 0.9999795 0.0002725 0.9999795 0.0002725 0.0000205 -0.0002725
566185 0.0000206 -0.0002569 0.9999794 0.0002569 0.9999794 0.0002569 0.0000206 -0.0002569
592111 0.0000208 -0.0002418 0.9999792 0.0002418 0.9999792 0.0002418 0.0000208 -0.0002418
619225 0.0000209 -0.0002271 0.9999791 0.0002271 0.9999791 0.0002271 0.0000209 -0.0002271
647581 0.0000211 -0.0002129 0.9999789 0.0002129 0.9999789 0.0002129 0.0000211 -0.0002129
677235 0.0000213 -0.0001991 0.9999787 0.0001991 0.9999787 0.0001991 0.0000213 -0.0001991
708247 0.0000215 -0.0001858 0.9999785 0.0001858 0.9999785 0.0001858 0.0000215 -0.0001858
740679 0.0000217 -0.0001727 0.9999783 0.0001727 0.9999783 0.0001727 0.0000217 -0.0001727
774597 0.0000220 -0.0001601 0.9999780 0.0001601 0.9999780 0.0001601 0.0000220 -0.0001601
810067 0.0000223 -0.0001477 0.9999777 0.0001477 0.9999777 0.0001477 0.0000223 -0.0001477
847162 0.0000226 -0.0001357 0.9999774 0.0001357 0.9999774 0.0001357 0.0000226 -0.0001357
885955 0.0000230 -0.0001239 0.9999770 0.0001239 0.9999770 0.0001239 0.0000230 -0.0001239
926525 0.0000234 -0.0001123 0.9999766 0.0001123 0.9999766 0.0001123 0.0000234 -0.0001123
968953 0.0000239 -0.0001010 0.9999761 0.0001010 0.9999761 0.0001010 0.0000239 -0.0001010
1013323 0.0000244 -0.0000899 0.9999756 0.0000899 0.9999756 0.0000899 0.0000244 -0.0000899
1059725 0.0000249 -0.0000789 0.9999751 0.0000789 0.9999751 0.0000789 0.0000249 -0.0000789
1108252 0.0000255 -0.0000680 0.9999745 0.0000680 0.9999745 0.0000680 0.0000255 -0.0000680
1159002 0.0000262 -0.0000573 0.9999738 0.0000573 0.9999738 0.0000573 0.0000262 -0.0000573
1212075 0.0000270 -0.0000467 0.9999730 0.0000467 0.9999730 0.0000467 0.0000270 -0.0000467
1267578 0.0000278 -0.0000362 0.9999722 0.0000362 0.9999722 0.0000362 0.0000278 -0.0000362
1325623 0.0000288 -0.0000256 0.9999712 0.0000256 0.9999712 0.0000256 0.0000288 -0.0000256
1386327 0.0000298 -0.0000151 0.9999702 0.0000151 0.9999702 0.0000151 0.0000298 -0.0000151
1449809 0.0000310 -0.0000046 0.9999690 0.0000046 0.9999690 0.0000046 0.0000310 -0.0000046
1516199 0.0000323 0.0000060 0.9999677 -0.0000060 0.9999677 -0.0000060 0.0000323 0.0000060
1585629 0.0000337 0.0000167 0.9999663 -0.0000167 0.9999663 -0.0000167 0.0000337 0.0000167
1658239 0.0000354 0.0000275 0.9999646 -0.0000275 0.9999646 -0.0000275 0.0000354 0.0000275
1734173 0.0000373 0.0000385 0.9999627 -0.0000385 0.9999627 -0.0000385 0.0000373 0.0000385
1813585 0.0000395 0.0000498 0.9999605 -0.0000498 0.9999605 -0.0000498 0.0000395 0.0000498
1896632 0.0000420 0.0000614 0.9999580 -0.0000614 0.9999580 -0.0000614 0.0000420 0.0000614
1983483 0.0000451 0.0000734 0.9999549 -0.0000734 0.9999549 -0.0000734 0.0000451 0.0000734
2074311 0.0000489 0.0000859 0.9999511 -0.0000859 0.9999511 -0.0000859 0.0000489 0.0000859
