!Murata Part Number: GRM43DR7LX333KW01
!These Parameters are Measured in Series Mode Connection
!Data Generated on Mar 30, 2021
!       o--ll--o
!Port1            Port2
!       o------o
!Operation Temp=25[degC], DC Bias Voltage=0[V]
!Freq. Start=100[kHz] Stop=6[GHz] 401[Steps]
# Hz S RI R 50
!Freq.(Hz) S11(Real) S11(Imag) S21(Real) S21(Imag) S12(Real) S12(Imag) S22(Real) S22(Imag)
100000 0.1996447 -0.3951621 0.8003553 0.3951621 0.8003553 0.3951621 0.1996447 -0.3951621
102789 0.1911496 -0.3886347 0.8088504 0.3886347 0.8088504 0.3886347 0.1911496 -0.3886347
105655 0.1829340 -0.3820401 0.8170660 0.3820401 0.8170660 0.3820401 0.1829340 -0.3820401
108602 0.1749960 -0.3753911 0.8250040 0.3753911 0.8250040 0.3753911 0.1749960 -0.3753911
111630 0.1673328 -0.3686999 0.8326672 0.3686999 0.8326672 0.3686999 0.1673328 -0.3686999
114743 0.1599410 -0.3619783 0.8400590 0.3619783 0.8400590 0.3619783 0.1599410 -0.3619783
117943 0.1528170 -0.3552375 0.8471830 0.3552375 0.8471830 0.3552375 0.1528170 -0.3552375
121232 0.1459564 -0.3484882 0.8540436 0.3484882 0.8540436 0.3484882 0.1459564 -0.3484882
124613 0.1393543 -0.3417405 0.8606457 0.3417405 0.8606457 0.3417405 0.1393543 -0.3417405
128088 0.1330058 -0.3350040 0.8669942 0.3350040 0.8669942 0.3350040 0.1330058 -0.3350040
131660 0.1269053 -0.3282878 0.8730947 0.3282878 0.8730947 0.3282878 0.1269053 -0.3282878
135332 0.1210472 -0.3216002 0.8789528 0.3216002 0.8789528 0.3216002 0.1210472 -0.3216002
139106 0.1154253 -0.3149492 0.8845747 0.3149492 0.8845747 0.3149492 0.1154253 -0.3149492
142985 0.1100337 -0.3083421 0.8899663 0.3083421 0.8899663 0.3083421 0.1100337 -0.3083421
146972 0.1048658 -0.3017857 0.8951342 0.3017857 0.8951342 0.3017857 0.1048658 -0.3017857
151071 0.0999153 -0.2952864 0.9000847 0.2952864 0.9000847 0.2952864 0.0999153 -0.2952864
155284 0.0951756 -0.2888497 0.9048244 0.2888497 0.9048244 0.2888497 0.0951756 -0.2888497
159614 0.0906401 -0.2824811 0.9093599 0.2824811 0.9093599 0.2824811 0.0906401 -0.2824811
164065 0.0863021 -0.2761853 0.9136979 0.2761853 0.9136979 0.2761853 0.0863021 -0.2761853
168641 0.0821552 -0.2699667 0.9178448 0.2699667 0.9178448 0.2699667 0.0821552 -0.2699667
173344 0.0781926 -0.2638290 0.9218074 0.2638290 0.9218074 0.2638290 0.0781926 -0.2638290
178178 0.0744079 -0.2577759 0.9255921 0.2577759 0.9255921 0.2577759 0.0744079 -0.2577759
183146 0.0707944 -0.2518103 0.9292056 0.2518103 0.9292056 0.2518103 0.0707944 -0.2518103
188254 0.0673460 -0.2459349 0.9326540 0.2459349 0.9326540 0.2459349 0.0673460 -0.2459349
193504 0.0640561 -0.2401520 0.9359439 0.2401520 0.9359439 0.2401520 0.0640561 -0.2401520
198900 0.0609188 -0.2344636 0.9390812 0.2344636 0.9390812 0.2344636 0.0609188 -0.2344636
204447 0.0579278 -0.2288715 0.9420722 0.2288715 0.9420722 0.2288715 0.0579278 -0.2288715
210148 0.0550773 -0.2233768 0.9449227 0.2233768 0.9449227 0.2233768 0.0550773 -0.2233768
216008 0.0523616 -0.2179807 0.9476384 0.2179807 0.9476384 0.2179807 0.0523616 -0.2179807
222032 0.0497750 -0.2126841 0.9502250 0.2126841 0.9502250 0.2126841 0.0497750 -0.2126841
228224 0.0473119 -0.2074875 0.9526881 0.2074875 0.9526881 0.2074875 0.0473119 -0.2074875
234589 0.0449672 -0.2023912 0.9550328 0.2023912 0.9550328 0.2023912 0.0449672 -0.2023912
241130 0.0427357 -0.1973953 0.9572643 0.1973953 0.9572643 0.1973953 0.0427357 -0.1973953
247855 0.0406123 -0.1924999 0.9593877 0.1924999 0.9593877 0.1924999 0.0406123 -0.1924999
254767 0.0385923 -0.1877047 0.9614077 0.1877047 0.9614077 0.1877047 0.0385923 -0.1877047
261871 0.0366711 -0.1830093 0.9633289 0.1830093 0.9633289 0.1830093 0.0366711 -0.1830093
269174 0.0348441 -0.1784131 0.9651559 0.1784131 0.9651559 0.1784131 0.0348441 -0.1784131
276681 0.0331070 -0.1739155 0.9668930 0.1739155 0.9668930 0.1739155 0.0331070 -0.1739155
284397 0.0314557 -0.1695156 0.9685443 0.1695156 0.9685443 0.1695156 0.0314557 -0.1695156
292328 0.0298861 -0.1652126 0.9701139 0.1652126 0.9701139 0.1652126 0.0298861 -0.1652126
300480 0.0283945 -0.1610055 0.9716055 0.1610055 0.9716055 0.1610055 0.0283945 -0.1610055
308859 0.0269771 -0.1568932 0.9730229 0.1568932 0.9730229 0.1568932 0.0269771 -0.1568932
317472 0.0256305 -0.1528744 0.9743695 0.1528744 0.9743695 0.1528744 0.0256305 -0.1528744
326326 0.0243512 -0.1489480 0.9756488 0.1489480 0.9756488 0.1489480 0.0243512 -0.1489480
335426 0.0231360 -0.1451127 0.9768640 0.1451127 0.9768640 0.1451127 0.0231360 -0.1451127
344780 0.0219818 -0.1413670 0.9780182 0.1413670 0.9780182 0.1413670 0.0219818 -0.1413670
354395 0.0208857 -0.1377097 0.9791143 0.1377097 0.9791143 0.1377097 0.0208857 -0.1377097
364278 0.0198447 -0.1341392 0.9801553 0.1341392 0.9801553 0.1341392 0.0198447 -0.1341392
374436 0.0188563 -0.1306541 0.9811437 0.1306541 0.9811437 0.1306541 0.0188563 -0.1306541
384878 0.0179178 -0.1272530 0.9820822 0.1272530 0.9820822 0.1272530 0.0179178 -0.1272530
395611 0.0170268 -0.1239342 0.9829732 0.1239342 0.9829732 0.1239342 0.0170268 -0.1239342
406644 0.0161809 -0.1206963 0.9838191 0.1206963 0.9838191 0.1206963 0.0161809 -0.1206963
417984 0.0153778 -0.1175377 0.9846222 0.1175377 0.9846222 0.1175377 0.0153778 -0.1175377
429640 0.0146155 -0.1144569 0.9853845 0.1144569 0.9853845 0.1144569 0.0146155 -0.1144569
441622 0.0138920 -0.1114524 0.9861080 0.1114524 0.9861080 0.1114524 0.0138920 -0.1114524
453937 0.0132052 -0.1085225 0.9867948 0.1085225 0.9867948 0.1085225 0.0132052 -0.1085225
466596 0.0125533 -0.1056658 0.9874467 0.1056658 0.9874467 0.1056658 0.0125533 -0.1056658
479608 0.0119346 -0.1028807 0.9880654 0.1028807 0.9880654 0.1028807 0.0119346 -0.1028807
492983 0.0113474 -0.1001657 0.9886526 0.1001657 0.9886526 0.1001657 0.0113474 -0.1001657
506731 0.0107901 -0.0975192 0.9892099 0.0975192 0.9892099 0.0975192 0.0107901 -0.0975192
520862 0.0102613 -0.0949398 0.9897387 0.0949398 0.9897387 0.0949398 0.0102613 -0.0949398
535387 0.0097594 -0.0924260 0.9902406 0.0924260 0.9902406 0.0924260 0.0097594 -0.0924260
550318 0.0092831 -0.0899763 0.9907169 0.0899763 0.9907169 0.0899763 0.0092831 -0.0899763
565664 0.0088312 -0.0875892 0.9911688 0.0875892 0.9911688 0.0875892 0.0088312 -0.0875892
581439 0.0084023 -0.0852633 0.9915977 0.0852633 0.9915977 0.0852633 0.0084023 -0.0852633
597654 0.0079953 -0.0829972 0.9920047 0.0829972 0.9920047 0.0829972 0.0079953 -0.0829972
614320 0.0076091 -0.0807895 0.9923909 0.0807895 0.9923909 0.0807895 0.0076091 -0.0807895
631452 0.0072427 -0.0786389 0.9927573 0.0786389 0.9927573 0.0786389 0.0072427 -0.0786389
649061 0.0068949 -0.0765439 0.9931051 0.0765439 0.9931051 0.0765439 0.0068949 -0.0765439
667162 0.0065650 -0.0745032 0.9934350 0.0745032 0.9934350 0.0745032 0.0065650 -0.0745032
685767 0.0062519 -0.0725156 0.9937481 0.0725156 0.9937481 0.0725156 0.0062519 -0.0725156
704891 0.0059547 -0.0705798 0.9940453 0.0705798 0.9940453 0.0705798 0.0059547 -0.0705798
724548 0.0056728 -0.0686944 0.9943272 0.0686944 0.9943272 0.0686944 0.0056728 -0.0686944
744754 0.0054053 -0.0668583 0.9945947 0.0668583 0.9945947 0.0668583 0.0054053 -0.0668583
765523 0.0051514 -0.0650702 0.9948486 0.0650702 0.9948486 0.0650702 0.0051514 -0.0650702
786871 0.0049105 -0.0633290 0.9950895 0.0633290 0.9950895 0.0633290 0.0049105 -0.0633290
808814 0.0046819 -0.0616335 0.9953181 0.0616335 0.9953181 0.0616335 0.0046819 -0.0616335
831370 0.0044649 -0.0599826 0.9955351 0.0599826 0.9955351 0.0599826 0.0044649 -0.0599826
854554 0.0042590 -0.0583750 0.9957410 0.0583750 0.9957410 0.0583750 0.0042590 -0.0583750
878385 0.0040636 -0.0568098 0.9959364 0.0568098 0.9959364 0.0568098 0.0040636 -0.0568098
902880 0.0038781 -0.0552859 0.9961219 0.0552859 0.9961219 0.0552859 0.0038781 -0.0552859
928059 0.0037021 -0.0538022 0.9962979 0.0538022 0.9962979 0.0538022 0.0037021 -0.0538022
953940 0.0035350 -0.0523577 0.9964650 0.0523577 0.9964650 0.0523577 0.0035350 -0.0523577
980542 0.0033764 -0.0509514 0.9966236 0.0509514 0.9966236 0.0509514 0.0033764 -0.0509514
1007887 0.0032258 -0.0495823 0.9967742 0.0495823 0.9967742 0.0495823 0.0032258 -0.0495823
1035994 0.0030829 -0.0482495 0.9969171 0.0482495 0.9969171 0.0482495 0.0030829 -0.0482495
1064885 0.0029472 -0.0469519 0.9970528 0.0469519 0.9970528 0.0469519 0.0029472 -0.0469519
1094581 0.0028184 -0.0456888 0.9971816 0.0456888 0.9971816 0.0456888 0.0028184 -0.0456888
1125106 0.0026961 -0.0444592 0.9973039 0.0444592 0.9973039 0.0444592 0.0026961 -0.0444592
1156481 0.0025800 -0.0432623 0.9974200 0.0432623 0.9974200 0.0432623 0.0025800 -0.0432623
1188732 0.0024697 -0.0420971 0.9975303 0.0420971 0.9975303 0.0420971 0.0024697 -0.0420971
1221882 0.0023650 -0.0409629 0.9976350 0.0409629 0.9976350 0.0409629 0.0023650 -0.0409629
1255957 0.0022656 -0.0398588 0.9977344 0.0398588 0.9977344 0.0398588 0.0022656 -0.0398588
1290982 0.0021711 -0.0387842 0.9978289 0.0387842 0.9978289 0.0387842 0.0021711 -0.0387842
1326984 0.0020814 -0.0377381 0.9979186 0.0377381 0.9979186 0.0377381 0.0020814 -0.0377381
1363989 0.0019962 -0.0367198 0.9980038 0.0367198 0.9980038 0.0367198 0.0019962 -0.0367198
1402027 0.0019152 -0.0357286 0.9980848 0.0357286 0.9980848 0.0357286 0.0019152 -0.0357286
1441125 0.0018383 -0.0347639 0.9981617 0.0347639 0.9981617 0.0347639 0.0018383 -0.0347639
1481314 0.0017653 -0.0338248 0.9982347 0.0338248 0.9982347 0.0338248 0.0017653 -0.0338248
1522623 0.0016959 -0.0329107 0.9983041 0.0329107 0.9983041 0.0329107 0.0016959 -0.0329107
1565085 0.0016299 -0.0320210 0.9983701 0.0320210 0.9983701 0.0320210 0.0016299 -0.0320210
1608730 0.0015672 -0.0311550 0.9984328 0.0311550 0.9984328 0.0311550 0.0015672 -0.0311550
1653593 0.0015077 -0.0303120 0.9984923 0.0303120 0.9984923 0.0303120 0.0015077 -0.0303120
1699707 0.0014511 -0.0294916 0.9985489 0.0294916 0.9985489 0.0294916 0.0014511 -0.0294916
1747106 0.0013973 -0.0286929 0.9986027 0.0286929 0.9986027 0.0286929 0.0013973 -0.0286929
1795828 0.0013461 -0.0279156 0.9986539 0.0279156 0.9986539 0.0279156 0.0013461 -0.0279156
1845908 0.0012975 -0.0271590 0.9987025 0.0271590 0.9987025 0.0271590 0.0012975 -0.0271590
1897385 0.0012512 -0.0264225 0.9987488 0.0264225 0.9987488 0.0264225 0.0012512 -0.0264225
1950297 0.0012073 -0.0257056 0.9987927 0.0257056 0.9987927 0.0257056 0.0012073 -0.0257056
2004685 0.0011655 -0.0250079 0.9988345 0.0250079 0.9988345 0.0250079 0.0011655 -0.0250079
2060590 0.0011257 -0.0243287 0.9988743 0.0243287 0.9988743 0.0243287 0.0011257 -0.0243287
2118054 0.0010879 -0.0236676 0.9989121 0.0236676 0.9989121 0.0236676 0.0010879 -0.0236676
2177120 0.0010519 -0.0230241 0.9989481 0.0230241 0.9989481 0.0230241 0.0010519 -0.0230241
2237833 0.0010177 -0.0223977 0.9989823 0.0223977 0.9989823 0.0223977 0.0010177 -0.0223977
2300240 0.0009851 -0.0217880 0.9990149 0.0217880 0.9990149 0.0217880 0.0009851 -0.0217880
2364387 0.0009541 -0.0211945 0.9990459 0.0211945 0.9990459 0.0211945 0.0009541 -0.0211945
2430322 0.0009246 -0.0206168 0.9990754 0.0206168 0.9990754 0.0206168 0.0009246 -0.0206168
2498097 0.0008965 -0.0200545 0.9991035 0.0200545 0.9991035 0.0200545 0.0008965 -0.0200545
2567761 0.0008697 -0.0195071 0.9991303 0.0195071 0.9991303 0.0195071 0.0008697 -0.0195071
2639368 0.0008442 -0.0189742 0.9991558 0.0189742 0.9991558 0.0189742 0.0008442 -0.0189742
2712972 0.0008198 -0.0184554 0.9991802 0.0184554 0.9991802 0.0184554 0.0008198 -0.0184554
2788629 0.0007967 -0.0179504 0.9992033 0.0179504 0.9992033 0.0179504 0.0007967 -0.0179504
2866396 0.0007746 -0.0174588 0.9992254 0.0174588 0.9992254 0.0174588 0.0007746 -0.0174588
2946331 0.0007535 -0.0169802 0.9992465 0.0169802 0.9992465 0.0169802 0.0007535 -0.0169802
3028495 0.0007333 -0.0165142 0.9992667 0.0165142 0.9992667 0.0165142 0.0007333 -0.0165142
3112951 0.0007141 -0.0160605 0.9992859 0.0160605 0.9992859 0.0160605 0.0007141 -0.0160605
3199762 0.0006958 -0.0156189 0.9993042 0.0156189 0.9993042 0.0156189 0.0006958 -0.0156189
3288994 0.0006782 -0.0151888 0.9993218 0.0151888 0.9993218 0.0151888 0.0006782 -0.0151888
3380714 0.0006615 -0.0147701 0.9993385 0.0147701 0.9993385 0.0147701 0.0006615 -0.0147701
3474992 0.0006454 -0.0143624 0.9993546 0.0143624 0.9993546 0.0143624 0.0006454 -0.0143624
3571899 0.0006301 -0.0139653 0.9993699 0.0139653 0.9993699 0.0139653 0.0006301 -0.0139653
3671508 0.0006154 -0.0135787 0.9993846 0.0135787 0.9993846 0.0135787 0.0006154 -0.0135787
3773896 0.0006013 -0.0132022 0.9993987 0.0132022 0.9993987 0.0132022 0.0006013 -0.0132022
3879139 0.0005878 -0.0128355 0.9994122 0.0128355 0.9994122 0.0128355 0.0005878 -0.0128355
3987316 0.0005748 -0.0124783 0.9994252 0.0124783 0.9994252 0.0124783 0.0005748 -0.0124783
4098510 0.0005624 -0.0121305 0.9994376 0.0121305 0.9994376 0.0121305 0.0005624 -0.0121305
4212806 0.0005504 -0.0117916 0.9994496 0.0117916 0.9994496 0.0117916 0.0005504 -0.0117916
4330288 0.0005389 -0.0114615 0.9994611 0.0114615 0.9994611 0.0114615 0.0005389 -0.0114615
4451047 0.0005279 -0.0111400 0.9994721 0.0111400 0.9994721 0.0111400 0.0005279 -0.0111400
4575173 0.0005172 -0.0108267 0.9994828 0.0108267 0.9994828 0.0108267 0.0005172 -0.0108267
4702761 0.0005070 -0.0105214 0.9994930 0.0105214 0.9994930 0.0105214 0.0005070 -0.0105214
4833907 0.0004971 -0.0102239 0.9995029 0.0102239 0.9995029 0.0102239 0.0004971 -0.0102239
4968711 0.0004876 -0.0099340 0.9995124 0.0099340 0.9995124 0.0099340 0.0004876 -0.0099340
5107273 0.0004784 -0.0096514 0.9995216 0.0096514 0.9995216 0.0096514 0.0004784 -0.0096514
5249700 0.0004696 -0.0093760 0.9995304 0.0093760 0.9995304 0.0093760 0.0004696 -0.0093760
5396098 0.0004610 -0.0091075 0.9995390 0.0091075 0.9995390 0.0091075 0.0004610 -0.0091075
5546579 0.0004528 -0.0088457 0.9995472 0.0088457 0.9995472 0.0088457 0.0004528 -0.0088457
5701257 0.0004448 -0.0085904 0.9995552 0.0085904 0.9995552 0.0085904 0.0004448 -0.0085904
5860248 0.0004371 -0.0083415 0.9995629 0.0083415 0.9995629 0.0083415 0.0004371 -0.0083415
6023672 0.0004296 -0.0080987 0.9995704 0.0080987 0.9995704 0.0080987 0.0004296 -0.0080987
6191655 0.0004224 -0.0078619 0.9995776 0.0078619 0.9995776 0.0078619 0.0004224 -0.0078619
6364321 0.0004154 -0.0076309 0.9995846 0.0076309 0.9995846 0.0076309 0.0004154 -0.0076309
6541803 0.0004086 -0.0074054 0.9995914 0.0074054 0.9995914 0.0074054 0.0004086 -0.0074054
6724235 0.0004021 -0.0071854 0.9995979 0.0071854 0.9995979 0.0071854 0.0004021 -0.0071854
6911753 0.0003958 -0.0069707 0.9996042 0.0069707 0.9996042 0.0069707 0.0003958 -0.0069707
7104501 0.0003896 -0.0067611 0.9996104 0.0067611 0.9996104 0.0067611 0.0003896 -0.0067611
7302625 0.0003837 -0.0065564 0.9996163 0.0065564 0.9996163 0.0065564 0.0003837 -0.0065564
7506273 0.0003780 -0.0063565 0.9996220 0.0063565 0.9996220 0.0063565 0.0003780 -0.0063565
7715601 0.0003724 -0.0061612 0.9996276 0.0061612 0.9996276 0.0061612 0.0003724 -0.0061612
7930766 0.0003671 -0.0059705 0.9996329 0.0059705 0.9996329 0.0059705 0.0003671 -0.0059705
8151931 0.0003619 -0.0057841 0.9996381 0.0057841 0.9996381 0.0057841 0.0003619 -0.0057841
8379264 0.0003569 -0.0056019 0.9996431 0.0056019 0.9996431 0.0056019 0.0003569 -0.0056019
8612937 0.0003521 -0.0054238 0.9996479 0.0054238 0.9996479 0.0054238 0.0003521 -0.0054238
8853126 0.0003475 -0.0052497 0.9996525 0.0052497 0.9996525 0.0052497 0.0003475 -0.0052497
9100013 0.0003430 -0.0050794 0.9996570 0.0050794 0.9996570 0.0050794 0.0003430 -0.0050794
9353785 0.0003387 -0.0049128 0.9996613 0.0049128 0.9996613 0.0049128 0.0003387 -0.0049128
9614634 0.0003346 -0.0047497 0.9996654 0.0047497 0.9996654 0.0047497 0.0003346 -0.0047497
9882758 0.0003306 -0.0045901 0.9996694 0.0045901 0.9996694 0.0045901 0.0003306 -0.0045901
10158358 0.0003268 -0.0044339 0.9996732 0.0044339 0.9996732 0.0044339 0.0003268 -0.0044339
10441645 0.0003232 -0.0042808 0.9996768 0.0042808 0.9996768 0.0042808 0.0003232 -0.0042808
10732831 0.0003197 -0.0041309 0.9996803 0.0041309 0.9996803 0.0041309 0.0003197 -0.0041309
11032137 0.0003164 -0.0039840 0.9996836 0.0039840 0.9996836 0.0039840 0.0003164 -0.0039840
11339791 0.0003132 -0.0038400 0.9996868 0.0038400 0.9996868 0.0038400 0.0003132 -0.0038400
11656024 0.0003102 -0.0036987 0.9996898 0.0036987 0.9996898 0.0036987 0.0003102 -0.0036987
11981075 0.0003074 -0.0035602 0.9996926 0.0035602 0.9996926 0.0035602 0.0003074 -0.0035602
12315192 0.0003047 -0.0034242 0.9996953 0.0034242 0.9996953 0.0034242 0.0003047 -0.0034242
12658625 0.0003022 -0.0032908 0.9996978 0.0032908 0.9996978 0.0032908 0.0003022 -0.0032908
13011637 0.0002998 -0.0031597 0.9997002 0.0031597 0.9997002 0.0031597 0.0002998 -0.0031597
13374492 0.0002976 -0.0030309 0.9997024 0.0030309 0.9997024 0.0030309 0.0002976 -0.0030309
13747467 0.0002955 -0.0029043 0.9997045 0.0029043 0.9997045 0.0029043 0.0002955 -0.0029043
14130843 0.0002936 -0.0027798 0.9997064 0.0027798 0.9997064 0.0027798 0.0002936 -0.0027798
14524910 0.0002918 -0.0026573 0.9997082 0.0026573 0.9997082 0.0026573 0.0002918 -0.0026573
14929966 0.0002902 -0.0025368 0.9997098 0.0025368 0.9997098 0.0025368 0.0002902 -0.0025368
15346318 0.0002887 -0.0024181 0.9997113 0.0024181 0.9997113 0.0024181 0.0002887 -0.0024181
15774281 0.0002874 -0.0023011 0.9997126 0.0023011 0.9997126 0.0023011 0.0002874 -0.0023011
16214179 0.0002862 -0.0021859 0.9997138 0.0021859 0.9997138 0.0021859 0.0002862 -0.0021859
16666344 0.0002852 -0.0020722 0.9997148 0.0020722 0.9997148 0.0020722 0.0002852 -0.0020722
17131118 0.0002843 -0.0019600 0.9997157 0.0019600 0.9997157 0.0019600 0.0002843 -0.0019600
17608854 0.0002836 -0.0018492 0.9997164 0.0018492 0.9997164 0.0018492 0.0002836 -0.0018492
18099912 0.0002830 -0.0017397 0.9997170 0.0017397 0.9997170 0.0017397 0.0002830 -0.0017397
18604665 0.0002826 -0.0016315 0.9997174 0.0016315 0.9997174 0.0016315 0.0002826 -0.0016315
19123493 0.0002824 -0.0015245 0.9997176 0.0015245 0.9997176 0.0015245 0.0002824 -0.0015245
19656790 0.0002823 -0.0014186 0.9997177 0.0014186 0.9997177 0.0014186 0.0002823 -0.0014186
20204959 0.0002823 -0.0013137 0.9997177 0.0013137 0.9997177 0.0013137 0.0002823 -0.0013137
20768415 0.0002826 -0.0012097 0.9997174 0.0012097 0.9997174 0.0012097 0.0002826 -0.0012097
21347584 0.0002830 -0.0011066 0.9997170 0.0011066 0.9997170 0.0011066 0.0002830 -0.0011066
21942904 0.0002835 -0.0010042 0.9997165 0.0010042 0.9997165 0.0010042 0.0002835 -0.0010042
22554827 0.0002843 -0.0009026 0.9997157 0.0009026 0.9997157 0.0009026 0.0002843 -0.0009026
23183813 0.0002852 -0.0008015 0.9997148 0.0008015 0.9997148 0.0008015 0.0002852 -0.0008015
23830340 0.0002863 -0.0007011 0.9997137 0.0007011 0.9997137 0.0007011 0.0002863 -0.0007011
24494897 0.0002876 -0.0006010 0.9997124 0.0006010 0.9997124 0.0006010 0.0002876 -0.0006010
25177987 0.0002892 -0.0005014 0.9997108 0.0005014 0.9997108 0.0005014 0.0002892 -0.0005014
25880126 0.0002909 -0.0004021 0.9997091 0.0004021 0.9997091 0.0004021 0.0002909 -0.0004021
26601845 0.0002928 -0.0003030 0.9997072 0.0003030 0.9997072 0.0003030 0.0002928 -0.0003030
27343691 0.0002949 -0.0002040 0.9997051 0.0002040 0.9997051 0.0002040 0.0002949 -0.0002040
28106225 0.0002973 -0.0001052 0.9997027 0.0001052 0.9997027 0.0001052 0.0002973 -0.0001052
28890023 0.0003000 -0.0000063 0.9997000 0.0000063 0.9997000 0.0000063 0.0003000 -0.0000063
29695680 0.0003029 0.0000927 0.9996971 -0.0000927 0.9996971 -0.0000927 0.0003029 0.0000927
30523804 0.0003060 0.0001919 0.9996940 -0.0001919 0.9996940 -0.0001919 0.0003060 0.0001919
31375021 0.0003095 0.0002913 0.9996905 -0.0002913 0.9996905 -0.0002913 0.0003095 0.0002913
32249977 0.0003133 0.0003911 0.9996867 -0.0003911 0.9996867 -0.0003911 0.0003133 0.0003911
33149332 0.0003174 0.0004913 0.9996826 -0.0004913 0.9996826 -0.0004913 0.0003174 0.0004913
34073768 0.0003218 0.0005920 0.9996782 -0.0005920 0.9996782 -0.0005920 0.0003218 0.0005920
35023984 0.0003266 0.0006934 0.9996734 -0.0006934 0.9996734 -0.0006934 0.0003266 0.0006934
36000698 0.0003319 0.0007954 0.9996681 -0.0007954 0.9996681 -0.0007954 0.0003319 0.0007954
37004650 0.0003375 0.0008983 0.9996625 -0.0008983 0.9996625 -0.0008983 0.0003375 0.0008983
38036599 0.0003437 0.0010021 0.9996563 -0.0010021 0.9996563 -0.0010021 0.0003437 0.0010021
39097326 0.0003504 0.0011070 0.9996496 -0.0011070 0.9996496 -0.0011070 0.0003504 0.0011070
