!Murata Part Number: GRM2161X1A333JA01
!These Parameters are Measured in Series Mode Connection
!Data Generated on Mar 30, 2021
!       o--ll--o
!Port1            Port2
!       o------o
!Operation Temp=25[degC], DC Bias Voltage=0[V]
!Freq. Start=1000[kHz] Stop=6[GHz] 401[Steps]
# Hz S RI R 50
!Freq.(Hz) S11(Real) S11(Imag) S21(Real) S21(Imag) S12(Real) S12(Imag) S22(Real) S22(Imag)
1000000 0.0023304 -0.0475688 0.9976696 0.0475688 0.9976696 0.0475688 0.0023304 -0.0475688
1021987 0.0022339 -0.0465485 0.9977661 0.0465485 0.9977661 0.0465485 0.0022339 -0.0465485
1044457 0.0021416 -0.0455498 0.9978584 0.0455498 0.9978584 0.0455498 0.0021416 -0.0455498
1067422 0.0020531 -0.0445723 0.9979469 0.0445723 0.9979469 0.0445723 0.0020531 -0.0445723
1090891 0.0019684 -0.0436155 0.9980316 0.0436155 0.9980316 0.0436155 0.0019684 -0.0436155
1114877 0.0018873 -0.0426791 0.9981127 0.0426791 0.9981127 0.0426791 0.0018873 -0.0426791
1139390 0.0018097 -0.0417625 0.9981903 0.0417625 0.9981903 0.0417625 0.0018097 -0.0417625
1164441 0.0017353 -0.0408655 0.9982647 0.0408655 0.9982647 0.0408655 0.0017353 -0.0408655
1190044 0.0016641 -0.0399875 0.9983359 0.0399875 0.9983359 0.0399875 0.0016641 -0.0399875
1216210 0.0015959 -0.0391281 0.9984041 0.0391281 0.9984041 0.0391281 0.0015959 -0.0391281
1242950 0.0015306 -0.0382871 0.9984694 0.0382871 0.9984694 0.0382871 0.0015306 -0.0382871
1270279 0.0014681 -0.0374639 0.9985319 0.0374639 0.9985319 0.0374639 0.0014681 -0.0374639
1298209 0.0014082 -0.0366583 0.9985918 0.0366583 0.9985918 0.0366583 0.0014082 -0.0366583
1326753 0.0013509 -0.0358699 0.9986491 0.0358699 0.9986491 0.0358699 0.0013509 -0.0358699
1355924 0.0012960 -0.0350982 0.9987040 0.0350982 0.9987040 0.0350982 0.0012960 -0.0350982
1385737 0.0012435 -0.0343429 0.9987565 0.0343429 0.9987565 0.0343429 0.0012435 -0.0343429
1416205 0.0011931 -0.0336038 0.9988069 0.0336038 0.9988069 0.0336038 0.0011931 -0.0336038
1447343 0.0011450 -0.0328804 0.9988550 0.0328804 0.9988550 0.0328804 0.0011450 -0.0328804
1479166 0.0010988 -0.0321724 0.9989012 0.0321724 0.9989012 0.0321724 0.0010988 -0.0321724
1511688 0.0010546 -0.0314795 0.9989454 0.0314795 0.9989454 0.0314795 0.0010546 -0.0314795
1544926 0.0010124 -0.0308014 0.9989876 0.0308014 0.9989876 0.0308014 0.0010124 -0.0308014
1578894 0.0009719 -0.0301378 0.9990281 0.0301378 0.9990281 0.0301378 0.0009719 -0.0301378
1613609 0.0009331 -0.0294883 0.9990669 0.0294883 0.9990669 0.0294883 0.0009331 -0.0294883
1649087 0.0008960 -0.0288526 0.9991040 0.0288526 0.9991040 0.0288526 0.0008960 -0.0288526
1685346 0.0008604 -0.0282305 0.9991396 0.0282305 0.9991396 0.0282305 0.0008604 -0.0282305
1722402 0.0008264 -0.0276217 0.9991736 0.0276217 0.9991736 0.0276217 0.0008264 -0.0276217
1760272 0.0007938 -0.0270258 0.9992062 0.0270258 0.9992062 0.0270258 0.0007938 -0.0270258
1798975 0.0007626 -0.0264427 0.9992374 0.0264427 0.9992374 0.0264427 0.0007626 -0.0264427
1838529 0.0007328 -0.0258720 0.9992672 0.0258720 0.9992672 0.0258720 0.0007328 -0.0258720
1878953 0.0007042 -0.0253135 0.9992958 0.0253135 0.9992958 0.0253135 0.0007042 -0.0253135
1920266 0.0006768 -0.0247669 0.9993232 0.0247669 0.9993232 0.0247669 0.0006768 -0.0247669
1962487 0.0006506 -0.0242319 0.9993494 0.0242319 0.9993494 0.0242319 0.0006506 -0.0242319
2005636 0.0006255 -0.0237084 0.9993745 0.0237084 0.9993745 0.0237084 0.0006255 -0.0237084
2049734 0.0006015 -0.0231960 0.9993985 0.0231960 0.9993985 0.0231960 0.0006015 -0.0231960
2094801 0.0005785 -0.0226946 0.9994215 0.0226946 0.9994215 0.0226946 0.0005785 -0.0226946
2140860 0.0005565 -0.0222038 0.9994435 0.0222038 0.9994435 0.0222038 0.0005565 -0.0222038
2187931 0.0005354 -0.0217235 0.9994646 0.0217235 0.9994646 0.0217235 0.0005354 -0.0217235
2236037 0.0005153 -0.0212534 0.9994847 0.0212534 0.9994847 0.0212534 0.0005153 -0.0212534
2285201 0.0004960 -0.0207934 0.9995040 0.0207934 0.9995040 0.0207934 0.0004960 -0.0207934
2335446 0.0004775 -0.0203431 0.9995225 0.0203431 0.9995225 0.0203431 0.0004775 -0.0203431
2386795 0.0004598 -0.0199025 0.9995402 0.0199025 0.9995402 0.0199025 0.0004598 -0.0199025
2439274 0.0004429 -0.0194712 0.9995571 0.0194712 0.9995571 0.0194712 0.0004429 -0.0194712
2492906 0.0004267 -0.0190491 0.9995733 0.0190491 0.9995733 0.0190491 0.0004267 -0.0190491
2547717 0.0004112 -0.0186360 0.9995888 0.0186360 0.9995888 0.0186360 0.0004112 -0.0186360
2603734 0.0003963 -0.0182317 0.9996037 0.0182317 0.9996037 0.0182317 0.0003963 -0.0182317
2660982 0.0003821 -0.0178360 0.9996179 0.0178360 0.9996179 0.0178360 0.0003821 -0.0178360
2719490 0.0003685 -0.0174487 0.9996315 0.0174487 0.9996315 0.0174487 0.0003685 -0.0174487
2779283 0.0003555 -0.0170697 0.9996445 0.0170697 0.9996445 0.0170697 0.0003555 -0.0170697
2840391 0.0003430 -0.0166987 0.9996570 0.0166987 0.9996570 0.0166987 0.0003430 -0.0166987
2902843 0.0003311 -0.0163356 0.9996689 0.0163356 0.9996689 0.0163356 0.0003311 -0.0163356
2966668 0.0003197 -0.0159802 0.9996803 0.0159802 0.9996803 0.0159802 0.0003197 -0.0159802
3031896 0.0003088 -0.0156323 0.9996912 0.0156323 0.9996912 0.0156323 0.0003088 -0.0156323
3098558 0.0002984 -0.0152918 0.9997016 0.0152918 0.9997016 0.0152918 0.0002984 -0.0152918
3166686 0.0002884 -0.0149586 0.9997116 0.0149586 0.9997116 0.0149586 0.0002884 -0.0149586
3236312 0.0002789 -0.0146324 0.9997211 0.0146324 0.9997211 0.0146324 0.0002789 -0.0146324
3307469 0.0002697 -0.0143131 0.9997303 0.0143131 0.9997303 0.0143131 0.0002697 -0.0143131
3380190 0.0002610 -0.0140005 0.9997390 0.0140005 0.9997390 0.0140005 0.0002610 -0.0140005
3454511 0.0002526 -0.0136946 0.9997474 0.0136946 0.9997474 0.0136946 0.0002526 -0.0136946
3530465 0.0002446 -0.0133952 0.9997554 0.0133952 0.9997554 0.0133952 0.0002446 -0.0133952
3608090 0.0002370 -0.0131021 0.9997630 0.0131021 0.9997630 0.0131021 0.0002370 -0.0131021
3687421 0.0002297 -0.0128152 0.9997703 0.0128152 0.9997703 0.0128152 0.0002297 -0.0128152
3768496 0.0002227 -0.0125343 0.9997773 0.0125343 0.9997773 0.0125343 0.0002227 -0.0125343
3851354 0.0002161 -0.0122594 0.9997839 0.0122594 0.9997839 0.0122594 0.0002161 -0.0122594
3936034 0.0002097 -0.0119902 0.9997903 0.0119902 0.9997903 0.0119902 0.0002097 -0.0119902
4022575 0.0002036 -0.0117268 0.9997964 0.0117268 0.9997964 0.0117268 0.0002036 -0.0117268
4111020 0.0001978 -0.0114688 0.9998022 0.0114688 0.9998022 0.0114688 0.0001978 -0.0114688
4201409 0.0001922 -0.0112163 0.9998078 0.0112163 0.9998078 0.0112163 0.0001922 -0.0112163
4293785 0.0001869 -0.0109691 0.9998131 0.0109691 0.9998131 0.0109691 0.0001869 -0.0109691
4388193 0.0001819 -0.0107271 0.9998181 0.0107271 0.9998181 0.0107271 0.0001819 -0.0107271
4484676 0.0001770 -0.0104901 0.9998230 0.0104901 0.9998230 0.0104901 0.0001770 -0.0104901
4583281 0.0001724 -0.0102581 0.9998276 0.0102581 0.9998276 0.0102581 0.0001724 -0.0102581
4684054 0.0001680 -0.0100310 0.9998320 0.0100310 0.9998320 0.0100310 0.0001680 -0.0100310
4787042 0.0001638 -0.0098086 0.9998362 0.0098086 0.9998362 0.0098086 0.0001638 -0.0098086
4892295 0.0001598 -0.0095909 0.9998402 0.0095909 0.9998402 0.0095909 0.0001598 -0.0095909
4999862 0.0001560 -0.0093777 0.9998440 0.0093777 0.9998440 0.0093777 0.0001560 -0.0093777
5109794 0.0001524 -0.0091689 0.9998476 0.0091689 0.9998476 0.0091689 0.0001524 -0.0091689
5222143 0.0001489 -0.0089645 0.9998511 0.0089645 0.9998511 0.0089645 0.0001489 -0.0089645
5336962 0.0001456 -0.0087643 0.9998544 0.0087643 0.9998544 0.0087643 0.0001456 -0.0087643
5454306 0.0001425 -0.0085682 0.9998575 0.0085682 0.9998575 0.0085682 0.0001425 -0.0085682
5574230 0.0001396 -0.0083763 0.9998604 0.0083763 0.9998604 0.0083763 0.0001396 -0.0083763
5696791 0.0001367 -0.0081882 0.9998633 0.0081882 0.9998633 0.0081882 0.0001367 -0.0081882
5822046 0.0001341 -0.0080041 0.9998659 0.0080041 0.9998659 0.0080041 0.0001341 -0.0080041
5950055 0.0001315 -0.0078238 0.9998685 0.0078238 0.9998685 0.0078238 0.0001315 -0.0078238
6080879 0.0001291 -0.0076471 0.9998709 0.0076471 0.9998709 0.0076471 0.0001291 -0.0076471
6214580 0.0001268 -0.0074741 0.9998732 0.0074741 0.9998732 0.0074741 0.0001268 -0.0074741
6351220 0.0001247 -0.0073046 0.9998753 0.0073046 0.9998753 0.0073046 0.0001247 -0.0073046
6490864 0.0001226 -0.0071386 0.9998774 0.0071386 0.9998774 0.0071386 0.0001226 -0.0071386
6633579 0.0001207 -0.0069760 0.9998793 0.0069760 0.9998793 0.0069760 0.0001207 -0.0069760
6779431 0.0001189 -0.0068167 0.9998811 0.0068167 0.9998811 0.0068167 0.0001189 -0.0068167
6928491 0.0001172 -0.0066606 0.9998828 0.0066606 0.9998828 0.0066606 0.0001172 -0.0066606
7080828 0.0001156 -0.0065077 0.9998844 0.0065077 0.9998844 0.0065077 0.0001156 -0.0065077
7236514 0.0001141 -0.0063578 0.9998859 0.0063578 0.9998859 0.0063578 0.0001141 -0.0063578
7395623 0.0001127 -0.0062110 0.9998873 0.0062110 0.9998873 0.0062110 0.0001127 -0.0062110
7558231 0.0001113 -0.0060671 0.9998887 0.0060671 0.9998887 0.0060671 0.0001113 -0.0060671
7724414 0.0001101 -0.0059262 0.9998899 0.0059262 0.9998899 0.0059262 0.0001101 -0.0059262
7894251 0.0001090 -0.0057880 0.9998910 0.0057880 0.9998910 0.0057880 0.0001090 -0.0057880
8067822 0.0001079 -0.0056526 0.9998921 0.0056526 0.9998921 0.0056526 0.0001079 -0.0056526
8245209 0.0001069 -0.0055198 0.9998931 0.0055198 0.9998931 0.0055198 0.0001069 -0.0055198
8426497 0.0001060 -0.0053897 0.9998940 0.0053897 0.9998940 0.0053897 0.0001060 -0.0053897
8611770 0.0001052 -0.0052622 0.9998948 0.0052622 0.9998948 0.0052622 0.0001052 -0.0052622
8801117 0.0001045 -0.0051371 0.9998955 0.0051371 0.9998955 0.0051371 0.0001045 -0.0051371
8994628 0.0001038 -0.0050146 0.9998962 0.0050146 0.9998962 0.0050146 0.0001038 -0.0050146
9192393 0.0001032 -0.0048943 0.9998968 0.0048943 0.9998968 0.0048943 0.0001032 -0.0048943
9394506 0.0001026 -0.0047765 0.9998974 0.0047765 0.9998974 0.0047765 0.0001026 -0.0047765
9601063 0.0001021 -0.0046609 0.9998979 0.0046609 0.9998979 0.0046609 0.0001021 -0.0046609
9812162 0.0001017 -0.0045475 0.9998983 0.0045475 0.9998983 0.0045475 0.0001017 -0.0045475
10027902 0.0001013 -0.0044363 0.9998987 0.0044363 0.9998987 0.0044363 0.0001013 -0.0044363
10248386 0.0001010 -0.0043272 0.9998990 0.0043272 0.9998990 0.0043272 0.0001010 -0.0043272
10473717 0.0001008 -0.0042202 0.9998992 0.0042202 0.9998992 0.0042202 0.0001008 -0.0042202
10704003 0.0001006 -0.0041152 0.9998994 0.0041152 0.9998994 0.0041152 0.0001006 -0.0041152
10939352 0.0001005 -0.0040122 0.9998995 0.0040122 0.9998995 0.0040122 0.0001005 -0.0040122
11179876 0.0001004 -0.0039111 0.9998996 0.0039111 0.9998996 0.0039111 0.0001004 -0.0039111
11425688 0.0001003 -0.0038118 0.9998997 0.0038118 0.9998997 0.0038118 0.0001003 -0.0038118
11676904 0.0001003 -0.0037144 0.9998997 0.0037144 0.9998997 0.0037144 0.0001003 -0.0037144
11933645 0.0001004 -0.0036188 0.9998996 0.0036188 0.9998996 0.0036188 0.0001004 -0.0036188
12196030 0.0001005 -0.0035249 0.9998995 0.0035249 0.9998995 0.0035249 0.0001005 -0.0035249
12464184 0.0001006 -0.0034326 0.9998994 0.0034326 0.9998994 0.0034326 0.0001006 -0.0034326
12738235 0.0001008 -0.0033421 0.9998992 0.0033421 0.9998992 0.0033421 0.0001008 -0.0033421
13018310 0.0001010 -0.0032531 0.9998990 0.0032531 0.9998990 0.0032531 0.0001010 -0.0032531
13304544 0.0001013 -0.0031657 0.9998987 0.0031657 0.9998987 0.0031657 0.0001013 -0.0031657
13597071 0.0001016 -0.0030798 0.9998984 0.0030798 0.9998984 0.0030798 0.0001016 -0.0030798
13896030 0.0001019 -0.0029954 0.9998981 0.0029954 0.9998981 0.0029954 0.0001019 -0.0029954
14201563 0.0001023 -0.0029125 0.9998977 0.0029125 0.9998977 0.0029125 0.0001023 -0.0029125
14513813 0.0001027 -0.0028309 0.9998973 0.0028309 0.9998973 0.0028309 0.0001027 -0.0028309
14832928 0.0001032 -0.0027508 0.9998968 0.0027508 0.9998968 0.0027508 0.0001032 -0.0027508
15159060 0.0001036 -0.0026719 0.9998964 0.0026719 0.9998964 0.0026719 0.0001036 -0.0026719
15492362 0.0001042 -0.0025943 0.9998958 0.0025943 0.9998958 0.0025943 0.0001042 -0.0025943
15832993 0.0001047 -0.0025180 0.9998953 0.0025180 0.9998953 0.0025180 0.0001047 -0.0025180
16181113 0.0001053 -0.0024429 0.9998947 0.0024429 0.9998947 0.0024429 0.0001053 -0.0024429
16536888 0.0001059 -0.0023690 0.9998941 0.0023690 0.9998941 0.0023690 0.0001059 -0.0023690
16900485 0.0001065 -0.0022962 0.9998935 0.0022962 0.9998935 0.0022962 0.0001065 -0.0022962
17272076 0.0001072 -0.0022245 0.9998928 0.0022245 0.9998928 0.0022245 0.0001072 -0.0022245
17651837 0.0001078 -0.0021539 0.9998922 0.0021539 0.9998922 0.0021539 0.0001078 -0.0021539
18039948 0.0001086 -0.0020843 0.9998914 0.0020843 0.9998914 0.0020843 0.0001086 -0.0020843
18436593 0.0001093 -0.0020158 0.9998907 0.0020158 0.9998907 0.0020158 0.0001093 -0.0020158
18841959 0.0001101 -0.0019482 0.9998899 0.0019482 0.9998899 0.0019482 0.0001101 -0.0019482
19256237 0.0001109 -0.0018815 0.9998891 0.0018815 0.9998891 0.0018815 0.0001109 -0.0018815
19679624 0.0001117 -0.0018158 0.9998883 0.0018158 0.9998883 0.0018158 0.0001117 -0.0018158
20112321 0.0001125 -0.0017509 0.9998875 0.0017509 0.9998875 0.0017509 0.0001125 -0.0017509
20554530 0.0001134 -0.0016869 0.9998866 0.0016869 0.9998866 0.0016869 0.0001134 -0.0016869
21006463 0.0001143 -0.0016237 0.9998857 0.0016237 0.9998857 0.0016237 0.0001143 -0.0016237
21468333 0.0001152 -0.0015612 0.9998848 0.0015612 0.9998848 0.0015612 0.0001152 -0.0015612
21940357 0.0001162 -0.0014996 0.9998838 0.0014996 0.9998838 0.0014996 0.0001162 -0.0014996
22422760 0.0001171 -0.0014386 0.9998829 0.0014386 0.9998829 0.0014386 0.0001171 -0.0014386
22915770 0.0001181 -0.0013783 0.9998819 0.0013783 0.9998819 0.0013783 0.0001181 -0.0013783
23419619 0.0001192 -0.0013187 0.9998808 0.0013187 0.9998808 0.0013187 0.0001192 -0.0013187
23934547 0.0001202 -0.0012597 0.9998798 0.0012597 0.9998798 0.0012597 0.0001202 -0.0012597
24460796 0.0001213 -0.0012013 0.9998787 0.0012013 0.9998787 0.0012013 0.0001213 -0.0012013
24998616 0.0001225 -0.0011435 0.9998775 0.0011435 0.9998775 0.0011435 0.0001225 -0.0011435
25548261 0.0001236 -0.0010862 0.9998764 0.0010862 0.9998764 0.0010862 0.0001236 -0.0010862
26109991 0.0001248 -0.0010294 0.9998752 0.0010294 0.9998752 0.0010294 0.0001248 -0.0010294
26684072 0.0001260 -0.0009732 0.9998740 0.0009732 0.9998740 0.0009732 0.0001260 -0.0009732
27270775 0.0001273 -0.0009173 0.9998727 0.0009173 0.9998727 0.0009173 0.0001273 -0.0009173
27870378 0.0001286 -0.0008619 0.9998714 0.0008619 0.9998714 0.0008619 0.0001286 -0.0008619
28483164 0.0001299 -0.0008068 0.9998701 0.0008068 0.9998701 0.0008068 0.0001299 -0.0008068
29109424 0.0001313 -0.0007522 0.9998687 0.0007522 0.9998687 0.0007522 0.0001313 -0.0007522
29749453 0.0001328 -0.0006978 0.9998672 0.0006978 0.9998672 0.0006978 0.0001328 -0.0006978
30403555 0.0001342 -0.0006438 0.9998658 0.0006438 0.9998658 0.0006438 0.0001342 -0.0006438
31072038 0.0001358 -0.0005900 0.9998642 0.0005900 0.9998642 0.0005900 0.0001358 -0.0005900
31755220 0.0001374 -0.0005365 0.9998626 0.0005365 0.9998626 0.0005365 0.0001374 -0.0005365
32453422 0.0001390 -0.0004832 0.9998610 0.0004832 0.9998610 0.0004832 0.0001390 -0.0004832
33166976 0.0001407 -0.0004301 0.9998593 0.0004301 0.9998593 0.0004301 0.0001407 -0.0004301
33896219 0.0001425 -0.0003771 0.9998575 0.0003771 0.9998575 0.0003771 0.0001425 -0.0003771
34641496 0.0001443 -0.0003243 0.9998557 0.0003243 0.9998557 0.0003243 0.0001443 -0.0003243
35403159 0.0001463 -0.0002715 0.9998537 0.0002715 0.9998537 0.0002715 0.0001463 -0.0002715
36181569 0.0001483 -0.0002188 0.9998517 0.0002188 0.9998517 0.0002188 0.0001483 -0.0002188
36977093 0.0001503 -0.0001661 0.9998497 0.0001661 0.9998497 0.0001661 0.0001503 -0.0001661
37790109 0.0001525 -0.0001134 0.9998475 0.0001134 0.9998475 0.0001134 0.0001525 -0.0001134
38621001 0.0001548 -0.0000607 0.9998452 0.0000607 0.9998452 0.0000607 0.0001548 -0.0000607
39470161 0.0001572 -0.0000079 0.9998428 0.0000079 0.9998428 0.0000079 0.0001572 -0.0000079
40337993 0.0001597 0.0000450 0.9998403 -0.0000450 0.9998403 -0.0000450 0.0001597 0.0000450
41224905 0.0001624 0.0000981 0.9998376 -0.0000981 0.9998376 -0.0000981 0.0001624 0.0000981
42131317 0.0001652 0.0001514 0.9998348 -0.0001514 0.9998348 -0.0001514 0.0001652 0.0001514
43057659 0.0001681 0.0002048 0.9998319 -0.0002048 0.9998319 -0.0002048 0.0001681 0.0002048
44004369 0.0001712 0.0002586 0.9998288 -0.0002586 0.9998288 -0.0002586 0.0001712 0.0002586
44971893 0.0001744 0.0003127 0.9998256 -0.0003127 0.9998256 -0.0003127 0.0001744 0.0003127
45960691 0.0001779 0.0003671 0.9998221 -0.0003671 0.9998221 -0.0003671 0.0001779 0.0003671
46971230 0.0001816 0.0004220 0.9998184 -0.0004220 0.9998184 -0.0004220 0.0001816 0.0004220
48003987 0.0001855 0.0004773 0.9998145 -0.0004773 0.9998145 -0.0004773 0.0001855 0.0004773
49059451 0.0001897 0.0005331 0.9998103 -0.0005331 0.9998103 -0.0005331 0.0001897 0.0005331
50138122 0.0001941 0.0005895 0.9998059 -0.0005895 0.9998059 -0.0005895 0.0001941 0.0005895
51240510 0.0001989 0.0006465 0.9998011 -0.0006465 0.9998011 -0.0006465 0.0001989 0.0006465
52367136 0.0002040 0.0007043 0.9997960 -0.0007043 0.9997960 -0.0007043 0.0002040 0.0007043
53518533 0.0002095 0.0007628 0.9997905 -0.0007628 0.9997905 -0.0007628 0.0002095 0.0007628
54695245 0.0002155 0.0008222 0.9997845 -0.0008222 0.9997845 -0.0008222 0.0002155 0.0008222
55897831 0.0002220 0.0008825 0.9997780 -0.0008825 0.9997780 -0.0008825 0.0002220 0.0008825
57126857 0.0002291 0.0009439 0.9997709 -0.0009439 0.9997709 -0.0009439 0.0002291 0.0009439
58382906 0.0002369 0.0010065 0.9997631 -0.0010065 0.9997631 -0.0010065 0.0002369 0.0010065
59666572 0.0002454 0.0010704 0.9997546 -0.0010704 0.9997546 -0.0010704 0.0002454 0.0010704
60978462 0.0002550 0.0011357 0.9997450 -0.0011357 0.9997450 -0.0011357 0.0002550 0.0011357
62319196 0.0002656 0.0012026 0.9997344 -0.0012026 0.9997344 -0.0012026 0.0002656 0.0012026
63689409 0.0002776 0.0012713 0.9997224 -0.0012713 0.9997224 -0.0012713 0.0002776 0.0012713
65089750 0.0002912 0.0013421 0.9997088 -0.0013421 0.9997088 -0.0013421 0.0002912 0.0013421
66520879 0.0003069 0.0014151 0.9996931 -0.0014151 0.9996931 -0.0014151 0.0003069 0.0014151
67983474 0.0003251 0.0014905 0.9996749 -0.0014905 0.9996749 -0.0014905 0.0003251 0.0014905
69478228 0.0003467 0.0015688 0.9996533 -0.0015688 0.9996533 -0.0015688 0.0003467 0.0015688
71005847 0.0003726 0.0016501 0.9996274 -0.0016501 0.9996274 -0.0016501 0.0003726 0.0016501
72567054 0.0004043 0.0017346 0.9995957 -0.0017346 0.9995957 -0.0017346 0.0004043 0.0017346
74162587 0.0004439 0.0018221 0.9995561 -0.0018221 0.9995561 -0.0018221 0.0004439 0.0018221
75793201 0.0004943 0.0019120 0.9995057 -0.0019120 0.9995057 -0.0019120 0.0004943 0.0019120
77459667 0.0005595 0.0020021 0.9994405 -0.0020021 0.9994405 -0.0020021 0.0005595 0.0020021
79162774 0.0006448 0.0020875 0.9993552 -0.0020875 0.9993552 -0.0020875 0.0006448 0.0020875
80903327 0.0007549 0.0021574 0.9992451 -0.0021574 0.9992451 -0.0021574 0.0007549 0.0021574
82682150 0.0008889 0.0021928 0.9991111 -0.0021928 0.9991111 -0.0021928 0.0008889 0.0021928
84500083 0.0010279 0.0021693 0.9989721 -0.0021693 0.9989721 -0.0021693 0.0010279 0.0021693
86357988 0.0011258 0.0020793 0.9988742 -0.0020793 0.9988742 -0.0020793 0.0011258 0.0020793
88256743 0.0011361 0.0019633 0.9988639 -0.0019633 0.9988639 -0.0019633 0.0011361 0.0019633
90197245 0.0010651 0.0018887 0.9989349 -0.0018887 0.9989349 -0.0018887 0.0010651 0.0018887
92180413 0.0009647 0.0018859 0.9990353 -0.0018859 0.9990353 -0.0018859 0.0009647 0.0018859
94207185 0.0008769 0.0019411 0.9991231 -0.0019411 0.9991231 -0.0019411 0.0008769 0.0019411
96278520 0.0008165 0.0020297 0.9991835 -0.0020297 0.9991835 -0.0020297 0.0008165 0.0020297
98395398 0.0007833 0.0021341 0.9992167 -0.0021341 0.9992167 -0.0021341 0.0007833 0.0021341
100558819 0.0007729 0.0022448 0.9992271 -0.0022448 0.9992271 -0.0022448 0.0007729 0.0022448
102769807 0.0007814 0.0023571 0.9992186 -0.0023571 0.9992186 -0.0023571 0.0007814 0.0023571
105029408 0.0008058 0.0024689 0.9991942 -0.0024689 0.9991942 -0.0024689 0.0008058 0.0024689
107338692 0.0008446 0.0025786 0.9991554 -0.0025786 0.9991554 -0.0025786 0.0008446 0.0025786
