!Murata Part Number: GRM21A5C2E561JWA1
!These Parameters are Measured in Series Mode Connection
!Data Generated on Mar 30, 2021
!       o--ll--o
!Port1            Port2
!       o------o
!Operation Temp=25[degC], DC Bias Voltage=0[V]
!Freq. Start=100[MHz] Stop=3[GHz] 401[Steps]
# Hz S RI R 50
!Freq.(Hz) S11(Real) S11(Imag) S21(Real) S21(Imag) S12(Real) S12(Imag) S22(Real) S22(Imag)
100000000 0.0009655 -0.0247591 0.9990345 0.0247591 0.9990345 0.0247591 0.0009655 -0.0247591
107250000 0.0008806 -0.0225970 0.9991194 0.0225970 0.9991194 0.0225970 0.0008806 -0.0225970
114500000 0.0008136 -0.0206779 0.9991864 0.0206779 0.9991864 0.0206779 0.0008136 -0.0206779
121750000 0.0007602 -0.0189584 0.9992398 0.0189584 0.9992398 0.0189584 0.0007602 -0.0189584
129000000 0.0007173 -0.0174047 0.9992827 0.0174047 0.9992827 0.0174047 0.0007173 -0.0174047
136250000 0.0006825 -0.0159903 0.9993175 0.0159903 0.9993175 0.0159903 0.0006825 -0.0159903
143500000 0.0006542 -0.0146939 0.9993458 0.0146939 0.9993458 0.0146939 0.0006542 -0.0146939
150750000 0.0006312 -0.0134984 0.9993688 0.0134984 0.9993688 0.0134984 0.0006312 -0.0134984
158000000 0.0006124 -0.0123897 0.9993876 0.0123897 0.9993876 0.0123897 0.0006124 -0.0123897
165250000 0.0005971 -0.0113564 0.9994029 0.0113564 0.9994029 0.0113564 0.0005971 -0.0113564
172500000 0.0005847 -0.0103888 0.9994153 0.0103888 0.9994153 0.0103888 0.0005847 -0.0103888
179750000 0.0005748 -0.0094789 0.9994252 0.0094789 0.9994252 0.0094789 0.0005748 -0.0094789
187000000 0.0005671 -0.0086197 0.9994329 0.0086197 0.9994329 0.0086197 0.0005671 -0.0086197
194250000 0.0005612 -0.0078056 0.9994388 0.0078056 0.9994388 0.0078056 0.0005612 -0.0078056
201500000 0.0005569 -0.0070316 0.9994431 0.0070316 0.9994431 0.0070316 0.0005569 -0.0070316
208750000 0.0005541 -0.0062934 0.9994459 0.0062934 0.9994459 0.0062934 0.0005541 -0.0062934
216000000 0.0005526 -0.0055873 0.9994474 0.0055873 0.9994474 0.0055873 0.0005526 -0.0055873
223250000 0.0005523 -0.0049101 0.9994477 0.0049101 0.9994477 0.0049101 0.0005523 -0.0049101
230500000 0.0005531 -0.0042589 0.9994469 0.0042589 0.9994469 0.0042589 0.0005531 -0.0042589
237750000 0.0005549 -0.0036313 0.9994451 0.0036313 0.9994451 0.0036313 0.0005549 -0.0036313
245000000 0.0005578 -0.0030251 0.9994422 0.0030251 0.9994422 0.0030251 0.0005578 -0.0030251
252250000 0.0005615 -0.0024384 0.9994385 0.0024384 0.9994385 0.0024384 0.0005615 -0.0024384
259500000 0.0005662 -0.0018693 0.9994338 0.0018693 0.9994338 0.0018693 0.0005662 -0.0018693
266750000 0.0005717 -0.0013165 0.9994283 0.0013165 0.9994283 0.0013165 0.0005717 -0.0013165
274000000 0.0005781 -0.0007785 0.9994219 0.0007785 0.9994219 0.0007785 0.0005781 -0.0007785
281250000 0.0005853 -0.0002540 0.9994147 0.0002540 0.9994147 0.0002540 0.0005853 -0.0002540
288500000 0.0005934 0.0002580 0.9994066 -0.0002580 0.9994066 -0.0002580 0.0005934 0.0002580
295750000 0.0006023 0.0007586 0.9993977 -0.0007586 0.9993977 -0.0007586 0.0006023 0.0007586
303000000 0.0006121 0.0012487 0.9993879 -0.0012487 0.9993879 -0.0012487 0.0006121 0.0012487
310250000 0.0006227 0.0017292 0.9993773 -0.0017292 0.9993773 -0.0017292 0.0006227 0.0017292
317500000 0.0006342 0.0022007 0.9993658 -0.0022007 0.9993658 -0.0022007 0.0006342 0.0022007
324750000 0.0006466 0.0026641 0.9993534 -0.0026641 0.9993534 -0.0026641 0.0006466 0.0026641
332000000 0.0006599 0.0031200 0.9993401 -0.0031200 0.9993401 -0.0031200 0.0006599 0.0031200
339250000 0.0006742 0.0035689 0.9993258 -0.0035689 0.9993258 -0.0035689 0.0006742 0.0035689
346500000 0.0006894 0.0040115 0.9993106 -0.0040115 0.9993106 -0.0040115 0.0006894 0.0040115
353750000 0.0007056 0.0044483 0.9992944 -0.0044483 0.9992944 -0.0044483 0.0007056 0.0044483
361000000 0.0007229 0.0048798 0.9992771 -0.0048798 0.9992771 -0.0048798 0.0007229 0.0048798
368250000 0.0007413 0.0053063 0.9992587 -0.0053063 0.9992587 -0.0053063 0.0007413 0.0053063
375500000 0.0007608 0.0057285 0.9992392 -0.0057285 0.9992392 -0.0057285 0.0007608 0.0057285
382750000 0.0007816 0.0061466 0.9992184 -0.0061466 0.9992184 -0.0061466 0.0007816 0.0061466
390000000 0.0008036 0.0065611 0.9991964 -0.0065611 0.9991964 -0.0065611 0.0008036 0.0065611
397250000 0.0008270 0.0069724 0.9991730 -0.0069724 0.9991730 -0.0069724 0.0008270 0.0069724
404500000 0.0008519 0.0073808 0.9991481 -0.0073808 0.9991481 -0.0073808 0.0008519 0.0073808
411750000 0.0008784 0.0077867 0.9991216 -0.0077867 0.9991216 -0.0077867 0.0008784 0.0077867
419000000 0.0009065 0.0081904 0.9990935 -0.0081904 0.9990935 -0.0081904 0.0009065 0.0081904
426250000 0.0009365 0.0085923 0.9990635 -0.0085923 0.9990635 -0.0085923 0.0009365 0.0085923
433500000 0.0009685 0.0089928 0.9990315 -0.0089928 0.9990315 -0.0089928 0.0009685 0.0089928
440750000 0.0010026 0.0093921 0.9989974 -0.0093921 0.9989974 -0.0093921 0.0010026 0.0093921
448000000 0.0010390 0.0097906 0.9989610 -0.0097906 0.9989610 -0.0097906 0.0010390 0.0097906
455250000 0.0010781 0.0101887 0.9989219 -0.0101887 0.9989219 -0.0101887 0.0010781 0.0101887
462500000 0.0011200 0.0105868 0.9988800 -0.0105868 0.9988800 -0.0105868 0.0011200 0.0105868
469750000 0.0011652 0.0109851 0.9988348 -0.0109851 0.9988348 -0.0109851 0.0011652 0.0109851
477000000 0.0012139 0.0113840 0.9987861 -0.0113840 0.9987861 -0.0113840 0.0012139 0.0113840
484250000 0.0012666 0.0117840 0.9987334 -0.0117840 0.9987334 -0.0117840 0.0012666 0.0117840
491500000 0.0013239 0.0121853 0.9986761 -0.0121853 0.9986761 -0.0121853 0.0013239 0.0121853
498750000 0.0013863 0.0125885 0.9986137 -0.0125885 0.9986137 -0.0125885 0.0013863 0.0125885
506000000 0.0014547 0.0129939 0.9985453 -0.0129939 0.9985453 -0.0129939 0.0014547 0.0129939
513250000 0.0015298 0.0134018 0.9984702 -0.0134018 0.9984702 -0.0134018 0.0015298 0.0134018
520500000 0.0016128 0.0138127 0.9983872 -0.0138127 0.9983872 -0.0138127 0.0016128 0.0138127
527750000 0.0017050 0.0142269 0.9982950 -0.0142269 0.9982950 -0.0142269 0.0017050 0.0142269
535000000 0.0018079 0.0146447 0.9981921 -0.0146447 0.9981921 -0.0146447 0.0018079 0.0146447
542250000 0.0019235 0.0150662 0.9980765 -0.0150662 0.9980765 -0.0150662 0.0019235 0.0150662
549500000 0.0020540 0.0154913 0.9979460 -0.0154913 0.9979460 -0.0154913 0.0020540 0.0154913
556750000 0.0022024 0.0159198 0.9977976 -0.0159198 0.9977976 -0.0159198 0.0022024 0.0159198
564000000 0.0023720 0.0163508 0.9976280 -0.0163508 0.9976280 -0.0163508 0.0023720 0.0163508
571250000 0.0025671 0.0167827 0.9974329 -0.0167827 0.9974329 -0.0167827 0.0025671 0.0167827
578500000 0.0027924 0.0172128 0.9972076 -0.0172128 0.9972076 -0.0172128 0.0027924 0.0172128
585750000 0.0030537 0.0176367 0.9969463 -0.0176367 0.9969463 -0.0176367 0.0030537 0.0176367
593000000 0.0033572 0.0180476 0.9966428 -0.0180476 0.9966428 -0.0180476 0.0033572 0.0180476
600250000 0.0037090 0.0184350 0.9962910 -0.0184350 0.9962910 -0.0184350 0.0037090 0.0184350
607500000 0.0041137 0.0187839 0.9958863 -0.0187839 0.9958863 -0.0187839 0.0041137 0.0187839
614750000 0.0045722 0.0190737 0.9954278 -0.0190737 0.9954278 -0.0190737 0.0045722 0.0190737
622000000 0.0050776 0.0192780 0.9949224 -0.0192780 0.9949224 -0.0192780 0.0050776 0.0192780
629250000 0.0056100 0.0193676 0.9943900 -0.0193676 0.9943900 -0.0193676 0.0056100 0.0193676
636500000 0.0061316 0.0193173 0.9938684 -0.0193173 0.9938684 -0.0193173 0.0061316 0.0193173
643750000 0.0065864 0.0191185 0.9934136 -0.0191185 0.9934136 -0.0191185 0.0065864 0.0191185
651000000 0.0069105 0.0187927 0.9930895 -0.0187927 0.9930895 -0.0187927 0.0069105 0.0187927
658250000 0.0070527 0.0183966 0.9929473 -0.0183966 0.9929473 -0.0183966 0.0070527 0.0183966
665500000 0.0069970 0.0180093 0.9930030 -0.0180093 0.9930030 -0.0180093 0.0069970 0.0180093
672750000 0.0067700 0.0177059 0.9932300 -0.0177059 0.9932300 -0.0177059 0.0067700 0.0177059
680000000 0.0064274 0.0175338 0.9935726 -0.0175338 0.9935726 -0.0175338 0.0064274 0.0175338
687250000 0.0060313 0.0175061 0.9939687 -0.0175061 0.9939687 -0.0175061 0.0060313 0.0175061
694500000 0.0056322 0.0176098 0.9943678 -0.0176098 0.9943678 -0.0176098 0.0056322 0.0176098
701750000 0.0052627 0.0178194 0.9947373 -0.0178194 0.9947373 -0.0178194 0.0052627 0.0178194
709000000 0.0049393 0.0181077 0.9950607 -0.0181077 0.9950607 -0.0181077 0.0049393 0.0181077
716250000 0.0046675 0.0184508 0.9953325 -0.0184508 0.9953325 -0.0184508 0.0046675 0.0184508
723500000 0.0044462 0.0188302 0.9955538 -0.0188302 0.9955538 -0.0188302 0.0044462 0.0188302
730750000 0.0042714 0.0192325 0.9957286 -0.0192325 0.9957286 -0.0192325 0.0042714 0.0192325
738000000 0.0041378 0.0196483 0.9958622 -0.0196483 0.9958622 -0.0196483 0.0041378 0.0196483
745250000 0.0040404 0.0200714 0.9959596 -0.0200714 0.9959596 -0.0200714 0.0040404 0.0200714
752500000 0.0039743 0.0204977 0.9960257 -0.0204977 0.9960257 -0.0204977 0.0039743 0.0204977
759750000 0.0039357 0.0209245 0.9960643 -0.0209245 0.9960643 -0.0209245 0.0039357 0.0209245
767000000 0.0039211 0.0213501 0.9960789 -0.0213501 0.9960789 -0.0213501 0.0039211 0.0213501
774250000 0.0039279 0.0217736 0.9960721 -0.0217736 0.9960721 -0.0217736 0.0039279 0.0217736
781500000 0.0039539 0.0221943 0.9960461 -0.0221943 0.9960461 -0.0221943 0.0039539 0.0221943
788750000 0.0039975 0.0226121 0.9960025 -0.0226121 0.9960025 -0.0226121 0.0039975 0.0226121
796000000 0.0040574 0.0230267 0.9959426 -0.0230267 0.9959426 -0.0230267 0.0040574 0.0230267
803250000 0.0041328 0.0234380 0.9958672 -0.0234380 0.9958672 -0.0234380 0.0041328 0.0234380
810500000 0.0042230 0.0238461 0.9957770 -0.0238461 0.9957770 -0.0238461 0.0042230 0.0238461
817750000 0.0043276 0.0242508 0.9956724 -0.0242508 0.9956724 -0.0242508 0.0043276 0.0242508
825000000 0.0044465 0.0246522 0.9955535 -0.0246522 0.9955535 -0.0246522 0.0044465 0.0246522
832250000 0.0045798 0.0250498 0.9954202 -0.0250498 0.9954202 -0.0250498 0.0045798 0.0250498
839500000 0.0047275 0.0254436 0.9952725 -0.0254436 0.9952725 -0.0254436 0.0047275 0.0254436
846750000 0.0048900 0.0258332 0.9951100 -0.0258332 0.9951100 -0.0258332 0.0048900 0.0258332
854000000 0.0050678 0.0262179 0.9949322 -0.0262179 0.9949322 -0.0262179 0.0050678 0.0262179
861250000 0.0052613 0.0265972 0.9947387 -0.0265972 0.9947387 -0.0265972 0.0052613 0.0265972
868500000 0.0054712 0.0269702 0.9945288 -0.0269702 0.9945288 -0.0269702 0.0054712 0.0269702
875750000 0.0056981 0.0273358 0.9943019 -0.0273358 0.9943019 -0.0273358 0.0056981 0.0273358
883000000 0.0059427 0.0276926 0.9940573 -0.0276926 0.9940573 -0.0276926 0.0059427 0.0276926
890250000 0.0062057 0.0280393 0.9937943 -0.0280393 0.9937943 -0.0280393 0.0062057 0.0280393
897500000 0.0064876 0.0283737 0.9935124 -0.0283737 0.9935124 -0.0283737 0.0064876 0.0283737
904750000 0.0067890 0.0286939 0.9932110 -0.0286939 0.9932110 -0.0286939 0.0067890 0.0286939
912000000 0.0071102 0.0289971 0.9928898 -0.0289971 0.9928898 -0.0289971 0.0071102 0.0289971
919250000 0.0074512 0.0292806 0.9925488 -0.0292806 0.9925488 -0.0292806 0.0074512 0.0292806
926500000 0.0078116 0.0295409 0.9921884 -0.0295409 0.9921884 -0.0295409 0.0078116 0.0295409
933750000 0.0081906 0.0297745 0.9918094 -0.0297745 0.9918094 -0.0297745 0.0081906 0.0297745
941000000 0.0085868 0.0299774 0.9914132 -0.0299774 0.9914132 -0.0299774 0.0085868 0.0299774
948250000 0.0089978 0.0301455 0.9910022 -0.0301455 0.9910022 -0.0301455 0.0089978 0.0301455
955500000 0.0094207 0.0302745 0.9905793 -0.0302745 0.9905793 -0.0302745 0.0094207 0.0302745
962750000 0.0098511 0.0303603 0.9901489 -0.0303603 0.9901489 -0.0303603 0.0098511 0.0303603
970000000 0.0102836 0.0303991 0.9897164 -0.0303991 0.9897164 -0.0303991 0.0102836 0.0303991
977250000 0.0107119 0.0303879 0.9892881 -0.0303879 0.9892881 -0.0303879 0.0107119 0.0303879
984500000 0.0111281 0.0303246 0.9888719 -0.0303246 0.9888719 -0.0303246 0.0111281 0.0303246
991750000 0.0115236 0.0302086 0.9884764 -0.0302086 0.9884764 -0.0302086 0.0115236 0.0302086
999000000 0.0118893 0.0300412 0.9881107 -0.0300412 0.9881107 -0.0300412 0.0118893 0.0300412
1006250000 0.0122156 0.0298256 0.9877844 -0.0298256 0.9877844 -0.0298256 0.0122156 0.0298256
1013500000 0.0124935 0.0295673 0.9875065 -0.0295673 0.9875065 -0.0295673 0.0124935 0.0295673
1020750000 0.0127151 0.0292740 0.9872849 -0.0292740 0.9872849 -0.0292740 0.0127151 0.0292740
1028000000 0.0128738 0.0289554 0.9871262 -0.0289554 0.9871262 -0.0289554 0.0128738 0.0289554
1035250000 0.0129658 0.0286224 0.9870342 -0.0286224 0.9870342 -0.0286224 0.0129658 0.0286224
1042500000 0.0129893 0.0282868 0.9870107 -0.0282868 0.9870107 -0.0282868 0.0129893 0.0282868
1049750000 0.0129455 0.0279604 0.9870545 -0.0279604 0.9870545 -0.0279604 0.0129455 0.0279604
1057000000 0.0128383 0.0276543 0.9871617 -0.0276543 0.9871617 -0.0276543 0.0128383 0.0276543
1064250000 0.0126735 0.0273781 0.9873265 -0.0273781 0.9873265 -0.0273781 0.0126735 0.0273781
1071500000 0.0124588 0.0271395 0.9875412 -0.0271395 0.9875412 -0.0271395 0.0124588 0.0271395
1078750000 0.0122027 0.0269443 0.9877973 -0.0269443 0.9877973 -0.0269443 0.0122027 0.0269443
1086000000 0.0119143 0.0267960 0.9880857 -0.0267960 0.9880857 -0.0267960 0.0119143 0.0267960
1093250000 0.0116025 0.0266960 0.9883975 -0.0266960 0.9883975 -0.0266960 0.0116025 0.0266960
1100500000 0.0112755 0.0266442 0.9887245 -0.0266442 0.9887245 -0.0266442 0.0112755 0.0266442
1107750000 0.0109408 0.0266388 0.9890592 -0.0266388 0.9890592 -0.0266388 0.0109408 0.0266388
1115000000 0.0106048 0.0266772 0.9893952 -0.0266772 0.9893952 -0.0266772 0.0106048 0.0266772
1122250000 0.0102728 0.0267561 0.9897272 -0.0267561 0.9897272 -0.0267561 0.0102728 0.0267561
1129500000 0.0099489 0.0268716 0.9900511 -0.0268716 0.9900511 -0.0268716 0.0099489 0.0268716
1136750000 0.0096364 0.0270200 0.9903636 -0.0270200 0.9903636 -0.0270200 0.0096364 0.0270200
1144000000 0.0093376 0.0271971 0.9906624 -0.0271971 0.9906624 -0.0271971 0.0093376 0.0271971
1151250000 0.0090540 0.0273994 0.9909460 -0.0273994 0.9909460 -0.0273994 0.0090540 0.0273994
1158500000 0.0087867 0.0276234 0.9912133 -0.0276234 0.9912133 -0.0276234 0.0087867 0.0276234
1165750000 0.0085360 0.0278659 0.9914640 -0.0278659 0.9914640 -0.0278659 0.0085360 0.0278659
1173000000 0.0083022 0.0281239 0.9916978 -0.0281239 0.9916978 -0.0281239 0.0083022 0.0281239
1180250000 0.0080849 0.0283950 0.9919151 -0.0283950 0.9919151 -0.0283950 0.0080849 0.0283950
1187500000 0.0078838 0.0286768 0.9921162 -0.0286768 0.9921162 -0.0286768 0.0078838 0.0286768
1194750000 0.0076984 0.0289675 0.9923016 -0.0289675 0.9923016 -0.0289675 0.0076984 0.0289675
1202000000 0.0075278 0.0292653 0.9924722 -0.0292653 0.9924722 -0.0292653 0.0075278 0.0292653
1209250000 0.0073714 0.0295688 0.9926286 -0.0295688 0.9926286 -0.0295688 0.0073714 0.0295688
1216500000 0.0072285 0.0298767 0.9927715 -0.0298767 0.9927715 -0.0298767 0.0072285 0.0298767
1223750000 0.0070983 0.0301880 0.9929017 -0.0301880 0.9929017 -0.0301880 0.0070983 0.0301880
1231000000 0.0069800 0.0305017 0.9930200 -0.0305017 0.9930200 -0.0305017 0.0069800 0.0305017
1238250000 0.0068728 0.0308171 0.9931272 -0.0308171 0.9931272 -0.0308171 0.0068728 0.0308171
1245500000 0.0067761 0.0311336 0.9932239 -0.0311336 0.9932239 -0.0311336 0.0067761 0.0311336
1252750000 0.0066893 0.0314505 0.9933107 -0.0314505 0.9933107 -0.0314505 0.0066893 0.0314505
1260000000 0.0066116 0.0317676 0.9933884 -0.0317676 0.9933884 -0.0317676 0.0066116 0.0317676
1267250000 0.0065424 0.0320843 0.9934576 -0.0320843 0.9934576 -0.0320843 0.0065424 0.0320843
1274500000 0.0064813 0.0324004 0.9935187 -0.0324004 0.9935187 -0.0324004 0.0064813 0.0324004
1281750000 0.0064276 0.0327157 0.9935724 -0.0327157 0.9935724 -0.0327157 0.0064276 0.0327157
1289000000 0.0063810 0.0330299 0.9936190 -0.0330299 0.9936190 -0.0330299 0.0063810 0.0330299
1296250000 0.0063408 0.0333428 0.9936592 -0.0333428 0.9936592 -0.0333428 0.0063408 0.0333428
1303500000 0.0063068 0.0336543 0.9936932 -0.0336543 0.9936932 -0.0336543 0.0063068 0.0336543
1310750000 0.0062785 0.0339644 0.9937215 -0.0339644 0.9937215 -0.0339644 0.0062785 0.0339644
1318000000 0.0062556 0.0342728 0.9937444 -0.0342728 0.9937444 -0.0342728 0.0062556 0.0342728
1325250000 0.0062378 0.0345797 0.9937622 -0.0345797 0.9937622 -0.0345797 0.0062378 0.0345797
1332500000 0.0062246 0.0348848 0.9937754 -0.0348848 0.9937754 -0.0348848 0.0062246 0.0348848
1339750000 0.0062159 0.0351882 0.9937841 -0.0351882 0.9937841 -0.0351882 0.0062159 0.0351882
1347000000 0.0062115 0.0354898 0.9937885 -0.0354898 0.9937885 -0.0354898 0.0062115 0.0354898
1354250000 0.0062109 0.0357897 0.9937891 -0.0357897 0.9937891 -0.0357897 0.0062109 0.0357897
1361500000 0.0062141 0.0360878 0.9937859 -0.0360878 0.9937859 -0.0360878 0.0062141 0.0360878
1368750000 0.0062207 0.0363841 0.9937793 -0.0363841 0.9937793 -0.0363841 0.0062207 0.0363841
1376000000 0.0062307 0.0366786 0.9937693 -0.0366786 0.9937693 -0.0366786 0.0062307 0.0366786
1383250000 0.0062439 0.0369713 0.9937561 -0.0369713 0.9937561 -0.0369713 0.0062439 0.0369713
1390500000 0.0062600 0.0372623 0.9937400 -0.0372623 0.9937400 -0.0372623 0.0062600 0.0372623
1397750000 0.0062789 0.0375515 0.9937211 -0.0375515 0.9937211 -0.0375515 0.0062789 0.0375515
1405000000 0.0063005 0.0378390 0.9936995 -0.0378390 0.9936995 -0.0378390 0.0063005 0.0378390
1412250000 0.0063247 0.0381247 0.9936753 -0.0381247 0.9936753 -0.0381247 0.0063247 0.0381247
1419500000 0.0063512 0.0384087 0.9936488 -0.0384087 0.9936488 -0.0384087 0.0063512 0.0384087
1426750000 0.0063801 0.0386910 0.9936199 -0.0386910 0.9936199 -0.0386910 0.0063801 0.0386910
1434000000 0.0064111 0.0389716 0.9935889 -0.0389716 0.9935889 -0.0389716 0.0064111 0.0389716
1441250000 0.0064443 0.0392506 0.9935557 -0.0392506 0.9935557 -0.0392506 0.0064443 0.0392506
1448500000 0.0064794 0.0395279 0.9935206 -0.0395279 0.9935206 -0.0395279 0.0064794 0.0395279
1455750000 0.0065164 0.0398036 0.9934836 -0.0398036 0.9934836 -0.0398036 0.0065164 0.0398036
1463000000 0.0065553 0.0400776 0.9934447 -0.0400776 0.9934447 -0.0400776 0.0065553 0.0400776
1470250000 0.0065958 0.0403500 0.9934042 -0.0403500 0.9934042 -0.0403500 0.0065958 0.0403500
1477500000 0.0066380 0.0406209 0.9933620 -0.0406209 0.9933620 -0.0406209 0.0066380 0.0406209
1484750000 0.0066819 0.0408901 0.9933181 -0.0408901 0.9933181 -0.0408901 0.0066819 0.0408901
1492000000 0.0067272 0.0411578 0.9932728 -0.0411578 0.9932728 -0.0411578 0.0067272 0.0411578
1499250000 0.0067740 0.0414239 0.9932260 -0.0414239 0.9932260 -0.0414239 0.0067740 0.0414239
1506500000 0.0068221 0.0416885 0.9931779 -0.0416885 0.9931779 -0.0416885 0.0068221 0.0416885
1513750000 0.0068716 0.0419515 0.9931284 -0.0419515 0.9931284 -0.0419515 0.0068716 0.0419515
1521000000 0.0069223 0.0422130 0.9930777 -0.0422130 0.9930777 -0.0422130 0.0069223 0.0422130
1528250000 0.0069743 0.0424730 0.9930257 -0.0424730 0.9930257 -0.0424730 0.0069743 0.0424730
1535500000 0.0070274 0.0427315 0.9929726 -0.0427315 0.9929726 -0.0427315 0.0070274 0.0427315
1542750000 0.0070816 0.0429885 0.9929184 -0.0429885 0.9929184 -0.0429885 0.0070816 0.0429885
1550000000 0.0071368 0.0432440 0.9928632 -0.0432440 0.9928632 -0.0432440 0.0071368 0.0432440
1557250000 0.0071931 0.0434980 0.9928069 -0.0434980 0.9928069 -0.0434980 0.0071931 0.0434980
1564500000 0.0072503 0.0437505 0.9927497 -0.0437505 0.9927497 -0.0437505 0.0072503 0.0437505
1571750000 0.0073084 0.0440016 0.9926916 -0.0440016 0.9926916 -0.0440016 0.0073084 0.0440016
1579000000 0.0073673 0.0442512 0.9926327 -0.0442512 0.9926327 -0.0442512 0.0073673 0.0442512
1586250000 0.0074271 0.0444993 0.9925729 -0.0444993 0.9925729 -0.0444993 0.0074271 0.0444993
1593500000 0.0074876 0.0447460 0.9925124 -0.0447460 0.9925124 -0.0447460 0.0074876 0.0447460
1600750000 0.0075488 0.0449912 0.9924512 -0.0449912 0.9924512 -0.0449912 0.0075488 0.0449912
1608000000 0.0076107 0.0452349 0.9923893 -0.0452349 0.9923893 -0.0452349 0.0076107 0.0452349
1615250000 0.0076732 0.0454773 0.9923268 -0.0454773 0.9923268 -0.0454773 0.0076732 0.0454773
1622500000 0.0077363 0.0457182 0.9922637 -0.0457182 0.9922637 -0.0457182 0.0077363 0.0457182
1629750000 0.0077999 0.0459576 0.9922001 -0.0459576 0.9922001 -0.0459576 0.0077999 0.0459576
