!Murata Part Number: GRM2165C2A561JA01
!These Parameters are Measured in Series Mode Connection
!Data Generated on Mar 30, 2021
!       o--ll--o
!Port1            Port2
!       o------o
!Operation Temp=25[degC], DC Bias Voltage=0[V]
!Freq. Start=100[MHz] Stop=9[GHz] 401[Steps]
# Hz S RI R 50
!Freq.(Hz) S11(Real) S11(Imag) S21(Real) S21(Imag) S12(Real) S12(Imag) S22(Real) S22(Imag)
100000000 0.0010954 -0.0251614 0.9989046 0.0251614 0.9989046 0.0251614 0.0010954 -0.0251614
121000000 0.0008767 -0.0195839 0.9991233 0.0195839 0.9991233 0.0195839 0.0008767 -0.0195839
142000000 0.0007625 -0.0154640 0.9992375 0.0154640 0.9992375 0.0154640 0.0007625 -0.0154640
163000000 0.0007022 -0.0122394 0.9992978 0.0122394 0.9992978 0.0122394 0.0007022 -0.0122394
184000000 0.0006724 -0.0096034 0.9993276 0.0096034 0.9993276 0.0096034 0.0006724 -0.0096034
205000000 0.0006614 -0.0073751 0.9993386 0.0073751 0.9993386 0.0073751 0.0006614 -0.0073751
226000000 0.0006628 -0.0054402 0.9993372 0.0054402 0.9993372 0.0054402 0.0006628 -0.0054402
247000000 0.0006731 -0.0037234 0.9993269 0.0037234 0.9993269 0.0037234 0.0006731 -0.0037234
268000000 0.0006902 -0.0021731 0.9993098 0.0021731 0.9993098 0.0021731 0.0006902 -0.0021731
289000000 0.0007126 -0.0007524 0.9992874 0.0007524 0.9992874 0.0007524 0.0007126 -0.0007524
310000000 0.0007398 0.0005655 0.9992602 -0.0005655 0.9992602 -0.0005655 0.0007398 0.0005655
331000000 0.0007711 0.0018006 0.9992289 -0.0018006 0.9992289 -0.0018006 0.0007711 0.0018006
352000000 0.0008064 0.0029682 0.9991936 -0.0029682 0.9991936 -0.0029682 0.0008064 0.0029682
373000000 0.0008454 0.0040803 0.9991546 -0.0040803 0.9991546 -0.0040803 0.0008454 0.0040803
394000000 0.0008884 0.0051461 0.9991116 -0.0051461 0.9991116 -0.0051461 0.0008884 0.0051461
415000000 0.0009351 0.0061733 0.9990649 -0.0061733 0.9990649 -0.0061733 0.0009351 0.0061733
436000000 0.0009860 0.0071681 0.9990140 -0.0071681 0.9990140 -0.0071681 0.0009860 0.0071681
457000000 0.0010411 0.0081354 0.9989589 -0.0081354 0.9989589 -0.0081354 0.0010411 0.0081354
478000000 0.0011009 0.0090797 0.9988991 -0.0090797 0.9988991 -0.0090797 0.0011009 0.0090797
499000000 0.0011657 0.0100045 0.9988343 -0.0100045 0.9988343 -0.0100045 0.0011657 0.0100045
520000000 0.0012361 0.0109130 0.9987639 -0.0109130 0.9987639 -0.0109130 0.0012361 0.0109130
541000000 0.0013128 0.0118079 0.9986872 -0.0118079 0.9986872 -0.0118079 0.0013128 0.0118079
562000000 0.0013967 0.0126915 0.9986033 -0.0126915 0.9986033 -0.0126915 0.0013967 0.0126915
583000000 0.0014889 0.0135661 0.9985111 -0.0135661 0.9985111 -0.0135661 0.0014889 0.0135661
604000000 0.0015910 0.0144335 0.9984090 -0.0144335 0.9984090 -0.0144335 0.0015910 0.0144335
625000000 0.0017048 0.0152954 0.9982952 -0.0152954 0.9982952 -0.0152954 0.0017048 0.0152954
646000000 0.0018331 0.0161530 0.9981669 -0.0161530 0.9981669 -0.0161530 0.0018331 0.0161530
667000000 0.0019790 0.0170072 0.9980210 -0.0170072 0.9980210 -0.0170072 0.0019790 0.0170072
688000000 0.0021472 0.0178579 0.9978528 -0.0178579 0.9978528 -0.0178579 0.0021472 0.0178579
709000000 0.0023432 0.0187037 0.9976568 -0.0187037 0.9976568 -0.0187037 0.0023432 0.0187037
730000000 0.0025744 0.0195408 0.9974256 -0.0195408 0.9974256 -0.0195408 0.0025744 0.0195408
751000000 0.0028492 0.0203613 0.9971508 -0.0203613 0.9971508 -0.0203613 0.0028492 0.0203613
772000000 0.0031758 0.0211505 0.9968242 -0.0211505 0.9968242 -0.0211505 0.0031758 0.0211505
793000000 0.0035584 0.0218844 0.9964416 -0.0218844 0.9964416 -0.0218844 0.0035584 0.0218844
814000000 0.0039881 0.0225283 0.9960119 -0.0225283 0.9960119 -0.0225283 0.0039881 0.0225283
835000000 0.0044306 0.0230445 0.9955694 -0.0230445 0.9955694 -0.0230445 0.0044306 0.0230445
856000000 0.0048181 0.0234151 0.9951819 -0.0234151 0.9951819 -0.0234151 0.0048181 0.0234151
877000000 0.0050687 0.0236742 0.9949313 -0.0236742 0.9949313 -0.0236742 0.0050687 0.0236742
898000000 0.0051371 0.0239123 0.9948629 -0.0239123 0.9948629 -0.0239123 0.0051371 0.0239123
919000000 0.0050502 0.0242279 0.9949498 -0.0242279 0.9949498 -0.0242279 0.0050502 0.0242279
940000000 0.0048831 0.0246713 0.9951169 -0.0246713 0.9951169 -0.0246713 0.0048831 0.0246713
961000000 0.0047079 0.0252379 0.9952921 -0.0252379 0.9952921 -0.0252379 0.0047079 0.0252379
982000000 0.0045671 0.0258958 0.9954329 -0.0258958 0.9954329 -0.0258958 0.0045671 0.0258958
1003000000 0.0044771 0.0266112 0.9955229 -0.0266112 0.9955229 -0.0266112 0.0044771 0.0266112
1024000000 0.0044387 0.0273584 0.9955613 -0.0273584 0.9955613 -0.0273584 0.0044387 0.0273584
1045000000 0.0044470 0.0281203 0.9955530 -0.0281203 0.9955530 -0.0281203 0.0044470 0.0281203
1066000000 0.0044957 0.0288863 0.9955043 -0.0288863 0.9955043 -0.0288863 0.0044957 0.0288863
1087000000 0.0045789 0.0296501 0.9954211 -0.0296501 0.9954211 -0.0296501 0.0045789 0.0296501
1108000000 0.0046917 0.0304079 0.9953083 -0.0304079 0.9953083 -0.0304079 0.0046917 0.0304079
1129000000 0.0048304 0.0311572 0.9951696 -0.0311572 0.9951696 -0.0311572 0.0048304 0.0311572
1150000000 0.0049923 0.0318962 0.9950077 -0.0318962 0.9950077 -0.0318962 0.0049923 0.0318962
1171000000 0.0051750 0.0326234 0.9948250 -0.0326234 0.9948250 -0.0326234 0.0051750 0.0326234
1192000000 0.0053770 0.0333374 0.9946230 -0.0333374 0.9946230 -0.0333374 0.0053770 0.0333374
1213000000 0.0055967 0.0340367 0.9944033 -0.0340367 0.9944033 -0.0340367 0.0055967 0.0340367
1234000000 0.0058328 0.0347197 0.9941672 -0.0347197 0.9941672 -0.0347197 0.0058328 0.0347197
1255000000 0.0060837 0.0353847 0.9939163 -0.0353847 0.9939163 -0.0353847 0.0060837 0.0353847
1276000000 0.0063479 0.0360296 0.9936521 -0.0360296 0.9936521 -0.0360296 0.0063479 0.0360296
1297000000 0.0066235 0.0366525 0.9933765 -0.0366525 0.9933765 -0.0366525 0.0066235 0.0366525
1318000000 0.0069080 0.0372513 0.9930920 -0.0372513 0.9930920 -0.0372513 0.0069080 0.0372513
1339000000 0.0071987 0.0378242 0.9928013 -0.0378242 0.9928013 -0.0378242 0.0071987 0.0378242
1360000000 0.0074920 0.0383694 0.9925080 -0.0383694 0.9925080 -0.0383694 0.0074920 0.0383694
1381000000 0.0077841 0.0388857 0.9922159 -0.0388857 0.9922159 -0.0388857 0.0077841 0.0388857
1402000000 0.0080704 0.0393725 0.9919296 -0.0393725 0.9919296 -0.0393725 0.0080704 0.0393725
1423000000 0.0083460 0.0398300 0.9916540 -0.0398300 0.9916540 -0.0398300 0.0083460 0.0398300
1444000000 0.0086059 0.0402595 0.9913941 -0.0402595 0.9913941 -0.0402595 0.0086059 0.0402595
1465000000 0.0088450 0.0406632 0.9911550 -0.0406632 0.9911550 -0.0406632 0.0088450 0.0406632
1486000000 0.0090587 0.0410446 0.9909413 -0.0410446 0.9909413 -0.0410446 0.0090587 0.0410446
1507000000 0.0092430 0.0414083 0.9907570 -0.0414083 0.9907570 -0.0414083 0.0092430 0.0414083
1528000000 0.0093951 0.0417596 0.9906049 -0.0417596 0.9906049 -0.0417596 0.0093951 0.0417596
1549000000 0.0095130 0.0421045 0.9904870 -0.0421045 0.9904870 -0.0421045 0.0095130 0.0421045
1570000000 0.0095965 0.0424491 0.9904035 -0.0424491 0.9904035 -0.0424491 0.0095965 0.0424491
1591000000 0.0096466 0.0427996 0.9903534 -0.0427996 0.9903534 -0.0427996 0.0096466 0.0427996
1612000000 0.0096654 0.0431613 0.9903346 -0.0431613 0.9903346 -0.0431613 0.0096654 0.0431613
1633000000 0.0096562 0.0435390 0.9903438 -0.0435390 0.9903438 -0.0435390 0.0096562 0.0435390
1654000000 0.0096228 0.0439365 0.9903772 -0.0439365 0.9903772 -0.0439365 0.0096228 0.0439365
1675000000 0.0095696 0.0443564 0.9904304 -0.0443564 0.9904304 -0.0443564 0.0095696 0.0443564
1696000000 0.0095011 0.0448005 0.9904989 -0.0448005 0.9904989 -0.0448005 0.0095011 0.0448005
1717000000 0.0094216 0.0452693 0.9905784 -0.0452693 0.9905784 -0.0452693 0.0094216 0.0452693
1738000000 0.0093353 0.0457629 0.9906647 -0.0457629 0.9906647 -0.0457629 0.0093353 0.0457629
1759000000 0.0092455 0.0462803 0.9907545 -0.0462803 0.9907545 -0.0462803 0.0092455 0.0462803
1780000000 0.0091555 0.0468205 0.9908445 -0.0468205 0.9908445 -0.0468205 0.0091555 0.0468205
1801000000 0.0090679 0.0473817 0.9909321 -0.0473817 0.9909321 -0.0473817 0.0090679 0.0473817
1822000000 0.0089846 0.0479624 0.9910154 -0.0479624 0.9910154 -0.0479624 0.0089846 0.0479624
1843000000 0.0089073 0.0485606 0.9910927 -0.0485606 0.9910927 -0.0485606 0.0089073 0.0485606
1864000000 0.0088372 0.0491747 0.9911628 -0.0491747 0.9911628 -0.0491747 0.0088372 0.0491747
1885000000 0.0087750 0.0498027 0.9912250 -0.0498027 0.9912250 -0.0498027 0.0087750 0.0498027
1906000000 0.0087214 0.0504432 0.9912786 -0.0504432 0.9912786 -0.0504432 0.0087214 0.0504432
1927000000 0.0086766 0.0510946 0.9913234 -0.0510946 0.9913234 -0.0510946 0.0086766 0.0510946
1948000000 0.0086408 0.0517556 0.9913592 -0.0517556 0.9913592 -0.0517556 0.0086408 0.0517556
1969000000 0.0086139 0.0524250 0.9913861 -0.0524250 0.9913861 -0.0524250 0.0086139 0.0524250
1990000000 0.0085957 0.0531017 0.9914043 -0.0531017 0.9914043 -0.0531017 0.0085957 0.0531017
2011000000 0.0085861 0.0537847 0.9914139 -0.0537847 0.9914139 -0.0537847 0.0085861 0.0537847
2032000000 0.0085847 0.0544734 0.9914153 -0.0544734 0.9914153 -0.0544734 0.0085847 0.0544734
2053000000 0.0085914 0.0551669 0.9914086 -0.0551669 0.9914086 -0.0551669 0.0085914 0.0551669
2074000000 0.0086057 0.0558647 0.9913943 -0.0558647 0.9913943 -0.0558647 0.0086057 0.0558647
2095000000 0.0086273 0.0565663 0.9913727 -0.0565663 0.9913727 -0.0565663 0.0086273 0.0565663
2116000000 0.0086559 0.0572713 0.9913441 -0.0572713 0.9913441 -0.0572713 0.0086559 0.0572713
2137000000 0.0086912 0.0579792 0.9913088 -0.0579792 0.9913088 -0.0579792 0.0086912 0.0579792
2158000000 0.0087328 0.0586899 0.9912672 -0.0586899 0.9912672 -0.0586899 0.0087328 0.0586899
2179000000 0.0087804 0.0594030 0.9912196 -0.0594030 0.9912196 -0.0594030 0.0087804 0.0594030
2200000000 0.0088338 0.0601184 0.9911662 -0.0601184 0.9911662 -0.0601184 0.0088338 0.0601184
2221000000 0.0088927 0.0608359 0.9911073 -0.0608359 0.9911073 -0.0608359 0.0088927 0.0608359
2242000000 0.0089567 0.0615554 0.9910433 -0.0615554 0.9910433 -0.0615554 0.0089567 0.0615554
2263000000 0.0090257 0.0622768 0.9909743 -0.0622768 0.9909743 -0.0622768 0.0090257 0.0622768
2284000000 0.0090995 0.0629999 0.9909005 -0.0629999 0.9909005 -0.0629999 0.0090995 0.0629999
2305000000 0.0091778 0.0637248 0.9908222 -0.0637248 0.9908222 -0.0637248 0.0091778 0.0637248
2326000000 0.0092605 0.0644515 0.9907395 -0.0644515 0.9907395 -0.0644515 0.0092605 0.0644515
2347000000 0.0093474 0.0651798 0.9906526 -0.0651798 0.9906526 -0.0651798 0.0093474 0.0651798
2368000000 0.0094382 0.0659098 0.9905618 -0.0659098 0.9905618 -0.0659098 0.0094382 0.0659098
2389000000 0.0095330 0.0666415 0.9904670 -0.0666415 0.9904670 -0.0666415 0.0095330 0.0666415
2410000000 0.0096314 0.0673749 0.9903686 -0.0673749 0.9903686 -0.0673749 0.0096314 0.0673749
2431000000 0.0097335 0.0681101 0.9902665 -0.0681101 0.9902665 -0.0681101 0.0097335 0.0681101
2452000000 0.0098391 0.0688470 0.9901609 -0.0688470 0.9901609 -0.0688470 0.0098391 0.0688470
2473000000 0.0099480 0.0695857 0.9900520 -0.0695857 0.9900520 -0.0695857 0.0099480 0.0695857
2494000000 0.0100603 0.0703262 0.9899397 -0.0703262 0.9899397 -0.0703262 0.0100603 0.0703262
2515000000 0.0101758 0.0710686 0.9898242 -0.0710686 0.9898242 -0.0710686 0.0101758 0.0710686
2536000000 0.0102944 0.0718130 0.9897056 -0.0718130 0.9897056 -0.0718130 0.0102944 0.0718130
2557000000 0.0104161 0.0725593 0.9895839 -0.0725593 0.9895839 -0.0725593 0.0104161 0.0725593
2578000000 0.0105407 0.0733077 0.9894593 -0.0733077 0.9894593 -0.0733077 0.0105407 0.0733077
2599000000 0.0106684 0.0740581 0.9893316 -0.0740581 0.9893316 -0.0740581 0.0106684 0.0740581
2620000000 0.0107989 0.0748108 0.9892011 -0.0748108 0.9892011 -0.0748108 0.0107989 0.0748108
2641000000 0.0109323 0.0755656 0.9890677 -0.0755656 0.9890677 -0.0755656 0.0109323 0.0755656
2662000000 0.0110685 0.0763227 0.9889315 -0.0763227 0.9889315 -0.0763227 0.0110685 0.0763227
2683000000 0.0112076 0.0770821 0.9887924 -0.0770821 0.9887924 -0.0770821 0.0112076 0.0770821
2704000000 0.0113493 0.0778439 0.9886507 -0.0778439 0.9886507 -0.0778439 0.0113493 0.0778439
2725000000 0.0114939 0.0786082 0.9885061 -0.0786082 0.9885061 -0.0786082 0.0114939 0.0786082
2746000000 0.0116411 0.0793750 0.9883589 -0.0793750 0.9883589 -0.0793750 0.0116411 0.0793750
2767000000 0.0117911 0.0801444 0.9882089 -0.0801444 0.9882089 -0.0801444 0.0117911 0.0801444
2788000000 0.0119437 0.0809165 0.9880563 -0.0809165 0.9880563 -0.0809165 0.0119437 0.0809165
2809000000 0.0120991 0.0816913 0.9879009 -0.0816913 0.9879009 -0.0816913 0.0120991 0.0816913
2830000000 0.0122571 0.0824689 0.9877429 -0.0824689 0.9877429 -0.0824689 0.0122571 0.0824689
2851000000 0.0124179 0.0832493 0.9875821 -0.0832493 0.9875821 -0.0832493 0.0124179 0.0832493
2872000000 0.0125813 0.0840327 0.9874187 -0.0840327 0.9874187 -0.0840327 0.0125813 0.0840327
2893000000 0.0127474 0.0848191 0.9872526 -0.0848191 0.9872526 -0.0848191 0.0127474 0.0848191
2914000000 0.0129162 0.0856086 0.9870838 -0.0856086 0.9870838 -0.0856086 0.0129162 0.0856086
2935000000 0.0130877 0.0864012 0.9869123 -0.0864012 0.9869123 -0.0864012 0.0130877 0.0864012
2956000000 0.0132620 0.0871970 0.9867380 -0.0871970 0.9867380 -0.0871970 0.0132620 0.0871970
2977000000 0.0134390 0.0879961 0.9865610 -0.0879961 0.9865610 -0.0879961 0.0134390 0.0879961
2998000000 0.0136187 0.0887986 0.9863813 -0.0887986 0.9863813 -0.0887986 0.0136187 0.0887986
3019000000 0.0138013 0.0896045 0.9861987 -0.0896045 0.9861987 -0.0896045 0.0138013 0.0896045
3040000000 0.0139866 0.0904139 0.9860134 -0.0904139 0.9860134 -0.0904139 0.0139866 0.0904139
3061000000 0.0141747 0.0912269 0.9858253 -0.0912269 0.9858253 -0.0912269 0.0141747 0.0912269
3082000000 0.0143657 0.0920435 0.9856343 -0.0920435 0.9856343 -0.0920435 0.0143657 0.0920435
3103000000 0.0145596 0.0928638 0.9854404 -0.0928638 0.9854404 -0.0928638 0.0145596 0.0928638
3124000000 0.0147564 0.0936879 0.9852436 -0.0936879 0.9852436 -0.0936879 0.0147564 0.0936879
3145000000 0.0149561 0.0945160 0.9850439 -0.0945160 0.9850439 -0.0945160 0.0149561 0.0945160
3166000000 0.0151588 0.0953479 0.9848412 -0.0953479 0.9848412 -0.0953479 0.0151588 0.0953479
3187000000 0.0153645 0.0961839 0.9846355 -0.0961839 0.9846355 -0.0961839 0.0153645 0.0961839
3208000000 0.0155733 0.0970240 0.9844267 -0.0970240 0.9844267 -0.0970240 0.0155733 0.0970240
3229000000 0.0157851 0.0978682 0.9842149 -0.0978682 0.9842149 -0.0978682 0.0157851 0.0978682
3250000000 0.0160001 0.0987167 0.9839999 -0.0987167 0.9839999 -0.0987167 0.0160001 0.0987167
3271000000 0.0162182 0.0995696 0.9837818 -0.0995696 0.9837818 -0.0995696 0.0162182 0.0995696
3292000000 0.0164396 0.1004268 0.9835604 -0.1004268 0.9835604 -0.1004268 0.0164396 0.1004268
3313000000 0.0166642 0.1012886 0.9833358 -0.1012886 0.9833358 -0.1012886 0.0166642 0.1012886
3334000000 0.0168922 0.1021549 0.9831078 -0.1021549 0.9831078 -0.1021549 0.0168922 0.1021549
3355000000 0.0171235 0.1030259 0.9828765 -0.1030259 0.9828765 -0.1030259 0.0171235 0.1030259
3376000000 0.0173582 0.1039016 0.9826418 -0.1039016 0.9826418 -0.1039016 0.0173582 0.1039016
3397000000 0.0175964 0.1047822 0.9824036 -0.1047822 0.9824036 -0.1047822 0.0175964 0.1047822
3418000000 0.0178381 0.1056676 0.9821619 -0.1056676 0.9821619 -0.1056676 0.0178381 0.1056676
3439000000 0.0180834 0.1065581 0.9819166 -0.1065581 0.9819166 -0.1065581 0.0180834 0.1065581
3460000000 0.0183323 0.1074536 0.9816677 -0.1074536 0.9816677 -0.1074536 0.0183323 0.1074536
3481000000 0.0185849 0.1083543 0.9814151 -0.1083543 0.9814151 -0.1083543 0.0185849 0.1083543
3502000000 0.0188413 0.1092602 0.9811587 -0.1092602 0.9811587 -0.1092602 0.0188413 0.1092602
3523000000 0.0191016 0.1101715 0.9808984 -0.1101715 0.9808984 -0.1101715 0.0191016 0.1101715
3544000000 0.0193657 0.1110882 0.9806343 -0.1110882 0.9806343 -0.1110882 0.0193657 0.1110882
3565000000 0.0196338 0.1120105 0.9803662 -0.1120105 0.9803662 -0.1120105 0.0196338 0.1120105
3586000000 0.0199060 0.1129383 0.9800940 -0.1129383 0.9800940 -0.1129383 0.0199060 0.1129383
3607000000 0.0201822 0.1138719 0.9798178 -0.1138719 0.9798178 -0.1138719 0.0201822 0.1138719
3628000000 0.0204627 0.1148113 0.9795373 -0.1148113 0.9795373 -0.1148113 0.0204627 0.1148113
3649000000 0.0207474 0.1157566 0.9792526 -0.1157566 0.9792526 -0.1157566 0.0207474 0.1157566
3670000000 0.0210365 0.1167079 0.9789635 -0.1167079 0.9789635 -0.1167079 0.0210365 0.1167079
3691000000 0.0213300 0.1176653 0.9786700 -0.1176653 0.9786700 -0.1176653 0.0213300 0.1176653
3712000000 0.0216281 0.1186289 0.9783719 -0.1186289 0.9783719 -0.1186289 0.0216281 0.1186289
3733000000 0.0219307 0.1195988 0.9780693 -0.1195988 0.9780693 -0.1195988 0.0219307 0.1195988
3754000000 0.0222380 0.1205751 0.9777620 -0.1205751 0.9777620 -0.1205751 0.0222380 0.1205751
3775000000 0.0225501 0.1215579 0.9774499 -0.1215579 0.9774499 -0.1215579 0.0225501 0.1215579
3796000000 0.0228671 0.1225473 0.9771329 -0.1225473 0.9771329 -0.1225473 0.0228671 0.1225473
3817000000 0.0231891 0.1235435 0.9768109 -0.1235435 0.9768109 -0.1235435 0.0231891 0.1235435
3838000000 0.0235162 0.1245465 0.9764838 -0.1245465 0.9764838 -0.1245465 0.0235162 0.1245465
3859000000 0.0238484 0.1255564 0.9761516 -0.1255564 0.9761516 -0.1255564 0.0238484 0.1255564
3880000000 0.0241860 0.1265734 0.9758140 -0.1265734 0.9758140 -0.1265734 0.0241860 0.1265734
3901000000 0.0245289 0.1275976 0.9754711 -0.1275976 0.9754711 -0.1275976 0.0245289 0.1275976
3922000000 0.0248774 0.1286290 0.9751226 -0.1286290 0.9751226 -0.1286290 0.0248774 0.1286290
3943000000 0.0252314 0.1296678 0.9747686 -0.1296678 0.9747686 -0.1296678 0.0252314 0.1296678
3964000000 0.0255913 0.1307142 0.9744087 -0.1307142 0.9744087 -0.1307142 0.0255913 0.1307142
3985000000 0.0259569 0.1317682 0.9740431 -0.1317682 0.9740431 -0.1317682 0.0259569 0.1317682
4006000000 0.0263286 0.1328300 0.9736714 -0.1328300 0.9736714 -0.1328300 0.0263286 0.1328300
4027000000 0.0267064 0.1338996 0.9732936 -0.1338996 0.9732936 -0.1338996 0.0267064 0.1338996
4048000000 0.0270904 0.1349773 0.9729096 -0.1349773 0.9729096 -0.1349773 0.0270904 0.1349773
4069000000 0.0274809 0.1360631 0.9725191 -0.1360631 0.9725191 -0.1360631 0.0274809 0.1360631
4090000000 0.0278778 0.1371572 0.9721222 -0.1371572 0.9721222 -0.1371572 0.0278778 0.1371572
4111000000 0.0282814 0.1382597 0.9717186 -0.1382597 0.9717186 -0.1382597 0.0282814 0.1382597
4132000000 0.0286919 0.1393708 0.9713081 -0.1393708 0.9713081 -0.1393708 0.0286919 0.1393708
4153000000 0.0291093 0.1404905 0.9708907 -0.1404905 0.9708907 -0.1404905 0.0291093 0.1404905
4174000000 0.0295338 0.1416190 0.9704662 -0.1416190 0.9704662 -0.1416190 0.0295338 0.1416190
4195000000 0.0299656 0.1427565 0.9700344 -0.1427565 0.9700344 -0.1427565 0.0299656 0.1427565
4216000000 0.0304049 0.1439031 0.9695951 -0.1439031 0.9695951 -0.1439031 0.0304049 0.1439031
4237000000 0.0308518 0.1450590 0.9691482 -0.1450590 0.9691482 -0.1450590 0.0308518 0.1450590
4258000000 0.0313064 0.1462242 0.9686936 -0.1462242 0.9686936 -0.1462242 0.0313064 0.1462242
4279000000 0.0317691 0.1473990 0.9682309 -0.1473990 0.9682309 -0.1473990 0.0317691 0.1473990
4300000000 0.0322399 0.1485835 0.9677601 -0.1485835 0.9677601 -0.1485835 0.0322399 0.1485835
4321000000 0.0327190 0.1497779 0.9672810 -0.1497779 0.9672810 -0.1497779 0.0327190 0.1497779
4342000000 0.0332067 0.1509823 0.9667933 -0.1509823 0.9667933 -0.1509823 0.0332067 0.1509823
4363000000 0.0337032 0.1521968 0.9662968 -0.1521968 0.9662968 -0.1521968 0.0337032 0.1521968
4384000000 0.0342086 0.1534217 0.9657914 -0.1534217 0.9657914 -0.1534217 0.0342086 0.1534217
4405000000 0.0347231 0.1546571 0.9652769 -0.1546571 0.9652769 -0.1546571 0.0347231 0.1546571
4426000000 0.0352471 0.1559032 0.9647529 -0.1559032 0.9647529 -0.1559032 0.0352471 0.1559032
4447000000 0.0357806 0.1571601 0.9642194 -0.1571601 0.9642194 -0.1571601 0.0357806 0.1571601
4468000000 0.0363241 0.1584280 0.9636759 -0.1584280 0.9636759 -0.1584280 0.0363241 0.1584280
4489000000 0.0368775 0.1597071 0.9631225 -0.1597071 0.9631225 -0.1597071 0.0368775 0.1597071
4510000000 0.0374414 0.1609976 0.9625586 -0.1609976 0.9625586 -0.1609976 0.0374414 0.1609976
