!Murata Part Number: GRM21A5C2J121JWA1
!These Parameters are Measured in Series Mode Connection
!Data Generated on Mar 30, 2021
!       o--ll--o
!Port1            Port2
!       o------o
!Operation Temp=25[degC], DC Bias Voltage=0[V]
!Freq. Start=100[MHz] Stop=3[GHz] 401[Steps]
# Hz S RI R 50
!Freq.(Hz) S11(Real) S11(Imag) S21(Real) S21(Imag) S12(Real) S12(Imag) S22(Real) S22(Imag)
100000000 0.0174945 -0.1264261 0.9825055 0.1264261 0.9825055 0.1264261 0.0174945 -0.1264261
107250000 0.0152771 -0.1176228 0.9847229 0.1176228 0.9847229 0.1176228 0.0152771 -0.1176228
114500000 0.0134608 -0.1098531 0.9865392 0.1098531 0.9865392 0.1098531 0.0134608 -0.1098531
121750000 0.0119550 -0.1029422 0.9880450 0.1029422 0.9880450 0.1029422 0.0119550 -0.1029422
129000000 0.0106930 -0.0967522 0.9893070 0.0967522 0.9893070 0.0967522 0.0106930 -0.0967522
136250000 0.0096254 -0.0911727 0.9903746 0.0911727 0.9903746 0.0911727 0.0096254 -0.0911727
143500000 0.0087145 -0.0861147 0.9912855 0.0861147 0.9912855 0.0861147 0.0087145 -0.0861147
150750000 0.0079313 -0.0815055 0.9920687 0.0815055 0.9920687 0.0815055 0.0079313 -0.0815055
158000000 0.0072532 -0.0772852 0.9927468 0.0772852 0.9927468 0.0772852 0.0072532 -0.0772852
165250000 0.0066624 -0.0734040 0.9933376 0.0734040 0.9933376 0.0734040 0.0066624 -0.0734040
172500000 0.0061448 -0.0698204 0.9938552 0.0698204 0.9938552 0.0698204 0.0061448 -0.0698204
179750000 0.0056890 -0.0664990 0.9943110 0.0664990 0.9943110 0.0664990 0.0056890 -0.0664990
187000000 0.0052856 -0.0634101 0.9947144 0.0634101 0.9947144 0.0634101 0.0052856 -0.0634101
194250000 0.0049270 -0.0605281 0.9950730 0.0605281 0.9950730 0.0605281 0.0049270 -0.0605281
201500000 0.0046071 -0.0578311 0.9953929 0.0578311 0.9953929 0.0578311 0.0046071 -0.0578311
208750000 0.0043206 -0.0553002 0.9956794 0.0553002 0.9956794 0.0553002 0.0043206 -0.0553002
216000000 0.0040632 -0.0529188 0.9959368 0.0529188 0.9959368 0.0529188 0.0040632 -0.0529188
223250000 0.0038312 -0.0506727 0.9961688 0.0506727 0.9961688 0.0506727 0.0038312 -0.0506727
230500000 0.0036214 -0.0485493 0.9963786 0.0485493 0.9963786 0.0485493 0.0036214 -0.0485493
237750000 0.0034313 -0.0465374 0.9965687 0.0465374 0.9965687 0.0465374 0.0034313 -0.0465374
245000000 0.0032586 -0.0446273 0.9967414 0.0446273 0.9967414 0.0446273 0.0032586 -0.0446273
252250000 0.0031014 -0.0428102 0.9968986 0.0428102 0.9968986 0.0428102 0.0031014 -0.0428102
259500000 0.0029580 -0.0410786 0.9970420 0.0410786 0.9970420 0.0410786 0.0029580 -0.0410786
266750000 0.0028270 -0.0394254 0.9971730 0.0394254 0.9971730 0.0394254 0.0028270 -0.0394254
274000000 0.0027070 -0.0378446 0.9972930 0.0378446 0.9972930 0.0378446 0.0027070 -0.0378446
281250000 0.0025970 -0.0363305 0.9974030 0.0363305 0.9974030 0.0363305 0.0025970 -0.0363305
288500000 0.0024961 -0.0348781 0.9975039 0.0348781 0.9975039 0.0348781 0.0024961 -0.0348781
295750000 0.0024033 -0.0334830 0.9975967 0.0334830 0.9975967 0.0334830 0.0024033 -0.0334830
303000000 0.0023179 -0.0321411 0.9976821 0.0321411 0.9976821 0.0321411 0.0023179 -0.0321411
310250000 0.0022393 -0.0308486 0.9977607 0.0308486 0.9977607 0.0308486 0.0022393 -0.0308486
317500000 0.0021669 -0.0296023 0.9978331 0.0296023 0.9978331 0.0296023 0.0021669 -0.0296023
324750000 0.0021001 -0.0283990 0.9978999 0.0283990 0.9978999 0.0283990 0.0021001 -0.0283990
332000000 0.0020386 -0.0272358 0.9979614 0.0272358 0.9979614 0.0272358 0.0020386 -0.0272358
339250000 0.0019817 -0.0261104 0.9980183 0.0261104 0.9980183 0.0261104 0.0019817 -0.0261104
346500000 0.0019293 -0.0250202 0.9980707 0.0250202 0.9980707 0.0250202 0.0019293 -0.0250202
353750000 0.0018809 -0.0239632 0.9981191 0.0239632 0.9981191 0.0239632 0.0018809 -0.0239632
361000000 0.0018363 -0.0229373 0.9981637 0.0229373 0.9981637 0.0229373 0.0018363 -0.0229373
368250000 0.0017952 -0.0219407 0.9982048 0.0219407 0.9982048 0.0219407 0.0017952 -0.0219407
375500000 0.0017573 -0.0209717 0.9982427 0.0209717 0.9982427 0.0209717 0.0017573 -0.0209717
382750000 0.0017224 -0.0200287 0.9982776 0.0200287 0.9982776 0.0200287 0.0017224 -0.0200287
390000000 0.0016903 -0.0191104 0.9983097 0.0191104 0.9983097 0.0191104 0.0016903 -0.0191104
397250000 0.0016609 -0.0182153 0.9983391 0.0182153 0.9983391 0.0182153 0.0016609 -0.0182153
404500000 0.0016338 -0.0173421 0.9983662 0.0173421 0.9983662 0.0173421 0.0016338 -0.0173421
411750000 0.0016091 -0.0164899 0.9983909 0.0164899 0.9983909 0.0164899 0.0016091 -0.0164899
419000000 0.0015866 -0.0156573 0.9984134 0.0156573 0.9984134 0.0156573 0.0015866 -0.0156573
426250000 0.0015660 -0.0148435 0.9984340 0.0148435 0.9984340 0.0148435 0.0015660 -0.0148435
433500000 0.0015474 -0.0140475 0.9984526 0.0140475 0.9984526 0.0140475 0.0015474 -0.0140475
440750000 0.0015306 -0.0132684 0.9984694 0.0132684 0.9984694 0.0132684 0.0015306 -0.0132684
448000000 0.0015155 -0.0125054 0.9984845 0.0125054 0.9984845 0.0125054 0.0015155 -0.0125054
455250000 0.0015019 -0.0117577 0.9984981 0.0117577 0.9984981 0.0117577 0.0015019 -0.0117577
462500000 0.0014899 -0.0110247 0.9985101 0.0110247 0.9985101 0.0110247 0.0014899 -0.0110247
469750000 0.0014794 -0.0103055 0.9985206 0.0103055 0.9985206 0.0103055 0.0014794 -0.0103055
477000000 0.0014702 -0.0095996 0.9985298 0.0095996 0.9985298 0.0095996 0.0014702 -0.0095996
484250000 0.0014624 -0.0089064 0.9985376 0.0089064 0.9985376 0.0089064 0.0014624 -0.0089064
491500000 0.0014558 -0.0082252 0.9985442 0.0082252 0.9985442 0.0082252 0.0014558 -0.0082252
498750000 0.0014503 -0.0075557 0.9985497 0.0075557 0.9985497 0.0075557 0.0014503 -0.0075557
506000000 0.0014460 -0.0068972 0.9985540 0.0068972 0.9985540 0.0068972 0.0014460 -0.0068972
513250000 0.0014428 -0.0062494 0.9985572 0.0062494 0.9985572 0.0062494 0.0014428 -0.0062494
520500000 0.0014407 -0.0056116 0.9985593 0.0056116 0.9985593 0.0056116 0.0014407 -0.0056116
527750000 0.0014395 -0.0049837 0.9985605 0.0049837 0.9985605 0.0049837 0.0014395 -0.0049837
535000000 0.0014393 -0.0043650 0.9985607 0.0043650 0.9985607 0.0043650 0.0014393 -0.0043650
542250000 0.0014400 -0.0037553 0.9985600 0.0037553 0.9985600 0.0037553 0.0014400 -0.0037553
549500000 0.0014416 -0.0031541 0.9985584 0.0031541 0.9985584 0.0031541 0.0014416 -0.0031541
556750000 0.0014441 -0.0025613 0.9985559 0.0025613 0.9985559 0.0025613 0.0014441 -0.0025613
564000000 0.0014473 -0.0019763 0.9985527 0.0019763 0.9985527 0.0019763 0.0014473 -0.0019763
571250000 0.0014514 -0.0013989 0.9985486 0.0013989 0.9985486 0.0013989 0.0014514 -0.0013989
578500000 0.0014563 -0.0008289 0.9985437 0.0008289 0.9985437 0.0008289 0.0014563 -0.0008289
585750000 0.0014619 -0.0002659 0.9985381 0.0002659 0.9985381 0.0002659 0.0014619 -0.0002659
593000000 0.0014682 0.0002903 0.9985318 -0.0002903 0.9985318 -0.0002903 0.0014682 0.0002903
600250000 0.0014752 0.0008399 0.9985248 -0.0008399 0.9985248 -0.0008399 0.0014752 0.0008399
607500000 0.0014829 0.0013833 0.9985171 -0.0013833 0.9985171 -0.0013833 0.0014829 0.0013833
614750000 0.0014912 0.0019207 0.9985088 -0.0019207 0.9985088 -0.0019207 0.0014912 0.0019207
622000000 0.0015002 0.0024522 0.9984998 -0.0024522 0.9984998 -0.0024522 0.0015002 0.0024522
629250000 0.0015099 0.0029780 0.9984901 -0.0029780 0.9984901 -0.0029780 0.0015099 0.0029780
636500000 0.0015201 0.0034984 0.9984799 -0.0034984 0.9984799 -0.0034984 0.0015201 0.0034984
643750000 0.0015309 0.0040136 0.9984691 -0.0040136 0.9984691 -0.0040136 0.0015309 0.0040136
651000000 0.0015424 0.0045237 0.9984576 -0.0045237 0.9984576 -0.0045237 0.0015424 0.0045237
658250000 0.0015543 0.0050289 0.9984457 -0.0050289 0.9984457 -0.0050289 0.0015543 0.0050289
665500000 0.0015669 0.0055294 0.9984331 -0.0055294 0.9984331 -0.0055294 0.0015669 0.0055294
672750000 0.0015800 0.0060254 0.9984200 -0.0060254 0.9984200 -0.0060254 0.0015800 0.0060254
680000000 0.0015936 0.0065169 0.9984064 -0.0065169 0.9984064 -0.0065169 0.0015936 0.0065169
687250000 0.0016077 0.0070042 0.9983923 -0.0070042 0.9983923 -0.0070042 0.0016077 0.0070042
694500000 0.0016224 0.0074873 0.9983776 -0.0074873 0.9983776 -0.0074873 0.0016224 0.0074873
701750000 0.0016376 0.0079665 0.9983624 -0.0079665 0.9983624 -0.0079665 0.0016376 0.0079665
709000000 0.0016533 0.0084418 0.9983467 -0.0084418 0.9983467 -0.0084418 0.0016533 0.0084418
716250000 0.0016694 0.0089133 0.9983306 -0.0089133 0.9983306 -0.0089133 0.0016694 0.0089133
723500000 0.0016861 0.0093812 0.9983139 -0.0093812 0.9983139 -0.0093812 0.0016861 0.0093812
730750000 0.0017032 0.0098457 0.9982968 -0.0098457 0.9982968 -0.0098457 0.0017032 0.0098457
738000000 0.0017208 0.0103067 0.9982792 -0.0103067 0.9982792 -0.0103067 0.0017208 0.0103067
745250000 0.0017388 0.0107645 0.9982612 -0.0107645 0.9982612 -0.0107645 0.0017388 0.0107645
752500000 0.0017573 0.0112190 0.9982427 -0.0112190 0.9982427 -0.0112190 0.0017573 0.0112190
759750000 0.0017763 0.0116705 0.9982237 -0.0116705 0.9982237 -0.0116705 0.0017763 0.0116705
767000000 0.0017957 0.0121190 0.9982043 -0.0121190 0.9982043 -0.0121190 0.0017957 0.0121190
774250000 0.0018156 0.0125646 0.9981844 -0.0125646 0.9981844 -0.0125646 0.0018156 0.0125646
781500000 0.0018359 0.0130074 0.9981641 -0.0130074 0.9981641 -0.0130074 0.0018359 0.0130074
788750000 0.0018566 0.0134475 0.9981434 -0.0134475 0.9981434 -0.0134475 0.0018566 0.0134475
796000000 0.0018778 0.0138849 0.9981222 -0.0138849 0.9981222 -0.0138849 0.0018778 0.0138849
803250000 0.0018994 0.0143197 0.9981006 -0.0143197 0.9981006 -0.0143197 0.0018994 0.0143197
810500000 0.0019214 0.0147521 0.9980786 -0.0147521 0.9980786 -0.0147521 0.0019214 0.0147521
817750000 0.0019438 0.0151820 0.9980562 -0.0151820 0.9980562 -0.0151820 0.0019438 0.0151820
825000000 0.0019667 0.0156096 0.9980333 -0.0156096 0.9980333 -0.0156096 0.0019667 0.0156096
832250000 0.0019900 0.0160349 0.9980100 -0.0160349 0.9980100 -0.0160349 0.0019900 0.0160349
839500000 0.0020136 0.0164580 0.9979864 -0.0164580 0.9979864 -0.0164580 0.0020136 0.0164580
846750000 0.0020377 0.0168789 0.9979623 -0.0168789 0.9979623 -0.0168789 0.0020377 0.0168789
854000000 0.0020623 0.0172978 0.9979377 -0.0172978 0.9979377 -0.0172978 0.0020623 0.0172978
861250000 0.0020872 0.0177146 0.9979128 -0.0177146 0.9979128 -0.0177146 0.0020872 0.0177146
868500000 0.0021125 0.0181295 0.9978875 -0.0181295 0.9978875 -0.0181295 0.0021125 0.0181295
875750000 0.0021383 0.0185425 0.9978617 -0.0185425 0.9978617 -0.0185425 0.0021383 0.0185425
883000000 0.0021644 0.0189536 0.9978356 -0.0189536 0.9978356 -0.0189536 0.0021644 0.0189536
890250000 0.0021909 0.0193629 0.9978091 -0.0193629 0.9978091 -0.0193629 0.0021909 0.0193629
897500000 0.0022179 0.0197705 0.9977821 -0.0197705 0.9977821 -0.0197705 0.0022179 0.0197705
904750000 0.0022453 0.0201763 0.9977547 -0.0201763 0.9977547 -0.0201763 0.0022453 0.0201763
912000000 0.0022730 0.0205805 0.9977270 -0.0205805 0.9977270 -0.0205805 0.0022730 0.0205805
919250000 0.0023012 0.0209831 0.9976988 -0.0209831 0.9976988 -0.0209831 0.0023012 0.0209831
926500000 0.0023298 0.0213842 0.9976702 -0.0213842 0.9976702 -0.0213842 0.0023298 0.0213842
933750000 0.0023588 0.0217837 0.9976412 -0.0217837 0.9976412 -0.0217837 0.0023588 0.0217837
941000000 0.0023881 0.0221818 0.9976119 -0.0221818 0.9976119 -0.0221818 0.0023881 0.0221818
948250000 0.0024179 0.0225784 0.9975821 -0.0225784 0.9975821 -0.0225784 0.0024179 0.0225784
955500000 0.0024481 0.0229736 0.9975519 -0.0229736 0.9975519 -0.0229736 0.0024481 0.0229736
962750000 0.0024787 0.0233675 0.9975213 -0.0233675 0.9975213 -0.0233675 0.0024787 0.0233675
970000000 0.0025098 0.0237601 0.9974902 -0.0237601 0.9974902 -0.0237601 0.0025098 0.0237601
977250000 0.0025412 0.0241514 0.9974588 -0.0241514 0.9974588 -0.0241514 0.0025412 0.0241514
984500000 0.0025730 0.0245414 0.9974270 -0.0245414 0.9974270 -0.0245414 0.0025730 0.0245414
991750000 0.0026053 0.0249303 0.9973947 -0.0249303 0.9973947 -0.0249303 0.0026053 0.0249303
999000000 0.0026379 0.0253180 0.9973621 -0.0253180 0.9973621 -0.0253180 0.0026379 0.0253180
1006250000 0.0026710 0.0257045 0.9973290 -0.0257045 0.9973290 -0.0257045 0.0026710 0.0257045
1013500000 0.0027045 0.0260900 0.9972955 -0.0260900 0.9972955 -0.0260900 0.0027045 0.0260900
1020750000 0.0027385 0.0264743 0.9972615 -0.0264743 0.9972615 -0.0264743 0.0027385 0.0264743
1028000000 0.0027728 0.0268577 0.9972272 -0.0268577 0.9972272 -0.0268577 0.0027728 0.0268577
1035250000 0.0028076 0.0272400 0.9971924 -0.0272400 0.9971924 -0.0272400 0.0028076 0.0272400
1042500000 0.0028428 0.0276214 0.9971572 -0.0276214 0.9971572 -0.0276214 0.0028428 0.0276214
1049750000 0.0028784 0.0280018 0.9971216 -0.0280018 0.9971216 -0.0280018 0.0028784 0.0280018
1057000000 0.0029145 0.0283812 0.9970855 -0.0283812 0.9970855 -0.0283812 0.0029145 0.0283812
1064250000 0.0029510 0.0287598 0.9970490 -0.0287598 0.9970490 -0.0287598 0.0029510 0.0287598
1071500000 0.0029880 0.0291375 0.9970120 -0.0291375 0.9970120 -0.0291375 0.0029880 0.0291375
1078750000 0.0030254 0.0295144 0.9969746 -0.0295144 0.9969746 -0.0295144 0.0030254 0.0295144
1086000000 0.0030632 0.0298905 0.9969368 -0.0298905 0.9969368 -0.0298905 0.0030632 0.0298905
1093250000 0.0031015 0.0302657 0.9968985 -0.0302657 0.9968985 -0.0302657 0.0031015 0.0302657
1100500000 0.0031402 0.0306402 0.9968598 -0.0306402 0.9968598 -0.0306402 0.0031402 0.0306402
1107750000 0.0031795 0.0310140 0.9968205 -0.0310140 0.9968205 -0.0310140 0.0031795 0.0310140
1115000000 0.0032191 0.0313870 0.9967809 -0.0313870 0.9967809 -0.0313870 0.0032191 0.0313870
1122250000 0.0032593 0.0317594 0.9967407 -0.0317594 0.9967407 -0.0317594 0.0032593 0.0317594
1129500000 0.0032999 0.0321311 0.9967001 -0.0321311 0.9967001 -0.0321311 0.0032999 0.0321311
1136750000 0.0033410 0.0325021 0.9966590 -0.0325021 0.9966590 -0.0325021 0.0033410 0.0325021
1144000000 0.0033826 0.0328725 0.9966174 -0.0328725 0.9966174 -0.0328725 0.0033826 0.0328725
1151250000 0.0034247 0.0332422 0.9965753 -0.0332422 0.9965753 -0.0332422 0.0034247 0.0332422
1158500000 0.0034673 0.0336114 0.9965327 -0.0336114 0.9965327 -0.0336114 0.0034673 0.0336114
1165750000 0.0035104 0.0339801 0.9964896 -0.0339801 0.9964896 -0.0339801 0.0035104 0.0339801
1173000000 0.0035539 0.0343481 0.9964461 -0.0343481 0.9964461 -0.0343481 0.0035539 0.0343481
1180250000 0.0035981 0.0347157 0.9964019 -0.0347157 0.9964019 -0.0347157 0.0035981 0.0347157
1187500000 0.0036427 0.0350827 0.9963573 -0.0350827 0.9963573 -0.0350827 0.0036427 0.0350827
1194750000 0.0036878 0.0354492 0.9963122 -0.0354492 0.9963122 -0.0354492 0.0036878 0.0354492
1202000000 0.0037335 0.0358153 0.9962665 -0.0358153 0.9962665 -0.0358153 0.0037335 0.0358153
1209250000 0.0037798 0.0361809 0.9962202 -0.0361809 0.9962202 -0.0361809 0.0037798 0.0361809
1216500000 0.0038266 0.0365460 0.9961734 -0.0365460 0.9961734 -0.0365460 0.0038266 0.0365460
1223750000 0.0038739 0.0369108 0.9961261 -0.0369108 0.9961261 -0.0369108 0.0038739 0.0369108
1231000000 0.0039219 0.0372751 0.9960781 -0.0372751 0.9960781 -0.0372751 0.0039219 0.0372751
1238250000 0.0039704 0.0376390 0.9960296 -0.0376390 0.9960296 -0.0376390 0.0039704 0.0376390
1245500000 0.0040195 0.0380026 0.9959805 -0.0380026 0.9959805 -0.0380026 0.0040195 0.0380026
1252750000 0.0040692 0.0383658 0.9959308 -0.0383658 0.9959308 -0.0383658 0.0040692 0.0383658
1260000000 0.0041195 0.0387286 0.9958805 -0.0387286 0.9958805 -0.0387286 0.0041195 0.0387286
1267250000 0.0041704 0.0390911 0.9958296 -0.0390911 0.9958296 -0.0390911 0.0041704 0.0390911
1274500000 0.0042219 0.0394533 0.9957781 -0.0394533 0.9957781 -0.0394533 0.0042219 0.0394533
1281750000 0.0042741 0.0398152 0.9957259 -0.0398152 0.9957259 -0.0398152 0.0042741 0.0398152
1289000000 0.0043270 0.0401768 0.9956730 -0.0401768 0.9956730 -0.0401768 0.0043270 0.0401768
1296250000 0.0043805 0.0405381 0.9956195 -0.0405381 0.9956195 -0.0405381 0.0043805 0.0405381
1303500000 0.0044346 0.0408992 0.9955654 -0.0408992 0.9955654 -0.0408992 0.0044346 0.0408992
1310750000 0.0044895 0.0412599 0.9955105 -0.0412599 0.9955105 -0.0412599 0.0044895 0.0412599
1318000000 0.0045451 0.0416205 0.9954549 -0.0416205 0.9954549 -0.0416205 0.0045451 0.0416205
1325250000 0.0046014 0.0419808 0.9953986 -0.0419808 0.9953986 -0.0419808 0.0046014 0.0419808
1332500000 0.0046584 0.0423409 0.9953416 -0.0423409 0.9953416 -0.0423409 0.0046584 0.0423409
1339750000 0.0047162 0.0427008 0.9952838 -0.0427008 0.9952838 -0.0427008 0.0047162 0.0427008
1347000000 0.0047747 0.0430605 0.9952253 -0.0430605 0.9952253 -0.0430605 0.0047747 0.0430605
1354250000 0.0048340 0.0434200 0.9951660 -0.0434200 0.9951660 -0.0434200 0.0048340 0.0434200
1361500000 0.0048941 0.0437793 0.9951059 -0.0437793 0.9951059 -0.0437793 0.0048941 0.0437793
1368750000 0.0049550 0.0441384 0.9950450 -0.0441384 0.9950450 -0.0441384 0.0049550 0.0441384
1376000000 0.0050168 0.0444974 0.9949832 -0.0444974 0.9949832 -0.0444974 0.0050168 0.0444974
1383250000 0.0050794 0.0448562 0.9949206 -0.0448562 0.9949206 -0.0448562 0.0050794 0.0448562
1390500000 0.0051429 0.0452148 0.9948571 -0.0452148 0.9948571 -0.0452148 0.0051429 0.0452148
1397750000 0.0052073 0.0455733 0.9947927 -0.0455733 0.9947927 -0.0455733 0.0052073 0.0455733
1405000000 0.0052725 0.0459316 0.9947275 -0.0459316 0.9947275 -0.0459316 0.0052725 0.0459316
1412250000 0.0053388 0.0462898 0.9946612 -0.0462898 0.9946612 -0.0462898 0.0053388 0.0462898
1419500000 0.0054059 0.0466478 0.9945941 -0.0466478 0.9945941 -0.0466478 0.0054059 0.0466478
1426750000 0.0054741 0.0470057 0.9945259 -0.0470057 0.9945259 -0.0470057 0.0054741 0.0470057
1434000000 0.0055433 0.0473635 0.9944567 -0.0473635 0.9944567 -0.0473635 0.0055433 0.0473635
1441250000 0.0056135 0.0477211 0.9943865 -0.0477211 0.9943865 -0.0477211 0.0056135 0.0477211
1448500000 0.0056847 0.0480786 0.9943153 -0.0480786 0.9943153 -0.0480786 0.0056847 0.0480786
1455750000 0.0057570 0.0484359 0.9942430 -0.0484359 0.9942430 -0.0484359 0.0057570 0.0484359
1463000000 0.0058305 0.0487931 0.9941695 -0.0487931 0.9941695 -0.0487931 0.0058305 0.0487931
1470250000 0.0059051 0.0491501 0.9940949 -0.0491501 0.9940949 -0.0491501 0.0059051 0.0491501
1477500000 0.0059808 0.0495070 0.9940192 -0.0495070 0.9940192 -0.0495070 0.0059808 0.0495070
1484750000 0.0060578 0.0498637 0.9939422 -0.0498637 0.9939422 -0.0498637 0.0060578 0.0498637
1492000000 0.0061360 0.0502202 0.9938640 -0.0502202 0.9938640 -0.0502202 0.0061360 0.0502202
1499250000 0.0062155 0.0505765 0.9937845 -0.0505765 0.9937845 -0.0505765 0.0062155 0.0505765
1506500000 0.0062962 0.0509326 0.9937038 -0.0509326 0.9937038 -0.0509326 0.0062962 0.0509326
1513750000 0.0063783 0.0512885 0.9936217 -0.0512885 0.9936217 -0.0512885 0.0063783 0.0512885
1521000000 0.0064618 0.0516441 0.9935382 -0.0516441 0.9935382 -0.0516441 0.0064618 0.0516441
1528250000 0.0065467 0.0519995 0.9934533 -0.0519995 0.9934533 -0.0519995 0.0065467 0.0519995
1535500000 0.0066330 0.0523545 0.9933670 -0.0523545 0.9933670 -0.0523545 0.0066330 0.0523545
1542750000 0.0067208 0.0527093 0.9932792 -0.0527093 0.9932792 -0.0527093 0.0067208 0.0527093
1550000000 0.0068101 0.0530636 0.9931899 -0.0530636 0.9931899 -0.0530636 0.0068101 0.0530636
1557250000 0.0069010 0.0534177 0.9930990 -0.0534177 0.9930990 -0.0534177 0.0069010 0.0534177
1564500000 0.0069934 0.0537712 0.9930066 -0.0537712 0.9930066 -0.0537712 0.0069934 0.0537712
1571750000 0.0070876 0.0541243 0.9929124 -0.0541243 0.9929124 -0.0541243 0.0070876 0.0541243
1579000000 0.0071833 0.0544770 0.9928167 -0.0544770 0.9928167 -0.0544770 0.0071833 0.0544770
1586250000 0.0072808 0.0548290 0.9927192 -0.0548290 0.9927192 -0.0548290 0.0072808 0.0548290
1593500000 0.0073801 0.0551804 0.9926199 -0.0551804 0.9926199 -0.0551804 0.0073801 0.0551804
1600750000 0.0074811 0.0555312 0.9925189 -0.0555312 0.9925189 -0.0555312 0.0074811 0.0555312
1608000000 0.0075840 0.0558812 0.9924160 -0.0558812 0.9924160 -0.0558812 0.0075840 0.0558812
1615250000 0.0076888 0.0562305 0.9923112 -0.0562305 0.9923112 -0.0562305 0.0076888 0.0562305
1622500000 0.0077954 0.0565788 0.9922046 -0.0565788 0.9922046 -0.0565788 0.0077954 0.0565788
1629750000 0.0079040 0.0569262 0.9920960 -0.0569262 0.9920960 -0.0569262 0.0079040 0.0569262
