!Murata Part Number: GRM21A7U2E561JW31
!These Parameters are Measured in Series Mode Connection
!Data Generated on Mar 30, 2021
!       o--ll--o
!Port1            Port2
!       o------o
!Operation Temp=25[degC], DC Bias Voltage=0[V]
!Freq. Start=100[MHz] Stop=3[GHz] 401[Steps]
# Hz S RI R 50
!Freq.(Hz) S11(Real) S11(Imag) S21(Real) S21(Imag) S12(Real) S12(Imag) S22(Real) S22(Imag)
100000000 0.0013319 -0.0237096 0.9986681 0.0237096 0.9986681 0.0237096 0.0013319 -0.0237096
107250000 0.0012367 -0.0214569 0.9987633 0.0214569 0.9987633 0.0214569 0.0012367 -0.0214569
114500000 0.0011616 -0.0194462 0.9988384 0.0194462 0.9988384 0.0194462 0.0011616 -0.0194462
121750000 0.0011020 -0.0176344 0.9988980 0.0176344 0.9988980 0.0176344 0.0011020 -0.0176344
129000000 0.0010548 -0.0159879 0.9989452 0.0159879 0.9989452 0.0159879 0.0010548 -0.0159879
136250000 0.0010175 -0.0144805 0.9989825 0.0144805 0.9989825 0.0144805 0.0010175 -0.0144805
143500000 0.0009883 -0.0130910 0.9990117 0.0130910 0.9990117 0.0130910 0.0009883 -0.0130910
150750000 0.0009659 -0.0118025 0.9990341 0.0118025 0.9990341 0.0118025 0.0009659 -0.0118025
158000000 0.0009491 -0.0106012 0.9990509 0.0106012 0.9990509 0.0106012 0.0009491 -0.0106012
165250000 0.0009371 -0.0094754 0.9990629 0.0094754 0.9990629 0.0094754 0.0009371 -0.0094754
172500000 0.0009292 -0.0084157 0.9990708 0.0084157 0.9990708 0.0084157 0.0009292 -0.0084157
179750000 0.0009250 -0.0074142 0.9990750 0.0074142 0.9990750 0.0074142 0.0009250 -0.0074142
187000000 0.0009239 -0.0064639 0.9990761 0.0064639 0.9990761 0.0064639 0.0009239 -0.0064639
194250000 0.0009257 -0.0055592 0.9990743 0.0055592 0.9990743 0.0055592 0.0009257 -0.0055592
201500000 0.0009299 -0.0046952 0.9990701 0.0046952 0.9990701 0.0046952 0.0009299 -0.0046952
208750000 0.0009365 -0.0038676 0.9990635 0.0038676 0.9990635 0.0038676 0.0009365 -0.0038676
216000000 0.0009452 -0.0030727 0.9990548 0.0030727 0.9990548 0.0030727 0.0009452 -0.0030727
223250000 0.0009557 -0.0023073 0.9990443 0.0023073 0.9990443 0.0023073 0.0009557 -0.0023073
230500000 0.0009681 -0.0015687 0.9990319 0.0015687 0.9990319 0.0015687 0.0009681 -0.0015687
237750000 0.0009821 -0.0008543 0.9990179 0.0008543 0.9990179 0.0008543 0.0009821 -0.0008543
245000000 0.0009977 -0.0001620 0.9990023 0.0001620 0.9990023 0.0001620 0.0009977 -0.0001620
252250000 0.0010148 0.0005102 0.9989852 -0.0005102 0.9989852 -0.0005102 0.0010148 0.0005102
259500000 0.0010333 0.0011639 0.9989667 -0.0011639 0.9989667 -0.0011639 0.0010333 0.0011639
266750000 0.0010532 0.0018006 0.9989468 -0.0018006 0.9989468 -0.0018006 0.0010532 0.0018006
274000000 0.0010744 0.0024218 0.9989256 -0.0024218 0.9989256 -0.0024218 0.0010744 0.0024218
281250000 0.0010969 0.0030286 0.9989031 -0.0030286 0.9989031 -0.0030286 0.0010969 0.0030286
288500000 0.0011206 0.0036222 0.9988794 -0.0036222 0.9988794 -0.0036222 0.0011206 0.0036222
295750000 0.0011455 0.0042036 0.9988545 -0.0042036 0.9988545 -0.0042036 0.0011455 0.0042036
303000000 0.0011717 0.0047736 0.9988283 -0.0047736 0.9988283 -0.0047736 0.0011717 0.0047736
310250000 0.0011990 0.0053331 0.9988010 -0.0053331 0.9988010 -0.0053331 0.0011990 0.0053331
317500000 0.0012275 0.0058829 0.9987725 -0.0058829 0.9987725 -0.0058829 0.0012275 0.0058829
324750000 0.0012573 0.0064236 0.9987427 -0.0064236 0.9987427 -0.0064236 0.0012573 0.0064236
332000000 0.0012882 0.0069558 0.9987118 -0.0069558 0.9987118 -0.0069558 0.0012882 0.0069558
339250000 0.0013203 0.0074802 0.9986797 -0.0074802 0.9986797 -0.0074802 0.0013203 0.0074802
346500000 0.0013536 0.0079972 0.9986464 -0.0079972 0.9986464 -0.0079972 0.0013536 0.0079972
353750000 0.0013882 0.0085074 0.9986118 -0.0085074 0.9986118 -0.0085074 0.0013882 0.0085074
361000000 0.0014240 0.0090111 0.9985760 -0.0090111 0.9985760 -0.0090111 0.0014240 0.0090111
368250000 0.0014611 0.0095089 0.9985389 -0.0095089 0.9985389 -0.0095089 0.0014611 0.0095089
375500000 0.0014995 0.0100011 0.9985005 -0.0100011 0.9985005 -0.0100011 0.0014995 0.0100011
382750000 0.0015394 0.0104880 0.9984606 -0.0104880 0.9984606 -0.0104880 0.0015394 0.0104880
390000000 0.0015806 0.0109700 0.9984194 -0.0109700 0.9984194 -0.0109700 0.0015806 0.0109700
397250000 0.0016234 0.0114474 0.9983766 -0.0114474 0.9983766 -0.0114474 0.0016234 0.0114474
404500000 0.0016678 0.0119205 0.9983322 -0.0119205 0.9983322 -0.0119205 0.0016678 0.0119205
411750000 0.0017138 0.0123895 0.9982862 -0.0123895 0.9982862 -0.0123895 0.0017138 0.0123895
419000000 0.0017615 0.0128547 0.9982385 -0.0128547 0.9982385 -0.0128547 0.0017615 0.0128547
426250000 0.0018112 0.0133162 0.9981888 -0.0133162 0.9981888 -0.0133162 0.0018112 0.0133162
433500000 0.0018628 0.0137744 0.9981372 -0.0137744 0.9981372 -0.0137744 0.0018628 0.0137744
440750000 0.0019166 0.0142293 0.9980834 -0.0142293 0.9980834 -0.0142293 0.0019166 0.0142293
448000000 0.0019727 0.0146811 0.9980273 -0.0146811 0.9980273 -0.0146811 0.0019727 0.0146811
455250000 0.0020314 0.0151299 0.9979686 -0.0151299 0.9979686 -0.0151299 0.0020314 0.0151299
462500000 0.0020927 0.0155758 0.9979073 -0.0155758 0.9979073 -0.0155758 0.0020927 0.0155758
469750000 0.0021570 0.0160187 0.9978430 -0.0160187 0.9978430 -0.0160187 0.0021570 0.0160187
477000000 0.0022245 0.0164586 0.9977755 -0.0164586 0.9977755 -0.0164586 0.0022245 0.0164586
484250000 0.0022955 0.0168954 0.9977045 -0.0168954 0.9977045 -0.0168954 0.0022955 0.0168954
491500000 0.0023702 0.0173290 0.9976298 -0.0173290 0.9976298 -0.0173290 0.0023702 0.0173290
498750000 0.0024489 0.0177589 0.9975511 -0.0177589 0.9975511 -0.0177589 0.0024489 0.0177589
506000000 0.0025319 0.0181847 0.9974681 -0.0181847 0.9974681 -0.0181847 0.0025319 0.0181847
513250000 0.0026193 0.0186059 0.9973807 -0.0186059 0.9973807 -0.0186059 0.0026193 0.0186059
520500000 0.0027111 0.0190216 0.9972889 -0.0190216 0.9972889 -0.0190216 0.0027111 0.0190216
527750000 0.0028072 0.0194310 0.9971928 -0.0194310 0.9971928 -0.0194310 0.0028072 0.0194310
535000000 0.0029071 0.0198331 0.9970929 -0.0198331 0.9970929 -0.0198331 0.0029071 0.0198331
542250000 0.0030100 0.0202267 0.9969900 -0.0202267 0.9969900 -0.0202267 0.0030100 0.0202267
549500000 0.0031146 0.0206111 0.9968854 -0.0206111 0.9968854 -0.0206111 0.0031146 0.0206111
556750000 0.0032191 0.0209854 0.9967809 -0.0209854 0.9967809 -0.0209854 0.0032191 0.0209854
564000000 0.0033214 0.0213495 0.9966786 -0.0213495 0.9966786 -0.0213495 0.0033214 0.0213495
571250000 0.0034190 0.0217041 0.9965810 -0.0217041 0.9965810 -0.0217041 0.0034190 0.0217041
578500000 0.0035098 0.0220507 0.9964902 -0.0220507 0.9964902 -0.0220507 0.0035098 0.0220507
585750000 0.0035918 0.0223917 0.9964082 -0.0223917 0.9964082 -0.0223917 0.0035918 0.0223917
593000000 0.0036643 0.0227300 0.9963357 -0.0227300 0.9963357 -0.0227300 0.0036643 0.0227300
600250000 0.0037274 0.0230686 0.9962726 -0.0230686 0.9962726 -0.0230686 0.0037274 0.0230686
607500000 0.0037823 0.0234105 0.9962177 -0.0234105 0.9962177 -0.0234105 0.0037823 0.0234105
614750000 0.0038311 0.0237578 0.9961689 -0.0237578 0.9961689 -0.0237578 0.0038311 0.0237578
622000000 0.0038760 0.0241117 0.9961240 -0.0241117 0.9961240 -0.0241117 0.0038760 0.0241117
629250000 0.0039195 0.0244727 0.9960805 -0.0244727 0.9960805 -0.0244727 0.0039195 0.0244727
636500000 0.0039639 0.0248406 0.9960361 -0.0248406 0.9960361 -0.0248406 0.0039639 0.0248406
643750000 0.0040108 0.0252147 0.9959892 -0.0252147 0.9959892 -0.0252147 0.0040108 0.0252147
651000000 0.0040616 0.0255940 0.9959384 -0.0255940 0.9959384 -0.0255940 0.0040616 0.0255940
658250000 0.0041172 0.0259775 0.9958828 -0.0259775 0.9958828 -0.0259775 0.0041172 0.0259775
665500000 0.0041783 0.0263642 0.9958217 -0.0263642 0.9958217 -0.0263642 0.0041783 0.0263642
672750000 0.0042453 0.0267531 0.9957547 -0.0267531 0.9957547 -0.0267531 0.0042453 0.0267531
680000000 0.0043184 0.0271434 0.9956816 -0.0271434 0.9956816 -0.0271434 0.0043184 0.0271434
687250000 0.0043977 0.0275345 0.9956023 -0.0275345 0.9956023 -0.0275345 0.0043977 0.0275345
694500000 0.0044833 0.0279256 0.9955167 -0.0279256 0.9955167 -0.0279256 0.0044833 0.0279256
701750000 0.0045752 0.0283161 0.9954248 -0.0283161 0.9954248 -0.0283161 0.0045752 0.0283161
709000000 0.0046734 0.0287057 0.9953266 -0.0287057 0.9953266 -0.0287057 0.0046734 0.0287057
716250000 0.0047780 0.0290938 0.9952220 -0.0290938 0.9952220 -0.0290938 0.0047780 0.0290938
723500000 0.0048889 0.0294800 0.9951111 -0.0294800 0.9951111 -0.0294800 0.0048889 0.0294800
730750000 0.0050062 0.0298639 0.9949938 -0.0298639 0.9949938 -0.0298639 0.0050062 0.0298639
738000000 0.0051300 0.0302450 0.9948700 -0.0302450 0.9948700 -0.0302450 0.0051300 0.0302450
745250000 0.0052603 0.0306229 0.9947397 -0.0306229 0.9947397 -0.0306229 0.0052603 0.0306229
752500000 0.0053973 0.0309971 0.9946027 -0.0309971 0.9946027 -0.0309971 0.0053973 0.0309971
759750000 0.0055408 0.0313670 0.9944592 -0.0313670 0.9944592 -0.0313670 0.0055408 0.0313670
767000000 0.0056910 0.0317321 0.9943090 -0.0317321 0.9943090 -0.0317321 0.0056910 0.0317321
774250000 0.0058480 0.0320918 0.9941520 -0.0320918 0.9941520 -0.0320918 0.0058480 0.0320918
781500000 0.0060115 0.0324452 0.9939885 -0.0324452 0.9939885 -0.0324452 0.0060115 0.0324452
788750000 0.0061817 0.0327918 0.9938183 -0.0327918 0.9938183 -0.0327918 0.0061817 0.0327918
796000000 0.0063583 0.0331307 0.9936417 -0.0331307 0.9936417 -0.0331307 0.0063583 0.0331307
803250000 0.0065411 0.0334610 0.9934589 -0.0334610 0.9934589 -0.0334610 0.0065411 0.0334610
810500000 0.0067297 0.0337817 0.9932703 -0.0337817 0.9932703 -0.0337817 0.0067297 0.0337817
817750000 0.0069236 0.0340920 0.9930764 -0.0340920 0.9930764 -0.0340920 0.0069236 0.0340920
825000000 0.0071223 0.0343908 0.9928777 -0.0343908 0.9928777 -0.0343908 0.0071223 0.0343908
832250000 0.0073248 0.0346771 0.9926752 -0.0346771 0.9926752 -0.0346771 0.0073248 0.0346771
839500000 0.0075302 0.0349500 0.9924698 -0.0349500 0.9924698 -0.0349500 0.0075302 0.0349500
846750000 0.0077373 0.0352085 0.9922627 -0.0352085 0.9922627 -0.0352085 0.0077373 0.0352085
854000000 0.0079446 0.0354518 0.9920554 -0.0354518 0.9920554 -0.0354518 0.0079446 0.0354518
861250000 0.0081505 0.0356793 0.9918495 -0.0356793 0.9918495 -0.0356793 0.0081505 0.0356793
868500000 0.0083532 0.0358906 0.9916468 -0.0358906 0.9916468 -0.0358906 0.0083532 0.0358906
875750000 0.0085507 0.0360853 0.9914493 -0.0360853 0.9914493 -0.0360853 0.0085507 0.0360853
883000000 0.0087409 0.0362638 0.9912591 -0.0362638 0.9912591 -0.0362638 0.0087409 0.0362638
890250000 0.0089214 0.0364263 0.9910786 -0.0364263 0.9910786 -0.0364263 0.0089214 0.0364263
897500000 0.0090902 0.0365739 0.9909098 -0.0365739 0.9909098 -0.0365739 0.0090902 0.0365739
904750000 0.0092450 0.0367077 0.9907550 -0.0367077 0.9907550 -0.0367077 0.0092450 0.0367077
912000000 0.0093840 0.0368294 0.9906160 -0.0368294 0.9906160 -0.0368294 0.0093840 0.0368294
919250000 0.0095054 0.0369410 0.9904946 -0.0369410 0.9904946 -0.0369410 0.0095054 0.0369410
926500000 0.0096078 0.0370450 0.9903922 -0.0370450 0.9903922 -0.0370450 0.0096078 0.0370450
933750000 0.0096903 0.0371438 0.9903097 -0.0371438 0.9903097 -0.0371438 0.0096903 0.0371438
941000000 0.0097525 0.0372402 0.9902475 -0.0372402 0.9902475 -0.0372402 0.0097525 0.0372402
948250000 0.0097943 0.0373370 0.9902057 -0.0373370 0.9902057 -0.0373370 0.0097943 0.0373370
955500000 0.0098162 0.0374368 0.9901838 -0.0374368 0.9901838 -0.0374368 0.0098162 0.0374368
962750000 0.0098191 0.0375421 0.9901809 -0.0375421 0.9901809 -0.0375421 0.0098191 0.0375421
970000000 0.0098044 0.0376554 0.9901956 -0.0376554 0.9901956 -0.0376554 0.0098044 0.0376554
977250000 0.0097737 0.0377784 0.9902263 -0.0377784 0.9902263 -0.0377784 0.0097737 0.0377784
984500000 0.0097287 0.0379128 0.9902713 -0.0379128 0.9902713 -0.0379128 0.0097287 0.0379128
991750000 0.0096716 0.0380598 0.9903284 -0.0380598 0.9903284 -0.0380598 0.0096716 0.0380598
999000000 0.0096044 0.0382202 0.9903956 -0.0382202 0.9903956 -0.0382202 0.0096044 0.0382202
1006250000 0.0095291 0.0383946 0.9904709 -0.0383946 0.9904709 -0.0383946 0.0095291 0.0383946
1013500000 0.0094478 0.0385830 0.9905522 -0.0385830 0.9905522 -0.0385830 0.0094478 0.0385830
1020750000 0.0093621 0.0387853 0.9906379 -0.0387853 0.9906379 -0.0387853 0.0093621 0.0387853
1028000000 0.0092739 0.0390011 0.9907261 -0.0390011 0.9907261 -0.0390011 0.0092739 0.0390011
1035250000 0.0091847 0.0392300 0.9908153 -0.0392300 0.9908153 -0.0392300 0.0091847 0.0392300
1042500000 0.0090956 0.0394711 0.9909044 -0.0394711 0.9909044 -0.0394711 0.0090956 0.0394711
1049750000 0.0090080 0.0397238 0.9909920 -0.0397238 0.9909920 -0.0397238 0.0090080 0.0397238
1057000000 0.0089226 0.0399871 0.9910774 -0.0399871 0.9910774 -0.0399871 0.0089226 0.0399871
1064250000 0.0088402 0.0402602 0.9911598 -0.0402602 0.9911598 -0.0402602 0.0088402 0.0402602
1071500000 0.0087614 0.0405422 0.9912386 -0.0405422 0.9912386 -0.0405422 0.0087614 0.0405422
1078750000 0.0086868 0.0408323 0.9913132 -0.0408323 0.9913132 -0.0408323 0.0086868 0.0408323
1086000000 0.0086166 0.0411296 0.9913834 -0.0411296 0.9913834 -0.0411296 0.0086166 0.0411296
1093250000 0.0085510 0.0414333 0.9914490 -0.0414333 0.9914490 -0.0414333 0.0085510 0.0414333
1100500000 0.0084902 0.0417428 0.9915098 -0.0417428 0.9915098 -0.0417428 0.0084902 0.0417428
1107750000 0.0084343 0.0420573 0.9915657 -0.0420573 0.9915657 -0.0420573 0.0084343 0.0420573
1115000000 0.0083832 0.0423763 0.9916168 -0.0423763 0.9916168 -0.0423763 0.0083832 0.0423763
1122250000 0.0083370 0.0426990 0.9916630 -0.0426990 0.9916630 -0.0426990 0.0083370 0.0426990
1129500000 0.0082955 0.0430252 0.9917045 -0.0430252 0.9917045 -0.0430252 0.0082955 0.0430252
1136750000 0.0082586 0.0433541 0.9917414 -0.0433541 0.9917414 -0.0433541 0.0082586 0.0433541
1144000000 0.0082263 0.0436856 0.9917737 -0.0436856 0.9917737 -0.0436856 0.0082263 0.0436856
1151250000 0.0081983 0.0440191 0.9918017 -0.0440191 0.9918017 -0.0440191 0.0081983 0.0440191
1158500000 0.0081744 0.0443544 0.9918256 -0.0443544 0.9918256 -0.0443544 0.0081744 0.0443544
1165750000 0.0081546 0.0446911 0.9918454 -0.0446911 0.9918454 -0.0446911 0.0081546 0.0446911
1173000000 0.0081387 0.0450290 0.9918613 -0.0450290 0.9918613 -0.0450290 0.0081387 0.0450290
1180250000 0.0081264 0.0453679 0.9918736 -0.0453679 0.9918736 -0.0453679 0.0081264 0.0453679
1187500000 0.0081177 0.0457075 0.9918823 -0.0457075 0.9918823 -0.0457075 0.0081177 0.0457075
1194750000 0.0081123 0.0460478 0.9918877 -0.0460478 0.9918877 -0.0460478 0.0081123 0.0460478
1202000000 0.0081101 0.0463884 0.9918899 -0.0463884 0.9918899 -0.0463884 0.0081101 0.0463884
1209250000 0.0081109 0.0467294 0.9918891 -0.0467294 0.9918891 -0.0467294 0.0081109 0.0467294
1216500000 0.0081146 0.0470705 0.9918854 -0.0470705 0.9918854 -0.0470705 0.0081146 0.0470705
1223750000 0.0081211 0.0474118 0.9918789 -0.0474118 0.9918789 -0.0474118 0.0081211 0.0474118
1231000000 0.0081301 0.0477530 0.9918699 -0.0477530 0.9918699 -0.0477530 0.0081301 0.0477530
1238250000 0.0081416 0.0480941 0.9918584 -0.0480941 0.9918584 -0.0480941 0.0081416 0.0480941
1245500000 0.0081555 0.0484351 0.9918445 -0.0484351 0.9918445 -0.0484351 0.0081555 0.0484351
1252750000 0.0081715 0.0487759 0.9918285 -0.0487759 0.9918285 -0.0487759 0.0081715 0.0487759
1260000000 0.0081897 0.0491165 0.9918103 -0.0491165 0.9918103 -0.0491165 0.0081897 0.0491165
1267250000 0.0082099 0.0494568 0.9917901 -0.0494568 0.9917901 -0.0494568 0.0082099 0.0494568
1274500000 0.0082319 0.0497967 0.9917681 -0.0497967 0.9917681 -0.0497967 0.0082319 0.0497967
1281750000 0.0082558 0.0501363 0.9917442 -0.0501363 0.9917442 -0.0501363 0.0082558 0.0501363
1289000000 0.0082814 0.0504756 0.9917186 -0.0504756 0.9917186 -0.0504756 0.0082814 0.0504756
1296250000 0.0083086 0.0508145 0.9916914 -0.0508145 0.9916914 -0.0508145 0.0083086 0.0508145
1303500000 0.0083373 0.0511530 0.9916627 -0.0511530 0.9916627 -0.0511530 0.0083373 0.0511530
1310750000 0.0083676 0.0514911 0.9916324 -0.0514911 0.9916324 -0.0514911 0.0083676 0.0514911
1318000000 0.0083992 0.0518287 0.9916008 -0.0518287 0.9916008 -0.0518287 0.0083992 0.0518287
1325250000 0.0084322 0.0521660 0.9915678 -0.0521660 0.9915678 -0.0521660 0.0084322 0.0521660
1332500000 0.0084664 0.0525029 0.9915336 -0.0525029 0.9915336 -0.0525029 0.0084664 0.0525029
1339750000 0.0085019 0.0528393 0.9914981 -0.0528393 0.9914981 -0.0528393 0.0085019 0.0528393
1347000000 0.0085385 0.0531754 0.9914615 -0.0531754 0.9914615 -0.0531754 0.0085385 0.0531754
1354250000 0.0085762 0.0535110 0.9914238 -0.0535110 0.9914238 -0.0535110 0.0085762 0.0535110
1361500000 0.0086150 0.0538462 0.9913850 -0.0538462 0.9913850 -0.0538462 0.0086150 0.0538462
1368750000 0.0086548 0.0541811 0.9913452 -0.0541811 0.9913452 -0.0541811 0.0086548 0.0541811
1376000000 0.0086955 0.0545155 0.9913045 -0.0545155 0.9913045 -0.0545155 0.0086955 0.0545155
1383250000 0.0087372 0.0548496 0.9912628 -0.0548496 0.9912628 -0.0548496 0.0087372 0.0548496
1390500000 0.0087798 0.0551833 0.9912202 -0.0551833 0.9912202 -0.0551833 0.0087798 0.0551833
1397750000 0.0088232 0.0555166 0.9911768 -0.0555166 0.9911768 -0.0555166 0.0088232 0.0555166
1405000000 0.0088674 0.0558496 0.9911326 -0.0558496 0.9911326 -0.0558496 0.0088674 0.0558496
1412250000 0.0089125 0.0561823 0.9910875 -0.0561823 0.9910875 -0.0561823 0.0089125 0.0561823
1419500000 0.0089582 0.0565146 0.9910418 -0.0565146 0.9910418 -0.0565146 0.0089582 0.0565146
1426750000 0.0090047 0.0568465 0.9909953 -0.0568465 0.9909953 -0.0568465 0.0090047 0.0568465
1434000000 0.0090519 0.0571782 0.9909481 -0.0571782 0.9909481 -0.0571782 0.0090519 0.0571782
1441250000 0.0090998 0.0575096 0.9909002 -0.0575096 0.9909002 -0.0575096 0.0090998 0.0575096
1448500000 0.0091483 0.0578406 0.9908517 -0.0578406 0.9908517 -0.0578406 0.0091483 0.0578406
1455750000 0.0091974 0.0581714 0.9908026 -0.0581714 0.9908026 -0.0581714 0.0091974 0.0581714
1463000000 0.0092472 0.0585020 0.9907528 -0.0585020 0.9907528 -0.0585020 0.0092472 0.0585020
1470250000 0.0092975 0.0588322 0.9907025 -0.0588322 0.9907025 -0.0588322 0.0092975 0.0588322
1477500000 0.0093484 0.0591622 0.9906516 -0.0591622 0.9906516 -0.0591622 0.0093484 0.0591622
1484750000 0.0093998 0.0594920 0.9906002 -0.0594920 0.9906002 -0.0594920 0.0093998 0.0594920
1492000000 0.0094517 0.0598216 0.9905483 -0.0598216 0.9905483 -0.0598216 0.0094517 0.0598216
1499250000 0.0095042 0.0601509 0.9904958 -0.0601509 0.9904958 -0.0601509 0.0095042 0.0601509
1506500000 0.0095572 0.0604800 0.9904428 -0.0604800 0.9904428 -0.0604800 0.0095572 0.0604800
1513750000 0.0096106 0.0608089 0.9903894 -0.0608089 0.9903894 -0.0608089 0.0096106 0.0608089
1521000000 0.0096645 0.0611377 0.9903355 -0.0611377 0.9903355 -0.0611377 0.0096645 0.0611377
1528250000 0.0097189 0.0614663 0.9902811 -0.0614663 0.9902811 -0.0614663 0.0097189 0.0614663
1535500000 0.0097736 0.0617947 0.9902264 -0.0617947 0.9902264 -0.0617947 0.0097736 0.0617947
1542750000 0.0098289 0.0621229 0.9901711 -0.0621229 0.9901711 -0.0621229 0.0098289 0.0621229
1550000000 0.0098845 0.0624510 0.9901155 -0.0624510 0.9901155 -0.0624510 0.0098845 0.0624510
1557250000 0.0099406 0.0627790 0.9900594 -0.0627790 0.9900594 -0.0627790 0.0099406 0.0627790
1564500000 0.0099970 0.0631068 0.9900030 -0.0631068 0.9900030 -0.0631068 0.0099970 0.0631068
1571750000 0.0100539 0.0634346 0.9899461 -0.0634346 0.9899461 -0.0634346 0.0100539 0.0634346
1579000000 0.0101111 0.0637622 0.9898889 -0.0637622 0.9898889 -0.0637622 0.0101111 0.0637622
1586250000 0.0101687 0.0640897 0.9898313 -0.0640897 0.9898313 -0.0640897 0.0101687 0.0640897
1593500000 0.0102267 0.0644172 0.9897733 -0.0644172 0.9897733 -0.0644172 0.0102267 0.0644172
1600750000 0.0102850 0.0647445 0.9897150 -0.0647445 0.9897150 -0.0647445 0.0102850 0.0647445
1608000000 0.0103436 0.0650718 0.9896564 -0.0650718 0.9896564 -0.0650718 0.0103436 0.0650718
1615250000 0.0104026 0.0653990 0.9895974 -0.0653990 0.9895974 -0.0653990 0.0104026 0.0653990
1622500000 0.0104620 0.0657262 0.9895380 -0.0657262 0.9895380 -0.0657262 0.0104620 0.0657262
1629750000 0.0105217 0.0660533 0.9894783 -0.0660533 0.9894783 -0.0660533 0.0105217 0.0660533
