!Murata Part Number: GRM2162C2A332JA01
!These Parameters are Measured in Series Mode Connection
!Data Generated on Mar 30, 2021
!       o--ll--o
!Port1            Port2
!       o------o
!Operation Temp=25[degC], DC Bias Voltage=0[V]
!Freq. Start=1000[kHz] Stop=6[GHz] 401[Steps]
# Hz S RI R 50
!Freq.(Hz) S11(Real) S11(Imag) S21(Real) S21(Imag) S12(Real) S12(Imag) S22(Real) S22(Imag)
1000000 0.1932668 -0.3947374 0.8067332 0.3947374 0.8067332 0.3947374 0.1932668 -0.3947374
1021987 0.1865776 -0.3894463 0.8134224 0.3894463 0.8134224 0.3894463 0.1865776 -0.3894463
1044457 0.1800683 -0.3841159 0.8199317 0.3841159 0.8199317 0.3841159 0.1800683 -0.3841159
1067422 0.1737378 -0.3787525 0.8262622 0.3787525 0.8262622 0.3787525 0.1737378 -0.3787525
1090891 0.1675844 -0.3733626 0.8324156 0.3733626 0.8324156 0.3733626 0.1675844 -0.3733626
1114877 0.1616064 -0.3679522 0.8383936 0.3679522 0.8383936 0.3679522 0.1616064 -0.3679522
1139390 0.1558019 -0.3625273 0.8441981 0.3625273 0.8441981 0.3625273 0.1558019 -0.3625273
1164441 0.1501687 -0.3570934 0.8498313 0.3570934 0.8498313 0.3570934 0.1501687 -0.3570934
1190044 0.1447043 -0.3516560 0.8552957 0.3516560 0.8552957 0.3516560 0.1447043 -0.3516560
1216210 0.1394062 -0.3462202 0.8605938 0.3462202 0.8605938 0.3462202 0.1394062 -0.3462202
1242950 0.1342718 -0.3407911 0.8657282 0.3407911 0.8657282 0.3407911 0.1342718 -0.3407911
1270279 0.1292982 -0.3353733 0.8707018 0.3353733 0.8707018 0.3353733 0.1292982 -0.3353733
1298209 0.1244825 -0.3299713 0.8755175 0.3299713 0.8755175 0.3299713 0.1244825 -0.3299713
1326753 0.1198215 -0.3245894 0.8801785 0.3245894 0.8801785 0.3245894 0.1198215 -0.3245894
1355924 0.1153122 -0.3192314 0.8846878 0.3192314 0.8846878 0.3192314 0.1153122 -0.3192314
1385737 0.1109514 -0.3139013 0.8890486 0.3139013 0.8890486 0.3139013 0.1109514 -0.3139013
1416205 0.1067356 -0.3086024 0.8932644 0.3086024 0.8932644 0.3086024 0.1067356 -0.3086024
1447343 0.1026617 -0.3033383 0.8973383 0.3033383 0.8973383 0.3033383 0.1026617 -0.3033383
1479166 0.0987263 -0.2981119 0.9012737 0.2981119 0.9012737 0.2981119 0.0987263 -0.2981119
1511688 0.0949258 -0.2929262 0.9050742 0.2929262 0.9050742 0.2929262 0.0949258 -0.2929262
1544926 0.0912570 -0.2877839 0.9087430 0.2877839 0.9087430 0.2877839 0.0912570 -0.2877839
1578894 0.0877163 -0.2826874 0.9122837 0.2826874 0.9122837 0.2826874 0.0877163 -0.2826874
1613609 0.0843005 -0.2776390 0.9156995 0.2776390 0.9156995 0.2776390 0.0843005 -0.2776390
1649087 0.0810059 -0.2726409 0.9189941 0.2726409 0.9189941 0.2726409 0.0810059 -0.2726409
1685346 0.0778293 -0.2676950 0.9221707 0.2676950 0.9221707 0.2676950 0.0778293 -0.2676950
1722402 0.0747673 -0.2628031 0.9252327 0.2628031 0.9252327 0.2628031 0.0747673 -0.2628031
1760272 0.0718165 -0.2579667 0.9281835 0.2579667 0.9281835 0.2579667 0.0718165 -0.2579667
1798975 0.0689736 -0.2531873 0.9310264 0.2531873 0.9310264 0.2531873 0.0689736 -0.2531873
1838529 0.0662353 -0.2484662 0.9337647 0.2484662 0.9337647 0.2484662 0.0662353 -0.2484662
1878953 0.0635985 -0.2438045 0.9364015 0.2438045 0.9364015 0.2438045 0.0635985 -0.2438045
1920266 0.0610599 -0.2392032 0.9389401 0.2392032 0.9389401 0.2392032 0.0610599 -0.2392032
1962487 0.0586164 -0.2346632 0.9413836 0.2346632 0.9413836 0.2346632 0.0586164 -0.2346632
2005636 0.0562650 -0.2301852 0.9437350 0.2301852 0.9437350 0.2301852 0.0562650 -0.2301852
2049734 0.0540027 -0.2257699 0.9459973 0.2257699 0.9459973 0.2257699 0.0540027 -0.2257699
2094801 0.0518264 -0.2214177 0.9481736 0.2214177 0.9481736 0.2214177 0.0518264 -0.2214177
2140860 0.0497334 -0.2171292 0.9502666 0.2171292 0.9502666 0.2171292 0.0497334 -0.2171292
2187931 0.0477208 -0.2129046 0.9522792 0.2129046 0.9522792 0.2129046 0.0477208 -0.2129046
2236037 0.0457859 -0.2087441 0.9542141 0.2087441 0.9542141 0.2087441 0.0457859 -0.2087441
2285201 0.0439260 -0.2046479 0.9560740 0.2046479 0.9560740 0.2046479 0.0439260 -0.2046479
2335446 0.0421384 -0.2006160 0.9578616 0.2006160 0.9578616 0.2006160 0.0421384 -0.2006160
2386795 0.0404206 -0.1966484 0.9595794 0.1966484 0.9595794 0.1966484 0.0404206 -0.1966484
2439274 0.0387702 -0.1927450 0.9612298 0.1927450 0.9612298 0.1927450 0.0387702 -0.1927450
2492906 0.0371847 -0.1889056 0.9628153 0.1889056 0.9628153 0.1889056 0.0371847 -0.1889056
2547717 0.0356618 -0.1851300 0.9643382 0.1851300 0.9643382 0.1851300 0.0356618 -0.1851300
2603734 0.0341991 -0.1814179 0.9658009 0.1814179 0.9658009 0.1814179 0.0341991 -0.1814179
2660982 0.0327946 -0.1777690 0.9672054 0.1777690 0.9672054 0.1777690 0.0327946 -0.1777690
2719490 0.0314461 -0.1741829 0.9685539 0.1741829 0.9685539 0.1741829 0.0314461 -0.1741829
2779283 0.0301514 -0.1706591 0.9698486 0.1706591 0.9698486 0.1706591 0.0301514 -0.1706591
2840391 0.0289085 -0.1671972 0.9710915 0.1671972 0.9710915 0.1671972 0.0289085 -0.1671972
2902843 0.0277156 -0.1637967 0.9722844 0.1637967 0.9722844 0.1637967 0.0277156 -0.1637967
2966668 0.0265708 -0.1604570 0.9734292 0.1604570 0.9734292 0.1604570 0.0265708 -0.1604570
3031896 0.0254721 -0.1571775 0.9745279 0.1571775 0.9745279 0.1571775 0.0254721 -0.1571775
3098558 0.0244179 -0.1539576 0.9755821 0.1539576 0.9755821 0.1539576 0.0244179 -0.1539576
3166686 0.0234064 -0.1507967 0.9765936 0.1507967 0.9765936 0.1507967 0.0234064 -0.1507967
3236312 0.0224360 -0.1476941 0.9775640 0.1476941 0.9775640 0.1476941 0.0224360 -0.1476941
3307469 0.0215051 -0.1446492 0.9784949 0.1446492 0.9784949 0.1446492 0.0215051 -0.1446492
3380190 0.0206122 -0.1416612 0.9793878 0.1416612 0.9793878 0.1416612 0.0206122 -0.1416612
3454511 0.0197557 -0.1387294 0.9802443 0.1387294 0.9802443 0.1387294 0.0197557 -0.1387294
3530465 0.0189343 -0.1358531 0.9810657 0.1358531 0.9810657 0.1358531 0.0189343 -0.1358531
3608090 0.0181466 -0.1330315 0.9818534 0.1330315 0.9818534 0.1330315 0.0181466 -0.1330315
3687421 0.0173913 -0.1302640 0.9826087 0.1302640 0.9826087 0.1302640 0.0173913 -0.1302640
3768496 0.0166670 -0.1275496 0.9833330 0.1275496 0.9833330 0.1275496 0.0166670 -0.1275496
3851354 0.0159725 -0.1248877 0.9840275 0.1248877 0.9840275 0.1248877 0.0159725 -0.1248877
3936034 0.0153067 -0.1222775 0.9846933 0.1222775 0.9846933 0.1222775 0.0153067 -0.1222775
4022575 0.0146684 -0.1197182 0.9853316 0.1197182 0.9853316 0.1197182 0.0146684 -0.1197182
4111020 0.0140565 -0.1172090 0.9859435 0.1172090 0.9859435 0.1172090 0.0140565 -0.1172090
4201409 0.0134700 -0.1147491 0.9865300 0.1147491 0.9865300 0.1147491 0.0134700 -0.1147491
4293785 0.0129077 -0.1123378 0.9870923 0.1123378 0.9870923 0.1123378 0.0129077 -0.1123378
4388193 0.0123688 -0.1099742 0.9876312 0.1099742 0.9876312 0.1099742 0.0123688 -0.1099742
4484676 0.0118523 -0.1076575 0.9881477 0.1076575 0.9881477 0.1076575 0.0118523 -0.1076575
4583281 0.0113573 -0.1053871 0.9886427 0.1053871 0.9886427 0.1053871 0.0113573 -0.1053871
4684054 0.0108829 -0.1031620 0.9891171 0.1031620 0.9891171 0.1031620 0.0108829 -0.1031620
4787042 0.0104283 -0.1009816 0.9895717 0.1009816 0.9895717 0.1009816 0.0104283 -0.1009816
4892295 0.0099927 -0.0988450 0.9900073 0.0988450 0.9900073 0.0988450 0.0099927 -0.0988450
4999862 0.0095752 -0.0967515 0.9904248 0.0967515 0.9904248 0.0967515 0.0095752 -0.0967515
5109794 0.0091752 -0.0947004 0.9908248 0.0947004 0.9908248 0.0947004 0.0091752 -0.0947004
5222143 0.0087920 -0.0926907 0.9912080 0.0926907 0.9912080 0.0926907 0.0087920 -0.0926907
5336962 0.0084248 -0.0907219 0.9915752 0.0907219 0.9915752 0.0907219 0.0084248 -0.0907219
5454306 0.0080729 -0.0887932 0.9919271 0.0887932 0.9919271 0.0887932 0.0080729 -0.0887932
5574230 0.0077359 -0.0869038 0.9922641 0.0869038 0.9922641 0.0869038 0.0077359 -0.0869038
5696791 0.0074130 -0.0850530 0.9925870 0.0850530 0.9925870 0.0850530 0.0074130 -0.0850530
5822046 0.0071036 -0.0832401 0.9928964 0.0832401 0.9928964 0.0832401 0.0071036 -0.0832401
5950055 0.0068073 -0.0814644 0.9931927 0.0814644 0.9931927 0.0814644 0.0068073 -0.0814644
6080879 0.0065234 -0.0797252 0.9934766 0.0797252 0.9934766 0.0797252 0.0065234 -0.0797252
6214580 0.0062515 -0.0780217 0.9937485 0.0780217 0.9937485 0.0780217 0.0062515 -0.0780217
6351220 0.0059910 -0.0763534 0.9940090 0.0763534 0.9940090 0.0763534 0.0059910 -0.0763534
6490864 0.0057415 -0.0747194 0.9942585 0.0747194 0.9942585 0.0747194 0.0057415 -0.0747194
6633579 0.0055025 -0.0731192 0.9944975 0.0731192 0.9944975 0.0731192 0.0055025 -0.0731192
6779431 0.0052736 -0.0715521 0.9947264 0.0715521 0.9947264 0.0715521 0.0052736 -0.0715521
6928491 0.0050544 -0.0700175 0.9949456 0.0700175 0.9949456 0.0700175 0.0050544 -0.0700175
7080828 0.0048444 -0.0685147 0.9951556 0.0685147 0.9951556 0.0685147 0.0048444 -0.0685147
7236514 0.0046434 -0.0670430 0.9953566 0.0670430 0.9953566 0.0670430 0.0046434 -0.0670430
7395623 0.0044508 -0.0656019 0.9955492 0.0656019 0.9955492 0.0656019 0.0044508 -0.0656019
7558231 0.0042664 -0.0641908 0.9957336 0.0641908 0.9957336 0.0641908 0.0042664 -0.0641908
7724414 0.0040898 -0.0628090 0.9959102 0.0628090 0.9959102 0.0628090 0.0040898 -0.0628090
7894251 0.0039206 -0.0614560 0.9960794 0.0614560 0.9960794 0.0614560 0.0039206 -0.0614560
8067822 0.0037587 -0.0601312 0.9962413 0.0601312 0.9962413 0.0601312 0.0037587 -0.0601312
8245209 0.0036036 -0.0588340 0.9963964 0.0588340 0.9963964 0.0588340 0.0036036 -0.0588340
8426497 0.0034551 -0.0575639 0.9965449 0.0575639 0.9965449 0.0575639 0.0034551 -0.0575639
8611770 0.0033130 -0.0563203 0.9966870 0.0563203 0.9966870 0.0563203 0.0033130 -0.0563203
8801117 0.0031768 -0.0551026 0.9968232 0.0551026 0.9968232 0.0551026 0.0031768 -0.0551026
8994628 0.0030465 -0.0539103 0.9969535 0.0539103 0.9969535 0.0539103 0.0030465 -0.0539103
9192393 0.0029217 -0.0527430 0.9970783 0.0527430 0.9970783 0.0527430 0.0029217 -0.0527430
9394506 0.0028023 -0.0516000 0.9971977 0.0516000 0.9971977 0.0516000 0.0028023 -0.0516000
9601063 0.0026879 -0.0504810 0.9973121 0.0504810 0.9973121 0.0504810 0.0026879 -0.0504810
9812162 0.0025784 -0.0493853 0.9974216 0.0493853 0.9974216 0.0493853 0.0025784 -0.0493853
10027902 0.0024736 -0.0483126 0.9975264 0.0483126 0.9975264 0.0483126 0.0024736 -0.0483126
10248386 0.0023733 -0.0472623 0.9976267 0.0472623 0.9976267 0.0472623 0.0023733 -0.0472623
10473717 0.0022772 -0.0462339 0.9977228 0.0462339 0.9977228 0.0462339 0.0022772 -0.0462339
10704003 0.0021853 -0.0452270 0.9978147 0.0452270 0.9978147 0.0452270 0.0021853 -0.0452270
10939352 0.0020973 -0.0442412 0.9979027 0.0442412 0.9979027 0.0442412 0.0020973 -0.0442412
11179876 0.0020131 -0.0432760 0.9979869 0.0432760 0.9979869 0.0432760 0.0020131 -0.0432760
11425688 0.0019326 -0.0423310 0.9980674 0.0423310 0.9980674 0.0423310 0.0019326 -0.0423310
11676904 0.0018555 -0.0414057 0.9981445 0.0414057 0.9981445 0.0414057 0.0018555 -0.0414057
11933645 0.0017817 -0.0404998 0.9982183 0.0404998 0.9982183 0.0404998 0.0017817 -0.0404998
12196030 0.0017111 -0.0396127 0.9982889 0.0396127 0.9982889 0.0396127 0.0017111 -0.0396127
12464184 0.0016435 -0.0387442 0.9983565 0.0387442 0.9983565 0.0387442 0.0016435 -0.0387442
12738235 0.0015789 -0.0378938 0.9984211 0.0378938 0.9984211 0.0378938 0.0015789 -0.0378938
13018310 0.0015170 -0.0370611 0.9984830 0.0370611 0.9984830 0.0370611 0.0015170 -0.0370611
13304544 0.0014579 -0.0362458 0.9985421 0.0362458 0.9985421 0.0362458 0.0014579 -0.0362458
13597071 0.0014013 -0.0354475 0.9985987 0.0354475 0.9985987 0.0354475 0.0014013 -0.0354475
13896030 0.0013471 -0.0346658 0.9986529 0.0346658 0.9986529 0.0346658 0.0013471 -0.0346658
14201563 0.0012954 -0.0339003 0.9987046 0.0339003 0.9987046 0.0339003 0.0012954 -0.0339003
14513813 0.0012459 -0.0331508 0.9987541 0.0331508 0.9987541 0.0331508 0.0012459 -0.0331508
14832928 0.0011985 -0.0324168 0.9988015 0.0324168 0.9988015 0.0324168 0.0011985 -0.0324168
15159060 0.0011533 -0.0316981 0.9988467 0.0316981 0.9988467 0.0316981 0.0011533 -0.0316981
15492362 0.0011100 -0.0309942 0.9988900 0.0309942 0.9988900 0.0309942 0.0011100 -0.0309942
15832993 0.0010686 -0.0303049 0.9989314 0.0303049 0.9989314 0.0303049 0.0010686 -0.0303049
16181113 0.0010291 -0.0296299 0.9989709 0.0296299 0.9989709 0.0296299 0.0010291 -0.0296299
16536888 0.0009913 -0.0289689 0.9990087 0.0289689 0.9990087 0.0289689 0.0009913 -0.0289689
16900485 0.0009552 -0.0283214 0.9990448 0.0283214 0.9990448 0.0283214 0.0009552 -0.0283214
17272076 0.0009207 -0.0276873 0.9990793 0.0276873 0.9990793 0.0276873 0.0009207 -0.0276873
17651837 0.0008877 -0.0270663 0.9991123 0.0270663 0.9991123 0.0270663 0.0008877 -0.0270663
18039948 0.0008562 -0.0264580 0.9991438 0.0264580 0.9991438 0.0264580 0.0008562 -0.0264580
18436593 0.0008261 -0.0258622 0.9991739 0.0258622 0.9991739 0.0258622 0.0008261 -0.0258622
18841959 0.0007974 -0.0252786 0.9992026 0.0252786 0.9992026 0.0252786 0.0007974 -0.0252786
19256237 0.0007700 -0.0247070 0.9992300 0.0247070 0.9992300 0.0247070 0.0007700 -0.0247070
19679624 0.0007438 -0.0241470 0.9992562 0.0241470 0.9992562 0.0241470 0.0007438 -0.0241470
20112321 0.0007188 -0.0235984 0.9992812 0.0235984 0.9992812 0.0235984 0.0007188 -0.0235984
20554530 0.0006949 -0.0230610 0.9993051 0.0230610 0.9993051 0.0230610 0.0006949 -0.0230610
21006463 0.0006722 -0.0225345 0.9993278 0.0225345 0.9993278 0.0225345 0.0006722 -0.0225345
21468333 0.0006505 -0.0220186 0.9993495 0.0220186 0.9993495 0.0220186 0.0006505 -0.0220186
21940357 0.0006298 -0.0215131 0.9993702 0.0215131 0.9993702 0.0215131 0.0006298 -0.0215131
22422760 0.0006100 -0.0210179 0.9993900 0.0210179 0.9993900 0.0210179 0.0006100 -0.0210179
22915770 0.0005912 -0.0205326 0.9994088 0.0205326 0.9994088 0.0205326 0.0005912 -0.0205326
23419619 0.0005732 -0.0200570 0.9994268 0.0200570 0.9994268 0.0200570 0.0005732 -0.0200570
23934547 0.0005561 -0.0195909 0.9994439 0.0195909 0.9994439 0.0195909 0.0005561 -0.0195909
24460796 0.0005398 -0.0191341 0.9994602 0.0191341 0.9994602 0.0191341 0.0005398 -0.0191341
24998616 0.0005243 -0.0186864 0.9994757 0.0186864 0.9994757 0.0186864 0.0005243 -0.0186864
25548261 0.0005095 -0.0182475 0.9994905 0.0182475 0.9994905 0.0182475 0.0005095 -0.0182475
26109991 0.0004955 -0.0178173 0.9995045 0.0178173 0.9995045 0.0178173 0.0004955 -0.0178173
26684072 0.0004821 -0.0173955 0.9995179 0.0173955 0.9995179 0.0173955 0.0004821 -0.0173955
27270775 0.0004693 -0.0169820 0.9995307 0.0169820 0.9995307 0.0169820 0.0004693 -0.0169820
27870378 0.0004572 -0.0165766 0.9995428 0.0165766 0.9995428 0.0165766 0.0004572 -0.0165766
28483164 0.0004457 -0.0161790 0.9995543 0.0161790 0.9995543 0.0161790 0.0004457 -0.0161790
29109424 0.0004348 -0.0157892 0.9995652 0.0157892 0.9995652 0.0157892 0.0004348 -0.0157892
29749453 0.0004244 -0.0154068 0.9995756 0.0154068 0.9995756 0.0154068 0.0004244 -0.0154068
30403555 0.0004145 -0.0150317 0.9995855 0.0150317 0.9995855 0.0150317 0.0004145 -0.0150317
31072038 0.0004052 -0.0146638 0.9995948 0.0146638 0.9995948 0.0146638 0.0004052 -0.0146638
31755220 0.0003963 -0.0143029 0.9996037 0.0143029 0.9996037 0.0143029 0.0003963 -0.0143029
32453422 0.0003879 -0.0139487 0.9996121 0.0139487 0.9996121 0.0139487 0.0003879 -0.0139487
33166976 0.0003799 -0.0136012 0.9996201 0.0136012 0.9996201 0.0136012 0.0003799 -0.0136012
33896219 0.0003723 -0.0132602 0.9996277 0.0132602 0.9996277 0.0132602 0.0003723 -0.0132602
34641496 0.0003652 -0.0129255 0.9996348 0.0129255 0.9996348 0.0129255 0.0003652 -0.0129255
35403159 0.0003585 -0.0125969 0.9996415 0.0125969 0.9996415 0.0125969 0.0003585 -0.0125969
36181569 0.0003521 -0.0122743 0.9996479 0.0122743 0.9996479 0.0122743 0.0003521 -0.0122743
36977093 0.0003461 -0.0119576 0.9996539 0.0119576 0.9996539 0.0119576 0.0003461 -0.0119576
37790109 0.0003404 -0.0116465 0.9996596 0.0116465 0.9996596 0.0116465 0.0003404 -0.0116465
38621001 0.0003350 -0.0113410 0.9996650 0.0113410 0.9996650 0.0113410 0.0003350 -0.0113410
39470161 0.0003300 -0.0110409 0.9996700 0.0110409 0.9996700 0.0110409 0.0003300 -0.0110409
40337993 0.0003253 -0.0107460 0.9996747 0.0107460 0.9996747 0.0107460 0.0003253 -0.0107460
41224905 0.0003208 -0.0104562 0.9996792 0.0104562 0.9996792 0.0104562 0.0003208 -0.0104562
42131317 0.0003167 -0.0101714 0.9996833 0.0101714 0.9996833 0.0101714 0.0003167 -0.0101714
43057659 0.0003128 -0.0098915 0.9996872 0.0098915 0.9996872 0.0098915 0.0003128 -0.0098915
44004369 0.0003092 -0.0096163 0.9996908 0.0096163 0.9996908 0.0096163 0.0003092 -0.0096163
44971893 0.0003059 -0.0093456 0.9996941 0.0093456 0.9996941 0.0093456 0.0003059 -0.0093456
45960691 0.0003027 -0.0090794 0.9996973 0.0090794 0.9996973 0.0090794 0.0003027 -0.0090794
46971230 0.0002999 -0.0088175 0.9997001 0.0088175 0.9997001 0.0088175 0.0002999 -0.0088175
48003987 0.0002972 -0.0085597 0.9997028 0.0085597 0.9997028 0.0085597 0.0002972 -0.0085597
49059451 0.0002948 -0.0083061 0.9997052 0.0083061 0.9997052 0.0083061 0.0002948 -0.0083061
50138122 0.0002926 -0.0080564 0.9997074 0.0080564 0.9997074 0.0080564 0.0002926 -0.0080564
51240510 0.0002906 -0.0078105 0.9997094 0.0078105 0.9997094 0.0078105 0.0002906 -0.0078105
52367136 0.0002888 -0.0075683 0.9997112 0.0075683 0.9997112 0.0075683 0.0002888 -0.0075683
53518533 0.0002872 -0.0073297 0.9997128 0.0073297 0.9997128 0.0073297 0.0002872 -0.0073297
54695245 0.0002858 -0.0070945 0.9997142 0.0070945 0.9997142 0.0070945 0.0002858 -0.0070945
55897831 0.0002846 -0.0068628 0.9997154 0.0068628 0.9997154 0.0068628 0.0002846 -0.0068628
57126857 0.0002836 -0.0066343 0.9997164 0.0066343 0.9997164 0.0066343 0.0002836 -0.0066343
58382906 0.0002827 -0.0064089 0.9997173 0.0064089 0.9997173 0.0064089 0.0002827 -0.0064089
59666572 0.0002821 -0.0061865 0.9997179 0.0061865 0.9997179 0.0061865 0.0002821 -0.0061865
60978462 0.0002816 -0.0059671 0.9997184 0.0059671 0.9997184 0.0059671 0.0002816 -0.0059671
62319196 0.0002813 -0.0057504 0.9997187 0.0057504 0.9997187 0.0057504 0.0002813 -0.0057504
63689409 0.0002812 -0.0055365 0.9997188 0.0055365 0.9997188 0.0055365 0.0002812 -0.0055365
65089750 0.0002813 -0.0053251 0.9997187 0.0053251 0.9997187 0.0053251 0.0002813 -0.0053251
66520879 0.0002815 -0.0051163 0.9997185 0.0051163 0.9997185 0.0051163 0.0002815 -0.0051163
67983474 0.0002819 -0.0049099 0.9997181 0.0049099 0.9997181 0.0049099 0.0002819 -0.0049099
69478228 0.0002825 -0.0047057 0.9997175 0.0047057 0.9997175 0.0047057 0.0002825 -0.0047057
71005847 0.0002832 -0.0045037 0.9997168 0.0045037 0.9997168 0.0045037 0.0002832 -0.0045037
72567054 0.0002842 -0.0043039 0.9997158 0.0043039 0.9997158 0.0043039 0.0002842 -0.0043039
74162587 0.0002853 -0.0041060 0.9997147 0.0041060 0.9997147 0.0041060 0.0002853 -0.0041060
75793201 0.0002866 -0.0039100 0.9997134 0.0039100 0.9997134 0.0039100 0.0002866 -0.0039100
77459667 0.0002881 -0.0037158 0.9997119 0.0037158 0.9997119 0.0037158 0.0002881 -0.0037158
79162774 0.0002898 -0.0035233 0.9997102 0.0035233 0.9997102 0.0035233 0.0002898 -0.0035233
80903327 0.0002917 -0.0033324 0.9997083 0.0033324 0.9997083 0.0033324 0.0002917 -0.0033324
82682150 0.0002937 -0.0031430 0.9997063 0.0031430 0.9997063 0.0031430 0.0002937 -0.0031430
84500083 0.0002960 -0.0029549 0.9997040 0.0029549 0.9997040 0.0029549 0.0002960 -0.0029549
86357988 0.0002985 -0.0027682 0.9997015 0.0027682 0.9997015 0.0027682 0.0002985 -0.0027682
88256743 0.0003012 -0.0025827 0.9996988 0.0025827 0.9996988 0.0025827 0.0003012 -0.0025827
90197245 0.0003041 -0.0023983 0.9996959 0.0023983 0.9996959 0.0023983 0.0003041 -0.0023983
92180413 0.0003073 -0.0022149 0.9996927 0.0022149 0.9996927 0.0022149 0.0003073 -0.0022149
94207185 0.0003107 -0.0020325 0.9996893 0.0020325 0.9996893 0.0020325 0.0003107 -0.0020325
96278520 0.0003143 -0.0018508 0.9996857 0.0018508 0.9996857 0.0018508 0.0003143 -0.0018508
98395398 0.0003182 -0.0016699 0.9996818 0.0016699 0.9996818 0.0016699 0.0003182 -0.0016699
100558819 0.0003224 -0.0014895 0.9996776 0.0014895 0.9996776 0.0014895 0.0003224 -0.0014895
102769807 0.0003268 -0.0013097 0.9996732 0.0013097 0.9996732 0.0013097 0.0003268 -0.0013097
105029408 0.0003316 -0.0011303 0.9996684 0.0011303 0.9996684 0.0011303 0.0003316 -0.0011303
107338692 0.0003367 -0.0009512 0.9996633 0.0009512 0.9996633 0.0009512 0.0003367 -0.0009512
