!Murata Part Number: GRM2192C1H562JA01
!These Parameters are Measured in Series Mode Connection
!Data Generated on Mar 30, 2021
!       o--ll--o
!Port1            Port2
!       o------o
!Operation Temp=25[degC], DC Bias Voltage=0[V]
!Freq. Start=1000[kHz] Stop=6[GHz] 401[Steps]
# Hz S RI R 50
!Freq.(Hz) S11(Real) S11(Imag) S21(Real) S21(Imag) S12(Real) S12(Imag) S22(Real) S22(Imag)
1000000 0.0762424 -0.2652791 0.9237576 0.2652791 0.9237576 0.2652791 0.0762424 -0.2652791
1021987 0.0732362 -0.2604149 0.9267638 0.2604149 0.9267638 0.2604149 0.0732362 -0.2604149
1044457 0.0703396 -0.2556071 0.9296604 0.2556071 0.9296604 0.2556071 0.0703396 -0.2556071
1067422 0.0675493 -0.2508570 0.9324507 0.2508570 0.9324507 0.2508570 0.0675493 -0.2508570
1090891 0.0648619 -0.2461657 0.9351381 0.2461657 0.9351381 0.2461657 0.0648619 -0.2461657
1114877 0.0622745 -0.2415344 0.9377255 0.2415344 0.9377255 0.2415344 0.0622745 -0.2415344
1139390 0.0597837 -0.2369639 0.9402163 0.2369639 0.9402163 0.2369639 0.0597837 -0.2369639
1164441 0.0573864 -0.2324552 0.9426136 0.2324552 0.9426136 0.2324552 0.0573864 -0.2324552
1190044 0.0550798 -0.2280088 0.9449202 0.2280088 0.9449202 0.2280088 0.0550798 -0.2280088
1216210 0.0528607 -0.2236254 0.9471393 0.2236254 0.9471393 0.2236254 0.0528607 -0.2236254
1242950 0.0507263 -0.2193054 0.9492737 0.2193054 0.9492737 0.2193054 0.0507263 -0.2193054
1270279 0.0486737 -0.2150492 0.9513263 0.2150492 0.9513263 0.2150492 0.0486737 -0.2150492
1298209 0.0467002 -0.2108570 0.9532998 0.2108570 0.9532998 0.2108570 0.0467002 -0.2108570
1326753 0.0448030 -0.2067291 0.9551970 0.2067291 0.9551970 0.2067291 0.0448030 -0.2067291
1355924 0.0429794 -0.2026655 0.9570206 0.2026655 0.9570206 0.2026655 0.0429794 -0.2026655
1385737 0.0412269 -0.1986662 0.9587731 0.1986662 0.9587731 0.1986662 0.0412269 -0.1986662
1416205 0.0395430 -0.1947311 0.9604570 0.1947311 0.9604570 0.1947311 0.0395430 -0.1947311
1447343 0.0379252 -0.1908602 0.9620748 0.1908602 0.9620748 0.1908602 0.0379252 -0.1908602
1479166 0.0363712 -0.1870533 0.9636288 0.1870533 0.9636288 0.1870533 0.0363712 -0.1870533
1511688 0.0348786 -0.1833100 0.9651214 0.1833100 0.9651214 0.1833100 0.0348786 -0.1833100
1544926 0.0334452 -0.1796301 0.9665548 0.1796301 0.9665548 0.1796301 0.0334452 -0.1796301
1578894 0.0320689 -0.1760132 0.9679311 0.1760132 0.9679311 0.1760132 0.0320689 -0.1760132
1613609 0.0307474 -0.1724589 0.9692526 0.1724589 0.9692526 0.1724589 0.0307474 -0.1724589
1649087 0.0294788 -0.1689668 0.9705212 0.1689668 0.9705212 0.1689668 0.0294788 -0.1689668
1685346 0.0282611 -0.1655362 0.9717389 0.1655362 0.9717389 0.1655362 0.0282611 -0.1655362
1722402 0.0270924 -0.1621668 0.9729076 0.1621668 0.9729076 0.1621668 0.0270924 -0.1621668
1760272 0.0259707 -0.1588580 0.9740293 0.1588580 0.9740293 0.1588580 0.0259707 -0.1588580
1798975 0.0248944 -0.1556091 0.9751056 0.1556091 0.9751056 0.1556091 0.0248944 -0.1556091
1838529 0.0238617 -0.1524195 0.9761383 0.1524195 0.9761383 0.1524195 0.0238617 -0.1524195
1878953 0.0228709 -0.1492885 0.9771291 0.1492885 0.9771291 0.1492885 0.0228709 -0.1492885
1920266 0.0219204 -0.1462156 0.9780796 0.1462156 0.9780796 0.1462156 0.0219204 -0.1462156
1962487 0.0210086 -0.1432000 0.9789914 0.1432000 0.9789914 0.1432000 0.0210086 -0.1432000
2005636 0.0201340 -0.1402410 0.9798660 0.1402410 0.9798660 0.1402410 0.0201340 -0.1402410
2049734 0.0192952 -0.1373379 0.9807048 0.1373379 0.9807048 0.1373379 0.0192952 -0.1373379
2094801 0.0184908 -0.1344899 0.9815092 0.1344899 0.9815092 0.1344899 0.0184908 -0.1344899
2140860 0.0177194 -0.1316963 0.9822806 0.1316963 0.9822806 0.1316963 0.0177194 -0.1316963
2187931 0.0169796 -0.1289564 0.9830204 0.1289564 0.9830204 0.1289564 0.0169796 -0.1289564
2236037 0.0162704 -0.1262693 0.9837296 0.1262693 0.9837296 0.1262693 0.0162704 -0.1262693
2285201 0.0155903 -0.1236343 0.9844097 0.1236343 0.9844097 0.1236343 0.0155903 -0.1236343
2335446 0.0149384 -0.1210506 0.9850616 0.1210506 0.9850616 0.1210506 0.0149384 -0.1210506
2386795 0.0143133 -0.1185175 0.9856867 0.1185175 0.9856867 0.1185175 0.0143133 -0.1185175
2439274 0.0137142 -0.1160340 0.9862858 0.1160340 0.9862858 0.1160340 0.0137142 -0.1160340
2492906 0.0131399 -0.1135996 0.9868601 0.1135996 0.9868601 0.1135996 0.0131399 -0.1135996
2547717 0.0125894 -0.1112133 0.9874106 0.1112133 0.9874106 0.1112133 0.0125894 -0.1112133
2603734 0.0120617 -0.1088744 0.9879383 0.1088744 0.9879383 0.1088744 0.0120617 -0.1088744
2660982 0.0115560 -0.1065821 0.9884440 0.1065821 0.9884440 0.1065821 0.0115560 -0.1065821
2719490 0.0110714 -0.1043357 0.9889286 0.1043357 0.9889286 0.1043357 0.0110714 -0.1043357
2779283 0.0106070 -0.1021342 0.9893930 0.1021342 0.9893930 0.1021342 0.0106070 -0.1021342
2840391 0.0101619 -0.0999771 0.9898381 0.0999771 0.9898381 0.0999771 0.0101619 -0.0999771
2902843 0.0097354 -0.0978634 0.9902646 0.0978634 0.9902646 0.0978634 0.0097354 -0.0978634
2966668 0.0093267 -0.0957925 0.9906733 0.0957925 0.9906733 0.0957925 0.0093267 -0.0957925
3031896 0.0089351 -0.0937635 0.9910649 0.0937635 0.9910649 0.0937635 0.0089351 -0.0937635
3098558 0.0085599 -0.0917758 0.9914401 0.0917758 0.9914401 0.0917758 0.0085599 -0.0917758
3166686 0.0082004 -0.0898285 0.9917996 0.0898285 0.9917996 0.0898285 0.0082004 -0.0898285
3236312 0.0078560 -0.0879210 0.9921440 0.0879210 0.9921440 0.0879210 0.0078560 -0.0879210
3307469 0.0075261 -0.0860525 0.9924739 0.0860525 0.9924739 0.0860525 0.0075261 -0.0860525
3380190 0.0072100 -0.0842223 0.9927900 0.0842223 0.9927900 0.0842223 0.0072100 -0.0842223
3454511 0.0069072 -0.0824296 0.9930928 0.0824296 0.9930928 0.0824296 0.0069072 -0.0824296
3530465 0.0066171 -0.0806738 0.9933829 0.0806738 0.9933829 0.0806738 0.0066171 -0.0806738
3608090 0.0063392 -0.0789542 0.9936608 0.0789542 0.9936608 0.0789542 0.0063392 -0.0789542
3687421 0.0060730 -0.0772701 0.9939270 0.0772701 0.9939270 0.0772701 0.0060730 -0.0772701
3768496 0.0058180 -0.0756207 0.9941820 0.0756207 0.9941820 0.0756207 0.0058180 -0.0756207
3851354 0.0055738 -0.0740055 0.9944262 0.0740055 0.9944262 0.0740055 0.0055738 -0.0740055
3936034 0.0053399 -0.0724237 0.9946601 0.0724237 0.9946601 0.0724237 0.0053399 -0.0724237
4022575 0.0051158 -0.0708748 0.9948842 0.0708748 0.9948842 0.0708748 0.0051158 -0.0708748
4111020 0.0049012 -0.0693580 0.9950988 0.0693580 0.9950988 0.0693580 0.0049012 -0.0693580
4201409 0.0046957 -0.0678728 0.9953043 0.0678728 0.9953043 0.0678728 0.0046957 -0.0678728
4293785 0.0044989 -0.0664185 0.9955011 0.0664185 0.9955011 0.0664185 0.0044989 -0.0664185
4388193 0.0043104 -0.0649945 0.9956896 0.0649945 0.9956896 0.0649945 0.0043104 -0.0649945
4484676 0.0041299 -0.0636002 0.9958701 0.0636002 0.9958701 0.0636002 0.0041299 -0.0636002
4583281 0.0039570 -0.0622350 0.9960430 0.0622350 0.9960430 0.0622350 0.0039570 -0.0622350
4684054 0.0037914 -0.0608983 0.9962086 0.0608983 0.9962086 0.0608983 0.0037914 -0.0608983
4787042 0.0036329 -0.0595896 0.9963671 0.0595896 0.9963671 0.0595896 0.0036329 -0.0595896
4892295 0.0034811 -0.0583082 0.9965189 0.0583082 0.9965189 0.0583082 0.0034811 -0.0583082
4999862 0.0033358 -0.0570537 0.9966642 0.0570537 0.9966642 0.0570537 0.0033358 -0.0570537
5109794 0.0031966 -0.0558255 0.9968034 0.0558255 0.9968034 0.0558255 0.0031966 -0.0558255
5222143 0.0030633 -0.0546231 0.9969367 0.0546231 0.9969367 0.0546231 0.0030633 -0.0546231
5336962 0.0029358 -0.0534458 0.9970642 0.0534458 0.9970642 0.0534458 0.0029358 -0.0534458
5454306 0.0028136 -0.0522933 0.9971864 0.0522933 0.9971864 0.0522933 0.0028136 -0.0522933
5574230 0.0026967 -0.0511649 0.9973033 0.0511649 0.9973033 0.0511649 0.0026967 -0.0511649
5696791 0.0025847 -0.0500603 0.9974153 0.0500603 0.9974153 0.0500603 0.0025847 -0.0500603
5822046 0.0024775 -0.0489789 0.9975225 0.0489789 0.9975225 0.0489789 0.0024775 -0.0489789
5950055 0.0023749 -0.0479202 0.9976251 0.0479202 0.9976251 0.0479202 0.0023749 -0.0479202
6080879 0.0022767 -0.0468837 0.9977233 0.0468837 0.9977233 0.0468837 0.0022767 -0.0468837
6214580 0.0021827 -0.0458691 0.9978173 0.0458691 0.9978173 0.0458691 0.0021827 -0.0458691
6351220 0.0020927 -0.0448758 0.9979073 0.0448758 0.9979073 0.0448758 0.0020927 -0.0448758
6490864 0.0020065 -0.0439033 0.9979935 0.0439033 0.9979935 0.0439033 0.0020065 -0.0439033
6633579 0.0019241 -0.0429514 0.9980759 0.0429514 0.9980759 0.0429514 0.0019241 -0.0429514
6779431 0.0018452 -0.0420195 0.9981548 0.0420195 0.9981548 0.0420195 0.0018452 -0.0420195
6928491 0.0017697 -0.0411071 0.9982303 0.0411071 0.9982303 0.0411071 0.0017697 -0.0411071
7080828 0.0016974 -0.0402140 0.9983026 0.0402140 0.9983026 0.0402140 0.0016974 -0.0402140
7236514 0.0016283 -0.0393397 0.9983717 0.0393397 0.9983717 0.0393397 0.0016283 -0.0393397
7395623 0.0015621 -0.0384837 0.9984379 0.0384837 0.9984379 0.0384837 0.0015621 -0.0384837
7558231 0.0014988 -0.0376458 0.9985012 0.0376458 0.9985012 0.0376458 0.0014988 -0.0376458
7724414 0.0014383 -0.0368255 0.9985617 0.0368255 0.9985617 0.0368255 0.0014383 -0.0368255
7894251 0.0013803 -0.0360224 0.9986197 0.0360224 0.9986197 0.0360224 0.0013803 -0.0360224
8067822 0.0013249 -0.0352362 0.9986751 0.0352362 0.9986751 0.0352362 0.0013249 -0.0352362
8245209 0.0012719 -0.0344665 0.9987281 0.0344665 0.9987281 0.0344665 0.0012719 -0.0344665
8426497 0.0012212 -0.0337130 0.9987788 0.0337130 0.9987788 0.0337130 0.0012212 -0.0337130
8611770 0.0011727 -0.0329753 0.9988273 0.0329753 0.9988273 0.0329753 0.0011727 -0.0329753
8801117 0.0011263 -0.0322532 0.9988737 0.0322532 0.9988737 0.0322532 0.0011263 -0.0322532
8994628 0.0010820 -0.0315461 0.9989180 0.0315461 0.9989180 0.0315461 0.0010820 -0.0315461
9192393 0.0010396 -0.0308539 0.9989604 0.0308539 0.9989604 0.0308539 0.0010396 -0.0308539
9394506 0.0009990 -0.0301762 0.9990010 0.0301762 0.9990010 0.0301762 0.0009990 -0.0301762
9601063 0.0009603 -0.0295127 0.9990397 0.0295127 0.9990397 0.0295127 0.0009603 -0.0295127
9812162 0.0009233 -0.0288631 0.9990767 0.0288631 0.9990767 0.0288631 0.0009233 -0.0288631
10027902 0.0008879 -0.0282271 0.9991121 0.0282271 0.9991121 0.0282271 0.0008879 -0.0282271
10248386 0.0008540 -0.0276044 0.9991460 0.0276044 0.9991460 0.0276044 0.0008540 -0.0276044
10473717 0.0008217 -0.0269947 0.9991783 0.0269947 0.9991783 0.0269947 0.0008217 -0.0269947
10704003 0.0007908 -0.0263977 0.9992092 0.0263977 0.9992092 0.0263977 0.0007908 -0.0263977
10939352 0.0007613 -0.0258132 0.9992387 0.0258132 0.9992387 0.0258132 0.0007613 -0.0258132
11179876 0.0007332 -0.0252409 0.9992668 0.0252409 0.9992668 0.0252409 0.0007332 -0.0252409
11425688 0.0007063 -0.0246805 0.9992937 0.0246805 0.9992937 0.0246805 0.0007063 -0.0246805
11676904 0.0006806 -0.0241317 0.9993194 0.0241317 0.9993194 0.0241317 0.0006806 -0.0241317
11933645 0.0006560 -0.0235943 0.9993440 0.0235943 0.9993440 0.0235943 0.0006560 -0.0235943
12196030 0.0006326 -0.0230681 0.9993674 0.0230681 0.9993674 0.0230681 0.0006326 -0.0230681
12464184 0.0006103 -0.0225528 0.9993897 0.0225528 0.9993897 0.0225528 0.0006103 -0.0225528
12738235 0.0005890 -0.0220482 0.9994110 0.0220482 0.9994110 0.0220482 0.0005890 -0.0220482
13018310 0.0005686 -0.0215540 0.9994314 0.0215540 0.9994314 0.0215540 0.0005686 -0.0215540
13304544 0.0005492 -0.0210700 0.9994508 0.0210700 0.9994508 0.0210700 0.0005492 -0.0210700
13597071 0.0005307 -0.0205960 0.9994693 0.0205960 0.9994693 0.0205960 0.0005307 -0.0205960
13896030 0.0005131 -0.0201318 0.9994869 0.0201318 0.9994869 0.0201318 0.0005131 -0.0201318
14201563 0.0004963 -0.0196771 0.9995037 0.0196771 0.9995037 0.0196771 0.0004963 -0.0196771
14513813 0.0004803 -0.0192317 0.9995197 0.0192317 0.9995197 0.0192317 0.0004803 -0.0192317
14832928 0.0004650 -0.0187954 0.9995350 0.0187954 0.9995350 0.0187954 0.0004650 -0.0187954
15159060 0.0004505 -0.0183681 0.9995495 0.0183681 0.9995495 0.0183681 0.0004505 -0.0183681
15492362 0.0004366 -0.0179495 0.9995634 0.0179495 0.9995634 0.0179495 0.0004366 -0.0179495
15832993 0.0004234 -0.0175393 0.9995766 0.0175393 0.9995766 0.0175393 0.0004234 -0.0175393
16181113 0.0004109 -0.0171376 0.9995891 0.0171376 0.9995891 0.0171376 0.0004109 -0.0171376
16536888 0.0003989 -0.0167439 0.9996011 0.0167439 0.9996011 0.0167439 0.0003989 -0.0167439
16900485 0.0003876 -0.0163583 0.9996124 0.0163583 0.9996124 0.0163583 0.0003876 -0.0163583
17272076 0.0003768 -0.0159803 0.9996232 0.0159803 0.9996232 0.0159803 0.0003768 -0.0159803
17651837 0.0003665 -0.0156100 0.9996335 0.0156100 0.9996335 0.0156100 0.0003665 -0.0156100
18039948 0.0003567 -0.0152472 0.9996433 0.0152472 0.9996433 0.0152472 0.0003567 -0.0152472
18436593 0.0003474 -0.0148915 0.9996526 0.0148915 0.9996526 0.0148915 0.0003474 -0.0148915
18841959 0.0003386 -0.0145430 0.9996614 0.0145430 0.9996614 0.0145430 0.0003386 -0.0145430
19256237 0.0003303 -0.0142013 0.9996697 0.0142013 0.9996697 0.0142013 0.0003303 -0.0142013
19679624 0.0003223 -0.0138665 0.9996777 0.0138665 0.9996777 0.0138665 0.0003223 -0.0138665
20112321 0.0003148 -0.0135382 0.9996852 0.0135382 0.9996852 0.0135382 0.0003148 -0.0135382
20554530 0.0003076 -0.0132164 0.9996924 0.0132164 0.9996924 0.0132164 0.0003076 -0.0132164
21006463 0.0003009 -0.0129009 0.9996991 0.0129009 0.9996991 0.0129009 0.0003009 -0.0129009
21468333 0.0002944 -0.0125915 0.9997056 0.0125915 0.9997056 0.0125915 0.0002944 -0.0125915
21940357 0.0002884 -0.0122881 0.9997116 0.0122881 0.9997116 0.0122881 0.0002884 -0.0122881
22422760 0.0002826 -0.0119906 0.9997174 0.0119906 0.9997174 0.0119906 0.0002826 -0.0119906
22915770 0.0002772 -0.0116988 0.9997228 0.0116988 0.9997228 0.0116988 0.0002772 -0.0116988
23419619 0.0002720 -0.0114126 0.9997280 0.0114126 0.9997280 0.0114126 0.0002720 -0.0114126
23934547 0.0002671 -0.0111318 0.9997329 0.0111318 0.9997329 0.0111318 0.0002671 -0.0111318
24460796 0.0002626 -0.0108563 0.9997374 0.0108563 0.9997374 0.0108563 0.0002626 -0.0108563
24998616 0.0002582 -0.0105860 0.9997418 0.0105860 0.9997418 0.0105860 0.0002582 -0.0105860
25548261 0.0002541 -0.0103207 0.9997459 0.0103207 0.9997459 0.0103207 0.0002541 -0.0103207
26109991 0.0002503 -0.0100604 0.9997497 0.0100604 0.9997497 0.0100604 0.0002503 -0.0100604
26684072 0.0002467 -0.0098048 0.9997533 0.0098048 0.9997533 0.0098048 0.0002467 -0.0098048
27270775 0.0002433 -0.0095539 0.9997567 0.0095539 0.9997567 0.0095539 0.0002433 -0.0095539
27870378 0.0002401 -0.0093076 0.9997599 0.0093076 0.9997599 0.0093076 0.0002401 -0.0093076
28483164 0.0002371 -0.0090657 0.9997629 0.0090657 0.9997629 0.0090657 0.0002371 -0.0090657
29109424 0.0002343 -0.0088282 0.9997657 0.0088282 0.9997657 0.0088282 0.0002343 -0.0088282
29749453 0.0002317 -0.0085948 0.9997683 0.0085948 0.9997683 0.0085948 0.0002317 -0.0085948
30403555 0.0002293 -0.0083655 0.9997707 0.0083655 0.9997707 0.0083655 0.0002293 -0.0083655
31072038 0.0002271 -0.0081403 0.9997729 0.0081403 0.9997729 0.0081403 0.0002271 -0.0081403
31755220 0.0002250 -0.0079189 0.9997750 0.0079189 0.9997750 0.0079189 0.0002250 -0.0079189
32453422 0.0002231 -0.0077013 0.9997769 0.0077013 0.9997769 0.0077013 0.0002231 -0.0077013
33166976 0.0002213 -0.0074873 0.9997787 0.0074873 0.9997787 0.0074873 0.0002213 -0.0074873
33896219 0.0002197 -0.0072769 0.9997803 0.0072769 0.9997803 0.0072769 0.0002197 -0.0072769
34641496 0.0002182 -0.0070700 0.9997818 0.0070700 0.9997818 0.0070700 0.0002182 -0.0070700
35403159 0.0002169 -0.0068664 0.9997831 0.0068664 0.9997831 0.0068664 0.0002169 -0.0068664
36181569 0.0002157 -0.0066661 0.9997843 0.0066661 0.9997843 0.0066661 0.0002157 -0.0066661
36977093 0.0002146 -0.0064690 0.9997854 0.0064690 0.9997854 0.0064690 0.0002146 -0.0064690
37790109 0.0002137 -0.0062750 0.9997863 0.0062750 0.9997863 0.0062750 0.0002137 -0.0062750
38621001 0.0002129 -0.0060839 0.9997871 0.0060839 0.9997871 0.0060839 0.0002129 -0.0060839
39470161 0.0002122 -0.0058957 0.9997878 0.0058957 0.9997878 0.0058957 0.0002122 -0.0058957
40337993 0.0002116 -0.0057103 0.9997884 0.0057103 0.9997884 0.0057103 0.0002116 -0.0057103
41224905 0.0002112 -0.0055277 0.9997888 0.0055277 0.9997888 0.0055277 0.0002112 -0.0055277
42131317 0.0002109 -0.0053476 0.9997891 0.0053476 0.9997891 0.0053476 0.0002109 -0.0053476
43057659 0.0002107 -0.0051701 0.9997893 0.0051701 0.9997893 0.0051701 0.0002107 -0.0051701
44004369 0.0002106 -0.0049951 0.9997894 0.0049951 0.9997894 0.0049951 0.0002106 -0.0049951
44971893 0.0002106 -0.0048224 0.9997894 0.0048224 0.9997894 0.0048224 0.0002106 -0.0048224
45960691 0.0002107 -0.0046520 0.9997893 0.0046520 0.9997893 0.0046520 0.0002107 -0.0046520
46971230 0.0002109 -0.0044837 0.9997891 0.0044837 0.9997891 0.0044837 0.0002109 -0.0044837
48003987 0.0002113 -0.0043176 0.9997887 0.0043176 0.9997887 0.0043176 0.0002113 -0.0043176
49059451 0.0002118 -0.0041536 0.9997882 0.0041536 0.9997882 0.0041536 0.0002118 -0.0041536
50138122 0.0002123 -0.0039915 0.9997877 0.0039915 0.9997877 0.0039915 0.0002123 -0.0039915
51240510 0.0002130 -0.0038312 0.9997870 0.0038312 0.9997870 0.0038312 0.0002130 -0.0038312
52367136 0.0002138 -0.0036728 0.9997862 0.0036728 0.9997862 0.0036728 0.0002138 -0.0036728
53518533 0.0002148 -0.0035161 0.9997852 0.0035161 0.9997852 0.0035161 0.0002148 -0.0035161
54695245 0.0002158 -0.0033610 0.9997842 0.0033610 0.9997842 0.0033610 0.0002158 -0.0033610
55897831 0.0002170 -0.0032075 0.9997830 0.0032075 0.9997830 0.0032075 0.0002170 -0.0032075
57126857 0.0002183 -0.0030555 0.9997817 0.0030555 0.9997817 0.0030555 0.0002183 -0.0030555
58382906 0.0002197 -0.0029049 0.9997803 0.0029049 0.9997803 0.0029049 0.0002197 -0.0029049
59666572 0.0002212 -0.0027556 0.9997788 0.0027556 0.9997788 0.0027556 0.0002212 -0.0027556
60978462 0.0002229 -0.0026076 0.9997771 0.0026076 0.9997771 0.0026076 0.0002229 -0.0026076
62319196 0.0002246 -0.0024608 0.9997754 0.0024608 0.9997754 0.0024608 0.0002246 -0.0024608
63689409 0.0002266 -0.0023151 0.9997734 0.0023151 0.9997734 0.0023151 0.0002266 -0.0023151
65089750 0.0002286 -0.0021705 0.9997714 0.0021705 0.9997714 0.0021705 0.0002286 -0.0021705
66520879 0.0002309 -0.0020268 0.9997691 0.0020268 0.9997691 0.0020268 0.0002309 -0.0020268
67983474 0.0002332 -0.0018840 0.9997668 0.0018840 0.9997668 0.0018840 0.0002332 -0.0018840
69478228 0.0002357 -0.0017420 0.9997643 0.0017420 0.9997643 0.0017420 0.0002357 -0.0017420
71005847 0.0002384 -0.0016008 0.9997616 0.0016008 0.9997616 0.0016008 0.0002384 -0.0016008
72567054 0.0002413 -0.0014602 0.9997587 0.0014602 0.9997587 0.0014602 0.0002413 -0.0014602
74162587 0.0002443 -0.0013203 0.9997557 0.0013203 0.9997557 0.0013203 0.0002443 -0.0013203
75793201 0.0002475 -0.0011808 0.9997525 0.0011808 0.9997525 0.0011808 0.0002475 -0.0011808
77459667 0.0002509 -0.0010418 0.9997491 0.0010418 0.9997491 0.0010418 0.0002509 -0.0010418
79162774 0.0002544 -0.0009032 0.9997456 0.0009032 0.9997456 0.0009032 0.0002544 -0.0009032
80903327 0.0002582 -0.0007649 0.9997418 0.0007649 0.9997418 0.0007649 0.0002582 -0.0007649
82682150 0.0002622 -0.0006267 0.9997378 0.0006267 0.9997378 0.0006267 0.0002622 -0.0006267
84500083 0.0002665 -0.0004887 0.9997335 0.0004887 0.9997335 0.0004887 0.0002665 -0.0004887
86357988 0.0002709 -0.0003508 0.9997291 0.0003508 0.9997291 0.0003508 0.0002709 -0.0003508
88256743 0.0002756 -0.0002128 0.9997244 0.0002128 0.9997244 0.0002128 0.0002756 -0.0002128
90197245 0.0002806 -0.0000746 0.9997194 0.0000746 0.9997194 0.0000746 0.0002806 -0.0000746
92180413 0.0002859 0.0000637 0.9997141 -0.0000637 0.9997141 -0.0000637 0.0002859 0.0000637
94207185 0.0002914 0.0002024 0.9997086 -0.0002024 0.9997086 -0.0002024 0.0002914 0.0002024
96278520 0.0002973 0.0003415 0.9997027 -0.0003415 0.9997027 -0.0003415 0.0002973 0.0003415
98395398 0.0003035 0.0004810 0.9996965 -0.0004810 0.9996965 -0.0004810 0.0003035 0.0004810
100558819 0.0003101 0.0006212 0.9996899 -0.0006212 0.9996899 -0.0006212 0.0003101 0.0006212
102769807 0.0003170 0.0007621 0.9996830 -0.0007621 0.9996830 -0.0007621 0.0003170 0.0007621
105029408 0.0003244 0.0009039 0.9996756 -0.0009039 0.9996756 -0.0009039 0.0003244 0.0009039
107338692 0.0003322 0.0010466 0.9996678 -0.0010466 0.9996678 -0.0010466 0.0003322 0.0010466
