!Murata Part Number: GRM2195C1H562JA01
!These Parameters are Measured in Series Mode Connection
!Data Generated on Mar 30, 2021
!       o--ll--o
!Port1            Port2
!       o------o
!Operation Temp=25[degC], DC Bias Voltage=0[V]
!Freq. Start=1000[kHz] Stop=6[GHz] 401[Steps]
# Hz S RI R 50
!Freq.(Hz) S11(Real) S11(Imag) S21(Real) S21(Imag) S12(Real) S12(Imag) S22(Real) S22(Imag)
1000000 0.0722959 -0.2588907 0.9277041 0.2588907 0.9277041 0.2588907 0.0722959 -0.2588907
1021987 0.0694332 -0.2541008 0.9305668 0.2541008 0.9305668 0.2541008 0.0694332 -0.2541008
1044457 0.0666758 -0.2493691 0.9333242 0.2493691 0.9333242 0.2493691 0.0666758 -0.2493691
1067422 0.0640203 -0.2446965 0.9359797 0.2446965 0.9359797 0.2446965 0.0640203 -0.2446965
1090891 0.0614638 -0.2400842 0.9385362 0.2400842 0.9385362 0.2400842 0.0614638 -0.2400842
1114877 0.0590029 -0.2355330 0.9409971 0.2355330 0.9409971 0.2355330 0.0590029 -0.2355330
1139390 0.0566347 -0.2310438 0.9433653 0.2310438 0.9433653 0.2310438 0.0566347 -0.2310438
1164441 0.0543561 -0.2266172 0.9456439 0.2266172 0.9456439 0.2266172 0.0543561 -0.2266172
1190044 0.0521641 -0.2222536 0.9478359 0.2222536 0.9478359 0.2222536 0.0521641 -0.2222536
1216210 0.0500559 -0.2179536 0.9499441 0.2179536 0.9499441 0.2179536 0.0500559 -0.2179536
1242950 0.0480286 -0.2137175 0.9519714 0.2137175 0.9519714 0.2137175 0.0480286 -0.2137175
1270279 0.0460796 -0.2095455 0.9539204 0.2095455 0.9539204 0.2095455 0.0460796 -0.2095455
1298209 0.0442059 -0.2054378 0.9557941 0.2054378 0.9557941 0.2054378 0.0442059 -0.2054378
1326753 0.0424052 -0.2013944 0.9575948 0.2013944 0.9575948 0.2013944 0.0424052 -0.2013944
1355924 0.0406747 -0.1974153 0.9593253 0.1974153 0.9593253 0.1974153 0.0406747 -0.1974153
1385737 0.0390120 -0.1935005 0.9609880 0.1935005 0.9609880 0.1935005 0.0390120 -0.1935005
1416205 0.0374147 -0.1896497 0.9625853 0.1896497 0.9625853 0.1896497 0.0374147 -0.1896497
1447343 0.0358804 -0.1858628 0.9641196 0.1858628 0.9641196 0.1858628 0.0358804 -0.1858628
1479166 0.0344069 -0.1821395 0.9655931 0.1821395 0.9655931 0.1821395 0.0344069 -0.1821395
1511688 0.0329918 -0.1784795 0.9670082 0.1784795 0.9670082 0.1784795 0.0329918 -0.1784795
1544926 0.0316331 -0.1748824 0.9683669 0.1748824 0.9683669 0.1748824 0.0316331 -0.1748824
1578894 0.0303287 -0.1713477 0.9696713 0.1713477 0.9696713 0.1713477 0.0303287 -0.1713477
1613609 0.0290765 -0.1678749 0.9709235 0.1678749 0.9709235 0.1678749 0.0290765 -0.1678749
1649087 0.0278745 -0.1644637 0.9721255 0.1644637 0.9721255 0.1644637 0.0278745 -0.1644637
1685346 0.0267210 -0.1611134 0.9732790 0.1611134 0.9732790 0.1611134 0.0267210 -0.1611134
1722402 0.0256140 -0.1578235 0.9743860 0.1578235 0.9743860 0.1578235 0.0256140 -0.1578235
1760272 0.0245517 -0.1545933 0.9754483 0.1545933 0.9754483 0.1545933 0.0245517 -0.1545933
1798975 0.0235325 -0.1514223 0.9764675 0.1514223 0.9764675 0.1514223 0.0235325 -0.1514223
1838529 0.0225548 -0.1483097 0.9774452 0.1483097 0.9774452 0.1483097 0.0225548 -0.1483097
1878953 0.0216168 -0.1452549 0.9783832 0.1452549 0.9783832 0.1452549 0.0216168 -0.1452549
1920266 0.0207170 -0.1422572 0.9792830 0.1422572 0.9792830 0.1422572 0.0207170 -0.1422572
1962487 0.0198541 -0.1393159 0.9801459 0.1393159 0.9801459 0.1393159 0.0198541 -0.1393159
2005636 0.0190264 -0.1364303 0.9809736 0.1364303 0.9809736 0.1364303 0.0190264 -0.1364303
2049734 0.0182327 -0.1335995 0.9817673 0.1335995 0.9817673 0.1335995 0.0182327 -0.1335995
2094801 0.0174715 -0.1308229 0.9825285 0.1308229 0.9825285 0.1308229 0.0174715 -0.1308229
2140860 0.0167417 -0.1280998 0.9832583 0.1280998 0.9832583 0.1280998 0.0167417 -0.1280998
2187931 0.0160420 -0.1254292 0.9839580 0.1254292 0.9839580 0.1254292 0.0160420 -0.1254292
2236037 0.0153711 -0.1228105 0.9846289 0.1228105 0.9846289 0.1228105 0.0153711 -0.1228105
2285201 0.0147279 -0.1202428 0.9852721 0.1202428 0.9852721 0.1202428 0.0147279 -0.1202428
2335446 0.0141113 -0.1177255 0.9858887 0.1177255 0.9858887 0.1177255 0.0141113 -0.1177255
2386795 0.0135203 -0.1152576 0.9864797 0.1152576 0.9864797 0.1152576 0.0135203 -0.1152576
2439274 0.0129537 -0.1128385 0.9870463 0.1128385 0.9870463 0.1128385 0.0129537 -0.1128385
2492906 0.0124107 -0.1104673 0.9875893 0.1104673 0.9875893 0.1104673 0.0124107 -0.1104673
2547717 0.0118903 -0.1081432 0.9881097 0.1081432 0.9881097 0.1081432 0.0118903 -0.1081432
2603734 0.0113915 -0.1058655 0.9886085 0.1058655 0.9886085 0.1058655 0.0113915 -0.1058655
2660982 0.0109135 -0.1036334 0.9890865 0.1036334 0.9890865 0.1036334 0.0109135 -0.1036334
2719490 0.0104555 -0.1014461 0.9895445 0.1014461 0.9895445 0.1014461 0.0104555 -0.1014461
2779283 0.0100165 -0.0993028 0.9899835 0.0993028 0.9899835 0.0993028 0.0100165 -0.0993028
2840391 0.0095959 -0.0972028 0.9904041 0.0972028 0.9904041 0.0972028 0.0095959 -0.0972028
2902843 0.0091929 -0.0951453 0.9908071 0.0951453 0.9908071 0.0951453 0.0091929 -0.0951453
2966668 0.0088067 -0.0931295 0.9911933 0.0931295 0.9911933 0.0931295 0.0088067 -0.0931295
3031896 0.0084368 -0.0911547 0.9915632 0.0911547 0.9915632 0.0911547 0.0084368 -0.0911547
3098558 0.0080823 -0.0892202 0.9919177 0.0892202 0.9919177 0.0892202 0.0080823 -0.0892202
3166686 0.0077427 -0.0873252 0.9922573 0.0873252 0.9922573 0.0873252 0.0077427 -0.0873252
3236312 0.0074174 -0.0854689 0.9925826 0.0854689 0.9925826 0.0854689 0.0074174 -0.0854689
3307469 0.0071057 -0.0836508 0.9928943 0.0836508 0.9928943 0.0836508 0.0071057 -0.0836508
3380190 0.0068071 -0.0818700 0.9931929 0.0818700 0.9931929 0.0818700 0.0068071 -0.0818700
3454511 0.0065211 -0.0801258 0.9934789 0.0801258 0.9934789 0.0801258 0.0065211 -0.0801258
3530465 0.0062472 -0.0784176 0.9937528 0.0784176 0.9937528 0.0784176 0.0062472 -0.0784176
3608090 0.0059848 -0.0767446 0.9940152 0.0767446 0.9940152 0.0767446 0.0059848 -0.0767446
3687421 0.0057334 -0.0751063 0.9942666 0.0751063 0.9942666 0.0751063 0.0057334 -0.0751063
3768496 0.0054927 -0.0735019 0.9945073 0.0735019 0.9945073 0.0735019 0.0054927 -0.0735019
3851354 0.0052621 -0.0719307 0.9947379 0.0719307 0.9947379 0.0719307 0.0052621 -0.0719307
3936034 0.0050412 -0.0703922 0.9949588 0.0703922 0.9949588 0.0703922 0.0050412 -0.0703922
4022575 0.0048297 -0.0688857 0.9951703 0.0688857 0.9951703 0.0688857 0.0048297 -0.0688857
4111020 0.0046272 -0.0674105 0.9953728 0.0674105 0.9953728 0.0674105 0.0046272 -0.0674105
4201409 0.0044332 -0.0659660 0.9955668 0.0659660 0.9955668 0.0659660 0.0044332 -0.0659660
4293785 0.0042474 -0.0645517 0.9957526 0.0645517 0.9957526 0.0645517 0.0042474 -0.0645517
4388193 0.0040695 -0.0631668 0.9959305 0.0631668 0.9959305 0.0631668 0.0040695 -0.0631668
4484676 0.0038991 -0.0618109 0.9961009 0.0618109 0.9961009 0.0618109 0.0038991 -0.0618109
4583281 0.0037360 -0.0604834 0.9962640 0.0604834 0.9962640 0.0604834 0.0037360 -0.0604834
4684054 0.0035798 -0.0591837 0.9964202 0.0591837 0.9964202 0.0591837 0.0035798 -0.0591837
4787042 0.0034302 -0.0579111 0.9965698 0.0579111 0.9965698 0.0579111 0.0034302 -0.0579111
4892295 0.0032870 -0.0566652 0.9967130 0.0566652 0.9967130 0.0566652 0.0032870 -0.0566652
4999862 0.0031499 -0.0554455 0.9968501 0.0554455 0.9968501 0.0554455 0.0031499 -0.0554455
5109794 0.0030186 -0.0542513 0.9969814 0.0542513 0.9969814 0.0542513 0.0030186 -0.0542513
5222143 0.0028929 -0.0530823 0.9971071 0.0530823 0.9971071 0.0530823 0.0028929 -0.0530823
5336962 0.0027725 -0.0519377 0.9972275 0.0519377 0.9972275 0.0519377 0.0027725 -0.0519377
5454306 0.0026573 -0.0508172 0.9973427 0.0508172 0.9973427 0.0508172 0.0026573 -0.0508172
5574230 0.0025470 -0.0497203 0.9974530 0.0497203 0.9974530 0.0497203 0.0025470 -0.0497203
5696791 0.0024414 -0.0486464 0.9975586 0.0486464 0.9975586 0.0486464 0.0024414 -0.0486464
5822046 0.0023403 -0.0475952 0.9976597 0.0475952 0.9976597 0.0475952 0.0023403 -0.0475952
5950055 0.0022435 -0.0465660 0.9977565 0.0465660 0.9977565 0.0465660 0.0022435 -0.0465660
6080879 0.0021509 -0.0455585 0.9978491 0.0455585 0.9978491 0.0455585 0.0021509 -0.0455585
6214580 0.0020622 -0.0445722 0.9979378 0.0445722 0.9979378 0.0445722 0.0020622 -0.0445722
6351220 0.0019774 -0.0436067 0.9980226 0.0436067 0.9980226 0.0436067 0.0019774 -0.0436067
6490864 0.0018961 -0.0426615 0.9981039 0.0426615 0.9981039 0.0426615 0.0018961 -0.0426615
6633579 0.0018184 -0.0417362 0.9981816 0.0417362 0.9981816 0.0417362 0.0018184 -0.0417362
6779431 0.0017440 -0.0408304 0.9982560 0.0408304 0.9982560 0.0408304 0.0017440 -0.0408304
6928491 0.0016728 -0.0399436 0.9983272 0.0399436 0.9983272 0.0399436 0.0016728 -0.0399436
7080828 0.0016046 -0.0390756 0.9983954 0.0390756 0.9983954 0.0390756 0.0016046 -0.0390756
7236514 0.0015394 -0.0382258 0.9984606 0.0382258 0.9984606 0.0382258 0.0015394 -0.0382258
7395623 0.0014770 -0.0373939 0.9985230 0.0373939 0.9985230 0.0373939 0.0014770 -0.0373939
7558231 0.0014173 -0.0365795 0.9985827 0.0365795 0.9985827 0.0365795 0.0014173 -0.0365795
7724414 0.0013602 -0.0357822 0.9986398 0.0357822 0.9986398 0.0357822 0.0013602 -0.0357822
7894251 0.0013056 -0.0350018 0.9986944 0.0350018 0.9986944 0.0350018 0.0013056 -0.0350018
8067822 0.0012533 -0.0342377 0.9987467 0.0342377 0.9987467 0.0342377 0.0012533 -0.0342377
8245209 0.0012033 -0.0334897 0.9987967 0.0334897 0.9987967 0.0334897 0.0012033 -0.0334897
8426497 0.0011554 -0.0327575 0.9988446 0.0327575 0.9988446 0.0327575 0.0011554 -0.0327575
8611770 0.0011096 -0.0320406 0.9988904 0.0320406 0.9988904 0.0320406 0.0011096 -0.0320406
8801117 0.0010659 -0.0313388 0.9989341 0.0313388 0.9989341 0.0313388 0.0010659 -0.0313388
8994628 0.0010240 -0.0306517 0.9989760 0.0306517 0.9989760 0.0306517 0.0010240 -0.0306517
9192393 0.0009839 -0.0299790 0.9990161 0.0299790 0.9990161 0.0299790 0.0009839 -0.0299790
9394506 0.0009456 -0.0293205 0.9990544 0.0293205 0.9990544 0.0293205 0.0009456 -0.0293205
9601063 0.0009090 -0.0286757 0.9990910 0.0286757 0.9990910 0.0286757 0.0009090 -0.0286757
9812162 0.0008740 -0.0280445 0.9991260 0.0280445 0.9991260 0.0280445 0.0008740 -0.0280445
10027902 0.0008405 -0.0274265 0.9991595 0.0274265 0.9991595 0.0274265 0.0008405 -0.0274265
10248386 0.0008085 -0.0268213 0.9991915 0.0268213 0.9991915 0.0268213 0.0008085 -0.0268213
10473717 0.0007779 -0.0262289 0.9992221 0.0262289 0.9992221 0.0262289 0.0007779 -0.0262289
10704003 0.0007487 -0.0256488 0.9992513 0.0256488 0.9992513 0.0256488 0.0007487 -0.0256488
10939352 0.0007207 -0.0250808 0.9992793 0.0250808 0.9992793 0.0250808 0.0007207 -0.0250808
11179876 0.0006940 -0.0245246 0.9993060 0.0245246 0.9993060 0.0245246 0.0006940 -0.0245246
11425688 0.0006685 -0.0239801 0.9993315 0.0239801 0.9993315 0.0239801 0.0006685 -0.0239801
11676904 0.0006441 -0.0234468 0.9993559 0.0234468 0.9993559 0.0234468 0.0006441 -0.0234468
11933645 0.0006207 -0.0229246 0.9993793 0.0229246 0.9993793 0.0229246 0.0006207 -0.0229246
12196030 0.0005985 -0.0224133 0.9994015 0.0224133 0.9994015 0.0224133 0.0005985 -0.0224133
12464184 0.0005772 -0.0219125 0.9994228 0.0219125 0.9994228 0.0219125 0.0005772 -0.0219125
12738235 0.0005568 -0.0214221 0.9994432 0.0214221 0.9994432 0.0214221 0.0005568 -0.0214221
13018310 0.0005374 -0.0209419 0.9994626 0.0209419 0.9994626 0.0209419 0.0005374 -0.0209419
13304544 0.0005189 -0.0204715 0.9994811 0.0204715 0.9994811 0.0204715 0.0005189 -0.0204715
13597071 0.0005012 -0.0200108 0.9994988 0.0200108 0.9994988 0.0200108 0.0005012 -0.0200108
13896030 0.0004842 -0.0195596 0.9995158 0.0195596 0.9995158 0.0195596 0.0004842 -0.0195596
14201563 0.0004681 -0.0191177 0.9995319 0.0191177 0.9995319 0.0191177 0.0004681 -0.0191177
14513813 0.0004527 -0.0186848 0.9995473 0.0186848 0.9995473 0.0186848 0.0004527 -0.0186848
14832928 0.0004380 -0.0182607 0.9995620 0.0182607 0.9995620 0.0182607 0.0004380 -0.0182607
15159060 0.0004239 -0.0178453 0.9995761 0.0178453 0.9995761 0.0178453 0.0004239 -0.0178453
15492362 0.0004105 -0.0174383 0.9995895 0.0174383 0.9995895 0.0174383 0.0004105 -0.0174383
15832993 0.0003977 -0.0170397 0.9996023 0.0170397 0.9996023 0.0170397 0.0003977 -0.0170397
16181113 0.0003855 -0.0166490 0.9996145 0.0166490 0.9996145 0.0166490 0.0003855 -0.0166490
16536888 0.0003739 -0.0162663 0.9996261 0.0162663 0.9996261 0.0162663 0.0003739 -0.0162663
16900485 0.0003628 -0.0158913 0.9996372 0.0158913 0.9996372 0.0158913 0.0003628 -0.0158913
17272076 0.0003522 -0.0155238 0.9996478 0.0155238 0.9996478 0.0155238 0.0003522 -0.0155238
17651837 0.0003421 -0.0151637 0.9996579 0.0151637 0.9996579 0.0151637 0.0003421 -0.0151637
18039948 0.0003325 -0.0148107 0.9996675 0.0148107 0.9996675 0.0148107 0.0003325 -0.0148107
18436593 0.0003233 -0.0144648 0.9996767 0.0144648 0.9996767 0.0144648 0.0003233 -0.0144648
18841959 0.0003146 -0.0141257 0.9996854 0.0141257 0.9996854 0.0141257 0.0003146 -0.0141257
19256237 0.0003063 -0.0137934 0.9996937 0.0137934 0.9996937 0.0137934 0.0003063 -0.0137934
19679624 0.0002983 -0.0134675 0.9997017 0.0134675 0.9997017 0.0134675 0.0002983 -0.0134675
20112321 0.0002908 -0.0131481 0.9997092 0.0131481 0.9997092 0.0131481 0.0002908 -0.0131481
20554530 0.0002836 -0.0128349 0.9997164 0.0128349 0.9997164 0.0128349 0.0002836 -0.0128349
21006463 0.0002768 -0.0125278 0.9997232 0.0125278 0.9997232 0.0125278 0.0002768 -0.0125278
21468333 0.0002703 -0.0122266 0.9997297 0.0122266 0.9997297 0.0122266 0.0002703 -0.0122266
21940357 0.0002641 -0.0119312 0.9997359 0.0119312 0.9997359 0.0119312 0.0002641 -0.0119312
22422760 0.0002583 -0.0116415 0.9997417 0.0116415 0.9997417 0.0116415 0.0002583 -0.0116415
22915770 0.0002527 -0.0113573 0.9997473 0.0113573 0.9997473 0.0113573 0.0002527 -0.0113573
23419619 0.0002474 -0.0110785 0.9997526 0.0110785 0.9997526 0.0110785 0.0002474 -0.0110785
23934547 0.0002424 -0.0108049 0.9997576 0.0108049 0.9997576 0.0108049 0.0002424 -0.0108049
24460796 0.0002377 -0.0105365 0.9997623 0.0105365 0.9997623 0.0105365 0.0002377 -0.0105365
24998616 0.0002332 -0.0102730 0.9997668 0.0102730 0.9997668 0.0102730 0.0002332 -0.0102730
25548261 0.0002289 -0.0100144 0.9997711 0.0100144 0.9997711 0.0100144 0.0002289 -0.0100144
26109991 0.0002249 -0.0097606 0.9997751 0.0097606 0.9997751 0.0097606 0.0002249 -0.0097606
26684072 0.0002211 -0.0095114 0.9997789 0.0095114 0.9997789 0.0095114 0.0002211 -0.0095114
27270775 0.0002175 -0.0092667 0.9997825 0.0092667 0.9997825 0.0092667 0.0002175 -0.0092667
27870378 0.0002142 -0.0090264 0.9997858 0.0090264 0.9997858 0.0090264 0.0002142 -0.0090264
28483164 0.0002110 -0.0087904 0.9997890 0.0087904 0.9997890 0.0087904 0.0002110 -0.0087904
29109424 0.0002080 -0.0085585 0.9997920 0.0085585 0.9997920 0.0085585 0.0002080 -0.0085585
29749453 0.0002053 -0.0083307 0.9997947 0.0083307 0.9997947 0.0083307 0.0002053 -0.0083307
30403555 0.0002027 -0.0081069 0.9997973 0.0081069 0.9997973 0.0081069 0.0002027 -0.0081069
31072038 0.0002002 -0.0078868 0.9997998 0.0078868 0.9997998 0.0078868 0.0002002 -0.0078868
31755220 0.0001980 -0.0076705 0.9998020 0.0076705 0.9998020 0.0076705 0.0001980 -0.0076705
32453422 0.0001959 -0.0074579 0.9998041 0.0074579 0.9998041 0.0074579 0.0001959 -0.0074579
33166976 0.0001940 -0.0072487 0.9998060 0.0072487 0.9998060 0.0072487 0.0001940 -0.0072487
33896219 0.0001922 -0.0070430 0.9998078 0.0070430 0.9998078 0.0070430 0.0001922 -0.0070430
34641496 0.0001906 -0.0068407 0.9998094 0.0068407 0.9998094 0.0068407 0.0001906 -0.0068407
35403159 0.0001892 -0.0066415 0.9998108 0.0066415 0.9998108 0.0066415 0.0001892 -0.0066415
36181569 0.0001879 -0.0064455 0.9998121 0.0064455 0.9998121 0.0064455 0.0001879 -0.0064455
36977093 0.0001867 -0.0062525 0.9998133 0.0062525 0.9998133 0.0062525 0.0001867 -0.0062525
37790109 0.0001857 -0.0060625 0.9998143 0.0060625 0.9998143 0.0060625 0.0001857 -0.0060625
38621001 0.0001848 -0.0058754 0.9998152 0.0058754 0.9998152 0.0058754 0.0001848 -0.0058754
39470161 0.0001841 -0.0056910 0.9998159 0.0056910 0.9998159 0.0056910 0.0001841 -0.0056910
40337993 0.0001835 -0.0055093 0.9998165 0.0055093 0.9998165 0.0055093 0.0001835 -0.0055093
41224905 0.0001831 -0.0053302 0.9998169 0.0053302 0.9998169 0.0053302 0.0001831 -0.0053302
42131317 0.0001827 -0.0051536 0.9998173 0.0051536 0.9998173 0.0051536 0.0001827 -0.0051536
43057659 0.0001826 -0.0049794 0.9998174 0.0049794 0.9998174 0.0049794 0.0001826 -0.0049794
44004369 0.0001825 -0.0048076 0.9998175 0.0048076 0.9998175 0.0048076 0.0001825 -0.0048076
44971893 0.0001826 -0.0046380 0.9998174 0.0046380 0.9998174 0.0046380 0.0001826 -0.0046380
45960691 0.0001828 -0.0044705 0.9998172 0.0044705 0.9998172 0.0044705 0.0001828 -0.0044705
46971230 0.0001832 -0.0043052 0.9998168 0.0043052 0.9998168 0.0043052 0.0001832 -0.0043052
48003987 0.0001837 -0.0041419 0.9998163 0.0041419 0.9998163 0.0041419 0.0001837 -0.0041419
49059451 0.0001843 -0.0039805 0.9998157 0.0039805 0.9998157 0.0039805 0.0001843 -0.0039805
50138122 0.0001851 -0.0038210 0.9998149 0.0038210 0.9998149 0.0038210 0.0001851 -0.0038210
51240510 0.0001860 -0.0036632 0.9998140 0.0036632 0.9998140 0.0036632 0.0001860 -0.0036632
52367136 0.0001870 -0.0035072 0.9998130 0.0035072 0.9998130 0.0035072 0.0001870 -0.0035072
53518533 0.0001882 -0.0033527 0.9998118 0.0033527 0.9998118 0.0033527 0.0001882 -0.0033527
54695245 0.0001896 -0.0031998 0.9998104 0.0031998 0.9998104 0.0031998 0.0001896 -0.0031998
55897831 0.0001911 -0.0030483 0.9998089 0.0030483 0.9998089 0.0030483 0.0001911 -0.0030483
57126857 0.0001928 -0.0028983 0.9998072 0.0028983 0.9998072 0.0028983 0.0001928 -0.0028983
58382906 0.0001946 -0.0027495 0.9998054 0.0027495 0.9998054 0.0027495 0.0001946 -0.0027495
59666572 0.0001965 -0.0026020 0.9998035 0.0026020 0.9998035 0.0026020 0.0001965 -0.0026020
60978462 0.0001987 -0.0024557 0.9998013 0.0024557 0.9998013 0.0024557 0.0001987 -0.0024557
62319196 0.0002010 -0.0023104 0.9997990 0.0023104 0.9997990 0.0023104 0.0002010 -0.0023104
63689409 0.0002035 -0.0021662 0.9997965 0.0021662 0.9997965 0.0021662 0.0002035 -0.0021662
65089750 0.0002062 -0.0020229 0.9997938 0.0020229 0.9997938 0.0020229 0.0002062 -0.0020229
66520879 0.0002091 -0.0018804 0.9997909 0.0018804 0.9997909 0.0018804 0.0002091 -0.0018804
67983474 0.0002122 -0.0017388 0.9997878 0.0017388 0.9997878 0.0017388 0.0002122 -0.0017388
69478228 0.0002154 -0.0015978 0.9997846 0.0015978 0.9997846 0.0015978 0.0002154 -0.0015978
71005847 0.0002189 -0.0014575 0.9997811 0.0014575 0.9997811 0.0014575 0.0002189 -0.0014575
72567054 0.0002227 -0.0013177 0.9997773 0.0013177 0.9997773 0.0013177 0.0002227 -0.0013177
74162587 0.0002266 -0.0011784 0.9997734 0.0011784 0.9997734 0.0011784 0.0002266 -0.0011784
75793201 0.0002308 -0.0010395 0.9997692 0.0010395 0.9997692 0.0010395 0.0002308 -0.0010395
77459667 0.0002353 -0.0009009 0.9997647 0.0009009 0.9997647 0.0009009 0.0002353 -0.0009009
79162774 0.0002401 -0.0007626 0.9997599 0.0007626 0.9997599 0.0007626 0.0002401 -0.0007626
80903327 0.0002451 -0.0006244 0.9997549 0.0006244 0.9997549 0.0006244 0.0002451 -0.0006244
82682150 0.0002504 -0.0004862 0.9997496 0.0004862 0.9997496 0.0004862 0.0002504 -0.0004862
84500083 0.0002561 -0.0003481 0.9997439 0.0003481 0.9997439 0.0003481 0.0002561 -0.0003481
86357988 0.0002621 -0.0002098 0.9997379 0.0002098 0.9997379 0.0002098 0.0002621 -0.0002098
88256743 0.0002684 -0.0000714 0.9997316 0.0000714 0.9997316 0.0000714 0.0002684 -0.0000714
90197245 0.0002752 0.0000674 0.9997248 -0.0000674 0.9997248 -0.0000674 0.0002752 0.0000674
92180413 0.0002823 0.0002066 0.9997177 -0.0002066 0.9997177 -0.0002066 0.0002823 0.0002066
94207185 0.0002899 0.0003463 0.9997101 -0.0003463 0.9997101 -0.0003463 0.0002899 0.0003463
96278520 0.0002980 0.0004866 0.9997020 -0.0004866 0.9997020 -0.0004866 0.0002980 0.0004866
98395398 0.0003066 0.0006276 0.9996934 -0.0006276 0.9996934 -0.0006276 0.0003066 0.0006276
100558819 0.0003157 0.0007694 0.9996843 -0.0007694 0.9996843 -0.0007694 0.0003157 0.0007694
102769807 0.0003254 0.0009123 0.9996746 -0.0009123 0.9996746 -0.0009123 0.0003254 0.0009123
105029408 0.0003358 0.0010562 0.9996642 -0.0010562 0.9996642 -0.0010562 0.0003358 0.0010562
107338692 0.0003469 0.0012015 0.9996531 -0.0012015 0.9996531 -0.0012015 0.0003469 0.0012015
