!Murata Part Number: GRM21A7U2E182JW31
!These Parameters are Measured in Series Mode Connection
!Data Generated on Mar 30, 2021
!       o--ll--o
!Port1            Port2
!       o------o
!Operation Temp=25[degC], DC Bias Voltage=0[V]
!Freq. Start=1000[kHz] Stop=3[GHz] 401[Steps]
# Hz S RI R 50
!Freq.(Hz) S11(Real) S11(Imag) S21(Real) S21(Imag) S12(Real) S12(Imag) S22(Real) S22(Imag)
1000000 0.4490549 -0.4973162 0.5509451 0.4973162 0.5509451 0.4973162 0.4490549 -0.4973162
1020218 0.4391732 -0.4962030 0.5608268 0.4962030 0.5608268 0.4962030 0.4391732 -0.4962030
1040844 0.4293396 -0.4948969 0.5706604 0.4948969 0.5706604 0.4948969 0.4293396 -0.4948969
1061887 0.4195615 -0.4934005 0.5804385 0.4934005 0.5804385 0.4934005 0.4195615 -0.4934005
1083356 0.4098462 -0.4917167 0.5901538 0.4917167 0.5901538 0.4917167 0.4098462 -0.4917167
1105259 0.4002008 -0.4898486 0.5997992 0.4898486 0.5997992 0.4898486 0.4002008 -0.4898486
1127605 0.3906322 -0.4878000 0.6093678 0.4878000 0.6093678 0.4878000 0.3906322 -0.4878000
1150402 0.3811471 -0.4855746 0.6188529 0.4855746 0.6188529 0.4855746 0.3811471 -0.4855746
1173660 0.3717517 -0.4831767 0.6282483 0.4831767 0.6282483 0.4831767 0.3717517 -0.4831767
1197389 0.3624524 -0.4806107 0.6375476 0.4806107 0.6375476 0.4806107 0.3624524 -0.4806107
1221597 0.3532550 -0.4778813 0.6467450 0.4778813 0.6467450 0.4778813 0.3532550 -0.4778813
1246295 0.3441650 -0.4749934 0.6558350 0.4749934 0.6558350 0.4749934 0.3441650 -0.4749934
1271492 0.3351877 -0.4719522 0.6648123 0.4719522 0.6648123 0.4719522 0.3351877 -0.4719522
1297199 0.3263282 -0.4687630 0.6736718 0.4687630 0.6736718 0.4687630 0.3263282 -0.4687630
1323425 0.3175910 -0.4654313 0.6824090 0.4654313 0.6824090 0.4654313 0.3175910 -0.4654313
1350181 0.3089805 -0.4619628 0.6910195 0.4619628 0.6910195 0.4619628 0.3089805 -0.4619628
1377479 0.3005007 -0.4583633 0.6994993 0.4583633 0.6994993 0.4583633 0.3005007 -0.4583633
1405328 0.2921553 -0.4546385 0.7078447 0.4546385 0.7078447 0.4546385 0.2921553 -0.4546385
1433740 0.2839476 -0.4507946 0.7160524 0.4507946 0.7160524 0.4507946 0.2839476 -0.4507946
1462727 0.2758808 -0.4468375 0.7241192 0.4468375 0.7241192 0.4468375 0.2758808 -0.4468375
1492300 0.2679574 -0.4427733 0.7320426 0.4427733 0.7320426 0.4427733 0.2679574 -0.4427733
1522470 0.2601798 -0.4386082 0.7398202 0.4386082 0.7398202 0.4386082 0.2601798 -0.4386082
1553251 0.2525502 -0.4343482 0.7474498 0.4343482 0.7474498 0.4343482 0.2525502 -0.4343482
1584654 0.2450703 -0.4299994 0.7549297 0.4299994 0.7549297 0.4299994 0.2450703 -0.4299994
1616692 0.2377415 -0.4255679 0.7622585 0.4255679 0.7622585 0.4255679 0.2377415 -0.4255679
1649378 0.2305651 -0.4210597 0.7694349 0.4210597 0.7694349 0.4210597 0.2305651 -0.4210597
1682724 0.2235417 -0.4164808 0.7764583 0.4164808 0.7764583 0.4164808 0.2235417 -0.4164808
1716745 0.2166722 -0.4118371 0.7833278 0.4118371 0.7833278 0.4118371 0.2166722 -0.4118371
1751453 0.2099568 -0.4071343 0.7900432 0.4071343 0.7900432 0.4071343 0.2099568 -0.4071343
1786863 0.2033955 -0.4023782 0.7966045 0.4023782 0.7966045 0.4023782 0.2033955 -0.4023782
1822989 0.1969882 -0.3975743 0.8030118 0.3975743 0.8030118 0.3975743 0.1969882 -0.3975743
1859846 0.1907345 -0.3927282 0.8092655 0.3927282 0.8092655 0.3927282 0.1907345 -0.3927282
1897447 0.1846338 -0.3878451 0.8153662 0.3878451 0.8153662 0.3878451 0.1846338 -0.3878451
1935809 0.1786852 -0.3829303 0.8213148 0.3829303 0.8213148 0.3829303 0.1786852 -0.3829303
1974946 0.1728877 -0.3779887 0.8271123 0.3779887 0.8271123 0.3779887 0.1728877 -0.3779887
2014875 0.1672401 -0.3730254 0.8327599 0.3730254 0.8327599 0.3730254 0.1672401 -0.3730254
2055611 0.1617410 -0.3680449 0.8382590 0.3680449 0.8382590 0.3680449 0.1617410 -0.3680449
2097170 0.1563888 -0.3630521 0.8436112 0.3630521 0.8436112 0.3630521 0.1563888 -0.3630521
2139570 0.1511819 -0.3580511 0.8488181 0.3580511 0.8488181 0.3580511 0.1511819 -0.3580511
2182827 0.1461184 -0.3530463 0.8538816 0.3530463 0.8538816 0.3530463 0.1461184 -0.3530463
2226959 0.1411964 -0.3480419 0.8588036 0.3480419 0.8588036 0.3480419 0.1411964 -0.3480419
2271982 0.1364138 -0.3430415 0.8635862 0.3430415 0.8635862 0.3430415 0.1364138 -0.3430415
2317916 0.1317684 -0.3380491 0.8682316 0.3380491 0.8682316 0.3380491 0.1317684 -0.3380491
2364779 0.1272580 -0.3330682 0.8727420 0.3330682 0.8727420 0.3330682 0.1272580 -0.3330682
2412589 0.1228802 -0.3281022 0.8771198 0.3281022 0.8771198 0.3281022 0.1228802 -0.3281022
2461366 0.1186326 -0.3231543 0.8813674 0.3231543 0.8813674 0.3231543 0.1186326 -0.3231543
2511129 0.1145128 -0.3182275 0.8854872 0.3182275 0.8854872 0.3182275 0.1145128 -0.3182275
2561897 0.1105182 -0.3133249 0.8894818 0.3133249 0.8894818 0.3133249 0.1105182 -0.3133249
2613693 0.1066463 -0.3084490 0.8933537 0.3084490 0.8933537 0.3084490 0.1066463 -0.3084490
2666535 0.1028944 -0.3036026 0.8971056 0.3036026 0.8971056 0.3036026 0.1028944 -0.3036026
2720446 0.0992600 -0.2987880 0.9007400 0.2987880 0.9007400 0.2987880 0.0992600 -0.2987880
2775447 0.0957403 -0.2940074 0.9042597 0.2940074 0.9042597 0.2940074 0.0957403 -0.2940074
2831560 0.0923328 -0.2892631 0.9076672 0.2892631 0.9076672 0.2892631 0.0923328 -0.2892631
2888807 0.0890346 -0.2845570 0.9109654 0.2845570 0.9109654 0.2845570 0.0890346 -0.2845570
2947212 0.0858433 -0.2798910 0.9141567 0.2798910 0.9141567 0.2798910 0.0858433 -0.2798910
3006797 0.0827560 -0.2752667 0.9172440 0.2752667 0.9172440 0.2752667 0.0827560 -0.2752667
3067588 0.0797702 -0.2706857 0.9202298 0.2706857 0.9202298 0.2706857 0.0797702 -0.2706857
3129607 0.0768832 -0.2661495 0.9231168 0.2661495 0.9231168 0.2661495 0.0768832 -0.2661495
3192880 0.0740924 -0.2616594 0.9259076 0.2616594 0.9259076 0.2616594 0.0740924 -0.2616594
3257432 0.0713952 -0.2572166 0.9286048 0.2572166 0.9286048 0.2572166 0.0713952 -0.2572166
3323290 0.0687889 -0.2528222 0.9312111 0.2528222 0.9312111 0.2528222 0.0687889 -0.2528222
3390478 0.0662711 -0.2484772 0.9337289 0.2484772 0.9337289 0.2484772 0.0662711 -0.2484772
3459026 0.0638393 -0.2441825 0.9361607 0.2441825 0.9361607 0.2441825 0.0638393 -0.2441825
3528959 0.0614909 -0.2399389 0.9385091 0.2399389 0.9385091 0.2399389 0.0614909 -0.2399389
3600306 0.0592236 -0.2357470 0.9407764 0.2357470 0.9407764 0.2357470 0.0592236 -0.2357470
3673095 0.0570349 -0.2316075 0.9429651 0.2316075 0.9429651 0.2316075 0.0570349 -0.2316075
3747356 0.0549224 -0.2275209 0.9450776 0.2275209 0.9450776 0.2275209 0.0549224 -0.2275209
3823119 0.0528840 -0.2234876 0.9471160 0.2234876 0.9471160 0.2234876 0.0528840 -0.2234876
3900413 0.0509172 -0.2195080 0.9490828 0.2195080 0.9490828 0.2195080 0.0509172 -0.2195080
3979270 0.0490199 -0.2155823 0.9509801 0.2155823 0.9509801 0.2155823 0.0490199 -0.2155823
4059721 0.0471899 -0.2117108 0.9528101 0.2117108 0.9528101 0.2117108 0.0471899 -0.2117108
4141799 0.0454250 -0.2078937 0.9545750 0.2078937 0.9545750 0.2078937 0.0454250 -0.2078937
4225536 0.0437233 -0.2041309 0.9562767 0.2041309 0.9562767 0.2041309 0.0437233 -0.2041309
4310966 0.0420826 -0.2004226 0.9579174 0.2004226 0.9579174 0.2004226 0.0420826 -0.2004226
4398124 0.0405010 -0.1967688 0.9594990 0.1967688 0.9594990 0.1967688 0.0405010 -0.1967688
4487043 0.0389765 -0.1931692 0.9610235 0.1931692 0.9610235 0.1931692 0.0389765 -0.1931692
4577760 0.0375073 -0.1896239 0.9624927 0.1896239 0.9624927 0.1896239 0.0375073 -0.1896239
4670311 0.0360915 -0.1861327 0.9639085 0.1861327 0.9639085 0.1861327 0.0360915 -0.1861327
4764734 0.0347273 -0.1826952 0.9652727 0.1826952 0.9652727 0.1826952 0.0347273 -0.1826952
4861065 0.0334131 -0.1793114 0.9665869 0.1793114 0.9665869 0.1793114 0.0334131 -0.1793114
4959344 0.0321470 -0.1759808 0.9678530 0.1759808 0.9678530 0.1759808 0.0321470 -0.1759808
5059610 0.0309275 -0.1727033 0.9690725 0.1727033 0.9690725 0.1727033 0.0309275 -0.1727033
5161903 0.0297530 -0.1694783 0.9702470 0.1694783 0.9702470 0.1694783 0.0297530 -0.1694783
5266264 0.0286218 -0.1663056 0.9713782 0.1663056 0.9713782 0.1663056 0.0286218 -0.1663056
5372736 0.0275326 -0.1631847 0.9724674 0.1631847 0.9724674 0.1631847 0.0275326 -0.1631847
5481359 0.0264838 -0.1601152 0.9735162 0.1601152 0.9735162 0.1601152 0.0264838 -0.1601152
5592179 0.0254741 -0.1570967 0.9745259 0.1570967 0.9745259 0.1570967 0.0254741 -0.1570967
5705239 0.0245020 -0.1541285 0.9754980 0.1541285 0.9754980 0.1541285 0.0245020 -0.1541285
5820586 0.0235662 -0.1512104 0.9764338 0.1512104 0.9764338 0.1512104 0.0235662 -0.1512104
5938264 0.0226655 -0.1483417 0.9773345 0.1483417 0.9773345 0.1483417 0.0226655 -0.1483417
6058321 0.0217985 -0.1455219 0.9782015 0.1455219 0.9782015 0.1455219 0.0217985 -0.1455219
6180806 0.0209641 -0.1427505 0.9790359 0.1427505 0.9790359 0.1427505 0.0209641 -0.1427505
6305767 0.0201612 -0.1400269 0.9798388 0.1400269 0.9798388 0.1400269 0.0201612 -0.1400269
6433254 0.0193885 -0.1373506 0.9806115 0.1373506 0.9806115 0.1373506 0.0193885 -0.1373506
6563319 0.0186450 -0.1347209 0.9813550 0.1347209 0.9813550 0.1347209 0.0186450 -0.1347209
6696013 0.0179296 -0.1321374 0.9820704 0.1321374 0.9820704 0.1321374 0.0179296 -0.1321374
6831390 0.0172413 -0.1295993 0.9827587 0.1295993 0.9827587 0.1295993 0.0172413 -0.1295993
6969505 0.0165792 -0.1271062 0.9834208 0.1271062 0.9834208 0.1271062 0.0165792 -0.1271062
7110411 0.0159422 -0.1246573 0.9840578 0.1246573 0.9840578 0.1246573 0.0159422 -0.1246573
7254166 0.0153294 -0.1222521 0.9846706 0.1222521 0.9846706 0.1222521 0.0153294 -0.1222521
7400828 0.0147399 -0.1198900 0.9852601 0.1198900 0.9852601 0.1198900 0.0147399 -0.1198900
7550455 0.0141730 -0.1175704 0.9858270 0.1175704 0.9858270 0.1175704 0.0141730 -0.1175704
7703107 0.0136276 -0.1152926 0.9863724 0.1152926 0.9863724 0.1152926 0.0136276 -0.1152926
7858845 0.0131032 -0.1130561 0.9868968 0.1130561 0.9868968 0.1130561 0.0131032 -0.1130561
8017732 0.0125987 -0.1108602 0.9874013 0.1108602 0.9874013 0.1108602 0.0125987 -0.1108602
8179831 0.0121137 -0.1087043 0.9878863 0.1087043 0.9878863 0.1087043 0.0121137 -0.1087043
8345207 0.0116472 -0.1065878 0.9883528 0.1065878 0.9883528 0.1065878 0.0116472 -0.1065878
8513927 0.0111986 -0.1045101 0.9888014 0.1045101 0.9888014 0.1045101 0.0111986 -0.1045101
8686058 0.0107672 -0.1024706 0.9892328 0.1024706 0.9892328 0.1024706 0.0107672 -0.1024706
8861669 0.0103525 -0.1004686 0.9896475 0.1004686 0.9896475 0.1004686 0.0103525 -0.1004686
9040831 0.0099537 -0.0985037 0.9900463 0.0985037 0.9900463 0.0985037 0.0099537 -0.0985037
9223615 0.0095703 -0.0965751 0.9904297 0.0965751 0.9904297 0.0965751 0.0095703 -0.0965751
9410094 0.0092016 -0.0946822 0.9907984 0.0946822 0.9907984 0.0946822 0.0092016 -0.0946822
9600343 0.0088472 -0.0928246 0.9911528 0.0928246 0.9911528 0.0928246 0.0088472 -0.0928246
9794439 0.0085065 -0.0910015 0.9914935 0.0910015 0.9914935 0.0910015 0.0085065 -0.0910015
9992459 0.0081789 -0.0892125 0.9918211 0.0892125 0.9918211 0.0892125 0.0081789 -0.0892125
10194482 0.0078641 -0.0874569 0.9921359 0.0874569 0.9921359 0.0874569 0.0078641 -0.0874569
10400590 0.0075614 -0.0857341 0.9924386 0.0857341 0.9924386 0.0857341 0.0075614 -0.0857341
10610865 0.0072704 -0.0840437 0.9927296 0.0840437 0.9927296 0.0840437 0.0072704 -0.0840437
10825391 0.0069907 -0.0823850 0.9930093 0.0823850 0.9930093 0.0823850 0.0069907 -0.0823850
11044254 0.0067219 -0.0807575 0.9932781 0.0807575 0.9932781 0.0807575 0.0067219 -0.0807575
11267542 0.0064635 -0.0791606 0.9935365 0.0791606 0.9935365 0.0791606 0.0064635 -0.0791606
11495344 0.0062152 -0.0775939 0.9937848 0.0775939 0.9937848 0.0775939 0.0062152 -0.0775939
11727752 0.0059765 -0.0760567 0.9940235 0.0760567 0.9940235 0.0760567 0.0059765 -0.0760567
11964859 0.0057471 -0.0745486 0.9942529 0.0745486 0.9942529 0.0745486 0.0057471 -0.0745486
12206760 0.0055266 -0.0730689 0.9944734 0.0730689 0.9944734 0.0730689 0.0055266 -0.0730689
12453551 0.0053147 -0.0716173 0.9946853 0.0716173 0.9946853 0.0716173 0.0053147 -0.0716173
12705331 0.0051111 -0.0701932 0.9948889 0.0701932 0.9948889 0.0701932 0.0051111 -0.0701932
12962202 0.0049154 -0.0687961 0.9950846 0.0687961 0.9950846 0.0687961 0.0049154 -0.0687961
13224267 0.0047274 -0.0674255 0.9952726 0.0674255 0.9952726 0.0674255 0.0047274 -0.0674255
13491630 0.0045467 -0.0660809 0.9954533 0.0660809 0.9954533 0.0660809 0.0045467 -0.0660809
13764398 0.0043731 -0.0647618 0.9956269 0.0647618 0.9956269 0.0647618 0.0043731 -0.0647618
14042680 0.0042063 -0.0634678 0.9957937 0.0634678 0.9957937 0.0634678 0.0042063 -0.0634678
14326589 0.0040460 -0.0621984 0.9959540 0.0621984 0.9959540 0.0621984 0.0040460 -0.0621984
14616238 0.0038920 -0.0609531 0.9961080 0.0609531 0.9961080 0.0609531 0.0038920 -0.0609531
14911743 0.0037441 -0.0597315 0.9962559 0.0597315 0.9962559 0.0597315 0.0037441 -0.0597315
15213223 0.0036019 -0.0585331 0.9963981 0.0585331 0.9963981 0.0585331 0.0036019 -0.0585331
15520797 0.0034654 -0.0573576 0.9965346 0.0573576 0.9965346 0.0573576 0.0034654 -0.0573576
15834590 0.0033342 -0.0562044 0.9966658 0.0562044 0.9966658 0.0562044 0.0033342 -0.0562044
16154727 0.0032082 -0.0550731 0.9967918 0.0550731 0.9967918 0.0550731 0.0032082 -0.0550731
16481337 0.0030872 -0.0539634 0.9969128 0.0539634 0.9969128 0.0539634 0.0030872 -0.0539634
16814550 0.0029709 -0.0528748 0.9970291 0.0528748 0.9970291 0.0528748 0.0029709 -0.0528748
17154499 0.0028592 -0.0518068 0.9971408 0.0518068 0.9971408 0.0518068 0.0028592 -0.0518068
17501322 0.0027520 -0.0507592 0.9972480 0.0507592 0.9972480 0.0507592 0.0027520 -0.0507592
17855156 0.0026490 -0.0497315 0.9973510 0.0497315 0.9973510 0.0497315 0.0026490 -0.0497315
18216144 0.0025500 -0.0487234 0.9974500 0.0487234 0.9974500 0.0487234 0.0025500 -0.0487234
18584431 0.0024550 -0.0477344 0.9975450 0.0477344 0.9975450 0.0477344 0.0024550 -0.0477344
18960163 0.0023638 -0.0467641 0.9976362 0.0467641 0.9976362 0.0467641 0.0023638 -0.0467641
19343491 0.0022763 -0.0458123 0.9977237 0.0458123 0.9977237 0.0458123 0.0022763 -0.0458123
19734570 0.0021922 -0.0448785 0.9978078 0.0448785 0.9978078 0.0448785 0.0021922 -0.0448785
20133555 0.0021115 -0.0439624 0.9978885 0.0439624 0.9978885 0.0439624 0.0021115 -0.0439624
20540607 0.0020340 -0.0430637 0.9979660 0.0430637 0.9979660 0.0430637 0.0020340 -0.0430637
20955888 0.0019596 -0.0421820 0.9980404 0.0421820 0.9980404 0.0421820 0.0019596 -0.0421820
21379566 0.0018882 -0.0413169 0.9981118 0.0413169 0.9981118 0.0413169 0.0018882 -0.0413169
21811809 0.0018197 -0.0404682 0.9981803 0.0404682 0.9981803 0.0404682 0.0018197 -0.0404682
22252791 0.0017539 -0.0396355 0.9982461 0.0396355 0.9982461 0.0396355 0.0017539 -0.0396355
22702688 0.0016909 -0.0388185 0.9983091 0.0388185 0.9983091 0.0388185 0.0016909 -0.0388185
23161682 0.0016303 -0.0380168 0.9983697 0.0380168 0.9983697 0.0380168 0.0016303 -0.0380168
23629955 0.0015723 -0.0372303 0.9984277 0.0372303 0.9984277 0.0372303 0.0015723 -0.0372303
24107696 0.0015166 -0.0364585 0.9984834 0.0364585 0.9984834 0.0364585 0.0015166 -0.0364585
24595095 0.0014632 -0.0357012 0.9985368 0.0357012 0.9985368 0.0357012 0.0014632 -0.0357012
25092348 0.0014120 -0.0349580 0.9985880 0.0349580 0.9985880 0.0349580 0.0014120 -0.0349580
25599655 0.0013629 -0.0342288 0.9986371 0.0342288 0.9986371 0.0342288 0.0013629 -0.0342288
26117218 0.0013158 -0.0335131 0.9986842 0.0335131 0.9986842 0.0335131 0.0013158 -0.0335131
26645245 0.0012707 -0.0328108 0.9987293 0.0328108 0.9987293 0.0328108 0.0012707 -0.0328108
27183947 0.0012275 -0.0321216 0.9987725 0.0321216 0.9987725 0.0321216 0.0012275 -0.0321216
27733541 0.0011861 -0.0314452 0.9988139 0.0314452 0.9988139 0.0314452 0.0011861 -0.0314452
28294246 0.0011464 -0.0307812 0.9988536 0.0307812 0.9988536 0.0307812 0.0011464 -0.0307812
28866287 0.0011084 -0.0301296 0.9988916 0.0301296 0.9988916 0.0301296 0.0011084 -0.0301296
29449894 0.0010720 -0.0294900 0.9989280 0.0294900 0.9989280 0.0294900 0.0010720 -0.0294900
30045299 0.0010372 -0.0288622 0.9989628 0.0288622 0.9989628 0.0288622 0.0010372 -0.0288622
30652742 0.0010039 -0.0282459 0.9989961 0.0282459 0.9989961 0.0282459 0.0010039 -0.0282459
31272467 0.0009720 -0.0276408 0.9990280 0.0276408 0.9990280 0.0276408 0.0009720 -0.0276408
31904720 0.0009415 -0.0270469 0.9990585 0.0270469 0.9990585 0.0270469 0.0009415 -0.0270469
32549757 0.0009124 -0.0264638 0.9990876 0.0264638 0.9990876 0.0264638 0.0009124 -0.0264638
33207834 0.0008845 -0.0258912 0.9991155 0.0258912 0.9991155 0.0258912 0.0008845 -0.0258912
33879216 0.0008579 -0.0253291 0.9991421 0.0253291 0.9991421 0.0253291 0.0008579 -0.0253291
34564172 0.0008325 -0.0247771 0.9991675 0.0247771 0.9991675 0.0247771 0.0008325 -0.0247771
35262976 0.0008082 -0.0242350 0.9991918 0.0242350 0.9991918 0.0242350 0.0008082 -0.0242350
35975908 0.0007851 -0.0237027 0.9992149 0.0237027 0.9992149 0.0237027 0.0007851 -0.0237027
36703254 0.0007630 -0.0231799 0.9992370 0.0231799 0.9992370 0.0231799 0.0007630 -0.0231799
37445305 0.0007419 -0.0226664 0.9992581 0.0226664 0.9992581 0.0226664 0.0007419 -0.0226664
38202358 0.0007219 -0.0221620 0.9992781 0.0221620 0.9992781 0.0221620 0.0007219 -0.0221620
38974717 0.0007027 -0.0216665 0.9992973 0.0216665 0.9992973 0.0216665 0.0007027 -0.0216665
39762692 0.0006846 -0.0211798 0.9993154 0.0211798 0.9993154 0.0211798 0.0006846 -0.0211798
40566597 0.0006673 -0.0207016 0.9993327 0.0207016 0.9993327 0.0207016 0.0006673 -0.0207016
41386756 0.0006508 -0.0202318 0.9993492 0.0202318 0.9993492 0.0202318 0.0006508 -0.0202318
42223496 0.0006352 -0.0197701 0.9993648 0.0197701 0.9993648 0.0197701 0.0006352 -0.0197701
43077153 0.0006203 -0.0193164 0.9993797 0.0193164 0.9993797 0.0193164 0.0006203 -0.0193164
43948069 0.0006063 -0.0188706 0.9993937 0.0188706 0.9993937 0.0188706 0.0006063 -0.0188706
44836592 0.0005929 -0.0184323 0.9994071 0.0184323 0.9994071 0.0184323 0.0005929 -0.0184323
45743080 0.0005803 -0.0180015 0.9994197 0.0180015 0.9994197 0.0180015 0.0005803 -0.0180015
46667894 0.0005684 -0.0175781 0.9994316 0.0175781 0.9994316 0.0175781 0.0005684 -0.0175781
47611406 0.0005571 -0.0171617 0.9994429 0.0171617 0.9994429 0.0171617 0.0005571 -0.0171617
48573993 0.0005464 -0.0167523 0.9994536 0.0167523 0.9994536 0.0167523 0.0005464 -0.0167523
49556042 0.0005364 -0.0163498 0.9994636 0.0163498 0.9994636 0.0163498 0.0005364 -0.0163498
50557945 0.0005269 -0.0159538 0.9994731 0.0159538 0.9994731 0.0159538 0.0005269 -0.0159538
51580105 0.0005180 -0.0155644 0.9994820 0.0155644 0.9994820 0.0155644 0.0005180 -0.0155644
52622929 0.0005096 -0.0151813 0.9994904 0.0151813 0.9994904 0.0151813 0.0005096 -0.0151813
53686838 0.0005018 -0.0148044 0.9994982 0.0148044 0.9994982 0.0148044 0.0005018 -0.0148044
54772256 0.0004944 -0.0144335 0.9995056 0.0144335 0.9995056 0.0144335 0.0004944 -0.0144335
55879618 0.0004875 -0.0140685 0.9995125 0.0140685 0.9995125 0.0140685 0.0004875 -0.0140685
57009369 0.0004811 -0.0137093 0.9995189 0.0137093 0.9995189 0.0137093 0.0004811 -0.0137093
58161960 0.0004751 -0.0133557 0.9995249 0.0133557 0.9995249 0.0133557 0.0004751 -0.0133557
59337855 0.0004696 -0.0130075 0.9995304 0.0130075 0.9995304 0.0130075 0.0004696 -0.0130075
60537522 0.0004644 -0.0126647 0.9995356 0.0126647 0.9995356 0.0126647 0.0004644 -0.0126647
61761445 0.0004597 -0.0123270 0.9995403 0.0123270 0.9995403 0.0123270 0.0004597 -0.0123270
63010112 0.0004553 -0.0119944 0.9995447 0.0119944 0.9995447 0.0119944 0.0004553 -0.0119944
64284024 0.0004512 -0.0116668 0.9995488 0.0116668 0.9995488 0.0116668 0.0004512 -0.0116668
65583691 0.0004475 -0.0113439 0.9995525 0.0113439 0.9995525 0.0113439 0.0004475 -0.0113439
66909635 0.0004442 -0.0110257 0.9995558 0.0110257 0.9995558 0.0110257 0.0004442 -0.0110257
68262386 0.0004411 -0.0107120 0.9995589 0.0107120 0.9995589 0.0107120 0.0004411 -0.0107120
69642486 0.0004384 -0.0104027 0.9995616 0.0104027 0.9995616 0.0104027 0.0004384 -0.0104027
71050488 0.0004359 -0.0100977 0.9995641 0.0100977 0.9995641 0.0100977 0.0004359 -0.0100977
72486957 0.0004337 -0.0097968 0.9995663 0.0097968 0.9995663 0.0097968 0.0004337 -0.0097968
73952468 0.0004318 -0.0095000 0.9995682 0.0095000 0.9995682 0.0095000 0.0004318 -0.0095000
