!Murata Part Number: GRM2163U1H153JA01
!These Parameters are Measured in Series Mode Connection
!Data Generated on Mar 30, 2021
!       o--ll--o
!Port1            Port2
!       o------o
!Operation Temp=25[degC], DC Bias Voltage=0[V]
!Freq. Start=1000[kHz] Stop=6[GHz] 401[Steps]
# Hz S RI R 50
!Freq.(Hz) S11(Real) S11(Imag) S21(Real) S21(Imag) S12(Real) S12(Imag) S22(Real) S22(Imag)
1000000 0.0111992 -0.1048878 0.9888008 0.1048878 0.9888008 0.1048878 0.0111992 -0.1048878
1021987 0.0107304 -0.1026782 0.9892696 0.1026782 0.9892696 0.1026782 0.0107304 -0.1026782
1044457 0.0102811 -0.1005131 0.9897189 0.1005131 0.9897189 0.1005131 0.0102811 -0.1005131
1067422 0.0098505 -0.0983918 0.9901495 0.0983918 0.9901495 0.0983918 0.0098505 -0.0983918
1090891 0.0094380 -0.0963133 0.9905620 0.0963133 0.9905620 0.0963133 0.0094380 -0.0963133
1114877 0.0090426 -0.0942770 0.9909574 0.0942770 0.9909574 0.0942770 0.0090426 -0.0942770
1139390 0.0086638 -0.0922822 0.9913362 0.0922822 0.9913362 0.0922822 0.0086638 -0.0922822
1164441 0.0083009 -0.0903280 0.9916991 0.0903280 0.9916991 0.0903280 0.0083009 -0.0903280
1190044 0.0079532 -0.0884137 0.9920468 0.0884137 0.9920468 0.0884137 0.0079532 -0.0884137
1216210 0.0076200 -0.0865387 0.9923800 0.0865387 0.9923800 0.0865387 0.0076200 -0.0865387
1242950 0.0073008 -0.0847021 0.9926992 0.0847021 0.9926992 0.0847021 0.0073008 -0.0847021
1270279 0.0069950 -0.0829033 0.9930050 0.0829033 0.9930050 0.0829033 0.0069950 -0.0829033
1298209 0.0067021 -0.0811416 0.9932979 0.0811416 0.9932979 0.0811416 0.0067021 -0.0811416
1326753 0.0064214 -0.0794162 0.9935786 0.0794162 0.9935786 0.0794162 0.0064214 -0.0794162
1355924 0.0061526 -0.0777264 0.9938474 0.0777264 0.9938474 0.0777264 0.0061526 -0.0777264
1385737 0.0058951 -0.0760717 0.9941049 0.0760717 0.9941049 0.0760717 0.0058951 -0.0760717
1416205 0.0056484 -0.0744513 0.9943516 0.0744513 0.9943516 0.0744513 0.0056484 -0.0744513
1447343 0.0054121 -0.0728645 0.9945879 0.0728645 0.9945879 0.0728645 0.0054121 -0.0728645
1479166 0.0051858 -0.0713107 0.9948142 0.0713107 0.9948142 0.0713107 0.0051858 -0.0713107
1511688 0.0049690 -0.0697893 0.9950310 0.0697893 0.9950310 0.0697893 0.0049690 -0.0697893
1544926 0.0047614 -0.0682996 0.9952386 0.0682996 0.9952386 0.0682996 0.0047614 -0.0682996
1578894 0.0045625 -0.0668410 0.9954375 0.0668410 0.9954375 0.0668410 0.0045625 -0.0668410
1613609 0.0043720 -0.0654129 0.9956280 0.0654129 0.9956280 0.0654129 0.0043720 -0.0654129
1649087 0.0041896 -0.0640147 0.9958104 0.0640147 0.9958104 0.0640147 0.0041896 -0.0640147
1685346 0.0040148 -0.0626457 0.9959852 0.0626457 0.9959852 0.0626457 0.0040148 -0.0626457
1722402 0.0038475 -0.0613055 0.9961525 0.0613055 0.9961525 0.0613055 0.0038475 -0.0613055
1760272 0.0036872 -0.0599934 0.9963128 0.0599934 0.9963128 0.0599934 0.0036872 -0.0599934
1798975 0.0035338 -0.0587088 0.9964662 0.0587088 0.9964662 0.0587088 0.0035338 -0.0587088
1838529 0.0033868 -0.0574512 0.9966132 0.0574512 0.9966132 0.0574512 0.0033868 -0.0574512
1878953 0.0032460 -0.0562202 0.9967540 0.0562202 0.9967540 0.0562202 0.0032460 -0.0562202
1920266 0.0031112 -0.0550150 0.9968888 0.0550150 0.9968888 0.0550150 0.0031112 -0.0550150
1962487 0.0029822 -0.0538352 0.9970178 0.0538352 0.9970178 0.0538352 0.0029822 -0.0538352
2005636 0.0028585 -0.0526803 0.9971415 0.0526803 0.9971415 0.0526803 0.0028585 -0.0526803
2049734 0.0027402 -0.0515497 0.9972598 0.0515497 0.9972598 0.0515497 0.0027402 -0.0515497
2094801 0.0026268 -0.0504431 0.9973732 0.0504431 0.9973732 0.0504431 0.0026268 -0.0504431
2140860 0.0025183 -0.0493598 0.9974817 0.0493598 0.9974817 0.0493598 0.0025183 -0.0493598
2187931 0.0024144 -0.0482994 0.9975856 0.0482994 0.9975856 0.0482994 0.0024144 -0.0482994
2236037 0.0023149 -0.0472614 0.9976851 0.0472614 0.9976851 0.0472614 0.0023149 -0.0472614
2285201 0.0022196 -0.0462453 0.9977804 0.0462453 0.9977804 0.0462453 0.0022196 -0.0462453
2335446 0.0021283 -0.0452508 0.9978717 0.0452508 0.9978717 0.0452508 0.0021283 -0.0452508
2386795 0.0020410 -0.0442773 0.9979590 0.0442773 0.9979590 0.0442773 0.0020410 -0.0442773
2439274 0.0019574 -0.0433245 0.9980426 0.0433245 0.9980426 0.0433245 0.0019574 -0.0433245
2492906 0.0018773 -0.0423918 0.9981227 0.0423918 0.9981227 0.0423918 0.0018773 -0.0423918
2547717 0.0018006 -0.0414789 0.9981994 0.0414789 0.9981994 0.0414789 0.0018006 -0.0414789
2603734 0.0017272 -0.0405854 0.9982728 0.0405854 0.9982728 0.0405854 0.0017272 -0.0405854
2660982 0.0016570 -0.0397108 0.9983430 0.0397108 0.9983430 0.0397108 0.0016570 -0.0397108
2719490 0.0015897 -0.0388547 0.9984103 0.0388547 0.9984103 0.0388547 0.0015897 -0.0388547
2779283 0.0015253 -0.0380168 0.9984747 0.0380168 0.9984747 0.0380168 0.0015253 -0.0380168
2840391 0.0014637 -0.0371967 0.9985363 0.0371967 0.9985363 0.0371967 0.0014637 -0.0371967
2902843 0.0014046 -0.0363940 0.9985954 0.0363940 0.9985954 0.0363940 0.0014046 -0.0363940
2966668 0.0013482 -0.0356084 0.9986518 0.0356084 0.9986518 0.0356084 0.0013482 -0.0356084
3031896 0.0012941 -0.0348394 0.9987059 0.0348394 0.9987059 0.0348394 0.0012941 -0.0348394
3098558 0.0012423 -0.0340867 0.9987577 0.0340867 0.9987577 0.0340867 0.0012423 -0.0340867
3166686 0.0011928 -0.0333500 0.9988072 0.0333500 0.9988072 0.0333500 0.0011928 -0.0333500
3236312 0.0011454 -0.0326290 0.9988546 0.0326290 0.9988546 0.0326290 0.0011454 -0.0326290
3307469 0.0011000 -0.0319232 0.9989000 0.0319232 0.9989000 0.0319232 0.0011000 -0.0319232
3380190 0.0010565 -0.0312325 0.9989435 0.0312325 0.9989435 0.0312325 0.0010565 -0.0312325
3454511 0.0010150 -0.0305564 0.9989850 0.0305564 0.9989850 0.0305564 0.0010150 -0.0305564
3530465 0.0009752 -0.0298947 0.9990248 0.0298947 0.9990248 0.0298947 0.0009752 -0.0298947
3608090 0.0009371 -0.0292470 0.9990629 0.0292470 0.9990629 0.0292470 0.0009371 -0.0292470
3687421 0.0009007 -0.0286130 0.9990993 0.0286130 0.9990993 0.0286130 0.0009007 -0.0286130
3768496 0.0008658 -0.0279926 0.9991342 0.0279926 0.9991342 0.0279926 0.0008658 -0.0279926
3851354 0.0008325 -0.0273852 0.9991675 0.0273852 0.9991675 0.0273852 0.0008325 -0.0273852
3936034 0.0008006 -0.0267908 0.9991994 0.0267908 0.9991994 0.0267908 0.0008006 -0.0267908
4022575 0.0007701 -0.0262090 0.9992299 0.0262090 0.9992299 0.0262090 0.0007701 -0.0262090
4111020 0.0007409 -0.0256395 0.9992591 0.0256395 0.9992591 0.0256395 0.0007409 -0.0256395
4201409 0.0007129 -0.0250821 0.9992871 0.0250821 0.9992871 0.0250821 0.0007129 -0.0250821
4293785 0.0006862 -0.0245365 0.9993138 0.0245365 0.9993138 0.0245365 0.0006862 -0.0245365
4388193 0.0006606 -0.0240025 0.9993394 0.0240025 0.9993394 0.0240025 0.0006606 -0.0240025
4484676 0.0006362 -0.0234798 0.9993638 0.0234798 0.9993638 0.0234798 0.0006362 -0.0234798
4583281 0.0006128 -0.0229682 0.9993872 0.0229682 0.9993872 0.0229682 0.0006128 -0.0229682
4684054 0.0005905 -0.0224674 0.9994095 0.0224674 0.9994095 0.0224674 0.0005905 -0.0224674
4787042 0.0005691 -0.0219772 0.9994309 0.0219772 0.9994309 0.0219772 0.0005691 -0.0219772
4892295 0.0005487 -0.0214973 0.9994513 0.0214973 0.9994513 0.0214973 0.0005487 -0.0214973
4999862 0.0005291 -0.0210276 0.9994709 0.0210276 0.9994709 0.0210276 0.0005291 -0.0210276
5109794 0.0005105 -0.0205679 0.9994895 0.0205679 0.9994895 0.0205679 0.0005105 -0.0205679
5222143 0.0004926 -0.0201178 0.9995074 0.0201178 0.9995074 0.0201178 0.0004926 -0.0201178
5336962 0.0004756 -0.0196773 0.9995244 0.0196773 0.9995244 0.0196773 0.0004756 -0.0196773
5454306 0.0004592 -0.0192460 0.9995408 0.0192460 0.9995408 0.0192460 0.0004592 -0.0192460
5574230 0.0004437 -0.0188239 0.9995563 0.0188239 0.9995563 0.0188239 0.0004437 -0.0188239
5696791 0.0004288 -0.0184106 0.9995712 0.0184106 0.9995712 0.0184106 0.0004288 -0.0184106
5822046 0.0004146 -0.0180060 0.9995854 0.0180060 0.9995854 0.0180060 0.0004146 -0.0180060
5950055 0.0004010 -0.0176100 0.9995990 0.0176100 0.9995990 0.0176100 0.0004010 -0.0176100
6080879 0.0003880 -0.0172223 0.9996120 0.0172223 0.9996120 0.0172223 0.0003880 -0.0172223
6214580 0.0003756 -0.0168427 0.9996244 0.0168427 0.9996244 0.0168427 0.0003756 -0.0168427
6351220 0.0003638 -0.0164711 0.9996362 0.0164711 0.9996362 0.0164711 0.0003638 -0.0164711
6490864 0.0003525 -0.0161073 0.9996475 0.0161073 0.9996475 0.0161073 0.0003525 -0.0161073
6633579 0.0003417 -0.0157512 0.9996583 0.0157512 0.9996583 0.0157512 0.0003417 -0.0157512
6779431 0.0003315 -0.0154025 0.9996685 0.0154025 0.9996685 0.0154025 0.0003315 -0.0154025
6928491 0.0003216 -0.0150610 0.9996784 0.0150610 0.9996784 0.0150610 0.0003216 -0.0150610
7080828 0.0003123 -0.0147267 0.9996877 0.0147267 0.9996877 0.0147267 0.0003123 -0.0147267
7236514 0.0003033 -0.0143994 0.9996967 0.0143994 0.9996967 0.0143994 0.0003033 -0.0143994
7395623 0.0002948 -0.0140789 0.9997052 0.0140789 0.9997052 0.0140789 0.0002948 -0.0140789
7558231 0.0002867 -0.0137651 0.9997133 0.0137651 0.9997133 0.0137651 0.0002867 -0.0137651
7724414 0.0002790 -0.0134578 0.9997210 0.0134578 0.9997210 0.0134578 0.0002790 -0.0134578
7894251 0.0002716 -0.0131569 0.9997284 0.0131569 0.9997284 0.0131569 0.0002716 -0.0131569
8067822 0.0002645 -0.0128622 0.9997355 0.0128622 0.9997355 0.0128622 0.0002645 -0.0128622
8245209 0.0002578 -0.0125737 0.9997422 0.0125737 0.9997422 0.0125737 0.0002578 -0.0125737
8426497 0.0002514 -0.0122911 0.9997486 0.0122911 0.9997486 0.0122911 0.0002514 -0.0122911
8611770 0.0002454 -0.0120143 0.9997546 0.0120143 0.9997546 0.0120143 0.0002454 -0.0120143
8801117 0.0002396 -0.0117432 0.9997604 0.0117432 0.9997604 0.0117432 0.0002396 -0.0117432
8994628 0.0002341 -0.0114777 0.9997659 0.0114777 0.9997659 0.0114777 0.0002341 -0.0114777
9192393 0.0002288 -0.0112176 0.9997712 0.0112176 0.9997712 0.0112176 0.0002288 -0.0112176
9394506 0.0002238 -0.0109629 0.9997762 0.0109629 0.9997762 0.0109629 0.0002238 -0.0109629
9601063 0.0002191 -0.0107133 0.9997809 0.0107133 0.9997809 0.0107133 0.0002191 -0.0107133
9812162 0.0002146 -0.0104689 0.9997854 0.0104689 0.9997854 0.0104689 0.0002146 -0.0104689
10027902 0.0002103 -0.0102294 0.9997897 0.0102294 0.9997897 0.0102294 0.0002103 -0.0102294
10248386 0.0002062 -0.0099948 0.9997938 0.0099948 0.9997938 0.0099948 0.0002062 -0.0099948
10473717 0.0002023 -0.0097649 0.9997977 0.0097649 0.9997977 0.0097649 0.0002023 -0.0097649
10704003 0.0001987 -0.0095396 0.9998013 0.0095396 0.9998013 0.0095396 0.0001987 -0.0095396
10939352 0.0001952 -0.0093189 0.9998048 0.0093189 0.9998048 0.0093189 0.0001952 -0.0093189
11179876 0.0001919 -0.0091026 0.9998081 0.0091026 0.9998081 0.0091026 0.0001919 -0.0091026
11425688 0.0001888 -0.0088907 0.9998112 0.0088907 0.9998112 0.0088907 0.0001888 -0.0088907
11676904 0.0001858 -0.0086829 0.9998142 0.0086829 0.9998142 0.0086829 0.0001858 -0.0086829
11933645 0.0001830 -0.0084793 0.9998170 0.0084793 0.9998170 0.0084793 0.0001830 -0.0084793
12196030 0.0001803 -0.0082797 0.9998197 0.0082797 0.9998197 0.0082797 0.0001803 -0.0082797
12464184 0.0001778 -0.0080841 0.9998222 0.0080841 0.9998222 0.0080841 0.0001778 -0.0080841
12738235 0.0001755 -0.0078922 0.9998245 0.0078922 0.9998245 0.0078922 0.0001755 -0.0078922
13018310 0.0001732 -0.0077042 0.9998268 0.0077042 0.9998268 0.0077042 0.0001732 -0.0077042
13304544 0.0001711 -0.0075198 0.9998289 0.0075198 0.9998289 0.0075198 0.0001711 -0.0075198
13597071 0.0001692 -0.0073389 0.9998308 0.0073389 0.9998308 0.0073389 0.0001692 -0.0073389
13896030 0.0001673 -0.0071616 0.9998327 0.0071616 0.9998327 0.0071616 0.0001673 -0.0071616
14201563 0.0001656 -0.0069876 0.9998344 0.0069876 0.9998344 0.0069876 0.0001656 -0.0069876
14513813 0.0001640 -0.0068170 0.9998360 0.0068170 0.9998360 0.0068170 0.0001640 -0.0068170
14832928 0.0001624 -0.0066496 0.9998376 0.0066496 0.9998376 0.0066496 0.0001624 -0.0066496
15159060 0.0001610 -0.0064854 0.9998390 0.0064854 0.9998390 0.0064854 0.0001610 -0.0064854
15492362 0.0001597 -0.0063242 0.9998403 0.0063242 0.9998403 0.0063242 0.0001597 -0.0063242
15832993 0.0001585 -0.0061661 0.9998415 0.0061661 0.9998415 0.0061661 0.0001585 -0.0061661
16181113 0.0001574 -0.0060109 0.9998426 0.0060109 0.9998426 0.0060109 0.0001574 -0.0060109
16536888 0.0001563 -0.0058585 0.9998437 0.0058585 0.9998437 0.0058585 0.0001563 -0.0058585
16900485 0.0001554 -0.0057089 0.9998446 0.0057089 0.9998446 0.0057089 0.0001554 -0.0057089
17272076 0.0001545 -0.0055620 0.9998455 0.0055620 0.9998455 0.0055620 0.0001545 -0.0055620
17651837 0.0001538 -0.0054178 0.9998462 0.0054178 0.9998462 0.0054178 0.0001538 -0.0054178
18039948 0.0001531 -0.0052762 0.9998469 0.0052762 0.9998469 0.0052762 0.0001531 -0.0052762
18436593 0.0001525 -0.0051370 0.9998475 0.0051370 0.9998475 0.0051370 0.0001525 -0.0051370
18841959 0.0001519 -0.0050003 0.9998481 0.0050003 0.9998481 0.0050003 0.0001519 -0.0050003
19256237 0.0001515 -0.0048660 0.9998485 0.0048660 0.9998485 0.0048660 0.0001515 -0.0048660
19679624 0.0001511 -0.0047339 0.9998489 0.0047339 0.9998489 0.0047339 0.0001511 -0.0047339
20112321 0.0001508 -0.0046042 0.9998492 0.0046042 0.9998492 0.0046042 0.0001508 -0.0046042
20554530 0.0001506 -0.0044766 0.9998494 0.0044766 0.9998494 0.0044766 0.0001506 -0.0044766
21006463 0.0001504 -0.0043511 0.9998496 0.0043511 0.9998496 0.0043511 0.0001504 -0.0043511
21468333 0.0001504 -0.0042277 0.9998496 0.0042277 0.9998496 0.0042277 0.0001504 -0.0042277
21940357 0.0001504 -0.0041063 0.9998496 0.0041063 0.9998496 0.0041063 0.0001504 -0.0041063
22422760 0.0001504 -0.0039869 0.9998496 0.0039869 0.9998496 0.0039869 0.0001504 -0.0039869
22915770 0.0001506 -0.0038693 0.9998494 0.0038693 0.9998494 0.0038693 0.0001506 -0.0038693
23419619 0.0001508 -0.0037536 0.9998492 0.0037536 0.9998492 0.0037536 0.0001508 -0.0037536
23934547 0.0001510 -0.0036397 0.9998490 0.0036397 0.9998490 0.0036397 0.0001510 -0.0036397
24460796 0.0001514 -0.0035275 0.9998486 0.0035275 0.9998486 0.0035275 0.0001514 -0.0035275
24998616 0.0001518 -0.0034170 0.9998482 0.0034170 0.9998482 0.0034170 0.0001518 -0.0034170
25548261 0.0001523 -0.0033081 0.9998477 0.0033081 0.9998477 0.0033081 0.0001523 -0.0033081
26109991 0.0001529 -0.0032007 0.9998471 0.0032007 0.9998471 0.0032007 0.0001529 -0.0032007
26684072 0.0001535 -0.0030949 0.9998465 0.0030949 0.9998465 0.0030949 0.0001535 -0.0030949
27270775 0.0001543 -0.0029906 0.9998457 0.0029906 0.9998457 0.0029906 0.0001543 -0.0029906
27870378 0.0001551 -0.0028877 0.9998449 0.0028877 0.9998449 0.0028877 0.0001551 -0.0028877
28483164 0.0001559 -0.0027861 0.9998441 0.0027861 0.9998441 0.0027861 0.0001559 -0.0027861
29109424 0.0001569 -0.0026859 0.9998431 0.0026859 0.9998431 0.0026859 0.0001569 -0.0026859
29749453 0.0001579 -0.0025869 0.9998421 0.0025869 0.9998421 0.0025869 0.0001579 -0.0025869
30403555 0.0001590 -0.0024892 0.9998410 0.0024892 0.9998410 0.0024892 0.0001590 -0.0024892
31072038 0.0001603 -0.0023927 0.9998397 0.0023927 0.9998397 0.0023927 0.0001603 -0.0023927
31755220 0.0001615 -0.0022973 0.9998385 0.0022973 0.9998385 0.0022973 0.0001615 -0.0022973
32453422 0.0001629 -0.0022030 0.9998371 0.0022030 0.9998371 0.0022030 0.0001629 -0.0022030
33166976 0.0001644 -0.0021097 0.9998356 0.0021097 0.9998356 0.0021097 0.0001644 -0.0021097
33896219 0.0001660 -0.0020174 0.9998340 0.0020174 0.9998340 0.0020174 0.0001660 -0.0020174
34641496 0.0001676 -0.0019261 0.9998324 0.0019261 0.9998324 0.0019261 0.0001676 -0.0019261
35403159 0.0001694 -0.0018358 0.9998306 0.0018358 0.9998306 0.0018358 0.0001694 -0.0018358
36181569 0.0001713 -0.0017463 0.9998287 0.0017463 0.9998287 0.0017463 0.0001713 -0.0017463
36977093 0.0001732 -0.0016576 0.9998268 0.0016576 0.9998268 0.0016576 0.0001732 -0.0016576
37790109 0.0001753 -0.0015697 0.9998247 0.0015697 0.9998247 0.0015697 0.0001753 -0.0015697
38621001 0.0001775 -0.0014825 0.9998225 0.0014825 0.9998225 0.0014825 0.0001775 -0.0014825
39470161 0.0001798 -0.0013961 0.9998202 0.0013961 0.9998202 0.0013961 0.0001798 -0.0013961
40337993 0.0001823 -0.0013103 0.9998177 0.0013103 0.9998177 0.0013103 0.0001823 -0.0013103
41224905 0.0001848 -0.0012252 0.9998152 0.0012252 0.9998152 0.0012252 0.0001848 -0.0012252
42131317 0.0001875 -0.0011406 0.9998125 0.0011406 0.9998125 0.0011406 0.0001875 -0.0011406
43057659 0.0001904 -0.0010566 0.9998096 0.0010566 0.9998096 0.0010566 0.0001904 -0.0010566
44004369 0.0001934 -0.0009730 0.9998066 0.0009730 0.9998066 0.0009730 0.0001934 -0.0009730
44971893 0.0001965 -0.0008900 0.9998035 0.0008900 0.9998035 0.0008900 0.0001965 -0.0008900
45960691 0.0001998 -0.0008073 0.9998002 0.0008073 0.9998002 0.0008073 0.0001998 -0.0008073
46971230 0.0002032 -0.0007251 0.9997968 0.0007251 0.9997968 0.0007251 0.0002032 -0.0007251
48003987 0.0002068 -0.0006432 0.9997932 0.0006432 0.9997932 0.0006432 0.0002068 -0.0006432
49059451 0.0002106 -0.0005615 0.9997894 0.0005615 0.9997894 0.0005615 0.0002106 -0.0005615
50138122 0.0002145 -0.0004802 0.9997855 0.0004802 0.9997855 0.0004802 0.0002145 -0.0004802
51240510 0.0002187 -0.0003990 0.9997813 0.0003990 0.9997813 0.0003990 0.0002187 -0.0003990
52367136 0.0002230 -0.0003181 0.9997770 0.0003181 0.9997770 0.0003181 0.0002230 -0.0003181
53518533 0.0002275 -0.0002372 0.9997725 0.0002372 0.9997725 0.0002372 0.0002275 -0.0002372
54695245 0.0002323 -0.0001565 0.9997677 0.0001565 0.9997677 0.0001565 0.0002323 -0.0001565
55897831 0.0002373 -0.0000759 0.9997627 0.0000759 0.9997627 0.0000759 0.0002373 -0.0000759
57126857 0.0002425 0.0000048 0.9997575 -0.0000048 0.9997575 -0.0000048 0.0002425 0.0000048
58382906 0.0002480 0.0000855 0.9997520 -0.0000855 0.9997520 -0.0000855 0.0002480 0.0000855
59666572 0.0002537 0.0001662 0.9997463 -0.0001662 0.9997463 -0.0001662 0.0002537 0.0001662
60978462 0.0002597 0.0002471 0.9997403 -0.0002471 0.9997403 -0.0002471 0.0002597 0.0002471
62319196 0.0002659 0.0003281 0.9997341 -0.0003281 0.9997341 -0.0003281 0.0002659 0.0003281
63689409 0.0002725 0.0004093 0.9997275 -0.0004093 0.9997275 -0.0004093 0.0002725 0.0004093
65089750 0.0002794 0.0004908 0.9997206 -0.0004908 0.9997206 -0.0004908 0.0002794 0.0004908
66520879 0.0002866 0.0005726 0.9997134 -0.0005726 0.9997134 -0.0005726 0.0002866 0.0005726
67983474 0.0002942 0.0006547 0.9997058 -0.0006547 0.9997058 -0.0006547 0.0002942 0.0006547
69478228 0.0003022 0.0007373 0.9996978 -0.0007373 0.9996978 -0.0007373 0.0003022 0.0007373
71005847 0.0003106 0.0008203 0.9996894 -0.0008203 0.9996894 -0.0008203 0.0003106 0.0008203
72567054 0.0003194 0.0009038 0.9996806 -0.0009038 0.9996806 -0.0009038 0.0003194 0.0009038
74162587 0.0003286 0.0009879 0.9996714 -0.0009879 0.9996714 -0.0009879 0.0003286 0.0009879
75793201 0.0003384 0.0010726 0.9996616 -0.0010726 0.9996616 -0.0010726 0.0003384 0.0010726
77459667 0.0003487 0.0011581 0.9996513 -0.0011581 0.9996513 -0.0011581 0.0003487 0.0011581
79162774 0.0003595 0.0012443 0.9996405 -0.0012443 0.9996405 -0.0012443 0.0003595 0.0012443
80903327 0.0003711 0.0013314 0.9996289 -0.0013314 0.9996289 -0.0013314 0.0003711 0.0013314
82682150 0.0003833 0.0014194 0.9996167 -0.0014194 0.9996167 -0.0014194 0.0003833 0.0014194
84500083 0.0003963 0.0015085 0.9996037 -0.0015085 0.9996037 -0.0015085 0.0003963 0.0015085
86357988 0.0004101 0.0015987 0.9995899 -0.0015987 0.9995899 -0.0015987 0.0004101 0.0015987
88256743 0.0004249 0.0016901 0.9995751 -0.0016901 0.9995751 -0.0016901 0.0004249 0.0016901
90197245 0.0004409 0.0017829 0.9995591 -0.0017829 0.9995591 -0.0017829 0.0004409 0.0017829
92180413 0.0004581 0.0018772 0.9995419 -0.0018772 0.9995419 -0.0018772 0.0004581 0.0018772
94207185 0.0004767 0.0019731 0.9995233 -0.0019731 0.9995233 -0.0019731 0.0004767 0.0019731
96278520 0.0004970 0.0020708 0.9995030 -0.0020708 0.9995030 -0.0020708 0.0004970 0.0020708
98395398 0.0005194 0.0021704 0.9994806 -0.0021704 0.9994806 -0.0021704 0.0005194 0.0021704
100558819 0.0005441 0.0022721 0.9994559 -0.0022721 0.9994559 -0.0022721 0.0005441 0.0022721
102769807 0.0005717 0.0023761 0.9994283 -0.0023761 0.9994283 -0.0023761 0.0005717 0.0023761
105029408 0.0006030 0.0024826 0.9993970 -0.0024826 0.9993970 -0.0024826 0.0006030 0.0024826
107338692 0.0006386 0.0025916 0.9993614 -0.0025916 0.9993614 -0.0025916 0.0006386 0.0025916
