!Murata Part Number: GRM21B2C1H223JA01
!These Parameters are Measured in Series Mode Connection
!Data Generated on Mar 30, 2021
!       o--ll--o
!Port1            Port2
!       o------o
!Operation Temp=25[degC], DC Bias Voltage=0[V]
!Freq. Start=1000[kHz] Stop=6[GHz] 401[Steps]
# Hz S RI R 50
!Freq.(Hz) S11(Real) S11(Imag) S21(Real) S21(Imag) S12(Real) S12(Imag) S22(Real) S22(Imag)
1000000 0.0051860 -0.0716059 0.9948140 0.0716059 0.9948140 0.0716059 0.0051860 -0.0716059
1021987 0.0049675 -0.0700790 0.9950325 0.0700790 0.9950325 0.0700790 0.0049675 -0.0700790
1044457 0.0047582 -0.0685840 0.9952418 0.0685840 0.9952418 0.0685840 0.0047582 -0.0685840
1067422 0.0045577 -0.0671202 0.9954423 0.0671202 0.9954423 0.0671202 0.0045577 -0.0671202
1090891 0.0043656 -0.0656870 0.9956344 0.0656870 0.9956344 0.0656870 0.0043656 -0.0656870
1114877 0.0041817 -0.0642838 0.9958183 0.0642838 0.9958183 0.0642838 0.0041817 -0.0642838
1139390 0.0040056 -0.0629100 0.9959944 0.0629100 0.9959944 0.0629100 0.0040056 -0.0629100
1164441 0.0038369 -0.0615650 0.9961631 0.0615650 0.9961631 0.0615650 0.0038369 -0.0615650
1190044 0.0036753 -0.0602482 0.9963247 0.0602482 0.9963247 0.0602482 0.0036753 -0.0602482
1216210 0.0035205 -0.0589591 0.9964795 0.0589591 0.9964795 0.0589591 0.0035205 -0.0589591
1242950 0.0033723 -0.0576971 0.9966277 0.0576971 0.9966277 0.0576971 0.0033723 -0.0576971
1270279 0.0032304 -0.0564617 0.9967696 0.0564617 0.9967696 0.0564617 0.0032304 -0.0564617
1298209 0.0030945 -0.0552523 0.9969055 0.0552523 0.9969055 0.0552523 0.0030945 -0.0552523
1326753 0.0029643 -0.0540684 0.9970357 0.0540684 0.9970357 0.0540684 0.0029643 -0.0540684
1355924 0.0028396 -0.0529095 0.9971604 0.0529095 0.9971604 0.0529095 0.0028396 -0.0529095
1385737 0.0027202 -0.0517751 0.9972798 0.0517751 0.9972798 0.0517751 0.0027202 -0.0517751
1416205 0.0026059 -0.0506646 0.9973941 0.0506646 0.9973941 0.0506646 0.0026059 -0.0506646
1447343 0.0024964 -0.0495776 0.9975036 0.0495776 0.9975036 0.0495776 0.0024964 -0.0495776
1479166 0.0023916 -0.0485135 0.9976084 0.0485135 0.9976084 0.0485135 0.0023916 -0.0485135
1511688 0.0022912 -0.0474720 0.9977088 0.0474720 0.9977088 0.0474720 0.0022912 -0.0474720
1544926 0.0021951 -0.0464526 0.9978049 0.0464526 0.9978049 0.0464526 0.0021951 -0.0464526
1578894 0.0021030 -0.0454547 0.9978970 0.0454547 0.9978970 0.0454547 0.0021030 -0.0454547
1613609 0.0020149 -0.0444780 0.9979851 0.0444780 0.9979851 0.0444780 0.0020149 -0.0444780
1649087 0.0019304 -0.0435219 0.9980696 0.0435219 0.9980696 0.0435219 0.0019304 -0.0435219
1685346 0.0018496 -0.0425862 0.9981504 0.0425862 0.9981504 0.0425862 0.0018496 -0.0425862
1722402 0.0017722 -0.0416703 0.9982278 0.0416703 0.9982278 0.0416703 0.0017722 -0.0416703
1760272 0.0016981 -0.0407738 0.9983019 0.0407738 0.9983019 0.0407738 0.0016981 -0.0407738
1798975 0.0016272 -0.0398964 0.9983728 0.0398964 0.9983728 0.0398964 0.0016272 -0.0398964
1838529 0.0015592 -0.0390376 0.9984408 0.0390376 0.9984408 0.0390376 0.0015592 -0.0390376
1878953 0.0014942 -0.0381971 0.9985058 0.0381971 0.9985058 0.0381971 0.0014942 -0.0381971
1920266 0.0014319 -0.0373744 0.9985681 0.0373744 0.9985681 0.0373744 0.0014319 -0.0373744
1962487 0.0013723 -0.0365692 0.9986277 0.0365692 0.9986277 0.0365692 0.0013723 -0.0365692
2005636 0.0013152 -0.0357810 0.9986848 0.0357810 0.9986848 0.0357810 0.0013152 -0.0357810
2049734 0.0012605 -0.0350097 0.9987395 0.0350097 0.9987395 0.0350097 0.0012605 -0.0350097
2094801 0.0012081 -0.0342547 0.9987919 0.0342547 0.9987919 0.0342547 0.0012081 -0.0342547
2140860 0.0011580 -0.0335158 0.9988420 0.0335158 0.9988420 0.0335158 0.0011580 -0.0335158
2187931 0.0011101 -0.0327927 0.9988899 0.0327927 0.9988899 0.0327927 0.0011101 -0.0327927
2236037 0.0010641 -0.0320848 0.9989359 0.0320848 0.9989359 0.0320848 0.0010641 -0.0320848
2285201 0.0010202 -0.0313921 0.9989798 0.0313921 0.9989798 0.0313921 0.0010202 -0.0313921
2335446 0.0009781 -0.0307141 0.9990219 0.0307141 0.9990219 0.0307141 0.0009781 -0.0307141
2386795 0.0009378 -0.0300504 0.9990622 0.0300504 0.9990622 0.0300504 0.0009378 -0.0300504
2439274 0.0008992 -0.0294009 0.9991008 0.0294009 0.9991008 0.0294009 0.0008992 -0.0294009
2492906 0.0008623 -0.0287653 0.9991377 0.0287653 0.9991377 0.0287653 0.0008623 -0.0287653
2547717 0.0008269 -0.0281431 0.9991731 0.0281431 0.9991731 0.0281431 0.0008269 -0.0281431
2603734 0.0007931 -0.0275342 0.9992069 0.0275342 0.9992069 0.0275342 0.0007931 -0.0275342
2660982 0.0007607 -0.0269382 0.9992393 0.0269382 0.9992393 0.0269382 0.0007607 -0.0269382
2719490 0.0007297 -0.0263549 0.9992703 0.0263549 0.9992703 0.0263549 0.0007297 -0.0263549
2779283 0.0007000 -0.0257839 0.9993000 0.0257839 0.9993000 0.0257839 0.0007000 -0.0257839
2840391 0.0006716 -0.0252252 0.9993284 0.0252252 0.9993284 0.0252252 0.0006716 -0.0252252
2902843 0.0006444 -0.0246782 0.9993556 0.0246782 0.9993556 0.0246782 0.0006444 -0.0246782
2966668 0.0006184 -0.0241429 0.9993816 0.0241429 0.9993816 0.0241429 0.0006184 -0.0241429
3031896 0.0005935 -0.0236190 0.9994065 0.0236190 0.9994065 0.0236190 0.0005935 -0.0236190
3098558 0.0005696 -0.0231062 0.9994304 0.0231062 0.9994304 0.0231062 0.0005696 -0.0231062
3166686 0.0005468 -0.0226043 0.9994532 0.0226043 0.9994532 0.0226043 0.0005468 -0.0226043
3236312 0.0005250 -0.0221130 0.9994750 0.0221130 0.9994750 0.0221130 0.0005250 -0.0221130
3307469 0.0005041 -0.0216322 0.9994959 0.0216322 0.9994959 0.0216322 0.0005041 -0.0216322
3380190 0.0004842 -0.0211616 0.9995158 0.0211616 0.9995158 0.0211616 0.0004842 -0.0211616
3454511 0.0004650 -0.0207009 0.9995350 0.0207009 0.9995350 0.0207009 0.0004650 -0.0207009
3530465 0.0004468 -0.0202500 0.9995532 0.0202500 0.9995532 0.0202500 0.0004468 -0.0202500
3608090 0.0004293 -0.0198087 0.9995707 0.0198087 0.9995707 0.0198087 0.0004293 -0.0198087
3687421 0.0004125 -0.0193766 0.9995875 0.0193766 0.9995875 0.0193766 0.0004125 -0.0193766
3768496 0.0003965 -0.0189538 0.9996035 0.0189538 0.9996035 0.0189538 0.0003965 -0.0189538
3851354 0.0003812 -0.0185399 0.9996188 0.0185399 0.9996188 0.0185399 0.0003812 -0.0185399
3936034 0.0003666 -0.0181347 0.9996334 0.0181347 0.9996334 0.0181347 0.0003666 -0.0181347
4022575 0.0003526 -0.0177381 0.9996474 0.0177381 0.9996474 0.0177381 0.0003526 -0.0177381
4111020 0.0003392 -0.0173499 0.9996608 0.0173499 0.9996608 0.0173499 0.0003392 -0.0173499
4201409 0.0003264 -0.0169698 0.9996736 0.0169698 0.9996736 0.0169698 0.0003264 -0.0169698
4293785 0.0003142 -0.0165978 0.9996858 0.0165978 0.9996858 0.0165978 0.0003142 -0.0165978
4388193 0.0003025 -0.0162336 0.9996975 0.0162336 0.9996975 0.0162336 0.0003025 -0.0162336
4484676 0.0002913 -0.0158771 0.9997087 0.0158771 0.9997087 0.0158771 0.0002913 -0.0158771
4583281 0.0002806 -0.0155281 0.9997194 0.0155281 0.9997194 0.0155281 0.0002806 -0.0155281
4684054 0.0002704 -0.0151864 0.9997296 0.0151864 0.9997296 0.0151864 0.0002704 -0.0151864
4787042 0.0002607 -0.0148519 0.9997393 0.0148519 0.9997393 0.0148519 0.0002607 -0.0148519
4892295 0.0002514 -0.0145244 0.9997486 0.0145244 0.9997486 0.0145244 0.0002514 -0.0145244
4999862 0.0002425 -0.0142038 0.9997575 0.0142038 0.9997575 0.0142038 0.0002425 -0.0142038
5109794 0.0002340 -0.0138899 0.9997660 0.0138899 0.9997660 0.0138899 0.0002340 -0.0138899
5222143 0.0002259 -0.0135826 0.9997741 0.0135826 0.9997741 0.0135826 0.0002259 -0.0135826
5336962 0.0002182 -0.0132817 0.9997818 0.0132817 0.9997818 0.0132817 0.0002182 -0.0132817
5454306 0.0002108 -0.0129871 0.9997892 0.0129871 0.9997892 0.0129871 0.0002108 -0.0129871
5574230 0.0002038 -0.0126987 0.9997962 0.0126987 0.9997962 0.0126987 0.0002038 -0.0126987
5696791 0.0001970 -0.0124162 0.9998030 0.0124162 0.9998030 0.0124162 0.0001970 -0.0124162
5822046 0.0001906 -0.0121396 0.9998094 0.0121396 0.9998094 0.0121396 0.0001906 -0.0121396
5950055 0.0001845 -0.0118688 0.9998155 0.0118688 0.9998155 0.0118688 0.0001845 -0.0118688
6080879 0.0001787 -0.0116036 0.9998213 0.0116036 0.9998213 0.0116036 0.0001787 -0.0116036
6214580 0.0001732 -0.0113438 0.9998268 0.0113438 0.9998268 0.0113438 0.0001732 -0.0113438
6351220 0.0001679 -0.0110895 0.9998321 0.0110895 0.9998321 0.0110895 0.0001679 -0.0110895
6490864 0.0001629 -0.0108404 0.9998371 0.0108404 0.9998371 0.0108404 0.0001629 -0.0108404
6633579 0.0001581 -0.0105964 0.9998419 0.0105964 0.9998419 0.0105964 0.0001581 -0.0105964
6779431 0.0001536 -0.0103575 0.9998464 0.0103575 0.9998464 0.0103575 0.0001536 -0.0103575
6928491 0.0001493 -0.0101235 0.9998507 0.0101235 0.9998507 0.0101235 0.0001493 -0.0101235
7080828 0.0001452 -0.0098943 0.9998548 0.0098943 0.9998548 0.0098943 0.0001452 -0.0098943
7236514 0.0001413 -0.0096697 0.9998587 0.0096697 0.9998587 0.0096697 0.0001413 -0.0096697
7395623 0.0001376 -0.0094498 0.9998624 0.0094498 0.9998624 0.0094498 0.0001376 -0.0094498
7558231 0.0001341 -0.0092343 0.9998659 0.0092343 0.9998659 0.0092343 0.0001341 -0.0092343
7724414 0.0001307 -0.0090232 0.9998693 0.0090232 0.9998693 0.0090232 0.0001307 -0.0090232
7894251 0.0001276 -0.0088164 0.9998724 0.0088164 0.9998724 0.0088164 0.0001276 -0.0088164
8067822 0.0001246 -0.0086137 0.9998754 0.0086137 0.9998754 0.0086137 0.0001246 -0.0086137
8245209 0.0001218 -0.0084152 0.9998782 0.0084152 0.9998782 0.0084152 0.0001218 -0.0084152
8426497 0.0001191 -0.0082206 0.9998809 0.0082206 0.9998809 0.0082206 0.0001191 -0.0082206
8611770 0.0001166 -0.0080300 0.9998834 0.0080300 0.9998834 0.0080300 0.0001166 -0.0080300
8801117 0.0001142 -0.0078431 0.9998858 0.0078431 0.9998858 0.0078431 0.0001142 -0.0078431
8994628 0.0001120 -0.0076600 0.9998880 0.0076600 0.9998880 0.0076600 0.0001120 -0.0076600
9192393 0.0001099 -0.0074805 0.9998901 0.0074805 0.9998901 0.0074805 0.0001099 -0.0074805
9394506 0.0001079 -0.0073046 0.9998921 0.0073046 0.9998921 0.0073046 0.0001079 -0.0073046
9601063 0.0001060 -0.0071321 0.9998940 0.0071321 0.9998940 0.0071321 0.0001060 -0.0071321
9812162 0.0001043 -0.0069631 0.9998957 0.0069631 0.9998957 0.0069631 0.0001043 -0.0069631
10027902 0.0001027 -0.0067973 0.9998973 0.0067973 0.9998973 0.0067973 0.0001027 -0.0067973
10248386 0.0001012 -0.0066348 0.9998988 0.0066348 0.9998988 0.0066348 0.0001012 -0.0066348
10473717 0.0000998 -0.0064754 0.9999002 0.0064754 0.9999002 0.0064754 0.0000998 -0.0064754
10704003 0.0000985 -0.0063191 0.9999015 0.0063191 0.9999015 0.0063191 0.0000985 -0.0063191
10939352 0.0000973 -0.0061658 0.9999027 0.0061658 0.9999027 0.0061658 0.0000973 -0.0061658
11179876 0.0000962 -0.0060154 0.9999038 0.0060154 0.9999038 0.0060154 0.0000962 -0.0060154
11425688 0.0000951 -0.0058678 0.9999049 0.0058678 0.9999049 0.0058678 0.0000951 -0.0058678
11676904 0.0000942 -0.0057231 0.9999058 0.0057231 0.9999058 0.0057231 0.0000942 -0.0057231
11933645 0.0000934 -0.0055811 0.9999066 0.0055811 0.9999066 0.0055811 0.0000934 -0.0055811
12196030 0.0000926 -0.0054417 0.9999074 0.0054417 0.9999074 0.0054417 0.0000926 -0.0054417
12464184 0.0000919 -0.0053049 0.9999081 0.0053049 0.9999081 0.0053049 0.0000919 -0.0053049
12738235 0.0000913 -0.0051707 0.9999087 0.0051707 0.9999087 0.0051707 0.0000913 -0.0051707
13018310 0.0000908 -0.0050389 0.9999092 0.0050389 0.9999092 0.0050389 0.0000908 -0.0050389
13304544 0.0000904 -0.0049095 0.9999096 0.0049095 0.9999096 0.0049095 0.0000904 -0.0049095
13597071 0.0000900 -0.0047824 0.9999100 0.0047824 0.9999100 0.0047824 0.0000900 -0.0047824
13896030 0.0000897 -0.0046576 0.9999103 0.0046576 0.9999103 0.0046576 0.0000897 -0.0046576
14201563 0.0000895 -0.0045349 0.9999105 0.0045349 0.9999105 0.0045349 0.0000895 -0.0045349
14513813 0.0000893 -0.0044145 0.9999107 0.0044145 0.9999107 0.0044145 0.0000893 -0.0044145
14832928 0.0000892 -0.0042961 0.9999108 0.0042961 0.9999108 0.0042961 0.0000892 -0.0042961
15159060 0.0000892 -0.0041798 0.9999108 0.0041798 0.9999108 0.0041798 0.0000892 -0.0041798
15492362 0.0000892 -0.0040655 0.9999108 0.0040655 0.9999108 0.0040655 0.0000892 -0.0040655
15832993 0.0000894 -0.0039531 0.9999106 0.0039531 0.9999106 0.0039531 0.0000894 -0.0039531
16181113 0.0000895 -0.0038425 0.9999105 0.0038425 0.9999105 0.0038425 0.0000895 -0.0038425
16536888 0.0000898 -0.0037338 0.9999102 0.0037338 0.9999102 0.0037338 0.0000898 -0.0037338
16900485 0.0000901 -0.0036268 0.9999099 0.0036268 0.9999099 0.0036268 0.0000901 -0.0036268
17272076 0.0000905 -0.0035216 0.9999095 0.0035216 0.9999095 0.0035216 0.0000905 -0.0035216
17651837 0.0000909 -0.0034180 0.9999091 0.0034180 0.9999091 0.0034180 0.0000909 -0.0034180
18039948 0.0000914 -0.0033161 0.9999086 0.0033161 0.9999086 0.0033161 0.0000914 -0.0033161
18436593 0.0000920 -0.0032157 0.9999080 0.0032157 0.9999080 0.0032157 0.0000920 -0.0032157
18841959 0.0000926 -0.0031168 0.9999074 0.0031168 0.9999074 0.0031168 0.0000926 -0.0031168
19256237 0.0000933 -0.0030194 0.9999067 0.0030194 0.9999067 0.0030194 0.0000933 -0.0030194
19679624 0.0000941 -0.0029234 0.9999059 0.0029234 0.9999059 0.0029234 0.0000941 -0.0029234
20112321 0.0000950 -0.0028288 0.9999050 0.0028288 0.9999050 0.0028288 0.0000950 -0.0028288
20554530 0.0000959 -0.0027355 0.9999041 0.0027355 0.9999041 0.0027355 0.0000959 -0.0027355
21006463 0.0000969 -0.0026435 0.9999031 0.0026435 0.9999031 0.0026435 0.0000969 -0.0026435
21468333 0.0000980 -0.0025527 0.9999020 0.0025527 0.9999020 0.0025527 0.0000980 -0.0025527
21940357 0.0000991 -0.0024631 0.9999009 0.0024631 0.9999009 0.0024631 0.0000991 -0.0024631
22422760 0.0001004 -0.0023747 0.9998996 0.0023747 0.9998996 0.0023747 0.0001004 -0.0023747
22915770 0.0001017 -0.0022874 0.9998983 0.0022874 0.9998983 0.0022874 0.0001017 -0.0022874
23419619 0.0001031 -0.0022011 0.9998969 0.0022011 0.9998969 0.0022011 0.0001031 -0.0022011
23934547 0.0001045 -0.0021158 0.9998955 0.0021158 0.9998955 0.0021158 0.0001045 -0.0021158
24460796 0.0001061 -0.0020315 0.9998939 0.0020315 0.9998939 0.0020315 0.0001061 -0.0020315
24998616 0.0001078 -0.0019482 0.9998922 0.0019482 0.9998922 0.0019482 0.0001078 -0.0019482
25548261 0.0001095 -0.0018657 0.9998905 0.0018657 0.9998905 0.0018657 0.0001095 -0.0018657
26109991 0.0001114 -0.0017841 0.9998886 0.0017841 0.9998886 0.0017841 0.0001114 -0.0017841
26684072 0.0001134 -0.0017032 0.9998866 0.0017032 0.9998866 0.0017032 0.0001134 -0.0017032
27270775 0.0001154 -0.0016232 0.9998846 0.0016232 0.9998846 0.0016232 0.0001154 -0.0016232
27870378 0.0001176 -0.0015438 0.9998824 0.0015438 0.9998824 0.0015438 0.0001176 -0.0015438
28483164 0.0001199 -0.0014651 0.9998801 0.0014651 0.9998801 0.0014651 0.0001199 -0.0014651
29109424 0.0001223 -0.0013871 0.9998777 0.0013871 0.9998777 0.0013871 0.0001223 -0.0013871
29749453 0.0001249 -0.0013096 0.9998751 0.0013096 0.9998751 0.0013096 0.0001249 -0.0013096
30403555 0.0001276 -0.0012327 0.9998724 0.0012327 0.9998724 0.0012327 0.0001276 -0.0012327
31072038 0.0001304 -0.0011563 0.9998696 0.0011563 0.9998696 0.0011563 0.0001304 -0.0011563
31755220 0.0001334 -0.0010803 0.9998666 0.0010803 0.9998666 0.0010803 0.0001334 -0.0010803
32453422 0.0001365 -0.0010047 0.9998635 0.0010047 0.9998635 0.0010047 0.0001365 -0.0010047
33166976 0.0001398 -0.0009296 0.9998602 0.0009296 0.9998602 0.0009296 0.0001398 -0.0009296
33896219 0.0001432 -0.0008547 0.9998568 0.0008547 0.9998568 0.0008547 0.0001432 -0.0008547
34641496 0.0001468 -0.0007801 0.9998532 0.0007801 0.9998532 0.0007801 0.0001468 -0.0007801
35403159 0.0001507 -0.0007057 0.9998493 0.0007057 0.9998493 0.0007057 0.0001507 -0.0007057
36181569 0.0001547 -0.0006315 0.9998453 0.0006315 0.9998453 0.0006315 0.0001547 -0.0006315
36977093 0.0001589 -0.0005574 0.9998411 0.0005574 0.9998411 0.0005574 0.0001589 -0.0005574
37790109 0.0001634 -0.0004833 0.9998366 0.0004833 0.9998366 0.0004833 0.0001634 -0.0004833
38621001 0.0001680 -0.0004093 0.9998320 0.0004093 0.9998320 0.0004093 0.0001680 -0.0004093
39470161 0.0001730 -0.0003352 0.9998270 0.0003352 0.9998270 0.0003352 0.0001730 -0.0003352
40337993 0.0001782 -0.0002610 0.9998218 0.0002610 0.9998218 0.0002610 0.0001782 -0.0002610
41224905 0.0001837 -0.0001866 0.9998163 0.0001866 0.9998163 0.0001866 0.0001837 -0.0001866
42131317 0.0001895 -0.0001120 0.9998105 0.0001120 0.9998105 0.0001120 0.0001895 -0.0001120
43057659 0.0001957 -0.0000370 0.9998043 0.0000370 0.9998043 0.0000370 0.0001957 -0.0000370
44004369 0.0002022 0.0000384 0.9997978 -0.0000384 0.9997978 -0.0000384 0.0002022 0.0000384
44971893 0.0002092 0.0001142 0.9997908 -0.0001142 0.9997908 -0.0001142 0.0002092 0.0001142
45960691 0.0002165 0.0001907 0.9997835 -0.0001907 0.9997835 -0.0001907 0.0002165 0.0001907
46971230 0.0002244 0.0002679 0.9997756 -0.0002679 0.9997756 -0.0002679 0.0002244 0.0002679
48003987 0.0002327 0.0003458 0.9997673 -0.0003458 0.9997673 -0.0003458 0.0002327 0.0003458
49059451 0.0002417 0.0004247 0.9997583 -0.0004247 0.9997583 -0.0004247 0.0002417 0.0004247
50138122 0.0002513 0.0005047 0.9997487 -0.0005047 0.9997487 -0.0005047 0.0002513 0.0005047
51240510 0.0002616 0.0005860 0.9997384 -0.0005860 0.9997384 -0.0005860 0.0002616 0.0005860
52367136 0.0002728 0.0006686 0.9997272 -0.0006686 0.9997272 -0.0006686 0.0002728 0.0006686
53518533 0.0002850 0.0007529 0.9997150 -0.0007529 0.9997150 -0.0007529 0.0002850 0.0007529
54695245 0.0002982 0.0008391 0.9997018 -0.0008391 0.9997018 -0.0008391 0.0002982 0.0008391
55897831 0.0003127 0.0009274 0.9996873 -0.0009274 0.9996873 -0.0009274 0.0003127 0.0009274
57126857 0.0003288 0.0010182 0.9996712 -0.0010182 0.9996712 -0.0010182 0.0003288 0.0010182
58382906 0.0003467 0.0011119 0.9996533 -0.0011119 0.9996533 -0.0011119 0.0003467 0.0011119
59666572 0.0003668 0.0012090 0.9996332 -0.0012090 0.9996332 -0.0012090 0.0003668 0.0012090
60978462 0.0003896 0.0013099 0.9996104 -0.0013099 0.9996104 -0.0013099 0.0003896 0.0013099
62319196 0.0004159 0.0014153 0.9995841 -0.0014153 0.9995841 -0.0014153 0.0004159 0.0014153
63689409 0.0004465 0.0015261 0.9995535 -0.0015261 0.9995535 -0.0015261 0.0004465 0.0015261
65089750 0.0004827 0.0016432 0.9995173 -0.0016432 0.9995173 -0.0016432 0.0004827 0.0016432
66520879 0.0005264 0.0017678 0.9994736 -0.0017678 0.9994736 -0.0017678 0.0005264 0.0017678
67983474 0.0005801 0.0019012 0.9994199 -0.0019012 0.9994199 -0.0019012 0.0005801 0.0019012
69478228 0.0006479 0.0020448 0.9993521 -0.0020448 0.9993521 -0.0020448 0.0006479 0.0020448
71005847 0.0007356 0.0022001 0.9992644 -0.0022001 0.9992644 -0.0022001 0.0007356 0.0022001
72567054 0.0008523 0.0023679 0.9991477 -0.0023679 0.9991477 -0.0023679 0.0008523 0.0023679
74162587 0.0010123 0.0025462 0.9989877 -0.0025462 0.9989877 -0.0025462 0.0010123 0.0025462
75793201 0.0012375 0.0027267 0.9987625 -0.0027267 0.9987625 -0.0027267 0.0012375 0.0027267
77459667 0.0015589 0.0028832 0.9984411 -0.0028832 0.9984411 -0.0028832 0.0015589 0.0028832
79162774 0.0020072 0.0029503 0.9979928 -0.0029503 0.9979928 -0.0029503 0.0020072 0.0029503
80903327 0.0025627 0.0027975 0.9974373 -0.0027975 0.9974373 -0.0027975 0.0025627 0.0027975
82682150 0.0030407 0.0022876 0.9969593 -0.0022876 0.9969593 -0.0022876 0.0030407 0.0022876
84500083 0.0031132 0.0015360 0.9968868 -0.0015360 0.9968868 -0.0015360 0.0031132 0.0015360
86357988 0.0027291 0.0009541 0.9972709 -0.0009541 0.9972709 -0.0009541 0.0027291 0.0009541
88256743 0.0022005 0.0007420 0.9977995 -0.0007420 0.9977995 -0.0007420 0.0022005 0.0007420
90197245 0.0017594 0.0007898 0.9982406 -0.0007898 0.9982406 -0.0007898 0.0017594 0.0007898
92180413 0.0014504 0.0009541 0.9985496 -0.0009541 0.9985496 -0.0009541 0.0014504 0.0009541
94207185 0.0012475 0.0011569 0.9987525 -0.0011569 0.9987525 -0.0011569 0.0012475 0.0011569
96278520 0.0011185 0.0013664 0.9988815 -0.0013664 0.9988815 -0.0013664 0.0011185 0.0013664
98395398 0.0010403 0.0015725 0.9989597 -0.0015725 0.9989597 -0.0015725 0.0010403 0.0015725
100558819 0.0009985 0.0017735 0.9990015 -0.0017735 0.9990015 -0.0017735 0.0009985 0.0017735
102769807 0.0009848 0.0019708 0.9990152 -0.0019708 0.9990152 -0.0019708 0.0009848 0.0019708
105029408 0.0009955 0.0021673 0.9990045 -0.0021673 0.9990045 -0.0021673 0.0009955 0.0021673
107338692 0.0010301 0.0023661 0.9989699 -0.0023661 0.9989699 -0.0023661 0.0010301 0.0023661
