!Murata Part Number: GRM21A7U2E102JW31
!These Parameters are Measured in Series Mode Connection
!Data Generated on Mar 30, 2021
!       o--ll--o
!Port1            Port2
!       o------o
!Operation Temp=25[degC], DC Bias Voltage=0[V]
!Freq. Start=1000[kHz] Stop=3[GHz] 401[Steps]
# Hz S RI R 50
!Freq.(Hz) S11(Real) S11(Imag) S21(Real) S21(Imag) S12(Real) S12(Imag) S22(Real) S22(Imag)
1000000 0.7198790 -0.4489653 0.2801210 0.4489653 0.2801210 0.4489653 0.7198790 -0.4489653
1020218 0.7117364 -0.4528597 0.2882636 0.4528597 0.2882636 0.4528597 0.7117364 -0.4528597
1040844 0.7034545 -0.4566376 0.2965455 0.4566376 0.2965455 0.4566376 0.7034545 -0.4566376
1061887 0.6950368 -0.4602932 0.3049632 0.4602932 0.3049632 0.4602932 0.6950368 -0.4602932
1083356 0.6864866 -0.4638204 0.3135134 0.4638204 0.3135134 0.4638204 0.6864866 -0.4638204
1105259 0.6778078 -0.4672135 0.3221922 0.4672135 0.3221922 0.4672135 0.6778078 -0.4672135
1127605 0.6690046 -0.4704667 0.3309954 0.4704667 0.3309954 0.4704667 0.6690046 -0.4704667
1150402 0.6600816 -0.4735743 0.3399184 0.4735743 0.3399184 0.4735743 0.6600816 -0.4735743
1173660 0.6510435 -0.4765312 0.3489565 0.4765312 0.3489565 0.4765312 0.6510435 -0.4765312
1197389 0.6418955 -0.4793319 0.3581045 0.4793319 0.3581045 0.4793319 0.6418955 -0.4793319
1221597 0.6326430 -0.4819714 0.3673570 0.4819714 0.3673570 0.4819714 0.6326430 -0.4819714
1246295 0.6232918 -0.4844450 0.3767082 0.4844450 0.3767082 0.4844450 0.6232918 -0.4844450
1271492 0.6138479 -0.4867480 0.3861521 0.4867480 0.3861521 0.4867480 0.6138479 -0.4867480
1297199 0.6043176 -0.4888763 0.3956824 0.4888763 0.3956824 0.4888763 0.6043176 -0.4888763
1323425 0.5947074 -0.4908256 0.4052926 0.4908256 0.4052926 0.4908256 0.5947074 -0.4908256
1350181 0.5850241 -0.4925924 0.4149759 0.4925924 0.4149759 0.4925924 0.5850241 -0.4925924
1377479 0.5752747 -0.4941733 0.4247253 0.4941733 0.4247253 0.4941733 0.5752747 -0.4941733
1405328 0.5654665 -0.4955651 0.4345335 0.4955651 0.4345335 0.4955651 0.5654665 -0.4955651
1433740 0.5556067 -0.4967651 0.4443933 0.4967651 0.4443933 0.4967651 0.5556067 -0.4967651
1462727 0.5457030 -0.4977710 0.4542970 0.4977710 0.4542970 0.4977710 0.5457030 -0.4977710
1492300 0.5357631 -0.4985807 0.4642369 0.4985807 0.4642369 0.4985807 0.5357631 -0.4985807
1522470 0.5257948 -0.4991927 0.4742052 0.4991927 0.4742052 0.4991927 0.5257948 -0.4991927
1553251 0.5158059 -0.4996058 0.4841941 0.4996058 0.4841941 0.4996058 0.5158059 -0.4996058
1584654 0.5058044 -0.4998191 0.4941956 0.4998191 0.4941956 0.4998191 0.5058044 -0.4998191
1616692 0.4957983 -0.4998321 0.5042017 0.4998321 0.5042017 0.4998321 0.4957983 -0.4998321
1649378 0.4857956 -0.4996449 0.5142044 0.4996449 0.5142044 0.4996449 0.4857956 -0.4996449
1682724 0.4758044 -0.4992579 0.5241956 0.4992579 0.5241956 0.4992579 0.4758044 -0.4992579
1716745 0.4658326 -0.4986717 0.5341674 0.4986717 0.5341674 0.4986717 0.4658326 -0.4986717
1751453 0.4558880 -0.4978876 0.5441120 0.4978876 0.5441120 0.4978876 0.4558880 -0.4978876
1786863 0.4459786 -0.4969071 0.5540214 0.4969071 0.5540214 0.4969071 0.4459786 -0.4969071
1822989 0.4361120 -0.4957321 0.5638880 0.4957321 0.5638880 0.4957321 0.4361120 -0.4957321
1859846 0.4262959 -0.4943650 0.5737041 0.4943650 0.5737041 0.4943650 0.4262959 -0.4943650
1897447 0.4165375 -0.4928085 0.5834625 0.4928085 0.5834625 0.4928085 0.4165375 -0.4928085
1935809 0.4068442 -0.4910654 0.5931558 0.4910654 0.5931558 0.4910654 0.4068442 -0.4910654
1974946 0.3972230 -0.4891393 0.6027770 0.4891393 0.6027770 0.4891393 0.3972230 -0.4891393
2014875 0.3876806 -0.4870338 0.6123194 0.4870338 0.6123194 0.4870338 0.3876806 -0.4870338
2055611 0.3782238 -0.4847528 0.6217762 0.4847528 0.6217762 0.4847528 0.3782238 -0.4847528
2097170 0.3688588 -0.4823007 0.6311412 0.4823007 0.6311412 0.4823007 0.3688588 -0.4823007
2139570 0.3595917 -0.4796818 0.6404083 0.4796818 0.6404083 0.4796818 0.3595917 -0.4796818
2182827 0.3504282 -0.4769011 0.6495718 0.4769011 0.6495718 0.4769011 0.3504282 -0.4769011
2226959 0.3413738 -0.4739636 0.6586262 0.4739636 0.6586262 0.4739636 0.3413738 -0.4739636
2271982 0.3324338 -0.4708743 0.6675662 0.4708743 0.6675662 0.4708743 0.3324338 -0.4708743
2317916 0.3236130 -0.4676388 0.6763870 0.4676388 0.6763870 0.4676388 0.3236130 -0.4676388
2364779 0.3149159 -0.4642625 0.6850841 0.4642625 0.6850841 0.4642625 0.3149159 -0.4642625
2412589 0.3063468 -0.4607512 0.6936532 0.4607512 0.6936532 0.4607512 0.3063468 -0.4607512
2461366 0.2979096 -0.4571107 0.7020904 0.4571107 0.7020904 0.4571107 0.2979096 -0.4571107
2511129 0.2896079 -0.4533469 0.7103921 0.4533469 0.7103921 0.4533469 0.2896079 -0.4533469
2561897 0.2814449 -0.4494657 0.7185551 0.4494657 0.7185551 0.4494657 0.2814449 -0.4494657
2613693 0.2734235 -0.4454733 0.7265765 0.4454733 0.7265765 0.4454733 0.2734235 -0.4454733
2666535 0.2655464 -0.4413758 0.7344536 0.4413758 0.7344536 0.4413758 0.2655464 -0.4413758
2720446 0.2578159 -0.4371791 0.7421841 0.4371791 0.7421841 0.4371791 0.2578159 -0.4371791
2775447 0.2502338 -0.4328895 0.7497662 0.4328895 0.7497662 0.4328895 0.2502338 -0.4328895
2831560 0.2428019 -0.4285130 0.7571981 0.4285130 0.7571981 0.4285130 0.2428019 -0.4285130
2888807 0.2355216 -0.4240557 0.7644784 0.4240557 0.7644784 0.4240557 0.2355216 -0.4240557
2947212 0.2283938 -0.4195235 0.7716062 0.4195235 0.7716062 0.4195235 0.2283938 -0.4195235
3006797 0.2214195 -0.4149225 0.7785805 0.4149225 0.7785805 0.4149225 0.2214195 -0.4149225
3067588 0.2145990 -0.4102584 0.7854010 0.4102584 0.7854010 0.4102584 0.2145990 -0.4102584
3129607 0.2079326 -0.4055371 0.7920674 0.4055371 0.7920674 0.4055371 0.2079326 -0.4055371
3192880 0.2014204 -0.4007642 0.7985796 0.4007642 0.7985796 0.4007642 0.2014204 -0.4007642
3257432 0.1950620 -0.3959453 0.8049380 0.3959453 0.8049380 0.3959453 0.1950620 -0.3959453
3323290 0.1888571 -0.3910857 0.8111429 0.3910857 0.8111429 0.3910857 0.1888571 -0.3910857
3390478 0.1828049 -0.3861909 0.8171951 0.3861909 0.8171951 0.3861909 0.1828049 -0.3861909
3459026 0.1769044 -0.3812658 0.8230956 0.3812658 0.8230956 0.3812658 0.1769044 -0.3812658
3528959 0.1711548 -0.3763156 0.8288452 0.3763156 0.8288452 0.3763156 0.1711548 -0.3763156
3600306 0.1655545 -0.3713450 0.8344455 0.3713450 0.8344455 0.3713450 0.1655545 -0.3713450
3673095 0.1601023 -0.3663589 0.8398977 0.3663589 0.8398977 0.3663589 0.1601023 -0.3663589
3747356 0.1547965 -0.3613616 0.8452035 0.3613616 0.8452035 0.3613616 0.1547965 -0.3613616
3823119 0.1496354 -0.3563576 0.8503646 0.3563576 0.8503646 0.3563576 0.1496354 -0.3563576
3900413 0.1446171 -0.3513510 0.8553829 0.3513510 0.8553829 0.3513510 0.1446171 -0.3513510
3979270 0.1397396 -0.3463459 0.8602604 0.3463459 0.8602604 0.3463459 0.1397396 -0.3463459
4059721 0.1350008 -0.3413462 0.8649992 0.3413462 0.8649992 0.3413462 0.1350008 -0.3413462
4141799 0.1303985 -0.3363554 0.8696015 0.3363554 0.8696015 0.3363554 0.1303985 -0.3363554
4225536 0.1259305 -0.3313772 0.8740695 0.3313772 0.8740695 0.3313772 0.1259305 -0.3313772
4310966 0.1215944 -0.3264149 0.8784056 0.3264149 0.8784056 0.3264149 0.1215944 -0.3264149
4398124 0.1173877 -0.3214716 0.8826123 0.3214716 0.8826123 0.3214716 0.1173877 -0.3214716
4487043 0.1133079 -0.3165504 0.8866921 0.3165504 0.8866921 0.3165504 0.1133079 -0.3165504
4577760 0.1093526 -0.3116542 0.8906474 0.3116542 0.8906474 0.3116542 0.1093526 -0.3116542
4670311 0.1055191 -0.3067855 0.8944809 0.3067855 0.8944809 0.3067855 0.1055191 -0.3067855
4764734 0.1018048 -0.3019469 0.8981952 0.3019469 0.8981952 0.3019469 0.1018048 -0.3019469
4861065 0.0982071 -0.2971409 0.9017929 0.2971409 0.9017929 0.2971409 0.0982071 -0.2971409
4959344 0.0947233 -0.2923696 0.9052767 0.2923696 0.9052767 0.2923696 0.0947233 -0.2923696
5059610 0.0913508 -0.2876351 0.9086492 0.2876351 0.9086492 0.2876351 0.0913508 -0.2876351
5161903 0.0880869 -0.2829393 0.9119131 0.2829393 0.9119131 0.2829393 0.0880869 -0.2829393
5266264 0.0849289 -0.2782841 0.9150711 0.2782841 0.9150711 0.2782841 0.0849289 -0.2782841
5372736 0.0818742 -0.2736711 0.9181258 0.2736711 0.9181258 0.2736711 0.0818742 -0.2736711
5481359 0.0789201 -0.2691019 0.9210799 0.2691019 0.9210799 0.2691019 0.0789201 -0.2691019
5592179 0.0760639 -0.2645778 0.9239361 0.2645778 0.9239361 0.2645778 0.0760639 -0.2645778
5705239 0.0733031 -0.2601001 0.9266969 0.2601001 0.9266969 0.2601001 0.0733031 -0.2601001
5820586 0.0706351 -0.2556700 0.9293649 0.2556700 0.9293649 0.2556700 0.0706351 -0.2556700
5938264 0.0680572 -0.2512886 0.9319428 0.2512886 0.9319428 0.2512886 0.0680572 -0.2512886
6058321 0.0655670 -0.2469569 0.9344330 0.2469569 0.9344330 0.2469569 0.0655670 -0.2469569
6180806 0.0631620 -0.2426756 0.9368380 0.2426756 0.9368380 0.2426756 0.0631620 -0.2426756
6305767 0.0608396 -0.2384456 0.9391604 0.2384456 0.9391604 0.2384456 0.0608396 -0.2384456
6433254 0.0585975 -0.2342674 0.9414025 0.2342674 0.9414025 0.2342674 0.0585975 -0.2342674
6563319 0.0564333 -0.2301418 0.9435667 0.2301418 0.9435667 0.2301418 0.0564333 -0.2301418
6696013 0.0543447 -0.2260691 0.9456553 0.2260691 0.9456553 0.2260691 0.0543447 -0.2260691
6831390 0.0523293 -0.2220498 0.9476707 0.2220498 0.9476707 0.2220498 0.0523293 -0.2220498
6969505 0.0503848 -0.2180841 0.9496152 0.2180841 0.9496152 0.2180841 0.0503848 -0.2180841
7110411 0.0485092 -0.2141725 0.9514908 0.2141725 0.9514908 0.2141725 0.0485092 -0.2141725
7254166 0.0467002 -0.2103150 0.9532998 0.2103150 0.9532998 0.2103150 0.0467002 -0.2103150
7400828 0.0449556 -0.2065118 0.9550444 0.2065118 0.9550444 0.2065118 0.0449556 -0.2065118
7550455 0.0432736 -0.2027630 0.9567264 0.2027630 0.9567264 0.2027630 0.0432736 -0.2027630
7703107 0.0416519 -0.1990685 0.9583481 0.1990685 0.9583481 0.1990685 0.0416519 -0.1990685
7858845 0.0400887 -0.1954283 0.9599113 0.1954283 0.9599113 0.1954283 0.0400887 -0.1954283
8017732 0.0385821 -0.1918424 0.9614179 0.1918424 0.9614179 0.1918424 0.0385821 -0.1918424
8179831 0.0371301 -0.1883106 0.9628699 0.1883106 0.9628699 0.1883106 0.0371301 -0.1883106
8345207 0.0357310 -0.1848326 0.9642690 0.1848326 0.9642690 0.1848326 0.0357310 -0.1848326
8513927 0.0343829 -0.1814084 0.9656171 0.1814084 0.9656171 0.1814084 0.0343829 -0.1814084
8686058 0.0330842 -0.1780376 0.9669158 0.1780376 0.9669158 0.1780376 0.0330842 -0.1780376
8861669 0.0318332 -0.1747198 0.9681668 0.1747198 0.9681668 0.1747198 0.0318332 -0.1747198
9040831 0.0306283 -0.1714549 0.9693717 0.1714549 0.9693717 0.1714549 0.0306283 -0.1714549
9223615 0.0294678 -0.1682424 0.9705322 0.1682424 0.9705322 0.1682424 0.0294678 -0.1682424
9410094 0.0283502 -0.1650818 0.9716498 0.1650818 0.9716498 0.1650818 0.0283502 -0.1650818
9600343 0.0272741 -0.1619729 0.9727259 0.1619729 0.9727259 0.1619729 0.0272741 -0.1619729
9794439 0.0262380 -0.1589152 0.9737620 0.1589152 0.9737620 0.1589152 0.0262380 -0.1589152
9992459 0.0252405 -0.1559081 0.9747595 0.1559081 0.9747595 0.1559081 0.0252405 -0.1559081
10194482 0.0242803 -0.1529513 0.9757197 0.1529513 0.9757197 0.1529513 0.0242803 -0.1529513
10400590 0.0233559 -0.1500441 0.9766441 0.1500441 0.9766441 0.1500441 0.0233559 -0.1500441
10610865 0.0224662 -0.1471861 0.9775338 0.1471861 0.9775338 0.1471861 0.0224662 -0.1471861
10825391 0.0216099 -0.1443768 0.9783901 0.1443768 0.9783901 0.1443768 0.0216099 -0.1443768
11044254 0.0207858 -0.1416156 0.9792142 0.1416156 0.9792142 0.1416156 0.0207858 -0.1416156
11267542 0.0199927 -0.1389019 0.9800073 0.1389019 0.9800073 0.1389019 0.0199927 -0.1389019
11495344 0.0192296 -0.1362351 0.9807704 0.1362351 0.9807704 0.1362351 0.0192296 -0.1362351
11727752 0.0184954 -0.1336148 0.9815046 0.1336148 0.9815046 0.1336148 0.0184954 -0.1336148
11964859 0.0177889 -0.1310402 0.9822111 0.1310402 0.9822111 0.1310402 0.0177889 -0.1310402
12206760 0.0171093 -0.1285108 0.9828907 0.1285108 0.9828907 0.1285108 0.0171093 -0.1285108
12453551 0.0164554 -0.1260261 0.9835446 0.1260261 0.9835446 0.1260261 0.0164554 -0.1260261
12705331 0.0158264 -0.1235853 0.9841736 0.1235853 0.9841736 0.1235853 0.0158264 -0.1235853
12962202 0.0152214 -0.1211879 0.9847786 0.1211879 0.9847786 0.1211879 0.0152214 -0.1211879
13224267 0.0146394 -0.1188333 0.9853606 0.1188333 0.9853606 0.1188333 0.0146394 -0.1188333
13491630 0.0140797 -0.1165208 0.9859203 0.1165208 0.9859203 0.1165208 0.0140797 -0.1165208
13764398 0.0135414 -0.1142498 0.9864586 0.1142498 0.9864586 0.1142498 0.0135414 -0.1142498
14042680 0.0130237 -0.1120198 0.9869763 0.1120198 0.9869763 0.1120198 0.0130237 -0.1120198
14326589 0.0125258 -0.1098300 0.9874742 0.1098300 0.9874742 0.1098300 0.0125258 -0.1098300
14616238 0.0120470 -0.1076800 0.9879530 0.1076800 0.9879530 0.1076800 0.0120470 -0.1076800
14911743 0.0115866 -0.1055690 0.9884134 0.1055690 0.9884134 0.1055690 0.0115866 -0.1055690
15213223 0.0111439 -0.1034965 0.9888561 0.1034965 0.9888561 0.1034965 0.0111439 -0.1034965
15520797 0.0107183 -0.1014618 0.9892817 0.1014618 0.9892817 0.1014618 0.0107183 -0.1014618
15834590 0.0103091 -0.0994643 0.9896909 0.0994643 0.9896909 0.0994643 0.0103091 -0.0994643
16154727 0.0099156 -0.0975035 0.9900844 0.0975035 0.9900844 0.0975035 0.0099156 -0.0975035
16481337 0.0095374 -0.0955787 0.9904626 0.0955787 0.9904626 0.0955787 0.0095374 -0.0955787
16814550 0.0091737 -0.0936894 0.9908263 0.0936894 0.9908263 0.0936894 0.0091737 -0.0936894
17154499 0.0088242 -0.0918349 0.9911758 0.0918349 0.9911758 0.0918349 0.0088242 -0.0918349
17501322 0.0084882 -0.0900146 0.9915118 0.0900146 0.9915118 0.0900146 0.0084882 -0.0900146
17855156 0.0081652 -0.0882280 0.9918348 0.0882280 0.9918348 0.0882280 0.0081652 -0.0882280
18216144 0.0078547 -0.0864745 0.9921453 0.0864745 0.9921453 0.0864745 0.0078547 -0.0864745
18584431 0.0075564 -0.0847536 0.9924436 0.0847536 0.9924436 0.0847536 0.0075564 -0.0847536
18960163 0.0072696 -0.0830646 0.9927304 0.0830646 0.9927304 0.0830646 0.0072696 -0.0830646
19343491 0.0069940 -0.0814069 0.9930060 0.0814069 0.9930060 0.0814069 0.0069940 -0.0814069
19734570 0.0067291 -0.0797802 0.9932709 0.0797802 0.9932709 0.0797802 0.0067291 -0.0797802
20133555 0.0064746 -0.0781837 0.9935254 0.0781837 0.9935254 0.0781837 0.0064746 -0.0781837
20540607 0.0062300 -0.0766170 0.9937700 0.0766170 0.9937700 0.0766170 0.0062300 -0.0766170
20955888 0.0059950 -0.0750794 0.9940050 0.0750794 0.9940050 0.0750794 0.0059950 -0.0750794
21379566 0.0057691 -0.0735706 0.9942309 0.0735706 0.9942309 0.0735706 0.0057691 -0.0735706
21811809 0.0055522 -0.0720899 0.9944478 0.0720899 0.9944478 0.0720899 0.0055522 -0.0720899
22252791 0.0053437 -0.0706369 0.9946563 0.0706369 0.9946563 0.0706369 0.0053437 -0.0706369
22702688 0.0051434 -0.0692111 0.9948566 0.0692111 0.9948566 0.0692111 0.0051434 -0.0692111
23161682 0.0049511 -0.0678118 0.9950489 0.0678118 0.9950489 0.0678118 0.0049511 -0.0678118
23629955 0.0047662 -0.0664387 0.9952338 0.0664387 0.9952338 0.0664387 0.0047662 -0.0664387
24107696 0.0045887 -0.0650913 0.9954113 0.0650913 0.9954113 0.0650913 0.0045887 -0.0650913
24595095 0.0044182 -0.0637690 0.9955818 0.0637690 0.9955818 0.0637690 0.0044182 -0.0637690
25092348 0.0042545 -0.0624714 0.9957455 0.0624714 0.9957455 0.0624714 0.0042545 -0.0624714
25599655 0.0040972 -0.0611981 0.9959028 0.0611981 0.9959028 0.0611981 0.0040972 -0.0611981
26117218 0.0039462 -0.0599485 0.9960538 0.0599485 0.9960538 0.0599485 0.0039462 -0.0599485
26645245 0.0038012 -0.0587223 0.9961988 0.0587223 0.9961988 0.0587223 0.0038012 -0.0587223
27183947 0.0036620 -0.0575189 0.9963380 0.0575189 0.9963380 0.0575189 0.0036620 -0.0575189
27733541 0.0035283 -0.0563380 0.9964717 0.0563380 0.9964717 0.0563380 0.0035283 -0.0563380
28294246 0.0034000 -0.0551790 0.9966000 0.0551790 0.9966000 0.0551790 0.0034000 -0.0551790
28866287 0.0032768 -0.0540416 0.9967232 0.0540416 0.9967232 0.0540416 0.0032768 -0.0540416
29449894 0.0031586 -0.0529254 0.9968414 0.0529254 0.9968414 0.0529254 0.0031586 -0.0529254
30045299 0.0030452 -0.0518299 0.9969548 0.0518299 0.9969548 0.0518299 0.0030452 -0.0518299
30652742 0.0029363 -0.0507547 0.9970637 0.0507547 0.9970637 0.0507547 0.0029363 -0.0507547
31272467 0.0028319 -0.0496995 0.9971681 0.0496995 0.9971681 0.0496995 0.0028319 -0.0496995
31904720 0.0027317 -0.0486638 0.9972683 0.0486638 0.9972683 0.0486638 0.0027317 -0.0486638
32549757 0.0026355 -0.0476472 0.9973645 0.0476472 0.9973645 0.0476472 0.0026355 -0.0476472
33207834 0.0025434 -0.0466494 0.9974566 0.0466494 0.9974566 0.0466494 0.0025434 -0.0466494
33879216 0.0024550 -0.0456701 0.9975450 0.0456701 0.9975450 0.0456701 0.0024550 -0.0456701
34564172 0.0023702 -0.0447087 0.9976298 0.0447087 0.9976298 0.0447087 0.0023702 -0.0447087
35262976 0.0022890 -0.0437650 0.9977110 0.0437650 0.9977110 0.0437650 0.0022890 -0.0437650
35975908 0.0022111 -0.0428386 0.9977889 0.0428386 0.9977889 0.0428386 0.0022111 -0.0428386
36703254 0.0021365 -0.0419292 0.9978635 0.0419292 0.9978635 0.0419292 0.0021365 -0.0419292
37445305 0.0020650 -0.0410364 0.9979350 0.0410364 0.9979350 0.0410364 0.0020650 -0.0410364
38202358 0.0019965 -0.0401599 0.9980035 0.0401599 0.9980035 0.0401599 0.0019965 -0.0401599
38974717 0.0019310 -0.0392993 0.9980690 0.0392993 0.9980690 0.0392993 0.0019310 -0.0392993
39762692 0.0018682 -0.0384544 0.9981318 0.0384544 0.9981318 0.0384544 0.0018682 -0.0384544
40566597 0.0018081 -0.0376247 0.9981919 0.0376247 0.9981919 0.0376247 0.0018081 -0.0376247
41386756 0.0017506 -0.0368101 0.9982494 0.0368101 0.9982494 0.0368101 0.0017506 -0.0368101
42223496 0.0016956 -0.0360101 0.9983044 0.0360101 0.9983044 0.0360101 0.0016956 -0.0360101
43077153 0.0016430 -0.0352245 0.9983570 0.0352245 0.9983570 0.0352245 0.0016430 -0.0352245
43948069 0.0015927 -0.0344529 0.9984073 0.0344529 0.9984073 0.0344529 0.0015927 -0.0344529
44836592 0.0015446 -0.0336952 0.9984554 0.0336952 0.9984554 0.0336952 0.0015446 -0.0336952
45743080 0.0014986 -0.0329509 0.9985014 0.0329509 0.9985014 0.0329509 0.0014986 -0.0329509
46667894 0.0014547 -0.0322199 0.9985453 0.0322199 0.9985453 0.0322199 0.0014547 -0.0322199
47611406 0.0014128 -0.0315018 0.9985872 0.0315018 0.9985872 0.0315018 0.0014128 -0.0315018
48573993 0.0013728 -0.0307963 0.9986272 0.0307963 0.9986272 0.0307963 0.0013728 -0.0307963
49556042 0.0013346 -0.0301033 0.9986654 0.0301033 0.9986654 0.0301033 0.0013346 -0.0301033
50557945 0.0012982 -0.0294224 0.9987018 0.0294224 0.9987018 0.0294224 0.0012982 -0.0294224
51580105 0.0012635 -0.0287533 0.9987365 0.0287533 0.9987365 0.0287533 0.0012635 -0.0287533
52622929 0.0012304 -0.0280958 0.9987696 0.0280958 0.9987696 0.0280958 0.0012304 -0.0280958
53686838 0.0011988 -0.0274497 0.9988012 0.0274497 0.9988012 0.0274497 0.0011988 -0.0274497
54772256 0.0011688 -0.0268147 0.9988312 0.0268147 0.9988312 0.0268147 0.0011688 -0.0268147
55879618 0.0011401 -0.0261906 0.9988599 0.0261906 0.9988599 0.0261906 0.0011401 -0.0261906
57009369 0.0011129 -0.0255771 0.9988871 0.0255771 0.9988871 0.0255771 0.0011129 -0.0255771
58161960 0.0010869 -0.0249739 0.9989131 0.0249739 0.9989131 0.0249739 0.0010869 -0.0249739
59337855 0.0010622 -0.0243809 0.9989378 0.0243809 0.9989378 0.0243809 0.0010622 -0.0243809
60537522 0.0010387 -0.0237979 0.9989613 0.0237979 0.9989613 0.0237979 0.0010387 -0.0237979
61761445 0.0010163 -0.0232245 0.9989837 0.0232245 0.9989837 0.0232245 0.0010163 -0.0232245
63010112 0.0009950 -0.0226606 0.9990050 0.0226606 0.9990050 0.0226606 0.0009950 -0.0226606
64284024 0.0009748 -0.0221059 0.9990252 0.0221059 0.9990252 0.0221059 0.0009748 -0.0221059
65583691 0.0009556 -0.0215603 0.9990444 0.0215603 0.9990444 0.0215603 0.0009556 -0.0215603
66909635 0.0009372 -0.0210234 0.9990628 0.0210234 0.9990628 0.0210234 0.0009372 -0.0210234
68262386 0.0009198 -0.0204951 0.9990802 0.0204951 0.9990802 0.0204951 0.0009198 -0.0204951
69642486 0.0009032 -0.0199752 0.9990968 0.0199752 0.9990968 0.0199752 0.0009032 -0.0199752
71050488 0.0008874 -0.0194634 0.9991126 0.0194634 0.9991126 0.0194634 0.0008874 -0.0194634
72486957 0.0008724 -0.0189596 0.9991276 0.0189596 0.9991276 0.0189596 0.0008724 -0.0189596
73952468 0.0008580 -0.0184635 0.9991420 0.0184635 0.9991420 0.0184635 0.0008580 -0.0184635
