!Murata Part Number: GRM21A5C2E102JWA1
!These Parameters are Measured in Series Mode Connection
!Data Generated on Mar 30, 2021
!       o--ll--o
!Port1            Port2
!       o------o
!Operation Temp=25[degC], DC Bias Voltage=0[V]
!Freq. Start=1000[kHz] Stop=1000[MHz] 401[Steps]
# Hz S RI R 50
!Freq.(Hz) S11(Real) S11(Imag) S21(Real) S21(Imag) S12(Real) S12(Imag) S22(Real) S22(Imag)
1000000 0.7335119 -0.4410692 0.2664881 0.4410692 0.2664881 0.4410692 0.7335119 -0.4410692
1017419 0.7267303 -0.4446017 0.2732697 0.4446017 0.2732697 0.4446017 0.7267303 -0.4446017
1035142 0.7198411 -0.4480565 0.2801589 0.4480565 0.2801589 0.4480565 0.7198411 -0.4480565
1053174 0.7128461 -0.4514298 0.2871539 0.4514298 0.2871539 0.4514298 0.7128461 -0.4514298
1071519 0.7057470 -0.4547176 0.2942530 0.4547176 0.2942530 0.4547176 0.7057470 -0.4547176
1090184 0.6985459 -0.4579163 0.3014541 0.4579163 0.3014541 0.4579163 0.6985459 -0.4579163
1109175 0.6912449 -0.4610218 0.3087551 0.4610218 0.3087551 0.4610218 0.6912449 -0.4610218
1128496 0.6838464 -0.4640304 0.3161536 0.4640304 0.3161536 0.4640304 0.6838464 -0.4640304
1148154 0.6763528 -0.4669385 0.3236472 0.4669385 0.3236472 0.4669385 0.6763528 -0.4669385
1168154 0.6687670 -0.4697423 0.3312330 0.4697423 0.3312330 0.4697423 0.6687670 -0.4697423
1188502 0.6610917 -0.4724383 0.3389083 0.4724383 0.3389083 0.4724383 0.6610917 -0.4724383
1209205 0.6533302 -0.4750229 0.3466698 0.4750229 0.3466698 0.4750229 0.6533302 -0.4750229
1230269 0.6454855 -0.4774928 0.3545145 0.4774928 0.3545145 0.4774928 0.6454855 -0.4774928
1251699 0.6375611 -0.4798448 0.3624389 0.4798448 0.3624389 0.4798448 0.6375611 -0.4798448
1273503 0.6295607 -0.4820755 0.3704393 0.4820755 0.3704393 0.4820755 0.6295607 -0.4820755
1295687 0.6214878 -0.4841821 0.3785122 0.4841821 0.3785122 0.4841821 0.6214878 -0.4841821
1318257 0.6133465 -0.4861615 0.3866535 0.4861615 0.3866535 0.4861615 0.6133465 -0.4861615
1341220 0.6051408 -0.4880110 0.3948592 0.4880110 0.3948592 0.4880110 0.6051408 -0.4880110
1364583 0.5968748 -0.4897281 0.4031252 0.4897281 0.4031252 0.4897281 0.5968748 -0.4897281
1388353 0.5885528 -0.4913103 0.4114472 0.4913103 0.4114472 0.4913103 0.5885528 -0.4913103
1412538 0.5801794 -0.4927553 0.4198206 0.4927553 0.4198206 0.4927553 0.5801794 -0.4927553
1437143 0.5717590 -0.4940611 0.4282410 0.4940611 0.4282410 0.4940611 0.5717590 -0.4940611
1462177 0.5632964 -0.4952257 0.4367036 0.4952257 0.4367036 0.4952257 0.5632964 -0.4952257
1487647 0.5547962 -0.4962475 0.4452038 0.4962475 0.4452038 0.4962475 0.5547962 -0.4962475
1513561 0.5462634 -0.4971250 0.4537366 0.4971250 0.4537366 0.4971250 0.5462634 -0.4971250
1539927 0.5377029 -0.4978568 0.4622971 0.4978568 0.4622971 0.4978568 0.5377029 -0.4978568
1566751 0.5291196 -0.4984419 0.4708804 0.4984419 0.4708804 0.4984419 0.5291196 -0.4984419
1594043 0.5205186 -0.4988793 0.4794814 0.4988793 0.4794814 0.4988793 0.5205186 -0.4988793
1621810 0.5119051 -0.4991686 0.4880949 0.4991686 0.4880949 0.4991686 0.5119051 -0.4991686
1650061 0.5032840 -0.4993092 0.4967160 0.4993092 0.4967160 0.4993092 0.5032840 -0.4993092
1678804 0.4946606 -0.4993008 0.5053394 0.4993008 0.5053394 0.4993008 0.4946606 -0.4993008
1708048 0.4860400 -0.4991436 0.5139600 0.4991436 0.5139600 0.4991436 0.4860400 -0.4991436
1737801 0.4774274 -0.4988378 0.5225726 0.4988378 0.5225726 0.4988378 0.4774274 -0.4988378
1768072 0.4688278 -0.4983837 0.5311722 0.4983837 0.5311722 0.4983837 0.4688278 -0.4983837
1798871 0.4602463 -0.4977821 0.5397537 0.4977821 0.5397537 0.4977821 0.4602463 -0.4977821
1830206 0.4516880 -0.4970339 0.5483120 0.4970339 0.5483120 0.4970339 0.4516880 -0.4970339
1862087 0.4431579 -0.4961401 0.5568421 0.4961401 0.5568421 0.4961401 0.4431579 -0.4961401
1894524 0.4346608 -0.4951021 0.5653392 0.4951021 0.5653392 0.4951021 0.4346608 -0.4951021
1927525 0.4262017 -0.4939214 0.5737983 0.4939214 0.5737983 0.4939214 0.4262017 -0.4939214
1961101 0.4177853 -0.4925997 0.5822147 0.4925997 0.5822147 0.4925997 0.4177853 -0.4925997
1995262 0.4094162 -0.4911389 0.5905838 0.4911389 0.5905838 0.4911389 0.4094162 -0.4911389
2030019 0.4010990 -0.4895412 0.5989010 0.4895412 0.5989010 0.4895412 0.4010990 -0.4895412
2065380 0.3928381 -0.4878087 0.6071619 0.4878087 0.6071619 0.4878087 0.3928381 -0.4878087
2101358 0.3846379 -0.4859439 0.6153621 0.4859439 0.6153621 0.4859439 0.3846379 -0.4859439
2137962 0.3765024 -0.4839495 0.6234976 0.4839495 0.6234976 0.4839495 0.3765024 -0.4839495
2175204 0.3684358 -0.4818283 0.6315642 0.4818283 0.6315642 0.4818283 0.3684358 -0.4818283
2213095 0.3604419 -0.4795830 0.6395581 0.4795830 0.6395581 0.4795830 0.3604419 -0.4795830
2251645 0.3525245 -0.4772169 0.6474755 0.4772169 0.6474755 0.4772169 0.3525245 -0.4772169
2290868 0.3446870 -0.4747330 0.6553130 0.4747330 0.6553130 0.4747330 0.3446870 -0.4747330
2330773 0.3369329 -0.4721346 0.6630671 0.4721346 0.6630671 0.4721346 0.3369329 -0.4721346
2371374 0.3292654 -0.4694252 0.6707346 0.4694252 0.6707346 0.4694252 0.3292654 -0.4694252
2412682 0.3216876 -0.4666083 0.6783124 0.4666083 0.6783124 0.4666083 0.3216876 -0.4666083
2454709 0.3142023 -0.4636874 0.6857977 0.4636874 0.6857977 0.4636874 0.3142023 -0.4636874
2497468 0.3068123 -0.4606662 0.6931877 0.4606662 0.6931877 0.4606662 0.3068123 -0.4606662
2540973 0.2995200 -0.4575485 0.7004800 0.4575485 0.7004800 0.4575485 0.2995200 -0.4575485
2585235 0.2923278 -0.4543379 0.7076722 0.4543379 0.7076722 0.4543379 0.2923278 -0.4543379
2630268 0.2852379 -0.4510384 0.7147621 0.4510384 0.7147621 0.4510384 0.2852379 -0.4510384
2676086 0.2782521 -0.4476538 0.7217479 0.4476538 0.7217479 0.4476538 0.2782521 -0.4476538
2722701 0.2713724 -0.4441880 0.7286276 0.4441880 0.7286276 0.4441880 0.2713724 -0.4441880
2770129 0.2646003 -0.4406449 0.7353997 0.4406449 0.7353997 0.4406449 0.2646003 -0.4406449
2818383 0.2579373 -0.4370284 0.7420627 0.4370284 0.7420627 0.4370284 0.2579373 -0.4370284
2867477 0.2513846 -0.4333425 0.7486154 0.4333425 0.7486154 0.4333425 0.2513846 -0.4333425
2917427 0.2449433 -0.4295910 0.7550567 0.4295910 0.7550567 0.4295910 0.2449433 -0.4295910
2968247 0.2386144 -0.4257778 0.7613856 0.4257778 0.7613856 0.4257778 0.2386144 -0.4257778
3019952 0.2323985 -0.4219069 0.7676015 0.4219069 0.7676015 0.4219069 0.2323985 -0.4219069
3072557 0.2262964 -0.4179820 0.7737036 0.4179820 0.7737036 0.4179820 0.2262964 -0.4179820
3126079 0.2203085 -0.4140070 0.7796915 0.4140070 0.7796915 0.4140070 0.2203085 -0.4140070
3180534 0.2144349 -0.4099855 0.7855651 0.4099855 0.7855651 0.4099855 0.2144349 -0.4099855
3235937 0.2086760 -0.4059214 0.7913240 0.4059214 0.7913240 0.4059214 0.2086760 -0.4059214
3292305 0.2030318 -0.4018181 0.7969682 0.4018181 0.7969682 0.4018181 0.2030318 -0.4018181
3349654 0.1975020 -0.3976794 0.8024980 0.3976794 0.8024980 0.3976794 0.1975020 -0.3976794
3408003 0.1920865 -0.3935087 0.8079135 0.3935087 0.8079135 0.3935087 0.1920865 -0.3935087
3467369 0.1867848 -0.3893095 0.8132152 0.3893095 0.8132152 0.3893095 0.1867848 -0.3893095
3527768 0.1815965 -0.3850850 0.8184035 0.3850850 0.8184035 0.3850850 0.1815965 -0.3850850
3589219 0.1765210 -0.3808387 0.8234790 0.3808387 0.8234790 0.3808387 0.1765210 -0.3808387
3651741 0.1715576 -0.3765737 0.8284424 0.3765737 0.8284424 0.3765737 0.1715576 -0.3765737
3715352 0.1667054 -0.3722931 0.8332946 0.3722931 0.8332946 0.3722931 0.1667054 -0.3722931
3780071 0.1619636 -0.3679999 0.8380364 0.3679999 0.8380364 0.3679999 0.1619636 -0.3679999
3845918 0.1573312 -0.3636972 0.8426688 0.3636972 0.8426688 0.3636972 0.1573312 -0.3636972
3912911 0.1528071 -0.3593877 0.8471929 0.3593877 0.8471929 0.3593877 0.1528071 -0.3593877
3981072 0.1483901 -0.3550742 0.8516099 0.3550742 0.8516099 0.3550742 0.1483901 -0.3550742
4050419 0.1440790 -0.3507594 0.8559210 0.3507594 0.8559210 0.3507594 0.1440790 -0.3507594
4120975 0.1398726 -0.3464458 0.8601274 0.3464458 0.8601274 0.3464458 0.1398726 -0.3464458
4192760 0.1357695 -0.3421360 0.8642305 0.3421360 0.8642305 0.3421360 0.1357695 -0.3421360
4265795 0.1317683 -0.3378322 0.8682317 0.3378322 0.8682317 0.3378322 0.1317683 -0.3378322
4340103 0.1278675 -0.3335368 0.8721325 0.3335368 0.8721325 0.3335368 0.1278675 -0.3335368
4415704 0.1240657 -0.3292520 0.8759343 0.3292520 0.8759343 0.3292520 0.1240657 -0.3292520
4492623 0.1203613 -0.3249798 0.8796387 0.3249798 0.8796387 0.3249798 0.1203613 -0.3249798
4570882 0.1167527 -0.3207224 0.8832473 0.3207224 0.8832473 0.3207224 0.1167527 -0.3207224
4650504 0.1132384 -0.3164815 0.8867616 0.3164815 0.8867616 0.3164815 0.1132384 -0.3164815
4731513 0.1098167 -0.3122591 0.8901833 0.3122591 0.8901833 0.3122591 0.1098167 -0.3122591
4813933 0.1064859 -0.3080568 0.8935141 0.3080568 0.8935141 0.3080568 0.1064859 -0.3080568
4897788 0.1032445 -0.3038764 0.8967555 0.3038764 0.8967555 0.3038764 0.1032445 -0.3038764
4983105 0.1000906 -0.2997193 0.8999094 0.2997193 0.8999094 0.2997193 0.1000906 -0.2997193
5069907 0.0970227 -0.2955870 0.9029773 0.2955870 0.9029773 0.2955870 0.0970227 -0.2955870
5158222 0.0940389 -0.2914811 0.9059611 0.2914811 0.9059611 0.2914811 0.0940389 -0.2914811
5248075 0.0911377 -0.2874026 0.9088623 0.2874026 0.9088623 0.2874026 0.0911377 -0.2874026
5339493 0.0883172 -0.2833530 0.9116828 0.2833530 0.9116828 0.2833530 0.0883172 -0.2833530
5432503 0.0855758 -0.2793333 0.9144242 0.2793333 0.9144242 0.2793333 0.0855758 -0.2793333
5527134 0.0829117 -0.2753447 0.9170883 0.2753447 0.9170883 0.2753447 0.0829117 -0.2753447
5623413 0.0803233 -0.2713881 0.9196767 0.2713881 0.9196767 0.2713881 0.0803233 -0.2713881
5721370 0.0778088 -0.2674646 0.9221912 0.2674646 0.9221912 0.2674646 0.0778088 -0.2674646
5821032 0.0753666 -0.2635749 0.9246334 0.2635749 0.9246334 0.2635749 0.0753666 -0.2635749
5922431 0.0729950 -0.2597199 0.9270050 0.2597199 0.9270050 0.2597199 0.0729950 -0.2597199
6025596 0.0706923 -0.2559003 0.9293077 0.2559003 0.9293077 0.2559003 0.0706923 -0.2559003
6130558 0.0684568 -0.2521169 0.9315432 0.2521169 0.9315432 0.2521169 0.0684568 -0.2521169
6237348 0.0662871 -0.2483702 0.9337129 0.2483702 0.9337129 0.2483702 0.0662871 -0.2483702
6345999 0.0641813 -0.2446608 0.9358187 0.2446608 0.9358187 0.2446608 0.0641813 -0.2446608
6456542 0.0621380 -0.2409892 0.9378620 0.2409892 0.9378620 0.2409892 0.0621380 -0.2409892
6569011 0.0601556 -0.2373559 0.9398444 0.2373559 0.9398444 0.2373559 0.0601556 -0.2373559
6683439 0.0582325 -0.2337613 0.9417675 0.2337613 0.9417675 0.2337613 0.0582325 -0.2337613
6799860 0.0563672 -0.2302057 0.9436328 0.2302057 0.9436328 0.2302057 0.0563672 -0.2302057
6918310 0.0545582 -0.2266896 0.9454418 0.2266896 0.9454418 0.2266896 0.0545582 -0.2266896
7038822 0.0528040 -0.2232130 0.9471960 0.2232130 0.9471960 0.2232130 0.0528040 -0.2232130
7161434 0.0511032 -0.2197763 0.9488968 0.2197763 0.9488968 0.2197763 0.0511032 -0.2197763
7286182 0.0494543 -0.2163797 0.9505457 0.2163797 0.9505457 0.2163797 0.0494543 -0.2163797
7413102 0.0478560 -0.2130233 0.9521440 0.2130233 0.9521440 0.2130233 0.0478560 -0.2130233
7542234 0.0463068 -0.2097071 0.9536932 0.2097071 0.9536932 0.2097071 0.0463068 -0.2097071
7673615 0.0448054 -0.2064314 0.9551946 0.2064314 0.9551946 0.2064314 0.0448054 -0.2064314
7807284 0.0433505 -0.2031961 0.9566495 0.2031961 0.9566495 0.2031961 0.0433505 -0.2031961
7943282 0.0419407 -0.2000012 0.9580593 0.2000012 0.9580593 0.2000012 0.0419407 -0.2000012
8081649 0.0405749 -0.1968467 0.9594251 0.1968467 0.9594251 0.1968467 0.0405749 -0.1968467
8222426 0.0392518 -0.1937326 0.9607482 0.1937326 0.9607482 0.1937326 0.0392518 -0.1937326
8365656 0.0379701 -0.1906589 0.9620299 0.1906589 0.9620299 0.1906589 0.0379701 -0.1906589
8511380 0.0367287 -0.1876253 0.9632713 0.1876253 0.9632713 0.1876253 0.0367287 -0.1876253
8659643 0.0355265 -0.1846317 0.9644735 0.1846317 0.9644735 0.1846317 0.0355265 -0.1846317
8810489 0.0343621 -0.1816781 0.9656379 0.1816781 0.9656379 0.1816781 0.0343621 -0.1816781
8963962 0.0332347 -0.1787643 0.9667653 0.1787643 0.9667653 0.1787643 0.0332347 -0.1787643
9120108 0.0321431 -0.1758900 0.9678569 0.1758900 0.9678569 0.1758900 0.0321431 -0.1758900
9278975 0.0310861 -0.1730551 0.9689139 0.1730551 0.9689139 0.1730551 0.0310861 -0.1730551
9440609 0.0300629 -0.1702593 0.9699371 0.1702593 0.9699371 0.1702593 0.0300629 -0.1702593
9605058 0.0290724 -0.1675024 0.9709276 0.1675024 0.9709276 0.1675024 0.0290724 -0.1675024
9772372 0.0281136 -0.1647841 0.9718864 0.1647841 0.9718864 0.1647841 0.0281136 -0.1647841
9942601 0.0271856 -0.1621042 0.9728144 0.1621042 0.9728144 0.1621042 0.0271856 -0.1621042
10115795 0.0262874 -0.1594624 0.9737126 0.1594624 0.9737126 0.1594624 0.0262874 -0.1594624
10292005 0.0254182 -0.1568584 0.9745818 0.1568584 0.9745818 0.1568584 0.0254182 -0.1568584
10471285 0.0245770 -0.1542918 0.9754230 0.1542918 0.9754230 0.1542918 0.0245770 -0.1542918
10653689 0.0237630 -0.1517624 0.9762370 0.1517624 0.9762370 0.1517624 0.0237630 -0.1517624
10839269 0.0229754 -0.1492699 0.9770246 0.1492699 0.9770246 0.1492699 0.0229754 -0.1492699
11028082 0.0222134 -0.1468138 0.9777866 0.1468138 0.9777866 0.1468138 0.0222134 -0.1468138
11220185 0.0214761 -0.1443939 0.9785239 0.1443939 0.9785239 0.1443939 0.0214761 -0.1443939
11415633 0.0207628 -0.1420098 0.9792372 0.1420098 0.9792372 0.1420098 0.0207628 -0.1420098
11614486 0.0200728 -0.1396611 0.9799272 0.1396611 0.9799272 0.1396611 0.0200728 -0.1396611
11816803 0.0194053 -0.1373475 0.9805947 0.1373475 0.9805947 0.1373475 0.0194053 -0.1373475
12022644 0.0187596 -0.1350686 0.9812404 0.1350686 0.9812404 0.1350686 0.0187596 -0.1350686
12232071 0.0181351 -0.1328241 0.9818649 0.1328241 0.9818649 0.1328241 0.0181351 -0.1328241
12445146 0.0175311 -0.1306135 0.9824689 0.1306135 0.9824689 0.1306135 0.0175311 -0.1306135
12661933 0.0169468 -0.1284364 0.9830532 0.1284364 0.9830532 0.1284364 0.0169468 -0.1284364
12882496 0.0163818 -0.1262926 0.9836182 0.1262926 0.9836182 0.1262926 0.0163818 -0.1262926
13106900 0.0158354 -0.1241815 0.9841646 0.1241815 0.9841646 0.1241815 0.0158354 -0.1241815
13335214 0.0153071 -0.1221028 0.9846929 0.1221028 0.9846929 0.1221028 0.0153071 -0.1221028
13567505 0.0147961 -0.1200562 0.9852039 0.1200562 0.9852039 0.1200562 0.0147961 -0.1200562
13803843 0.0143020 -0.1180412 0.9856980 0.1180412 0.9856980 0.1180412 0.0143020 -0.1180412
14044297 0.0138243 -0.1160574 0.9861757 0.1160574 0.9861757 0.1160574 0.0138243 -0.1160574
14288940 0.0133624 -0.1141044 0.9866376 0.1141044 0.9866376 0.1141044 0.0133624 -0.1141044
14537844 0.0129158 -0.1121818 0.9870842 0.1121818 0.9870842 0.1121818 0.0129158 -0.1121818
14791084 0.0124841 -0.1102893 0.9875159 0.1102893 0.9875159 0.1102893 0.0124841 -0.1102893
15048735 0.0120667 -0.1084265 0.9879333 0.1084265 0.9879333 0.1084265 0.0120667 -0.1084265
15310875 0.0116631 -0.1065928 0.9883369 0.1065928 0.9883369 0.1065928 0.0116631 -0.1065928
15577580 0.0112730 -0.1047881 0.9887270 0.1047881 0.9887270 0.1047881 0.0112730 -0.1047881
15848932 0.0108959 -0.1030118 0.9891041 0.1030118 0.9891041 0.1030118 0.0108959 -0.1030118
16125010 0.0105314 -0.1012636 0.9894686 0.1012636 0.9894686 0.1012636 0.0105314 -0.1012636
16405898 0.0101791 -0.0995430 0.9898209 0.0995430 0.9898209 0.0995430 0.0101791 -0.0995430
16691678 0.0098385 -0.0978498 0.9901615 0.0978498 0.9901615 0.0978498 0.0098385 -0.0978498
16982437 0.0095094 -0.0961835 0.9904906 0.0961835 0.9904906 0.0961835 0.0095094 -0.0961835
17278260 0.0091912 -0.0945437 0.9908088 0.0945437 0.9908088 0.0945437 0.0091912 -0.0945437
17579236 0.0088838 -0.0929300 0.9911162 0.0929300 0.9911162 0.0929300 0.0088838 -0.0929300
17885455 0.0085866 -0.0913421 0.9914134 0.0913421 0.9914134 0.0913421 0.0085866 -0.0913421
18197009 0.0082994 -0.0897796 0.9917006 0.0897796 0.9917006 0.0897796 0.0082994 -0.0897796
18513989 0.0080219 -0.0882422 0.9919781 0.0882422 0.9919781 0.0882422 0.0080219 -0.0882422
18836491 0.0077538 -0.0867294 0.9922462 0.0867294 0.9922462 0.0867294 0.0077538 -0.0867294
19164611 0.0074946 -0.0852409 0.9925054 0.0852409 0.9925054 0.0852409 0.0074946 -0.0852409
19498446 0.0072442 -0.0837763 0.9927558 0.0837763 0.9927558 0.0837763 0.0072442 -0.0837763
19838097 0.0070023 -0.0823352 0.9929977 0.0823352 0.9929977 0.0823352 0.0070023 -0.0823352
20183664 0.0067685 -0.0809174 0.9932315 0.0809174 0.9932315 0.0809174 0.0067685 -0.0809174
20535250 0.0065426 -0.0795224 0.9934574 0.0795224 0.9934574 0.0795224 0.0065426 -0.0795224
20892961 0.0063244 -0.0781500 0.9936756 0.0781500 0.9936756 0.0781500 0.0063244 -0.0781500
21256903 0.0061136 -0.0767997 0.9938864 0.0767997 0.9938864 0.0767997 0.0061136 -0.0767997
21627185 0.0059099 -0.0754712 0.9940901 0.0754712 0.9940901 0.0754712 0.0059099 -0.0754712
22003917 0.0057132 -0.0741641 0.9942868 0.0741641 0.9942868 0.0741641 0.0057132 -0.0741641
22387211 0.0055231 -0.0728783 0.9944769 0.0728783 0.9944769 0.0728783 0.0055231 -0.0728783
22777182 0.0053395 -0.0716132 0.9946605 0.0716132 0.9946605 0.0716132 0.0053395 -0.0716132
23173946 0.0051622 -0.0703686 0.9948378 0.0703686 0.9948378 0.0703686 0.0051622 -0.0703686
23577622 0.0049909 -0.0691442 0.9950091 0.0691442 0.9950091 0.0691442 0.0049909 -0.0691442
23988329 0.0048255 -0.0679396 0.9951745 0.0679396 0.9951745 0.0679396 0.0048255 -0.0679396
24406191 0.0046657 -0.0667545 0.9953343 0.0667545 0.9953343 0.0667545 0.0046657 -0.0667545
24831331 0.0045114 -0.0655886 0.9954886 0.0655886 0.9954886 0.0655886 0.0045114 -0.0655886
25263877 0.0043624 -0.0644417 0.9956376 0.0644417 0.9956376 0.0644417 0.0043624 -0.0644417
25703958 0.0042185 -0.0633133 0.9957815 0.0633133 0.9957815 0.0633133 0.0042185 -0.0633133
26151704 0.0040795 -0.0622032 0.9959205 0.0622032 0.9959205 0.0622032 0.0040795 -0.0622032
26607251 0.0039453 -0.0611111 0.9960547 0.0611111 0.9960547 0.0611111 0.0039453 -0.0611111
27070732 0.0038158 -0.0600367 0.9961842 0.0600367 0.9961842 0.0600367 0.0038158 -0.0600367
27542287 0.0036907 -0.0589797 0.9963093 0.0589797 0.9963093 0.0589797 0.0036907 -0.0589797
28022056 0.0035699 -0.0579399 0.9964301 0.0579399 0.9964301 0.0579399 0.0035699 -0.0579399
28510183 0.0034533 -0.0569169 0.9965467 0.0569169 0.9965467 0.0569169 0.0034533 -0.0569169
29006812 0.0033408 -0.0559104 0.9966592 0.0559104 0.9966592 0.0559104 0.0033408 -0.0559104
29512092 0.0032322 -0.0549202 0.9967678 0.0549202 0.9967678 0.0549202 0.0032322 -0.0549202
30026174 0.0031273 -0.0539461 0.9968727 0.0539461 0.9968727 0.0539461 0.0031273 -0.0539461
30549211 0.0030261 -0.0529876 0.9969739 0.0529876 0.9969739 0.0529876 0.0030261 -0.0529876
31081359 0.0029284 -0.0520447 0.9970716 0.0520447 0.9970716 0.0520447 0.0029284 -0.0520447
31622777 0.0028342 -0.0511170 0.9971658 0.0511170 0.9971658 0.0511170 0.0028342 -0.0511170
32173625 0.0027432 -0.0502043 0.9972568 0.0502043 0.9972568 0.0502043 0.0027432 -0.0502043
32734069 0.0026554 -0.0493062 0.9973446 0.0493062 0.9973446 0.0493062 0.0026554 -0.0493062
33304276 0.0025707 -0.0484227 0.9974293 0.0484227 0.9974293 0.0484227 0.0025707 -0.0484227
33884416 0.0024890 -0.0475533 0.9975110 0.0475533 0.9975110 0.0475533 0.0024890 -0.0475533
34474661 0.0024102 -0.0466980 0.9975898 0.0466980 0.9975898 0.0466980 0.0024102 -0.0466980
35075187 0.0023342 -0.0458563 0.9976658 0.0458563 0.9976658 0.0458563 0.0023342 -0.0458563
35686175 0.0022608 -0.0450282 0.9977392 0.0450282 0.9977392 0.0450282 0.0022608 -0.0450282
36307805 0.0021901 -0.0442133 0.9978099 0.0442133 0.9978099 0.0442133 0.0021901 -0.0442133
36940264 0.0021218 -0.0434114 0.9978782 0.0434114 0.9978782 0.0434114 0.0021218 -0.0434114
37583740 0.0020560 -0.0426224 0.9979440 0.0426224 0.9979440 0.0426224 0.0020560 -0.0426224
38238425 0.0019926 -0.0418460 0.9980074 0.0418460 0.9980074 0.0418460 0.0019926 -0.0418460
38904514 0.0019314 -0.0410819 0.9980686 0.0410819 0.9980686 0.0410819 0.0019314 -0.0410819
39582206 0.0018724 -0.0403299 0.9981276 0.0403299 0.9981276 0.0403299 0.0018724 -0.0403299
40271703 0.0018156 -0.0395899 0.9981844 0.0395899 0.9981844 0.0395899 0.0018156 -0.0395899
40973211 0.0017608 -0.0388617 0.9982392 0.0388617 0.9982392 0.0388617 0.0017608 -0.0388617
