!Murata Part Number: GRM21A7U2E821JW31
!These Parameters are Measured in Series Mode Connection
!Data Generated on Mar 30, 2021
!       o--ll--o
!Port1            Port2
!       o------o
!Operation Temp=25[degC], DC Bias Voltage=0[V]
!Freq. Start=100[MHz] Stop=3[GHz] 401[Steps]
# Hz S RI R 50
!Freq.(Hz) S11(Real) S11(Imag) S21(Real) S21(Imag) S12(Real) S12(Imag) S22(Real) S22(Imag)
100000000 0.0008198 -0.0150687 0.9991802 0.0150687 0.9991802 0.0150687 0.0008198 -0.0150687
107250000 0.0007829 -0.0134454 0.9992171 0.0134454 0.9992171 0.0134454 0.0007829 -0.0134454
114500000 0.0007558 -0.0119877 0.9992442 0.0119877 0.9992442 0.0119877 0.0007558 -0.0119877
121750000 0.0007366 -0.0106659 0.9992634 0.0106659 0.9992634 0.0106659 0.0007366 -0.0106659
129000000 0.0007237 -0.0094572 0.9992763 0.0094572 0.9992763 0.0094572 0.0007237 -0.0094572
136250000 0.0007161 -0.0083433 0.9992839 0.0083433 0.9992839 0.0083433 0.0007161 -0.0083433
143500000 0.0007127 -0.0073100 0.9992873 0.0073100 0.9992873 0.0073100 0.0007127 -0.0073100
150750000 0.0007131 -0.0063455 0.9992869 0.0063455 0.9992869 0.0063455 0.0007131 -0.0063455
158000000 0.0007168 -0.0054404 0.9992832 0.0054404 0.9992832 0.0054404 0.0007168 -0.0054404
165250000 0.0007232 -0.0045867 0.9992768 0.0045867 0.9992768 0.0045867 0.0007232 -0.0045867
172500000 0.0007323 -0.0037779 0.9992677 0.0037779 0.9992677 0.0037779 0.0007323 -0.0037779
179750000 0.0007436 -0.0030086 0.9992564 0.0030086 0.9992564 0.0030086 0.0007436 -0.0030086
187000000 0.0007571 -0.0022740 0.9992429 0.0022740 0.9992429 0.0022740 0.0007571 -0.0022740
194250000 0.0007725 -0.0015702 0.9992275 0.0015702 0.9992275 0.0015702 0.0007725 -0.0015702
201500000 0.0007898 -0.0008938 0.9992102 0.0008938 0.9992102 0.0008938 0.0007898 -0.0008938
208750000 0.0008089 -0.0002418 0.9991911 0.0002418 0.9991911 0.0002418 0.0008089 -0.0002418
216000000 0.0008297 0.0003883 0.9991703 -0.0003883 0.9991703 -0.0003883 0.0008297 0.0003883
223250000 0.0008522 0.0009987 0.9991478 -0.0009987 0.9991478 -0.0009987 0.0008522 0.0009987
230500000 0.0008763 0.0015913 0.9991237 -0.0015913 0.9991237 -0.0015913 0.0008763 0.0015913
237750000 0.0009020 0.0021680 0.9990980 -0.0021680 0.9990980 -0.0021680 0.0009020 0.0021680
245000000 0.0009294 0.0027303 0.9990706 -0.0027303 0.9990706 -0.0027303 0.0009294 0.0027303
252250000 0.0009585 0.0032795 0.9990415 -0.0032795 0.9990415 -0.0032795 0.0009585 0.0032795
259500000 0.0009892 0.0038169 0.9990108 -0.0038169 0.9990108 -0.0038169 0.0009892 0.0038169
266750000 0.0010217 0.0043436 0.9989783 -0.0043436 0.9989783 -0.0043436 0.0010217 0.0043436
274000000 0.0010560 0.0048606 0.9989440 -0.0048606 0.9989440 -0.0048606 0.0010560 0.0048606
281250000 0.0010921 0.0053689 0.9989079 -0.0053689 0.9989079 -0.0053689 0.0010921 0.0053689
288500000 0.0011304 0.0058692 0.9988696 -0.0058692 0.9988696 -0.0058692 0.0011304 0.0058692
295750000 0.0011708 0.0063624 0.9988292 -0.0063624 0.9988292 -0.0063624 0.0011708 0.0063624
303000000 0.0012135 0.0068493 0.9987865 -0.0068493 0.9987865 -0.0068493 0.0012135 0.0068493
310250000 0.0012588 0.0073304 0.9987412 -0.0073304 0.9987412 -0.0073304 0.0012588 0.0073304
317500000 0.0013070 0.0078066 0.9986930 -0.0078066 0.9986930 -0.0078066 0.0013070 0.0078066
324750000 0.0013583 0.0082783 0.9986417 -0.0082783 0.9986417 -0.0082783 0.0013583 0.0082783
332000000 0.0014133 0.0087461 0.9985867 -0.0087461 0.9985867 -0.0087461 0.0014133 0.0087461
339250000 0.0014725 0.0092107 0.9985275 -0.0092107 0.9985275 -0.0092107 0.0014725 0.0092107
346500000 0.0015365 0.0096724 0.9984635 -0.0096724 0.9984635 -0.0096724 0.0015365 0.0096724
353750000 0.0016061 0.0101316 0.9983939 -0.0101316 0.9983939 -0.0101316 0.0016061 0.0101316
361000000 0.0016826 0.0105886 0.9983174 -0.0105886 0.9983174 -0.0105886 0.0016826 0.0105886
368250000 0.0017671 0.0110436 0.9982329 -0.0110436 0.9982329 -0.0110436 0.0017671 0.0110436
375500000 0.0018614 0.0114961 0.9981386 -0.0114961 0.9981386 -0.0114961 0.0018614 0.0114961
382750000 0.0019675 0.0119454 0.9980325 -0.0119454 0.9980325 -0.0119454 0.0019675 0.0119454
390000000 0.0020879 0.0123900 0.9979121 -0.0123900 0.9979121 -0.0123900 0.0020879 0.0123900
397250000 0.0022253 0.0128267 0.9977747 -0.0128267 0.9977747 -0.0128267 0.0022253 0.0128267
404500000 0.0023819 0.0132506 0.9976181 -0.0132506 0.9976181 -0.0132506 0.0023819 0.0132506
411750000 0.0025588 0.0136543 0.9974412 -0.0136543 0.9974412 -0.0136543 0.0025588 0.0136543
419000000 0.0027536 0.0140275 0.9972464 -0.0140275 0.9972464 -0.0140275 0.0027536 0.0140275
426250000 0.0029573 0.0143588 0.9970427 -0.0143588 0.9970427 -0.0143588 0.0029573 0.0143588
433500000 0.0031523 0.0146402 0.9968477 -0.0146402 0.9968477 -0.0146402 0.0031523 0.0146402
440750000 0.0033146 0.0148750 0.9966854 -0.0148750 0.9966854 -0.0148750 0.0033146 0.0148750
448000000 0.0034224 0.0150822 0.9965776 -0.0150822 0.9965776 -0.0150822 0.0034224 0.0150822
455250000 0.0034693 0.0152925 0.9965307 -0.0152925 0.9965307 -0.0152925 0.0034693 0.0152925
462500000 0.0034678 0.0155337 0.9965322 -0.0155337 0.9965322 -0.0155337 0.0034678 0.0155337
469750000 0.0034416 0.0158199 0.9965584 -0.0158199 0.9965584 -0.0158199 0.0034416 0.0158199
477000000 0.0034133 0.0161504 0.9965867 -0.0161504 0.9965867 -0.0161504 0.0034133 0.0161504
484250000 0.0033980 0.0165163 0.9966020 -0.0165163 0.9966020 -0.0165163 0.0033980 0.0165163
491500000 0.0034032 0.0169071 0.9965968 -0.0169071 0.9965968 -0.0169071 0.0034032 0.0169071
498750000 0.0034315 0.0173136 0.9965685 -0.0173136 0.9965685 -0.0173136 0.0034315 0.0173136
506000000 0.0034829 0.0177292 0.9965171 -0.0177292 0.9965171 -0.0177292 0.0034829 0.0177292
513250000 0.0035563 0.0181492 0.9964437 -0.0181492 0.9964437 -0.0181492 0.0035563 0.0181492
520500000 0.0036507 0.0185702 0.9963493 -0.0185702 0.9963493 -0.0185702 0.0036507 0.0185702
527750000 0.0037652 0.0189901 0.9962348 -0.0189901 0.9962348 -0.0189901 0.0037652 0.0189901
535000000 0.0038994 0.0194068 0.9961006 -0.0194068 0.9961006 -0.0194068 0.0038994 0.0194068
542250000 0.0040532 0.0198188 0.9959468 -0.0198188 0.9959468 -0.0198188 0.0040532 0.0198188
549500000 0.0042268 0.0202244 0.9957732 -0.0202244 0.9957732 -0.0202244 0.0042268 0.0202244
556750000 0.0044208 0.0206215 0.9955792 -0.0206215 0.9955792 -0.0206215 0.0044208 0.0206215
564000000 0.0046357 0.0210078 0.9953643 -0.0210078 0.9953643 -0.0210078 0.0046357 0.0210078
571250000 0.0048721 0.0213804 0.9951279 -0.0213804 0.9951279 -0.0213804 0.0048721 0.0213804
578500000 0.0051305 0.0217359 0.9948695 -0.0217359 0.9948695 -0.0217359 0.0051305 0.0217359
585750000 0.0054108 0.0220701 0.9945892 -0.0220701 0.9945892 -0.0220701 0.0054108 0.0220701
593000000 0.0057123 0.0223780 0.9942877 -0.0223780 0.9942877 -0.0223780 0.0057123 0.0223780
600250000 0.0060332 0.0226540 0.9939668 -0.0226540 0.9939668 -0.0226540 0.0060332 0.0226540
607500000 0.0063704 0.0228922 0.9936296 -0.0228922 0.9936296 -0.0228922 0.0063704 0.0228922
614750000 0.0067187 0.0230864 0.9932813 -0.0230864 0.9932813 -0.0230864 0.0067187 0.0230864
622000000 0.0070710 0.0232308 0.9929290 -0.0232308 0.9929290 -0.0232308 0.0070710 0.0232308
629250000 0.0074178 0.0233209 0.9925822 -0.0233209 0.9925822 -0.0233209 0.0074178 0.0233209
636500000 0.0077473 0.0233547 0.9922527 -0.0233547 0.9922527 -0.0233547 0.0077473 0.0233547
643750000 0.0080463 0.0233330 0.9919537 -0.0233330 0.9919537 -0.0233330 0.0080463 0.0233330
651000000 0.0083012 0.0232610 0.9916988 -0.0232610 0.9916988 -0.0232610 0.0083012 0.0232610
658250000 0.0084995 0.0231482 0.9915005 -0.0231482 0.9915005 -0.0231482 0.0084995 0.0231482
665500000 0.0086317 0.0230079 0.9913683 -0.0230079 0.9913683 -0.0230079 0.0086317 0.0230079
672750000 0.0086927 0.0228563 0.9913073 -0.0228563 0.9913073 -0.0228563 0.0086927 0.0228563
680000000 0.0086824 0.0227104 0.9913176 -0.0227104 0.9913176 -0.0227104 0.0086824 0.0227104
687250000 0.0086059 0.0225859 0.9913941 -0.0225859 0.9913941 -0.0225859 0.0086059 0.0225859
694500000 0.0084725 0.0224960 0.9915275 -0.0224960 0.9915275 -0.0224960 0.0084725 0.0224960
701750000 0.0082939 0.0224496 0.9917061 -0.0224496 0.9917061 -0.0224496 0.0082939 0.0224496
709000000 0.0080829 0.0224519 0.9919171 -0.0224519 0.9919171 -0.0224519 0.0080829 0.0224519
716250000 0.0078518 0.0225038 0.9921482 -0.0225038 0.9921482 -0.0225038 0.0078518 0.0225038
723500000 0.0076115 0.0226037 0.9923885 -0.0226037 0.9923885 -0.0226037 0.0076115 0.0226037
730750000 0.0073708 0.0227477 0.9926292 -0.0227477 0.9926292 -0.0227477 0.0073708 0.0227477
738000000 0.0071365 0.0229308 0.9928635 -0.0229308 0.9928635 -0.0229308 0.0071365 0.0229308
745250000 0.0069133 0.0231474 0.9930867 -0.0231474 0.9930867 -0.0231474 0.0069133 0.0231474
752500000 0.0067043 0.0233923 0.9932957 -0.0233923 0.9932957 -0.0233923 0.0067043 0.0233923
759750000 0.0065112 0.0236604 0.9934888 -0.0236604 0.9934888 -0.0236604 0.0065112 0.0236604
767000000 0.0063349 0.0239471 0.9936651 -0.0239471 0.9936651 -0.0239471 0.0063349 0.0239471
774250000 0.0061753 0.0242485 0.9938247 -0.0242485 0.9938247 -0.0242485 0.0061753 0.0242485
781500000 0.0060319 0.0245614 0.9939681 -0.0245614 0.9939681 -0.0245614 0.0060319 0.0245614
788750000 0.0059041 0.0248831 0.9940959 -0.0248831 0.9940959 -0.0248831 0.0059041 0.0248831
796000000 0.0057907 0.0252112 0.9942093 -0.0252112 0.9942093 -0.0252112 0.0057907 0.0252112
803250000 0.0056908 0.0255439 0.9943092 -0.0255439 0.9943092 -0.0255439 0.0056908 0.0255439
810500000 0.0056033 0.0258798 0.9943967 -0.0258798 0.9943967 -0.0258798 0.0056033 0.0258798
817750000 0.0055272 0.0262177 0.9944728 -0.0262177 0.9944728 -0.0262177 0.0055272 0.0262177
825000000 0.0054615 0.0265567 0.9945385 -0.0265567 0.9945385 -0.0265567 0.0054615 0.0265567
832250000 0.0054052 0.0268959 0.9945948 -0.0268959 0.9945948 -0.0268959 0.0054052 0.0268959
839500000 0.0053575 0.0272350 0.9946425 -0.0272350 0.9946425 -0.0272350 0.0053575 0.0272350
846750000 0.0053175 0.0275734 0.9946825 -0.0275734 0.9946825 -0.0275734 0.0053175 0.0275734
854000000 0.0052846 0.0279109 0.9947154 -0.0279109 0.9947154 -0.0279109 0.0052846 0.0279109
861250000 0.0052581 0.0282471 0.9947419 -0.0282471 0.9947419 -0.0282471 0.0052581 0.0282471
868500000 0.0052374 0.0285819 0.9947626 -0.0285819 0.9947626 -0.0285819 0.0052374 0.0285819
875750000 0.0052220 0.0289151 0.9947780 -0.0289151 0.9947780 -0.0289151 0.0052220 0.0289151
883000000 0.0052114 0.0292468 0.9947886 -0.0292468 0.9947886 -0.0292468 0.0052114 0.0292468
890250000 0.0052051 0.0295767 0.9947949 -0.0295767 0.9947949 -0.0295767 0.0052051 0.0295767
897500000 0.0052028 0.0299050 0.9947972 -0.0299050 0.9947972 -0.0299050 0.0052028 0.0299050
904750000 0.0052041 0.0302315 0.9947959 -0.0302315 0.9947959 -0.0302315 0.0052041 0.0302315
912000000 0.0052088 0.0305563 0.9947912 -0.0305563 0.9947912 -0.0305563 0.0052088 0.0305563
919250000 0.0052164 0.0308795 0.9947836 -0.0308795 0.9947836 -0.0308795 0.0052164 0.0308795
926500000 0.0052269 0.0312010 0.9947731 -0.0312010 0.9947731 -0.0312010 0.0052269 0.0312010
933750000 0.0052399 0.0315208 0.9947601 -0.0315208 0.9947601 -0.0315208 0.0052399 0.0315208
941000000 0.0052552 0.0318391 0.9947448 -0.0318391 0.9947448 -0.0318391 0.0052552 0.0318391
948250000 0.0052727 0.0321559 0.9947273 -0.0321559 0.9947273 -0.0321559 0.0052727 0.0321559
955500000 0.0052921 0.0324711 0.9947079 -0.0324711 0.9947079 -0.0324711 0.0052921 0.0324711
962750000 0.0053134 0.0327849 0.9946866 -0.0327849 0.9946866 -0.0327849 0.0053134 0.0327849
970000000 0.0053363 0.0330973 0.9946637 -0.0330973 0.9946637 -0.0330973 0.0053363 0.0330973
977250000 0.0053609 0.0334084 0.9946391 -0.0334084 0.9946391 -0.0334084 0.0053609 0.0334084
984500000 0.0053869 0.0337182 0.9946131 -0.0337182 0.9946131 -0.0337182 0.0053869 0.0337182
991750000 0.0054142 0.0340267 0.9945858 -0.0340267 0.9945858 -0.0340267 0.0054142 0.0340267
999000000 0.0054427 0.0343340 0.9945573 -0.0343340 0.9945573 -0.0343340 0.0054427 0.0343340
1006250000 0.0054725 0.0346401 0.9945275 -0.0346401 0.9945275 -0.0346401 0.0054725 0.0346401
1013500000 0.0055033 0.0349451 0.9944967 -0.0349451 0.9944967 -0.0349451 0.0055033 0.0349451
1020750000 0.0055351 0.0352491 0.9944649 -0.0352491 0.9944649 -0.0352491 0.0055351 0.0352491
1028000000 0.0055679 0.0355520 0.9944321 -0.0355520 0.9944321 -0.0355520 0.0055679 0.0355520
1035250000 0.0056015 0.0358539 0.9943985 -0.0358539 0.9943985 -0.0358539 0.0056015 0.0358539
1042500000 0.0056360 0.0361548 0.9943640 -0.0361548 0.9943640 -0.0361548 0.0056360 0.0361548
1049750000 0.0056712 0.0364549 0.9943288 -0.0364549 0.9943288 -0.0364549 0.0056712 0.0364549
1057000000 0.0057072 0.0367540 0.9942928 -0.0367540 0.9942928 -0.0367540 0.0057072 0.0367540
1064250000 0.0057439 0.0370524 0.9942561 -0.0370524 0.9942561 -0.0370524 0.0057439 0.0370524
1071500000 0.0057812 0.0373499 0.9942188 -0.0373499 0.9942188 -0.0373499 0.0057812 0.0373499
1078750000 0.0058191 0.0376466 0.9941809 -0.0376466 0.9941809 -0.0376466 0.0058191 0.0376466
1086000000 0.0058575 0.0379426 0.9941425 -0.0379426 0.9941425 -0.0379426 0.0058575 0.0379426
1093250000 0.0058965 0.0382378 0.9941035 -0.0382378 0.9941035 -0.0382378 0.0058965 0.0382378
1100500000 0.0059361 0.0385324 0.9940639 -0.0385324 0.9940639 -0.0385324 0.0059361 0.0385324
1107750000 0.0059761 0.0388263 0.9940239 -0.0388263 0.9940239 -0.0388263 0.0059761 0.0388263
1115000000 0.0060165 0.0391196 0.9939835 -0.0391196 0.9939835 -0.0391196 0.0060165 0.0391196
1122250000 0.0060574 0.0394122 0.9939426 -0.0394122 0.9939426 -0.0394122 0.0060574 0.0394122
1129500000 0.0060987 0.0397043 0.9939013 -0.0397043 0.9939013 -0.0397043 0.0060987 0.0397043
1136750000 0.0061404 0.0399959 0.9938596 -0.0399959 0.9938596 -0.0399959 0.0061404 0.0399959
1144000000 0.0061825 0.0402869 0.9938175 -0.0402869 0.9938175 -0.0402869 0.0061825 0.0402869
1151250000 0.0062249 0.0405774 0.9937751 -0.0405774 0.9937751 -0.0405774 0.0062249 0.0405774
1158500000 0.0062676 0.0408674 0.9937324 -0.0408674 0.9937324 -0.0408674 0.0062676 0.0408674
1165750000 0.0063107 0.0411569 0.9936893 -0.0411569 0.9936893 -0.0411569 0.0063107 0.0411569
1173000000 0.0063541 0.0414460 0.9936459 -0.0414460 0.9936459 -0.0414460 0.0063541 0.0414460
1180250000 0.0063978 0.0417347 0.9936022 -0.0417347 0.9936022 -0.0417347 0.0063978 0.0417347
1187500000 0.0064418 0.0420229 0.9935582 -0.0420229 0.9935582 -0.0420229 0.0064418 0.0420229
1194750000 0.0064860 0.0423108 0.9935140 -0.0423108 0.9935140 -0.0423108 0.0064860 0.0423108
1202000000 0.0065305 0.0425983 0.9934695 -0.0425983 0.9934695 -0.0425983 0.0065305 0.0425983
1209250000 0.0065752 0.0428855 0.9934248 -0.0428855 0.9934248 -0.0428855 0.0065752 0.0428855
1216500000 0.0066202 0.0431723 0.9933798 -0.0431723 0.9933798 -0.0431723 0.0066202 0.0431723
1223750000 0.0066654 0.0434588 0.9933346 -0.0434588 0.9933346 -0.0434588 0.0066654 0.0434588
1231000000 0.0067109 0.0437450 0.9932891 -0.0437450 0.9932891 -0.0437450 0.0067109 0.0437450
1238250000 0.0067565 0.0440309 0.9932435 -0.0440309 0.9932435 -0.0440309 0.0067565 0.0440309
1245500000 0.0068024 0.0443165 0.9931976 -0.0443165 0.9931976 -0.0443165 0.0068024 0.0443165
1252750000 0.0068485 0.0446018 0.9931515 -0.0446018 0.9931515 -0.0446018 0.0068485 0.0446018
1260000000 0.0068947 0.0448870 0.9931053 -0.0448870 0.9931053 -0.0448870 0.0068947 0.0448870
1267250000 0.0069412 0.0451719 0.9930588 -0.0451719 0.9930588 -0.0451719 0.0069412 0.0451719
1274500000 0.0069878 0.0454565 0.9930122 -0.0454565 0.9930122 -0.0454565 0.0069878 0.0454565
1281750000 0.0070347 0.0457410 0.9929653 -0.0457410 0.9929653 -0.0457410 0.0070347 0.0457410
1289000000 0.0070817 0.0460253 0.9929183 -0.0460253 0.9929183 -0.0460253 0.0070817 0.0460253
1296250000 0.0071288 0.0463094 0.9928712 -0.0463094 0.9928712 -0.0463094 0.0071288 0.0463094
1303500000 0.0071762 0.0465933 0.9928238 -0.0465933 0.9928238 -0.0465933 0.0071762 0.0465933
1310750000 0.0072236 0.0468771 0.9927764 -0.0468771 0.9927764 -0.0468771 0.0072236 0.0468771
1318000000 0.0072713 0.0471607 0.9927287 -0.0471607 0.9927287 -0.0471607 0.0072713 0.0471607
1325250000 0.0073191 0.0474442 0.9926809 -0.0474442 0.9926809 -0.0474442 0.0073191 0.0474442
1332500000 0.0073671 0.0477276 0.9926329 -0.0477276 0.9926329 -0.0477276 0.0073671 0.0477276
1339750000 0.0074152 0.0480108 0.9925848 -0.0480108 0.9925848 -0.0480108 0.0074152 0.0480108
1347000000 0.0074634 0.0482940 0.9925366 -0.0482940 0.9925366 -0.0482940 0.0074634 0.0482940
1354250000 0.0075118 0.0485770 0.9924882 -0.0485770 0.9924882 -0.0485770 0.0075118 0.0485770
1361500000 0.0075604 0.0488600 0.9924396 -0.0488600 0.9924396 -0.0488600 0.0075604 0.0488600
1368750000 0.0076091 0.0491429 0.9923909 -0.0491429 0.9923909 -0.0491429 0.0076091 0.0491429
1376000000 0.0076579 0.0494258 0.9923421 -0.0494258 0.9923421 -0.0494258 0.0076579 0.0494258
1383250000 0.0077068 0.0497086 0.9922932 -0.0497086 0.9922932 -0.0497086 0.0077068 0.0497086
1390500000 0.0077559 0.0499913 0.9922441 -0.0499913 0.9922441 -0.0499913 0.0077559 0.0499913
1397750000 0.0078052 0.0502741 0.9921948 -0.0502741 0.9921948 -0.0502741 0.0078052 0.0502741
1405000000 0.0078545 0.0505567 0.9921455 -0.0505567 0.9921455 -0.0505567 0.0078545 0.0505567
1412250000 0.0079040 0.0508394 0.9920960 -0.0508394 0.9920960 -0.0508394 0.0079040 0.0508394
1419500000 0.0079536 0.0511221 0.9920464 -0.0511221 0.9920464 -0.0511221 0.0079536 0.0511221
1426750000 0.0080034 0.0514047 0.9919966 -0.0514047 0.9919966 -0.0514047 0.0080034 0.0514047
1434000000 0.0080533 0.0516874 0.9919467 -0.0516874 0.9919467 -0.0516874 0.0080533 0.0516874
1441250000 0.0081033 0.0519701 0.9918967 -0.0519701 0.9918967 -0.0519701 0.0081033 0.0519701
1448500000 0.0081534 0.0522528 0.9918466 -0.0522528 0.9918466 -0.0522528 0.0081534 0.0522528
1455750000 0.0082037 0.0525355 0.9917963 -0.0525355 0.9917963 -0.0525355 0.0082037 0.0525355
1463000000 0.0082540 0.0528183 0.9917460 -0.0528183 0.9917460 -0.0528183 0.0082540 0.0528183
1470250000 0.0083046 0.0531011 0.9916954 -0.0531011 0.9916954 -0.0531011 0.0083046 0.0531011
1477500000 0.0083552 0.0533840 0.9916448 -0.0533840 0.9916448 -0.0533840 0.0083552 0.0533840
1484750000 0.0084060 0.0536669 0.9915940 -0.0536669 0.9915940 -0.0536669 0.0084060 0.0536669
1492000000 0.0084568 0.0539499 0.9915432 -0.0539499 0.9915432 -0.0539499 0.0084568 0.0539499
1499250000 0.0085079 0.0542329 0.9914921 -0.0542329 0.9914921 -0.0542329 0.0085079 0.0542329
1506500000 0.0085590 0.0545161 0.9914410 -0.0545161 0.9914410 -0.0545161 0.0085590 0.0545161
1513750000 0.0086103 0.0547993 0.9913897 -0.0547993 0.9913897 -0.0547993 0.0086103 0.0547993
1521000000 0.0086617 0.0550826 0.9913383 -0.0550826 0.9913383 -0.0550826 0.0086617 0.0550826
1528250000 0.0087132 0.0553660 0.9912868 -0.0553660 0.9912868 -0.0553660 0.0087132 0.0553660
1535500000 0.0087648 0.0556496 0.9912352 -0.0556496 0.9912352 -0.0556496 0.0087648 0.0556496
1542750000 0.0088166 0.0559332 0.9911834 -0.0559332 0.9911834 -0.0559332 0.0088166 0.0559332
1550000000 0.0088685 0.0562169 0.9911315 -0.0562169 0.9911315 -0.0562169 0.0088685 0.0562169
1557250000 0.0089205 0.0565008 0.9910795 -0.0565008 0.9910795 -0.0565008 0.0089205 0.0565008
1564500000 0.0089727 0.0567848 0.9910273 -0.0567848 0.9910273 -0.0567848 0.0089727 0.0567848
1571750000 0.0090250 0.0570689 0.9909750 -0.0570689 0.9909750 -0.0570689 0.0090250 0.0570689
1579000000 0.0090774 0.0573532 0.9909226 -0.0573532 0.9909226 -0.0573532 0.0090774 0.0573532
1586250000 0.0091299 0.0576376 0.9908701 -0.0576376 0.9908701 -0.0576376 0.0091299 0.0576376
1593500000 0.0091826 0.0579222 0.9908174 -0.0579222 0.9908174 -0.0579222 0.0091826 0.0579222
1600750000 0.0092354 0.0582069 0.9907646 -0.0582069 0.9907646 -0.0582069 0.0092354 0.0582069
1608000000 0.0092884 0.0584918 0.9907116 -0.0584918 0.9907116 -0.0584918 0.0092884 0.0584918
1615250000 0.0093414 0.0587769 0.9906586 -0.0587769 0.9906586 -0.0587769 0.0093414 0.0587769
1622500000 0.0093946 0.0590621 0.9906054 -0.0590621 0.9906054 -0.0590621 0.0093946 0.0590621
1629750000 0.0094480 0.0593475 0.9905520 -0.0593475 0.9905520 -0.0593475 0.0094480 0.0593475
