!Murata Part Number: GRM2165C1H223GA01
!These Parameters are Measured in Series Mode Connection
!Data Generated on Mar 30, 2021
!       o--ll--o
!Port1            Port2
!       o------o
!Operation Temp=25[degC], DC Bias Voltage=0[V]
!Freq. Start=1000[kHz] Stop=6[GHz] 401[Steps]
# Hz S RI R 50
!Freq.(Hz) S11(Real) S11(Imag) S21(Real) S21(Imag) S12(Real) S12(Imag) S22(Real) S22(Imag)
1000000 0.0052567 -0.0719032 0.9947433 0.0719032 0.9947433 0.0719032 0.0052567 -0.0719032
1021987 0.0050366 -0.0703701 0.9949634 0.0703701 0.9949634 0.0703701 0.0050366 -0.0703701
1044457 0.0048257 -0.0688691 0.9951743 0.0688691 0.9951743 0.0688691 0.0048257 -0.0688691
1067422 0.0046238 -0.0673994 0.9953762 0.0673994 0.9953762 0.0673994 0.0046238 -0.0673994
1090891 0.0044304 -0.0659604 0.9955696 0.0659604 0.9955696 0.0659604 0.0044304 -0.0659604
1114877 0.0042451 -0.0645515 0.9957549 0.0645515 0.9957549 0.0645515 0.0042451 -0.0645515
1139390 0.0040677 -0.0631722 0.9959323 0.0631722 0.9959323 0.0631722 0.0040677 -0.0631722
1164441 0.0038978 -0.0618218 0.9961022 0.0618218 0.9961022 0.0618218 0.0038978 -0.0618218
1190044 0.0037350 -0.0604998 0.9962650 0.0604998 0.9962650 0.0604998 0.0037350 -0.0604998
1216210 0.0035792 -0.0592055 0.9964208 0.0592055 0.9964208 0.0592055 0.0035792 -0.0592055
1242950 0.0034299 -0.0579385 0.9965701 0.0579385 0.9965701 0.0579385 0.0034299 -0.0579385
1270279 0.0032870 -0.0566981 0.9967130 0.0566981 0.9967130 0.0566981 0.0032870 -0.0566981
1298209 0.0031501 -0.0554839 0.9968499 0.0554839 0.9968499 0.0554839 0.0031501 -0.0554839
1326753 0.0030191 -0.0542953 0.9969809 0.0542953 0.9969809 0.0542953 0.0030191 -0.0542953
1355924 0.0028935 -0.0531318 0.9971065 0.0531318 0.9971065 0.0531318 0.0028935 -0.0531318
1385737 0.0027733 -0.0519928 0.9972267 0.0519928 0.9972267 0.0519928 0.0027733 -0.0519928
1416205 0.0026582 -0.0508779 0.9973418 0.0508779 0.9973418 0.0508779 0.0026582 -0.0508779
1447343 0.0025480 -0.0497866 0.9974520 0.0497866 0.9974520 0.0497866 0.0025480 -0.0497866
1479166 0.0024424 -0.0487184 0.9975576 0.0487184 0.9975576 0.0487184 0.0024424 -0.0487184
1511688 0.0023414 -0.0476727 0.9976586 0.0476727 0.9976586 0.0476727 0.0023414 -0.0476727
1544926 0.0022446 -0.0466493 0.9977554 0.0466493 0.9977554 0.0466493 0.0022446 -0.0466493
1578894 0.0021519 -0.0456475 0.9978481 0.0456475 0.9978481 0.0456475 0.0021519 -0.0456475
1613609 0.0020632 -0.0446669 0.9979368 0.0446669 0.9979368 0.0446669 0.0020632 -0.0446669
1649087 0.0019782 -0.0437072 0.9980218 0.0437072 0.9980218 0.0437072 0.0019782 -0.0437072
1685346 0.0018969 -0.0427678 0.9981031 0.0427678 0.9981031 0.0427678 0.0018969 -0.0427678
1722402 0.0018190 -0.0418483 0.9981810 0.0418483 0.9981810 0.0418483 0.0018190 -0.0418483
1760272 0.0017444 -0.0409484 0.9982556 0.0409484 0.9982556 0.0409484 0.0017444 -0.0409484
1798975 0.0016730 -0.0400676 0.9983270 0.0400676 0.9983270 0.0400676 0.0016730 -0.0400676
1838529 0.0016046 -0.0392055 0.9983954 0.0392055 0.9983954 0.0392055 0.0016046 -0.0392055
1878953 0.0015392 -0.0383617 0.9984608 0.0383617 0.9984608 0.0383617 0.0015392 -0.0383617
1920266 0.0014765 -0.0375359 0.9985235 0.0375359 0.9985235 0.0375359 0.0014765 -0.0375359
1962487 0.0014165 -0.0367276 0.9985835 0.0367276 0.9985835 0.0367276 0.0014165 -0.0367276
2005636 0.0013591 -0.0359365 0.9986409 0.0359365 0.9986409 0.0359365 0.0013591 -0.0359365
2049734 0.0013041 -0.0351622 0.9986959 0.0351622 0.9986959 0.0351622 0.0013041 -0.0351622
2094801 0.0012514 -0.0344044 0.9987486 0.0344044 0.9987486 0.0344044 0.0012514 -0.0344044
2140860 0.0012010 -0.0336628 0.9987990 0.0336628 0.9987990 0.0336628 0.0012010 -0.0336628
2187931 0.0011528 -0.0329369 0.9988472 0.0329369 0.9988472 0.0329369 0.0011528 -0.0329369
2236037 0.0011066 -0.0322265 0.9988934 0.0322265 0.9988934 0.0322265 0.0011066 -0.0322265
2285201 0.0010624 -0.0315311 0.9989376 0.0315311 0.9989376 0.0315311 0.0010624 -0.0315311
2335446 0.0010200 -0.0308506 0.9989800 0.0308506 0.9989800 0.0308506 0.0010200 -0.0308506
2386795 0.0009795 -0.0301846 0.9990205 0.0301846 0.9990205 0.0301846 0.0009795 -0.0301846
2439274 0.0009407 -0.0295327 0.9990593 0.0295327 0.9990593 0.0295327 0.0009407 -0.0295327
2492906 0.0009036 -0.0288948 0.9990964 0.0288948 0.9990964 0.0288948 0.0009036 -0.0288948
2547717 0.0008681 -0.0282704 0.9991319 0.0282704 0.9991319 0.0282704 0.0008681 -0.0282704
2603734 0.0008340 -0.0276593 0.9991660 0.0276593 0.9991660 0.0276593 0.0008340 -0.0276593
2660982 0.0008015 -0.0270612 0.9991985 0.0270612 0.9991985 0.0270612 0.0008015 -0.0270612
2719490 0.0007703 -0.0264758 0.9992297 0.0264758 0.9992297 0.0264758 0.0007703 -0.0264758
2779283 0.0007405 -0.0259029 0.9992595 0.0259029 0.9992595 0.0259029 0.0007405 -0.0259029
2840391 0.0007120 -0.0253422 0.9992880 0.0253422 0.9992880 0.0253422 0.0007120 -0.0253422
2902843 0.0006847 -0.0247934 0.9993153 0.0247934 0.9993153 0.0247934 0.0006847 -0.0247934
2966668 0.0006586 -0.0242563 0.9993414 0.0242563 0.9993414 0.0242563 0.0006586 -0.0242563
3031896 0.0006335 -0.0237306 0.9993665 0.0237306 0.9993665 0.0237306 0.0006335 -0.0237306
3098558 0.0006096 -0.0232161 0.9993904 0.0232161 0.9993904 0.0232161 0.0006096 -0.0232161
3166686 0.0005867 -0.0227126 0.9994133 0.0227126 0.9994133 0.0227126 0.0005867 -0.0227126
3236312 0.0005648 -0.0222197 0.9994352 0.0222197 0.9994352 0.0222197 0.0005648 -0.0222197
3307469 0.0005439 -0.0217374 0.9994561 0.0217374 0.9994561 0.0217374 0.0005439 -0.0217374
3380190 0.0005239 -0.0212652 0.9994761 0.0212652 0.9994761 0.0212652 0.0005239 -0.0212652
3454511 0.0005047 -0.0208031 0.9994953 0.0208031 0.9994953 0.0208031 0.0005047 -0.0208031
3530465 0.0004864 -0.0203509 0.9995136 0.0203509 0.9995136 0.0203509 0.0004864 -0.0203509
3608090 0.0004688 -0.0199082 0.9995312 0.0199082 0.9995312 0.0199082 0.0004688 -0.0199082
3687421 0.0004521 -0.0194749 0.9995479 0.0194749 0.9995479 0.0194749 0.0004521 -0.0194749
3768496 0.0004360 -0.0190508 0.9995640 0.0190508 0.9995640 0.0190508 0.0004360 -0.0190508
3851354 0.0004207 -0.0186357 0.9995793 0.0186357 0.9995793 0.0186357 0.0004207 -0.0186357
3936034 0.0004060 -0.0182294 0.9995940 0.0182294 0.9995940 0.0182294 0.0004060 -0.0182294
4022575 0.0003920 -0.0178317 0.9996080 0.0178317 0.9996080 0.0178317 0.0003920 -0.0178317
4111020 0.0003786 -0.0174425 0.9996214 0.0174425 0.9996214 0.0174425 0.0003786 -0.0174425
4201409 0.0003658 -0.0170615 0.9996342 0.0170615 0.9996342 0.0170615 0.0003658 -0.0170615
4293785 0.0003536 -0.0166885 0.9996464 0.0166885 0.9996464 0.0166885 0.0003536 -0.0166885
4388193 0.0003419 -0.0163234 0.9996581 0.0163234 0.9996581 0.0163234 0.0003419 -0.0163234
4484676 0.0003307 -0.0159661 0.9996693 0.0159661 0.9996693 0.0159661 0.0003307 -0.0159661
4583281 0.0003201 -0.0156163 0.9996799 0.0156163 0.9996799 0.0156163 0.0003201 -0.0156163
4684054 0.0003099 -0.0152739 0.9996901 0.0152739 0.9996901 0.0152739 0.0003099 -0.0152739
4787042 0.0003002 -0.0149387 0.9996998 0.0149387 0.9996998 0.0149387 0.0003002 -0.0149387
4892295 0.0002909 -0.0146105 0.9997091 0.0146105 0.9997091 0.0146105 0.0002909 -0.0146105
4999862 0.0002820 -0.0142893 0.9997180 0.0142893 0.9997180 0.0142893 0.0002820 -0.0142893
5109794 0.0002736 -0.0139749 0.9997264 0.0139749 0.9997264 0.0139749 0.0002736 -0.0139749
5222143 0.0002655 -0.0136671 0.9997345 0.0136671 0.9997345 0.0136671 0.0002655 -0.0136671
5336962 0.0002578 -0.0133657 0.9997422 0.0133657 0.9997422 0.0133657 0.0002578 -0.0133657
5454306 0.0002504 -0.0130707 0.9997496 0.0130707 0.9997496 0.0130707 0.0002504 -0.0130707
5574230 0.0002434 -0.0127818 0.9997566 0.0127818 0.9997566 0.0127818 0.0002434 -0.0127818
5696791 0.0002368 -0.0124990 0.9997632 0.0124990 0.9997632 0.0124990 0.0002368 -0.0124990
5822046 0.0002304 -0.0122222 0.9997696 0.0122222 0.9997696 0.0122222 0.0002304 -0.0122222
5950055 0.0002243 -0.0119511 0.9997757 0.0119511 0.9997757 0.0119511 0.0002243 -0.0119511
6080879 0.0002185 -0.0116857 0.9997815 0.0116857 0.9997815 0.0116857 0.0002185 -0.0116857
6214580 0.0002130 -0.0114258 0.9997870 0.0114258 0.9997870 0.0114258 0.0002130 -0.0114258
6351220 0.0002078 -0.0111714 0.9997922 0.0111714 0.9997922 0.0111714 0.0002078 -0.0111714
6490864 0.0002028 -0.0109222 0.9997972 0.0109222 0.9997972 0.0109222 0.0002028 -0.0109222
6633579 0.0001981 -0.0106782 0.9998019 0.0106782 0.9998019 0.0106782 0.0001981 -0.0106782
6779431 0.0001935 -0.0104393 0.9998065 0.0104393 0.9998065 0.0104393 0.0001935 -0.0104393
6928491 0.0001893 -0.0102054 0.9998107 0.0102054 0.9998107 0.0102054 0.0001893 -0.0102054
7080828 0.0001852 -0.0099763 0.9998148 0.0099763 0.9998148 0.0099763 0.0001852 -0.0099763
7236514 0.0001813 -0.0097519 0.9998187 0.0097519 0.9998187 0.0097519 0.0001813 -0.0097519
7395623 0.0001776 -0.0095322 0.9998224 0.0095322 0.9998224 0.0095322 0.0001776 -0.0095322
7558231 0.0001741 -0.0093170 0.9998259 0.0093170 0.9998259 0.0093170 0.0001741 -0.0093170
7724414 0.0001708 -0.0091062 0.9998292 0.0091062 0.9998292 0.0091062 0.0001708 -0.0091062
7894251 0.0001676 -0.0088997 0.9998324 0.0088997 0.9998324 0.0088997 0.0001676 -0.0088997
8067822 0.0001647 -0.0086975 0.9998353 0.0086975 0.9998353 0.0086975 0.0001647 -0.0086975
8245209 0.0001618 -0.0084994 0.9998382 0.0084994 0.9998382 0.0084994 0.0001618 -0.0084994
8426497 0.0001591 -0.0083053 0.9998409 0.0083053 0.9998409 0.0083053 0.0001591 -0.0083053
8611770 0.0001566 -0.0081152 0.9998434 0.0081152 0.9998434 0.0081152 0.0001566 -0.0081152
8801117 0.0001542 -0.0079289 0.9998458 0.0079289 0.9998458 0.0079289 0.0001542 -0.0079289
8994628 0.0001519 -0.0077465 0.9998481 0.0077465 0.9998481 0.0077465 0.0001519 -0.0077465
9192393 0.0001498 -0.0075677 0.9998502 0.0075677 0.9998502 0.0075677 0.0001498 -0.0075677
9394506 0.0001478 -0.0073924 0.9998522 0.0073924 0.9998522 0.0073924 0.0001478 -0.0073924
9601063 0.0001458 -0.0072208 0.9998542 0.0072208 0.9998542 0.0072208 0.0001458 -0.0072208
9812162 0.0001440 -0.0070525 0.9998560 0.0070525 0.9998560 0.0070525 0.0001440 -0.0070525
10027902 0.0001423 -0.0068876 0.9998577 0.0068876 0.9998577 0.0068876 0.0001423 -0.0068876
10248386 0.0001407 -0.0067260 0.9998593 0.0067260 0.9998593 0.0067260 0.0001407 -0.0067260
10473717 0.0001392 -0.0065676 0.9998608 0.0065676 0.9998608 0.0065676 0.0001392 -0.0065676
10704003 0.0001378 -0.0064123 0.9998622 0.0064123 0.9998622 0.0064123 0.0001378 -0.0064123
10939352 0.0001365 -0.0062600 0.9998635 0.0062600 0.9998635 0.0062600 0.0001365 -0.0062600
11179876 0.0001353 -0.0061108 0.9998647 0.0061108 0.9998647 0.0061108 0.0001353 -0.0061108
11425688 0.0001341 -0.0059644 0.9998659 0.0059644 0.9998659 0.0059644 0.0001341 -0.0059644
11676904 0.0001330 -0.0058209 0.9998670 0.0058209 0.9998670 0.0058209 0.0001330 -0.0058209
11933645 0.0001320 -0.0056802 0.9998680 0.0056802 0.9998680 0.0056802 0.0001320 -0.0056802
12196030 0.0001311 -0.0055421 0.9998689 0.0055421 0.9998689 0.0055421 0.0001311 -0.0055421
12464184 0.0001302 -0.0054067 0.9998698 0.0054067 0.9998698 0.0054067 0.0001302 -0.0054067
12738235 0.0001294 -0.0052739 0.9998706 0.0052739 0.9998706 0.0052739 0.0001294 -0.0052739
13018310 0.0001286 -0.0051436 0.9998714 0.0051436 0.9998714 0.0051436 0.0001286 -0.0051436
13304544 0.0001279 -0.0050157 0.9998721 0.0050157 0.9998721 0.0050157 0.0001279 -0.0050157
13597071 0.0001273 -0.0048902 0.9998727 0.0048902 0.9998727 0.0048902 0.0001273 -0.0048902
13896030 0.0001267 -0.0047671 0.9998733 0.0047671 0.9998733 0.0047671 0.0001267 -0.0047671
14201563 0.0001262 -0.0046462 0.9998738 0.0046462 0.9998738 0.0046462 0.0001262 -0.0046462
14513813 0.0001258 -0.0045275 0.9998742 0.0045275 0.9998742 0.0045275 0.0001258 -0.0045275
14832928 0.0001253 -0.0044110 0.9998747 0.0044110 0.9998747 0.0044110 0.0001253 -0.0044110
15159060 0.0001250 -0.0042966 0.9998750 0.0042966 0.9998750 0.0042966 0.0001250 -0.0042966
15492362 0.0001246 -0.0041842 0.9998754 0.0041842 0.9998754 0.0041842 0.0001246 -0.0041842
15832993 0.0001244 -0.0040738 0.9998756 0.0040738 0.9998756 0.0040738 0.0001244 -0.0040738
16181113 0.0001241 -0.0039654 0.9998759 0.0039654 0.9998759 0.0039654 0.0001241 -0.0039654
16536888 0.0001239 -0.0038588 0.9998761 0.0038588 0.9998761 0.0038588 0.0001239 -0.0038588
16900485 0.0001238 -0.0037541 0.9998762 0.0037541 0.9998762 0.0037541 0.0001238 -0.0037541
17272076 0.0001237 -0.0036512 0.9998763 0.0036512 0.9998763 0.0036512 0.0001237 -0.0036512
17651837 0.0001236 -0.0035500 0.9998764 0.0035500 0.9998764 0.0035500 0.0001236 -0.0035500
18039948 0.0001236 -0.0034504 0.9998764 0.0034504 0.9998764 0.0034504 0.0001236 -0.0034504
18436593 0.0001236 -0.0033526 0.9998764 0.0033526 0.9998764 0.0033526 0.0001236 -0.0033526
18841959 0.0001237 -0.0032563 0.9998763 0.0032563 0.9998763 0.0032563 0.0001237 -0.0032563
19256237 0.0001238 -0.0031616 0.9998762 0.0031616 0.9998762 0.0031616 0.0001238 -0.0031616
19679624 0.0001239 -0.0030683 0.9998761 0.0030683 0.9998761 0.0030683 0.0001239 -0.0030683
20112321 0.0001241 -0.0029766 0.9998759 0.0029766 0.9998759 0.0029766 0.0001241 -0.0029766
20554530 0.0001243 -0.0028862 0.9998757 0.0028862 0.9998757 0.0028862 0.0001243 -0.0028862
21006463 0.0001245 -0.0027972 0.9998755 0.0027972 0.9998755 0.0027972 0.0001245 -0.0027972
21468333 0.0001248 -0.0027095 0.9998752 0.0027095 0.9998752 0.0027095 0.0001248 -0.0027095
21940357 0.0001251 -0.0026232 0.9998749 0.0026232 0.9998749 0.0026232 0.0001251 -0.0026232
22422760 0.0001255 -0.0025380 0.9998745 0.0025380 0.9998745 0.0025380 0.0001255 -0.0025380
22915770 0.0001259 -0.0024541 0.9998741 0.0024541 0.9998741 0.0024541 0.0001259 -0.0024541
23419619 0.0001264 -0.0023714 0.9998736 0.0023714 0.9998736 0.0023714 0.0001264 -0.0023714
23934547 0.0001268 -0.0022897 0.9998732 0.0022897 0.9998732 0.0022897 0.0001268 -0.0022897
24460796 0.0001274 -0.0022092 0.9998726 0.0022092 0.9998726 0.0022092 0.0001274 -0.0022092
24998616 0.0001279 -0.0021296 0.9998721 0.0021296 0.9998721 0.0021296 0.0001279 -0.0021296
25548261 0.0001285 -0.0020511 0.9998715 0.0020511 0.9998715 0.0020511 0.0001285 -0.0020511
26109991 0.0001292 -0.0019736 0.9998708 0.0019736 0.9998708 0.0019736 0.0001292 -0.0019736
26684072 0.0001299 -0.0018970 0.9998701 0.0018970 0.9998701 0.0018970 0.0001299 -0.0018970
27270775 0.0001306 -0.0018213 0.9998694 0.0018213 0.9998694 0.0018213 0.0001306 -0.0018213
27870378 0.0001314 -0.0017465 0.9998686 0.0017465 0.9998686 0.0017465 0.0001314 -0.0017465
28483164 0.0001323 -0.0016725 0.9998677 0.0016725 0.9998677 0.0016725 0.0001323 -0.0016725
29109424 0.0001332 -0.0015992 0.9998668 0.0015992 0.9998668 0.0015992 0.0001332 -0.0015992
29749453 0.0001341 -0.0015267 0.9998659 0.0015267 0.9998659 0.0015267 0.0001341 -0.0015267
30403555 0.0001351 -0.0014550 0.9998649 0.0014550 0.9998649 0.0014550 0.0001351 -0.0014550
31072038 0.0001362 -0.0013839 0.9998638 0.0013839 0.9998638 0.0013839 0.0001362 -0.0013839
31755220 0.0001373 -0.0013135 0.9998627 0.0013135 0.9998627 0.0013135 0.0001373 -0.0013135
32453422 0.0001385 -0.0012437 0.9998615 0.0012437 0.9998615 0.0012437 0.0001385 -0.0012437
33166976 0.0001397 -0.0011744 0.9998603 0.0011744 0.9998603 0.0011744 0.0001397 -0.0011744
33896219 0.0001410 -0.0011057 0.9998590 0.0011057 0.9998590 0.0011057 0.0001410 -0.0011057
34641496 0.0001424 -0.0010375 0.9998576 0.0010375 0.9998576 0.0010375 0.0001424 -0.0010375
35403159 0.0001438 -0.0009698 0.9998562 0.0009698 0.9998562 0.0009698 0.0001438 -0.0009698
36181569 0.0001453 -0.0009026 0.9998547 0.0009026 0.9998547 0.0009026 0.0001453 -0.0009026
36977093 0.0001469 -0.0008357 0.9998531 0.0008357 0.9998531 0.0008357 0.0001469 -0.0008357
37790109 0.0001486 -0.0007693 0.9998514 0.0007693 0.9998514 0.0007693 0.0001486 -0.0007693
38621001 0.0001503 -0.0007031 0.9998497 0.0007031 0.9998497 0.0007031 0.0001503 -0.0007031
39470161 0.0001521 -0.0006373 0.9998479 0.0006373 0.9998479 0.0006373 0.0001521 -0.0006373
40337993 0.0001541 -0.0005718 0.9998459 0.0005718 0.9998459 0.0005718 0.0001541 -0.0005718
41224905 0.0001561 -0.0005065 0.9998439 0.0005065 0.9998439 0.0005065 0.0001561 -0.0005065
42131317 0.0001582 -0.0004414 0.9998418 0.0004414 0.9998418 0.0004414 0.0001582 -0.0004414
43057659 0.0001604 -0.0003765 0.9998396 0.0003765 0.9998396 0.0003765 0.0001604 -0.0003765
44004369 0.0001627 -0.0003118 0.9998373 0.0003118 0.9998373 0.0003118 0.0001627 -0.0003118
44971893 0.0001652 -0.0002471 0.9998348 0.0002471 0.9998348 0.0002471 0.0001652 -0.0002471
45960691 0.0001677 -0.0001825 0.9998323 0.0001825 0.9998323 0.0001825 0.0001677 -0.0001825
46971230 0.0001704 -0.0001180 0.9998296 0.0001180 0.9998296 0.0001180 0.0001704 -0.0001180
48003987 0.0001732 -0.0000534 0.9998268 0.0000534 0.9998268 0.0000534 0.0001732 -0.0000534
49059451 0.0001762 0.0000111 0.9998238 -0.0000111 0.9998238 -0.0000111 0.0001762 0.0000111
50138122 0.0001793 0.0000758 0.9998207 -0.0000758 0.9998207 -0.0000758 0.0001793 0.0000758
51240510 0.0001825 0.0001405 0.9998175 -0.0001405 0.9998175 -0.0001405 0.0001825 0.0001405
52367136 0.0001860 0.0002054 0.9998140 -0.0002054 0.9998140 -0.0002054 0.0001860 0.0002054
53518533 0.0001895 0.0002705 0.9998105 -0.0002705 0.9998105 -0.0002705 0.0001895 0.0002705
54695245 0.0001933 0.0003359 0.9998067 -0.0003359 0.9998067 -0.0003359 0.0001933 0.0003359
55897831 0.0001973 0.0004015 0.9998027 -0.0004015 0.9998027 -0.0004015 0.0001973 0.0004015
57126857 0.0002015 0.0004674 0.9997985 -0.0004674 0.9997985 -0.0004674 0.0002015 0.0004674
58382906 0.0002059 0.0005337 0.9997941 -0.0005337 0.9997941 -0.0005337 0.0002059 0.0005337
59666572 0.0002105 0.0006004 0.9997895 -0.0006004 0.9997895 -0.0006004 0.0002105 0.0006004
60978462 0.0002154 0.0006675 0.9997846 -0.0006675 0.9997846 -0.0006675 0.0002154 0.0006675
62319196 0.0002206 0.0007352 0.9997794 -0.0007352 0.9997794 -0.0007352 0.0002206 0.0007352
63689409 0.0002260 0.0008035 0.9997740 -0.0008035 0.9997740 -0.0008035 0.0002260 0.0008035
65089750 0.0002318 0.0008724 0.9997682 -0.0008724 0.9997682 -0.0008724 0.0002318 0.0008724
66520879 0.0002380 0.0009420 0.9997620 -0.0009420 0.9997620 -0.0009420 0.0002380 0.0009420
67983474 0.0002446 0.0010124 0.9997554 -0.0010124 0.9997554 -0.0010124 0.0002446 0.0010124
69478228 0.0002515 0.0010836 0.9997485 -0.0010836 0.9997485 -0.0010836 0.0002515 0.0010836
71005847 0.0002590 0.0011558 0.9997410 -0.0011558 0.9997410 -0.0011558 0.0002590 0.0011558
72567054 0.0002671 0.0012291 0.9997329 -0.0012291 0.9997329 -0.0012291 0.0002671 0.0012291
74162587 0.0002757 0.0013035 0.9997243 -0.0013035 0.9997243 -0.0013035 0.0002757 0.0013035
75793201 0.0002851 0.0013792 0.9997149 -0.0013792 0.9997149 -0.0013792 0.0002851 0.0013792
77459667 0.0002953 0.0014563 0.9997047 -0.0014563 0.9997047 -0.0014563 0.0002953 0.0014563
79162774 0.0003065 0.0015349 0.9996935 -0.0015349 0.9996935 -0.0015349 0.0003065 0.0015349
80903327 0.0003189 0.0016154 0.9996811 -0.0016154 0.9996811 -0.0016154 0.0003189 0.0016154
82682150 0.0003326 0.0016978 0.9996674 -0.0016978 0.9996674 -0.0016978 0.0003326 0.0016978
84500083 0.0003481 0.0017824 0.9996519 -0.0017824 0.9996519 -0.0017824 0.0003481 0.0017824
86357988 0.0003657 0.0018695 0.9996343 -0.0018695 0.9996343 -0.0018695 0.0003657 0.0018695
88256743 0.0003860 0.0019594 0.9996140 -0.0019594 0.9996140 -0.0019594 0.0003860 0.0019594
90197245 0.0004097 0.0020523 0.9995903 -0.0020523 0.9995903 -0.0020523 0.0004097 0.0020523
92180413 0.0004381 0.0021487 0.9995619 -0.0021487 0.9995619 -0.0021487 0.0004381 0.0021487
94207185 0.0004726 0.0022488 0.9995274 -0.0022488 0.9995274 -0.0022488 0.0004726 0.0022488
96278520 0.0005156 0.0023526 0.9994844 -0.0023526 0.9994844 -0.0023526 0.0005156 0.0023526
98395398 0.0005703 0.0024594 0.9994297 -0.0024594 0.9994297 -0.0024594 0.0005703 0.0024594
100558819 0.0006415 0.0025672 0.9993585 -0.0025672 0.9993585 -0.0025672 0.0006415 0.0025672
102769807 0.0007353 0.0026710 0.9992647 -0.0026710 0.9992647 -0.0026710 0.0007353 0.0026710
105029408 0.0008583 0.0027594 0.9991417 -0.0027594 0.9991417 -0.0027594 0.0008583 0.0027594
107338692 0.0010120 0.0028106 0.9989880 -0.0028106 0.9989880 -0.0028106 0.0010120 0.0028106
