!Murata Part Number: GRM2165C1H333JA01
!These Parameters are Measured in Series Mode Connection
!Data Generated on Mar 30, 2021
!       o--ll--o
!Port1            Port2
!       o------o
!Operation Temp=25[degC], DC Bias Voltage=0[V]
!Freq. Start=1000[kHz] Stop=6[GHz] 401[Steps]
# Hz S RI R 50
!Freq.(Hz) S11(Real) S11(Imag) S21(Real) S21(Imag) S12(Real) S12(Imag) S22(Real) S22(Imag)
1000000 0.0023370 -0.0478295 0.9976630 0.0478295 0.9976630 0.0478295 0.0023370 -0.0478295
1021987 0.0022397 -0.0468035 0.9977603 0.0468035 0.9977603 0.0468035 0.0022397 -0.0468035
1044457 0.0021465 -0.0457993 0.9978535 0.0457993 0.9978535 0.0457993 0.0021465 -0.0457993
1067422 0.0020572 -0.0448164 0.9979428 0.0448164 0.9979428 0.0448164 0.0020572 -0.0448164
1090891 0.0019718 -0.0438543 0.9980282 0.0438543 0.9980282 0.0438543 0.0019718 -0.0438543
1114877 0.0018899 -0.0429127 0.9981101 0.0429127 0.9981101 0.0429127 0.0018899 -0.0429127
1139390 0.0018116 -0.0419911 0.9981884 0.0419911 0.9981884 0.0419911 0.0018116 -0.0419911
1164441 0.0017366 -0.0410891 0.9982634 0.0410891 0.9982634 0.0410891 0.0017366 -0.0410891
1190044 0.0016647 -0.0402062 0.9983353 0.0402062 0.9983353 0.0402062 0.0016647 -0.0402062
1216210 0.0015960 -0.0393421 0.9984040 0.0393421 0.9984040 0.0393421 0.0015960 -0.0393421
1242950 0.0015301 -0.0384965 0.9984699 0.0384965 0.9984699 0.0384965 0.0015301 -0.0384965
1270279 0.0014671 -0.0376688 0.9985329 0.0376688 0.9985329 0.0376688 0.0014671 -0.0376688
1298209 0.0014067 -0.0368587 0.9985933 0.0368587 0.9985933 0.0368587 0.0014067 -0.0368587
1326753 0.0013489 -0.0360659 0.9986511 0.0360659 0.9986511 0.0360659 0.0013489 -0.0360659
1355924 0.0012936 -0.0352900 0.9987064 0.0352900 0.9987064 0.0352900 0.0012936 -0.0352900
1385737 0.0012406 -0.0345306 0.9987594 0.0345306 0.9987594 0.0345306 0.0012406 -0.0345306
1416205 0.0011898 -0.0337874 0.9988102 0.0337874 0.9988102 0.0337874 0.0011898 -0.0337874
1447343 0.0011413 -0.0330600 0.9988587 0.0330600 0.9988587 0.0330600 0.0011413 -0.0330600
1479166 0.0010948 -0.0323482 0.9989052 0.0323482 0.9989052 0.0323482 0.0010948 -0.0323482
1511688 0.0010503 -0.0316515 0.9989497 0.0316515 0.9989497 0.0316515 0.0010503 -0.0316515
1544926 0.0010076 -0.0309697 0.9989924 0.0309697 0.9989924 0.0309697 0.0010076 -0.0309697
1578894 0.0009668 -0.0303024 0.9990332 0.0303024 0.9990332 0.0303024 0.0009668 -0.0303024
1613609 0.0009278 -0.0296494 0.9990722 0.0296494 0.9990722 0.0296494 0.0009278 -0.0296494
1649087 0.0008904 -0.0290103 0.9991096 0.0290103 0.9991096 0.0290103 0.0008904 -0.0290103
1685346 0.0008546 -0.0283848 0.9991454 0.0283848 0.9991454 0.0283848 0.0008546 -0.0283848
1722402 0.0008203 -0.0277726 0.9991797 0.0277726 0.9991797 0.0277726 0.0008203 -0.0277726
1760272 0.0007875 -0.0271736 0.9992125 0.0271736 0.9992125 0.0271736 0.0007875 -0.0271736
1798975 0.0007560 -0.0265873 0.9992440 0.0265873 0.9992440 0.0265873 0.0007560 -0.0265873
1838529 0.0007260 -0.0260135 0.9992740 0.0260135 0.9992740 0.0260135 0.0007260 -0.0260135
1878953 0.0006972 -0.0254519 0.9993028 0.0254519 0.9993028 0.0254519 0.0006972 -0.0254519
1920266 0.0006696 -0.0249024 0.9993304 0.0249024 0.9993304 0.0249024 0.0006696 -0.0249024
1962487 0.0006432 -0.0243645 0.9993568 0.0243645 0.9993568 0.0243645 0.0006432 -0.0243645
2005636 0.0006180 -0.0238382 0.9993820 0.0238382 0.9993820 0.0238382 0.0006180 -0.0238382
2049734 0.0005938 -0.0233230 0.9994062 0.0233230 0.9994062 0.0233230 0.0005938 -0.0233230
2094801 0.0005707 -0.0228189 0.9994293 0.0228189 0.9994293 0.0228189 0.0005707 -0.0228189
2140860 0.0005485 -0.0223255 0.9994515 0.0223255 0.9994515 0.0223255 0.0005485 -0.0223255
2187931 0.0005273 -0.0218426 0.9994727 0.0218426 0.9994727 0.0218426 0.0005273 -0.0218426
2236037 0.0005070 -0.0213700 0.9994930 0.0213700 0.9994930 0.0213700 0.0005070 -0.0213700
2285201 0.0004876 -0.0209075 0.9995124 0.0209075 0.9995124 0.0209075 0.0004876 -0.0209075
2335446 0.0004690 -0.0204549 0.9995310 0.0204549 0.9995310 0.0204549 0.0004690 -0.0204549
2386795 0.0004512 -0.0200119 0.9995488 0.0200119 0.9995488 0.0200119 0.0004512 -0.0200119
2439274 0.0004342 -0.0195783 0.9995658 0.0195783 0.9995658 0.0195783 0.0004342 -0.0195783
2492906 0.0004179 -0.0191540 0.9995821 0.0191540 0.9995821 0.0191540 0.0004179 -0.0191540
2547717 0.0004023 -0.0187387 0.9995977 0.0187387 0.9995977 0.0187387 0.0004023 -0.0187387
2603734 0.0003874 -0.0183323 0.9996126 0.0183323 0.9996126 0.0183323 0.0003874 -0.0183323
2660982 0.0003731 -0.0179345 0.9996269 0.0179345 0.9996269 0.0179345 0.0003731 -0.0179345
2719490 0.0003595 -0.0175451 0.9996405 0.0175451 0.9996405 0.0175451 0.0003595 -0.0175451
2779283 0.0003464 -0.0171641 0.9996536 0.0171641 0.9996536 0.0171641 0.0003464 -0.0171641
2840391 0.0003339 -0.0167911 0.9996661 0.0167911 0.9996661 0.0167911 0.0003339 -0.0167911
2902843 0.0003219 -0.0164261 0.9996781 0.0164261 0.9996781 0.0164261 0.0003219 -0.0164261
2966668 0.0003105 -0.0160688 0.9996895 0.0160688 0.9996895 0.0160688 0.0003105 -0.0160688
3031896 0.0002996 -0.0157192 0.9997004 0.0157192 0.9997004 0.0157192 0.0002996 -0.0157192
3098558 0.0002891 -0.0153769 0.9997109 0.0153769 0.9997109 0.0153769 0.0002891 -0.0153769
3166686 0.0002791 -0.0150419 0.9997209 0.0150419 0.9997209 0.0150419 0.0002791 -0.0150419
3236312 0.0002695 -0.0147141 0.9997305 0.0147141 0.9997305 0.0147141 0.0002695 -0.0147141
3307469 0.0002604 -0.0143931 0.9997396 0.0143931 0.9997396 0.0143931 0.0002604 -0.0143931
3380190 0.0002516 -0.0140790 0.9997484 0.0140790 0.9997484 0.0140790 0.0002516 -0.0140790
3454511 0.0002432 -0.0137715 0.9997568 0.0137715 0.9997568 0.0137715 0.0002432 -0.0137715
3530465 0.0002353 -0.0134706 0.9997647 0.0134706 0.9997647 0.0134706 0.0002353 -0.0134706
3608090 0.0002276 -0.0131760 0.9997724 0.0131760 0.9997724 0.0131760 0.0002276 -0.0131760
3687421 0.0002203 -0.0128876 0.9997797 0.0128876 0.9997797 0.0128876 0.0002203 -0.0128876
3768496 0.0002133 -0.0126053 0.9997867 0.0126053 0.9997867 0.0126053 0.0002133 -0.0126053
3851354 0.0002067 -0.0123290 0.9997933 0.0123290 0.9997933 0.0123290 0.0002067 -0.0123290
3936034 0.0002003 -0.0120585 0.9997997 0.0120585 0.9997997 0.0120585 0.0002003 -0.0120585
4022575 0.0001942 -0.0117938 0.9998058 0.0117938 0.9998058 0.0117938 0.0001942 -0.0117938
4111020 0.0001884 -0.0115346 0.9998116 0.0115346 0.9998116 0.0115346 0.0001884 -0.0115346
4201409 0.0001829 -0.0112808 0.9998171 0.0112808 0.9998171 0.0112808 0.0001829 -0.0112808
4293785 0.0001776 -0.0110324 0.9998224 0.0110324 0.9998224 0.0110324 0.0001776 -0.0110324
4388193 0.0001726 -0.0107892 0.9998274 0.0107892 0.9998274 0.0107892 0.0001726 -0.0107892
4484676 0.0001678 -0.0105511 0.9998322 0.0105511 0.9998322 0.0105511 0.0001678 -0.0105511
4583281 0.0001632 -0.0103180 0.9998368 0.0103180 0.9998368 0.0103180 0.0001632 -0.0103180
4684054 0.0001588 -0.0100898 0.9998412 0.0100898 0.9998412 0.0100898 0.0001588 -0.0100898
4787042 0.0001546 -0.0098664 0.9998454 0.0098664 0.9998454 0.0098664 0.0001546 -0.0098664
4892295 0.0001507 -0.0096477 0.9998493 0.0096477 0.9998493 0.0096477 0.0001507 -0.0096477
4999862 0.0001469 -0.0094335 0.9998531 0.0094335 0.9998531 0.0094335 0.0001469 -0.0094335
5109794 0.0001433 -0.0092238 0.9998567 0.0092238 0.9998567 0.0092238 0.0001433 -0.0092238
5222143 0.0001399 -0.0090184 0.9998601 0.0090184 0.9998601 0.0090184 0.0001399 -0.0090184
5336962 0.0001367 -0.0088173 0.9998633 0.0088173 0.9998633 0.0088173 0.0001367 -0.0088173
5454306 0.0001336 -0.0086204 0.9998664 0.0086204 0.9998664 0.0086204 0.0001336 -0.0086204
5574230 0.0001306 -0.0084276 0.9998694 0.0084276 0.9998694 0.0084276 0.0001306 -0.0084276
5696791 0.0001278 -0.0082388 0.9998722 0.0082388 0.9998722 0.0082388 0.0001278 -0.0082388
5822046 0.0001252 -0.0080539 0.9998748 0.0080539 0.9998748 0.0080539 0.0001252 -0.0080539
5950055 0.0001227 -0.0078728 0.9998773 0.0078728 0.9998773 0.0078728 0.0001227 -0.0078728
6080879 0.0001203 -0.0076954 0.9998797 0.0076954 0.9998797 0.0076954 0.0001203 -0.0076954
6214580 0.0001181 -0.0075217 0.9998819 0.0075217 0.9998819 0.0075217 0.0001181 -0.0075217
6351220 0.0001160 -0.0073516 0.9998840 0.0073516 0.9998840 0.0073516 0.0001160 -0.0073516
6490864 0.0001140 -0.0071849 0.9998860 0.0071849 0.9998860 0.0071849 0.0001140 -0.0071849
6633579 0.0001121 -0.0070217 0.9998879 0.0070217 0.9998879 0.0070217 0.0001121 -0.0070217
6779431 0.0001103 -0.0068618 0.9998897 0.0068618 0.9998897 0.0068618 0.0001103 -0.0068618
6928491 0.0001086 -0.0067051 0.9998914 0.0067051 0.9998914 0.0067051 0.0001086 -0.0067051
7080828 0.0001070 -0.0065517 0.9998930 0.0065517 0.9998930 0.0065517 0.0001070 -0.0065517
7236514 0.0001055 -0.0064013 0.9998945 0.0064013 0.9998945 0.0064013 0.0001055 -0.0064013
7395623 0.0001041 -0.0062540 0.9998959 0.0062540 0.9998959 0.0062540 0.0001041 -0.0062540
7558231 0.0001028 -0.0061096 0.9998972 0.0061096 0.9998972 0.0061096 0.0001028 -0.0061096
7724414 0.0001016 -0.0059682 0.9998984 0.0059682 0.9998984 0.0059682 0.0001016 -0.0059682
7894251 0.0001005 -0.0058296 0.9998995 0.0058296 0.9998995 0.0058296 0.0001005 -0.0058296
8067822 0.0000994 -0.0056938 0.9999006 0.0056938 0.9999006 0.0056938 0.0000994 -0.0056938
8245209 0.0000984 -0.0055607 0.9999016 0.0055607 0.9999016 0.0055607 0.0000984 -0.0055607
8426497 0.0000975 -0.0054302 0.9999025 0.0054302 0.9999025 0.0054302 0.0000975 -0.0054302
8611770 0.0000967 -0.0053023 0.9999033 0.0053023 0.9999033 0.0053023 0.0000967 -0.0053023
8801117 0.0000959 -0.0051770 0.9999041 0.0051770 0.9999041 0.0051770 0.0000959 -0.0051770
8994628 0.0000952 -0.0050541 0.9999048 0.0050541 0.9999048 0.0050541 0.0000952 -0.0050541
9192393 0.0000946 -0.0049336 0.9999054 0.0049336 0.9999054 0.0049336 0.0000946 -0.0049336
9394506 0.0000940 -0.0048154 0.9999060 0.0048154 0.9999060 0.0048154 0.0000940 -0.0048154
9601063 0.0000935 -0.0046996 0.9999065 0.0046996 0.9999065 0.0046996 0.0000935 -0.0046996
9812162 0.0000930 -0.0045860 0.9999070 0.0045860 0.9999070 0.0045860 0.0000930 -0.0045860
10027902 0.0000926 -0.0044746 0.9999074 0.0044746 0.9999074 0.0044746 0.0000926 -0.0044746
10248386 0.0000922 -0.0043653 0.9999078 0.0043653 0.9999078 0.0043653 0.0000922 -0.0043653
10473717 0.0000919 -0.0042581 0.9999081 0.0042581 0.9999081 0.0042581 0.0000919 -0.0042581
10704003 0.0000916 -0.0041529 0.9999084 0.0041529 0.9999084 0.0041529 0.0000916 -0.0041529
10939352 0.0000914 -0.0040497 0.9999086 0.0040497 0.9999086 0.0040497 0.0000914 -0.0040497
11179876 0.0000912 -0.0039484 0.9999088 0.0039484 0.9999088 0.0039484 0.0000912 -0.0039484
11425688 0.0000911 -0.0038491 0.9999089 0.0038491 0.9999089 0.0038491 0.0000911 -0.0038491
11676904 0.0000910 -0.0037515 0.9999090 0.0037515 0.9999090 0.0037515 0.0000910 -0.0037515
11933645 0.0000909 -0.0036558 0.9999091 0.0036558 0.9999091 0.0036558 0.0000909 -0.0036558
12196030 0.0000909 -0.0035618 0.9999091 0.0035618 0.9999091 0.0035618 0.0000909 -0.0035618
12464184 0.0000909 -0.0034695 0.9999091 0.0034695 0.9999091 0.0034695 0.0000909 -0.0034695
12738235 0.0000909 -0.0033788 0.9999091 0.0033788 0.9999091 0.0033788 0.0000909 -0.0033788
13018310 0.0000910 -0.0032898 0.9999090 0.0032898 0.9999090 0.0032898 0.0000910 -0.0032898
13304544 0.0000912 -0.0032023 0.9999088 0.0032023 0.9999088 0.0032023 0.0000912 -0.0032023
13597071 0.0000913 -0.0031164 0.9999087 0.0031164 0.9999087 0.0031164 0.0000913 -0.0031164
13896030 0.0000915 -0.0030319 0.9999085 0.0030319 0.9999085 0.0030319 0.0000915 -0.0030319
14201563 0.0000917 -0.0029489 0.9999083 0.0029489 0.9999083 0.0029489 0.0000917 -0.0029489
14513813 0.0000920 -0.0028673 0.9999080 0.0028673 0.9999080 0.0028673 0.0000920 -0.0028673
14832928 0.0000923 -0.0027870 0.9999077 0.0027870 0.9999077 0.0027870 0.0000923 -0.0027870
15159060 0.0000926 -0.0027081 0.9999074 0.0027081 0.9999074 0.0027081 0.0000926 -0.0027081
15492362 0.0000929 -0.0026305 0.9999071 0.0026305 0.9999071 0.0026305 0.0000929 -0.0026305
15832993 0.0000933 -0.0025541 0.9999067 0.0025541 0.9999067 0.0025541 0.0000933 -0.0025541
16181113 0.0000937 -0.0024790 0.9999063 0.0024790 0.9999063 0.0024790 0.0000937 -0.0024790
16536888 0.0000942 -0.0024050 0.9999058 0.0024050 0.9999058 0.0024050 0.0000942 -0.0024050
16900485 0.0000946 -0.0023322 0.9999054 0.0023322 0.9999054 0.0023322 0.0000946 -0.0023322
17272076 0.0000951 -0.0022605 0.9999049 0.0022605 0.9999049 0.0022605 0.0000951 -0.0022605
17651837 0.0000957 -0.0021898 0.9999043 0.0021898 0.9999043 0.0021898 0.0000957 -0.0021898
18039948 0.0000962 -0.0021202 0.9999038 0.0021202 0.9999038 0.0021202 0.0000962 -0.0021202
18436593 0.0000968 -0.0020516 0.9999032 0.0020516 0.9999032 0.0020516 0.0000968 -0.0020516
18841959 0.0000974 -0.0019840 0.9999026 0.0019840 0.9999026 0.0019840 0.0000974 -0.0019840
19256237 0.0000981 -0.0019173 0.9999019 0.0019173 0.9999019 0.0019173 0.0000981 -0.0019173
19679624 0.0000988 -0.0018515 0.9999012 0.0018515 0.9999012 0.0018515 0.0000988 -0.0018515
20112321 0.0000995 -0.0017865 0.9999005 0.0017865 0.9999005 0.0017865 0.0000995 -0.0017865
20554530 0.0001003 -0.0017225 0.9998997 0.0017225 0.9998997 0.0017225 0.0001003 -0.0017225
21006463 0.0001011 -0.0016592 0.9998989 0.0016592 0.9998989 0.0016592 0.0001011 -0.0016592
21468333 0.0001019 -0.0015967 0.9998981 0.0015967 0.9998981 0.0015967 0.0001019 -0.0015967
21940357 0.0001028 -0.0015349 0.9998972 0.0015349 0.9998972 0.0015349 0.0001028 -0.0015349
22422760 0.0001037 -0.0014739 0.9998963 0.0014739 0.9998963 0.0014739 0.0001037 -0.0014739
22915770 0.0001047 -0.0014136 0.9998953 0.0014136 0.9998953 0.0014136 0.0001047 -0.0014136
23419619 0.0001057 -0.0013539 0.9998943 0.0013539 0.9998943 0.0013539 0.0001057 -0.0013539
23934547 0.0001068 -0.0012948 0.9998932 0.0012948 0.9998932 0.0012948 0.0001068 -0.0012948
24460796 0.0001079 -0.0012363 0.9998921 0.0012363 0.9998921 0.0012363 0.0001079 -0.0012363
24998616 0.0001090 -0.0011784 0.9998910 0.0011784 0.9998910 0.0011784 0.0001090 -0.0011784
25548261 0.0001102 -0.0011210 0.9998898 0.0011210 0.9998898 0.0011210 0.0001102 -0.0011210
26109991 0.0001115 -0.0010641 0.9998885 0.0010641 0.9998885 0.0010641 0.0001115 -0.0010641
26684072 0.0001128 -0.0010077 0.9998872 0.0010077 0.9998872 0.0010077 0.0001128 -0.0010077
27270775 0.0001142 -0.0009517 0.9998858 0.0009517 0.9998858 0.0009517 0.0001142 -0.0009517
27870378 0.0001156 -0.0008961 0.9998844 0.0008961 0.9998844 0.0008961 0.0001156 -0.0008961
28483164 0.0001171 -0.0008410 0.9998829 0.0008410 0.9998829 0.0008410 0.0001171 -0.0008410
29109424 0.0001187 -0.0007861 0.9998813 0.0007861 0.9998813 0.0007861 0.0001187 -0.0007861
29749453 0.0001204 -0.0007316 0.9998796 0.0007316 0.9998796 0.0007316 0.0001204 -0.0007316
30403555 0.0001221 -0.0006774 0.9998779 0.0006774 0.9998779 0.0006774 0.0001221 -0.0006774
31072038 0.0001240 -0.0006234 0.9998760 0.0006234 0.9998760 0.0006234 0.0001240 -0.0006234
31755220 0.0001259 -0.0005697 0.9998741 0.0005697 0.9998741 0.0005697 0.0001259 -0.0005697
32453422 0.0001279 -0.0005162 0.9998721 0.0005162 0.9998721 0.0005162 0.0001279 -0.0005162
33166976 0.0001300 -0.0004628 0.9998700 0.0004628 0.9998700 0.0004628 0.0001300 -0.0004628
33896219 0.0001322 -0.0004095 0.9998678 0.0004095 0.9998678 0.0004095 0.0001322 -0.0004095
34641496 0.0001346 -0.0003564 0.9998654 0.0003564 0.9998654 0.0003564 0.0001346 -0.0003564
35403159 0.0001370 -0.0003033 0.9998630 0.0003033 0.9998630 0.0003033 0.0001370 -0.0003033
36181569 0.0001396 -0.0002502 0.9998604 0.0002502 0.9998604 0.0002502 0.0001396 -0.0002502
36977093 0.0001424 -0.0001971 0.9998576 0.0001971 0.9998576 0.0001971 0.0001424 -0.0001971
37790109 0.0001453 -0.0001440 0.9998547 0.0001440 0.9998547 0.0001440 0.0001453 -0.0001440
38621001 0.0001483 -0.0000908 0.9998517 0.0000908 0.9998517 0.0000908 0.0001483 -0.0000908
39470161 0.0001515 -0.0000374 0.9998485 0.0000374 0.9998485 0.0000374 0.0001515 -0.0000374
40337993 0.0001549 0.0000161 0.9998451 -0.0000161 0.9998451 -0.0000161 0.0001549 0.0000161
41224905 0.0001586 0.0000699 0.9998414 -0.0000699 0.9998414 -0.0000699 0.0001586 0.0000699
42131317 0.0001624 0.0001239 0.9998376 -0.0001239 0.9998376 -0.0001239 0.0001624 0.0001239
43057659 0.0001665 0.0001783 0.9998335 -0.0001783 0.9998335 -0.0001783 0.0001665 0.0001783
44004369 0.0001709 0.0002330 0.9998291 -0.0002330 0.9998291 -0.0002330 0.0001709 0.0002330
44971893 0.0001755 0.0002882 0.9998245 -0.0002882 0.9998245 -0.0002882 0.0001755 0.0002882
45960691 0.0001805 0.0003439 0.9998195 -0.0003439 0.9998195 -0.0003439 0.0001805 0.0003439
46971230 0.0001859 0.0004002 0.9998141 -0.0004002 0.9998141 -0.0004002 0.0001859 0.0004002
48003987 0.0001916 0.0004571 0.9998084 -0.0004571 0.9998084 -0.0004571 0.0001916 0.0004571
49059451 0.0001978 0.0005148 0.9998022 -0.0005148 0.9998022 -0.0005148 0.0001978 0.0005148
50138122 0.0002046 0.0005733 0.9997954 -0.0005733 0.9997954 -0.0005733 0.0002046 0.0005733
51240510 0.0002119 0.0006328 0.9997881 -0.0006328 0.9997881 -0.0006328 0.0002119 0.0006328
52367136 0.0002199 0.0006933 0.9997801 -0.0006933 0.9997801 -0.0006933 0.0002199 0.0006933
53518533 0.0002288 0.0007551 0.9997712 -0.0007551 0.9997712 -0.0007551 0.0002288 0.0007551
54695245 0.0002385 0.0008182 0.9997615 -0.0008182 0.9997615 -0.0008182 0.0002385 0.0008182
55897831 0.0002494 0.0008828 0.9997506 -0.0008828 0.9997506 -0.0008828 0.0002494 0.0008828
57126857 0.0002616 0.0009492 0.9997384 -0.0009492 0.9997384 -0.0009492 0.0002616 0.0009492
58382906 0.0002754 0.0010176 0.9997246 -0.0010176 0.9997246 -0.0010176 0.0002754 0.0010176
59666572 0.0002913 0.0010882 0.9997087 -0.0010882 0.9997087 -0.0010882 0.0002913 0.0010882
60978462 0.0003096 0.0011613 0.9996904 -0.0011613 0.9996904 -0.0011613 0.0003096 0.0011613
62319196 0.0003312 0.0012374 0.9996688 -0.0012374 0.9996688 -0.0012374 0.0003312 0.0012374
63689409 0.0003569 0.0013167 0.9996431 -0.0013167 0.9996431 -0.0013167 0.0003569 0.0013167
65089750 0.0003880 0.0013996 0.9996120 -0.0013996 0.9996120 -0.0013996 0.0003880 0.0013996
66520879 0.0004264 0.0014863 0.9995736 -0.0014863 0.9995736 -0.0014863 0.0004264 0.0014863
67983474 0.0004749 0.0015768 0.9995251 -0.0015768 0.9995251 -0.0015768 0.0004749 0.0015768
69478228 0.0005371 0.0016703 0.9994629 -0.0016703 0.9994629 -0.0016703 0.0005371 0.0016703
71005847 0.0006185 0.0017643 0.9993815 -0.0017643 0.9993815 -0.0017643 0.0006185 0.0017643
72567054 0.0007260 0.0018529 0.9992740 -0.0018529 0.9992740 -0.0018529 0.0007260 0.0018529
74162587 0.0008671 0.0019233 0.9991329 -0.0019233 0.9991329 -0.0019233 0.0008671 0.0019233
75793201 0.0010435 0.0019514 0.9989565 -0.0019514 0.9989565 -0.0019514 0.0010435 0.0019514
77459667 0.0012367 0.0019025 0.9987633 -0.0019025 0.9987633 -0.0019025 0.0012367 0.0019025
79162774 0.0013899 0.0017542 0.9986101 -0.0017542 0.9986101 -0.0017542 0.0013899 0.0017542
80903327 0.0014283 0.0015450 0.9985717 -0.0015450 0.9985717 -0.0015450 0.0014283 0.0015450
82682150 0.0013363 0.0013701 0.9986637 -0.0013701 0.9986637 -0.0013701 0.0013363 0.0013701
84500083 0.0011778 0.0012938 0.9988222 -0.0012938 0.9988222 -0.0012938 0.0011778 0.0012938
86357988 0.0010224 0.0013094 0.9989776 -0.0013094 0.9989776 -0.0013094 0.0010224 0.0013094
88256743 0.0009009 0.0013820 0.9990991 -0.0013820 0.9990991 -0.0013820 0.0009009 0.0013820
90197245 0.0008167 0.0014831 0.9991833 -0.0014831 0.9991833 -0.0014831 0.0008167 0.0014831
92180413 0.0007638 0.0015964 0.9992362 -0.0015964 0.9992362 -0.0015964 0.0007638 0.0015964
94207185 0.0007355 0.0017144 0.9992645 -0.0017144 0.9992645 -0.0017144 0.0007355 0.0017144
96278520 0.0007268 0.0018337 0.9992732 -0.0018337 0.9992732 -0.0018337 0.0007268 0.0018337
98395398 0.0007343 0.0019532 0.9992657 -0.0019532 0.9992657 -0.0019532 0.0007343 0.0019532
100558819 0.0007565 0.0020725 0.9992435 -0.0020725 0.9992435 -0.0020725 0.0007565 0.0020725
102769807 0.0007932 0.0021917 0.9992068 -0.0021917 0.9992068 -0.0021917 0.0007932 0.0021917
105029408 0.0008454 0.0023103 0.9991546 -0.0023103 0.9991546 -0.0023103 0.0008454 0.0023103
107338692 0.0009150 0.0024272 0.9990850 -0.0024272 0.9990850 -0.0024272 0.0009150 0.0024272
