!Murata Part Number: GRM21A7U2E681JW31
!These Parameters are Measured in Series Mode Connection
!Data Generated on Mar 30, 2021
!       o--ll--o
!Port1            Port2
!       o------o
!Operation Temp=25[degC], DC Bias Voltage=0[V]
!Freq. Start=100[MHz] Stop=3[GHz] 401[Steps]
# Hz S RI R 50
!Freq.(Hz) S11(Real) S11(Imag) S21(Real) S21(Imag) S12(Real) S12(Imag) S22(Real) S22(Imag)
100000000 0.0010450 -0.0186112 0.9989550 0.0186112 0.9989550 0.0186112 0.0010450 -0.0186112
107250000 0.0009842 -0.0166874 0.9990158 0.0166874 0.9990158 0.0166874 0.0009842 -0.0166874
114500000 0.0009373 -0.0149631 0.9990627 0.0149631 0.9990627 0.0149631 0.0009373 -0.0149631
121750000 0.0009013 -0.0134026 0.9990987 0.0134026 0.9990987 0.0134026 0.0009013 -0.0134026
129000000 0.0008740 -0.0119784 0.9991260 0.0119784 0.9991260 0.0119784 0.0008740 -0.0119784
136250000 0.0008536 -0.0106687 0.9991464 0.0106687 0.9991464 0.0106687 0.0008536 -0.0106687
143500000 0.0008391 -0.0094561 0.9991609 0.0094561 0.9991609 0.0094561 0.0008391 -0.0094561
150750000 0.0008295 -0.0083265 0.9991705 0.0083265 0.9991705 0.0083265 0.0008295 -0.0083265
158000000 0.0008240 -0.0072686 0.9991760 0.0072686 0.9991760 0.0072686 0.0008240 -0.0072686
165250000 0.0008221 -0.0062729 0.9991779 0.0062729 0.9991779 0.0062729 0.0008221 -0.0062729
172500000 0.0008233 -0.0053314 0.9991767 0.0053314 0.9991767 0.0053314 0.0008233 -0.0053314
179750000 0.0008274 -0.0044376 0.9991726 0.0044376 0.9991726 0.0044376 0.0008274 -0.0044376
187000000 0.0008339 -0.0035858 0.9991661 0.0035858 0.9991661 0.0035858 0.0008339 -0.0035858
194250000 0.0008427 -0.0027715 0.9991573 0.0027715 0.9991573 0.0027715 0.0008427 -0.0027715
201500000 0.0008535 -0.0019903 0.9991465 0.0019903 0.9991465 0.0019903 0.0008535 -0.0019903
208750000 0.0008663 -0.0012389 0.9991337 0.0012389 0.9991337 0.0012389 0.0008663 -0.0012389
216000000 0.0008809 -0.0005143 0.9991191 0.0005143 0.9991191 0.0005143 0.0008809 -0.0005143
223250000 0.0008973 0.0001864 0.9991027 -0.0001864 0.9991027 -0.0001864 0.0008973 0.0001864
230500000 0.0009152 0.0008653 0.9990848 -0.0008653 0.9990848 -0.0008653 0.0009152 0.0008653
237750000 0.0009348 0.0015246 0.9990652 -0.0015246 0.9990652 -0.0015246 0.0009348 0.0015246
245000000 0.0009558 0.0021660 0.9990442 -0.0021660 0.9990442 -0.0021660 0.0009558 0.0021660
252250000 0.0009784 0.0027912 0.9990216 -0.0027912 0.9990216 -0.0027912 0.0009784 0.0027912
259500000 0.0010024 0.0034016 0.9989976 -0.0034016 0.9989976 -0.0034016 0.0010024 0.0034016
266750000 0.0010279 0.0039984 0.9989721 -0.0039984 0.9989721 -0.0039984 0.0010279 0.0039984
274000000 0.0010549 0.0045828 0.9989451 -0.0045828 0.9989451 -0.0045828 0.0010549 0.0045828
281250000 0.0010833 0.0051559 0.9989167 -0.0051559 0.9989167 -0.0051559 0.0010833 0.0051559
288500000 0.0011133 0.0057186 0.9988867 -0.0057186 0.9988867 -0.0057186 0.0011133 0.0057186
295750000 0.0011448 0.0062717 0.9988552 -0.0062717 0.9988552 -0.0062717 0.0011448 0.0062717
303000000 0.0011778 0.0068161 0.9988222 -0.0068161 0.9988222 -0.0068161 0.0011778 0.0068161
310250000 0.0012125 0.0073525 0.9987875 -0.0073525 0.9987875 -0.0073525 0.0012125 0.0073525
317500000 0.0012489 0.0078814 0.9987511 -0.0078814 0.9987511 -0.0078814 0.0012489 0.0078814
324750000 0.0012870 0.0084036 0.9987130 -0.0084036 0.9987130 -0.0084036 0.0012870 0.0084036
332000000 0.0013271 0.0089195 0.9986729 -0.0089195 0.9986729 -0.0089195 0.0013271 0.0089195
339250000 0.0013691 0.0094297 0.9986309 -0.0094297 0.9986309 -0.0094297 0.0013691 0.0094297
346500000 0.0014132 0.0099347 0.9985868 -0.0099347 0.9985868 -0.0099347 0.0014132 0.0099347
353750000 0.0014597 0.0104349 0.9985403 -0.0104349 0.9985403 -0.0104349 0.0014597 0.0104349
361000000 0.0015086 0.0109308 0.9984914 -0.0109308 0.9984914 -0.0109308 0.0015086 0.0109308
368250000 0.0015603 0.0114227 0.9984397 -0.0114227 0.9984397 -0.0114227 0.0015603 0.0114227
375500000 0.0016150 0.0119109 0.9983850 -0.0119109 0.9983850 -0.0119109 0.0016150 0.0119109
382750000 0.0016730 0.0123957 0.9983270 -0.0123957 0.9983270 -0.0123957 0.0016730 0.0123957
390000000 0.0017348 0.0128775 0.9982652 -0.0128775 0.9982652 -0.0128775 0.0017348 0.0128775
397250000 0.0018007 0.0133564 0.9981993 -0.0133564 0.9981993 -0.0133564 0.0018007 0.0133564
404500000 0.0018713 0.0138324 0.9981287 -0.0138324 0.9981287 -0.0138324 0.0018713 0.0138324
411750000 0.0019473 0.0143056 0.9980527 -0.0143056 0.9980527 -0.0143056 0.0019473 0.0143056
419000000 0.0020294 0.0147759 0.9979706 -0.0147759 0.9979706 -0.0147759 0.0020294 0.0147759
426250000 0.0021184 0.0152428 0.9978816 -0.0152428 0.9978816 -0.0152428 0.0021184 0.0152428
433500000 0.0022152 0.0157057 0.9977848 -0.0157057 0.9977848 -0.0157057 0.0022152 0.0157057
440750000 0.0023207 0.0161635 0.9976793 -0.0161635 0.9976793 -0.0161635 0.0023207 0.0161635
448000000 0.0024358 0.0166147 0.9975642 -0.0166147 0.9975642 -0.0166147 0.0024358 0.0166147
455250000 0.0025611 0.0170570 0.9974389 -0.0170570 0.9974389 -0.0170570 0.0025611 0.0170570
462500000 0.0026964 0.0174876 0.9973036 -0.0174876 0.9973036 -0.0174876 0.0026964 0.0174876
469750000 0.0028407 0.0179030 0.9971593 -0.0179030 0.9971593 -0.0179030 0.0028407 0.0179030
477000000 0.0029912 0.0182993 0.9970088 -0.0182993 0.9970088 -0.0182993 0.0029912 0.0182993
484250000 0.0031432 0.0186733 0.9968568 -0.0186733 0.9968568 -0.0186733 0.0031432 0.0186733
491500000 0.0032897 0.0190235 0.9967103 -0.0190235 0.9967103 -0.0190235 0.0032897 0.0190235
498750000 0.0034225 0.0193516 0.9965775 -0.0193516 0.9965775 -0.0193516 0.0034225 0.0193516
506000000 0.0035339 0.0196633 0.9964661 -0.0196633 0.9964661 -0.0196633 0.0035339 0.0196633
513250000 0.0036194 0.0199679 0.9963806 -0.0199679 0.9963806 -0.0199679 0.0036194 0.0199679
520500000 0.0036791 0.0202761 0.9963209 -0.0202761 0.9963209 -0.0202761 0.0036791 0.0202761
527750000 0.0037177 0.0205969 0.9962823 -0.0205969 0.9962823 -0.0205969 0.0037177 0.0205969
535000000 0.0037429 0.0209363 0.9962571 -0.0209363 0.9962571 -0.0209363 0.0037429 0.0209363
542250000 0.0037631 0.0212960 0.9962369 -0.0212960 0.9962369 -0.0212960 0.0037631 0.0212960
549500000 0.0037854 0.0216748 0.9962146 -0.0216748 0.9962146 -0.0216748 0.0037854 0.0216748
556750000 0.0038150 0.0220696 0.9961850 -0.0220696 0.9961850 -0.0220696 0.0038150 0.0220696
564000000 0.0038553 0.0224770 0.9961447 -0.0224770 0.9961447 -0.0224770 0.0038553 0.0224770
571250000 0.0039080 0.0228933 0.9960920 -0.0228933 0.9960920 -0.0228933 0.0039080 0.0228933
578500000 0.0039741 0.0233157 0.9960259 -0.0233157 0.9960259 -0.0233157 0.0039741 0.0233157
585750000 0.0040539 0.0237415 0.9959461 -0.0237415 0.9959461 -0.0237415 0.0040539 0.0237415
593000000 0.0041472 0.0241687 0.9958528 -0.0241687 0.9958528 -0.0241687 0.0041472 0.0241687
600250000 0.0042541 0.0245958 0.9957459 -0.0245958 0.9957459 -0.0245958 0.0042541 0.0245958
607500000 0.0043744 0.0250213 0.9956256 -0.0250213 0.9956256 -0.0250213 0.0043744 0.0250213
614750000 0.0045081 0.0254438 0.9954919 -0.0254438 0.9954919 -0.0254438 0.0045081 0.0254438
622000000 0.0046553 0.0258622 0.9953447 -0.0258622 0.9953447 -0.0258622 0.0046553 0.0258622
629250000 0.0048160 0.0262753 0.9951840 -0.0262753 0.9951840 -0.0262753 0.0048160 0.0262753
636500000 0.0049903 0.0266816 0.9950097 -0.0266816 0.9950097 -0.0266816 0.0049903 0.0266816
643750000 0.0051784 0.0270798 0.9948216 -0.0270798 0.9948216 -0.0270798 0.0051784 0.0270798
651000000 0.0053804 0.0274680 0.9946196 -0.0274680 0.9946196 -0.0274680 0.0053804 0.0274680
658250000 0.0055961 0.0278446 0.9944039 -0.0278446 0.9944039 -0.0278446 0.0055961 0.0278446
665500000 0.0058255 0.0282073 0.9941745 -0.0282073 0.9941745 -0.0282073 0.0058255 0.0282073
672750000 0.0060679 0.0285538 0.9939321 -0.0285538 0.9939321 -0.0285538 0.0060679 0.0285538
680000000 0.0063225 0.0288815 0.9936775 -0.0288815 0.9936775 -0.0288815 0.0063225 0.0288815
687250000 0.0065879 0.0291877 0.9934121 -0.0291877 0.9934121 -0.0291877 0.0065879 0.0291877
694500000 0.0068621 0.0294696 0.9931379 -0.0294696 0.9931379 -0.0294696 0.0068621 0.0294696
701750000 0.0071426 0.0297244 0.9928574 -0.0297244 0.9928574 -0.0297244 0.0071426 0.0297244
709000000 0.0074258 0.0299495 0.9925742 -0.0299495 0.9925742 -0.0299495 0.0074258 0.0299495
716250000 0.0077074 0.0301428 0.9922926 -0.0301428 0.9922926 -0.0301428 0.0077074 0.0301428
723500000 0.0079825 0.0303029 0.9920175 -0.0303029 0.9920175 -0.0303029 0.0079825 0.0303029
730750000 0.0082452 0.0304293 0.9917548 -0.0304293 0.9917548 -0.0304293 0.0082452 0.0304293
738000000 0.0084895 0.0305228 0.9915105 -0.0305228 0.9915105 -0.0305228 0.0084895 0.0305228
745250000 0.0087091 0.0305859 0.9912909 -0.0305859 0.9912909 -0.0305859 0.0087091 0.0305859
752500000 0.0088981 0.0306222 0.9911019 -0.0306222 0.9911019 -0.0306222 0.0088981 0.0306222
759750000 0.0090513 0.0306371 0.9909487 -0.0306371 0.9909487 -0.0306371 0.0090513 0.0306371
767000000 0.0091649 0.0306372 0.9908351 -0.0306372 0.9908351 -0.0306372 0.0091649 0.0306372
774250000 0.0092366 0.0306298 0.9907634 -0.0306298 0.9907634 -0.0306298 0.0092366 0.0306298
781500000 0.0092662 0.0306229 0.9907338 -0.0306229 0.9907338 -0.0306229 0.0092662 0.0306229
788750000 0.0092548 0.0306239 0.9907452 -0.0306239 0.9907452 -0.0306239 0.0092548 0.0306239
796000000 0.0092058 0.0306397 0.9907942 -0.0306397 0.9907942 -0.0306397 0.0092058 0.0306397
803250000 0.0091236 0.0306760 0.9908764 -0.0306760 0.9908764 -0.0306760 0.0091236 0.0306760
810500000 0.0090134 0.0307371 0.9909866 -0.0307371 0.9909866 -0.0307371 0.0090134 0.0307371
817750000 0.0088811 0.0308259 0.9911189 -0.0308259 0.9911189 -0.0308259 0.0088811 0.0308259
825000000 0.0087324 0.0309437 0.9912676 -0.0309437 0.9912676 -0.0309437 0.0087324 0.0309437
832250000 0.0085729 0.0310907 0.9914271 -0.0310907 0.9914271 -0.0310907 0.0085729 0.0310907
839500000 0.0084075 0.0312662 0.9915925 -0.0312662 0.9915925 -0.0312662 0.0084075 0.0312662
846750000 0.0082405 0.0314684 0.9917595 -0.0314684 0.9917595 -0.0314684 0.0082405 0.0314684
854000000 0.0080752 0.0316954 0.9919248 -0.0316954 0.9919248 -0.0316954 0.0080752 0.0316954
861250000 0.0079146 0.0319447 0.9920854 -0.0319447 0.9920854 -0.0319447 0.0079146 0.0319447
868500000 0.0077607 0.0322139 0.9922393 -0.0322139 0.9922393 -0.0322139 0.0077607 0.0322139
875750000 0.0076150 0.0325004 0.9923850 -0.0325004 0.9923850 -0.0325004 0.0076150 0.0325004
883000000 0.0074784 0.0328019 0.9925216 -0.0328019 0.9925216 -0.0328019 0.0074784 0.0328019
890250000 0.0073517 0.0331162 0.9926483 -0.0331162 0.9926483 -0.0331162 0.0073517 0.0331162
897500000 0.0072350 0.0334413 0.9927650 -0.0334413 0.9927650 -0.0334413 0.0072350 0.0334413
904750000 0.0071284 0.0337755 0.9928716 -0.0337755 0.9928716 -0.0337755 0.0071284 0.0337755
912000000 0.0070317 0.0341170 0.9929683 -0.0341170 0.9929683 -0.0341170 0.0070317 0.0341170
919250000 0.0069446 0.0344646 0.9930554 -0.0344646 0.9930554 -0.0344646 0.0069446 0.0344646
926500000 0.0068668 0.0348171 0.9931332 -0.0348171 0.9931332 -0.0348171 0.0068668 0.0348171
933750000 0.0067977 0.0351735 0.9932023 -0.0351735 0.9932023 -0.0351735 0.0067977 0.0351735
941000000 0.0067370 0.0355328 0.9932630 -0.0355328 0.9932630 -0.0355328 0.0067370 0.0355328
948250000 0.0066841 0.0358944 0.9933159 -0.0358944 0.9933159 -0.0358944 0.0066841 0.0358944
955500000 0.0066386 0.0362576 0.9933614 -0.0362576 0.9933614 -0.0362576 0.0066386 0.0362576
962750000 0.0066000 0.0366220 0.9934000 -0.0366220 0.9934000 -0.0366220 0.0066000 0.0366220
970000000 0.0065678 0.0369871 0.9934322 -0.0369871 0.9934322 -0.0369871 0.0065678 0.0369871
977250000 0.0065416 0.0373525 0.9934584 -0.0373525 0.9934584 -0.0373525 0.0065416 0.0373525
984500000 0.0065210 0.0377179 0.9934790 -0.0377179 0.9934790 -0.0377179 0.0065210 0.0377179
991750000 0.0065055 0.0380831 0.9934945 -0.0380831 0.9934945 -0.0380831 0.0065055 0.0380831
999000000 0.0064949 0.0384480 0.9935051 -0.0384480 0.9935051 -0.0384480 0.0064949 0.0384480
1006250000 0.0064888 0.0388122 0.9935112 -0.0388122 0.9935112 -0.0388122 0.0064888 0.0388122
1013500000 0.0064868 0.0391758 0.9935132 -0.0391758 0.9935132 -0.0391758 0.0064868 0.0391758
1020750000 0.0064887 0.0395387 0.9935113 -0.0395387 0.9935113 -0.0395387 0.0064887 0.0395387
1028000000 0.0064943 0.0399006 0.9935057 -0.0399006 0.9935057 -0.0399006 0.0064943 0.0399006
1035250000 0.0065031 0.0402616 0.9934969 -0.0402616 0.9934969 -0.0402616 0.0065031 0.0402616
1042500000 0.0065152 0.0406217 0.9934848 -0.0406217 0.9934848 -0.0406217 0.0065152 0.0406217
1049750000 0.0065301 0.0409808 0.9934699 -0.0409808 0.9934699 -0.0409808 0.0065301 0.0409808
1057000000 0.0065478 0.0413388 0.9934522 -0.0413388 0.9934522 -0.0413388 0.0065478 0.0413388
1064250000 0.0065680 0.0416958 0.9934320 -0.0416958 0.9934320 -0.0416958 0.0065680 0.0416958
1071500000 0.0065906 0.0420518 0.9934094 -0.0420518 0.9934094 -0.0420518 0.0065906 0.0420518
1078750000 0.0066155 0.0424067 0.9933845 -0.0424067 0.9933845 -0.0424067 0.0066155 0.0424067
1086000000 0.0066424 0.0427607 0.9933576 -0.0427607 0.9933576 -0.0427607 0.0066424 0.0427607
1093250000 0.0066713 0.0431136 0.9933287 -0.0431136 0.9933287 -0.0431136 0.0066713 0.0431136
1100500000 0.0067021 0.0434655 0.9932979 -0.0434655 0.9932979 -0.0434655 0.0067021 0.0434655
1107750000 0.0067345 0.0438164 0.9932655 -0.0438164 0.9932655 -0.0438164 0.0067345 0.0438164
1115000000 0.0067686 0.0441663 0.9932314 -0.0441663 0.9932314 -0.0441663 0.0067686 0.0441663
1122250000 0.0068043 0.0445153 0.9931957 -0.0445153 0.9931957 -0.0445153 0.0068043 0.0445153
1129500000 0.0068414 0.0448634 0.9931586 -0.0448634 0.9931586 -0.0448634 0.0068414 0.0448634
1136750000 0.0068798 0.0452106 0.9931202 -0.0452106 0.9931202 -0.0452106 0.0068798 0.0452106
1144000000 0.0069196 0.0455569 0.9930804 -0.0455569 0.9930804 -0.0455569 0.0069196 0.0455569
1151250000 0.0069605 0.0459023 0.9930395 -0.0459023 0.9930395 -0.0459023 0.0069605 0.0459023
1158500000 0.0070027 0.0462469 0.9929973 -0.0462469 0.9929973 -0.0462469 0.0070027 0.0462469
1165750000 0.0070459 0.0465907 0.9929541 -0.0465907 0.9929541 -0.0465907 0.0070459 0.0465907
1173000000 0.0070902 0.0469337 0.9929098 -0.0469337 0.9929098 -0.0469337 0.0070902 0.0469337
1180250000 0.0071355 0.0472759 0.9928645 -0.0472759 0.9928645 -0.0472759 0.0071355 0.0472759
1187500000 0.0071817 0.0476174 0.9928183 -0.0476174 0.9928183 -0.0476174 0.0071817 0.0476174
1194750000 0.0072288 0.0479582 0.9927712 -0.0479582 0.9927712 -0.0479582 0.0072288 0.0479582
1202000000 0.0072768 0.0482983 0.9927232 -0.0482983 0.9927232 -0.0482983 0.0072768 0.0482983
1209250000 0.0073255 0.0486377 0.9926745 -0.0486377 0.9926745 -0.0486377 0.0073255 0.0486377
1216500000 0.0073751 0.0489765 0.9926249 -0.0489765 0.9926249 -0.0489765 0.0073751 0.0489765
1223750000 0.0074254 0.0493146 0.9925746 -0.0493146 0.9925746 -0.0493146 0.0074254 0.0493146
1231000000 0.0074765 0.0496522 0.9925235 -0.0496522 0.9925235 -0.0496522 0.0074765 0.0496522
1238250000 0.0075282 0.0499891 0.9924718 -0.0499891 0.9924718 -0.0499891 0.0075282 0.0499891
1245500000 0.0075806 0.0503255 0.9924194 -0.0503255 0.9924194 -0.0503255 0.0075806 0.0503255
1252750000 0.0076336 0.0506613 0.9923664 -0.0506613 0.9923664 -0.0506613 0.0076336 0.0506613
1260000000 0.0076873 0.0509966 0.9923127 -0.0509966 0.9923127 -0.0509966 0.0076873 0.0509966
1267250000 0.0077415 0.0513314 0.9922585 -0.0513314 0.9922585 -0.0513314 0.0077415 0.0513314
1274500000 0.0077963 0.0516657 0.9922037 -0.0516657 0.9922037 -0.0516657 0.0077963 0.0516657
1281750000 0.0078516 0.0519995 0.9921484 -0.0519995 0.9921484 -0.0519995 0.0078516 0.0519995
1289000000 0.0079075 0.0523329 0.9920925 -0.0523329 0.9920925 -0.0523329 0.0079075 0.0523329
1296250000 0.0079638 0.0526658 0.9920362 -0.0526658 0.9920362 -0.0526658 0.0079638 0.0526658
1303500000 0.0080207 0.0529983 0.9919793 -0.0529983 0.9919793 -0.0529983 0.0080207 0.0529983
1310750000 0.0080780 0.0533304 0.9919220 -0.0533304 0.9919220 -0.0533304 0.0080780 0.0533304
1318000000 0.0081358 0.0536621 0.9918642 -0.0536621 0.9918642 -0.0536621 0.0081358 0.0536621
1325250000 0.0081940 0.0539935 0.9918060 -0.0539935 0.9918060 -0.0539935 0.0081940 0.0539935
1332500000 0.0082527 0.0543244 0.9917473 -0.0543244 0.9917473 -0.0543244 0.0082527 0.0543244
1339750000 0.0083118 0.0546550 0.9916882 -0.0546550 0.9916882 -0.0546550 0.0083118 0.0546550
1347000000 0.0083713 0.0549853 0.9916287 -0.0549853 0.9916287 -0.0549853 0.0083713 0.0549853
1354250000 0.0084312 0.0553153 0.9915688 -0.0553153 0.9915688 -0.0553153 0.0084312 0.0553153
1361500000 0.0084915 0.0556449 0.9915085 -0.0556449 0.9915085 -0.0556449 0.0084915 0.0556449
1368750000 0.0085522 0.0559743 0.9914478 -0.0559743 0.9914478 -0.0559743 0.0085522 0.0559743
1376000000 0.0086132 0.0563034 0.9913868 -0.0563034 0.9913868 -0.0563034 0.0086132 0.0563034
1383250000 0.0086746 0.0566322 0.9913254 -0.0566322 0.9913254 -0.0566322 0.0086746 0.0566322
1390500000 0.0087363 0.0569607 0.9912637 -0.0569607 0.9912637 -0.0569607 0.0087363 0.0569607
1397750000 0.0087984 0.0572890 0.9912016 -0.0572890 0.9912016 -0.0572890 0.0087984 0.0572890
1405000000 0.0088609 0.0576171 0.9911391 -0.0576171 0.9911391 -0.0576171 0.0088609 0.0576171
1412250000 0.0089236 0.0579449 0.9910764 -0.0579449 0.9910764 -0.0579449 0.0089236 0.0579449
1419500000 0.0089867 0.0582726 0.9910133 -0.0582726 0.9910133 -0.0582726 0.0089867 0.0582726
1426750000 0.0090501 0.0586000 0.9909499 -0.0586000 0.9909499 -0.0586000 0.0090501 0.0586000
1434000000 0.0091138 0.0589273 0.9908862 -0.0589273 0.9908862 -0.0589273 0.0091138 0.0589273
1441250000 0.0091778 0.0592544 0.9908222 -0.0592544 0.9908222 -0.0592544 0.0091778 0.0592544
1448500000 0.0092421 0.0595813 0.9907579 -0.0595813 0.9907579 -0.0595813 0.0092421 0.0595813
1455750000 0.0093067 0.0599080 0.9906933 -0.0599080 0.9906933 -0.0599080 0.0093067 0.0599080
1463000000 0.0093716 0.0602346 0.9906284 -0.0602346 0.9906284 -0.0602346 0.0093716 0.0602346
1470250000 0.0094368 0.0605611 0.9905632 -0.0605611 0.9905632 -0.0605611 0.0094368 0.0605611
1477500000 0.0095023 0.0608874 0.9904977 -0.0608874 0.9904977 -0.0608874 0.0095023 0.0608874
1484750000 0.0095680 0.0612136 0.9904320 -0.0612136 0.9904320 -0.0612136 0.0095680 0.0612136
1492000000 0.0096340 0.0615397 0.9903660 -0.0615397 0.9903660 -0.0615397 0.0096340 0.0615397
1499250000 0.0097003 0.0618657 0.9902997 -0.0618657 0.9902997 -0.0618657 0.0097003 0.0618657
1506500000 0.0097669 0.0621916 0.9902331 -0.0621916 0.9902331 -0.0621916 0.0097669 0.0621916
1513750000 0.0098337 0.0625175 0.9901663 -0.0625175 0.9901663 -0.0625175 0.0098337 0.0625175
1521000000 0.0099008 0.0628432 0.9900992 -0.0628432 0.9900992 -0.0628432 0.0099008 0.0628432
1528250000 0.0099681 0.0631689 0.9900319 -0.0631689 0.9900319 -0.0631689 0.0099681 0.0631689
1535500000 0.0100357 0.0634945 0.9899643 -0.0634945 0.9899643 -0.0634945 0.0100357 0.0634945
1542750000 0.0101035 0.0638200 0.9898965 -0.0638200 0.9898965 -0.0638200 0.0101035 0.0638200
1550000000 0.0101716 0.0641456 0.9898284 -0.0641456 0.9898284 -0.0641456 0.0101716 0.0641456
1557250000 0.0102400 0.0644710 0.9897600 -0.0644710 0.9897600 -0.0644710 0.0102400 0.0644710
1564500000 0.0103085 0.0647965 0.9896915 -0.0647965 0.9896915 -0.0647965 0.0103085 0.0647965
1571750000 0.0103774 0.0651219 0.9896226 -0.0651219 0.9896226 -0.0651219 0.0103774 0.0651219
1579000000 0.0104465 0.0654473 0.9895535 -0.0654473 0.9895535 -0.0654473 0.0104465 0.0654473
1586250000 0.0105158 0.0657727 0.9894842 -0.0657727 0.9894842 -0.0657727 0.0105158 0.0657727
1593500000 0.0105853 0.0660981 0.9894147 -0.0660981 0.9894147 -0.0660981 0.0105853 0.0660981
1600750000 0.0106551 0.0664235 0.9893449 -0.0664235 0.9893449 -0.0664235 0.0106551 0.0664235
1608000000 0.0107252 0.0667490 0.9892748 -0.0667490 0.9892748 -0.0667490 0.0107252 0.0667490
1615250000 0.0107954 0.0670744 0.9892046 -0.0670744 0.9892046 -0.0670744 0.0107954 0.0670744
1622500000 0.0108659 0.0673999 0.9891341 -0.0673999 0.9891341 -0.0673999 0.0108659 0.0673999
1629750000 0.0109367 0.0677254 0.9890633 -0.0677254 0.9890633 -0.0677254 0.0109367 0.0677254
