!Murata Part Number: GRM21B5C2J102JWA3
!These Parameters are Measured in Series Mode Connection
!Data Generated on Mar 30, 2021
!       o--ll--o
!Port1            Port2
!       o------o
!Operation Temp=25[degC], DC Bias Voltage=0[V]
!Freq. Start=1000[kHz] Stop=1000[MHz] 401[Steps]
# Hz S RI R 50
!Freq.(Hz) S11(Real) S11(Imag) S21(Real) S21(Imag) S12(Real) S12(Imag) S22(Real) S22(Imag)
1000000 0.7499912 -0.4319001 0.2500088 0.4319001 0.2500088 0.4319001 0.7499912 -0.4319001
1017419 0.7434847 -0.4356108 0.2565153 0.4356108 0.2565153 0.4356108 0.7434847 -0.4356108
1035142 0.7368673 -0.4392537 0.2631327 0.4392537 0.2631327 0.4392537 0.7368673 -0.4392537
1053174 0.7301403 -0.4428249 0.2698597 0.4428249 0.2698597 0.4428249 0.7301403 -0.4428249
1071519 0.7233050 -0.4463205 0.2766950 0.4463205 0.2766950 0.4463205 0.7233050 -0.4463205
1090184 0.7163630 -0.4497365 0.2836370 0.4497365 0.2836370 0.4497365 0.7163630 -0.4497365
1109175 0.7093160 -0.4530691 0.2906840 0.4530691 0.2906840 0.4530691 0.7093160 -0.4530691
1128496 0.7021659 -0.4563144 0.2978341 0.4563144 0.2978341 0.4563144 0.7021659 -0.4563144
1148154 0.6949148 -0.4594685 0.3050852 0.4594685 0.3050852 0.4594685 0.6949148 -0.4594685
1168154 0.6875649 -0.4625276 0.3124351 0.4625276 0.3124351 0.4625276 0.6875649 -0.4625276
1188502 0.6801187 -0.4654880 0.3198813 0.4654880 0.3198813 0.4654880 0.6801187 -0.4654880
1209205 0.6725788 -0.4683460 0.3274212 0.4683460 0.3274212 0.4683460 0.6725788 -0.4683460
1230269 0.6649479 -0.4710979 0.3350521 0.4710979 0.3350521 0.4710979 0.6649479 -0.4710979
1251699 0.6572291 -0.4737403 0.3427709 0.4737403 0.3427709 0.4737403 0.6572291 -0.4737403
1273503 0.6494256 -0.4762696 0.3505744 0.4762696 0.3505744 0.4762696 0.6494256 -0.4762696
1295687 0.6415406 -0.4786826 0.3584594 0.4786826 0.3584594 0.4786826 0.6415406 -0.4786826
1318257 0.6335776 -0.4809759 0.3664224 0.4809759 0.3664224 0.4809759 0.6335776 -0.4809759
1341220 0.6255403 -0.4831466 0.3744597 0.4831466 0.3744597 0.4831466 0.6255403 -0.4831466
1364583 0.6174326 -0.4851916 0.3825674 0.4851916 0.3825674 0.4851916 0.6174326 -0.4851916
1388353 0.6092583 -0.4871081 0.3907417 0.4871081 0.3907417 0.4871081 0.6092583 -0.4871081
1412538 0.6010216 -0.4888934 0.3989784 0.4888934 0.3989784 0.4888934 0.6010216 -0.4888934
1437143 0.5927268 -0.4905450 0.4072732 0.4905450 0.4072732 0.4905450 0.5927268 -0.4905450
1462177 0.5843781 -0.4920605 0.4156219 0.4920605 0.4156219 0.4920605 0.5843781 -0.4920605
1487647 0.5759802 -0.4934378 0.4240198 0.4934378 0.4240198 0.4934378 0.5759802 -0.4934378
1513561 0.5675376 -0.4946749 0.4324624 0.4946749 0.4324624 0.4946749 0.5675376 -0.4946749
1539927 0.5590551 -0.4957699 0.4409449 0.4957699 0.4409449 0.4957699 0.5590551 -0.4957699
1566751 0.5505374 -0.4967214 0.4494626 0.4967214 0.4494626 0.4967214 0.5505374 -0.4967214
1594043 0.5419895 -0.4975278 0.4580105 0.4975278 0.4580105 0.4975278 0.5419895 -0.4975278
1621810 0.5334163 -0.4981879 0.4665837 0.4981879 0.4665837 0.4981879 0.5334163 -0.4981879
1650061 0.5248228 -0.4987009 0.4751772 0.4987009 0.4751772 0.4987009 0.5248228 -0.4987009
1678804 0.5162141 -0.4990659 0.4837859 0.4990659 0.4837859 0.4990659 0.5162141 -0.4990659
1708048 0.5075953 -0.4992824 0.4924047 0.4992824 0.4924047 0.4992824 0.5075953 -0.4992824
1737801 0.4989716 -0.4993501 0.5010284 0.4993501 0.5010284 0.4993501 0.4989716 -0.4993501
1768072 0.4903480 -0.4992688 0.5096520 0.4992688 0.5096520 0.4992688 0.4903480 -0.4992688
1798871 0.4817298 -0.4990387 0.5182702 0.4990387 0.5182702 0.4990387 0.4817298 -0.4990387
1830206 0.4731220 -0.4986601 0.5268780 0.4986601 0.5268780 0.4986601 0.4731220 -0.4986601
1862087 0.4645297 -0.4981336 0.5354703 0.4981336 0.5354703 0.4981336 0.4645297 -0.4981336
1894524 0.4559581 -0.4974600 0.5440419 0.4974600 0.5440419 0.4974600 0.4559581 -0.4974600
1927525 0.4474121 -0.4966402 0.5525879 0.4966402 0.5525879 0.4966402 0.4474121 -0.4966402
1961101 0.4388967 -0.4956754 0.5611033 0.4956754 0.5611033 0.4956754 0.4388967 -0.4956754
1995262 0.4304167 -0.4945672 0.5695833 0.4945672 0.5695833 0.4945672 0.4304167 -0.4945672
2030019 0.4219771 -0.4933170 0.5780229 0.4933170 0.5780229 0.4933170 0.4219771 -0.4933170
2065380 0.4135824 -0.4919267 0.5864176 0.4919267 0.5864176 0.4919267 0.4135824 -0.4919267
2101358 0.4052373 -0.4903983 0.5947627 0.4903983 0.5947627 0.4903983 0.4052373 -0.4903983
2137962 0.3969464 -0.4887340 0.6030536 0.4887340 0.6030536 0.4887340 0.3969464 -0.4887340
2175204 0.3887138 -0.4869361 0.6112862 0.4869361 0.6112862 0.4869361 0.3887138 -0.4869361
2213095 0.3805440 -0.4850072 0.6194560 0.4850072 0.6194560 0.4850072 0.3805440 -0.4850072
2251645 0.3724410 -0.4829500 0.6275590 0.4829500 0.6275590 0.4829500 0.3724410 -0.4829500
2290868 0.3644087 -0.4807673 0.6355913 0.4807673 0.6355913 0.4807673 0.3644087 -0.4807673
2330773 0.3564510 -0.4784621 0.6435490 0.4784621 0.6435490 0.4784621 0.3564510 -0.4784621
2371374 0.3485715 -0.4760375 0.6514285 0.4760375 0.6514285 0.4760375 0.3485715 -0.4760375
2412682 0.3407737 -0.4734967 0.6592263 0.4734967 0.6592263 0.4734967 0.3407737 -0.4734967
2454709 0.3330609 -0.4708431 0.6669391 0.4708431 0.6669391 0.4708431 0.3330609 -0.4708431
2497468 0.3254363 -0.4680802 0.6745637 0.4680802 0.6745637 0.4680802 0.3254363 -0.4680802
2540973 0.3179027 -0.4652114 0.6820973 0.4652114 0.6820973 0.4652114 0.3179027 -0.4652114
2585235 0.3104630 -0.4622405 0.6895370 0.4622405 0.6895370 0.4622405 0.3104630 -0.4622405
2630268 0.3031199 -0.4591710 0.6968801 0.4591710 0.6968801 0.4591710 0.3031199 -0.4591710
2676086 0.2958757 -0.4560068 0.7041243 0.4560068 0.7041243 0.4560068 0.2958757 -0.4560068
2722701 0.2887326 -0.4527517 0.7112674 0.4527517 0.7112674 0.4527517 0.2887326 -0.4527517
2770129 0.2816928 -0.4494095 0.7183072 0.4494095 0.7183072 0.4494095 0.2816928 -0.4494095
2818383 0.2747582 -0.4459841 0.7252418 0.4459841 0.7252418 0.4459841 0.2747582 -0.4459841
2867477 0.2679303 -0.4424794 0.7320697 0.4424794 0.7320697 0.4424794 0.2679303 -0.4424794
2917427 0.2612109 -0.4388993 0.7387891 0.4388993 0.7387891 0.4388993 0.2612109 -0.4388993
2968247 0.2546011 -0.4352477 0.7453989 0.4352477 0.7453989 0.4352477 0.2546011 -0.4352477
3019952 0.2481023 -0.4315286 0.7518977 0.4315286 0.7518977 0.4315286 0.2481023 -0.4315286
3072557 0.2417153 -0.4277458 0.7582847 0.4277458 0.7582847 0.4277458 0.2417153 -0.4277458
3126079 0.2354411 -0.4239033 0.7645589 0.4239033 0.7645589 0.4239033 0.2354411 -0.4239033
3180534 0.2292804 -0.4200049 0.7707196 0.4200049 0.7707196 0.4200049 0.2292804 -0.4200049
3235937 0.2232336 -0.4160543 0.7767664 0.4160543 0.7767664 0.4160543 0.2232336 -0.4160543
3292305 0.2173011 -0.4120554 0.7826989 0.4120554 0.7826989 0.4120554 0.2173011 -0.4120554
3349654 0.2114832 -0.4080119 0.7885168 0.4080119 0.7885168 0.4080119 0.2114832 -0.4080119
3408003 0.2057800 -0.4039275 0.7942200 0.4039275 0.7942200 0.4039275 0.2057800 -0.4039275
3467369 0.2001913 -0.3998057 0.7998087 0.3998057 0.7998087 0.3998057 0.2001913 -0.3998057
3527768 0.1947171 -0.3956502 0.8052829 0.3956502 0.8052829 0.3956502 0.1947171 -0.3956502
3589219 0.1893569 -0.3914644 0.8106431 0.3914644 0.8106431 0.3914644 0.1893569 -0.3914644
3651741 0.1841104 -0.3872517 0.8158896 0.3872517 0.8158896 0.3872517 0.1841104 -0.3872517
3715352 0.1789770 -0.3830154 0.8210230 0.3830154 0.8210230 0.3830154 0.1789770 -0.3830154
3780071 0.1739561 -0.3787588 0.8260439 0.3787588 0.8260439 0.3787588 0.1739561 -0.3787588
3845918 0.1690468 -0.3744851 0.8309532 0.3744851 0.8309532 0.3744851 0.1690468 -0.3744851
3912911 0.1642484 -0.3701972 0.8357516 0.3701972 0.8357516 0.3701972 0.1642484 -0.3701972
3981072 0.1595599 -0.3658983 0.8404401 0.3658983 0.8404401 0.3658983 0.1595599 -0.3658983
4050419 0.1549803 -0.3615911 0.8450197 0.3615911 0.8450197 0.3615911 0.1549803 -0.3615911
4120975 0.1505084 -0.3572785 0.8494916 0.3572785 0.8494916 0.3572785 0.1505084 -0.3572785
4192760 0.1461431 -0.3529633 0.8538569 0.3529633 0.8538569 0.3529633 0.1461431 -0.3529633
4265795 0.1418831 -0.3486480 0.8581169 0.3486480 0.8581169 0.3486480 0.1418831 -0.3486480
4340103 0.1377272 -0.3443351 0.8622728 0.3443351 0.8622728 0.3443351 0.1377272 -0.3443351
4415704 0.1336738 -0.3400272 0.8663262 0.3400272 0.8663262 0.3400272 0.1336738 -0.3400272
4492623 0.1297217 -0.3357264 0.8702783 0.3357264 0.8702783 0.3357264 0.1297217 -0.3357264
4570882 0.1258692 -0.3314351 0.8741308 0.3314351 0.8741308 0.3314351 0.1258692 -0.3314351
4650504 0.1221150 -0.3271555 0.8778850 0.3271555 0.8778850 0.3271555 0.1221150 -0.3271555
4731513 0.1184575 -0.3228894 0.8815425 0.3228894 0.8815425 0.3228894 0.1184575 -0.3228894
4813933 0.1148950 -0.3186391 0.8851050 0.3186391 0.8851050 0.3186391 0.1148950 -0.3186391
4897788 0.1114260 -0.3144062 0.8885740 0.3144062 0.8885740 0.3144062 0.1114260 -0.3144062
4983105 0.1080488 -0.3101926 0.8919512 0.3101926 0.8919512 0.3101926 0.1080488 -0.3101926
5069907 0.1047617 -0.3059999 0.8952383 0.3059999 0.8952383 0.3059999 0.1047617 -0.3059999
5158222 0.1015632 -0.3018299 0.8984368 0.3018299 0.8984368 0.3018299 0.1015632 -0.3018299
5248075 0.0984514 -0.2976839 0.9015486 0.2976839 0.9015486 0.2976839 0.0984514 -0.2976839
5339493 0.0954247 -0.2935635 0.9045753 0.2935635 0.9045753 0.2935635 0.0954247 -0.2935635
5432503 0.0924813 -0.2894699 0.9075187 0.2894699 0.9075187 0.2894699 0.0924813 -0.2894699
5527134 0.0896197 -0.2854046 0.9103803 0.2854046 0.9103803 0.2854046 0.0896197 -0.2854046
5623413 0.0868379 -0.2813686 0.9131621 0.2813686 0.9131621 0.2813686 0.0868379 -0.2813686
5721370 0.0841344 -0.2773631 0.9158656 0.2773631 0.9158656 0.2773631 0.0841344 -0.2773631
5821032 0.0815075 -0.2733892 0.9184925 0.2733892 0.9184925 0.2733892 0.0815075 -0.2733892
5922431 0.0789553 -0.2694477 0.9210447 0.2694477 0.9210447 0.2694477 0.0789553 -0.2694477
6025596 0.0764763 -0.2655397 0.9235237 0.2655397 0.9235237 0.2655397 0.0764763 -0.2655397
6130558 0.0740687 -0.2616660 0.9259313 0.2616660 0.9259313 0.2616660 0.0740687 -0.2616660
6237348 0.0717309 -0.2578274 0.9282691 0.2578274 0.9282691 0.2578274 0.0717309 -0.2578274
6345999 0.0694612 -0.2540245 0.9305388 0.2540245 0.9305388 0.2540245 0.0694612 -0.2540245
6456542 0.0672580 -0.2502580 0.9327420 0.2502580 0.9327420 0.2502580 0.0672580 -0.2502580
6569011 0.0651197 -0.2465285 0.9348803 0.2465285 0.9348803 0.2465285 0.0651197 -0.2465285
6683439 0.0630446 -0.2428366 0.9369554 0.2428366 0.9369554 0.2428366 0.0630446 -0.2428366
6799860 0.0610312 -0.2391828 0.9389688 0.2391828 0.9389688 0.2391828 0.0610312 -0.2391828
6918310 0.0590780 -0.2355674 0.9409220 0.2355674 0.9409220 0.2355674 0.0590780 -0.2355674
7038822 0.0571833 -0.2319909 0.9428167 0.2319909 0.9428167 0.2319909 0.0571833 -0.2319909
7161434 0.0553457 -0.2284536 0.9446543 0.2284536 0.9446543 0.2284536 0.0553457 -0.2284536
7286182 0.0535637 -0.2249558 0.9464363 0.2249558 0.9464363 0.2249558 0.0535637 -0.2249558
7413102 0.0518357 -0.2214977 0.9481643 0.2214977 0.9481643 0.2214977 0.0518357 -0.2214977
7542234 0.0501605 -0.2180796 0.9498395 0.2180796 0.9498395 0.2180796 0.0501605 -0.2180796
7673615 0.0485365 -0.2147016 0.9514635 0.2147016 0.9514635 0.2147016 0.0485365 -0.2147016
7807284 0.0469623 -0.2113639 0.9530377 0.2113639 0.9530377 0.2113639 0.0469623 -0.2113639
7943282 0.0454367 -0.2080665 0.9545633 0.2080665 0.9545633 0.2080665 0.0454367 -0.2080665
8081649 0.0439582 -0.2048095 0.9560418 0.2048095 0.9560418 0.2048095 0.0439582 -0.2048095
8222426 0.0425255 -0.2015929 0.9574745 0.2015929 0.9574745 0.2015929 0.0425255 -0.2015929
8365656 0.0411375 -0.1984168 0.9588625 0.1984168 0.9588625 0.1984168 0.0411375 -0.1984168
8511380 0.0397927 -0.1952810 0.9602073 0.1952810 0.9602073 0.1952810 0.0397927 -0.1952810
8659643 0.0384900 -0.1921855 0.9615100 0.1921855 0.9615100 0.1921855 0.0384900 -0.1921855
8810489 0.0372283 -0.1891303 0.9627717 0.1891303 0.9627717 0.1891303 0.0372283 -0.1891303
8963962 0.0360062 -0.1861153 0.9639938 0.1861153 0.9639938 0.1861153 0.0360062 -0.1861153
9120108 0.0348226 -0.1831402 0.9651774 0.1831402 0.9651774 0.1831402 0.0348226 -0.1831402
9278975 0.0336766 -0.1802049 0.9663234 0.1802049 0.9663234 0.1802049 0.0336766 -0.1802049
9440609 0.0325668 -0.1773093 0.9674332 0.1773093 0.9674332 0.1773093 0.0325668 -0.1773093
9605058 0.0314924 -0.1744532 0.9685076 0.1744532 0.9685076 0.1744532 0.0314924 -0.1744532
9772372 0.0304521 -0.1716363 0.9695479 0.1716363 0.9695479 0.1716363 0.0304521 -0.1716363
9942601 0.0294451 -0.1688584 0.9705549 0.1688584 0.9705549 0.1688584 0.0294451 -0.1688584
10115795 0.0284703 -0.1661193 0.9715297 0.1661193 0.9715297 0.1661193 0.0284703 -0.1661193
10292005 0.0275268 -0.1634186 0.9724732 0.1634186 0.9724732 0.1634186 0.0275268 -0.1634186
10471285 0.0266136 -0.1607562 0.9733864 0.1607562 0.9733864 0.1607562 0.0266136 -0.1607562
10653689 0.0257298 -0.1581317 0.9742702 0.1581317 0.9742702 0.1581317 0.0257298 -0.1581317
10839269 0.0248745 -0.1555448 0.9751255 0.1555448 0.9751255 0.1555448 0.0248745 -0.1555448
11028082 0.0240468 -0.1529952 0.9759532 0.1529952 0.9759532 0.1529952 0.0240468 -0.1529952
11220185 0.0232459 -0.1504827 0.9767541 0.1504827 0.9767541 0.1504827 0.0232459 -0.1504827
11415633 0.0224711 -0.1480067 0.9775289 0.1480067 0.9775289 0.1480067 0.0224711 -0.1480067
11614486 0.0217214 -0.1455671 0.9782786 0.1455671 0.9782786 0.1455671 0.0217214 -0.1455671
11816803 0.0209960 -0.1431635 0.9790040 0.1431635 0.9790040 0.1431635 0.0209960 -0.1431635
12022644 0.0202944 -0.1407955 0.9797056 0.1407955 0.9797056 0.1407955 0.0202944 -0.1407955
12232071 0.0196156 -0.1384627 0.9803844 0.1384627 0.9803844 0.1384627 0.0196156 -0.1384627
12445146 0.0189590 -0.1361648 0.9810410 0.1361648 0.9810410 0.1361648 0.0189590 -0.1361648
12661933 0.0183240 -0.1339014 0.9816760 0.1339014 0.9816760 0.1339014 0.0183240 -0.1339014
12882496 0.0177097 -0.1316721 0.9822903 0.1316721 0.9822903 0.1316721 0.0177097 -0.1316721
13106900 0.0171156 -0.1294766 0.9828844 0.1294766 0.9828844 0.1294766 0.0171156 -0.1294766
13335214 0.0165411 -0.1273144 0.9834589 0.1273144 0.9834589 0.1273144 0.0165411 -0.1273144
13567505 0.0159854 -0.1251853 0.9840146 0.1251853 0.9840146 0.1251853 0.0159854 -0.1251853
13803843 0.0154481 -0.1230887 0.9845519 0.1230887 0.9845519 0.1230887 0.0154481 -0.1230887
14044297 0.0149285 -0.1210243 0.9850715 0.1210243 0.9850715 0.1210243 0.0149285 -0.1210243
14288940 0.0144261 -0.1189917 0.9855739 0.1189917 0.9855739 0.1189917 0.0144261 -0.1189917
14537844 0.0139403 -0.1169905 0.9860597 0.1169905 0.9860597 0.1169905 0.0139403 -0.1169905
14791084 0.0134706 -0.1150204 0.9865294 0.1150204 0.9865294 0.1150204 0.0134706 -0.1150204
15048735 0.0130165 -0.1130808 0.9869835 0.1130808 0.9869835 0.1130808 0.0130165 -0.1130808
15310875 0.0125775 -0.1111715 0.9874225 0.1111715 0.9874225 0.1111715 0.0125775 -0.1111715
15577580 0.0121531 -0.1092920 0.9878469 0.1092920 0.9878469 0.1092920 0.0121531 -0.1092920
15848932 0.0117427 -0.1074420 0.9882573 0.1074420 0.9882573 0.1074420 0.0117427 -0.1074420
16125010 0.0113461 -0.1056209 0.9886539 0.1056209 0.9886539 0.1056209 0.0113461 -0.1056209
16405898 0.0109627 -0.1038286 0.9890373 0.1038286 0.9890373 0.1038286 0.0109627 -0.1038286
16691678 0.0105921 -0.1020645 0.9894079 0.1020645 0.9894079 0.1020645 0.0105921 -0.1020645
16982437 0.0102338 -0.1003282 0.9897662 0.1003282 0.9897662 0.1003282 0.0102338 -0.1003282
17278260 0.0098876 -0.0986194 0.9901124 0.0986194 0.9901124 0.0986194 0.0098876 -0.0986194
17579236 0.0095529 -0.0969377 0.9904471 0.0969377 0.9904471 0.0969377 0.0095529 -0.0969377
17885455 0.0092295 -0.0952828 0.9907705 0.0952828 0.9907705 0.0952828 0.0092295 -0.0952828
18197009 0.0089170 -0.0936541 0.9910830 0.0936541 0.9910830 0.0936541 0.0089170 -0.0936541
18513989 0.0086149 -0.0920514 0.9913851 0.0920514 0.9913851 0.0920514 0.0086149 -0.0920514
18836491 0.0083230 -0.0904742 0.9916770 0.0904742 0.9916770 0.0904742 0.0083230 -0.0904742
19164611 0.0080409 -0.0889223 0.9919591 0.0889223 0.9919591 0.0889223 0.0080409 -0.0889223
19498446 0.0077683 -0.0873952 0.9922317 0.0873952 0.9922317 0.0873952 0.0077683 -0.0873952
19838097 0.0075050 -0.0858925 0.9924950 0.0858925 0.9924950 0.0858925 0.0075050 -0.0858925
20183664 0.0072505 -0.0844139 0.9927495 0.0844139 0.9927495 0.0844139 0.0072505 -0.0844139
20535250 0.0070046 -0.0829591 0.9929954 0.0829591 0.9929954 0.0829591 0.0070046 -0.0829591
20892961 0.0067670 -0.0815276 0.9932330 0.0815276 0.9932330 0.0815276 0.0067670 -0.0815276
21256903 0.0065375 -0.0801191 0.9934625 0.0801191 0.9934625 0.0801191 0.0065375 -0.0801191
21627185 0.0063158 -0.0787333 0.9936842 0.0787333 0.9936842 0.0787333 0.0063158 -0.0787333
22003917 0.0061016 -0.0773698 0.9938984 0.0773698 0.9938984 0.0773698 0.0061016 -0.0773698
22387211 0.0058947 -0.0760283 0.9941053 0.0760283 0.9941053 0.0760283 0.0058947 -0.0760283
22777182 0.0056948 -0.0747084 0.9943052 0.0747084 0.9943052 0.0747084 0.0056948 -0.0747084
23173946 0.0055017 -0.0734097 0.9944983 0.0734097 0.9944983 0.0734097 0.0055017 -0.0734097
23577622 0.0053153 -0.0721321 0.9946847 0.0721321 0.9946847 0.0721321 0.0053153 -0.0721321
23988329 0.0051351 -0.0708751 0.9948649 0.0708751 0.9948649 0.0708751 0.0051351 -0.0708751
24406191 0.0049612 -0.0696383 0.9950388 0.0696383 0.9950388 0.0696383 0.0049612 -0.0696383
24831331 0.0047932 -0.0684216 0.9952068 0.0684216 0.9952068 0.0684216 0.0047932 -0.0684216
25263877 0.0046309 -0.0672245 0.9953691 0.0672245 0.9953691 0.0672245 0.0046309 -0.0672245
25703958 0.0044742 -0.0660467 0.9955258 0.0660467 0.9955258 0.0660467 0.0044742 -0.0660467
26151704 0.0043229 -0.0648880 0.9956771 0.0648880 0.9956771 0.0648880 0.0043229 -0.0648880
26607251 0.0041768 -0.0637480 0.9958232 0.0637480 0.9958232 0.0637480 0.0041768 -0.0637480
27070732 0.0040358 -0.0626264 0.9959642 0.0626264 0.9959642 0.0626264 0.0040358 -0.0626264
27542287 0.0038996 -0.0615229 0.9961004 0.0615229 0.9961004 0.0615229 0.0038996 -0.0615229
28022056 0.0037681 -0.0604373 0.9962319 0.0604373 0.9962319 0.0604373 0.0037681 -0.0604373
28510183 0.0036411 -0.0593692 0.9963589 0.0593692 0.9963589 0.0593692 0.0036411 -0.0593692
29006812 0.0035186 -0.0583183 0.9964814 0.0583183 0.9964814 0.0583183 0.0035186 -0.0583183
29512092 0.0034003 -0.0572844 0.9965997 0.0572844 0.9965997 0.0572844 0.0034003 -0.0572844
30026174 0.0032861 -0.0562671 0.9967139 0.0562671 0.9967139 0.0562671 0.0032861 -0.0562671
30549211 0.0031758 -0.0552662 0.9968242 0.0552662 0.9968242 0.0552662 0.0031758 -0.0552662
31081359 0.0030695 -0.0542815 0.9969305 0.0542815 0.9969305 0.0542815 0.0030695 -0.0542815
31622777 0.0029668 -0.0533126 0.9970332 0.0533126 0.9970332 0.0533126 0.0029668 -0.0533126
32173625 0.0028677 -0.0523593 0.9971323 0.0523593 0.9971323 0.0523593 0.0028677 -0.0523593
32734069 0.0027721 -0.0514214 0.9972279 0.0514214 0.9972279 0.0514214 0.0027721 -0.0514214
33304276 0.0026798 -0.0504984 0.9973202 0.0504984 0.9973202 0.0504984 0.0026798 -0.0504984
33884416 0.0025908 -0.0495903 0.9974092 0.0495903 0.9974092 0.0495903 0.0025908 -0.0495903
34474661 0.0025049 -0.0486968 0.9974951 0.0486968 0.9974951 0.0486968 0.0025049 -0.0486968
35075187 0.0024220 -0.0478175 0.9975780 0.0478175 0.9975780 0.0478175 0.0024220 -0.0478175
35686175 0.0023421 -0.0469523 0.9976579 0.0469523 0.9976579 0.0469523 0.0023421 -0.0469523
36307805 0.0022649 -0.0461009 0.9977351 0.0461009 0.9977351 0.0461009 0.0022649 -0.0461009
36940264 0.0021905 -0.0452631 0.9978095 0.0452631 0.9978095 0.0452631 0.0021905 -0.0452631
37583740 0.0021188 -0.0444386 0.9978812 0.0444386 0.9978812 0.0444386 0.0021188 -0.0444386
38238425 0.0020496 -0.0436273 0.9979504 0.0436273 0.9979504 0.0436273 0.0020496 -0.0436273
38904514 0.0019829 -0.0428288 0.9980171 0.0428288 0.9980171 0.0428288 0.0019829 -0.0428288
39582206 0.0019185 -0.0420430 0.9980815 0.0420430 0.9980815 0.0420430 0.0019185 -0.0420430
40271703 0.0018565 -0.0412695 0.9981435 0.0412695 0.9981435 0.0412695 0.0018565 -0.0412695
40973211 0.0017966 -0.0405083 0.9982034 0.0405083 0.9982034 0.0405083 0.0017966 -0.0405083
