!Murata Part Number: GRM21A5C2E151JW01
!These Parameters are Measured in Series Mode Connection
!Data Generated on Mar 30, 2021
!       o--ll--o
!Port1            Port2
!       o------o
!Operation Temp=25[degC], DC Bias Voltage=0[V]
!Freq. Start=100[MHz] Stop=3[GHz] 401[Steps]
# Hz S RI R 50
!Freq.(Hz) S11(Real) S11(Imag) S21(Real) S21(Imag) S12(Real) S12(Imag) S22(Real) S22(Imag)
100000000 0.0113244 -0.1014086 0.9886756 0.1014086 0.9886756 0.1014086 0.0113244 -0.1014086
107250000 0.0098888 -0.0942140 0.9901112 0.0942140 0.9901112 0.0942140 0.0098888 -0.0942140
114500000 0.0087147 -0.0878747 0.9912853 0.0878747 0.9912853 0.0878747 0.0087147 -0.0878747
121750000 0.0077426 -0.0822432 0.9922574 0.0822432 0.9922574 0.0822432 0.0077426 -0.0822432
129000000 0.0069290 -0.0772036 0.9930710 0.0772036 0.9930710 0.0772036 0.0069290 -0.0772036
136250000 0.0062414 -0.0726639 0.9937586 0.0726639 0.9937586 0.0726639 0.0062414 -0.0726639
143500000 0.0056553 -0.0685502 0.9943447 0.0685502 0.9943447 0.0685502 0.0056553 -0.0685502
150750000 0.0051519 -0.0648024 0.9948481 0.0648024 0.9948481 0.0648024 0.0051519 -0.0648024
158000000 0.0047164 -0.0613711 0.9952836 0.0613711 0.9952836 0.0613711 0.0047164 -0.0613711
165250000 0.0043373 -0.0582153 0.9956627 0.0582153 0.9956627 0.0582153 0.0043373 -0.0582153
172500000 0.0040056 -0.0553009 0.9959944 0.0553009 0.9959944 0.0553009 0.0040056 -0.0553009
179750000 0.0037136 -0.0525991 0.9962864 0.0525991 0.9962864 0.0525991 0.0037136 -0.0525991
187000000 0.0034555 -0.0500854 0.9965445 0.0500854 0.9965445 0.0500854 0.0034555 -0.0500854
194250000 0.0032264 -0.0477392 0.9967736 0.0477392 0.9967736 0.0477392 0.0032264 -0.0477392
201500000 0.0030222 -0.0455425 0.9969778 0.0455425 0.9969778 0.0455425 0.0030222 -0.0455425
208750000 0.0028395 -0.0434799 0.9971605 0.0434799 0.9971605 0.0434799 0.0028395 -0.0434799
216000000 0.0026755 -0.0415380 0.9973245 0.0415380 0.9973245 0.0415380 0.0026755 -0.0415380
223250000 0.0025280 -0.0397052 0.9974720 0.0397052 0.9974720 0.0397052 0.0025280 -0.0397052
230500000 0.0023948 -0.0379713 0.9976052 0.0379713 0.9976052 0.0379713 0.0023948 -0.0379713
237750000 0.0022743 -0.0363273 0.9977257 0.0363273 0.9977257 0.0363273 0.0022743 -0.0363273
245000000 0.0021650 -0.0347653 0.9978350 0.0347653 0.9978350 0.0347653 0.0021650 -0.0347653
252250000 0.0020657 -0.0332782 0.9979343 0.0332782 0.9979343 0.0332782 0.0020657 -0.0332782
259500000 0.0019754 -0.0318599 0.9980246 0.0318599 0.9980246 0.0318599 0.0019754 -0.0318599
266750000 0.0018930 -0.0305046 0.9981070 0.0305046 0.9981070 0.0305046 0.0018930 -0.0305046
274000000 0.0018177 -0.0292076 0.9981823 0.0292076 0.9981823 0.0292076 0.0018177 -0.0292076
281250000 0.0017490 -0.0279642 0.9982510 0.0279642 0.9982510 0.0279642 0.0017490 -0.0279642
288500000 0.0016861 -0.0267704 0.9983139 0.0267704 0.9983139 0.0267704 0.0016861 -0.0267704
295750000 0.0016284 -0.0256227 0.9983716 0.0256227 0.9983716 0.0256227 0.0016284 -0.0256227
303000000 0.0015756 -0.0245176 0.9984244 0.0245176 0.9984244 0.0245176 0.0015756 -0.0245176
310250000 0.0015272 -0.0234523 0.9984728 0.0234523 0.9984728 0.0234523 0.0015272 -0.0234523
317500000 0.0014827 -0.0224240 0.9985173 0.0224240 0.9985173 0.0224240 0.0014827 -0.0224240
324750000 0.0014420 -0.0214303 0.9985580 0.0214303 0.9985580 0.0214303 0.0014420 -0.0214303
332000000 0.0014046 -0.0204688 0.9985954 0.0204688 0.9985954 0.0204688 0.0014046 -0.0204688
339250000 0.0013704 -0.0195376 0.9986296 0.0195376 0.9986296 0.0195376 0.0013704 -0.0195376
346500000 0.0013390 -0.0186346 0.9986610 0.0186346 0.9986610 0.0186346 0.0013390 -0.0186346
353750000 0.0013102 -0.0177583 0.9986898 0.0177583 0.9986898 0.0177583 0.0013102 -0.0177583
361000000 0.0012839 -0.0169069 0.9987161 0.0169069 0.9987161 0.0169069 0.0012839 -0.0169069
368250000 0.0012599 -0.0160790 0.9987401 0.0160790 0.9987401 0.0160790 0.0012599 -0.0160790
375500000 0.0012380 -0.0152732 0.9987620 0.0152732 0.9987620 0.0152732 0.0012380 -0.0152732
382750000 0.0012181 -0.0144883 0.9987819 0.0144883 0.9987819 0.0144883 0.0012181 -0.0144883
390000000 0.0012000 -0.0137232 0.9988000 0.0137232 0.9988000 0.0137232 0.0012000 -0.0137232
397250000 0.0011837 -0.0129766 0.9988163 0.0129766 0.9988163 0.0129766 0.0011837 -0.0129766
404500000 0.0011690 -0.0122477 0.9988310 0.0122477 0.9988310 0.0122477 0.0011690 -0.0122477
411750000 0.0011558 -0.0115354 0.9988442 0.0115354 0.9988442 0.0115354 0.0011558 -0.0115354
419000000 0.0011440 -0.0108390 0.9988560 0.0108390 0.9988560 0.0108390 0.0011440 -0.0108390
426250000 0.0011336 -0.0101576 0.9988664 0.0101576 0.9988664 0.0101576 0.0011336 -0.0101576
433500000 0.0011245 -0.0094904 0.9988755 0.0094904 0.9988755 0.0094904 0.0011245 -0.0094904
440750000 0.0011166 -0.0088367 0.9988834 0.0088367 0.9988834 0.0088367 0.0011166 -0.0088367
448000000 0.0011098 -0.0081960 0.9988902 0.0081960 0.9988902 0.0081960 0.0011098 -0.0081960
455250000 0.0011041 -0.0075674 0.9988959 0.0075674 0.9988959 0.0075674 0.0011041 -0.0075674
462500000 0.0010994 -0.0069506 0.9989006 0.0069506 0.9989006 0.0069506 0.0010994 -0.0069506
469750000 0.0010957 -0.0063449 0.9989043 0.0063449 0.9989043 0.0063449 0.0010957 -0.0063449
477000000 0.0010929 -0.0057497 0.9989071 0.0057497 0.9989071 0.0057497 0.0010929 -0.0057497
484250000 0.0010911 -0.0051648 0.9989089 0.0051648 0.9989089 0.0051648 0.0010911 -0.0051648
491500000 0.0010900 -0.0045895 0.9989100 0.0045895 0.9989100 0.0045895 0.0010900 -0.0045895
498750000 0.0010898 -0.0040234 0.9989102 0.0040234 0.9989102 0.0040234 0.0010898 -0.0040234
506000000 0.0010904 -0.0034662 0.9989096 0.0034662 0.9989096 0.0034662 0.0010904 -0.0034662
513250000 0.0010917 -0.0029174 0.9989083 0.0029174 0.9989083 0.0029174 0.0010917 -0.0029174
520500000 0.0010938 -0.0023768 0.9989062 0.0023768 0.9989062 0.0023768 0.0010938 -0.0023768
527750000 0.0010965 -0.0018439 0.9989035 0.0018439 0.9989035 0.0018439 0.0010965 -0.0018439
535000000 0.0010999 -0.0013184 0.9989001 0.0013184 0.9989001 0.0013184 0.0010999 -0.0013184
542250000 0.0011040 -0.0008001 0.9988960 0.0008001 0.9988960 0.0008001 0.0011040 -0.0008001
549500000 0.0011087 -0.0002886 0.9988913 0.0002886 0.9988913 0.0002886 0.0011087 -0.0002886
556750000 0.0011139 0.0002163 0.9988861 -0.0002163 0.9988861 -0.0002163 0.0011139 0.0002163
564000000 0.0011198 0.0007149 0.9988802 -0.0007149 0.9988802 -0.0007149 0.0011198 0.0007149
571250000 0.0011262 0.0012075 0.9988738 -0.0012075 0.9988738 -0.0012075 0.0011262 0.0012075
578500000 0.0011332 0.0016942 0.9988668 -0.0016942 0.9988668 -0.0016942 0.0011332 0.0016942
585750000 0.0011407 0.0021753 0.9988593 -0.0021753 0.9988593 -0.0021753 0.0011407 0.0021753
593000000 0.0011488 0.0026510 0.9988512 -0.0026510 0.9988512 -0.0026510 0.0011488 0.0026510
600250000 0.0011573 0.0031216 0.9988427 -0.0031216 0.9988427 -0.0031216 0.0011573 0.0031216
607500000 0.0011664 0.0035871 0.9988336 -0.0035871 0.9988336 -0.0035871 0.0011664 0.0035871
614750000 0.0011759 0.0040479 0.9988241 -0.0040479 0.9988241 -0.0040479 0.0011759 0.0040479
622000000 0.0011859 0.0045040 0.9988141 -0.0045040 0.9988141 -0.0045040 0.0011859 0.0045040
629250000 0.0011963 0.0049556 0.9988037 -0.0049556 0.9988037 -0.0049556 0.0011963 0.0049556
636500000 0.0012073 0.0054030 0.9987927 -0.0054030 0.9987927 -0.0054030 0.0012073 0.0054030
643750000 0.0012186 0.0058462 0.9987814 -0.0058462 0.9987814 -0.0058462 0.0012186 0.0058462
651000000 0.0012304 0.0062854 0.9987696 -0.0062854 0.9987696 -0.0062854 0.0012304 0.0062854
658250000 0.0012426 0.0067207 0.9987574 -0.0067207 0.9987574 -0.0067207 0.0012426 0.0067207
665500000 0.0012553 0.0071523 0.9987447 -0.0071523 0.9987447 -0.0071523 0.0012553 0.0071523
672750000 0.0012683 0.0075803 0.9987317 -0.0075803 0.9987317 -0.0075803 0.0012683 0.0075803
680000000 0.0012818 0.0080048 0.9987182 -0.0080048 0.9987182 -0.0080048 0.0012818 0.0080048
687250000 0.0012956 0.0084260 0.9987044 -0.0084260 0.9987044 -0.0084260 0.0012956 0.0084260
694500000 0.0013099 0.0088439 0.9986901 -0.0088439 0.9986901 -0.0088439 0.0013099 0.0088439
701750000 0.0013245 0.0092587 0.9986755 -0.0092587 0.9986755 -0.0092587 0.0013245 0.0092587
709000000 0.0013396 0.0096705 0.9986604 -0.0096705 0.9986604 -0.0096705 0.0013396 0.0096705
716250000 0.0013550 0.0100793 0.9986450 -0.0100793 0.9986450 -0.0100793 0.0013550 0.0100793
723500000 0.0013708 0.0104853 0.9986292 -0.0104853 0.9986292 -0.0104853 0.0013708 0.0104853
730750000 0.0013870 0.0108886 0.9986130 -0.0108886 0.9986130 -0.0108886 0.0013870 0.0108886
738000000 0.0014035 0.0112893 0.9985965 -0.0112893 0.9985965 -0.0112893 0.0014035 0.0112893
745250000 0.0014205 0.0116873 0.9985795 -0.0116873 0.9985795 -0.0116873 0.0014205 0.0116873
752500000 0.0014377 0.0120829 0.9985623 -0.0120829 0.9985623 -0.0120829 0.0014377 0.0120829
759750000 0.0014554 0.0124761 0.9985446 -0.0124761 0.9985446 -0.0124761 0.0014554 0.0124761
767000000 0.0014734 0.0128670 0.9985266 -0.0128670 0.9985266 -0.0128670 0.0014734 0.0128670
774250000 0.0014918 0.0132556 0.9985082 -0.0132556 0.9985082 -0.0132556 0.0014918 0.0132556
781500000 0.0015105 0.0136421 0.9984895 -0.0136421 0.9984895 -0.0136421 0.0015105 0.0136421
788750000 0.0015296 0.0140265 0.9984704 -0.0140265 0.9984704 -0.0140265 0.0015296 0.0140265
796000000 0.0015491 0.0144088 0.9984509 -0.0144088 0.9984509 -0.0144088 0.0015491 0.0144088
803250000 0.0015689 0.0147892 0.9984311 -0.0147892 0.9984311 -0.0147892 0.0015689 0.0147892
810500000 0.0015890 0.0151677 0.9984110 -0.0151677 0.9984110 -0.0151677 0.0015890 0.0151677
817750000 0.0016096 0.0155443 0.9983904 -0.0155443 0.9983904 -0.0155443 0.0016096 0.0155443
825000000 0.0016304 0.0159191 0.9983696 -0.0159191 0.9983696 -0.0159191 0.0016304 0.0159191
832250000 0.0016517 0.0162923 0.9983483 -0.0162923 0.9983483 -0.0162923 0.0016517 0.0162923
839500000 0.0016733 0.0166637 0.9983267 -0.0166637 0.9983267 -0.0166637 0.0016733 0.0166637
846750000 0.0016952 0.0170336 0.9983048 -0.0170336 0.9983048 -0.0170336 0.0016952 0.0170336
854000000 0.0017175 0.0174018 0.9982825 -0.0174018 0.9982825 -0.0174018 0.0017175 0.0174018
861250000 0.0017402 0.0177686 0.9982598 -0.0177686 0.9982598 -0.0177686 0.0017402 0.0177686
868500000 0.0017632 0.0181339 0.9982368 -0.0181339 0.9982368 -0.0181339 0.0017632 0.0181339
875750000 0.0017866 0.0184978 0.9982134 -0.0184978 0.9982134 -0.0184978 0.0017866 0.0184978
883000000 0.0018103 0.0188604 0.9981897 -0.0188604 0.9981897 -0.0188604 0.0018103 0.0188604
890250000 0.0018344 0.0192216 0.9981656 -0.0192216 0.9981656 -0.0192216 0.0018344 0.0192216
897500000 0.0018589 0.0195815 0.9981411 -0.0195815 0.9981411 -0.0195815 0.0018589 0.0195815
904750000 0.0018838 0.0199402 0.9981162 -0.0199402 0.9981162 -0.0199402 0.0018838 0.0199402
912000000 0.0019090 0.0202978 0.9980910 -0.0202978 0.9980910 -0.0202978 0.0019090 0.0202978
919250000 0.0019346 0.0206542 0.9980654 -0.0206542 0.9980654 -0.0206542 0.0019346 0.0206542
926500000 0.0019606 0.0210094 0.9980394 -0.0210094 0.9980394 -0.0210094 0.0019606 0.0210094
933750000 0.0019869 0.0213637 0.9980131 -0.0213637 0.9980131 -0.0213637 0.0019869 0.0213637
941000000 0.0020136 0.0217168 0.9979864 -0.0217168 0.9979864 -0.0217168 0.0020136 0.0217168
948250000 0.0020408 0.0220690 0.9979592 -0.0220690 0.9979592 -0.0220690 0.0020408 0.0220690
955500000 0.0020683 0.0224203 0.9979317 -0.0224203 0.9979317 -0.0224203 0.0020683 0.0224203
962750000 0.0020962 0.0227706 0.9979038 -0.0227706 0.9979038 -0.0227706 0.0020962 0.0227706
970000000 0.0021245 0.0231201 0.9978755 -0.0231201 0.9978755 -0.0231201 0.0021245 0.0231201
977250000 0.0021533 0.0234687 0.9978467 -0.0234687 0.9978467 -0.0234687 0.0021533 0.0234687
984500000 0.0021824 0.0238165 0.9978176 -0.0238165 0.9978176 -0.0238165 0.0021824 0.0238165
991750000 0.0022120 0.0241636 0.9977880 -0.0241636 0.9977880 -0.0241636 0.0022120 0.0241636
999000000 0.0022420 0.0245099 0.9977580 -0.0245099 0.9977580 -0.0245099 0.0022420 0.0245099
1006250000 0.0022724 0.0248554 0.9977276 -0.0248554 0.9977276 -0.0248554 0.0022724 0.0248554
1013500000 0.0023032 0.0252004 0.9976968 -0.0252004 0.9976968 -0.0252004 0.0023032 0.0252004
1020750000 0.0023345 0.0255446 0.9976655 -0.0255446 0.9976655 -0.0255446 0.0023345 0.0255446
1028000000 0.0023663 0.0258883 0.9976337 -0.0258883 0.9976337 -0.0258883 0.0023663 0.0258883
1035250000 0.0023985 0.0262314 0.9976015 -0.0262314 0.9976015 -0.0262314 0.0023985 0.0262314
1042500000 0.0024312 0.0265739 0.9975688 -0.0265739 0.9975688 -0.0265739 0.0024312 0.0265739
1049750000 0.0024644 0.0269159 0.9975356 -0.0269159 0.9975356 -0.0269159 0.0024644 0.0269159
1057000000 0.0024980 0.0272574 0.9975020 -0.0272574 0.9975020 -0.0272574 0.0024980 0.0272574
1064250000 0.0025322 0.0275985 0.9974678 -0.0275985 0.9974678 -0.0275985 0.0025322 0.0275985
1071500000 0.0025669 0.0279392 0.9974331 -0.0279392 0.9974331 -0.0279392 0.0025669 0.0279392
1078750000 0.0026021 0.0282794 0.9973979 -0.0282794 0.9973979 -0.0282794 0.0026021 0.0282794
1086000000 0.0026378 0.0286193 0.9973622 -0.0286193 0.9973622 -0.0286193 0.0026378 0.0286193
1093250000 0.0026741 0.0289588 0.9973259 -0.0289588 0.9973259 -0.0289588 0.0026741 0.0289588
1100500000 0.0027109 0.0292981 0.9972891 -0.0292981 0.9972891 -0.0292981 0.0027109 0.0292981
1107750000 0.0027483 0.0296370 0.9972517 -0.0296370 0.9972517 -0.0296370 0.0027483 0.0296370
1115000000 0.0027863 0.0299757 0.9972137 -0.0299757 0.9972137 -0.0299757 0.0027863 0.0299757
1122250000 0.0028250 0.0303142 0.9971750 -0.0303142 0.9971750 -0.0303142 0.0028250 0.0303142
1129500000 0.0028642 0.0306525 0.9971358 -0.0306525 0.9971358 -0.0306525 0.0028642 0.0306525
1136750000 0.0029041 0.0309907 0.9970959 -0.0309907 0.9970959 -0.0309907 0.0029041 0.0309907
1144000000 0.0029447 0.0313287 0.9970553 -0.0313287 0.9970553 -0.0313287 0.0029447 0.0313287
1151250000 0.0029859 0.0316666 0.9970141 -0.0316666 0.9970141 -0.0316666 0.0029859 0.0316666
1158500000 0.0030279 0.0320045 0.9969721 -0.0320045 0.9969721 -0.0320045 0.0030279 0.0320045
1165750000 0.0030706 0.0323423 0.9969294 -0.0323423 0.9969294 -0.0323423 0.0030706 0.0323423
1173000000 0.0031140 0.0326801 0.9968860 -0.0326801 0.9968860 -0.0326801 0.0031140 0.0326801
1180250000 0.0031583 0.0330179 0.9968417 -0.0330179 0.9968417 -0.0330179 0.0031583 0.0330179
1187500000 0.0032033 0.0333557 0.9967967 -0.0333557 0.9967967 -0.0333557 0.0032033 0.0333557
1194750000 0.0032492 0.0336937 0.9967508 -0.0336937 0.9967508 -0.0336937 0.0032492 0.0336937
1202000000 0.0032960 0.0340317 0.9967040 -0.0340317 0.9967040 -0.0340317 0.0032960 0.0340317
1209250000 0.0033437 0.0343699 0.9966563 -0.0343699 0.9966563 -0.0343699 0.0033437 0.0343699
1216500000 0.0033923 0.0347083 0.9966077 -0.0347083 0.9966077 -0.0347083 0.0033923 0.0347083
1223750000 0.0034419 0.0350469 0.9965581 -0.0350469 0.9965581 -0.0350469 0.0034419 0.0350469
1231000000 0.0034926 0.0353857 0.9965074 -0.0353857 0.9965074 -0.0353857 0.0034926 0.0353857
1238250000 0.0035443 0.0357248 0.9964557 -0.0357248 0.9964557 -0.0357248 0.0035443 0.0357248
1245500000 0.0035972 0.0360642 0.9964028 -0.0360642 0.9964028 -0.0360642 0.0035972 0.0360642
1252750000 0.0036513 0.0364039 0.9963487 -0.0364039 0.9963487 -0.0364039 0.0036513 0.0364039
1260000000 0.0037065 0.0367440 0.9962935 -0.0367440 0.9962935 -0.0367440 0.0037065 0.0367440
1267250000 0.0037631 0.0370845 0.9962369 -0.0370845 0.9962369 -0.0370845 0.0037631 0.0370845
1274500000 0.0038211 0.0374254 0.9961789 -0.0374254 0.9961789 -0.0374254 0.0038211 0.0374254
1281750000 0.0038805 0.0377667 0.9961195 -0.0377667 0.9961195 -0.0377667 0.0038805 0.0377667
1289000000 0.0039414 0.0381086 0.9960586 -0.0381086 0.9960586 -0.0381086 0.0039414 0.0381086
1296250000 0.0040039 0.0384510 0.9959961 -0.0384510 0.9959961 -0.0384510 0.0040039 0.0384510
1303500000 0.0040681 0.0387939 0.9959319 -0.0387939 0.9959319 -0.0387939 0.0040681 0.0387939
1310750000 0.0041340 0.0391374 0.9958660 -0.0391374 0.9958660 -0.0391374 0.0041340 0.0391374
1318000000 0.0042018 0.0394815 0.9957982 -0.0394815 0.9957982 -0.0394815 0.0042018 0.0394815
1325250000 0.0042717 0.0398263 0.9957283 -0.0398263 0.9957283 -0.0398263 0.0042717 0.0398263
1332500000 0.0043436 0.0401716 0.9956564 -0.0401716 0.9956564 -0.0401716 0.0043436 0.0401716
1339750000 0.0044177 0.0405177 0.9955823 -0.0405177 0.9955823 -0.0405177 0.0044177 0.0405177
1347000000 0.0044943 0.0408644 0.9955057 -0.0408644 0.9955057 -0.0408644 0.0044943 0.0408644
1354250000 0.0045734 0.0412119 0.9954266 -0.0412119 0.9954266 -0.0412119 0.0045734 0.0412119
1361500000 0.0046551 0.0415600 0.9953449 -0.0415600 0.9953449 -0.0415600 0.0046551 0.0415600
1368750000 0.0047398 0.0419089 0.9952602 -0.0419089 0.9952602 -0.0419089 0.0047398 0.0419089
1376000000 0.0048275 0.0422584 0.9951725 -0.0422584 0.9951725 -0.0422584 0.0048275 0.0422584
1383250000 0.0049184 0.0426087 0.9950816 -0.0426087 0.9950816 -0.0426087 0.0049184 0.0426087
1390500000 0.0050129 0.0429595 0.9949871 -0.0429595 0.9949871 -0.0429595 0.0050129 0.0429595
1397750000 0.0051111 0.0433110 0.9948889 -0.0433110 0.9948889 -0.0433110 0.0051111 0.0433110
1405000000 0.0052134 0.0436631 0.9947866 -0.0436631 0.9947866 -0.0436631 0.0052134 0.0436631
1412250000 0.0053199 0.0440156 0.9946801 -0.0440156 0.9946801 -0.0440156 0.0053199 0.0440156
1419500000 0.0054310 0.0443685 0.9945690 -0.0443685 0.9945690 -0.0443685 0.0054310 0.0443685
1426750000 0.0055470 0.0447216 0.9944530 -0.0447216 0.9944530 -0.0447216 0.0055470 0.0447216
1434000000 0.0056684 0.0450748 0.9943316 -0.0450748 0.9943316 -0.0450748 0.0056684 0.0450748
1441250000 0.0057954 0.0454280 0.9942046 -0.0454280 0.9942046 -0.0454280 0.0057954 0.0454280
1448500000 0.0059285 0.0457807 0.9940715 -0.0457807 0.9940715 -0.0457807 0.0059285 0.0457807
1455750000 0.0060681 0.0461329 0.9939319 -0.0461329 0.9939319 -0.0461329 0.0060681 0.0461329
1463000000 0.0062147 0.0464840 0.9937853 -0.0464840 0.9937853 -0.0464840 0.0062147 0.0464840
1470250000 0.0063688 0.0468337 0.9936312 -0.0468337 0.9936312 -0.0468337 0.0063688 0.0468337
1477500000 0.0065308 0.0471815 0.9934692 -0.0471815 0.9934692 -0.0471815 0.0065308 0.0471815
1484750000 0.0067013 0.0475268 0.9932987 -0.0475268 0.9932987 -0.0475268 0.0067013 0.0475268
1492000000 0.0068809 0.0478688 0.9931191 -0.0478688 0.9931191 -0.0478688 0.0068809 0.0478688
1499250000 0.0070699 0.0482067 0.9929301 -0.0482067 0.9929301 -0.0482067 0.0070699 0.0482067
1506500000 0.0072689 0.0485395 0.9927311 -0.0485395 0.9927311 -0.0485395 0.0072689 0.0485395
1513750000 0.0074785 0.0488661 0.9925215 -0.0488661 0.9925215 -0.0488661 0.0074785 0.0488661
1521000000 0.0076988 0.0491851 0.9923012 -0.0491851 0.9923012 -0.0491851 0.0076988 0.0491851
1528250000 0.0079302 0.0494950 0.9920698 -0.0494950 0.9920698 -0.0494950 0.0079302 0.0494950
1535500000 0.0081728 0.0497940 0.9918272 -0.0497940 0.9918272 -0.0497940 0.0081728 0.0497940
1542750000 0.0084266 0.0500803 0.9915734 -0.0500803 0.9915734 -0.0500803 0.0084266 0.0500803
1550000000 0.0086910 0.0503515 0.9913090 -0.0503515 0.9913090 -0.0503515 0.0086910 0.0503515
1557250000 0.0089655 0.0506055 0.9910345 -0.0506055 0.9910345 -0.0506055 0.0089655 0.0506055
1564500000 0.0092488 0.0508396 0.9907512 -0.0508396 0.9907512 -0.0508396 0.0092488 0.0508396
1571750000 0.0095393 0.0510513 0.9904607 -0.0510513 0.9904607 -0.0510513 0.0095393 0.0510513
1579000000 0.0098346 0.0512380 0.9901654 -0.0512380 0.9901654 -0.0512380 0.0098346 0.0512380
1586250000 0.0101320 0.0513974 0.9898680 -0.0513974 0.9898680 -0.0513974 0.0101320 0.0513974
1593500000 0.0104275 0.0515272 0.9895725 -0.0515272 0.9895725 -0.0515272 0.0104275 0.0515272
1600750000 0.0107170 0.0516259 0.9892830 -0.0516259 0.9892830 -0.0516259 0.0107170 0.0516259
1608000000 0.0109953 0.0516927 0.9890047 -0.0516927 0.9890047 -0.0516927 0.0109953 0.0516927
1615250000 0.0112568 0.0517278 0.9887432 -0.0517278 0.9887432 -0.0517278 0.0112568 0.0517278
1622500000 0.0114956 0.0517324 0.9885044 -0.0517324 0.9885044 -0.0517324 0.0114956 0.0517324
1629750000 0.0117061 0.0517095 0.9882939 -0.0517095 0.9882939 -0.0517095 0.0117061 0.0517095
