!Murata Part Number: GRM21A7U2E221JW31
!These Parameters are Measured in Series Mode Connection
!Data Generated on Mar 30, 2021
!       o--ll--o
!Port1            Port2
!       o------o
!Operation Temp=25[degC], DC Bias Voltage=0[V]
!Freq. Start=100[MHz] Stop=3[GHz] 401[Steps]
# Hz S RI R 50
!Freq.(Hz) S11(Real) S11(Imag) S21(Real) S21(Imag) S12(Real) S12(Imag) S22(Real) S22(Imag)
100000000 0.0056782 -0.0676665 0.9943218 0.0676665 0.9943218 0.0676665 0.0056782 -0.0676665
107250000 0.0050094 -0.0625470 0.9949906 0.0625470 0.9949906 0.0625470 0.0050094 -0.0625470
114500000 0.0044647 -0.0580293 0.9955353 0.0580293 0.9955353 0.0580293 0.0044647 -0.0580293
121750000 0.0040156 -0.0540074 0.9959844 0.0540074 0.9959844 0.0540074 0.0040156 -0.0540074
129000000 0.0036416 -0.0503990 0.9963584 0.0503990 0.9963584 0.0503990 0.0036416 -0.0503990
136250000 0.0033273 -0.0471389 0.9966727 0.0471389 0.9966727 0.0471389 0.0033273 -0.0471389
143500000 0.0030610 -0.0441748 0.9969390 0.0441748 0.9969390 0.0441748 0.0030610 -0.0441748
150750000 0.0028339 -0.0414645 0.9971661 0.0414645 0.9971661 0.0414645 0.0028339 -0.0414645
158000000 0.0026391 -0.0389732 0.9973609 0.0389732 0.9973609 0.0389732 0.0026391 -0.0389732
165250000 0.0024711 -0.0366725 0.9975289 0.0366725 0.9975289 0.0366725 0.0024711 -0.0366725
172500000 0.0023257 -0.0345385 0.9976743 0.0345385 0.9976743 0.0345385 0.0023257 -0.0345385
179750000 0.0021992 -0.0325510 0.9978008 0.0325510 0.9978008 0.0325510 0.0021992 -0.0325510
187000000 0.0020891 -0.0306932 0.9979109 0.0306932 0.9979109 0.0306932 0.0020891 -0.0306932
194250000 0.0019928 -0.0289507 0.9980072 0.0289507 0.9980072 0.0289507 0.0019928 -0.0289507
201500000 0.0019086 -0.0273109 0.9980914 0.0273109 0.9980914 0.0273109 0.0019086 -0.0273109
208750000 0.0018349 -0.0257634 0.9981651 0.0257634 0.9981651 0.0257634 0.0018349 -0.0257634
216000000 0.0017703 -0.0242987 0.9982297 0.0242987 0.9982297 0.0242987 0.0017703 -0.0242987
223250000 0.0017138 -0.0229089 0.9982862 0.0229089 0.9982862 0.0229089 0.0017138 -0.0229089
230500000 0.0016644 -0.0215869 0.9983356 0.0215869 0.9983356 0.0215869 0.0016644 -0.0215869
237750000 0.0016213 -0.0203265 0.9983787 0.0203265 0.9983787 0.0203265 0.0016213 -0.0203265
245000000 0.0015839 -0.0191223 0.9984161 0.0191223 0.9984161 0.0191223 0.0015839 -0.0191223
252250000 0.0015516 -0.0179694 0.9984484 0.0179694 0.9984484 0.0179694 0.0015516 -0.0179694
259500000 0.0015238 -0.0168635 0.9984762 0.0168635 0.9984762 0.0168635 0.0015238 -0.0168635
266750000 0.0015002 -0.0158008 0.9984998 0.0158008 0.9984998 0.0158008 0.0015002 -0.0158008
274000000 0.0014804 -0.0147778 0.9985196 0.0147778 0.9985196 0.0147778 0.0014804 -0.0147778
281250000 0.0014640 -0.0137915 0.9985360 0.0137915 0.9985360 0.0137915 0.0014640 -0.0137915
288500000 0.0014507 -0.0128391 0.9985493 0.0128391 0.9985493 0.0128391 0.0014507 -0.0128391
295750000 0.0014404 -0.0119181 0.9985596 0.0119181 0.9985596 0.0119181 0.0014404 -0.0119181
303000000 0.0014327 -0.0110262 0.9985673 0.0110262 0.9985673 0.0110262 0.0014327 -0.0110262
310250000 0.0014275 -0.0101614 0.9985725 0.0101614 0.9985725 0.0101614 0.0014275 -0.0101614
317500000 0.0014247 -0.0093218 0.9985753 0.0093218 0.9985753 0.0093218 0.0014247 -0.0093218
324750000 0.0014239 -0.0085057 0.9985761 0.0085057 0.9985761 0.0085057 0.0014239 -0.0085057
332000000 0.0014252 -0.0077115 0.9985748 0.0077115 0.9985748 0.0077115 0.0014252 -0.0077115
339250000 0.0014284 -0.0069379 0.9985716 0.0069379 0.9985716 0.0069379 0.0014284 -0.0069379
346500000 0.0014334 -0.0061835 0.9985666 0.0061835 0.9985666 0.0061835 0.0014334 -0.0061835
353750000 0.0014401 -0.0054471 0.9985599 0.0054471 0.9985599 0.0054471 0.0014401 -0.0054471
361000000 0.0014483 -0.0047277 0.9985517 0.0047277 0.9985517 0.0047277 0.0014483 -0.0047277
368250000 0.0014582 -0.0040242 0.9985418 0.0040242 0.9985418 0.0040242 0.0014582 -0.0040242
375500000 0.0014694 -0.0033356 0.9985306 0.0033356 0.9985306 0.0033356 0.0014694 -0.0033356
382750000 0.0014821 -0.0026611 0.9985179 0.0026611 0.9985179 0.0026611 0.0014821 -0.0026611
390000000 0.0014961 -0.0019999 0.9985039 0.0019999 0.9985039 0.0019999 0.0014961 -0.0019999
397250000 0.0015114 -0.0013513 0.9984886 0.0013513 0.9984886 0.0013513 0.0015114 -0.0013513
404500000 0.0015279 -0.0007145 0.9984721 0.0007145 0.9984721 0.0007145 0.0015279 -0.0007145
411750000 0.0015457 -0.0000890 0.9984543 0.0000890 0.9984543 0.0000890 0.0015457 -0.0000890
419000000 0.0015646 0.0005260 0.9984354 -0.0005260 0.9984354 -0.0005260 0.0015646 0.0005260
426250000 0.0015847 0.0011310 0.9984153 -0.0011310 0.9984153 -0.0011310 0.0015847 0.0011310
433500000 0.0016058 0.0017264 0.9983942 -0.0017264 0.9983942 -0.0017264 0.0016058 0.0017264
440750000 0.0016281 0.0023128 0.9983719 -0.0023128 0.9983719 -0.0023128 0.0016281 0.0023128
448000000 0.0016514 0.0028907 0.9983486 -0.0028907 0.9983486 -0.0028907 0.0016514 0.0028907
455250000 0.0016758 0.0034604 0.9983242 -0.0034604 0.9983242 -0.0034604 0.0016758 0.0034604
462500000 0.0017012 0.0040224 0.9982988 -0.0040224 0.9982988 -0.0040224 0.0017012 0.0040224
469750000 0.0017276 0.0045771 0.9982724 -0.0045771 0.9982724 -0.0045771 0.0017276 0.0045771
477000000 0.0017551 0.0051249 0.9982449 -0.0051249 0.9982449 -0.0051249 0.0017551 0.0051249
484250000 0.0017835 0.0056660 0.9982165 -0.0056660 0.9982165 -0.0056660 0.0017835 0.0056660
491500000 0.0018129 0.0062008 0.9981871 -0.0062008 0.9981871 -0.0062008 0.0018129 0.0062008
498750000 0.0018434 0.0067296 0.9981566 -0.0067296 0.9981566 -0.0067296 0.0018434 0.0067296
506000000 0.0018748 0.0072527 0.9981252 -0.0072527 0.9981252 -0.0072527 0.0018748 0.0072527
513250000 0.0019072 0.0077704 0.9980928 -0.0077704 0.9980928 -0.0077704 0.0019072 0.0077704
520500000 0.0019405 0.0082829 0.9980595 -0.0082829 0.9980595 -0.0082829 0.0019405 0.0082829
527750000 0.0019749 0.0087905 0.9980251 -0.0087905 0.9980251 -0.0087905 0.0019749 0.0087905
535000000 0.0020103 0.0092934 0.9979897 -0.0092934 0.9979897 -0.0092934 0.0020103 0.0092934
542250000 0.0020467 0.0097918 0.9979533 -0.0097918 0.9979533 -0.0097918 0.0020467 0.0097918
549500000 0.0020841 0.0102860 0.9979159 -0.0102860 0.9979159 -0.0102860 0.0020841 0.0102860
556750000 0.0021226 0.0107761 0.9978774 -0.0107761 0.9978774 -0.0107761 0.0021226 0.0107761
564000000 0.0021621 0.0112624 0.9978379 -0.0112624 0.9978379 -0.0112624 0.0021621 0.0112624
571250000 0.0022027 0.0117451 0.9977973 -0.0117451 0.9977973 -0.0117451 0.0022027 0.0117451
578500000 0.0022444 0.0122242 0.9977556 -0.0122242 0.9977556 -0.0122242 0.0022444 0.0122242
585750000 0.0022872 0.0127001 0.9977128 -0.0127001 0.9977128 -0.0127001 0.0022872 0.0127001
593000000 0.0023311 0.0131729 0.9976689 -0.0131729 0.9976689 -0.0131729 0.0023311 0.0131729
600250000 0.0023763 0.0136426 0.9976237 -0.0136426 0.9976237 -0.0136426 0.0023763 0.0136426
607500000 0.0024226 0.0141096 0.9975774 -0.0141096 0.9975774 -0.0141096 0.0024226 0.0141096
614750000 0.0024703 0.0145739 0.9975297 -0.0145739 0.9975297 -0.0145739 0.0024703 0.0145739
622000000 0.0025192 0.0150357 0.9974808 -0.0150357 0.9974808 -0.0150357 0.0025192 0.0150357
629250000 0.0025695 0.0154952 0.9974305 -0.0154952 0.9974305 -0.0154952 0.0025695 0.0154952
636500000 0.0026212 0.0159523 0.9973788 -0.0159523 0.9973788 -0.0159523 0.0026212 0.0159523
643750000 0.0026744 0.0164074 0.9973256 -0.0164074 0.9973256 -0.0164074 0.0026744 0.0164074
651000000 0.0027291 0.0168606 0.9972709 -0.0168606 0.9972709 -0.0168606 0.0027291 0.0168606
658250000 0.0027855 0.0173119 0.9972145 -0.0173119 0.9972145 -0.0173119 0.0027855 0.0173119
665500000 0.0028435 0.0177614 0.9971565 -0.0177614 0.9971565 -0.0177614 0.0028435 0.0177614
672750000 0.0029034 0.0182094 0.9970966 -0.0182094 0.9970966 -0.0182094 0.0029034 0.0182094
680000000 0.0029652 0.0186558 0.9970348 -0.0186558 0.9970348 -0.0186558 0.0029652 0.0186558
687250000 0.0030290 0.0191009 0.9969710 -0.0191009 0.9969710 -0.0191009 0.0030290 0.0191009
694500000 0.0030951 0.0195447 0.9969049 -0.0195447 0.9969049 -0.0195447 0.0030951 0.0195447
701750000 0.0031634 0.0199873 0.9968366 -0.0199873 0.9968366 -0.0199873 0.0031634 0.0199873
709000000 0.0032342 0.0204287 0.9967658 -0.0204287 0.9967658 -0.0204287 0.0032342 0.0204287
716250000 0.0033078 0.0208692 0.9966922 -0.0208692 0.9966922 -0.0208692 0.0033078 0.0208692
723500000 0.0033842 0.0213086 0.9966158 -0.0213086 0.9966158 -0.0213086 0.0033842 0.0213086
730750000 0.0034638 0.0217471 0.9965362 -0.0217471 0.9965362 -0.0217471 0.0034638 0.0217471
738000000 0.0035467 0.0221848 0.9964533 -0.0221848 0.9964533 -0.0221848 0.0035467 0.0221848
745250000 0.0036334 0.0226215 0.9963666 -0.0226215 0.9963666 -0.0226215 0.0036334 0.0226215
752500000 0.0037241 0.0230572 0.9962759 -0.0230572 0.9962759 -0.0230572 0.0037241 0.0230572
759750000 0.0038192 0.0234919 0.9961808 -0.0234919 0.9961808 -0.0234919 0.0038192 0.0234919
767000000 0.0039191 0.0239255 0.9960809 -0.0239255 0.9960809 -0.0239255 0.0039191 0.0239255
774250000 0.0040243 0.0243577 0.9959757 -0.0243577 0.9959757 -0.0243577 0.0040243 0.0243577
781500000 0.0041352 0.0247882 0.9958648 -0.0247882 0.9958648 -0.0247882 0.0041352 0.0247882
788750000 0.0042523 0.0252167 0.9957477 -0.0252167 0.9957477 -0.0252167 0.0042523 0.0252167
796000000 0.0043763 0.0256427 0.9956237 -0.0256427 0.9956237 -0.0256427 0.0043763 0.0256427
803250000 0.0045076 0.0260655 0.9954924 -0.0260655 0.9954924 -0.0260655 0.0045076 0.0260655
810500000 0.0046468 0.0264841 0.9953532 -0.0264841 0.9953532 -0.0264841 0.0046468 0.0264841
817750000 0.0047944 0.0268976 0.9952056 -0.0268976 0.9952056 -0.0268976 0.0047944 0.0268976
825000000 0.0049508 0.0273045 0.9950492 -0.0273045 0.9950492 -0.0273045 0.0049508 0.0273045
832250000 0.0051161 0.0277033 0.9948839 -0.0277033 0.9948839 -0.0277033 0.0051161 0.0277033
839500000 0.0052902 0.0280919 0.9947098 -0.0280919 0.9947098 -0.0280919 0.0052902 0.0280919
846750000 0.0054725 0.0284682 0.9945275 -0.0284682 0.9945275 -0.0284682 0.0054725 0.0284682
854000000 0.0056620 0.0288297 0.9943380 -0.0288297 0.9943380 -0.0288297 0.0056620 0.0288297
861250000 0.0058566 0.0291739 0.9941434 -0.0291739 0.9941434 -0.0291739 0.0058566 0.0291739
868500000 0.0060535 0.0294986 0.9939465 -0.0294986 0.9939465 -0.0294986 0.0060535 0.0294986
875750000 0.0062489 0.0298020 0.9937511 -0.0298020 0.9937511 -0.0298020 0.0062489 0.0298020
883000000 0.0064382 0.0300831 0.9935618 -0.0300831 0.9935618 -0.0300831 0.0064382 0.0300831
890250000 0.0066159 0.0303427 0.9933841 -0.0303427 0.9933841 -0.0303427 0.0066159 0.0303427
897500000 0.0067765 0.0305829 0.9932235 -0.0305829 0.9932235 -0.0305829 0.0067765 0.0305829
904750000 0.0069152 0.0308078 0.9930848 -0.0308078 0.9930848 -0.0308078 0.0069152 0.0308078
912000000 0.0070282 0.0310233 0.9929718 -0.0310233 0.9929718 -0.0310233 0.0070282 0.0310233
919250000 0.0071138 0.0312361 0.9928862 -0.0312361 0.9928862 -0.0312361 0.0071138 0.0312361
926500000 0.0071726 0.0314534 0.9928274 -0.0314534 0.9928274 -0.0314534 0.0071726 0.0314534
933750000 0.0072073 0.0316816 0.9927927 -0.0316816 0.9927927 -0.0316816 0.0072073 0.0316816
941000000 0.0072222 0.0319258 0.9927778 -0.0319258 0.9927778 -0.0319258 0.0072222 0.0319258
948250000 0.0072227 0.0321893 0.9927773 -0.0321893 0.9927773 -0.0321893 0.0072227 0.0321893
955500000 0.0072143 0.0324736 0.9927857 -0.0324736 0.9927857 -0.0324736 0.0072143 0.0324736
962750000 0.0072021 0.0327788 0.9927979 -0.0327788 0.9927979 -0.0327788 0.0072021 0.0327788
970000000 0.0071907 0.0331035 0.9928093 -0.0331035 0.9928093 -0.0331035 0.0071907 0.0331035
977250000 0.0071834 0.0334459 0.9928166 -0.0334459 0.9928166 -0.0334459 0.0071834 0.0334459
984500000 0.0071830 0.0338036 0.9928170 -0.0338036 0.9928170 -0.0338036 0.0071830 0.0338036
991750000 0.0071911 0.0341742 0.9928089 -0.0341742 0.9928089 -0.0341742 0.0071911 0.0341742
999000000 0.0072090 0.0345553 0.9927910 -0.0345553 0.9927910 -0.0345553 0.0072090 0.0345553
1006250000 0.0072371 0.0349450 0.9927629 -0.0349450 0.9927629 -0.0349450 0.0072371 0.0349450
1013500000 0.0072757 0.0353413 0.9927243 -0.0353413 0.9927243 -0.0353413 0.0072757 0.0353413
1020750000 0.0073248 0.0357427 0.9926752 -0.0357427 0.9926752 -0.0357427 0.0073248 0.0357427
1028000000 0.0073842 0.0361479 0.9926158 -0.0361479 0.9926158 -0.0361479 0.0073842 0.0361479
1035250000 0.0074538 0.0365559 0.9925462 -0.0365559 0.9925462 -0.0365559 0.0074538 0.0365559
1042500000 0.0075331 0.0369656 0.9924669 -0.0369656 0.9924669 -0.0369656 0.0075331 0.0369656
1049750000 0.0076219 0.0373764 0.9923781 -0.0373764 0.9923781 -0.0373764 0.0076219 0.0373764
1057000000 0.0077200 0.0377877 0.9922800 -0.0377877 0.9922800 -0.0377877 0.0077200 0.0377877
1064250000 0.0078270 0.0381989 0.9921730 -0.0381989 0.9921730 -0.0381989 0.0078270 0.0381989
1071500000 0.0079429 0.0386096 0.9920571 -0.0386096 0.9920571 -0.0386096 0.0079429 0.0386096
1078750000 0.0080674 0.0390195 0.9919326 -0.0390195 0.9919326 -0.0390195 0.0080674 0.0390195
1086000000 0.0082005 0.0394282 0.9917995 -0.0394282 0.9917995 -0.0394282 0.0082005 0.0394282
1093250000 0.0083420 0.0398353 0.9916580 -0.0398353 0.9916580 -0.0398353 0.0083420 0.0398353
1100500000 0.0084920 0.0402406 0.9915080 -0.0402406 0.9915080 -0.0402406 0.0084920 0.0402406
1107750000 0.0086504 0.0406437 0.9913496 -0.0406437 0.9913496 -0.0406437 0.0086504 0.0406437
1115000000 0.0088173 0.0410443 0.9911827 -0.0410443 0.9911827 -0.0410443 0.0088173 0.0410443
1122250000 0.0089928 0.0414421 0.9910072 -0.0414421 0.9910072 -0.0414421 0.0089928 0.0414421
1129500000 0.0091769 0.0418367 0.9908231 -0.0418367 0.9908231 -0.0418367 0.0091769 0.0418367
1136750000 0.0093697 0.0422278 0.9906303 -0.0422278 0.9906303 -0.0422278 0.0093697 0.0422278
1144000000 0.0095715 0.0426148 0.9904285 -0.0426148 0.9904285 -0.0426148 0.0095715 0.0426148
1151250000 0.0097822 0.0429973 0.9902178 -0.0429973 0.9902178 -0.0429973 0.0097822 0.0429973
1158500000 0.0100022 0.0433748 0.9899978 -0.0433748 0.9899978 -0.0433748 0.0100022 0.0433748
1165750000 0.0102314 0.0437467 0.9897686 -0.0437467 0.9897686 -0.0437467 0.0102314 0.0437467
1173000000 0.0104699 0.0441123 0.9895301 -0.0441123 0.9895301 -0.0441123 0.0104699 0.0441123
1180250000 0.0107180 0.0444710 0.9892820 -0.0444710 0.9892820 -0.0444710 0.0107180 0.0444710
1187500000 0.0109757 0.0448219 0.9890243 -0.0448219 0.9890243 -0.0448219 0.0109757 0.0448219
1194750000 0.0112429 0.0451643 0.9887571 -0.0451643 0.9887571 -0.0451643 0.0112429 0.0451643
1202000000 0.0115197 0.0454972 0.9884803 -0.0454972 0.9884803 -0.0454972 0.0115197 0.0454972
1209250000 0.0118059 0.0458196 0.9881941 -0.0458196 0.9881941 -0.0458196 0.0118059 0.0458196
1216500000 0.0121013 0.0461304 0.9878987 -0.0461304 0.9878987 -0.0461304 0.0121013 0.0461304
1223750000 0.0124056 0.0464286 0.9875944 -0.0464286 0.9875944 -0.0464286 0.0124056 0.0464286
1231000000 0.0127185 0.0467129 0.9872815 -0.0467129 0.9872815 -0.0467129 0.0127185 0.0467129
1238250000 0.0130393 0.0469820 0.9869607 -0.0469820 0.9869607 -0.0469820 0.0130393 0.0469820
1245500000 0.0133673 0.0472348 0.9866327 -0.0472348 0.9866327 -0.0472348 0.0133673 0.0472348
1252750000 0.0137017 0.0474699 0.9862983 -0.0474699 0.9862983 -0.0474699 0.0137017 0.0474699
1260000000 0.0140412 0.0476859 0.9859588 -0.0476859 0.9859588 -0.0476859 0.0140412 0.0476859
1267250000 0.0143846 0.0478816 0.9856154 -0.0478816 0.9856154 -0.0478816 0.0143846 0.0478816
1274500000 0.0147303 0.0480559 0.9852697 -0.0480559 0.9852697 -0.0480559 0.0147303 0.0480559
1281750000 0.0150766 0.0482076 0.9849234 -0.0482076 0.9849234 -0.0482076 0.0150766 0.0482076
1289000000 0.0154213 0.0483357 0.9845787 -0.0483357 0.9845787 -0.0483357 0.0154213 0.0483357
1296250000 0.0157623 0.0484396 0.9842377 -0.0484396 0.9842377 -0.0484396 0.0157623 0.0484396
1303500000 0.0160970 0.0485187 0.9839030 -0.0485187 0.9839030 -0.0485187 0.0160970 0.0485187
1310750000 0.0164228 0.0485727 0.9835772 -0.0485727 0.9835772 -0.0485727 0.0164228 0.0485727
1318000000 0.0167369 0.0486019 0.9832631 -0.0486019 0.9832631 -0.0486019 0.0167369 0.0486019
1325250000 0.0170362 0.0486068 0.9829638 -0.0486068 0.9829638 -0.0486068 0.0170362 0.0486068
1332500000 0.0173180 0.0485884 0.9826820 -0.0485884 0.9826820 -0.0485884 0.0173180 0.0485884
1339750000 0.0175792 0.0485480 0.9824208 -0.0485480 0.9824208 -0.0485480 0.0175792 0.0485480
1347000000 0.0178171 0.0484876 0.9821829 -0.0484876 0.9821829 -0.0484876 0.0178171 0.0484876
1354250000 0.0180291 0.0484095 0.9819709 -0.0484095 0.9819709 -0.0484095 0.0180291 0.0484095
1361500000 0.0182130 0.0483165 0.9817870 -0.0483165 0.9817870 -0.0483165 0.0182130 0.0483165
1368750000 0.0183669 0.0482116 0.9816331 -0.0482116 0.9816331 -0.0482116 0.0183669 0.0482116
1376000000 0.0184894 0.0480983 0.9815106 -0.0480983 0.9815106 -0.0480983 0.0184894 0.0480983
1383250000 0.0185796 0.0479803 0.9814204 -0.0479803 0.9814204 -0.0479803 0.0185796 0.0479803
1390500000 0.0186373 0.0478611 0.9813627 -0.0478611 0.9813627 -0.0478611 0.0186373 0.0478611
1397750000 0.0186625 0.0477446 0.9813375 -0.0477446 0.9813375 -0.0477446 0.0186625 0.0477446
1405000000 0.0186560 0.0476344 0.9813440 -0.0476344 0.9813440 -0.0476344 0.0186560 0.0476344
1412250000 0.0186193 0.0475339 0.9813807 -0.0475339 0.9813807 -0.0475339 0.0186193 0.0475339
1419500000 0.0185539 0.0474463 0.9814461 -0.0474463 0.9814461 -0.0474463 0.0185539 0.0474463
1426750000 0.0184621 0.0473743 0.9815379 -0.0473743 0.9815379 -0.0473743 0.0184621 0.0473743
1434000000 0.0183462 0.0473204 0.9816538 -0.0473204 0.9816538 -0.0473204 0.0183462 0.0473204
1441250000 0.0182090 0.0472864 0.9817910 -0.0472864 0.9817910 -0.0472864 0.0182090 0.0472864
1448500000 0.0180533 0.0472739 0.9819467 -0.0472739 0.9819467 -0.0472739 0.0180533 0.0472739
1455750000 0.0178820 0.0472840 0.9821180 -0.0472840 0.9821180 -0.0472840 0.0178820 0.0472840
1463000000 0.0176978 0.0473172 0.9823022 -0.0473172 0.9823022 -0.0473172 0.0176978 0.0473172
1470250000 0.0175035 0.0473738 0.9824965 -0.0473738 0.9824965 -0.0473738 0.0175035 0.0473738
1477500000 0.0173017 0.0474536 0.9826983 -0.0474536 0.9826983 -0.0474536 0.0173017 0.0474536
1484750000 0.0170950 0.0475563 0.9829050 -0.0475563 0.9829050 -0.0475563 0.0170950 0.0475563
1492000000 0.0168854 0.0476812 0.9831146 -0.0476812 0.9831146 -0.0476812 0.0168854 0.0476812
1499250000 0.0166751 0.0478274 0.9833249 -0.0478274 0.9833249 -0.0478274 0.0166751 0.0478274
1506500000 0.0164658 0.0479940 0.9835342 -0.0479940 0.9835342 -0.0479940 0.0164658 0.0479940
1513750000 0.0162589 0.0481797 0.9837411 -0.0481797 0.9837411 -0.0481797 0.0162589 0.0481797
1521000000 0.0160560 0.0483833 0.9839440 -0.0483833 0.9839440 -0.0483833 0.0160560 0.0483833
1528250000 0.0158580 0.0486037 0.9841420 -0.0486037 0.9841420 -0.0486037 0.0158580 0.0486037
1535500000 0.0156659 0.0488396 0.9843341 -0.0488396 0.9843341 -0.0488396 0.0156659 0.0488396
1542750000 0.0154804 0.0490897 0.9845196 -0.0490897 0.9845196 -0.0490897 0.0154804 0.0490897
1550000000 0.0153021 0.0493529 0.9846979 -0.0493529 0.9846979 -0.0493529 0.0153021 0.0493529
1557250000 0.0151314 0.0496279 0.9848686 -0.0496279 0.9848686 -0.0496279 0.0151314 0.0496279
1564500000 0.0149686 0.0499137 0.9850314 -0.0499137 0.9850314 -0.0499137 0.0149686 0.0499137
1571750000 0.0148140 0.0502092 0.9851860 -0.0502092 0.9851860 -0.0502092 0.0148140 0.0502092
1579000000 0.0146675 0.0505134 0.9853325 -0.0505134 0.9853325 -0.0505134 0.0146675 0.0505134
1586250000 0.0145293 0.0508254 0.9854707 -0.0508254 0.9854707 -0.0508254 0.0145293 0.0508254
1593500000 0.0143992 0.0511444 0.9856008 -0.0511444 0.9856008 -0.0511444 0.0143992 0.0511444
1600750000 0.0142773 0.0514696 0.9857227 -0.0514696 0.9857227 -0.0514696 0.0142773 0.0514696
1608000000 0.0141633 0.0518002 0.9858367 -0.0518002 0.9858367 -0.0518002 0.0141633 0.0518002
1615250000 0.0140571 0.0521356 0.9859429 -0.0521356 0.9859429 -0.0521356 0.0140571 0.0521356
1622500000 0.0139585 0.0524752 0.9860415 -0.0524752 0.9860415 -0.0524752 0.0139585 0.0524752
1629750000 0.0138673 0.0528185 0.9861327 -0.0528185 0.9861327 -0.0528185 0.0138673 0.0528185
