!Murata Part Number: GRM21A7U2E181JW31
!These Parameters are Measured in Series Mode Connection
!Data Generated on Mar 30, 2021
!       o--ll--o
!Port1            Port2
!       o------o
!Operation Temp=25[degC], DC Bias Voltage=0[V]
!Freq. Start=100[MHz] Stop=3[GHz] 401[Steps]
# Hz S RI R 50
!Freq.(Hz) S11(Real) S11(Imag) S21(Real) S21(Imag) S12(Real) S12(Imag) S22(Real) S22(Imag)
100000000 0.0081826 -0.0832169 0.9918174 0.0832169 0.9918174 0.0832169 0.0081826 -0.0832169
107250000 0.0071845 -0.0770557 0.9928155 0.0770557 0.9928155 0.0770557 0.0071845 -0.0770557
114500000 0.0063699 -0.0716202 0.9936301 0.0716202 0.9936301 0.0716202 0.0063699 -0.0716202
121750000 0.0056971 -0.0667835 0.9943029 0.0667835 0.9943029 0.0667835 0.0056971 -0.0667835
129000000 0.0051354 -0.0624469 0.9948646 0.0624469 0.9948646 0.0624469 0.0051354 -0.0624469
136250000 0.0046621 -0.0585320 0.9953379 0.0585320 0.9953379 0.0585320 0.0046621 -0.0585320
143500000 0.0042600 -0.0549759 0.9957400 0.0549759 0.9957400 0.0549759 0.0042600 -0.0549759
150750000 0.0039158 -0.0517277 0.9960842 0.0517277 0.9960842 0.0517277 0.0039158 -0.0517277
158000000 0.0036194 -0.0487455 0.9963806 0.0487455 0.9963806 0.0487455 0.0036194 -0.0487455
165250000 0.0033627 -0.0459947 0.9966373 0.0459947 0.9966373 0.0459947 0.0033627 -0.0459947
172500000 0.0031392 -0.0434464 0.9968608 0.0434464 0.9968608 0.0434464 0.0031392 -0.0434464
179750000 0.0029438 -0.0410765 0.9970562 0.0410765 0.9970562 0.0410765 0.0029438 -0.0410765
187000000 0.0027722 -0.0388644 0.9972278 0.0388644 0.9972278 0.0388644 0.0027722 -0.0388644
194250000 0.0026212 -0.0367924 0.9973788 0.0367924 0.9973788 0.0367924 0.0026212 -0.0367924
201500000 0.0024878 -0.0348457 0.9975122 0.0348457 0.9975122 0.0348457 0.0024878 -0.0348457
208750000 0.0023697 -0.0330113 0.9976303 0.0330113 0.9976303 0.0330113 0.0023697 -0.0330113
216000000 0.0022650 -0.0312778 0.9977350 0.0312778 0.9977350 0.0312778 0.0022650 -0.0312778
223250000 0.0021720 -0.0296357 0.9978280 0.0296357 0.9978280 0.0296357 0.0021720 -0.0296357
230500000 0.0020893 -0.0280762 0.9979107 0.0280762 0.9979107 0.0280762 0.0020893 -0.0280762
237750000 0.0020157 -0.0265918 0.9979843 0.0265918 0.9979843 0.0265918 0.0020157 -0.0265918
245000000 0.0019503 -0.0251760 0.9980497 0.0251760 0.9980497 0.0251760 0.0019503 -0.0251760
252250000 0.0018921 -0.0238228 0.9981079 0.0238228 0.9981079 0.0238228 0.0018921 -0.0238228
259500000 0.0018405 -0.0225269 0.9981595 0.0225269 0.9981595 0.0225269 0.0018405 -0.0225269
266750000 0.0017947 -0.0212838 0.9982053 0.0212838 0.9982053 0.0212838 0.0017947 -0.0212838
274000000 0.0017543 -0.0200893 0.9982457 0.0200893 0.9982457 0.0200893 0.0017543 -0.0200893
281250000 0.0017186 -0.0189396 0.9982814 0.0189396 0.9982814 0.0189396 0.0017186 -0.0189396
288500000 0.0016873 -0.0178312 0.9983127 0.0178312 0.9983127 0.0178312 0.0016873 -0.0178312
295750000 0.0016601 -0.0167613 0.9983399 0.0167613 0.9983399 0.0167613 0.0016601 -0.0167613
303000000 0.0016365 -0.0157270 0.9983635 0.0157270 0.9983635 0.0157270 0.0016365 -0.0157270
310250000 0.0016163 -0.0147258 0.9983837 0.0147258 0.9983837 0.0147258 0.0016163 -0.0147258
317500000 0.0015992 -0.0137555 0.9984008 0.0137555 0.9984008 0.0137555 0.0015992 -0.0137555
324750000 0.0015850 -0.0128140 0.9984150 0.0128140 0.9984150 0.0128140 0.0015850 -0.0128140
332000000 0.0015734 -0.0118994 0.9984266 0.0118994 0.9984266 0.0118994 0.0015734 -0.0118994
339250000 0.0015643 -0.0110099 0.9984357 0.0110099 0.9984357 0.0110099 0.0015643 -0.0110099
346500000 0.0015576 -0.0101440 0.9984424 0.0101440 0.9984424 0.0101440 0.0015576 -0.0101440
353750000 0.0015531 -0.0093003 0.9984469 0.0093003 0.9984469 0.0093003 0.0015531 -0.0093003
361000000 0.0015505 -0.0084773 0.9984495 0.0084773 0.9984495 0.0084773 0.0015505 -0.0084773
368250000 0.0015499 -0.0076739 0.9984501 0.0076739 0.9984501 0.0076739 0.0015499 -0.0076739
375500000 0.0015511 -0.0068889 0.9984489 0.0068889 0.9984489 0.0068889 0.0015511 -0.0068889
382750000 0.0015541 -0.0061213 0.9984459 0.0061213 0.9984459 0.0061213 0.0015541 -0.0061213
390000000 0.0015586 -0.0053701 0.9984414 0.0053701 0.9984414 0.0053701 0.0015586 -0.0053701
397250000 0.0015647 -0.0046343 0.9984353 0.0046343 0.9984353 0.0046343 0.0015647 -0.0046343
404500000 0.0015723 -0.0039132 0.9984277 0.0039132 0.9984277 0.0039132 0.0015723 -0.0039132
411750000 0.0015812 -0.0032059 0.9984188 0.0032059 0.9984188 0.0032059 0.0015812 -0.0032059
419000000 0.0015915 -0.0025117 0.9984085 0.0025117 0.9984085 0.0025117 0.0015915 -0.0025117
426250000 0.0016031 -0.0018300 0.9983969 0.0018300 0.9983969 0.0018300 0.0016031 -0.0018300
433500000 0.0016159 -0.0011601 0.9983841 0.0011601 0.9983841 0.0011601 0.0016159 -0.0011601
440750000 0.0016299 -0.0005014 0.9983701 0.0005014 0.9983701 0.0005014 0.0016299 -0.0005014
448000000 0.0016451 0.0001467 0.9983549 -0.0001467 0.9983549 -0.0001467 0.0016451 0.0001467
455250000 0.0016614 0.0007846 0.9983386 -0.0007846 0.9983386 -0.0007846 0.0016614 0.0007846
462500000 0.0016787 0.0014128 0.9983213 -0.0014128 0.9983213 -0.0014128 0.0016787 0.0014128
469750000 0.0016971 0.0020319 0.9983029 -0.0020319 0.9983029 -0.0020319 0.0016971 0.0020319
477000000 0.0017165 0.0026422 0.9982835 -0.0026422 0.9982835 -0.0026422 0.0017165 0.0026422
484250000 0.0017369 0.0032442 0.9982631 -0.0032442 0.9982631 -0.0032442 0.0017369 0.0032442
491500000 0.0017582 0.0038382 0.9982418 -0.0038382 0.9982418 -0.0038382 0.0017582 0.0038382
498750000 0.0017805 0.0044245 0.9982195 -0.0044245 0.9982195 -0.0044245 0.0017805 0.0044245
506000000 0.0018037 0.0050037 0.9981963 -0.0050037 0.9981963 -0.0050037 0.0018037 0.0050037
513250000 0.0018278 0.0055758 0.9981722 -0.0055758 0.9981722 -0.0055758 0.0018278 0.0055758
520500000 0.0018528 0.0061414 0.9981472 -0.0061414 0.9981472 -0.0061414 0.0018528 0.0061414
527750000 0.0018786 0.0067005 0.9981214 -0.0067005 0.9981214 -0.0067005 0.0018786 0.0067005
535000000 0.0019053 0.0072536 0.9980947 -0.0072536 0.9980947 -0.0072536 0.0019053 0.0072536
542250000 0.0019329 0.0078009 0.9980671 -0.0078009 0.9980671 -0.0078009 0.0019329 0.0078009
549500000 0.0019613 0.0083426 0.9980387 -0.0083426 0.9980387 -0.0083426 0.0019613 0.0083426
556750000 0.0019905 0.0088790 0.9980095 -0.0088790 0.9980095 -0.0088790 0.0019905 0.0088790
564000000 0.0020205 0.0094103 0.9979795 -0.0094103 0.9979795 -0.0094103 0.0020205 0.0094103
571250000 0.0020513 0.0099367 0.9979487 -0.0099367 0.9979487 -0.0099367 0.0020513 0.0099367
578500000 0.0020830 0.0104583 0.9979170 -0.0104583 0.9979170 -0.0104583 0.0020830 0.0104583
585750000 0.0021154 0.0109755 0.9978846 -0.0109755 0.9978846 -0.0109755 0.0021154 0.0109755
593000000 0.0021487 0.0114883 0.9978513 -0.0114883 0.9978513 -0.0114883 0.0021487 0.0114883
600250000 0.0021827 0.0119970 0.9978173 -0.0119970 0.9978173 -0.0119970 0.0021827 0.0119970
607500000 0.0022175 0.0125018 0.9977825 -0.0125018 0.9977825 -0.0125018 0.0022175 0.0125018
614750000 0.0022531 0.0130027 0.9977469 -0.0130027 0.9977469 -0.0130027 0.0022531 0.0130027
622000000 0.0022895 0.0134999 0.9977105 -0.0134999 0.9977105 -0.0134999 0.0022895 0.0134999
629250000 0.0023268 0.0139937 0.9976732 -0.0139937 0.9976732 -0.0139937 0.0023268 0.0139937
636500000 0.0023648 0.0144840 0.9976352 -0.0144840 0.9976352 -0.0144840 0.0023648 0.0144840
643750000 0.0024036 0.0149712 0.9975964 -0.0149712 0.9975964 -0.0149712 0.0024036 0.0149712
651000000 0.0024432 0.0154552 0.9975568 -0.0154552 0.9975568 -0.0154552 0.0024432 0.0154552
658250000 0.0024836 0.0159363 0.9975164 -0.0159363 0.9975164 -0.0159363 0.0024836 0.0159363
665500000 0.0025249 0.0164145 0.9974751 -0.0164145 0.9974751 -0.0164145 0.0025249 0.0164145
672750000 0.0025670 0.0168901 0.9974330 -0.0168901 0.9974330 -0.0168901 0.0025670 0.0168901
680000000 0.0026100 0.0173630 0.9973900 -0.0173630 0.9973900 -0.0173630 0.0026100 0.0173630
687250000 0.0026538 0.0178334 0.9973462 -0.0178334 0.9973462 -0.0178334 0.0026538 0.0178334
694500000 0.0026985 0.0183014 0.9973015 -0.0183014 0.9973015 -0.0183014 0.0026985 0.0183014
701750000 0.0027440 0.0187671 0.9972560 -0.0187671 0.9972560 -0.0187671 0.0027440 0.0187671
709000000 0.0027905 0.0192307 0.9972095 -0.0192307 0.9972095 -0.0192307 0.0027905 0.0192307
716250000 0.0028379 0.0196921 0.9971621 -0.0196921 0.9971621 -0.0196921 0.0028379 0.0196921
723500000 0.0028863 0.0201516 0.9971137 -0.0201516 0.9971137 -0.0201516 0.0028863 0.0201516
730750000 0.0029356 0.0206092 0.9970644 -0.0206092 0.9970644 -0.0206092 0.0029356 0.0206092
738000000 0.0029860 0.0210650 0.9970140 -0.0210650 0.9970140 -0.0210650 0.0029860 0.0210650
745250000 0.0030373 0.0215191 0.9969627 -0.0215191 0.9969627 -0.0215191 0.0030373 0.0215191
752500000 0.0030898 0.0219716 0.9969102 -0.0219716 0.9969102 -0.0219716 0.0030898 0.0219716
759750000 0.0031434 0.0224226 0.9968566 -0.0224226 0.9968566 -0.0224226 0.0031434 0.0224226
767000000 0.0031981 0.0228721 0.9968019 -0.0228721 0.9968019 -0.0228721 0.0031981 0.0228721
774250000 0.0032540 0.0233203 0.9967460 -0.0233203 0.9967460 -0.0233203 0.0032540 0.0233203
781500000 0.0033111 0.0237672 0.9966889 -0.0237672 0.9966889 -0.0237672 0.0033111 0.0237672
788750000 0.0033696 0.0242129 0.9966304 -0.0242129 0.9966304 -0.0242129 0.0033696 0.0242129
796000000 0.0034294 0.0246575 0.9965706 -0.0246575 0.9965706 -0.0246575 0.0034294 0.0246575
803250000 0.0034907 0.0251011 0.9965093 -0.0251011 0.9965093 -0.0251011 0.0034907 0.0251011
810500000 0.0035535 0.0255438 0.9964465 -0.0255438 0.9964465 -0.0255438 0.0035535 0.0255438
817750000 0.0036179 0.0259856 0.9963821 -0.0259856 0.9963821 -0.0259856 0.0036179 0.0259856
825000000 0.0036840 0.0264265 0.9963160 -0.0264265 0.9963160 -0.0264265 0.0036840 0.0264265
832250000 0.0037520 0.0268668 0.9962480 -0.0268668 0.9962480 -0.0268668 0.0037520 0.0268668
839500000 0.0038219 0.0273064 0.9961781 -0.0273064 0.9961781 -0.0273064 0.0038219 0.0273064
846750000 0.0038939 0.0277454 0.9961061 -0.0277454 0.9961061 -0.0277454 0.0038939 0.0277454
854000000 0.0039682 0.0281839 0.9960318 -0.0281839 0.9960318 -0.0281839 0.0039682 0.0281839
861250000 0.0040449 0.0286218 0.9959551 -0.0286218 0.9959551 -0.0286218 0.0040449 0.0286218
868500000 0.0041243 0.0290593 0.9958757 -0.0290593 0.9958757 -0.0290593 0.0041243 0.0290593
875750000 0.0042065 0.0294964 0.9957935 -0.0294964 0.9957935 -0.0294964 0.0042065 0.0294964
883000000 0.0042919 0.0299330 0.9957081 -0.0299330 0.9957081 -0.0299330 0.0042919 0.0299330
890250000 0.0043806 0.0303692 0.9956194 -0.0303692 0.9956194 -0.0303692 0.0043806 0.0303692
897500000 0.0044731 0.0308049 0.9955269 -0.0308049 0.9955269 -0.0308049 0.0044731 0.0308049
904750000 0.0045698 0.0312400 0.9954302 -0.0312400 0.9954302 -0.0312400 0.0045698 0.0312400
912000000 0.0046709 0.0316743 0.9953291 -0.0316743 0.9953291 -0.0316743 0.0046709 0.0316743
919250000 0.0047770 0.0321078 0.9952230 -0.0321078 0.9952230 -0.0321078 0.0047770 0.0321078
926500000 0.0048886 0.0325399 0.9951114 -0.0325399 0.9951114 -0.0325399 0.0048886 0.0325399
933750000 0.0050062 0.0329705 0.9949938 -0.0329705 0.9949938 -0.0329705 0.0050062 0.0329705
941000000 0.0051304 0.0333988 0.9948696 -0.0333988 0.9948696 -0.0333988 0.0051304 0.0333988
948250000 0.0052617 0.0338243 0.9947383 -0.0338243 0.9947383 -0.0338243 0.0052617 0.0338243
955500000 0.0054009 0.0342460 0.9945991 -0.0342460 0.9945991 -0.0342460 0.0054009 0.0342460
962750000 0.0055483 0.0346628 0.9944517 -0.0346628 0.9944517 -0.0346628 0.0055483 0.0346628
970000000 0.0057045 0.0350731 0.9942955 -0.0350731 0.9942955 -0.0350731 0.0057045 0.0350731
977250000 0.0058697 0.0354752 0.9941303 -0.0354752 0.9941303 -0.0354752 0.0058697 0.0354752
984500000 0.0060439 0.0358670 0.9939561 -0.0358670 0.9939561 -0.0358670 0.0060439 0.0358670
991750000 0.0062263 0.0362459 0.9937737 -0.0362459 0.9937737 -0.0362459 0.0062263 0.0362459
999000000 0.0064158 0.0366092 0.9935842 -0.0366092 0.9935842 -0.0366092 0.0064158 0.0366092
1006250000 0.0066101 0.0369540 0.9933899 -0.0369540 0.9933899 -0.0369540 0.0066101 0.0369540
1013500000 0.0068061 0.0372778 0.9931939 -0.0372778 0.9931939 -0.0372778 0.0068061 0.0372778
1020750000 0.0069991 0.0375784 0.9930009 -0.0375784 0.9930009 -0.0375784 0.0069991 0.0375784
1028000000 0.0071838 0.0378552 0.9928162 -0.0378552 0.9928162 -0.0378552 0.0071838 0.0378552
1035250000 0.0073538 0.0381089 0.9926462 -0.0381089 0.9926462 -0.0381089 0.0073538 0.0381089
1042500000 0.0075029 0.0383428 0.9924971 -0.0383428 0.9924971 -0.0383428 0.0075029 0.0383428
1049750000 0.0076255 0.0385620 0.9923745 -0.0385620 0.9923745 -0.0385620 0.0076255 0.0385620
1057000000 0.0077181 0.0387738 0.9922819 -0.0387738 0.9922819 -0.0387738 0.0077181 0.0387738
1064250000 0.0077797 0.0389864 0.9922203 -0.0389864 0.9922203 -0.0389864 0.0077797 0.0389864
1071500000 0.0078121 0.0392077 0.9921879 -0.0392077 0.9921879 -0.0392077 0.0078121 0.0392077
1078750000 0.0078195 0.0394446 0.9921805 -0.0394446 0.9921805 -0.0394446 0.0078195 0.0394446
1086000000 0.0078077 0.0397018 0.9921923 -0.0397018 0.9921923 -0.0397018 0.0078077 0.0397018
1093250000 0.0077830 0.0399818 0.9922170 -0.0399818 0.9922170 -0.0399818 0.0077830 0.0399818
1100500000 0.0077519 0.0402850 0.9922481 -0.0402850 0.9922481 -0.0402850 0.0077519 0.0402850
1107750000 0.0077194 0.0406103 0.9922806 -0.0406103 0.9922806 -0.0406103 0.0077194 0.0406103
1115000000 0.0076900 0.0409553 0.9923100 -0.0409553 0.9923100 -0.0409553 0.0076900 0.0409553
1122250000 0.0076666 0.0413174 0.9923334 -0.0413174 0.9923334 -0.0413174 0.0076666 0.0413174
1129500000 0.0076511 0.0416937 0.9923489 -0.0416937 0.9923489 -0.0416937 0.0076511 0.0416937
1136750000 0.0076449 0.0420814 0.9923551 -0.0420814 0.9923551 -0.0420814 0.0076449 0.0420814
1144000000 0.0076483 0.0424782 0.9923517 -0.0424782 0.9923517 -0.0424782 0.0076483 0.0424782
1151250000 0.0076613 0.0428820 0.9923387 -0.0428820 0.9923387 -0.0428820 0.0076613 0.0428820
1158500000 0.0076839 0.0432910 0.9923161 -0.0432910 0.9923161 -0.0432910 0.0076839 0.0432910
1165750000 0.0077156 0.0437039 0.9922844 -0.0437039 0.9922844 -0.0437039 0.0077156 0.0437039
1173000000 0.0077558 0.0441195 0.9922442 -0.0441195 0.9922442 -0.0441195 0.0077558 0.0441195
1180250000 0.0078041 0.0445369 0.9921959 -0.0445369 0.9921959 -0.0445369 0.0078041 0.0445369
1187500000 0.0078599 0.0449555 0.9921401 -0.0449555 0.9921401 -0.0449555 0.0078599 0.0449555
1194750000 0.0079229 0.0453747 0.9920771 -0.0453747 0.9920771 -0.0453747 0.0079229 0.0453747
1202000000 0.0079924 0.0457941 0.9920076 -0.0457941 0.9920076 -0.0457941 0.0079924 0.0457941
1209250000 0.0080681 0.0462135 0.9919319 -0.0462135 0.9919319 -0.0462135 0.0080681 0.0462135
1216500000 0.0081497 0.0466324 0.9918503 -0.0466324 0.9918503 -0.0466324 0.0081497 0.0466324
1223750000 0.0082368 0.0470509 0.9917632 -0.0470509 0.9917632 -0.0470509 0.0082368 0.0470509
1231000000 0.0083292 0.0474687 0.9916708 -0.0474687 0.9916708 -0.0474687 0.0083292 0.0474687
1238250000 0.0084267 0.0478858 0.9915733 -0.0478858 0.9915733 -0.0478858 0.0084267 0.0478858
1245500000 0.0085290 0.0483021 0.9914710 -0.0483021 0.9914710 -0.0483021 0.0085290 0.0483021
1252750000 0.0086361 0.0487175 0.9913639 -0.0487175 0.9913639 -0.0487175 0.0086361 0.0487175
1260000000 0.0087478 0.0491319 0.9912522 -0.0491319 0.9912522 -0.0491319 0.0087478 0.0491319
1267250000 0.0088640 0.0495454 0.9911360 -0.0495454 0.9911360 -0.0495454 0.0088640 0.0495454
1274500000 0.0089847 0.0499578 0.9910153 -0.0499578 0.9910153 -0.0499578 0.0089847 0.0499578
1281750000 0.0091098 0.0503692 0.9908902 -0.0503692 0.9908902 -0.0503692 0.0091098 0.0503692
1289000000 0.0092394 0.0507795 0.9907606 -0.0507795 0.9907606 -0.0507795 0.0092394 0.0507795
1296250000 0.0093733 0.0511887 0.9906267 -0.0511887 0.9906267 -0.0511887 0.0093733 0.0511887
1303500000 0.0095117 0.0515967 0.9904883 -0.0515967 0.9904883 -0.0515967 0.0095117 0.0515967
1310750000 0.0096545 0.0520034 0.9903455 -0.0520034 0.9903455 -0.0520034 0.0096545 0.0520034
1318000000 0.0098018 0.0524087 0.9901982 -0.0524087 0.9901982 -0.0524087 0.0098018 0.0524087
1325250000 0.0099538 0.0528127 0.9900462 -0.0528127 0.9900462 -0.0528127 0.0099538 0.0528127
1332500000 0.0101103 0.0532151 0.9898897 -0.0532151 0.9898897 -0.0532151 0.0101103 0.0532151
1339750000 0.0102716 0.0536159 0.9897284 -0.0536159 0.9897284 -0.0536159 0.0102716 0.0536159
1347000000 0.0104377 0.0540150 0.9895623 -0.0540150 0.9895623 -0.0540150 0.0104377 0.0540150
1354250000 0.0106087 0.0544122 0.9893913 -0.0544122 0.9893913 -0.0544122 0.0106087 0.0544122
1361500000 0.0107847 0.0548073 0.9892153 -0.0548073 0.9892153 -0.0548073 0.0107847 0.0548073
1368750000 0.0109658 0.0552002 0.9890342 -0.0552002 0.9890342 -0.0552002 0.0109658 0.0552002
1376000000 0.0111522 0.0555907 0.9888478 -0.0555907 0.9888478 -0.0555907 0.0111522 0.0555907
1383250000 0.0113439 0.0559786 0.9886561 -0.0559786 0.9886561 -0.0559786 0.0113439 0.0559786
1390500000 0.0115411 0.0563636 0.9884589 -0.0563636 0.9884589 -0.0563636 0.0115411 0.0563636
1397750000 0.0117438 0.0567455 0.9882562 -0.0567455 0.9882562 -0.0567455 0.0117438 0.0567455
1405000000 0.0119522 0.0571239 0.9880478 -0.0571239 0.9880478 -0.0571239 0.0119522 0.0571239
1412250000 0.0121664 0.0574985 0.9878336 -0.0574985 0.9878336 -0.0574985 0.0121664 0.0574985
1419500000 0.0123864 0.0578691 0.9876136 -0.0578691 0.9876136 -0.0578691 0.0123864 0.0578691
1426750000 0.0126123 0.0582351 0.9873877 -0.0582351 0.9873877 -0.0582351 0.0126123 0.0582351
1434000000 0.0128442 0.0585962 0.9871558 -0.0585962 0.9871558 -0.0585962 0.0128442 0.0585962
1441250000 0.0130822 0.0589520 0.9869178 -0.0589520 0.9869178 -0.0589520 0.0130822 0.0589520
1448500000 0.0133261 0.0593019 0.9866739 -0.0593019 0.9866739 -0.0593019 0.0133261 0.0593019
1455750000 0.0135761 0.0596455 0.9864239 -0.0596455 0.9864239 -0.0596455 0.0135761 0.0596455
1463000000 0.0138320 0.0599822 0.9861680 -0.0599822 0.9861680 -0.0599822 0.0138320 0.0599822
1470250000 0.0140937 0.0603114 0.9859063 -0.0603114 0.9859063 -0.0603114 0.0140937 0.0603114
1477500000 0.0143611 0.0606325 0.9856389 -0.0606325 0.9856389 -0.0606325 0.0143611 0.0606325
1484750000 0.0146340 0.0609449 0.9853660 -0.0609449 0.9853660 -0.0609449 0.0146340 0.0609449
1492000000 0.0149121 0.0612478 0.9850879 -0.0612478 0.9850879 -0.0612478 0.0149121 0.0612478
1499250000 0.0151951 0.0615407 0.9848049 -0.0615407 0.9848049 -0.0615407 0.0151951 0.0615407
1506500000 0.0154825 0.0618228 0.9845175 -0.0618228 0.9845175 -0.0618228 0.0154825 0.0618228
1513750000 0.0157739 0.0620934 0.9842261 -0.0620934 0.9842261 -0.0620934 0.0157739 0.0620934
1521000000 0.0160687 0.0623518 0.9839313 -0.0623518 0.9839313 -0.0623518 0.0160687 0.0623518
1528250000 0.0163661 0.0625972 0.9836339 -0.0625972 0.9836339 -0.0625972 0.0163661 0.0625972
1535500000 0.0166653 0.0628291 0.9833347 -0.0628291 0.9833347 -0.0628291 0.0166653 0.0628291
1542750000 0.0169655 0.0630468 0.9830345 -0.0630468 0.9830345 -0.0630468 0.0169655 0.0630468
1550000000 0.0172657 0.0632497 0.9827343 -0.0632497 0.9827343 -0.0632497 0.0172657 0.0632497
1557250000 0.0175646 0.0634373 0.9824354 -0.0634373 0.9824354 -0.0634373 0.0175646 0.0634373
1564500000 0.0178611 0.0636092 0.9821389 -0.0636092 0.9821389 -0.0636092 0.0178611 0.0636092
1571750000 0.0181539 0.0637651 0.9818461 -0.0637651 0.9818461 -0.0637651 0.0181539 0.0637651
1579000000 0.0184414 0.0639048 0.9815586 -0.0639048 0.9815586 -0.0639048 0.0184414 0.0639048
1586250000 0.0187222 0.0640283 0.9812778 -0.0640283 0.9812778 -0.0640283 0.0187222 0.0640283
1593500000 0.0189946 0.0641358 0.9810054 -0.0641358 0.9810054 -0.0641358 0.0189946 0.0641358
1600750000 0.0192572 0.0642276 0.9807428 -0.0642276 0.9807428 -0.0642276 0.0192572 0.0642276
1608000000 0.0195083 0.0643043 0.9804917 -0.0643043 0.9804917 -0.0643043 0.0195083 0.0643043
1615250000 0.0197461 0.0643666 0.9802539 -0.0643666 0.9802539 -0.0643666 0.0197461 0.0643666
1622500000 0.0199693 0.0644154 0.9800307 -0.0644154 0.9800307 -0.0644154 0.0199693 0.0644154
1629750000 0.0201763 0.0644520 0.9798237 -0.0644520 0.9798237 -0.0644520 0.0201763 0.0644520
