!Murata Part Number: GRM2193U1H223JA01
!These Parameters are Measured in Series Mode Connection
!Data Generated on Mar 30, 2021
!       o--ll--o
!Port1            Port2
!       o------o
!Operation Temp=25[degC], DC Bias Voltage=0[V]
!Freq. Start=1000[kHz] Stop=6[GHz] 401[Steps]
# Hz S RI R 50
!Freq.(Hz) S11(Real) S11(Imag) S21(Real) S21(Imag) S12(Real) S12(Imag) S22(Real) S22(Imag)
1000000 0.0057579 -0.0752650 0.9942421 0.0752650 0.9942421 0.0752650 0.0057579 -0.0752650
1021987 0.0055166 -0.0736617 0.9944834 0.0736617 0.9944834 0.0736617 0.0055166 -0.0736617
1044457 0.0052854 -0.0720917 0.9947146 0.0720917 0.9947146 0.0720917 0.0052854 -0.0720917
1067422 0.0050641 -0.0705544 0.9949359 0.0705544 0.9949359 0.0705544 0.0050641 -0.0705544
1090891 0.0048520 -0.0690491 0.9951480 0.0690491 0.9951480 0.0690491 0.0048520 -0.0690491
1114877 0.0046490 -0.0675752 0.9953510 0.0675752 0.9953510 0.0675752 0.0046490 -0.0675752
1139390 0.0044545 -0.0661322 0.9955455 0.0661322 0.9955455 0.0661322 0.0044545 -0.0661322
1164441 0.0042682 -0.0647194 0.9957318 0.0647194 0.9957318 0.0647194 0.0042682 -0.0647194
1190044 0.0040898 -0.0633361 0.9959102 0.0633361 0.9959102 0.0633361 0.0040898 -0.0633361
1216210 0.0039189 -0.0619818 0.9960811 0.0619818 0.9960811 0.0619818 0.0039189 -0.0619818
1242950 0.0037553 -0.0606560 0.9962447 0.0606560 0.9962447 0.0606560 0.0037553 -0.0606560
1270279 0.0035986 -0.0593580 0.9964014 0.0593580 0.9964014 0.0593580 0.0035986 -0.0593580
1298209 0.0034486 -0.0580874 0.9965514 0.0580874 0.9965514 0.0580874 0.0034486 -0.0580874
1326753 0.0033049 -0.0568434 0.9966951 0.0568434 0.9966951 0.0568434 0.0033049 -0.0568434
1355924 0.0031673 -0.0556257 0.9968327 0.0556257 0.9968327 0.0556257 0.0031673 -0.0556257
1385737 0.0030356 -0.0544336 0.9969644 0.0544336 0.9969644 0.0544336 0.0030356 -0.0544336
1416205 0.0029094 -0.0532667 0.9970906 0.0532667 0.9970906 0.0532667 0.0029094 -0.0532667
1447343 0.0027886 -0.0521244 0.9972114 0.0521244 0.9972114 0.0521244 0.0027886 -0.0521244
1479166 0.0026729 -0.0510063 0.9973271 0.0510063 0.9973271 0.0510063 0.0026729 -0.0510063
1511688 0.0025621 -0.0499117 0.9974379 0.0499117 0.9974379 0.0499117 0.0025621 -0.0499117
1544926 0.0024561 -0.0488404 0.9975439 0.0488404 0.9975439 0.0488404 0.0024561 -0.0488404
1578894 0.0023545 -0.0477917 0.9976455 0.0477917 0.9976455 0.0477917 0.0023545 -0.0477917
1613609 0.0022573 -0.0467652 0.9977427 0.0467652 0.9977427 0.0467652 0.0022573 -0.0467652
1649087 0.0021642 -0.0457604 0.9978358 0.0457604 0.9978358 0.0457604 0.0021642 -0.0457604
1685346 0.0020751 -0.0447770 0.9979249 0.0447770 0.9979249 0.0447770 0.0020751 -0.0447770
1722402 0.0019897 -0.0438143 0.9980103 0.0438143 0.9980103 0.0438143 0.0019897 -0.0438143
1760272 0.0019080 -0.0428722 0.9980920 0.0428722 0.9980920 0.0428722 0.0019080 -0.0428722
1798975 0.0018298 -0.0419500 0.9981702 0.0419500 0.9981702 0.0419500 0.0018298 -0.0419500
1838529 0.0017549 -0.0410473 0.9982451 0.0410473 0.9982451 0.0410473 0.0017549 -0.0410473
1878953 0.0016832 -0.0401639 0.9983168 0.0401639 0.9983168 0.0401639 0.0016832 -0.0401639
1920266 0.0016146 -0.0392992 0.9983854 0.0392992 0.9983854 0.0392992 0.0016146 -0.0392992
1962487 0.0015488 -0.0384529 0.9984512 0.0384529 0.9984512 0.0384529 0.0015488 -0.0384529
2005636 0.0014859 -0.0376245 0.9985141 0.0376245 0.9985141 0.0376245 0.0014859 -0.0376245
2049734 0.0014257 -0.0368138 0.9985743 0.0368138 0.9985743 0.0368138 0.0014257 -0.0368138
2094801 0.0013680 -0.0360203 0.9986320 0.0360203 0.9986320 0.0360203 0.0013680 -0.0360203
2140860 0.0013128 -0.0352437 0.9986872 0.0352437 0.9986872 0.0352437 0.0013128 -0.0352437
2187931 0.0012600 -0.0344836 0.9987400 0.0344836 0.9987400 0.0344836 0.0012600 -0.0344836
2236037 0.0012094 -0.0337397 0.9987906 0.0337397 0.9987906 0.0337397 0.0012094 -0.0337397
2285201 0.0011610 -0.0330116 0.9988390 0.0330116 0.9988390 0.0330116 0.0011610 -0.0330116
2335446 0.0011146 -0.0322990 0.9988854 0.0322990 0.9988854 0.0322990 0.0011146 -0.0322990
2386795 0.0010703 -0.0316015 0.9989297 0.0316015 0.9989297 0.0316015 0.0010703 -0.0316015
2439274 0.0010278 -0.0309189 0.9989722 0.0309189 0.9989722 0.0309189 0.0010278 -0.0309189
2492906 0.0009871 -0.0302508 0.9990129 0.0302508 0.9990129 0.0302508 0.0009871 -0.0302508
2547717 0.0009482 -0.0295969 0.9990518 0.0295969 0.9990518 0.0295969 0.0009482 -0.0295969
2603734 0.0009109 -0.0289570 0.9990891 0.0289570 0.9990891 0.0289570 0.0009109 -0.0289570
2660982 0.0008753 -0.0283306 0.9991247 0.0283306 0.9991247 0.0283306 0.0008753 -0.0283306
2719490 0.0008411 -0.0277176 0.9991589 0.0277176 0.9991589 0.0277176 0.0008411 -0.0277176
2779283 0.0008085 -0.0271176 0.9991915 0.0271176 0.9991915 0.0271176 0.0008085 -0.0271176
2840391 0.0007772 -0.0265304 0.9992228 0.0265304 0.9992228 0.0265304 0.0007772 -0.0265304
2902843 0.0007473 -0.0259557 0.9992527 0.0259557 0.9992527 0.0259557 0.0007473 -0.0259557
2966668 0.0007186 -0.0253932 0.9992814 0.0253932 0.9992814 0.0253932 0.0007186 -0.0253932
3031896 0.0006912 -0.0248427 0.9993088 0.0248427 0.9993088 0.0248427 0.0006912 -0.0248427
3098558 0.0006649 -0.0243038 0.9993351 0.0243038 0.9993351 0.0243038 0.0006649 -0.0243038
3166686 0.0006398 -0.0237764 0.9993602 0.0237764 0.9993602 0.0237764 0.0006398 -0.0237764
3236312 0.0006157 -0.0232602 0.9993843 0.0232602 0.9993843 0.0232602 0.0006157 -0.0232602
3307469 0.0005927 -0.0227550 0.9994073 0.0227550 0.9994073 0.0227550 0.0005927 -0.0227550
3380190 0.0005707 -0.0222605 0.9994293 0.0222605 0.9994293 0.0222605 0.0005707 -0.0222605
3454511 0.0005496 -0.0217765 0.9994504 0.0217765 0.9994504 0.0217765 0.0005496 -0.0217765
3530465 0.0005294 -0.0213028 0.9994706 0.0213028 0.9994706 0.0213028 0.0005294 -0.0213028
3608090 0.0005101 -0.0208391 0.9994899 0.0208391 0.9994899 0.0208391 0.0005101 -0.0208391
3687421 0.0004916 -0.0203853 0.9995084 0.0203853 0.9995084 0.0203853 0.0004916 -0.0203853
3768496 0.0004739 -0.0199410 0.9995261 0.0199410 0.9995261 0.0199410 0.0004739 -0.0199410
3851354 0.0004570 -0.0195062 0.9995430 0.0195062 0.9995430 0.0195062 0.0004570 -0.0195062
3936034 0.0004408 -0.0190806 0.9995592 0.0190806 0.9995592 0.0190806 0.0004408 -0.0190806
4022575 0.0004253 -0.0186640 0.9995747 0.0186640 0.9995747 0.0186640 0.0004253 -0.0186640
4111020 0.0004104 -0.0182562 0.9995896 0.0182562 0.9995896 0.0182562 0.0004104 -0.0182562
4201409 0.0003962 -0.0178570 0.9996038 0.0178570 0.9996038 0.0178570 0.0003962 -0.0178570
4293785 0.0003826 -0.0174662 0.9996174 0.0174662 0.9996174 0.0174662 0.0003826 -0.0174662
4388193 0.0003696 -0.0170837 0.9996304 0.0170837 0.9996304 0.0170837 0.0003696 -0.0170837
4484676 0.0003572 -0.0167093 0.9996428 0.0167093 0.9996428 0.0167093 0.0003572 -0.0167093
4583281 0.0003453 -0.0163427 0.9996547 0.0163427 0.9996547 0.0163427 0.0003453 -0.0163427
4684054 0.0003339 -0.0159839 0.9996661 0.0159839 0.9996661 0.0159839 0.0003339 -0.0159839
4787042 0.0003230 -0.0156326 0.9996770 0.0156326 0.9996770 0.0156326 0.0003230 -0.0156326
4892295 0.0003126 -0.0152887 0.9996874 0.0152887 0.9996874 0.0152887 0.0003126 -0.0152887
4999862 0.0003026 -0.0149521 0.9996974 0.0149521 0.9996974 0.0149521 0.0003026 -0.0149521
5109794 0.0002931 -0.0146225 0.9997069 0.0146225 0.9997069 0.0146225 0.0002931 -0.0146225
5222143 0.0002839 -0.0142998 0.9997161 0.0142998 0.9997161 0.0142998 0.0002839 -0.0142998
5336962 0.0002752 -0.0139838 0.9997248 0.0139838 0.9997248 0.0139838 0.0002752 -0.0139838
5454306 0.0002669 -0.0136745 0.9997331 0.0136745 0.9997331 0.0136745 0.0002669 -0.0136745
5574230 0.0002589 -0.0133716 0.9997411 0.0133716 0.9997411 0.0133716 0.0002589 -0.0133716
5696791 0.0002512 -0.0130751 0.9997488 0.0130751 0.9997488 0.0130751 0.0002512 -0.0130751
5822046 0.0002439 -0.0127847 0.9997561 0.0127847 0.9997561 0.0127847 0.0002439 -0.0127847
5950055 0.0002370 -0.0125003 0.9997630 0.0125003 0.9997630 0.0125003 0.0002370 -0.0125003
6080879 0.0002303 -0.0122219 0.9997697 0.0122219 0.9997697 0.0122219 0.0002303 -0.0122219
6214580 0.0002239 -0.0119493 0.9997761 0.0119493 0.9997761 0.0119493 0.0002239 -0.0119493
6351220 0.0002178 -0.0116823 0.9997822 0.0116823 0.9997822 0.0116823 0.0002178 -0.0116823
6490864 0.0002120 -0.0114208 0.9997880 0.0114208 0.9997880 0.0114208 0.0002120 -0.0114208
6633579 0.0002065 -0.0111647 0.9997935 0.0111647 0.9997935 0.0111647 0.0002065 -0.0111647
6779431 0.0002011 -0.0109139 0.9997989 0.0109139 0.9997989 0.0109139 0.0002011 -0.0109139
6928491 0.0001961 -0.0106683 0.9998039 0.0106683 0.9998039 0.0106683 0.0001961 -0.0106683
7080828 0.0001912 -0.0104277 0.9998088 0.0104277 0.9998088 0.0104277 0.0001912 -0.0104277
7236514 0.0001866 -0.0101920 0.9998134 0.0101920 0.9998134 0.0101920 0.0001866 -0.0101920
7395623 0.0001822 -0.0099612 0.9998178 0.0099612 0.9998178 0.0099612 0.0001822 -0.0099612
7558231 0.0001780 -0.0097350 0.9998220 0.0097350 0.9998220 0.0097350 0.0001780 -0.0097350
7724414 0.0001740 -0.0095135 0.9998260 0.0095135 0.9998260 0.0095135 0.0001740 -0.0095135
7894251 0.0001702 -0.0092965 0.9998298 0.0092965 0.9998298 0.0092965 0.0001702 -0.0092965
8067822 0.0001665 -0.0090838 0.9998335 0.0090838 0.9998335 0.0090838 0.0001665 -0.0090838
8245209 0.0001631 -0.0088755 0.9998369 0.0088755 0.9998369 0.0088755 0.0001631 -0.0088755
8426497 0.0001598 -0.0086714 0.9998402 0.0086714 0.9998402 0.0086714 0.0001598 -0.0086714
8611770 0.0001566 -0.0084713 0.9998434 0.0084713 0.9998434 0.0084713 0.0001566 -0.0084713
8801117 0.0001536 -0.0082753 0.9998464 0.0082753 0.9998464 0.0082753 0.0001536 -0.0082753
8994628 0.0001508 -0.0080831 0.9998492 0.0080831 0.9998492 0.0080831 0.0001508 -0.0080831
9192393 0.0001481 -0.0078948 0.9998519 0.0078948 0.9998519 0.0078948 0.0001481 -0.0078948
9394506 0.0001456 -0.0077103 0.9998544 0.0077103 0.9998544 0.0077103 0.0001456 -0.0077103
9601063 0.0001431 -0.0075294 0.9998569 0.0075294 0.9998569 0.0075294 0.0001431 -0.0075294
9812162 0.0001408 -0.0073520 0.9998592 0.0073520 0.9998592 0.0073520 0.0001408 -0.0073520
10027902 0.0001387 -0.0071781 0.9998613 0.0071781 0.9998613 0.0071781 0.0001387 -0.0071781
10248386 0.0001366 -0.0070076 0.9998634 0.0070076 0.9998634 0.0070076 0.0001366 -0.0070076
10473717 0.0001347 -0.0068405 0.9998653 0.0068405 0.9998653 0.0068405 0.0001347 -0.0068405
10704003 0.0001329 -0.0066765 0.9998671 0.0066765 0.9998671 0.0066765 0.0001329 -0.0066765
10939352 0.0001312 -0.0065158 0.9998688 0.0065158 0.9998688 0.0065158 0.0001312 -0.0065158
11179876 0.0001296 -0.0063581 0.9998704 0.0063581 0.9998704 0.0063581 0.0001296 -0.0063581
11425688 0.0001281 -0.0062034 0.9998719 0.0062034 0.9998719 0.0062034 0.0001281 -0.0062034
11676904 0.0001267 -0.0060516 0.9998733 0.0060516 0.9998733 0.0060516 0.0001267 -0.0060516
11933645 0.0001254 -0.0059028 0.9998746 0.0059028 0.9998746 0.0059028 0.0001254 -0.0059028
12196030 0.0001242 -0.0057567 0.9998758 0.0057567 0.9998758 0.0057567 0.0001242 -0.0057567
12464184 0.0001231 -0.0056133 0.9998769 0.0056133 0.9998769 0.0056133 0.0001231 -0.0056133
12738235 0.0001220 -0.0054726 0.9998780 0.0054726 0.9998780 0.0054726 0.0001220 -0.0054726
13018310 0.0001211 -0.0053345 0.9998789 0.0053345 0.9998789 0.0053345 0.0001211 -0.0053345
13304544 0.0001203 -0.0051989 0.9998797 0.0051989 0.9998797 0.0051989 0.0001203 -0.0051989
13597071 0.0001195 -0.0050658 0.9998805 0.0050658 0.9998805 0.0050658 0.0001195 -0.0050658
13896030 0.0001188 -0.0049350 0.9998812 0.0049350 0.9998812 0.0049350 0.0001188 -0.0049350
14201563 0.0001182 -0.0048067 0.9998818 0.0048067 0.9998818 0.0048067 0.0001182 -0.0048067
14513813 0.0001177 -0.0046805 0.9998823 0.0046805 0.9998823 0.0046805 0.0001177 -0.0046805
14832928 0.0001173 -0.0045566 0.9998827 0.0045566 0.9998827 0.0045566 0.0001173 -0.0045566
15159060 0.0001169 -0.0044349 0.9998831 0.0044349 0.9998831 0.0044349 0.0001169 -0.0044349
15492362 0.0001167 -0.0043153 0.9998833 0.0043153 0.9998833 0.0043153 0.0001167 -0.0043153
15832993 0.0001165 -0.0041977 0.9998835 0.0041977 0.9998835 0.0041977 0.0001165 -0.0041977
16181113 0.0001163 -0.0040821 0.9998837 0.0040821 0.9998837 0.0040821 0.0001163 -0.0040821
16536888 0.0001163 -0.0039684 0.9998837 0.0039684 0.9998837 0.0039684 0.0001163 -0.0039684
16900485 0.0001163 -0.0038566 0.9998837 0.0038566 0.9998837 0.0038566 0.0001163 -0.0038566
17272076 0.0001165 -0.0037467 0.9998835 0.0037467 0.9998835 0.0037467 0.0001165 -0.0037467
17651837 0.0001166 -0.0036385 0.9998834 0.0036385 0.9998834 0.0036385 0.0001166 -0.0036385
18039948 0.0001169 -0.0035320 0.9998831 0.0035320 0.9998831 0.0035320 0.0001169 -0.0035320
18436593 0.0001172 -0.0034273 0.9998828 0.0034273 0.9998828 0.0034273 0.0001172 -0.0034273
18841959 0.0001177 -0.0033241 0.9998823 0.0033241 0.9998823 0.0033241 0.0001177 -0.0033241
19256237 0.0001182 -0.0032226 0.9998818 0.0032226 0.9998818 0.0032226 0.0001182 -0.0032226
19679624 0.0001187 -0.0031225 0.9998813 0.0031225 0.9998813 0.0031225 0.0001187 -0.0031225
20112321 0.0001194 -0.0030240 0.9998806 0.0030240 0.9998806 0.0030240 0.0001194 -0.0030240
20554530 0.0001201 -0.0029269 0.9998799 0.0029269 0.9998799 0.0029269 0.0001201 -0.0029269
21006463 0.0001210 -0.0028311 0.9998790 0.0028311 0.9998790 0.0028311 0.0001210 -0.0028311
21468333 0.0001219 -0.0027368 0.9998781 0.0027368 0.9998781 0.0027368 0.0001219 -0.0027368
21940357 0.0001229 -0.0026437 0.9998771 0.0026437 0.9998771 0.0026437 0.0001229 -0.0026437
22422760 0.0001240 -0.0025519 0.9998760 0.0025519 0.9998760 0.0025519 0.0001240 -0.0025519
22915770 0.0001251 -0.0024613 0.9998749 0.0024613 0.9998749 0.0024613 0.0001251 -0.0024613
23419619 0.0001264 -0.0023719 0.9998736 0.0023719 0.9998736 0.0023719 0.0001264 -0.0023719
23934547 0.0001277 -0.0022837 0.9998723 0.0022837 0.9998723 0.0022837 0.0001277 -0.0022837
24460796 0.0001292 -0.0021965 0.9998708 0.0021965 0.9998708 0.0021965 0.0001292 -0.0021965
24998616 0.0001307 -0.0021104 0.9998693 0.0021104 0.9998693 0.0021104 0.0001307 -0.0021104
25548261 0.0001324 -0.0020253 0.9998676 0.0020253 0.9998676 0.0020253 0.0001324 -0.0020253
26109991 0.0001341 -0.0019411 0.9998659 0.0019411 0.9998659 0.0019411 0.0001341 -0.0019411
26684072 0.0001360 -0.0018580 0.9998640 0.0018580 0.9998640 0.0018580 0.0001360 -0.0018580
27270775 0.0001379 -0.0017757 0.9998621 0.0017757 0.9998621 0.0017757 0.0001379 -0.0017757
27870378 0.0001400 -0.0016942 0.9998600 0.0016942 0.9998600 0.0016942 0.0001400 -0.0016942
28483164 0.0001422 -0.0016136 0.9998578 0.0016136 0.9998578 0.0016136 0.0001422 -0.0016136
29109424 0.0001445 -0.0015338 0.9998555 0.0015338 0.9998555 0.0015338 0.0001445 -0.0015338
29749453 0.0001469 -0.0014547 0.9998531 0.0014547 0.9998531 0.0014547 0.0001469 -0.0014547
30403555 0.0001494 -0.0013763 0.9998506 0.0013763 0.9998506 0.0013763 0.0001494 -0.0013763
31072038 0.0001521 -0.0012986 0.9998479 0.0012986 0.9998479 0.0012986 0.0001521 -0.0012986
31755220 0.0001549 -0.0012216 0.9998451 0.0012216 0.9998451 0.0012216 0.0001549 -0.0012216
32453422 0.0001579 -0.0011451 0.9998421 0.0011451 0.9998421 0.0011451 0.0001579 -0.0011451
33166976 0.0001609 -0.0010692 0.9998391 0.0010692 0.9998391 0.0010692 0.0001609 -0.0010692
33896219 0.0001642 -0.0009939 0.9998358 0.0009939 0.9998358 0.0009939 0.0001642 -0.0009939
34641496 0.0001675 -0.0009190 0.9998325 0.0009190 0.9998325 0.0009190 0.0001675 -0.0009190
35403159 0.0001711 -0.0008446 0.9998289 0.0008446 0.9998289 0.0008446 0.0001711 -0.0008446
36181569 0.0001748 -0.0007707 0.9998252 0.0007707 0.9998252 0.0007707 0.0001748 -0.0007707
36977093 0.0001786 -0.0006972 0.9998214 0.0006972 0.9998214 0.0006972 0.0001786 -0.0006972
37790109 0.0001827 -0.0006240 0.9998173 0.0006240 0.9998173 0.0006240 0.0001827 -0.0006240
38621001 0.0001869 -0.0005511 0.9998131 0.0005511 0.9998131 0.0005511 0.0001869 -0.0005511
39470161 0.0001913 -0.0004786 0.9998087 0.0004786 0.9998087 0.0004786 0.0001913 -0.0004786
40337993 0.0001959 -0.0004063 0.9998041 0.0004063 0.9998041 0.0004063 0.0001959 -0.0004063
41224905 0.0002006 -0.0003342 0.9997994 0.0003342 0.9997994 0.0003342 0.0002006 -0.0003342
42131317 0.0002056 -0.0002623 0.9997944 0.0002623 0.9997944 0.0002623 0.0002056 -0.0002623
43057659 0.0002108 -0.0001906 0.9997892 0.0001906 0.9997892 0.0001906 0.0002108 -0.0001906
44004369 0.0002162 -0.0001190 0.9997838 0.0001190 0.9997838 0.0001190 0.0002162 -0.0001190
44971893 0.0002219 -0.0000475 0.9997781 0.0000475 0.9997781 0.0000475 0.0002219 -0.0000475
45960691 0.0002277 0.0000239 0.9997723 -0.0000239 0.9997723 -0.0000239 0.0002277 0.0000239
46971230 0.0002339 0.0000953 0.9997661 -0.0000953 0.9997661 -0.0000953 0.0002339 0.0000953
48003987 0.0002402 0.0001667 0.9997598 -0.0001667 0.9997598 -0.0001667 0.0002402 0.0001667
49059451 0.0002468 0.0002382 0.9997532 -0.0002382 0.9997532 -0.0002382 0.0002468 0.0002382
50138122 0.0002537 0.0003098 0.9997463 -0.0003098 0.9997463 -0.0003098 0.0002537 0.0003098
51240510 0.0002609 0.0003815 0.9997391 -0.0003815 0.9997391 -0.0003815 0.0002609 0.0003815
52367136 0.0002684 0.0004534 0.9997316 -0.0004534 0.9997316 -0.0004534 0.0002684 0.0004534
53518533 0.0002761 0.0005255 0.9997239 -0.0005255 0.9997239 -0.0005255 0.0002761 0.0005255
54695245 0.0002842 0.0005978 0.9997158 -0.0005978 0.9997158 -0.0005978 0.0002842 0.0005978
55897831 0.0002926 0.0006705 0.9997074 -0.0006705 0.9997074 -0.0006705 0.0002926 0.0006705
57126857 0.0003014 0.0007435 0.9996986 -0.0007435 0.9996986 -0.0007435 0.0003014 0.0007435
58382906 0.0003106 0.0008170 0.9996894 -0.0008170 0.9996894 -0.0008170 0.0003106 0.0008170
59666572 0.0003201 0.0008909 0.9996799 -0.0008909 0.9996799 -0.0008909 0.0003201 0.0008909
60978462 0.0003300 0.0009654 0.9996700 -0.0009654 0.9996700 -0.0009654 0.0003300 0.0009654
62319196 0.0003404 0.0010404 0.9996596 -0.0010404 0.9996596 -0.0010404 0.0003404 0.0010404
63689409 0.0003513 0.0011162 0.9996487 -0.0011162 0.9996487 -0.0011162 0.0003513 0.0011162
65089750 0.0003626 0.0011928 0.9996374 -0.0011928 0.9996374 -0.0011928 0.0003626 0.0011928
66520879 0.0003746 0.0012703 0.9996254 -0.0012703 0.9996254 -0.0012703 0.0003746 0.0012703
67983474 0.0003871 0.0013488 0.9996129 -0.0013488 0.9996129 -0.0013488 0.0003871 0.0013488
69478228 0.0004004 0.0014285 0.9995996 -0.0014285 0.9995996 -0.0014285 0.0004004 0.0014285
71005847 0.0004144 0.0015095 0.9995856 -0.0015095 0.9995856 -0.0015095 0.0004144 0.0015095
72567054 0.0004294 0.0015920 0.9995706 -0.0015920 0.9995706 -0.0015920 0.0004294 0.0015920
74162587 0.0004455 0.0016764 0.9995545 -0.0016764 0.9995545 -0.0016764 0.0004455 0.0016764
75793201 0.0004629 0.0017628 0.9995371 -0.0017628 0.9995371 -0.0017628 0.0004629 0.0017628
77459667 0.0004819 0.0018517 0.9995181 -0.0018517 0.9995181 -0.0018517 0.0004819 0.0018517
79162774 0.0005031 0.0019435 0.9994969 -0.0019435 0.9994969 -0.0019435 0.0005031 0.0019435
80903327 0.0005271 0.0020389 0.9994729 -0.0020389 0.9994729 -0.0020389 0.0005271 0.0020389
82682150 0.0005549 0.0021386 0.9994451 -0.0021386 0.9994451 -0.0021386 0.0005549 0.0021386
84500083 0.0005881 0.0022436 0.9994119 -0.0022436 0.9994119 -0.0022436 0.0005881 0.0022436
86357988 0.0006293 0.0023549 0.9993707 -0.0023549 0.9993707 -0.0023549 0.0006293 0.0023549
88256743 0.0006830 0.0024737 0.9993170 -0.0024737 0.9993170 -0.0024737 0.0006830 0.0024737
90197245 0.0007567 0.0026004 0.9992433 -0.0026004 0.9992433 -0.0026004 0.0007567 0.0026004
92180413 0.0008639 0.0027318 0.9991361 -0.0027318 0.9991361 -0.0027318 0.0008639 0.0027318
94207185 0.0010263 0.0028528 0.9989737 -0.0028528 0.9989737 -0.0028528 0.0010263 0.0028528
96278520 0.0012670 0.0029138 0.9987330 -0.0029138 0.9987330 -0.0029138 0.0012670 0.0029138
98395398 0.0015465 0.0028075 0.9984535 -0.0028075 0.9984535 -0.0028075 0.0015465 0.0028075
100558819 0.0016578 0.0025036 0.9983422 -0.0025036 0.9983422 -0.0025036 0.0016578 0.0025036
102769807 0.0014853 0.0022637 0.9985147 -0.0022637 0.9985147 -0.0022637 0.0014853 0.0022637
105029408 0.0012435 0.0022435 0.9987565 -0.0022435 0.9987565 -0.0022435 0.0012435 0.0022435
107338692 0.0010731 0.0023467 0.9989269 -0.0023467 0.9989269 -0.0023467 0.0010731 0.0023467
