!Murata Part Number: GRM21B5C2E392JWA1
!These Parameters are Measured in Series Mode Connection
!Data Generated on Mar 30, 2021
!       o--ll--o
!Port1            Port2
!       o------o
!Operation Temp=25[degC], DC Bias Voltage=0[V]
!Freq. Start=1000[kHz] Stop=1000[MHz] 401[Steps]
# Hz S RI R 50
!Freq.(Hz) S11(Real) S11(Imag) S21(Real) S21(Imag) S12(Real) S12(Imag) S22(Real) S22(Imag)
1000000 0.1531964 -0.3597411 0.8468036 0.3597411 0.8468036 0.3597411 0.1531964 -0.3597411
1017419 0.1487720 -0.3554315 0.8512280 0.3554315 0.8512280 0.3554315 0.1487720 -0.3554315
1035142 0.1444535 -0.3511204 0.8555465 0.3511204 0.8555465 0.3511204 0.1444535 -0.3511204
1053174 0.1402398 -0.3468104 0.8597602 0.3468104 0.8597602 0.3468104 0.1402398 -0.3468104
1071519 0.1361294 -0.3425039 0.8638706 0.3425039 0.8638706 0.3425039 0.1361294 -0.3425039
1090184 0.1321210 -0.3382033 0.8678790 0.3382033 0.8678790 0.3382033 0.1321210 -0.3382033
1109175 0.1282131 -0.3339109 0.8717869 0.3339109 0.8717869 0.3339109 0.1282131 -0.3339109
1128496 0.1244043 -0.3296290 0.8755957 0.3296290 0.8755957 0.3296290 0.1244043 -0.3296290
1148154 0.1206929 -0.3253596 0.8793071 0.3253596 0.8793071 0.3253596 0.1206929 -0.3253596
1168154 0.1170775 -0.3211047 0.8829225 0.3211047 0.8829225 0.3211047 0.1170775 -0.3211047
1188502 0.1135565 -0.3168664 0.8864435 0.3168664 0.8864435 0.3168664 0.1135565 -0.3168664
1209205 0.1101282 -0.3126463 0.8898718 0.3126463 0.8898718 0.3126463 0.1101282 -0.3126463
1230269 0.1067909 -0.3084463 0.8932091 0.3084463 0.8932091 0.3084463 0.1067909 -0.3084463
1251699 0.1035430 -0.3042680 0.8964570 0.3042680 0.8964570 0.3042680 0.1035430 -0.3042680
1273503 0.1003829 -0.3001129 0.8996171 0.3001129 0.8996171 0.3001129 0.1003829 -0.3001129
1295687 0.0973087 -0.2959827 0.9026913 0.2959827 0.9026913 0.2959827 0.0973087 -0.2959827
1318257 0.0943189 -0.2918786 0.9056811 0.2918786 0.9056811 0.2918786 0.0943189 -0.2918786
1341220 0.0914116 -0.2878019 0.9085884 0.2878019 0.9085884 0.2878019 0.0914116 -0.2878019
1364583 0.0885853 -0.2837541 0.9114147 0.2837541 0.9114147 0.2837541 0.0885853 -0.2837541
1388353 0.0858381 -0.2797361 0.9141619 0.2797361 0.9141619 0.2797361 0.0858381 -0.2797361
1412538 0.0831684 -0.2757491 0.9168316 0.2757491 0.9168316 0.2757491 0.0831684 -0.2757491
1437143 0.0805744 -0.2717941 0.9194256 0.2717941 0.9194256 0.2717941 0.0805744 -0.2717941
1462177 0.0780545 -0.2678721 0.9219455 0.2678721 0.9219455 0.2678721 0.0780545 -0.2678721
1487647 0.0756070 -0.2639839 0.9243930 0.2639839 0.9243930 0.2639839 0.0756070 -0.2639839
1513561 0.0732302 -0.2601304 0.9267698 0.2601304 0.9267698 0.2601304 0.0732302 -0.2601304
1539927 0.0709224 -0.2563123 0.9290776 0.2563123 0.9290776 0.2563123 0.0709224 -0.2563123
1566751 0.0686820 -0.2525303 0.9313180 0.2525303 0.9313180 0.2525303 0.0686820 -0.2525303
1594043 0.0665073 -0.2487850 0.9334927 0.2487850 0.9334927 0.2487850 0.0665073 -0.2487850
1621810 0.0643968 -0.2450770 0.9356032 0.2450770 0.9356032 0.2450770 0.0643968 -0.2450770
1650061 0.0623489 -0.2414069 0.9376511 0.2414069 0.9376511 0.2414069 0.0623489 -0.2414069
1678804 0.0603619 -0.2377750 0.9396381 0.2377750 0.9396381 0.2377750 0.0603619 -0.2377750
1708048 0.0584344 -0.2341818 0.9415656 0.2341818 0.9415656 0.2341818 0.0584344 -0.2341818
1737801 0.0565648 -0.2306277 0.9434352 0.2306277 0.9434352 0.2306277 0.0565648 -0.2306277
1768072 0.0547515 -0.2271130 0.9452485 0.2271130 0.9452485 0.2271130 0.0547515 -0.2271130
1798871 0.0529932 -0.2236380 0.9470068 0.2236380 0.9470068 0.2236380 0.0529932 -0.2236380
1830206 0.0512883 -0.2202028 0.9487117 0.2202028 0.9487117 0.2202028 0.0512883 -0.2202028
1862087 0.0496355 -0.2168078 0.9503645 0.2168078 0.9503645 0.2168078 0.0496355 -0.2168078
1894524 0.0480333 -0.2134529 0.9519667 0.2134529 0.9519667 0.2134529 0.0480333 -0.2134529
1927525 0.0464803 -0.2101384 0.9535197 0.2101384 0.9535197 0.2101384 0.0464803 -0.2101384
1961101 0.0449752 -0.2068644 0.9550248 0.2068644 0.9550248 0.2068644 0.0449752 -0.2068644
1995262 0.0435167 -0.2036308 0.9564833 0.2036308 0.9564833 0.2036308 0.0435167 -0.2036308
2030019 0.0421035 -0.2004377 0.9578965 0.2004377 0.9578965 0.2004377 0.0421035 -0.2004377
2065380 0.0407343 -0.1972851 0.9592657 0.1972851 0.9592657 0.1972851 0.0407343 -0.1972851
2101358 0.0394078 -0.1941729 0.9605922 0.1941729 0.9605922 0.1941729 0.0394078 -0.1941729
2137962 0.0381229 -0.1911011 0.9618771 0.1911011 0.9618771 0.1911011 0.0381229 -0.1911011
2175204 0.0368783 -0.1880695 0.9631217 0.1880695 0.9631217 0.1880695 0.0368783 -0.1880695
2213095 0.0356729 -0.1850781 0.9643271 0.1850781 0.9643271 0.1850781 0.0356729 -0.1850781
2251645 0.0345056 -0.1821267 0.9654944 0.1821267 0.9654944 0.1821267 0.0345056 -0.1821267
2290868 0.0333752 -0.1792151 0.9666248 0.1792151 0.9666248 0.1792151 0.0333752 -0.1792151
2330773 0.0322806 -0.1763431 0.9677194 0.1763431 0.9677194 0.1763431 0.0322806 -0.1763431
2371374 0.0312209 -0.1735106 0.9687791 0.1735106 0.9687791 0.1735106 0.0312209 -0.1735106
2412682 0.0301949 -0.1707173 0.9698051 0.1707173 0.9698051 0.1707173 0.0301949 -0.1707173
2454709 0.0292017 -0.1679630 0.9707983 0.1679630 0.9707983 0.1679630 0.0292017 -0.1679630
2497468 0.0282402 -0.1652474 0.9717598 0.1652474 0.9717598 0.1652474 0.0282402 -0.1652474
2540973 0.0273096 -0.1625703 0.9726904 0.1625703 0.9726904 0.1625703 0.0273096 -0.1625703
2585235 0.0264089 -0.1599313 0.9735911 0.1599313 0.9735911 0.1599313 0.0264089 -0.1599313
2630268 0.0255372 -0.1573303 0.9744628 0.1573303 0.9744628 0.1573303 0.0255372 -0.1573303
2676086 0.0246936 -0.1547668 0.9753064 0.1547668 0.9753064 0.1547668 0.0246936 -0.1547668
2722701 0.0238773 -0.1522406 0.9761227 0.1522406 0.9761227 0.1522406 0.0238773 -0.1522406
2770129 0.0230873 -0.1497513 0.9769127 0.1497513 0.9769127 0.1497513 0.0230873 -0.1497513
2818383 0.0223230 -0.1472986 0.9776770 0.1472986 0.9776770 0.1472986 0.0223230 -0.1472986
2867477 0.0215835 -0.1448822 0.9784165 0.1448822 0.9784165 0.1448822 0.0215835 -0.1448822
2917427 0.0208680 -0.1425017 0.9791320 0.1425017 0.9791320 0.1425017 0.0208680 -0.1425017
2968247 0.0201758 -0.1401567 0.9798242 0.1401567 0.9798242 0.1401567 0.0201758 -0.1401567
3019952 0.0195062 -0.1378469 0.9804938 0.1378469 0.9804938 0.1378469 0.0195062 -0.1378469
3072557 0.0188584 -0.1355720 0.9811416 0.1355720 0.9811416 0.1355720 0.0188584 -0.1355720
3126079 0.0182319 -0.1333315 0.9817681 0.1333315 0.9817681 0.1333315 0.0182319 -0.1333315
3180534 0.0176258 -0.1311250 0.9823742 0.1311250 0.9823742 0.1311250 0.0176258 -0.1311250
3235937 0.0170396 -0.1289523 0.9829604 0.1289523 0.9829604 0.1289523 0.0170396 -0.1289523
3292305 0.0164727 -0.1268129 0.9835273 0.1268129 0.9835273 0.1268129 0.0164727 -0.1268129
3349654 0.0159243 -0.1247064 0.9840757 0.1247064 0.9840757 0.1247064 0.0159243 -0.1247064
3408003 0.0153941 -0.1226324 0.9846059 0.1226324 0.9846059 0.1226324 0.0153941 -0.1226324
3467369 0.0148812 -0.1205906 0.9851188 0.1205906 0.9851188 0.1205906 0.0148812 -0.1205906
3527768 0.0143853 -0.1185805 0.9856147 0.1185805 0.9856147 0.1185805 0.0143853 -0.1185805
3589219 0.0139058 -0.1166018 0.9860942 0.1166018 0.9860942 0.1166018 0.0139058 -0.1166018
3651741 0.0134420 -0.1146540 0.9865580 0.1146540 0.9865580 0.1146540 0.0134420 -0.1146540
3715352 0.0129937 -0.1127368 0.9870063 0.1127368 0.9870063 0.1127368 0.0129937 -0.1127368
3780071 0.0125601 -0.1108498 0.9874399 0.1108498 0.9874399 0.1108498 0.0125601 -0.1108498
3845918 0.0121409 -0.1089926 0.9878591 0.1089926 0.9878591 0.1089926 0.0121409 -0.1089926
3912911 0.0117356 -0.1071648 0.9882644 0.1071648 0.9882644 0.1071648 0.0117356 -0.1071648
3981072 0.0113438 -0.1053660 0.9886562 0.1053660 0.9886562 0.1053660 0.0113438 -0.1053660
4050419 0.0109650 -0.1035957 0.9890350 0.1035957 0.9890350 0.1035957 0.0109650 -0.1035957
4120975 0.0105987 -0.1018537 0.9894013 0.1018537 0.9894013 0.1018537 0.0105987 -0.1018537
4192760 0.0102447 -0.1001396 0.9897553 0.1001396 0.9897553 0.1001396 0.0102447 -0.1001396
4265795 0.0099024 -0.0984529 0.9900976 0.0984529 0.9900976 0.0984529 0.0099024 -0.0984529
4340103 0.0095715 -0.0967932 0.9904285 0.0967932 0.9904285 0.0967932 0.0095715 -0.0967932
4415704 0.0092517 -0.0951602 0.9907483 0.0951602 0.9907483 0.0951602 0.0092517 -0.0951602
4492623 0.0089425 -0.0935536 0.9910575 0.0935536 0.9910575 0.0935536 0.0089425 -0.0935536
4570882 0.0086436 -0.0919729 0.9913564 0.0919729 0.9913564 0.0919729 0.0086436 -0.0919729
4650504 0.0083547 -0.0904177 0.9916453 0.0904177 0.9916453 0.0904177 0.0083547 -0.0904177
4731513 0.0080755 -0.0888877 0.9919245 0.0888877 0.9919245 0.0888877 0.0080755 -0.0888877
4813933 0.0078056 -0.0873825 0.9921944 0.0873825 0.9921944 0.0873825 0.0078056 -0.0873825
4897788 0.0075448 -0.0859018 0.9924552 0.0859018 0.9924552 0.0859018 0.0075448 -0.0859018
4983105 0.0072926 -0.0844452 0.9927074 0.0844452 0.9927074 0.0844452 0.0072926 -0.0844452
5069907 0.0070489 -0.0830123 0.9929511 0.0830123 0.9929511 0.0830123 0.0070489 -0.0830123
5158222 0.0068134 -0.0816027 0.9931866 0.0816027 0.9931866 0.0816027 0.0068134 -0.0816027
5248075 0.0065858 -0.0802162 0.9934142 0.0802162 0.9934142 0.0802162 0.0065858 -0.0802162
5339493 0.0063658 -0.0788524 0.9936342 0.0788524 0.9936342 0.0788524 0.0063658 -0.0788524
5432503 0.0061532 -0.0775110 0.9938468 0.0775110 0.9938468 0.0775110 0.0061532 -0.0775110
5527134 0.0059478 -0.0761915 0.9940522 0.0761915 0.9940522 0.0761915 0.0059478 -0.0761915
5623413 0.0057492 -0.0748936 0.9942508 0.0748936 0.9942508 0.0748936 0.0057492 -0.0748936
5721370 0.0055573 -0.0736171 0.9944427 0.0736171 0.9944427 0.0736171 0.0055573 -0.0736171
5821032 0.0053719 -0.0723616 0.9946281 0.0723616 0.9946281 0.0723616 0.0053719 -0.0723616
5922431 0.0051927 -0.0711267 0.9948073 0.0711267 0.9948073 0.0711267 0.0051927 -0.0711267
6025596 0.0050195 -0.0699122 0.9949805 0.0699122 0.9949805 0.0699122 0.0050195 -0.0699122
6130558 0.0048522 -0.0687177 0.9951478 0.0687177 0.9951478 0.0687177 0.0048522 -0.0687177
6237348 0.0046905 -0.0675430 0.9953095 0.0675430 0.9953095 0.0675430 0.0046905 -0.0675430
6345999 0.0045343 -0.0663876 0.9954657 0.0663876 0.9954657 0.0663876 0.0045343 -0.0663876
6456542 0.0043833 -0.0652513 0.9956167 0.0652513 0.9956167 0.0652513 0.0043833 -0.0652513
6569011 0.0042374 -0.0641338 0.9957626 0.0641338 0.9957626 0.0641338 0.0042374 -0.0641338
6683439 0.0040965 -0.0630348 0.9959035 0.0630348 0.9959035 0.0630348 0.0040965 -0.0630348
6799860 0.0039603 -0.0619540 0.9960397 0.0619540 0.9960397 0.0619540 0.0039603 -0.0619540
6918310 0.0038287 -0.0608911 0.9961713 0.0608911 0.9961713 0.0608911 0.0038287 -0.0608911
7038822 0.0037016 -0.0598458 0.9962984 0.0598458 0.9962984 0.0598458 0.0037016 -0.0598458
7161434 0.0035787 -0.0588178 0.9964213 0.0588178 0.9964213 0.0588178 0.0035787 -0.0588178
7286182 0.0034600 -0.0578069 0.9965400 0.0578069 0.9965400 0.0578069 0.0034600 -0.0578069
7413102 0.0033454 -0.0568127 0.9966546 0.0568127 0.9966546 0.0568127 0.0033454 -0.0568127
7542234 0.0032346 -0.0558351 0.9967654 0.0558351 0.9967654 0.0558351 0.0032346 -0.0558351
7673615 0.0031275 -0.0548737 0.9968725 0.0548737 0.9968725 0.0548737 0.0031275 -0.0548737
7807284 0.0030241 -0.0539282 0.9969759 0.0539282 0.9969759 0.0539282 0.0030241 -0.0539282
7943282 0.0029242 -0.0529985 0.9970758 0.0529985 0.9970758 0.0529985 0.0029242 -0.0529985
8081649 0.0028277 -0.0520842 0.9971723 0.0520842 0.9971723 0.0520842 0.0028277 -0.0520842
8222426 0.0027345 -0.0511850 0.9972655 0.0511850 0.9972655 0.0511850 0.0027345 -0.0511850
8365656 0.0026444 -0.0503009 0.9973556 0.0503009 0.9973556 0.0503009 0.0026444 -0.0503009
8511380 0.0025574 -0.0494314 0.9974426 0.0494314 0.9974426 0.0494314 0.0025574 -0.0494314
8659643 0.0024734 -0.0485764 0.9975266 0.0485764 0.9975266 0.0485764 0.0024734 -0.0485764
8810489 0.0023922 -0.0477356 0.9976078 0.0477356 0.9976078 0.0477356 0.0023922 -0.0477356
8963962 0.0023138 -0.0469087 0.9976862 0.0469087 0.9976862 0.0469087 0.0023138 -0.0469087
9120108 0.0022380 -0.0460956 0.9977620 0.0460956 0.9977620 0.0460956 0.0022380 -0.0460956
9278975 0.0021649 -0.0452960 0.9978351 0.0452960 0.9978351 0.0452960 0.0021649 -0.0452960
9440609 0.0020942 -0.0445097 0.9979058 0.0445097 0.9979058 0.0445097 0.0020942 -0.0445097
9605058 0.0020260 -0.0437365 0.9979740 0.0437365 0.9979740 0.0437365 0.0020260 -0.0437365
9772372 0.0019600 -0.0429761 0.9980400 0.0429761 0.9980400 0.0429761 0.0019600 -0.0429761
9942601 0.0018964 -0.0422283 0.9981036 0.0422283 0.9981036 0.0422283 0.0018964 -0.0422283
10115795 0.0018349 -0.0414930 0.9981651 0.0414930 0.9981651 0.0414930 0.0018349 -0.0414930
10292005 0.0017755 -0.0407698 0.9982245 0.0407698 0.9982245 0.0407698 0.0017755 -0.0407698
10471285 0.0017182 -0.0400587 0.9982818 0.0400587 0.9982818 0.0400587 0.0017182 -0.0400587
10653689 0.0016628 -0.0393593 0.9983372 0.0393593 0.9983372 0.0393593 0.0016628 -0.0393593
10839269 0.0016093 -0.0386715 0.9983907 0.0386715 0.9983907 0.0386715 0.0016093 -0.0386715
11028082 0.0015577 -0.0379952 0.9984423 0.0379952 0.9984423 0.0379952 0.0015577 -0.0379952
11220185 0.0015078 -0.0373300 0.9984922 0.0373300 0.9984922 0.0373300 0.0015078 -0.0373300
11415633 0.0014597 -0.0366759 0.9985403 0.0366759 0.9985403 0.0366759 0.0014597 -0.0366759
11614486 0.0014132 -0.0360325 0.9985868 0.0360325 0.9985868 0.0360325 0.0014132 -0.0360325
11816803 0.0013683 -0.0353998 0.9986317 0.0353998 0.9986317 0.0353998 0.0013683 -0.0353998
12022644 0.0013250 -0.0347776 0.9986750 0.0347776 0.9986750 0.0347776 0.0013250 -0.0347776
12232071 0.0012832 -0.0341657 0.9987168 0.0341657 0.9987168 0.0341657 0.0012832 -0.0341657
12445146 0.0012428 -0.0335638 0.9987572 0.0335638 0.9987572 0.0335638 0.0012428 -0.0335638
12661933 0.0012039 -0.0329719 0.9987961 0.0329719 0.9987961 0.0329719 0.0012039 -0.0329719
12882496 0.0011663 -0.0323897 0.9988337 0.0323897 0.9988337 0.0323897 0.0011663 -0.0323897
13106900 0.0011300 -0.0318171 0.9988700 0.0318171 0.9988700 0.0318171 0.0011300 -0.0318171
13335214 0.0010950 -0.0312539 0.9989050 0.0312539 0.9989050 0.0312539 0.0010950 -0.0312539
13567505 0.0010612 -0.0307000 0.9989388 0.0307000 0.9989388 0.0307000 0.0010612 -0.0307000
13803843 0.0010286 -0.0301552 0.9989714 0.0301552 0.9989714 0.0301552 0.0010286 -0.0301552
14044297 0.0009971 -0.0296193 0.9990029 0.0296193 0.9990029 0.0296193 0.0009971 -0.0296193
14288940 0.0009668 -0.0290922 0.9990332 0.0290922 0.9990332 0.0290922 0.0009668 -0.0290922
14537844 0.0009375 -0.0285737 0.9990625 0.0285737 0.9990625 0.0285737 0.0009375 -0.0285737
14791084 0.0009093 -0.0280637 0.9990907 0.0280637 0.9990907 0.0280637 0.0009093 -0.0280637
15048735 0.0008821 -0.0275621 0.9991179 0.0275621 0.9991179 0.0275621 0.0008821 -0.0275621
15310875 0.0008558 -0.0270686 0.9991442 0.0270686 0.9991442 0.0270686 0.0008558 -0.0270686
15577580 0.0008305 -0.0265831 0.9991695 0.0265831 0.9991695 0.0265831 0.0008305 -0.0265831
15848932 0.0008061 -0.0261056 0.9991939 0.0261056 0.9991939 0.0261056 0.0008061 -0.0261056
16125010 0.0007825 -0.0256358 0.9992175 0.0256358 0.9992175 0.0256358 0.0007825 -0.0256358
16405898 0.0007599 -0.0251736 0.9992401 0.0251736 0.9992401 0.0251736 0.0007599 -0.0251736
16691678 0.0007380 -0.0247190 0.9992620 0.0247190 0.9992620 0.0247190 0.0007380 -0.0247190
16982437 0.0007169 -0.0242716 0.9992831 0.0242716 0.9992831 0.0242716 0.0007169 -0.0242716
17278260 0.0006967 -0.0238315 0.9993033 0.0238315 0.9993033 0.0238315 0.0006967 -0.0238315
17579236 0.0006771 -0.0233985 0.9993229 0.0233985 0.9993229 0.0233985 0.0006771 -0.0233985
17885455 0.0006583 -0.0229725 0.9993417 0.0229725 0.9993417 0.0229725 0.0006583 -0.0229725
18197009 0.0006402 -0.0225533 0.9993598 0.0225533 0.9993598 0.0225533 0.0006402 -0.0225533
18513989 0.0006227 -0.0221408 0.9993773 0.0221408 0.9993773 0.0221408 0.0006227 -0.0221408
18836491 0.0006059 -0.0217349 0.9993941 0.0217349 0.9993941 0.0217349 0.0006059 -0.0217349
19164611 0.0005897 -0.0213355 0.9994103 0.0213355 0.9994103 0.0213355 0.0005897 -0.0213355
19498446 0.0005742 -0.0209425 0.9994258 0.0209425 0.9994258 0.0209425 0.0005742 -0.0209425
19838097 0.0005592 -0.0205557 0.9994408 0.0205557 0.9994408 0.0205557 0.0005592 -0.0205557
20183664 0.0005448 -0.0201750 0.9994552 0.0201750 0.9994552 0.0201750 0.0005448 -0.0201750
20535250 0.0005310 -0.0198004 0.9994690 0.0198004 0.9994690 0.0198004 0.0005310 -0.0198004
20892961 0.0005177 -0.0194317 0.9994823 0.0194317 0.9994823 0.0194317 0.0005177 -0.0194317
21256903 0.0005049 -0.0190688 0.9994951 0.0190688 0.9994951 0.0190688 0.0005049 -0.0190688
21627185 0.0004927 -0.0187116 0.9995073 0.0187116 0.9995073 0.0187116 0.0004927 -0.0187116
22003917 0.0004809 -0.0183599 0.9995191 0.0183599 0.9995191 0.0183599 0.0004809 -0.0183599
22387211 0.0004696 -0.0180138 0.9995304 0.0180138 0.9995304 0.0180138 0.0004696 -0.0180138
22777182 0.0004587 -0.0176731 0.9995413 0.0176731 0.9995413 0.0176731 0.0004587 -0.0176731
23173946 0.0004483 -0.0173376 0.9995517 0.0173376 0.9995517 0.0173376 0.0004483 -0.0173376
23577622 0.0004383 -0.0170074 0.9995617 0.0170074 0.9995617 0.0170074 0.0004383 -0.0170074
23988329 0.0004288 -0.0166822 0.9995712 0.0166822 0.9995712 0.0166822 0.0004288 -0.0166822
24406191 0.0004196 -0.0163621 0.9995804 0.0163621 0.9995804 0.0163621 0.0004196 -0.0163621
24831331 0.0004108 -0.0160468 0.9995892 0.0160468 0.9995892 0.0160468 0.0004108 -0.0160468
25263877 0.0004024 -0.0157364 0.9995976 0.0157364 0.9995976 0.0157364 0.0004024 -0.0157364
25703958 0.0003944 -0.0154307 0.9996056 0.0154307 0.9996056 0.0154307 0.0003944 -0.0154307
26151704 0.0003867 -0.0151296 0.9996133 0.0151296 0.9996133 0.0151296 0.0003867 -0.0151296
26607251 0.0003794 -0.0148331 0.9996206 0.0148331 0.9996206 0.0148331 0.0003794 -0.0148331
27070732 0.0003723 -0.0145410 0.9996277 0.0145410 0.9996277 0.0145410 0.0003723 -0.0145410
27542287 0.0003657 -0.0142533 0.9996343 0.0142533 0.9996343 0.0142533 0.0003657 -0.0142533
28022056 0.0003593 -0.0139699 0.9996407 0.0139699 0.9996407 0.0139699 0.0003593 -0.0139699
28510183 0.0003532 -0.0136907 0.9996468 0.0136907 0.9996468 0.0136907 0.0003532 -0.0136907
29006812 0.0003474 -0.0134156 0.9996526 0.0134156 0.9996526 0.0134156 0.0003474 -0.0134156
29512092 0.0003419 -0.0131445 0.9996581 0.0131445 0.9996581 0.0131445 0.0003419 -0.0131445
30026174 0.0003367 -0.0128774 0.9996633 0.0128774 0.9996633 0.0128774 0.0003367 -0.0128774
30549211 0.0003317 -0.0126142 0.9996683 0.0126142 0.9996683 0.0126142 0.0003317 -0.0126142
31081359 0.0003270 -0.0123548 0.9996730 0.0123548 0.9996730 0.0123548 0.0003270 -0.0123548
31622777 0.0003225 -0.0120991 0.9996775 0.0120991 0.9996775 0.0120991 0.0003225 -0.0120991
32173625 0.0003183 -0.0118471 0.9996817 0.0118471 0.9996817 0.0118471 0.0003183 -0.0118471
32734069 0.0003143 -0.0115986 0.9996857 0.0115986 0.9996857 0.0115986 0.0003143 -0.0115986
33304276 0.0003105 -0.0113537 0.9996895 0.0113537 0.9996895 0.0113537 0.0003105 -0.0113537
33884416 0.0003070 -0.0111122 0.9996930 0.0111122 0.9996930 0.0111122 0.0003070 -0.0111122
34474661 0.0003036 -0.0108740 0.9996964 0.0108740 0.9996964 0.0108740 0.0003036 -0.0108740
35075187 0.0003005 -0.0106391 0.9996995 0.0106391 0.9996995 0.0106391 0.0003005 -0.0106391
35686175 0.0002975 -0.0104075 0.9997025 0.0104075 0.9997025 0.0104075 0.0002975 -0.0104075
36307805 0.0002948 -0.0101790 0.9997052 0.0101790 0.9997052 0.0101790 0.0002948 -0.0101790
36940264 0.0002922 -0.0099536 0.9997078 0.0099536 0.9997078 0.0099536 0.0002922 -0.0099536
37583740 0.0002898 -0.0097312 0.9997102 0.0097312 0.9997102 0.0097312 0.0002898 -0.0097312
38238425 0.0002876 -0.0095117 0.9997124 0.0095117 0.9997124 0.0095117 0.0002876 -0.0095117
38904514 0.0002855 -0.0092951 0.9997145 0.0092951 0.9997145 0.0092951 0.0002855 -0.0092951
39582206 0.0002836 -0.0090814 0.9997164 0.0090814 0.9997164 0.0090814 0.0002836 -0.0090814
40271703 0.0002819 -0.0088704 0.9997181 0.0088704 0.9997181 0.0088704 0.0002819 -0.0088704
40973211 0.0002803 -0.0086621 0.9997197 0.0086621 0.9997197 0.0086621 0.0002803 -0.0086621
