!Murata Part Number: GRM21A1X1H333JA39
!These Parameters are Measured in Series Mode Connection
!Data Generated on Mar 30, 2021
!       o--ll--o
!Port1            Port2
!       o------o
!Operation Temp=25[degC], DC Bias Voltage=0[V]
!Freq. Start=1000[kHz] Stop=6[GHz] 401[Steps]
# Hz S RI R 50
!Freq.(Hz) S11(Real) S11(Imag) S21(Real) S21(Imag) S12(Real) S12(Imag) S22(Real) S22(Imag)
1000000 0.0024618 -0.0491867 0.9975382 0.0491867 0.9975382 0.0491867 0.0024618 -0.0491867
1021987 0.0023587 -0.0481316 0.9976413 0.0481316 0.9976413 0.0481316 0.0023587 -0.0481316
1044457 0.0022600 -0.0470990 0.9977400 0.0470990 0.9977400 0.0470990 0.0022600 -0.0470990
1067422 0.0021655 -0.0460881 0.9978345 0.0460881 0.9978345 0.0460881 0.0021655 -0.0460881
1090891 0.0020750 -0.0450988 0.9979250 0.0450988 0.9979250 0.0450988 0.0020750 -0.0450988
1114877 0.0019884 -0.0441304 0.9980116 0.0441304 0.9980116 0.0441304 0.0019884 -0.0441304
1139390 0.0019054 -0.0431825 0.9980946 0.0431825 0.9980946 0.0431825 0.0019054 -0.0431825
1164441 0.0018260 -0.0422548 0.9981740 0.0422548 0.9981740 0.0422548 0.0018260 -0.0422548
1190044 0.0017499 -0.0413468 0.9982501 0.0413468 0.9982501 0.0413468 0.0017499 -0.0413468
1216210 0.0016771 -0.0404581 0.9983229 0.0404581 0.9983229 0.0404581 0.0016771 -0.0404581
1242950 0.0016074 -0.0395883 0.9983926 0.0395883 0.9983926 0.0395883 0.0016074 -0.0395883
1270279 0.0015406 -0.0387369 0.9984594 0.0387369 0.9984594 0.0387369 0.0015406 -0.0387369
1298209 0.0014767 -0.0379037 0.9985233 0.0379037 0.9985233 0.0379037 0.0014767 -0.0379037
1326753 0.0014155 -0.0370882 0.9985845 0.0370882 0.9985845 0.0370882 0.0014155 -0.0370882
1355924 0.0013570 -0.0362900 0.9986430 0.0362900 0.9986430 0.0362900 0.0013570 -0.0362900
1385737 0.0013009 -0.0355089 0.9986991 0.0355089 0.9986991 0.0355089 0.0013009 -0.0355089
1416205 0.0012472 -0.0347444 0.9987528 0.0347444 0.9987528 0.0347444 0.0012472 -0.0347444
1447343 0.0011958 -0.0339961 0.9988042 0.0339961 0.9988042 0.0339961 0.0011958 -0.0339961
1479166 0.0011466 -0.0332638 0.9988534 0.0332638 0.9988534 0.0332638 0.0011466 -0.0332638
1511688 0.0010995 -0.0325471 0.9989005 0.0325471 0.9989005 0.0325471 0.0010995 -0.0325471
1544926 0.0010544 -0.0318456 0.9989456 0.0318456 0.9989456 0.0318456 0.0010544 -0.0318456
1578894 0.0010112 -0.0311591 0.9989888 0.0311591 0.9989888 0.0311591 0.0010112 -0.0311591
1613609 0.0009699 -0.0304873 0.9990301 0.0304873 0.9990301 0.0304873 0.0009699 -0.0304873
1649087 0.0009304 -0.0298297 0.9990696 0.0298297 0.9990696 0.0298297 0.0009304 -0.0298297
1685346 0.0008925 -0.0291862 0.9991075 0.0291862 0.9991075 0.0291862 0.0008925 -0.0291862
1722402 0.0008563 -0.0285564 0.9991437 0.0285564 0.9991437 0.0285564 0.0008563 -0.0285564
1760272 0.0008217 -0.0279400 0.9991783 0.0279400 0.9991783 0.0279400 0.0008217 -0.0279400
1798975 0.0007885 -0.0273368 0.9992115 0.0273368 0.9992115 0.0273368 0.0007885 -0.0273368
1838529 0.0007567 -0.0267464 0.9992433 0.0267464 0.9992433 0.0267464 0.0007567 -0.0267464
1878953 0.0007263 -0.0261686 0.9992737 0.0261686 0.9992737 0.0261686 0.0007263 -0.0261686
1920266 0.0006972 -0.0256031 0.9993028 0.0256031 0.9993028 0.0256031 0.0006972 -0.0256031
1962487 0.0006694 -0.0250497 0.9993306 0.0250497 0.9993306 0.0250497 0.0006694 -0.0250497
2005636 0.0006428 -0.0245081 0.9993572 0.0245081 0.9993572 0.0245081 0.0006428 -0.0245081
2049734 0.0006173 -0.0239780 0.9993827 0.0239780 0.9993827 0.0239780 0.0006173 -0.0239780
2094801 0.0005929 -0.0234592 0.9994071 0.0234592 0.9994071 0.0234592 0.0005929 -0.0234592
2140860 0.0005696 -0.0229515 0.9994304 0.0229515 0.9994304 0.0229515 0.0005696 -0.0229515
2187931 0.0005473 -0.0224546 0.9994527 0.0224546 0.9994527 0.0224546 0.0005473 -0.0224546
2236037 0.0005259 -0.0219683 0.9994741 0.0219683 0.9994741 0.0219683 0.0005259 -0.0219683
2285201 0.0005055 -0.0214923 0.9994945 0.0214923 0.9994945 0.0214923 0.0005055 -0.0214923
2335446 0.0004859 -0.0210265 0.9995141 0.0210265 0.9995141 0.0210265 0.0004859 -0.0210265
2386795 0.0004672 -0.0205706 0.9995328 0.0205706 0.9995328 0.0205706 0.0004672 -0.0205706
2439274 0.0004494 -0.0201244 0.9995506 0.0201244 0.9995506 0.0201244 0.0004494 -0.0201244
2492906 0.0004323 -0.0196877 0.9995677 0.0196877 0.9995677 0.0196877 0.0004323 -0.0196877
2547717 0.0004159 -0.0192604 0.9995841 0.0192604 0.9995841 0.0192604 0.0004159 -0.0192604
2603734 0.0004003 -0.0188421 0.9995997 0.0188421 0.9995997 0.0188421 0.0004003 -0.0188421
2660982 0.0003853 -0.0184327 0.9996147 0.0184327 0.9996147 0.0184327 0.0003853 -0.0184327
2719490 0.0003710 -0.0180320 0.9996290 0.0180320 0.9996290 0.0180320 0.0003710 -0.0180320
2779283 0.0003573 -0.0176398 0.9996427 0.0176398 0.9996427 0.0176398 0.0003573 -0.0176398
2840391 0.0003442 -0.0172560 0.9996558 0.0172560 0.9996558 0.0172560 0.0003442 -0.0172560
2902843 0.0003317 -0.0168803 0.9996683 0.0168803 0.9996683 0.0168803 0.0003317 -0.0168803
2966668 0.0003198 -0.0165126 0.9996802 0.0165126 0.9996802 0.0165126 0.0003198 -0.0165126
3031896 0.0003083 -0.0161527 0.9996917 0.0161527 0.9996917 0.0161527 0.0003083 -0.0161527
3098558 0.0002974 -0.0158005 0.9997026 0.0158005 0.9997026 0.0158005 0.0002974 -0.0158005
3166686 0.0002870 -0.0154557 0.9997130 0.0154557 0.9997130 0.0154557 0.0002870 -0.0154557
3236312 0.0002770 -0.0151183 0.9997230 0.0151183 0.9997230 0.0151183 0.0002770 -0.0151183
3307469 0.0002674 -0.0147879 0.9997326 0.0147879 0.9997326 0.0147879 0.0002674 -0.0147879
3380190 0.0002583 -0.0144646 0.9997417 0.0144646 0.9997417 0.0144646 0.0002583 -0.0144646
3454511 0.0002496 -0.0141482 0.9997504 0.0141482 0.9997504 0.0141482 0.0002496 -0.0141482
3530465 0.0002413 -0.0138384 0.9997587 0.0138384 0.9997587 0.0138384 0.0002413 -0.0138384
3608090 0.0002333 -0.0135351 0.9997667 0.0135351 0.9997667 0.0135351 0.0002333 -0.0135351
3687421 0.0002257 -0.0132383 0.9997743 0.0132383 0.9997743 0.0132383 0.0002257 -0.0132383
3768496 0.0002184 -0.0129478 0.9997816 0.0129478 0.9997816 0.0129478 0.0002184 -0.0129478
3851354 0.0002115 -0.0126633 0.9997885 0.0126633 0.9997885 0.0126633 0.0002115 -0.0126633
3936034 0.0002049 -0.0123849 0.9997951 0.0123849 0.9997951 0.0123849 0.0002049 -0.0123849
4022575 0.0001985 -0.0121123 0.9998015 0.0121123 0.9998015 0.0121123 0.0001985 -0.0121123
4111020 0.0001925 -0.0118455 0.9998075 0.0118455 0.9998075 0.0118455 0.0001925 -0.0118455
4201409 0.0001867 -0.0115843 0.9998133 0.0115843 0.9998133 0.0115843 0.0001867 -0.0115843
4293785 0.0001812 -0.0113286 0.9998188 0.0113286 0.9998188 0.0113286 0.0001812 -0.0113286
4388193 0.0001759 -0.0110782 0.9998241 0.0110782 0.9998241 0.0110782 0.0001759 -0.0110782
4484676 0.0001709 -0.0108331 0.9998291 0.0108331 0.9998291 0.0108331 0.0001709 -0.0108331
4583281 0.0001661 -0.0105931 0.9998339 0.0105931 0.9998339 0.0105931 0.0001661 -0.0105931
4684054 0.0001615 -0.0103581 0.9998385 0.0103581 0.9998385 0.0103581 0.0001615 -0.0103581
4787042 0.0001572 -0.0101281 0.9998428 0.0101281 0.9998428 0.0101281 0.0001572 -0.0101281
4892295 0.0001530 -0.0099028 0.9998470 0.0099028 0.9998470 0.0099028 0.0001530 -0.0099028
4999862 0.0001490 -0.0096822 0.9998510 0.0096822 0.9998510 0.0096822 0.0001490 -0.0096822
5109794 0.0001452 -0.0094662 0.9998548 0.0094662 0.9998548 0.0094662 0.0001452 -0.0094662
5222143 0.0001416 -0.0092547 0.9998584 0.0092547 0.9998584 0.0092547 0.0001416 -0.0092547
5336962 0.0001381 -0.0090476 0.9998619 0.0090476 0.9998619 0.0090476 0.0001381 -0.0090476
5454306 0.0001349 -0.0088448 0.9998651 0.0088448 0.9998651 0.0088448 0.0001349 -0.0088448
5574230 0.0001317 -0.0086462 0.9998683 0.0086462 0.9998683 0.0086462 0.0001317 -0.0086462
5696791 0.0001287 -0.0084516 0.9998713 0.0084516 0.9998713 0.0084516 0.0001287 -0.0084516
5822046 0.0001259 -0.0082611 0.9998741 0.0082611 0.9998741 0.0082611 0.0001259 -0.0082611
5950055 0.0001232 -0.0080745 0.9998768 0.0080745 0.9998768 0.0080745 0.0001232 -0.0080745
6080879 0.0001206 -0.0078917 0.9998794 0.0078917 0.9998794 0.0078917 0.0001206 -0.0078917
6214580 0.0001181 -0.0077126 0.9998819 0.0077126 0.9998819 0.0077126 0.0001181 -0.0077126
6351220 0.0001158 -0.0075372 0.9998842 0.0075372 0.9998842 0.0075372 0.0001158 -0.0075372
6490864 0.0001135 -0.0073654 0.9998865 0.0073654 0.9998865 0.0073654 0.0001135 -0.0073654
6633579 0.0001114 -0.0071971 0.9998886 0.0071971 0.9998886 0.0071971 0.0001114 -0.0071971
6779431 0.0001094 -0.0070322 0.9998906 0.0070322 0.9998906 0.0070322 0.0001094 -0.0070322
6928491 0.0001075 -0.0068706 0.9998925 0.0068706 0.9998925 0.0068706 0.0001075 -0.0068706
7080828 0.0001057 -0.0067122 0.9998943 0.0067122 0.9998943 0.0067122 0.0001057 -0.0067122
7236514 0.0001039 -0.0065571 0.9998961 0.0065571 0.9998961 0.0065571 0.0001039 -0.0065571
7395623 0.0001023 -0.0064050 0.9998977 0.0064050 0.9998977 0.0064050 0.0001023 -0.0064050
7558231 0.0001008 -0.0062560 0.9998992 0.0062560 0.9998992 0.0062560 0.0001008 -0.0062560
7724414 0.0000993 -0.0061099 0.9999007 0.0061099 0.9999007 0.0061099 0.0000993 -0.0061099
7894251 0.0000979 -0.0059668 0.9999021 0.0059668 0.9999021 0.0059668 0.0000979 -0.0059668
8067822 0.0000966 -0.0058264 0.9999034 0.0058264 0.9999034 0.0058264 0.0000966 -0.0058264
8245209 0.0000953 -0.0056889 0.9999047 0.0056889 0.9999047 0.0056889 0.0000953 -0.0056889
8426497 0.0000942 -0.0055540 0.9999058 0.0055540 0.9999058 0.0055540 0.0000942 -0.0055540
8611770 0.0000931 -0.0054217 0.9999069 0.0054217 0.9999069 0.0054217 0.0000931 -0.0054217
8801117 0.0000921 -0.0052921 0.9999079 0.0052921 0.9999079 0.0052921 0.0000921 -0.0052921
8994628 0.0000911 -0.0051649 0.9999089 0.0051649 0.9999089 0.0051649 0.0000911 -0.0051649
9192393 0.0000902 -0.0050402 0.9999098 0.0050402 0.9999098 0.0050402 0.0000902 -0.0050402
9394506 0.0000893 -0.0049178 0.9999107 0.0049178 0.9999107 0.0049178 0.0000893 -0.0049178
9601063 0.0000886 -0.0047978 0.9999114 0.0047978 0.9999114 0.0047978 0.0000886 -0.0047978
9812162 0.0000878 -0.0046801 0.9999122 0.0046801 0.9999122 0.0046801 0.0000878 -0.0046801
10027902 0.0000872 -0.0045645 0.9999128 0.0045645 0.9999128 0.0045645 0.0000872 -0.0045645
10248386 0.0000865 -0.0044512 0.9999135 0.0044512 0.9999135 0.0044512 0.0000865 -0.0044512
10473717 0.0000860 -0.0043399 0.9999140 0.0043399 0.9999140 0.0043399 0.0000860 -0.0043399
10704003 0.0000855 -0.0042307 0.9999145 0.0042307 0.9999145 0.0042307 0.0000855 -0.0042307
10939352 0.0000850 -0.0041235 0.9999150 0.0041235 0.9999150 0.0041235 0.0000850 -0.0041235
11179876 0.0000846 -0.0040182 0.9999154 0.0040182 0.9999154 0.0040182 0.0000846 -0.0040182
11425688 0.0000842 -0.0039149 0.9999158 0.0039149 0.9999158 0.0039149 0.0000842 -0.0039149
11676904 0.0000839 -0.0038134 0.9999161 0.0038134 0.9999161 0.0038134 0.0000839 -0.0038134
11933645 0.0000836 -0.0037137 0.9999164 0.0037137 0.9999164 0.0037137 0.0000836 -0.0037137
12196030 0.0000834 -0.0036158 0.9999166 0.0036158 0.9999166 0.0036158 0.0000834 -0.0036158
12464184 0.0000832 -0.0035195 0.9999168 0.0035195 0.9999168 0.0035195 0.0000832 -0.0035195
12738235 0.0000831 -0.0034250 0.9999169 0.0034250 0.9999169 0.0034250 0.0000831 -0.0034250
13018310 0.0000830 -0.0033320 0.9999170 0.0033320 0.9999170 0.0033320 0.0000830 -0.0033320
13304544 0.0000830 -0.0032407 0.9999170 0.0032407 0.9999170 0.0032407 0.0000830 -0.0032407
13597071 0.0000830 -0.0031508 0.9999170 0.0031508 0.9999170 0.0031508 0.0000830 -0.0031508
13896030 0.0000830 -0.0030625 0.9999170 0.0030625 0.9999170 0.0030625 0.0000830 -0.0030625
14201563 0.0000831 -0.0029756 0.9999169 0.0029756 0.9999169 0.0029756 0.0000831 -0.0029756
14513813 0.0000833 -0.0028901 0.9999167 0.0028901 0.9999167 0.0028901 0.0000833 -0.0028901
14832928 0.0000835 -0.0028060 0.9999165 0.0028060 0.9999165 0.0028060 0.0000835 -0.0028060
15159060 0.0000837 -0.0027231 0.9999163 0.0027231 0.9999163 0.0027231 0.0000837 -0.0027231
15492362 0.0000840 -0.0026416 0.9999160 0.0026416 0.9999160 0.0026416 0.0000840 -0.0026416
15832993 0.0000843 -0.0025613 0.9999157 0.0025613 0.9999157 0.0025613 0.0000843 -0.0025613
16181113 0.0000847 -0.0024823 0.9999153 0.0024823 0.9999153 0.0024823 0.0000847 -0.0024823
16536888 0.0000851 -0.0024044 0.9999149 0.0024044 0.9999149 0.0024044 0.0000851 -0.0024044
16900485 0.0000856 -0.0023276 0.9999144 0.0023276 0.9999144 0.0023276 0.0000856 -0.0023276
17272076 0.0000861 -0.0022519 0.9999139 0.0022519 0.9999139 0.0022519 0.0000861 -0.0022519
17651837 0.0000867 -0.0021773 0.9999133 0.0021773 0.9999133 0.0021773 0.0000867 -0.0021773
18039948 0.0000873 -0.0021037 0.9999127 0.0021037 0.9999127 0.0021037 0.0000873 -0.0021037
18436593 0.0000880 -0.0020311 0.9999120 0.0020311 0.9999120 0.0020311 0.0000880 -0.0020311
18841959 0.0000887 -0.0019595 0.9999113 0.0019595 0.9999113 0.0019595 0.0000887 -0.0019595
19256237 0.0000895 -0.0018888 0.9999105 0.0018888 0.9999105 0.0018888 0.0000895 -0.0018888
19679624 0.0000903 -0.0018189 0.9999097 0.0018189 0.9999097 0.0018189 0.0000903 -0.0018189
20112321 0.0000913 -0.0017499 0.9999087 0.0017499 0.9999087 0.0017499 0.0000913 -0.0017499
20554530 0.0000922 -0.0016817 0.9999078 0.0016817 0.9999078 0.0016817 0.0000922 -0.0016817
21006463 0.0000932 -0.0016143 0.9999068 0.0016143 0.9999068 0.0016143 0.0000932 -0.0016143
21468333 0.0000943 -0.0015477 0.9999057 0.0015477 0.9999057 0.0015477 0.0000943 -0.0015477
21940357 0.0000955 -0.0014817 0.9999045 0.0014817 0.9999045 0.0014817 0.0000955 -0.0014817
22422760 0.0000967 -0.0014165 0.9999033 0.0014165 0.9999033 0.0014165 0.0000967 -0.0014165
22915770 0.0000980 -0.0013519 0.9999020 0.0013519 0.9999020 0.0013519 0.0000980 -0.0013519
23419619 0.0000994 -0.0012879 0.9999006 0.0012879 0.9999006 0.0012879 0.0000994 -0.0012879
23934547 0.0001008 -0.0012245 0.9998992 0.0012245 0.9998992 0.0012245 0.0001008 -0.0012245
24460796 0.0001024 -0.0011617 0.9998976 0.0011617 0.9998976 0.0011617 0.0001024 -0.0011617
24998616 0.0001040 -0.0010994 0.9998960 0.0010994 0.9998960 0.0010994 0.0001040 -0.0010994
25548261 0.0001057 -0.0010376 0.9998943 0.0010376 0.9998943 0.0010376 0.0001057 -0.0010376
26109991 0.0001075 -0.0009762 0.9998925 0.0009762 0.9998925 0.0009762 0.0001075 -0.0009762
26684072 0.0001094 -0.0009153 0.9998906 0.0009153 0.9998906 0.0009153 0.0001094 -0.0009153
27270775 0.0001113 -0.0008548 0.9998887 0.0008548 0.9998887 0.0008548 0.0001113 -0.0008548
27870378 0.0001134 -0.0007946 0.9998866 0.0007946 0.9998866 0.0007946 0.0001134 -0.0007946
28483164 0.0001156 -0.0007348 0.9998844 0.0007348 0.9998844 0.0007348 0.0001156 -0.0007348
29109424 0.0001179 -0.0006752 0.9998821 0.0006752 0.9998821 0.0006752 0.0001179 -0.0006752
29749453 0.0001203 -0.0006160 0.9998797 0.0006160 0.9998797 0.0006160 0.0001203 -0.0006160
30403555 0.0001228 -0.0005569 0.9998772 0.0005569 0.9998772 0.0005569 0.0001228 -0.0005569
31072038 0.0001255 -0.0004981 0.9998745 0.0004981 0.9998745 0.0004981 0.0001255 -0.0004981
31755220 0.0001283 -0.0004394 0.9998717 0.0004394 0.9998717 0.0004394 0.0001283 -0.0004394
32453422 0.0001312 -0.0003808 0.9998688 0.0003808 0.9998688 0.0003808 0.0001312 -0.0003808
33166976 0.0001343 -0.0003224 0.9998657 0.0003224 0.9998657 0.0003224 0.0001343 -0.0003224
33896219 0.0001375 -0.0002640 0.9998625 0.0002640 0.9998625 0.0002640 0.0001375 -0.0002640
34641496 0.0001409 -0.0002056 0.9998591 0.0002056 0.9998591 0.0002056 0.0001409 -0.0002056
35403159 0.0001445 -0.0001472 0.9998555 0.0001472 0.9998555 0.0001472 0.0001445 -0.0001472
36181569 0.0001483 -0.0000887 0.9998517 0.0000887 0.9998517 0.0000887 0.0001483 -0.0000887
36977093 0.0001522 -0.0000301 0.9998478 0.0000301 0.9998478 0.0000301 0.0001522 -0.0000301
37790109 0.0001563 0.0000287 0.9998437 -0.0000287 0.9998437 -0.0000287 0.0001563 0.0000287
38621001 0.0001607 0.0000876 0.9998393 -0.0000876 0.9998393 -0.0000876 0.0001607 0.0000876
39470161 0.0001653 0.0001469 0.9998347 -0.0001469 0.9998347 -0.0001469 0.0001653 0.0001469
40337993 0.0001702 0.0002064 0.9998298 -0.0002064 0.9998298 -0.0002064 0.0001702 0.0002064
41224905 0.0001753 0.0002663 0.9998247 -0.0002663 0.9998247 -0.0002663 0.0001753 0.0002663
42131317 0.0001807 0.0003266 0.9998193 -0.0003266 0.9998193 -0.0003266 0.0001807 0.0003266
43057659 0.0001864 0.0003875 0.9998136 -0.0003875 0.9998136 -0.0003875 0.0001864 0.0003875
44004369 0.0001925 0.0004489 0.9998075 -0.0004489 0.9998075 -0.0004489 0.0001925 0.0004489
44971893 0.0001989 0.0005110 0.9998011 -0.0005110 0.9998011 -0.0005110 0.0001989 0.0005110
45960691 0.0002058 0.0005739 0.9997942 -0.0005739 0.9997942 -0.0005739 0.0002058 0.0005739
46971230 0.0002131 0.0006377 0.9997869 -0.0006377 0.9997869 -0.0006377 0.0002131 0.0006377
48003987 0.0002210 0.0007024 0.9997790 -0.0007024 0.9997790 -0.0007024 0.0002210 0.0007024
49059451 0.0002294 0.0007684 0.9997706 -0.0007684 0.9997706 -0.0007684 0.0002294 0.0007684
50138122 0.0002385 0.0008356 0.9997615 -0.0008356 0.9997615 -0.0008356 0.0002385 0.0008356
51240510 0.0002485 0.0009043 0.9997515 -0.0009043 0.9997515 -0.0009043 0.0002485 0.0009043
52367136 0.0002593 0.0009748 0.9997407 -0.0009748 0.9997407 -0.0009748 0.0002593 0.0009748
53518533 0.0002712 0.0010473 0.9997288 -0.0010473 0.9997288 -0.0010473 0.0002712 0.0010473
54695245 0.0002845 0.0011222 0.9997155 -0.0011222 0.9997155 -0.0011222 0.0002845 0.0011222
55897831 0.0002994 0.0011998 0.9997006 -0.0011998 0.9997006 -0.0011998 0.0002994 0.0011998
57126857 0.0003164 0.0012807 0.9996836 -0.0012807 0.9996836 -0.0012807 0.0003164 0.0012807
58382906 0.0003362 0.0013656 0.9996638 -0.0013656 0.9996638 -0.0013656 0.0003362 0.0013656
59666572 0.0003594 0.0014552 0.9996406 -0.0014552 0.9996406 -0.0014552 0.0003594 0.0014552
60978462 0.0003876 0.0015506 0.9996124 -0.0015506 0.9996124 -0.0015506 0.0003876 0.0015506
62319196 0.0004226 0.0016530 0.9995774 -0.0016530 0.9995774 -0.0016530 0.0004226 0.0016530
63689409 0.0004675 0.0017640 0.9995325 -0.0017640 0.9995325 -0.0017640 0.0004675 0.0017640
65089750 0.0005273 0.0018854 0.9994727 -0.0018854 0.9994727 -0.0018854 0.0005273 0.0018854
66520879 0.0006105 0.0020185 0.9993895 -0.0020185 0.9993895 -0.0020185 0.0006105 0.0020185
67983474 0.0007319 0.0021624 0.9992681 -0.0021624 0.9992681 -0.0021624 0.0007319 0.0021624
69478228 0.0009163 0.0023076 0.9990837 -0.0023076 0.9990837 -0.0023076 0.0009163 0.0023076
71005847 0.0012010 0.0024172 0.9987990 -0.0024172 0.9987990 -0.0024172 0.0012010 0.0024172
72567054 0.0016060 0.0023859 0.9983940 -0.0023859 0.9983940 -0.0023859 0.0016060 0.0023859
74162587 0.0019986 0.0020445 0.9980014 -0.0020445 0.9980014 -0.0020445 0.0019986 0.0020445
75793201 0.0020255 0.0014749 0.9979745 -0.0014749 0.9979745 -0.0014749 0.0020255 0.0014749
77459667 0.0016718 0.0011195 0.9983282 -0.0011195 0.9983282 -0.0011195 0.0016718 0.0011195
79162774 0.0012920 0.0010849 0.9987080 -0.0010849 0.9987080 -0.0010849 0.0012920 0.0010849
80903327 0.0010333 0.0012032 0.9989667 -0.0012032 0.9989667 -0.0012032 0.0010333 0.0012032
82682150 0.0008787 0.0013640 0.9991213 -0.0013640 0.9991213 -0.0013640 0.0008787 0.0013640
84500083 0.0007911 0.0015286 0.9992089 -0.0015286 0.9992089 -0.0015286 0.0007911 0.0015286
86357988 0.0007456 0.0016873 0.9992544 -0.0016873 0.9992544 -0.0016873 0.0007456 0.0016873
88256743 0.0007281 0.0018394 0.9992719 -0.0018394 0.9992719 -0.0018394 0.0007281 0.0018394
90197245 0.0007316 0.0019872 0.9992684 -0.0019872 0.9992684 -0.0019872 0.0007316 0.0019872
92180413 0.0007535 0.0021330 0.9992465 -0.0021330 0.9992465 -0.0021330 0.0007535 0.0021330
94207185 0.0007945 0.0022793 0.9992055 -0.0022793 0.9992055 -0.0022793 0.0007945 0.0022793
96278520 0.0008586 0.0024272 0.9991414 -0.0024272 0.9991414 -0.0024272 0.0008586 0.0024272
98395398 0.0009539 0.0025759 0.9990461 -0.0025759 0.9990461 -0.0025759 0.0009539 0.0025759
100558819 0.0010939 0.0027187 0.9989061 -0.0027187 0.9989061 -0.0027187 0.0010939 0.0027187
102769807 0.0012972 0.0028343 0.9987028 -0.0028343 0.9987028 -0.0028343 0.0012972 0.0028343
105029408 0.0015746 0.0028716 0.9984254 -0.0028716 0.9984254 -0.0028716 0.0015746 0.0028716
107338692 0.0018827 0.0027446 0.9981173 -0.0027446 0.9981173 -0.0027446 0.0018827 0.0027446
