!Murata Part Number: GRM21B5C2E682JWAA
!These Parameters are Measured in Series Mode Connection
!Data Generated on Mar 30, 2021
!       o--ll--o
!Port1            Port2
!       o------o
!Operation Temp=25[degC], DC Bias Voltage=0[V]
!Freq. Start=100[kHz] Stop=1000[MHz] 401[Steps]
# Hz S RI R 50
!Freq.(Hz) S11(Real) S11(Imag) S21(Real) S21(Imag) S12(Real) S12(Imag) S22(Real) S22(Imag)
100000 0.8472713 -0.3576668 0.1527287 0.3576668 0.1527287 0.3576668 0.8472713 -0.3576668
102329 0.8412850 -0.3633848 0.1587150 0.3633848 0.1587150 0.3633848 0.8412850 -0.3633848
104713 0.8351073 -0.3690919 0.1648927 0.3690919 0.1648927 0.3690919 0.8351073 -0.3690919
107152 0.8287357 -0.3747814 0.1712643 0.3747814 0.1712643 0.3747814 0.8287357 -0.3747814
109648 0.8221680 -0.3804462 0.1778320 0.3804462 0.1778320 0.3804462 0.8221680 -0.3804462
112202 0.8154022 -0.3860790 0.1845978 0.3860790 0.1845978 0.3860790 0.8154022 -0.3860790
114815 0.8084365 -0.3916724 0.1915635 0.3916724 0.1915635 0.3916724 0.8084365 -0.3916724
117490 0.8012696 -0.3972184 0.1987304 0.3972184 0.1987304 0.3972184 0.8012696 -0.3972184
120226 0.7939005 -0.4027089 0.2060995 0.4027089 0.2060995 0.4027089 0.7939005 -0.4027089
123027 0.7863285 -0.4081358 0.2136715 0.4081358 0.2136715 0.4081358 0.7863285 -0.4081358
125893 0.7785536 -0.4134905 0.2214464 0.4134905 0.2214464 0.4134905 0.7785536 -0.4134905
128825 0.7705759 -0.4187642 0.2294241 0.4187642 0.2294241 0.4187642 0.7705759 -0.4187642
131826 0.7623960 -0.4239482 0.2376040 0.4239482 0.2376040 0.4239482 0.7623960 -0.4239482
134896 0.7540153 -0.4290334 0.2459847 0.4290334 0.2459847 0.4290334 0.7540153 -0.4290334
138038 0.7454352 -0.4340108 0.2545648 0.4340108 0.2545648 0.4340108 0.7454352 -0.4340108
141254 0.7366581 -0.4388710 0.2633419 0.4388710 0.2633419 0.4388710 0.7366581 -0.4388710
144544 0.7276865 -0.4436048 0.2723135 0.4436048 0.2723135 0.4436048 0.7276865 -0.4436048
147911 0.7185238 -0.4482031 0.2814762 0.4482031 0.2814762 0.4482031 0.7185238 -0.4482031
151356 0.7091737 -0.4526565 0.2908263 0.4526565 0.2908263 0.4526565 0.7091737 -0.4526565
154882 0.6996406 -0.4569558 0.3003594 0.4569558 0.3003594 0.4569558 0.6996406 -0.4569558
158489 0.6899294 -0.4610920 0.3100706 0.4610920 0.3100706 0.4610920 0.6899294 -0.4610920
162181 0.6800457 -0.4650561 0.3199543 0.4650561 0.3199543 0.4650561 0.6800457 -0.4650561
165959 0.6699954 -0.4688393 0.3300046 0.4688393 0.3300046 0.4688393 0.6699954 -0.4688393
169824 0.6597853 -0.4724331 0.3402147 0.4724331 0.3402147 0.4724331 0.6597853 -0.4724331
173780 0.6494226 -0.4758291 0.3505774 0.4758291 0.3505774 0.4758291 0.6494226 -0.4758291
177828 0.6389150 -0.4790195 0.3610850 0.4790195 0.3610850 0.4790195 0.6389150 -0.4790195
181970 0.6282708 -0.4819966 0.3717292 0.4819966 0.3717292 0.4819966 0.6282708 -0.4819966
186209 0.6174987 -0.4847532 0.3825013 0.4847532 0.3825013 0.4847532 0.6174987 -0.4847532
190546 0.6066081 -0.4872825 0.3933919 0.4872825 0.3933919 0.4872825 0.6066081 -0.4872825
194984 0.5956087 -0.4895781 0.4043913 0.4895781 0.4043913 0.4895781 0.5956087 -0.4895781
199526 0.5845107 -0.4916343 0.4154893 0.4916343 0.4154893 0.4916343 0.5845107 -0.4916343
204174 0.5733246 -0.4934458 0.4266754 0.4934458 0.4266754 0.4934458 0.5733246 -0.4934458
208930 0.5620613 -0.4950080 0.4379387 0.4950080 0.4379387 0.4950080 0.5620613 -0.4950080
213796 0.5507321 -0.4963167 0.4492679 0.4963167 0.4492679 0.4963167 0.5507321 -0.4963167
218776 0.5393486 -0.4973685 0.4606514 0.4973685 0.4606514 0.4973685 0.5393486 -0.4973685
223872 0.5279224 -0.4981606 0.4720776 0.4981606 0.4720776 0.4981606 0.5279224 -0.4981606
229087 0.5164654 -0.4986910 0.4835346 0.4986910 0.4835346 0.4986910 0.5164654 -0.4986910
234423 0.5049898 -0.4989581 0.4950102 0.4989581 0.4950102 0.4989581 0.5049898 -0.4989581
239883 0.4935076 -0.4989612 0.5064924 0.4989612 0.5064924 0.4989612 0.4935076 -0.4989612
245471 0.4820310 -0.4987004 0.5179690 0.4987004 0.5179690 0.4987004 0.4820310 -0.4987004
251189 0.4705722 -0.4981762 0.5294278 0.4981762 0.5294278 0.4981762 0.4705722 -0.4981762
257040 0.4591431 -0.4973900 0.5408569 0.4973900 0.5408569 0.4973900 0.4591431 -0.4973900
263027 0.4477559 -0.4963439 0.5522441 0.4963439 0.5522441 0.4963439 0.4477559 -0.4963439
269153 0.4364221 -0.4950406 0.5635779 0.4950406 0.5635779 0.4950406 0.4364221 -0.4950406
275423 0.4251534 -0.4934834 0.5748466 0.4934834 0.5748466 0.4934834 0.4251534 -0.4934834
281838 0.4139610 -0.4916763 0.5860390 0.4916763 0.5860390 0.4916763 0.4139610 -0.4916763
288403 0.4028558 -0.4896241 0.5971442 0.4896241 0.5971442 0.4896241 0.4028558 -0.4896241
295121 0.3918486 -0.4873318 0.6081514 0.4873318 0.6081514 0.4873318 0.3918486 -0.4873318
301995 0.3809495 -0.4848052 0.6190505 0.4848052 0.6190505 0.4848052 0.3809495 -0.4848052
309030 0.3701682 -0.4820506 0.6298318 0.4820506 0.6298318 0.4820506 0.3701682 -0.4820506
316228 0.3595142 -0.4790747 0.6404858 0.4790747 0.6404858 0.4790747 0.3595142 -0.4790747
323594 0.3489962 -0.4758847 0.6510038 0.4758847 0.6510038 0.4758847 0.3489962 -0.4758847
331131 0.3386227 -0.4724882 0.6613773 0.4724882 0.6613773 0.4724882 0.3386227 -0.4724882
338844 0.3284014 -0.4688931 0.6715986 0.4688931 0.6715986 0.4688931 0.3284014 -0.4688931
346737 0.3183396 -0.4651077 0.6816604 0.4651077 0.6816604 0.4651077 0.3183396 -0.4651077
354813 0.3084440 -0.4611404 0.6915560 0.4611404 0.6915560 0.4611404 0.3084440 -0.4611404
363078 0.2987207 -0.4570001 0.7012793 0.4570001 0.7012793 0.4570001 0.2987207 -0.4570001
371535 0.2891753 -0.4526956 0.7108247 0.4526956 0.7108247 0.4526956 0.2891753 -0.4526956
380189 0.2798128 -0.4482361 0.7201872 0.4482361 0.7201872 0.4482361 0.2798128 -0.4482361
389045 0.2706377 -0.4436308 0.7293623 0.4436308 0.7293623 0.4436308 0.2706377 -0.4436308
398107 0.2616537 -0.4388888 0.7383463 0.4388888 0.7383463 0.4388888 0.2616537 -0.4388888
407380 0.2528643 -0.4340195 0.7471357 0.4340195 0.7471357 0.4340195 0.2528643 -0.4340195
416869 0.2442721 -0.4290320 0.7557279 0.4290320 0.7557279 0.4290320 0.2442721 -0.4290320
426580 0.2358795 -0.4239357 0.7641205 0.4239357 0.7641205 0.4239357 0.2358795 -0.4239357
436516 0.2276881 -0.4187397 0.7723119 0.4187397 0.7723119 0.4187397 0.2276881 -0.4187397
446684 0.2196991 -0.4134529 0.7803009 0.4134529 0.7803009 0.4134529 0.2196991 -0.4134529
457088 0.2119134 -0.4080842 0.7880866 0.4080842 0.7880866 0.4080842 0.2119134 -0.4080842
467735 0.2043311 -0.4026425 0.7956689 0.4026425 0.7956689 0.4026425 0.2043311 -0.4026425
478630 0.1969521 -0.3971361 0.8030479 0.3971361 0.8030479 0.3971361 0.1969521 -0.3971361
489779 0.1897759 -0.3915735 0.8102241 0.3915735 0.8102241 0.3915735 0.1897759 -0.3915735
501187 0.1828015 -0.3859627 0.8171985 0.3859627 0.8171985 0.3859627 0.1828015 -0.3859627
512861 0.1760276 -0.3803117 0.8239724 0.3803117 0.8239724 0.3803117 0.1760276 -0.3803117
524807 0.1694526 -0.3746279 0.8305474 0.3746279 0.8305474 0.3746279 0.1694526 -0.3746279
537032 0.1630745 -0.3689187 0.8369255 0.3689187 0.8369255 0.3689187 0.1630745 -0.3689187
549541 0.1568910 -0.3631912 0.8431090 0.3631912 0.8431090 0.3631912 0.1568910 -0.3631912
562341 0.1508996 -0.3574521 0.8491004 0.3574521 0.8491004 0.3574521 0.1508996 -0.3574521
575440 0.1450976 -0.3517080 0.8549024 0.3517080 0.8549024 0.3517080 0.1450976 -0.3517080
588844 0.1394820 -0.3459650 0.8605180 0.3459650 0.8605180 0.3459650 0.1394820 -0.3459650
602560 0.1340496 -0.3402289 0.8659504 0.3402289 0.8659504 0.3402289 0.1340496 -0.3402289
616595 0.1287971 -0.3345054 0.8712029 0.3345054 0.8712029 0.3345054 0.1287971 -0.3345054
630957 0.1237210 -0.3287998 0.8762790 0.3287998 0.8762790 0.3287998 0.1237210 -0.3287998
645654 0.1188176 -0.3231170 0.8811824 0.3231170 0.8811824 0.3231170 0.1188176 -0.3231170
660693 0.1140833 -0.3174618 0.8859167 0.3174618 0.8859167 0.3174618 0.1140833 -0.3174618
676083 0.1095142 -0.3118386 0.8904858 0.3118386 0.8904858 0.3118386 0.1095142 -0.3118386
691831 0.1051063 -0.3062514 0.8948937 0.3062514 0.8948937 0.3062514 0.1051063 -0.3062514
707946 0.1008558 -0.3007042 0.8991442 0.3007042 0.8991442 0.3007042 0.1008558 -0.3007042
724436 0.0967586 -0.2952006 0.9032414 0.2952006 0.9032414 0.2952006 0.0967586 -0.2952006
741310 0.0928107 -0.2897438 0.9071893 0.2897438 0.9071893 0.2897438 0.0928107 -0.2897438
758578 0.0890081 -0.2843370 0.9109919 0.2843370 0.9109919 0.2843370 0.0890081 -0.2843370
776247 0.0853466 -0.2789830 0.9146534 0.2789830 0.9146534 0.2789830 0.0853466 -0.2789830
794328 0.0818223 -0.2736843 0.9181777 0.2736843 0.9181777 0.2736843 0.0818223 -0.2736843
812831 0.0784310 -0.2684433 0.9215690 0.2684433 0.9215690 0.2684433 0.0784310 -0.2684433
831764 0.0751689 -0.2632623 0.9248311 0.2632623 0.9248311 0.2632623 0.0751689 -0.2632623
851138 0.0720318 -0.2581430 0.9279682 0.2581430 0.9279682 0.2581430 0.0720318 -0.2581430
870964 0.0690160 -0.2530872 0.9309840 0.2530872 0.9309840 0.2530872 0.0690160 -0.2530872
891251 0.0661175 -0.2480966 0.9338825 0.2480966 0.9338825 0.2480966 0.0661175 -0.2480966
912011 0.0633325 -0.2431724 0.9366675 0.2431724 0.9366675 0.2431724 0.0633325 -0.2431724
933254 0.0606573 -0.2383158 0.9393427 0.2383158 0.9393427 0.2383158 0.0606573 -0.2383158
954993 0.0580881 -0.2335278 0.9419119 0.2335278 0.9419119 0.2335278 0.0580881 -0.2335278
977237 0.0556213 -0.2288094 0.9443787 0.2288094 0.9443787 0.2288094 0.0556213 -0.2288094
1000000 0.0532535 -0.2241612 0.9467465 0.2241612 0.9467465 0.2241612 0.0532535 -0.2241612
1023293 0.0509811 -0.2195839 0.9490189 0.2195839 0.9490189 0.2195839 0.0509811 -0.2195839
1047129 0.0488007 -0.2150778 0.9511993 0.2150778 0.9511993 0.2150778 0.0488007 -0.2150778
1071519 0.0467090 -0.2106434 0.9532910 0.2106434 0.9532910 0.2106434 0.0467090 -0.2106434
1096478 0.0447029 -0.2062807 0.9552971 0.2062807 0.9552971 0.2062807 0.0447029 -0.2062807
1122018 0.0427791 -0.2019900 0.9572209 0.2019900 0.9572209 0.2019900 0.0427791 -0.2019900
1148154 0.0409347 -0.1977713 0.9590653 0.1977713 0.9590653 0.1977713 0.0409347 -0.1977713
1174898 0.0391666 -0.1936244 0.9608334 0.1936244 0.9608334 0.1936244 0.0391666 -0.1936244
1202264 0.0374720 -0.1895492 0.9625280 0.1895492 0.9625280 0.1895492 0.0374720 -0.1895492
1230269 0.0358480 -0.1855455 0.9641520 0.1855455 0.9641520 0.1855455 0.0358480 -0.1855455
1258925 0.0342920 -0.1816129 0.9657080 0.1816129 0.9657080 0.1816129 0.0342920 -0.1816129
1288250 0.0328013 -0.1777511 0.9671987 0.1777511 0.9671987 0.1777511 0.0328013 -0.1777511
1318257 0.0313734 -0.1739596 0.9686266 0.1739596 0.9686266 0.1739596 0.0313734 -0.1739596
1348963 0.0300058 -0.1702378 0.9699942 0.1702378 0.9699942 0.1702378 0.0300058 -0.1702378
1380384 0.0286961 -0.1665852 0.9713039 0.1665852 0.9713039 0.1665852 0.0286961 -0.1665852
1412538 0.0274421 -0.1630013 0.9725579 0.1630013 0.9725579 0.1630013 0.0274421 -0.1630013
1445440 0.0262415 -0.1594852 0.9737585 0.1594852 0.9737585 0.1594852 0.0262415 -0.1594852
1479108 0.0250921 -0.1560365 0.9749079 0.1560365 0.9749079 0.1560365 0.0250921 -0.1560365
1513561 0.0239920 -0.1526542 0.9760080 0.1526542 0.9760080 0.1526542 0.0239920 -0.1526542
1548817 0.0229390 -0.1493378 0.9770610 0.1493378 0.9770610 0.1493378 0.0229390 -0.1493378
1584893 0.0219313 -0.1460863 0.9780687 0.1460863 0.9780687 0.1460863 0.0219313 -0.1460863
1621810 0.0209670 -0.1428989 0.9790330 0.1428989 0.9790330 0.1428989 0.0209670 -0.1428989
1659587 0.0200443 -0.1397748 0.9799557 0.1397748 0.9799557 0.1397748 0.0200443 -0.1397748
1698244 0.0191615 -0.1367133 0.9808385 0.1367133 0.9808385 0.1367133 0.0191615 -0.1367133
1737801 0.0183169 -0.1337132 0.9816831 0.1337132 0.9816831 0.1337132 0.0183169 -0.1337132
1778279 0.0175091 -0.1307739 0.9824909 0.1307739 0.9824909 0.1307739 0.0175091 -0.1307739
1819701 0.0167363 -0.1278944 0.9832637 0.1278944 0.9832637 0.1278944 0.0167363 -0.1278944
1862087 0.0159972 -0.1250737 0.9840028 0.1250737 0.9840028 0.1250737 0.0159972 -0.1250737
1905461 0.0152903 -0.1223110 0.9847097 0.1223110 0.9847097 0.1223110 0.0152903 -0.1223110
1949845 0.0146142 -0.1196054 0.9853858 0.1196054 0.9853858 0.1196054 0.0146142 -0.1196054
1995262 0.0139677 -0.1169558 0.9860323 0.1169558 0.9860323 0.1169558 0.0139677 -0.1169558
2041738 0.0133496 -0.1143614 0.9866504 0.1143614 0.9866504 0.1143614 0.0133496 -0.1143614
2089296 0.0127585 -0.1118213 0.9872415 0.1118213 0.9872415 0.1118213 0.0127585 -0.1118213
2137962 0.0121934 -0.1093345 0.9878066 0.1093345 0.9878066 0.1093345 0.0121934 -0.1093345
2187762 0.0116531 -0.1069001 0.9883469 0.1069001 0.9883469 0.1069001 0.0116531 -0.1069001
2238721 0.0111366 -0.1045171 0.9888634 0.1045171 0.9888634 0.1045171 0.0111366 -0.1045171
2290868 0.0106428 -0.1021847 0.9893572 0.1021847 0.9893572 0.1021847 0.0106428 -0.1021847
2344229 0.0101708 -0.0999019 0.9898292 0.0999019 0.9898292 0.0999019 0.0101708 -0.0999019
2398833 0.0097196 -0.0976678 0.9902804 0.0976678 0.9902804 0.0976678 0.0097196 -0.0976678
2454709 0.0092883 -0.0954815 0.9907117 0.0954815 0.9907117 0.0954815 0.0092883 -0.0954815
2511886 0.0088761 -0.0933421 0.9911239 0.0933421 0.9911239 0.0933421 0.0088761 -0.0933421
2570396 0.0084822 -0.0912487 0.9915178 0.0912487 0.9915178 0.0912487 0.0084822 -0.0912487
2630268 0.0081057 -0.0892004 0.9918943 0.0892004 0.9918943 0.0892004 0.0081057 -0.0892004
2691535 0.0077458 -0.0871964 0.9922542 0.0871964 0.9922542 0.0871964 0.0077458 -0.0871964
2754229 0.0074020 -0.0852358 0.9925980 0.0852358 0.9925980 0.0852358 0.0074020 -0.0852358
2818383 0.0070733 -0.0833178 0.9929267 0.0833178 0.9929267 0.0833178 0.0070733 -0.0833178
2884032 0.0067593 -0.0814414 0.9932407 0.0814414 0.9932407 0.0814414 0.0067593 -0.0814414
2951209 0.0064593 -0.0796059 0.9935407 0.0796059 0.9935407 0.0796059 0.0064593 -0.0796059
3019952 0.0061725 -0.0778105 0.9938275 0.0778105 0.9938275 0.0778105 0.0061725 -0.0778105
3090295 0.0058986 -0.0760543 0.9941014 0.0760543 0.9941014 0.0760543 0.0058986 -0.0760543
3162278 0.0056368 -0.0743366 0.9943632 0.0743366 0.9943632 0.0743366 0.0056368 -0.0743366
3235937 0.0053867 -0.0726565 0.9946133 0.0726565 0.9946133 0.0726565 0.0053867 -0.0726565
3311311 0.0051477 -0.0710132 0.9948523 0.0710132 0.9948523 0.0710132 0.0051477 -0.0710132
3388442 0.0049194 -0.0694061 0.9950806 0.0694061 0.9950806 0.0694061 0.0049194 -0.0694061
3467369 0.0047013 -0.0678344 0.9952987 0.0678344 0.9952987 0.0678344 0.0047013 -0.0678344
3548134 0.0044929 -0.0662973 0.9955071 0.0662973 0.9955071 0.0662973 0.0044929 -0.0662973
3630781 0.0042938 -0.0647941 0.9957062 0.0647941 0.9957062 0.0647941 0.0042938 -0.0647941
3715352 0.0041037 -0.0633241 0.9958963 0.0633241 0.9958963 0.0633241 0.0041037 -0.0633241
3801894 0.0039220 -0.0618865 0.9960780 0.0618865 0.9960780 0.0618865 0.0039220 -0.0618865
3890451 0.0037484 -0.0604808 0.9962516 0.0604808 0.9962516 0.0604808 0.0037484 -0.0604808
3981072 0.0035827 -0.0591062 0.9964173 0.0591062 0.9964173 0.0591062 0.0035827 -0.0591062
4073803 0.0034243 -0.0577620 0.9965757 0.0577620 0.9965757 0.0577620 0.0034243 -0.0577620
4168694 0.0032730 -0.0564477 0.9967270 0.0564477 0.9967270 0.0564477 0.0032730 -0.0564477
4265795 0.0031286 -0.0551624 0.9968714 0.0551624 0.9968714 0.0551624 0.0031286 -0.0551624
4365158 0.0029905 -0.0539058 0.9970095 0.0539058 0.9970095 0.0539058 0.0029905 -0.0539058
4466836 0.0028587 -0.0526770 0.9971413 0.0526770 0.9971413 0.0526770 0.0028587 -0.0526770
4570882 0.0027328 -0.0514755 0.9972672 0.0514755 0.9972672 0.0514755 0.0027328 -0.0514755
4677351 0.0026126 -0.0503008 0.9973874 0.0503008 0.9973874 0.0503008 0.0026126 -0.0503008
4786301 0.0024977 -0.0491521 0.9975023 0.0491521 0.9975023 0.0491521 0.0024977 -0.0491521
4897788 0.0023881 -0.0480290 0.9976119 0.0480290 0.9976119 0.0480290 0.0023881 -0.0480290
5011872 0.0022833 -0.0469310 0.9977167 0.0469310 0.9977167 0.0469310 0.0022833 -0.0469310
5128614 0.0021833 -0.0458573 0.9978167 0.0458573 0.9978167 0.0458573 0.0021833 -0.0458573
5248075 0.0020877 -0.0448075 0.9979123 0.0448075 0.9979123 0.0448075 0.0020877 -0.0448075
5370318 0.0019965 -0.0437812 0.9980035 0.0437812 0.9980035 0.0437812 0.0019965 -0.0437812
5495409 0.0019094 -0.0427776 0.9980906 0.0427776 0.9980906 0.0427776 0.0019094 -0.0427776
5623413 0.0018262 -0.0417965 0.9981738 0.0417965 0.9981738 0.0417965 0.0018262 -0.0417965
5754399 0.0017468 -0.0408371 0.9982532 0.0408371 0.9982532 0.0408371 0.0017468 -0.0408371
5888437 0.0016710 -0.0398992 0.9983290 0.0398992 0.9983290 0.0398992 0.0016710 -0.0398992
6025596 0.0015985 -0.0389821 0.9984015 0.0389821 0.9984015 0.0389821 0.0015985 -0.0389821
6165950 0.0015294 -0.0380854 0.9984706 0.0380854 0.9984706 0.0380854 0.0015294 -0.0380854
6309573 0.0014634 -0.0372087 0.9985366 0.0372087 0.9985366 0.0372087 0.0014634 -0.0372087
6456542 0.0014004 -0.0363515 0.9985996 0.0363515 0.9985996 0.0363515 0.0014004 -0.0363515
6606934 0.0013402 -0.0355134 0.9986598 0.0355134 0.9986598 0.0355134 0.0013402 -0.0355134
6760830 0.0012828 -0.0346939 0.9987172 0.0346939 0.9987172 0.0346939 0.0012828 -0.0346939
6918310 0.0012280 -0.0338927 0.9987720 0.0338927 0.9987720 0.0338927 0.0012280 -0.0338927
7079458 0.0011757 -0.0331092 0.9988243 0.0331092 0.9988243 0.0331092 0.0011757 -0.0331092
7244360 0.0011258 -0.0323432 0.9988742 0.0323432 0.9988742 0.0323432 0.0011258 -0.0323432
7413102 0.0010781 -0.0315941 0.9989219 0.0315941 0.9989219 0.0315941 0.0010781 -0.0315941
7585776 0.0010327 -0.0308617 0.9989673 0.0308617 0.9989673 0.0308617 0.0010327 -0.0308617
7762471 0.0009893 -0.0301455 0.9990107 0.0301455 0.9990107 0.0301455 0.0009893 -0.0301455
7943282 0.0009479 -0.0294452 0.9990521 0.0294452 0.9990521 0.0294452 0.0009479 -0.0294452
8128305 0.0009084 -0.0287605 0.9990916 0.0287605 0.9990916 0.0287605 0.0009084 -0.0287605
8317638 0.0008707 -0.0280908 0.9991293 0.0280908 0.9991293 0.0280908 0.0008707 -0.0280908
8511380 0.0008348 -0.0274360 0.9991652 0.0274360 0.9991652 0.0274360 0.0008348 -0.0274360
8709636 0.0008005 -0.0267957 0.9991995 0.0267957 0.9991995 0.0267957 0.0008005 -0.0267957
8912509 0.0007679 -0.0261695 0.9992321 0.0261695 0.9992321 0.0261695 0.0007679 -0.0261695
9120108 0.0007367 -0.0255571 0.9992633 0.0255571 0.9992633 0.0255571 0.0007367 -0.0255571
9332543 0.0007070 -0.0249582 0.9992930 0.0249582 0.9992930 0.0249582 0.0007070 -0.0249582
9549926 0.0006787 -0.0243725 0.9993213 0.0243725 0.9993213 0.0243725 0.0006787 -0.0243725
9772372 0.0006517 -0.0237996 0.9993483 0.0237996 0.9993483 0.0237996 0.0006517 -0.0237996
10000000 0.0006260 -0.0232393 0.9993740 0.0232393 0.9993740 0.0232393 0.0006260 -0.0232393
10232930 0.0006015 -0.0226914 0.9993985 0.0226914 0.9993985 0.0226914 0.0006015 -0.0226914
10471285 0.0005782 -0.0221554 0.9994218 0.0221554 0.9994218 0.0221554 0.0005782 -0.0221554
10715193 0.0005559 -0.0216311 0.9994441 0.0216311 0.9994441 0.0216311 0.0005559 -0.0216311
10964782 0.0005348 -0.0211183 0.9994652 0.0211183 0.9994652 0.0211183 0.0005348 -0.0211183
11220185 0.0005146 -0.0206167 0.9994854 0.0206167 0.9994854 0.0206167 0.0005146 -0.0206167
11481536 0.0004955 -0.0201260 0.9995045 0.0201260 0.9995045 0.0201260 0.0004955 -0.0201260
11748976 0.0004773 -0.0196459 0.9995227 0.0196459 0.9995227 0.0196459 0.0004773 -0.0196459
12022644 0.0004599 -0.0191763 0.9995401 0.0191763 0.9995401 0.0191763 0.0004599 -0.0191763
12302688 0.0004434 -0.0187168 0.9995566 0.0187168 0.9995566 0.0187168 0.0004434 -0.0187168
12589254 0.0004278 -0.0182673 0.9995722 0.0182673 0.9995722 0.0182673 0.0004278 -0.0182673
12882496 0.0004129 -0.0178274 0.9995871 0.0178274 0.9995871 0.0178274 0.0004129 -0.0178274
13182567 0.0003987 -0.0173970 0.9996013 0.0173970 0.9996013 0.0173970 0.0003987 -0.0173970
13489629 0.0003853 -0.0169759 0.9996147 0.0169759 0.9996147 0.0169759 0.0003853 -0.0169759
13803843 0.0003726 -0.0165638 0.9996274 0.0165638 0.9996274 0.0165638 0.0003726 -0.0165638
14125375 0.0003605 -0.0161604 0.9996395 0.0161604 0.9996395 0.0161604 0.0003605 -0.0161604
14454398 0.0003491 -0.0157657 0.9996509 0.0157657 0.9996509 0.0157657 0.0003491 -0.0157657
14791084 0.0003382 -0.0153793 0.9996618 0.0153793 0.9996618 0.0153793 0.0003382 -0.0153793
