!Murata Part Number: GRM2165C1H331JA01
!These Parameters are Measured in Series Mode Connection
!Data Generated on Mar 30, 2021
!       o--ll--o
!Port1            Port2
!       o------o
!Operation Temp=25[degC], DC Bias Voltage=0[V]
!Freq. Start=100[MHz] Stop=9[GHz] 401[Steps]
# Hz S RI R 50
!Freq.(Hz) S11(Real) S11(Imag) S21(Real) S21(Imag) S12(Real) S12(Imag) S22(Real) S22(Imag)
100000000 0.0027584 -0.0446062 0.9972416 0.0446062 0.9972416 0.0446062 0.0027584 -0.0446062
121000000 0.0020395 -0.0355664 0.9979605 0.0355664 0.9979605 0.0355664 0.0020395 -0.0355664
142000000 0.0016230 -0.0289758 0.9983770 0.0289758 0.9983770 0.0289758 0.0016230 -0.0289758
163000000 0.0013652 -0.0238922 0.9986348 0.0238922 0.9986348 0.0238922 0.0013652 -0.0238922
184000000 0.0011990 -0.0198016 0.9988010 0.0198016 0.9988010 0.0198016 0.0011990 -0.0198016
205000000 0.0010897 -0.0163997 0.9989103 0.0163997 0.9989103 0.0163997 0.0010897 -0.0163997
226000000 0.0010178 -0.0134952 0.9989822 0.0134952 0.9989822 0.0134952 0.0010178 -0.0134952
247000000 0.0009719 -0.0109613 0.9990281 0.0109613 0.9990281 0.0109613 0.0009719 -0.0109613
268000000 0.0009447 -0.0087113 0.9990553 0.0087113 0.9990553 0.0087113 0.0009447 -0.0087113
289000000 0.0009314 -0.0066832 0.9990686 0.0066832 0.9990686 0.0066832 0.0009314 -0.0066832
310000000 0.0009289 -0.0048321 0.9990711 0.0048321 0.9990711 0.0048321 0.0009289 -0.0048321
331000000 0.0009350 -0.0031242 0.9990650 0.0031242 0.9990650 0.0031242 0.0009350 -0.0031242
352000000 0.0009481 -0.0015338 0.9990519 0.0015338 0.9990519 0.0015338 0.0009481 -0.0015338
373000000 0.0009671 -0.0000412 0.9990329 0.0000412 0.9990329 0.0000412 0.0009671 -0.0000412
394000000 0.0009912 0.0013696 0.9990088 -0.0013696 0.9990088 -0.0013696 0.0009912 0.0013696
415000000 0.0010197 0.0027109 0.9989803 -0.0027109 0.9989803 -0.0027109 0.0010197 0.0027109
436000000 0.0010522 0.0039928 0.9989478 -0.0039928 0.9989478 -0.0039928 0.0010522 0.0039928
457000000 0.0010883 0.0052238 0.9989117 -0.0052238 0.9989117 -0.0052238 0.0010883 0.0052238
478000000 0.0011279 0.0064106 0.9988721 -0.0064106 0.9988721 -0.0064106 0.0011279 0.0064106
499000000 0.0011708 0.0075589 0.9988292 -0.0075589 0.9988292 -0.0075589 0.0011708 0.0075589
520000000 0.0012168 0.0086736 0.9987832 -0.0086736 0.9987832 -0.0086736 0.0012168 0.0086736
541000000 0.0012659 0.0097586 0.9987341 -0.0097586 0.9987341 -0.0097586 0.0012659 0.0097586
562000000 0.0013180 0.0108173 0.9986820 -0.0108173 0.9986820 -0.0108173 0.0013180 0.0108173
583000000 0.0013731 0.0118529 0.9986269 -0.0118529 0.9986269 -0.0118529 0.0013731 0.0118529
604000000 0.0014313 0.0128677 0.9985687 -0.0128677 0.9985687 -0.0128677 0.0014313 0.0128677
625000000 0.0014926 0.0138640 0.9985074 -0.0138640 0.9985074 -0.0138640 0.0014926 0.0138640
646000000 0.0015570 0.0148437 0.9984430 -0.0148437 0.9984430 -0.0148437 0.0015570 0.0148437
667000000 0.0016247 0.0158085 0.9983753 -0.0158085 0.9983753 -0.0158085 0.0016247 0.0158085
688000000 0.0016958 0.0167598 0.9983042 -0.0167598 0.9983042 -0.0167598 0.0016958 0.0167598
709000000 0.0017703 0.0176989 0.9982297 -0.0176989 0.9982297 -0.0176989 0.0017703 0.0176989
730000000 0.0018484 0.0186269 0.9981516 -0.0186269 0.9981516 -0.0186269 0.0018484 0.0186269
751000000 0.0019303 0.0195448 0.9980697 -0.0195448 0.9980697 -0.0195448 0.0019303 0.0195448
772000000 0.0020161 0.0204535 0.9979839 -0.0204535 0.9979839 -0.0204535 0.0020161 0.0204535
793000000 0.0021061 0.0213537 0.9978939 -0.0213537 0.9978939 -0.0213537 0.0021061 0.0213537
814000000 0.0022003 0.0222460 0.9977997 -0.0222460 0.9977997 -0.0222460 0.0022003 0.0222460
835000000 0.0022991 0.0231309 0.9977009 -0.0231309 0.9977009 -0.0231309 0.0022991 0.0231309
856000000 0.0024026 0.0240090 0.9975974 -0.0240090 0.9975974 -0.0240090 0.0024026 0.0240090
877000000 0.0025112 0.0248806 0.9974888 -0.0248806 0.9974888 -0.0248806 0.0025112 0.0248806
898000000 0.0026249 0.0257460 0.9973751 -0.0257460 0.9973751 -0.0257460 0.0026249 0.0257460
919000000 0.0027442 0.0266052 0.9972558 -0.0266052 0.9972558 -0.0266052 0.0027442 0.0266052
940000000 0.0028693 0.0274586 0.9971307 -0.0274586 0.9971307 -0.0274586 0.0028693 0.0274586
961000000 0.0030004 0.0283060 0.9969996 -0.0283060 0.9969996 -0.0283060 0.0030004 0.0283060
982000000 0.0031378 0.0291473 0.9968622 -0.0291473 0.9968622 -0.0291473 0.0031378 0.0291473
1003000000 0.0032817 0.0299824 0.9967183 -0.0299824 0.9967183 -0.0299824 0.0032817 0.0299824
1024000000 0.0034323 0.0308110 0.9965677 -0.0308110 0.9965677 -0.0308110 0.0034323 0.0308110
1045000000 0.0035898 0.0316327 0.9964102 -0.0316327 0.9964102 -0.0316327 0.0035898 0.0316327
1066000000 0.0037542 0.0324469 0.9962458 -0.0324469 0.9962458 -0.0324469 0.0037542 0.0324469
1087000000 0.0039256 0.0332531 0.9960744 -0.0332531 0.9960744 -0.0332531 0.0039256 0.0332531
1108000000 0.0041038 0.0340506 0.9958962 -0.0340506 0.9958962 -0.0340506 0.0041038 0.0340506
1129000000 0.0042886 0.0348385 0.9957114 -0.0348385 0.9957114 -0.0348385 0.0042886 0.0348385
1150000000 0.0044794 0.0356161 0.9955206 -0.0356161 0.9955206 -0.0356161 0.0044794 0.0356161
1171000000 0.0046756 0.0363823 0.9953244 -0.0363823 0.9953244 -0.0363823 0.0046756 0.0363823
1192000000 0.0048763 0.0371364 0.9951237 -0.0371364 0.9951237 -0.0371364 0.0048763 0.0371364
1213000000 0.0050803 0.0378775 0.9949197 -0.0378775 0.9949197 -0.0378775 0.0050803 0.0378775
1234000000 0.0052862 0.0386049 0.9947138 -0.0386049 0.9947138 -0.0386049 0.0052862 0.0386049
1255000000 0.0054923 0.0393182 0.9945077 -0.0393182 0.9945077 -0.0393182 0.0054923 0.0393182
1276000000 0.0056966 0.0400172 0.9943034 -0.0400172 0.9943034 -0.0400172 0.0056966 0.0400172
1297000000 0.0058971 0.0407022 0.9941029 -0.0407022 0.9941029 -0.0407022 0.0058971 0.0407022
1318000000 0.0060916 0.0413737 0.9939084 -0.0413737 0.9939084 -0.0413737 0.0060916 0.0413737
1339000000 0.0062780 0.0420330 0.9937220 -0.0420330 0.9937220 -0.0420330 0.0062780 0.0420330
1360000000 0.0064544 0.0426815 0.9935456 -0.0426815 0.9935456 -0.0426815 0.0064544 0.0426815
1381000000 0.0066192 0.0433214 0.9933808 -0.0433214 0.9933808 -0.0433214 0.0066192 0.0433214
1402000000 0.0067710 0.0439551 0.9932290 -0.0439551 0.9932290 -0.0439551 0.0067710 0.0439551
1423000000 0.0069094 0.0445852 0.9930906 -0.0445852 0.9930906 -0.0445852 0.0069094 0.0445852
1444000000 0.0070342 0.0452144 0.9929658 -0.0452144 0.9929658 -0.0452144 0.0070342 0.0452144
1465000000 0.0071459 0.0458454 0.9928541 -0.0458454 0.9928541 -0.0458454 0.0071459 0.0458454
1486000000 0.0072454 0.0464806 0.9927546 -0.0464806 0.9927546 -0.0464806 0.0072454 0.0464806
1507000000 0.0073343 0.0471221 0.9926657 -0.0471221 0.9926657 -0.0471221 0.0073343 0.0471221
1528000000 0.0074142 0.0477717 0.9925858 -0.0477717 0.9925858 -0.0477717 0.0074142 0.0477717
1549000000 0.0074872 0.0484305 0.9925128 -0.0484305 0.9925128 -0.0484305 0.0074872 0.0484305
1570000000 0.0075552 0.0490994 0.9924448 -0.0490994 0.9924448 -0.0490994 0.0075552 0.0490994
1591000000 0.0076204 0.0497788 0.9923796 -0.0497788 0.9923796 -0.0497788 0.0076204 0.0497788
1612000000 0.0076844 0.0504686 0.9923156 -0.0504686 0.9923156 -0.0504686 0.0076844 0.0504686
1633000000 0.0077492 0.0511686 0.9922508 -0.0511686 0.9922508 -0.0511686 0.0077492 0.0511686
1654000000 0.0078161 0.0518783 0.9921839 -0.0518783 0.9921839 -0.0518783 0.0078161 0.0518783
1675000000 0.0078865 0.0525969 0.9921135 -0.0525969 0.9921135 -0.0525969 0.0078865 0.0525969
1696000000 0.0079615 0.0533238 0.9920385 -0.0533238 0.9920385 -0.0533238 0.0079615 0.0533238
1717000000 0.0080419 0.0540580 0.9919581 -0.0540580 0.9919581 -0.0540580 0.0080419 0.0540580
1738000000 0.0081284 0.0547986 0.9918716 -0.0547986 0.9918716 -0.0547986 0.0081284 0.0547986
1759000000 0.0082216 0.0555449 0.9917784 -0.0555449 0.9917784 -0.0555449 0.0082216 0.0555449
1780000000 0.0083217 0.0562960 0.9916783 -0.0562960 0.9916783 -0.0562960 0.0083217 0.0562960
1801000000 0.0084291 0.0570510 0.9915709 -0.0570510 0.9915709 -0.0570510 0.0084291 0.0570510
1822000000 0.0085440 0.0578093 0.9914560 -0.0578093 0.9914560 -0.0578093 0.0085440 0.0578093
1843000000 0.0086664 0.0585701 0.9913336 -0.0585701 0.9913336 -0.0585701 0.0086664 0.0585701
1864000000 0.0087964 0.0593329 0.9912036 -0.0593329 0.9912036 -0.0593329 0.0087964 0.0593329
1885000000 0.0089340 0.0600969 0.9910660 -0.0600969 0.9910660 -0.0600969 0.0089340 0.0600969
1906000000 0.0090791 0.0608617 0.9909209 -0.0608617 0.9909209 -0.0608617 0.0090791 0.0608617
1927000000 0.0092316 0.0616267 0.9907684 -0.0616267 0.9907684 -0.0616267 0.0092316 0.0616267
1948000000 0.0093914 0.0623915 0.9906086 -0.0623915 0.9906086 -0.0623915 0.0093914 0.0623915
1969000000 0.0095584 0.0631556 0.9904416 -0.0631556 0.9904416 -0.0631556 0.0095584 0.0631556
1990000000 0.0097325 0.0639186 0.9902675 -0.0639186 0.9902675 -0.0639186 0.0097325 0.0639186
2011000000 0.0099136 0.0646801 0.9900864 -0.0646801 0.9900864 -0.0646801 0.0099136 0.0646801
2032000000 0.0101014 0.0654398 0.9898986 -0.0654398 0.9898986 -0.0654398 0.0101014 0.0654398
2053000000 0.0102959 0.0661973 0.9897041 -0.0661973 0.9897041 -0.0661973 0.0102959 0.0661973
2074000000 0.0104968 0.0669521 0.9895032 -0.0669521 0.9895032 -0.0669521 0.0104968 0.0669521
2095000000 0.0107039 0.0677041 0.9892961 -0.0677041 0.9892961 -0.0677041 0.0107039 0.0677041
2116000000 0.0109171 0.0684528 0.9890829 -0.0684528 0.9890829 -0.0684528 0.0109171 0.0684528
2137000000 0.0111362 0.0691980 0.9888638 -0.0691980 0.9888638 -0.0691980 0.0111362 0.0691980
2158000000 0.0113609 0.0699393 0.9886391 -0.0699393 0.9886391 -0.0699393 0.0113609 0.0699393
2179000000 0.0115910 0.0706764 0.9884090 -0.0706764 0.9884090 -0.0706764 0.0115910 0.0706764
2200000000 0.0118263 0.0714091 0.9881737 -0.0714091 0.9881737 -0.0714091 0.0118263 0.0714091
2221000000 0.0120665 0.0721370 0.9879335 -0.0721370 0.9879335 -0.0721370 0.0120665 0.0721370
2242000000 0.0123112 0.0728598 0.9876888 -0.0728598 0.9876888 -0.0728598 0.0123112 0.0728598
2263000000 0.0125602 0.0735772 0.9874398 -0.0735772 0.9874398 -0.0735772 0.0125602 0.0735772
2284000000 0.0128131 0.0742891 0.9871869 -0.0742891 0.9871869 -0.0742891 0.0128131 0.0742891
2305000000 0.0130695 0.0749951 0.9869305 -0.0749951 0.9869305 -0.0749951 0.0130695 0.0749951
2326000000 0.0133292 0.0756949 0.9866708 -0.0756949 0.9866708 -0.0756949 0.0133292 0.0756949
2347000000 0.0135915 0.0763885 0.9864085 -0.0763885 0.9864085 -0.0763885 0.0135915 0.0763885
2368000000 0.0138562 0.0770755 0.9861438 -0.0770755 0.9861438 -0.0770755 0.0138562 0.0770755
2389000000 0.0141227 0.0777558 0.9858773 -0.0777558 0.9858773 -0.0777558 0.0141227 0.0777558
2410000000 0.0143905 0.0784293 0.9856095 -0.0784293 0.9856095 -0.0784293 0.0143905 0.0784293
2431000000 0.0146591 0.0790958 0.9853409 -0.0790958 0.9853409 -0.0790958 0.0146591 0.0790958
2452000000 0.0149280 0.0797552 0.9850720 -0.0797552 0.9850720 -0.0797552 0.0149280 0.0797552
2473000000 0.0151966 0.0804076 0.9848034 -0.0804076 0.9848034 -0.0804076 0.0151966 0.0804076
2494000000 0.0154642 0.0810530 0.9845358 -0.0810530 0.9845358 -0.0810530 0.0154642 0.0810530
2515000000 0.0157304 0.0816913 0.9842696 -0.0816913 0.9842696 -0.0816913 0.0157304 0.0816913
2536000000 0.0159944 0.0823227 0.9840056 -0.0823227 0.9840056 -0.0823227 0.0159944 0.0823227
2557000000 0.0162557 0.0829474 0.9837443 -0.0829474 0.9837443 -0.0829474 0.0162557 0.0829474
2578000000 0.0165136 0.0835656 0.9834864 -0.0835656 0.9834864 -0.0835656 0.0165136 0.0835656
2599000000 0.0167676 0.0841775 0.9832324 -0.0841775 0.9832324 -0.0841775 0.0167676 0.0841775
2620000000 0.0170170 0.0847836 0.9829830 -0.0847836 0.9829830 -0.0847836 0.0170170 0.0847836
2641000000 0.0172613 0.0853841 0.9827387 -0.0853841 0.9827387 -0.0853841 0.0172613 0.0853841
2662000000 0.0174998 0.0859796 0.9825002 -0.0859796 0.9825002 -0.0859796 0.0174998 0.0859796
2683000000 0.0177322 0.0865706 0.9822678 -0.0865706 0.9822678 -0.0865706 0.0177322 0.0865706
2704000000 0.0179578 0.0871576 0.9820422 -0.0871576 0.9820422 -0.0871576 0.0179578 0.0871576
2725000000 0.0181763 0.0877412 0.9818237 -0.0877412 0.9818237 -0.0877412 0.0181763 0.0877412
2746000000 0.0183874 0.0883221 0.9816126 -0.0883221 0.9816126 -0.0883221 0.0183874 0.0883221
2767000000 0.0185906 0.0889010 0.9814094 -0.0889010 0.9814094 -0.0889010 0.0185906 0.0889010
2788000000 0.0187857 0.0894786 0.9812143 -0.0894786 0.9812143 -0.0894786 0.0187857 0.0894786
2809000000 0.0189725 0.0900556 0.9810275 -0.0900556 0.9810275 -0.0900556 0.0189725 0.0900556
2830000000 0.0191510 0.0906329 0.9808490 -0.0906329 0.9808490 -0.0906329 0.0191510 0.0906329
2851000000 0.0193210 0.0912112 0.9806790 -0.0912112 0.9806790 -0.0912112 0.0193210 0.0912112
2872000000 0.0194825 0.0917913 0.9805175 -0.0917913 0.9805175 -0.0917913 0.0194825 0.0917913
2893000000 0.0196358 0.0923739 0.9803642 -0.0923739 0.9803642 -0.0923739 0.0196358 0.0923739
2914000000 0.0197808 0.0929599 0.9802192 -0.0929599 0.9802192 -0.0929599 0.0197808 0.0929599
2935000000 0.0199179 0.0935499 0.9800821 -0.0935499 0.9800821 -0.0935499 0.0199179 0.0935499
2956000000 0.0200473 0.0941446 0.9799527 -0.0941446 0.9799527 -0.0941446 0.0200473 0.0941446
2977000000 0.0201694 0.0947448 0.9798306 -0.0947448 0.9798306 -0.0947448 0.0201694 0.0947448
2998000000 0.0202845 0.0953510 0.9797155 -0.0953510 0.9797155 -0.0953510 0.0202845 0.0953510
3019000000 0.0203932 0.0959638 0.9796068 -0.0959638 0.9796068 -0.0959638 0.0203932 0.0959638
3040000000 0.0204958 0.0965838 0.9795042 -0.0965838 0.9795042 -0.0965838 0.0204958 0.0965838
3061000000 0.0205930 0.0972114 0.9794070 -0.0972114 0.9794070 -0.0972114 0.0205930 0.0972114
3082000000 0.0206852 0.0978471 0.9793148 -0.0978471 0.9793148 -0.0978471 0.0206852 0.0978471
3103000000 0.0207729 0.0984912 0.9792271 -0.0984912 0.9792271 -0.0984912 0.0207729 0.0984912
3124000000 0.0208569 0.0991440 0.9791431 -0.0991440 0.9791431 -0.0991440 0.0208569 0.0991440
3145000000 0.0209376 0.0998058 0.9790624 -0.0998058 0.9790624 -0.0998058 0.0209376 0.0998058
3166000000 0.0210156 0.1004768 0.9789844 -0.1004768 0.9789844 -0.1004768 0.0210156 0.1004768
3187000000 0.0210916 0.1011572 0.9789084 -0.1011572 0.9789084 -0.1011572 0.0210916 0.1011572
3208000000 0.0211660 0.1018471 0.9788340 -0.1018471 0.9788340 -0.1018471 0.0211660 0.1018471
3229000000 0.0212395 0.1025465 0.9787605 -0.1025465 0.9787605 -0.1025465 0.0212395 0.1025465
3250000000 0.0213126 0.1032555 0.9786874 -0.1032555 0.9786874 -0.1032555 0.0213126 0.1032555
3271000000 0.0213858 0.1039740 0.9786142 -0.1039740 0.9786142 -0.1039740 0.0213858 0.1039740
3292000000 0.0214595 0.1047021 0.9785405 -0.1047021 0.9785405 -0.1047021 0.0214595 0.1047021
3313000000 0.0215344 0.1054395 0.9784656 -0.1054395 0.9784656 -0.1054395 0.0215344 0.1054395
3334000000 0.0216108 0.1061863 0.9783892 -0.1061863 0.9783892 -0.1061863 0.0216108 0.1061863
3355000000 0.0216891 0.1069423 0.9783109 -0.1069423 0.9783109 -0.1069423 0.0216891 0.1069423
3376000000 0.0217698 0.1077073 0.9782302 -0.1077073 0.9782302 -0.1077073 0.0217698 0.1077073
3397000000 0.0218533 0.1084812 0.9781467 -0.1084812 0.9781467 -0.1084812 0.0218533 0.1084812
3418000000 0.0219398 0.1092638 0.9780602 -0.1092638 0.9780602 -0.1092638 0.0219398 0.1092638
3439000000 0.0220297 0.1100550 0.9779703 -0.1100550 0.9779703 -0.1100550 0.0220297 0.1100550
3460000000 0.0221234 0.1108545 0.9778766 -0.1108545 0.9778766 -0.1108545 0.0221234 0.1108545
3481000000 0.0222210 0.1116621 0.9777790 -0.1116621 0.9777790 -0.1116621 0.0222210 0.1116621
3502000000 0.0223228 0.1124776 0.9776772 -0.1124776 0.9776772 -0.1124776 0.0223228 0.1124776
3523000000 0.0224292 0.1133009 0.9775708 -0.1133009 0.9775708 -0.1133009 0.0224292 0.1133009
3544000000 0.0225401 0.1141317 0.9774599 -0.1141317 0.9774599 -0.1141317 0.0225401 0.1141317
3565000000 0.0226560 0.1149698 0.9773440 -0.1149698 0.9773440 -0.1149698 0.0226560 0.1149698
3586000000 0.0227769 0.1158150 0.9772231 -0.1158150 0.9772231 -0.1158150 0.0227769 0.1158150
3607000000 0.0229029 0.1166672 0.9770971 -0.1166672 0.9770971 -0.1166672 0.0229029 0.1166672
3628000000 0.0230343 0.1175261 0.9769657 -0.1175261 0.9769657 -0.1175261 0.0230343 0.1175261
3649000000 0.0231712 0.1183916 0.9768288 -0.1183916 0.9768288 -0.1183916 0.0231712 0.1183916
3670000000 0.0233136 0.1192635 0.9766864 -0.1192635 0.9766864 -0.1192635 0.0233136 0.1192635
3691000000 0.0234617 0.1201415 0.9765383 -0.1201415 0.9765383 -0.1201415 0.0234617 0.1201415
3712000000 0.0236156 0.1210256 0.9763844 -0.1210256 0.9763844 -0.1210256 0.0236156 0.1210256
3733000000 0.0237754 0.1219157 0.9762246 -0.1219157 0.9762246 -0.1219157 0.0237754 0.1219157
3754000000 0.0239411 0.1228114 0.9760589 -0.1228114 0.9760589 -0.1228114 0.0239411 0.1228114
3775000000 0.0241129 0.1237128 0.9758871 -0.1237128 0.9758871 -0.1237128 0.0241129 0.1237128
3796000000 0.0242908 0.1246196 0.9757092 -0.1246196 0.9757092 -0.1246196 0.0242908 0.1246196
3817000000 0.0244748 0.1255318 0.9755252 -0.1255318 0.9755252 -0.1255318 0.0244748 0.1255318
3838000000 0.0246651 0.1264492 0.9753349 -0.1264492 0.9753349 -0.1264492 0.0246651 0.1264492
3859000000 0.0248616 0.1273717 0.9751384 -0.1273717 0.9751384 -0.1273717 0.0248616 0.1273717
3880000000 0.0250646 0.1282992 0.9749354 -0.1282992 0.9749354 -0.1282992 0.0250646 0.1282992
3901000000 0.0252739 0.1292317 0.9747261 -0.1292317 0.9747261 -0.1292317 0.0252739 0.1292317
3922000000 0.0254897 0.1301689 0.9745103 -0.1301689 0.9745103 -0.1301689 0.0254897 0.1301689
3943000000 0.0257121 0.1311108 0.9742879 -0.1311108 0.9742879 -0.1311108 0.0257121 0.1311108
3964000000 0.0259411 0.1320573 0.9740589 -0.1320573 0.9740589 -0.1320573 0.0259411 0.1320573
3985000000 0.0261767 0.1330084 0.9738233 -0.1330084 0.9738233 -0.1330084 0.0261767 0.1330084
4006000000 0.0264191 0.1339640 0.9735809 -0.1339640 0.9735809 -0.1339640 0.0264191 0.1339640
4027000000 0.0266683 0.1349239 0.9733317 -0.1349239 0.9733317 -0.1349239 0.0266683 0.1349239
4048000000 0.0269244 0.1358881 0.9730756 -0.1358881 0.9730756 -0.1358881 0.0269244 0.1358881
4069000000 0.0271875 0.1368566 0.9728125 -0.1368566 0.9728125 -0.1368566 0.0271875 0.1368566
4090000000 0.0274577 0.1378291 0.9725423 -0.1378291 0.9725423 -0.1378291 0.0274577 0.1378291
4111000000 0.0277351 0.1388058 0.9722649 -0.1388058 0.9722649 -0.1388058 0.0277351 0.1388058
4132000000 0.0280197 0.1397865 0.9719803 -0.1397865 0.9719803 -0.1397865 0.0280197 0.1397865
4153000000 0.0283116 0.1407710 0.9716884 -0.1407710 0.9716884 -0.1407710 0.0283116 0.1407710
4174000000 0.0286111 0.1417594 0.9713889 -0.1417594 0.9713889 -0.1417594 0.0286111 0.1417594
4195000000 0.0289182 0.1427515 0.9710818 -0.1427515 0.9710818 -0.1427515 0.0289182 0.1427515
4216000000 0.0292330 0.1437473 0.9707670 -0.1437473 0.9707670 -0.1437473 0.0292330 0.1437473
4237000000 0.0295557 0.1447466 0.9704443 -0.1447466 0.9704443 -0.1447466 0.0295557 0.1447466
4258000000 0.0298865 0.1457492 0.9701135 -0.1457492 0.9701135 -0.1457492 0.0298865 0.1457492
4279000000 0.0302254 0.1467552 0.9697746 -0.1467552 0.9697746 -0.1467552 0.0302254 0.1467552
4300000000 0.0305727 0.1477643 0.9694273 -0.1477643 0.9694273 -0.1477643 0.0305727 0.1477643
4321000000 0.0309284 0.1487764 0.9690716 -0.1487764 0.9690716 -0.1487764 0.0309284 0.1487764
4342000000 0.0312929 0.1497912 0.9687071 -0.1497912 0.9687071 -0.1497912 0.0312929 0.1497912
4363000000 0.0316663 0.1508087 0.9683337 -0.1508087 0.9683337 -0.1508087 0.0316663 0.1508087
4384000000 0.0320488 0.1518285 0.9679512 -0.1518285 0.9679512 -0.1518285 0.0320488 0.1518285
4405000000 0.0324405 0.1528504 0.9675595 -0.1528504 0.9675595 -0.1528504 0.0324405 0.1528504
4426000000 0.0328416 0.1538741 0.9671584 -0.1538741 0.9671584 -0.1538741 0.0328416 0.1538741
4447000000 0.0332525 0.1548993 0.9667475 -0.1548993 0.9667475 -0.1548993 0.0332525 0.1548993
4468000000 0.0336731 0.1559256 0.9663269 -0.1559256 0.9663269 -0.1559256 0.0336731 0.1559256
4489000000 0.0341038 0.1569526 0.9658962 -0.1569526 0.9658962 -0.1569526 0.0341038 0.1569526
4510000000 0.0345446 0.1579798 0.9654554 -0.1579798 0.9654554 -0.1579798 0.0345446 0.1579798
