!Murata Part Number: GRM21A5C2E180JW01
!These Parameters are Measured in Series Mode Connection
!Data Generated on Mar 30, 2021
!       o--ll--o
!Port1            Port2
!       o------o
!Operation Temp=25[degC], DC Bias Voltage=0[V]
!Freq. Start=100[MHz] Stop=3[GHz] 401[Steps]
# Hz S RI R 50
!Freq.(Hz) S11(Real) S11(Imag) S21(Real) S21(Imag) S12(Real) S12(Imag) S22(Real) S22(Imag)
100000000 0.4366044 -0.4947474 0.5633956 0.4947474 0.5633956 0.4947474 0.4366044 -0.4947474
107250000 0.4022883 -0.4890528 0.5977117 0.4890528 0.5977117 0.4890528 0.4022883 -0.4890528
114500000 0.3710223 -0.4816820 0.6289777 0.4816820 0.6289777 0.4816820 0.3710223 -0.4816820
121750000 0.3425924 -0.4730901 0.6574076 0.4730901 0.6574076 0.4730901 0.3425924 -0.4730901
129000000 0.3167696 -0.4636402 0.6832304 0.4636402 0.6832304 0.4636402 0.3167696 -0.4636402
136250000 0.2933241 -0.4536186 0.7066759 0.4536186 0.7066759 0.4536186 0.2933241 -0.4536186
143500000 0.2720335 -0.4432492 0.7279665 0.4432492 0.7279665 0.4432492 0.2720335 -0.4432492
150750000 0.2526888 -0.4327049 0.7473112 0.4327049 0.7473112 0.4327049 0.2526888 -0.4327049
158000000 0.2350963 -0.4221184 0.7649037 0.4221184 0.7649037 0.4221184 0.2350963 -0.4221184
165250000 0.2190792 -0.4115899 0.7809208 0.4115899 0.7809208 0.4115899 0.2190792 -0.4115899
172500000 0.2044774 -0.4011944 0.7955226 0.4011944 0.7955226 0.4011944 0.2044774 -0.4011944
179750000 0.1911466 -0.3909868 0.8088534 0.3909868 0.8088534 0.3909868 0.1911466 -0.3909868
187000000 0.1789578 -0.3810064 0.8210422 0.3810064 0.8210422 0.3810064 0.1789578 -0.3810064
194250000 0.1677954 -0.3712804 0.8322046 0.3712804 0.8322046 0.3712804 0.1677954 -0.3712804
201500000 0.1575565 -0.3618266 0.8424435 0.3618266 0.8424435 0.3618266 0.1575565 -0.3618266
208750000 0.1481494 -0.3526554 0.8518506 0.3526554 0.8518506 0.3526554 0.1481494 -0.3526554
216000000 0.1394924 -0.3437720 0.8605076 0.3437720 0.8605076 0.3437720 0.1394924 -0.3437720
223250000 0.1315128 -0.3351772 0.8684872 0.3351772 0.8684872 0.3351772 0.1315128 -0.3351772
230500000 0.1241457 -0.3268685 0.8758543 0.3268685 0.8758543 0.3268685 0.1241457 -0.3268685
237750000 0.1173334 -0.3188414 0.8826666 0.3188414 0.8826666 0.3188414 0.1173334 -0.3188414
245000000 0.1110245 -0.3110895 0.8889755 0.3110895 0.8889755 0.3110895 0.1110245 -0.3110895
252250000 0.1051727 -0.3036051 0.8948273 0.3036051 0.8948273 0.3036051 0.1051727 -0.3036051
259500000 0.0997371 -0.2963800 0.9002629 0.2963800 0.9002629 0.2963800 0.0997371 -0.2963800
266750000 0.0946806 -0.2894051 0.9053194 0.2894051 0.9053194 0.2894051 0.0946806 -0.2894051
274000000 0.0899703 -0.2826713 0.9100297 0.2826713 0.9100297 0.2826713 0.0899703 -0.2826713
281250000 0.0855765 -0.2761694 0.9144235 0.2761694 0.9144235 0.2761694 0.0855765 -0.2761694
288500000 0.0814725 -0.2698900 0.9185275 0.2698900 0.9185275 0.2698900 0.0814725 -0.2698900
295750000 0.0776342 -0.2638239 0.9223658 0.2638239 0.9223658 0.2638239 0.0776342 -0.2638239
303000000 0.0740399 -0.2579622 0.9259601 0.2579622 0.9259601 0.2579622 0.0740399 -0.2579622
310250000 0.0706702 -0.2522960 0.9293298 0.2522960 0.9293298 0.2522960 0.0706702 -0.2522960
317500000 0.0675072 -0.2468171 0.9324928 0.2468171 0.9324928 0.2468171 0.0675072 -0.2468171
324750000 0.0645348 -0.2415171 0.9354652 0.2415171 0.9354652 0.2415171 0.0645348 -0.2415171
332000000 0.0617386 -0.2363883 0.9382614 0.2363883 0.9382614 0.2363883 0.0617386 -0.2363883
339250000 0.0591053 -0.2314231 0.9408947 0.2314231 0.9408947 0.2314231 0.0591053 -0.2314231
346500000 0.0566228 -0.2266144 0.9433772 0.2266144 0.9433772 0.2266144 0.0566228 -0.2266144
353750000 0.0542801 -0.2219552 0.9457199 0.2219552 0.9457199 0.2219552 0.0542801 -0.2219552
361000000 0.0520673 -0.2174390 0.9479327 0.2174390 0.9479327 0.2174390 0.0520673 -0.2174390
368250000 0.0499751 -0.2130595 0.9500249 0.2130595 0.9500249 0.2130595 0.0499751 -0.2130595
375500000 0.0479953 -0.2088109 0.9520047 0.2088109 0.9520047 0.2088109 0.0479953 -0.2088109
382750000 0.0461200 -0.2046873 0.9538800 0.2046873 0.9538800 0.2046873 0.0461200 -0.2046873
390000000 0.0443424 -0.2006835 0.9556576 0.2006835 0.9556576 0.2006835 0.0443424 -0.2006835
397250000 0.0426558 -0.1967944 0.9573442 0.1967944 0.9573442 0.1967944 0.0426558 -0.1967944
404500000 0.0410543 -0.1930150 0.9589457 0.1930150 0.9589457 0.1930150 0.0410543 -0.1930150
411750000 0.0395326 -0.1893407 0.9604674 0.1893407 0.9604674 0.1893407 0.0395326 -0.1893407
419000000 0.0380854 -0.1857672 0.9619146 0.1857672 0.9619146 0.1857672 0.0380854 -0.1857672
426250000 0.0367082 -0.1822902 0.9632918 0.1822902 0.9632918 0.1822902 0.0367082 -0.1822902
433500000 0.0353966 -0.1789059 0.9646034 0.1789059 0.9646034 0.1789059 0.0353966 -0.1789059
440750000 0.0341467 -0.1756103 0.9658533 0.1756103 0.9658533 0.1756103 0.0341467 -0.1756103
448000000 0.0329548 -0.1724000 0.9670452 0.1724000 0.9670452 0.1724000 0.0329548 -0.1724000
455250000 0.0318174 -0.1692715 0.9681826 0.1692715 0.9681826 0.1692715 0.0318174 -0.1692715
462500000 0.0307314 -0.1662215 0.9692686 0.1662215 0.9692686 0.1662215 0.0307314 -0.1662215
469750000 0.0296938 -0.1632471 0.9703062 0.1632471 0.9703062 0.1632471 0.0296938 -0.1632471
477000000 0.0287018 -0.1603452 0.9712982 0.1603452 0.9712982 0.1603452 0.0287018 -0.1603452
484250000 0.0277530 -0.1575130 0.9722470 0.1575130 0.9722470 0.1575130 0.0277530 -0.1575130
491500000 0.0268450 -0.1547479 0.9731550 0.1547479 0.9731550 0.1547479 0.0268450 -0.1547479
498750000 0.0259754 -0.1520474 0.9740246 0.1520474 0.9740246 0.1520474 0.0259754 -0.1520474
506000000 0.0251423 -0.1494090 0.9748577 0.1494090 0.9748577 0.1494090 0.0251423 -0.1494090
513250000 0.0243438 -0.1468304 0.9756562 0.1468304 0.9756562 0.1468304 0.0243438 -0.1468304
520500000 0.0235780 -0.1443094 0.9764220 0.1443094 0.9764220 0.1443094 0.0235780 -0.1443094
527750000 0.0228431 -0.1418440 0.9771569 0.1418440 0.9771569 0.1418440 0.0228431 -0.1418440
535000000 0.0221378 -0.1394320 0.9778622 0.1394320 0.9778622 0.1394320 0.0221378 -0.1394320
542250000 0.0214604 -0.1370717 0.9785396 0.1370717 0.9785396 0.1370717 0.0214604 -0.1370717
549500000 0.0208096 -0.1347612 0.9791904 0.1347612 0.9791904 0.1347612 0.0208096 -0.1347612
556750000 0.0201840 -0.1324987 0.9798160 0.1324987 0.9798160 0.1324987 0.0201840 -0.1324987
564000000 0.0195825 -0.1302826 0.9804175 0.1302826 0.9804175 0.1302826 0.0195825 -0.1302826
571250000 0.0190039 -0.1281113 0.9809961 0.1281113 0.9809961 0.1281113 0.0190039 -0.1281113
578500000 0.0184471 -0.1259832 0.9815529 0.1259832 0.9815529 0.1259832 0.0184471 -0.1259832
585750000 0.0179110 -0.1238970 0.9820890 0.1238970 0.9820890 0.1238970 0.0179110 -0.1238970
593000000 0.0173948 -0.1218511 0.9826052 0.1218511 0.9826052 0.1218511 0.0173948 -0.1218511
600250000 0.0168975 -0.1198444 0.9831025 0.1198444 0.9831025 0.1198444 0.0168975 -0.1198444
607500000 0.0164182 -0.1178754 0.9835818 0.1178754 0.9835818 0.1178754 0.0164182 -0.1178754
614750000 0.0159562 -0.1159429 0.9840438 0.1159429 0.9840438 0.1159429 0.0159562 -0.1159429
622000000 0.0155107 -0.1140459 0.9844893 0.1140459 0.9844893 0.1140459 0.0155107 -0.1140459
629250000 0.0150810 -0.1121831 0.9849190 0.1121831 0.9849190 0.1121831 0.0150810 -0.1121831
636500000 0.0146663 -0.1103535 0.9853337 0.1103535 0.9853337 0.1103535 0.0146663 -0.1103535
643750000 0.0142661 -0.1085560 0.9857339 0.1085560 0.9857339 0.1085560 0.0142661 -0.1085560
651000000 0.0138797 -0.1067897 0.9861203 0.1067897 0.9861203 0.1067897 0.0138797 -0.1067897
658250000 0.0135066 -0.1050536 0.9864934 0.1050536 0.9864934 0.1050536 0.0135066 -0.1050536
665500000 0.0131462 -0.1033467 0.9868538 0.1033467 0.9868538 0.1033467 0.0131462 -0.1033467
672750000 0.0127980 -0.1016682 0.9872020 0.1016682 0.9872020 0.1016682 0.0127980 -0.1016682
680000000 0.0124615 -0.1000172 0.9875385 0.1000172 0.9875385 0.1000172 0.0124615 -0.1000172
687250000 0.0121362 -0.0983929 0.9878638 0.0983929 0.9878638 0.0983929 0.0121362 -0.0983929
694500000 0.0118217 -0.0967946 0.9881783 0.0967946 0.9881783 0.0967946 0.0118217 -0.0967946
701750000 0.0115176 -0.0952214 0.9884824 0.0952214 0.9884824 0.0952214 0.0115176 -0.0952214
709000000 0.0112234 -0.0936727 0.9887766 0.0936727 0.9887766 0.0936727 0.0112234 -0.0936727
716250000 0.0109389 -0.0921477 0.9890611 0.0921477 0.9890611 0.0921477 0.0109389 -0.0921477
723500000 0.0106635 -0.0906458 0.9893365 0.0906458 0.9893365 0.0906458 0.0106635 -0.0906458
730750000 0.0103970 -0.0891663 0.9896030 0.0891663 0.9896030 0.0891663 0.0103970 -0.0891663
738000000 0.0101391 -0.0877085 0.9898609 0.0877085 0.9898609 0.0877085 0.0101391 -0.0877085
745250000 0.0098894 -0.0862720 0.9901106 0.0862720 0.9901106 0.0862720 0.0098894 -0.0862720
752500000 0.0096476 -0.0848560 0.9903524 0.0848560 0.9903524 0.0848560 0.0096476 -0.0848560
759750000 0.0094135 -0.0834601 0.9905865 0.0834601 0.9905865 0.0834601 0.0094135 -0.0834601
767000000 0.0091867 -0.0820837 0.9908133 0.0820837 0.9908133 0.0820837 0.0091867 -0.0820837
774250000 0.0089671 -0.0807262 0.9910329 0.0807262 0.9910329 0.0807262 0.0089671 -0.0807262
781500000 0.0087544 -0.0793872 0.9912456 0.0793872 0.9912456 0.0793872 0.0087544 -0.0793872
788750000 0.0085482 -0.0780662 0.9914518 0.0780662 0.9914518 0.0780662 0.0085482 -0.0780662
796000000 0.0083485 -0.0767627 0.9916515 0.0767627 0.9916515 0.0767627 0.0083485 -0.0767627
803250000 0.0081550 -0.0754762 0.9918450 0.0754762 0.9918450 0.0754762 0.0081550 -0.0754762
810500000 0.0079674 -0.0742063 0.9920326 0.0742063 0.9920326 0.0742063 0.0079674 -0.0742063
817750000 0.0077857 -0.0729526 0.9922143 0.0729526 0.9922143 0.0729526 0.0077857 -0.0729526
825000000 0.0076095 -0.0717146 0.9923905 0.0717146 0.9923905 0.0717146 0.0076095 -0.0717146
832250000 0.0074388 -0.0704920 0.9925612 0.0704920 0.9925612 0.0704920 0.0074388 -0.0704920
839500000 0.0072733 -0.0692844 0.9927267 0.0692844 0.9927267 0.0692844 0.0072733 -0.0692844
846750000 0.0071128 -0.0680914 0.9928872 0.0680914 0.9928872 0.0680914 0.0071128 -0.0680914
854000000 0.0069573 -0.0669127 0.9930427 0.0669127 0.9930427 0.0669127 0.0069573 -0.0669127
861250000 0.0068065 -0.0657478 0.9931935 0.0657478 0.9931935 0.0657478 0.0068065 -0.0657478
868500000 0.0066604 -0.0645965 0.9933396 0.0645965 0.9933396 0.0645965 0.0066604 -0.0645965
875750000 0.0065187 -0.0634584 0.9934813 0.0634584 0.9934813 0.0634584 0.0065187 -0.0634584
883000000 0.0063814 -0.0623332 0.9936186 0.0623332 0.9936186 0.0623332 0.0063814 -0.0623332
890250000 0.0062483 -0.0612206 0.9937517 0.0612206 0.9937517 0.0612206 0.0062483 -0.0612206
897500000 0.0061192 -0.0601203 0.9938808 0.0601203 0.9938808 0.0601203 0.0061192 -0.0601203
904750000 0.0059942 -0.0590320 0.9940058 0.0590320 0.9940058 0.0590320 0.0059942 -0.0590320
912000000 0.0058730 -0.0579555 0.9941270 0.0579555 0.9941270 0.0579555 0.0058730 -0.0579555
919250000 0.0057555 -0.0568903 0.9942445 0.0568903 0.9942445 0.0568903 0.0057555 -0.0568903
926500000 0.0056416 -0.0558364 0.9943584 0.0558364 0.9943584 0.0558364 0.0056416 -0.0558364
933750000 0.0055313 -0.0547934 0.9944687 0.0547934 0.9944687 0.0547934 0.0055313 -0.0547934
941000000 0.0054244 -0.0537611 0.9945756 0.0537611 0.9945756 0.0537611 0.0054244 -0.0537611
948250000 0.0053209 -0.0527392 0.9946791 0.0527392 0.9946791 0.0527392 0.0053209 -0.0527392
955500000 0.0052206 -0.0517275 0.9947794 0.0517275 0.9947794 0.0517275 0.0052206 -0.0517275
962750000 0.0051234 -0.0507258 0.9948766 0.0507258 0.9948766 0.0507258 0.0051234 -0.0507258
970000000 0.0050294 -0.0497338 0.9949706 0.0497338 0.9949706 0.0497338 0.0050294 -0.0497338
977250000 0.0049383 -0.0487514 0.9950617 0.0487514 0.9950617 0.0487514 0.0049383 -0.0487514
984500000 0.0048502 -0.0477783 0.9951498 0.0477783 0.9951498 0.0477783 0.0048502 -0.0477783
991750000 0.0047649 -0.0468143 0.9952351 0.0468143 0.9952351 0.0468143 0.0047649 -0.0468143
999000000 0.0046823 -0.0458592 0.9953177 0.0458592 0.9953177 0.0458592 0.0046823 -0.0458592
1006250000 0.0046025 -0.0449129 0.9953975 0.0449129 0.9953975 0.0449129 0.0046025 -0.0449129
1013500000 0.0045253 -0.0439750 0.9954747 0.0439750 0.9954747 0.0439750 0.0045253 -0.0439750
1020750000 0.0044506 -0.0430456 0.9955494 0.0430456 0.9955494 0.0430456 0.0044506 -0.0430456
1028000000 0.0043785 -0.0421243 0.9956215 0.0421243 0.9956215 0.0421243 0.0043785 -0.0421243
1035250000 0.0043087 -0.0412110 0.9956913 0.0412110 0.9956913 0.0412110 0.0043087 -0.0412110
1042500000 0.0042414 -0.0403056 0.9957586 0.0403056 0.9957586 0.0403056 0.0042414 -0.0403056
1049750000 0.0041764 -0.0394078 0.9958236 0.0394078 0.9958236 0.0394078 0.0041764 -0.0394078
1057000000 0.0041137 -0.0385175 0.9958863 0.0385175 0.9958863 0.0385175 0.0041137 -0.0385175
1064250000 0.0040532 -0.0376346 0.9959468 0.0376346 0.9959468 0.0376346 0.0040532 -0.0376346
1071500000 0.0039949 -0.0367589 0.9960051 0.0367589 0.9960051 0.0367589 0.0039949 -0.0367589
1078750000 0.0039386 -0.0358903 0.9960614 0.0358903 0.9960614 0.0358903 0.0039386 -0.0358903
1086000000 0.0038845 -0.0350285 0.9961155 0.0350285 0.9961155 0.0350285 0.0038845 -0.0350285
1093250000 0.0038324 -0.0341736 0.9961676 0.0341736 0.9961676 0.0341736 0.0038324 -0.0341736
1100500000 0.0037822 -0.0333252 0.9962178 0.0333252 0.9962178 0.0333252 0.0037822 -0.0333252
1107750000 0.0037340 -0.0324834 0.9962660 0.0324834 0.9962660 0.0324834 0.0037340 -0.0324834
1115000000 0.0036877 -0.0316479 0.9963123 0.0316479 0.9963123 0.0316479 0.0036877 -0.0316479
1122250000 0.0036432 -0.0308187 0.9963568 0.0308187 0.9963568 0.0308187 0.0036432 -0.0308187
1129500000 0.0036006 -0.0299956 0.9963994 0.0299956 0.9963994 0.0299956 0.0036006 -0.0299956
1136750000 0.0035597 -0.0291785 0.9964403 0.0291785 0.9964403 0.0291785 0.0035597 -0.0291785
1144000000 0.0035206 -0.0283673 0.9964794 0.0283673 0.9964794 0.0283673 0.0035206 -0.0283673
1151250000 0.0034832 -0.0275618 0.9965168 0.0275618 0.9965168 0.0275618 0.0034832 -0.0275618
1158500000 0.0034475 -0.0267620 0.9965525 0.0267620 0.9965525 0.0267620 0.0034475 -0.0267620
1165750000 0.0034134 -0.0259677 0.9965866 0.0259677 0.9965866 0.0259677 0.0034134 -0.0259677
1173000000 0.0033809 -0.0251789 0.9966191 0.0251789 0.9966191 0.0251789 0.0033809 -0.0251789
1180250000 0.0033500 -0.0243954 0.9966500 0.0243954 0.9966500 0.0243954 0.0033500 -0.0243954
1187500000 0.0033206 -0.0236171 0.9966794 0.0236171 0.9966794 0.0236171 0.0033206 -0.0236171
1194750000 0.0032927 -0.0228440 0.9967073 0.0228440 0.9967073 0.0228440 0.0032927 -0.0228440
1202000000 0.0032664 -0.0220758 0.9967336 0.0220758 0.9967336 0.0220758 0.0032664 -0.0220758
1209250000 0.0032415 -0.0213127 0.9967585 0.0213127 0.9967585 0.0213127 0.0032415 -0.0213127
1216500000 0.0032180 -0.0205543 0.9967820 0.0205543 0.9967820 0.0205543 0.0032180 -0.0205543
1223750000 0.0031960 -0.0198007 0.9968040 0.0198007 0.9968040 0.0198007 0.0031960 -0.0198007
1231000000 0.0031753 -0.0190518 0.9968247 0.0190518 0.9968247 0.0190518 0.0031753 -0.0190518
1238250000 0.0031560 -0.0183074 0.9968440 0.0183074 0.9968440 0.0183074 0.0031560 -0.0183074
1245500000 0.0031380 -0.0175676 0.9968620 0.0175676 0.9968620 0.0175676 0.0031380 -0.0175676
1252750000 0.0031214 -0.0168321 0.9968786 0.0168321 0.9968786 0.0168321 0.0031214 -0.0168321
1260000000 0.0031060 -0.0161010 0.9968940 0.0161010 0.9968940 0.0161010 0.0031060 -0.0161010
1267250000 0.0030919 -0.0153741 0.9969081 0.0153741 0.9969081 0.0153741 0.0030919 -0.0153741
1274500000 0.0030791 -0.0146514 0.9969209 0.0146514 0.9969209 0.0146514 0.0030791 -0.0146514
1281750000 0.0030675 -0.0139327 0.9969325 0.0139327 0.9969325 0.0139327 0.0030675 -0.0139327
1289000000 0.0030571 -0.0132181 0.9969429 0.0132181 0.9969429 0.0132181 0.0030571 -0.0132181
1296250000 0.0030479 -0.0125074 0.9969521 0.0125074 0.9969521 0.0125074 0.0030479 -0.0125074
1303500000 0.0030399 -0.0118006 0.9969601 0.0118006 0.9969601 0.0118006 0.0030399 -0.0118006
1310750000 0.0030330 -0.0110976 0.9969670 0.0110976 0.9969670 0.0110976 0.0030330 -0.0110976
1318000000 0.0030273 -0.0103983 0.9969727 0.0103983 0.9969727 0.0103983 0.0030273 -0.0103983
1325250000 0.0030227 -0.0097027 0.9969773 0.0097027 0.9969773 0.0097027 0.0030227 -0.0097027
1332500000 0.0030192 -0.0090107 0.9969808 0.0090107 0.9969808 0.0090107 0.0030192 -0.0090107
1339750000 0.0030168 -0.0083222 0.9969832 0.0083222 0.9969832 0.0083222 0.0030168 -0.0083222
1347000000 0.0030155 -0.0076372 0.9969845 0.0076372 0.9969845 0.0076372 0.0030155 -0.0076372
1354250000 0.0030152 -0.0069556 0.9969848 0.0069556 0.9969848 0.0069556 0.0030152 -0.0069556
1361500000 0.0030160 -0.0062773 0.9969840 0.0062773 0.9969840 0.0062773 0.0030160 -0.0062773
1368750000 0.0030178 -0.0056024 0.9969822 0.0056024 0.9969822 0.0056024 0.0030178 -0.0056024
1376000000 0.0030206 -0.0049306 0.9969794 0.0049306 0.9969794 0.0049306 0.0030206 -0.0049306
1383250000 0.0030244 -0.0042621 0.9969756 0.0042621 0.9969756 0.0042621 0.0030244 -0.0042621
1390500000 0.0030293 -0.0035966 0.9969707 0.0035966 0.9969707 0.0035966 0.0030293 -0.0035966
1397750000 0.0030351 -0.0029342 0.9969649 0.0029342 0.9969649 0.0029342 0.0030351 -0.0029342
1405000000 0.0030419 -0.0022748 0.9969581 0.0022748 0.9969581 0.0022748 0.0030419 -0.0022748
1412250000 0.0030496 -0.0016184 0.9969504 0.0016184 0.9969504 0.0016184 0.0030496 -0.0016184
1419500000 0.0030583 -0.0009649 0.9969417 0.0009649 0.9969417 0.0009649 0.0030583 -0.0009649
1426750000 0.0030679 -0.0003142 0.9969321 0.0003142 0.9969321 0.0003142 0.0030679 -0.0003142
1434000000 0.0030784 0.0003336 0.9969216 -0.0003336 0.9969216 -0.0003336 0.0030784 0.0003336
1441250000 0.0030899 0.0009788 0.9969101 -0.0009788 0.9969101 -0.0009788 0.0030899 0.0009788
1448500000 0.0031023 0.0016212 0.9968977 -0.0016212 0.9968977 -0.0016212 0.0031023 0.0016212
1455750000 0.0031155 0.0022609 0.9968845 -0.0022609 0.9968845 -0.0022609 0.0031155 0.0022609
1463000000 0.0031296 0.0028981 0.9968704 -0.0028981 0.9968704 -0.0028981 0.0031296 0.0028981
1470250000 0.0031447 0.0035326 0.9968553 -0.0035326 0.9968553 -0.0035326 0.0031447 0.0035326
1477500000 0.0031605 0.0041647 0.9968395 -0.0041647 0.9968395 -0.0041647 0.0031605 0.0041647
1484750000 0.0031773 0.0047943 0.9968227 -0.0047943 0.9968227 -0.0047943 0.0031773 0.0047943
1492000000 0.0031949 0.0054214 0.9968051 -0.0054214 0.9968051 -0.0054214 0.0031949 0.0054214
1499250000 0.0032133 0.0060462 0.9967867 -0.0060462 0.9967867 -0.0060462 0.0032133 0.0060462
1506500000 0.0032326 0.0066686 0.9967674 -0.0066686 0.9967674 -0.0066686 0.0032326 0.0066686
1513750000 0.0032526 0.0072887 0.9967474 -0.0072887 0.9967474 -0.0072887 0.0032526 0.0072887
1521000000 0.0032736 0.0079065 0.9967264 -0.0079065 0.9967264 -0.0079065 0.0032736 0.0079065
1528250000 0.0032953 0.0085221 0.9967047 -0.0085221 0.9967047 -0.0085221 0.0032953 0.0085221
1535500000 0.0033178 0.0091355 0.9966822 -0.0091355 0.9966822 -0.0091355 0.0033178 0.0091355
1542750000 0.0033411 0.0097467 0.9966589 -0.0097467 0.9966589 -0.0097467 0.0033411 0.0097467
1550000000 0.0033652 0.0103558 0.9966348 -0.0103558 0.9966348 -0.0103558 0.0033652 0.0103558
1557250000 0.0033901 0.0109629 0.9966099 -0.0109629 0.9966099 -0.0109629 0.0033901 0.0109629
1564500000 0.0034158 0.0115679 0.9965842 -0.0115679 0.9965842 -0.0115679 0.0034158 0.0115679
1571750000 0.0034422 0.0121709 0.9965578 -0.0121709 0.9965578 -0.0121709 0.0034422 0.0121709
1579000000 0.0034695 0.0127719 0.9965305 -0.0127719 0.9965305 -0.0127719 0.0034695 0.0127719
1586250000 0.0034974 0.0133710 0.9965026 -0.0133710 0.9965026 -0.0133710 0.0034974 0.0133710
1593500000 0.0035262 0.0139682 0.9964738 -0.0139682 0.9964738 -0.0139682 0.0035262 0.0139682
1600750000 0.0035557 0.0145636 0.9964443 -0.0145636 0.9964443 -0.0145636 0.0035557 0.0145636
1608000000 0.0035859 0.0151570 0.9964141 -0.0151570 0.9964141 -0.0151570 0.0035859 0.0151570
1615250000 0.0036169 0.0157487 0.9963831 -0.0157487 0.9963831 -0.0157487 0.0036169 0.0157487
1622500000 0.0036486 0.0163386 0.9963514 -0.0163386 0.9963514 -0.0163386 0.0036486 0.0163386
1629750000 0.0036810 0.0169268 0.9963190 -0.0169268 0.9963190 -0.0169268 0.0036810 0.0169268
