!Murata Part Number: GRM21A7U2E271JW31
!These Parameters are Measured in Series Mode Connection
!Data Generated on Mar 30, 2021
!       o--ll--o
!Port1            Port2
!       o------o
!Operation Temp=25[degC], DC Bias Voltage=0[V]
!Freq. Start=100[MHz] Stop=3[GHz] 401[Steps]
# Hz S RI R 50
!Freq.(Hz) S11(Real) S11(Imag) S21(Real) S21(Imag) S12(Real) S12(Imag) S22(Real) S22(Imag)
100000000 0.0039964 -0.0546273 0.9960036 0.0546273 0.9960036 0.0546273 0.0039964 -0.0546273
107250000 0.0035520 -0.0503924 0.9964480 0.0503924 0.9964480 0.0503924 0.0035520 -0.0503924
114500000 0.0031905 -0.0466523 0.9968095 0.0466523 0.9968095 0.0466523 0.0031905 -0.0466523
121750000 0.0028929 -0.0433195 0.9971071 0.0433195 0.9971071 0.0433195 0.0028929 -0.0433195
129000000 0.0026453 -0.0403259 0.9973547 0.0403259 0.9973547 0.0403259 0.0026453 -0.0403259
136250000 0.0024376 -0.0376177 0.9975624 0.0376177 0.9975624 0.0376177 0.0024376 -0.0376177
143500000 0.0022620 -0.0351520 0.9977380 0.0351520 0.9977380 0.0351520 0.0022620 -0.0351520
150750000 0.0021126 -0.0328941 0.9978874 0.0328941 0.9978874 0.0328941 0.0021126 -0.0328941
158000000 0.0019847 -0.0308153 0.9980153 0.0308153 0.9980153 0.0308153 0.0019847 -0.0308153
165250000 0.0018748 -0.0288924 0.9981252 0.0288924 0.9981252 0.0288924 0.0018748 -0.0288924
172500000 0.0017799 -0.0271056 0.9982201 0.0271056 0.9982201 0.0271056 0.0017799 -0.0271056
179750000 0.0016978 -0.0254386 0.9983022 0.0254386 0.9983022 0.0254386 0.0016978 -0.0254386
187000000 0.0016267 -0.0238774 0.9983733 0.0238774 0.9983733 0.0238774 0.0016267 -0.0238774
194250000 0.0015648 -0.0224103 0.9984352 0.0224103 0.9984352 0.0224103 0.0015648 -0.0224103
201500000 0.0015111 -0.0210270 0.9984889 0.0210270 0.9984889 0.0210270 0.0015111 -0.0210270
208750000 0.0014645 -0.0197188 0.9985355 0.0197188 0.9985355 0.0197188 0.0014645 -0.0197188
216000000 0.0014241 -0.0184782 0.9985759 0.0184782 0.9985759 0.0184782 0.0014241 -0.0184782
223250000 0.0013891 -0.0172986 0.9986109 0.0172986 0.9986109 0.0172986 0.0013891 -0.0172986
230500000 0.0013590 -0.0161742 0.9986410 0.0161742 0.9986410 0.0161742 0.0013590 -0.0161742
237750000 0.0013333 -0.0150998 0.9986667 0.0150998 0.9986667 0.0150998 0.0013333 -0.0150998
245000000 0.0013114 -0.0140711 0.9986886 0.0140711 0.9986886 0.0140711 0.0013114 -0.0140711
252250000 0.0012930 -0.0130841 0.9987070 0.0130841 0.9987070 0.0130841 0.0012930 -0.0130841
259500000 0.0012778 -0.0121353 0.9987222 0.0121353 0.9987222 0.0121353 0.0012778 -0.0121353
266750000 0.0012655 -0.0112214 0.9987345 0.0112214 0.9987345 0.0112214 0.0012655 -0.0112214
274000000 0.0012559 -0.0103398 0.9987441 0.0103398 0.9987441 0.0103398 0.0012559 -0.0103398
281250000 0.0012486 -0.0094878 0.9987514 0.0094878 0.9987514 0.0094878 0.0012486 -0.0094878
288500000 0.0012437 -0.0086632 0.9987563 0.0086632 0.9987563 0.0086632 0.0012437 -0.0086632
295750000 0.0012408 -0.0078640 0.9987592 0.0078640 0.9987592 0.0078640 0.0012408 -0.0078640
303000000 0.0012399 -0.0070883 0.9987601 0.0070883 0.9987601 0.0070883 0.0012399 -0.0070883
310250000 0.0012408 -0.0063344 0.9987592 0.0063344 0.9987592 0.0063344 0.0012408 -0.0063344
317500000 0.0012434 -0.0056007 0.9987566 0.0056007 0.9987566 0.0056007 0.0012434 -0.0056007
324750000 0.0012477 -0.0048859 0.9987523 0.0048859 0.9987523 0.0048859 0.0012477 -0.0048859
332000000 0.0012535 -0.0041887 0.9987465 0.0041887 0.9987465 0.0041887 0.0012535 -0.0041887
339250000 0.0012607 -0.0035080 0.9987393 0.0035080 0.9987393 0.0035080 0.0012607 -0.0035080
346500000 0.0012694 -0.0028425 0.9987306 0.0028425 0.9987306 0.0028425 0.0012694 -0.0028425
353750000 0.0012794 -0.0021914 0.9987206 0.0021914 0.9987206 0.0021914 0.0012794 -0.0021914
361000000 0.0012908 -0.0015537 0.9987092 0.0015537 0.9987092 0.0015537 0.0012908 -0.0015537
368250000 0.0013034 -0.0009286 0.9986966 0.0009286 0.9986966 0.0009286 0.0013034 -0.0009286
375500000 0.0013173 -0.0003153 0.9986827 0.0003153 0.9986827 0.0003153 0.0013173 -0.0003153
382750000 0.0013323 0.0002869 0.9986677 -0.0002869 0.9986677 -0.0002869 0.0013323 0.0002869
390000000 0.0013486 0.0008787 0.9986514 -0.0008787 0.9986514 -0.0008787 0.0013486 0.0008787
397250000 0.0013660 0.0014608 0.9986340 -0.0014608 0.9986340 -0.0014608 0.0013660 0.0014608
404500000 0.0013846 0.0020336 0.9986154 -0.0020336 0.9986154 -0.0020336 0.0013846 0.0020336
411750000 0.0014044 0.0025979 0.9985956 -0.0025979 0.9985956 -0.0025979 0.0014044 0.0025979
419000000 0.0014253 0.0031540 0.9985747 -0.0031540 0.9985747 -0.0031540 0.0014253 0.0031540
426250000 0.0014473 0.0037024 0.9985527 -0.0037024 0.9985527 -0.0037024 0.0014473 0.0037024
433500000 0.0014705 0.0042437 0.9985295 -0.0042437 0.9985295 -0.0042437 0.0014705 0.0042437
440750000 0.0014949 0.0047782 0.9985051 -0.0047782 0.9985051 -0.0047782 0.0014949 0.0047782
448000000 0.0015205 0.0053064 0.9984795 -0.0053064 0.9984795 -0.0053064 0.0015205 0.0053064
455250000 0.0015472 0.0058286 0.9984528 -0.0058286 0.9984528 -0.0058286 0.0015472 0.0058286
462500000 0.0015752 0.0063452 0.9984248 -0.0063452 0.9984248 -0.0063452 0.0015752 0.0063452
469750000 0.0016045 0.0068565 0.9983955 -0.0068565 0.9983955 -0.0068565 0.0016045 0.0068565
477000000 0.0016350 0.0073628 0.9983650 -0.0073628 0.9983650 -0.0073628 0.0016350 0.0073628
484250000 0.0016668 0.0078646 0.9983332 -0.0078646 0.9983332 -0.0078646 0.0016668 0.0078646
491500000 0.0017001 0.0083620 0.9982999 -0.0083620 0.9982999 -0.0083620 0.0017001 0.0083620
498750000 0.0017347 0.0088553 0.9982653 -0.0088553 0.9982653 -0.0088553 0.0017347 0.0088553
506000000 0.0017708 0.0093449 0.9982292 -0.0093449 0.9982292 -0.0093449 0.0017708 0.0093449
513250000 0.0018085 0.0098310 0.9981915 -0.0098310 0.9981915 -0.0098310 0.0018085 0.0098310
520500000 0.0018478 0.0103139 0.9981522 -0.0103139 0.9981522 -0.0103139 0.0018478 0.0103139
527750000 0.0018888 0.0107937 0.9981112 -0.0107937 0.9981112 -0.0107937 0.0018888 0.0107937
535000000 0.0019316 0.0112708 0.9980684 -0.0112708 0.9980684 -0.0112708 0.0019316 0.0112708
542250000 0.0019763 0.0117454 0.9980237 -0.0117454 0.9980237 -0.0117454 0.0019763 0.0117454
549500000 0.0020231 0.0122177 0.9979769 -0.0122177 0.9979769 -0.0122177 0.0020231 0.0122177
556750000 0.0020720 0.0126880 0.9979280 -0.0126880 0.9979280 -0.0126880 0.0020720 0.0126880
564000000 0.0021232 0.0131564 0.9978768 -0.0131564 0.9978768 -0.0131564 0.0021232 0.0131564
571250000 0.0021769 0.0136231 0.9978231 -0.0136231 0.9978231 -0.0136231 0.0021769 0.0136231
578500000 0.0022333 0.0140884 0.9977667 -0.0140884 0.9977667 -0.0140884 0.0022333 0.0140884
585750000 0.0022926 0.0145525 0.9977074 -0.0145525 0.9977074 -0.0145525 0.0022926 0.0145525
593000000 0.0023550 0.0150155 0.9976450 -0.0150155 0.9976450 -0.0150155 0.0023550 0.0150155
600250000 0.0024209 0.0154776 0.9975791 -0.0154776 0.9975791 -0.0154776 0.0024209 0.0154776
607500000 0.0024905 0.0159391 0.9975095 -0.0159391 0.9975095 -0.0159391 0.0024905 0.0159391
614750000 0.0025643 0.0164000 0.9974357 -0.0164000 0.9974357 -0.0164000 0.0025643 0.0164000
622000000 0.0026426 0.0168605 0.9973574 -0.0168605 0.9973574 -0.0168605 0.0026426 0.0168605
629250000 0.0027258 0.0173206 0.9972742 -0.0173206 0.9972742 -0.0173206 0.0027258 0.0173206
636500000 0.0028146 0.0177806 0.9971854 -0.0177806 0.9971854 -0.0177806 0.0028146 0.0177806
643750000 0.0029096 0.0182403 0.9970904 -0.0182403 0.9970904 -0.0182403 0.0029096 0.0182403
651000000 0.0030113 0.0186998 0.9969887 -0.0186998 0.9969887 -0.0186998 0.0030113 0.0186998
658250000 0.0031207 0.0191589 0.9968793 -0.0191589 0.9968793 -0.0191589 0.0031207 0.0191589
665500000 0.0032386 0.0196174 0.9967614 -0.0196174 0.9967614 -0.0196174 0.0032386 0.0196174
672750000 0.0033660 0.0200750 0.9966340 -0.0200750 0.9966340 -0.0200750 0.0033660 0.0200750
680000000 0.0035041 0.0205310 0.9964959 -0.0205310 0.9964959 -0.0205310 0.0035041 0.0205310
687250000 0.0036540 0.0209848 0.9963460 -0.0209848 0.9963460 -0.0209848 0.0036540 0.0209848
694500000 0.0038170 0.0214352 0.9961830 -0.0214352 0.9961830 -0.0214352 0.0038170 0.0214352
701750000 0.0039947 0.0218807 0.9960053 -0.0218807 0.9960053 -0.0218807 0.0039947 0.0218807
709000000 0.0041883 0.0223194 0.9958117 -0.0223194 0.9958117 -0.0223194 0.0041883 0.0223194
716250000 0.0043992 0.0227487 0.9956008 -0.0227487 0.9956008 -0.0227487 0.0043992 0.0227487
723500000 0.0046283 0.0231651 0.9953717 -0.0231651 0.9953717 -0.0231651 0.0046283 0.0231651
730750000 0.0048763 0.0235647 0.9951237 -0.0235647 0.9951237 -0.0235647 0.0048763 0.0235647
738000000 0.0051428 0.0239423 0.9948572 -0.0239423 0.9948572 -0.0239423 0.0051428 0.0239423
745250000 0.0054262 0.0242923 0.9945738 -0.0242923 0.9945738 -0.0242923 0.0054262 0.0242923
752500000 0.0057230 0.0246082 0.9942770 -0.0246082 0.9942770 -0.0246082 0.0057230 0.0246082
759750000 0.0060274 0.0248838 0.9939726 -0.0248838 0.9939726 -0.0248838 0.0060274 0.0248838
767000000 0.0063308 0.0251137 0.9936692 -0.0251137 0.9936692 -0.0251137 0.0063308 0.0251137
774250000 0.0066220 0.0252949 0.9933780 -0.0252949 0.9933780 -0.0252949 0.0066220 0.0252949
781500000 0.0068874 0.0254279 0.9931126 -0.0254279 0.9931126 -0.0254279 0.0068874 0.0254279
788750000 0.0071131 0.0255180 0.9928869 -0.0255180 0.9928869 -0.0255180 0.0071131 0.0255180
796000000 0.0072865 0.0255761 0.9927135 -0.0255761 0.9927135 -0.0255761 0.0072865 0.0255761
803250000 0.0073993 0.0256174 0.9926007 -0.0256174 0.9926007 -0.0256174 0.0073993 0.0256174
810500000 0.0074490 0.0256597 0.9925510 -0.0256597 0.9925510 -0.0256597 0.0074490 0.0256597
817750000 0.0074394 0.0257204 0.9925606 -0.0257204 0.9925606 -0.0257204 0.0074394 0.0257204
825000000 0.0073800 0.0258139 0.9926200 -0.0258139 0.9926200 -0.0258139 0.0073800 0.0258139
832250000 0.0072837 0.0259499 0.9927163 -0.0259499 0.9927163 -0.0259499 0.0072837 0.0259499
839500000 0.0071644 0.0261326 0.9928356 -0.0261326 0.9928356 -0.0261326 0.0071644 0.0261326
846750000 0.0070351 0.0263621 0.9929649 -0.0263621 0.9929649 -0.0263621 0.0070351 0.0263621
854000000 0.0069066 0.0266351 0.9930934 -0.0266351 0.9930934 -0.0266351 0.0069066 0.0266351
861250000 0.0067870 0.0269462 0.9932130 -0.0269462 0.9932130 -0.0269462 0.0067870 0.0269462
868500000 0.0066819 0.0272895 0.9933181 -0.0272895 0.9933181 -0.0272895 0.0066819 0.0272895
875750000 0.0065947 0.0276590 0.9934053 -0.0276590 0.9934053 -0.0276590 0.0065947 0.0276590
883000000 0.0065272 0.0280493 0.9934728 -0.0280493 0.9934728 -0.0280493 0.0065272 0.0280493
890250000 0.0064801 0.0284557 0.9935199 -0.0284557 0.9935199 -0.0284557 0.0064801 0.0284557
897500000 0.0064532 0.0288742 0.9935468 -0.0288742 0.9935468 -0.0288742 0.0064532 0.0288742
904750000 0.0064460 0.0293017 0.9935540 -0.0293017 0.9935540 -0.0293017 0.0064460 0.0293017
912000000 0.0064578 0.0297355 0.9935422 -0.0297355 0.9935422 -0.0297355 0.0064578 0.0297355
919250000 0.0064876 0.0301736 0.9935124 -0.0301736 0.9935124 -0.0301736 0.0064876 0.0301736
926500000 0.0065346 0.0306145 0.9934654 -0.0306145 0.9934654 -0.0306145 0.0065346 0.0306145
933750000 0.0065980 0.0310568 0.9934020 -0.0310568 0.9934020 -0.0310568 0.0065980 0.0310568
941000000 0.0066772 0.0314994 0.9933228 -0.0314994 0.9933228 -0.0314994 0.0066772 0.0314994
948250000 0.0067716 0.0319416 0.9932284 -0.0319416 0.9932284 -0.0319416 0.0067716 0.0319416
955500000 0.0068808 0.0323826 0.9931192 -0.0323826 0.9931192 -0.0323826 0.0068808 0.0323826
962750000 0.0070043 0.0328218 0.9929957 -0.0328218 0.9929957 -0.0328218 0.0070043 0.0328218
970000000 0.0071421 0.0332585 0.9928579 -0.0332585 0.9928579 -0.0332585 0.0071421 0.0332585
977250000 0.0072939 0.0336923 0.9927061 -0.0336923 0.9927061 -0.0336923 0.0072939 0.0336923
984500000 0.0074597 0.0341226 0.9925403 -0.0341226 0.9925403 -0.0341226 0.0074597 0.0341226
991750000 0.0076397 0.0345486 0.9923603 -0.0345486 0.9923603 -0.0345486 0.0076397 0.0345486
999000000 0.0078338 0.0349699 0.9921662 -0.0349699 0.9921662 -0.0349699 0.0078338 0.0349699
1006250000 0.0080423 0.0353856 0.9919577 -0.0353856 0.9919577 -0.0353856 0.0080423 0.0353856
1013500000 0.0082654 0.0357949 0.9917346 -0.0357949 0.9917346 -0.0357949 0.0082654 0.0357949
1020750000 0.0085032 0.0361969 0.9914968 -0.0361969 0.9914968 -0.0361969 0.0085032 0.0361969
1028000000 0.0087561 0.0365905 0.9912439 -0.0365905 0.9912439 -0.0365905 0.0087561 0.0365905
1035250000 0.0090242 0.0369746 0.9909758 -0.0369746 0.9909758 -0.0369746 0.0090242 0.0369746
1042500000 0.0093077 0.0373479 0.9906923 -0.0373479 0.9906923 -0.0373479 0.0093077 0.0373479
1049750000 0.0096067 0.0377088 0.9903933 -0.0377088 0.9903933 -0.0377088 0.0096067 0.0377088
1057000000 0.0099212 0.0380557 0.9900788 -0.0380557 0.9900788 -0.0380557 0.0099212 0.0380557
1064250000 0.0102510 0.0383868 0.9897490 -0.0383868 0.9897490 -0.0383868 0.0102510 0.0383868
1071500000 0.0105959 0.0387002 0.9894041 -0.0387002 0.9894041 -0.0387002 0.0105959 0.0387002
1078750000 0.0109552 0.0389936 0.9890448 -0.0389936 0.9890448 -0.0389936 0.0109552 0.0389936
1086000000 0.0113282 0.0392648 0.9886718 -0.0392648 0.9886718 -0.0392648 0.0113282 0.0392648
1093250000 0.0117136 0.0395114 0.9882864 -0.0395114 0.9882864 -0.0395114 0.0117136 0.0395114
1100500000 0.0121100 0.0397309 0.9878900 -0.0397309 0.9878900 -0.0397309 0.0121100 0.0397309
1107750000 0.0125153 0.0399208 0.9874847 -0.0399208 0.9874847 -0.0399208 0.0125153 0.0399208
1115000000 0.0129270 0.0400786 0.9870730 -0.0400786 0.9870730 -0.0400786 0.0129270 0.0400786
1122250000 0.0133422 0.0402020 0.9866578 -0.0402020 0.9866578 -0.0402020 0.0133422 0.0402020
1129500000 0.0137573 0.0402891 0.9862427 -0.0402891 0.9862427 -0.0402891 0.0137573 0.0402891
1136750000 0.0141681 0.0403381 0.9858319 -0.0403381 0.9858319 -0.0403381 0.0141681 0.0403381
1144000000 0.0145701 0.0403479 0.9854299 -0.0403479 0.9854299 -0.0403479 0.0145701 0.0403479
1151250000 0.0149581 0.0403181 0.9850419 -0.0403181 0.9850419 -0.0403181 0.0149581 0.0403181
1158500000 0.0153267 0.0402490 0.9846733 -0.0402490 0.9846733 -0.0402490 0.0153267 0.0402490
1165750000 0.0156703 0.0401419 0.9843297 -0.0401419 0.9843297 -0.0401419 0.0156703 0.0401419
1173000000 0.0159833 0.0399990 0.9840167 -0.0399990 0.9840167 -0.0399990 0.0159833 0.0399990
1180250000 0.0162603 0.0398238 0.9837397 -0.0398238 0.9837397 -0.0398238 0.0162603 0.0398238
1187500000 0.0164964 0.0396206 0.9835036 -0.0396206 0.9835036 -0.0396206 0.0164964 0.0396206
1194750000 0.0166874 0.0393947 0.9833126 -0.0393947 0.9833126 -0.0393947 0.0166874 0.0393947
1202000000 0.0168300 0.0391524 0.9831700 -0.0391524 0.9831700 -0.0391524 0.0168300 0.0391524
1209250000 0.0169220 0.0389002 0.9830780 -0.0389002 0.9830780 -0.0389002 0.0169220 0.0389002
1216500000 0.0169625 0.0386452 0.9830375 -0.0386452 0.9830375 -0.0386452 0.0169625 0.0386452
1223750000 0.0169519 0.0383947 0.9830481 -0.0383947 0.9830481 -0.0383947 0.0169519 0.0383947
1231000000 0.0168919 0.0381553 0.9831081 -0.0381553 0.9831081 -0.0381553 0.0168919 0.0381553
1238250000 0.0167851 0.0379334 0.9832149 -0.0379334 0.9832149 -0.0379334 0.0167851 0.0379334
1245500000 0.0166353 0.0377346 0.9833647 -0.0377346 0.9833647 -0.0377346 0.0166353 0.0377346
1252750000 0.0164470 0.0375637 0.9835530 -0.0375637 0.9835530 -0.0375637 0.0164470 0.0375637
1260000000 0.0162253 0.0374243 0.9837747 -0.0374243 0.9837747 -0.0374243 0.0162253 0.0374243
1267250000 0.0159756 0.0373192 0.9840244 -0.0373192 0.9840244 -0.0373192 0.0159756 0.0373192
1274500000 0.0157032 0.0372499 0.9842968 -0.0372499 0.9842968 -0.0372499 0.0157032 0.0372499
1281750000 0.0154134 0.0372172 0.9845866 -0.0372172 0.9845866 -0.0372172 0.0154134 0.0372172
1289000000 0.0151113 0.0372211 0.9848887 -0.0372211 0.9848887 -0.0372211 0.0151113 0.0372211
1296250000 0.0148014 0.0372608 0.9851986 -0.0372608 0.9851986 -0.0372608 0.0148014 0.0372608
1303500000 0.0144879 0.0373349 0.9855121 -0.0373349 0.9855121 -0.0373349 0.0144879 0.0373349
1310750000 0.0141743 0.0374416 0.9858257 -0.0374416 0.9858257 -0.0374416 0.0141743 0.0374416
1318000000 0.0138639 0.0375790 0.9861361 -0.0375790 0.9861361 -0.0375790 0.0138639 0.0375790
1325250000 0.0135592 0.0377448 0.9864408 -0.0377448 0.9864408 -0.0377448 0.0135592 0.0377448
1332500000 0.0132621 0.0379367 0.9867379 -0.0379367 0.9867379 -0.0379367 0.0132621 0.0379367
1339750000 0.0129746 0.0381522 0.9870254 -0.0381522 0.9870254 -0.0381522 0.0129746 0.0381522
1347000000 0.0126976 0.0383890 0.9873024 -0.0383890 0.9873024 -0.0383890 0.0126976 0.0383890
1354250000 0.0124323 0.0386451 0.9875677 -0.0386451 0.9875677 -0.0386451 0.0124323 0.0386451
1361500000 0.0121791 0.0389181 0.9878209 -0.0389181 0.9878209 -0.0389181 0.0121791 0.0389181
1368750000 0.0119385 0.0392062 0.9880615 -0.0392062 0.9880615 -0.0392062 0.0119385 0.0392062
1376000000 0.0117106 0.0395075 0.9882894 -0.0395075 0.9882894 -0.0395075 0.0117106 0.0395075
1383250000 0.0114954 0.0398204 0.9885046 -0.0398204 0.9885046 -0.0398204 0.0114954 0.0398204
1390500000 0.0112928 0.0401433 0.9887072 -0.0401433 0.9887072 -0.0401433 0.0112928 0.0401433
1397750000 0.0111026 0.0404748 0.9888974 -0.0404748 0.9888974 -0.0404748 0.0111026 0.0404748
1405000000 0.0109243 0.0408138 0.9890757 -0.0408138 0.9890757 -0.0408138 0.0109243 0.0408138
1412250000 0.0107577 0.0411591 0.9892423 -0.0411591 0.9892423 -0.0411591 0.0107577 0.0411591
1419500000 0.0106023 0.0415096 0.9893977 -0.0415096 0.9893977 -0.0415096 0.0106023 0.0415096
1426750000 0.0104577 0.0418647 0.9895423 -0.0418647 0.9895423 -0.0418647 0.0104577 0.0418647
1434000000 0.0103234 0.0422234 0.9896766 -0.0422234 0.9896766 -0.0422234 0.0103234 0.0422234
1441250000 0.0101989 0.0425852 0.9898011 -0.0425852 0.9898011 -0.0425852 0.0101989 0.0425852
1448500000 0.0100839 0.0429494 0.9899161 -0.0429494 0.9899161 -0.0429494 0.0100839 0.0429494
1455750000 0.0099777 0.0433155 0.9900223 -0.0433155 0.9900223 -0.0433155 0.0099777 0.0433155
1463000000 0.0098800 0.0436830 0.9901200 -0.0436830 0.9901200 -0.0436830 0.0098800 0.0436830
1470250000 0.0097903 0.0440516 0.9902097 -0.0440516 0.9902097 -0.0440516 0.0097903 0.0440516
1477500000 0.0097083 0.0444209 0.9902917 -0.0444209 0.9902917 -0.0444209 0.0097083 0.0444209
1484750000 0.0096334 0.0447906 0.9903666 -0.0447906 0.9903666 -0.0447906 0.0096334 0.0447906
1492000000 0.0095654 0.0451605 0.9904346 -0.0451605 0.9904346 -0.0451605 0.0095654 0.0451605
1499250000 0.0095039 0.0455304 0.9904961 -0.0455304 0.9904961 -0.0455304 0.0095039 0.0455304
1506500000 0.0094485 0.0459000 0.9905515 -0.0459000 0.9905515 -0.0459000 0.0094485 0.0459000
1513750000 0.0093989 0.0462693 0.9906011 -0.0462693 0.9906011 -0.0462693 0.0093989 0.0462693
1521000000 0.0093547 0.0466380 0.9906453 -0.0466380 0.9906453 -0.0466380 0.0093547 0.0466380
1528250000 0.0093157 0.0470061 0.9906843 -0.0470061 0.9906843 -0.0470061 0.0093157 0.0470061
1535500000 0.0092817 0.0473734 0.9907183 -0.0473734 0.9907183 -0.0473734 0.0092817 0.0473734
1542750000 0.0092523 0.0477400 0.9907477 -0.0477400 0.9907477 -0.0477400 0.0092523 0.0477400
1550000000 0.0092273 0.0481057 0.9907727 -0.0481057 0.9907727 -0.0481057 0.0092273 0.0481057
1557250000 0.0092064 0.0484704 0.9907936 -0.0484704 0.9907936 -0.0484704 0.0092064 0.0484704
1564500000 0.0091895 0.0488342 0.9908105 -0.0488342 0.9908105 -0.0488342 0.0091895 0.0488342
1571750000 0.0091764 0.0491970 0.9908236 -0.0491970 0.9908236 -0.0491970 0.0091764 0.0491970
1579000000 0.0091669 0.0495588 0.9908331 -0.0495588 0.9908331 -0.0495588 0.0091669 0.0495588
1586250000 0.0091607 0.0499195 0.9908393 -0.0499195 0.9908393 -0.0499195 0.0091607 0.0499195
1593500000 0.0091578 0.0502792 0.9908422 -0.0502792 0.9908422 -0.0502792 0.0091578 0.0502792
1600750000 0.0091579 0.0506379 0.9908421 -0.0506379 0.9908421 -0.0506379 0.0091579 0.0506379
1608000000 0.0091609 0.0509954 0.9908391 -0.0509954 0.9908391 -0.0509954 0.0091609 0.0509954
1615250000 0.0091667 0.0513520 0.9908333 -0.0513520 0.9908333 -0.0513520 0.0091667 0.0513520
1622500000 0.0091751 0.0517075 0.9908249 -0.0517075 0.9908249 -0.0517075 0.0091751 0.0517075
1629750000 0.0091860 0.0520620 0.9908140 -0.0520620 0.9908140 -0.0520620 0.0091860 0.0520620
