!Murata Part Number: GRM21B5C2E822JWAA
!These Parameters are Measured in Series Mode Connection
!Data Generated on Mar 30, 2021
!       o--ll--o
!Port1            Port2
!       o------o
!Operation Temp=25[degC], DC Bias Voltage=0[V]
!Freq. Start=100[kHz] Stop=1000[MHz] 401[Steps]
# Hz S RI R 50
!Freq.(Hz) S11(Real) S11(Imag) S21(Real) S21(Imag) S12(Real) S12(Imag) S22(Real) S22(Imag)
100000 0.7991524 -0.3852380 0.2008476 0.3852380 0.2008476 0.3852380 0.7991524 -0.3852380
102329 0.7922205 -0.3904755 0.2077795 0.3904755 0.2077795 0.3904755 0.7922205 -0.3904755
104713 0.7851025 -0.3956670 0.2148975 0.3956670 0.2148975 0.3956670 0.7851025 -0.3956670
107152 0.7777973 -0.4008055 0.2222027 0.4008055 0.2222027 0.4008055 0.7777973 -0.4008055
109648 0.7703042 -0.4058832 0.2296958 0.4058832 0.2296958 0.4058832 0.7703042 -0.4058832
112202 0.7626228 -0.4108924 0.2373772 0.4108924 0.2373772 0.4108924 0.7626228 -0.4108924
114815 0.7547531 -0.4158252 0.2452469 0.4158252 0.2452469 0.4158252 0.7547531 -0.4158252
117490 0.7466956 -0.4206734 0.2533044 0.4206734 0.2533044 0.4206734 0.7466956 -0.4206734
120226 0.7384510 -0.4254287 0.2615490 0.4254287 0.2615490 0.4254287 0.7384510 -0.4254287
123027 0.7300208 -0.4300827 0.2699792 0.4300827 0.2699792 0.4300827 0.7300208 -0.4300827
125893 0.7214068 -0.4346268 0.2785932 0.4346268 0.2785932 0.4346268 0.7214068 -0.4346268
128825 0.7126111 -0.4390524 0.2873889 0.4390524 0.2873889 0.4390524 0.7126111 -0.4390524
131826 0.7036365 -0.4433509 0.2963635 0.4433509 0.2963635 0.4433509 0.7036365 -0.4433509
134896 0.6944865 -0.4475135 0.3055135 0.4475135 0.3055135 0.4475135 0.6944865 -0.4475135
138038 0.6851647 -0.4515317 0.3148353 0.4515317 0.3148353 0.4515317 0.6851647 -0.4515317
141254 0.6756756 -0.4553969 0.3243244 0.4553969 0.3243244 0.4553969 0.6756756 -0.4553969
144544 0.6660241 -0.4591006 0.3339759 0.4591006 0.3339759 0.4591006 0.6660241 -0.4591006
147911 0.6562156 -0.4626344 0.3437844 0.4626344 0.3437844 0.4626344 0.6562156 -0.4626344
151356 0.6462561 -0.4659903 0.3537439 0.4659903 0.3537439 0.4659903 0.6462561 -0.4659903
154882 0.6361522 -0.4691602 0.3638478 0.4691602 0.3638478 0.4691602 0.6361522 -0.4691602
158489 0.6259109 -0.4721365 0.3740891 0.4721365 0.3740891 0.4721365 0.6259109 -0.4721365
162181 0.6155399 -0.4749119 0.3844601 0.4749119 0.3844601 0.4749119 0.6155399 -0.4749119
165959 0.6050471 -0.4774794 0.3949529 0.4774794 0.3949529 0.4774794 0.6050471 -0.4774794
169824 0.5944412 -0.4798322 0.4055588 0.4798322 0.4055588 0.4798322 0.5944412 -0.4798322
173780 0.5837311 -0.4819644 0.4162689 0.4819644 0.4162689 0.4819644 0.5837311 -0.4819644
177828 0.5729263 -0.4838700 0.4270737 0.4838700 0.4270737 0.4838700 0.5729263 -0.4838700
181970 0.5620367 -0.4855440 0.4379633 0.4855440 0.4379633 0.4855440 0.5620367 -0.4855440
186209 0.5510724 -0.4869815 0.4489276 0.4869815 0.4489276 0.4869815 0.5510724 -0.4869815
190546 0.5400441 -0.4881785 0.4599559 0.4881785 0.4599559 0.4881785 0.5400441 -0.4881785
194984 0.5289624 -0.4891314 0.4710376 0.4891314 0.4710376 0.4891314 0.5289624 -0.4891314
199526 0.5178385 -0.4898373 0.4821615 0.4898373 0.4821615 0.4898373 0.5178385 -0.4898373
204174 0.5066836 -0.4902938 0.4933164 0.4902938 0.4933164 0.4902938 0.5066836 -0.4902938
208930 0.4955092 -0.4904994 0.5044908 0.4904994 0.5044908 0.4904994 0.4955092 -0.4904994
213796 0.4843268 -0.4904530 0.5156732 0.4904530 0.5156732 0.4904530 0.4843268 -0.4904530
218776 0.4731478 -0.4901543 0.5268522 0.4901543 0.5268522 0.4901543 0.4731478 -0.4901543
223872 0.4619841 -0.4896036 0.5380159 0.4896036 0.5380159 0.4896036 0.4619841 -0.4896036
229087 0.4508469 -0.4888020 0.5491531 0.4888020 0.5491531 0.4888020 0.4508469 -0.4888020
234423 0.4397479 -0.4877510 0.5602521 0.4877510 0.5602521 0.4877510 0.4397479 -0.4877510
239883 0.4286983 -0.4864530 0.5713017 0.4864530 0.5713017 0.4864530 0.4286983 -0.4864530
245471 0.4177092 -0.4849109 0.5822908 0.4849109 0.5822908 0.4849109 0.4177092 -0.4849109
251189 0.4067915 -0.4831284 0.5932085 0.4831284 0.5932085 0.4831284 0.4067915 -0.4831284
257040 0.3959558 -0.4811095 0.6040442 0.4811095 0.6040442 0.4811095 0.3959558 -0.4811095
263027 0.3852124 -0.4788590 0.6147876 0.4788590 0.6147876 0.4788590 0.3852124 -0.4788590
269153 0.3745713 -0.4763822 0.6254287 0.4763822 0.6254287 0.4763822 0.3745713 -0.4763822
275423 0.3640420 -0.4736848 0.6359580 0.4736848 0.6359580 0.4736848 0.3640420 -0.4736848
281838 0.3536336 -0.4707732 0.6463664 0.4707732 0.6463664 0.4707732 0.3536336 -0.4707732
288403 0.3433548 -0.4676540 0.6566452 0.4676540 0.6566452 0.4676540 0.3433548 -0.4676540
295121 0.3332137 -0.4643344 0.6667863 0.4643344 0.6667863 0.4643344 0.3332137 -0.4643344
301995 0.3232182 -0.4608217 0.6767818 0.4608217 0.6767818 0.4608217 0.3232182 -0.4608217
309030 0.3133753 -0.4571239 0.6866247 0.4571239 0.6866247 0.4571239 0.3133753 -0.4571239
316228 0.3036918 -0.4532489 0.6963082 0.4532489 0.6963082 0.4532489 0.3036918 -0.4532489
323594 0.2941737 -0.4492050 0.7058263 0.4492050 0.7058263 0.4492050 0.2941737 -0.4492050
331131 0.2848266 -0.4450009 0.7151734 0.4450009 0.7151734 0.4450009 0.2848266 -0.4450009
338844 0.2756556 -0.4406451 0.7243444 0.4406451 0.7243444 0.4406451 0.2756556 -0.4406451
346737 0.2666651 -0.4361464 0.7333349 0.4361464 0.7333349 0.4361464 0.2666651 -0.4361464
354813 0.2578590 -0.4315138 0.7421410 0.4315138 0.7421410 0.4315138 0.2578590 -0.4315138
363078 0.2492408 -0.4267561 0.7507592 0.4267561 0.7507592 0.4267561 0.2492408 -0.4267561
371535 0.2408133 -0.4218821 0.7591867 0.4218821 0.7591867 0.4218821 0.2408133 -0.4218821
380189 0.2325789 -0.4169009 0.7674211 0.4169009 0.7674211 0.4169009 0.2325789 -0.4169009
389045 0.2245394 -0.4118212 0.7754606 0.4118212 0.7754606 0.4118212 0.2245394 -0.4118212
398107 0.2166961 -0.4066518 0.7833039 0.4066518 0.7833039 0.4066518 0.2166961 -0.4066518
407380 0.2090501 -0.4014013 0.7909499 0.4014013 0.7909499 0.4014013 0.2090501 -0.4014013
416869 0.2016016 -0.3960780 0.7983984 0.3960780 0.7983984 0.3960780 0.2016016 -0.3960780
426580 0.1943507 -0.3906905 0.8056493 0.3906905 0.8056493 0.3906905 0.1943507 -0.3906905
436516 0.1872971 -0.3852466 0.8127029 0.3852466 0.8127029 0.3852466 0.1872971 -0.3852466
446684 0.1804399 -0.3797544 0.8195601 0.3797544 0.8195601 0.3797544 0.1804399 -0.3797544
457088 0.1737780 -0.3742215 0.8262220 0.3742215 0.8262220 0.3742215 0.1737780 -0.3742215
467735 0.1673100 -0.3686553 0.8326900 0.3686553 0.8326900 0.3686553 0.1673100 -0.3686553
478630 0.1610340 -0.3630630 0.8389660 0.3630630 0.8389660 0.3630630 0.1610340 -0.3630630
489779 0.1549480 -0.3574515 0.8450520 0.3574515 0.8450520 0.3574515 0.1549480 -0.3574515
501187 0.1490497 -0.3518275 0.8509503 0.3518275 0.8509503 0.3518275 0.1490497 -0.3518275
512861 0.1433364 -0.3461972 0.8566636 0.3461972 0.8566636 0.3461972 0.1433364 -0.3461972
524807 0.1378053 -0.3405669 0.8621947 0.3405669 0.8621947 0.3405669 0.1378053 -0.3405669
537032 0.1324535 -0.3349423 0.8675465 0.3349423 0.8675465 0.3349423 0.1324535 -0.3349423
549541 0.1272777 -0.3293288 0.8727223 0.3293288 0.8727223 0.3293288 0.1272777 -0.3293288
562341 0.1222747 -0.3237318 0.8777253 0.3237318 0.8777253 0.3237318 0.1222747 -0.3237318
575440 0.1174410 -0.3181561 0.8825590 0.3181561 0.8825590 0.3181561 0.1174410 -0.3181561
588844 0.1127729 -0.3126064 0.8872271 0.3126064 0.8872271 0.3126064 0.1127729 -0.3126064
602560 0.1082669 -0.3070870 0.8917331 0.3070870 0.8917331 0.3070870 0.1082669 -0.3070870
616595 0.1039191 -0.3016021 0.8960809 0.3016021 0.8960809 0.3016021 0.1039191 -0.3016021
630957 0.0997257 -0.2961555 0.9002743 0.2961555 0.9002743 0.2961555 0.0997257 -0.2961555
645654 0.0956829 -0.2907508 0.9043171 0.2907508 0.9043171 0.2907508 0.0956829 -0.2907508
660693 0.0917867 -0.2853912 0.9082133 0.2853912 0.9082133 0.2853912 0.0917867 -0.2853912
676083 0.0880333 -0.2800798 0.9119667 0.2800798 0.9119667 0.2800798 0.0880333 -0.2800798
691831 0.0844186 -0.2748194 0.9155814 0.2748194 0.9155814 0.2748194 0.0844186 -0.2748194
707946 0.0809388 -0.2696127 0.9190612 0.2696127 0.9190612 0.2696127 0.0809388 -0.2696127
724436 0.0775899 -0.2644620 0.9224101 0.2644620 0.9224101 0.2644620 0.0775899 -0.2644620
741310 0.0743680 -0.2593694 0.9256320 0.2593694 0.9256320 0.2593694 0.0743680 -0.2593694
758578 0.0712693 -0.2543369 0.9287307 0.2543369 0.9287307 0.2543369 0.0712693 -0.2543369
776247 0.0682899 -0.2493662 0.9317101 0.2493662 0.9317101 0.2493662 0.0682899 -0.2493662
794328 0.0654261 -0.2444589 0.9345739 0.2444589 0.9345739 0.2444589 0.0654261 -0.2444589
812831 0.0626741 -0.2396163 0.9373259 0.2396163 0.9373259 0.2396163 0.0626741 -0.2396163
831764 0.0600302 -0.2348397 0.9399698 0.2348397 0.9399698 0.2348397 0.0600302 -0.2348397
851138 0.0574908 -0.2301301 0.9425092 0.2301301 0.9425092 0.2301301 0.0574908 -0.2301301
870964 0.0550524 -0.2254884 0.9449476 0.2254884 0.9449476 0.2254884 0.0550524 -0.2254884
891251 0.0527116 -0.2209153 0.9472884 0.2209153 0.9472884 0.2209153 0.0527116 -0.2209153
912011 0.0504648 -0.2164114 0.9495352 0.2164114 0.9495352 0.2164114 0.0504648 -0.2164114
933254 0.0483089 -0.2119773 0.9516911 0.2119773 0.9516911 0.2119773 0.0483089 -0.2119773
954993 0.0462405 -0.2076132 0.9537595 0.2076132 0.9537595 0.2076132 0.0462405 -0.2076132
977237 0.0442565 -0.2033195 0.9557435 0.2033195 0.9557435 0.2033195 0.0442565 -0.2033195
1000000 0.0423538 -0.1990962 0.9576462 0.1990962 0.9576462 0.1990962 0.0423538 -0.1990962
1023293 0.0405293 -0.1949434 0.9594707 0.1949434 0.9594707 0.1949434 0.0405293 -0.1949434
1047129 0.0387803 -0.1908610 0.9612197 0.1908610 0.9612197 0.1908610 0.0387803 -0.1908610
1071519 0.0371038 -0.1868489 0.9628962 0.1868489 0.9628962 0.1868489 0.0371038 -0.1868489
1096478 0.0354971 -0.1829069 0.9645029 0.1829069 0.9645029 0.1829069 0.0354971 -0.1829069
1122018 0.0339576 -0.1790346 0.9660424 0.1790346 0.9660424 0.1790346 0.0339576 -0.1790346
1148154 0.0324825 -0.1752318 0.9675175 0.1752318 0.9675175 0.1752318 0.0324825 -0.1752318
1174898 0.0310695 -0.1714980 0.9689305 0.1714980 0.9689305 0.1714980 0.0310695 -0.1714980
1202264 0.0297161 -0.1678326 0.9702839 0.1678326 0.9702839 0.1678326 0.0297161 -0.1678326
1230269 0.0284200 -0.1642352 0.9715800 0.1642352 0.9715800 0.1642352 0.0284200 -0.1642352
1258925 0.0271788 -0.1607052 0.9728212 0.1607052 0.9728212 0.1607052 0.0271788 -0.1607052
1288250 0.0259904 -0.1572420 0.9740096 0.1572420 0.9740096 0.1572420 0.0259904 -0.1572420
1318257 0.0248527 -0.1538448 0.9751473 0.1538448 0.9751473 0.1538448 0.0248527 -0.1538448
1348963 0.0237637 -0.1505130 0.9762363 0.1505130 0.9762363 0.1505130 0.0237637 -0.1505130
1380384 0.0227213 -0.1472458 0.9772787 0.1472458 0.9772787 0.1472458 0.0227213 -0.1472458
1412538 0.0217237 -0.1440425 0.9782763 0.1440425 0.9782763 0.1440425 0.0217237 -0.1440425
1445440 0.0207690 -0.1409022 0.9792310 0.1409022 0.9792310 0.1409022 0.0207690 -0.1409022
1479108 0.0198555 -0.1378243 0.9801445 0.1378243 0.9801445 0.1378243 0.0198555 -0.1378243
1513561 0.0189814 -0.1348077 0.9810186 0.1348077 0.9810186 0.1348077 0.0189814 -0.1348077
1548817 0.0181452 -0.1318517 0.9818548 0.1318517 0.9818548 0.1318517 0.0181452 -0.1318517
1584893 0.0173452 -0.1289555 0.9826548 0.1289555 0.9826548 0.1289555 0.0173452 -0.1289555
1621810 0.0165800 -0.1261180 0.9834200 0.1261180 0.9834200 0.1261180 0.0165800 -0.1261180
1659587 0.0158481 -0.1233385 0.9841519 0.1233385 0.9841519 0.1233385 0.0158481 -0.1233385
1698244 0.0151480 -0.1206160 0.9848520 0.1206160 0.9848520 0.1206160 0.0151480 -0.1206160
1737801 0.0144785 -0.1179497 0.9855215 0.1179497 0.9855215 0.1179497 0.0144785 -0.1179497
1778279 0.0138383 -0.1153386 0.9861617 0.1153386 0.9861617 0.1153386 0.0138383 -0.1153386
1819701 0.0132261 -0.1127818 0.9867739 0.1127818 0.9867739 0.1127818 0.0132261 -0.1127818
1862087 0.0126407 -0.1102785 0.9873593 0.1102785 0.9873593 0.1102785 0.0126407 -0.1102785
1905461 0.0120809 -0.1078276 0.9879191 0.1078276 0.9879191 0.1078276 0.0120809 -0.1078276
1949845 0.0115458 -0.1054283 0.9884542 0.1054283 0.9884542 0.1054283 0.0115458 -0.1054283
1995262 0.0110342 -0.1030797 0.9889658 0.1030797 0.9889658 0.1030797 0.0110342 -0.1030797
2041738 0.0105451 -0.1007808 0.9894549 0.1007808 0.9894549 0.1007808 0.0105451 -0.1007808
2089296 0.0100775 -0.0985309 0.9899225 0.0985309 0.9899225 0.0985309 0.0100775 -0.0985309
2137962 0.0096306 -0.0963289 0.9903694 0.0963289 0.9903694 0.0963289 0.0096306 -0.0963289
2187762 0.0092034 -0.0941740 0.9907966 0.0941740 0.9907966 0.0941740 0.0092034 -0.0941740
2238721 0.0087950 -0.0920653 0.9912050 0.0920653 0.9912050 0.0920653 0.0087950 -0.0920653
2290868 0.0084048 -0.0900020 0.9915952 0.0900020 0.9915952 0.0900020 0.0084048 -0.0900020
2344229 0.0080317 -0.0879831 0.9919683 0.0879831 0.9919683 0.0879831 0.0080317 -0.0879831
2398833 0.0076753 -0.0860078 0.9923247 0.0860078 0.9923247 0.0860078 0.0076753 -0.0860078
2454709 0.0073346 -0.0840753 0.9926654 0.0840753 0.9926654 0.0840753 0.0073346 -0.0840753
2511886 0.0070090 -0.0821847 0.9929910 0.0821847 0.9929910 0.0821847 0.0070090 -0.0821847
2570396 0.0066979 -0.0803352 0.9933021 0.0803352 0.9933021 0.0803352 0.0066979 -0.0803352
2630268 0.0064006 -0.0785260 0.9935994 0.0785260 0.9935994 0.0785260 0.0064006 -0.0785260
2691535 0.0061165 -0.0767563 0.9938835 0.0767563 0.9938835 0.0767563 0.0061165 -0.0767563
2754229 0.0058450 -0.0750253 0.9941550 0.0750253 0.9941550 0.0750253 0.0058450 -0.0750253
2818383 0.0055856 -0.0733321 0.9944144 0.0733321 0.9944144 0.0733321 0.0055856 -0.0733321
2884032 0.0053378 -0.0716761 0.9946622 0.0716761 0.9946622 0.0716761 0.0053378 -0.0716761
2951209 0.0051010 -0.0700564 0.9948990 0.0700564 0.9948990 0.0700564 0.0051010 -0.0700564
3019952 0.0048747 -0.0684723 0.9951253 0.0684723 0.9951253 0.0684723 0.0048747 -0.0684723
3090295 0.0046586 -0.0669231 0.9953414 0.0669231 0.9953414 0.0669231 0.0046586 -0.0669231
3162278 0.0044521 -0.0654081 0.9955479 0.0654081 0.9955479 0.0654081 0.0044521 -0.0654081
3235937 0.0042548 -0.0639264 0.9957452 0.0639264 0.9957452 0.0639264 0.0042548 -0.0639264
3311311 0.0040663 -0.0624775 0.9959337 0.0624775 0.9959337 0.0624775 0.0040663 -0.0624775
3388442 0.0038862 -0.0610607 0.9961138 0.0610607 0.9961138 0.0610607 0.0038862 -0.0610607
3467369 0.0037142 -0.0596752 0.9962858 0.0596752 0.9962858 0.0596752 0.0037142 -0.0596752
3548134 0.0035499 -0.0583204 0.9964501 0.0583204 0.9964501 0.0583204 0.0035499 -0.0583204
3630781 0.0033929 -0.0569956 0.9966071 0.0569956 0.9966071 0.0569956 0.0033929 -0.0569956
3715352 0.0032429 -0.0557002 0.9967571 0.0557002 0.9967571 0.0557002 0.0032429 -0.0557002
3801894 0.0030997 -0.0544335 0.9969003 0.0544335 0.9969003 0.0544335 0.0030997 -0.0544335
3890451 0.0029629 -0.0531951 0.9970371 0.0531951 0.9970371 0.0531951 0.0029629 -0.0531951
3981072 0.0028322 -0.0519841 0.9971678 0.0519841 0.9971678 0.0519841 0.0028322 -0.0519841
4073803 0.0027073 -0.0508001 0.9972927 0.0508001 0.9972927 0.0508001 0.0027073 -0.0508001
4168694 0.0025881 -0.0496424 0.9974119 0.0496424 0.9974119 0.0496424 0.0025881 -0.0496424
4265795 0.0024742 -0.0485105 0.9975258 0.0485105 0.9975258 0.0485105 0.0024742 -0.0485105
4365158 0.0023654 -0.0474038 0.9976346 0.0474038 0.9976346 0.0474038 0.0023654 -0.0474038
4466836 0.0022615 -0.0463217 0.9977385 0.0463217 0.9977385 0.0463217 0.0022615 -0.0463217
4570882 0.0021622 -0.0452638 0.9978378 0.0452638 0.9978378 0.0452638 0.0021622 -0.0452638
4677351 0.0020675 -0.0442294 0.9979325 0.0442294 0.9979325 0.0442294 0.0020675 -0.0442294
4786301 0.0019769 -0.0432181 0.9980231 0.0432181 0.9980231 0.0432181 0.0019769 -0.0432181
4897788 0.0018905 -0.0422294 0.9981095 0.0422294 0.9981095 0.0422294 0.0018905 -0.0422294
5011872 0.0018079 -0.0412627 0.9981921 0.0412627 0.9981921 0.0412627 0.0018079 -0.0412627
5128614 0.0017291 -0.0403176 0.9982709 0.0403176 0.9982709 0.0403176 0.0017291 -0.0403176
5248075 0.0016538 -0.0393936 0.9983462 0.0393936 0.9983462 0.0393936 0.0016538 -0.0393936
5370318 0.0015818 -0.0384901 0.9984182 0.0384901 0.9984182 0.0384901 0.0015818 -0.0384901
5495409 0.0015132 -0.0376069 0.9984868 0.0376069 0.9984868 0.0376069 0.0015132 -0.0376069
5623413 0.0014476 -0.0367433 0.9985524 0.0367433 0.9985524 0.0367433 0.0014476 -0.0367433
5754399 0.0013850 -0.0358990 0.9986150 0.0358990 0.9986150 0.0358990 0.0013850 -0.0358990
5888437 0.0013252 -0.0350735 0.9986748 0.0350735 0.9986748 0.0350735 0.0013252 -0.0350735
6025596 0.0012681 -0.0342664 0.9987319 0.0342664 0.9987319 0.0342664 0.0012681 -0.0342664
6165950 0.0012136 -0.0334773 0.9987864 0.0334773 0.9987864 0.0334773 0.0012136 -0.0334773
6309573 0.0011616 -0.0327058 0.9988384 0.0327058 0.9988384 0.0327058 0.0011616 -0.0327058
6456542 0.0011119 -0.0319515 0.9988881 0.0319515 0.9988881 0.0319515 0.0011119 -0.0319515
6606934 0.0010644 -0.0312140 0.9989356 0.0312140 0.9989356 0.0312140 0.0010644 -0.0312140
6760830 0.0010191 -0.0304929 0.9989809 0.0304929 0.9989809 0.0304929 0.0010191 -0.0304929
6918310 0.0009759 -0.0297878 0.9990241 0.0297878 0.9990241 0.0297878 0.0009759 -0.0297878
7079458 0.0009346 -0.0290984 0.9990654 0.0290984 0.9990654 0.0290984 0.0009346 -0.0290984
7244360 0.0008952 -0.0284243 0.9991048 0.0284243 0.9991048 0.0284243 0.0008952 -0.0284243
7413102 0.0008576 -0.0277652 0.9991424 0.0277652 0.9991424 0.0277652 0.0008576 -0.0277652
7585776 0.0008218 -0.0271207 0.9991782 0.0271207 0.9991782 0.0271207 0.0008218 -0.0271207
7762471 0.0007875 -0.0264905 0.9992125 0.0264905 0.9992125 0.0264905 0.0007875 -0.0264905
7943282 0.0007548 -0.0258743 0.9992452 0.0258743 0.9992452 0.0258743 0.0007548 -0.0258743
8128305 0.0007236 -0.0252718 0.9992764 0.0252718 0.9992764 0.0252718 0.0007236 -0.0252718
8317638 0.0006939 -0.0246825 0.9993061 0.0246825 0.9993061 0.0246825 0.0006939 -0.0246825
8511380 0.0006655 -0.0241063 0.9993345 0.0241063 0.9993345 0.0241063 0.0006655 -0.0241063
8709636 0.0006384 -0.0235428 0.9993616 0.0235428 0.9993616 0.0235428 0.0006384 -0.0235428
8912509 0.0006126 -0.0229917 0.9993874 0.0229917 0.9993874 0.0229917 0.0006126 -0.0229917
9120108 0.0005879 -0.0224528 0.9994121 0.0224528 0.9994121 0.0224528 0.0005879 -0.0224528
9332543 0.0005645 -0.0219257 0.9994355 0.0219257 0.9994355 0.0219257 0.0005645 -0.0219257
9549926 0.0005421 -0.0214103 0.9994579 0.0214103 0.9994579 0.0214103 0.0005421 -0.0214103
9772372 0.0005207 -0.0209061 0.9994793 0.0209061 0.9994793 0.0209061 0.0005207 -0.0209061
10000000 0.0005003 -0.0204130 0.9994997 0.0204130 0.9994997 0.0204130 0.0005003 -0.0204130
10232930 0.0004809 -0.0199307 0.9995191 0.0199307 0.9995191 0.0199307 0.0004809 -0.0199307
10471285 0.0004624 -0.0194589 0.9995376 0.0194589 0.9995376 0.0194589 0.0004624 -0.0194589
10715193 0.0004448 -0.0189974 0.9995552 0.0189974 0.9995552 0.0189974 0.0004448 -0.0189974
10964782 0.0004280 -0.0185460 0.9995720 0.0185460 0.9995720 0.0185460 0.0004280 -0.0185460
11220185 0.0004121 -0.0181044 0.9995879 0.0181044 0.9995879 0.0181044 0.0004121 -0.0181044
11481536 0.0003968 -0.0176723 0.9996032 0.0176723 0.9996032 0.0176723 0.0003968 -0.0176723
11748976 0.0003824 -0.0172497 0.9996176 0.0172497 0.9996176 0.0172497 0.0003824 -0.0172497
12022644 0.0003686 -0.0168361 0.9996314 0.0168361 0.9996314 0.0168361 0.0003686 -0.0168361
12302688 0.0003555 -0.0164315 0.9996445 0.0164315 0.9996445 0.0164315 0.0003555 -0.0164315
12589254 0.0003430 -0.0160356 0.9996570 0.0160356 0.9996570 0.0160356 0.0003430 -0.0160356
12882496 0.0003312 -0.0156482 0.9996688 0.0156482 0.9996688 0.0156482 0.0003312 -0.0156482
13182567 0.0003199 -0.0152691 0.9996801 0.0152691 0.9996801 0.0152691 0.0003199 -0.0152691
13489629 0.0003092 -0.0148981 0.9996908 0.0148981 0.9996908 0.0148981 0.0003092 -0.0148981
13803843 0.0002991 -0.0145349 0.9997009 0.0145349 0.9997009 0.0145349 0.0002991 -0.0145349
14125375 0.0002894 -0.0141795 0.9997106 0.0141795 0.9997106 0.0141795 0.0002894 -0.0141795
14454398 0.0002803 -0.0138317 0.9997197 0.0138317 0.9997197 0.0138317 0.0002803 -0.0138317
14791084 0.0002716 -0.0134911 0.9997284 0.0134911 0.9997284 0.0134911 0.0002716 -0.0134911
