!Murata Part Number: GRM2165C2A562GA01
!These Parameters are Measured in Series Mode Connection
!Data Generated on Mar 30, 2021
!       o--ll--o
!Port1            Port2
!       o------o
!Operation Temp=25[degC], DC Bias Voltage=0[V]
!Freq. Start=1000[kHz] Stop=6[GHz] 401[Steps]
# Hz S RI R 50
!Freq.(Hz) S11(Real) S11(Imag) S21(Real) S21(Imag) S12(Real) S12(Imag) S22(Real) S22(Imag)
1000000 0.0748688 -0.2629431 0.9251312 0.2629431 0.9251312 0.2629431 0.0748688 -0.2629431
1021987 0.0719155 -0.2581053 0.9280845 0.2581053 0.9280845 0.2581053 0.0719155 -0.2581053
1044457 0.0690702 -0.2533245 0.9309298 0.2533245 0.9309298 0.2533245 0.0690702 -0.2533245
1067422 0.0663297 -0.2486019 0.9336703 0.2486019 0.9336703 0.2486019 0.0663297 -0.2486019
1090891 0.0636907 -0.2439388 0.9363093 0.2439388 0.9363093 0.2439388 0.0636907 -0.2439388
1114877 0.0611500 -0.2393361 0.9388500 0.2393361 0.9388500 0.2393361 0.0611500 -0.2393361
1139390 0.0587046 -0.2347947 0.9412954 0.2347947 0.9412954 0.2347947 0.0587046 -0.2347947
1164441 0.0563513 -0.2303153 0.9436487 0.2303153 0.9436487 0.2303153 0.0563513 -0.2303153
1190044 0.0540872 -0.2258986 0.9459128 0.2258986 0.9459128 0.2258986 0.0540872 -0.2258986
1216210 0.0519093 -0.2215452 0.9480907 0.2215452 0.9480907 0.2215452 0.0519093 -0.2215452
1242950 0.0498147 -0.2172553 0.9501853 0.2172553 0.9501853 0.2172553 0.0498147 -0.2172553
1270279 0.0478006 -0.2130295 0.9521994 0.2130295 0.9521994 0.2130295 0.0478006 -0.2130295
1298209 0.0458643 -0.2088677 0.9541357 0.2088677 0.9541357 0.2088677 0.0458643 -0.2088677
1326753 0.0440030 -0.2047703 0.9559970 0.2047703 0.9559970 0.2047703 0.0440030 -0.2047703
1355924 0.0422141 -0.2007372 0.9577859 0.2007372 0.9577859 0.2007372 0.0422141 -0.2007372
1385737 0.0404952 -0.1967685 0.9595048 0.1967685 0.9595048 0.1967685 0.0404952 -0.1967685
1416205 0.0388436 -0.1928640 0.9611564 0.1928640 0.9611564 0.1928640 0.0388436 -0.1928640
1447343 0.0372571 -0.1890236 0.9627429 0.1890236 0.9627429 0.1890236 0.0372571 -0.1890236
1479166 0.0357331 -0.1852470 0.9642669 0.1852470 0.9642669 0.1852470 0.0357331 -0.1852470
1511688 0.0342696 -0.1815340 0.9657304 0.1815340 0.9657304 0.1815340 0.0342696 -0.1815340
1544926 0.0328642 -0.1778842 0.9671358 0.1778842 0.9671358 0.1778842 0.0328642 -0.1778842
1578894 0.0315148 -0.1742973 0.9684852 0.1742973 0.9684852 0.1742973 0.0315148 -0.1742973
1613609 0.0302194 -0.1707727 0.9697806 0.1707727 0.9697806 0.1707727 0.0302194 -0.1707727
1649087 0.0289758 -0.1673101 0.9710242 0.1673101 0.9710242 0.1673101 0.0289758 -0.1673101
1685346 0.0277823 -0.1639089 0.9722177 0.1639089 0.9722177 0.1639089 0.0277823 -0.1639089
1722402 0.0266368 -0.1605686 0.9733632 0.1605686 0.9733632 0.1605686 0.0266368 -0.1605686
1760272 0.0255375 -0.1572885 0.9744625 0.1572885 0.9744625 0.1572885 0.0255375 -0.1572885
1798975 0.0244828 -0.1540682 0.9755172 0.1540682 0.9755172 0.1540682 0.0244828 -0.1540682
1838529 0.0234708 -0.1509068 0.9765292 0.1509068 0.9765292 0.1509068 0.0234708 -0.1509068
1878953 0.0224999 -0.1478039 0.9775001 0.1478039 0.9775001 0.1478039 0.0224999 -0.1478039
1920266 0.0215686 -0.1447586 0.9784314 0.1447586 0.9784314 0.1447586 0.0215686 -0.1447586
1962487 0.0206753 -0.1417704 0.9793247 0.1417704 0.9793247 0.1417704 0.0206753 -0.1417704
2005636 0.0198185 -0.1388384 0.9801815 0.1388384 0.9801815 0.1388384 0.0198185 -0.1388384
2049734 0.0189967 -0.1359620 0.9810033 0.1359620 0.9810033 0.1359620 0.0189967 -0.1359620
2094801 0.0182087 -0.1331404 0.9817913 0.1331404 0.9817913 0.1331404 0.0182087 -0.1331404
2140860 0.0174531 -0.1303728 0.9825469 0.1303728 0.9825469 0.1303728 0.0174531 -0.1303728
2187931 0.0167285 -0.1276585 0.9832715 0.1276585 0.9832715 0.1276585 0.0167285 -0.1276585
2236037 0.0160338 -0.1249967 0.9839662 0.1249967 0.9839662 0.1249967 0.0160338 -0.1249967
2285201 0.0153678 -0.1223867 0.9846322 0.1223867 0.9846322 0.1223867 0.0153678 -0.1223867
2335446 0.0147292 -0.1198276 0.9852708 0.1198276 0.9852708 0.1198276 0.0147292 -0.1198276
2386795 0.0141171 -0.1173187 0.9858829 0.1173187 0.9858829 0.1173187 0.0141171 -0.1173187
2439274 0.0135304 -0.1148592 0.9864696 0.1148592 0.9864696 0.1148592 0.0135304 -0.1148592
2492906 0.0129680 -0.1124483 0.9870320 0.1124483 0.9870320 0.1124483 0.0129680 -0.1124483
2547717 0.0124289 -0.1100852 0.9875711 0.1100852 0.9875711 0.1100852 0.0124289 -0.1100852
2603734 0.0119123 -0.1077691 0.9880877 0.1077691 0.9880877 0.1077691 0.0119123 -0.1077691
2660982 0.0114171 -0.1054993 0.9885829 0.1054993 0.9885829 0.1054993 0.0114171 -0.1054993
2719490 0.0109426 -0.1032749 0.9890574 0.1032749 0.9890574 0.1032749 0.0109426 -0.1032749
2779283 0.0104879 -0.1010952 0.9895121 0.1010952 0.9895121 0.1010952 0.0104879 -0.1010952
2840391 0.0100521 -0.0989594 0.9899479 0.0989594 0.9899479 0.0989594 0.0100521 -0.0989594
2902843 0.0096346 -0.0968668 0.9903654 0.0968668 0.9903654 0.0968668 0.0096346 -0.0968668
2966668 0.0092345 -0.0948165 0.9907655 0.0948165 0.9907655 0.0948165 0.0092345 -0.0948165
3031896 0.0088511 -0.0928079 0.9911489 0.0928079 0.9911489 0.0928079 0.0088511 -0.0928079
3098558 0.0084838 -0.0908401 0.9915162 0.0908401 0.9915162 0.0908401 0.0084838 -0.0908401
3166686 0.0081319 -0.0889125 0.9918681 0.0889125 0.9918681 0.0889125 0.0081319 -0.0889125
3236312 0.0077947 -0.0870243 0.9922053 0.0870243 0.9922053 0.0870243 0.0077947 -0.0870243
3307469 0.0074717 -0.0851748 0.9925283 0.0851748 0.9925283 0.0851748 0.0074717 -0.0851748
3380190 0.0071623 -0.0833632 0.9928377 0.0833632 0.9928377 0.0833632 0.0071623 -0.0833632
3454511 0.0068658 -0.0815888 0.9931342 0.0815888 0.9931342 0.0815888 0.0068658 -0.0815888
3530465 0.0065819 -0.0798510 0.9934181 0.0798510 0.9934181 0.0798510 0.0065819 -0.0798510
3608090 0.0063099 -0.0781490 0.9936901 0.0781490 0.9936901 0.0781490 0.0063099 -0.0781490
3687421 0.0060493 -0.0764822 0.9939507 0.0764822 0.9939507 0.0764822 0.0060493 -0.0764822
3768496 0.0057997 -0.0748499 0.9942003 0.0748499 0.9942003 0.0748499 0.0057997 -0.0748499
3851354 0.0055607 -0.0732514 0.9944393 0.0732514 0.9944393 0.0732514 0.0055607 -0.0732514
3936034 0.0053317 -0.0716860 0.9946683 0.0716860 0.9946683 0.0716860 0.0053317 -0.0716860
4022575 0.0051124 -0.0701532 0.9948876 0.0701532 0.9948876 0.0701532 0.0051124 -0.0701532
4111020 0.0049023 -0.0686523 0.9950977 0.0686523 0.9950977 0.0686523 0.0049023 -0.0686523
4201409 0.0047011 -0.0671826 0.9952989 0.0671826 0.9952989 0.0671826 0.0047011 -0.0671826
4293785 0.0045085 -0.0657435 0.9954915 0.0657435 0.9954915 0.0657435 0.0045085 -0.0657435
4388193 0.0043239 -0.0643345 0.9956761 0.0643345 0.9956761 0.0643345 0.0043239 -0.0643345
4484676 0.0041472 -0.0629549 0.9958528 0.0629549 0.9958528 0.0629549 0.0041472 -0.0629549
4583281 0.0039780 -0.0616041 0.9960220 0.0616041 0.9960220 0.0616041 0.0039780 -0.0616041
4684054 0.0038159 -0.0602816 0.9961841 0.0602816 0.9961841 0.0602816 0.0038159 -0.0602816
4787042 0.0036607 -0.0589867 0.9963393 0.0589867 0.9963393 0.0589867 0.0036607 -0.0589867
4892295 0.0035121 -0.0577190 0.9964879 0.0577190 0.9964879 0.0577190 0.0035121 -0.0577190
4999862 0.0033698 -0.0564779 0.9966302 0.0564779 0.9966302 0.0564779 0.0033698 -0.0564779
5109794 0.0032336 -0.0552628 0.9967664 0.0552628 0.9967664 0.0552628 0.0032336 -0.0552628
5222143 0.0031031 -0.0540732 0.9968969 0.0540732 0.9968969 0.0540732 0.0031031 -0.0540732
5336962 0.0029782 -0.0529086 0.9970218 0.0529086 0.9970218 0.0529086 0.0029782 -0.0529086
5454306 0.0028585 -0.0517685 0.9971415 0.0517685 0.9971415 0.0517685 0.0028585 -0.0517685
5574230 0.0027440 -0.0506524 0.9972560 0.0506524 0.9972560 0.0506524 0.0027440 -0.0506524
5696791 0.0026344 -0.0495597 0.9973656 0.0495597 0.9973656 0.0495597 0.0026344 -0.0495597
5822046 0.0025294 -0.0484900 0.9974706 0.0484900 0.9974706 0.0484900 0.0025294 -0.0484900
5950055 0.0024289 -0.0474428 0.9975711 0.0474428 0.9975711 0.0474428 0.0024289 -0.0474428
6080879 0.0023327 -0.0464176 0.9976673 0.0464176 0.9976673 0.0464176 0.0023327 -0.0464176
6214580 0.0022406 -0.0454141 0.9977594 0.0454141 0.9977594 0.0454141 0.0022406 -0.0454141
6351220 0.0021524 -0.0444316 0.9978476 0.0444316 0.9978476 0.0444316 0.0021524 -0.0444316
6490864 0.0020680 -0.0434699 0.9979320 0.0434699 0.9979320 0.0434699 0.0020680 -0.0434699
6633579 0.0019872 -0.0425284 0.9980128 0.0425284 0.9980128 0.0425284 0.0019872 -0.0425284
6779431 0.0019099 -0.0416068 0.9980901 0.0416068 0.9980901 0.0416068 0.0019099 -0.0416068
6928491 0.0018359 -0.0407046 0.9981641 0.0407046 0.9981641 0.0407046 0.0018359 -0.0407046
7080828 0.0017650 -0.0398213 0.9982350 0.0398213 0.9982350 0.0398213 0.0017650 -0.0398213
7236514 0.0016972 -0.0389567 0.9983028 0.0389567 0.9983028 0.0389567 0.0016972 -0.0389567
7395623 0.0016323 -0.0381103 0.9983677 0.0381103 0.9983677 0.0381103 0.0016323 -0.0381103
7558231 0.0015702 -0.0372818 0.9984298 0.0372818 0.9984298 0.0372818 0.0015702 -0.0372818
7724414 0.0015108 -0.0364707 0.9984892 0.0364707 0.9984892 0.0364707 0.0015108 -0.0364707
7894251 0.0014540 -0.0356767 0.9985460 0.0356767 0.9985460 0.0356767 0.0014540 -0.0356767
8067822 0.0013996 -0.0348993 0.9986004 0.0348993 0.9986004 0.0348993 0.0013996 -0.0348993
8245209 0.0013475 -0.0341384 0.9986525 0.0341384 0.9986525 0.0341384 0.0013475 -0.0341384
8426497 0.0012977 -0.0333935 0.9987023 0.0333935 0.9987023 0.0333935 0.0012977 -0.0333935
8611770 0.0012501 -0.0326642 0.9987499 0.0326642 0.9987499 0.0326642 0.0012501 -0.0326642
8801117 0.0012045 -0.0319503 0.9987955 0.0319503 0.9987955 0.0319503 0.0012045 -0.0319503
8994628 0.0011609 -0.0312514 0.9988391 0.0312514 0.9988391 0.0312514 0.0011609 -0.0312514
9192393 0.0011192 -0.0305671 0.9988808 0.0305671 0.9988808 0.0305671 0.0011192 -0.0305671
9394506 0.0010793 -0.0298973 0.9989207 0.0298973 0.9989207 0.0298973 0.0010793 -0.0298973
9601063 0.0010412 -0.0292415 0.9989588 0.0292415 0.9989588 0.0292415 0.0010412 -0.0292415
9812162 0.0010047 -0.0285995 0.9989953 0.0285995 0.9989953 0.0285995 0.0010047 -0.0285995
10027902 0.0009699 -0.0279709 0.9990301 0.0279709 0.9990301 0.0279709 0.0009699 -0.0279709
10248386 0.0009365 -0.0273555 0.9990635 0.0273555 0.9990635 0.0273555 0.0009365 -0.0273555
10473717 0.0009047 -0.0267530 0.9990953 0.0267530 0.9990953 0.0267530 0.0009047 -0.0267530
10704003 0.0008742 -0.0261631 0.9991258 0.0261631 0.9991258 0.0261631 0.0008742 -0.0261631
10939352 0.0008451 -0.0255855 0.9991549 0.0255855 0.9991549 0.0255855 0.0008451 -0.0255855
11179876 0.0008172 -0.0250200 0.9991828 0.0250200 0.9991828 0.0250200 0.0008172 -0.0250200
11425688 0.0007906 -0.0244663 0.9992094 0.0244663 0.9992094 0.0244663 0.0007906 -0.0244663
11676904 0.0007652 -0.0239241 0.9992348 0.0239241 0.9992348 0.0239241 0.0007652 -0.0239241
11933645 0.0007410 -0.0233933 0.9992590 0.0233933 0.9992590 0.0233933 0.0007410 -0.0233933
12196030 0.0007178 -0.0228735 0.9992822 0.0228735 0.9992822 0.0228735 0.0007178 -0.0228735
12464184 0.0006956 -0.0223645 0.9993044 0.0223645 0.9993044 0.0223645 0.0006956 -0.0223645
12738235 0.0006745 -0.0218660 0.9993255 0.0218660 0.9993255 0.0218660 0.0006745 -0.0218660
13018310 0.0006543 -0.0213779 0.9993457 0.0213779 0.9993457 0.0213779 0.0006543 -0.0213779
13304544 0.0006350 -0.0208999 0.9993650 0.0208999 0.9993650 0.0208999 0.0006350 -0.0208999
13597071 0.0006166 -0.0204318 0.9993834 0.0204318 0.9993834 0.0204318 0.0006166 -0.0204318
13896030 0.0005990 -0.0199734 0.9994010 0.0199734 0.9994010 0.0199734 0.0005990 -0.0199734
14201563 0.0005822 -0.0195244 0.9994178 0.0195244 0.9994178 0.0195244 0.0005822 -0.0195244
14513813 0.0005662 -0.0190847 0.9994338 0.0190847 0.9994338 0.0190847 0.0005662 -0.0190847
14832928 0.0005510 -0.0186540 0.9994490 0.0186540 0.9994490 0.0186540 0.0005510 -0.0186540
15159060 0.0005364 -0.0182321 0.9994636 0.0182321 0.9994636 0.0182321 0.0005364 -0.0182321
15492362 0.0005225 -0.0178189 0.9994775 0.0178189 0.9994775 0.0178189 0.0005225 -0.0178189
15832993 0.0005093 -0.0174141 0.9994907 0.0174141 0.9994907 0.0174141 0.0005093 -0.0174141
16181113 0.0004966 -0.0170176 0.9995034 0.0170176 0.9995034 0.0170176 0.0004966 -0.0170176
16536888 0.0004846 -0.0166291 0.9995154 0.0166291 0.9995154 0.0166291 0.0004846 -0.0166291
16900485 0.0004731 -0.0162486 0.9995269 0.0162486 0.9995269 0.0162486 0.0004731 -0.0162486
17272076 0.0004622 -0.0158757 0.9995378 0.0158757 0.9995378 0.0158757 0.0004622 -0.0158757
17651837 0.0004518 -0.0155104 0.9995482 0.0155104 0.9995482 0.0155104 0.0004518 -0.0155104
18039948 0.0004419 -0.0151524 0.9995581 0.0151524 0.9995581 0.0151524 0.0004419 -0.0151524
18436593 0.0004325 -0.0148017 0.9995675 0.0148017 0.9995675 0.0148017 0.0004325 -0.0148017
18841959 0.0004235 -0.0144579 0.9995765 0.0144579 0.9995765 0.0144579 0.0004235 -0.0144579
19256237 0.0004150 -0.0141211 0.9995850 0.0141211 0.9995850 0.0141211 0.0004150 -0.0141211
19679624 0.0004068 -0.0137909 0.9995932 0.0137909 0.9995932 0.0137909 0.0004068 -0.0137909
20112321 0.0003991 -0.0134673 0.9996009 0.0134673 0.9996009 0.0134673 0.0003991 -0.0134673
20554530 0.0003918 -0.0131501 0.9996082 0.0131501 0.9996082 0.0131501 0.0003918 -0.0131501
21006463 0.0003848 -0.0128391 0.9996152 0.0128391 0.9996152 0.0128391 0.0003848 -0.0128391
21468333 0.0003782 -0.0125343 0.9996218 0.0125343 0.9996218 0.0125343 0.0003782 -0.0125343
21940357 0.0003719 -0.0122354 0.9996281 0.0122354 0.9996281 0.0122354 0.0003719 -0.0122354
22422760 0.0003659 -0.0119423 0.9996341 0.0119423 0.9996341 0.0119423 0.0003659 -0.0119423
22915770 0.0003602 -0.0116549 0.9996398 0.0116549 0.9996398 0.0116549 0.0003602 -0.0116549
23419619 0.0003549 -0.0113730 0.9996451 0.0113730 0.9996451 0.0113730 0.0003549 -0.0113730
23934547 0.0003498 -0.0110966 0.9996502 0.0110966 0.9996502 0.0110966 0.0003498 -0.0110966
24460796 0.0003449 -0.0108254 0.9996551 0.0108254 0.9996551 0.0108254 0.0003449 -0.0108254
24998616 0.0003404 -0.0105594 0.9996596 0.0105594 0.9996596 0.0105594 0.0003404 -0.0105594
25548261 0.0003361 -0.0102984 0.9996639 0.0102984 0.9996639 0.0102984 0.0003361 -0.0102984
26109991 0.0003320 -0.0100423 0.9996680 0.0100423 0.9996680 0.0100423 0.0003320 -0.0100423
26684072 0.0003281 -0.0097910 0.9996719 0.0097910 0.9996719 0.0097910 0.0003281 -0.0097910
27270775 0.0003245 -0.0095444 0.9996755 0.0095444 0.9996755 0.0095444 0.0003245 -0.0095444
27870378 0.0003211 -0.0093023 0.9996789 0.0093023 0.9996789 0.0093023 0.0003211 -0.0093023
28483164 0.0003178 -0.0090646 0.9996822 0.0090646 0.9996822 0.0090646 0.0003178 -0.0090646
29109424 0.0003148 -0.0088312 0.9996852 0.0088312 0.9996852 0.0088312 0.0003148 -0.0088312
29749453 0.0003119 -0.0086021 0.9996881 0.0086021 0.9996881 0.0086021 0.0003119 -0.0086021
30403555 0.0003093 -0.0083770 0.9996907 0.0083770 0.9996907 0.0083770 0.0003093 -0.0083770
31072038 0.0003068 -0.0081559 0.9996932 0.0081559 0.9996932 0.0081559 0.0003068 -0.0081559
31755220 0.0003045 -0.0079387 0.9996955 0.0079387 0.9996955 0.0079387 0.0003045 -0.0079387
32453422 0.0003023 -0.0077253 0.9996977 0.0077253 0.9996977 0.0077253 0.0003023 -0.0077253
33166976 0.0003003 -0.0075156 0.9996997 0.0075156 0.9996997 0.0075156 0.0003003 -0.0075156
33896219 0.0002984 -0.0073094 0.9997016 0.0073094 0.9997016 0.0073094 0.0002984 -0.0073094
34641496 0.0002967 -0.0071068 0.9997033 0.0071068 0.9997033 0.0071068 0.0002967 -0.0071068
35403159 0.0002951 -0.0069075 0.9997049 0.0069075 0.9997049 0.0069075 0.0002951 -0.0069075
36181569 0.0002937 -0.0067115 0.9997063 0.0067115 0.9997063 0.0067115 0.0002937 -0.0067115
36977093 0.0002923 -0.0065187 0.9997077 0.0065187 0.9997077 0.0065187 0.0002923 -0.0065187
37790109 0.0002912 -0.0063290 0.9997088 0.0063290 0.9997088 0.0063290 0.0002912 -0.0063290
38621001 0.0002901 -0.0061423 0.9997099 0.0061423 0.9997099 0.0061423 0.0002901 -0.0061423
39470161 0.0002892 -0.0059586 0.9997108 0.0059586 0.9997108 0.0059586 0.0002892 -0.0059586
40337993 0.0002884 -0.0057777 0.9997116 0.0057777 0.9997116 0.0057777 0.0002884 -0.0057777
41224905 0.0002877 -0.0055995 0.9997123 0.0055995 0.9997123 0.0055995 0.0002877 -0.0055995
42131317 0.0002871 -0.0054241 0.9997129 0.0054241 0.9997129 0.0054241 0.0002871 -0.0054241
43057659 0.0002866 -0.0052512 0.9997134 0.0052512 0.9997134 0.0052512 0.0002866 -0.0052512
44004369 0.0002862 -0.0050808 0.9997138 0.0050808 0.9997138 0.0050808 0.0002862 -0.0050808
44971893 0.0002860 -0.0049128 0.9997140 0.0049128 0.9997140 0.0049128 0.0002860 -0.0049128
45960691 0.0002858 -0.0047472 0.9997142 0.0047472 0.9997142 0.0047472 0.0002858 -0.0047472
46971230 0.0002858 -0.0045839 0.9997142 0.0045839 0.9997142 0.0045839 0.0002858 -0.0045839
48003987 0.0002858 -0.0044227 0.9997142 0.0044227 0.9997142 0.0044227 0.0002858 -0.0044227
49059451 0.0002860 -0.0042637 0.9997140 0.0042637 0.9997140 0.0042637 0.0002860 -0.0042637
50138122 0.0002863 -0.0041067 0.9997137 0.0041067 0.9997137 0.0041067 0.0002863 -0.0041067
51240510 0.0002867 -0.0039516 0.9997133 0.0039516 0.9997133 0.0039516 0.0002867 -0.0039516
52367136 0.0002871 -0.0037985 0.9997129 0.0037985 0.9997129 0.0037985 0.0002871 -0.0037985
53518533 0.0002877 -0.0036472 0.9997123 0.0036472 0.9997123 0.0036472 0.0002877 -0.0036472
54695245 0.0002884 -0.0034976 0.9997116 0.0034976 0.9997116 0.0034976 0.0002884 -0.0034976
55897831 0.0002892 -0.0033497 0.9997108 0.0033497 0.9997108 0.0033497 0.0002892 -0.0033497
57126857 0.0002901 -0.0032034 0.9997099 0.0032034 0.9997099 0.0032034 0.0002901 -0.0032034
58382906 0.0002911 -0.0030587 0.9997089 0.0030587 0.9997089 0.0030587 0.0002911 -0.0030587
59666572 0.0002922 -0.0029154 0.9997078 0.0029154 0.9997078 0.0029154 0.0002922 -0.0029154
60978462 0.0002934 -0.0027735 0.9997066 0.0027735 0.9997066 0.0027735 0.0002934 -0.0027735
62319196 0.0002947 -0.0026330 0.9997053 0.0026330 0.9997053 0.0026330 0.0002947 -0.0026330
63689409 0.0002961 -0.0024937 0.9997039 0.0024937 0.9997039 0.0024937 0.0002961 -0.0024937
65089750 0.0002976 -0.0023557 0.9997024 0.0023557 0.9997024 0.0023557 0.0002976 -0.0023557
66520879 0.0002993 -0.0022188 0.9997007 0.0022188 0.9997007 0.0022188 0.0002993 -0.0022188
67983474 0.0003010 -0.0020830 0.9996990 0.0020830 0.9996990 0.0020830 0.0003010 -0.0020830
69478228 0.0003029 -0.0019481 0.9996971 0.0019481 0.9996971 0.0019481 0.0003029 -0.0019481
71005847 0.0003048 -0.0018143 0.9996952 0.0018143 0.9996952 0.0018143 0.0003048 -0.0018143
72567054 0.0003069 -0.0016813 0.9996931 0.0016813 0.9996931 0.0016813 0.0003069 -0.0016813
74162587 0.0003092 -0.0015492 0.9996908 0.0015492 0.9996908 0.0015492 0.0003092 -0.0015492
75793201 0.0003115 -0.0014178 0.9996885 0.0014178 0.9996885 0.0014178 0.0003115 -0.0014178
77459667 0.0003140 -0.0012871 0.9996860 0.0012871 0.9996860 0.0012871 0.0003140 -0.0012871
79162774 0.0003165 -0.0011571 0.9996835 0.0011571 0.9996835 0.0011571 0.0003165 -0.0011571
80903327 0.0003193 -0.0010276 0.9996807 0.0010276 0.9996807 0.0010276 0.0003193 -0.0010276
82682150 0.0003221 -0.0008987 0.9996779 0.0008987 0.9996779 0.0008987 0.0003221 -0.0008987
84500083 0.0003251 -0.0007702 0.9996749 0.0007702 0.9996749 0.0007702 0.0003251 -0.0007702
86357988 0.0003282 -0.0006421 0.9996718 0.0006421 0.9996718 0.0006421 0.0003282 -0.0006421
88256743 0.0003315 -0.0005144 0.9996685 0.0005144 0.9996685 0.0005144 0.0003315 -0.0005144
90197245 0.0003349 -0.0003869 0.9996651 0.0003869 0.9996651 0.0003869 0.0003349 -0.0003869
92180413 0.0003385 -0.0002597 0.9996615 0.0002597 0.9996615 0.0002597 0.0003385 -0.0002597
94207185 0.0003422 -0.0001326 0.9996578 0.0001326 0.9996578 0.0001326 0.0003422 -0.0001326
96278520 0.0003461 -0.0000056 0.9996539 0.0000056 0.9996539 0.0000056 0.0003461 -0.0000056
98395398 0.0003501 0.0001214 0.9996499 -0.0001214 0.9996499 -0.0001214 0.0003501 0.0001214
100558819 0.0003543 0.0002483 0.9996457 -0.0002483 0.9996457 -0.0002483 0.0003543 0.0002483
102769807 0.0003587 0.0003754 0.9996413 -0.0003754 0.9996413 -0.0003754 0.0003587 0.0003754
105029408 0.0003632 0.0005026 0.9996368 -0.0005026 0.9996368 -0.0005026 0.0003632 0.0005026
107338692 0.0003680 0.0006301 0.9996320 -0.0006301 0.9996320 -0.0006301 0.0003680 0.0006301
