!Murata Part Number: GRM21A7U2E222JW31
!These Parameters are Measured in Series Mode Connection
!Data Generated on Mar 30, 2021
!       o--ll--o
!Port1            Port2
!       o------o
!Operation Temp=25[degC], DC Bias Voltage=0[V]
!Freq. Start=1000[kHz] Stop=3[GHz] 401[Steps]
# Hz S RI R 50
!Freq.(Hz) S11(Real) S11(Imag) S21(Real) S21(Imag) S12(Real) S12(Imag) S22(Real) S22(Imag)
1000000 0.3364120 -0.4724012 0.6635880 0.4724012 0.6635880 0.4724012 0.3364120 -0.4724012
1020218 0.3275358 -0.4692324 0.6724642 0.4692324 0.6724642 0.4692324 0.3275358 -0.4692324
1040844 0.3187813 -0.4659203 0.6812187 0.4659203 0.6812187 0.4659203 0.3187813 -0.4659203
1061887 0.3101529 -0.4624705 0.6898471 0.4624705 0.6898471 0.4624705 0.3101529 -0.4624705
1083356 0.3016547 -0.4588890 0.6983453 0.4588890 0.6983453 0.4588890 0.3016547 -0.4588890
1105259 0.2932903 -0.4551814 0.7067097 0.4551814 0.7067097 0.4551814 0.2932903 -0.4551814
1127605 0.2850633 -0.4513538 0.7149367 0.4513538 0.7149367 0.4513538 0.2850633 -0.4513538
1150402 0.2769767 -0.4474123 0.7230233 0.4474123 0.7230233 0.4474123 0.2769767 -0.4474123
1173660 0.2690332 -0.4433628 0.7309668 0.4433628 0.7309668 0.4433628 0.2690332 -0.4433628
1197389 0.2612353 -0.4392115 0.7387647 0.4392115 0.7387647 0.4392115 0.2612353 -0.4392115
1221597 0.2535850 -0.4349644 0.7464150 0.4349644 0.7464150 0.4349644 0.2535850 -0.4349644
1246295 0.2460842 -0.4306278 0.7539158 0.4306278 0.7539158 0.4306278 0.2460842 -0.4306278
1271492 0.2387343 -0.4262076 0.7612657 0.4262076 0.7612657 0.4262076 0.2387343 -0.4262076
1297199 0.2315366 -0.4217100 0.7684634 0.4217100 0.7684634 0.4217100 0.2315366 -0.4217100
1323425 0.2244920 -0.4171408 0.7755080 0.4171408 0.7755080 0.4171408 0.2244920 -0.4171408
1350181 0.2176011 -0.4125059 0.7823989 0.4125059 0.7823989 0.4125059 0.2176011 -0.4125059
1377479 0.2108642 -0.4078112 0.7891358 0.4078112 0.7891358 0.4078112 0.2108642 -0.4078112
1405328 0.2042815 -0.4030624 0.7957185 0.4030624 0.7957185 0.4030624 0.2042815 -0.4030624
1433740 0.1978529 -0.3982651 0.8021471 0.3982651 0.8021471 0.3982651 0.1978529 -0.3982651
1462727 0.1915779 -0.3934248 0.8084221 0.3934248 0.8084221 0.3934248 0.1915779 -0.3934248
1492300 0.1854560 -0.3885468 0.8145440 0.3885468 0.8145440 0.3885468 0.1854560 -0.3885468
1522470 0.1794863 -0.3836364 0.8205137 0.3836364 0.8205137 0.3836364 0.1794863 -0.3836364
1553251 0.1736679 -0.3786986 0.8263321 0.3786986 0.8263321 0.3786986 0.1736679 -0.3786986
1584654 0.1679996 -0.3737383 0.8320004 0.3737383 0.8320004 0.3737383 0.1679996 -0.3737383
1616692 0.1624800 -0.3687603 0.8375200 0.3687603 0.8375200 0.3687603 0.1624800 -0.3687603
1649378 0.1571075 -0.3637692 0.8428925 0.3637692 0.8428925 0.3637692 0.1571075 -0.3637692
1682724 0.1518805 -0.3587694 0.8481195 0.3587694 0.8481195 0.3587694 0.1518805 -0.3587694
1716745 0.1467972 -0.3537653 0.8532028 0.3537653 0.8532028 0.3537653 0.1467972 -0.3537653
1751453 0.1418557 -0.3487609 0.8581443 0.3487609 0.8581443 0.3487609 0.1418557 -0.3487609
1786863 0.1370539 -0.3437602 0.8629461 0.3437602 0.8629461 0.3437602 0.1370539 -0.3437602
1822989 0.1323896 -0.3387668 0.8676104 0.3387668 0.8676104 0.3387668 0.1323896 -0.3387668
1859846 0.1278605 -0.3337845 0.8721395 0.3337845 0.8721395 0.3337845 0.1278605 -0.3337845
1897447 0.1234645 -0.3288167 0.8765355 0.3288167 0.8765355 0.3288167 0.1234645 -0.3288167
1935809 0.1191990 -0.3238665 0.8808010 0.3238665 0.8808010 0.3238665 0.1191990 -0.3238665
1974946 0.1150616 -0.3189370 0.8849384 0.3189370 0.8849384 0.3189370 0.1150616 -0.3189370
2014875 0.1110498 -0.3140313 0.8889502 0.3140313 0.8889502 0.3140313 0.1110498 -0.3140313
2055611 0.1071610 -0.3091521 0.8928390 0.3091521 0.8928390 0.3091521 0.1071610 -0.3091521
2097170 0.1033927 -0.3043019 0.8966073 0.3043019 0.8966073 0.3043019 0.1033927 -0.3043019
2139570 0.0997421 -0.2994832 0.9002579 0.2994832 0.9002579 0.2994832 0.0997421 -0.2994832
2182827 0.0962066 -0.2946983 0.9037934 0.2946983 0.9037934 0.2946983 0.0962066 -0.2946983
2226959 0.0927837 -0.2899494 0.9072163 0.2899494 0.9072163 0.2899494 0.0927837 -0.2899494
2271982 0.0894705 -0.2852384 0.9105295 0.2852384 0.9105295 0.2852384 0.0894705 -0.2852384
2317916 0.0862645 -0.2805672 0.9137355 0.2805672 0.9137355 0.2805672 0.0862645 -0.2805672
2364779 0.0831630 -0.2759375 0.9168370 0.2759375 0.9168370 0.2759375 0.0831630 -0.2759375
2412589 0.0801633 -0.2713510 0.9198367 0.2713510 0.9198367 0.2713510 0.0801633 -0.2713510
2461366 0.0772627 -0.2668091 0.9227373 0.2668091 0.9227373 0.2668091 0.0772627 -0.2668091
2511129 0.0744587 -0.2623131 0.9255413 0.2623131 0.9255413 0.2623131 0.0744587 -0.2623131
2561897 0.0717486 -0.2578643 0.9282514 0.2578643 0.9282514 0.2578643 0.0717486 -0.2578643
2613693 0.0691299 -0.2534637 0.9308701 0.2534637 0.9308701 0.2534637 0.0691299 -0.2534637
2666535 0.0666000 -0.2491125 0.9334000 0.2491125 0.9334000 0.2491125 0.0666000 -0.2491125
2720446 0.0641564 -0.2448114 0.9358436 0.2448114 0.9358436 0.2448114 0.0641564 -0.2448114
2775447 0.0617965 -0.2405613 0.9382035 0.2405613 0.9382035 0.2405613 0.0617965 -0.2405613
2831560 0.0595181 -0.2363629 0.9404819 0.2363629 0.9404819 0.2363629 0.0595181 -0.2363629
2888807 0.0573186 -0.2322168 0.9426814 0.2322168 0.9426814 0.2322168 0.0573186 -0.2322168
2947212 0.0551957 -0.2281235 0.9448043 0.2281235 0.9448043 0.2281235 0.0551957 -0.2281235
3006797 0.0531471 -0.2240835 0.9468529 0.2240835 0.9468529 0.2240835 0.0531471 -0.2240835
3067588 0.0511705 -0.2200972 0.9488295 0.2200972 0.9488295 0.2200972 0.0511705 -0.2200972
3129607 0.0492637 -0.2161648 0.9507363 0.2161648 0.9507363 0.2161648 0.0492637 -0.2161648
3192880 0.0474245 -0.2122866 0.9525755 0.2122866 0.9525755 0.2122866 0.0474245 -0.2122866
3257432 0.0456507 -0.2084627 0.9543493 0.2084627 0.9543493 0.2084627 0.0456507 -0.2084627
3323290 0.0439403 -0.2046932 0.9560597 0.2046932 0.9560597 0.2046932 0.0439403 -0.2046932
3390478 0.0422913 -0.2009782 0.9577087 0.2009782 0.9577087 0.2009782 0.0422913 -0.2009782
3459026 0.0407016 -0.1973176 0.9592984 0.1973176 0.9592984 0.1973176 0.0407016 -0.1973176
3528959 0.0391693 -0.1937114 0.9608307 0.1937114 0.9608307 0.1937114 0.0391693 -0.1937114
3600306 0.0376925 -0.1901595 0.9623075 0.1901595 0.9623075 0.1901595 0.0376925 -0.1901595
3673095 0.0362694 -0.1866616 0.9637306 0.1866616 0.9637306 0.1866616 0.0362694 -0.1866616
3747356 0.0348981 -0.1832176 0.9651019 0.1832176 0.9651019 0.1832176 0.0348981 -0.1832176
3823119 0.0335770 -0.1798273 0.9664230 0.1798273 0.9664230 0.1798273 0.0335770 -0.1798273
3900413 0.0323043 -0.1764904 0.9676957 0.1764904 0.9676957 0.1764904 0.0323043 -0.1764904
3979270 0.0310784 -0.1732064 0.9689216 0.1732064 0.9689216 0.1732064 0.0310784 -0.1732064
4059721 0.0298977 -0.1699752 0.9701023 0.1699752 0.9701023 0.1699752 0.0298977 -0.1699752
4141799 0.0287606 -0.1667963 0.9712394 0.1667963 0.9712394 0.1667963 0.0287606 -0.1667963
4225536 0.0276657 -0.1636693 0.9723343 0.1636693 0.9723343 0.1636693 0.0276657 -0.1636693
4310966 0.0266113 -0.1605937 0.9733887 0.1605937 0.9733887 0.1605937 0.0266113 -0.1605937
4398124 0.0255962 -0.1575692 0.9744038 0.1575692 0.9744038 0.1575692 0.0255962 -0.1575692
4487043 0.0246190 -0.1545953 0.9753810 0.1545953 0.9753810 0.1545953 0.0246190 -0.1545953
4577760 0.0236782 -0.1516714 0.9763218 0.1516714 0.9763218 0.1516714 0.0236782 -0.1516714
4670311 0.0227726 -0.1487970 0.9772274 0.1487970 0.9772274 0.1487970 0.0227726 -0.1487970
4764734 0.0219010 -0.1459716 0.9780990 0.1459716 0.9780990 0.1459716 0.0219010 -0.1459716
4861065 0.0210622 -0.1431948 0.9789378 0.1431948 0.9789378 0.1431948 0.0210622 -0.1431948
4959344 0.0202549 -0.1404658 0.9797451 0.1404658 0.9797451 0.1404658 0.0202549 -0.1404658
5059610 0.0194780 -0.1377842 0.9805220 0.1377842 0.9805220 0.1377842 0.0194780 -0.1377842
5161903 0.0187305 -0.1351494 0.9812695 0.1351494 0.9812695 0.1351494 0.0187305 -0.1351494
5266264 0.0180112 -0.1325608 0.9819888 0.1325608 0.9819888 0.1325608 0.0180112 -0.1325608
5372736 0.0173192 -0.1300178 0.9826808 0.1300178 0.9826808 0.1300178 0.0173192 -0.1300178
5481359 0.0166534 -0.1275198 0.9833466 0.1275198 0.9833466 0.1275198 0.0166534 -0.1275198
5592179 0.0160129 -0.1250662 0.9839871 0.1250662 0.9839871 0.1250662 0.0160129 -0.1250662
5705239 0.0153968 -0.1226564 0.9846032 0.1226564 0.9846032 0.1226564 0.0153968 -0.1226564
5820586 0.0148041 -0.1202898 0.9851959 0.1202898 0.9851959 0.1202898 0.0148041 -0.1202898
5938264 0.0142340 -0.1179658 0.9857660 0.1179658 0.9857660 0.1179658 0.0142340 -0.1179658
6058321 0.0136857 -0.1156838 0.9863143 0.1156838 0.9863143 0.1156838 0.0136857 -0.1156838
6180806 0.0131583 -0.1134431 0.9868417 0.1134431 0.9868417 0.1134431 0.0131583 -0.1134431
6305767 0.0126511 -0.1112432 0.9873489 0.1112432 0.9873489 0.1112432 0.0126511 -0.1112432
6433254 0.0121633 -0.1090834 0.9878367 0.1090834 0.9878367 0.1090834 0.0121633 -0.1090834
6563319 0.0116942 -0.1069631 0.9883058 0.1069631 0.9883058 0.1069631 0.0116942 -0.1069631
6696013 0.0112431 -0.1048817 0.9887569 0.1048817 0.9887569 0.1048817 0.0112431 -0.1048817
6831390 0.0108093 -0.1028386 0.9891907 0.1028386 0.9891907 0.1028386 0.0108093 -0.1028386
6969505 0.0103922 -0.1008332 0.9896078 0.1008332 0.9896078 0.1008332 0.0103922 -0.1008332
7110411 0.0099912 -0.0988649 0.9900088 0.0988649 0.9900088 0.0988649 0.0099912 -0.0988649
7254166 0.0096055 -0.0969331 0.9903945 0.0969331 0.9903945 0.0969331 0.0096055 -0.0969331
7400828 0.0092348 -0.0950372 0.9907652 0.0950372 0.9907652 0.0950372 0.0092348 -0.0950372
7550455 0.0088783 -0.0931765 0.9911217 0.0931765 0.9911217 0.0931765 0.0088783 -0.0931765
7703107 0.0085357 -0.0913506 0.9914643 0.0913506 0.9914643 0.0913506 0.0085357 -0.0913506
7858845 0.0082062 -0.0895588 0.9917938 0.0895588 0.9917938 0.0895588 0.0082062 -0.0895588
8017732 0.0078895 -0.0878006 0.9921105 0.0878006 0.9921105 0.0878006 0.0078895 -0.0878006
8179831 0.0075850 -0.0860754 0.9924150 0.0860754 0.9924150 0.0860754 0.0075850 -0.0860754
8345207 0.0072924 -0.0843826 0.9927076 0.0843826 0.9927076 0.0843826 0.0072924 -0.0843826
8513927 0.0070110 -0.0827216 0.9929890 0.0827216 0.9929890 0.0827216 0.0070110 -0.0827216
8686058 0.0067406 -0.0810920 0.9932594 0.0810920 0.9932594 0.0810920 0.0067406 -0.0810920
8861669 0.0064806 -0.0794931 0.9935194 0.0794931 0.9935194 0.0794931 0.0064806 -0.0794931
9040831 0.0062308 -0.0779244 0.9937692 0.0779244 0.9937692 0.0779244 0.0062308 -0.0779244
9223615 0.0059906 -0.0763855 0.9940094 0.0763855 0.9940094 0.0763855 0.0059906 -0.0763855
9410094 0.0057598 -0.0748756 0.9942402 0.0748756 0.9942402 0.0748756 0.0057598 -0.0748756
9600343 0.0055380 -0.0733945 0.9944620 0.0733945 0.9944620 0.0733945 0.0055380 -0.0733945
9794439 0.0053248 -0.0719414 0.9946752 0.0719414 0.9946752 0.0719414 0.0053248 -0.0719414
9992459 0.0051199 -0.0705160 0.9948801 0.0705160 0.9948801 0.0705160 0.0051199 -0.0705160
10194482 0.0049230 -0.0691176 0.9950770 0.0691176 0.9950770 0.0691176 0.0049230 -0.0691176
10400590 0.0047337 -0.0677459 0.9952663 0.0677459 0.9952663 0.0677459 0.0047337 -0.0677459
10610865 0.0045519 -0.0664003 0.9954481 0.0664003 0.9954481 0.0664003 0.0045519 -0.0664003
10825391 0.0043771 -0.0650804 0.9956229 0.0650804 0.9956229 0.0650804 0.0043771 -0.0650804
11044254 0.0042092 -0.0637857 0.9957908 0.0637857 0.9957908 0.0637857 0.0042092 -0.0637857
11267542 0.0040478 -0.0625156 0.9959522 0.0625156 0.9959522 0.0625156 0.0040478 -0.0625156
11495344 0.0038928 -0.0612698 0.9961072 0.0612698 0.9961072 0.0612698 0.0038928 -0.0612698
11727752 0.0037438 -0.0600478 0.9962562 0.0600478 0.9962562 0.0600478 0.0037438 -0.0600478
11964859 0.0036006 -0.0588492 0.9963994 0.0588492 0.9963994 0.0588492 0.0036006 -0.0588492
12206760 0.0034631 -0.0576735 0.9965369 0.0576735 0.9965369 0.0576735 0.0034631 -0.0576735
12453551 0.0033309 -0.0565202 0.9966691 0.0565202 0.9966691 0.0565202 0.0033309 -0.0565202
12705331 0.0032040 -0.0553891 0.9967960 0.0553891 0.9967960 0.0553891 0.0032040 -0.0553891
12962202 0.0030820 -0.0542795 0.9969180 0.0542795 0.9969180 0.0542795 0.0030820 -0.0542795
13224267 0.0029648 -0.0531912 0.9970352 0.0531912 0.9970352 0.0531912 0.0029648 -0.0531912
13491630 0.0028523 -0.0521237 0.9971477 0.0521237 0.9971477 0.0521237 0.0028523 -0.0521237
13764398 0.0027441 -0.0510766 0.9972559 0.0510766 0.9972559 0.0510766 0.0027441 -0.0510766
14042680 0.0026403 -0.0500496 0.9973597 0.0500496 0.9973597 0.0500496 0.0026403 -0.0500496
14326589 0.0025405 -0.0490422 0.9974595 0.0490422 0.9974595 0.0490422 0.0025405 -0.0490422
14616238 0.0024447 -0.0480541 0.9975553 0.0480541 0.9975553 0.0480541 0.0024447 -0.0480541
14911743 0.0023526 -0.0470848 0.9976474 0.0470848 0.9976474 0.0470848 0.0023526 -0.0470848
15213223 0.0022642 -0.0461341 0.9977358 0.0461341 0.9977358 0.0461341 0.0022642 -0.0461341
15520797 0.0021793 -0.0452016 0.9978207 0.0452016 0.9978207 0.0452016 0.0021793 -0.0452016
15834590 0.0020978 -0.0442869 0.9979022 0.0442869 0.9979022 0.0442869 0.0020978 -0.0442869
16154727 0.0020195 -0.0433896 0.9979805 0.0433896 0.9979805 0.0433896 0.0020195 -0.0433896
16481337 0.0019443 -0.0425095 0.9980557 0.0425095 0.9980557 0.0425095 0.0019443 -0.0425095
16814550 0.0018722 -0.0416461 0.9981278 0.0416461 0.9981278 0.0416461 0.0018722 -0.0416461
17154499 0.0018029 -0.0407992 0.9981971 0.0407992 0.9981971 0.0407992 0.0018029 -0.0407992
17501322 0.0017364 -0.0399685 0.9982636 0.0399685 0.9982636 0.0399685 0.0017364 -0.0399685
17855156 0.0016725 -0.0391535 0.9983275 0.0391535 0.9983275 0.0391535 0.0016725 -0.0391535
18216144 0.0016112 -0.0383541 0.9983888 0.0383541 0.9983888 0.0383541 0.0016112 -0.0383541
18584431 0.0015524 -0.0375698 0.9984476 0.0375698 0.9984476 0.0375698 0.0015524 -0.0375698
18960163 0.0014960 -0.0368004 0.9985040 0.0368004 0.9985040 0.0368004 0.0014960 -0.0368004
19343491 0.0014418 -0.0360457 0.9985582 0.0360457 0.9985582 0.0360457 0.0014418 -0.0360457
19734570 0.0013898 -0.0353052 0.9986102 0.0353052 0.9986102 0.0353052 0.0013898 -0.0353052
20133555 0.0013399 -0.0345787 0.9986601 0.0345787 0.9986601 0.0345787 0.0013399 -0.0345787
20540607 0.0012921 -0.0338660 0.9987079 0.0338660 0.9987079 0.0338660 0.0012921 -0.0338660
20955888 0.0012462 -0.0331667 0.9987538 0.0331667 0.9987538 0.0331667 0.0012462 -0.0331667
21379566 0.0012023 -0.0324806 0.9987977 0.0324806 0.9987977 0.0324806 0.0012023 -0.0324806
21811809 0.0011601 -0.0318075 0.9988399 0.0318075 0.9988399 0.0318075 0.0011601 -0.0318075
22252791 0.0011196 -0.0311470 0.9988804 0.0311470 0.9988804 0.0311470 0.0011196 -0.0311470
22702688 0.0010809 -0.0304989 0.9989191 0.0304989 0.9989191 0.0304989 0.0010809 -0.0304989
23161682 0.0010437 -0.0298629 0.9989563 0.0298629 0.9989563 0.0298629 0.0010437 -0.0298629
23629955 0.0010081 -0.0292389 0.9989919 0.0292389 0.9989919 0.0292389 0.0010081 -0.0292389
24107696 0.0009741 -0.0286265 0.9990259 0.0286265 0.9990259 0.0286265 0.0009741 -0.0286265
24595095 0.0009414 -0.0280255 0.9990586 0.0280255 0.9990586 0.0280255 0.0009414 -0.0280255
25092348 0.0009101 -0.0274357 0.9990899 0.0274357 0.9990899 0.0274357 0.0009101 -0.0274357
25599655 0.0008802 -0.0268569 0.9991198 0.0268569 0.9991198 0.0268569 0.0008802 -0.0268569
26117218 0.0008516 -0.0262888 0.9991484 0.0262888 0.9991484 0.0262888 0.0008516 -0.0262888
26645245 0.0008242 -0.0257312 0.9991758 0.0257312 0.9991758 0.0257312 0.0008242 -0.0257312
27183947 0.0007980 -0.0251839 0.9992020 0.0251839 0.9992020 0.0251839 0.0007980 -0.0251839
27733541 0.0007729 -0.0246466 0.9992271 0.0246466 0.9992271 0.0246466 0.0007729 -0.0246466
28294246 0.0007490 -0.0241193 0.9992510 0.0241193 0.9992510 0.0241193 0.0007490 -0.0241193
28866287 0.0007261 -0.0236016 0.9992739 0.0236016 0.9992739 0.0236016 0.0007261 -0.0236016
29449894 0.0007043 -0.0230933 0.9992957 0.0230933 0.9992957 0.0230933 0.0007043 -0.0230933
30045299 0.0006835 -0.0225944 0.9993165 0.0225944 0.9993165 0.0225944 0.0006835 -0.0225944
30652742 0.0006636 -0.0221044 0.9993364 0.0221044 0.9993364 0.0221044 0.0006636 -0.0221044
31272467 0.0006446 -0.0216234 0.9993554 0.0216234 0.9993554 0.0216234 0.0006446 -0.0216234
31904720 0.0006266 -0.0211511 0.9993734 0.0211511 0.9993734 0.0211511 0.0006266 -0.0211511
32549757 0.0006094 -0.0206872 0.9993906 0.0206872 0.9993906 0.0206872 0.0006094 -0.0206872
33207834 0.0005930 -0.0202317 0.9994070 0.0202317 0.9994070 0.0202317 0.0005930 -0.0202317
33879216 0.0005774 -0.0197843 0.9994226 0.0197843 0.9994226 0.0197843 0.0005774 -0.0197843
34564172 0.0005626 -0.0193449 0.9994374 0.0193449 0.9994374 0.0193449 0.0005626 -0.0193449
35262976 0.0005486 -0.0189132 0.9994514 0.0189132 0.9994514 0.0189132 0.0005486 -0.0189132
35975908 0.0005352 -0.0184893 0.9994648 0.0184893 0.9994648 0.0184893 0.0005352 -0.0184893
36703254 0.0005226 -0.0180727 0.9994774 0.0180727 0.9994774 0.0180727 0.0005226 -0.0180727
37445305 0.0005106 -0.0176635 0.9994894 0.0176635 0.9994894 0.0176635 0.0005106 -0.0176635
38202358 0.0004993 -0.0172614 0.9995007 0.0172614 0.9995007 0.0172614 0.0004993 -0.0172614
38974717 0.0004886 -0.0168663 0.9995114 0.0168663 0.9995114 0.0168663 0.0004886 -0.0168663
39762692 0.0004784 -0.0164780 0.9995216 0.0164780 0.9995216 0.0164780 0.0004784 -0.0164780
40566597 0.0004689 -0.0160965 0.9995311 0.0160965 0.9995311 0.0160965 0.0004689 -0.0160965
41386756 0.0004599 -0.0157214 0.9995401 0.0157214 0.9995401 0.0157214 0.0004599 -0.0157214
42223496 0.0004515 -0.0153527 0.9995485 0.0153527 0.9995485 0.0153527 0.0004515 -0.0153527
43077153 0.0004436 -0.0149903 0.9995564 0.0149903 0.9995564 0.0149903 0.0004436 -0.0149903
43948069 0.0004362 -0.0146339 0.9995638 0.0146339 0.9995638 0.0146339 0.0004362 -0.0146339
44836592 0.0004292 -0.0142836 0.9995708 0.0142836 0.9995708 0.0142836 0.0004292 -0.0142836
45743080 0.0004227 -0.0139390 0.9995773 0.0139390 0.9995773 0.0139390 0.0004227 -0.0139390
46667894 0.0004167 -0.0136001 0.9995833 0.0136001 0.9995833 0.0136001 0.0004167 -0.0136001
47611406 0.0004111 -0.0132668 0.9995889 0.0132668 0.9995889 0.0132668 0.0004111 -0.0132668
48573993 0.0004059 -0.0129389 0.9995941 0.0129389 0.9995941 0.0129389 0.0004059 -0.0129389
49556042 0.0004011 -0.0126163 0.9995989 0.0126163 0.9995989 0.0126163 0.0004011 -0.0126163
50557945 0.0003967 -0.0122989 0.9996033 0.0122989 0.9996033 0.0122989 0.0003967 -0.0122989
51580105 0.0003926 -0.0119866 0.9996074 0.0119866 0.9996074 0.0119866 0.0003926 -0.0119866
52622929 0.0003889 -0.0116791 0.9996111 0.0116791 0.9996111 0.0116791 0.0003889 -0.0116791
53686838 0.0003855 -0.0113764 0.9996145 0.0113764 0.9996145 0.0113764 0.0003855 -0.0113764
54772256 0.0003825 -0.0110785 0.9996175 0.0110785 0.9996175 0.0110785 0.0003825 -0.0110785
55879618 0.0003797 -0.0107850 0.9996203 0.0107850 0.9996203 0.0107850 0.0003797 -0.0107850
57009369 0.0003773 -0.0104961 0.9996227 0.0104961 0.9996227 0.0104961 0.0003773 -0.0104961
58161960 0.0003751 -0.0102114 0.9996249 0.0102114 0.9996249 0.0102114 0.0003751 -0.0102114
59337855 0.0003732 -0.0099310 0.9996268 0.0099310 0.9996268 0.0099310 0.0003732 -0.0099310
60537522 0.0003715 -0.0096547 0.9996285 0.0096547 0.9996285 0.0096547 0.0003715 -0.0096547
61761445 0.0003701 -0.0093823 0.9996299 0.0093823 0.9996299 0.0093823 0.0003701 -0.0093823
63010112 0.0003689 -0.0091139 0.9996311 0.0091139 0.9996311 0.0091139 0.0003689 -0.0091139
64284024 0.0003679 -0.0088492 0.9996321 0.0088492 0.9996321 0.0088492 0.0003679 -0.0088492
65583691 0.0003671 -0.0085882 0.9996329 0.0085882 0.9996329 0.0085882 0.0003671 -0.0085882
66909635 0.0003665 -0.0083307 0.9996335 0.0083307 0.9996335 0.0083307 0.0003665 -0.0083307
68262386 0.0003661 -0.0080767 0.9996339 0.0080767 0.9996339 0.0080767 0.0003661 -0.0080767
69642486 0.0003658 -0.0078260 0.9996342 0.0078260 0.9996342 0.0078260 0.0003658 -0.0078260
71050488 0.0003657 -0.0075785 0.9996343 0.0075785 0.9996343 0.0075785 0.0003657 -0.0075785
72486957 0.0003658 -0.0073342 0.9996342 0.0073342 0.9996342 0.0073342 0.0003658 -0.0073342
73952468 0.0003660 -0.0070929 0.9996340 0.0070929 0.9996340 0.0070929 0.0003660 -0.0070929
