!Murata Part Number: GRM21A5C2E820JW01
!These Parameters are Measured in Series Mode Connection
!Data Generated on Mar 30, 2021
!       o--ll--o
!Port1            Port2
!       o------o
!Operation Temp=25[degC], DC Bias Voltage=0[V]
!Freq. Start=100[MHz] Stop=3[GHz] 401[Steps]
# Hz S RI R 50
!Freq.(Hz) S11(Real) S11(Imag) S21(Real) S21(Imag) S12(Real) S12(Imag) S22(Real) S22(Imag)
100000000 0.0363016 -0.1827740 0.9636984 0.1827740 0.9636984 0.1827740 0.0363016 -0.1827740
107250000 0.0317205 -0.1706703 0.9682795 0.1706703 0.9682795 0.1706703 0.0317205 -0.1706703
114500000 0.0279501 -0.1599242 0.9720499 0.1599242 0.9720499 0.1599242 0.0279501 -0.1599242
121750000 0.0248117 -0.1503217 0.9751883 0.1503217 0.9751883 0.1503217 0.0248117 -0.1503217
129000000 0.0221726 -0.1416898 0.9778274 0.1416898 0.9778274 0.1416898 0.0221726 -0.1416898
136250000 0.0199332 -0.1338879 0.9800668 0.1338879 0.9800668 0.1338879 0.0199332 -0.1338879
143500000 0.0180174 -0.1268004 0.9819826 0.1268004 0.9819826 0.1268004 0.0180174 -0.1268004
150750000 0.0163662 -0.1203318 0.9836338 0.1203318 0.9836338 0.1203318 0.0163662 -0.1203318
158000000 0.0149334 -0.1144026 0.9850666 0.1144026 0.9850666 0.1144026 0.0149334 -0.1144026
165250000 0.0136825 -0.1089460 0.9863175 0.1089460 0.9863175 0.1089460 0.0136825 -0.1089460
172500000 0.0125843 -0.1039058 0.9874157 0.1039058 0.9874157 0.1039058 0.0125843 -0.1039058
179750000 0.0116152 -0.0992341 0.9883848 0.0992341 0.9883848 0.0992341 0.0116152 -0.0992341
187000000 0.0107559 -0.0948900 0.9892441 0.0948900 0.9892441 0.0948900 0.0107559 -0.0948900
194250000 0.0099907 -0.0908385 0.9900093 0.0908385 0.9900093 0.0908385 0.0099907 -0.0908385
201500000 0.0093065 -0.0870491 0.9906935 0.0870491 0.9906935 0.0870491 0.0093065 -0.0870491
208750000 0.0086924 -0.0834956 0.9913076 0.0834956 0.9913076 0.0834956 0.0086924 -0.0834956
216000000 0.0081395 -0.0801550 0.9918605 0.0801550 0.9918605 0.0801550 0.0081395 -0.0801550
223250000 0.0076399 -0.0770073 0.9923601 0.0770073 0.9923601 0.0770073 0.0076399 -0.0770073
230500000 0.0071872 -0.0740348 0.9928128 0.0740348 0.9928128 0.0740348 0.0071872 -0.0740348
237750000 0.0067759 -0.0712218 0.9932241 0.0712218 0.9932241 0.0712218 0.0067759 -0.0712218
245000000 0.0064011 -0.0685547 0.9935989 0.0685547 0.9935989 0.0685547 0.0064011 -0.0685547
252250000 0.0060590 -0.0660212 0.9939410 0.0660212 0.9939410 0.0660212 0.0060590 -0.0660212
259500000 0.0057458 -0.0636102 0.9942542 0.0636102 0.9942542 0.0636102 0.0057458 -0.0636102
266750000 0.0054586 -0.0613120 0.9945414 0.0613120 0.9945414 0.0613120 0.0054586 -0.0613120
274000000 0.0051947 -0.0591179 0.9948053 0.0591179 0.9948053 0.0591179 0.0051947 -0.0591179
281250000 0.0049518 -0.0570200 0.9950482 0.0570200 0.9950482 0.0570200 0.0049518 -0.0570200
288500000 0.0047278 -0.0550111 0.9952722 0.0550111 0.9952722 0.0550111 0.0047278 -0.0550111
295750000 0.0045209 -0.0530847 0.9954791 0.0530847 0.9954791 0.0530847 0.0045209 -0.0530847
303000000 0.0043296 -0.0512352 0.9956704 0.0512352 0.9956704 0.0512352 0.0043296 -0.0512352
310250000 0.0041525 -0.0494571 0.9958475 0.0494571 0.9958475 0.0494571 0.0041525 -0.0494571
317500000 0.0039882 -0.0477456 0.9960118 0.0477456 0.9960118 0.0477456 0.0039882 -0.0477456
324750000 0.0038357 -0.0460964 0.9961643 0.0460964 0.9961643 0.0460964 0.0038357 -0.0460964
332000000 0.0036941 -0.0445054 0.9963059 0.0445054 0.9963059 0.0445054 0.0036941 -0.0445054
339250000 0.0035624 -0.0429688 0.9964376 0.0429688 0.9964376 0.0429688 0.0035624 -0.0429688
346500000 0.0034397 -0.0414835 0.9965603 0.0414835 0.9965603 0.0414835 0.0034397 -0.0414835
353750000 0.0033255 -0.0400461 0.9966745 0.0400461 0.9966745 0.0400461 0.0033255 -0.0400461
361000000 0.0032191 -0.0386539 0.9967809 0.0386539 0.9967809 0.0386539 0.0032191 -0.0386539
368250000 0.0031198 -0.0373042 0.9968802 0.0373042 0.9968802 0.0373042 0.0031198 -0.0373042
375500000 0.0030272 -0.0359945 0.9969728 0.0359945 0.9969728 0.0359945 0.0030272 -0.0359945
382750000 0.0029408 -0.0347227 0.9970592 0.0347227 0.9970592 0.0347227 0.0029408 -0.0347227
390000000 0.0028601 -0.0334866 0.9971399 0.0334866 0.9971399 0.0334866 0.0028601 -0.0334866
397250000 0.0027848 -0.0322842 0.9972152 0.0322842 0.9972152 0.0322842 0.0027848 -0.0322842
404500000 0.0027144 -0.0311138 0.9972856 0.0311138 0.9972856 0.0311138 0.0027144 -0.0311138
411750000 0.0026488 -0.0299737 0.9973512 0.0299737 0.9973512 0.0299737 0.0026488 -0.0299737
419000000 0.0025874 -0.0288623 0.9974126 0.0288623 0.9974126 0.0288623 0.0025874 -0.0288623
426250000 0.0025302 -0.0277782 0.9974698 0.0277782 0.9974698 0.0277782 0.0025302 -0.0277782
433500000 0.0024768 -0.0267199 0.9975232 0.0267199 0.9975232 0.0267199 0.0024768 -0.0267199
440750000 0.0024271 -0.0256863 0.9975729 0.0256863 0.9975729 0.0256863 0.0024271 -0.0256863
448000000 0.0023807 -0.0246760 0.9976193 0.0246760 0.9976193 0.0246760 0.0023807 -0.0246760
455250000 0.0023375 -0.0236881 0.9976625 0.0236881 0.9976625 0.0236881 0.0023375 -0.0236881
462500000 0.0022973 -0.0227214 0.9977027 0.0227214 0.9977027 0.0227214 0.0022973 -0.0227214
469750000 0.0022600 -0.0217750 0.9977400 0.0217750 0.9977400 0.0217750 0.0022600 -0.0217750
477000000 0.0022253 -0.0208480 0.9977747 0.0208480 0.9977747 0.0208480 0.0022253 -0.0208480
484250000 0.0021932 -0.0199394 0.9978068 0.0199394 0.9978068 0.0199394 0.0021932 -0.0199394
491500000 0.0021636 -0.0190485 0.9978364 0.0190485 0.9978364 0.0190485 0.0021636 -0.0190485
498750000 0.0021362 -0.0181744 0.9978638 0.0181744 0.9978638 0.0181744 0.0021362 -0.0181744
506000000 0.0021110 -0.0173165 0.9978890 0.0173165 0.9978890 0.0173165 0.0021110 -0.0173165
513250000 0.0020879 -0.0164740 0.9979121 0.0164740 0.9979121 0.0164740 0.0020879 -0.0164740
520500000 0.0020668 -0.0156464 0.9979332 0.0156464 0.9979332 0.0156464 0.0020668 -0.0156464
527750000 0.0020475 -0.0148329 0.9979525 0.0148329 0.9979525 0.0148329 0.0020475 -0.0148329
535000000 0.0020301 -0.0140331 0.9979699 0.0140331 0.9979699 0.0140331 0.0020301 -0.0140331
542250000 0.0020144 -0.0132463 0.9979856 0.0132463 0.9979856 0.0132463 0.0020144 -0.0132463
549500000 0.0020003 -0.0124720 0.9979997 0.0124720 0.9979997 0.0124720 0.0020003 -0.0124720
556750000 0.0019878 -0.0117098 0.9980122 0.0117098 0.9980122 0.0117098 0.0019878 -0.0117098
564000000 0.0019769 -0.0109592 0.9980231 0.0109592 0.9980231 0.0109592 0.0019769 -0.0109592
571250000 0.0019673 -0.0102197 0.9980327 0.0102197 0.9980327 0.0102197 0.0019673 -0.0102197
578500000 0.0019592 -0.0094908 0.9980408 0.0094908 0.9980408 0.0094908 0.0019592 -0.0094908
585750000 0.0019524 -0.0087723 0.9980476 0.0087723 0.9980476 0.0087723 0.0019524 -0.0087723
593000000 0.0019469 -0.0080637 0.9980531 0.0080637 0.9980531 0.0080637 0.0019469 -0.0080637
600250000 0.0019427 -0.0073646 0.9980573 0.0073646 0.9980573 0.0073646 0.0019427 -0.0073646
607500000 0.0019396 -0.0066747 0.9980604 0.0066747 0.9980604 0.0066747 0.0019396 -0.0066747
614750000 0.0019378 -0.0059937 0.9980622 0.0059937 0.9980622 0.0059937 0.0019378 -0.0059937
622000000 0.0019370 -0.0053212 0.9980630 0.0053212 0.9980630 0.0053212 0.0019370 -0.0053212
629250000 0.0019373 -0.0046569 0.9980627 0.0046569 0.9980627 0.0046569 0.0019373 -0.0046569
636500000 0.0019387 -0.0040006 0.9980613 0.0040006 0.9980613 0.0040006 0.0019387 -0.0040006
643750000 0.0019411 -0.0033520 0.9980589 0.0033520 0.9980589 0.0033520 0.0019411 -0.0033520
651000000 0.0019445 -0.0027108 0.9980555 0.0027108 0.9980555 0.0027108 0.0019445 -0.0027108
658250000 0.0019488 -0.0020767 0.9980512 0.0020767 0.9980512 0.0020767 0.0019488 -0.0020767
665500000 0.0019541 -0.0014496 0.9980459 0.0014496 0.9980459 0.0014496 0.0019541 -0.0014496
672750000 0.0019603 -0.0008291 0.9980397 0.0008291 0.9980397 0.0008291 0.0019603 -0.0008291
680000000 0.0019674 -0.0002150 0.9980326 0.0002150 0.9980326 0.0002150 0.0019674 -0.0002150
687250000 0.0019753 0.0003927 0.9980247 -0.0003927 0.9980247 -0.0003927 0.0019753 0.0003927
694500000 0.0019841 0.0009945 0.9980159 -0.0009945 0.9980159 -0.0009945 0.0019841 0.0009945
701750000 0.0019937 0.0015904 0.9980063 -0.0015904 0.9980063 -0.0015904 0.0019937 0.0015904
709000000 0.0020041 0.0021806 0.9979959 -0.0021806 0.9979959 -0.0021806 0.0020041 0.0021806
716250000 0.0020152 0.0027654 0.9979848 -0.0027654 0.9979848 -0.0027654 0.0020152 0.0027654
723500000 0.0020272 0.0033449 0.9979728 -0.0033449 0.9979728 -0.0033449 0.0020272 0.0033449
730750000 0.0020399 0.0039192 0.9979601 -0.0039192 0.9979601 -0.0039192 0.0020399 0.0039192
738000000 0.0020533 0.0044886 0.9979467 -0.0044886 0.9979467 -0.0044886 0.0020533 0.0044886
745250000 0.0020675 0.0050532 0.9979325 -0.0050532 0.9979325 -0.0050532 0.0020675 0.0050532
752500000 0.0020823 0.0056131 0.9979177 -0.0056131 0.9979177 -0.0056131 0.0020823 0.0056131
759750000 0.0020979 0.0061685 0.9979021 -0.0061685 0.9979021 -0.0061685 0.0020979 0.0061685
767000000 0.0021141 0.0067195 0.9978859 -0.0067195 0.9978859 -0.0067195 0.0021141 0.0067195
774250000 0.0021311 0.0072662 0.9978689 -0.0072662 0.9978689 -0.0072662 0.0021311 0.0072662
781500000 0.0021487 0.0078089 0.9978513 -0.0078089 0.9978513 -0.0078089 0.0021487 0.0078089
788750000 0.0021669 0.0083475 0.9978331 -0.0083475 0.9978331 -0.0083475 0.0021669 0.0083475
796000000 0.0021858 0.0088823 0.9978142 -0.0088823 0.9978142 -0.0088823 0.0021858 0.0088823
803250000 0.0022053 0.0094133 0.9977947 -0.0094133 0.9977947 -0.0094133 0.0022053 0.0094133
810500000 0.0022255 0.0099407 0.9977745 -0.0099407 0.9977745 -0.0099407 0.0022255 0.0099407
817750000 0.0022462 0.0104645 0.9977538 -0.0104645 0.9977538 -0.0104645 0.0022462 0.0104645
825000000 0.0022676 0.0109849 0.9977324 -0.0109849 0.9977324 -0.0109849 0.0022676 0.0109849
832250000 0.0022896 0.0115019 0.9977104 -0.0115019 0.9977104 -0.0115019 0.0022896 0.0115019
839500000 0.0023122 0.0120157 0.9976878 -0.0120157 0.9976878 -0.0120157 0.0023122 0.0120157
846750000 0.0023354 0.0125264 0.9976646 -0.0125264 0.9976646 -0.0125264 0.0023354 0.0125264
854000000 0.0023592 0.0130341 0.9976408 -0.0130341 0.9976408 -0.0130341 0.0023592 0.0130341
861250000 0.0023836 0.0135387 0.9976164 -0.0135387 0.9976164 -0.0135387 0.0023836 0.0135387
868500000 0.0024085 0.0140405 0.9975915 -0.0140405 0.9975915 -0.0140405 0.0024085 0.0140405
875750000 0.0024341 0.0145396 0.9975659 -0.0145396 0.9975659 -0.0145396 0.0024341 0.0145396
883000000 0.0024602 0.0150359 0.9975398 -0.0150359 0.9975398 -0.0150359 0.0024602 0.0150359
890250000 0.0024869 0.0155296 0.9975131 -0.0155296 0.9975131 -0.0155296 0.0024869 0.0155296
897500000 0.0025142 0.0160207 0.9974858 -0.0160207 0.9974858 -0.0160207 0.0025142 0.0160207
904750000 0.0025420 0.0165093 0.9974580 -0.0165093 0.9974580 -0.0165093 0.0025420 0.0165093
912000000 0.0025704 0.0169956 0.9974296 -0.0169956 0.9974296 -0.0169956 0.0025704 0.0169956
919250000 0.0025994 0.0174795 0.9974006 -0.0174795 0.9974006 -0.0174795 0.0025994 0.0174795
926500000 0.0026289 0.0179612 0.9973711 -0.0179612 0.9973711 -0.0179612 0.0026289 0.0179612
933750000 0.0026590 0.0184406 0.9973410 -0.0184406 0.9973410 -0.0184406 0.0026590 0.0184406
941000000 0.0026897 0.0189180 0.9973103 -0.0189180 0.9973103 -0.0189180 0.0026897 0.0189180
948250000 0.0027209 0.0193932 0.9972791 -0.0193932 0.9972791 -0.0193932 0.0027209 0.0193932
955500000 0.0027527 0.0198665 0.9972473 -0.0198665 0.9972473 -0.0198665 0.0027527 0.0198665
962750000 0.0027850 0.0203378 0.9972150 -0.0203378 0.9972150 -0.0203378 0.0027850 0.0203378
970000000 0.0028180 0.0208072 0.9971820 -0.0208072 0.9971820 -0.0208072 0.0028180 0.0208072
977250000 0.0028515 0.0212748 0.9971485 -0.0212748 0.9971485 -0.0212748 0.0028515 0.0212748
984500000 0.0028855 0.0217406 0.9971145 -0.0217406 0.9971145 -0.0217406 0.0028855 0.0217406
991750000 0.0029201 0.0222047 0.9970799 -0.0222047 0.9970799 -0.0222047 0.0029201 0.0222047
999000000 0.0029553 0.0226671 0.9970447 -0.0226671 0.9970447 -0.0226671 0.0029553 0.0226671
1006250000 0.0029911 0.0231279 0.9970089 -0.0231279 0.9970089 -0.0231279 0.0029911 0.0231279
1013500000 0.0030275 0.0235872 0.9969725 -0.0235872 0.9969725 -0.0235872 0.0030275 0.0235872
1020750000 0.0030644 0.0240449 0.9969356 -0.0240449 0.9969356 -0.0240449 0.0030644 0.0240449
1028000000 0.0031019 0.0245012 0.9968981 -0.0245012 0.9968981 -0.0245012 0.0031019 0.0245012
1035250000 0.0031400 0.0249561 0.9968600 -0.0249561 0.9968600 -0.0249561 0.0031400 0.0249561
1042500000 0.0031787 0.0254096 0.9968213 -0.0254096 0.9968213 -0.0254096 0.0031787 0.0254096
1049750000 0.0032180 0.0258618 0.9967820 -0.0258618 0.9967820 -0.0258618 0.0032180 0.0258618
1057000000 0.0032579 0.0263127 0.9967421 -0.0263127 0.9967421 -0.0263127 0.0032579 0.0263127
1064250000 0.0032985 0.0267624 0.9967015 -0.0267624 0.9967015 -0.0267624 0.0032985 0.0267624
1071500000 0.0033396 0.0272109 0.9966604 -0.0272109 0.9966604 -0.0272109 0.0033396 0.0272109
1078750000 0.0033814 0.0276582 0.9966186 -0.0276582 0.9966186 -0.0276582 0.0033814 0.0276582
1086000000 0.0034237 0.0281045 0.9965763 -0.0281045 0.9965763 -0.0281045 0.0034237 0.0281045
1093250000 0.0034668 0.0285497 0.9965332 -0.0285497 0.9965332 -0.0285497 0.0034668 0.0285497
1100500000 0.0035104 0.0289939 0.9964896 -0.0289939 0.9964896 -0.0289939 0.0035104 0.0289939
1107750000 0.0035548 0.0294371 0.9964452 -0.0294371 0.9964452 -0.0294371 0.0035548 0.0294371
1115000000 0.0035998 0.0298795 0.9964002 -0.0298795 0.9964002 -0.0298795 0.0035998 0.0298795
1122250000 0.0036454 0.0303209 0.9963546 -0.0303209 0.9963546 -0.0303209 0.0036454 0.0303209
1129500000 0.0036918 0.0307614 0.9963082 -0.0307614 0.9963082 -0.0307614 0.0036918 0.0307614
1136750000 0.0037389 0.0312012 0.9962611 -0.0312012 0.9962611 -0.0312012 0.0037389 0.0312012
1144000000 0.0037866 0.0316402 0.9962134 -0.0316402 0.9962134 -0.0316402 0.0037866 0.0316402
1151250000 0.0038351 0.0320785 0.9961649 -0.0320785 0.9961649 -0.0320785 0.0038351 0.0320785
1158500000 0.0038843 0.0325161 0.9961157 -0.0325161 0.9961157 -0.0325161 0.0038843 0.0325161
1165750000 0.0039343 0.0329530 0.9960657 -0.0329530 0.9960657 -0.0329530 0.0039343 0.0329530
1173000000 0.0039851 0.0333894 0.9960149 -0.0333894 0.9960149 -0.0333894 0.0039851 0.0333894
1180250000 0.0040366 0.0338251 0.9959634 -0.0338251 0.9959634 -0.0338251 0.0040366 0.0338251
1187500000 0.0040889 0.0342604 0.9959111 -0.0342604 0.9959111 -0.0342604 0.0040889 0.0342604
1194750000 0.0041421 0.0346951 0.9958579 -0.0346951 0.9958579 -0.0346951 0.0041421 0.0346951
1202000000 0.0041961 0.0351294 0.9958039 -0.0351294 0.9958039 -0.0351294 0.0041961 0.0351294
1209250000 0.0042509 0.0355633 0.9957491 -0.0355633 0.9957491 -0.0355633 0.0042509 0.0355633
1216500000 0.0043067 0.0359968 0.9956933 -0.0359968 0.9956933 -0.0359968 0.0043067 0.0359968
1223750000 0.0043633 0.0364300 0.9956367 -0.0364300 0.9956367 -0.0364300 0.0043633 0.0364300
1231000000 0.0044209 0.0368629 0.9955791 -0.0368629 0.9955791 -0.0368629 0.0044209 0.0368629
1238250000 0.0044794 0.0372955 0.9955206 -0.0372955 0.9955206 -0.0372955 0.0044794 0.0372955
1245500000 0.0045390 0.0377279 0.9954610 -0.0377279 0.9954610 -0.0377279 0.0045390 0.0377279
1252750000 0.0045995 0.0381602 0.9954005 -0.0381602 0.9954005 -0.0381602 0.0045995 0.0381602
1260000000 0.0046612 0.0385923 0.9953388 -0.0385923 0.9953388 -0.0385923 0.0046612 0.0385923
1267250000 0.0047239 0.0390243 0.9952761 -0.0390243 0.9952761 -0.0390243 0.0047239 0.0390243
1274500000 0.0047877 0.0394563 0.9952123 -0.0394563 0.9952123 -0.0394563 0.0047877 0.0394563
1281750000 0.0048527 0.0398882 0.9951473 -0.0398882 0.9951473 -0.0398882 0.0048527 0.0398882
1289000000 0.0049190 0.0403202 0.9950810 -0.0403202 0.9950810 -0.0403202 0.0049190 0.0403202
1296250000 0.0049865 0.0407523 0.9950135 -0.0407523 0.9950135 -0.0407523 0.0049865 0.0407523
1303500000 0.0050553 0.0411845 0.9949447 -0.0411845 0.9949447 -0.0411845 0.0050553 0.0411845
1310750000 0.0051255 0.0416168 0.9948745 -0.0416168 0.9948745 -0.0416168 0.0051255 0.0416168
1318000000 0.0051972 0.0420493 0.9948028 -0.0420493 0.9948028 -0.0420493 0.0051972 0.0420493
1325250000 0.0052703 0.0424821 0.9947297 -0.0424821 0.9947297 -0.0424821 0.0052703 0.0424821
1332500000 0.0053450 0.0429152 0.9946550 -0.0429152 0.9946550 -0.0429152 0.0053450 0.0429152
1339750000 0.0054214 0.0433486 0.9945786 -0.0433486 0.9945786 -0.0433486 0.0054214 0.0433486
1347000000 0.0054995 0.0437824 0.9945005 -0.0437824 0.9945005 -0.0437824 0.0054995 0.0437824
1354250000 0.0055794 0.0442166 0.9944206 -0.0442166 0.9944206 -0.0442166 0.0055794 0.0442166
1361500000 0.0056612 0.0446513 0.9943388 -0.0446513 0.9943388 -0.0446513 0.0056612 0.0446513
1368750000 0.0057450 0.0450865 0.9942550 -0.0450865 0.9942550 -0.0450865 0.0057450 0.0450865
1376000000 0.0058310 0.0455222 0.9941690 -0.0455222 0.9941690 -0.0455222 0.0058310 0.0455222
1383250000 0.0059192 0.0459585 0.9940808 -0.0459585 0.9940808 -0.0459585 0.0059192 0.0459585
1390500000 0.0060098 0.0463954 0.9939902 -0.0463954 0.9939902 -0.0463954 0.0060098 0.0463954
1397750000 0.0061030 0.0468330 0.9938970 -0.0468330 0.9938970 -0.0468330 0.0061030 0.0468330
1405000000 0.0061988 0.0472714 0.9938012 -0.0472714 0.9938012 -0.0472714 0.0061988 0.0472714
1412250000 0.0062975 0.0477104 0.9937025 -0.0477104 0.9937025 -0.0477104 0.0062975 0.0477104
1419500000 0.0063993 0.0481502 0.9936007 -0.0481502 0.9936007 -0.0481502 0.0063993 0.0481502
1426750000 0.0065043 0.0485907 0.9934957 -0.0485907 0.9934957 -0.0485907 0.0065043 0.0485907
1434000000 0.0066128 0.0490320 0.9933872 -0.0490320 0.9933872 -0.0490320 0.0066128 0.0490320
1441250000 0.0067251 0.0494741 0.9932749 -0.0494741 0.9932749 -0.0494741 0.0067251 0.0494741
1448500000 0.0068413 0.0499169 0.9931587 -0.0499169 0.9931587 -0.0499169 0.0068413 0.0499169
1455750000 0.0069619 0.0503605 0.9930381 -0.0503605 0.9930381 -0.0503605 0.0069619 0.0503605
1463000000 0.0070872 0.0508047 0.9929128 -0.0508047 0.9929128 -0.0508047 0.0070872 0.0508047
1470250000 0.0072174 0.0512496 0.9927826 -0.0512496 0.9927826 -0.0512496 0.0072174 0.0512496
1477500000 0.0073530 0.0516949 0.9926470 -0.0516949 0.9926470 -0.0516949 0.0073530 0.0516949
1484750000 0.0074944 0.0521406 0.9925056 -0.0521406 0.9925056 -0.0521406 0.0074944 0.0521406
1492000000 0.0076422 0.0525865 0.9923578 -0.0525865 0.9923578 -0.0525865 0.0076422 0.0525865
1499250000 0.0077967 0.0530324 0.9922033 -0.0530324 0.9922033 -0.0530324 0.0077967 0.0530324
1506500000 0.0079585 0.0534779 0.9920415 -0.0534779 0.9920415 -0.0534779 0.0079585 0.0534779
1513750000 0.0081282 0.0539227 0.9918718 -0.0539227 0.9918718 -0.0539227 0.0081282 0.0539227
1521000000 0.0083065 0.0543663 0.9916935 -0.0543663 0.9916935 -0.0543663 0.0083065 0.0543663
1528250000 0.0084940 0.0548081 0.9915060 -0.0548081 0.9915060 -0.0548081 0.0084940 0.0548081
1535500000 0.0086914 0.0552475 0.9913086 -0.0552475 0.9913086 -0.0552475 0.0086914 0.0552475
1542750000 0.0088994 0.0556836 0.9911006 -0.0556836 0.9911006 -0.0556836 0.0088994 0.0556836
1550000000 0.0091188 0.0561154 0.9908812 -0.0561154 0.9908812 -0.0561154 0.0091188 0.0561154
1557250000 0.0093502 0.0565415 0.9906498 -0.0565415 0.9906498 -0.0565415 0.0093502 0.0565415
1564500000 0.0095943 0.0569605 0.9904057 -0.0569605 0.9904057 -0.0569605 0.0095943 0.0569605
1571750000 0.0098517 0.0573706 0.9901483 -0.0573706 0.9901483 -0.0573706 0.0098517 0.0573706
1579000000 0.0101226 0.0577697 0.9898774 -0.0577697 0.9898774 -0.0577697 0.0101226 0.0577697
1586250000 0.0104074 0.0581554 0.9895926 -0.0581554 0.9895926 -0.0581554 0.0104074 0.0581554
1593500000 0.0107057 0.0585249 0.9892943 -0.0585249 0.9892943 -0.0585249 0.0107057 0.0585249
1600750000 0.0110170 0.0588751 0.9889830 -0.0588751 0.9889830 -0.0588751 0.0110170 0.0588751
1608000000 0.0113399 0.0592025 0.9886601 -0.0592025 0.9886601 -0.0592025 0.0113399 0.0592025
1615250000 0.0116724 0.0595037 0.9883276 -0.0595037 0.9883276 -0.0595037 0.0116724 0.0595037
1622500000 0.0120115 0.0597749 0.9879885 -0.0597749 0.9879885 -0.0597749 0.0120115 0.0597749
1629750000 0.0123531 0.0600128 0.9876469 -0.0600128 0.9876469 -0.0600128 0.0123531 0.0600128
