!Murata Part Number: GRM21A5C2J221JWA1
!These Parameters are Measured in Series Mode Connection
!Data Generated on Mar 30, 2021
!       o--ll--o
!Port1            Port2
!       o------o
!Operation Temp=25[degC], DC Bias Voltage=0[V]
!Freq. Start=100[MHz] Stop=3[GHz] 401[Steps]
# Hz S RI R 50
!Freq.(Hz) S11(Real) S11(Imag) S21(Real) S21(Imag) S12(Real) S12(Imag) S22(Real) S22(Imag)
100000000 0.0053863 -0.0697067 0.9946137 0.0697067 0.9946137 0.0697067 0.0053863 -0.0697067
107250000 0.0047006 -0.0645238 0.9952994 0.0645238 0.9952994 0.0645238 0.0047006 -0.0645238
114500000 0.0041455 -0.0599565 0.9958545 0.0599565 0.9958545 0.0599565 0.0041455 -0.0599565
121750000 0.0036907 -0.0558975 0.9963093 0.0558975 0.9963093 0.0558975 0.0036907 -0.0558975
129000000 0.0033140 -0.0522627 0.9966860 0.0522627 0.9966860 0.0522627 0.0033140 -0.0522627
136250000 0.0029991 -0.0489853 0.9970009 0.0489853 0.9970009 0.0489853 0.0029991 -0.0489853
143500000 0.0027336 -0.0460119 0.9972664 0.0460119 0.9972664 0.0460119 0.0027336 -0.0460119
150750000 0.0025079 -0.0432991 0.9974921 0.0432991 0.9974921 0.0432991 0.0025079 -0.0432991
158000000 0.0023149 -0.0408113 0.9976851 0.0408113 0.9976851 0.0408113 0.0023149 -0.0408113
165250000 0.0021487 -0.0385191 0.9978513 0.0385191 0.9978513 0.0385191 0.0021487 -0.0385191
172500000 0.0020049 -0.0363980 0.9979951 0.0363980 0.9979951 0.0363980 0.0020049 -0.0363980
179750000 0.0018798 -0.0344274 0.9981202 0.0344274 0.9981202 0.0344274 0.0018798 -0.0344274
187000000 0.0017706 -0.0325898 0.9982294 0.0325898 0.9982294 0.0325898 0.0017706 -0.0325898
194250000 0.0016748 -0.0308704 0.9983252 0.0308704 0.9983252 0.0308704 0.0016748 -0.0308704
201500000 0.0015906 -0.0292565 0.9984094 0.0292565 0.9984094 0.0292565 0.0015906 -0.0292565
208750000 0.0015163 -0.0277369 0.9984837 0.0277369 0.9984837 0.0277369 0.0015163 -0.0277369
216000000 0.0014505 -0.0263024 0.9985495 0.0263024 0.9985495 0.0263024 0.0014505 -0.0263024
223250000 0.0013923 -0.0249445 0.9986077 0.0249445 0.9986077 0.0249445 0.0013923 -0.0249445
230500000 0.0013407 -0.0236560 0.9986593 0.0236560 0.9986593 0.0236560 0.0013407 -0.0236560
237750000 0.0012948 -0.0224306 0.9987052 0.0224306 0.9987052 0.0224306 0.0012948 -0.0224306
245000000 0.0012540 -0.0212626 0.9987460 0.0212626 0.9987460 0.0212626 0.0012540 -0.0212626
252250000 0.0012178 -0.0201471 0.9987822 0.0201471 0.9987822 0.0201471 0.0012178 -0.0201471
259500000 0.0011856 -0.0190796 0.9988144 0.0190796 0.9988144 0.0190796 0.0011856 -0.0190796
266750000 0.0011570 -0.0180563 0.9988430 0.0180563 0.9988430 0.0180563 0.0011570 -0.0180563
274000000 0.0011317 -0.0170736 0.9988683 0.0170736 0.9988683 0.0170736 0.0011317 -0.0170736
281250000 0.0011093 -0.0161283 0.9988907 0.0161283 0.9988907 0.0161283 0.0011093 -0.0161283
288500000 0.0010896 -0.0152176 0.9989104 0.0152176 0.9989104 0.0152176 0.0010896 -0.0152176
295750000 0.0010723 -0.0143390 0.9989277 0.0143390 0.9989277 0.0143390 0.0010723 -0.0143390
303000000 0.0010572 -0.0134901 0.9989428 0.0134901 0.9989428 0.0134901 0.0010572 -0.0134901
310250000 0.0010441 -0.0126688 0.9989559 0.0126688 0.9989559 0.0126688 0.0010441 -0.0126688
317500000 0.0010329 -0.0118732 0.9989671 0.0118732 0.9989671 0.0118732 0.0010329 -0.0118732
324750000 0.0010234 -0.0111016 0.9989766 0.0111016 0.9989766 0.0111016 0.0010234 -0.0111016
332000000 0.0010155 -0.0103524 0.9989845 0.0103524 0.9989845 0.0103524 0.0010155 -0.0103524
339250000 0.0010091 -0.0096242 0.9989909 0.0096242 0.9989909 0.0096242 0.0010091 -0.0096242
346500000 0.0010040 -0.0089155 0.9989960 0.0089155 0.9989960 0.0089155 0.0010040 -0.0089155
353750000 0.0010002 -0.0082252 0.9989998 0.0082252 0.9989998 0.0082252 0.0010002 -0.0082252
361000000 0.0009977 -0.0075522 0.9990023 0.0075522 0.9990023 0.0075522 0.0009977 -0.0075522
368250000 0.0009962 -0.0068953 0.9990038 0.0068953 0.9990038 0.0068953 0.0009962 -0.0068953
375500000 0.0009958 -0.0062538 0.9990042 0.0062538 0.9990042 0.0062538 0.0009958 -0.0062538
382750000 0.0009964 -0.0056266 0.9990036 0.0056266 0.9990036 0.0056266 0.0009964 -0.0056266
390000000 0.0009980 -0.0050130 0.9990020 0.0050130 0.9990020 0.0050130 0.0009980 -0.0050130
397250000 0.0010005 -0.0044121 0.9989995 0.0044121 0.9989995 0.0044121 0.0010005 -0.0044121
404500000 0.0010038 -0.0038234 0.9989962 0.0038234 0.9989962 0.0038234 0.0010038 -0.0038234
411750000 0.0010080 -0.0032461 0.9989920 0.0032461 0.9989920 0.0032461 0.0010080 -0.0032461
419000000 0.0010129 -0.0026796 0.9989871 0.0026796 0.9989871 0.0026796 0.0010129 -0.0026796
426250000 0.0010186 -0.0021234 0.9989814 0.0021234 0.9989814 0.0021234 0.0010186 -0.0021234
433500000 0.0010250 -0.0015769 0.9989750 0.0015769 0.9989750 0.0015769 0.0010250 -0.0015769
440750000 0.0010322 -0.0010396 0.9989678 0.0010396 0.9989678 0.0010396 0.0010322 -0.0010396
448000000 0.0010400 -0.0005111 0.9989600 0.0005111 0.9989600 0.0005111 0.0010400 -0.0005111
455250000 0.0010484 0.0000091 0.9989516 -0.0000091 0.9989516 -0.0000091 0.0010484 0.0000091
462500000 0.0010576 0.0005214 0.9989424 -0.0005214 0.9989424 -0.0005214 0.0010576 0.0005214
469750000 0.0010673 0.0010261 0.9989327 -0.0010261 0.9989327 -0.0010261 0.0010673 0.0010261
477000000 0.0010776 0.0015237 0.9989224 -0.0015237 0.9989224 -0.0015237 0.0010776 0.0015237
484250000 0.0010886 0.0020145 0.9989114 -0.0020145 0.9989114 -0.0020145 0.0010886 0.0020145
491500000 0.0011001 0.0024988 0.9988999 -0.0024988 0.9988999 -0.0024988 0.0011001 0.0024988
498750000 0.0011122 0.0029769 0.9988878 -0.0029769 0.9988878 -0.0029769 0.0011122 0.0029769
506000000 0.0011248 0.0034490 0.9988752 -0.0034490 0.9988752 -0.0034490 0.0011248 0.0034490
513250000 0.0011381 0.0039156 0.9988619 -0.0039156 0.9988619 -0.0039156 0.0011381 0.0039156
520500000 0.0011518 0.0043768 0.9988482 -0.0043768 0.9988482 -0.0043768 0.0011518 0.0043768
527750000 0.0011661 0.0048328 0.9988339 -0.0048328 0.9988339 -0.0048328 0.0011661 0.0048328
535000000 0.0011810 0.0052839 0.9988190 -0.0052839 0.9988190 -0.0052839 0.0011810 0.0052839
542250000 0.0011964 0.0057304 0.9988036 -0.0057304 0.9988036 -0.0057304 0.0011964 0.0057304
549500000 0.0012123 0.0061723 0.9987877 -0.0061723 0.9987877 -0.0061723 0.0012123 0.0061723
556750000 0.0012288 0.0066100 0.9987712 -0.0066100 0.9987712 -0.0066100 0.0012288 0.0066100
564000000 0.0012458 0.0070436 0.9987542 -0.0070436 0.9987542 -0.0070436 0.0012458 0.0070436
571250000 0.0012633 0.0074733 0.9987367 -0.0074733 0.9987367 -0.0074733 0.0012633 0.0074733
578500000 0.0012814 0.0078993 0.9987186 -0.0078993 0.9987186 -0.0078993 0.0012814 0.0078993
585750000 0.0013000 0.0083217 0.9987000 -0.0083217 0.9987000 -0.0083217 0.0013000 0.0083217
593000000 0.0013192 0.0087406 0.9986808 -0.0087406 0.9986808 -0.0087406 0.0013192 0.0087406
600250000 0.0013389 0.0091563 0.9986611 -0.0091563 0.9986611 -0.0091563 0.0013389 0.0091563
607500000 0.0013591 0.0095689 0.9986409 -0.0095689 0.9986409 -0.0095689 0.0013591 0.0095689
614750000 0.0013799 0.0099785 0.9986201 -0.0099785 0.9986201 -0.0099785 0.0013799 0.0099785
622000000 0.0014013 0.0103853 0.9985987 -0.0103853 0.9985987 -0.0103853 0.0014013 0.0103853
629250000 0.0014232 0.0107894 0.9985768 -0.0107894 0.9985768 -0.0107894 0.0014232 0.0107894
636500000 0.0014457 0.0111908 0.9985543 -0.0111908 0.9985543 -0.0111908 0.0014457 0.0111908
643750000 0.0014688 0.0115898 0.9985312 -0.0115898 0.9985312 -0.0115898 0.0014688 0.0115898
651000000 0.0014925 0.0119864 0.9985075 -0.0119864 0.9985075 -0.0119864 0.0014925 0.0119864
658250000 0.0015168 0.0123808 0.9984832 -0.0123808 0.9984832 -0.0123808 0.0015168 0.0123808
665500000 0.0015418 0.0127730 0.9984582 -0.0127730 0.9984582 -0.0127730 0.0015418 0.0127730
672750000 0.0015674 0.0131632 0.9984326 -0.0131632 0.9984326 -0.0131632 0.0015674 0.0131632
680000000 0.0015936 0.0135515 0.9984064 -0.0135515 0.9984064 -0.0135515 0.0015936 0.0135515
687250000 0.0016205 0.0139380 0.9983795 -0.0139380 0.9983795 -0.0139380 0.0016205 0.0139380
694500000 0.0016481 0.0143226 0.9983519 -0.0143226 0.9983519 -0.0143226 0.0016481 0.0143226
701750000 0.0016764 0.0147057 0.9983236 -0.0147057 0.9983236 -0.0147057 0.0016764 0.0147057
709000000 0.0017054 0.0150872 0.9982946 -0.0150872 0.9982946 -0.0150872 0.0017054 0.0150872
716250000 0.0017352 0.0154672 0.9982648 -0.0154672 0.9982648 -0.0154672 0.0017352 0.0154672
723500000 0.0017658 0.0158459 0.9982342 -0.0158459 0.9982342 -0.0158459 0.0017658 0.0158459
730750000 0.0017972 0.0162233 0.9982028 -0.0162233 0.9982028 -0.0162233 0.0017972 0.0162233
738000000 0.0018294 0.0165994 0.9981706 -0.0165994 0.9981706 -0.0165994 0.0018294 0.0165994
745250000 0.0018625 0.0169745 0.9981375 -0.0169745 0.9981375 -0.0169745 0.0018625 0.0169745
752500000 0.0018964 0.0173485 0.9981036 -0.0173485 0.9981036 -0.0173485 0.0018964 0.0173485
759750000 0.0019314 0.0177216 0.9980686 -0.0177216 0.9980686 -0.0177216 0.0019314 0.0177216
767000000 0.0019673 0.0180937 0.9980327 -0.0180937 0.9980327 -0.0180937 0.0019673 0.0180937
774250000 0.0020042 0.0184651 0.9979958 -0.0184651 0.9979958 -0.0184651 0.0020042 0.0184651
781500000 0.0020422 0.0188358 0.9979578 -0.0188358 0.9979578 -0.0188358 0.0020422 0.0188358
788750000 0.0020814 0.0192058 0.9979186 -0.0192058 0.9979186 -0.0192058 0.0020814 0.0192058
796000000 0.0021217 0.0195753 0.9978783 -0.0195753 0.9978783 -0.0195753 0.0021217 0.0195753
803250000 0.0021633 0.0199443 0.9978367 -0.0199443 0.9978367 -0.0199443 0.0021633 0.0199443
810500000 0.0022062 0.0203128 0.9977938 -0.0203128 0.9977938 -0.0203128 0.0022062 0.0203128
817750000 0.0022505 0.0206811 0.9977495 -0.0206811 0.9977495 -0.0206811 0.0022505 0.0206811
825000000 0.0022963 0.0210491 0.9977037 -0.0210491 0.9977037 -0.0210491 0.0022963 0.0210491
832250000 0.0023436 0.0214169 0.9976564 -0.0214169 0.9976564 -0.0214169 0.0023436 0.0214169
839500000 0.0023926 0.0217846 0.9976074 -0.0217846 0.9976074 -0.0217846 0.0023926 0.0217846
846750000 0.0024434 0.0221523 0.9975566 -0.0221523 0.9975566 -0.0221523 0.0024434 0.0221523
854000000 0.0024960 0.0225201 0.9975040 -0.0225201 0.9975040 -0.0225201 0.0024960 0.0225201
861250000 0.0025507 0.0228880 0.9974493 -0.0228880 0.9974493 -0.0228880 0.0025507 0.0228880
868500000 0.0026075 0.0232560 0.9973925 -0.0232560 0.9973925 -0.0232560 0.0026075 0.0232560
875750000 0.0026667 0.0236243 0.9973333 -0.0236243 0.9973333 -0.0236243 0.0026667 0.0236243
883000000 0.0027283 0.0239930 0.9972717 -0.0239930 0.9972717 -0.0239930 0.0027283 0.0239930
890250000 0.0027926 0.0243620 0.9972074 -0.0243620 0.9972074 -0.0243620 0.0027926 0.0243620
897500000 0.0028599 0.0247315 0.9971401 -0.0247315 0.9971401 -0.0247315 0.0028599 0.0247315
904750000 0.0029302 0.0251014 0.9970698 -0.0251014 0.9970698 -0.0251014 0.0029302 0.0251014
912000000 0.0030039 0.0254719 0.9969961 -0.0254719 0.9969961 -0.0254719 0.0030039 0.0254719
919250000 0.0030813 0.0258430 0.9969187 -0.0258430 0.9969187 -0.0258430 0.0030813 0.0258430
926500000 0.0031627 0.0262146 0.9968373 -0.0262146 0.9968373 -0.0262146 0.0031627 0.0262146
933750000 0.0032484 0.0265867 0.9967516 -0.0265867 0.9967516 -0.0265867 0.0032484 0.0265867
941000000 0.0033389 0.0269594 0.9966611 -0.0269594 0.9966611 -0.0269594 0.0033389 0.0269594
948250000 0.0034346 0.0273326 0.9965654 -0.0273326 0.9965654 -0.0273326 0.0034346 0.0273326
955500000 0.0035358 0.0277061 0.9964642 -0.0277061 0.9964642 -0.0277061 0.0035358 0.0277061
962750000 0.0036433 0.0280798 0.9963567 -0.0280798 0.9963567 -0.0280798 0.0036433 0.0280798
970000000 0.0037576 0.0284535 0.9962424 -0.0284535 0.9962424 -0.0284535 0.0037576 0.0284535
977250000 0.0038792 0.0288270 0.9961208 -0.0288270 0.9961208 -0.0288270 0.0038792 0.0288270
984500000 0.0040089 0.0291997 0.9959911 -0.0291997 0.9959911 -0.0291997 0.0040089 0.0291997
991750000 0.0041475 0.0295714 0.9958525 -0.0295714 0.9958525 -0.0295714 0.0041475 0.0295714
999000000 0.0042958 0.0299412 0.9957042 -0.0299412 0.9957042 -0.0299412 0.0042958 0.0299412
1006250000 0.0044545 0.0303085 0.9955455 -0.0303085 0.9955455 -0.0303085 0.0044545 0.0303085
1013500000 0.0046247 0.0306721 0.9953753 -0.0306721 0.9953753 -0.0306721 0.0046247 0.0306721
1020750000 0.0048071 0.0310309 0.9951929 -0.0310309 0.9951929 -0.0310309 0.0048071 0.0310309
1028000000 0.0050027 0.0313833 0.9949973 -0.0313833 0.9949973 -0.0313833 0.0050027 0.0313833
1035250000 0.0052122 0.0317274 0.9947878 -0.0317274 0.9947878 -0.0317274 0.0052122 0.0317274
1042500000 0.0054362 0.0320608 0.9945638 -0.0320608 0.9945638 -0.0320608 0.0054362 0.0320608
1049750000 0.0056751 0.0323809 0.9943249 -0.0323809 0.9943249 -0.0323809 0.0056751 0.0323809
1057000000 0.0059287 0.0326846 0.9940713 -0.0326846 0.9940713 -0.0326846 0.0059287 0.0326846
1064250000 0.0061965 0.0329681 0.9938035 -0.0329681 0.9938035 -0.0329681 0.0061965 0.0329681
1071500000 0.0064770 0.0332275 0.9935230 -0.0332275 0.9935230 -0.0332275 0.0064770 0.0332275
1078750000 0.0067676 0.0334586 0.9932324 -0.0334586 0.9932324 -0.0334586 0.0067676 0.0334586
1086000000 0.0070648 0.0336571 0.9929352 -0.0336571 0.9929352 -0.0336571 0.0070648 0.0336571
1093250000 0.0073634 0.0338193 0.9926366 -0.0338193 0.9926366 -0.0338193 0.0073634 0.0338193
1100500000 0.0076567 0.0339420 0.9923433 -0.0339420 0.9923433 -0.0339420 0.0076567 0.0339420
1107750000 0.0079366 0.0340238 0.9920634 -0.0340238 0.9920634 -0.0340238 0.0079366 0.0340238
1115000000 0.0081942 0.0340651 0.9918058 -0.0340651 0.9918058 -0.0340651 0.0081942 0.0340651
1122250000 0.0084199 0.0340691 0.9915801 -0.0340691 0.9915801 -0.0340691 0.0084199 0.0340691
1129500000 0.0086047 0.0340417 0.9913953 -0.0340417 0.9913953 -0.0340417 0.0086047 0.0340417
1136750000 0.0087411 0.0339916 0.9912589 -0.0339916 0.9912589 -0.0339916 0.0087411 0.0339916
1144000000 0.0088244 0.0339296 0.9911756 -0.0339296 0.9911756 -0.0339296 0.0088244 0.0339296
1151250000 0.0088528 0.0338678 0.9911472 -0.0338678 0.9911472 -0.0338678 0.0088528 0.0338678
1158500000 0.0088283 0.0338182 0.9911717 -0.0338182 0.9911717 -0.0338182 0.0088283 0.0338182
1165750000 0.0087561 0.0337913 0.9912439 -0.0337913 0.9912439 -0.0337913 0.0087561 0.0337913
1173000000 0.0086435 0.0337957 0.9913565 -0.0337957 0.9913565 -0.0337957 0.0086435 0.0337957
1180250000 0.0084998 0.0338372 0.9915002 -0.0338372 0.9915002 -0.0338372 0.0084998 0.0338372
1187500000 0.0083342 0.0339185 0.9916658 -0.0339185 0.9916658 -0.0339185 0.0083342 0.0339185
1194750000 0.0081559 0.0340401 0.9918441 -0.0340401 0.9918441 -0.0340401 0.0081559 0.0340401
1202000000 0.0079726 0.0342004 0.9920274 -0.0342004 0.9920274 -0.0342004 0.0079726 0.0342004
1209250000 0.0077910 0.0343963 0.9922090 -0.0343963 0.9922090 -0.0343963 0.0077910 0.0343963
1216500000 0.0076160 0.0346242 0.9923840 -0.0346242 0.9923840 -0.0346242 0.0076160 0.0346242
1223750000 0.0074512 0.0348798 0.9925488 -0.0348798 0.9925488 -0.0348798 0.0074512 0.0348798
1231000000 0.0072992 0.0351590 0.9927008 -0.0351590 0.9927008 -0.0351590 0.0072992 0.0351590
1238250000 0.0071614 0.0354579 0.9928386 -0.0354579 0.9928386 -0.0354579 0.0071614 0.0354579
1245500000 0.0070385 0.0357731 0.9929615 -0.0357731 0.9929615 -0.0357731 0.0070385 0.0357731
1252750000 0.0069306 0.0361013 0.9930694 -0.0361013 0.9930694 -0.0361013 0.0069306 0.0361013
1260000000 0.0068376 0.0364400 0.9931624 -0.0364400 0.9931624 -0.0364400 0.0068376 0.0364400
1267250000 0.0067587 0.0367869 0.9932413 -0.0367869 0.9932413 -0.0367869 0.0067587 0.0367869
1274500000 0.0066935 0.0371401 0.9933065 -0.0371401 0.9933065 -0.0371401 0.0066935 0.0371401
1281750000 0.0066411 0.0374981 0.9933589 -0.0374981 0.9933589 -0.0374981 0.0066411 0.0374981
1289000000 0.0066007 0.0378597 0.9933993 -0.0378597 0.9933993 -0.0378597 0.0066007 0.0378597
1296250000 0.0065715 0.0382237 0.9934285 -0.0382237 0.9934285 -0.0382237 0.0065715 0.0382237
1303500000 0.0065528 0.0385894 0.9934472 -0.0385894 0.9934472 -0.0385894 0.0065528 0.0385894
1310750000 0.0065439 0.0389562 0.9934561 -0.0389562 0.9934561 -0.0389562 0.0065439 0.0389562
1318000000 0.0065441 0.0393235 0.9934559 -0.0393235 0.9934559 -0.0393235 0.0065441 0.0393235
1325250000 0.0065528 0.0396909 0.9934472 -0.0396909 0.9934472 -0.0396909 0.0065528 0.0396909
1332500000 0.0065694 0.0400581 0.9934306 -0.0400581 0.9934306 -0.0400581 0.0065694 0.0400581
1339750000 0.0065934 0.0404248 0.9934066 -0.0404248 0.9934066 -0.0404248 0.0065934 0.0404248
1347000000 0.0066244 0.0407909 0.9933756 -0.0407909 0.9933756 -0.0407909 0.0066244 0.0407909
1354250000 0.0066620 0.0411561 0.9933380 -0.0411561 0.9933380 -0.0411561 0.0066620 0.0411561
1361500000 0.0067058 0.0415205 0.9932942 -0.0415205 0.9932942 -0.0415205 0.0067058 0.0415205
1368750000 0.0067555 0.0418839 0.9932445 -0.0418839 0.9932445 -0.0418839 0.0067555 0.0418839
1376000000 0.0068109 0.0422463 0.9931891 -0.0422463 0.9931891 -0.0422463 0.0068109 0.0422463
1383250000 0.0068717 0.0426075 0.9931283 -0.0426075 0.9931283 -0.0426075 0.0068717 0.0426075
1390500000 0.0069377 0.0429676 0.9930623 -0.0429676 0.9930623 -0.0429676 0.0069377 0.0429676
1397750000 0.0070087 0.0433266 0.9929913 -0.0433266 0.9929913 -0.0433266 0.0070087 0.0433266
1405000000 0.0070846 0.0436845 0.9929154 -0.0436845 0.9929154 -0.0436845 0.0070846 0.0436845
1412250000 0.0071653 0.0440411 0.9928347 -0.0440411 0.9928347 -0.0440411 0.0071653 0.0440411
1419500000 0.0072507 0.0443966 0.9927493 -0.0443966 0.9927493 -0.0443966 0.0072507 0.0443966
1426750000 0.0073406 0.0447509 0.9926594 -0.0447509 0.9926594 -0.0447509 0.0073406 0.0447509
1434000000 0.0074350 0.0451039 0.9925650 -0.0451039 0.9925650 -0.0451039 0.0074350 0.0451039
1441250000 0.0075340 0.0454557 0.9924660 -0.0454557 0.9924660 -0.0454557 0.0075340 0.0454557
1448500000 0.0076373 0.0458063 0.9923627 -0.0458063 0.9923627 -0.0458063 0.0076373 0.0458063
1455750000 0.0077451 0.0461556 0.9922549 -0.0461556 0.9922549 -0.0461556 0.0077451 0.0461556
1463000000 0.0078573 0.0465035 0.9921427 -0.0465035 0.9921427 -0.0465035 0.0078573 0.0465035
1470250000 0.0079739 0.0468502 0.9920261 -0.0468502 0.9920261 -0.0468502 0.0079739 0.0468502
1477500000 0.0080949 0.0471954 0.9919051 -0.0471954 0.9919051 -0.0471954 0.0080949 0.0471954
1484750000 0.0082204 0.0475391 0.9917796 -0.0475391 0.9917796 -0.0475391 0.0082204 0.0475391
1492000000 0.0083504 0.0478814 0.9916496 -0.0478814 0.9916496 -0.0478814 0.0083504 0.0478814
1499250000 0.0084849 0.0482220 0.9915151 -0.0482220 0.9915151 -0.0482220 0.0084849 0.0482220
1506500000 0.0086240 0.0485610 0.9913760 -0.0485610 0.9913760 -0.0485610 0.0086240 0.0485610
1513750000 0.0087678 0.0488983 0.9912322 -0.0488983 0.9912322 -0.0488983 0.0087678 0.0488983
1521000000 0.0089163 0.0492336 0.9910837 -0.0492336 0.9910837 -0.0492336 0.0089163 0.0492336
1528250000 0.0090695 0.0495670 0.9909305 -0.0495670 0.9909305 -0.0495670 0.0090695 0.0495670
1535500000 0.0092276 0.0498983 0.9907724 -0.0498983 0.9907724 -0.0498983 0.0092276 0.0498983
1542750000 0.0093906 0.0502274 0.9906094 -0.0502274 0.9906094 -0.0502274 0.0093906 0.0502274
1550000000 0.0095585 0.0505540 0.9904415 -0.0505540 0.9904415 -0.0505540 0.0095585 0.0505540
1557250000 0.0097316 0.0508781 0.9902684 -0.0508781 0.9902684 -0.0508781 0.0097316 0.0508781
1564500000 0.0099097 0.0511995 0.9900903 -0.0511995 0.9900903 -0.0511995 0.0099097 0.0511995
1571750000 0.0100931 0.0515179 0.9899069 -0.0515179 0.9899069 -0.0515179 0.0100931 0.0515179
1579000000 0.0102817 0.0518331 0.9897183 -0.0518331 0.9897183 -0.0518331 0.0102817 0.0518331
1586250000 0.0104757 0.0521450 0.9895243 -0.0521450 0.9895243 -0.0521450 0.0104757 0.0521450
1593500000 0.0106751 0.0524532 0.9893249 -0.0524532 0.9893249 -0.0524532 0.0106751 0.0524532
1600750000 0.0108800 0.0527575 0.9891200 -0.0527575 0.9891200 -0.0527575 0.0108800 0.0527575
1608000000 0.0110904 0.0530575 0.9889096 -0.0530575 0.9889096 -0.0530575 0.0110904 0.0530575
1615250000 0.0113062 0.0533531 0.9886938 -0.0533531 0.9886938 -0.0533531 0.0113062 0.0533531
1622500000 0.0115277 0.0536438 0.9884723 -0.0536438 0.9884723 -0.0536438 0.0115277 0.0536438
1629750000 0.0117547 0.0539293 0.9882453 -0.0539293 0.9882453 -0.0539293 0.0117547 0.0539293
