!Murata Part Number: GRM21A5C2E821JWA1
!These Parameters are Measured in Series Mode Connection
!Data Generated on Mar 30, 2021
!       o--ll--o
!Port1            Port2
!       o------o
!Operation Temp=25[degC], DC Bias Voltage=0[V]
!Freq. Start=100[MHz] Stop=3[GHz] 401[Steps]
# Hz S RI R 50
!Freq.(Hz) S11(Real) S11(Imag) S21(Real) S21(Imag) S12(Real) S12(Imag) S22(Real) S22(Imag)
100000000 0.0007520 -0.0156598 0.9992480 0.0156598 0.9992480 0.0156598 0.0007520 -0.0156598
107250000 0.0007147 -0.0140859 0.9992853 0.0140859 0.9992853 0.0140859 0.0007147 -0.0140859
114500000 0.0006861 -0.0126779 0.9993139 0.0126779 0.9993139 0.0126779 0.0006861 -0.0126779
121750000 0.0006644 -0.0114060 0.9993356 0.0114060 0.9993356 0.0114060 0.0006644 -0.0114060
129000000 0.0006481 -0.0102473 0.9993519 0.0102473 0.9993519 0.0102473 0.0006481 -0.0102473
136250000 0.0006362 -0.0091837 0.9993638 0.0091837 0.9993638 0.0091837 0.0006362 -0.0091837
143500000 0.0006278 -0.0082007 0.9993722 0.0082007 0.9993722 0.0082007 0.0006278 -0.0082007
150750000 0.0006224 -0.0072867 0.9993776 0.0072867 0.9993776 0.0072867 0.0006224 -0.0072867
158000000 0.0006195 -0.0064322 0.9993805 0.0064322 0.9993805 0.0064322 0.0006195 -0.0064322
165250000 0.0006188 -0.0056292 0.9993812 0.0056292 0.9993812 0.0056292 0.0006188 -0.0056292
172500000 0.0006199 -0.0048714 0.9993801 0.0048714 0.9993801 0.0048714 0.0006199 -0.0048714
179750000 0.0006227 -0.0041532 0.9993773 0.0041532 0.9993773 0.0041532 0.0006227 -0.0041532
187000000 0.0006270 -0.0034699 0.9993730 0.0034699 0.9993730 0.0034699 0.0006270 -0.0034699
194250000 0.0006326 -0.0028177 0.9993674 0.0028177 0.9993674 0.0028177 0.0006326 -0.0028177
201500000 0.0006394 -0.0021932 0.9993606 0.0021932 0.9993606 0.0021932 0.0006394 -0.0021932
208750000 0.0006473 -0.0015934 0.9993527 0.0015934 0.9993527 0.0015934 0.0006473 -0.0015934
216000000 0.0006562 -0.0010159 0.9993438 0.0010159 0.9993438 0.0010159 0.0006562 -0.0010159
223250000 0.0006661 -0.0004585 0.9993339 0.0004585 0.9993339 0.0004585 0.0006661 -0.0004585
230500000 0.0006769 0.0000808 0.9993231 -0.0000808 0.9993231 -0.0000808 0.0006769 0.0000808
237750000 0.0006886 0.0006037 0.9993114 -0.0006037 0.9993114 -0.0006037 0.0006886 0.0006037
245000000 0.0007011 0.0011115 0.9992989 -0.0011115 0.9992989 -0.0011115 0.0007011 0.0011115
252250000 0.0007144 0.0016057 0.9992856 -0.0016057 0.9992856 -0.0016057 0.0007144 0.0016057
259500000 0.0007284 0.0020874 0.9992716 -0.0020874 0.9992716 -0.0020874 0.0007284 0.0020874
266750000 0.0007432 0.0025576 0.9992568 -0.0025576 0.9992568 -0.0025576 0.0007432 0.0025576
274000000 0.0007587 0.0030174 0.9992413 -0.0030174 0.9992413 -0.0030174 0.0007587 0.0030174
281250000 0.0007749 0.0034675 0.9992251 -0.0034675 0.9992251 -0.0034675 0.0007749 0.0034675
288500000 0.0007918 0.0039086 0.9992082 -0.0039086 0.9992082 -0.0039086 0.0007918 0.0039086
295750000 0.0008094 0.0043416 0.9991906 -0.0043416 0.9991906 -0.0043416 0.0008094 0.0043416
303000000 0.0008277 0.0047669 0.9991723 -0.0047669 0.9991723 -0.0047669 0.0008277 0.0047669
310250000 0.0008467 0.0051853 0.9991533 -0.0051853 0.9991533 -0.0051853 0.0008467 0.0051853
317500000 0.0008664 0.0055971 0.9991336 -0.0055971 0.9991336 -0.0055971 0.0008664 0.0055971
324750000 0.0008867 0.0060029 0.9991133 -0.0060029 0.9991133 -0.0060029 0.0008867 0.0060029
332000000 0.0009078 0.0064032 0.9990922 -0.0064032 0.9990922 -0.0064032 0.0009078 0.0064032
339250000 0.0009295 0.0067983 0.9990705 -0.0067983 0.9990705 -0.0067983 0.0009295 0.0067983
346500000 0.0009520 0.0071885 0.9990480 -0.0071885 0.9990480 -0.0071885 0.0009520 0.0071885
353750000 0.0009752 0.0075744 0.9990248 -0.0075744 0.9990248 -0.0075744 0.0009752 0.0075744
361000000 0.0009991 0.0079561 0.9990009 -0.0079561 0.9990009 -0.0079561 0.0009991 0.0079561
368250000 0.0010239 0.0083340 0.9989761 -0.0083340 0.9989761 -0.0083340 0.0010239 0.0083340
375500000 0.0010494 0.0087084 0.9989506 -0.0087084 0.9989506 -0.0087084 0.0010494 0.0087084
382750000 0.0010757 0.0090796 0.9989243 -0.0090796 0.9989243 -0.0090796 0.0010757 0.0090796
390000000 0.0011029 0.0094478 0.9988971 -0.0094478 0.9988971 -0.0094478 0.0011029 0.0094478
397250000 0.0011310 0.0098133 0.9988690 -0.0098133 0.9988690 -0.0098133 0.0011310 0.0098133
404500000 0.0011600 0.0101763 0.9988400 -0.0101763 0.9988400 -0.0101763 0.0011600 0.0101763
411750000 0.0011901 0.0105371 0.9988099 -0.0105371 0.9988099 -0.0105371 0.0011901 0.0105371
419000000 0.0012212 0.0108959 0.9987788 -0.0108959 0.9987788 -0.0108959 0.0012212 0.0108959
426250000 0.0012535 0.0112529 0.9987465 -0.0112529 0.9987465 -0.0112529 0.0012535 0.0112529
433500000 0.0012871 0.0116085 0.9987129 -0.0116085 0.9987129 -0.0116085 0.0012871 0.0116085
440750000 0.0013220 0.0119627 0.9986780 -0.0119627 0.9986780 -0.0119627 0.0013220 0.0119627
448000000 0.0013584 0.0123159 0.9986416 -0.0123159 0.9986416 -0.0123159 0.0013584 0.0123159
455250000 0.0013965 0.0126684 0.9986035 -0.0126684 0.9986035 -0.0126684 0.0013965 0.0126684
462500000 0.0014365 0.0130202 0.9985635 -0.0130202 0.9985635 -0.0130202 0.0014365 0.0130202
469750000 0.0014787 0.0133719 0.9985213 -0.0133719 0.9985213 -0.0133719 0.0014787 0.0133719
477000000 0.0015233 0.0137235 0.9984767 -0.0137235 0.9984767 -0.0137235 0.0015233 0.0137235
484250000 0.0015707 0.0140755 0.9984293 -0.0140755 0.9984293 -0.0140755 0.0015707 0.0140755
491500000 0.0016215 0.0144281 0.9983785 -0.0144281 0.9983785 -0.0144281 0.0016215 0.0144281
498750000 0.0016763 0.0147816 0.9983237 -0.0147816 0.9983237 -0.0147816 0.0016763 0.0147816
506000000 0.0017358 0.0151364 0.9982642 -0.0151364 0.9982642 -0.0151364 0.0017358 0.0151364
513250000 0.0018012 0.0154927 0.9981988 -0.0154927 0.9981988 -0.0154927 0.0018012 0.0154927
520500000 0.0018736 0.0158507 0.9981264 -0.0158507 0.9981264 -0.0158507 0.0018736 0.0158507
527750000 0.0019550 0.0162105 0.9980450 -0.0162105 0.9980450 -0.0162105 0.0019550 0.0162105
535000000 0.0020475 0.0165719 0.9979525 -0.0165719 0.9979525 -0.0165719 0.0020475 0.0165719
542250000 0.0021542 0.0169340 0.9978458 -0.0169340 0.9978458 -0.0169340 0.0021542 0.0169340
549500000 0.0022788 0.0172951 0.9977212 -0.0172951 0.9977212 -0.0172951 0.0022788 0.0172951
556750000 0.0024261 0.0176519 0.9975739 -0.0176519 0.9975739 -0.0176519 0.0024261 0.0176519
564000000 0.0026013 0.0179979 0.9973987 -0.0179979 0.9973987 -0.0179979 0.0026013 0.0179979
571250000 0.0028092 0.0183224 0.9971908 -0.0183224 0.9971908 -0.0183224 0.0028092 0.0183224
578500000 0.0030511 0.0186084 0.9969489 -0.0186084 0.9969489 -0.0186084 0.0030511 0.0186084
585750000 0.0033191 0.0188326 0.9966809 -0.0188326 0.9966809 -0.0188326 0.0033191 0.0188326
593000000 0.0035877 0.0189710 0.9964123 -0.0189710 0.9964123 -0.0189710 0.0035877 0.0189710
600250000 0.0038104 0.0190148 0.9961896 -0.0190148 0.9961896 -0.0190148 0.0038104 0.0190148
607500000 0.0039335 0.0189904 0.9960665 -0.0189904 0.9960665 -0.0189904 0.0039335 0.0189904
614750000 0.0039302 0.0189599 0.9960698 -0.0189599 0.9960698 -0.0189599 0.0039302 0.0189599
622000000 0.0038213 0.0189881 0.9961787 -0.0189881 0.9961787 -0.0189881 0.0038213 0.0189881
629250000 0.0036584 0.0191068 0.9963416 -0.0191068 0.9963416 -0.0191068 0.0036584 0.0191068
636500000 0.0034896 0.0193114 0.9965104 -0.0193114 0.9965104 -0.0193114 0.0034896 0.0193114
643750000 0.0033431 0.0195796 0.9966569 -0.0195796 0.9966569 -0.0195796 0.0033431 0.0195796
651000000 0.0032290 0.0198882 0.9967710 -0.0198882 0.9967710 -0.0198882 0.0032290 0.0198882
658250000 0.0031475 0.0202198 0.9968525 -0.0202198 0.9968525 -0.0202198 0.0031475 0.0202198
665500000 0.0030945 0.0205628 0.9969055 -0.0205628 0.9969055 -0.0205628 0.0030945 0.0205628
672750000 0.0030652 0.0209105 0.9969348 -0.0209105 0.9969348 -0.0209105 0.0030652 0.0209105
680000000 0.0030551 0.0212590 0.9969449 -0.0212590 0.9969449 -0.0212590 0.0030551 0.0212590
687250000 0.0030606 0.0216061 0.9969394 -0.0216061 0.9969394 -0.0216061 0.0030606 0.0216061
694500000 0.0030789 0.0219510 0.9969211 -0.0219510 0.9969211 -0.0219510 0.0030789 0.0219510
701750000 0.0031077 0.0222931 0.9968923 -0.0222931 0.9968923 -0.0222931 0.0031077 0.0222931
709000000 0.0031456 0.0226323 0.9968544 -0.0226323 0.9968544 -0.0226323 0.0031456 0.0226323
716250000 0.0031911 0.0229686 0.9968089 -0.0229686 0.9968089 -0.0229686 0.0031911 0.0229686
723500000 0.0032436 0.0233022 0.9967564 -0.0233022 0.9967564 -0.0233022 0.0032436 0.0233022
730750000 0.0033023 0.0236331 0.9966977 -0.0236331 0.9966977 -0.0236331 0.0033023 0.0236331
738000000 0.0033667 0.0239616 0.9966333 -0.0239616 0.9966333 -0.0239616 0.0033667 0.0239616
745250000 0.0034366 0.0242878 0.9965634 -0.0242878 0.9965634 -0.0242878 0.0034366 0.0242878
752500000 0.0035117 0.0246117 0.9964883 -0.0246117 0.9964883 -0.0246117 0.0035117 0.0246117
759750000 0.0035919 0.0249333 0.9964081 -0.0249333 0.9964081 -0.0249333 0.0035919 0.0249333
767000000 0.0036772 0.0252528 0.9963228 -0.0252528 0.9963228 -0.0252528 0.0036772 0.0252528
774250000 0.0037676 0.0255701 0.9962324 -0.0255701 0.9962324 -0.0255701 0.0037676 0.0255701
781500000 0.0038632 0.0258852 0.9961368 -0.0258852 0.9961368 -0.0258852 0.0038632 0.0258852
788750000 0.0039640 0.0261978 0.9960360 -0.0261978 0.9960360 -0.0261978 0.0039640 0.0261978
796000000 0.0040702 0.0265079 0.9959298 -0.0265079 0.9959298 -0.0265079 0.0040702 0.0265079
803250000 0.0041820 0.0268153 0.9958180 -0.0268153 0.9958180 -0.0268153 0.0041820 0.0268153
810500000 0.0042995 0.0271196 0.9957005 -0.0271196 0.9957005 -0.0271196 0.0042995 0.0271196
817750000 0.0044228 0.0274206 0.9955772 -0.0274206 0.9955772 -0.0274206 0.0044228 0.0274206
825000000 0.0045523 0.0277177 0.9954477 -0.0277177 0.9954477 -0.0277177 0.0045523 0.0277177
832250000 0.0046880 0.0280107 0.9953120 -0.0280107 0.9953120 -0.0280107 0.0046880 0.0280107
839500000 0.0048300 0.0282988 0.9951700 -0.0282988 0.9951700 -0.0282988 0.0048300 0.0282988
846750000 0.0049786 0.0285815 0.9950214 -0.0285815 0.9950214 -0.0285815 0.0049786 0.0285815
854000000 0.0051337 0.0288581 0.9948663 -0.0288581 0.9948663 -0.0288581 0.0051337 0.0288581
861250000 0.0052953 0.0291277 0.9947047 -0.0291277 0.9947047 -0.0291277 0.0052953 0.0291277
868500000 0.0054633 0.0293895 0.9945367 -0.0293895 0.9945367 -0.0293895 0.0054633 0.0293895
875750000 0.0056376 0.0296425 0.9943624 -0.0296425 0.9943624 -0.0296425 0.0056376 0.0296425
883000000 0.0058179 0.0298856 0.9941821 -0.0298856 0.9941821 -0.0298856 0.0058179 0.0298856
890250000 0.0060035 0.0301178 0.9939965 -0.0301178 0.9939965 -0.0301178 0.0060035 0.0301178
897500000 0.0061938 0.0303380 0.9938062 -0.0303380 0.9938062 -0.0303380 0.0061938 0.0303380
904750000 0.0063880 0.0305449 0.9936120 -0.0305449 0.9936120 -0.0305449 0.0063880 0.0305449
912000000 0.0065848 0.0307375 0.9934152 -0.0307375 0.9934152 -0.0307375 0.0065848 0.0307375
919250000 0.0067829 0.0309147 0.9932171 -0.0309147 0.9932171 -0.0309147 0.0067829 0.0309147
926500000 0.0069806 0.0310757 0.9930194 -0.0310757 0.9930194 -0.0310757 0.0069806 0.0310757
933750000 0.0071761 0.0312197 0.9928239 -0.0312197 0.9928239 -0.0312197 0.0071761 0.0312197
941000000 0.0073671 0.0313462 0.9926329 -0.0313462 0.9926329 -0.0313462 0.0073671 0.0313462
948250000 0.0075512 0.0314552 0.9924488 -0.0314552 0.9924488 -0.0314552 0.0075512 0.0314552
955500000 0.0077261 0.0315470 0.9922739 -0.0315470 0.9922739 -0.0315470 0.0077261 0.0315470
962750000 0.0078891 0.0316223 0.9921109 -0.0316223 0.9921109 -0.0316223 0.0078891 0.0316223
970000000 0.0080378 0.0316825 0.9919622 -0.0316825 0.9919622 -0.0316825 0.0080378 0.0316825
977250000 0.0081697 0.0317291 0.9918303 -0.0317291 0.9918303 -0.0317291 0.0081697 0.0317291
984500000 0.0082829 0.0317644 0.9917171 -0.0317644 0.9917171 -0.0317644 0.0082829 0.0317644
991750000 0.0083756 0.0317911 0.9916244 -0.0317911 0.9916244 -0.0317911 0.0083756 0.0317911
999000000 0.0084468 0.0318121 0.9915532 -0.0318121 0.9915532 -0.0318121 0.0084468 0.0318121
1006250000 0.0084956 0.0318304 0.9915044 -0.0318304 0.9915044 -0.0318304 0.0084956 0.0318304
1013500000 0.0085223 0.0318494 0.9914777 -0.0318494 0.9914777 -0.0318494 0.0085223 0.0318494
1020750000 0.0085272 0.0318720 0.9914728 -0.0318720 0.9914728 -0.0318720 0.0085272 0.0318720
1028000000 0.0085115 0.0319012 0.9914885 -0.0319012 0.9914885 -0.0319012 0.0085115 0.0319012
1035250000 0.0084768 0.0319397 0.9915232 -0.0319397 0.9915232 -0.0319397 0.0084768 0.0319397
1042500000 0.0084251 0.0319894 0.9915749 -0.0319894 0.9915749 -0.0319894 0.0084251 0.0319894
1049750000 0.0083585 0.0320523 0.9916415 -0.0320523 0.9916415 -0.0320523 0.0083585 0.0320523
1057000000 0.0082795 0.0321295 0.9917205 -0.0321295 0.9917205 -0.0321295 0.0082795 0.0321295
1064250000 0.0081904 0.0322218 0.9918096 -0.0322218 0.9918096 -0.0322218 0.0081904 0.0322218
1071500000 0.0080936 0.0323296 0.9919064 -0.0323296 0.9919064 -0.0323296 0.0080936 0.0323296
1078750000 0.0079912 0.0324528 0.9920088 -0.0324528 0.9920088 -0.0324528 0.0079912 0.0324528
1086000000 0.0078854 0.0325912 0.9921146 -0.0325912 0.9921146 -0.0325912 0.0078854 0.0325912
1093250000 0.0077779 0.0327441 0.9922221 -0.0327441 0.9922221 -0.0327441 0.0077779 0.0327441
1100500000 0.0076703 0.0329107 0.9923297 -0.0329107 0.9923297 -0.0329107 0.0076703 0.0329107
1107750000 0.0075640 0.0330902 0.9924360 -0.0330902 0.9924360 -0.0330902 0.0075640 0.0330902
1115000000 0.0074601 0.0332815 0.9925399 -0.0332815 0.9925399 -0.0332815 0.0074601 0.0332815
1122250000 0.0073595 0.0334836 0.9926405 -0.0334836 0.9926405 -0.0334836 0.0073595 0.0334836
1129500000 0.0072628 0.0336956 0.9927372 -0.0336956 0.9927372 -0.0336956 0.0072628 0.0336956
1136750000 0.0071705 0.0339164 0.9928295 -0.0339164 0.9928295 -0.0339164 0.0071705 0.0339164
1144000000 0.0070832 0.0341450 0.9929168 -0.0341450 0.9929168 -0.0341450 0.0070832 0.0341450
1151250000 0.0070009 0.0343806 0.9929991 -0.0343806 0.9929991 -0.0343806 0.0070009 0.0343806
1158500000 0.0069238 0.0346222 0.9930762 -0.0346222 0.9930762 -0.0346222 0.0069238 0.0346222
1165750000 0.0068521 0.0348692 0.9931479 -0.0348692 0.9931479 -0.0348692 0.0068521 0.0348692
1173000000 0.0067856 0.0351209 0.9932144 -0.0351209 0.9932144 -0.0351209 0.0067856 0.0351209
1180250000 0.0067243 0.0353765 0.9932757 -0.0353765 0.9932757 -0.0353765 0.0067243 0.0353765
1187500000 0.0066680 0.0356355 0.9933320 -0.0356355 0.9933320 -0.0356355 0.0066680 0.0356355
1194750000 0.0066168 0.0358974 0.9933832 -0.0358974 0.9933832 -0.0358974 0.0066168 0.0358974
1202000000 0.0065702 0.0361618 0.9934298 -0.0361618 0.9934298 -0.0361618 0.0065702 0.0361618
1209250000 0.0065283 0.0364282 0.9934717 -0.0364282 0.9934717 -0.0364282 0.0065283 0.0364282
1216500000 0.0064907 0.0366964 0.9935093 -0.0366964 0.9935093 -0.0366964 0.0064907 0.0366964
1223750000 0.0064573 0.0369659 0.9935427 -0.0369659 0.9935427 -0.0369659 0.0064573 0.0369659
1231000000 0.0064279 0.0372365 0.9935721 -0.0372365 0.9935721 -0.0372365 0.0064279 0.0372365
1238250000 0.0064024 0.0375079 0.9935976 -0.0375079 0.9935976 -0.0375079 0.0064024 0.0375079
1245500000 0.0063804 0.0377801 0.9936196 -0.0377801 0.9936196 -0.0377801 0.0063804 0.0377801
1252750000 0.0063618 0.0380527 0.9936382 -0.0380527 0.9936382 -0.0380527 0.0063618 0.0380527
1260000000 0.0063464 0.0383257 0.9936536 -0.0383257 0.9936536 -0.0383257 0.0063464 0.0383257
1267250000 0.0063341 0.0385988 0.9936659 -0.0385988 0.9936659 -0.0385988 0.0063341 0.0385988
1274500000 0.0063247 0.0388721 0.9936753 -0.0388721 0.9936753 -0.0388721 0.0063247 0.0388721
1281750000 0.0063180 0.0391453 0.9936820 -0.0391453 0.9936820 -0.0391453 0.0063180 0.0391453
1289000000 0.0063139 0.0394184 0.9936861 -0.0394184 0.9936861 -0.0394184 0.0063139 0.0394184
1296250000 0.0063123 0.0396914 0.9936877 -0.0396914 0.9936877 -0.0396914 0.0063123 0.0396914
1303500000 0.0063129 0.0399641 0.9936871 -0.0399641 0.9936871 -0.0399641 0.0063129 0.0399641
1310750000 0.0063157 0.0402365 0.9936843 -0.0402365 0.9936843 -0.0402365 0.0063157 0.0402365
1318000000 0.0063206 0.0405087 0.9936794 -0.0405087 0.9936794 -0.0405087 0.0063206 0.0405087
1325250000 0.0063274 0.0407804 0.9936726 -0.0407804 0.9936726 -0.0407804 0.0063274 0.0407804
1332500000 0.0063361 0.0410518 0.9936639 -0.0410518 0.9936639 -0.0410518 0.0063361 0.0410518
1339750000 0.0063465 0.0413227 0.9936535 -0.0413227 0.9936535 -0.0413227 0.0063465 0.0413227
1347000000 0.0063586 0.0415933 0.9936414 -0.0415933 0.9936414 -0.0415933 0.0063586 0.0415933
1354250000 0.0063722 0.0418634 0.9936278 -0.0418634 0.9936278 -0.0418634 0.0063722 0.0418634
1361500000 0.0063873 0.0421330 0.9936127 -0.0421330 0.9936127 -0.0421330 0.0063873 0.0421330
1368750000 0.0064038 0.0424022 0.9935962 -0.0424022 0.9935962 -0.0424022 0.0064038 0.0424022
1376000000 0.0064216 0.0426709 0.9935784 -0.0426709 0.9935784 -0.0426709 0.0064216 0.0426709
1383250000 0.0064407 0.0429392 0.9935593 -0.0429392 0.9935593 -0.0429392 0.0064407 0.0429392
1390500000 0.0064610 0.0432070 0.9935390 -0.0432070 0.9935390 -0.0432070 0.0064610 0.0432070
1397750000 0.0064825 0.0434743 0.9935175 -0.0434743 0.9935175 -0.0434743 0.0064825 0.0434743
1405000000 0.0065050 0.0437412 0.9934950 -0.0437412 0.9934950 -0.0437412 0.0065050 0.0437412
1412250000 0.0065286 0.0440077 0.9934714 -0.0440077 0.9934714 -0.0440077 0.0065286 0.0440077
1419500000 0.0065531 0.0442737 0.9934469 -0.0442737 0.9934469 -0.0442737 0.0065531 0.0442737
1426750000 0.0065786 0.0445392 0.9934214 -0.0445392 0.9934214 -0.0445392 0.0065786 0.0445392
1434000000 0.0066050 0.0448043 0.9933950 -0.0448043 0.9933950 -0.0448043 0.0066050 0.0448043
1441250000 0.0066322 0.0450690 0.9933678 -0.0450690 0.9933678 -0.0450690 0.0066322 0.0450690
1448500000 0.0066603 0.0453333 0.9933397 -0.0453333 0.9933397 -0.0453333 0.0066603 0.0453333
1455750000 0.0066891 0.0455971 0.9933109 -0.0455971 0.9933109 -0.0455971 0.0066891 0.0455971
1463000000 0.0067187 0.0458606 0.9932813 -0.0458606 0.9932813 -0.0458606 0.0067187 0.0458606
1470250000 0.0067490 0.0461237 0.9932510 -0.0461237 0.9932510 -0.0461237 0.0067490 0.0461237
1477500000 0.0067801 0.0463864 0.9932199 -0.0463864 0.9932199 -0.0463864 0.0067801 0.0463864
1484750000 0.0068117 0.0466487 0.9931883 -0.0466487 0.9931883 -0.0466487 0.0068117 0.0466487
1492000000 0.0068440 0.0469107 0.9931560 -0.0469107 0.9931560 -0.0469107 0.0068440 0.0469107
1499250000 0.0068769 0.0471723 0.9931231 -0.0471723 0.9931231 -0.0471723 0.0068769 0.0471723
1506500000 0.0069104 0.0474336 0.9930896 -0.0474336 0.9930896 -0.0474336 0.0069104 0.0474336
1513750000 0.0069445 0.0476946 0.9930555 -0.0476946 0.9930555 -0.0476946 0.0069445 0.0476946
1521000000 0.0069791 0.0479552 0.9930209 -0.0479552 0.9930209 -0.0479552 0.0069791 0.0479552
1528250000 0.0070142 0.0482155 0.9929858 -0.0482155 0.9929858 -0.0482155 0.0070142 0.0482155
1535500000 0.0070498 0.0484755 0.9929502 -0.0484755 0.9929502 -0.0484755 0.0070498 0.0484755
1542750000 0.0070859 0.0487353 0.9929141 -0.0487353 0.9929141 -0.0487353 0.0070859 0.0487353
1550000000 0.0071225 0.0489947 0.9928775 -0.0489947 0.9928775 -0.0489947 0.0071225 0.0489947
1557250000 0.0071596 0.0492539 0.9928404 -0.0492539 0.9928404 -0.0492539 0.0071596 0.0492539
1564500000 0.0071970 0.0495128 0.9928030 -0.0495128 0.9928030 -0.0495128 0.0071970 0.0495128
1571750000 0.0072350 0.0497714 0.9927650 -0.0497714 0.9927650 -0.0497714 0.0072350 0.0497714
1579000000 0.0072733 0.0500298 0.9927267 -0.0500298 0.9927267 -0.0500298 0.0072733 0.0500298
1586250000 0.0073120 0.0502880 0.9926880 -0.0502880 0.9926880 -0.0502880 0.0073120 0.0502880
1593500000 0.0073511 0.0505459 0.9926489 -0.0505459 0.9926489 -0.0505459 0.0073511 0.0505459
1600750000 0.0073906 0.0508037 0.9926094 -0.0508037 0.9926094 -0.0508037 0.0073906 0.0508037
1608000000 0.0074305 0.0510612 0.9925695 -0.0510612 0.9925695 -0.0510612 0.0074305 0.0510612
1615250000 0.0074707 0.0513185 0.9925293 -0.0513185 0.9925293 -0.0513185 0.0074707 0.0513185
1622500000 0.0075113 0.0515756 0.9924887 -0.0515756 0.9924887 -0.0515756 0.0075113 0.0515756
1629750000 0.0075522 0.0518325 0.9924478 -0.0518325 0.9924478 -0.0518325 0.0075522 0.0518325
