!Murata Part Number: GRM21A5C2J120JWA1
!These Parameters are Measured in Series Mode Connection
!Data Generated on Mar 30, 2021
!       o--ll--o
!Port1            Port2
!       o------o
!Operation Temp=25[degC], DC Bias Voltage=0[V]
!Freq. Start=100[MHz] Stop=3[GHz] 401[Steps]
# Hz S RI R 50
!Freq.(Hz) S11(Real) S11(Imag) S21(Real) S21(Imag) S12(Real) S12(Imag) S22(Real) S22(Imag)
100000000 0.6370302 -0.4797209 0.3629698 0.4797209 0.3629698 0.4797209 0.6370302 -0.4797209
107250000 0.6039463 -0.4878607 0.3960537 0.4878607 0.3960537 0.4878607 0.6039463 -0.4878607
114500000 0.5721165 -0.4934765 0.4278835 0.4934765 0.4278835 0.4934765 0.5721165 -0.4934765
121750000 0.5416632 -0.4968853 0.4583368 0.4968853 0.4583368 0.4968853 0.5416632 -0.4968853
129000000 0.5126603 -0.4983830 0.4873397 0.4983830 0.4873397 0.4983830 0.5126603 -0.4983830
136250000 0.4851417 -0.4982413 0.5148583 0.4982413 0.5148583 0.4982413 0.4851417 -0.4982413
143500000 0.4591106 -0.4967059 0.5408894 0.4967059 0.5408894 0.4967059 0.4591106 -0.4967059
150750000 0.4345462 -0.4939961 0.5654538 0.4939961 0.5654538 0.4939961 0.4345462 -0.4939961
158000000 0.4114102 -0.4903060 0.5885898 0.4903060 0.5885898 0.4903060 0.4114102 -0.4903060
165250000 0.3896517 -0.4858056 0.6103483 0.4858056 0.6103483 0.4858056 0.3896517 -0.4858056
172500000 0.3692113 -0.4806429 0.6307887 0.4806429 0.6307887 0.4806429 0.3692113 -0.4806429
179750000 0.3500245 -0.4749459 0.6499755 0.4749459 0.6499755 0.4749459 0.3500245 -0.4749459
187000000 0.3320238 -0.4688247 0.6679762 0.4688247 0.6679762 0.4688247 0.3320238 -0.4688247
194250000 0.3151412 -0.4623736 0.6848588 0.4623736 0.6848588 0.4623736 0.3151412 -0.4623736
201500000 0.2993090 -0.4556728 0.7006910 0.4556728 0.7006910 0.4556728 0.2993090 -0.4556728
208750000 0.2844612 -0.4487905 0.7155388 0.4487905 0.7155388 0.4487905 0.2844612 -0.4487905
216000000 0.2705343 -0.4417842 0.7294657 0.4417842 0.7294657 0.4417842 0.2705343 -0.4417842
223250000 0.2574674 -0.4347022 0.7425326 0.4347022 0.7425326 0.4347022 0.2574674 -0.4347022
230500000 0.2452027 -0.4275851 0.7547973 0.4275851 0.7547973 0.4275851 0.2452027 -0.4275851
237750000 0.2336859 -0.4204665 0.7663141 0.4204665 0.7663141 0.4204665 0.2336859 -0.4204665
245000000 0.2228656 -0.4133745 0.7771344 0.4133745 0.7771344 0.4133745 0.2228656 -0.4133745
252250000 0.2126941 -0.4063319 0.7873059 0.4063319 0.7873059 0.4063319 0.2126941 -0.4063319
259500000 0.2031266 -0.3993577 0.7968734 0.3993577 0.7968734 0.3993577 0.2031266 -0.3993577
266750000 0.1941215 -0.3924671 0.8058785 0.3924671 0.8058785 0.3924671 0.1941215 -0.3924671
274000000 0.1856400 -0.3856722 0.8143600 0.3856722 0.8143600 0.3856722 0.1856400 -0.3856722
281250000 0.1776463 -0.3789825 0.8223537 0.3789825 0.8223537 0.3789825 0.1776463 -0.3789825
288500000 0.1701071 -0.3724057 0.8298929 0.3724057 0.8298929 0.3724057 0.1701071 -0.3724057
295750000 0.1629913 -0.3659472 0.8370087 0.3659472 0.8370087 0.3659472 0.1629913 -0.3659472
303000000 0.1562706 -0.3596112 0.8437294 0.3596112 0.8437294 0.3596112 0.1562706 -0.3596112
310250000 0.1499182 -0.3534005 0.8500818 0.3534005 0.8500818 0.3534005 0.1499182 -0.3534005
317500000 0.1439099 -0.3473166 0.8560901 0.3473166 0.8560901 0.3473166 0.1439099 -0.3473166
324750000 0.1382228 -0.3413605 0.8617772 0.3413605 0.8617772 0.3413605 0.1382228 -0.3413605
332000000 0.1328360 -0.3355322 0.8671640 0.3355322 0.8671640 0.3355322 0.1328360 -0.3355322
339250000 0.1277299 -0.3298312 0.8722701 0.3298312 0.8722701 0.3298312 0.1277299 -0.3298312
346500000 0.1228867 -0.3242563 0.8771133 0.3242563 0.8771133 0.3242563 0.1228867 -0.3242563
353750000 0.1182895 -0.3188061 0.8817105 0.3188061 0.8817105 0.3188061 0.1182895 -0.3188061
361000000 0.1139229 -0.3134788 0.8860771 0.3134788 0.8860771 0.3134788 0.1139229 -0.3134788
368250000 0.1097726 -0.3082723 0.8902274 0.3082723 0.8902274 0.3082723 0.1097726 -0.3082723
375500000 0.1058251 -0.3031844 0.8941749 0.3031844 0.8941749 0.3031844 0.1058251 -0.3031844
382750000 0.1020683 -0.2982126 0.8979317 0.2982126 0.8979317 0.2982126 0.1020683 -0.2982126
390000000 0.0984905 -0.2933544 0.9015095 0.2933544 0.9015095 0.2933544 0.0984905 -0.2933544
397250000 0.0950811 -0.2886071 0.9049189 0.2886071 0.9049189 0.2886071 0.0950811 -0.2886071
404500000 0.0918301 -0.2839680 0.9081699 0.2839680 0.9081699 0.2839680 0.0918301 -0.2839680
411750000 0.0887284 -0.2794344 0.9112716 0.2794344 0.9112716 0.2794344 0.0887284 -0.2794344
419000000 0.0857672 -0.2750035 0.9142328 0.2750035 0.9142328 0.2750035 0.0857672 -0.2750035
426250000 0.0829387 -0.2706727 0.9170613 0.2706727 0.9170613 0.2706727 0.0829387 -0.2706727
433500000 0.0802353 -0.2664391 0.9197647 0.2664391 0.9197647 0.2664391 0.0802353 -0.2664391
440750000 0.0776500 -0.2623001 0.9223500 0.2623001 0.9223500 0.2623001 0.0776500 -0.2623001
448000000 0.0751763 -0.2582531 0.9248237 0.2582531 0.9248237 0.2582531 0.0751763 -0.2582531
455250000 0.0728081 -0.2542954 0.9271919 0.2542954 0.9271919 0.2542954 0.0728081 -0.2542954
462500000 0.0705398 -0.2504244 0.9294602 0.2504244 0.9294602 0.2504244 0.0705398 -0.2504244
469750000 0.0683660 -0.2466377 0.9316340 0.2466377 0.9316340 0.2466377 0.0683660 -0.2466377
477000000 0.0662817 -0.2429327 0.9337183 0.2429327 0.9337183 0.2429327 0.0662817 -0.2429327
484250000 0.0642823 -0.2393072 0.9357177 0.2393072 0.9357177 0.2393072 0.0642823 -0.2393072
491500000 0.0623633 -0.2357587 0.9376367 0.2357587 0.9376367 0.2357587 0.0623633 -0.2357587
498750000 0.0605208 -0.2322850 0.9394792 0.2322850 0.9394792 0.2322850 0.0605208 -0.2322850
506000000 0.0587507 -0.2288840 0.9412493 0.2288840 0.9412493 0.2288840 0.0587507 -0.2288840
513250000 0.0570496 -0.2255533 0.9429504 0.2255533 0.9429504 0.2255533 0.0570496 -0.2255533
520500000 0.0554139 -0.2222911 0.9445861 0.2222911 0.9445861 0.2222911 0.0554139 -0.2222911
527750000 0.0538406 -0.2190952 0.9461594 0.2190952 0.9461594 0.2190952 0.0538406 -0.2190952
535000000 0.0523265 -0.2159637 0.9476735 0.2159637 0.9476735 0.2159637 0.0523265 -0.2159637
542250000 0.0508689 -0.2128947 0.9491311 0.2128947 0.9491311 0.2128947 0.0508689 -0.2128947
549500000 0.0494651 -0.2098865 0.9505349 0.2098865 0.9505349 0.2098865 0.0494651 -0.2098865
556750000 0.0481125 -0.2069371 0.9518875 0.2069371 0.9518875 0.2069371 0.0481125 -0.2069371
564000000 0.0468089 -0.2040450 0.9531911 0.2040450 0.9531911 0.2040450 0.0468089 -0.2040450
571250000 0.0455519 -0.2012084 0.9544481 0.2012084 0.9544481 0.2012084 0.0455519 -0.2012084
578500000 0.0443394 -0.1984257 0.9556606 0.1984257 0.9556606 0.1984257 0.0443394 -0.1984257
585750000 0.0431695 -0.1956954 0.9568305 0.1956954 0.9568305 0.1956954 0.0431695 -0.1956954
593000000 0.0420402 -0.1930160 0.9579598 0.1930160 0.9579598 0.1930160 0.0420402 -0.1930160
600250000 0.0409498 -0.1903860 0.9590502 0.1903860 0.9590502 0.1903860 0.0409498 -0.1903860
607500000 0.0398966 -0.1878041 0.9601034 0.1878041 0.9601034 0.1878041 0.0398966 -0.1878041
614750000 0.0388790 -0.1852688 0.9611210 0.1852688 0.9611210 0.1852688 0.0388790 -0.1852688
622000000 0.0378954 -0.1827789 0.9621046 0.1827789 0.9621046 0.1827789 0.0378954 -0.1827789
629250000 0.0369444 -0.1803331 0.9630556 0.1803331 0.9630556 0.1803331 0.0369444 -0.1803331
636500000 0.0360246 -0.1779302 0.9639754 0.1779302 0.9639754 0.1779302 0.0360246 -0.1779302
643750000 0.0351349 -0.1755690 0.9648651 0.1755690 0.9648651 0.1755690 0.0351349 -0.1755690
651000000 0.0342738 -0.1732483 0.9657262 0.1732483 0.9657262 0.1732483 0.0342738 -0.1732483
658250000 0.0334404 -0.1709670 0.9665596 0.1709670 0.9665596 0.1709670 0.0334404 -0.1709670
665500000 0.0326333 -0.1687241 0.9673667 0.1687241 0.9673667 0.1687241 0.0326333 -0.1687241
672750000 0.0318517 -0.1665186 0.9681483 0.1665186 0.9681483 0.1665186 0.0318517 -0.1665186
680000000 0.0310945 -0.1643493 0.9689055 0.1643493 0.9689055 0.1643493 0.0310945 -0.1643493
687250000 0.0303608 -0.1622154 0.9696392 0.1622154 0.9696392 0.1622154 0.0303608 -0.1622154
694500000 0.0296496 -0.1601160 0.9703504 0.1601160 0.9703504 0.1601160 0.0296496 -0.1601160
701750000 0.0289600 -0.1580501 0.9710400 0.1580501 0.9710400 0.1580501 0.0289600 -0.1580501
709000000 0.0282914 -0.1560168 0.9717086 0.1560168 0.9717086 0.1560168 0.0282914 -0.1560168
716250000 0.0276428 -0.1540153 0.9723572 0.1540153 0.9723572 0.1540153 0.0276428 -0.1540153
723500000 0.0270135 -0.1520447 0.9729865 0.1520447 0.9729865 0.1520447 0.0270135 -0.1520447
730750000 0.0264028 -0.1501043 0.9735972 0.1501043 0.9735972 0.1501043 0.0264028 -0.1501043
738000000 0.0258101 -0.1481934 0.9741899 0.1481934 0.9741899 0.1481934 0.0258101 -0.1481934
745250000 0.0252346 -0.1463111 0.9747654 0.1463111 0.9747654 0.1463111 0.0252346 -0.1463111
752500000 0.0246758 -0.1444567 0.9753242 0.1444567 0.9753242 0.1444567 0.0246758 -0.1444567
759750000 0.0241331 -0.1426296 0.9758669 0.1426296 0.9758669 0.1426296 0.0241331 -0.1426296
767000000 0.0236059 -0.1408290 0.9763941 0.1408290 0.9763941 0.1408290 0.0236059 -0.1408290
774250000 0.0230936 -0.1390543 0.9769064 0.1390543 0.9769064 0.1390543 0.0230936 -0.1390543
781500000 0.0225958 -0.1373049 0.9774042 0.1373049 0.9774042 0.1373049 0.0225958 -0.1373049
788750000 0.0221119 -0.1355802 0.9778881 0.1355802 0.9778881 0.1355802 0.0221119 -0.1355802
796000000 0.0216415 -0.1338795 0.9783585 0.1338795 0.9783585 0.1338795 0.0216415 -0.1338795
803250000 0.0211841 -0.1322022 0.9788159 0.1322022 0.9788159 0.1322022 0.0211841 -0.1322022
810500000 0.0207392 -0.1305479 0.9792608 0.1305479 0.9792608 0.1305479 0.0207392 -0.1305479
817750000 0.0203066 -0.1289159 0.9796934 0.1289159 0.9796934 0.1289159 0.0203066 -0.1289159
825000000 0.0198857 -0.1273058 0.9801143 0.1273058 0.9801143 0.1273058 0.0198857 -0.1273058
832250000 0.0194761 -0.1257170 0.9805239 0.1257170 0.9805239 0.1257170 0.0194761 -0.1257170
839500000 0.0190776 -0.1241490 0.9809224 0.1241490 0.9809224 0.1241490 0.0190776 -0.1241490
846750000 0.0186898 -0.1226014 0.9813102 0.1226014 0.9813102 0.1226014 0.0186898 -0.1226014
854000000 0.0183122 -0.1210737 0.9816878 0.1210737 0.9816878 0.1210737 0.0183122 -0.1210737
861250000 0.0179447 -0.1195653 0.9820553 0.1195653 0.9820553 0.1195653 0.0179447 -0.1195653
868500000 0.0175868 -0.1180760 0.9824132 0.1180760 0.9824132 0.1180760 0.0175868 -0.1180760
875750000 0.0172384 -0.1166051 0.9827616 0.1166051 0.9827616 0.1166051 0.0172384 -0.1166051
883000000 0.0168990 -0.1151524 0.9831010 0.1151524 0.9831010 0.1151524 0.0168990 -0.1151524
890250000 0.0165684 -0.1137175 0.9834316 0.1137175 0.9834316 0.1137175 0.0165684 -0.1137175
897500000 0.0162464 -0.1122999 0.9837536 0.1122999 0.9837536 0.1122999 0.0162464 -0.1122999
904750000 0.0159327 -0.1108992 0.9840673 0.1108992 0.9840673 0.1108992 0.0159327 -0.1108992
912000000 0.0156270 -0.1095151 0.9843730 0.1095151 0.9843730 0.1095151 0.0156270 -0.1095151
919250000 0.0153291 -0.1081472 0.9846709 0.1081472 0.9846709 0.1081472 0.0153291 -0.1081472
926500000 0.0150389 -0.1067951 0.9849611 0.1067951 0.9849611 0.1067951 0.0150389 -0.1067951
933750000 0.0147560 -0.1054586 0.9852440 0.1054586 0.9852440 0.1054586 0.0147560 -0.1054586
941000000 0.0144802 -0.1041373 0.9855198 0.1041373 0.9855198 0.1041373 0.0144802 -0.1041373
948250000 0.0142114 -0.1028309 0.9857886 0.1028309 0.9857886 0.1028309 0.0142114 -0.1028309
955500000 0.0139493 -0.1015390 0.9860507 0.1015390 0.9860507 0.1015390 0.0139493 -0.1015390
962750000 0.0136938 -0.1002613 0.9863062 0.1002613 0.9863062 0.1002613 0.0136938 -0.1002613
970000000 0.0134447 -0.0989976 0.9865553 0.0989976 0.9865553 0.0989976 0.0134447 -0.0989976
977250000 0.0132018 -0.0977475 0.9867982 0.0977475 0.9867982 0.0977475 0.0132018 -0.0977475
984500000 0.0129649 -0.0965108 0.9870351 0.0965108 0.9870351 0.0965108 0.0129649 -0.0965108
991750000 0.0127339 -0.0952873 0.9872661 0.0952873 0.9872661 0.0952873 0.0127339 -0.0952873
999000000 0.0125086 -0.0940765 0.9874914 0.0940765 0.9874914 0.0940765 0.0125086 -0.0940765
1006250000 0.0122889 -0.0928783 0.9877111 0.0928783 0.9877111 0.0928783 0.0122889 -0.0928783
1013500000 0.0120745 -0.0916924 0.9879255 0.0916924 0.9879255 0.0916924 0.0120745 -0.0916924
1020750000 0.0118655 -0.0905186 0.9881345 0.0905186 0.9881345 0.0905186 0.0118655 -0.0905186
1028000000 0.0116615 -0.0893567 0.9883385 0.0893567 0.9883385 0.0893567 0.0116615 -0.0893567
1035250000 0.0114626 -0.0882063 0.9885374 0.0882063 0.9885374 0.0882063 0.0114626 -0.0882063
1042500000 0.0112686 -0.0870673 0.9887314 0.0870673 0.9887314 0.0870673 0.0112686 -0.0870673
1049750000 0.0110792 -0.0859394 0.9889208 0.0859394 0.9889208 0.0859394 0.0110792 -0.0859394
1057000000 0.0108946 -0.0848224 0.9891054 0.0848224 0.9891054 0.0848224 0.0108946 -0.0848224
1064250000 0.0107144 -0.0837162 0.9892856 0.0837162 0.9892856 0.0837162 0.0107144 -0.0837162
1071500000 0.0105386 -0.0826204 0.9894614 0.0826204 0.9894614 0.0826204 0.0105386 -0.0826204
1078750000 0.0103671 -0.0815350 0.9896329 0.0815350 0.9896329 0.0815350 0.0103671 -0.0815350
1086000000 0.0101999 -0.0804596 0.9898001 0.0804596 0.9898001 0.0804596 0.0101999 -0.0804596
1093250000 0.0100366 -0.0793942 0.9899634 0.0793942 0.9899634 0.0793942 0.0100366 -0.0793942
1100500000 0.0098774 -0.0783385 0.9901226 0.0783385 0.9901226 0.0783385 0.0098774 -0.0783385
1107750000 0.0097221 -0.0772923 0.9902779 0.0772923 0.9902779 0.0772923 0.0097221 -0.0772923
1115000000 0.0095706 -0.0762555 0.9904294 0.0762555 0.9904294 0.0762555 0.0095706 -0.0762555
1122250000 0.0094227 -0.0752279 0.9905773 0.0752279 0.9905773 0.0752279 0.0094227 -0.0752279
1129500000 0.0092785 -0.0742092 0.9907215 0.0742092 0.9907215 0.0742092 0.0092785 -0.0742092
1136750000 0.0091379 -0.0731995 0.9908621 0.0731995 0.9908621 0.0731995 0.0091379 -0.0731995
1144000000 0.0090007 -0.0721984 0.9909993 0.0721984 0.9909993 0.0721984 0.0090007 -0.0721984
1151250000 0.0088668 -0.0712058 0.9911332 0.0712058 0.9911332 0.0712058 0.0088668 -0.0712058
1158500000 0.0087363 -0.0702217 0.9912637 0.0702217 0.9912637 0.0702217 0.0087363 -0.0702217
1165750000 0.0086090 -0.0692457 0.9913910 0.0692457 0.9913910 0.0692457 0.0086090 -0.0692457
1173000000 0.0084849 -0.0682778 0.9915151 0.0682778 0.9915151 0.0682778 0.0084849 -0.0682778
1180250000 0.0083638 -0.0673178 0.9916362 0.0673178 0.9916362 0.0673178 0.0083638 -0.0673178
1187500000 0.0082458 -0.0663657 0.9917542 0.0663657 0.9917542 0.0663657 0.0082458 -0.0663657
1194750000 0.0081308 -0.0654211 0.9918692 0.0654211 0.9918692 0.0654211 0.0081308 -0.0654211
1202000000 0.0080186 -0.0644841 0.9919814 0.0644841 0.9919814 0.0644841 0.0080186 -0.0644841
1209250000 0.0079092 -0.0635545 0.9920908 0.0635545 0.9920908 0.0635545 0.0079092 -0.0635545
1216500000 0.0078027 -0.0626321 0.9921973 0.0626321 0.9921973 0.0626321 0.0078027 -0.0626321
1223750000 0.0076988 -0.0617168 0.9923012 0.0617168 0.9923012 0.0617168 0.0076988 -0.0617168
1231000000 0.0075976 -0.0608086 0.9924024 0.0608086 0.9924024 0.0608086 0.0075976 -0.0608086
1238250000 0.0074990 -0.0599072 0.9925010 0.0599072 0.9925010 0.0599072 0.0074990 -0.0599072
1245500000 0.0074029 -0.0590125 0.9925971 0.0590125 0.9925971 0.0590125 0.0074029 -0.0590125
1252750000 0.0073093 -0.0581246 0.9926907 0.0581246 0.9926907 0.0581246 0.0073093 -0.0581246
1260000000 0.0072182 -0.0572431 0.9927818 0.0572431 0.9927818 0.0572431 0.0072182 -0.0572431
1267250000 0.0071295 -0.0563681 0.9928705 0.0563681 0.9928705 0.0563681 0.0071295 -0.0563681
1274500000 0.0070431 -0.0554994 0.9929569 0.0554994 0.9929569 0.0554994 0.0070431 -0.0554994
1281750000 0.0069591 -0.0546369 0.9930409 0.0546369 0.9930409 0.0546369 0.0069591 -0.0546369
1289000000 0.0068773 -0.0537805 0.9931227 0.0537805 0.9931227 0.0537805 0.0068773 -0.0537805
1296250000 0.0067977 -0.0529301 0.9932023 0.0529301 0.9932023 0.0529301 0.0067977 -0.0529301
1303500000 0.0067202 -0.0520856 0.9932798 0.0520856 0.9932798 0.0520856 0.0067202 -0.0520856
1310750000 0.0066449 -0.0512469 0.9933551 0.0512469 0.9933551 0.0512469 0.0066449 -0.0512469
1318000000 0.0065718 -0.0504139 0.9934282 0.0504139 0.9934282 0.0504139 0.0065718 -0.0504139
1325250000 0.0065006 -0.0495865 0.9934994 0.0495865 0.9934994 0.0495865 0.0065006 -0.0495865
1332500000 0.0064315 -0.0487647 0.9935685 0.0487647 0.9935685 0.0487647 0.0064315 -0.0487647
1339750000 0.0063643 -0.0479483 0.9936357 0.0479483 0.9936357 0.0479483 0.0063643 -0.0479483
1347000000 0.0062991 -0.0471372 0.9937009 0.0471372 0.9937009 0.0471372 0.0062991 -0.0471372
1354250000 0.0062358 -0.0463314 0.9937642 0.0463314 0.9937642 0.0463314 0.0062358 -0.0463314
1361500000 0.0061744 -0.0455307 0.9938256 0.0455307 0.9938256 0.0455307 0.0061744 -0.0455307
1368750000 0.0061148 -0.0447352 0.9938852 0.0447352 0.9938852 0.0447352 0.0061148 -0.0447352
1376000000 0.0060570 -0.0439447 0.9939430 0.0439447 0.9939430 0.0439447 0.0060570 -0.0439447
1383250000 0.0060010 -0.0431590 0.9939990 0.0431590 0.9939990 0.0431590 0.0060010 -0.0431590
1390500000 0.0059467 -0.0423783 0.9940533 0.0423783 0.9940533 0.0423783 0.0059467 -0.0423783
1397750000 0.0058942 -0.0416023 0.9941058 0.0416023 0.9941058 0.0416023 0.0058942 -0.0416023
1405000000 0.0058434 -0.0408310 0.9941566 0.0408310 0.9941566 0.0408310 0.0058434 -0.0408310
1412250000 0.0057942 -0.0400643 0.9942058 0.0400643 0.9942058 0.0400643 0.0057942 -0.0400643
1419500000 0.0057466 -0.0393022 0.9942534 0.0393022 0.9942534 0.0393022 0.0057466 -0.0393022
1426750000 0.0057006 -0.0385446 0.9942994 0.0385446 0.9942994 0.0385446 0.0057006 -0.0385446
1434000000 0.0056562 -0.0377914 0.9943438 0.0377914 0.9943438 0.0377914 0.0056562 -0.0377914
1441250000 0.0056134 -0.0370425 0.9943866 0.0370425 0.9943866 0.0370425 0.0056134 -0.0370425
1448500000 0.0055721 -0.0362979 0.9944279 0.0362979 0.9944279 0.0362979 0.0055721 -0.0362979
1455750000 0.0055323 -0.0355575 0.9944677 0.0355575 0.9944677 0.0355575 0.0055323 -0.0355575
1463000000 0.0054940 -0.0348213 0.9945060 0.0348213 0.9945060 0.0348213 0.0054940 -0.0348213
1470250000 0.0054571 -0.0340892 0.9945429 0.0340892 0.9945429 0.0340892 0.0054571 -0.0340892
1477500000 0.0054217 -0.0333610 0.9945783 0.0333610 0.9945783 0.0333610 0.0054217 -0.0333610
1484750000 0.0053877 -0.0326369 0.9946123 0.0326369 0.9946123 0.0326369 0.0053877 -0.0326369
1492000000 0.0053551 -0.0319166 0.9946449 0.0319166 0.9946449 0.0319166 0.0053551 -0.0319166
1499250000 0.0053239 -0.0312002 0.9946761 0.0312002 0.9946761 0.0312002 0.0053239 -0.0312002
1506500000 0.0052940 -0.0304876 0.9947060 0.0304876 0.9947060 0.0304876 0.0052940 -0.0304876
1513750000 0.0052654 -0.0297786 0.9947346 0.0297786 0.9947346 0.0297786 0.0052654 -0.0297786
1521000000 0.0052381 -0.0290734 0.9947619 0.0290734 0.9947619 0.0290734 0.0052381 -0.0290734
1528250000 0.0052122 -0.0283718 0.9947878 0.0283718 0.9947878 0.0283718 0.0052122 -0.0283718
1535500000 0.0051875 -0.0276737 0.9948125 0.0276737 0.9948125 0.0276737 0.0051875 -0.0276737
1542750000 0.0051641 -0.0269792 0.9948359 0.0269792 0.9948359 0.0269792 0.0051641 -0.0269792
1550000000 0.0051419 -0.0262881 0.9948581 0.0262881 0.9948581 0.0262881 0.0051419 -0.0262881
1557250000 0.0051209 -0.0256004 0.9948791 0.0256004 0.9948791 0.0256004 0.0051209 -0.0256004
1564500000 0.0051012 -0.0249161 0.9948988 0.0249161 0.9948988 0.0249161 0.0051012 -0.0249161
1571750000 0.0050826 -0.0242351 0.9949174 0.0242351 0.9949174 0.0242351 0.0050826 -0.0242351
1579000000 0.0050652 -0.0235573 0.9949348 0.0235573 0.9949348 0.0235573 0.0050652 -0.0235573
1586250000 0.0050490 -0.0228828 0.9949510 0.0228828 0.9949510 0.0228828 0.0050490 -0.0228828
1593500000 0.0050339 -0.0222114 0.9949661 0.0222114 0.9949661 0.0222114 0.0050339 -0.0222114
1600750000 0.0050199 -0.0215432 0.9949801 0.0215432 0.9949801 0.0215432 0.0050199 -0.0215432
1608000000 0.0050071 -0.0208780 0.9949929 0.0208780 0.9949929 0.0208780 0.0050071 -0.0208780
1615250000 0.0049953 -0.0202159 0.9950047 0.0202159 0.9950047 0.0202159 0.0049953 -0.0202159
1622500000 0.0049847 -0.0195567 0.9950153 0.0195567 0.9950153 0.0195567 0.0049847 -0.0195567
1629750000 0.0049751 -0.0189005 0.9950249 0.0189005 0.9950249 0.0189005 0.0049751 -0.0189005
