!Murata Part Number: GRM2162C1H272JA01
!These Parameters are Measured in Series Mode Connection
!Data Generated on Mar 30, 2021
!       o--ll--o
!Port1            Port2
!       o------o
!Operation Temp=25[degC], DC Bias Voltage=0[V]
!Freq. Start=1000[kHz] Stop=6[GHz] 401[Steps]
# Hz S RI R 50
!Freq.(Hz) S11(Real) S11(Imag) S21(Real) S21(Imag) S12(Real) S12(Imag) S22(Real) S22(Imag)
1000000 0.2611826 -0.4392208 0.7388174 0.4392208 0.7388174 0.4392208 0.2611826 -0.4392208
1021987 0.2528771 -0.4346013 0.7471229 0.4346013 0.7471229 0.4346013 0.2528771 -0.4346013
1044457 0.2447481 -0.4298766 0.7552519 0.4298766 0.7552519 0.4298766 0.2447481 -0.4298766
1067422 0.2367977 -0.4250546 0.7632023 0.4250546 0.7632023 0.4250546 0.2367977 -0.4250546
1090891 0.2290273 -0.4201428 0.7709727 0.4201428 0.7709727 0.4201428 0.2290273 -0.4201428
1114877 0.2214379 -0.4151491 0.7785621 0.4151491 0.7785621 0.4151491 0.2214379 -0.4151491
1139390 0.2140302 -0.4100808 0.7859698 0.4100808 0.7859698 0.4100808 0.2140302 -0.4100808
1164441 0.2068045 -0.4049454 0.7931955 0.4049454 0.7931955 0.4049454 0.2068045 -0.4049454
1190044 0.1997608 -0.3997502 0.8002392 0.3997502 0.8002392 0.3997502 0.1997608 -0.3997502
1216210 0.1928986 -0.3945022 0.8071014 0.3945022 0.8071014 0.3945022 0.1928986 -0.3945022
1242950 0.1862174 -0.3892084 0.8137826 0.3892084 0.8137826 0.3892084 0.1862174 -0.3892084
1270279 0.1797161 -0.3838754 0.8202839 0.3838754 0.8202839 0.3838754 0.1797161 -0.3838754
1298209 0.1733934 -0.3785099 0.8266066 0.3785099 0.8266066 0.3785099 0.1733934 -0.3785099
1326753 0.1672479 -0.3731180 0.8327521 0.3731180 0.8327521 0.3731180 0.1672479 -0.3731180
1355924 0.1612777 -0.3677060 0.8387223 0.3677060 0.8387223 0.3677060 0.1612777 -0.3677060
1385737 0.1554808 -0.3622796 0.8445192 0.3622796 0.8445192 0.3622796 0.1554808 -0.3622796
1416205 0.1498552 -0.3568446 0.8501448 0.3568446 0.8501448 0.3568446 0.1498552 -0.3568446
1447343 0.1443983 -0.3514063 0.8556017 0.3514063 0.8556017 0.3514063 0.1443983 -0.3514063
1479166 0.1391076 -0.3459698 0.8608924 0.3459698 0.8608924 0.3459698 0.1391076 -0.3459698
1511688 0.1339805 -0.3405402 0.8660195 0.3405402 0.8660195 0.3405402 0.1339805 -0.3405402
1544926 0.1290141 -0.3351222 0.8709859 0.3351222 0.8709859 0.3351222 0.1290141 -0.3351222
1578894 0.1242054 -0.3297201 0.8757946 0.3297201 0.8757946 0.3297201 0.1242054 -0.3297201
1613609 0.1195514 -0.3243382 0.8804486 0.3243382 0.8804486 0.3243382 0.1195514 -0.3243382
1649087 0.1150489 -0.3189806 0.8849511 0.3189806 0.8849511 0.3189806 0.1150489 -0.3189806
1685346 0.1106947 -0.3136508 0.8893053 0.3136508 0.8893053 0.3136508 0.1106947 -0.3136508
1722402 0.1064855 -0.3083526 0.8935145 0.3083526 0.8935145 0.3083526 0.1064855 -0.3083526
1760272 0.1024180 -0.3030892 0.8975820 0.3030892 0.8975820 0.3030892 0.1024180 -0.3030892
1798975 0.0984888 -0.2978637 0.9015112 0.2978637 0.9015112 0.2978637 0.0984888 -0.2978637
1838529 0.0946945 -0.2926790 0.9053055 0.2926790 0.9053055 0.2926790 0.0946945 -0.2926790
1878953 0.0910317 -0.2875378 0.9089683 0.2875378 0.9089683 0.2875378 0.0910317 -0.2875378
1920266 0.0874969 -0.2824425 0.9125031 0.2824425 0.9125031 0.2824425 0.0874969 -0.2824425
1962487 0.0840867 -0.2773954 0.9159133 0.2773954 0.9159133 0.2773954 0.0840867 -0.2773954
2005636 0.0807977 -0.2723987 0.9192023 0.2723987 0.9192023 0.2723987 0.0807977 -0.2723987
2049734 0.0776266 -0.2674543 0.9223734 0.2674543 0.9223734 0.2674543 0.0776266 -0.2674543
2094801 0.0745698 -0.2625639 0.9254302 0.2625639 0.9254302 0.2625639 0.0745698 -0.2625639
2140860 0.0716242 -0.2577292 0.9283758 0.2577292 0.9283758 0.2577292 0.0716242 -0.2577292
2187931 0.0687863 -0.2529515 0.9312137 0.2529515 0.9312137 0.2529515 0.0687863 -0.2529515
2236037 0.0660530 -0.2482321 0.9339470 0.2482321 0.9339470 0.2482321 0.0660530 -0.2482321
2285201 0.0634209 -0.2435721 0.9365791 0.2435721 0.9365791 0.2435721 0.0634209 -0.2435721
2335446 0.0608870 -0.2389727 0.9391130 0.2389727 0.9391130 0.2389727 0.0608870 -0.2389727
2386795 0.0584480 -0.2344345 0.9415520 0.2344345 0.9415520 0.2344345 0.0584480 -0.2344345
2439274 0.0561010 -0.2299585 0.9438990 0.2299585 0.9438990 0.2299585 0.0561010 -0.2299585
2492906 0.0538430 -0.2255451 0.9461570 0.2255451 0.9461570 0.2255451 0.0538430 -0.2255451
2547717 0.0516709 -0.2211949 0.9483291 0.2211949 0.9483291 0.2211949 0.0516709 -0.2211949
2603734 0.0495819 -0.2169083 0.9504181 0.2169083 0.9504181 0.2169083 0.0495819 -0.2169083
2660982 0.0475733 -0.2126857 0.9524267 0.2126857 0.9524267 0.2126857 0.0475733 -0.2126857
2719490 0.0456422 -0.2085272 0.9543578 0.2085272 0.9543578 0.2085272 0.0456422 -0.2085272
2779283 0.0437860 -0.2044330 0.9562140 0.2044330 0.9562140 0.2044330 0.0437860 -0.2044330
2840391 0.0420020 -0.2004030 0.9579980 0.2004030 0.9579980 0.2004030 0.0420020 -0.2004030
2902843 0.0402878 -0.1964374 0.9597122 0.1964374 0.9597122 0.1964374 0.0402878 -0.1964374
2966668 0.0386408 -0.1925360 0.9613592 0.1925360 0.9613592 0.1925360 0.0386408 -0.1925360
3031896 0.0370586 -0.1886986 0.9629414 0.1886986 0.9629414 0.1886986 0.0370586 -0.1886986
3098558 0.0355389 -0.1849250 0.9644611 0.1849250 0.9644611 0.1849250 0.0355389 -0.1849250
3166686 0.0340795 -0.1812148 0.9659205 0.1812148 0.9659205 0.1812148 0.0340795 -0.1812148
3236312 0.0326780 -0.1775679 0.9673220 0.1775679 0.9673220 0.1775679 0.0326780 -0.1775679
3307469 0.0313325 -0.1739837 0.9686675 0.1739837 0.9686675 0.1739837 0.0313325 -0.1739837
3380190 0.0300407 -0.1704618 0.9699593 0.1704618 0.9699593 0.1704618 0.0300407 -0.1704618
3454511 0.0288007 -0.1670018 0.9711993 0.1670018 0.9711993 0.1670018 0.0288007 -0.1670018
3530465 0.0276106 -0.1636032 0.9723894 0.1636032 0.9723894 0.1636032 0.0276106 -0.1636032
3608090 0.0264684 -0.1602653 0.9735316 0.1602653 0.9735316 0.1602653 0.0264684 -0.1602653
3687421 0.0253723 -0.1569876 0.9746277 0.1569876 0.9746277 0.1569876 0.0253723 -0.1569876
3768496 0.0243207 -0.1537696 0.9756793 0.1537696 0.9756793 0.1537696 0.0243207 -0.1537696
3851354 0.0233117 -0.1506104 0.9766883 0.1506104 0.9766883 0.1506104 0.0233117 -0.1506104
3936034 0.0223437 -0.1475096 0.9776563 0.1475096 0.9776563 0.1475096 0.0223437 -0.1475096
4022575 0.0214152 -0.1444664 0.9785848 0.1444664 0.9785848 0.1444664 0.0214152 -0.1444664
4111020 0.0205246 -0.1414801 0.9794754 0.1414801 0.9794754 0.1414801 0.0205246 -0.1414801
4201409 0.0196704 -0.1385500 0.9803296 0.1385500 0.9803296 0.1385500 0.0196704 -0.1385500
4293785 0.0188512 -0.1356753 0.9811488 0.1356753 0.9811488 0.1356753 0.0188512 -0.1356753
4388193 0.0180656 -0.1328554 0.9819344 0.1328554 0.9819344 0.1328554 0.0180656 -0.1328554
4484676 0.0173124 -0.1300894 0.9826876 0.1300894 0.9826876 0.1300894 0.0173124 -0.1300894
4583281 0.0165901 -0.1273766 0.9834099 0.1273766 0.9834099 0.1273766 0.0165901 -0.1273766
4684054 0.0158977 -0.1247163 0.9841023 0.1247163 0.9841023 0.1247163 0.0158977 -0.1247163
4787042 0.0152338 -0.1221076 0.9847662 0.1221076 0.9847662 0.1221076 0.0152338 -0.1221076
4892295 0.0145974 -0.1195497 0.9854026 0.1195497 0.9854026 0.1195497 0.0145974 -0.1195497
4999862 0.0139874 -0.1170419 0.9860126 0.1170419 0.9860126 0.1170419 0.0139874 -0.1170419
5109794 0.0134026 -0.1145835 0.9865974 0.1145835 0.9865974 0.1145835 0.0134026 -0.1145835
5222143 0.0128421 -0.1121735 0.9871579 0.1121735 0.9871579 0.1121735 0.0128421 -0.1121735
5336962 0.0123050 -0.1098112 0.9876950 0.1098112 0.9876950 0.1098112 0.0123050 -0.1098112
5454306 0.0117902 -0.1074959 0.9882098 0.1074959 0.9882098 0.1074959 0.0117902 -0.1074959
5574230 0.0112968 -0.1052268 0.9887032 0.1052268 0.9887032 0.1052268 0.0112968 -0.1052268
5696791 0.0108240 -0.1030030 0.9891760 0.1030030 0.9891760 0.1030030 0.0108240 -0.1030030
5822046 0.0103709 -0.1008237 0.9896291 0.1008237 0.9896291 0.1008237 0.0103709 -0.1008237
5950055 0.0099368 -0.0986883 0.9900632 0.0986883 0.9900632 0.0986883 0.0099368 -0.0986883
6080879 0.0095209 -0.0965960 0.9904791 0.0965960 0.9904791 0.0965960 0.0095209 -0.0965960
6214580 0.0091223 -0.0945459 0.9908777 0.0945459 0.9908777 0.0945459 0.0091223 -0.0945459
6351220 0.0087405 -0.0925374 0.9912595 0.0925374 0.9912595 0.0925374 0.0087405 -0.0925374
6490864 0.0083747 -0.0905696 0.9916253 0.0905696 0.9916253 0.0905696 0.0083747 -0.0905696
6633579 0.0080242 -0.0886419 0.9919758 0.0886419 0.9919758 0.0886419 0.0080242 -0.0886419
6779431 0.0076884 -0.0867535 0.9923116 0.0867535 0.9923116 0.0867535 0.0076884 -0.0867535
6928491 0.0073668 -0.0849037 0.9926332 0.0849037 0.9926332 0.0849037 0.0073668 -0.0849037
7080828 0.0070587 -0.0830917 0.9929413 0.0830917 0.9929413 0.0830917 0.0070587 -0.0830917
7236514 0.0067636 -0.0813168 0.9932364 0.0813168 0.9932364 0.0813168 0.0067636 -0.0813168
7395623 0.0064809 -0.0795784 0.9935191 0.0795784 0.9935191 0.0795784 0.0064809 -0.0795784
7558231 0.0062101 -0.0778757 0.9937899 0.0778757 0.9937899 0.0778757 0.0062101 -0.0778757
7724414 0.0059508 -0.0762081 0.9940492 0.0762081 0.9940492 0.0762081 0.0059508 -0.0762081
7894251 0.0057024 -0.0745749 0.9942976 0.0745749 0.9942976 0.0745749 0.0057024 -0.0745749
8067822 0.0054645 -0.0729754 0.9945355 0.0729754 0.9945355 0.0729754 0.0054645 -0.0729754
8245209 0.0052366 -0.0714089 0.9947634 0.0714089 0.9947634 0.0714089 0.0052366 -0.0714089
8426497 0.0050184 -0.0698749 0.9949816 0.0698749 0.9949816 0.0698749 0.0050184 -0.0698749
8611770 0.0048094 -0.0683726 0.9951906 0.0683726 0.9951906 0.0683726 0.0048094 -0.0683726
8801117 0.0046093 -0.0669014 0.9953907 0.0669014 0.9953907 0.0669014 0.0046093 -0.0669014
8994628 0.0044177 -0.0654608 0.9955823 0.0654608 0.9955823 0.0654608 0.0044177 -0.0654608
9192393 0.0042342 -0.0640501 0.9957658 0.0640501 0.9957658 0.0640501 0.0042342 -0.0640501
9394506 0.0040584 -0.0626687 0.9959416 0.0626687 0.9959416 0.0626687 0.0040584 -0.0626687
9601063 0.0038902 -0.0613161 0.9961098 0.0613161 0.9961098 0.0613161 0.0038902 -0.0613161
9812162 0.0037291 -0.0599915 0.9962709 0.0599915 0.9962709 0.0599915 0.0037291 -0.0599915
10027902 0.0035748 -0.0586946 0.9964252 0.0586946 0.9964252 0.0586946 0.0035748 -0.0586946
10248386 0.0034271 -0.0574246 0.9965729 0.0574246 0.9965729 0.0574246 0.0034271 -0.0574246
10473717 0.0032857 -0.0561811 0.9967143 0.0561811 0.9967143 0.0561811 0.0032857 -0.0561811
10704003 0.0031503 -0.0549636 0.9968497 0.0549636 0.9968497 0.0549636 0.0031503 -0.0549636
10939352 0.0030207 -0.0537714 0.9969793 0.0537714 0.9969793 0.0537714 0.0030207 -0.0537714
11179876 0.0028966 -0.0526040 0.9971034 0.0526040 0.9971034 0.0526040 0.0028966 -0.0526040
11425688 0.0027778 -0.0514610 0.9972222 0.0514610 0.9972222 0.0514610 0.0027778 -0.0514610
11676904 0.0026641 -0.0503419 0.9973359 0.0503419 0.9973359 0.0503419 0.0026641 -0.0503419
11933645 0.0025552 -0.0492461 0.9974448 0.0492461 0.9974448 0.0492461 0.0025552 -0.0492461
12196030 0.0024511 -0.0481731 0.9975489 0.0481731 0.9975489 0.0481731 0.0024511 -0.0481731
12464184 0.0023513 -0.0471225 0.9976487 0.0471225 0.9976487 0.0471225 0.0023513 -0.0471225
12738235 0.0022559 -0.0460938 0.9977441 0.0460938 0.9977441 0.0460938 0.0022559 -0.0460938
13018310 0.0021645 -0.0450866 0.9978355 0.0450866 0.9978355 0.0450866 0.0021645 -0.0450866
13304544 0.0020771 -0.0441004 0.9979229 0.0441004 0.9979229 0.0441004 0.0020771 -0.0441004
13597071 0.0019935 -0.0431347 0.9980065 0.0431347 0.9980065 0.0431347 0.0019935 -0.0431347
13896030 0.0019134 -0.0421891 0.9980866 0.0421891 0.9980866 0.0421891 0.0019134 -0.0421891
14201563 0.0018368 -0.0412633 0.9981632 0.0412633 0.9981632 0.0412633 0.0018368 -0.0412633
14513813 0.0017635 -0.0403566 0.9982365 0.0403566 0.9982365 0.0403566 0.0017635 -0.0403566
14832928 0.0016934 -0.0394689 0.9983066 0.0394689 0.9983066 0.0394689 0.0016934 -0.0394689
15159060 0.0016263 -0.0385996 0.9983737 0.0385996 0.9983737 0.0385996 0.0016263 -0.0385996
15492362 0.0015621 -0.0377484 0.9984379 0.0377484 0.9984379 0.0377484 0.0015621 -0.0377484
15832993 0.0015008 -0.0369148 0.9984992 0.0369148 0.9984992 0.0369148 0.0015008 -0.0369148
16181113 0.0014421 -0.0360985 0.9985579 0.0360985 0.9985579 0.0360985 0.0014421 -0.0360985
16536888 0.0013859 -0.0352992 0.9986141 0.0352992 0.9986141 0.0352992 0.0013859 -0.0352992
16900485 0.0013322 -0.0345164 0.9986678 0.0345164 0.9986678 0.0345164 0.0013322 -0.0345164
17272076 0.0012809 -0.0337498 0.9987191 0.0337498 0.9987191 0.0337498 0.0012809 -0.0337498
17651837 0.0012318 -0.0329991 0.9987682 0.0329991 0.9987682 0.0329991 0.0012318 -0.0329991
18039948 0.0011848 -0.0322638 0.9988152 0.0322638 0.9988152 0.0322638 0.0011848 -0.0322638
18436593 0.0011400 -0.0315437 0.9988600 0.0315437 0.9988600 0.0315437 0.0011400 -0.0315437
18841959 0.0010971 -0.0308385 0.9989029 0.0308385 0.9989029 0.0308385 0.0010971 -0.0308385
19256237 0.0010561 -0.0301477 0.9989439 0.0301477 0.9989439 0.0301477 0.0010561 -0.0301477
19679624 0.0010170 -0.0294711 0.9989830 0.0294711 0.9989830 0.0294711 0.0010170 -0.0294711
20112321 0.0009796 -0.0288085 0.9990204 0.0288085 0.9990204 0.0288085 0.0009796 -0.0288085
20554530 0.0009439 -0.0281593 0.9990561 0.0281593 0.9990561 0.0281593 0.0009439 -0.0281593
21006463 0.0009097 -0.0275235 0.9990903 0.0275235 0.9990903 0.0275235 0.0009097 -0.0275235
21468333 0.0008772 -0.0269006 0.9991228 0.0269006 0.9991228 0.0269006 0.0008772 -0.0269006
21940357 0.0008460 -0.0262905 0.9991540 0.0262905 0.9991540 0.0262905 0.0008460 -0.0262905
22422760 0.0008163 -0.0256927 0.9991837 0.0256927 0.9991837 0.0256927 0.0008163 -0.0256927
22915770 0.0007880 -0.0251070 0.9992120 0.0251070 0.9992120 0.0251070 0.0007880 -0.0251070
23419619 0.0007610 -0.0245333 0.9992390 0.0245333 0.9992390 0.0245333 0.0007610 -0.0245333
23934547 0.0007352 -0.0239711 0.9992648 0.0239711 0.9992648 0.0239711 0.0007352 -0.0239711
24460796 0.0007106 -0.0234202 0.9992894 0.0234202 0.9992894 0.0234202 0.0007106 -0.0234202
24998616 0.0006871 -0.0228804 0.9993129 0.0228804 0.9993129 0.0228804 0.0006871 -0.0228804
25548261 0.0006647 -0.0223515 0.9993353 0.0223515 0.9993353 0.0223515 0.0006647 -0.0223515
26109991 0.0006434 -0.0218331 0.9993566 0.0218331 0.9993566 0.0218331 0.0006434 -0.0218331
26684072 0.0006231 -0.0213251 0.9993769 0.0213251 0.9993769 0.0213251 0.0006231 -0.0213251
27270775 0.0006038 -0.0208271 0.9993962 0.0208271 0.9993962 0.0208271 0.0006038 -0.0208271
27870378 0.0005854 -0.0203391 0.9994146 0.0203391 0.9994146 0.0203391 0.0005854 -0.0203391
28483164 0.0005679 -0.0198606 0.9994321 0.0198606 0.9994321 0.0198606 0.0005679 -0.0198606
29109424 0.0005512 -0.0193916 0.9994488 0.0193916 0.9994488 0.0193916 0.0005512 -0.0193916
29749453 0.0005353 -0.0189318 0.9994647 0.0189318 0.9994647 0.0189318 0.0005353 -0.0189318
30403555 0.0005203 -0.0184810 0.9994797 0.0184810 0.9994797 0.0184810 0.0005203 -0.0184810
31072038 0.0005059 -0.0180390 0.9994941 0.0180390 0.9994941 0.0180390 0.0005059 -0.0180390
31755220 0.0004923 -0.0176055 0.9995077 0.0176055 0.9995077 0.0176055 0.0004923 -0.0176055
32453422 0.0004794 -0.0171804 0.9995206 0.0171804 0.9995206 0.0171804 0.0004794 -0.0171804
33166976 0.0004672 -0.0167635 0.9995328 0.0167635 0.9995328 0.0167635 0.0004672 -0.0167635
33896219 0.0004555 -0.0163545 0.9995445 0.0163545 0.9995445 0.0163545 0.0004555 -0.0163545
34641496 0.0004445 -0.0159533 0.9995555 0.0159533 0.9995555 0.0159533 0.0004445 -0.0159533
35403159 0.0004341 -0.0155597 0.9995659 0.0155597 0.9995659 0.0155597 0.0004341 -0.0155597
36181569 0.0004242 -0.0151735 0.9995758 0.0151735 0.9995758 0.0151735 0.0004242 -0.0151735
36977093 0.0004149 -0.0147946 0.9995851 0.0147946 0.9995851 0.0147946 0.0004149 -0.0147946
37790109 0.0004061 -0.0144227 0.9995939 0.0144227 0.9995939 0.0144227 0.0004061 -0.0144227
38621001 0.0003977 -0.0140576 0.9996023 0.0140576 0.9996023 0.0140576 0.0003977 -0.0140576
39470161 0.0003899 -0.0136993 0.9996101 0.0136993 0.9996101 0.0136993 0.0003899 -0.0136993
40337993 0.0003825 -0.0133475 0.9996175 0.0133475 0.9996175 0.0133475 0.0003825 -0.0133475
41224905 0.0003755 -0.0130021 0.9996245 0.0130021 0.9996245 0.0130021 0.0003755 -0.0130021
42131317 0.0003690 -0.0126628 0.9996310 0.0126628 0.9996310 0.0126628 0.0003690 -0.0126628
43057659 0.0003628 -0.0123296 0.9996372 0.0123296 0.9996372 0.0123296 0.0003628 -0.0123296
44004369 0.0003570 -0.0120023 0.9996430 0.0120023 0.9996430 0.0120023 0.0003570 -0.0120023
44971893 0.0003516 -0.0116808 0.9996484 0.0116808 0.9996484 0.0116808 0.0003516 -0.0116808
45960691 0.0003466 -0.0113648 0.9996534 0.0113648 0.9996534 0.0113648 0.0003466 -0.0113648
46971230 0.0003419 -0.0110542 0.9996581 0.0110542 0.9996581 0.0110542 0.0003419 -0.0110542
48003987 0.0003375 -0.0107489 0.9996625 0.0107489 0.9996625 0.0107489 0.0003375 -0.0107489
49059451 0.0003334 -0.0104487 0.9996666 0.0104487 0.9996666 0.0104487 0.0003334 -0.0104487
50138122 0.0003297 -0.0101536 0.9996703 0.0101536 0.9996703 0.0101536 0.0003297 -0.0101536
51240510 0.0003262 -0.0098633 0.9996738 0.0098633 0.9996738 0.0098633 0.0003262 -0.0098633
52367136 0.0003231 -0.0095777 0.9996769 0.0095777 0.9996769 0.0095777 0.0003231 -0.0095777
53518533 0.0003202 -0.0092966 0.9996798 0.0092966 0.9996798 0.0092966 0.0003202 -0.0092966
54695245 0.0003175 -0.0090201 0.9996825 0.0090201 0.9996825 0.0090201 0.0003175 -0.0090201
55897831 0.0003151 -0.0087478 0.9996849 0.0087478 0.9996849 0.0087478 0.0003151 -0.0087478
57126857 0.0003130 -0.0084797 0.9996870 0.0084797 0.9996870 0.0084797 0.0003130 -0.0084797
58382906 0.0003111 -0.0082157 0.9996889 0.0082157 0.9996889 0.0082157 0.0003111 -0.0082157
59666572 0.0003095 -0.0079556 0.9996905 0.0079556 0.9996905 0.0079556 0.0003095 -0.0079556
60978462 0.0003080 -0.0076993 0.9996920 0.0076993 0.9996920 0.0076993 0.0003080 -0.0076993
62319196 0.0003068 -0.0074466 0.9996932 0.0074466 0.9996932 0.0074466 0.0003068 -0.0074466
63689409 0.0003059 -0.0071975 0.9996941 0.0071975 0.9996941 0.0071975 0.0003059 -0.0071975
65089750 0.0003051 -0.0069519 0.9996949 0.0069519 0.9996949 0.0069519 0.0003051 -0.0069519
66520879 0.0003045 -0.0067096 0.9996955 0.0067096 0.9996955 0.0067096 0.0003045 -0.0067096
67983474 0.0003042 -0.0064705 0.9996958 0.0064705 0.9996958 0.0064705 0.0003042 -0.0064705
69478228 0.0003040 -0.0062344 0.9996960 0.0062344 0.9996960 0.0062344 0.0003040 -0.0062344
71005847 0.0003041 -0.0060014 0.9996959 0.0060014 0.9996959 0.0060014 0.0003041 -0.0060014
72567054 0.0003043 -0.0057712 0.9996957 0.0057712 0.9996957 0.0057712 0.0003043 -0.0057712
74162587 0.0003048 -0.0055437 0.9996952 0.0055437 0.9996952 0.0055437 0.0003048 -0.0055437
75793201 0.0003054 -0.0053189 0.9996946 0.0053189 0.9996946 0.0053189 0.0003054 -0.0053189
77459667 0.0003063 -0.0050966 0.9996937 0.0050966 0.9996937 0.0050966 0.0003063 -0.0050966
79162774 0.0003073 -0.0048767 0.9996927 0.0048767 0.9996927 0.0048767 0.0003073 -0.0048767
80903327 0.0003085 -0.0046591 0.9996915 0.0046591 0.9996915 0.0046591 0.0003085 -0.0046591
82682150 0.0003100 -0.0044438 0.9996900 0.0044438 0.9996900 0.0044438 0.0003100 -0.0044438
84500083 0.0003116 -0.0042305 0.9996884 0.0042305 0.9996884 0.0042305 0.0003116 -0.0042305
86357988 0.0003134 -0.0040193 0.9996866 0.0040193 0.9996866 0.0040193 0.0003134 -0.0040193
88256743 0.0003155 -0.0038099 0.9996845 0.0038099 0.9996845 0.0038099 0.0003155 -0.0038099
90197245 0.0003177 -0.0036024 0.9996823 0.0036024 0.9996823 0.0036024 0.0003177 -0.0036024
92180413 0.0003202 -0.0033965 0.9996798 0.0033965 0.9996798 0.0033965 0.0003202 -0.0033965
94207185 0.0003228 -0.0031922 0.9996772 0.0031922 0.9996772 0.0031922 0.0003228 -0.0031922
96278520 0.0003257 -0.0029894 0.9996743 0.0029894 0.9996743 0.0029894 0.0003257 -0.0029894
98395398 0.0003288 -0.0027880 0.9996712 0.0027880 0.9996712 0.0027880 0.0003288 -0.0027880
100558819 0.0003321 -0.0025878 0.9996679 0.0025878 0.9996679 0.0025878 0.0003321 -0.0025878
102769807 0.0003357 -0.0023889 0.9996643 0.0023889 0.9996643 0.0023889 0.0003357 -0.0023889
105029408 0.0003395 -0.0021910 0.9996605 0.0021910 0.9996605 0.0021910 0.0003395 -0.0021910
107338692 0.0003436 -0.0019941 0.9996564 0.0019941 0.9996564 0.0019941 0.0003436 -0.0019941
