!Murata Part Number: GRM21A5C2J181JWA1
!These Parameters are Measured in Series Mode Connection
!Data Generated on Mar 30, 2021
!       o--ll--o
!Port1            Port2
!       o------o
!Operation Temp=25[degC], DC Bias Voltage=0[V]
!Freq. Start=100[MHz] Stop=3[GHz] 401[Steps]
# Hz S RI R 50
!Freq.(Hz) S11(Real) S11(Imag) S21(Real) S21(Imag) S12(Real) S12(Imag) S22(Real) S22(Imag)
100000000 0.0080781 -0.0840950 0.9919219 0.0840950 0.9919219 0.0840950 0.0080781 -0.0840950
107250000 0.0070736 -0.0779850 0.9929264 0.0779850 0.9929264 0.0779850 0.0070736 -0.0779850
114500000 0.0062530 -0.0726011 0.9937470 0.0726011 0.9937470 0.0726011 0.0062530 -0.0726011
121750000 0.0055744 -0.0678167 0.9944256 0.0678167 0.9944256 0.0678167 0.0055744 -0.0678167
129000000 0.0050070 -0.0635328 0.9949930 0.0635328 0.9949930 0.0635328 0.0050070 -0.0635328
136250000 0.0045279 -0.0596711 0.9954721 0.0596711 0.9954721 0.0596711 0.0045279 -0.0596711
143500000 0.0041201 -0.0561685 0.9958799 0.0561685 0.9958799 0.0561685 0.0041201 -0.0561685
150750000 0.0037702 -0.0529740 0.9962298 0.0529740 0.9962298 0.0529740 0.0037702 -0.0529740
158000000 0.0034679 -0.0500458 0.9965321 0.0500458 0.9965321 0.0500458 0.0034679 -0.0500458
165250000 0.0032052 -0.0473493 0.9967948 0.0473493 0.9967948 0.0473493 0.0032052 -0.0473493
172500000 0.0029755 -0.0448555 0.9970245 0.0448555 0.9970245 0.0448555 0.0029755 -0.0448555
179750000 0.0027738 -0.0425403 0.9972262 0.0425403 0.9972262 0.0425403 0.0027738 -0.0425403
187000000 0.0025959 -0.0403829 0.9974041 0.0403829 0.9974041 0.0403829 0.0025959 -0.0403829
194250000 0.0024382 -0.0383659 0.9975618 0.0383659 0.9975618 0.0383659 0.0024382 -0.0383659
201500000 0.0022980 -0.0364743 0.9977020 0.0364743 0.9977020 0.0364743 0.0022980 -0.0364743
208750000 0.0021730 -0.0346950 0.9978270 0.0346950 0.9978270 0.0346950 0.0021730 -0.0346950
216000000 0.0020611 -0.0330169 0.9979389 0.0330169 0.9979389 0.0330169 0.0020611 -0.0330169
223250000 0.0019607 -0.0314301 0.9980393 0.0314301 0.9980393 0.0314301 0.0019607 -0.0314301
230500000 0.0018704 -0.0299261 0.9981296 0.0299261 0.9981296 0.0299261 0.0018704 -0.0299261
237750000 0.0017891 -0.0284973 0.9982109 0.0284973 0.9982109 0.0284973 0.0017891 -0.0284973
245000000 0.0017157 -0.0271371 0.9982843 0.0271371 0.9982843 0.0271371 0.0017157 -0.0271371
252250000 0.0016494 -0.0258396 0.9983506 0.0258396 0.9983506 0.0258396 0.0016494 -0.0258396
259500000 0.0015893 -0.0245995 0.9984107 0.0245995 0.9984107 0.0245995 0.0015893 -0.0245995
266750000 0.0015349 -0.0234122 0.9984651 0.0234122 0.9984651 0.0234122 0.0015349 -0.0234122
274000000 0.0014856 -0.0222735 0.9985144 0.0222735 0.9985144 0.0222735 0.0014856 -0.0222735
281250000 0.0014409 -0.0211796 0.9985591 0.0211796 0.9985591 0.0211796 0.0014409 -0.0211796
288500000 0.0014003 -0.0201273 0.9985997 0.0201273 0.9985997 0.0201273 0.0014003 -0.0201273
295750000 0.0013636 -0.0191133 0.9986364 0.0191133 0.9986364 0.0191133 0.0013636 -0.0191133
303000000 0.0013302 -0.0181350 0.9986698 0.0181350 0.9986698 0.0181350 0.0013302 -0.0181350
310250000 0.0013001 -0.0171899 0.9986999 0.0171899 0.9986999 0.0171899 0.0013001 -0.0171899
317500000 0.0012728 -0.0162756 0.9987272 0.0162756 0.9987272 0.0162756 0.0012728 -0.0162756
324750000 0.0012482 -0.0153902 0.9987518 0.0153902 0.9987518 0.0153902 0.0012482 -0.0153902
332000000 0.0012260 -0.0145317 0.9987740 0.0145317 0.9987740 0.0145317 0.0012260 -0.0145317
339250000 0.0012060 -0.0136984 0.9987940 0.0136984 0.9987940 0.0136984 0.0012060 -0.0136984
346500000 0.0011882 -0.0128888 0.9988118 0.0128888 0.9988118 0.0128888 0.0011882 -0.0128888
353750000 0.0011723 -0.0121012 0.9988277 0.0121012 0.9988277 0.0121012 0.0011723 -0.0121012
361000000 0.0011583 -0.0113345 0.9988417 0.0113345 0.9988417 0.0113345 0.0011583 -0.0113345
368250000 0.0011459 -0.0105874 0.9988541 0.0105874 0.9988541 0.0105874 0.0011459 -0.0105874
375500000 0.0011350 -0.0098587 0.9988650 0.0098587 0.9988650 0.0098587 0.0011350 -0.0098587
382750000 0.0011257 -0.0091474 0.9988743 0.0091474 0.9988743 0.0091474 0.0011257 -0.0091474
390000000 0.0011178 -0.0084524 0.9988822 0.0084524 0.9988822 0.0084524 0.0011178 -0.0084524
397250000 0.0011111 -0.0077730 0.9988889 0.0077730 0.9988889 0.0077730 0.0011111 -0.0077730
404500000 0.0011057 -0.0071083 0.9988943 0.0071083 0.9988943 0.0071083 0.0011057 -0.0071083
411750000 0.0011015 -0.0064574 0.9988985 0.0064574 0.9988985 0.0064574 0.0011015 -0.0064574
419000000 0.0010983 -0.0058196 0.9989017 0.0058196 0.9989017 0.0058196 0.0010983 -0.0058196
426250000 0.0010963 -0.0051943 0.9989037 0.0051943 0.9989037 0.0051943 0.0010963 -0.0051943
433500000 0.0010952 -0.0045809 0.9989048 0.0045809 0.9989048 0.0045809 0.0010952 -0.0045809
440750000 0.0010950 -0.0039787 0.9989050 0.0039787 0.9989050 0.0039787 0.0010950 -0.0039787
448000000 0.0010958 -0.0033872 0.9989042 0.0033872 0.9989042 0.0033872 0.0010958 -0.0033872
455250000 0.0010974 -0.0028058 0.9989026 0.0028058 0.9989026 0.0028058 0.0010974 -0.0028058
462500000 0.0010999 -0.0022341 0.9989001 0.0022341 0.9989001 0.0022341 0.0010999 -0.0022341
469750000 0.0011031 -0.0016716 0.9988969 0.0016716 0.9988969 0.0016716 0.0011031 -0.0016716
477000000 0.0011071 -0.0011179 0.9988929 0.0011179 0.9988929 0.0011179 0.0011071 -0.0011179
484250000 0.0011119 -0.0005726 0.9988881 0.0005726 0.9988881 0.0005726 0.0011119 -0.0005726
491500000 0.0011174 -0.0000353 0.9988826 0.0000353 0.9988826 0.0000353 0.0011174 -0.0000353
498750000 0.0011235 0.0004944 0.9988765 -0.0004944 0.9988765 -0.0004944 0.0011235 0.0004944
506000000 0.0011304 0.0010167 0.9988696 -0.0010167 0.9988696 -0.0010167 0.0011304 0.0010167
513250000 0.0011378 0.0015321 0.9988622 -0.0015321 0.9988622 -0.0015321 0.0011378 0.0015321
520500000 0.0011459 0.0020408 0.9988541 -0.0020408 0.9988541 -0.0020408 0.0011459 0.0020408
527750000 0.0011546 0.0025431 0.9988454 -0.0025431 0.9988454 -0.0025431 0.0011546 0.0025431
535000000 0.0011639 0.0030393 0.9988361 -0.0030393 0.9988361 -0.0030393 0.0011639 0.0030393
542250000 0.0011738 0.0035297 0.9988262 -0.0035297 0.9988262 -0.0035297 0.0011738 0.0035297
549500000 0.0011843 0.0040144 0.9988157 -0.0040144 0.9988157 -0.0040144 0.0011843 0.0040144
556750000 0.0011953 0.0044937 0.9988047 -0.0044937 0.9988047 -0.0044937 0.0011953 0.0044937
564000000 0.0012069 0.0049679 0.9987931 -0.0049679 0.9987931 -0.0049679 0.0012069 0.0049679
571250000 0.0012190 0.0054371 0.9987810 -0.0054371 0.9987810 -0.0054371 0.0012190 0.0054371
578500000 0.0012316 0.0059016 0.9987684 -0.0059016 0.9987684 -0.0059016 0.0012316 0.0059016
585750000 0.0012447 0.0063614 0.9987553 -0.0063614 0.9987553 -0.0063614 0.0012447 0.0063614
593000000 0.0012584 0.0068169 0.9987416 -0.0068169 0.9987416 -0.0068169 0.0012584 0.0068169
600250000 0.0012725 0.0072682 0.9987275 -0.0072682 0.9987275 -0.0072682 0.0012725 0.0072682
607500000 0.0012872 0.0077154 0.9987128 -0.0077154 0.9987128 -0.0077154 0.0012872 0.0077154
614750000 0.0013023 0.0081587 0.9986977 -0.0081587 0.9986977 -0.0081587 0.0013023 0.0081587
622000000 0.0013180 0.0085983 0.9986820 -0.0085983 0.9986820 -0.0085983 0.0013180 0.0085983
629250000 0.0013341 0.0090343 0.9986659 -0.0090343 0.9986659 -0.0090343 0.0013341 0.0090343
636500000 0.0013507 0.0094668 0.9986493 -0.0094668 0.9986493 -0.0094668 0.0013507 0.0094668
643750000 0.0013678 0.0098960 0.9986322 -0.0098960 0.9986322 -0.0098960 0.0013678 0.0098960
651000000 0.0013853 0.0103220 0.9986147 -0.0103220 0.9986147 -0.0103220 0.0013853 0.0103220
658250000 0.0014034 0.0107449 0.9985966 -0.0107449 0.9985966 -0.0107449 0.0014034 0.0107449
665500000 0.0014219 0.0111648 0.9985781 -0.0111648 0.9985781 -0.0111648 0.0014219 0.0111648
672750000 0.0014409 0.0115818 0.9985591 -0.0115818 0.9985591 -0.0115818 0.0014409 0.0115818
680000000 0.0014604 0.0119961 0.9985396 -0.0119961 0.9985396 -0.0119961 0.0014604 0.0119961
687250000 0.0014803 0.0124078 0.9985197 -0.0124078 0.9985197 -0.0124078 0.0014803 0.0124078
694500000 0.0015007 0.0128169 0.9984993 -0.0128169 0.9984993 -0.0128169 0.0015007 0.0128169
701750000 0.0015216 0.0132236 0.9984784 -0.0132236 0.9984784 -0.0132236 0.0015216 0.0132236
709000000 0.0015430 0.0136279 0.9984570 -0.0136279 0.9984570 -0.0136279 0.0015430 0.0136279
716250000 0.0015649 0.0140299 0.9984351 -0.0140299 0.9984351 -0.0140299 0.0015649 0.0140299
723500000 0.0015872 0.0144297 0.9984128 -0.0144297 0.9984128 -0.0144297 0.0015872 0.0144297
730750000 0.0016101 0.0148274 0.9983899 -0.0148274 0.9983899 -0.0148274 0.0016101 0.0148274
738000000 0.0016334 0.0152232 0.9983666 -0.0152232 0.9983666 -0.0152232 0.0016334 0.0152232
745250000 0.0016573 0.0156169 0.9983427 -0.0156169 0.9983427 -0.0156169 0.0016573 0.0156169
752500000 0.0016816 0.0160088 0.9983184 -0.0160088 0.9983184 -0.0160088 0.0016816 0.0160088
759750000 0.0017065 0.0163989 0.9982935 -0.0163989 0.9982935 -0.0163989 0.0017065 0.0163989
767000000 0.0017318 0.0167873 0.9982682 -0.0167873 0.9982682 -0.0167873 0.0017318 0.0167873
774250000 0.0017577 0.0171740 0.9982423 -0.0171740 0.9982423 -0.0171740 0.0017577 0.0171740
781500000 0.0017842 0.0175591 0.9982158 -0.0175591 0.9982158 -0.0175591 0.0017842 0.0175591
788750000 0.0018111 0.0179427 0.9981889 -0.0179427 0.9981889 -0.0179427 0.0018111 0.0179427
796000000 0.0018387 0.0183248 0.9981613 -0.0183248 0.9981613 -0.0183248 0.0018387 0.0183248
803250000 0.0018668 0.0187055 0.9981332 -0.0187055 0.9981332 -0.0187055 0.0018668 0.0187055
810500000 0.0018954 0.0190849 0.9981046 -0.0190849 0.9981046 -0.0190849 0.0018954 0.0190849
817750000 0.0019247 0.0194630 0.9980753 -0.0194630 0.9980753 -0.0194630 0.0019247 0.0194630
825000000 0.0019545 0.0198398 0.9980455 -0.0198398 0.9980455 -0.0198398 0.0019545 0.0198398
832250000 0.0019849 0.0202155 0.9980151 -0.0202155 0.9980151 -0.0202155 0.0019849 0.0202155
839500000 0.0020160 0.0205901 0.9979840 -0.0205901 0.9979840 -0.0205901 0.0020160 0.0205901
846750000 0.0020477 0.0209636 0.9979523 -0.0209636 0.9979523 -0.0209636 0.0020477 0.0209636
854000000 0.0020801 0.0213361 0.9979199 -0.0213361 0.9979199 -0.0213361 0.0020801 0.0213361
861250000 0.0021131 0.0217077 0.9978869 -0.0217077 0.9978869 -0.0217077 0.0021131 0.0217077
868500000 0.0021468 0.0220783 0.9978532 -0.0220783 0.9978532 -0.0220783 0.0021468 0.0220783
875750000 0.0021813 0.0224481 0.9978187 -0.0224481 0.9978187 -0.0224481 0.0021813 0.0224481
883000000 0.0022164 0.0228171 0.9977836 -0.0228171 0.9977836 -0.0228171 0.0022164 0.0228171
890250000 0.0022523 0.0231853 0.9977477 -0.0231853 0.9977477 -0.0231853 0.0022523 0.0231853
897500000 0.0022890 0.0235528 0.9977110 -0.0235528 0.9977110 -0.0235528 0.0022890 0.0235528
904750000 0.0023265 0.0239197 0.9976735 -0.0239197 0.9976735 -0.0239197 0.0023265 0.0239197
912000000 0.0023648 0.0242859 0.9976352 -0.0242859 0.9976352 -0.0242859 0.0023648 0.0242859
919250000 0.0024040 0.0246515 0.9975960 -0.0246515 0.9975960 -0.0246515 0.0024040 0.0246515
926500000 0.0024441 0.0250166 0.9975559 -0.0250166 0.9975559 -0.0250166 0.0024441 0.0250166
933750000 0.0024851 0.0253812 0.9975149 -0.0253812 0.9975149 -0.0253812 0.0024851 0.0253812
941000000 0.0025271 0.0257454 0.9974729 -0.0257454 0.9974729 -0.0257454 0.0025271 0.0257454
948250000 0.0025700 0.0261092 0.9974300 -0.0261092 0.9974300 -0.0261092 0.0025700 0.0261092
955500000 0.0026141 0.0264727 0.9973859 -0.0264727 0.9973859 -0.0264727 0.0026141 0.0264727
962750000 0.0026592 0.0268358 0.9973408 -0.0268358 0.9973408 -0.0268358 0.0026592 0.0268358
970000000 0.0027054 0.0271986 0.9972946 -0.0271986 0.9972946 -0.0271986 0.0027054 0.0271986
977250000 0.0027528 0.0275612 0.9972472 -0.0275612 0.9972472 -0.0275612 0.0027528 0.0275612
984500000 0.0028015 0.0279236 0.9971985 -0.0279236 0.9971985 -0.0279236 0.0028015 0.0279236
991750000 0.0028515 0.0282859 0.9971485 -0.0282859 0.9971485 -0.0282859 0.0028515 0.0282859
999000000 0.0029028 0.0286481 0.9970972 -0.0286481 0.9970972 -0.0286481 0.0029028 0.0286481
1006250000 0.0029556 0.0290101 0.9970444 -0.0290101 0.9970444 -0.0290101 0.0029556 0.0290101
1013500000 0.0030099 0.0293722 0.9969901 -0.0293722 0.9969901 -0.0293722 0.0030099 0.0293722
1020750000 0.0030658 0.0297342 0.9969342 -0.0297342 0.9969342 -0.0297342 0.0030658 0.0297342
1028000000 0.0031234 0.0300962 0.9968766 -0.0300962 0.9968766 -0.0300962 0.0031234 0.0300962
1035250000 0.0031828 0.0304583 0.9968172 -0.0304583 0.9968172 -0.0304583 0.0031828 0.0304583
1042500000 0.0032440 0.0308204 0.9967560 -0.0308204 0.9967560 -0.0308204 0.0032440 0.0308204
1049750000 0.0033073 0.0311827 0.9966927 -0.0311827 0.9966927 -0.0311827 0.0033073 0.0311827
1057000000 0.0033726 0.0315450 0.9966274 -0.0315450 0.9966274 -0.0315450 0.0033726 0.0315450
1064250000 0.0034402 0.0319075 0.9965598 -0.0319075 0.9965598 -0.0319075 0.0034402 0.0319075
1071500000 0.0035102 0.0322701 0.9964898 -0.0322701 0.9964898 -0.0322701 0.0035102 0.0322701
1078750000 0.0035827 0.0326328 0.9964173 -0.0326328 0.9964173 -0.0326328 0.0035827 0.0326328
1086000000 0.0036579 0.0329957 0.9963421 -0.0329957 0.9963421 -0.0329957 0.0036579 0.0329957
1093250000 0.0037359 0.0333587 0.9962641 -0.0333587 0.9962641 -0.0333587 0.0037359 0.0333587
1100500000 0.0038170 0.0337217 0.9961830 -0.0337217 0.9961830 -0.0337217 0.0038170 0.0337217
1107750000 0.0039014 0.0340848 0.9960986 -0.0340848 0.9960986 -0.0340848 0.0039014 0.0340848
1115000000 0.0039893 0.0344479 0.9960107 -0.0344479 0.9960107 -0.0344479 0.0039893 0.0344479
1122250000 0.0040809 0.0348108 0.9959191 -0.0348108 0.9959191 -0.0348108 0.0040809 0.0348108
1129500000 0.0041765 0.0351736 0.9958235 -0.0351736 0.9958235 -0.0351736 0.0041765 0.0351736
1136750000 0.0042763 0.0355360 0.9957237 -0.0355360 0.9957237 -0.0355360 0.0042763 0.0355360
1144000000 0.0043807 0.0358979 0.9956193 -0.0358979 0.9956193 -0.0358979 0.0043807 0.0358979
1151250000 0.0044899 0.0362591 0.9955101 -0.0362591 0.9955101 -0.0362591 0.0044899 0.0362591
1158500000 0.0046043 0.0366194 0.9953957 -0.0366194 0.9953957 -0.0366194 0.0046043 0.0366194
1165750000 0.0047243 0.0369785 0.9952757 -0.0369785 0.9952757 -0.0369785 0.0047243 0.0369785
1173000000 0.0048501 0.0373361 0.9951499 -0.0373361 0.9951499 -0.0373361 0.0048501 0.0373361
1180250000 0.0049822 0.0376917 0.9950178 -0.0376917 0.9950178 -0.0376917 0.0049822 0.0376917
1187500000 0.0051208 0.0380448 0.9948792 -0.0380448 0.9948792 -0.0380448 0.0051208 0.0380448
1194750000 0.0052665 0.0383948 0.9947335 -0.0383948 0.9947335 -0.0383948 0.0052665 0.0383948
1202000000 0.0054194 0.0387412 0.9945806 -0.0387412 0.9945806 -0.0387412 0.0054194 0.0387412
1209250000 0.0055800 0.0390831 0.9944200 -0.0390831 0.9944200 -0.0390831 0.0055800 0.0390831
1216500000 0.0057485 0.0394195 0.9942515 -0.0394195 0.9942515 -0.0394195 0.0057485 0.0394195
1223750000 0.0059251 0.0397495 0.9940749 -0.0397495 0.9940749 -0.0397495 0.0059251 0.0397495
1231000000 0.0061098 0.0400719 0.9938902 -0.0400719 0.9938902 -0.0400719 0.0061098 0.0400719
1238250000 0.0063027 0.0403854 0.9936973 -0.0403854 0.9936973 -0.0403854 0.0063027 0.0403854
1245500000 0.0065034 0.0406884 0.9934966 -0.0406884 0.9934966 -0.0406884 0.0065034 0.0406884
1252750000 0.0067116 0.0409794 0.9932884 -0.0409794 0.9932884 -0.0409794 0.0067116 0.0409794
1260000000 0.0069265 0.0412568 0.9930735 -0.0412568 0.9930735 -0.0412568 0.0069265 0.0412568
1267250000 0.0071469 0.0415187 0.9928531 -0.0415187 0.9928531 -0.0415187 0.0071469 0.0415187
1274500000 0.0073715 0.0417634 0.9926285 -0.0417634 0.9926285 -0.0417634 0.0073715 0.0417634
1281750000 0.0075982 0.0419893 0.9924018 -0.0419893 0.9924018 -0.0419893 0.0075982 0.0419893
1289000000 0.0078247 0.0421949 0.9921753 -0.0421949 0.9921753 -0.0421949 0.0078247 0.0421949
1296250000 0.0080481 0.0423791 0.9919519 -0.0423791 0.9919519 -0.0423791 0.0080481 0.0423791
1303500000 0.0082651 0.0425412 0.9917349 -0.0425412 0.9917349 -0.0425412 0.0082651 0.0425412
1310750000 0.0084720 0.0426811 0.9915280 -0.0426811 0.9915280 -0.0426811 0.0084720 0.0426811
1318000000 0.0086649 0.0427996 0.9913351 -0.0427996 0.9913351 -0.0427996 0.0086649 0.0427996
1325250000 0.0088399 0.0428984 0.9911601 -0.0428984 0.9911601 -0.0428984 0.0088399 0.0428984
1332500000 0.0089933 0.0429798 0.9910067 -0.0429798 0.9910067 -0.0429798 0.0089933 0.0429798
1339750000 0.0091218 0.0430474 0.9908782 -0.0430474 0.9908782 -0.0430474 0.0091218 0.0430474
1347000000 0.0092228 0.0431052 0.9907772 -0.0431052 0.9907772 -0.0431052 0.0092228 0.0431052
1354250000 0.0092949 0.0431580 0.9907051 -0.0431580 0.9907051 -0.0431580 0.0092949 0.0431580
1361500000 0.0093374 0.0432109 0.9906626 -0.0432109 0.9906626 -0.0432109 0.0093374 0.0432109
1368750000 0.0093508 0.0432688 0.9906492 -0.0432688 0.9906492 -0.0432688 0.0093508 0.0432688
1376000000 0.0093370 0.0433364 0.9906630 -0.0433364 0.9906630 -0.0433364 0.0093370 0.0433364
1383250000 0.0092984 0.0434180 0.9907016 -0.0434180 0.9907016 -0.0434180 0.0092984 0.0434180
1390500000 0.0092384 0.0435169 0.9907616 -0.0435169 0.9907616 -0.0435169 0.0092384 0.0435169
1397750000 0.0091607 0.0436355 0.9908393 -0.0436355 0.9908393 -0.0436355 0.0091607 0.0436355
1405000000 0.0090692 0.0437755 0.9909308 -0.0437755 0.9909308 -0.0437755 0.0090692 0.0437755
1412250000 0.0089679 0.0439375 0.9910321 -0.0439375 0.9910321 -0.0439375 0.0089679 0.0439375
1419500000 0.0088603 0.0441214 0.9911397 -0.0441214 0.9911397 -0.0441214 0.0088603 0.0441214
1426750000 0.0087499 0.0443267 0.9912501 -0.0443267 0.9912501 -0.0443267 0.0087499 0.0443267
1434000000 0.0086394 0.0445521 0.9913606 -0.0445521 0.9913606 -0.0445521 0.0086394 0.0445521
1441250000 0.0085314 0.0447963 0.9914686 -0.0447963 0.9914686 -0.0447963 0.0085314 0.0447963
1448500000 0.0084277 0.0450575 0.9915723 -0.0450575 0.9915723 -0.0450575 0.0084277 0.0450575
1455750000 0.0083298 0.0453341 0.9916702 -0.0453341 0.9916702 -0.0453341 0.0083298 0.0453341
1463000000 0.0082389 0.0456243 0.9917611 -0.0456243 0.9917611 -0.0456243 0.0082389 0.0456243
1470250000 0.0081556 0.0459264 0.9918444 -0.0459264 0.9918444 -0.0459264 0.0081556 0.0459264
1477500000 0.0080806 0.0462389 0.9919194 -0.0462389 0.9919194 -0.0462389 0.0080806 0.0462389
1484750000 0.0080141 0.0465603 0.9919859 -0.0465603 0.9919859 -0.0465603 0.0080141 0.0465603
1492000000 0.0079561 0.0468892 0.9920439 -0.0468892 0.9920439 -0.0468892 0.0079561 0.0468892
1499250000 0.0079066 0.0472246 0.9920934 -0.0472246 0.9920934 -0.0472246 0.0079066 0.0472246
1506500000 0.0078654 0.0475653 0.9921346 -0.0475653 0.9921346 -0.0475653 0.0078654 0.0475653
1513750000 0.0078324 0.0479105 0.9921676 -0.0479105 0.9921676 -0.0479105 0.0078324 0.0479105
1521000000 0.0078072 0.0482594 0.9921928 -0.0482594 0.9921928 -0.0482594 0.0078072 0.0482594
1528250000 0.0077895 0.0486112 0.9922105 -0.0486112 0.9922105 -0.0486112 0.0077895 0.0486112
1535500000 0.0077791 0.0489654 0.9922209 -0.0489654 0.9922209 -0.0489654 0.0077791 0.0489654
1542750000 0.0077755 0.0493216 0.9922245 -0.0493216 0.9922245 -0.0493216 0.0077755 0.0493216
1550000000 0.0077785 0.0496792 0.9922215 -0.0496792 0.9922215 -0.0496792 0.0077785 0.0496792
1557250000 0.0077878 0.0500379 0.9922122 -0.0500379 0.9922122 -0.0500379 0.0077878 0.0500379
1564500000 0.0078030 0.0503975 0.9921970 -0.0503975 0.9921970 -0.0503975 0.0078030 0.0503975
1571750000 0.0078238 0.0507576 0.9921762 -0.0507576 0.9921762 -0.0507576 0.0078238 0.0507576
1579000000 0.0078501 0.0511180 0.9921499 -0.0511180 0.9921499 -0.0511180 0.0078501 0.0511180
1586250000 0.0078814 0.0514787 0.9921186 -0.0514787 0.9921186 -0.0514787 0.0078814 0.0514787
1593500000 0.0079177 0.0518393 0.9920823 -0.0518393 0.9920823 -0.0518393 0.0079177 0.0518393
1600750000 0.0079587 0.0521999 0.9920413 -0.0521999 0.9920413 -0.0521999 0.0079587 0.0521999
1608000000 0.0080042 0.0525603 0.9919958 -0.0525603 0.9919958 -0.0525603 0.0080042 0.0525603
1615250000 0.0080539 0.0529203 0.9919461 -0.0529203 0.9919461 -0.0529203 0.0080539 0.0529203
1622500000 0.0081079 0.0532801 0.9918921 -0.0532801 0.9918921 -0.0532801 0.0081079 0.0532801
1629750000 0.0081658 0.0536394 0.9918342 -0.0536394 0.9918342 -0.0536394 0.0081658 0.0536394
