!Murata Part Number: GRM2197U1H273JA01
!These Parameters are Measured in Series Mode Connection
!Data Generated on Mar 30, 2021
!       o--ll--o
!Port1            Port2
!       o------o
!Operation Temp=25[degC], DC Bias Voltage=0[V]
!Freq. Start=1000[kHz] Stop=6[GHz] 401[Steps]
# Hz S RI R 50
!Freq.(Hz) S11(Real) S11(Imag) S21(Real) S21(Imag) S12(Real) S12(Imag) S22(Real) S22(Imag)
1000000 0.0036242 -0.0596170 0.9963758 0.0596170 0.9963758 0.0596170 0.0036242 -0.0596170
1021987 0.0034728 -0.0583416 0.9965272 0.0583416 0.9965272 0.0583416 0.0034728 -0.0583416
1044457 0.0033277 -0.0570930 0.9966723 0.0570930 0.9966723 0.0570930 0.0033277 -0.0570930
1067422 0.0031887 -0.0558708 0.9968113 0.0558708 0.9968113 0.0558708 0.0031887 -0.0558708
1090891 0.0030557 -0.0546743 0.9969443 0.0546743 0.9969443 0.0546743 0.0030557 -0.0546743
1114877 0.0029283 -0.0535031 0.9970717 0.0535031 0.9970717 0.0535031 0.0029283 -0.0535031
1139390 0.0028063 -0.0523565 0.9971937 0.0523565 0.9971937 0.0523565 0.0028063 -0.0523565
1164441 0.0026894 -0.0512342 0.9973106 0.0512342 0.9973106 0.0512342 0.0026894 -0.0512342
1190044 0.0025775 -0.0501357 0.9974225 0.0501357 0.9974225 0.0501357 0.0025775 -0.0501357
1216210 0.0024703 -0.0490603 0.9975297 0.0490603 0.9975297 0.0490603 0.0024703 -0.0490603
1242950 0.0023677 -0.0480078 0.9976323 0.0480078 0.9976323 0.0480078 0.0023677 -0.0480078
1270279 0.0022695 -0.0469775 0.9977305 0.0469775 0.9977305 0.0469775 0.0022695 -0.0469775
1298209 0.0021754 -0.0459690 0.9978246 0.0459690 0.9978246 0.0459690 0.0021754 -0.0459690
1326753 0.0020853 -0.0449819 0.9979147 0.0449819 0.9979147 0.0449819 0.0020853 -0.0449819
1355924 0.0019990 -0.0440158 0.9980010 0.0440158 0.9980010 0.0440158 0.0019990 -0.0440158
1385737 0.0019164 -0.0430702 0.9980836 0.0430702 0.9980836 0.0430702 0.0019164 -0.0430702
1416205 0.0018373 -0.0421446 0.9981627 0.0421446 0.9981627 0.0421446 0.0018373 -0.0421446
1447343 0.0017615 -0.0412386 0.9982385 0.0412386 0.9982385 0.0412386 0.0017615 -0.0412386
1479166 0.0016890 -0.0403520 0.9983110 0.0403520 0.9983110 0.0403520 0.0016890 -0.0403520
1511688 0.0016196 -0.0394841 0.9983804 0.0394841 0.9983804 0.0394841 0.0016196 -0.0394841
1544926 0.0015531 -0.0386347 0.9984469 0.0386347 0.9984469 0.0386347 0.0015531 -0.0386347
1578894 0.0014894 -0.0378034 0.9985106 0.0378034 0.9985106 0.0378034 0.0014894 -0.0378034
1613609 0.0014285 -0.0369897 0.9985715 0.0369897 0.9985715 0.0369897 0.0014285 -0.0369897
1649087 0.0013701 -0.0361933 0.9986299 0.0361933 0.9986299 0.0361933 0.0013701 -0.0361933
1685346 0.0013142 -0.0354139 0.9986858 0.0354139 0.9986858 0.0354139 0.0013142 -0.0354139
1722402 0.0012607 -0.0346511 0.9987393 0.0346511 0.9987393 0.0346511 0.0012607 -0.0346511
1760272 0.0012095 -0.0339045 0.9987905 0.0339045 0.9987905 0.0339045 0.0012095 -0.0339045
1798975 0.0011605 -0.0331738 0.9988395 0.0331738 0.9988395 0.0331738 0.0011605 -0.0331738
1838529 0.0011135 -0.0324586 0.9988865 0.0324586 0.9988865 0.0324586 0.0011135 -0.0324586
1878953 0.0010686 -0.0317587 0.9989314 0.0317587 0.9989314 0.0317587 0.0010686 -0.0317587
1920266 0.0010256 -0.0310737 0.9989744 0.0310737 0.9989744 0.0310737 0.0010256 -0.0310737
1962487 0.0009844 -0.0304032 0.9990156 0.0304032 0.9990156 0.0304032 0.0009844 -0.0304032
2005636 0.0009450 -0.0297470 0.9990550 0.0297470 0.9990550 0.0297470 0.0009450 -0.0297470
2049734 0.0009072 -0.0291048 0.9990928 0.0291048 0.9990928 0.0291048 0.0009072 -0.0291048
2094801 0.0008711 -0.0284763 0.9991289 0.0284763 0.9991289 0.0284763 0.0008711 -0.0284763
2140860 0.0008365 -0.0278612 0.9991635 0.0278612 0.9991635 0.0278612 0.0008365 -0.0278612
2187931 0.0008034 -0.0272592 0.9991966 0.0272592 0.9991966 0.0272592 0.0008034 -0.0272592
2236037 0.0007717 -0.0266699 0.9992283 0.0266699 0.9992283 0.0266699 0.0007717 -0.0266699
2285201 0.0007414 -0.0260933 0.9992586 0.0260933 0.9992586 0.0260933 0.0007414 -0.0260933
2335446 0.0007124 -0.0255289 0.9992876 0.0255289 0.9992876 0.0255289 0.0007124 -0.0255289
2386795 0.0006846 -0.0249765 0.9993154 0.0249765 0.9993154 0.0249765 0.0006846 -0.0249765
2439274 0.0006580 -0.0244359 0.9993420 0.0244359 0.9993420 0.0244359 0.0006580 -0.0244359
2492906 0.0006326 -0.0239068 0.9993674 0.0239068 0.9993674 0.0239068 0.0006326 -0.0239068
2547717 0.0006082 -0.0233889 0.9993918 0.0233889 0.9993918 0.0233889 0.0006082 -0.0233889
2603734 0.0005849 -0.0228821 0.9994151 0.0228821 0.9994151 0.0228821 0.0005849 -0.0228821
2660982 0.0005626 -0.0223861 0.9994374 0.0223861 0.9994374 0.0223861 0.0005626 -0.0223861
2719490 0.0005413 -0.0219006 0.9994587 0.0219006 0.9994587 0.0219006 0.0005413 -0.0219006
2779283 0.0005209 -0.0214254 0.9994791 0.0214254 0.9994791 0.0214254 0.0005209 -0.0214254
2840391 0.0005014 -0.0209603 0.9994986 0.0209603 0.9994986 0.0209603 0.0005014 -0.0209603
2902843 0.0004827 -0.0205051 0.9995173 0.0205051 0.9995173 0.0205051 0.0004827 -0.0205051
2966668 0.0004648 -0.0200596 0.9995352 0.0200596 0.9995352 0.0200596 0.0004648 -0.0200596
3031896 0.0004478 -0.0196236 0.9995522 0.0196236 0.9995522 0.0196236 0.0004478 -0.0196236
3098558 0.0004314 -0.0191968 0.9995686 0.0191968 0.9995686 0.0191968 0.0004314 -0.0191968
3166686 0.0004158 -0.0187790 0.9995842 0.0187790 0.9995842 0.0187790 0.0004158 -0.0187790
3236312 0.0004009 -0.0183702 0.9995991 0.0183702 0.9995991 0.0183702 0.0004009 -0.0183702
3307469 0.0003866 -0.0179700 0.9996134 0.0179700 0.9996134 0.0179700 0.0003866 -0.0179700
3380190 0.0003729 -0.0175783 0.9996271 0.0175783 0.9996271 0.0175783 0.0003729 -0.0175783
3454511 0.0003599 -0.0171948 0.9996401 0.0171948 0.9996401 0.0171948 0.0003599 -0.0171948
3530465 0.0003474 -0.0168196 0.9996526 0.0168196 0.9996526 0.0168196 0.0003474 -0.0168196
3608090 0.0003355 -0.0164522 0.9996645 0.0164522 0.9996645 0.0164522 0.0003355 -0.0164522
3687421 0.0003241 -0.0160927 0.9996759 0.0160927 0.9996759 0.0160927 0.0003241 -0.0160927
3768496 0.0003132 -0.0157407 0.9996868 0.0157407 0.9996868 0.0157407 0.0003132 -0.0157407
3851354 0.0003028 -0.0153962 0.9996972 0.0153962 0.9996972 0.0153962 0.0003028 -0.0153962
3936034 0.0002929 -0.0150589 0.9997071 0.0150589 0.9997071 0.0150589 0.0002929 -0.0150589
4022575 0.0002834 -0.0147288 0.9997166 0.0147288 0.9997166 0.0147288 0.0002834 -0.0147288
4111020 0.0002743 -0.0144057 0.9997257 0.0144057 0.9997257 0.0144057 0.0002743 -0.0144057
4201409 0.0002657 -0.0140893 0.9997343 0.0140893 0.9997343 0.0140893 0.0002657 -0.0140893
4293785 0.0002574 -0.0137797 0.9997426 0.0137797 0.9997426 0.0137797 0.0002574 -0.0137797
4388193 0.0002496 -0.0134765 0.9997504 0.0134765 0.9997504 0.0134765 0.0002496 -0.0134765
4484676 0.0002421 -0.0131797 0.9997579 0.0131797 0.9997579 0.0131797 0.0002421 -0.0131797
4583281 0.0002349 -0.0128892 0.9997651 0.0128892 0.9997651 0.0128892 0.0002349 -0.0128892
4684054 0.0002281 -0.0126048 0.9997719 0.0126048 0.9997719 0.0126048 0.0002281 -0.0126048
4787042 0.0002216 -0.0123263 0.9997784 0.0123263 0.9997784 0.0123263 0.0002216 -0.0123263
4892295 0.0002154 -0.0120537 0.9997846 0.0120537 0.9997846 0.0120537 0.0002154 -0.0120537
4999862 0.0002095 -0.0117868 0.9997905 0.0117868 0.9997905 0.0117868 0.0002095 -0.0117868
5109794 0.0002039 -0.0115254 0.9997961 0.0115254 0.9997961 0.0115254 0.0002039 -0.0115254
5222143 0.0001985 -0.0112696 0.9998015 0.0112696 0.9998015 0.0112696 0.0001985 -0.0112696
5336962 0.0001934 -0.0110191 0.9998066 0.0110191 0.9998066 0.0110191 0.0001934 -0.0110191
5454306 0.0001886 -0.0107738 0.9998114 0.0107738 0.9998114 0.0107738 0.0001886 -0.0107738
5574230 0.0001840 -0.0105336 0.9998160 0.0105336 0.9998160 0.0105336 0.0001840 -0.0105336
5696791 0.0001796 -0.0102984 0.9998204 0.0102984 0.9998204 0.0102984 0.0001796 -0.0102984
5822046 0.0001755 -0.0100681 0.9998245 0.0100681 0.9998245 0.0100681 0.0001755 -0.0100681
5950055 0.0001715 -0.0098426 0.9998285 0.0098426 0.9998285 0.0098426 0.0001715 -0.0098426
6080879 0.0001678 -0.0096217 0.9998322 0.0096217 0.9998322 0.0096217 0.0001678 -0.0096217
6214580 0.0001643 -0.0094055 0.9998357 0.0094055 0.9998357 0.0094055 0.0001643 -0.0094055
6351220 0.0001609 -0.0091936 0.9998391 0.0091936 0.9998391 0.0091936 0.0001609 -0.0091936
6490864 0.0001577 -0.0089862 0.9998423 0.0089862 0.9998423 0.0089862 0.0001577 -0.0089862
6633579 0.0001547 -0.0087830 0.9998453 0.0087830 0.9998453 0.0087830 0.0001547 -0.0087830
6779431 0.0001519 -0.0085840 0.9998481 0.0085840 0.9998481 0.0085840 0.0001519 -0.0085840
6928491 0.0001492 -0.0083891 0.9998508 0.0083891 0.9998508 0.0083891 0.0001492 -0.0083891
7080828 0.0001466 -0.0081982 0.9998534 0.0081982 0.9998534 0.0081982 0.0001466 -0.0081982
7236514 0.0001442 -0.0080112 0.9998558 0.0080112 0.9998558 0.0080112 0.0001442 -0.0080112
7395623 0.0001420 -0.0078279 0.9998580 0.0078279 0.9998580 0.0078279 0.0001420 -0.0078279
7558231 0.0001398 -0.0076484 0.9998602 0.0076484 0.9998602 0.0076484 0.0001398 -0.0076484
7724414 0.0001378 -0.0074726 0.9998622 0.0074726 0.9998622 0.0074726 0.0001378 -0.0074726
7894251 0.0001359 -0.0073003 0.9998641 0.0073003 0.9998641 0.0073003 0.0001359 -0.0073003
8067822 0.0001342 -0.0071315 0.9998658 0.0071315 0.9998658 0.0071315 0.0001342 -0.0071315
8245209 0.0001325 -0.0069661 0.9998675 0.0069661 0.9998675 0.0069661 0.0001325 -0.0069661
8426497 0.0001309 -0.0068040 0.9998691 0.0068040 0.9998691 0.0068040 0.0001309 -0.0068040
8611770 0.0001295 -0.0066451 0.9998705 0.0066451 0.9998705 0.0066451 0.0001295 -0.0066451
8801117 0.0001281 -0.0064894 0.9998719 0.0064894 0.9998719 0.0064894 0.0001281 -0.0064894
8994628 0.0001268 -0.0063368 0.9998732 0.0063368 0.9998732 0.0063368 0.0001268 -0.0063368
9192393 0.0001257 -0.0061873 0.9998743 0.0061873 0.9998743 0.0061873 0.0001257 -0.0061873
9394506 0.0001246 -0.0060406 0.9998754 0.0060406 0.9998754 0.0060406 0.0001246 -0.0060406
9601063 0.0001235 -0.0058969 0.9998765 0.0058969 0.9998765 0.0058969 0.0001235 -0.0058969
9812162 0.0001226 -0.0057560 0.9998774 0.0057560 0.9998774 0.0057560 0.0001226 -0.0057560
10027902 0.0001217 -0.0056178 0.9998783 0.0056178 0.9998783 0.0056178 0.0001217 -0.0056178
10248386 0.0001209 -0.0054823 0.9998791 0.0054823 0.9998791 0.0054823 0.0001209 -0.0054823
10473717 0.0001202 -0.0053494 0.9998798 0.0053494 0.9998798 0.0053494 0.0001202 -0.0053494
10704003 0.0001195 -0.0052191 0.9998805 0.0052191 0.9998805 0.0052191 0.0001195 -0.0052191
10939352 0.0001189 -0.0050912 0.9998811 0.0050912 0.9998811 0.0050912 0.0001189 -0.0050912
11179876 0.0001184 -0.0049658 0.9998816 0.0049658 0.9998816 0.0049658 0.0001184 -0.0049658
11425688 0.0001179 -0.0048428 0.9998821 0.0048428 0.9998821 0.0048428 0.0001179 -0.0048428
11676904 0.0001174 -0.0047221 0.9998826 0.0047221 0.9998826 0.0047221 0.0001174 -0.0047221
11933645 0.0001170 -0.0046036 0.9998830 0.0046036 0.9998830 0.0046036 0.0001170 -0.0046036
12196030 0.0001167 -0.0044873 0.9998833 0.0044873 0.9998833 0.0044873 0.0001167 -0.0044873
12464184 0.0001164 -0.0043732 0.9998836 0.0043732 0.9998836 0.0043732 0.0001164 -0.0043732
12738235 0.0001161 -0.0042611 0.9998839 0.0042611 0.9998839 0.0042611 0.0001161 -0.0042611
13018310 0.0001159 -0.0041511 0.9998841 0.0041511 0.9998841 0.0041511 0.0001159 -0.0041511
13304544 0.0001157 -0.0040431 0.9998843 0.0040431 0.9998843 0.0040431 0.0001157 -0.0040431
13597071 0.0001156 -0.0039370 0.9998844 0.0039370 0.9998844 0.0039370 0.0001156 -0.0039370
13896030 0.0001155 -0.0038328 0.9998845 0.0038328 0.9998845 0.0038328 0.0001155 -0.0038328
14201563 0.0001154 -0.0037304 0.9998846 0.0037304 0.9998846 0.0037304 0.0001154 -0.0037304
14513813 0.0001154 -0.0036298 0.9998846 0.0036298 0.9998846 0.0036298 0.0001154 -0.0036298
14832928 0.0001154 -0.0035309 0.9998846 0.0035309 0.9998846 0.0035309 0.0001154 -0.0035309
15159060 0.0001154 -0.0034337 0.9998846 0.0034337 0.9998846 0.0034337 0.0001154 -0.0034337
15492362 0.0001155 -0.0033381 0.9998845 0.0033381 0.9998845 0.0033381 0.0001155 -0.0033381
15832993 0.0001156 -0.0032441 0.9998844 0.0032441 0.9998844 0.0032441 0.0001156 -0.0032441
16181113 0.0001157 -0.0031517 0.9998843 0.0031517 0.9998843 0.0031517 0.0001157 -0.0031517
16536888 0.0001159 -0.0030608 0.9998841 0.0030608 0.9998841 0.0030608 0.0001159 -0.0030608
16900485 0.0001161 -0.0029713 0.9998839 0.0029713 0.9998839 0.0029713 0.0001161 -0.0029713
17272076 0.0001163 -0.0028833 0.9998837 0.0028833 0.9998837 0.0028833 0.0001163 -0.0028833
17651837 0.0001165 -0.0027966 0.9998835 0.0027966 0.9998835 0.0027966 0.0001165 -0.0027966
18039948 0.0001168 -0.0027112 0.9998832 0.0027112 0.9998832 0.0027112 0.0001168 -0.0027112
18436593 0.0001171 -0.0026271 0.9998829 0.0026271 0.9998829 0.0026271 0.0001171 -0.0026271
18841959 0.0001175 -0.0025443 0.9998825 0.0025443 0.9998825 0.0025443 0.0001175 -0.0025443
19256237 0.0001178 -0.0024627 0.9998822 0.0024627 0.9998822 0.0024627 0.0001178 -0.0024627
19679624 0.0001182 -0.0023822 0.9998818 0.0023822 0.9998818 0.0023822 0.0001182 -0.0023822
20112321 0.0001187 -0.0023029 0.9998813 0.0023029 0.9998813 0.0023029 0.0001187 -0.0023029
20554530 0.0001191 -0.0022246 0.9998809 0.0022246 0.9998809 0.0022246 0.0001191 -0.0022246
21006463 0.0001196 -0.0021474 0.9998804 0.0021474 0.9998804 0.0021474 0.0001196 -0.0021474
21468333 0.0001201 -0.0020712 0.9998799 0.0020712 0.9998799 0.0020712 0.0001201 -0.0020712
21940357 0.0001207 -0.0019960 0.9998793 0.0019960 0.9998793 0.0019960 0.0001207 -0.0019960
22422760 0.0001212 -0.0019218 0.9998788 0.0019218 0.9998788 0.0019218 0.0001212 -0.0019218
22915770 0.0001219 -0.0018484 0.9998781 0.0018484 0.9998781 0.0018484 0.0001219 -0.0018484
23419619 0.0001225 -0.0017759 0.9998775 0.0017759 0.9998775 0.0017759 0.0001225 -0.0017759
23934547 0.0001232 -0.0017042 0.9998768 0.0017042 0.9998768 0.0017042 0.0001232 -0.0017042
24460796 0.0001239 -0.0016333 0.9998761 0.0016333 0.9998761 0.0016333 0.0001239 -0.0016333
24998616 0.0001247 -0.0015632 0.9998753 0.0015632 0.9998753 0.0015632 0.0001247 -0.0015632
25548261 0.0001255 -0.0014937 0.9998745 0.0014937 0.9998745 0.0014937 0.0001255 -0.0014937
26109991 0.0001263 -0.0014250 0.9998737 0.0014250 0.9998737 0.0014250 0.0001263 -0.0014250
26684072 0.0001272 -0.0013569 0.9998728 0.0013569 0.9998728 0.0013569 0.0001272 -0.0013569
27270775 0.0001281 -0.0012895 0.9998719 0.0012895 0.9998719 0.0012895 0.0001281 -0.0012895
27870378 0.0001291 -0.0012226 0.9998709 0.0012226 0.9998709 0.0012226 0.0001291 -0.0012226
28483164 0.0001302 -0.0011563 0.9998698 0.0011563 0.9998698 0.0011563 0.0001302 -0.0011563
29109424 0.0001312 -0.0010904 0.9998688 0.0010904 0.9998688 0.0010904 0.0001312 -0.0010904
29749453 0.0001324 -0.0010251 0.9998676 0.0010251 0.9998676 0.0010251 0.0001324 -0.0010251
30403555 0.0001336 -0.0009602 0.9998664 0.0009602 0.9998664 0.0009602 0.0001336 -0.0009602
31072038 0.0001348 -0.0008957 0.9998652 0.0008957 0.9998652 0.0008957 0.0001348 -0.0008957
31755220 0.0001362 -0.0008316 0.9998638 0.0008316 0.9998638 0.0008316 0.0001362 -0.0008316
32453422 0.0001375 -0.0007678 0.9998625 0.0007678 0.9998625 0.0007678 0.0001375 -0.0007678
33166976 0.0001390 -0.0007043 0.9998610 0.0007043 0.9998610 0.0007043 0.0001390 -0.0007043
33896219 0.0001405 -0.0006411 0.9998595 0.0006411 0.9998595 0.0006411 0.0001405 -0.0006411
34641496 0.0001422 -0.0005782 0.9998578 0.0005782 0.9998578 0.0005782 0.0001422 -0.0005782
35403159 0.0001439 -0.0005154 0.9998561 0.0005154 0.9998561 0.0005154 0.0001439 -0.0005154
36181569 0.0001457 -0.0004528 0.9998543 0.0004528 0.9998543 0.0004528 0.0001457 -0.0004528
36977093 0.0001475 -0.0003903 0.9998525 0.0003903 0.9998525 0.0003903 0.0001475 -0.0003903
37790109 0.0001495 -0.0003279 0.9998505 0.0003279 0.9998505 0.0003279 0.0001495 -0.0003279
38621001 0.0001516 -0.0002655 0.9998484 0.0002655 0.9998484 0.0002655 0.0001516 -0.0002655
39470161 0.0001538 -0.0002032 0.9998462 0.0002032 0.9998462 0.0002032 0.0001538 -0.0002032
40337993 0.0001562 -0.0001408 0.9998438 0.0001408 0.9998438 0.0001408 0.0001562 -0.0001408
41224905 0.0001587 -0.0000783 0.9998413 0.0000783 0.9998413 0.0000783 0.0001587 -0.0000783
42131317 0.0001613 -0.0000157 0.9998387 0.0000157 0.9998387 0.0000157 0.0001613 -0.0000157
43057659 0.0001641 0.0000470 0.9998359 -0.0000470 0.9998359 -0.0000470 0.0001641 0.0000470
44004369 0.0001670 0.0001100 0.9998330 -0.0001100 0.9998330 -0.0001100 0.0001670 0.0001100
44971893 0.0001701 0.0001732 0.9998299 -0.0001732 0.9998299 -0.0001732 0.0001701 0.0001732
45960691 0.0001734 0.0002368 0.9998266 -0.0002368 0.9998266 -0.0002368 0.0001734 0.0002368
46971230 0.0001770 0.0003007 0.9998230 -0.0003007 0.9998230 -0.0003007 0.0001770 0.0003007
48003987 0.0001807 0.0003651 0.9998193 -0.0003651 0.9998193 -0.0003651 0.0001807 0.0003651
49059451 0.0001848 0.0004299 0.9998152 -0.0004299 0.9998152 -0.0004299 0.0001848 0.0004299
50138122 0.0001891 0.0004953 0.9998109 -0.0004953 0.9998109 -0.0004953 0.0001891 0.0004953
51240510 0.0001937 0.0005614 0.9998063 -0.0005614 0.9998063 -0.0005614 0.0001937 0.0005614
52367136 0.0001986 0.0006281 0.9998014 -0.0006281 0.9998014 -0.0006281 0.0001986 0.0006281
53518533 0.0002040 0.0006957 0.9997960 -0.0006957 0.9997960 -0.0006957 0.0002040 0.0006957
54695245 0.0002098 0.0007641 0.9997902 -0.0007641 0.9997902 -0.0007641 0.0002098 0.0007641
55897831 0.0002161 0.0008336 0.9997839 -0.0008336 0.9997839 -0.0008336 0.0002161 0.0008336
57126857 0.0002229 0.0009042 0.9997771 -0.0009042 0.9997771 -0.0009042 0.0002229 0.0009042
58382906 0.0002304 0.0009760 0.9997696 -0.0009760 0.9997696 -0.0009760 0.0002304 0.0009760
59666572 0.0002387 0.0010492 0.9997613 -0.0010492 0.9997613 -0.0010492 0.0002387 0.0010492
60978462 0.0002478 0.0011241 0.9997522 -0.0011241 0.9997522 -0.0011241 0.0002478 0.0011241
62319196 0.0002580 0.0012007 0.9997420 -0.0012007 0.9997420 -0.0012007 0.0002580 0.0012007
63689409 0.0002695 0.0012794 0.9997305 -0.0012794 0.9997305 -0.0012794 0.0002695 0.0012794
65089750 0.0002826 0.0013604 0.9997174 -0.0013604 0.9997174 -0.0013604 0.0002826 0.0013604
66520879 0.0002976 0.0014440 0.9997024 -0.0014440 0.9997024 -0.0014440 0.0002976 0.0014440
67983474 0.0003151 0.0015307 0.9996849 -0.0015307 0.9996849 -0.0015307 0.0003151 0.0015307
69478228 0.0003358 0.0016209 0.9996642 -0.0016209 0.9996642 -0.0016209 0.0003358 0.0016209
71005847 0.0003607 0.0017152 0.9996393 -0.0017152 0.9996393 -0.0017152 0.0003607 0.0017152
72567054 0.0003914 0.0018141 0.9996086 -0.0018141 0.9996086 -0.0018141 0.0003914 0.0018141
74162587 0.0004300 0.0019181 0.9995700 -0.0019181 0.9995700 -0.0019181 0.0004300 0.0019181
75793201 0.0004798 0.0020276 0.9995202 -0.0020276 0.9995202 -0.0020276 0.0004798 0.0020276
77459667 0.0005462 0.0021420 0.9994538 -0.0021420 0.9994538 -0.0021420 0.0005462 0.0021420
79162774 0.0006368 0.0022585 0.9993632 -0.0022585 0.9993632 -0.0022585 0.0006368 0.0022585
80903327 0.0007628 0.0023685 0.9992372 -0.0023685 0.9992372 -0.0023685 0.0007628 0.0023685
82682150 0.0009357 0.0024506 0.9990643 -0.0024506 0.9990643 -0.0024506 0.0009357 0.0024506
84500083 0.0011535 0.0024612 0.9988465 -0.0024612 0.9988465 -0.0024612 0.0011535 0.0024612
86357988 0.0013631 0.0023462 0.9986369 -0.0023462 0.9986369 -0.0023462 0.0013631 0.0023462
88256743 0.0014476 0.0021199 0.9985524 -0.0021199 0.9985524 -0.0021199 0.0014476 0.0021199
90197245 0.0013509 0.0019195 0.9986491 -0.0019195 0.9986491 -0.0019195 0.0013509 0.0019195
92180413 0.0011664 0.0018530 0.9988336 -0.0018530 0.9988336 -0.0018530 0.0011664 0.0018530
94207185 0.0009992 0.0019027 0.9990008 -0.0019027 0.9990008 -0.0019027 0.0009992 0.0019027
96278520 0.0008833 0.0020127 0.9991167 -0.0020127 0.9991167 -0.0020127 0.0008833 0.0020127
98395398 0.0008147 0.0021462 0.9991853 -0.0021462 0.9991853 -0.0021462 0.0008147 0.0021462
100558819 0.0007820 0.0022867 0.9992180 -0.0022867 0.9992180 -0.0022867 0.0007820 0.0022867
102769807 0.0007762 0.0024276 0.9992238 -0.0024276 0.9992238 -0.0024276 0.0007762 0.0024276
105029408 0.0007920 0.0025666 0.9992080 -0.0025666 0.9992080 -0.0025666 0.0007920 0.0025666
107338692 0.0008266 0.0027028 0.9991734 -0.0027028 0.9991734 -0.0027028 0.0008266 0.0027028
