!Murata Part Number: GRM21B3U1H393JA01
!These Parameters are Measured in Series Mode Connection
!Data Generated on Mar 30, 2021
!       o--ll--o
!Port1            Port2
!       o------o
!Operation Temp=25[degC], DC Bias Voltage=0[V]
!Freq. Start=1000[kHz] Stop=6[GHz] 401[Steps]
# Hz S RI R 50
!Freq.(Hz) S11(Real) S11(Imag) S21(Real) S21(Imag) S12(Real) S12(Imag) S22(Real) S22(Imag)
1000000 0.0017210 -0.0409075 0.9982790 0.0409075 0.9982790 0.0409075 0.0017210 -0.0409075
1021987 0.0016497 -0.0400283 0.9983503 0.0400283 0.9983503 0.0400283 0.0016497 -0.0400283
1044457 0.0015813 -0.0391678 0.9984187 0.0391678 0.9984187 0.0391678 0.0015813 -0.0391678
1067422 0.0015159 -0.0383256 0.9984841 0.0383256 0.9984841 0.0383256 0.0015159 -0.0383256
1090891 0.0014533 -0.0375014 0.9985467 0.0375014 0.9985467 0.0375014 0.0014533 -0.0375014
1114877 0.0013933 -0.0366946 0.9986067 0.0366946 0.9986067 0.0366946 0.0013933 -0.0366946
1139390 0.0013359 -0.0359051 0.9986641 0.0359051 0.9986641 0.0359051 0.0013359 -0.0359051
1164441 0.0012809 -0.0351323 0.9987191 0.0351323 0.9987191 0.0351323 0.0012809 -0.0351323
1190044 0.0012283 -0.0343760 0.9987717 0.0343760 0.9987717 0.0343760 0.0012283 -0.0343760
1216210 0.0011779 -0.0336358 0.9988221 0.0336358 0.9988221 0.0336358 0.0011779 -0.0336358
1242950 0.0011296 -0.0329114 0.9988704 0.0329114 0.9988704 0.0329114 0.0011296 -0.0329114
1270279 0.0010834 -0.0322024 0.9989166 0.0322024 0.9989166 0.0322024 0.0010834 -0.0322024
1298209 0.0010392 -0.0315085 0.9989608 0.0315085 0.9989608 0.0315085 0.0010392 -0.0315085
1326753 0.0009968 -0.0308295 0.9990032 0.0308295 0.9990032 0.0308295 0.0009968 -0.0308295
1355924 0.0009563 -0.0301648 0.9990437 0.0301648 0.9990437 0.0301648 0.0009563 -0.0301648
1385737 0.0009175 -0.0295144 0.9990825 0.0295144 0.9990825 0.0295144 0.0009175 -0.0295144
1416205 0.0008803 -0.0288778 0.9991197 0.0288778 0.9991197 0.0288778 0.0008803 -0.0288778
1447343 0.0008448 -0.0282548 0.9991552 0.0282548 0.9991552 0.0282548 0.0008448 -0.0282548
1479166 0.0008107 -0.0276450 0.9991893 0.0276450 0.9991893 0.0276450 0.0008107 -0.0276450
1511688 0.0007781 -0.0270483 0.9992219 0.0270483 0.9992219 0.0270483 0.0007781 -0.0270483
1544926 0.0007469 -0.0264642 0.9992531 0.0264642 0.9992531 0.0264642 0.0007469 -0.0264642
1578894 0.0007170 -0.0258927 0.9992830 0.0258927 0.9992830 0.0258927 0.0007170 -0.0258927
1613609 0.0006884 -0.0253333 0.9993116 0.0253333 0.9993116 0.0253333 0.0006884 -0.0253333
1649087 0.0006611 -0.0247858 0.9993389 0.0247858 0.9993389 0.0247858 0.0006611 -0.0247858
1685346 0.0006349 -0.0242500 0.9993651 0.0242500 0.9993651 0.0242500 0.0006349 -0.0242500
1722402 0.0006098 -0.0237256 0.9993902 0.0237256 0.9993902 0.0237256 0.0006098 -0.0237256
1760272 0.0005858 -0.0232124 0.9994142 0.0232124 0.9994142 0.0232124 0.0005858 -0.0232124
1798975 0.0005628 -0.0227101 0.9994372 0.0227101 0.9994372 0.0227101 0.0005628 -0.0227101
1838529 0.0005409 -0.0222186 0.9994591 0.0222186 0.9994591 0.0222186 0.0005409 -0.0222186
1878953 0.0005198 -0.0217375 0.9994802 0.0217375 0.9994802 0.0217375 0.0005198 -0.0217375
1920266 0.0004997 -0.0212666 0.9995003 0.0212666 0.9995003 0.0212666 0.0004997 -0.0212666
1962487 0.0004804 -0.0208058 0.9995196 0.0208058 0.9995196 0.0208058 0.0004804 -0.0208058
2005636 0.0004620 -0.0203548 0.9995380 0.0203548 0.9995380 0.0203548 0.0004620 -0.0203548
2049734 0.0004444 -0.0199133 0.9995556 0.0199133 0.9995556 0.0199133 0.0004444 -0.0199133
2094801 0.0004275 -0.0194813 0.9995725 0.0194813 0.9995725 0.0194813 0.0004275 -0.0194813
2140860 0.0004114 -0.0190585 0.9995886 0.0190585 0.9995886 0.0190585 0.0004114 -0.0190585
2187931 0.0003959 -0.0186446 0.9996041 0.0186446 0.9996041 0.0186446 0.0003959 -0.0186446
2236037 0.0003812 -0.0182396 0.9996188 0.0182396 0.9996188 0.0182396 0.0003812 -0.0182396
2285201 0.0003671 -0.0178431 0.9996329 0.0178431 0.9996329 0.0178431 0.0003671 -0.0178431
2335446 0.0003535 -0.0174551 0.9996465 0.0174551 0.9996465 0.0174551 0.0003535 -0.0174551
2386795 0.0003406 -0.0170753 0.9996594 0.0170753 0.9996594 0.0170753 0.0003406 -0.0170753
2439274 0.0003283 -0.0167036 0.9996717 0.0167036 0.9996717 0.0167036 0.0003283 -0.0167036
2492906 0.0003165 -0.0163398 0.9996835 0.0163398 0.9996835 0.0163398 0.0003165 -0.0163398
2547717 0.0003052 -0.0159837 0.9996948 0.0159837 0.9996948 0.0159837 0.0003052 -0.0159837
2603734 0.0002944 -0.0156351 0.9997056 0.0156351 0.9997056 0.0156351 0.0002944 -0.0156351
2660982 0.0002841 -0.0152940 0.9997159 0.0152940 0.9997159 0.0152940 0.0002841 -0.0152940
2719490 0.0002742 -0.0149600 0.9997258 0.0149600 0.9997258 0.0149600 0.0002742 -0.0149600
2779283 0.0002648 -0.0146332 0.9997352 0.0146332 0.9997352 0.0146332 0.0002648 -0.0146332
2840391 0.0002558 -0.0143132 0.9997442 0.0143132 0.9997442 0.0143132 0.0002558 -0.0143132
2902843 0.0002472 -0.0140000 0.9997528 0.0140000 0.9997528 0.0140000 0.0002472 -0.0140000
2966668 0.0002390 -0.0136935 0.9997610 0.0136935 0.9997610 0.0136935 0.0002390 -0.0136935
3031896 0.0002312 -0.0133934 0.9997688 0.0133934 0.9997688 0.0133934 0.0002312 -0.0133934
3098558 0.0002237 -0.0130996 0.9997763 0.0130996 0.9997763 0.0130996 0.0002237 -0.0130996
3166686 0.0002166 -0.0128120 0.9997834 0.0128120 0.9997834 0.0128120 0.0002166 -0.0128120
3236312 0.0002098 -0.0125305 0.9997902 0.0125305 0.9997902 0.0125305 0.0002098 -0.0125305
3307469 0.0002033 -0.0122550 0.9997967 0.0122550 0.9997967 0.0122550 0.0002033 -0.0122550
3380190 0.0001971 -0.0119852 0.9998029 0.0119852 0.9998029 0.0119852 0.0001971 -0.0119852
3454511 0.0001912 -0.0117211 0.9998088 0.0117211 0.9998088 0.0117211 0.0001912 -0.0117211
3530465 0.0001856 -0.0114626 0.9998144 0.0114626 0.9998144 0.0114626 0.0001856 -0.0114626
3608090 0.0001802 -0.0112094 0.9998198 0.0112094 0.9998198 0.0112094 0.0001802 -0.0112094
3687421 0.0001751 -0.0109616 0.9998249 0.0109616 0.9998249 0.0109616 0.0001751 -0.0109616
3768496 0.0001702 -0.0107190 0.9998298 0.0107190 0.9998298 0.0107190 0.0001702 -0.0107190
3851354 0.0001656 -0.0104815 0.9998344 0.0104815 0.9998344 0.0104815 0.0001656 -0.0104815
3936034 0.0001612 -0.0102489 0.9998388 0.0102489 0.9998388 0.0102489 0.0001612 -0.0102489
4022575 0.0001571 -0.0100212 0.9998429 0.0100212 0.9998429 0.0100212 0.0001571 -0.0100212
4111020 0.0001531 -0.0097982 0.9998469 0.0097982 0.9998469 0.0097982 0.0001531 -0.0097982
4201409 0.0001493 -0.0095799 0.9998507 0.0095799 0.9998507 0.0095799 0.0001493 -0.0095799
4293785 0.0001457 -0.0093661 0.9998543 0.0093661 0.9998543 0.0093661 0.0001457 -0.0093661
4388193 0.0001423 -0.0091568 0.9998577 0.0091568 0.9998577 0.0091568 0.0001423 -0.0091568
4484676 0.0001391 -0.0089518 0.9998609 0.0089518 0.9998609 0.0089518 0.0001391 -0.0089518
4583281 0.0001361 -0.0087511 0.9998639 0.0087511 0.9998639 0.0087511 0.0001361 -0.0087511
4684054 0.0001332 -0.0085545 0.9998668 0.0085545 0.9998668 0.0085545 0.0001332 -0.0085545
4787042 0.0001305 -0.0083620 0.9998695 0.0083620 0.9998695 0.0083620 0.0001305 -0.0083620
4892295 0.0001279 -0.0081734 0.9998721 0.0081734 0.9998721 0.0081734 0.0001279 -0.0081734
4999862 0.0001255 -0.0079888 0.9998745 0.0079888 0.9998745 0.0079888 0.0001255 -0.0079888
5109794 0.0001232 -0.0078079 0.9998768 0.0078079 0.9998768 0.0078079 0.0001232 -0.0078079
5222143 0.0001210 -0.0076308 0.9998790 0.0076308 0.9998790 0.0076308 0.0001210 -0.0076308
5336962 0.0001190 -0.0074572 0.9998810 0.0074572 0.9998810 0.0074572 0.0001190 -0.0074572
5454306 0.0001171 -0.0072873 0.9998829 0.0072873 0.9998829 0.0072873 0.0001171 -0.0072873
5574230 0.0001153 -0.0071208 0.9998847 0.0071208 0.9998847 0.0071208 0.0001153 -0.0071208
5696791 0.0001136 -0.0069576 0.9998864 0.0069576 0.9998864 0.0069576 0.0001136 -0.0069576
5822046 0.0001120 -0.0067978 0.9998880 0.0067978 0.9998880 0.0067978 0.0001120 -0.0067978
5950055 0.0001106 -0.0066413 0.9998894 0.0066413 0.9998894 0.0066413 0.0001106 -0.0066413
6080879 0.0001092 -0.0064879 0.9998908 0.0064879 0.9998908 0.0064879 0.0001092 -0.0064879
6214580 0.0001079 -0.0063376 0.9998921 0.0063376 0.9998921 0.0063376 0.0001079 -0.0063376
6351220 0.0001067 -0.0061903 0.9998933 0.0061903 0.9998933 0.0061903 0.0001067 -0.0061903
6490864 0.0001056 -0.0060459 0.9998944 0.0060459 0.9998944 0.0060459 0.0001056 -0.0060459
6633579 0.0001046 -0.0059045 0.9998954 0.0059045 0.9998954 0.0059045 0.0001046 -0.0059045
6779431 0.0001037 -0.0057658 0.9998963 0.0057658 0.9998963 0.0057658 0.0001037 -0.0057658
6928491 0.0001028 -0.0056299 0.9998972 0.0056299 0.9998972 0.0056299 0.0001028 -0.0056299
7080828 0.0001020 -0.0054967 0.9998980 0.0054967 0.9998980 0.0054967 0.0001020 -0.0054967
7236514 0.0001013 -0.0053662 0.9998987 0.0053662 0.9998987 0.0053662 0.0001013 -0.0053662
7395623 0.0001007 -0.0052382 0.9998993 0.0052382 0.9998993 0.0052382 0.0001007 -0.0052382
7558231 0.0001001 -0.0051126 0.9998999 0.0051126 0.9998999 0.0051126 0.0001001 -0.0051126
7724414 0.0000996 -0.0049896 0.9999004 0.0049896 0.9999004 0.0049896 0.0000996 -0.0049896
7894251 0.0000991 -0.0048689 0.9999009 0.0048689 0.9999009 0.0048689 0.0000991 -0.0048689
8067822 0.0000987 -0.0047505 0.9999013 0.0047505 0.9999013 0.0047505 0.0000987 -0.0047505
8245209 0.0000983 -0.0046345 0.9999017 0.0046345 0.9999017 0.0046345 0.0000983 -0.0046345
8426497 0.0000980 -0.0045206 0.9999020 0.0045206 0.9999020 0.0045206 0.0000980 -0.0045206
8611770 0.0000978 -0.0044089 0.9999022 0.0044089 0.9999022 0.0044089 0.0000978 -0.0044089
8801117 0.0000975 -0.0042993 0.9999025 0.0042993 0.9999025 0.0042993 0.0000975 -0.0042993
8994628 0.0000974 -0.0041918 0.9999026 0.0041918 0.9999026 0.0041918 0.0000974 -0.0041918
9192393 0.0000972 -0.0040862 0.9999028 0.0040862 0.9999028 0.0040862 0.0000972 -0.0040862
9394506 0.0000972 -0.0039826 0.9999028 0.0039826 0.9999028 0.0039826 0.0000972 -0.0039826
9601063 0.0000971 -0.0038810 0.9999029 0.0038810 0.9999029 0.0038810 0.0000971 -0.0038810
9812162 0.0000971 -0.0037811 0.9999029 0.0037811 0.9999029 0.0037811 0.0000971 -0.0037811
10027902 0.0000971 -0.0036831 0.9999029 0.0036831 0.9999029 0.0036831 0.0000971 -0.0036831
10248386 0.0000972 -0.0035869 0.9999028 0.0035869 0.9999028 0.0035869 0.0000972 -0.0035869
10473717 0.0000973 -0.0034924 0.9999027 0.0034924 0.9999027 0.0034924 0.0000973 -0.0034924
10704003 0.0000974 -0.0033995 0.9999026 0.0033995 0.9999026 0.0033995 0.0000974 -0.0033995
10939352 0.0000975 -0.0033083 0.9999025 0.0033083 0.9999025 0.0033083 0.0000975 -0.0033083
11179876 0.0000977 -0.0032186 0.9999023 0.0032186 0.9999023 0.0032186 0.0000977 -0.0032186
11425688 0.0000979 -0.0031305 0.9999021 0.0031305 0.9999021 0.0031305 0.0000979 -0.0031305
11676904 0.0000981 -0.0030439 0.9999019 0.0030439 0.9999019 0.0030439 0.0000981 -0.0030439
11933645 0.0000984 -0.0029587 0.9999016 0.0029587 0.9999016 0.0029587 0.0000984 -0.0029587
12196030 0.0000987 -0.0028749 0.9999013 0.0028749 0.9999013 0.0028749 0.0000987 -0.0028749
12464184 0.0000990 -0.0027926 0.9999010 0.0027926 0.9999010 0.0027926 0.0000990 -0.0027926
12738235 0.0000993 -0.0027115 0.9999007 0.0027115 0.9999007 0.0027115 0.0000993 -0.0027115
13018310 0.0000997 -0.0026317 0.9999003 0.0026317 0.9999003 0.0026317 0.0000997 -0.0026317
13304544 0.0001000 -0.0025532 0.9999000 0.0025532 0.9999000 0.0025532 0.0001000 -0.0025532
13597071 0.0001004 -0.0024759 0.9998996 0.0024759 0.9998996 0.0024759 0.0001004 -0.0024759
13896030 0.0001009 -0.0023998 0.9998991 0.0023998 0.9998991 0.0023998 0.0001009 -0.0023998
14201563 0.0001013 -0.0023248 0.9998987 0.0023248 0.9998987 0.0023248 0.0001013 -0.0023248
14513813 0.0001018 -0.0022509 0.9998982 0.0022509 0.9998982 0.0022509 0.0001018 -0.0022509
14832928 0.0001023 -0.0021781 0.9998977 0.0021781 0.9998977 0.0021781 0.0001023 -0.0021781
15159060 0.0001028 -0.0021064 0.9998972 0.0021064 0.9998972 0.0021064 0.0001028 -0.0021064
15492362 0.0001033 -0.0020356 0.9998967 0.0020356 0.9998967 0.0020356 0.0001033 -0.0020356
15832993 0.0001039 -0.0019657 0.9998961 0.0019657 0.9998961 0.0019657 0.0001039 -0.0019657
16181113 0.0001045 -0.0018968 0.9998955 0.0018968 0.9998955 0.0018968 0.0001045 -0.0018968
16536888 0.0001051 -0.0018288 0.9998949 0.0018288 0.9998949 0.0018288 0.0001051 -0.0018288
16900485 0.0001058 -0.0017616 0.9998942 0.0017616 0.9998942 0.0017616 0.0001058 -0.0017616
17272076 0.0001064 -0.0016953 0.9998936 0.0016953 0.9998936 0.0016953 0.0001064 -0.0016953
17651837 0.0001071 -0.0016297 0.9998929 0.0016297 0.9998929 0.0016297 0.0001071 -0.0016297
18039948 0.0001079 -0.0015649 0.9998921 0.0015649 0.9998921 0.0015649 0.0001079 -0.0015649
18436593 0.0001086 -0.0015009 0.9998914 0.0015009 0.9998914 0.0015009 0.0001086 -0.0015009
18841959 0.0001094 -0.0014375 0.9998906 0.0014375 0.9998906 0.0014375 0.0001094 -0.0014375
19256237 0.0001103 -0.0013747 0.9998897 0.0013747 0.9998897 0.0013747 0.0001103 -0.0013747
19679624 0.0001111 -0.0013126 0.9998889 0.0013126 0.9998889 0.0013126 0.0001111 -0.0013126
20112321 0.0001120 -0.0012511 0.9998880 0.0012511 0.9998880 0.0012511 0.0001120 -0.0012511
20554530 0.0001130 -0.0011901 0.9998870 0.0011901 0.9998870 0.0011901 0.0001130 -0.0011901
21006463 0.0001140 -0.0011297 0.9998860 0.0011297 0.9998860 0.0011297 0.0001140 -0.0011297
21468333 0.0001150 -0.0010697 0.9998850 0.0010697 0.9998850 0.0010697 0.0001150 -0.0010697
21940357 0.0001161 -0.0010102 0.9998839 0.0010102 0.9998839 0.0010102 0.0001161 -0.0010102
22422760 0.0001172 -0.0009511 0.9998828 0.0009511 0.9998828 0.0009511 0.0001172 -0.0009511
22915770 0.0001184 -0.0008925 0.9998816 0.0008925 0.9998816 0.0008925 0.0001184 -0.0008925
23419619 0.0001196 -0.0008341 0.9998804 0.0008341 0.9998804 0.0008341 0.0001196 -0.0008341
23934547 0.0001209 -0.0007761 0.9998791 0.0007761 0.9998791 0.0007761 0.0001209 -0.0007761
24460796 0.0001223 -0.0007184 0.9998777 0.0007184 0.9998777 0.0007184 0.0001223 -0.0007184
24998616 0.0001237 -0.0006610 0.9998763 0.0006610 0.9998763 0.0006610 0.0001237 -0.0006610
25548261 0.0001252 -0.0006038 0.9998748 0.0006038 0.9998748 0.0006038 0.0001252 -0.0006038
26109991 0.0001268 -0.0005467 0.9998732 0.0005467 0.9998732 0.0005467 0.0001268 -0.0005467
26684072 0.0001285 -0.0004899 0.9998715 0.0004899 0.9998715 0.0004899 0.0001285 -0.0004899
27270775 0.0001302 -0.0004331 0.9998698 0.0004331 0.9998698 0.0004331 0.0001302 -0.0004331
27870378 0.0001321 -0.0003764 0.9998679 0.0003764 0.9998679 0.0003764 0.0001321 -0.0003764
28483164 0.0001340 -0.0003197 0.9998660 0.0003197 0.9998660 0.0003197 0.0001340 -0.0003197
29109424 0.0001361 -0.0002631 0.9998639 0.0002631 0.9998639 0.0002631 0.0001361 -0.0002631
29749453 0.0001383 -0.0002063 0.9998617 0.0002063 0.9998617 0.0002063 0.0001383 -0.0002063
30403555 0.0001406 -0.0001495 0.9998594 0.0001495 0.9998594 0.0001495 0.0001406 -0.0001495
31072038 0.0001431 -0.0000926 0.9998569 0.0000926 0.9998569 0.0000926 0.0001431 -0.0000926
31755220 0.0001457 -0.0000355 0.9998543 0.0000355 0.9998543 0.0000355 0.0001457 -0.0000355
32453422 0.0001485 0.0000219 0.9998515 -0.0000219 0.9998515 -0.0000219 0.0001485 0.0000219
33166976 0.0001514 0.0000796 0.9998486 -0.0000796 0.9998486 -0.0000796 0.0001514 0.0000796
33896219 0.0001546 0.0001376 0.9998454 -0.0001376 0.9998454 -0.0001376 0.0001546 0.0001376
34641496 0.0001580 0.0001960 0.9998420 -0.0001960 0.9998420 -0.0001960 0.0001580 0.0001960
35403159 0.0001617 0.0002549 0.9998383 -0.0002549 0.9998383 -0.0002549 0.0001617 0.0002549
36181569 0.0001656 0.0003143 0.9998344 -0.0003143 0.9998344 -0.0003143 0.0001656 0.0003143
36977093 0.0001698 0.0003743 0.9998302 -0.0003743 0.9998302 -0.0003743 0.0001698 0.0003743
37790109 0.0001744 0.0004351 0.9998256 -0.0004351 0.9998256 -0.0004351 0.0001744 0.0004351
38621001 0.0001794 0.0004966 0.9998206 -0.0004966 0.9998206 -0.0004966 0.0001794 0.0004966
39470161 0.0001848 0.0005591 0.9998152 -0.0005591 0.9998152 -0.0005591 0.0001848 0.0005591
40337993 0.0001908 0.0006226 0.9998092 -0.0006226 0.9998092 -0.0006226 0.0001908 0.0006226
41224905 0.0001973 0.0006872 0.9998027 -0.0006872 0.9998027 -0.0006872 0.0001973 0.0006872
42131317 0.0002045 0.0007531 0.9997955 -0.0007531 0.9997955 -0.0007531 0.0002045 0.0007531
43057659 0.0002126 0.0008205 0.9997874 -0.0008205 0.9997874 -0.0008205 0.0002126 0.0008205
44004369 0.0002215 0.0008896 0.9997785 -0.0008896 0.9997785 -0.0008896 0.0002215 0.0008896
44971893 0.0002316 0.0009605 0.9997684 -0.0009605 0.9997684 -0.0009605 0.0002316 0.0009605
45960691 0.0002431 0.0010336 0.9997569 -0.0010336 0.9997569 -0.0010336 0.0002431 0.0010336
46971230 0.0002563 0.0011091 0.9997437 -0.0011091 0.9997437 -0.0011091 0.0002563 0.0011091
48003987 0.0002715 0.0011874 0.9997285 -0.0011874 0.9997285 -0.0011874 0.0002715 0.0011874
49059451 0.0002894 0.0012690 0.9997106 -0.0012690 0.9997106 -0.0012690 0.0002894 0.0012690
50138122 0.0003107 0.0013543 0.9996893 -0.0013543 0.9996893 -0.0013543 0.0003107 0.0013543
51240510 0.0003364 0.0014439 0.9996636 -0.0014439 0.9996636 -0.0014439 0.0003364 0.0014439
52367136 0.0003679 0.0015384 0.9996321 -0.0015384 0.9996321 -0.0015384 0.0003679 0.0015384
53518533 0.0004074 0.0016384 0.9995926 -0.0016384 0.9995926 -0.0016384 0.0004074 0.0016384
54695245 0.0004579 0.0017446 0.9995421 -0.0017446 0.9995421 -0.0017446 0.0004579 0.0017446
55897831 0.0005242 0.0018568 0.9994758 -0.0018568 0.9994758 -0.0018568 0.0005242 0.0018568
57126857 0.0006129 0.0019737 0.9993871 -0.0019737 0.9993871 -0.0019737 0.0006129 0.0019737
58382906 0.0007343 0.0020906 0.9992657 -0.0020906 0.9992657 -0.0020906 0.0007343 0.0020906
59666572 0.0009017 0.0021948 0.9990983 -0.0021948 0.9990983 -0.0021948 0.0009017 0.0021948
60978462 0.0011273 0.0022573 0.9988727 -0.0022573 0.9988727 -0.0022573 0.0011273 0.0022573
62319196 0.0014035 0.0022243 0.9985965 -0.0022243 0.9985965 -0.0022243 0.0014035 0.0022243
63689409 0.0016618 0.0020352 0.9983382 -0.0020352 0.9983382 -0.0020352 0.0016618 0.0020352
65089750 0.0017657 0.0017109 0.9982343 -0.0017109 0.9982343 -0.0017109 0.0017657 0.0017109
66520879 0.0016471 0.0014092 0.9983529 -0.0014092 0.9983529 -0.0014092 0.0016471 0.0014092
67983474 0.0014060 0.0012645 0.9985940 -0.0012645 0.9985940 -0.0012645 0.0014060 0.0012645
69478228 0.0011711 0.0012697 0.9988289 -0.0012697 0.9988289 -0.0012697 0.0011711 0.0012697
71005847 0.0009945 0.0013606 0.9990055 -0.0013606 0.9990055 -0.0013606 0.0009945 0.0013606
72567054 0.0008775 0.0014888 0.9991225 -0.0014888 0.9991225 -0.0014888 0.0008775 0.0014888
74162587 0.0008074 0.0016297 0.9991926 -0.0016297 0.9991926 -0.0016297 0.0008074 0.0016297
75793201 0.0007727 0.0017727 0.9992273 -0.0017727 0.9992273 -0.0017727 0.0007727 0.0017727
77459667 0.0007657 0.0019140 0.9992343 -0.0019140 0.9992343 -0.0019140 0.0007657 0.0019140
79162774 0.0007819 0.0020517 0.9992181 -0.0020517 0.9992181 -0.0020517 0.0007819 0.0020517
80903327 0.0008195 0.0021849 0.9991805 -0.0021849 0.9991805 -0.0021849 0.0008195 0.0021849
82682150 0.0008785 0.0023118 0.9991215 -0.0023118 0.9991215 -0.0023118 0.0008785 0.0023118
84500083 0.0009603 0.0024290 0.9990397 -0.0024290 0.9990397 -0.0024290 0.0009603 0.0024290
86357988 0.0010661 0.0025305 0.9989339 -0.0025305 0.9989339 -0.0025305 0.0010661 0.0025305
88256743 0.0011959 0.0026069 0.9988041 -0.0026069 0.9988041 -0.0026069 0.0011959 0.0026069
90197245 0.0013449 0.0026452 0.9986551 -0.0026452 0.9986551 -0.0026452 0.0013449 0.0026452
92180413 0.0014991 0.0026310 0.9985009 -0.0026310 0.9985009 -0.0026310 0.0014991 0.0026310
94207185 0.0016327 0.0025568 0.9983673 -0.0025568 0.9983673 -0.0025568 0.0016327 0.0025568
96278520 0.0017129 0.0024326 0.9982871 -0.0024326 0.9982871 -0.0024326 0.0017129 0.0024326
98395398 0.0017158 0.0022906 0.9982842 -0.0022906 0.9982842 -0.0022906 0.0017158 0.0022906
100558819 0.0016437 0.0021730 0.9983563 -0.0021730 0.9983563 -0.0021730 0.0016437 0.0021730
102769807 0.0015227 0.0021093 0.9984773 -0.0021093 0.9984773 -0.0021093 0.0015227 0.0021093
105029408 0.0013857 0.0021064 0.9986143 -0.0021064 0.9986143 -0.0021064 0.0013857 0.0021064
107338692 0.0012568 0.0021545 0.9987432 -0.0021545 0.9987432 -0.0021545 0.0012568 0.0021545
