!Murata Part Number: GRM21A5C2J100JWA1
!These Parameters are Measured in Series Mode Connection
!Data Generated on Mar 30, 2021
!       o--ll--o
!Port1            Port2
!       o------o
!Operation Temp=25[degC], DC Bias Voltage=0[V]
!Freq. Start=100[MHz] Stop=3[GHz] 401[Steps]
# Hz S RI R 50
!Freq.(Hz) S11(Real) S11(Imag) S21(Real) S21(Imag) S12(Real) S12(Imag) S22(Real) S22(Imag)
100000000 0.7688864 -0.4203437 0.2311136 0.4203437 0.2311136 0.4203437 0.7688864 -0.4203437
107250000 0.7430305 -0.4357510 0.2569695 0.4357510 0.2569695 0.4357510 0.7430305 -0.4357510
114500000 0.7171969 -0.4491349 0.2828031 0.4491349 0.2828031 0.4491349 0.7171969 -0.4491349
121750000 0.6915507 -0.4606072 0.3084493 0.4606072 0.3084493 0.4606072 0.6915507 -0.4606072
129000000 0.6662330 -0.4702889 0.3337670 0.4702889 0.3337670 0.4702889 0.6662330 -0.4702889
136250000 0.6413619 -0.4783063 0.3586381 0.4783063 0.3586381 0.4783063 0.6413619 -0.4783063
143500000 0.6170342 -0.4847874 0.3829658 0.4847874 0.3829658 0.4847874 0.6170342 -0.4847874
150750000 0.5933271 -0.4898596 0.4066729 0.4898596 0.4066729 0.4898596 0.5933271 -0.4898596
158000000 0.5703002 -0.4936475 0.4296998 0.4936475 0.4296998 0.4936475 0.5703002 -0.4936475
165250000 0.5479976 -0.4962709 0.4520024 0.4962709 0.4520024 0.4962709 0.5479976 -0.4962709
172500000 0.5264499 -0.4978440 0.4735501 0.4978440 0.4735501 0.4978440 0.5264499 -0.4978440
179750000 0.5056761 -0.4984746 0.4943239 0.4984746 0.4943239 0.4984746 0.5056761 -0.4984746
187000000 0.4856853 -0.4982632 0.5143147 0.4982632 0.5143147 0.4982632 0.4856853 -0.4982632
194250000 0.4664784 -0.4973033 0.5335216 0.4973033 0.5335216 0.4973033 0.4664784 -0.4973033
201500000 0.4480495 -0.4956810 0.5519505 0.4956810 0.5519505 0.4956810 0.4480495 -0.4956810
208750000 0.4303872 -0.4934754 0.5696128 0.4934754 0.5696128 0.4934754 0.4303872 -0.4934754
216000000 0.4134760 -0.4907586 0.5865240 0.4907586 0.5865240 0.4907586 0.4134760 -0.4907586
223250000 0.3972966 -0.4875961 0.6027034 0.4875961 0.6027034 0.4875961 0.3972966 -0.4875961
230500000 0.3818275 -0.4840473 0.6181725 0.4840473 0.6181725 0.4840473 0.3818275 -0.4840473
237750000 0.3670452 -0.4801657 0.6329548 0.4801657 0.6329548 0.4801657 0.3670452 -0.4801657
245000000 0.3529248 -0.4759995 0.6470752 0.4759995 0.6470752 0.4759995 0.3529248 -0.4759995
252250000 0.3394409 -0.4715918 0.6605591 0.4715918 0.6605591 0.4715918 0.3394409 -0.4715918
259500000 0.3265676 -0.4669814 0.6734324 0.4669814 0.6734324 0.4669814 0.3265676 -0.4669814
266750000 0.3142788 -0.4622025 0.6857212 0.4622025 0.6857212 0.4622025 0.3142788 -0.4622025
274000000 0.3025488 -0.4572860 0.6974512 0.4572860 0.6974512 0.4572860 0.3025488 -0.4572860
281250000 0.2913523 -0.4522590 0.7086477 0.4522590 0.7086477 0.4522590 0.2913523 -0.4522590
288500000 0.2806644 -0.4471458 0.7193356 0.4471458 0.7193356 0.4471458 0.2806644 -0.4471458
295750000 0.2704611 -0.4419676 0.7295389 0.4419676 0.7295389 0.4419676 0.2704611 -0.4419676
303000000 0.2607191 -0.4367433 0.7392809 0.4367433 0.7392809 0.4367433 0.2607191 -0.4367433
310250000 0.2514158 -0.4314895 0.7485842 0.4314895 0.7485842 0.4314895 0.2514158 -0.4314895
317500000 0.2425296 -0.4262207 0.7574704 0.4262207 0.7574704 0.4262207 0.2425296 -0.4262207
324750000 0.2340400 -0.4209497 0.7659600 0.4209497 0.7659600 0.4209497 0.2340400 -0.4209497
332000000 0.2259270 -0.4156875 0.7740730 0.4156875 0.7740730 0.4156875 0.2259270 -0.4156875
339250000 0.2181718 -0.4104439 0.7818282 0.4104439 0.7818282 0.4104439 0.2181718 -0.4104439
346500000 0.2107564 -0.4052273 0.7892436 0.4052273 0.7892436 0.4052273 0.2107564 -0.4052273
353750000 0.2036638 -0.4000449 0.7963362 0.4000449 0.7963362 0.4000449 0.2036638 -0.4000449
361000000 0.1968776 -0.3949029 0.8031224 0.3949029 0.8031224 0.3949029 0.1968776 -0.3949029
368250000 0.1903824 -0.3898066 0.8096176 0.3898066 0.8096176 0.3898066 0.1903824 -0.3898066
375500000 0.1841637 -0.3847606 0.8158363 0.3847606 0.8158363 0.3847606 0.1841637 -0.3847606
382750000 0.1782075 -0.3797688 0.8217925 0.3797688 0.8217925 0.3797688 0.1782075 -0.3797688
390000000 0.1725007 -0.3748342 0.8274993 0.3748342 0.8274993 0.3748342 0.1725007 -0.3748342
397250000 0.1670310 -0.3699595 0.8329690 0.3699595 0.8329690 0.3699595 0.1670310 -0.3699595
404500000 0.1617865 -0.3651468 0.8382135 0.3651468 0.8382135 0.3651468 0.1617865 -0.3651468
411750000 0.1567561 -0.3603979 0.8432439 0.3603979 0.8432439 0.3603979 0.1567561 -0.3603979
419000000 0.1519293 -0.3557140 0.8480707 0.3557140 0.8480707 0.3557140 0.1519293 -0.3557140
426250000 0.1472962 -0.3510961 0.8527038 0.3510961 0.8527038 0.3510961 0.1472962 -0.3510961
433500000 0.1428473 -0.3465450 0.8571527 0.3465450 0.8571527 0.3465450 0.1428473 -0.3465450
440750000 0.1385738 -0.3420610 0.8614262 0.3420610 0.8614262 0.3420610 0.1385738 -0.3420610
448000000 0.1344672 -0.3376443 0.8655328 0.3376443 0.8655328 0.3376443 0.1344672 -0.3376443
455250000 0.1305195 -0.3332950 0.8694805 0.3332950 0.8694805 0.3332950 0.1305195 -0.3332950
462500000 0.1267233 -0.3290129 0.8732767 0.3290129 0.8732767 0.3290129 0.1267233 -0.3290129
469750000 0.1230713 -0.3247976 0.8769287 0.3247976 0.8769287 0.3247976 0.1230713 -0.3247976
477000000 0.1195570 -0.3206488 0.8804430 0.3206488 0.8804430 0.3206488 0.1195570 -0.3206488
484250000 0.1161738 -0.3165659 0.8838262 0.3165659 0.8838262 0.3165659 0.1161738 -0.3165659
491500000 0.1129158 -0.3125481 0.8870842 0.3125481 0.8870842 0.3125481 0.1129158 -0.3125481
498750000 0.1097772 -0.3085948 0.8902228 0.3085948 0.8902228 0.3085948 0.1097772 -0.3085948
506000000 0.1067526 -0.3047053 0.8932474 0.3047053 0.8932474 0.3047053 0.1067526 -0.3047053
513250000 0.1038369 -0.3008785 0.8961631 0.3008785 0.8961631 0.3008785 0.1038369 -0.3008785
520500000 0.1010252 -0.2971137 0.8989748 0.2971137 0.8989748 0.2971137 0.1010252 -0.2971137
527750000 0.0983130 -0.2934098 0.9016870 0.2934098 0.9016870 0.2934098 0.0983130 -0.2934098
535000000 0.0956958 -0.2897660 0.9043042 0.2897660 0.9043042 0.2897660 0.0956958 -0.2897660
542250000 0.0931695 -0.2861812 0.9068305 0.2861812 0.9068305 0.2861812 0.0931695 -0.2861812
549500000 0.0907302 -0.2826543 0.9092698 0.2826543 0.9092698 0.2826543 0.0907302 -0.2826543
556750000 0.0883741 -0.2791844 0.9116259 0.2791844 0.9116259 0.2791844 0.0883741 -0.2791844
564000000 0.0860978 -0.2757705 0.9139022 0.2757705 0.9139022 0.2757705 0.0860978 -0.2757705
571250000 0.0838978 -0.2724114 0.9161022 0.2724114 0.9161022 0.2724114 0.0838978 -0.2724114
578500000 0.0817709 -0.2691061 0.9182291 0.2691061 0.9182291 0.2691061 0.0817709 -0.2691061
585750000 0.0797142 -0.2658536 0.9202858 0.2658536 0.9202858 0.2658536 0.0797142 -0.2658536
593000000 0.0777247 -0.2626529 0.9222753 0.2626529 0.9222753 0.2626529 0.0777247 -0.2626529
600250000 0.0757997 -0.2595029 0.9242003 0.2595029 0.9242003 0.2595029 0.0757997 -0.2595029
607500000 0.0739365 -0.2564025 0.9260635 0.2564025 0.9260635 0.2564025 0.0739365 -0.2564025
614750000 0.0721327 -0.2533509 0.9278673 0.2533509 0.9278673 0.2533509 0.0721327 -0.2533509
622000000 0.0703860 -0.2503469 0.9296140 0.2503469 0.9296140 0.2503469 0.0703860 -0.2503469
629250000 0.0686940 -0.2473897 0.9313060 0.2473897 0.9313060 0.2473897 0.0686940 -0.2473897
636500000 0.0670547 -0.2444781 0.9329453 0.2444781 0.9329453 0.2444781 0.0670547 -0.2444781
643750000 0.0654659 -0.2416113 0.9345341 0.2416113 0.9345341 0.2416113 0.0654659 -0.2416113
651000000 0.0639257 -0.2387883 0.9360743 0.2387883 0.9360743 0.2387883 0.0639257 -0.2387883
658250000 0.0624324 -0.2360082 0.9375676 0.2360082 0.9375676 0.2360082 0.0624324 -0.2360082
665500000 0.0609840 -0.2332701 0.9390160 0.2332701 0.9390160 0.2332701 0.0609840 -0.2332701
672750000 0.0595789 -0.2305730 0.9404211 0.2305730 0.9404211 0.2305730 0.0595789 -0.2305730
680000000 0.0582155 -0.2279162 0.9417845 0.2279162 0.9417845 0.2279162 0.0582155 -0.2279162
687250000 0.0568922 -0.2252987 0.9431078 0.2252987 0.9431078 0.2252987 0.0568922 -0.2252987
694500000 0.0556076 -0.2227197 0.9443924 0.2227197 0.9443924 0.2227197 0.0556076 -0.2227197
701750000 0.0543603 -0.2201784 0.9456397 0.2201784 0.9456397 0.2201784 0.0543603 -0.2201784
709000000 0.0531489 -0.2176740 0.9468511 0.2176740 0.9468511 0.2176740 0.0531489 -0.2176740
716250000 0.0519721 -0.2152057 0.9480279 0.2152057 0.9480279 0.2152057 0.0519721 -0.2152057
723500000 0.0508286 -0.2127726 0.9491714 0.2127726 0.9491714 0.2127726 0.0508286 -0.2127726
730750000 0.0497174 -0.2103742 0.9502826 0.2103742 0.9502826 0.2103742 0.0497174 -0.2103742
738000000 0.0486373 -0.2080095 0.9513627 0.2080095 0.9513627 0.2080095 0.0486373 -0.2080095
745250000 0.0475872 -0.2056780 0.9524128 0.2056780 0.9524128 0.2056780 0.0475872 -0.2056780
752500000 0.0465661 -0.2033789 0.9534339 0.2033789 0.9534339 0.2033789 0.0465661 -0.2033789
759750000 0.0455730 -0.2011114 0.9544270 0.2011114 0.9544270 0.2011114 0.0455730 -0.2011114
767000000 0.0446068 -0.1988750 0.9553932 0.1988750 0.9553932 0.1988750 0.0446068 -0.1988750
774250000 0.0436668 -0.1966690 0.9563332 0.1966690 0.9563332 0.1966690 0.0436668 -0.1966690
781500000 0.0427521 -0.1944928 0.9572479 0.1944928 0.9572479 0.1944928 0.0427521 -0.1944928
788750000 0.0418617 -0.1923456 0.9581383 0.1923456 0.9581383 0.1923456 0.0418617 -0.1923456
796000000 0.0409950 -0.1902270 0.9590050 0.1902270 0.9590050 0.1902270 0.0409950 -0.1902270
803250000 0.0401511 -0.1881362 0.9598489 0.1881362 0.9598489 0.1881362 0.0401511 -0.1881362
810500000 0.0393293 -0.1860728 0.9606707 0.1860728 0.9606707 0.1860728 0.0393293 -0.1860728
817750000 0.0385289 -0.1840362 0.9614711 0.1840362 0.9614711 0.1840362 0.0385289 -0.1840362
825000000 0.0377492 -0.1820257 0.9622508 0.1820257 0.9622508 0.1820257 0.0377492 -0.1820257
832250000 0.0369895 -0.1800410 0.9630105 0.1800410 0.9630105 0.1800410 0.0369895 -0.1800410
839500000 0.0362493 -0.1780813 0.9637507 0.1780813 0.9637507 0.1780813 0.0362493 -0.1780813
846750000 0.0355278 -0.1761463 0.9644722 0.1761463 0.9644722 0.1761463 0.0355278 -0.1761463
854000000 0.0348246 -0.1742354 0.9651754 0.1742354 0.9651754 0.1742354 0.0348246 -0.1742354
861250000 0.0341391 -0.1723481 0.9658609 0.1723481 0.9658609 0.1723481 0.0341391 -0.1723481
868500000 0.0334706 -0.1704840 0.9665294 0.1704840 0.9665294 0.1704840 0.0334706 -0.1704840
875750000 0.0328188 -0.1686426 0.9671812 0.1686426 0.9671812 0.1686426 0.0328188 -0.1686426
883000000 0.0321831 -0.1668234 0.9678169 0.1668234 0.9678169 0.1668234 0.0321831 -0.1668234
890250000 0.0315630 -0.1650259 0.9684370 0.1650259 0.9684370 0.1650259 0.0315630 -0.1650259
897500000 0.0309581 -0.1632499 0.9690419 0.1632499 0.9690419 0.1632499 0.0309581 -0.1632499
904750000 0.0303679 -0.1614947 0.9696321 0.1614947 0.9696321 0.1614947 0.0303679 -0.1614947
912000000 0.0297919 -0.1597600 0.9702081 0.1597600 0.9702081 0.1597600 0.0297919 -0.1597600
919250000 0.0292299 -0.1580455 0.9707701 0.1580455 0.9707701 0.1580455 0.0292299 -0.1580455
926500000 0.0286813 -0.1563507 0.9713187 0.1563507 0.9713187 0.1563507 0.0286813 -0.1563507
933750000 0.0281458 -0.1546752 0.9718542 0.1546752 0.9718542 0.1546752 0.0281458 -0.1546752
941000000 0.0276230 -0.1530186 0.9723770 0.1530186 0.9723770 0.1530186 0.0276230 -0.1530186
948250000 0.0271125 -0.1513806 0.9728875 0.1513806 0.9728875 0.1513806 0.0271125 -0.1513806
955500000 0.0266141 -0.1497609 0.9733859 0.1497609 0.9733859 0.1497609 0.0266141 -0.1497609
962750000 0.0261273 -0.1481590 0.9738727 0.1481590 0.9738727 0.1481590 0.0261273 -0.1481590
970000000 0.0256519 -0.1465747 0.9743481 0.1465747 0.9743481 0.1465747 0.0256519 -0.1465747
977250000 0.0251875 -0.1450075 0.9748125 0.1450075 0.9748125 0.1450075 0.0251875 -0.1450075
984500000 0.0247339 -0.1434573 0.9752661 0.1434573 0.9752661 0.1434573 0.0247339 -0.1434573
991750000 0.0242907 -0.1419236 0.9757093 0.1419236 0.9757093 0.1419236 0.0242907 -0.1419236
999000000 0.0238576 -0.1404061 0.9761424 0.1404061 0.9761424 0.1404061 0.0238576 -0.1404061
1006250000 0.0234345 -0.1389046 0.9765655 0.1389046 0.9765655 0.1389046 0.0234345 -0.1389046
1013500000 0.0230210 -0.1374187 0.9769790 0.1374187 0.9769790 0.1374187 0.0230210 -0.1374187
1020750000 0.0226169 -0.1359482 0.9773831 0.1359482 0.9773831 0.1359482 0.0226169 -0.1359482
1028000000 0.0222219 -0.1344927 0.9777781 0.1344927 0.9777781 0.1344927 0.0222219 -0.1344927
1035250000 0.0218357 -0.1330521 0.9781643 0.1330521 0.9781643 0.1330521 0.0218357 -0.1330521
1042500000 0.0214583 -0.1316259 0.9785417 0.1316259 0.9785417 0.1316259 0.0214583 -0.1316259
1049750000 0.0210893 -0.1302140 0.9789107 0.1302140 0.9789107 0.1302140 0.0210893 -0.1302140
1057000000 0.0207285 -0.1288162 0.9792715 0.1288162 0.9792715 0.1288162 0.0207285 -0.1288162
1064250000 0.0203758 -0.1274320 0.9796242 0.1274320 0.9796242 0.1274320 0.0203758 -0.1274320
1071500000 0.0200308 -0.1260614 0.9799692 0.1260614 0.9799692 0.1260614 0.0200308 -0.1260614
1078750000 0.0196935 -0.1247040 0.9803065 0.1247040 0.9803065 0.1247040 0.0196935 -0.1247040
1086000000 0.0193636 -0.1233597 0.9806364 0.1233597 0.9806364 0.1233597 0.0193636 -0.1233597
1093250000 0.0190410 -0.1220281 0.9809590 0.1220281 0.9809590 0.1220281 0.0190410 -0.1220281
1100500000 0.0187254 -0.1207091 0.9812746 0.1207091 0.9812746 0.1207091 0.0187254 -0.1207091
1107750000 0.0184167 -0.1194025 0.9815833 0.1194025 0.9815833 0.1194025 0.0184167 -0.1194025
1115000000 0.0181148 -0.1181080 0.9818852 0.1181080 0.9818852 0.1181080 0.0181148 -0.1181080
1122250000 0.0178194 -0.1168254 0.9821806 0.1168254 0.9821806 0.1168254 0.0178194 -0.1168254
1129500000 0.0175305 -0.1155545 0.9824695 0.1155545 0.9824695 0.1155545 0.0175305 -0.1155545
1136750000 0.0172478 -0.1142951 0.9827522 0.1142951 0.9827522 0.1142951 0.0172478 -0.1142951
1144000000 0.0169712 -0.1130470 0.9830288 0.1130470 0.9830288 0.1130470 0.0169712 -0.1130470
1151250000 0.0167006 -0.1118101 0.9832994 0.1118101 0.9832994 0.1118101 0.0167006 -0.1118101
1158500000 0.0164358 -0.1105840 0.9835642 0.1105840 0.9835642 0.1105840 0.0164358 -0.1105840
1165750000 0.0161768 -0.1093688 0.9838232 0.1093688 0.9838232 0.1093688 0.0161768 -0.1093688
1173000000 0.0159232 -0.1081640 0.9840768 0.1081640 0.9840768 0.1081640 0.0159232 -0.1081640
1180250000 0.0156752 -0.1069697 0.9843248 0.1069697 0.9843248 0.1069697 0.0156752 -0.1069697
1187500000 0.0154324 -0.1057855 0.9845676 0.1057855 0.9845676 0.1057855 0.0154324 -0.1057855
1194750000 0.0151949 -0.1046114 0.9848051 0.1046114 0.9848051 0.1046114 0.0151949 -0.1046114
1202000000 0.0149624 -0.1034472 0.9850376 0.1034472 0.9850376 0.1034472 0.0149624 -0.1034472
1209250000 0.0147349 -0.1022927 0.9852651 0.1022927 0.9852651 0.1022927 0.0147349 -0.1022927
1216500000 0.0145123 -0.1011477 0.9854877 0.1011477 0.9854877 0.1011477 0.0145123 -0.1011477
1223750000 0.0142944 -0.1000121 0.9857056 0.1000121 0.9857056 0.1000121 0.0142944 -0.1000121
1231000000 0.0140811 -0.0988857 0.9859189 0.0988857 0.9859189 0.0988857 0.0140811 -0.0988857
1238250000 0.0138724 -0.0977685 0.9861276 0.0977685 0.9861276 0.0977685 0.0138724 -0.0977685
1245500000 0.0136682 -0.0966601 0.9863318 0.0966601 0.9863318 0.0966601 0.0136682 -0.0966601
1252750000 0.0134683 -0.0955606 0.9865317 0.0955606 0.9865317 0.0955606 0.0134683 -0.0955606
1260000000 0.0132727 -0.0944697 0.9867273 0.0944697 0.9867273 0.0944697 0.0132727 -0.0944697
1267250000 0.0130812 -0.0933873 0.9869188 0.0933873 0.9869188 0.0933873 0.0130812 -0.0933873
1274500000 0.0128939 -0.0923133 0.9871061 0.0923133 0.9871061 0.0923133 0.0128939 -0.0923133
1281750000 0.0127105 -0.0912475 0.9872895 0.0912475 0.9872895 0.0912475 0.0127105 -0.0912475
1289000000 0.0125310 -0.0901899 0.9874690 0.0901899 0.9874690 0.0901899 0.0125310 -0.0901899
1296250000 0.0123554 -0.0891402 0.9876446 0.0891402 0.9876446 0.0891402 0.0123554 -0.0891402
1303500000 0.0121836 -0.0880984 0.9878164 0.0880984 0.9878164 0.0880984 0.0121836 -0.0880984
1310750000 0.0120154 -0.0870643 0.9879846 0.0870643 0.9879846 0.0870643 0.0120154 -0.0870643
1318000000 0.0118508 -0.0860378 0.9881492 0.0860378 0.9881492 0.0860378 0.0118508 -0.0860378
1325250000 0.0116898 -0.0850189 0.9883102 0.0850189 0.9883102 0.0850189 0.0116898 -0.0850189
1332500000 0.0115323 -0.0840073 0.9884677 0.0840073 0.9884677 0.0840073 0.0115323 -0.0840073
1339750000 0.0113781 -0.0830030 0.9886219 0.0830030 0.9886219 0.0830030 0.0113781 -0.0830030
1347000000 0.0112273 -0.0820058 0.9887727 0.0820058 0.9887727 0.0820058 0.0112273 -0.0820058
1354250000 0.0110797 -0.0810157 0.9889203 0.0810157 0.9889203 0.0810157 0.0110797 -0.0810157
1361500000 0.0109353 -0.0800325 0.9890647 0.0800325 0.9890647 0.0800325 0.0109353 -0.0800325
1368750000 0.0107941 -0.0790561 0.9892059 0.0790561 0.9892059 0.0790561 0.0107941 -0.0790561
1376000000 0.0106560 -0.0780865 0.9893440 0.0780865 0.9893440 0.0780865 0.0106560 -0.0780865
1383250000 0.0105209 -0.0771235 0.9894791 0.0771235 0.9894791 0.0771235 0.0105209 -0.0771235
1390500000 0.0103887 -0.0761670 0.9896113 0.0761670 0.9896113 0.0761670 0.0103887 -0.0761670
1397750000 0.0102595 -0.0752170 0.9897405 0.0752170 0.9897405 0.0752170 0.0102595 -0.0752170
1405000000 0.0101331 -0.0742732 0.9898669 0.0742732 0.9898669 0.0742732 0.0101331 -0.0742732
1412250000 0.0100095 -0.0733358 0.9899905 0.0733358 0.9899905 0.0733358 0.0100095 -0.0733358
1419500000 0.0098887 -0.0724044 0.9901113 0.0724044 0.9901113 0.0724044 0.0098887 -0.0724044
1426750000 0.0097705 -0.0714791 0.9902295 0.0714791 0.9902295 0.0714791 0.0097705 -0.0714791
1434000000 0.0096551 -0.0705598 0.9903449 0.0705598 0.9903449 0.0705598 0.0096551 -0.0705598
1441250000 0.0095422 -0.0696464 0.9904578 0.0696464 0.9904578 0.0696464 0.0095422 -0.0696464
1448500000 0.0094319 -0.0687387 0.9905681 0.0687387 0.9905681 0.0687387 0.0094319 -0.0687387
1455750000 0.0093241 -0.0678368 0.9906759 0.0678368 0.9906759 0.0678368 0.0093241 -0.0678368
1463000000 0.0092187 -0.0669404 0.9907813 0.0669404 0.9907813 0.0669404 0.0092187 -0.0669404
1470250000 0.0091158 -0.0660497 0.9908842 0.0660497 0.9908842 0.0660497 0.0091158 -0.0660497
1477500000 0.0090153 -0.0651643 0.9909847 0.0651643 0.9909847 0.0651643 0.0090153 -0.0651643
1484750000 0.0089171 -0.0642844 0.9910829 0.0642844 0.9910829 0.0642844 0.0089171 -0.0642844
1492000000 0.0088212 -0.0634097 0.9911788 0.0634097 0.9911788 0.0634097 0.0088212 -0.0634097
1499250000 0.0087276 -0.0625403 0.9912724 0.0625403 0.9912724 0.0625403 0.0087276 -0.0625403
1506500000 0.0086362 -0.0616761 0.9913638 0.0616761 0.9913638 0.0616761 0.0086362 -0.0616761
1513750000 0.0085470 -0.0608169 0.9914530 0.0608169 0.9914530 0.0608169 0.0085470 -0.0608169
1521000000 0.0084600 -0.0599627 0.9915400 0.0599627 0.9915400 0.0599627 0.0084600 -0.0599627
1528250000 0.0083750 -0.0591135 0.9916250 0.0591135 0.9916250 0.0591135 0.0083750 -0.0591135
1535500000 0.0082922 -0.0582691 0.9917078 0.0582691 0.9917078 0.0582691 0.0082922 -0.0582691
1542750000 0.0082114 -0.0574296 0.9917886 0.0574296 0.9917886 0.0574296 0.0082114 -0.0574296
1550000000 0.0081326 -0.0565948 0.9918674 0.0565948 0.9918674 0.0565948 0.0081326 -0.0565948
1557250000 0.0080558 -0.0557646 0.9919442 0.0557646 0.9919442 0.0557646 0.0080558 -0.0557646
1564500000 0.0079809 -0.0549390 0.9920191 0.0549390 0.9920191 0.0549390 0.0079809 -0.0549390
1571750000 0.0079080 -0.0541180 0.9920920 0.0541180 0.9920920 0.0541180 0.0079080 -0.0541180
1579000000 0.0078369 -0.0533014 0.9921631 0.0533014 0.9921631 0.0533014 0.0078369 -0.0533014
1586250000 0.0077677 -0.0524893 0.9922323 0.0524893 0.9922323 0.0524893 0.0077677 -0.0524893
1593500000 0.0077003 -0.0516815 0.9922997 0.0516815 0.9922997 0.0516815 0.0077003 -0.0516815
1600750000 0.0076348 -0.0508780 0.9923652 0.0508780 0.9923652 0.0508780 0.0076348 -0.0508780
1608000000 0.0075710 -0.0500787 0.9924290 0.0500787 0.9924290 0.0500787 0.0075710 -0.0500787
1615250000 0.0075089 -0.0492836 0.9924911 0.0492836 0.9924911 0.0492836 0.0075089 -0.0492836
1622500000 0.0074486 -0.0484926 0.9925514 0.0484926 0.9925514 0.0484926 0.0074486 -0.0484926
1629750000 0.0073900 -0.0477057 0.9926100 0.0477057 0.9926100 0.0477057 0.0073900 -0.0477057
