!Murata Part Number: GRM2165C2A221JA01
!These Parameters are Measured in Series Mode Connection
!Data Generated on Mar 30, 2021
!       o--ll--o
!Port1            Port2
!       o------o
!Operation Temp=25[degC], DC Bias Voltage=0[V]
!Freq. Start=100[MHz] Stop=9[GHz] 401[Steps]
# Hz S RI R 50
!Freq.(Hz) S11(Real) S11(Imag) S21(Real) S21(Imag) S12(Real) S12(Imag) S22(Real) S22(Imag)
100000000 0.0055644 -0.0689941 0.9944356 0.0689941 0.9944356 0.0689941 0.0055644 -0.0689941
121000000 0.0039291 -0.0560022 0.9960709 0.0560022 0.9960709 0.0560022 0.0039291 -0.0560022
142000000 0.0029655 -0.0466377 0.9970345 0.0466377 0.9970345 0.0466377 0.0029655 -0.0466377
163000000 0.0023530 -0.0395125 0.9976470 0.0395125 0.9976470 0.0395125 0.0023530 -0.0395125
184000000 0.0019418 -0.0338655 0.9980582 0.0338655 0.9980582 0.0338655 0.0019418 -0.0338655
205000000 0.0016547 -0.0292449 0.9983453 0.0292449 0.9983453 0.0292449 0.0016547 -0.0292449
226000000 0.0014483 -0.0253657 0.9985517 0.0253657 0.9985517 0.0253657 0.0014483 -0.0253657
247000000 0.0012969 -0.0220394 0.9987031 0.0220394 0.9987031 0.0220394 0.0012969 -0.0220394
268000000 0.0011843 -0.0191360 0.9988157 0.0191360 0.9988157 0.0191360 0.0011843 -0.0191360
289000000 0.0011003 -0.0165634 0.9988997 0.0165634 0.9988997 0.0165634 0.0011003 -0.0165634
310000000 0.0010378 -0.0142541 0.9989622 0.0142541 0.9989622 0.0142541 0.0010378 -0.0142541
331000000 0.0009918 -0.0121580 0.9990082 0.0121580 0.9990082 0.0121580 0.0009918 -0.0121580
352000000 0.0009590 -0.0102365 0.9990410 0.0102365 0.9990410 0.0102365 0.0009590 -0.0102365
373000000 0.0009368 -0.0084599 0.9990632 0.0084599 0.9990632 0.0084599 0.0009368 -0.0084599
394000000 0.0009235 -0.0068048 0.9990765 0.0068048 0.9990765 0.0068048 0.0009235 -0.0068048
415000000 0.0009177 -0.0052523 0.9990823 0.0052523 0.9990823 0.0052523 0.0009177 -0.0052523
436000000 0.0009184 -0.0037874 0.9990816 0.0037874 0.9990816 0.0037874 0.0009184 -0.0037874
457000000 0.0009249 -0.0023975 0.9990751 0.0023975 0.9990751 0.0023975 0.0009249 -0.0023975
478000000 0.0009364 -0.0010724 0.9990636 0.0010724 0.9990636 0.0010724 0.0009364 -0.0010724
499000000 0.0009527 0.0001965 0.9990473 -0.0001965 0.9990473 -0.0001965 0.0009527 0.0001965
520000000 0.0009735 0.0014164 0.9990265 -0.0014164 0.9990265 -0.0014164 0.0009735 0.0014164
541000000 0.0009984 0.0025934 0.9990016 -0.0025934 0.9990016 -0.0025934 0.0009984 0.0025934
562000000 0.0010273 0.0037329 0.9989727 -0.0037329 0.9989727 -0.0037329 0.0010273 0.0037329
583000000 0.0010602 0.0048393 0.9989398 -0.0048393 0.9989398 -0.0048393 0.0010602 0.0048393
604000000 0.0010971 0.0059166 0.9989029 -0.0059166 0.9989029 -0.0059166 0.0010971 0.0059166
625000000 0.0011379 0.0069682 0.9988621 -0.0069682 0.9988621 -0.0069682 0.0011379 0.0069682
646000000 0.0011829 0.0079973 0.9988171 -0.0079973 0.9988171 -0.0079973 0.0011829 0.0079973
667000000 0.0012320 0.0090066 0.9987680 -0.0090066 0.9987680 -0.0090066 0.0012320 0.0090066
688000000 0.0012856 0.0099984 0.9987144 -0.0099984 0.9987144 -0.0099984 0.0012856 0.0099984
709000000 0.0013438 0.0109751 0.9986562 -0.0109751 0.9986562 -0.0109751 0.0013438 0.0109751
730000000 0.0014070 0.0119385 0.9985930 -0.0119385 0.9985930 -0.0119385 0.0014070 0.0119385
751000000 0.0014756 0.0128907 0.9985244 -0.0128907 0.9985244 -0.0128907 0.0014756 0.0128907
772000000 0.0015500 0.0138332 0.9984500 -0.0138332 0.9984500 -0.0138332 0.0015500 0.0138332
793000000 0.0016307 0.0147677 0.9983693 -0.0147677 0.9983693 -0.0147677 0.0016307 0.0147677
814000000 0.0017186 0.0156956 0.9982814 -0.0156956 0.9982814 -0.0156956 0.0017186 0.0156956
835000000 0.0018143 0.0166185 0.9981857 -0.0166185 0.9981857 -0.0166185 0.0018143 0.0166185
856000000 0.0019189 0.0175377 0.9980811 -0.0175377 0.9980811 -0.0175377 0.0019189 0.0175377
877000000 0.0020334 0.0184545 0.9979666 -0.0184545 0.9979666 -0.0184545 0.0020334 0.0184545
898000000 0.0021593 0.0193700 0.9978407 -0.0193700 0.9978407 -0.0193700 0.0021593 0.0193700
919000000 0.0022983 0.0202855 0.9977017 -0.0202855 0.9977017 -0.0202855 0.0022983 0.0202855
940000000 0.0024523 0.0212020 0.9975477 -0.0212020 0.9975477 -0.0212020 0.0024523 0.0212020
961000000 0.0026239 0.0221204 0.9973761 -0.0221204 0.9973761 -0.0221204 0.0026239 0.0221204
982000000 0.0028160 0.0230415 0.9971840 -0.0230415 0.9971840 -0.0230415 0.0028160 0.0230415
1003000000 0.0030323 0.0239657 0.9969677 -0.0239657 0.9969677 -0.0239657 0.0030323 0.0239657
1024000000 0.0032771 0.0248929 0.9967229 -0.0248929 0.9967229 -0.0248929 0.0032771 0.0248929
1045000000 0.0035560 0.0258223 0.9964440 -0.0258223 0.9964440 -0.0258223 0.0035560 0.0258223
1066000000 0.0038754 0.0267521 0.9961246 -0.0267521 0.9961246 -0.0267521 0.0038754 0.0267521
1087000000 0.0042431 0.0276787 0.9957569 -0.0276787 0.9957569 -0.0276787 0.0042431 0.0276787
1108000000 0.0046681 0.0285963 0.9953319 -0.0285963 0.9953319 -0.0285963 0.0046681 0.0285963
1129000000 0.0051605 0.0294951 0.9948395 -0.0294951 0.9948395 -0.0294951 0.0051605 0.0294951
1150000000 0.0057307 0.0303606 0.9942693 -0.0303606 0.9942693 -0.0303606 0.0057307 0.0303606
1171000000 0.0063879 0.0311708 0.9936121 -0.0311708 0.9936121 -0.0311708 0.0063879 0.0311708
1192000000 0.0071365 0.0318953 0.9928635 -0.0318953 0.9928635 -0.0318953 0.0071365 0.0318953
1213000000 0.0079710 0.0324937 0.9920290 -0.0324937 0.9920290 -0.0324937 0.0079710 0.0324937
1234000000 0.0088677 0.0329185 0.9911323 -0.0329185 0.9911323 -0.0329185 0.0088677 0.0329185
1255000000 0.0097761 0.0331234 0.9902239 -0.0331234 0.9902239 -0.0331234 0.0097761 0.0331234
1276000000 0.0106146 0.0330802 0.9893854 -0.0330802 0.9893854 -0.0330802 0.0106146 0.0330802
1297000000 0.0112792 0.0328024 0.9887208 -0.0328024 0.9887208 -0.0328024 0.0112792 0.0328024
1318000000 0.0116716 0.0323606 0.9883284 -0.0323606 0.9883284 -0.0323606 0.0116716 0.0323606
1339000000 0.0117372 0.0318748 0.9882628 -0.0318748 0.9882628 -0.0318748 0.0117372 0.0318748
1360000000 0.0114908 0.0314781 0.9885092 -0.0314781 0.9885092 -0.0314781 0.0114908 0.0314781
1381000000 0.0110080 0.0312721 0.9889920 -0.0312721 0.9889920 -0.0312721 0.0110080 0.0312721
1402000000 0.0103914 0.0313032 0.9896086 -0.0313032 0.9896086 -0.0313032 0.0103914 0.0313032
1423000000 0.0097354 0.0315669 0.9902646 -0.0315669 0.9902646 -0.0315669 0.0097354 0.0315669
1444000000 0.0091078 0.0320281 0.9908922 -0.0320281 0.9908922 -0.0320281 0.0091078 0.0320281
1465000000 0.0085473 0.0326418 0.9914527 -0.0326418 0.9914527 -0.0326418 0.0085473 0.0326418
1486000000 0.0080709 0.0333656 0.9919291 -0.0333656 0.9919291 -0.0333656 0.0080709 0.0333656
1507000000 0.0076814 0.0341646 0.9923186 -0.0341646 0.9923186 -0.0341646 0.0076814 0.0341646
1528000000 0.0073744 0.0350129 0.9926256 -0.0350129 0.9926256 -0.0350129 0.0073744 0.0350129
1549000000 0.0071421 0.0358921 0.9928579 -0.0358921 0.9928579 -0.0358921 0.0071421 0.0358921
1570000000 0.0069762 0.0367894 0.9930238 -0.0367894 0.9930238 -0.0367894 0.0069762 0.0367894
1591000000 0.0068686 0.0376964 0.9931314 -0.0376964 0.9931314 -0.0376964 0.0068686 0.0376964
1612000000 0.0068126 0.0386075 0.9931874 -0.0386075 0.9931874 -0.0386075 0.0068126 0.0386075
1633000000 0.0068023 0.0395193 0.9931977 -0.0395193 0.9931977 -0.0395193 0.0068023 0.0395193
1654000000 0.0068331 0.0404295 0.9931669 -0.0404295 0.9931669 -0.0404295 0.0068331 0.0404295
1675000000 0.0069013 0.0413369 0.9930987 -0.0413369 0.9930987 -0.0413369 0.0069013 0.0413369
1696000000 0.0070044 0.0422405 0.9929956 -0.0422405 0.9929956 -0.0422405 0.0070044 0.0422405
1717000000 0.0071403 0.0431400 0.9928597 -0.0431400 0.9928597 -0.0431400 0.0071403 0.0431400
1738000000 0.0073079 0.0440348 0.9926921 -0.0440348 0.9926921 -0.0440348 0.0073079 0.0440348
1759000000 0.0075064 0.0449247 0.9924936 -0.0449247 0.9924936 -0.0449247 0.0075064 0.0449247
1780000000 0.0077359 0.0458091 0.9922641 -0.0458091 0.9922641 -0.0458091 0.0077359 0.0458091
1801000000 0.0079965 0.0466874 0.9920035 -0.0466874 0.9920035 -0.0466874 0.0079965 0.0466874
1822000000 0.0082890 0.0475588 0.9917110 -0.0475588 0.9917110 -0.0475588 0.0082890 0.0475588
1843000000 0.0086144 0.0484219 0.9913856 -0.0484219 0.9913856 -0.0484219 0.0086144 0.0484219
1864000000 0.0089742 0.0492752 0.9910258 -0.0492752 0.9910258 -0.0492752 0.0089742 0.0492752
1885000000 0.0093698 0.0501164 0.9906302 -0.0501164 0.9906302 -0.0501164 0.0093698 0.0501164
1906000000 0.0098031 0.0509428 0.9901969 -0.0509428 0.9901969 -0.0509428 0.0098031 0.0509428
1927000000 0.0102758 0.0517509 0.9897242 -0.0517509 0.9897242 -0.0517509 0.0102758 0.0517509
1948000000 0.0107897 0.0525363 0.9892103 -0.0525363 0.9892103 -0.0525363 0.0107897 0.0525363
1969000000 0.0113463 0.0532938 0.9886537 -0.0532938 0.9886537 -0.0532938 0.0113463 0.0532938
1990000000 0.0119466 0.0540170 0.9880534 -0.0540170 0.9880534 -0.0540170 0.0119466 0.0540170
2011000000 0.0125910 0.0546983 0.9874090 -0.0546983 0.9874090 -0.0546983 0.0125910 0.0546983
2032000000 0.0132785 0.0553290 0.9867215 -0.0553290 0.9867215 -0.0553290 0.0132785 0.0553290
2053000000 0.0140066 0.0558993 0.9859934 -0.0558993 0.9859934 -0.0558993 0.0140066 0.0558993
2074000000 0.0147708 0.0563984 0.9852292 -0.0563984 0.9852292 -0.0563984 0.0147708 0.0563984
2095000000 0.0155637 0.0568151 0.9844363 -0.0568151 0.9844363 -0.0568151 0.0155637 0.0568151
2116000000 0.0163746 0.0571381 0.9836254 -0.0571381 0.9836254 -0.0571381 0.0163746 0.0571381
2137000000 0.0171893 0.0573572 0.9828107 -0.0573572 0.9828107 -0.0573572 0.0171893 0.0573572
2158000000 0.0179894 0.0574647 0.9820106 -0.0574647 0.9820106 -0.0574647 0.0179894 0.0574647
2179000000 0.0187532 0.0574565 0.9812468 -0.0574565 0.9812468 -0.0574565 0.0187532 0.0574565
2200000000 0.0194560 0.0573339 0.9805440 -0.0573339 0.9805440 -0.0573339 0.0194560 0.0573339
2221000000 0.0200723 0.0571047 0.9799277 -0.0571047 0.9799277 -0.0571047 0.0200723 0.0571047
2242000000 0.0205772 0.0567842 0.9794228 -0.0567842 0.9794228 -0.0567842 0.0205772 0.0567842
2263000000 0.0209500 0.0563949 0.9790500 -0.0563949 0.9790500 -0.0563949 0.0209500 0.0563949
2284000000 0.0211758 0.0559651 0.9788242 -0.0559651 0.9788242 -0.0559651 0.0211758 0.0559651
2305000000 0.0212481 0.0555269 0.9787519 -0.0555269 0.9787519 -0.0555269 0.0212481 0.0555269
2326000000 0.0211693 0.0551132 0.9788307 -0.0551132 0.9788307 -0.0551132 0.0211693 0.0551132
2347000000 0.0209508 0.0547541 0.9790492 -0.0547541 0.9790492 -0.0547541 0.0209508 0.0547541
2368000000 0.0206110 0.0544750 0.9793890 -0.0544750 0.9793890 -0.0544750 0.0206110 0.0544750
2389000000 0.0201729 0.0542942 0.9798271 -0.0542942 0.9798271 -0.0542942 0.0201729 0.0542942
2410000000 0.0196620 0.0542229 0.9803380 -0.0542229 0.9803380 -0.0542229 0.0196620 0.0542229
2431000000 0.0191032 0.0542649 0.9808968 -0.0542649 0.9808968 -0.0542649 0.0191032 0.0542649
2452000000 0.0185196 0.0544186 0.9814804 -0.0544186 0.9814804 -0.0544186 0.0185196 0.0544186
2473000000 0.0179308 0.0546777 0.9820692 -0.0546777 0.9820692 -0.0546777 0.0179308 0.0546777
2494000000 0.0173528 0.0550329 0.9826472 -0.0550329 0.9826472 -0.0550329 0.0173528 0.0550329
2515000000 0.0167977 0.0554735 0.9832023 -0.0554735 0.9832023 -0.0554735 0.0167977 0.0554735
2536000000 0.0162742 0.0559883 0.9837258 -0.0559883 0.9837258 -0.0559883 0.0162742 0.0559883
2557000000 0.0157881 0.0565660 0.9842119 -0.0565660 0.9842119 -0.0565660 0.0157881 0.0565660
2578000000 0.0153426 0.0571965 0.9846574 -0.0571965 0.9846574 -0.0571965 0.0153426 0.0571965
2599000000 0.0149393 0.0578703 0.9850607 -0.0578703 0.9850607 -0.0578703 0.0149393 0.0578703
2620000000 0.0145783 0.0585793 0.9854217 -0.0585793 0.9854217 -0.0585793 0.0145783 0.0585793
2641000000 0.0142587 0.0593163 0.9857413 -0.0593163 0.9857413 -0.0593163 0.0142587 0.0593163
2662000000 0.0139792 0.0600753 0.9860208 -0.0600753 0.9860208 -0.0600753 0.0139792 0.0600753
2683000000 0.0137377 0.0608512 0.9862623 -0.0608512 0.9862623 -0.0608512 0.0137377 0.0608512
2704000000 0.0135322 0.0616397 0.9864678 -0.0616397 0.9864678 -0.0616397 0.0135322 0.0616397
2725000000 0.0133605 0.0624374 0.9866395 -0.0624374 0.9866395 -0.0624374 0.0133605 0.0624374
2746000000 0.0132205 0.0632413 0.9867795 -0.0632413 0.9867795 -0.0632413 0.0132205 0.0632413
2767000000 0.0131099 0.0640490 0.9868901 -0.0640490 0.9868901 -0.0640490 0.0131099 0.0640490
2788000000 0.0130268 0.0648586 0.9869732 -0.0648586 0.9869732 -0.0648586 0.0130268 0.0648586
2809000000 0.0129693 0.0656684 0.9870307 -0.0656684 0.9870307 -0.0656684 0.0129693 0.0656684
2830000000 0.0129356 0.0664772 0.9870644 -0.0664772 0.9870644 -0.0664772 0.0129356 0.0664772
2851000000 0.0129241 0.0672838 0.9870759 -0.0672838 0.9870759 -0.0672838 0.0129241 0.0672838
2872000000 0.0129332 0.0680873 0.9870668 -0.0680873 0.9870668 -0.0680873 0.0129332 0.0680873
2893000000 0.0129615 0.0688870 0.9870385 -0.0688870 0.9870385 -0.0688870 0.0129615 0.0688870
2914000000 0.0130078 0.0696822 0.9869922 -0.0696822 0.9869922 -0.0696822 0.0130078 0.0696822
2935000000 0.0130709 0.0704723 0.9869291 -0.0704723 0.9869291 -0.0704723 0.0130709 0.0704723
2956000000 0.0131496 0.0712569 0.9868504 -0.0712569 0.9868504 -0.0712569 0.0131496 0.0712569
2977000000 0.0132430 0.0720355 0.9867570 -0.0720355 0.9867570 -0.0720355 0.0132430 0.0720355
2998000000 0.0133499 0.0728077 0.9866501 -0.0728077 0.9866501 -0.0728077 0.0133499 0.0728077
3019000000 0.0134696 0.0735732 0.9865304 -0.0735732 0.9865304 -0.0735732 0.0134696 0.0735732
3040000000 0.0136010 0.0743316 0.9863990 -0.0743316 0.9863990 -0.0743316 0.0136010 0.0743316
3061000000 0.0137433 0.0750827 0.9862567 -0.0750827 0.9862567 -0.0750827 0.0137433 0.0750827
3082000000 0.0138957 0.0758261 0.9861043 -0.0758261 0.9861043 -0.0758261 0.0138957 0.0758261
3103000000 0.0140573 0.0765617 0.9859427 -0.0765617 0.9859427 -0.0765617 0.0140573 0.0765617
3124000000 0.0142271 0.0772891 0.9857729 -0.0772891 0.9857729 -0.0772891 0.0142271 0.0772891
3145000000 0.0144044 0.0780084 0.9855956 -0.0780084 0.9855956 -0.0780084 0.0144044 0.0780084
3166000000 0.0145881 0.0787192 0.9854119 -0.0787192 0.9854119 -0.0787192 0.0145881 0.0787192
3187000000 0.0147776 0.0794217 0.9852224 -0.0794217 0.9852224 -0.0794217 0.0147776 0.0794217
3208000000 0.0149717 0.0801156 0.9850283 -0.0801156 0.9850283 -0.0801156 0.0149717 0.0801156
3229000000 0.0151696 0.0808012 0.9848304 -0.0808012 0.9848304 -0.0808012 0.0151696 0.0808012
3250000000 0.0153704 0.0814785 0.9846296 -0.0814785 0.9846296 -0.0814785 0.0153704 0.0814785
3271000000 0.0155732 0.0821477 0.9844268 -0.0821477 0.9844268 -0.0821477 0.0155732 0.0821477
3292000000 0.0157770 0.0828093 0.9842230 -0.0828093 0.9842230 -0.0828093 0.0157770 0.0828093
3313000000 0.0159809 0.0834636 0.9840191 -0.0834636 0.9840191 -0.0834636 0.0159809 0.0834636
3334000000 0.0161842 0.0841111 0.9838158 -0.0841111 0.9838158 -0.0841111 0.0161842 0.0841111
3355000000 0.0163861 0.0847524 0.9836139 -0.0847524 0.9836139 -0.0847524 0.0163861 0.0847524
3376000000 0.0165859 0.0853883 0.9834141 -0.0853883 0.9834141 -0.0853883 0.0165859 0.0853883
3397000000 0.0167829 0.0860196 0.9832171 -0.0860196 0.9832171 -0.0860196 0.0167829 0.0860196
3418000000 0.0169768 0.0866470 0.9830232 -0.0866470 0.9830232 -0.0866470 0.0169768 0.0866470
3439000000 0.0171671 0.0872715 0.9828329 -0.0872715 0.9828329 -0.0872715 0.0171671 0.0872715
3460000000 0.0173536 0.0878940 0.9826464 -0.0878940 0.9826464 -0.0878940 0.0173536 0.0878940
3481000000 0.0175363 0.0885156 0.9824637 -0.0885156 0.9824637 -0.0885156 0.0175363 0.0885156
3502000000 0.0177151 0.0891370 0.9822849 -0.0891370 0.9822849 -0.0891370 0.0177151 0.0891370
3523000000 0.0178903 0.0897593 0.9821097 -0.0897593 0.9821097 -0.0897593 0.0178903 0.0897593
3544000000 0.0180621 0.0903833 0.9819379 -0.0903833 0.9819379 -0.0903833 0.0180621 0.0903833
3565000000 0.0182309 0.0910097 0.9817691 -0.0910097 0.9817691 -0.0910097 0.0182309 0.0910097
3586000000 0.0183973 0.0916394 0.9816027 -0.0916394 0.9816027 -0.0916394 0.0183973 0.0916394
3607000000 0.0185619 0.0922728 0.9814381 -0.0922728 0.9814381 -0.0922728 0.0185619 0.0922728
3628000000 0.0187252 0.0929105 0.9812748 -0.0929105 0.9812748 -0.0929105 0.0187252 0.0929105
3649000000 0.0188880 0.0935529 0.9811120 -0.0935529 0.9811120 -0.0935529 0.0188880 0.0935529
3670000000 0.0190510 0.0942002 0.9809490 -0.0942002 0.9809490 -0.0942002 0.0190510 0.0942002
3691000000 0.0192150 0.0948527 0.9807850 -0.0948527 0.9807850 -0.0948527 0.0192150 0.0948527
3712000000 0.0193806 0.0955102 0.9806194 -0.0955102 0.9806194 -0.0955102 0.0193806 0.0955102
3733000000 0.0195486 0.0961729 0.9804514 -0.0961729 0.9804514 -0.0961729 0.0195486 0.0961729
3754000000 0.0197196 0.0968405 0.9802804 -0.0968405 0.9802804 -0.0968405 0.0197196 0.0968405
3775000000 0.0198942 0.0975129 0.9801058 -0.0975129 0.9801058 -0.0975129 0.0198942 0.0975129
3796000000 0.0200731 0.0981898 0.9799269 -0.0981898 0.9799269 -0.0981898 0.0200731 0.0981898
3817000000 0.0202566 0.0988708 0.9797434 -0.0988708 0.9797434 -0.0988708 0.0202566 0.0988708
3838000000 0.0204453 0.0995556 0.9795547 -0.0995556 0.9795547 -0.0995556 0.0204453 0.0995556
3859000000 0.0206396 0.1002437 0.9793604 -0.1002437 0.9793604 -0.1002437 0.0206396 0.1002437
3880000000 0.0208397 0.1009348 0.9791603 -0.1009348 0.9791603 -0.1009348 0.0208397 0.1009348
3901000000 0.0210459 0.1016282 0.9789541 -0.1016282 0.9789541 -0.1016282 0.0210459 0.1016282
3922000000 0.0212586 0.1023235 0.9787414 -0.1023235 0.9787414 -0.1023235 0.0212586 0.1023235
3943000000 0.0214777 0.1030202 0.9785223 -0.1030202 0.9785223 -0.1030202 0.0214777 0.1030202
3964000000 0.0217034 0.1037179 0.9782966 -0.1037179 0.9782966 -0.1037179 0.0217034 0.1037179
3985000000 0.0219358 0.1044160 0.9780642 -0.1044160 0.9780642 -0.1044160 0.0219358 0.1044160
4006000000 0.0221749 0.1051140 0.9778251 -0.1051140 0.9778251 -0.1051140 0.0221749 0.1051140
4027000000 0.0224206 0.1058114 0.9775794 -0.1058114 0.9775794 -0.1058114 0.0224206 0.1058114
4048000000 0.0226728 0.1065078 0.9773272 -0.1065078 0.9773272 -0.1065078 0.0226728 0.1065078
4069000000 0.0229314 0.1072028 0.9770686 -0.1072028 0.9770686 -0.1072028 0.0229314 0.1072028
4090000000 0.0231962 0.1078957 0.9768038 -0.1078957 0.9768038 -0.1078957 0.0231962 0.1078957
4111000000 0.0234671 0.1085863 0.9765329 -0.1085863 0.9765329 -0.1085863 0.0234671 0.1085863
4132000000 0.0237438 0.1092741 0.9762562 -0.1092741 0.9762562 -0.1092741 0.0237438 0.1092741
4153000000 0.0240260 0.1099587 0.9759740 -0.1099587 0.9759740 -0.1099587 0.0240260 0.1099587
4174000000 0.0243135 0.1106397 0.9756865 -0.1106397 0.9756865 -0.1106397 0.0243135 0.1106397
4195000000 0.0246058 0.1113168 0.9753942 -0.1113168 0.9753942 -0.1113168 0.0246058 0.1113168
4216000000 0.0249026 0.1119897 0.9750974 -0.1119897 0.9750974 -0.1119897 0.0249026 0.1119897
4237000000 0.0252036 0.1126580 0.9747964 -0.1126580 0.9747964 -0.1126580 0.0252036 0.1126580
4258000000 0.0255082 0.1133216 0.9744918 -0.1133216 0.9744918 -0.1133216 0.0255082 0.1133216
4279000000 0.0258161 0.1139801 0.9741839 -0.1139801 0.9741839 -0.1139801 0.0258161 0.1139801
4300000000 0.0261268 0.1146333 0.9738732 -0.1146333 0.9738732 -0.1146333 0.0261268 0.1146333
4321000000 0.0264398 0.1152811 0.9735602 -0.1152811 0.9735602 -0.1152811 0.0264398 0.1152811
4342000000 0.0267545 0.1159234 0.9732455 -0.1159234 0.9732455 -0.1159234 0.0267545 0.1159234
4363000000 0.0270704 0.1165600 0.9729296 -0.1165600 0.9729296 -0.1165600 0.0270704 0.1165600
4384000000 0.0273871 0.1171909 0.9726129 -0.1171909 0.9726129 -0.1171909 0.0273871 0.1171909
4405000000 0.0277038 0.1178162 0.9722962 -0.1178162 0.9722962 -0.1178162 0.0277038 0.1178162
4426000000 0.0280200 0.1184357 0.9719800 -0.1184357 0.9719800 -0.1184357 0.0280200 0.1184357
4447000000 0.0283351 0.1190497 0.9716649 -0.1190497 0.9716649 -0.1190497 0.0283351 0.1190497
4468000000 0.0286486 0.1196583 0.9713514 -0.1196583 0.9713514 -0.1196583 0.0286486 0.1196583
4489000000 0.0289599 0.1202616 0.9710401 -0.1202616 0.9710401 -0.1202616 0.0289599 0.1202616
4510000000 0.0292684 0.1208600 0.9707316 -0.1208600 0.9707316 -0.1208600 0.0292684 0.1208600
