!Murata Part Number: GRM2165C1H273JA01
!These Parameters are Measured in Series Mode Connection
!Data Generated on Mar 30, 2021
!       o--ll--o
!Port1            Port2
!       o------o
!Operation Temp=25[degC], DC Bias Voltage=0[V]
!Freq. Start=1000[kHz] Stop=6[GHz] 401[Steps]
# Hz S RI R 50
!Freq.(Hz) S11(Real) S11(Imag) S21(Real) S21(Imag) S12(Real) S12(Imag) S22(Real) S22(Imag)
1000000 0.0035485 -0.0590943 0.9964515 0.0590943 0.9964515 0.0590943 0.0035485 -0.0590943
1021987 0.0033999 -0.0578300 0.9966001 0.0578300 0.9966001 0.0578300 0.0033999 -0.0578300
1044457 0.0032576 -0.0565923 0.9967424 0.0565923 0.9967424 0.0565923 0.0032576 -0.0565923
1067422 0.0031212 -0.0553807 0.9968788 0.0553807 0.9968788 0.0553807 0.0031212 -0.0553807
1090891 0.0029907 -0.0541946 0.9970093 0.0541946 0.9970093 0.0541946 0.0029907 -0.0541946
1114877 0.0028657 -0.0530336 0.9971343 0.0530336 0.9971343 0.0530336 0.0028657 -0.0530336
1139390 0.0027460 -0.0518971 0.9972540 0.0518971 0.9972540 0.0518971 0.0027460 -0.0518971
1164441 0.0026314 -0.0507847 0.9973686 0.0507847 0.9973686 0.0507847 0.0026314 -0.0507847
1190044 0.0025216 -0.0496957 0.9974784 0.0496957 0.9974784 0.0496957 0.0025216 -0.0496957
1216210 0.0024165 -0.0486299 0.9975835 0.0486299 0.9975835 0.0486299 0.0024165 -0.0486299
1242950 0.0023159 -0.0475866 0.9976841 0.0475866 0.9976841 0.0475866 0.0023159 -0.0475866
1270279 0.0022195 -0.0465654 0.9977805 0.0465654 0.9977805 0.0465654 0.0022195 -0.0465654
1298209 0.0021273 -0.0455659 0.9978727 0.0455659 0.9978727 0.0455659 0.0021273 -0.0455659
1326753 0.0020389 -0.0445875 0.9979611 0.0445875 0.9979611 0.0445875 0.0020389 -0.0445875
1355924 0.0019543 -0.0436300 0.9980457 0.0436300 0.9980457 0.0436300 0.0019543 -0.0436300
1385737 0.0018733 -0.0426927 0.9981267 0.0426927 0.9981267 0.0426927 0.0018733 -0.0426927
1416205 0.0017958 -0.0417754 0.9982042 0.0417754 0.9982042 0.0417754 0.0017958 -0.0417754
1447343 0.0017215 -0.0408776 0.9982785 0.0408776 0.9982785 0.0408776 0.0017215 -0.0408776
1479166 0.0016504 -0.0399988 0.9983496 0.0399988 0.9983496 0.0399988 0.0016504 -0.0399988
1511688 0.0015823 -0.0391387 0.9984177 0.0391387 0.9984177 0.0391387 0.0015823 -0.0391387
1544926 0.0015171 -0.0382970 0.9984829 0.0382970 0.9984829 0.0382970 0.0015171 -0.0382970
1578894 0.0014547 -0.0374731 0.9985453 0.0374731 0.9985453 0.0374731 0.0014547 -0.0374731
1613609 0.0013950 -0.0366668 0.9986050 0.0366668 0.9986050 0.0366668 0.0013950 -0.0366668
1649087 0.0013378 -0.0358776 0.9986622 0.0358776 0.9986622 0.0358776 0.0013378 -0.0358776
1685346 0.0012830 -0.0351052 0.9987170 0.0351052 0.9987170 0.0351052 0.0012830 -0.0351052
1722402 0.0012306 -0.0343493 0.9987694 0.0343493 0.9987694 0.0343493 0.0012306 -0.0343493
1760272 0.0011804 -0.0336095 0.9988196 0.0336095 0.9988196 0.0336095 0.0011804 -0.0336095
1798975 0.0011323 -0.0328854 0.9988677 0.0328854 0.9988677 0.0328854 0.0011323 -0.0328854
1838529 0.0010863 -0.0321768 0.9989137 0.0321768 0.9989137 0.0321768 0.0010863 -0.0321768
1878953 0.0010423 -0.0314832 0.9989577 0.0314832 0.9989577 0.0314832 0.0010423 -0.0314832
1920266 0.0010001 -0.0308045 0.9989999 0.0308045 0.9989999 0.0308045 0.0010001 -0.0308045
1962487 0.0009597 -0.0301402 0.9990403 0.0301402 0.9990403 0.0301402 0.0009597 -0.0301402
2005636 0.0009211 -0.0294900 0.9990789 0.0294900 0.9990789 0.0294900 0.0009211 -0.0294900
2049734 0.0008841 -0.0288537 0.9991159 0.0288537 0.9991159 0.0288537 0.0008841 -0.0288537
2094801 0.0008487 -0.0282310 0.9991513 0.0282310 0.9991513 0.0282310 0.0008487 -0.0282310
2140860 0.0008148 -0.0276216 0.9991852 0.0276216 0.9991852 0.0276216 0.0008148 -0.0276216
2187931 0.0007824 -0.0270251 0.9992176 0.0270251 0.9992176 0.0270251 0.0007824 -0.0270251
2236037 0.0007513 -0.0264414 0.9992487 0.0264414 0.9992487 0.0264414 0.0007513 -0.0264414
2285201 0.0007216 -0.0258701 0.9992784 0.0258701 0.9992784 0.0258701 0.0007216 -0.0258701
2335446 0.0006931 -0.0253110 0.9993069 0.0253110 0.9993069 0.0253110 0.0006931 -0.0253110
2386795 0.0006659 -0.0247638 0.9993341 0.0247638 0.9993341 0.0247638 0.0006659 -0.0247638
2439274 0.0006398 -0.0242282 0.9993602 0.0242282 0.9993602 0.0242282 0.0006398 -0.0242282
2492906 0.0006149 -0.0237041 0.9993851 0.0237041 0.9993851 0.0237041 0.0006149 -0.0237041
2547717 0.0005910 -0.0231911 0.9994090 0.0231911 0.9994090 0.0231911 0.0005910 -0.0231911
2603734 0.0005682 -0.0226891 0.9994318 0.0226891 0.9994318 0.0226891 0.0005682 -0.0226891
2660982 0.0005463 -0.0221977 0.9994537 0.0221977 0.9994537 0.0221977 0.0005463 -0.0221977
2719490 0.0005254 -0.0217169 0.9994746 0.0217169 0.9994746 0.0217169 0.0005254 -0.0217169
2779283 0.0005054 -0.0212462 0.9994946 0.0212462 0.9994946 0.0212462 0.0005054 -0.0212462
2840391 0.0004863 -0.0207856 0.9995137 0.0207856 0.9995137 0.0207856 0.0004863 -0.0207856
2902843 0.0004680 -0.0203348 0.9995320 0.0203348 0.9995320 0.0203348 0.0004680 -0.0203348
2966668 0.0004504 -0.0198936 0.9995496 0.0198936 0.9995496 0.0198936 0.0004504 -0.0198936
3031896 0.0004337 -0.0194617 0.9995663 0.0194617 0.9995663 0.0194617 0.0004337 -0.0194617
3098558 0.0004176 -0.0190391 0.9995824 0.0190391 0.9995824 0.0190391 0.0004176 -0.0190391
3166686 0.0004023 -0.0186254 0.9995977 0.0186254 0.9995977 0.0186254 0.0004023 -0.0186254
3236312 0.0003876 -0.0182205 0.9996124 0.0182205 0.9996124 0.0182205 0.0003876 -0.0182205
3307469 0.0003736 -0.0178243 0.9996264 0.0178243 0.9996264 0.0178243 0.0003736 -0.0178243
3380190 0.0003602 -0.0174364 0.9996398 0.0174364 0.9996398 0.0174364 0.0003602 -0.0174364
3454511 0.0003474 -0.0170568 0.9996526 0.0170568 0.9996526 0.0170568 0.0003474 -0.0170568
3530465 0.0003351 -0.0166852 0.9996649 0.0166852 0.9996649 0.0166852 0.0003351 -0.0166852
3608090 0.0003234 -0.0163216 0.9996766 0.0163216 0.9996766 0.0163216 0.0003234 -0.0163216
3687421 0.0003122 -0.0159656 0.9996878 0.0159656 0.9996878 0.0159656 0.0003122 -0.0159656
3768496 0.0003015 -0.0156172 0.9996985 0.0156172 0.9996985 0.0156172 0.0003015 -0.0156172
3851354 0.0002912 -0.0152761 0.9997088 0.0152761 0.9997088 0.0152761 0.0002912 -0.0152761
3936034 0.0002814 -0.0149423 0.9997186 0.0149423 0.9997186 0.0149423 0.0002814 -0.0149423
4022575 0.0002721 -0.0146156 0.9997279 0.0146156 0.9997279 0.0146156 0.0002721 -0.0146156
4111020 0.0002632 -0.0142957 0.9997368 0.0142957 0.9997368 0.0142957 0.0002632 -0.0142957
4201409 0.0002546 -0.0139826 0.9997454 0.0139826 0.9997454 0.0139826 0.0002546 -0.0139826
4293785 0.0002465 -0.0136762 0.9997535 0.0136762 0.9997535 0.0136762 0.0002465 -0.0136762
4388193 0.0002387 -0.0133762 0.9997613 0.0133762 0.9997613 0.0133762 0.0002387 -0.0133762
4484676 0.0002313 -0.0130825 0.9997687 0.0130825 0.9997687 0.0130825 0.0002313 -0.0130825
4583281 0.0002242 -0.0127951 0.9997758 0.0127951 0.9997758 0.0127951 0.0002242 -0.0127951
4684054 0.0002175 -0.0125136 0.9997825 0.0125136 0.9997825 0.0125136 0.0002175 -0.0125136
4787042 0.0002110 -0.0122382 0.9997890 0.0122382 0.9997890 0.0122382 0.0002110 -0.0122382
4892295 0.0002049 -0.0119685 0.9997951 0.0119685 0.9997951 0.0119685 0.0002049 -0.0119685
4999862 0.0001990 -0.0117044 0.9998010 0.0117044 0.9998010 0.0117044 0.0001990 -0.0117044
5109794 0.0001934 -0.0114459 0.9998066 0.0114459 0.9998066 0.0114459 0.0001934 -0.0114459
5222143 0.0001881 -0.0111929 0.9998119 0.0111929 0.9998119 0.0111929 0.0001881 -0.0111929
5336962 0.0001830 -0.0109451 0.9998170 0.0109451 0.9998170 0.0109451 0.0001830 -0.0109451
5454306 0.0001781 -0.0107026 0.9998219 0.0107026 0.9998219 0.0107026 0.0001781 -0.0107026
5574230 0.0001735 -0.0104651 0.9998265 0.0104651 0.9998265 0.0104651 0.0001735 -0.0104651
5696791 0.0001691 -0.0102325 0.9998309 0.0102325 0.9998309 0.0102325 0.0001691 -0.0102325
5822046 0.0001650 -0.0100048 0.9998350 0.0100048 0.9998350 0.0100048 0.0001650 -0.0100048
5950055 0.0001610 -0.0097819 0.9998390 0.0097819 0.9998390 0.0097819 0.0001610 -0.0097819
6080879 0.0001572 -0.0095636 0.9998428 0.0095636 0.9998428 0.0095636 0.0001572 -0.0095636
6214580 0.0001536 -0.0093498 0.9998464 0.0093498 0.9998464 0.0093498 0.0001536 -0.0093498
6351220 0.0001502 -0.0091405 0.9998498 0.0091405 0.9998498 0.0091405 0.0001502 -0.0091405
6490864 0.0001469 -0.0089355 0.9998531 0.0089355 0.9998531 0.0089355 0.0001469 -0.0089355
6633579 0.0001439 -0.0087348 0.9998561 0.0087348 0.9998561 0.0087348 0.0001439 -0.0087348
6779431 0.0001409 -0.0085381 0.9998591 0.0085381 0.9998591 0.0085381 0.0001409 -0.0085381
6928491 0.0001381 -0.0083456 0.9998619 0.0083456 0.9998619 0.0083456 0.0001381 -0.0083456
7080828 0.0001355 -0.0081570 0.9998645 0.0081570 0.9998645 0.0081570 0.0001355 -0.0081570
7236514 0.0001330 -0.0079723 0.9998670 0.0079723 0.9998670 0.0079723 0.0001330 -0.0079723
7395623 0.0001306 -0.0077914 0.9998694 0.0077914 0.9998694 0.0077914 0.0001306 -0.0077914
7558231 0.0001284 -0.0076141 0.9998716 0.0076141 0.9998716 0.0076141 0.0001284 -0.0076141
7724414 0.0001263 -0.0074405 0.9998737 0.0074405 0.9998737 0.0074405 0.0001263 -0.0074405
7894251 0.0001243 -0.0072704 0.9998757 0.0072704 0.9998757 0.0072704 0.0001243 -0.0072704
8067822 0.0001224 -0.0071038 0.9998776 0.0071038 0.9998776 0.0071038 0.0001224 -0.0071038
8245209 0.0001206 -0.0069406 0.9998794 0.0069406 0.9998794 0.0069406 0.0001206 -0.0069406
8426497 0.0001189 -0.0067806 0.9998811 0.0067806 0.9998811 0.0067806 0.0001189 -0.0067806
8611770 0.0001173 -0.0066239 0.9998827 0.0066239 0.9998827 0.0066239 0.0001173 -0.0066239
8801117 0.0001158 -0.0064703 0.9998842 0.0064703 0.9998842 0.0064703 0.0001158 -0.0064703
8994628 0.0001144 -0.0063199 0.9998856 0.0063199 0.9998856 0.0063199 0.0001144 -0.0063199
9192393 0.0001130 -0.0061724 0.9998870 0.0061724 0.9998870 0.0061724 0.0001130 -0.0061724
9394506 0.0001118 -0.0060278 0.9998882 0.0060278 0.9998882 0.0060278 0.0001118 -0.0060278
9601063 0.0001106 -0.0058861 0.9998894 0.0058861 0.9998894 0.0058861 0.0001106 -0.0058861
9812162 0.0001095 -0.0057472 0.9998905 0.0057472 0.9998905 0.0057472 0.0001095 -0.0057472
10027902 0.0001085 -0.0056111 0.9998915 0.0056111 0.9998915 0.0056111 0.0001085 -0.0056111
10248386 0.0001075 -0.0054776 0.9998925 0.0054776 0.9998925 0.0054776 0.0001075 -0.0054776
10473717 0.0001066 -0.0053467 0.9998934 0.0053467 0.9998934 0.0053467 0.0001066 -0.0053467
10704003 0.0001058 -0.0052184 0.9998942 0.0052184 0.9998942 0.0052184 0.0001058 -0.0052184
10939352 0.0001050 -0.0050925 0.9998950 0.0050925 0.9998950 0.0050925 0.0001050 -0.0050925
11179876 0.0001043 -0.0049691 0.9998957 0.0049691 0.9998957 0.0049691 0.0001043 -0.0049691
11425688 0.0001036 -0.0048480 0.9998964 0.0048480 0.9998964 0.0048480 0.0001036 -0.0048480
11676904 0.0001030 -0.0047292 0.9998970 0.0047292 0.9998970 0.0047292 0.0001030 -0.0047292
11933645 0.0001025 -0.0046127 0.9998975 0.0046127 0.9998975 0.0046127 0.0001025 -0.0046127
12196030 0.0001020 -0.0044984 0.9998980 0.0044984 0.9998980 0.0044984 0.0001020 -0.0044984
12464184 0.0001015 -0.0043862 0.9998985 0.0043862 0.9998985 0.0043862 0.0001015 -0.0043862
12738235 0.0001011 -0.0042761 0.9998989 0.0042761 0.9998989 0.0042761 0.0001011 -0.0042761
13018310 0.0001007 -0.0041681 0.9998993 0.0041681 0.9998993 0.0041681 0.0001007 -0.0041681
13304544 0.0001004 -0.0040620 0.9998996 0.0040620 0.9998996 0.0040620 0.0001004 -0.0040620
13597071 0.0001001 -0.0039578 0.9998999 0.0039578 0.9998999 0.0039578 0.0001001 -0.0039578
13896030 0.0000999 -0.0038556 0.9999001 0.0038556 0.9999001 0.0038556 0.0000999 -0.0038556
14201563 0.0000997 -0.0037551 0.9999003 0.0037551 0.9999003 0.0037551 0.0000997 -0.0037551
14513813 0.0000995 -0.0036565 0.9999005 0.0036565 0.9999005 0.0036565 0.0000995 -0.0036565
14832928 0.0000994 -0.0035595 0.9999006 0.0035595 0.9999006 0.0035595 0.0000994 -0.0035595
15159060 0.0000993 -0.0034643 0.9999007 0.0034643 0.9999007 0.0034643 0.0000993 -0.0034643
15492362 0.0000992 -0.0033707 0.9999008 0.0033707 0.9999008 0.0033707 0.0000992 -0.0033707
15832993 0.0000992 -0.0032788 0.9999008 0.0032788 0.9999008 0.0032788 0.0000992 -0.0032788
16181113 0.0000992 -0.0031883 0.9999008 0.0031883 0.9999008 0.0031883 0.0000992 -0.0031883
16536888 0.0000993 -0.0030994 0.9999007 0.0030994 0.9999007 0.0030994 0.0000993 -0.0030994
16900485 0.0000993 -0.0030120 0.9999007 0.0030120 0.9999007 0.0030120 0.0000993 -0.0030120
17272076 0.0000995 -0.0029260 0.9999005 0.0029260 0.9999005 0.0029260 0.0000995 -0.0029260
17651837 0.0000996 -0.0028413 0.9999004 0.0028413 0.9999004 0.0028413 0.0000996 -0.0028413
18039948 0.0000998 -0.0027581 0.9999002 0.0027581 0.9999002 0.0027581 0.0000998 -0.0027581
18436593 0.0001000 -0.0026761 0.9999000 0.0026761 0.9999000 0.0026761 0.0001000 -0.0026761
18841959 0.0001003 -0.0025954 0.9998997 0.0025954 0.9998997 0.0025954 0.0001003 -0.0025954
19256237 0.0001006 -0.0025159 0.9998994 0.0025159 0.9998994 0.0025159 0.0001006 -0.0025159
19679624 0.0001009 -0.0024376 0.9998991 0.0024376 0.9998991 0.0024376 0.0001009 -0.0024376
20112321 0.0001012 -0.0023605 0.9998988 0.0023605 0.9998988 0.0023605 0.0001012 -0.0023605
20554530 0.0001016 -0.0022845 0.9998984 0.0022845 0.9998984 0.0022845 0.0001016 -0.0022845
21006463 0.0001021 -0.0022095 0.9998979 0.0022095 0.9998979 0.0022095 0.0001021 -0.0022095
21468333 0.0001025 -0.0021356 0.9998975 0.0021356 0.9998975 0.0021356 0.0001025 -0.0021356
21940357 0.0001030 -0.0020627 0.9998970 0.0020627 0.9998970 0.0020627 0.0001030 -0.0020627
22422760 0.0001036 -0.0019908 0.9998964 0.0019908 0.9998964 0.0019908 0.0001036 -0.0019908
22915770 0.0001042 -0.0019198 0.9998958 0.0019198 0.9998958 0.0019198 0.0001042 -0.0019198
23419619 0.0001048 -0.0018497 0.9998952 0.0018497 0.9998952 0.0018497 0.0001048 -0.0018497
23934547 0.0001055 -0.0017805 0.9998945 0.0017805 0.9998945 0.0017805 0.0001055 -0.0017805
24460796 0.0001062 -0.0017121 0.9998938 0.0017121 0.9998938 0.0017121 0.0001062 -0.0017121
24998616 0.0001069 -0.0016445 0.9998931 0.0016445 0.9998931 0.0016445 0.0001069 -0.0016445
25548261 0.0001077 -0.0015777 0.9998923 0.0015777 0.9998923 0.0015777 0.0001077 -0.0015777
26109991 0.0001086 -0.0015116 0.9998914 0.0015116 0.9998914 0.0015116 0.0001086 -0.0015116
26684072 0.0001095 -0.0014462 0.9998905 0.0014462 0.9998905 0.0014462 0.0001095 -0.0014462
27270775 0.0001104 -0.0013815 0.9998896 0.0013815 0.9998896 0.0013815 0.0001104 -0.0013815
27870378 0.0001114 -0.0013174 0.9998886 0.0013174 0.9998886 0.0013174 0.0001114 -0.0013174
28483164 0.0001125 -0.0012539 0.9998875 0.0012539 0.9998875 0.0012539 0.0001125 -0.0012539
29109424 0.0001136 -0.0011910 0.9998864 0.0011910 0.9998864 0.0011910 0.0001136 -0.0011910
29749453 0.0001147 -0.0011286 0.9998853 0.0011286 0.9998853 0.0011286 0.0001147 -0.0011286
30403555 0.0001160 -0.0010668 0.9998840 0.0010668 0.9998840 0.0010668 0.0001160 -0.0010668
31072038 0.0001173 -0.0010054 0.9998827 0.0010054 0.9998827 0.0010054 0.0001173 -0.0010054
31755220 0.0001187 -0.0009445 0.9998813 0.0009445 0.9998813 0.0009445 0.0001187 -0.0009445
32453422 0.0001201 -0.0008839 0.9998799 0.0008839 0.9998799 0.0008839 0.0001201 -0.0008839
33166976 0.0001216 -0.0008238 0.9998784 0.0008238 0.9998784 0.0008238 0.0001216 -0.0008238
33896219 0.0001232 -0.0007640 0.9998768 0.0007640 0.9998768 0.0007640 0.0001232 -0.0007640
34641496 0.0001249 -0.0007045 0.9998751 0.0007045 0.9998751 0.0007045 0.0001249 -0.0007045
35403159 0.0001266 -0.0006453 0.9998734 0.0006453 0.9998734 0.0006453 0.0001266 -0.0006453
36181569 0.0001285 -0.0005864 0.9998715 0.0005864 0.9998715 0.0005864 0.0001285 -0.0005864
36977093 0.0001304 -0.0005276 0.9998696 0.0005276 0.9998696 0.0005276 0.0001304 -0.0005276
37790109 0.0001325 -0.0004691 0.9998675 0.0004691 0.9998675 0.0004691 0.0001325 -0.0004691
38621001 0.0001346 -0.0004107 0.9998654 0.0004107 0.9998654 0.0004107 0.0001346 -0.0004107
39470161 0.0001369 -0.0003524 0.9998631 0.0003524 0.9998631 0.0003524 0.0001369 -0.0003524
40337993 0.0001393 -0.0002943 0.9998607 0.0002943 0.9998607 0.0002943 0.0001393 -0.0002943
41224905 0.0001418 -0.0002361 0.9998582 0.0002361 0.9998582 0.0002361 0.0001418 -0.0002361
42131317 0.0001444 -0.0001780 0.9998556 0.0001780 0.9998556 0.0001780 0.0001444 -0.0001780
43057659 0.0001472 -0.0001199 0.9998528 0.0001199 0.9998528 0.0001199 0.0001472 -0.0001199
44004369 0.0001502 -0.0000616 0.9998498 0.0000616 0.9998498 0.0000616 0.0001502 -0.0000616
44971893 0.0001533 -0.0000033 0.9998467 0.0000033 0.9998467 0.0000033 0.0001533 -0.0000033
45960691 0.0001565 0.0000552 0.9998435 -0.0000552 0.9998435 -0.0000552 0.0001565 0.0000552
46971230 0.0001600 0.0001138 0.9998400 -0.0001138 0.9998400 -0.0001138 0.0001600 0.0001138
48003987 0.0001636 0.0001727 0.9998364 -0.0001727 0.9998364 -0.0001727 0.0001636 0.0001727
49059451 0.0001675 0.0002319 0.9998325 -0.0002319 0.9998325 -0.0002319 0.0001675 0.0002319
50138122 0.0001716 0.0002914 0.9998284 -0.0002914 0.9998284 -0.0002914 0.0001716 0.0002914
51240510 0.0001760 0.0003513 0.9998240 -0.0003513 0.9998240 -0.0003513 0.0001760 0.0003513
52367136 0.0001806 0.0004117 0.9998194 -0.0004117 0.9998194 -0.0004117 0.0001806 0.0004117
53518533 0.0001855 0.0004725 0.9998145 -0.0004725 0.9998145 -0.0004725 0.0001855 0.0004725
54695245 0.0001908 0.0005340 0.9998092 -0.0005340 0.9998092 -0.0005340 0.0001908 0.0005340
55897831 0.0001964 0.0005961 0.9998036 -0.0005961 0.9998036 -0.0005961 0.0001964 0.0005961
57126857 0.0002024 0.0006589 0.9997976 -0.0006589 0.9997976 -0.0006589 0.0002024 0.0006589
58382906 0.0002089 0.0007225 0.9997911 -0.0007225 0.9997911 -0.0007225 0.0002089 0.0007225
59666572 0.0002159 0.0007871 0.9997841 -0.0007871 0.9997841 -0.0007871 0.0002159 0.0007871
60978462 0.0002235 0.0008526 0.9997765 -0.0008526 0.9997765 -0.0008526 0.0002235 0.0008526
62319196 0.0002317 0.0009194 0.9997683 -0.0009194 0.9997683 -0.0009194 0.0002317 0.0009194
63689409 0.0002407 0.0009874 0.9997593 -0.0009874 0.9997593 -0.0009874 0.0002407 0.0009874
65089750 0.0002507 0.0010568 0.9997493 -0.0010568 0.9997493 -0.0010568 0.0002507 0.0010568
66520879 0.0002616 0.0011279 0.9997384 -0.0011279 0.9997384 -0.0011279 0.0002616 0.0011279
67983474 0.0002739 0.0012008 0.9997261 -0.0012008 0.9997261 -0.0012008 0.0002739 0.0012008
69478228 0.0002877 0.0012758 0.9997123 -0.0012758 0.9997123 -0.0012758 0.0002877 0.0012758
71005847 0.0003034 0.0013532 0.9996966 -0.0013532 0.9996966 -0.0013532 0.0003034 0.0013532
72567054 0.0003214 0.0014333 0.9996786 -0.0014333 0.9996786 -0.0014333 0.0003214 0.0014333
74162587 0.0003425 0.0015164 0.9996575 -0.0015164 0.9996575 -0.0015164 0.0003425 0.0015164
75793201 0.0003674 0.0016030 0.9996326 -0.0016030 0.9996326 -0.0016030 0.0003674 0.0016030
77459667 0.0003974 0.0016935 0.9996026 -0.0016935 0.9996026 -0.0016935 0.0003974 0.0016935
79162774 0.0004343 0.0017884 0.9995657 -0.0017884 0.9995657 -0.0017884 0.0004343 0.0017884
80903327 0.0004806 0.0018877 0.9995194 -0.0018877 0.9995194 -0.0018877 0.0004806 0.0018877
82682150 0.0005399 0.0019912 0.9994601 -0.0019912 0.9994601 -0.0019912 0.0005399 0.0019912
84500083 0.0006177 0.0020972 0.9993823 -0.0020972 0.9993823 -0.0020972 0.0006177 0.0020972
86357988 0.0007214 0.0022012 0.9992786 -0.0022012 0.9992786 -0.0022012 0.0007214 0.0022012
88256743 0.0008601 0.0022923 0.9991399 -0.0022923 0.9991399 -0.0022923 0.0008601 0.0022923
90197245 0.0010403 0.0023480 0.9989597 -0.0023480 0.9989597 -0.0023480 0.0010403 0.0023480
92180413 0.0012521 0.0023300 0.9987479 -0.0023300 0.9987479 -0.0023300 0.0012521 0.0023300
94207185 0.0014441 0.0022006 0.9985559 -0.0022006 0.9985559 -0.0022006 0.0014441 0.0022006
96278520 0.0015251 0.0019789 0.9984749 -0.0019789 0.9984749 -0.0019789 0.0015251 0.0019789
98395398 0.0014494 0.0017694 0.9985506 -0.0017694 0.9985506 -0.0017694 0.0014494 0.0017694
100558819 0.0012785 0.0016663 0.9987215 -0.0016663 0.9987215 -0.0016663 0.0012785 0.0016663
102769807 0.0011012 0.0016745 0.9988988 -0.0016745 0.9988988 -0.0016745 0.0011012 0.0016745
105029408 0.0009611 0.0017532 0.9990389 -0.0017532 0.9990389 -0.0017532 0.0009611 0.0017532
107338692 0.0008643 0.0018665 0.9991357 -0.0018665 0.9991357 -0.0018665 0.0008643 0.0018665
