!Murata Part Number: GRM21A5C2E471JWA1
!These Parameters are Measured in Series Mode Connection
!Data Generated on Mar 30, 2021
!       o--ll--o
!Port1            Port2
!       o------o
!Operation Temp=25[degC], DC Bias Voltage=0[V]
!Freq. Start=100[MHz] Stop=3[GHz] 401[Steps]
# Hz S RI R 50
!Freq.(Hz) S11(Real) S11(Imag) S21(Real) S21(Imag) S12(Real) S12(Imag) S22(Real) S22(Imag)
100000000 0.0012769 -0.0302360 0.9987231 0.0302360 0.9987231 0.0302360 0.0012769 -0.0302360
107250000 0.0011350 -0.0276965 0.9988650 0.0276965 0.9988650 0.0276965 0.0011350 -0.0276965
114500000 0.0010208 -0.0254437 0.9989792 0.0254437 0.9989792 0.0254437 0.0010208 -0.0254437
121750000 0.0009284 -0.0234268 0.9990716 0.0234268 0.9990716 0.0234268 0.0009284 -0.0234268
129000000 0.0008535 -0.0216064 0.9991465 0.0216064 0.9991465 0.0216064 0.0008535 -0.0216064
136250000 0.0007927 -0.0199515 0.9992073 0.0199515 0.9992073 0.0199515 0.0007927 -0.0199515
143500000 0.0007435 -0.0184373 0.9992565 0.0184373 0.9992565 0.0184373 0.0007435 -0.0184373
150750000 0.0007037 -0.0170438 0.9992963 0.0170438 0.9992963 0.0170438 0.0007037 -0.0170438
158000000 0.0006717 -0.0157545 0.9993283 0.0157545 0.9993283 0.0157545 0.0006717 -0.0157545
165250000 0.0006461 -0.0145559 0.9993539 0.0145559 0.9993539 0.0145559 0.0006461 -0.0145559
172500000 0.0006260 -0.0134366 0.9993740 0.0134366 0.9993740 0.0134366 0.0006260 -0.0134366
179750000 0.0006104 -0.0123871 0.9993896 0.0123871 0.9993896 0.0123871 0.0006104 -0.0123871
187000000 0.0005986 -0.0113993 0.9994014 0.0113993 0.9994014 0.0113993 0.0005986 -0.0113993
194250000 0.0005900 -0.0104663 0.9994100 0.0104663 0.9994100 0.0104663 0.0005900 -0.0104663
201500000 0.0005842 -0.0095822 0.9994158 0.0095822 0.9994158 0.0095822 0.0005842 -0.0095822
208750000 0.0005808 -0.0087420 0.9994192 0.0087420 0.9994192 0.0087420 0.0005808 -0.0087420
216000000 0.0005795 -0.0079411 0.9994205 0.0079411 0.9994205 0.0079411 0.0005795 -0.0079411
223250000 0.0005799 -0.0071757 0.9994201 0.0071757 0.9994201 0.0071757 0.0005799 -0.0071757
230500000 0.0005819 -0.0064425 0.9994181 0.0064425 0.9994181 0.0064425 0.0005819 -0.0064425
237750000 0.0005852 -0.0057385 0.9994148 0.0057385 0.9994148 0.0057385 0.0005852 -0.0057385
245000000 0.0005897 -0.0050610 0.9994103 0.0050610 0.9994103 0.0050610 0.0005897 -0.0050610
252250000 0.0005954 -0.0044077 0.9994046 0.0044077 0.9994046 0.0044077 0.0005954 -0.0044077
259500000 0.0006020 -0.0037765 0.9993980 0.0037765 0.9993980 0.0037765 0.0006020 -0.0037765
266750000 0.0006094 -0.0031657 0.9993906 0.0031657 0.9993906 0.0031657 0.0006094 -0.0031657
274000000 0.0006177 -0.0025734 0.9993823 0.0025734 0.9993823 0.0025734 0.0006177 -0.0025734
281250000 0.0006267 -0.0019983 0.9993733 0.0019983 0.9993733 0.0019983 0.0006267 -0.0019983
288500000 0.0006364 -0.0014390 0.9993636 0.0014390 0.9993636 0.0014390 0.0006364 -0.0014390
295750000 0.0006467 -0.0008943 0.9993533 0.0008943 0.9993533 0.0008943 0.0006467 -0.0008943
303000000 0.0006576 -0.0003631 0.9993424 0.0003631 0.9993424 0.0003631 0.0006576 -0.0003631
310250000 0.0006691 0.0001556 0.9993309 -0.0001556 0.9993309 -0.0001556 0.0006691 0.0001556
317500000 0.0006812 0.0006628 0.9993188 -0.0006628 0.9993188 -0.0006628 0.0006812 0.0006628
324750000 0.0006938 0.0011591 0.9993062 -0.0011591 0.9993062 -0.0011591 0.0006938 0.0011591
332000000 0.0007069 0.0016456 0.9992931 -0.0016456 0.9992931 -0.0016456 0.0007069 0.0016456
339250000 0.0007205 0.0021227 0.9992795 -0.0021227 0.9992795 -0.0021227 0.0007205 0.0021227
346500000 0.0007347 0.0025912 0.9992653 -0.0025912 0.9992653 -0.0025912 0.0007347 0.0025912
353750000 0.0007493 0.0030516 0.9992507 -0.0030516 0.9992507 -0.0030516 0.0007493 0.0030516
361000000 0.0007645 0.0035045 0.9992355 -0.0035045 0.9992355 -0.0035045 0.0007645 0.0035045
368250000 0.0007802 0.0039504 0.9992198 -0.0039504 0.9992198 -0.0039504 0.0007802 0.0039504
375500000 0.0007964 0.0043898 0.9992036 -0.0043898 0.9992036 -0.0043898 0.0007964 0.0043898
382750000 0.0008131 0.0048231 0.9991869 -0.0048231 0.9991869 -0.0048231 0.0008131 0.0048231
390000000 0.0008304 0.0052507 0.9991696 -0.0052507 0.9991696 -0.0052507 0.0008304 0.0052507
397250000 0.0008482 0.0056730 0.9991518 -0.0056730 0.9991518 -0.0056730 0.0008482 0.0056730
404500000 0.0008667 0.0060904 0.9991333 -0.0060904 0.9991333 -0.0060904 0.0008667 0.0060904
411750000 0.0008857 0.0065032 0.9991143 -0.0065032 0.9991143 -0.0065032 0.0008857 0.0065032
419000000 0.0009053 0.0069118 0.9990947 -0.0069118 0.9990947 -0.0069118 0.0009053 0.0069118
426250000 0.0009256 0.0073163 0.9990744 -0.0073163 0.9990744 -0.0073163 0.0009256 0.0073163
433500000 0.0009466 0.0077172 0.9990534 -0.0077172 0.9990534 -0.0077172 0.0009466 0.0077172
440750000 0.0009683 0.0081146 0.9990317 -0.0081146 0.9990317 -0.0081146 0.0009683 0.0081146
448000000 0.0009908 0.0085090 0.9990092 -0.0085090 0.9990092 -0.0085090 0.0009908 0.0085090
455250000 0.0010141 0.0089004 0.9989859 -0.0089004 0.9989859 -0.0089004 0.0010141 0.0089004
462500000 0.0010382 0.0092892 0.9989618 -0.0092892 0.9989618 -0.0092892 0.0010382 0.0092892
469750000 0.0010632 0.0096755 0.9989368 -0.0096755 0.9989368 -0.0096755 0.0010632 0.0096755
477000000 0.0010892 0.0100597 0.9989108 -0.0100597 0.9989108 -0.0100597 0.0010892 0.0100597
484250000 0.0011162 0.0104419 0.9988838 -0.0104419 0.9988838 -0.0104419 0.0011162 0.0104419
491500000 0.0011443 0.0108224 0.9988557 -0.0108224 0.9988557 -0.0108224 0.0011443 0.0108224
498750000 0.0011736 0.0112013 0.9988264 -0.0112013 0.9988264 -0.0112013 0.0011736 0.0112013
506000000 0.0012042 0.0115789 0.9987958 -0.0115789 0.9987958 -0.0115789 0.0012042 0.0115789
513250000 0.0012362 0.0119554 0.9987638 -0.0119554 0.9987638 -0.0119554 0.0012362 0.0119554
520500000 0.0012697 0.0123310 0.9987303 -0.0123310 0.9987303 -0.0123310 0.0012697 0.0123310
527750000 0.0013049 0.0127059 0.9986951 -0.0127059 0.9986951 -0.0127059 0.0013049 0.0127059
535000000 0.0013418 0.0130804 0.9986582 -0.0130804 0.9986582 -0.0130804 0.0013418 0.0130804
542250000 0.0013808 0.0134546 0.9986192 -0.0134546 0.9986192 -0.0134546 0.0013808 0.0134546
549500000 0.0014219 0.0138287 0.9985781 -0.0138287 0.9985781 -0.0138287 0.0014219 0.0138287
556750000 0.0014655 0.0142030 0.9985345 -0.0142030 0.9985345 -0.0142030 0.0014655 0.0142030
564000000 0.0015117 0.0145777 0.9984883 -0.0145777 0.9984883 -0.0145777 0.0015117 0.0145777
571250000 0.0015610 0.0149531 0.9984390 -0.0149531 0.9984390 -0.0149531 0.0015610 0.0149531
578500000 0.0016137 0.0153292 0.9983863 -0.0153292 0.9983863 -0.0153292 0.0016137 0.0153292
585750000 0.0016701 0.0157064 0.9983299 -0.0157064 0.9983299 -0.0157064 0.0016701 0.0157064
593000000 0.0017309 0.0160849 0.9982691 -0.0160849 0.9982691 -0.0160849 0.0017309 0.0160849
600250000 0.0017965 0.0164649 0.9982035 -0.0164649 0.9982035 -0.0164649 0.0017965 0.0164649
607500000 0.0018677 0.0168466 0.9981323 -0.0168466 0.9981323 -0.0168466 0.0018677 0.0168466
614750000 0.0019453 0.0172301 0.9980547 -0.0172301 0.9980547 -0.0172301 0.0019453 0.0172301
622000000 0.0020301 0.0176155 0.9979699 -0.0176155 0.9979699 -0.0176155 0.0020301 0.0176155
629250000 0.0021235 0.0180028 0.9978765 -0.0180028 0.9978765 -0.0180028 0.0021235 0.0180028
636500000 0.0022266 0.0183921 0.9977734 -0.0183921 0.9977734 -0.0183921 0.0022266 0.0183921
643750000 0.0023411 0.0187829 0.9976589 -0.0187829 0.9976589 -0.0187829 0.0023411 0.0187829
651000000 0.0024688 0.0191748 0.9975312 -0.0191748 0.9975312 -0.0191748 0.0024688 0.0191748
658250000 0.0026119 0.0195670 0.9973881 -0.0195670 0.9973881 -0.0195670 0.0026119 0.0195670
665500000 0.0027730 0.0199580 0.9972270 -0.0199580 0.9972270 -0.0199580 0.0027730 0.0199580
672750000 0.0029548 0.0203458 0.9970452 -0.0203458 0.9970452 -0.0203458 0.0029548 0.0203458
680000000 0.0031605 0.0207273 0.9968395 -0.0207273 0.9968395 -0.0207273 0.0031605 0.0207273
687250000 0.0033934 0.0210980 0.9966066 -0.0210980 0.9966066 -0.0210980 0.0033934 0.0210980
694500000 0.0036562 0.0214518 0.9963438 -0.0214518 0.9963438 -0.0214518 0.0036562 0.0214518
701750000 0.0039512 0.0217800 0.9960488 -0.0217800 0.9960488 -0.0217800 0.0039512 0.0217800
709000000 0.0042784 0.0220716 0.9957216 -0.0220716 0.9957216 -0.0220716 0.0042784 0.0220716
716250000 0.0046342 0.0223133 0.9953658 -0.0223133 0.9953658 -0.0223133 0.0046342 0.0223133
723500000 0.0050098 0.0224898 0.9949902 -0.0224898 0.9949902 -0.0224898 0.0050098 0.0224898
730750000 0.0053885 0.0225869 0.9946115 -0.0225869 0.9946115 -0.0225869 0.0053885 0.0225869
738000000 0.0057452 0.0225955 0.9942548 -0.0225955 0.9942548 -0.0225955 0.0057452 0.0225955
745250000 0.0060481 0.0225167 0.9939519 -0.0225167 0.9939519 -0.0225167 0.0060481 0.0225167
752500000 0.0062645 0.0223669 0.9937355 -0.0223669 0.9937355 -0.0223669 0.0062645 0.0223669
759750000 0.0063695 0.0221777 0.9936305 -0.0221777 0.9936305 -0.0221777 0.0063695 0.0221777
767000000 0.0063548 0.0219906 0.9936452 -0.0219906 0.9936452 -0.0219906 0.0063548 0.0219906
774250000 0.0062313 0.0218458 0.9937687 -0.0218458 0.9937687 -0.0218458 0.0062313 0.0218458
781500000 0.0060251 0.0217732 0.9939749 -0.0217732 0.9939749 -0.0217732 0.0060251 0.0217732
788750000 0.0057689 0.0217866 0.9942311 -0.0217866 0.9942311 -0.0217866 0.0057689 0.0217866
796000000 0.0054930 0.0218859 0.9945070 -0.0218859 0.9945070 -0.0218859 0.0054930 0.0218859
803250000 0.0052211 0.0220616 0.9947789 -0.0220616 0.9947789 -0.0220616 0.0052211 0.0220616
810500000 0.0049685 0.0223000 0.9950315 -0.0223000 0.9950315 -0.0223000 0.0049685 0.0223000
817750000 0.0047437 0.0225867 0.9952563 -0.0225867 0.9952563 -0.0225867 0.0047437 0.0225867
825000000 0.0045499 0.0229090 0.9954501 -0.0229090 0.9954501 -0.0229090 0.0045499 0.0229090
832250000 0.0043873 0.0232567 0.9956127 -0.0232567 0.9956127 -0.0232567 0.0043873 0.0232567
839500000 0.0042542 0.0236217 0.9957458 -0.0236217 0.9957458 -0.0236217 0.0042542 0.0236217
846750000 0.0041480 0.0239982 0.9958520 -0.0239982 0.9958520 -0.0239982 0.0041480 0.0239982
854000000 0.0040661 0.0243820 0.9959339 -0.0243820 0.9959339 -0.0243820 0.0040661 0.0243820
861250000 0.0040056 0.0247699 0.9959944 -0.0247699 0.9959944 -0.0247699 0.0040056 0.0247699
868500000 0.0039642 0.0251599 0.9960358 -0.0251599 0.9960358 -0.0251599 0.0039642 0.0251599
875750000 0.0039397 0.0255507 0.9960603 -0.0255507 0.9960603 -0.0255507 0.0039397 0.0255507
883000000 0.0039304 0.0259413 0.9960696 -0.0259413 0.9960696 -0.0259413 0.0039304 0.0259413
890250000 0.0039346 0.0263311 0.9960654 -0.0263311 0.9960654 -0.0263311 0.0039346 0.0263311
897500000 0.0039510 0.0267197 0.9960490 -0.0267197 0.9960490 -0.0267197 0.0039510 0.0267197
904750000 0.0039788 0.0271070 0.9960212 -0.0271070 0.9960212 -0.0271070 0.0039788 0.0271070
912000000 0.0040170 0.0274929 0.9959830 -0.0274929 0.9959830 -0.0274929 0.0040170 0.0274929
919250000 0.0040649 0.0278773 0.9959351 -0.0278773 0.9959351 -0.0278773 0.0040649 0.0278773
926500000 0.0041222 0.0282603 0.9958778 -0.0282603 0.9958778 -0.0282603 0.0041222 0.0282603
933750000 0.0041884 0.0286419 0.9958116 -0.0286419 0.9958116 -0.0286419 0.0041884 0.0286419
941000000 0.0042633 0.0290222 0.9957367 -0.0290222 0.9957367 -0.0290222 0.0042633 0.0290222
948250000 0.0043467 0.0294012 0.9956533 -0.0294012 0.9956533 -0.0294012 0.0043467 0.0294012
955500000 0.0044385 0.0297789 0.9955615 -0.0297789 0.9955615 -0.0297789 0.0044385 0.0297789
962750000 0.0045389 0.0301554 0.9954611 -0.0301554 0.9954611 -0.0301554 0.0045389 0.0301554
970000000 0.0046479 0.0305306 0.9953521 -0.0305306 0.9953521 -0.0305306 0.0046479 0.0305306
977250000 0.0047657 0.0309044 0.9952343 -0.0309044 0.9952343 -0.0309044 0.0047657 0.0309044
984500000 0.0048925 0.0312768 0.9951075 -0.0312768 0.9951075 -0.0312768 0.0048925 0.0312768
991750000 0.0050285 0.0316477 0.9949715 -0.0316477 0.9949715 -0.0316477 0.0050285 0.0316477
999000000 0.0051742 0.0320168 0.9948258 -0.0320168 0.9948258 -0.0320168 0.0051742 0.0320168
1006250000 0.0053300 0.0323838 0.9946700 -0.0323838 0.9946700 -0.0323838 0.0053300 0.0323838
1013500000 0.0054962 0.0327485 0.9945038 -0.0327485 0.9945038 -0.0327485 0.0054962 0.0327485
1020750000 0.0056734 0.0331104 0.9943266 -0.0331104 0.9943266 -0.0331104 0.0056734 0.0331104
1028000000 0.0058620 0.0334690 0.9941380 -0.0334690 0.9941380 -0.0334690 0.0058620 0.0334690
1035250000 0.0060626 0.0338237 0.9939374 -0.0338237 0.9939374 -0.0338237 0.0060626 0.0338237
1042500000 0.0062758 0.0341737 0.9937242 -0.0341737 0.9937242 -0.0341737 0.0062758 0.0341737
1049750000 0.0065022 0.0345182 0.9934978 -0.0345182 0.9934978 -0.0345182 0.0065022 0.0345182
1057000000 0.0067423 0.0348562 0.9932577 -0.0348562 0.9932577 -0.0348562 0.0067423 0.0348562
1064250000 0.0069967 0.0351865 0.9930033 -0.0351865 0.9930033 -0.0351865 0.0069967 0.0351865
1071500000 0.0072658 0.0355078 0.9927342 -0.0355078 0.9927342 -0.0355078 0.0072658 0.0355078
1078750000 0.0075501 0.0358184 0.9924499 -0.0358184 0.9924499 -0.0358184 0.0075501 0.0358184
1086000000 0.0078499 0.0361167 0.9921501 -0.0361167 0.9921501 -0.0361167 0.0078499 0.0361167
1093250000 0.0081655 0.0364006 0.9918345 -0.0364006 0.9918345 -0.0364006 0.0081655 0.0364006
1100500000 0.0084966 0.0366679 0.9915034 -0.0366679 0.9915034 -0.0366679 0.0084966 0.0366679
1107750000 0.0088432 0.0369163 0.9911568 -0.0369163 0.9911568 -0.0369163 0.0088432 0.0369163
1115000000 0.0092045 0.0371429 0.9907955 -0.0371429 0.9907955 -0.0371429 0.0092045 0.0371429
1122250000 0.0095795 0.0373451 0.9904205 -0.0373451 0.9904205 -0.0373451 0.0095795 0.0373451
1129500000 0.0099667 0.0375197 0.9900333 -0.0375197 0.9900333 -0.0375197 0.0099667 0.0375197
1136750000 0.0103642 0.0376638 0.9896358 -0.0376638 0.9896358 -0.0376638 0.0103642 0.0376638
1144000000 0.0107692 0.0377743 0.9892308 -0.0377743 0.9892308 -0.0377743 0.0107692 0.0377743
1151250000 0.0111783 0.0378484 0.9888217 -0.0378484 0.9888217 -0.0378484 0.0111783 0.0378484
1158500000 0.0115875 0.0378835 0.9884125 -0.0378835 0.9884125 -0.0378835 0.0115875 0.0378835
1165750000 0.0119918 0.0378774 0.9880082 -0.0378774 0.9880082 -0.0378774 0.0119918 0.0378774
1173000000 0.0123858 0.0378288 0.9876142 -0.0378288 0.9876142 -0.0378288 0.0123858 0.0378288
1180250000 0.0127632 0.0377371 0.9872368 -0.0377371 0.9872368 -0.0377371 0.0127632 0.0377371
1187500000 0.0131175 0.0376030 0.9868825 -0.0376030 0.9868825 -0.0376030 0.0131175 0.0376030
1194750000 0.0134419 0.0374283 0.9865581 -0.0374283 0.9865581 -0.0374283 0.0134419 0.0374283
1202000000 0.0137297 0.0372163 0.9862703 -0.0372163 0.9862703 -0.0372163 0.0137297 0.0372163
1209250000 0.0139746 0.0369716 0.9860254 -0.0369716 0.9860254 -0.0369716 0.0139746 0.0369716
1216500000 0.0141711 0.0367002 0.9858289 -0.0367002 0.9858289 -0.0367002 0.0141711 0.0367002
1223750000 0.0143149 0.0364093 0.9856851 -0.0364093 0.9856851 -0.0364093 0.0143149 0.0364093
1231000000 0.0144031 0.0361068 0.9855969 -0.0361068 0.9855969 -0.0361068 0.0144031 0.0361068
1238250000 0.0144345 0.0358014 0.9855655 -0.0358014 0.9855655 -0.0358014 0.0144345 0.0358014
1245500000 0.0144094 0.0355015 0.9855906 -0.0355015 0.9855906 -0.0355015 0.0144094 0.0355015
1252750000 0.0143300 0.0352155 0.9856700 -0.0352155 0.9856700 -0.0352155 0.0143300 0.0352155
1260000000 0.0142000 0.0349509 0.9858000 -0.0349509 0.9858000 -0.0349509 0.0142000 0.0349509
1267250000 0.0140242 0.0347141 0.9859758 -0.0347141 0.9859758 -0.0347141 0.0140242 0.0347141
1274500000 0.0138084 0.0345105 0.9861916 -0.0345105 0.9861916 -0.0345105 0.0138084 0.0345105
1281750000 0.0135590 0.0343439 0.9864410 -0.0343439 0.9864410 -0.0343439 0.0135590 0.0343439
1289000000 0.0132826 0.0342167 0.9867174 -0.0342167 0.9867174 -0.0342167 0.0132826 0.0342167
1296250000 0.0129858 0.0341301 0.9870142 -0.0341301 0.9870142 -0.0341301 0.0129858 0.0341301
1303500000 0.0126746 0.0340844 0.9873254 -0.0340844 0.9873254 -0.0340844 0.0126746 0.0340844
1310750000 0.0123549 0.0340784 0.9876451 -0.0340784 0.9876451 -0.0340784 0.0123549 0.0340784
1318000000 0.0120316 0.0341106 0.9879684 -0.0341106 0.9879684 -0.0341106 0.0120316 0.0341106
1325250000 0.0117091 0.0341788 0.9882909 -0.0341788 0.9882909 -0.0341788 0.0117091 0.0341788
1332500000 0.0113910 0.0342803 0.9886090 -0.0342803 0.9886090 -0.0342803 0.0113910 0.0342803
1339750000 0.0110803 0.0344124 0.9889197 -0.0344124 0.9889197 -0.0344124 0.0110803 0.0344124
1347000000 0.0107792 0.0345722 0.9892208 -0.0345722 0.9892208 -0.0345722 0.0107792 0.0345722
1354250000 0.0104896 0.0347568 0.9895104 -0.0347568 0.9895104 -0.0347568 0.0104896 0.0347568
1361500000 0.0102126 0.0349634 0.9897874 -0.0349634 0.9897874 -0.0349634 0.0102126 0.0349634
1368750000 0.0099492 0.0351894 0.9900508 -0.0351894 0.9900508 -0.0351894 0.0099492 0.0351894
1376000000 0.0096998 0.0354324 0.9903002 -0.0354324 0.9903002 -0.0354324 0.0096998 0.0354324
1383250000 0.0094646 0.0356900 0.9905354 -0.0356900 0.9905354 -0.0356900 0.0094646 0.0356900
1390500000 0.0092436 0.0359603 0.9907564 -0.0359603 0.9907564 -0.0359603 0.0092436 0.0359603
1397750000 0.0090367 0.0362414 0.9909633 -0.0362414 0.9909633 -0.0362414 0.0090367 0.0362414
1405000000 0.0088434 0.0365316 0.9911566 -0.0365316 0.9911566 -0.0365316 0.0088434 0.0365316
1412250000 0.0086635 0.0368295 0.9913365 -0.0368295 0.9913365 -0.0368295 0.0086635 0.0368295
1419500000 0.0084963 0.0371338 0.9915037 -0.0371338 0.9915037 -0.0371338 0.0084963 0.0371338
1426750000 0.0083413 0.0374434 0.9916587 -0.0374434 0.9916587 -0.0374434 0.0083413 0.0374434
1434000000 0.0081981 0.0377573 0.9918019 -0.0377573 0.9918019 -0.0377573 0.0081981 0.0377573
1441250000 0.0080660 0.0380746 0.9919340 -0.0380746 0.9919340 -0.0380746 0.0080660 0.0380746
1448500000 0.0079445 0.0383946 0.9920555 -0.0383946 0.9920555 -0.0383946 0.0079445 0.0383946
1455750000 0.0078330 0.0387167 0.9921670 -0.0387167 0.9921670 -0.0387167 0.0078330 0.0387167
1463000000 0.0077310 0.0390403 0.9922690 -0.0390403 0.9922690 -0.0390403 0.0077310 0.0390403
1470250000 0.0076379 0.0393649 0.9923621 -0.0393649 0.9923621 -0.0393649 0.0076379 0.0393649
1477500000 0.0075533 0.0396901 0.9924467 -0.0396901 0.9924467 -0.0396901 0.0075533 0.0396901
1484750000 0.0074766 0.0400156 0.9925234 -0.0400156 0.9925234 -0.0400156 0.0074766 0.0400156
1492000000 0.0074074 0.0403411 0.9925926 -0.0403411 0.9925926 -0.0403411 0.0074074 0.0403411
1499250000 0.0073453 0.0406662 0.9926547 -0.0406662 0.9926547 -0.0406662 0.0073453 0.0406662
1506500000 0.0072899 0.0409909 0.9927101 -0.0409909 0.9927101 -0.0409909 0.0072899 0.0409909
1513750000 0.0072408 0.0413150 0.9927592 -0.0413150 0.9927592 -0.0413150 0.0072408 0.0413150
1521000000 0.0071976 0.0416382 0.9928024 -0.0416382 0.9928024 -0.0416382 0.0071976 0.0416382
1528250000 0.0071600 0.0419605 0.9928400 -0.0419605 0.9928400 -0.0419605 0.0071600 0.0419605
1535500000 0.0071277 0.0422817 0.9928723 -0.0422817 0.9928723 -0.0422817 0.0071277 0.0422817
1542750000 0.0071005 0.0426018 0.9928995 -0.0426018 0.9928995 -0.0426018 0.0071005 0.0426018
1550000000 0.0070779 0.0429207 0.9929221 -0.0429207 0.9929221 -0.0429207 0.0070779 0.0429207
1557250000 0.0070599 0.0432384 0.9929401 -0.0432384 0.9929401 -0.0432384 0.0070599 0.0432384
1564500000 0.0070461 0.0435548 0.9929539 -0.0435548 0.9929539 -0.0435548 0.0070461 0.0435548
1571750000 0.0070363 0.0438698 0.9929637 -0.0438698 0.9929637 -0.0438698 0.0070363 0.0438698
1579000000 0.0070303 0.0441835 0.9929697 -0.0441835 0.9929697 -0.0441835 0.0070303 0.0441835
1586250000 0.0070279 0.0444958 0.9929721 -0.0444958 0.9929721 -0.0444958 0.0070279 0.0444958
1593500000 0.0070291 0.0448067 0.9929709 -0.0448067 0.9929709 -0.0448067 0.0070291 0.0448067
1600750000 0.0070334 0.0451162 0.9929666 -0.0451162 0.9929666 -0.0451162 0.0070334 0.0451162
1608000000 0.0070410 0.0454243 0.9929590 -0.0454243 0.9929590 -0.0454243 0.0070410 0.0454243
1615250000 0.0070515 0.0457311 0.9929485 -0.0457311 0.9929485 -0.0457311 0.0070515 0.0457311
1622500000 0.0070648 0.0460364 0.9929352 -0.0460364 0.9929352 -0.0460364 0.0070648 0.0460364
1629750000 0.0070809 0.0463403 0.9929191 -0.0463403 0.9929191 -0.0463403 0.0070809 0.0463403
