!Murata Part Number: GRM21A5C2E120JW01
!These Parameters are Measured in Series Mode Connection
!Data Generated on Mar 30, 2021
!       o--ll--o
!Port1            Port2
!       o------o
!Operation Temp=25[degC], DC Bias Voltage=0[V]
!Freq. Start=100[MHz] Stop=3[GHz] 401[Steps]
# Hz S RI R 50
!Freq.(Hz) S11(Real) S11(Imag) S21(Real) S21(Imag) S12(Real) S12(Imag) S22(Real) S22(Imag)
100000000 0.6359794 -0.4803317 0.3640206 0.4803317 0.3640206 0.4803317 0.6359794 -0.4803317
107250000 0.6028305 -0.4884287 0.3971695 0.4884287 0.3971695 0.4884287 0.6028305 -0.4884287
114500000 0.5709434 -0.4939981 0.4290566 0.4939981 0.4290566 0.4939981 0.5709434 -0.4939981
121750000 0.5404403 -0.4973581 0.4595597 0.4973581 0.4595597 0.4973581 0.5404403 -0.4973581
129000000 0.5113942 -0.4988057 0.4886058 0.4988057 0.4886058 0.4988057 0.5113942 -0.4988057
136250000 0.4838388 -0.4986136 0.5161612 0.4986136 0.5161612 0.4986136 0.4838388 -0.4986136
143500000 0.4577765 -0.4970279 0.5422235 0.4970279 0.5422235 0.4970279 0.4577765 -0.4970279
150750000 0.4331858 -0.4942686 0.5668142 0.4942686 0.5668142 0.4942686 0.4331858 -0.4942686
158000000 0.4100278 -0.4905299 0.5899722 0.4905299 0.5899722 0.4905299 0.4100278 -0.4905299
165250000 0.3882512 -0.4859824 0.6117488 0.4859824 0.6117488 0.4859824 0.3882512 -0.4859824
172500000 0.3677960 -0.4807739 0.6322040 0.4807739 0.6322040 0.4807739 0.3677960 -0.4807739
179750000 0.3485972 -0.4750328 0.6514028 0.4750328 0.6514028 0.4750328 0.3485972 -0.4750328
187000000 0.3305870 -0.4688691 0.6694130 0.4688691 0.6694130 0.4688691 0.3305870 -0.4688691
194250000 0.3136968 -0.4623771 0.6863032 0.4623771 0.6863032 0.4623771 0.3136968 -0.4623771
201500000 0.2978589 -0.4556370 0.7021411 0.4556370 0.7021411 0.4556370 0.2978589 -0.4556370
208750000 0.2830069 -0.4487169 0.7169931 0.4487169 0.7169931 0.4487169 0.2830069 -0.4487169
216000000 0.2690770 -0.4416743 0.7309230 0.4416743 0.7309230 0.4416743 0.2690770 -0.4416743
223250000 0.2560081 -0.4345574 0.7439919 0.4345574 0.7439919 0.4345574 0.2560081 -0.4345574
230500000 0.2437424 -0.4274066 0.7562576 0.4274066 0.7562576 0.4274066 0.2437424 -0.4274066
237750000 0.2322252 -0.4202557 0.7677748 0.4202557 0.7677748 0.4202557 0.2322252 -0.4202557
245000000 0.2214052 -0.4131324 0.7785948 0.4131324 0.7785948 0.4131324 0.2214052 -0.4131324
252250000 0.2112345 -0.4060598 0.7887655 0.4060598 0.7887655 0.4060598 0.2112345 -0.4060598
259500000 0.2016681 -0.3990564 0.7983319 0.3990564 0.7983319 0.3990564 0.2016681 -0.3990564
266750000 0.1926644 -0.3921376 0.8073356 0.3921376 0.8073356 0.3921376 0.1926644 -0.3921376
274000000 0.1841846 -0.3853153 0.8158154 0.3853153 0.8158154 0.3853153 0.1841846 -0.3853153
281250000 0.1761928 -0.3785992 0.8238072 0.3785992 0.8238072 0.3785992 0.1761928 -0.3785992
288500000 0.1686555 -0.3719965 0.8313445 0.3719965 0.8313445 0.3719965 0.1686555 -0.3719965
295750000 0.1615419 -0.3655129 0.8384581 0.3655129 0.8384581 0.3655129 0.1615419 -0.3655129
303000000 0.1548233 -0.3591524 0.8451767 0.3591524 0.8451767 0.3591524 0.1548233 -0.3591524
310250000 0.1484732 -0.3529177 0.8515268 0.3529177 0.8515268 0.3529177 0.1484732 -0.3529177
317500000 0.1424671 -0.3468105 0.8575329 0.3468105 0.8575329 0.3468105 0.1424671 -0.3468105
324750000 0.1367823 -0.3408314 0.8632177 0.3408314 0.8632177 0.3408314 0.1367823 -0.3408314
332000000 0.1313976 -0.3349806 0.8686024 0.3349806 0.8686024 0.3349806 0.1313976 -0.3349806
339250000 0.1262938 -0.3292575 0.8737062 0.3292575 0.8737062 0.3292575 0.1262938 -0.3292575
346500000 0.1214526 -0.3236609 0.8785474 0.3236609 0.8785474 0.3236609 0.1214526 -0.3236609
353750000 0.1168575 -0.3181893 0.8831425 0.3181893 0.8831425 0.3181893 0.1168575 -0.3181893
361000000 0.1124930 -0.3128410 0.8875070 0.3128410 0.8875070 0.3128410 0.1124930 -0.3128410
368250000 0.1083446 -0.3076138 0.8916554 0.3076138 0.8916554 0.3076138 0.1083446 -0.3076138
375500000 0.1043990 -0.3025054 0.8956010 0.3025054 0.8956010 0.3025054 0.1043990 -0.3025054
382750000 0.1006440 -0.2975133 0.8993560 0.2975133 0.8993560 0.2975133 0.1006440 -0.2975133
390000000 0.0970679 -0.2926350 0.9029321 0.2926350 0.9029321 0.2926350 0.0970679 -0.2926350
397250000 0.0936601 -0.2878678 0.9063399 0.2878678 0.9063399 0.2878678 0.0936601 -0.2878678
404500000 0.0904107 -0.2832090 0.9095893 0.2832090 0.9095893 0.2832090 0.0904107 -0.2832090
411750000 0.0873105 -0.2786559 0.9126895 0.2786559 0.9126895 0.2786559 0.0873105 -0.2786559
419000000 0.0843507 -0.2742057 0.9156493 0.2742057 0.9156493 0.2742057 0.0843507 -0.2742057
426250000 0.0815235 -0.2698556 0.9184765 0.2698556 0.9184765 0.2698556 0.0815235 -0.2698556
433500000 0.0788213 -0.2656029 0.9211787 0.2656029 0.9211787 0.2656029 0.0788213 -0.2656029
440750000 0.0762372 -0.2614449 0.9237628 0.2614449 0.9237628 0.2614449 0.0762372 -0.2614449
448000000 0.0737646 -0.2573789 0.9262354 0.2573789 0.9262354 0.2573789 0.0737646 -0.2573789
455250000 0.0713975 -0.2534024 0.9286025 0.2534024 0.9286025 0.2534024 0.0713975 -0.2534024
462500000 0.0691301 -0.2495126 0.9308699 0.2495126 0.9308699 0.2495126 0.0691301 -0.2495126
469750000 0.0669571 -0.2457072 0.9330429 0.2457072 0.9330429 0.2457072 0.0669571 -0.2457072
477000000 0.0648736 -0.2419836 0.9351264 0.2419836 0.9351264 0.2419836 0.0648736 -0.2419836
484250000 0.0628749 -0.2383394 0.9371251 0.2383394 0.9371251 0.2383394 0.0628749 -0.2383394
491500000 0.0609567 -0.2347724 0.9390433 0.2347724 0.9390433 0.2347724 0.0609567 -0.2347724
498750000 0.0591147 -0.2312801 0.9408853 0.2312801 0.9408853 0.2312801 0.0591147 -0.2312801
506000000 0.0573452 -0.2278605 0.9426548 0.2278605 0.9426548 0.2278605 0.0573452 -0.2278605
513250000 0.0556445 -0.2245114 0.9443555 0.2245114 0.9443555 0.2245114 0.0556445 -0.2245114
520500000 0.0540092 -0.2212306 0.9459908 0.2212306 0.9459908 0.2212306 0.0540092 -0.2212306
527750000 0.0524362 -0.2180163 0.9475638 0.2180163 0.9475638 0.2180163 0.0524362 -0.2180163
535000000 0.0509224 -0.2148663 0.9490776 0.2148663 0.9490776 0.2148663 0.0509224 -0.2148663
542250000 0.0494651 -0.2117788 0.9505349 0.2117788 0.9505349 0.2117788 0.0494651 -0.2117788
549500000 0.0480614 -0.2087520 0.9519386 0.2087520 0.9519386 0.2087520 0.0480614 -0.2087520
556750000 0.0467090 -0.2057842 0.9532910 0.2057842 0.9532910 0.2057842 0.0467090 -0.2057842
564000000 0.0454054 -0.2028735 0.9545946 0.2028735 0.9545946 0.2028735 0.0454054 -0.2028735
571250000 0.0441484 -0.2000183 0.9558516 0.2000183 0.9558516 0.2000183 0.0441484 -0.2000183
578500000 0.0429359 -0.1972170 0.9570641 0.1972170 0.9570641 0.1972170 0.0429359 -0.1972170
585750000 0.0417659 -0.1944681 0.9582341 0.1944681 0.9582341 0.1944681 0.0417659 -0.1944681
593000000 0.0406366 -0.1917701 0.9593634 0.1917701 0.9593634 0.1917701 0.0406366 -0.1917701
600250000 0.0395460 -0.1891214 0.9604540 0.1891214 0.9604540 0.1891214 0.0395460 -0.1891214
607500000 0.0384925 -0.1865207 0.9615075 0.1865207 0.9615075 0.1865207 0.0384925 -0.1865207
614750000 0.0374746 -0.1839667 0.9625254 0.1839667 0.9625254 0.1839667 0.0374746 -0.1839667
622000000 0.0364907 -0.1814579 0.9635093 0.1814579 0.9635093 0.1814579 0.0364907 -0.1814579
629250000 0.0355394 -0.1789933 0.9644606 0.1789933 0.9644606 0.1789933 0.0355394 -0.1789933
636500000 0.0346193 -0.1765714 0.9653807 0.1765714 0.9653807 0.1765714 0.0346193 -0.1765714
643750000 0.0337292 -0.1741912 0.9662708 0.1741912 0.9662708 0.1741912 0.0337292 -0.1741912
651000000 0.0328677 -0.1718514 0.9671323 0.1718514 0.9671323 0.1718514 0.0328677 -0.1718514
658250000 0.0320337 -0.1695511 0.9679663 0.1695511 0.9679663 0.1695511 0.0320337 -0.1695511
665500000 0.0312262 -0.1672890 0.9687738 0.1672890 0.9687738 0.1672890 0.0312262 -0.1672890
672750000 0.0304441 -0.1650642 0.9695559 0.1650642 0.9695559 0.1650642 0.0304441 -0.1650642
680000000 0.0296863 -0.1628757 0.9703137 0.1628757 0.9703137 0.1628757 0.0296863 -0.1628757
687250000 0.0289519 -0.1607224 0.9710481 0.1607224 0.9710481 0.1607224 0.0289519 -0.1607224
694500000 0.0282401 -0.1586035 0.9717599 0.1586035 0.9717599 0.1586035 0.0282401 -0.1586035
701750000 0.0275499 -0.1565180 0.9724501 0.1565180 0.9724501 0.1565180 0.0275499 -0.1565180
709000000 0.0268806 -0.1544651 0.9731194 0.1544651 0.9731194 0.1544651 0.0268806 -0.1544651
716250000 0.0262312 -0.1524440 0.9737688 0.1524440 0.9737688 0.1524440 0.0262312 -0.1524440
723500000 0.0256012 -0.1504537 0.9743988 0.1504537 0.9743988 0.1504537 0.0256012 -0.1504537
730750000 0.0249898 -0.1484935 0.9750102 0.1484935 0.9750102 0.1484935 0.0249898 -0.1484935
738000000 0.0243963 -0.1465626 0.9756037 0.1465626 0.9756037 0.1465626 0.0243963 -0.1465626
745250000 0.0238200 -0.1446603 0.9761800 0.1446603 0.9761800 0.1446603 0.0238200 -0.1446603
752500000 0.0232604 -0.1427858 0.9767396 0.1427858 0.9767396 0.1427858 0.0232604 -0.1427858
759750000 0.0227168 -0.1409385 0.9772832 0.1409385 0.9772832 0.1409385 0.0227168 -0.1409385
767000000 0.0221887 -0.1391176 0.9778113 0.1391176 0.9778113 0.1391176 0.0221887 -0.1391176
774250000 0.0216756 -0.1373226 0.9783244 0.1373226 0.9783244 0.1373226 0.0216756 -0.1373226
781500000 0.0211768 -0.1355527 0.9788232 0.1355527 0.9788232 0.1355527 0.0211768 -0.1355527
788750000 0.0206920 -0.1338074 0.9793080 0.1338074 0.9793080 0.1338074 0.0206920 -0.1338074
796000000 0.0202206 -0.1320860 0.9797794 0.1320860 0.9797794 0.1320860 0.0202206 -0.1320860
803250000 0.0197623 -0.1303880 0.9802377 0.1303880 0.9802377 0.1303880 0.0197623 -0.1303880
810500000 0.0193165 -0.1287128 0.9806835 0.1287128 0.9806835 0.1287128 0.0193165 -0.1287128
817750000 0.0188828 -0.1270599 0.9811172 0.1270599 0.9811172 0.1270599 0.0188828 -0.1270599
825000000 0.0184609 -0.1254287 0.9815391 0.1254287 0.9815391 0.1254287 0.0184609 -0.1254287
832250000 0.0180504 -0.1238187 0.9819496 0.1238187 0.9819496 0.1238187 0.0180504 -0.1238187
839500000 0.0176508 -0.1222295 0.9823492 0.1222295 0.9823492 0.1222295 0.0176508 -0.1222295
846750000 0.0172619 -0.1206605 0.9827381 0.1206605 0.9827381 0.1206605 0.0172619 -0.1206605
854000000 0.0168834 -0.1191112 0.9831166 0.1191112 0.9831166 0.1191112 0.0168834 -0.1191112
861250000 0.0165148 -0.1175812 0.9834852 0.1175812 0.9834852 0.1175812 0.0165148 -0.1175812
868500000 0.0161558 -0.1160702 0.9838442 0.1160702 0.9838442 0.1160702 0.0161558 -0.1160702
875750000 0.0158063 -0.1145775 0.9841937 0.1145775 0.9841937 0.1145775 0.0158063 -0.1145775
883000000 0.0154658 -0.1131029 0.9845342 0.1131029 0.9845342 0.1131029 0.0154658 -0.1131029
890250000 0.0151341 -0.1116458 0.9848659 0.1116458 0.9848659 0.1116458 0.0151341 -0.1116458
897500000 0.0148110 -0.1102060 0.9851890 0.1102060 0.9851890 0.1102060 0.0148110 -0.1102060
904750000 0.0144962 -0.1087830 0.9855038 0.1087830 0.9855038 0.1087830 0.0144962 -0.1087830
912000000 0.0141894 -0.1073765 0.9858106 0.1073765 0.9858106 0.1073765 0.0141894 -0.1073765
919250000 0.0138904 -0.1059860 0.9861096 0.1059860 0.9861096 0.1059860 0.0138904 -0.1059860
926500000 0.0135990 -0.1046113 0.9864010 0.1046113 0.9864010 0.1046113 0.0135990 -0.1046113
933750000 0.0133150 -0.1032520 0.9866850 0.1032520 0.9866850 0.1032520 0.0133150 -0.1032520
941000000 0.0130381 -0.1019078 0.9869619 0.1019078 0.9869619 0.1019078 0.0130381 -0.1019078
948250000 0.0127681 -0.1005782 0.9872319 0.1005782 0.9872319 0.1005782 0.0127681 -0.1005782
955500000 0.0125049 -0.0992632 0.9874951 0.0992632 0.9874951 0.0992632 0.0125049 -0.0992632
962750000 0.0122483 -0.0979622 0.9877517 0.0979622 0.9877517 0.0979622 0.0122483 -0.0979622
970000000 0.0119980 -0.0966750 0.9880020 0.0966750 0.9880020 0.0966750 0.0119980 -0.0966750
977250000 0.0117540 -0.0954014 0.9882460 0.0954014 0.9882460 0.0954014 0.0117540 -0.0954014
984500000 0.0115160 -0.0941410 0.9884840 0.0941410 0.9884840 0.0941410 0.0115160 -0.0941410
991750000 0.0112838 -0.0928935 0.9887162 0.0928935 0.9887162 0.0928935 0.0112838 -0.0928935
999000000 0.0110574 -0.0916588 0.9889426 0.0916588 0.9889426 0.0916588 0.0110574 -0.0916588
1006250000 0.0108365 -0.0904365 0.9891635 0.0904365 0.9891635 0.0904365 0.0108365 -0.0904365
1013500000 0.0106210 -0.0892263 0.9893790 0.0892263 0.9893790 0.0892263 0.0106210 -0.0892263
1020750000 0.0104108 -0.0880281 0.9895892 0.0880281 0.9895892 0.0880281 0.0104108 -0.0880281
1028000000 0.0102058 -0.0868416 0.9897942 0.0868416 0.9897942 0.0868416 0.0102058 -0.0868416
1035250000 0.0100057 -0.0856665 0.9899943 0.0856665 0.9899943 0.0856665 0.0100057 -0.0856665
1042500000 0.0098106 -0.0845026 0.9901894 0.0845026 0.9901894 0.0845026 0.0098106 -0.0845026
1049750000 0.0096201 -0.0833497 0.9903799 0.0833497 0.9903799 0.0833497 0.0096201 -0.0833497
1057000000 0.0094344 -0.0822076 0.9905656 0.0822076 0.9905656 0.0822076 0.0094344 -0.0822076
1064250000 0.0092531 -0.0810761 0.9907469 0.0810761 0.9907469 0.0810761 0.0092531 -0.0810761
1071500000 0.0090762 -0.0799549 0.9909238 0.0799549 0.9909238 0.0799549 0.0090762 -0.0799549
1078750000 0.0089037 -0.0788438 0.9910963 0.0788438 0.9910963 0.0788438 0.0089037 -0.0788438
1086000000 0.0087353 -0.0777427 0.9912647 0.0777427 0.9912647 0.0777427 0.0087353 -0.0777427
1093250000 0.0085710 -0.0766514 0.9914290 0.0766514 0.9914290 0.0766514 0.0085710 -0.0766514
1100500000 0.0084108 -0.0755696 0.9915892 0.0755696 0.9915892 0.0755696 0.0084108 -0.0755696
1107750000 0.0082544 -0.0744972 0.9917456 0.0744972 0.9917456 0.0744972 0.0082544 -0.0744972
1115000000 0.0081018 -0.0734340 0.9918982 0.0734340 0.9918982 0.0734340 0.0081018 -0.0734340
1122250000 0.0079530 -0.0723798 0.9920470 0.0723798 0.9920470 0.0723798 0.0079530 -0.0723798
1129500000 0.0078078 -0.0713345 0.9921922 0.0713345 0.9921922 0.0713345 0.0078078 -0.0713345
1136750000 0.0076661 -0.0702979 0.9923339 0.0702979 0.9923339 0.0702979 0.0076661 -0.0702979
1144000000 0.0075279 -0.0692698 0.9924721 0.0692698 0.9924721 0.0692698 0.0075279 -0.0692698
1151250000 0.0073932 -0.0682500 0.9926068 0.0682500 0.9926068 0.0682500 0.0073932 -0.0682500
1158500000 0.0072617 -0.0672384 0.9927383 0.0672384 0.9927383 0.0672384 0.0072617 -0.0672384
1165750000 0.0071335 -0.0662349 0.9928665 0.0662349 0.9928665 0.0662349 0.0071335 -0.0662349
1173000000 0.0070084 -0.0652393 0.9929916 0.0652393 0.9929916 0.0652393 0.0070084 -0.0652393
1180250000 0.0068865 -0.0642515 0.9931135 0.0642515 0.9931135 0.0642515 0.0068865 -0.0642515
1187500000 0.0067676 -0.0632713 0.9932324 0.0632713 0.9932324 0.0632713 0.0067676 -0.0632713
1194750000 0.0066516 -0.0622985 0.9933484 0.0622985 0.9933484 0.0622985 0.0066516 -0.0622985
1202000000 0.0065386 -0.0613331 0.9934614 0.0613331 0.9934614 0.0613331 0.0065386 -0.0613331
1209250000 0.0064285 -0.0603749 0.9935715 0.0603749 0.9935715 0.0603749 0.0064285 -0.0603749
1216500000 0.0063211 -0.0594237 0.9936789 0.0594237 0.9936789 0.0594237 0.0063211 -0.0594237
1223750000 0.0062164 -0.0584795 0.9937836 0.0584795 0.9937836 0.0584795 0.0062164 -0.0584795
1231000000 0.0061145 -0.0575421 0.9938855 0.0575421 0.9938855 0.0575421 0.0061145 -0.0575421
1238250000 0.0060151 -0.0566115 0.9939849 0.0566115 0.9939849 0.0566115 0.0060151 -0.0566115
1245500000 0.0059183 -0.0556873 0.9940817 0.0556873 0.9940817 0.0556873 0.0059183 -0.0556873
1252750000 0.0058241 -0.0547697 0.9941759 0.0547697 0.9941759 0.0547697 0.0058241 -0.0547697
1260000000 0.0057323 -0.0538584 0.9942677 0.0538584 0.9942677 0.0538584 0.0057323 -0.0538584
1267250000 0.0056430 -0.0529533 0.9943570 0.0529533 0.9943570 0.0529533 0.0056430 -0.0529533
1274500000 0.0055560 -0.0520544 0.9944440 0.0520544 0.9944440 0.0520544 0.0055560 -0.0520544
1281750000 0.0054713 -0.0511614 0.9945287 0.0511614 0.9945287 0.0511614 0.0054713 -0.0511614
1289000000 0.0053890 -0.0502744 0.9946110 0.0502744 0.9946110 0.0502744 0.0053890 -0.0502744
1296250000 0.0053089 -0.0493932 0.9946911 0.0493932 0.9946911 0.0493932 0.0053089 -0.0493932
1303500000 0.0052309 -0.0485177 0.9947691 0.0485177 0.9947691 0.0485177 0.0052309 -0.0485177
1310750000 0.0051552 -0.0476478 0.9948448 0.0476478 0.9948448 0.0476478 0.0051552 -0.0476478
1318000000 0.0050816 -0.0467834 0.9949184 0.0467834 0.9949184 0.0467834 0.0050816 -0.0467834
1325250000 0.0050100 -0.0459244 0.9949900 0.0459244 0.9949900 0.0459244 0.0050100 -0.0459244
1332500000 0.0049405 -0.0450708 0.9950595 0.0450708 0.9950595 0.0450708 0.0049405 -0.0450708
1339750000 0.0048730 -0.0442223 0.9951270 0.0442223 0.9951270 0.0442223 0.0048730 -0.0442223
1347000000 0.0048075 -0.0433790 0.9951925 0.0433790 0.9951925 0.0433790 0.0048075 -0.0433790
1354250000 0.0047439 -0.0425408 0.9952561 0.0425408 0.9952561 0.0425408 0.0047439 -0.0425408
1361500000 0.0046823 -0.0417075 0.9953177 0.0417075 0.9953177 0.0417075 0.0046823 -0.0417075
1368750000 0.0046225 -0.0408791 0.9953775 0.0408791 0.9953775 0.0408791 0.0046225 -0.0408791
1376000000 0.0045646 -0.0400555 0.9954354 0.0400555 0.9954354 0.0400555 0.0045646 -0.0400555
1383250000 0.0045084 -0.0392366 0.9954916 0.0392366 0.9954916 0.0392366 0.0045084 -0.0392366
1390500000 0.0044541 -0.0384224 0.9955459 0.0384224 0.9955459 0.0384224 0.0044541 -0.0384224
1397750000 0.0044015 -0.0376127 0.9955985 0.0376127 0.9955985 0.0376127 0.0044015 -0.0376127
1405000000 0.0043507 -0.0368075 0.9956493 0.0368075 0.9956493 0.0368075 0.0043507 -0.0368075
1412250000 0.0043015 -0.0360067 0.9956985 0.0360067 0.9956985 0.0360067 0.0043015 -0.0360067
1419500000 0.0042540 -0.0352103 0.9957460 0.0352103 0.9957460 0.0352103 0.0042540 -0.0352103
1426750000 0.0042082 -0.0344181 0.9957918 0.0344181 0.9957918 0.0344181 0.0042082 -0.0344181
1434000000 0.0041640 -0.0336301 0.9958360 0.0336301 0.9958360 0.0336301 0.0041640 -0.0336301
1441250000 0.0041214 -0.0328462 0.9958786 0.0328462 0.9958786 0.0328462 0.0041214 -0.0328462
1448500000 0.0040804 -0.0320664 0.9959196 0.0320664 0.9959196 0.0320664 0.0040804 -0.0320664
1455750000 0.0040409 -0.0312905 0.9959591 0.0312905 0.9959591 0.0312905 0.0040409 -0.0312905
1463000000 0.0040029 -0.0305186 0.9959971 0.0305186 0.9959971 0.0305186 0.0040029 -0.0305186
1470250000 0.0039665 -0.0297505 0.9960335 0.0297505 0.9960335 0.0297505 0.0039665 -0.0297505
1477500000 0.0039315 -0.0289862 0.9960685 0.0289862 0.9960685 0.0289862 0.0039315 -0.0289862
1484750000 0.0038980 -0.0282257 0.9961020 0.0282257 0.9961020 0.0282257 0.0038980 -0.0282257
1492000000 0.0038660 -0.0274688 0.9961340 0.0274688 0.9961340 0.0274688 0.0038660 -0.0274688
1499250000 0.0038353 -0.0267155 0.9961647 0.0267155 0.9961647 0.0267155 0.0038353 -0.0267155
1506500000 0.0038061 -0.0259657 0.9961939 0.0259657 0.9961939 0.0259657 0.0038061 -0.0259657
1513750000 0.0037783 -0.0252195 0.9962217 0.0252195 0.9962217 0.0252195 0.0037783 -0.0252195
1521000000 0.0037518 -0.0244767 0.9962482 0.0244767 0.9962482 0.0244767 0.0037518 -0.0244767
1528250000 0.0037267 -0.0237372 0.9962733 0.0237372 0.9962733 0.0237372 0.0037267 -0.0237372
1535500000 0.0037029 -0.0230011 0.9962971 0.0230011 0.9962971 0.0230011 0.0037029 -0.0230011
1542750000 0.0036804 -0.0222682 0.9963196 0.0222682 0.9963196 0.0222682 0.0036804 -0.0222682
1550000000 0.0036592 -0.0215385 0.9963408 0.0215385 0.9963408 0.0215385 0.0036592 -0.0215385
1557250000 0.0036394 -0.0208120 0.9963606 0.0208120 0.9963606 0.0208120 0.0036394 -0.0208120
1564500000 0.0036207 -0.0200886 0.9963793 0.0200886 0.9963793 0.0200886 0.0036207 -0.0200886
1571750000 0.0036034 -0.0193683 0.9963966 0.0193683 0.9963966 0.0193683 0.0036034 -0.0193683
1579000000 0.0035873 -0.0186510 0.9964127 0.0186510 0.9964127 0.0186510 0.0035873 -0.0186510
1586250000 0.0035724 -0.0179366 0.9964276 0.0179366 0.9964276 0.0179366 0.0035724 -0.0179366
1593500000 0.0035587 -0.0172251 0.9964413 0.0172251 0.9964413 0.0172251 0.0035587 -0.0172251
1600750000 0.0035462 -0.0165165 0.9964538 0.0165165 0.9964538 0.0165165 0.0035462 -0.0165165
1608000000 0.0035349 -0.0158107 0.9964651 0.0158107 0.9964651 0.0158107 0.0035349 -0.0158107
1615250000 0.0035247 -0.0151077 0.9964753 0.0151077 0.9964753 0.0151077 0.0035247 -0.0151077
1622500000 0.0035157 -0.0144074 0.9964843 0.0144074 0.9964843 0.0144074 0.0035157 -0.0144074
1629750000 0.0035079 -0.0137098 0.9964921 0.0137098 0.9964921 0.0137098 0.0035079 -0.0137098
