!Murata Part Number: GRM2167U1A223JA01
!These Parameters are Measured in Series Mode Connection
!Data Generated on Mar 30, 2021
!       o--ll--o
!Port1            Port2
!       o------o
!Operation Temp=25[degC], DC Bias Voltage=0[V]
!Freq. Start=1000[kHz] Stop=6[GHz] 401[Steps]
# Hz S RI R 50
!Freq.(Hz) S11(Real) S11(Imag) S21(Real) S21(Imag) S12(Real) S12(Imag) S22(Real) S22(Imag)
1000000 0.0050861 -0.0705650 0.9949139 0.0705650 0.9949139 0.0705650 0.0050861 -0.0705650
1021987 0.0048739 -0.0690602 0.9951261 0.0690602 0.9951261 0.0690602 0.0048739 -0.0690602
1044457 0.0046707 -0.0675867 0.9953293 0.0675867 0.9953293 0.0675867 0.0046707 -0.0675867
1067422 0.0044760 -0.0661440 0.9955240 0.0661440 0.9955240 0.0661440 0.0044760 -0.0661440
1090891 0.0042895 -0.0647316 0.9957105 0.0647316 0.9957105 0.0647316 0.0042895 -0.0647316
1114877 0.0041109 -0.0633487 0.9958891 0.0633487 0.9958891 0.0633487 0.0041109 -0.0633487
1139390 0.0039399 -0.0619948 0.9960601 0.0619948 0.9960601 0.0619948 0.0039399 -0.0619948
1164441 0.0037760 -0.0606694 0.9962240 0.0606694 0.9962240 0.0606694 0.0037760 -0.0606694
1190044 0.0036191 -0.0593718 0.9963809 0.0593718 0.9963809 0.0593718 0.0036191 -0.0593718
1216210 0.0034689 -0.0581015 0.9965311 0.0581015 0.9965311 0.0581015 0.0034689 -0.0581015
1242950 0.0033250 -0.0568579 0.9966750 0.0568579 0.9966750 0.0568579 0.0033250 -0.0568579
1270279 0.0031871 -0.0556405 0.9968129 0.0556405 0.9968129 0.0556405 0.0031871 -0.0556405
1298209 0.0030551 -0.0544488 0.9969449 0.0544488 0.9969449 0.0544488 0.0030551 -0.0544488
1326753 0.0029287 -0.0532823 0.9970713 0.0532823 0.9970713 0.0532823 0.0029287 -0.0532823
1355924 0.0028077 -0.0521403 0.9971923 0.0521403 0.9971923 0.0521403 0.0028077 -0.0521403
1385737 0.0026917 -0.0510225 0.9973083 0.0510225 0.9973083 0.0510225 0.0026917 -0.0510225
1416205 0.0025807 -0.0499283 0.9974193 0.0499283 0.9974193 0.0499283 0.0025807 -0.0499283
1447343 0.0024744 -0.0488573 0.9975256 0.0488573 0.9975256 0.0488573 0.0024744 -0.0488573
1479166 0.0023726 -0.0478089 0.9976274 0.0478089 0.9976274 0.0478089 0.0023726 -0.0478089
1511688 0.0022751 -0.0467828 0.9977249 0.0467828 0.9977249 0.0467828 0.0022751 -0.0467828
1544926 0.0021818 -0.0457784 0.9978182 0.0457784 0.9978182 0.0457784 0.0021818 -0.0457784
1578894 0.0020924 -0.0447952 0.9979076 0.0447952 0.9979076 0.0447952 0.0020924 -0.0447952
1613609 0.0020067 -0.0438329 0.9979933 0.0438329 0.9979933 0.0438329 0.0020067 -0.0438329
1649087 0.0019248 -0.0428911 0.9980752 0.0428911 0.9980752 0.0428911 0.0019248 -0.0428911
1685346 0.0018463 -0.0419692 0.9981537 0.0419692 0.9981537 0.0419692 0.0018463 -0.0419692
1722402 0.0017711 -0.0410669 0.9982289 0.0410669 0.9982289 0.0410669 0.0017711 -0.0410669
1760272 0.0016991 -0.0401837 0.9983009 0.0401837 0.9983009 0.0401837 0.0016991 -0.0401837
1798975 0.0016302 -0.0393194 0.9983698 0.0393194 0.9983698 0.0393194 0.0016302 -0.0393194
1838529 0.0015642 -0.0384733 0.9984358 0.0384733 0.9984358 0.0384733 0.0015642 -0.0384733
1878953 0.0015010 -0.0376453 0.9984990 0.0376453 0.9984990 0.0376453 0.0015010 -0.0376453
1920266 0.0014405 -0.0368349 0.9985595 0.0368349 0.9985595 0.0368349 0.0014405 -0.0368349
1962487 0.0013826 -0.0360417 0.9986174 0.0360417 0.9986174 0.0360417 0.0013826 -0.0360417
2005636 0.0013271 -0.0352654 0.9986729 0.0352654 0.9986729 0.0352654 0.0013271 -0.0352654
2049734 0.0012740 -0.0345055 0.9987260 0.0345055 0.9987260 0.0345055 0.0012740 -0.0345055
2094801 0.0012231 -0.0337619 0.9987769 0.0337619 0.9987769 0.0337619 0.0012231 -0.0337619
2140860 0.0011744 -0.0330341 0.9988256 0.0330341 0.9988256 0.0330341 0.0011744 -0.0330341
2187931 0.0011278 -0.0323217 0.9988722 0.0323217 0.9988722 0.0323217 0.0011278 -0.0323217
2236037 0.0010832 -0.0316246 0.9989168 0.0316246 0.9989168 0.0316246 0.0010832 -0.0316246
2285201 0.0010405 -0.0309422 0.9989595 0.0309422 0.9989595 0.0309422 0.0010405 -0.0309422
2335446 0.0009995 -0.0302744 0.9990005 0.0302744 0.9990005 0.0302744 0.0009995 -0.0302744
2386795 0.0009604 -0.0296208 0.9990396 0.0296208 0.9990396 0.0296208 0.0009604 -0.0296208
2439274 0.0009228 -0.0289812 0.9990772 0.0289812 0.9990772 0.0289812 0.0009228 -0.0289812
2492906 0.0008869 -0.0283551 0.9991131 0.0283551 0.9991131 0.0283551 0.0008869 -0.0283551
2547717 0.0008526 -0.0277424 0.9991474 0.0277424 0.9991474 0.0277424 0.0008526 -0.0277424
2603734 0.0008196 -0.0271427 0.9991804 0.0271427 0.9991804 0.0271427 0.0008196 -0.0271427
2660982 0.0007881 -0.0265557 0.9992119 0.0265557 0.9992119 0.0265557 0.0007881 -0.0265557
2719490 0.0007580 -0.0259813 0.9992420 0.0259813 0.9992420 0.0259813 0.0007580 -0.0259813
2779283 0.0007291 -0.0254191 0.9992709 0.0254191 0.9992709 0.0254191 0.0007291 -0.0254191
2840391 0.0007014 -0.0248688 0.9992986 0.0248688 0.9992986 0.0248688 0.0007014 -0.0248688
2902843 0.0006750 -0.0243303 0.9993250 0.0243303 0.9993250 0.0243303 0.0006750 -0.0243303
2966668 0.0006496 -0.0238032 0.9993504 0.0238032 0.9993504 0.0238032 0.0006496 -0.0238032
3031896 0.0006254 -0.0232873 0.9993746 0.0232873 0.9993746 0.0232873 0.0006254 -0.0232873
3098558 0.0006022 -0.0227824 0.9993978 0.0227824 0.9993978 0.0227824 0.0006022 -0.0227824
3166686 0.0005799 -0.0222882 0.9994201 0.0222882 0.9994201 0.0222882 0.0005799 -0.0222882
3236312 0.0005587 -0.0218045 0.9994413 0.0218045 0.9994413 0.0218045 0.0005587 -0.0218045
3307469 0.0005383 -0.0213311 0.9994617 0.0213311 0.9994617 0.0213311 0.0005383 -0.0213311
3380190 0.0005188 -0.0208678 0.9994812 0.0208678 0.9994812 0.0208678 0.0005188 -0.0208678
3454511 0.0005002 -0.0204142 0.9994998 0.0204142 0.9994998 0.0204142 0.0005002 -0.0204142
3530465 0.0004823 -0.0199704 0.9995177 0.0199704 0.9995177 0.0199704 0.0004823 -0.0199704
3608090 0.0004652 -0.0195359 0.9995348 0.0195359 0.9995348 0.0195359 0.0004652 -0.0195359
3687421 0.0004489 -0.0191106 0.9995511 0.0191106 0.9995511 0.0191106 0.0004489 -0.0191106
3768496 0.0004332 -0.0186944 0.9995668 0.0186944 0.9995668 0.0186944 0.0004332 -0.0186944
3851354 0.0004183 -0.0182869 0.9995817 0.0182869 0.9995817 0.0182869 0.0004183 -0.0182869
3936034 0.0004039 -0.0178882 0.9995961 0.0178882 0.9995961 0.0178882 0.0004039 -0.0178882
4022575 0.0003902 -0.0174978 0.9996098 0.0174978 0.9996098 0.0174978 0.0003902 -0.0174978
4111020 0.0003771 -0.0171157 0.9996229 0.0171157 0.9996229 0.0171157 0.0003771 -0.0171157
4201409 0.0003646 -0.0167417 0.9996354 0.0167417 0.9996354 0.0167417 0.0003646 -0.0167417
4293785 0.0003526 -0.0163756 0.9996474 0.0163756 0.9996474 0.0163756 0.0003526 -0.0163756
4388193 0.0003411 -0.0160172 0.9996589 0.0160172 0.9996589 0.0160172 0.0003411 -0.0160172
4484676 0.0003301 -0.0156664 0.9996699 0.0156664 0.9996699 0.0156664 0.0003301 -0.0156664
4583281 0.0003196 -0.0153229 0.9996804 0.0153229 0.9996804 0.0153229 0.0003196 -0.0153229
4684054 0.0003096 -0.0149868 0.9996904 0.0149868 0.9996904 0.0149868 0.0003096 -0.0149868
4787042 0.0003000 -0.0146577 0.9997000 0.0146577 0.9997000 0.0146577 0.0003000 -0.0146577
4892295 0.0002908 -0.0143355 0.9997092 0.0143355 0.9997092 0.0143355 0.0002908 -0.0143355
4999862 0.0002820 -0.0140201 0.9997180 0.0140201 0.9997180 0.0140201 0.0002820 -0.0140201
5109794 0.0002736 -0.0137113 0.9997264 0.0137113 0.9997264 0.0137113 0.0002736 -0.0137113
5222143 0.0002656 -0.0134090 0.9997344 0.0134090 0.9997344 0.0134090 0.0002656 -0.0134090
5336962 0.0002579 -0.0131130 0.9997421 0.0131130 0.9997421 0.0131130 0.0002579 -0.0131130
5454306 0.0002506 -0.0128233 0.9997494 0.0128233 0.9997494 0.0128233 0.0002506 -0.0128233
5574230 0.0002436 -0.0125395 0.9997564 0.0125395 0.9997564 0.0125395 0.0002436 -0.0125395
5696791 0.0002369 -0.0122618 0.9997631 0.0122618 0.9997631 0.0122618 0.0002369 -0.0122618
5822046 0.0002306 -0.0119898 0.9997694 0.0119898 0.9997694 0.0119898 0.0002306 -0.0119898
5950055 0.0002245 -0.0117235 0.9997755 0.0117235 0.9997755 0.0117235 0.0002245 -0.0117235
6080879 0.0002186 -0.0114627 0.9997814 0.0114627 0.9997814 0.0114627 0.0002186 -0.0114627
6214580 0.0002131 -0.0112074 0.9997869 0.0112074 0.9997869 0.0112074 0.0002131 -0.0112074
6351220 0.0002078 -0.0109573 0.9997922 0.0109573 0.9997922 0.0109573 0.0002078 -0.0109573
6490864 0.0002028 -0.0107125 0.9997972 0.0107125 0.9997972 0.0107125 0.0002028 -0.0107125
6633579 0.0001979 -0.0104727 0.9998021 0.0104727 0.9998021 0.0104727 0.0001979 -0.0104727
6779431 0.0001934 -0.0102379 0.9998066 0.0102379 0.9998066 0.0102379 0.0001934 -0.0102379
6928491 0.0001890 -0.0100079 0.9998110 0.0100079 0.9998110 0.0100079 0.0001890 -0.0100079
7080828 0.0001848 -0.0097827 0.9998152 0.0097827 0.9998152 0.0097827 0.0001848 -0.0097827
7236514 0.0001808 -0.0095620 0.9998192 0.0095620 0.9998192 0.0095620 0.0001808 -0.0095620
7395623 0.0001771 -0.0093460 0.9998229 0.0093460 0.9998229 0.0093460 0.0001771 -0.0093460
7558231 0.0001735 -0.0091343 0.9998265 0.0091343 0.9998265 0.0091343 0.0001735 -0.0091343
7724414 0.0001701 -0.0089270 0.9998299 0.0089270 0.9998299 0.0089270 0.0001701 -0.0089270
7894251 0.0001668 -0.0087239 0.9998332 0.0087239 0.9998332 0.0087239 0.0001668 -0.0087239
8067822 0.0001637 -0.0085249 0.9998363 0.0085249 0.9998363 0.0085249 0.0001637 -0.0085249
8245209 0.0001608 -0.0083300 0.9998392 0.0083300 0.9998392 0.0083300 0.0001608 -0.0083300
8426497 0.0001580 -0.0081390 0.9998420 0.0081390 0.9998420 0.0081390 0.0001580 -0.0081390
8611770 0.0001554 -0.0079519 0.9998446 0.0079519 0.9998446 0.0079519 0.0001554 -0.0079519
8801117 0.0001529 -0.0077685 0.9998471 0.0077685 0.9998471 0.0077685 0.0001529 -0.0077685
8994628 0.0001506 -0.0075889 0.9998494 0.0075889 0.9998494 0.0075889 0.0001506 -0.0075889
9192393 0.0001483 -0.0074128 0.9998517 0.0074128 0.9998517 0.0074128 0.0001483 -0.0074128
9394506 0.0001462 -0.0072403 0.9998538 0.0072403 0.9998538 0.0072403 0.0001462 -0.0072403
9601063 0.0001442 -0.0070712 0.9998558 0.0070712 0.9998558 0.0070712 0.0001442 -0.0070712
9812162 0.0001424 -0.0069054 0.9998576 0.0069054 0.9998576 0.0069054 0.0001424 -0.0069054
10027902 0.0001406 -0.0067430 0.9998594 0.0067430 0.9998594 0.0067430 0.0001406 -0.0067430
10248386 0.0001389 -0.0065837 0.9998611 0.0065837 0.9998611 0.0065837 0.0001389 -0.0065837
10473717 0.0001374 -0.0064276 0.9998626 0.0064276 0.9998626 0.0064276 0.0001374 -0.0064276
10704003 0.0001359 -0.0062745 0.9998641 0.0062745 0.9998641 0.0062745 0.0001359 -0.0062745
10939352 0.0001345 -0.0061244 0.9998655 0.0061244 0.9998655 0.0061244 0.0001345 -0.0061244
11179876 0.0001333 -0.0059772 0.9998667 0.0059772 0.9998667 0.0059772 0.0001333 -0.0059772
11425688 0.0001321 -0.0058328 0.9998679 0.0058328 0.9998679 0.0058328 0.0001321 -0.0058328
11676904 0.0001310 -0.0056913 0.9998690 0.0056913 0.9998690 0.0056913 0.0001310 -0.0056913
11933645 0.0001299 -0.0055524 0.9998701 0.0055524 0.9998701 0.0055524 0.0001299 -0.0055524
12196030 0.0001290 -0.0054162 0.9998710 0.0054162 0.9998710 0.0054162 0.0001290 -0.0054162
12464184 0.0001281 -0.0052826 0.9998719 0.0052826 0.9998719 0.0052826 0.0001281 -0.0052826
12738235 0.0001273 -0.0051514 0.9998727 0.0051514 0.9998727 0.0051514 0.0001273 -0.0051514
13018310 0.0001266 -0.0050228 0.9998734 0.0050228 0.9998734 0.0050228 0.0001266 -0.0050228
13304544 0.0001259 -0.0048965 0.9998741 0.0048965 0.9998741 0.0048965 0.0001259 -0.0048965
13597071 0.0001253 -0.0047725 0.9998747 0.0047725 0.9998747 0.0047725 0.0001253 -0.0047725
13896030 0.0001248 -0.0046509 0.9998752 0.0046509 0.9998752 0.0046509 0.0001248 -0.0046509
14201563 0.0001243 -0.0045314 0.9998757 0.0045314 0.9998757 0.0045314 0.0001243 -0.0045314
14513813 0.0001238 -0.0044141 0.9998762 0.0044141 0.9998762 0.0044141 0.0001238 -0.0044141
14832928 0.0001235 -0.0042990 0.9998765 0.0042990 0.9998765 0.0042990 0.0001235 -0.0042990
15159060 0.0001231 -0.0041858 0.9998769 0.0041858 0.9998769 0.0041858 0.0001231 -0.0041858
15492362 0.0001229 -0.0040747 0.9998771 0.0040747 0.9998771 0.0040747 0.0001229 -0.0040747
15832993 0.0001226 -0.0039655 0.9998774 0.0039655 0.9998774 0.0039655 0.0001226 -0.0039655
16181113 0.0001224 -0.0038582 0.9998776 0.0038582 0.9998776 0.0038582 0.0001224 -0.0038582
16536888 0.0001223 -0.0037528 0.9998777 0.0037528 0.9998777 0.0037528 0.0001223 -0.0037528
16900485 0.0001222 -0.0036491 0.9998778 0.0036491 0.9998778 0.0036491 0.0001222 -0.0036491
17272076 0.0001222 -0.0035472 0.9998778 0.0035472 0.9998778 0.0035472 0.0001222 -0.0035472
17651837 0.0001222 -0.0034470 0.9998778 0.0034470 0.9998778 0.0034470 0.0001222 -0.0034470
18039948 0.0001222 -0.0033484 0.9998778 0.0033484 0.9998778 0.0033484 0.0001222 -0.0033484
18436593 0.0001222 -0.0032515 0.9998778 0.0032515 0.9998778 0.0032515 0.0001222 -0.0032515
18841959 0.0001223 -0.0031561 0.9998777 0.0031561 0.9998777 0.0031561 0.0001223 -0.0031561
19256237 0.0001225 -0.0030622 0.9998775 0.0030622 0.9998775 0.0030622 0.0001225 -0.0030622
19679624 0.0001227 -0.0029697 0.9998773 0.0029697 0.9998773 0.0029697 0.0001227 -0.0029697
20112321 0.0001229 -0.0028787 0.9998771 0.0028787 0.9998771 0.0028787 0.0001229 -0.0028787
20554530 0.0001231 -0.0027890 0.9998769 0.0027890 0.9998769 0.0027890 0.0001231 -0.0027890
21006463 0.0001234 -0.0027007 0.9998766 0.0027007 0.9998766 0.0027007 0.0001234 -0.0027007
21468333 0.0001237 -0.0026137 0.9998763 0.0026137 0.9998763 0.0026137 0.0001237 -0.0026137
21940357 0.0001240 -0.0025279 0.9998760 0.0025279 0.9998760 0.0025279 0.0001240 -0.0025279
22422760 0.0001244 -0.0024433 0.9998756 0.0024433 0.9998756 0.0024433 0.0001244 -0.0024433
22915770 0.0001247 -0.0023599 0.9998753 0.0023599 0.9998753 0.0023599 0.0001247 -0.0023599
23419619 0.0001252 -0.0022776 0.9998748 0.0022776 0.9998748 0.0022776 0.0001252 -0.0022776
23934547 0.0001256 -0.0021964 0.9998744 0.0021964 0.9998744 0.0021964 0.0001256 -0.0021964
24460796 0.0001261 -0.0021163 0.9998739 0.0021163 0.9998739 0.0021163 0.0001261 -0.0021163
24998616 0.0001266 -0.0020371 0.9998734 0.0020371 0.9998734 0.0020371 0.0001266 -0.0020371
25548261 0.0001271 -0.0019590 0.9998729 0.0019590 0.9998729 0.0019590 0.0001271 -0.0019590
26109991 0.0001277 -0.0018817 0.9998723 0.0018817 0.9998723 0.0018817 0.0001277 -0.0018817
26684072 0.0001283 -0.0018054 0.9998717 0.0018054 0.9998717 0.0018054 0.0001283 -0.0018054
27270775 0.0001289 -0.0017299 0.9998711 0.0017299 0.9998711 0.0017299 0.0001289 -0.0017299
27870378 0.0001296 -0.0016552 0.9998704 0.0016552 0.9998704 0.0016552 0.0001296 -0.0016552
28483164 0.0001303 -0.0015813 0.9998697 0.0015813 0.9998697 0.0015813 0.0001303 -0.0015813
29109424 0.0001310 -0.0015081 0.9998690 0.0015081 0.9998690 0.0015081 0.0001310 -0.0015081
29749453 0.0001318 -0.0014356 0.9998682 0.0014356 0.9998682 0.0014356 0.0001318 -0.0014356
30403555 0.0001326 -0.0013638 0.9998674 0.0013638 0.9998674 0.0013638 0.0001326 -0.0013638
31072038 0.0001334 -0.0012927 0.9998666 0.0012927 0.9998666 0.0012927 0.0001334 -0.0012927
31755220 0.0001343 -0.0012221 0.9998657 0.0012221 0.9998657 0.0012221 0.0001343 -0.0012221
32453422 0.0001352 -0.0011521 0.9998648 0.0011521 0.9998648 0.0011521 0.0001352 -0.0011521
33166976 0.0001361 -0.0010827 0.9998639 0.0010827 0.9998639 0.0010827 0.0001361 -0.0010827
33896219 0.0001371 -0.0010137 0.9998629 0.0010137 0.9998629 0.0010137 0.0001371 -0.0010137
34641496 0.0001382 -0.0009452 0.9998618 0.0009452 0.9998618 0.0009452 0.0001382 -0.0009452
35403159 0.0001393 -0.0008771 0.9998607 0.0008771 0.9998607 0.0008771 0.0001393 -0.0008771
36181569 0.0001404 -0.0008093 0.9998596 0.0008093 0.9998596 0.0008093 0.0001404 -0.0008093
36977093 0.0001416 -0.0007420 0.9998584 0.0007420 0.9998584 0.0007420 0.0001416 -0.0007420
37790109 0.0001428 -0.0006749 0.9998572 0.0006749 0.9998572 0.0006749 0.0001428 -0.0006749
38621001 0.0001441 -0.0006082 0.9998559 0.0006082 0.9998559 0.0006082 0.0001441 -0.0006082
39470161 0.0001455 -0.0005416 0.9998545 0.0005416 0.9998545 0.0005416 0.0001455 -0.0005416
40337993 0.0001470 -0.0004753 0.9998530 0.0004753 0.9998530 0.0004753 0.0001470 -0.0004753
41224905 0.0001485 -0.0004092 0.9998515 0.0004092 0.9998515 0.0004092 0.0001485 -0.0004092
42131317 0.0001500 -0.0003432 0.9998500 0.0003432 0.9998500 0.0003432 0.0001500 -0.0003432
43057659 0.0001517 -0.0002772 0.9998483 0.0002772 0.9998483 0.0002772 0.0001517 -0.0002772
44004369 0.0001535 -0.0002114 0.9998465 0.0002114 0.9998465 0.0002114 0.0001535 -0.0002114
44971893 0.0001553 -0.0001455 0.9998447 0.0001455 0.9998447 0.0001455 0.0001553 -0.0001455
45960691 0.0001572 -0.0000797 0.9998428 0.0000797 0.9998428 0.0000797 0.0001572 -0.0000797
46971230 0.0001593 -0.0000138 0.9998407 0.0000138 0.9998407 0.0000138 0.0001593 -0.0000138
48003987 0.0001615 0.0000522 0.9998385 -0.0000522 0.9998385 -0.0000522 0.0001615 0.0000522
49059451 0.0001637 0.0001184 0.9998363 -0.0001184 0.9998363 -0.0001184 0.0001637 0.0001184
50138122 0.0001662 0.0001847 0.9998338 -0.0001847 0.9998338 -0.0001847 0.0001662 0.0001847
51240510 0.0001687 0.0002512 0.9998313 -0.0002512 0.9998313 -0.0002512 0.0001687 0.0002512
52367136 0.0001714 0.0003180 0.9998286 -0.0003180 0.9998286 -0.0003180 0.0001714 0.0003180
53518533 0.0001743 0.0003851 0.9998257 -0.0003851 0.9998257 -0.0003851 0.0001743 0.0003851
54695245 0.0001774 0.0004526 0.9998226 -0.0004526 0.9998226 -0.0004526 0.0001774 0.0004526
55897831 0.0001806 0.0005205 0.9998194 -0.0005205 0.9998194 -0.0005205 0.0001806 0.0005205
57126857 0.0001841 0.0005889 0.9998159 -0.0005889 0.9998159 -0.0005889 0.0001841 0.0005889
58382906 0.0001879 0.0006577 0.9998121 -0.0006577 0.9998121 -0.0006577 0.0001879 0.0006577
59666572 0.0001918 0.0007272 0.9998082 -0.0007272 0.9998082 -0.0007272 0.0001918 0.0007272
60978462 0.0001961 0.0007972 0.9998039 -0.0007972 0.9998039 -0.0007972 0.0001961 0.0007972
62319196 0.0002007 0.0008680 0.9997993 -0.0008680 0.9997993 -0.0008680 0.0002007 0.0008680
63689409 0.0002057 0.0009395 0.9997943 -0.0009395 0.9997943 -0.0009395 0.0002057 0.0009395
65089750 0.0002111 0.0010119 0.9997889 -0.0010119 0.9997889 -0.0010119 0.0002111 0.0010119
66520879 0.0002170 0.0010852 0.9997830 -0.0010852 0.9997830 -0.0010852 0.0002170 0.0010852
67983474 0.0002233 0.0011594 0.9997767 -0.0011594 0.9997767 -0.0011594 0.0002233 0.0011594
69478228 0.0002303 0.0012348 0.9997697 -0.0012348 0.9997697 -0.0012348 0.0002303 0.0012348
71005847 0.0002379 0.0013113 0.9997621 -0.0013113 0.9997621 -0.0013113 0.0002379 0.0013113
72567054 0.0002464 0.0013891 0.9997536 -0.0013891 0.9997536 -0.0013891 0.0002464 0.0013891
74162587 0.0002557 0.0014683 0.9997443 -0.0014683 0.9997443 -0.0014683 0.0002557 0.0014683
75793201 0.0002661 0.0015490 0.9997339 -0.0015490 0.9997339 -0.0015490 0.0002661 0.0015490
77459667 0.0002778 0.0016314 0.9997222 -0.0016314 0.9997222 -0.0016314 0.0002778 0.0016314
79162774 0.0002910 0.0017155 0.9997090 -0.0017155 0.9997090 -0.0017155 0.0002910 0.0017155
80903327 0.0003060 0.0018016 0.9996940 -0.0018016 0.9996940 -0.0018016 0.0003060 0.0018016
82682150 0.0003231 0.0018897 0.9996769 -0.0018897 0.9996769 -0.0018897 0.0003231 0.0018897
84500083 0.0003430 0.0019800 0.9996570 -0.0019800 0.9996570 -0.0019800 0.0003430 0.0019800
86357988 0.0003662 0.0020726 0.9996338 -0.0020726 0.9996338 -0.0020726 0.0003662 0.0020726
88256743 0.0003935 0.0021675 0.9996065 -0.0021675 0.9996065 -0.0021675 0.0003935 0.0021675
90197245 0.0004261 0.0022646 0.9995739 -0.0022646 0.9995739 -0.0022646 0.0004261 0.0022646
92180413 0.0004653 0.0023636 0.9995347 -0.0023636 0.9995347 -0.0023636 0.0004653 0.0023636
94207185 0.0005129 0.0024636 0.9994871 -0.0024636 0.9994871 -0.0024636 0.0005129 0.0024636
96278520 0.0005710 0.0025630 0.9994290 -0.0025630 0.9994290 -0.0025630 0.0005710 0.0025630
98395398 0.0006421 0.0026590 0.9993579 -0.0026590 0.9993579 -0.0026590 0.0006421 0.0026590
100558819 0.0007285 0.0027467 0.9992715 -0.0027467 0.9992715 -0.0027467 0.0007285 0.0027467
102769807 0.0008307 0.0028181 0.9991693 -0.0028181 0.9991693 -0.0028181 0.0008307 0.0028181
105029408 0.0009452 0.0028628 0.9990548 -0.0028628 0.9990548 -0.0028628 0.0009452 0.0028628
107338692 0.0010605 0.0028693 0.9989395 -0.0028693 0.9989395 -0.0028693 0.0010605 0.0028693
