!Murata Part Number: GRM21A5C2E121JW01
!These Parameters are Measured in Series Mode Connection
!Data Generated on Mar 30, 2021
!       o--ll--o
!Port1            Port2
!       o------o
!Operation Temp=25[degC], DC Bias Voltage=0[V]
!Freq. Start=100[MHz] Stop=3[GHz] 401[Steps]
# Hz S RI R 50
!Freq.(Hz) S11(Real) S11(Imag) S21(Real) S21(Imag) S12(Real) S12(Imag) S22(Real) S22(Imag)
100000000 0.0173307 -0.1268300 0.9826693 0.1268300 0.9826693 0.1268300 0.0173307 -0.1268300
107250000 0.0151114 -0.1180494 0.9848886 0.1180494 0.9848886 0.1180494 0.0151114 -0.1180494
114500000 0.0132933 -0.1103027 0.9867067 0.1103027 0.9867067 0.1103027 0.0132933 -0.1103027
121750000 0.0117858 -0.1034151 0.9882142 0.1034151 0.9882142 0.1034151 0.0117858 -0.1034151
129000000 0.0105223 -0.0972486 0.9894777 0.0972486 0.9894777 0.0972486 0.0105223 -0.0972486
136250000 0.0094532 -0.0916929 0.9905468 0.0916929 0.9905468 0.0916929 0.0094532 -0.0916929
143500000 0.0085408 -0.0866588 0.9914592 0.0866588 0.9914592 0.0866588 0.0085408 -0.0866588
150750000 0.0077561 -0.0820738 0.9922439 0.0820738 0.9922439 0.0820738 0.0077561 -0.0820738
158000000 0.0070766 -0.0778778 0.9929234 0.0778778 0.9929234 0.0778778 0.0070766 -0.0778778
165250000 0.0064844 -0.0740211 0.9935156 0.0740211 0.9935156 0.0740211 0.0064844 -0.0740211
172500000 0.0059654 -0.0704620 0.9940346 0.0704620 0.9940346 0.0704620 0.0059654 -0.0704620
179750000 0.0055081 -0.0671653 0.9944919 0.0671653 0.9944919 0.0671653 0.0055081 -0.0671653
187000000 0.0051033 -0.0641011 0.9948967 0.0641011 0.9948967 0.0641011 0.0051033 -0.0641011
194250000 0.0047433 -0.0612439 0.9952567 0.0612439 0.9952567 0.0612439 0.0047433 -0.0612439
201500000 0.0044219 -0.0585719 0.9955781 0.0585719 0.9955781 0.0585719 0.0044219 -0.0585719
208750000 0.0041339 -0.0560659 0.9958661 0.0560659 0.9958661 0.0560659 0.0041339 -0.0560659
216000000 0.0038749 -0.0537097 0.9961251 0.0537097 0.9961251 0.0537097 0.0038749 -0.0537097
223250000 0.0036413 -0.0514887 0.9963587 0.0514887 0.9963587 0.0514887 0.0036413 -0.0514887
230500000 0.0034299 -0.0493904 0.9965701 0.0493904 0.9965701 0.0493904 0.0034299 -0.0493904
237750000 0.0032382 -0.0474037 0.9967618 0.0474037 0.9967618 0.0474037 0.0032382 -0.0474037
245000000 0.0030638 -0.0455189 0.9969362 0.0455189 0.9969362 0.0455189 0.0030638 -0.0455189
252250000 0.0029048 -0.0437272 0.9970952 0.0437272 0.9970952 0.0437272 0.0029048 -0.0437272
259500000 0.0027596 -0.0420209 0.9972404 0.0420209 0.9972404 0.0420209 0.0027596 -0.0420209
266750000 0.0026268 -0.0403932 0.9973732 0.0403932 0.9973732 0.0403932 0.0026268 -0.0403932
274000000 0.0025049 -0.0388377 0.9974951 0.0388377 0.9974951 0.0388377 0.0025049 -0.0388377
281250000 0.0023930 -0.0373491 0.9976070 0.0373491 0.9976070 0.0373491 0.0023930 -0.0373491
288500000 0.0022901 -0.0359223 0.9977099 0.0359223 0.9977099 0.0359223 0.0022901 -0.0359223
295750000 0.0021954 -0.0345528 0.9978046 0.0345528 0.9978046 0.0345528 0.0021954 -0.0345528
303000000 0.0021079 -0.0332365 0.9978921 0.0332365 0.9978921 0.0332365 0.0021079 -0.0332365
310250000 0.0020273 -0.0319696 0.9979727 0.0319696 0.9979727 0.0319696 0.0020273 -0.0319696
317500000 0.0019527 -0.0307490 0.9980473 0.0307490 0.9980473 0.0307490 0.0019527 -0.0307490
324750000 0.0018838 -0.0295713 0.9981162 0.0295713 0.9981162 0.0295713 0.0018838 -0.0295713
332000000 0.0018199 -0.0284339 0.9981801 0.0284339 0.9981801 0.0284339 0.0018199 -0.0284339
339250000 0.0017608 -0.0273342 0.9982392 0.0273342 0.9982392 0.0273342 0.0017608 -0.0273342
346500000 0.0017061 -0.0262698 0.9982939 0.0262698 0.9982939 0.0262698 0.0017061 -0.0262698
353750000 0.0016554 -0.0252386 0.9983446 0.0252386 0.9983446 0.0252386 0.0016554 -0.0252386
361000000 0.0016083 -0.0242386 0.9983917 0.0242386 0.9983917 0.0242386 0.0016083 -0.0242386
368250000 0.0015647 -0.0232678 0.9984353 0.0232678 0.9984353 0.0232678 0.0015647 -0.0232678
375500000 0.0015243 -0.0223248 0.9984757 0.0223248 0.9984757 0.0223248 0.0015243 -0.0223248
382750000 0.0014868 -0.0214078 0.9985132 0.0214078 0.9985132 0.0214078 0.0014868 -0.0214078
390000000 0.0014521 -0.0205154 0.9985479 0.0205154 0.9985479 0.0205154 0.0014521 -0.0205154
397250000 0.0014200 -0.0196463 0.9985800 0.0196463 0.9985800 0.0196463 0.0014200 -0.0196463
404500000 0.0013902 -0.0187992 0.9986098 0.0187992 0.9986098 0.0187992 0.0013902 -0.0187992
411750000 0.0013627 -0.0179729 0.9986373 0.0179729 0.9986373 0.0179729 0.0013627 -0.0179729
419000000 0.0013373 -0.0171665 0.9986627 0.0171665 0.9986627 0.0171665 0.0013373 -0.0171665
426250000 0.0013139 -0.0163788 0.9986861 0.0163788 0.9986861 0.0163788 0.0013139 -0.0163788
433500000 0.0012923 -0.0156089 0.9987077 0.0156089 0.9987077 0.0156089 0.0012923 -0.0156089
440750000 0.0012725 -0.0148560 0.9987275 0.0148560 0.9987275 0.0148560 0.0012725 -0.0148560
448000000 0.0012543 -0.0141192 0.9987457 0.0141192 0.9987457 0.0141192 0.0012543 -0.0141192
455250000 0.0012377 -0.0133977 0.9987623 0.0133977 0.9987623 0.0133977 0.0012377 -0.0133977
462500000 0.0012226 -0.0126909 0.9987774 0.0126909 0.9987774 0.0126909 0.0012226 -0.0126909
469750000 0.0012088 -0.0119980 0.9987912 0.0119980 0.9987912 0.0119980 0.0012088 -0.0119980
477000000 0.0011964 -0.0113184 0.9988036 0.0113184 0.9988036 0.0113184 0.0011964 -0.0113184
484250000 0.0011852 -0.0106515 0.9988148 0.0106515 0.9988148 0.0106515 0.0011852 -0.0106515
491500000 0.0011752 -0.0099967 0.9988248 0.0099967 0.9988248 0.0099967 0.0011752 -0.0099967
498750000 0.0011664 -0.0093536 0.9988336 0.0093536 0.9988336 0.0093536 0.0011664 -0.0093536
506000000 0.0011586 -0.0087215 0.9988414 0.0087215 0.9988414 0.0087215 0.0011586 -0.0087215
513250000 0.0011519 -0.0081001 0.9988481 0.0081001 0.9988481 0.0081001 0.0011519 -0.0081001
520500000 0.0011461 -0.0074889 0.9988539 0.0074889 0.9988539 0.0074889 0.0011461 -0.0074889
527750000 0.0011413 -0.0068874 0.9988587 0.0068874 0.9988587 0.0068874 0.0011413 -0.0068874
535000000 0.0011374 -0.0062953 0.9988626 0.0062953 0.9988626 0.0062953 0.0011374 -0.0062953
542250000 0.0011343 -0.0057121 0.9988657 0.0057121 0.9988657 0.0057121 0.0011343 -0.0057121
549500000 0.0011321 -0.0051376 0.9988679 0.0051376 0.9988679 0.0051376 0.0011321 -0.0051376
556750000 0.0011307 -0.0045714 0.9988693 0.0045714 0.9988693 0.0045714 0.0011307 -0.0045714
564000000 0.0011300 -0.0040131 0.9988700 0.0040131 0.9988700 0.0040131 0.0011300 -0.0040131
571250000 0.0011301 -0.0034624 0.9988699 0.0034624 0.9988699 0.0034624 0.0011301 -0.0034624
578500000 0.0011309 -0.0029191 0.9988691 0.0029191 0.9988691 0.0029191 0.0011309 -0.0029191
585750000 0.0011324 -0.0023829 0.9988676 0.0023829 0.9988676 0.0023829 0.0011324 -0.0023829
593000000 0.0011345 -0.0018535 0.9988655 0.0018535 0.9988655 0.0018535 0.0011345 -0.0018535
600250000 0.0011373 -0.0013306 0.9988627 0.0013306 0.9988627 0.0013306 0.0011373 -0.0013306
607500000 0.0011407 -0.0008141 0.9988593 0.0008141 0.9988593 0.0008141 0.0011407 -0.0008141
614750000 0.0011447 -0.0003037 0.9988553 0.0003037 0.9988553 0.0003037 0.0011447 -0.0003037
622000000 0.0011492 0.0002009 0.9988508 -0.0002009 0.9988508 -0.0002009 0.0011492 0.0002009
629250000 0.0011544 0.0006998 0.9988456 -0.0006998 0.9988456 -0.0006998 0.0011544 0.0006998
636500000 0.0011601 0.0011932 0.9988399 -0.0011932 0.9988399 -0.0011932 0.0011601 0.0011932
643750000 0.0011663 0.0016813 0.9988337 -0.0016813 0.9988337 -0.0016813 0.0011663 0.0016813
651000000 0.0011730 0.0021644 0.9988270 -0.0021644 0.9988270 -0.0021644 0.0011730 0.0021644
658250000 0.0011803 0.0026425 0.9988197 -0.0026425 0.9988197 -0.0026425 0.0011803 0.0026425
665500000 0.0011880 0.0031159 0.9988120 -0.0031159 0.9988120 -0.0031159 0.0011880 0.0031159
672750000 0.0011962 0.0035846 0.9988038 -0.0035846 0.9988038 -0.0035846 0.0011962 0.0035846
680000000 0.0012049 0.0040490 0.9987951 -0.0040490 0.9987951 -0.0040490 0.0012049 0.0040490
687250000 0.0012140 0.0045090 0.9987860 -0.0045090 0.9987860 -0.0045090 0.0012140 0.0045090
694500000 0.0012236 0.0049648 0.9987764 -0.0049648 0.9987764 -0.0049648 0.0012236 0.0049648
701750000 0.0012337 0.0054167 0.9987663 -0.0054167 0.9987663 -0.0054167 0.0012337 0.0054167
709000000 0.0012441 0.0058646 0.9987559 -0.0058646 0.9987559 -0.0058646 0.0012441 0.0058646
716250000 0.0012550 0.0063088 0.9987450 -0.0063088 0.9987450 -0.0063088 0.0012550 0.0063088
723500000 0.0012663 0.0067493 0.9987337 -0.0067493 0.9987337 -0.0067493 0.0012663 0.0067493
730750000 0.0012780 0.0071862 0.9987220 -0.0071862 0.9987220 -0.0071862 0.0012780 0.0071862
738000000 0.0012901 0.0076197 0.9987099 -0.0076197 0.9987099 -0.0076197 0.0012901 0.0076197
745250000 0.0013026 0.0080500 0.9986974 -0.0080500 0.9986974 -0.0080500 0.0013026 0.0080500
752500000 0.0013155 0.0084769 0.9986845 -0.0084769 0.9986845 -0.0084769 0.0013155 0.0084769
759750000 0.0013287 0.0089008 0.9986713 -0.0089008 0.9986713 -0.0089008 0.0013287 0.0089008
767000000 0.0013423 0.0093216 0.9986577 -0.0093216 0.9986577 -0.0093216 0.0013423 0.0093216
774250000 0.0013563 0.0097395 0.9986437 -0.0097395 0.9986437 -0.0097395 0.0013563 0.0097395
781500000 0.0013707 0.0101545 0.9986293 -0.0101545 0.9986293 -0.0101545 0.0013707 0.0101545
788750000 0.0013854 0.0105668 0.9986146 -0.0105668 0.9986146 -0.0105668 0.0013854 0.0105668
796000000 0.0014005 0.0109763 0.9985995 -0.0109763 0.9985995 -0.0109763 0.0014005 0.0109763
803250000 0.0014159 0.0113833 0.9985841 -0.0113833 0.9985841 -0.0113833 0.0014159 0.0113833
810500000 0.0014317 0.0117877 0.9985683 -0.0117877 0.9985683 -0.0117877 0.0014317 0.0117877
817750000 0.0014478 0.0121897 0.9985522 -0.0121897 0.9985522 -0.0121897 0.0014478 0.0121897
825000000 0.0014643 0.0125893 0.9985357 -0.0125893 0.9985357 -0.0125893 0.0014643 0.0125893
832250000 0.0014811 0.0129865 0.9985189 -0.0129865 0.9985189 -0.0129865 0.0014811 0.0129865
839500000 0.0014982 0.0133815 0.9985018 -0.0133815 0.9985018 -0.0133815 0.0014982 0.0133815
846750000 0.0015156 0.0137743 0.9984844 -0.0137743 0.9984844 -0.0137743 0.0015156 0.0137743
854000000 0.0015334 0.0141650 0.9984666 -0.0141650 0.9984666 -0.0141650 0.0015334 0.0141650
861250000 0.0015515 0.0145536 0.9984485 -0.0145536 0.9984485 -0.0145536 0.0015515 0.0145536
868500000 0.0015699 0.0149402 0.9984301 -0.0149402 0.9984301 -0.0149402 0.0015699 0.0149402
875750000 0.0015887 0.0153248 0.9984113 -0.0153248 0.9984113 -0.0153248 0.0015887 0.0153248
883000000 0.0016078 0.0157076 0.9983922 -0.0157076 0.9983922 -0.0157076 0.0016078 0.0157076
890250000 0.0016271 0.0160885 0.9983729 -0.0160885 0.9983729 -0.0160885 0.0016271 0.0160885
897500000 0.0016468 0.0164676 0.9983532 -0.0164676 0.9983532 -0.0164676 0.0016468 0.0164676
904750000 0.0016668 0.0168449 0.9983332 -0.0168449 0.9983332 -0.0168449 0.0016668 0.0168449
912000000 0.0016872 0.0172206 0.9983128 -0.0172206 0.9983128 -0.0172206 0.0016872 0.0172206
919250000 0.0017078 0.0175946 0.9982922 -0.0175946 0.9982922 -0.0175946 0.0017078 0.0175946
926500000 0.0017287 0.0179669 0.9982713 -0.0179669 0.9982713 -0.0179669 0.0017287 0.0179669
933750000 0.0017500 0.0183378 0.9982500 -0.0183378 0.9982500 -0.0183378 0.0017500 0.0183378
941000000 0.0017715 0.0187071 0.9982285 -0.0187071 0.9982285 -0.0187071 0.0017715 0.0187071
948250000 0.0017934 0.0190749 0.9982066 -0.0190749 0.9982066 -0.0190749 0.0017934 0.0190749
955500000 0.0018156 0.0194413 0.9981844 -0.0194413 0.9981844 -0.0194413 0.0018156 0.0194413
962750000 0.0018380 0.0198063 0.9981620 -0.0198063 0.9981620 -0.0198063 0.0018380 0.0198063
970000000 0.0018608 0.0201699 0.9981392 -0.0201699 0.9981392 -0.0201699 0.0018608 0.0201699
977250000 0.0018839 0.0205322 0.9981161 -0.0205322 0.9981161 -0.0205322 0.0018839 0.0205322
984500000 0.0019073 0.0208932 0.9980927 -0.0208932 0.9980927 -0.0208932 0.0019073 0.0208932
991750000 0.0019309 0.0212529 0.9980691 -0.0212529 0.9980691 -0.0212529 0.0019309 0.0212529
999000000 0.0019549 0.0216115 0.9980451 -0.0216115 0.9980451 -0.0216115 0.0019549 0.0216115
1006250000 0.0019792 0.0219688 0.9980208 -0.0219688 0.9980208 -0.0219688 0.0019792 0.0219688
1013500000 0.0020038 0.0223250 0.9979962 -0.0223250 0.9979962 -0.0223250 0.0020038 0.0223250
1020750000 0.0020287 0.0226801 0.9979713 -0.0226801 0.9979713 -0.0226801 0.0020287 0.0226801
1028000000 0.0020540 0.0230341 0.9979460 -0.0230341 0.9979460 -0.0230341 0.0020540 0.0230341
1035250000 0.0020795 0.0233870 0.9979205 -0.0233870 0.9979205 -0.0233870 0.0020795 0.0233870
1042500000 0.0021053 0.0237390 0.9978947 -0.0237390 0.9978947 -0.0237390 0.0021053 0.0237390
1049750000 0.0021314 0.0240899 0.9978686 -0.0240899 0.9978686 -0.0240899 0.0021314 0.0240899
1057000000 0.0021579 0.0244398 0.9978421 -0.0244398 0.9978421 -0.0244398 0.0021579 0.0244398
1064250000 0.0021846 0.0247888 0.9978154 -0.0247888 0.9978154 -0.0247888 0.0021846 0.0247888
1071500000 0.0022117 0.0251368 0.9977883 -0.0251368 0.9977883 -0.0251368 0.0022117 0.0251368
1078750000 0.0022390 0.0254840 0.9977610 -0.0254840 0.9977610 -0.0254840 0.0022390 0.0254840
1086000000 0.0022667 0.0258303 0.9977333 -0.0258303 0.9977333 -0.0258303 0.0022667 0.0258303
1093250000 0.0022947 0.0261758 0.9977053 -0.0261758 0.9977053 -0.0261758 0.0022947 0.0261758
1100500000 0.0023230 0.0265205 0.9976770 -0.0265205 0.9976770 -0.0265205 0.0023230 0.0265205
1107750000 0.0023517 0.0268643 0.9976483 -0.0268643 0.9976483 -0.0268643 0.0023517 0.0268643
1115000000 0.0023806 0.0272074 0.9976194 -0.0272074 0.9976194 -0.0272074 0.0023806 0.0272074
1122250000 0.0024099 0.0275498 0.9975901 -0.0275498 0.9975901 -0.0275498 0.0024099 0.0275498
1129500000 0.0024395 0.0278914 0.9975605 -0.0278914 0.9975605 -0.0278914 0.0024395 0.0278914
1136750000 0.0024694 0.0282323 0.9975306 -0.0282323 0.9975306 -0.0282323 0.0024694 0.0282323
1144000000 0.0024996 0.0285726 0.9975004 -0.0285726 0.9975004 -0.0285726 0.0024996 0.0285726
1151250000 0.0025302 0.0289122 0.9974698 -0.0289122 0.9974698 -0.0289122 0.0025302 0.0289122
1158500000 0.0025611 0.0292512 0.9974389 -0.0292512 0.9974389 -0.0292512 0.0025611 0.0292512
1165750000 0.0025923 0.0295895 0.9974077 -0.0295895 0.9974077 -0.0295895 0.0025923 0.0295895
1173000000 0.0026239 0.0299273 0.9973761 -0.0299273 0.9973761 -0.0299273 0.0026239 0.0299273
1180250000 0.0026558 0.0302645 0.9973442 -0.0302645 0.9973442 -0.0302645 0.0026558 0.0302645
1187500000 0.0026881 0.0306011 0.9973119 -0.0306011 0.9973119 -0.0306011 0.0026881 0.0306011
1194750000 0.0027207 0.0309372 0.9972793 -0.0309372 0.9972793 -0.0309372 0.0027207 0.0309372
1202000000 0.0027536 0.0312728 0.9972464 -0.0312728 0.9972464 -0.0312728 0.0027536 0.0312728
1209250000 0.0027869 0.0316079 0.9972131 -0.0316079 0.9972131 -0.0316079 0.0027869 0.0316079
1216500000 0.0028206 0.0319425 0.9971794 -0.0319425 0.9971794 -0.0319425 0.0028206 0.0319425
1223750000 0.0028546 0.0322767 0.9971454 -0.0322767 0.9971454 -0.0322767 0.0028546 0.0322767
1231000000 0.0028890 0.0326104 0.9971110 -0.0326104 0.9971110 -0.0326104 0.0028890 0.0326104
1238250000 0.0029237 0.0329437 0.9970763 -0.0329437 0.9970763 -0.0329437 0.0029237 0.0329437
1245500000 0.0029589 0.0332766 0.9970411 -0.0332766 0.9970411 -0.0332766 0.0029589 0.0332766
1252750000 0.0029943 0.0336091 0.9970057 -0.0336091 0.9970057 -0.0336091 0.0029943 0.0336091
1260000000 0.0030302 0.0339412 0.9969698 -0.0339412 0.9969698 -0.0339412 0.0030302 0.0339412
1267250000 0.0030665 0.0342730 0.9969335 -0.0342730 0.9969335 -0.0342730 0.0030665 0.0342730
1274500000 0.0031032 0.0346045 0.9968968 -0.0346045 0.9968968 -0.0346045 0.0031032 0.0346045
1281750000 0.0031402 0.0349356 0.9968598 -0.0349356 0.9968598 -0.0349356 0.0031402 0.0349356
1289000000 0.0031777 0.0352665 0.9968223 -0.0352665 0.9968223 -0.0352665 0.0031777 0.0352665
1296250000 0.0032155 0.0355970 0.9967845 -0.0355970 0.9967845 -0.0355970 0.0032155 0.0355970
1303500000 0.0032538 0.0359273 0.9967462 -0.0359273 0.9967462 -0.0359273 0.0032538 0.0359273
1310750000 0.0032925 0.0362574 0.9967075 -0.0362574 0.9967075 -0.0362574 0.0032925 0.0362574
1318000000 0.0033316 0.0365872 0.9966684 -0.0365872 0.9966684 -0.0365872 0.0033316 0.0365872
1325250000 0.0033712 0.0369168 0.9966288 -0.0369168 0.9966288 -0.0369168 0.0033712 0.0369168
1332500000 0.0034112 0.0372462 0.9965888 -0.0372462 0.9965888 -0.0372462 0.0034112 0.0372462
1339750000 0.0034517 0.0375754 0.9965483 -0.0375754 0.9965483 -0.0375754 0.0034517 0.0375754
1347000000 0.0034926 0.0379045 0.9965074 -0.0379045 0.9965074 -0.0379045 0.0034926 0.0379045
1354250000 0.0035340 0.0382334 0.9964660 -0.0382334 0.9964660 -0.0382334 0.0035340 0.0382334
1361500000 0.0035758 0.0385621 0.9964242 -0.0385621 0.9964242 -0.0385621 0.0035758 0.0385621
1368750000 0.0036182 0.0388908 0.9963818 -0.0388908 0.9963818 -0.0388908 0.0036182 0.0388908
1376000000 0.0036610 0.0392193 0.9963390 -0.0392193 0.9963390 -0.0392193 0.0036610 0.0392193
1383250000 0.0037043 0.0395477 0.9962957 -0.0395477 0.9962957 -0.0395477 0.0037043 0.0395477
1390500000 0.0037482 0.0398761 0.9962518 -0.0398761 0.9962518 -0.0398761 0.0037482 0.0398761
1397750000 0.0037926 0.0402044 0.9962074 -0.0402044 0.9962074 -0.0402044 0.0037926 0.0402044
1405000000 0.0038375 0.0405327 0.9961625 -0.0405327 0.9961625 -0.0405327 0.0038375 0.0405327
1412250000 0.0038830 0.0408610 0.9961170 -0.0408610 0.9961170 -0.0408610 0.0038830 0.0408610
1419500000 0.0039290 0.0411892 0.9960710 -0.0411892 0.9960710 -0.0411892 0.0039290 0.0411892
1426750000 0.0039757 0.0415175 0.9960243 -0.0415175 0.9960243 -0.0415175 0.0039757 0.0415175
1434000000 0.0040229 0.0418457 0.9959771 -0.0418457 0.9959771 -0.0418457 0.0040229 0.0418457
1441250000 0.0040707 0.0421741 0.9959293 -0.0421741 0.9959293 -0.0421741 0.0040707 0.0421741
1448500000 0.0041191 0.0425024 0.9958809 -0.0425024 0.9958809 -0.0425024 0.0041191 0.0425024
1455750000 0.0041682 0.0428309 0.9958318 -0.0428309 0.9958318 -0.0428309 0.0041682 0.0428309
1463000000 0.0042180 0.0431594 0.9957820 -0.0431594 0.9957820 -0.0431594 0.0042180 0.0431594
1470250000 0.0042684 0.0434880 0.9957316 -0.0434880 0.9957316 -0.0434880 0.0042684 0.0434880
1477500000 0.0043195 0.0438168 0.9956805 -0.0438168 0.9956805 -0.0438168 0.0043195 0.0438168
1484750000 0.0043714 0.0441457 0.9956286 -0.0441457 0.9956286 -0.0441457 0.0043714 0.0441457
1492000000 0.0044239 0.0444747 0.9955761 -0.0444747 0.9955761 -0.0444747 0.0044239 0.0444747
1499250000 0.0044773 0.0448039 0.9955227 -0.0448039 0.9955227 -0.0448039 0.0044773 0.0448039
1506500000 0.0045314 0.0451333 0.9954686 -0.0451333 0.9954686 -0.0451333 0.0045314 0.0451333
1513750000 0.0045864 0.0454629 0.9954136 -0.0454629 0.9954136 -0.0454629 0.0045864 0.0454629
1521000000 0.0046421 0.0457928 0.9953579 -0.0457928 0.9953579 -0.0457928 0.0046421 0.0457928
1528250000 0.0046988 0.0461228 0.9953012 -0.0461228 0.9953012 -0.0461228 0.0046988 0.0461228
1535500000 0.0047564 0.0464531 0.9952436 -0.0464531 0.9952436 -0.0464531 0.0047564 0.0464531
1542750000 0.0048148 0.0467836 0.9951852 -0.0467836 0.9951852 -0.0467836 0.0048148 0.0467836
1550000000 0.0048743 0.0471145 0.9951257 -0.0471145 0.9951257 -0.0471145 0.0048743 0.0471145
1557250000 0.0049348 0.0474456 0.9950652 -0.0474456 0.9950652 -0.0474456 0.0049348 0.0474456
1564500000 0.0049963 0.0477771 0.9950037 -0.0477771 0.9950037 -0.0477771 0.0049963 0.0477771
1571750000 0.0050589 0.0481088 0.9949411 -0.0481088 0.9949411 -0.0481088 0.0050589 0.0481088
1579000000 0.0051226 0.0484409 0.9948774 -0.0484409 0.9948774 -0.0484409 0.0051226 0.0484409
1586250000 0.0051875 0.0487734 0.9948125 -0.0487734 0.9948125 -0.0487734 0.0051875 0.0487734
1593500000 0.0052536 0.0491062 0.9947464 -0.0491062 0.9947464 -0.0491062 0.0052536 0.0491062
1600750000 0.0053210 0.0494394 0.9946790 -0.0494394 0.9946790 -0.0494394 0.0053210 0.0494394
1608000000 0.0053897 0.0497730 0.9946103 -0.0497730 0.9946103 -0.0497730 0.0053897 0.0497730
1615250000 0.0054598 0.0501069 0.9945402 -0.0501069 0.9945402 -0.0501069 0.0054598 0.0501069
1622500000 0.0055314 0.0504413 0.9944686 -0.0504413 0.9944686 -0.0504413 0.0055314 0.0504413
1629750000 0.0056045 0.0507761 0.9943955 -0.0507761 0.9943955 -0.0507761 0.0056045 0.0507761
