# MHz S MA R 50

0.1	0.061047706	68.348082	0.97484087	-3.3143623	0.055732196	-98.846362	0.056633525	80.991859	
	0.97484087	-3.3143623	0.060287619	70.480983	0.056798859	81.042658	0.056198169	-98.985462	
	0.055732196	-98.846362	0.056798859	81.042658	0.056441683	67.150057	0.97451013	-3.308349	
	0.056633525	80.991859	0.056198169	-98.985462	0.97451013	-3.308349	0.059696708	69.321688	
	
0.102310062021247	0.061229621	68.074063	0.97432216	-3.4457896	0.056877154	-99.162941	0.05796973	81.079279	
	0.97432216	-3.4457896	0.062209986	70.205933	0.057950632	81.07637	0.057035203	-99.036526	
	0.056877154	-99.162941	0.057950632	81.07637	0.059792991	66.97598	0.97339163	-3.3619071	
	0.05796973	81.079279	0.057035203	-99.036526	0.97339163	-3.3619071	0.059962945	68.406163	
	
0.104673487907914	0.062513198	67.490581	0.97388402	-3.4817559	0.058287412	-98.774502	0.059346423	81.01851	
	0.97388402	-3.4817559	0.062260747	70.121959	0.059133068	80.812833	0.058491659	-99.364143	
	0.058287412	-98.774502	0.059133068	80.812833	0.060002133	67.892915	0.97188461	-3.4377687	
	0.059346423	81.01851	0.058491659	-99.364143	0.97188461	-3.4377687	0.060580189	68.882188	
	
0.107091510398389	0.064352522	68.607892	0.97352892	-3.5690624	0.05972573	-99.179343	0.060149518	80.52119	
	0.97352892	-3.5690624	0.064073227	69.652727	0.0604407	80.525082	0.059749689	-99.580507	
	0.05972573	-99.179343	0.0604407	80.525082	0.061481921	67.297895	0.97269852	-3.5087923	
	0.060149518	80.52119	0.059749689	-99.580507	0.97269852	-3.5087923	0.061799865	68.03981	
	
0.109565390708082	0.064936121	68.646948	0.97235232	-3.6461334	0.061020463	-99.508702	0.061766151	80.403508	
	0.97235232	-3.6461334	0.065937818	68.095332	0.061872071	80.58257	0.06094587	-99.54999	
	0.061020463	-99.508702	0.061872071	80.58257	0.063326434	66.933628	0.97202756	-3.5712675	
	0.061766151	80.403508	0.06094587	-99.54999	0.97202756	-3.5712675	0.064914838	68.260888	
	
0.112096419187261	0.066741861	69.108154	0.97294484	-3.7395779	0.062387779	-99.665396	0.063246499	80.200856	
	0.97294484	-3.7395779	0.066456478	69.077782	0.06317094	80.306117	0.062299764	-99.768137	
	0.062387779	-99.665396	0.06317094	80.306117	0.063890979	68.528455	0.97126518	-3.6500338	
	0.063246499	80.200856	0.062299764	-99.768137	0.97126518	-3.6500338	0.066329263	68.110784	
	
0.114685915994083	0.067382834	68.744962	0.97212694	-3.8387741	0.063410193	-99.878737	0.064672163	80.025869	
	0.97212694	-3.8387741	0.067933346	70.00748	0.064395323	80.433222	0.063533342	-100.08707	
	0.063410193	-99.878737	0.064395323	80.433222	0.065468475	67.272447	0.97131831	-3.7425915	
	0.064672163	80.025869	0.063533342	-100.08707	0.97131831	-3.7425915	0.06675811	68.051665	
	
0.117335231783182	0.069230602	68.717883	0.97243679	-3.9125101	0.064973231	-100.01913	0.065730556	79.86905	
	0.97243679	-3.9125101	0.068427605	69.572117	0.066297376	80.304915	0.064799959	-100.07688	
	0.064973231	-100.01913	0.066297376	80.304915	0.066726069	67.542076	0.97062097	-3.8208412	
	0.065730556	79.86905	0.064799959	-100.07688	0.97062097	-3.8208412	0.067957497	68.855411	
	
0.120045748410147	0.072554956	68.786598	0.97190741	-3.9575149	0.06647413	-100.15789	0.0674724	79.688224	
	0.97190741	-3.9575149	0.072482242	70.732367	0.067479238	80.099912	0.066774364	-100.3481	
	0.06647413	-100.15789	0.067479238	80.099912	0.067781175	68.042724	0.97124797	-3.933289	
	0.0674724	79.688224	0.066774364	-100.3481	0.97124797	-3.933289	0.070419282	70.148784	
	
0.122818879652292	0.072203648	68.691365	0.97118379	-4.0676601	0.06780034	-100.25876	0.068771942	79.693321	
	0.97118379	-4.0676601	0.073655254	69.752069	0.068729822	79.729284	0.06782642	-100.29792	
	0.06780034	-100.25876	0.068729822	79.729284	0.069256373	67.207091	0.96969237	-3.9752869	
	0.068771942	79.693321	0.06782642	-100.29792	0.96969237	-3.9752869	0.070787868	68.341542	
	
0.125656071946061	0.07405175	68.578467	0.97072976	-4.1391827	0.069331031	-100.78668	0.070421433	79.352968	
	0.97072976	-4.1391827	0.074868338	69.774449	0.070307846	79.318029	0.06930396	-100.70115	
	0.069331031	-100.78668	0.070307846	79.318029	0.071769994	67.944641	0.96934812	-4.0765599	
	0.070421433	79.352968	0.06930396	-100.70115	0.96934812	-4.0765599	0.073458951	68.842507	
	
0.128558805141477	0.076263956	68.713025	0.97041679	-4.2627771	0.070820308	-100.87347	0.072090317	79.12407	
	0.97041679	-4.2627771	0.075264032	69.936788	0.072087295	79.199437	0.070678179	-100.74208	
	0.070820308	-100.87347	0.072087295	79.199437	0.073240131	68.645955	0.9688816	-4.1554085	
	0.072090317	79.12407	0.070678179	-100.74208	0.9688816	-4.1554085	0.074853082	68.958157	
	
0.131528593274019	0.0781027	69.287516	0.97058768	-4.2941154	0.072636512	-101.02963	0.073742232	78.84353	
	0.97058768	-4.2941154	0.076828177	70.341869	0.07367265	79.217608	0.072473437	-101.03739	
	0.072636512	-101.02963	0.07367265	79.217608	0.074233935	68.533025	0.96958864	-4.2469731	
	0.073742232	78.84353	0.072473437	-101.03739	0.96958864	-4.2469731	0.075461786	69.577761	
	
0.134566985354323	0.078513223	69.156982	0.97031723	-4.4456465	0.074062077	-101.12655	0.075063617	78.813787	
	0.97031723	-4.4456465	0.078197812	70.088934	0.075119136	79.108795	0.07394978	-101.2059	
	0.074062077	-101.12655	0.075119136	79.108795	0.076015864	68.563784	0.96835797	-4.3009244	
	0.075063617	78.813787	0.07394978	-101.2059	0.96835797	-4.3009244	0.077694121	69.099815	
	
0.13767556617613	0.079990392	69.181615	0.9692704	-4.5170735	0.075550353	-101.25938	0.076472049	78.568743	
	0.9692704	-4.5170735	0.081739142	69.695679	0.076571832	78.868194	0.075799518	-101.56438	
	0.075550353	-101.25938	0.076571832	78.868194	0.077934235	68.85831	0.96841796	-4.4337976	
	0.076472049	78.568743	0.075799518	-101.56438	0.96841796	-4.4337976	0.078428145	69.1284	
	
0.140855957142902	0.081023509	69.410992	0.96902751	-4.629984	0.076847965	-101.56233	0.078407612	78.389357	
	0.96902751	-4.629984	0.082151604	69.703666	0.078319559	78.451268	0.077376081	-101.52347	
	0.076847965	-101.56233	0.078319559	78.451268	0.079885002	68.29255	0.96768666	-4.5165675	
	0.078407612	78.389357	0.077376081	-101.52347	0.96768666	-4.5165675	0.080741545	68.283594	
	
0.144109817113524	0.083495804	69.163612	0.96883033	-4.7214034	0.078736432	-101.81003	0.080004463	78.397134	
	0.96883033	-4.7214034	0.083748851	70.109977	0.080263606	78.305821	0.078907327	-101.91655	
	0.078736432	-101.81003	0.080263606	78.305821	0.080587267	68.370316	0.9674864	-4.6433648	
	0.080004463	78.397134	0.078907327	-101.91655	0.9674864	-4.6433648	0.081992063	69.44936	
	
0.147438843267552	0.086885536	68.549419	0.96730485	-4.7930501	0.080683709	-102.0847	0.081655211	77.733774	
	0.96730485	-4.7930501	0.086246272	69.826614	0.081842321	78.13639	0.080726312	-102.23441	
	0.080683709	-102.0847	0.081842321	78.13639	0.082510037	68.364302	0.9665484	-4.7471224	
	0.081655211	77.733774	0.080726312	-102.23441	0.9665484	-4.7471224	0.084330812	69.594294	
	
0.150844771990442	0.086454054	69.122603	0.96731884	-4.9471575	0.082445501	-101.95417	0.083629124	77.695198	
	0.96731884	-4.9471575	0.088813778	69.664975	0.083331872	77.828451	0.082290251	-102.43031	
	0.082445501	-101.95417	0.083331872	77.828451	0.084490064	68.202486	0.96586111	-4.8295014	
	0.083629124	77.695198	0.082290251	-102.43031	0.96586111	-4.8295014	0.085386634	69.033527	
	
0.154329379779229	0.089152378	68.548187	0.96658851	-5.0375097	0.083990109	-102.3263	0.085676547	77.803279	
	0.96658851	-5.0375097	0.089593004	69.798463	0.085054136	77.797008	0.083927702	-102.54576	
	0.083990109	-102.3263	0.085054136	77.797008	0.085216567	68.213139	0.965457	-4.9246044	
	0.085676547	77.803279	0.083927702	-102.54576	0.965457	-4.9246044	0.087139994	69.167711	
	
0.157894484169135	0.091113758	69.054542	0.96657088	-5.1520182	0.085853185	-102.72081	0.087418977	77.252071	
	0.96657088	-5.1520182	0.091580187	69.932992	0.087290742	77.378832	0.08585664	-102.90804	
	0.085853185	-102.72081	0.087290742	77.378832	0.087839156	68.433705	0.96506808	-5.0361575	
	0.087418977	77.252071	0.08585664	-102.90804	0.96506808	-5.0361575	0.090082881	69.234026	
	
0.16154194468157	0.092962757	68.807601	0.96564192	-5.2355687	0.087854616	-102.96312	0.089025331	77.207863	
	0.96564192	-5.2355687	0.092608878	69.449946	0.088628879	77.463654	0.087868051	-102.86855	
	0.087854616	-102.96312	0.088628879	77.463654	0.089437018	69.140214	0.96415461	-5.1778668	
	0.089025331	77.207863	0.087868051	-102.86855	0.96415461	-5.1778668	0.090972211	68.840375	
	
0.165273663794043	0.094326037	69.141181	0.96514145	-5.3598638	0.089798853	-102.98223	0.090939598	76.911048	
	0.96514145	-5.3598638	0.094889802	69.106881	0.091063644	77.087973	0.089556009	-103.07633	
	0.089798853	-102.98223	0.091063644	77.087973	0.091684873	68.30189	0.96361775	-5.2531698	
	0.090939598	76.911048	0.089556009	-103.07633	0.96361775	-5.2531698	0.092590562	69.080266	
	
0.169091587932473	0.097085785	68.71241	0.96370369	-5.4812241	0.091556663	-103.24743	0.092860303	76.774047	
	0.96370369	-5.4812241	0.096699735	68.450031	0.092803965	76.929141	0.091173556	-103.4325	
	0.091556663	-103.24743	0.092803965	76.929141	0.094410889	68.167476	0.96163688	-5.3443684	
	0.092860303	76.774047	0.091173556	-103.4325	0.96163688	-5.3443684	0.09538397	68.950274	
	
0.172997708486424	0.099041691	69.237229	0.96357701	-5.5952197	0.093212695	-103.56395	0.095080062	76.513151	
	0.96357701	-5.5952197	0.099824518	70.036768	0.094689539	76.662354	0.093712253	-103.85787	
	0.093212695	-103.56395	0.094689539	76.662354	0.095759764	67.56824	0.96330014	-5.4845142	
	0.095080062	76.513151	0.093712253	-103.85787	0.96330014	-5.4845142	0.097767922	69.160079	
	
0.176994062847797	0.10054556	68.860054	0.96329865	-5.7376496	0.09535398	-103.8906	0.097031043	76.33212	
	0.96329865	-5.7376496	0.10078838	68.986259	0.09675754	76.241906	0.095456009	-104.02847	
	0.09535398	-103.8906	0.09675754	76.241906	0.09755334	67.519185	0.96213567	-5.6158655	
	0.097031043	76.33212	0.095456009	-104.02847	0.96213567	-5.6158655	0.09970145	68.872569	
	
0.181082735473506	0.10277304	68.576614	0.96181954	-5.8458269	0.097415211	-103.99345	0.098474288	76.050285	
	0.96181954	-5.8458269	0.10390061	68.601696	0.098947992	76.081672	0.097359659	-103.95458	
	0.097415211	-103.99345	0.098947992	76.081672	0.099521801	67.47637	0.96058788	-5.7231381	
	0.098474288	76.050285	0.097359659	-103.95458	0.96058788	-5.7231381	0.10261088	68.089414	
	
0.185265858972714	0.1050398	68.929946	0.96220934	-5.9738616	0.09971443	-104.15177	0.10137469	75.80133	
	0.96220934	-5.9738616	0.10564343	69.167012	0.10087357	75.756512	0.099883739	-104.5343	
	0.09971443	-104.15177	0.10087357	75.756512	0.10124811	67.713449	0.96115832	-5.8376643	
	0.10137469	75.80133	0.099883739	-104.5343	0.96115832	-5.8376643	0.10311265	69.206264	
	
0.18954561521918	0.10697446	68.492889	0.96089347	-6.0893554	0.10167656	-104.65125	0.10337711	75.473995	
	0.96089347	-6.0893554	0.10747427	68.912323	0.10321622	75.5208	0.10142697	-104.57983	
	0.10167656	-104.65125	0.10321622	75.5208	0.10446955	68.166096	0.96041518	-5.9735198	
	0.10337711	75.473995	0.10142697	-104.57983	0.96041518	-5.9735198	0.10676219	68.487814	
	
0.193924236489297	0.11013119	68.263415	0.96016304	-6.2253048	0.10380554	-104.86158	0.10549119	75.231676	
	0.96016304	-6.2253048	0.11012421	68.989117	0.10532093	75.287807	0.10429159	-104.75468	
	0.10380554	-104.86158	0.10532093	75.287807	0.10655258	68.330193	0.95907447	-6.0998889	
	0.10549119	75.231676	0.10429159	-104.75468	0.95907447	-6.0998889	0.10758194	68.86721	
	
0.19840400662643	0.11152827	67.895725	0.95915014	-6.32241	0.10587933	-104.99745	0.10768824	74.950412	
	0.95915014	-6.32241	0.11213853	68.755017	0.10735043	74.919988	0.10610998	-105.29192	
	0.10587933	-104.99745	0.10735043	74.919988	0.10809639	67.840274	0.95857666	-6.2494358	
	0.10768824	74.950412	0.10610998	-105.29192	0.95857666	-6.2494358	0.10970759	68.271192	
	
0.202987262232139	0.11448195	68.274077	0.95854187	-6.4649851	0.10851341	-105.33951	0.10994064	74.799862	
	0.95854187	-6.4649851	0.11518083	68.684273	0.10981349	74.737273	0.10842595	-105.45385	
	0.10851341	-105.33951	0.10981349	74.737273	0.11078073	67.828893	0.95785378	-6.3356002	
	0.10994064	74.799862	0.10842595	-105.45385	0.95785378	-6.3356002	0.11184124	68.087671	
	
0.207676393884933	0.11608225	67.673474	0.95718061	-6.5788192	0.11048713	-105.62474	0.11210804	74.414966	
	0.95718061	-6.5788192	0.11739761	68.417833	0.11200246	74.233541	0.11036565	-105.70152	
	0.11048713	-105.62474	0.11200246	74.233541	0.11350532	67.690292	0.95593761	-6.5342649	
	0.11210804	74.414966	0.11036565	-105.70152	0.95593761	-6.5342649	0.11511067	67.850215	
	
0.212473847387164	0.1194556	67.870173	0.95642638	-6.7272648	0.11269261	-105.9427	0.1146986	74.019314	
	0.95642638	-6.7272648	0.11857934	68.029416	0.11425039	74.321515	0.11252116	-105.92833	
	0.11269261	-105.9427	0.11425039	74.321515	0.11570582	67.432241	0.95568481	-6.5998779	
	0.1146986	74.019314	0.11252116	-105.92833	0.95568481	-6.5998779	0.11726212	67.699321	
	
0.217382125040737	0.12238994	67.850925	0.95598783	-6.8804993	0.11513653	-106.14978	0.11691125	73.759512	
	0.95598783	-6.8804993	0.12192196	68.536198	0.11673366	73.97951	0.11513284	-106.25605	
	0.11513653	-106.14978	0.11673366	73.97951	0.11802422	67.245896	0.95507286	-6.7563454	
	0.11691125	73.759512	0.11513284	-106.25605	0.95507286	-6.7563454	0.12035482	67.697305	
	
0.222403786952283	0.12354356	67.477479	0.95402981	-7.0079093	0.11737576	-106.33563	0.11938652	73.571577	
	0.95402981	-7.0079093	0.12446076	67.685817	0.11908158	73.580086	0.11743797	-106.50484	
	0.11737576	-106.33563	0.11908158	73.580086	0.12034441	67.109115	0.95344217	-6.8822436	
	0.11938652	73.571577	0.11743797	-106.50484	0.95344217	-6.8822436	0.12289711	66.918531	
	
0.227541452368483	0.12586444	67.257898	0.95332157	-7.1498111	0.11976521	-106.7938	0.12163291	73.079432	
	0.95332157	-7.1498111	0.1271699	67.532899	0.12148254	73.403821	0.11973641	-106.87462	
	0.11976521	-106.7938	0.12148254	73.403821	0.12333135	66.760494	0.95217052	-7.0681894	
	0.12163291	73.079432	0.11973641	-106.87462	0.95217052	-7.0681894	0.12457418	67.312423	
	
0.232797801042241	0.12918782	67.337467	0.95289055	-7.3223661	0.12259524	-107.19385	0.12417411	73.01077	
	0.95289055	-7.3223661	0.12904187	67.52646	0.12435999	73.051699	0.1224952	-107.32885	
	0.12259524	-107.19385	0.12435999	73.051699	0.12576714	66.899819	0.9519508	-7.2278555	
	0.12417411	73.01077	0.1224952	-107.32885	0.9519508	-7.2278555	0.12756107	67.307683	
	
0.238175574630416	0.1319737	67.205299	0.95169955	-7.431877	0.12489741	-107.30503	0.12695227	72.514568	
	0.95169955	-7.431877	0.13261185	67.590935	0.12654834	72.632967	0.12512493	-107.58367	
	0.12489741	-107.30503	0.12654834	72.632967	0.12865678	66.752445	0.94976672	-7.3195299	
	0.12695227	72.514568	0.12512493	-107.58367	0.94976672	-7.3195299	0.13002357	67.486332	
	
0.24367757812384	0.13439845	66.920785	0.95069143	-7.6230553	0.12786212	-107.70244	0.12964444	72.399712	
	0.95069143	-7.6230553	0.1350336	67.314492	0.12935389	72.388857	0.12779343	-108.04633	
	0.12786212	-107.70244	0.12935389	72.388857	0.13143438	66.153286	0.94960613	-7.4732523	
	0.12964444	72.399712	0.12779343	-108.04633	0.94960613	-7.4732523	0.13229763	67.246212	
	
0.249306681310373	0.13785131	66.484684	0.94927523	-7.7595499	0.13016482	-107.95641	0.13212319	72.087707	
	0.94927523	-7.7595499	0.13800709	67.342905	0.13241429	72.138145	0.13048654	-108.28381	
	0.13016482	-107.95641	0.13241429	72.138145	0.13390919	66.184271	0.94862633	-7.6406373	
	0.13212319	72.087707	0.13048654	-108.28381	0.94862633	-7.6406373	0.13488232	66.817995	
	
0.255065820271756	0.13938804	66.243171	0.94776753	-7.9166905	0.13253861	-108.38825	0.13473664	71.83679	
	0.94776753	-7.9166905	0.1406225	66.695538	0.13489095	71.661778	0.1326731	-108.56491	
	0.13253861	-108.38825	0.13489095	71.661778	0.13698186	66.138418	0.94703194	-7.8078024	
	0.13473664	71.83679	0.1326731	-108.56491	0.94703194	-7.8078024	0.13831447	66.620559	
	
0.260957998915036	0.14282472	66.286137	0.94679423	-8.0783029	0.13556865	-108.65389	0.13739417	71.44568	
	0.94679423	-8.0783029	0.14272151	66.417231	0.13780522	71.537015	0.13579059	-108.82413	
	0.13556865	-108.65389	0.13780522	71.537015	0.1385293	66.197208	0.94541346	-7.9635079	
	0.13739417	71.44568	0.13579059	-108.82413	0.94541346	-7.9635079	0.13990136	66.332541	
	
0.266986290539378	0.14560189	65.728328	0.94514281	-8.2700603	0.13838811	-109.03397	0.14021807	71.169022	
	0.94514281	-8.2700603	0.14491026	66.03612	0.14019592	71.287479	0.13833586	-108.93106	
	0.13838811	-109.03397	0.14019592	71.287479	0.14153479	65.697272	0.94447399	-8.0844339	
	0.14021807	71.169022	0.13833586	-108.93106	0.94447399	-8.0844339	0.14366549	65.803768	
	
0.273153839439064	0.14870619	65.903672	0.9439103	-8.4013064	0.14089694	-109.35991	0.14314074	70.76936	
	0.9439103	-8.4013064	0.14832494	66.08381	0.14327513	70.918474	0.14081611	-109.46731	
	0.14089694	-109.35991	0.14327513	70.918474	0.14478294	65.221305	0.94360064	-8.2564442	
	0.14314074	70.76936	0.14081611	-109.46731	0.94360064	-8.2564442	0.14588182	65.346673	
	
0.279463862543524	0.15159263	65.41071	0.94254503	-8.6032743	0.14426647	-109.69278	0.146541	70.25246	
	0.94254503	-8.6032743	0.15150958	65.795258	0.14645641	70.518248	0.14429132	-109.82875	
	0.14426647	-109.69278	0.14645641	70.518248	0.14746213	65.263624	0.94200993	-8.4523601	
	0.146541	70.25246	0.14429132	-109.82875	0.94200993	-8.4523601	0.14956672	65.573717	
	
0.285919651095252	0.15462029	65.4318	0.941308	-8.7679201	0.14689295	-110.12373	0.14953048	70.001766	
	0.941308	-8.7679201	0.15548293	65.51748	0.14898836	70.188654	0.14688854	-110.37631	
	0.14689295	-110.12373	0.14898836	70.188654	0.1507753	64.902949	0.94064014	-8.6116505	
	0.14953048	70.001766	0.14688854	-110.37631	0.94064014	-8.6116505	0.15226894	65.386699	
	
0.292524572366485	0.15762431	64.746913	0.93879907	-8.9155051	0.14964689	-110.49195	0.15173406	69.697351	
	0.93879907	-8.9155051	0.15895385	65.013024	0.15162753	69.781434	0.15010201	-110.7115	
	0.14964689	-110.49195	0.15162753	69.781434	0.15379871	64.558586	0.93798952	-8.7622654	
	0.15173406	69.697351	0.15010201	-110.7115	0.93798952	-8.7622654	0.1552731	65.551222	
	
0.299282071415539	0.16110334	64.652048	0.93791479	-9.08825	0.15270657	-110.92273	0.15495393	69.254619	
	0.93791479	-9.08825	0.16171963	65.181773	0.15520371	69.281267	0.1530049	-110.96205	
	0.15270657	-110.92273	0.15520371	69.281267	0.15719498	64.389883	0.93714731	-8.9193979	
	0.15495393	69.254619	0.1530049	-110.96205	0.93714731	-8.9193979	0.15889433	64.915333	
	
0.30619567288371	0.16465256	64.520941	0.93652192	-9.2868078	0.15632819	-111.1678	0.15815742	68.837805	
	0.93652192	-9.2868078	0.16621727	65.102435	0.1587112	68.998309	0.15647747	-111.52327	
	0.15632819	-111.1678	0.1587112	68.998309	0.15947961	64.580827	0.93690137	-9.1043848	
	0.15815742	68.837805	0.15647747	-111.52327	0.93690137	-9.1043848	0.16232939	64.591097	
	
0.313268982833699	0.16722992	64.474123	0.93487739	-9.4600511	0.15901347	-111.4971	0.16128258	68.538569	
	0.93487739	-9.4600511	0.16801429	64.716968	0.16168906	68.557671	0.15911086	-111.83472	
	0.15901347	-111.4971	0.16168906	68.557671	0.16210261	63.96232	0.93462473	-9.2472571	
	0.16128258	68.538569	0.15911086	-111.83472	0.93462473	-9.2472571	0.16473597	64.191359	
	
0.320505690630487	0.1693686	64.262876	0.93377987	-9.6127304	0.16240873	-111.72276	0.16492832	68.276024	
	0.93377987	-9.6127304	0.17035147	64.147841	0.16440064	68.428531	0.16208487	-112.02228	
	0.16240873	-111.72276	0.16440064	68.428531	0.16521818	63.86769	0.93295558	-9.4268067	
	0.16492832	68.276024	0.16208487	-112.02228	0.93295558	-9.4268067	0.16746316	64.169232	
	
0.327909570865677	0.17293256	63.60941	0.93204957	-9.8000572	0.16575881	-112.12826	0.16801206	67.969793	
	0.93204957	-9.8000572	0.17320775	64.177622	0.16799188	67.985509	0.16562615	-112.34045	
	0.16575881	-112.12826	0.16799188	67.985509	0.16855967	63.459196	0.93085862	-9.5873307	
	0.16801206	67.969793	0.16562615	-112.34045	0.93085862	-9.5873307	0.16993136	63.654671	
	
0.335484485326279	0.17578399	63.494574	0.93037514	-9.9921683	0.16926123	-112.60462	0.17142986	67.490396	
	0.93037514	-9.9921683	0.17642409	63.766722	0.17130905	67.62377	0.16882447	-112.65121	
