!Murata Part Number: GRM55DR72E474KW01
!These Parameters are Measured in Series Mode Connection
!Data Generated on Mar 30, 2021
!       o--ll--o
!Port1            Port2
!       o------o
!Operation Temp=25[degC], DC Bias Voltage=0[V]
!Freq. Start=100[kHz] Stop=6[GHz] 401[Steps]
# Hz S RI R 50
!Freq.(Hz) S11(Real) S11(Imag) S21(Real) S21(Imag) S12(Real) S12(Imag) S22(Real) S22(Imag)
100000 0.0016564 -0.0360840 0.9983436 0.0360840 0.9983436 0.0360840 0.0016564 -0.0360840
102789 0.0015800 -0.0351137 0.9984200 0.0351137 0.9984200 0.0351137 0.0015800 -0.0351137
105655 0.0015074 -0.0341692 0.9984926 0.0341692 0.9984926 0.0341692 0.0015074 -0.0341692
108602 0.0014383 -0.0332499 0.9985617 0.0332499 0.9985617 0.0332499 0.0014383 -0.0332499
111630 0.0013727 -0.0323552 0.9986273 0.0323552 0.9986273 0.0323552 0.0013727 -0.0323552
114743 0.0013102 -0.0314844 0.9986898 0.0314844 0.9986898 0.0314844 0.0013102 -0.0314844
117943 0.0012509 -0.0306368 0.9987491 0.0306368 0.9987491 0.0306368 0.0012509 -0.0306368
121232 0.0011944 -0.0298119 0.9988056 0.0298119 0.9988056 0.0298119 0.0011944 -0.0298119
124613 0.0011408 -0.0290090 0.9988592 0.0290090 0.9988592 0.0290090 0.0011408 -0.0290090
128088 0.0010898 -0.0282276 0.9989102 0.0282276 0.9989102 0.0282276 0.0010898 -0.0282276
131660 0.0010413 -0.0274671 0.9989587 0.0274671 0.9989587 0.0274671 0.0010413 -0.0274671
135332 0.0009952 -0.0267270 0.9990048 0.0267270 0.9990048 0.0267270 0.0009952 -0.0267270
139106 0.0009514 -0.0260066 0.9990486 0.0260066 0.9990486 0.0260066 0.0009514 -0.0260066
142985 0.0009098 -0.0253056 0.9990902 0.0253056 0.9990902 0.0253056 0.0009098 -0.0253056
146972 0.0008702 -0.0246233 0.9991298 0.0246233 0.9991298 0.0246233 0.0008702 -0.0246233
151071 0.0008326 -0.0239592 0.9991674 0.0239592 0.9991674 0.0239592 0.0008326 -0.0239592
155284 0.0007968 -0.0233130 0.9992032 0.0233130 0.9992032 0.0233130 0.0007968 -0.0233130
159614 0.0007629 -0.0226841 0.9992371 0.0226841 0.9992371 0.0226841 0.0007629 -0.0226841
164065 0.0007306 -0.0220720 0.9992694 0.0220720 0.9992694 0.0220720 0.0007306 -0.0220720
168641 0.0006999 -0.0214764 0.9993001 0.0214764 0.9993001 0.0214764 0.0006999 -0.0214764
173344 0.0006707 -0.0208967 0.9993293 0.0208967 0.9993293 0.0208967 0.0006707 -0.0208967
178178 0.0006430 -0.0203326 0.9993570 0.0203326 0.9993570 0.0203326 0.0006430 -0.0203326
183146 0.0006167 -0.0197836 0.9993833 0.0197836 0.9993833 0.0197836 0.0006167 -0.0197836
188254 0.0005917 -0.0192494 0.9994083 0.0192494 0.9994083 0.0192494 0.0005917 -0.0192494
193504 0.0005679 -0.0187295 0.9994321 0.0187295 0.9994321 0.0187295 0.0005679 -0.0187295
198900 0.0005454 -0.0182235 0.9994546 0.0182235 0.9994546 0.0182235 0.0005454 -0.0182235
204447 0.0005239 -0.0177312 0.9994761 0.0177312 0.9994761 0.0177312 0.0005239 -0.0177312
210148 0.0005035 -0.0172521 0.9994965 0.0172521 0.9994965 0.0172521 0.0005035 -0.0172521
216008 0.0004842 -0.0167859 0.9995158 0.0167859 0.9995158 0.0167859 0.0004842 -0.0167859
222032 0.0004658 -0.0163323 0.9995342 0.0163323 0.9995342 0.0163323 0.0004658 -0.0163323
228224 0.0004483 -0.0158908 0.9995517 0.0158908 0.9995517 0.0158908 0.0004483 -0.0158908
234589 0.0004317 -0.0154612 0.9995683 0.0154612 0.9995683 0.0154612 0.0004317 -0.0154612
241130 0.0004159 -0.0150432 0.9995841 0.0150432 0.9995841 0.0150432 0.0004159 -0.0150432
247855 0.0004009 -0.0146364 0.9995991 0.0146364 0.9995991 0.0146364 0.0004009 -0.0146364
254767 0.0003866 -0.0142406 0.9996134 0.0142406 0.9996134 0.0142406 0.0003866 -0.0142406
261871 0.0003730 -0.0138555 0.9996270 0.0138555 0.9996270 0.0138555 0.0003730 -0.0138555
269174 0.0003602 -0.0134807 0.9996398 0.0134807 0.9996398 0.0134807 0.0003602 -0.0134807
276681 0.0003479 -0.0131161 0.9996521 0.0131161 0.9996521 0.0131161 0.0003479 -0.0131161
284397 0.0003362 -0.0127612 0.9996638 0.0127612 0.9996638 0.0127612 0.0003362 -0.0127612
292328 0.0003252 -0.0124159 0.9996748 0.0124159 0.9996748 0.0124159 0.0003252 -0.0124159
300480 0.0003146 -0.0120799 0.9996854 0.0120799 0.9996854 0.0120799 0.0003146 -0.0120799
308859 0.0003046 -0.0117530 0.9996954 0.0117530 0.9996954 0.0117530 0.0003046 -0.0117530
317472 0.0002950 -0.0114349 0.9997050 0.0114349 0.9997050 0.0114349 0.0002950 -0.0114349
326326 0.0002859 -0.0111254 0.9997141 0.0111254 0.9997141 0.0111254 0.0002859 -0.0111254
335426 0.0002772 -0.0108242 0.9997228 0.0108242 0.9997228 0.0108242 0.0002772 -0.0108242
344780 0.0002690 -0.0105311 0.9997310 0.0105311 0.9997310 0.0105311 0.0002690 -0.0105311
354395 0.0002611 -0.0102460 0.9997389 0.0102460 0.9997389 0.0102460 0.0002611 -0.0102460
364278 0.0002536 -0.0099685 0.9997464 0.0099685 0.9997464 0.0099685 0.0002536 -0.0099685
374436 0.0002464 -0.0096985 0.9997536 0.0096985 0.9997536 0.0096985 0.0002464 -0.0096985
384878 0.0002396 -0.0094358 0.9997604 0.0094358 0.9997604 0.0094358 0.0002396 -0.0094358
395611 0.0002331 -0.0091801 0.9997669 0.0091801 0.9997669 0.0091801 0.0002331 -0.0091801
406644 0.0002269 -0.0089313 0.9997731 0.0089313 0.9997731 0.0089313 0.0002269 -0.0089313
417984 0.0002209 -0.0086893 0.9997791 0.0086893 0.9997791 0.0086893 0.0002209 -0.0086893
429640 0.0002152 -0.0084537 0.9997848 0.0084537 0.9997848 0.0084537 0.0002152 -0.0084537
441622 0.0002098 -0.0082245 0.9997902 0.0082245 0.9997902 0.0082245 0.0002098 -0.0082245
453937 0.0002046 -0.0080015 0.9997954 0.0080015 0.9997954 0.0080015 0.0002046 -0.0080015
466596 0.0001996 -0.0077844 0.9998004 0.0077844 0.9998004 0.0077844 0.0001996 -0.0077844
479608 0.0001948 -0.0075732 0.9998052 0.0075732 0.9998052 0.0075732 0.0001948 -0.0075732
492983 0.0001902 -0.0073676 0.9998098 0.0073676 0.9998098 0.0073676 0.0001902 -0.0073676
506731 0.0001859 -0.0071676 0.9998141 0.0071676 0.9998141 0.0071676 0.0001859 -0.0071676
520862 0.0001816 -0.0069730 0.9998184 0.0069730 0.9998184 0.0069730 0.0001816 -0.0069730
535387 0.0001776 -0.0067835 0.9998224 0.0067835 0.9998224 0.0067835 0.0001776 -0.0067835
550318 0.0001737 -0.0065992 0.9998263 0.0065992 0.9998263 0.0065992 0.0001737 -0.0065992
565664 0.0001700 -0.0064198 0.9998300 0.0064198 0.9998300 0.0064198 0.0001700 -0.0064198
581439 0.0001664 -0.0062451 0.9998336 0.0062451 0.9998336 0.0062451 0.0001664 -0.0062451
597654 0.0001630 -0.0060752 0.9998370 0.0060752 0.9998370 0.0060752 0.0001630 -0.0060752
614320 0.0001597 -0.0059098 0.9998403 0.0059098 0.9998403 0.0059098 0.0001597 -0.0059098
631452 0.0001565 -0.0057488 0.9998435 0.0057488 0.9998435 0.0057488 0.0001565 -0.0057488
649061 0.0001534 -0.0055921 0.9998466 0.0055921 0.9998466 0.0055921 0.0001534 -0.0055921
667162 0.0001505 -0.0054396 0.9998495 0.0054396 0.9998495 0.0054396 0.0001505 -0.0054396
685767 0.0001476 -0.0052912 0.9998524 0.0052912 0.9998524 0.0052912 0.0001476 -0.0052912
704891 0.0001449 -0.0051467 0.9998551 0.0051467 0.9998551 0.0051467 0.0001449 -0.0051467
724548 0.0001422 -0.0050060 0.9998578 0.0050060 0.9998578 0.0050060 0.0001422 -0.0050060
744754 0.0001397 -0.0048691 0.9998603 0.0048691 0.9998603 0.0048691 0.0001397 -0.0048691
765523 0.0001372 -0.0047358 0.9998628 0.0047358 0.9998628 0.0047358 0.0001372 -0.0047358
786871 0.0001348 -0.0046060 0.9998652 0.0046060 0.9998652 0.0046060 0.0001348 -0.0046060
808814 0.0001326 -0.0044797 0.9998674 0.0044797 0.9998674 0.0044797 0.0001326 -0.0044797
831370 0.0001304 -0.0043567 0.9998696 0.0043567 0.9998696 0.0043567 0.0001304 -0.0043567
854554 0.0001282 -0.0042370 0.9998718 0.0042370 0.9998718 0.0042370 0.0001282 -0.0042370
878385 0.0001262 -0.0041204 0.9998738 0.0041204 0.9998738 0.0041204 0.0001262 -0.0041204
902880 0.0001242 -0.0040069 0.9998758 0.0040069 0.9998758 0.0040069 0.0001242 -0.0040069
928059 0.0001223 -0.0038964 0.9998777 0.0038964 0.9998777 0.0038964 0.0001223 -0.0038964
953940 0.0001205 -0.0037887 0.9998795 0.0037887 0.9998795 0.0037887 0.0001205 -0.0037887
980542 0.0001187 -0.0036839 0.9998813 0.0036839 0.9998813 0.0036839 0.0001187 -0.0036839
1007887 0.0001170 -0.0035819 0.9998830 0.0035819 0.9998830 0.0035819 0.0001170 -0.0035819
1035994 0.0001154 -0.0034825 0.9998846 0.0034825 0.9998846 0.0034825 0.0001154 -0.0034825
1064885 0.0001138 -0.0033857 0.9998862 0.0033857 0.9998862 0.0033857 0.0001138 -0.0033857
1094581 0.0001122 -0.0032915 0.9998878 0.0032915 0.9998878 0.0032915 0.0001122 -0.0032915
1125106 0.0001108 -0.0031996 0.9998892 0.0031996 0.9998892 0.0031996 0.0001108 -0.0031996
1156481 0.0001094 -0.0031102 0.9998906 0.0031102 0.9998906 0.0031102 0.0001094 -0.0031102
1188732 0.0001080 -0.0030231 0.9998920 0.0030231 0.9998920 0.0030231 0.0001080 -0.0030231
1221882 0.0001067 -0.0029382 0.9998933 0.0029382 0.9998933 0.0029382 0.0001067 -0.0029382
1255957 0.0001054 -0.0028556 0.9998946 0.0028556 0.9998946 0.0028556 0.0001054 -0.0028556
1290982 0.0001042 -0.0027750 0.9998958 0.0027750 0.9998958 0.0027750 0.0001042 -0.0027750
1326984 0.0001030 -0.0026966 0.9998970 0.0026966 0.9998970 0.0026966 0.0001030 -0.0026966
1363989 0.0001019 -0.0026201 0.9998981 0.0026201 0.9998981 0.0026201 0.0001019 -0.0026201
1402027 0.0001008 -0.0025456 0.9998992 0.0025456 0.9998992 0.0025456 0.0001008 -0.0025456
1441125 0.0000998 -0.0024730 0.9999002 0.0024730 0.9999002 0.0024730 0.0000998 -0.0024730
1481314 0.0000987 -0.0024022 0.9999013 0.0024022 0.9999013 0.0024022 0.0000987 -0.0024022
1522623 0.0000978 -0.0023332 0.9999022 0.0023332 0.9999022 0.0023332 0.0000978 -0.0023332
1565085 0.0000968 -0.0022660 0.9999032 0.0022660 0.9999032 0.0022660 0.0000968 -0.0022660
1608730 0.0000959 -0.0022005 0.9999041 0.0022005 0.9999041 0.0022005 0.0000959 -0.0022005
1653593 0.0000951 -0.0021366 0.9999049 0.0021366 0.9999049 0.0021366 0.0000951 -0.0021366
1699707 0.0000942 -0.0020742 0.9999058 0.0020742 0.9999058 0.0020742 0.0000942 -0.0020742
1747106 0.0000934 -0.0020135 0.9999066 0.0020135 0.9999066 0.0020135 0.0000934 -0.0020135
1795828 0.0000927 -0.0019542 0.9999073 0.0019542 0.9999073 0.0019542 0.0000927 -0.0019542
1845908 0.0000919 -0.0018964 0.9999081 0.0018964 0.9999081 0.0018964 0.0000919 -0.0018964
1897385 0.0000912 -0.0018400 0.9999088 0.0018400 0.9999088 0.0018400 0.0000912 -0.0018400
1950297 0.0000905 -0.0017850 0.9999095 0.0017850 0.9999095 0.0017850 0.0000905 -0.0017850
2004685 0.0000898 -0.0017313 0.9999102 0.0017313 0.9999102 0.0017313 0.0000898 -0.0017313
2060590 0.0000892 -0.0016790 0.9999108 0.0016790 0.9999108 0.0016790 0.0000892 -0.0016790
2118054 0.0000886 -0.0016278 0.9999114 0.0016278 0.9999114 0.0016278 0.0000886 -0.0016278
2177120 0.0000880 -0.0015779 0.9999120 0.0015779 0.9999120 0.0015779 0.0000880 -0.0015779
2237833 0.0000874 -0.0015291 0.9999126 0.0015291 0.9999126 0.0015291 0.0000874 -0.0015291
2300240 0.0000868 -0.0014815 0.9999132 0.0014815 0.9999132 0.0014815 0.0000868 -0.0014815
2364387 0.0000863 -0.0014350 0.9999137 0.0014350 0.9999137 0.0014350 0.0000863 -0.0014350
2430322 0.0000858 -0.0013896 0.9999142 0.0013896 0.9999142 0.0013896 0.0000858 -0.0013896
2498097 0.0000853 -0.0013452 0.9999147 0.0013452 0.9999147 0.0013452 0.0000853 -0.0013452
2567761 0.0000848 -0.0013017 0.9999152 0.0013017 0.9999152 0.0013017 0.0000848 -0.0013017
2639368 0.0000844 -0.0012593 0.9999156 0.0012593 0.9999156 0.0012593 0.0000844 -0.0012593
2712972 0.0000839 -0.0012178 0.9999161 0.0012178 0.9999161 0.0012178 0.0000839 -0.0012178
2788629 0.0000835 -0.0011772 0.9999165 0.0011772 0.9999165 0.0011772 0.0000835 -0.0011772
2866396 0.0000831 -0.0011374 0.9999169 0.0011374 0.9999169 0.0011374 0.0000831 -0.0011374
2946331 0.0000827 -0.0010985 0.9999173 0.0010985 0.9999173 0.0010985 0.0000827 -0.0010985
3028495 0.0000823 -0.0010605 0.9999177 0.0010605 0.9999177 0.0010605 0.0000823 -0.0010605
3112951 0.0000819 -0.0010231 0.9999181 0.0010231 0.9999181 0.0010231 0.0000819 -0.0010231
3199762 0.0000816 -0.0009866 0.9999184 0.0009866 0.9999184 0.0009866 0.0000816 -0.0009866
3288994 0.0000813 -0.0009508 0.9999187 0.0009508 0.9999187 0.0009508 0.0000813 -0.0009508
3380714 0.0000810 -0.0009156 0.9999190 0.0009156 0.9999190 0.0009156 0.0000810 -0.0009156
3474992 0.0000807 -0.0008812 0.9999193 0.0008812 0.9999193 0.0008812 0.0000807 -0.0008812
3571899 0.0000804 -0.0008474 0.9999196 0.0008474 0.9999196 0.0008474 0.0000804 -0.0008474
3671508 0.0000802 -0.0008142 0.9999198 0.0008142 0.9999198 0.0008142 0.0000802 -0.0008142
3773896 0.0000800 -0.0007816 0.9999200 0.0007816 0.9999200 0.0007816 0.0000800 -0.0007816
3879139 0.0000798 -0.0007495 0.9999202 0.0007495 0.9999202 0.0007495 0.0000798 -0.0007495
3987316 0.0000796 -0.0007180 0.9999204 0.0007180 0.9999204 0.0007180 0.0000796 -0.0007180
4098510 0.0000794 -0.0006871 0.9999206 0.0006871 0.9999206 0.0006871 0.0000794 -0.0006871
4212806 0.0000793 -0.0006566 0.9999207 0.0006566 0.9999207 0.0006566 0.0000793 -0.0006566
4330288 0.0000792 -0.0006266 0.9999208 0.0006266 0.9999208 0.0006266 0.0000792 -0.0006266
4451047 0.0000791 -0.0005970 0.9999209 0.0005970 0.9999209 0.0005970 0.0000791 -0.0005970
4575173 0.0000791 -0.0005679 0.9999209 0.0005679 0.9999209 0.0005679 0.0000791 -0.0005679
4702761 0.0000790 -0.0005391 0.9999210 0.0005391 0.9999210 0.0005391 0.0000790 -0.0005391
4833907 0.0000791 -0.0005108 0.9999209 0.0005108 0.9999209 0.0005108 0.0000791 -0.0005108
4968711 0.0000791 -0.0004828 0.9999209 0.0004828 0.9999209 0.0004828 0.0000791 -0.0004828
5107273 0.0000792 -0.0004551 0.9999208 0.0004551 0.9999208 0.0004551 0.0000792 -0.0004551
5249700 0.0000794 -0.0004278 0.9999206 0.0004278 0.9999206 0.0004278 0.0000794 -0.0004278
5396098 0.0000795 -0.0004007 0.9999205 0.0004007 0.9999205 0.0004007 0.0000795 -0.0004007
5546579 0.0000797 -0.0003739 0.9999203 0.0003739 0.9999203 0.0003739 0.0000797 -0.0003739
5701257 0.0000800 -0.0003474 0.9999200 0.0003474 0.9999200 0.0003474 0.0000800 -0.0003474
5860248 0.0000803 -0.0003211 0.9999197 0.0003211 0.9999197 0.0003211 0.0000803 -0.0003211
6023672 0.0000807 -0.0002950 0.9999193 0.0002950 0.9999193 0.0002950 0.0000807 -0.0002950
6191655 0.0000811 -0.0002691 0.9999189 0.0002691 0.9999189 0.0002691 0.0000811 -0.0002691
6364321 0.0000816 -0.0002433 0.9999184 0.0002433 0.9999184 0.0002433 0.0000816 -0.0002433
6541803 0.0000822 -0.0002177 0.9999178 0.0002177 0.9999178 0.0002177 0.0000822 -0.0002177
6724235 0.0000828 -0.0001923 0.9999172 0.0001923 0.9999172 0.0001923 0.0000828 -0.0001923
6911753 0.0000835 -0.0001669 0.9999165 0.0001669 0.9999165 0.0001669 0.0000835 -0.0001669
7104501 0.0000843 -0.0001416 0.9999157 0.0001416 0.9999157 0.0001416 0.0000843 -0.0001416
7302625 0.0000851 -0.0001164 0.9999149 0.0001164 0.9999149 0.0001164 0.0000851 -0.0001164
7506273 0.0000861 -0.0000912 0.9999139 0.0000912 0.9999139 0.0000912 0.0000861 -0.0000912
7715601 0.0000871 -0.0000661 0.9999129 0.0000661 0.9999129 0.0000661 0.0000871 -0.0000661
7930766 0.0000883 -0.0000409 0.9999117 0.0000409 0.9999117 0.0000409 0.0000883 -0.0000409
8151931 0.0000896 -0.0000157 0.9999104 0.0000157 0.9999104 0.0000157 0.0000896 -0.0000157
8379264 0.0000909 0.0000096 0.9999091 -0.0000096 0.9999091 -0.0000096 0.0000909 0.0000096
8612937 0.0000924 0.0000349 0.9999076 -0.0000349 0.9999076 -0.0000349 0.0000924 0.0000349
8853126 0.0000941 0.0000603 0.9999059 -0.0000603 0.9999059 -0.0000603 0.0000941 0.0000603
9100013 0.0000959 0.0000859 0.9999041 -0.0000859 0.9999041 -0.0000859 0.0000959 0.0000859
9353785 0.0000979 0.0001116 0.9999021 -0.0001116 0.9999021 -0.0001116 0.0000979 0.0001116
9614634 0.0001000 0.0001375 0.9999000 -0.0001375 0.9999000 -0.0001375 0.0001000 0.0001375
9882758 0.0001024 0.0001636 0.9998976 -0.0001636 0.9998976 -0.0001636 0.0001024 0.0001636
10158358 0.0001049 0.0001900 0.9998951 -0.0001900 0.9998951 -0.0001900 0.0001049 0.0001900
10441645 0.0001078 0.0002167 0.9998922 -0.0002167 0.9998922 -0.0002167 0.0001078 0.0002167
10732831 0.0001109 0.0002437 0.9998891 -0.0002437 0.9998891 -0.0002437 0.0001109 0.0002437
11032137 0.0001143 0.0002710 0.9998857 -0.0002710 0.9998857 -0.0002710 0.0001143 0.0002710
11339791 0.0001181 0.0002988 0.9998819 -0.0002988 0.9998819 -0.0002988 0.0001181 0.0002988
11656024 0.0001223 0.0003270 0.9998777 -0.0003270 0.9998777 -0.0003270 0.0001223 0.0003270
11981075 0.0001269 0.0003557 0.9998731 -0.0003557 0.9998731 -0.0003557 0.0001269 0.0003557
12315192 0.0001321 0.0003850 0.9998679 -0.0003850 0.9998679 -0.0003850 0.0001321 0.0003850
12658625 0.0001380 0.0004149 0.9998620 -0.0004149 0.9998620 -0.0004149 0.0001380 0.0004149
13011637 0.0001447 0.0004455 0.9998553 -0.0004455 0.9998553 -0.0004455 0.0001447 0.0004455
13374492 0.0001523 0.0004768 0.9998477 -0.0004768 0.9998477 -0.0004768 0.0001523 0.0004768
13747467 0.0001610 0.0005089 0.9998390 -0.0005089 0.9998390 -0.0005089 0.0001610 0.0005089
14130843 0.0001712 0.0005419 0.9998288 -0.0005419 0.9998288 -0.0005419 0.0001712 0.0005419
14524910 0.0001831 0.0005757 0.9998169 -0.0005757 0.9998169 -0.0005757 0.0001831 0.0005757
14929966 0.0001973 0.0006104 0.9998027 -0.0006104 0.9998027 -0.0006104 0.0001973 0.0006104
15346318 0.0002143 0.0006457 0.9997857 -0.0006457 0.9997857 -0.0006457 0.0002143 0.0006457
15774281 0.0002350 0.0006813 0.9997650 -0.0006813 0.9997650 -0.0006813 0.0002350 0.0006813
16214179 0.0002603 0.0007165 0.9997397 -0.0007165 0.9997397 -0.0007165 0.0002603 0.0007165
16666344 0.0002914 0.0007500 0.9997086 -0.0007500 0.9997086 -0.0007500 0.0002914 0.0007500
17131118 0.0003291 0.0007793 0.9996709 -0.0007793 0.9996709 -0.0007793 0.0003291 0.0007793
17608854 0.0003738 0.0008008 0.9996262 -0.0008008 0.9996262 -0.0008008 0.0003738 0.0008008
18099912 0.0004230 0.0008094 0.9995770 -0.0008094 0.9995770 -0.0008094 0.0004230 0.0008094
18604665 0.0004707 0.0008004 0.9995293 -0.0008004 0.9995293 -0.0008004 0.0004707 0.0008004
19123493 0.0005060 0.0007735 0.9994940 -0.0007735 0.9994940 -0.0007735 0.0005060 0.0007735
19656790 0.0005184 0.0007369 0.9994816 -0.0007369 0.9994816 -0.0007369 0.0005184 0.0007369
20204959 0.0005059 0.0007053 0.9994941 -0.0007053 0.9994941 -0.0007053 0.0005059 0.0007053
20768415 0.0004763 0.0006901 0.9995237 -0.0006901 0.9995237 -0.0006901 0.0004763 0.0006901
21347584 0.0004413 0.0006945 0.9995587 -0.0006945 0.9995587 -0.0006945 0.0004413 0.0006945
21942904 0.0004093 0.0007148 0.9995907 -0.0007148 0.9995907 -0.0007148 0.0004093 0.0007148
22554827 0.0003841 0.0007457 0.9996159 -0.0007457 0.9996159 -0.0007457 0.0003841 0.0007457
23183813 0.0003664 0.0007829 0.9996336 -0.0007829 0.9996336 -0.0007829 0.0003664 0.0007829
23830340 0.0003556 0.0008233 0.9996444 -0.0008233 0.9996444 -0.0008233 0.0003556 0.0008233
24494897 0.0003507 0.0008651 0.9996493 -0.0008651 0.9996493 -0.0008651 0.0003507 0.0008651
25177987 0.0003509 0.0009073 0.9996491 -0.0009073 0.9996491 -0.0009073 0.0003509 0.0009073
25880126 0.0003552 0.0009491 0.9996448 -0.0009491 0.9996448 -0.0009491 0.0003552 0.0009491
26601845 0.0003633 0.0009901 0.9996367 -0.0009901 0.9996367 -0.0009901 0.0003633 0.0009901
27343691 0.0003745 0.0010298 0.9996255 -0.0010298 0.9996255 -0.0010298 0.0003745 0.0010298
28106225 0.0003886 0.0010678 0.9996114 -0.0010678 0.9996114 -0.0010678 0.0003886 0.0010678
28890023 0.0004050 0.0011037 0.9995950 -0.0011037 0.9995950 -0.0011037 0.0004050 0.0011037
29695680 0.0004232 0.0011370 0.9995768 -0.0011370 0.9995768 -0.0011370 0.0004232 0.0011370
30523804 0.0004425 0.0011672 0.9995575 -0.0011672 0.9995575 -0.0011672 0.0004425 0.0011672
31375021 0.0004620 0.0011939 0.9995380 -0.0011939 0.9995380 -0.0011939 0.0004620 0.0011939
32249977 0.0004805 0.0012170 0.9995195 -0.0012170 0.9995195 -0.0012170 0.0004805 0.0012170
33149332 0.0004967 0.0012369 0.9995033 -0.0012369 0.9995033 -0.0012369 0.0004967 0.0012369
34073768 0.0005093 0.0012544 0.9994907 -0.0012544 0.9994907 -0.0012544 0.0005093 0.0012544
35023984 0.0005176 0.0012707 0.9994824 -0.0012707 0.9994824 -0.0012707 0.0005176 0.0012707
36000698 0.0005211 0.0012874 0.9994789 -0.0012874 0.9994789 -0.0012874 0.0005211 0.0012874
37004650 0.0005201 0.0013061 0.9994799 -0.0013061 0.9994799 -0.0013061 0.0005201 0.0013061
38036599 0.0005155 0.0013281 0.9994845 -0.0013281 0.9994845 -0.0013281 0.0005155 0.0013281
39097326 0.0005084 0.0013541 0.9994916 -0.0013541 0.9994916 -0.0013541 0.0005084 0.0013541
