!Murata Part Number: GRM55EB11H475KA01
!These Parameters are Measured in Series Mode Connection
!Data Generated on Mar 30, 2021
!       o--ll--o
!Port1            Port2
!       o------o
!Operation Temp=25[degC], DC Bias Voltage=0[V]
!Freq. Start=100[Hz] Stop=6[GHz] 401[Steps]
# Hz S RI R 50
!Freq.(Hz) S11(Real) S11(Imag) S21(Real) S21(Imag) S12(Real) S12(Imag) S22(Real) S22(Imag)
100 0.9180281 -0.2716827 0.0819719 0.2716827 0.0819719 0.2716827 0.9180281 -0.2716827
105 0.9111334 -0.2819247 0.0888666 0.2819247 0.0888666 0.2819247 0.9111334 -0.2819247
109 0.9037157 -0.2923680 0.0962843 0.2923680 0.0962843 0.2923680 0.9037157 -0.2923680
114 0.8957454 -0.3029916 0.1042546 0.3029916 0.1042546 0.3029916 0.8957454 -0.3029916
120 0.8871932 -0.3137714 0.1128068 0.3137714 0.1128068 0.3137714 0.8871932 -0.3137714
125 0.8780301 -0.3246795 0.1219699 0.3246795 0.1219699 0.3246795 0.8780301 -0.3246795
131 0.8682284 -0.3356837 0.1317716 0.3356837 0.1317716 0.3356837 0.8682284 -0.3356837
137 0.8577615 -0.3467481 0.1422385 0.3467481 0.1422385 0.3467481 0.8577615 -0.3467481
143 0.8466049 -0.3578324 0.1533951 0.3578324 0.1533951 0.3578324 0.8466049 -0.3578324
150 0.8347366 -0.3688921 0.1652634 0.3688921 0.1652634 0.3688921 0.8347366 -0.3688921
156 0.8221379 -0.3798786 0.1778621 0.3798786 0.1778621 0.3798786 0.8221379 -0.3798786
164 0.8087936 -0.3907394 0.1912064 0.3907394 0.1912064 0.3907394 0.8087936 -0.3907394
171 0.7946934 -0.4014180 0.2053066 0.4014180 0.2053066 0.4014180 0.7946934 -0.4014180
179 0.7798318 -0.4118545 0.2201682 0.4118545 0.2201682 0.4118545 0.7798318 -0.4118545
187 0.7642095 -0.4219865 0.2357905 0.4219865 0.2357905 0.4219865 0.7642095 -0.4219865
196 0.7478333 -0.4317487 0.2521667 0.4317487 0.2521667 0.4317487 0.7478333 -0.4317487
205 0.7307172 -0.4410748 0.2692828 0.4410748 0.2692828 0.4410748 0.7307172 -0.4410748
214 0.7128826 -0.4498974 0.2871174 0.4498974 0.2871174 0.4498974 0.7128826 -0.4498974
224 0.6943587 -0.4581496 0.3056413 0.4581496 0.3056413 0.4581496 0.6943587 -0.4581496
234 0.6751828 -0.4657657 0.3248172 0.4657657 0.3248172 0.4657657 0.6751828 -0.4657657
245 0.6554001 -0.4726826 0.3445999 0.4726826 0.3445999 0.4726826 0.6554001 -0.4726826
256 0.6350637 -0.4788408 0.3649363 0.4788408 0.3649363 0.4788408 0.6350637 -0.4788408
268 0.6142343 -0.4841853 0.3857657 0.4841853 0.3857657 0.4841853 0.6142343 -0.4841853
280 0.5929794 -0.4886676 0.4070206 0.4886676 0.4070206 0.4886676 0.5929794 -0.4886676
293 0.5713729 -0.4922457 0.4286271 0.4922457 0.4286271 0.4922457 0.5713729 -0.4922457
306 0.5494938 -0.4948856 0.4505062 0.4948856 0.4505062 0.4948856 0.5494938 -0.4948856
320 0.5274252 -0.4965623 0.4725748 0.4965623 0.4725748 0.4965623 0.5274252 -0.4965623
335 0.5052531 -0.4972596 0.4947469 0.4972596 0.4947469 0.4972596 0.5052531 -0.4972596
350 0.4830653 -0.4969714 0.5169347 0.4969714 0.5169347 0.4969714 0.4830653 -0.4969714
366 0.4609493 -0.4957010 0.5390507 0.4957010 0.5390507 0.4957010 0.4609493 -0.4957010
383 0.4389919 -0.4934617 0.5610081 0.4934617 0.5610081 0.4934617 0.4389919 -0.4934617
401 0.4172767 -0.4902760 0.5827233 0.4902760 0.5827233 0.4902760 0.4172767 -0.4902760
419 0.3958841 -0.4861751 0.6041159 0.4861751 0.6041159 0.4861751 0.3958841 -0.4861751
438 0.3748890 -0.4811986 0.6251110 0.4811986 0.6251110 0.4811986 0.3748890 -0.4811986
458 0.3543606 -0.4753929 0.6456394 0.4753929 0.6456394 0.4753929 0.3543606 -0.4753929
479 0.3343614 -0.4688107 0.6656386 0.4688107 0.6656386 0.4688107 0.3343614 -0.4688107
501 0.3149464 -0.4615098 0.6850536 0.4615098 0.6850536 0.4615098 0.3149464 -0.4615098
524 0.2961631 -0.4535517 0.7038369 0.4535517 0.7038369 0.4535517 0.2961631 -0.4535517
548 0.2780508 -0.4450008 0.7219492 0.4450008 0.7219492 0.4450008 0.2780508 -0.4450008
573 0.2606411 -0.4359228 0.7393589 0.4359228 0.7393589 0.4359228 0.2606411 -0.4359228
600 0.2439579 -0.4263843 0.7560421 0.4263843 0.7560421 0.4263843 0.2439579 -0.4263843
627 0.2280174 -0.4164512 0.7719826 0.4164512 0.7719826 0.4164512 0.2280174 -0.4164512
656 0.2128291 -0.4061883 0.7871709 0.4061883 0.7871709 0.4061883 0.2128291 -0.4061883
686 0.1983958 -0.3956580 0.8016042 0.3956580 0.8016042 0.3956580 0.1983958 -0.3956580
717 0.1847145 -0.3849204 0.8152855 0.3849204 0.8152855 0.3849204 0.1847145 -0.3849204
750 0.1717770 -0.3740323 0.8282230 0.3740323 0.8282230 0.3740323 0.1717770 -0.3740323
784 0.1595704 -0.3630468 0.8404296 0.3630468 0.8404296 0.3630468 0.1595704 -0.3630468
820 0.1480779 -0.3520135 0.8519221 0.3520135 0.8519221 0.3520135 0.1480779 -0.3520135
858 0.1372795 -0.3409776 0.8627205 0.3409776 0.8627205 0.3409776 0.1372795 -0.3409776
897 0.1271524 -0.3299806 0.8728476 0.3299806 0.8728476 0.3299806 0.1271524 -0.3299806
938 0.1176716 -0.3190597 0.8823284 0.3190597 0.8823284 0.3190597 0.1176716 -0.3190597
981 0.1088108 -0.3082483 0.8911892 0.3082483 0.8911892 0.3082483 0.1088108 -0.3082483
1026 0.1005421 -0.2975758 0.8994579 0.2975758 0.8994579 0.2975758 0.1005421 -0.2975758
1073 0.0928374 -0.2870680 0.9071626 0.2870680 0.9071626 0.2870680 0.0928374 -0.2870680
1122 0.0856680 -0.2767471 0.9143320 0.2767471 0.9143320 0.2767471 0.0856680 -0.2767471
1174 0.0790051 -0.2666320 0.9209949 0.2666320 0.9209949 0.2666320 0.0790051 -0.2666320
1227 0.0728204 -0.2567387 0.9271796 0.2567387 0.9271796 0.2567387 0.0728204 -0.2567387
1283 0.0670858 -0.2470802 0.9329142 0.2470802 0.9329142 0.2470802 0.0670858 -0.2470802
1342 0.0617742 -0.2376669 0.9382258 0.2376669 0.9382258 0.2376669 0.0617742 -0.2376669
1404 0.0568590 -0.2285070 0.9431410 0.2285070 0.9431410 0.2285070 0.0568590 -0.2285070
1468 0.0523147 -0.2196065 0.9476853 0.2196065 0.9476853 0.2196065 0.0523147 -0.2196065
1535 0.0481168 -0.2109694 0.9518832 0.2109694 0.9518832 0.2109694 0.0481168 -0.2109694
1606 0.0442419 -0.2025981 0.9557581 0.2025981 0.9557581 0.2025981 0.0442419 -0.2025981
1679 0.0406677 -0.1944935 0.9593323 0.1944935 0.9593323 0.1944935 0.0406677 -0.1944935
1756 0.0373729 -0.1866551 0.9626271 0.1866551 0.9626271 0.1866551 0.0373729 -0.1866551
1836 0.0343377 -0.1790814 0.9656623 0.1790814 0.9656623 0.1790814 0.0343377 -0.1790814
1920 0.0315430 -0.1717697 0.9684570 0.1717697 0.9684570 0.1717697 0.0315430 -0.1717697
2008 0.0289711 -0.1647166 0.9710289 0.1647166 0.9710289 0.1647166 0.0289711 -0.1647166
2100 0.0266055 -0.1579179 0.9733945 0.1579179 0.9733945 0.1579179 0.0266055 -0.1579179
2196 0.0244303 -0.1513690 0.9755697 0.1513690 0.9755697 0.1513690 0.0244303 -0.1513690
2297 0.0224312 -0.1450644 0.9775688 0.1450644 0.9775688 0.1450644 0.0224312 -0.1450644
2402 0.0205944 -0.1389985 0.9794056 0.1389985 0.9794056 0.1389985 0.0205944 -0.1389985
2512 0.0189072 -0.1331653 0.9810928 0.1331653 0.9810928 0.1331653 0.0189072 -0.1331653
2627 0.0173580 -0.1275586 0.9826420 0.1275586 0.9826420 0.1275586 0.0173580 -0.1275586
2748 0.0159358 -0.1221719 0.9840642 0.1221719 0.9840642 0.1221719 0.0159358 -0.1221719
2873 0.0146304 -0.1169986 0.9853696 0.1169986 0.9853696 0.1169986 0.0146304 -0.1169986
3005 0.0134325 -0.1120322 0.9865675 0.1120322 0.9865675 0.1120322 0.0134325 -0.1120322
3143 0.0123333 -0.1072658 0.9876667 0.1072658 0.9876667 0.1072658 0.0123333 -0.1072658
3287 0.0113248 -0.1026929 0.9886752 0.1026929 0.9886752 0.1026929 0.0113248 -0.1026929
3437 0.0103996 -0.0983069 0.9896004 0.0983069 0.9896004 0.0983069 0.0103996 -0.0983069
3594 0.0095510 -0.0941011 0.9904490 0.0941011 0.9904490 0.0941011 0.0095510 -0.0941011
3759 0.0087724 -0.0900691 0.9912276 0.0900691 0.9912276 0.0900691 0.0087724 -0.0900691
3931 0.0080583 -0.0862045 0.9919417 0.0862045 0.9919417 0.0862045 0.0080583 -0.0862045
4111 0.0074032 -0.0825010 0.9925968 0.0825010 0.9925968 0.0825010 0.0074032 -0.0825010
4299 0.0068022 -0.0789526 0.9931978 0.0789526 0.9931978 0.0789526 0.0068022 -0.0789526
4496 0.0062508 -0.0755533 0.9937492 0.0755533 0.9937492 0.0755533 0.0062508 -0.0755533
4702 0.0057449 -0.0722972 0.9942551 0.0722972 0.9942551 0.0722972 0.0057449 -0.0722972
4918 0.0052807 -0.0691787 0.9947193 0.0691787 0.9947193 0.0691787 0.0052807 -0.0691787
5143 0.0048547 -0.0661924 0.9951453 0.0661924 0.9951453 0.0661924 0.0048547 -0.0661924
5378 0.0044637 -0.0633329 0.9955363 0.0633329 0.9955363 0.0633329 0.0044637 -0.0633329
5625 0.0041048 -0.0605951 0.9958952 0.0605951 0.9958952 0.0605951 0.0041048 -0.0605951
5882 0.0037753 -0.0579740 0.9962247 0.0579740 0.9962247 0.0579740 0.0037753 -0.0579740
6151 0.0034728 -0.0554648 0.9965272 0.0554648 0.9965272 0.0554648 0.0034728 -0.0554648
6433 0.0031950 -0.0530629 0.9968050 0.0530629 0.9968050 0.0530629 0.0031950 -0.0530629
6728 0.0029399 -0.0507638 0.9970601 0.0507638 0.9970601 0.0507638 0.0029399 -0.0507638
7036 0.0027056 -0.0485633 0.9972944 0.0485633 0.9972944 0.0485633 0.0027056 -0.0485633
7358 0.0024904 -0.0464572 0.9975096 0.0464572 0.9975096 0.0464572 0.0024904 -0.0464572
7695 0.0022927 -0.0444416 0.9977073 0.0444416 0.9977073 0.0444416 0.0022927 -0.0444416
8047 0.0021111 -0.0425126 0.9978889 0.0425126 0.9978889 0.0425126 0.0021111 -0.0425126
8416 0.0019442 -0.0406667 0.9980558 0.0406667 0.9980558 0.0406667 0.0019442 -0.0406667
8801 0.0017909 -0.0389002 0.9982091 0.0389002 0.9982091 0.0389002 0.0017909 -0.0389002
9204 0.0016501 -0.0372099 0.9983499 0.0372099 0.9983499 0.0372099 0.0016501 -0.0372099
9626 0.0015207 -0.0355924 0.9984793 0.0355924 0.9984793 0.0355924 0.0015207 -0.0355924
10066 0.0014018 -0.0340448 0.9985982 0.0340448 0.9985982 0.0340448 0.0014018 -0.0340448
10527 0.0012926 -0.0325640 0.9987074 0.0325640 0.9987074 0.0325640 0.0012926 -0.0325640
11009 0.0011922 -0.0311472 0.9988078 0.0311472 0.9988078 0.0311472 0.0011922 -0.0311472
11514 0.0011001 -0.0297916 0.9988999 0.0297916 0.9988999 0.0297916 0.0011001 -0.0297916
12041 0.0010154 -0.0284948 0.9989846 0.0284948 0.9989846 0.0284948 0.0010154 -0.0284948
12592 0.0009376 -0.0272540 0.9990624 0.0272540 0.9990624 0.0272540 0.0009376 -0.0272540
13169 0.0008661 -0.0260671 0.9991339 0.0260671 0.9991339 0.0260671 0.0008661 -0.0260671
13772 0.0008005 -0.0249316 0.9991995 0.0249316 0.9991995 0.0249316 0.0008005 -0.0249316
14402 0.0007402 -0.0238453 0.9992598 0.0238453 0.9992598 0.0238453 0.0007402 -0.0238453
15062 0.0006848 -0.0228062 0.9993152 0.0228062 0.9993152 0.0228062 0.0006848 -0.0228062
15752 0.0006339 -0.0218122 0.9993661 0.0218122 0.9993661 0.0218122 0.0006339 -0.0218122
16473 0.0005872 -0.0208614 0.9994128 0.0208614 0.9994128 0.0208614 0.0005872 -0.0208614
17227 0.0005442 -0.0199519 0.9994558 0.0199519 0.9994558 0.0199519 0.0005442 -0.0199519
18016 0.0005048 -0.0190819 0.9994952 0.0190819 0.9994952 0.0190819 0.0005048 -0.0190819
18841 0.0004685 -0.0182498 0.9995315 0.0182498 0.9995315 0.0182498 0.0004685 -0.0182498
19704 0.0004352 -0.0174539 0.9995648 0.0174539 0.9995648 0.0174539 0.0004352 -0.0174539
20606 0.0004045 -0.0166927 0.9995955 0.0166927 0.9995955 0.0166927 0.0004045 -0.0166927
21550 0.0003764 -0.0159646 0.9996236 0.0159646 0.9996236 0.0159646 0.0003764 -0.0159646
22537 0.0003504 -0.0152682 0.9996496 0.0152682 0.9996496 0.0152682 0.0003504 -0.0152682
23569 0.0003266 -0.0146022 0.9996734 0.0146022 0.9996734 0.0146022 0.0003266 -0.0146022
24648 0.0003046 -0.0139651 0.9996954 0.0139651 0.9996954 0.0139651 0.0003046 -0.0139651
25777 0.0002844 -0.0133559 0.9997156 0.0133559 0.9997156 0.0133559 0.0002844 -0.0133559
26957 0.0002658 -0.0127732 0.9997342 0.0127732 0.9997342 0.0127732 0.0002658 -0.0127732
28191 0.0002487 -0.0122159 0.9997513 0.0122159 0.9997513 0.0122159 0.0002487 -0.0122159
29482 0.0002329 -0.0116829 0.9997671 0.0116829 0.9997671 0.0116829 0.0002329 -0.0116829
30832 0.0002183 -0.0111731 0.9997817 0.0111731 0.9997817 0.0111731 0.0002183 -0.0111731
32244 0.0002048 -0.0106855 0.9997952 0.0106855 0.9997952 0.0106855 0.0002048 -0.0106855
33721 0.0001924 -0.0102193 0.9998076 0.0102193 0.9998076 0.0102193 0.0001924 -0.0102193
35265 0.0001810 -0.0097733 0.9998190 0.0097733 0.9998190 0.0097733 0.0001810 -0.0097733
36880 0.0001704 -0.0093468 0.9998296 0.0093468 0.9998296 0.0093468 0.0001704 -0.0093468
38569 0.0001606 -0.0089388 0.9998394 0.0089388 0.9998394 0.0089388 0.0001606 -0.0089388
40335 0.0001516 -0.0085487 0.9998484 0.0085487 0.9998484 0.0085487 0.0001516 -0.0085487
42182 0.0001432 -0.0081756 0.9998568 0.0081756 0.9998568 0.0081756 0.0001432 -0.0081756
44113 0.0001355 -0.0078187 0.9998645 0.0078187 0.9998645 0.0078187 0.0001355 -0.0078187
46134 0.0001283 -0.0074774 0.9998717 0.0074774 0.9998717 0.0074774 0.0001283 -0.0074774
48246 0.0001217 -0.0071510 0.9998783 0.0071510 0.9998783 0.0071510 0.0001217 -0.0071510
50455 0.0001156 -0.0068388 0.9998844 0.0068388 0.9998844 0.0068388 0.0001156 -0.0068388
52766 0.0001099 -0.0065402 0.9998901 0.0065402 0.9998901 0.0065402 0.0001099 -0.0065402
55182 0.0001047 -0.0062546 0.9998953 0.0062546 0.9998953 0.0062546 0.0001047 -0.0062546
57709 0.0000998 -0.0059815 0.9999002 0.0059815 0.9999002 0.0059815 0.0000998 -0.0059815
60352 0.0000953 -0.0057203 0.9999047 0.0057203 0.9999047 0.0057203 0.0000953 -0.0057203
63115 0.0000911 -0.0054705 0.9999089 0.0054705 0.9999089 0.0054705 0.0000911 -0.0054705
66005 0.0000872 -0.0052315 0.9999128 0.0052315 0.9999128 0.0052315 0.0000872 -0.0052315
69028 0.0000836 -0.0050030 0.9999164 0.0050030 0.9999164 0.0050030 0.0000836 -0.0050030
72189 0.0000802 -0.0047845 0.9999198 0.0047845 0.9999198 0.0047845 0.0000802 -0.0047845
75495 0.0000771 -0.0045755 0.9999229 0.0045755 0.9999229 0.0045755 0.0000771 -0.0045755
78952 0.0000742 -0.0043755 0.9999258 0.0043755 0.9999258 0.0043755 0.0000742 -0.0043755
82567 0.0000715 -0.0041843 0.9999285 0.0041843 0.9999285 0.0041843 0.0000715 -0.0041843
86348 0.0000690 -0.0040015 0.9999310 0.0040015 0.9999310 0.0040015 0.0000690 -0.0040015
90302 0.0000666 -0.0038266 0.9999334 0.0038266 0.9999334 0.0038266 0.0000666 -0.0038266
94437 0.0000644 -0.0036593 0.9999356 0.0036593 0.9999356 0.0036593 0.0000644 -0.0036593
98762 0.0000623 -0.0034993 0.9999377 0.0034993 0.9999377 0.0034993 0.0000623 -0.0034993
103284 0.0000603 -0.0033463 0.9999397 0.0033463 0.9999397 0.0033463 0.0000603 -0.0033463
108014 0.0000585 -0.0031999 0.9999415 0.0031999 0.9999415 0.0031999 0.0000585 -0.0031999
112960 0.0000568 -0.0030599 0.9999432 0.0030599 0.9999432 0.0030599 0.0000568 -0.0030599
118133 0.0000551 -0.0029260 0.9999449 0.0029260 0.9999449 0.0029260 0.0000551 -0.0029260
123542 0.0000536 -0.0027979 0.9999464 0.0027979 0.9999464 0.0027979 0.0000536 -0.0027979
129199 0.0000521 -0.0026754 0.9999479 0.0026754 0.9999479 0.0026754 0.0000521 -0.0026754
135116 0.0000507 -0.0025582 0.9999493 0.0025582 0.9999493 0.0025582 0.0000507 -0.0025582
141303 0.0000494 -0.0024461 0.9999506 0.0024461 0.9999506 0.0024461 0.0000494 -0.0024461
147774 0.0000481 -0.0023388 0.9999519 0.0023388 0.9999519 0.0023388 0.0000481 -0.0023388
154540 0.0000469 -0.0022361 0.9999531 0.0022361 0.9999531 0.0022361 0.0000469 -0.0022361
161617 0.0000457 -0.0021379 0.9999543 0.0021379 0.9999543 0.0021379 0.0000457 -0.0021379
169018 0.0000446 -0.0020440 0.9999554 0.0020440 0.9999554 0.0020440 0.0000446 -0.0020440
176758 0.0000436 -0.0019540 0.9999564 0.0019540 0.9999564 0.0019540 0.0000436 -0.0019540
184852 0.0000425 -0.0018680 0.9999575 0.0018680 0.9999575 0.0018680 0.0000425 -0.0018680
193316 0.0000416 -0.0017856 0.9999584 0.0017856 0.9999584 0.0017856 0.0000416 -0.0017856
202169 0.0000406 -0.0017068 0.9999594 0.0017068 0.9999594 0.0017068 0.0000406 -0.0017068
211427 0.0000398 -0.0016313 0.9999602 0.0016313 0.9999602 0.0016313 0.0000398 -0.0016313
221108 0.0000389 -0.0015591 0.9999611 0.0015591 0.9999611 0.0015591 0.0000389 -0.0015591
231233 0.0000381 -0.0014899 0.9999619 0.0014899 0.9999619 0.0014899 0.0000381 -0.0014899
241822 0.0000373 -0.0014237 0.9999627 0.0014237 0.9999627 0.0014237 0.0000373 -0.0014237
252896 0.0000366 -0.0013603 0.9999634 0.0013603 0.9999634 0.0013603 0.0000366 -0.0013603
264476 0.0000359 -0.0012996 0.9999641 0.0012996 0.9999641 0.0012996 0.0000359 -0.0012996
276587 0.0000353 -0.0012415 0.9999647 0.0012415 0.9999647 0.0012415 0.0000353 -0.0012415
289253 0.0000346 -0.0011858 0.9999654 0.0011858 0.9999654 0.0011858 0.0000346 -0.0011858
302498 0.0000341 -0.0011325 0.9999659 0.0011325 0.9999659 0.0011325 0.0000341 -0.0011325
316350 0.0000335 -0.0010813 0.9999665 0.0010813 0.9999665 0.0010813 0.0000335 -0.0010813
330837 0.0000330 -0.0010324 0.9999670 0.0010324 0.9999670 0.0010324 0.0000330 -0.0010324
345986 0.0000325 -0.0009854 0.9999675 0.0009854 0.9999675 0.0009854 0.0000325 -0.0009854
361830 0.0000320 -0.0009404 0.9999680 0.0009404 0.9999680 0.0009404 0.0000320 -0.0009404
378399 0.0000316 -0.0008973 0.9999684 0.0008973 0.9999684 0.0008973 0.0000316 -0.0008973
395726 0.0000312 -0.0008560 0.9999688 0.0008560 0.9999688 0.0008560 0.0000312 -0.0008560
413847 0.0000309 -0.0008163 0.9999691 0.0008163 0.9999691 0.0008163 0.0000309 -0.0008163
432798 0.0000306 -0.0007783 0.9999694 0.0007783 0.9999694 0.0007783 0.0000306 -0.0007783
452617 0.0000302 -0.0007418 0.9999698 0.0007418 0.9999698 0.0007418 0.0000302 -0.0007418
473344 0.0000300 -0.0007068 0.9999700 0.0007068 0.9999700 0.0007068 0.0000300 -0.0007068
495019 0.0000297 -0.0006731 0.9999703 0.0006731 0.9999703 0.0006731 0.0000297 -0.0006731
517687 0.0000295 -0.0006408 0.9999705 0.0006408 0.9999705 0.0006408 0.0000295 -0.0006408
541393 0.0000293 -0.0006098 0.9999707 0.0006098 0.9999707 0.0006098 0.0000293 -0.0006098
566185 0.0000291 -0.0005800 0.9999709 0.0005800 0.9999709 0.0005800 0.0000291 -0.0005800
592111 0.0000290 -0.0005514 0.9999710 0.0005514 0.9999710 0.0005514 0.0000290 -0.0005514
619225 0.0000289 -0.0005238 0.9999711 0.0005238 0.9999711 0.0005238 0.0000289 -0.0005238
647581 0.0000288 -0.0004973 0.9999712 0.0004973 0.9999712 0.0004973 0.0000288 -0.0004973
677235 0.0000287 -0.0004718 0.9999713 0.0004718 0.9999713 0.0004718 0.0000287 -0.0004718
708247 0.0000287 -0.0004472 0.9999713 0.0004472 0.9999713 0.0004472 0.0000287 -0.0004472
740679 0.0000286 -0.0004235 0.9999714 0.0004235 0.9999714 0.0004235 0.0000286 -0.0004235
774597 0.0000286 -0.0004006 0.9999714 0.0004006 0.9999714 0.0004006 0.0000286 -0.0004006
810067 0.0000287 -0.0003785 0.9999713 0.0003785 0.9999713 0.0003785 0.0000287 -0.0003785
847162 0.0000287 -0.0003572 0.9999713 0.0003572 0.9999713 0.0003572 0.0000287 -0.0003572
885955 0.0000288 -0.0003366 0.9999712 0.0003366 0.9999712 0.0003366 0.0000288 -0.0003366
926525 0.0000289 -0.0003166 0.9999711 0.0003166 0.9999711 0.0003166 0.0000289 -0.0003166
968953 0.0000290 -0.0002973 0.9999710 0.0002973 0.9999710 0.0002973 0.0000290 -0.0002973
1013323 0.0000291 -0.0002786 0.9999709 0.0002786 0.9999709 0.0002786 0.0000291 -0.0002786
1059725 0.0000293 -0.0002604 0.9999707 0.0002604 0.9999707 0.0002604 0.0000293 -0.0002604
1108252 0.0000295 -0.0002427 0.9999705 0.0002427 0.9999705 0.0002427 0.0000295 -0.0002427
1159002 0.0000298 -0.0002255 0.9999702 0.0002255 0.9999702 0.0002255 0.0000298 -0.0002255
1212075 0.0000301 -0.0002088 0.9999699 0.0002088 0.9999699 0.0002088 0.0000301 -0.0002088
1267578 0.0000304 -0.0001924 0.9999696 0.0001924 0.9999696 0.0001924 0.0000304 -0.0001924
1325623 0.0000308 -0.0001764 0.9999692 0.0001764 0.9999692 0.0001764 0.0000308 -0.0001764
1386327 0.0000312 -0.0001608 0.9999688 0.0001608 0.9999688 0.0001608 0.0000312 -0.0001608
1449809 0.0000317 -0.0001454 0.9999683 0.0001454 0.9999683 0.0001454 0.0000317 -0.0001454
1516199 0.0000322 -0.0001303 0.9999678 0.0001303 0.9999678 0.0001303 0.0000322 -0.0001303
1585629 0.0000328 -0.0001154 0.9999672 0.0001154 0.9999672 0.0001154 0.0000328 -0.0001154
1658239 0.0000335 -0.0001007 0.9999665 0.0001007 0.9999665 0.0001007 0.0000335 -0.0001007
1734173 0.0000343 -0.0000862 0.9999657 0.0000862 0.9999657 0.0000862 0.0000343 -0.0000862
1813585 0.0000351 -0.0000718 0.9999649 0.0000718 0.9999649 0.0000718 0.0000351 -0.0000718
1896632 0.0000361 -0.0000575 0.9999639 0.0000575 0.9999639 0.0000575 0.0000361 -0.0000575
1983483 0.0000372 -0.0000432 0.9999628 0.0000432 0.9999628 0.0000432 0.0000372 -0.0000432
2074311 0.0000384 -0.0000289 0.9999616 0.0000289 0.9999616 0.0000289 0.0000384 -0.0000289
