!Murata Part Number: GRM55DR7LW224KW01
!These Parameters are Measured in Series Mode Connection
!Data Generated on Mar 30, 2021
!       o--ll--o
!Port1            Port2
!       o------o
!Operation Temp=25[degC], DC Bias Voltage=0[V]
!Freq. Start=100[kHz] Stop=6[GHz] 401[Steps]
# Hz S RI R 50
!Freq.(Hz) S11(Real) S11(Imag) S21(Real) S21(Imag) S12(Real) S12(Imag) S22(Real) S22(Imag)
100000 0.0066968 -0.0768222 0.9933032 0.0768222 0.9933032 0.0768222 0.0066968 -0.0768222
102789 0.0063662 -0.0747779 0.9936338 0.0747779 0.9936338 0.0747779 0.0063662 -0.0747779
105655 0.0060522 -0.0727867 0.9939478 0.0727867 0.9939478 0.0727867 0.0060522 -0.0727867
108602 0.0057542 -0.0708472 0.9942458 0.0708472 0.9942458 0.0708472 0.0057542 -0.0708472
111630 0.0054711 -0.0689582 0.9945289 0.0689582 0.9945289 0.0689582 0.0054711 -0.0689582
114743 0.0052024 -0.0671184 0.9947976 0.0671184 0.9947976 0.0671184 0.0052024 -0.0671184
117943 0.0049473 -0.0653267 0.9950527 0.0653267 0.9950527 0.0653267 0.0049473 -0.0653267
121232 0.0047050 -0.0635818 0.9952950 0.0635818 0.9952950 0.0635818 0.0047050 -0.0635818
124613 0.0044750 -0.0618826 0.9955250 0.0618826 0.9955250 0.0618826 0.0044750 -0.0618826
128088 0.0042566 -0.0602279 0.9957434 0.0602279 0.9957434 0.0602279 0.0042566 -0.0602279
131660 0.0040493 -0.0586167 0.9959507 0.0586167 0.9959507 0.0586167 0.0040493 -0.0586167
135332 0.0038526 -0.0570477 0.9961474 0.0570477 0.9961474 0.0570477 0.0038526 -0.0570477
139106 0.0036657 -0.0555201 0.9963343 0.0555201 0.9963343 0.0555201 0.0036657 -0.0555201
142985 0.0034884 -0.0540327 0.9965116 0.0540327 0.9965116 0.0540327 0.0034884 -0.0540327
146972 0.0033201 -0.0525845 0.9966799 0.0525845 0.9966799 0.0525845 0.0033201 -0.0525845
151071 0.0031603 -0.0511746 0.9968397 0.0511746 0.9968397 0.0511746 0.0031603 -0.0511746
155284 0.0030086 -0.0498019 0.9969914 0.0498019 0.9969914 0.0498019 0.0030086 -0.0498019
159614 0.0028647 -0.0484655 0.9971353 0.0484655 0.9971353 0.0484655 0.0028647 -0.0484655
164065 0.0027280 -0.0471645 0.9972720 0.0471645 0.9972720 0.0471645 0.0027280 -0.0471645
168641 0.0025984 -0.0458980 0.9974016 0.0458980 0.9974016 0.0458980 0.0025984 -0.0458980
173344 0.0024753 -0.0446650 0.9975247 0.0446650 0.9975247 0.0446650 0.0024753 -0.0446650
178178 0.0023585 -0.0434648 0.9976415 0.0434648 0.9976415 0.0434648 0.0023585 -0.0434648
183146 0.0022477 -0.0422966 0.9977523 0.0422966 0.9977523 0.0422966 0.0022477 -0.0422966
188254 0.0021425 -0.0411593 0.9978575 0.0411593 0.9978575 0.0411593 0.0021425 -0.0411593
193504 0.0020427 -0.0400524 0.9979573 0.0400524 0.9979573 0.0400524 0.0020427 -0.0400524
198900 0.0019480 -0.0389750 0.9980520 0.0389750 0.9980520 0.0389750 0.0019480 -0.0389750
204447 0.0018581 -0.0379262 0.9981419 0.0379262 0.9981419 0.0379262 0.0018581 -0.0379262
210148 0.0017728 -0.0369055 0.9982272 0.0369055 0.9982272 0.0369055 0.0017728 -0.0369055
216008 0.0016918 -0.0359120 0.9983082 0.0359120 0.9983082 0.0359120 0.0016918 -0.0359120
222032 0.0016150 -0.0349451 0.9983850 0.0349451 0.9983850 0.0349451 0.0016150 -0.0349451
228224 0.0015420 -0.0340040 0.9984580 0.0340040 0.9984580 0.0340040 0.0015420 -0.0340040
234589 0.0014728 -0.0330881 0.9985272 0.0330881 0.9985272 0.0330881 0.0014728 -0.0330881
241130 0.0014071 -0.0321967 0.9985929 0.0321967 0.9985929 0.0321967 0.0014071 -0.0321967
247855 0.0013447 -0.0313292 0.9986553 0.0313292 0.9986553 0.0313292 0.0013447 -0.0313292
254767 0.0012855 -0.0304849 0.9987145 0.0304849 0.9987145 0.0304849 0.0012855 -0.0304849
261871 0.0012293 -0.0296633 0.9987707 0.0296633 0.9987707 0.0296633 0.0012293 -0.0296633
269174 0.0011760 -0.0288637 0.9988240 0.0288637 0.9988240 0.0288637 0.0011760 -0.0288637
276681 0.0011253 -0.0280856 0.9988747 0.0280856 0.9988747 0.0280856 0.0011253 -0.0280856
284397 0.0010772 -0.0273284 0.9989228 0.0273284 0.9989228 0.0273284 0.0010772 -0.0273284
292328 0.0010315 -0.0265915 0.9989685 0.0265915 0.9989685 0.0265915 0.0010315 -0.0265915
300480 0.0009880 -0.0258744 0.9990120 0.0258744 0.9990120 0.0258744 0.0009880 -0.0258744
308859 0.0009468 -0.0251766 0.9990532 0.0251766 0.9990532 0.0251766 0.0009468 -0.0251766
317472 0.0009076 -0.0244975 0.9990924 0.0244975 0.9990924 0.0244975 0.0009076 -0.0244975
326326 0.0008703 -0.0238367 0.9991297 0.0238367 0.9991297 0.0238367 0.0008703 -0.0238367
335426 0.0008349 -0.0231936 0.9991651 0.0231936 0.9991651 0.0231936 0.0008349 -0.0231936
344780 0.0008012 -0.0225679 0.9991988 0.0225679 0.9991988 0.0225679 0.0008012 -0.0225679
354395 0.0007692 -0.0219590 0.9992308 0.0219590 0.9992308 0.0219590 0.0007692 -0.0219590
364278 0.0007387 -0.0213664 0.9992613 0.0213664 0.9992613 0.0213664 0.0007387 -0.0213664
374436 0.0007098 -0.0207898 0.9992902 0.0207898 0.9992902 0.0207898 0.0007098 -0.0207898
384878 0.0006822 -0.0202288 0.9993178 0.0202288 0.9993178 0.0202288 0.0006822 -0.0202288
395611 0.0006559 -0.0196828 0.9993441 0.0196828 0.9993441 0.0196828 0.0006559 -0.0196828
406644 0.0006309 -0.0191515 0.9993691 0.0191515 0.9993691 0.0191515 0.0006309 -0.0191515
417984 0.0006071 -0.0186345 0.9993929 0.0186345 0.9993929 0.0186345 0.0006071 -0.0186345
429640 0.0005844 -0.0181314 0.9994156 0.0181314 0.9994156 0.0181314 0.0005844 -0.0181314
441622 0.0005628 -0.0176418 0.9994372 0.0176418 0.9994372 0.0176418 0.0005628 -0.0176418
453937 0.0005422 -0.0171654 0.9994578 0.0171654 0.9994578 0.0171654 0.0005422 -0.0171654
466596 0.0005226 -0.0167018 0.9994774 0.0167018 0.9994774 0.0167018 0.0005226 -0.0167018
479608 0.0005038 -0.0162507 0.9994962 0.0162507 0.9994962 0.0162507 0.0005038 -0.0162507
492983 0.0004859 -0.0158117 0.9995141 0.0158117 0.9995141 0.0158117 0.0004859 -0.0158117
506731 0.0004689 -0.0153844 0.9995311 0.0153844 0.9995311 0.0153844 0.0004689 -0.0153844
520862 0.0004526 -0.0149687 0.9995474 0.0149687 0.9995474 0.0149687 0.0004526 -0.0149687
535387 0.0004371 -0.0145641 0.9995629 0.0145641 0.9995629 0.0145641 0.0004371 -0.0145641
550318 0.0004222 -0.0141703 0.9995778 0.0141703 0.9995778 0.0141703 0.0004222 -0.0141703
565664 0.0004081 -0.0137872 0.9995919 0.0137872 0.9995919 0.0137872 0.0004081 -0.0137872
581439 0.0003945 -0.0134143 0.9996055 0.0134143 0.9996055 0.0134143 0.0003945 -0.0134143
597654 0.0003816 -0.0130514 0.9996184 0.0130514 0.9996184 0.0130514 0.0003816 -0.0130514
614320 0.0003692 -0.0126982 0.9996308 0.0126982 0.9996308 0.0126982 0.0003692 -0.0126982
631452 0.0003574 -0.0123545 0.9996426 0.0123545 0.9996426 0.0123545 0.0003574 -0.0123545
649061 0.0003461 -0.0120200 0.9996539 0.0120200 0.9996539 0.0120200 0.0003461 -0.0120200
667162 0.0003353 -0.0116944 0.9996647 0.0116944 0.9996647 0.0116944 0.0003353 -0.0116944
685767 0.0003250 -0.0113775 0.9996750 0.0113775 0.9996750 0.0113775 0.0003250 -0.0113775
704891 0.0003151 -0.0110691 0.9996849 0.0110691 0.9996849 0.0110691 0.0003151 -0.0110691
724548 0.0003056 -0.0107690 0.9996944 0.0107690 0.9996944 0.0107690 0.0003056 -0.0107690
744754 0.0002966 -0.0104769 0.9997034 0.0104769 0.9997034 0.0104769 0.0002966 -0.0104769
765523 0.0002880 -0.0101925 0.9997120 0.0101925 0.9997120 0.0101925 0.0002880 -0.0101925
786871 0.0002797 -0.0099158 0.9997203 0.0099158 0.9997203 0.0099158 0.0002797 -0.0099158
808814 0.0002718 -0.0096464 0.9997282 0.0096464 0.9997282 0.0096464 0.0002718 -0.0096464
831370 0.0002642 -0.0093842 0.9997358 0.0093842 0.9997358 0.0093842 0.0002642 -0.0093842
854554 0.0002570 -0.0091290 0.9997430 0.0091290 0.9997430 0.0091290 0.0002570 -0.0091290
878385 0.0002501 -0.0088806 0.9997499 0.0088806 0.9997499 0.0088806 0.0002501 -0.0088806
902880 0.0002435 -0.0086388 0.9997565 0.0086388 0.9997565 0.0086388 0.0002435 -0.0086388
928059 0.0002372 -0.0084035 0.9997628 0.0084035 0.9997628 0.0084035 0.0002372 -0.0084035
953940 0.0002311 -0.0081744 0.9997689 0.0081744 0.9997689 0.0081744 0.0002311 -0.0081744
980542 0.0002253 -0.0079514 0.9997747 0.0079514 0.9997747 0.0079514 0.0002253 -0.0079514
1007887 0.0002198 -0.0077343 0.9997802 0.0077343 0.9997802 0.0077343 0.0002198 -0.0077343
1035994 0.0002145 -0.0075230 0.9997855 0.0075230 0.9997855 0.0075230 0.0002145 -0.0075230
1064885 0.0002095 -0.0073173 0.9997905 0.0073173 0.9997905 0.0073173 0.0002095 -0.0073173
1094581 0.0002046 -0.0071170 0.9997954 0.0071170 0.9997954 0.0071170 0.0002046 -0.0071170
1125106 0.0002000 -0.0069221 0.9998000 0.0069221 0.9998000 0.0069221 0.0002000 -0.0069221
1156481 0.0001956 -0.0067323 0.9998044 0.0067323 0.9998044 0.0067323 0.0001956 -0.0067323
1188732 0.0001914 -0.0065476 0.9998086 0.0065476 0.9998086 0.0065476 0.0001914 -0.0065476
1221882 0.0001874 -0.0063677 0.9998126 0.0063677 0.9998126 0.0063677 0.0001874 -0.0063677
1255957 0.0001836 -0.0061926 0.9998164 0.0061926 0.9998164 0.0061926 0.0001836 -0.0061926
1290982 0.0001799 -0.0060221 0.9998201 0.0060221 0.9998201 0.0060221 0.0001799 -0.0060221
1326984 0.0001764 -0.0058561 0.9998236 0.0058561 0.9998236 0.0058561 0.0001764 -0.0058561
1363989 0.0001730 -0.0056945 0.9998270 0.0056945 0.9998270 0.0056945 0.0001730 -0.0056945
1402027 0.0001698 -0.0055371 0.9998302 0.0055371 0.9998302 0.0055371 0.0001698 -0.0055371
1441125 0.0001668 -0.0053839 0.9998332 0.0053839 0.9998332 0.0053839 0.0001668 -0.0053839
1481314 0.0001638 -0.0052347 0.9998362 0.0052347 0.9998362 0.0052347 0.0001638 -0.0052347
1522623 0.0001610 -0.0050894 0.9998390 0.0050894 0.9998390 0.0050894 0.0001610 -0.0050894
1565085 0.0001584 -0.0049479 0.9998416 0.0049479 0.9998416 0.0049479 0.0001584 -0.0049479
1608730 0.0001558 -0.0048102 0.9998442 0.0048102 0.9998442 0.0048102 0.0001558 -0.0048102
1653593 0.0001534 -0.0046760 0.9998466 0.0046760 0.9998466 0.0046760 0.0001534 -0.0046760
1699707 0.0001511 -0.0045453 0.9998489 0.0045453 0.9998489 0.0045453 0.0001511 -0.0045453
1747106 0.0001488 -0.0044181 0.9998512 0.0044181 0.9998512 0.0044181 0.0001488 -0.0044181
1795828 0.0001467 -0.0042941 0.9998533 0.0042941 0.9998533 0.0042941 0.0001467 -0.0042941
1845908 0.0001446 -0.0041734 0.9998554 0.0041734 0.9998554 0.0041734 0.0001446 -0.0041734
1897385 0.0001427 -0.0040557 0.9998573 0.0040557 0.9998573 0.0040557 0.0001427 -0.0040557
1950297 0.0001408 -0.0039412 0.9998592 0.0039412 0.9998592 0.0039412 0.0001408 -0.0039412
2004685 0.0001390 -0.0038295 0.9998610 0.0038295 0.9998610 0.0038295 0.0001390 -0.0038295
2060590 0.0001373 -0.0037208 0.9998627 0.0037208 0.9998627 0.0037208 0.0001373 -0.0037208
2118054 0.0001356 -0.0036148 0.9998644 0.0036148 0.9998644 0.0036148 0.0001356 -0.0036148
2177120 0.0001340 -0.0035116 0.9998660 0.0035116 0.9998660 0.0035116 0.0001340 -0.0035116
2237833 0.0001325 -0.0034109 0.9998675 0.0034109 0.9998675 0.0034109 0.0001325 -0.0034109
2300240 0.0001310 -0.0033129 0.9998690 0.0033129 0.9998690 0.0033129 0.0001310 -0.0033129
2364387 0.0001296 -0.0032173 0.9998704 0.0032173 0.9998704 0.0032173 0.0001296 -0.0032173
2430322 0.0001282 -0.0031241 0.9998718 0.0031241 0.9998718 0.0031241 0.0001282 -0.0031241
2498097 0.0001269 -0.0030333 0.9998731 0.0030333 0.9998731 0.0030333 0.0001269 -0.0030333
2567761 0.0001256 -0.0029447 0.9998744 0.0029447 0.9998744 0.0029447 0.0001256 -0.0029447
2639368 0.0001244 -0.0028583 0.9998756 0.0028583 0.9998756 0.0028583 0.0001244 -0.0028583
2712972 0.0001232 -0.0027741 0.9998768 0.0027741 0.9998768 0.0027741 0.0001232 -0.0027741
2788629 0.0001220 -0.0026919 0.9998780 0.0026919 0.9998780 0.0026919 0.0001220 -0.0026919
2866396 0.0001209 -0.0026118 0.9998791 0.0026118 0.9998791 0.0026118 0.0001209 -0.0026118
2946331 0.0001198 -0.0025336 0.9998802 0.0025336 0.9998802 0.0025336 0.0001198 -0.0025336
3028495 0.0001187 -0.0024573 0.9998813 0.0024573 0.9998813 0.0024573 0.0001187 -0.0024573
3112951 0.0001177 -0.0023828 0.9998823 0.0023828 0.9998823 0.0023828 0.0001177 -0.0023828
3199762 0.0001167 -0.0023101 0.9998833 0.0023101 0.9998833 0.0023101 0.0001167 -0.0023101
3288994 0.0001157 -0.0022392 0.9998843 0.0022392 0.9998843 0.0022392 0.0001157 -0.0022392
3380714 0.0001147 -0.0021699 0.9998853 0.0021699 0.9998853 0.0021699 0.0001147 -0.0021699
3474992 0.0001138 -0.0021022 0.9998862 0.0021022 0.9998862 0.0021022 0.0001138 -0.0021022
3571899 0.0001129 -0.0020360 0.9998871 0.0020360 0.9998871 0.0020360 0.0001129 -0.0020360
3671508 0.0001120 -0.0019714 0.9998880 0.0019714 0.9998880 0.0019714 0.0001120 -0.0019714
3773896 0.0001111 -0.0019082 0.9998889 0.0019082 0.9998889 0.0019082 0.0001111 -0.0019082
3879139 0.0001103 -0.0018465 0.9998897 0.0018465 0.9998897 0.0018465 0.0001103 -0.0018465
3987316 0.0001094 -0.0017861 0.9998906 0.0017861 0.9998906 0.0017861 0.0001094 -0.0017861
4098510 0.0001086 -0.0017270 0.9998914 0.0017270 0.9998914 0.0017270 0.0001086 -0.0017270
4212806 0.0001078 -0.0016692 0.9998922 0.0016692 0.9998922 0.0016692 0.0001078 -0.0016692
4330288 0.0001070 -0.0016126 0.9998930 0.0016126 0.9998930 0.0016126 0.0001070 -0.0016126
4451047 0.0001063 -0.0015572 0.9998937 0.0015572 0.9998937 0.0015572 0.0001063 -0.0015572
4575173 0.0001055 -0.0015029 0.9998945 0.0015029 0.9998945 0.0015029 0.0001055 -0.0015029
4702761 0.0001048 -0.0014497 0.9998952 0.0014497 0.9998952 0.0014497 0.0001048 -0.0014497
4833907 0.0001041 -0.0013976 0.9998959 0.0013976 0.9998959 0.0013976 0.0001041 -0.0013976
4968711 0.0001034 -0.0013464 0.9998966 0.0013464 0.9998966 0.0013464 0.0001034 -0.0013464
5107273 0.0001027 -0.0012963 0.9998973 0.0012963 0.9998973 0.0012963 0.0001027 -0.0012963
5249700 0.0001021 -0.0012471 0.9998979 0.0012471 0.9998979 0.0012471 0.0001021 -0.0012471
5396098 0.0001015 -0.0011987 0.9998985 0.0011987 0.9998985 0.0011987 0.0001015 -0.0011987
5546579 0.0001009 -0.0011513 0.9998991 0.0011513 0.9998991 0.0011513 0.0001009 -0.0011513
5701257 0.0001003 -0.0011046 0.9998997 0.0011046 0.9998997 0.0011046 0.0001003 -0.0011046
5860248 0.0000998 -0.0010587 0.9999002 0.0010587 0.9999002 0.0010587 0.0000998 -0.0010587
6023672 0.0000993 -0.0010136 0.9999007 0.0010136 0.9999007 0.0010136 0.0000993 -0.0010136
6191655 0.0000988 -0.0009692 0.9999012 0.0009692 0.9999012 0.0009692 0.0000988 -0.0009692
6364321 0.0000984 -0.0009254 0.9999016 0.0009254 0.9999016 0.0009254 0.0000984 -0.0009254
6541803 0.0000980 -0.0008823 0.9999020 0.0008823 0.9999020 0.0008823 0.0000980 -0.0008823
6724235 0.0000977 -0.0008398 0.9999023 0.0008398 0.9999023 0.0008398 0.0000977 -0.0008398
6911753 0.0000974 -0.0007979 0.9999026 0.0007979 0.9999026 0.0007979 0.0000974 -0.0007979
7104501 0.0000972 -0.0007565 0.9999028 0.0007565 0.9999028 0.0007565 0.0000972 -0.0007565
7302625 0.0000970 -0.0007156 0.9999030 0.0007156 0.9999030 0.0007156 0.0000970 -0.0007156
7506273 0.0000969 -0.0006752 0.9999031 0.0006752 0.9999031 0.0006752 0.0000969 -0.0006752
7715601 0.0000968 -0.0006352 0.9999032 0.0006352 0.9999032 0.0006352 0.0000968 -0.0006352
7930766 0.0000968 -0.0005956 0.9999032 0.0005956 0.9999032 0.0005956 0.0000968 -0.0005956
8151931 0.0000969 -0.0005564 0.9999031 0.0005564 0.9999031 0.0005564 0.0000969 -0.0005564
8379264 0.0000971 -0.0005176 0.9999029 0.0005176 0.9999029 0.0005176 0.0000971 -0.0005176
8612937 0.0000973 -0.0004790 0.9999027 0.0004790 0.9999027 0.0004790 0.0000973 -0.0004790
8853126 0.0000976 -0.0004407 0.9999024 0.0004407 0.9999024 0.0004407 0.0000976 -0.0004407
9100013 0.0000981 -0.0004027 0.9999019 0.0004027 0.9999019 0.0004027 0.0000981 -0.0004027
9353785 0.0000986 -0.0003649 0.9999014 0.0003649 0.9999014 0.0003649 0.0000986 -0.0003649
9614634 0.0000993 -0.0003273 0.9999007 0.0003273 0.9999007 0.0003273 0.0000993 -0.0003273
9882758 0.0001000 -0.0002898 0.9999000 0.0002898 0.9999000 0.0002898 0.0001000 -0.0002898
10158358 0.0001009 -0.0002525 0.9998991 0.0002525 0.9998991 0.0002525 0.0001009 -0.0002525
10441645 0.0001019 -0.0002152 0.9998981 0.0002152 0.9998981 0.0002152 0.0001019 -0.0002152
10732831 0.0001031 -0.0001780 0.9998969 0.0001780 0.9998969 0.0001780 0.0001031 -0.0001780
11032137 0.0001044 -0.0001408 0.9998956 0.0001408 0.9998956 0.0001408 0.0001044 -0.0001408
11339791 0.0001059 -0.0001035 0.9998941 0.0001035 0.9998941 0.0001035 0.0001059 -0.0001035
11656024 0.0001076 -0.0000662 0.9998924 0.0000662 0.9998924 0.0000662 0.0001076 -0.0000662
11981075 0.0001094 -0.0000288 0.9998906 0.0000288 0.9998906 0.0000288 0.0001094 -0.0000288
12315192 0.0001115 0.0000088 0.9998885 -0.0000088 0.9998885 -0.0000088 0.0001115 0.0000088
12658625 0.0001138 0.0000465 0.9998862 -0.0000465 0.9998862 -0.0000465 0.0001138 0.0000465
13011637 0.0001164 0.0000845 0.9998836 -0.0000845 0.9998836 -0.0000845 0.0001164 0.0000845
13374492 0.0001192 0.0001228 0.9998808 -0.0001228 0.9998808 -0.0001228 0.0001192 0.0001228
13747467 0.0001224 0.0001614 0.9998776 -0.0001614 0.9998776 -0.0001614 0.0001224 0.0001614
14130843 0.0001259 0.0002004 0.9998741 -0.0002004 0.9998741 -0.0002004 0.0001259 0.0002004
14524910 0.0001298 0.0002398 0.9998702 -0.0002398 0.9998702 -0.0002398 0.0001298 0.0002398
14929966 0.0001341 0.0002798 0.9998659 -0.0002798 0.9998659 -0.0002798 0.0001341 0.0002798
15346318 0.0001389 0.0003204 0.9998611 -0.0003204 0.9998611 -0.0003204 0.0001389 0.0003204
15774281 0.0001443 0.0003617 0.9998557 -0.0003617 0.9998557 -0.0003617 0.0001443 0.0003617
16214179 0.0001503 0.0004037 0.9998497 -0.0004037 0.9998497 -0.0004037 0.0001503 0.0004037
16666344 0.0001571 0.0004467 0.9998429 -0.0004467 0.9998429 -0.0004467 0.0001571 0.0004467
17131118 0.0001648 0.0004906 0.9998352 -0.0004906 0.9998352 -0.0004906 0.0001648 0.0004906
17608854 0.0001735 0.0005356 0.9998265 -0.0005356 0.9998265 -0.0005356 0.0001735 0.0005356
18099912 0.0001835 0.0005819 0.9998165 -0.0005819 0.9998165 -0.0005819 0.0001835 0.0005819
18604665 0.0001951 0.0006297 0.9998049 -0.0006297 0.9998049 -0.0006297 0.0001951 0.0006297
19123493 0.0002087 0.0006790 0.9997913 -0.0006790 0.9997913 -0.0006790 0.0002087 0.0006790
19656790 0.0002246 0.0007300 0.9997754 -0.0007300 0.9997754 -0.0007300 0.0002246 0.0007300
20204959 0.0002438 0.0007830 0.9997562 -0.0007830 0.9997562 -0.0007830 0.0002438 0.0007830
20768415 0.0002669 0.0008380 0.9997331 -0.0008380 0.9997331 -0.0008380 0.0002669 0.0008380
21347584 0.0002955 0.0008949 0.9997045 -0.0008949 0.9997045 -0.0008949 0.0002955 0.0008949
21942904 0.0003311 0.0009533 0.9996689 -0.0009533 0.9996689 -0.0009533 0.0003311 0.0009533
22554827 0.0003763 0.0010123 0.9996237 -0.0010123 0.9996237 -0.0010123 0.0003763 0.0010123
23183813 0.0004341 0.0010695 0.9995659 -0.0010695 0.9995659 -0.0010695 0.0004341 0.0010695
23830340 0.0005081 0.0011200 0.9994919 -0.0011200 0.9994919 -0.0011200 0.0005081 0.0011200
24494897 0.0006006 0.0011550 0.9993994 -0.0011550 0.9993994 -0.0011550 0.0006006 0.0011550
25177987 0.0007088 0.0011603 0.9992912 -0.0011603 0.9992912 -0.0011603 0.0007088 0.0011603
25880126 0.0008174 0.0011198 0.9991826 -0.0011198 0.9991826 -0.0011198 0.0008174 0.0011198
26601845 0.0008945 0.0010299 0.9991055 -0.0010299 0.9991055 -0.0010299 0.0008945 0.0010299
27343691 0.0009081 0.0009164 0.9990919 -0.0009164 0.9990919 -0.0009164 0.0009081 0.0009164
28106225 0.0008567 0.0008249 0.9991433 -0.0008249 0.9991433 -0.0008249 0.0008567 0.0008249
28890023 0.0007715 0.0007834 0.9992285 -0.0007834 0.9992285 -0.0007834 0.0007715 0.0007834
29695680 0.0006854 0.0007901 0.9993146 -0.0007901 0.9993146 -0.0007901 0.0006854 0.0007901
30523804 0.0006152 0.0008292 0.9993848 -0.0008292 0.9993848 -0.0008292 0.0006152 0.0008292
31375021 0.0005646 0.0008859 0.9994354 -0.0008859 0.9994354 -0.0008859 0.0005646 0.0008859
32249977 0.0005318 0.0009509 0.9994682 -0.0009509 0.9994682 -0.0009509 0.0005318 0.0009509
33149332 0.0005136 0.0010189 0.9994864 -0.0010189 0.9994864 -0.0010189 0.0005136 0.0010189
34073768 0.0005070 0.0010873 0.9994930 -0.0010873 0.9994930 -0.0010873 0.0005070 0.0010873
35023984 0.0005100 0.0011545 0.9994900 -0.0011545 0.9994900 -0.0011545 0.0005100 0.0011545
36000698 0.0005211 0.0012196 0.9994789 -0.0012196 0.9994789 -0.0012196 0.0005211 0.0012196
37004650 0.0005393 0.0012821 0.9994607 -0.0012821 0.9994607 -0.0012821 0.0005393 0.0012821
38036599 0.0005639 0.0013411 0.9994361 -0.0013411 0.9994361 -0.0013411 0.0005639 0.0013411
39097326 0.0005943 0.0013956 0.9994057 -0.0013956 0.9994057 -0.0013956 0.0005943 0.0013956
