!Murata Part Number: GRM55DR72A105KA01
!These Parameters are Measured in Series Mode Connection
!Data Generated on Mar 30, 2021
!       o--ll--o
!Port1            Port2
!       o------o
!Operation Temp=25[degC], DC Bias Voltage=0[V]
!Freq. Start=100[Hz] Stop=6[GHz] 401[Steps]
# Hz S RI R 50
!Freq.(Hz) S11(Real) S11(Imag) S21(Real) S21(Imag) S12(Real) S12(Imag) S22(Real) S22(Imag)
100 0.9959333 -0.0608694 0.0040667 0.0608694 0.0040667 0.0608694 0.9959333 -0.0608694
105 0.9955710 -0.0636194 0.0044290 0.0636194 0.0044290 0.0636194 0.9955710 -0.0636194
109 0.9951762 -0.0664915 0.0048238 0.0664915 0.0048238 0.0664915 0.9951762 -0.0664915
114 0.9947462 -0.0694910 0.0052538 0.0694910 0.0052538 0.0694910 0.9947462 -0.0694910
120 0.9942776 -0.0726232 0.0057224 0.0726232 0.0057224 0.0726232 0.9942776 -0.0726232
125 0.9937669 -0.0758935 0.0062331 0.0758935 0.0062331 0.0758935 0.9937669 -0.0758935
131 0.9932103 -0.0793076 0.0067897 0.0793076 0.0067897 0.0793076 0.9932103 -0.0793076
137 0.9926037 -0.0828714 0.0073963 0.0828714 0.0073963 0.0828714 0.9926037 -0.0828714
143 0.9919424 -0.0865909 0.0080576 0.0865909 0.0080576 0.0865909 0.9919424 -0.0865909
150 0.9912216 -0.0904721 0.0087784 0.0904721 0.0087784 0.0904721 0.9912216 -0.0904721
156 0.9904358 -0.0945213 0.0095642 0.0945213 0.0095642 0.0945213 0.9904358 -0.0945213
164 0.9895792 -0.0987450 0.0104208 0.0987450 0.0104208 0.0987450 0.9895792 -0.0987450
171 0.9886455 -0.1031495 0.0113545 0.1031495 0.0113545 0.1031495 0.9886455 -0.1031495
179 0.9876276 -0.1077415 0.0123724 0.1077415 0.0123724 0.1077415 0.9876276 -0.1077415
187 0.9865183 -0.1125275 0.0134817 0.1125275 0.0134817 0.1125275 0.9865183 -0.1125275
196 0.9853093 -0.1175143 0.0146907 0.1175143 0.0146907 0.1175143 0.9853093 -0.1175143
205 0.9839920 -0.1227085 0.0160080 0.1227085 0.0160080 0.1227085 0.9839920 -0.1227085
214 0.9825568 -0.1281168 0.0174432 0.1281168 0.0174432 0.1281168 0.9825568 -0.1281168
224 0.9809936 -0.1337456 0.0190064 0.1337456 0.0190064 0.1337456 0.9809936 -0.1337456
234 0.9792913 -0.1396015 0.0207087 0.1396015 0.0207087 0.1396015 0.9792913 -0.1396015
245 0.9774381 -0.1456906 0.0225619 0.1456906 0.0225619 0.1456906 0.9774381 -0.1456906
256 0.9754212 -0.1520189 0.0245788 0.1520189 0.0245788 0.1520189 0.9754212 -0.1520189
268 0.9732269 -0.1585920 0.0267731 0.1585920 0.0267731 0.1585920 0.9732269 -0.1585920
280 0.9708407 -0.1654152 0.0291593 0.1654152 0.0291593 0.1654152 0.9708407 -0.1654152
293 0.9682467 -0.1724931 0.0317533 0.1724931 0.0317533 0.1724931 0.9682467 -0.1724931
306 0.9654282 -0.1798300 0.0345718 0.1798300 0.0345718 0.1798300 0.9654282 -0.1798300
320 0.9623674 -0.1874292 0.0376326 0.1874292 0.0376326 0.1874292 0.9623674 -0.1874292
335 0.9590453 -0.1952931 0.0409547 0.1952931 0.0409547 0.1952931 0.9590453 -0.1952931
350 0.9554418 -0.2034233 0.0445582 0.2034233 0.0445582 0.2034233 0.9554418 -0.2034233
366 0.9515356 -0.2118201 0.0484644 0.2118201 0.0484644 0.2118201 0.9515356 -0.2118201
383 0.9473042 -0.2204825 0.0526958 0.2204825 0.0526958 0.2204825 0.9473042 -0.2204825
401 0.9427243 -0.2294081 0.0572757 0.2294081 0.0572757 0.2294081 0.9427243 -0.2294081
419 0.9377711 -0.2385926 0.0622289 0.2385926 0.0622289 0.2385926 0.9377711 -0.2385926
438 0.9324190 -0.2480298 0.0675810 0.2480298 0.0675810 0.2480298 0.9324190 -0.2480298
458 0.9266415 -0.2577115 0.0733585 0.2577115 0.0733585 0.2577115 0.9266415 -0.2577115
479 0.9204112 -0.2676271 0.0795888 0.2676271 0.0795888 0.2676271 0.9204112 -0.2676271
501 0.9137001 -0.2777631 0.0862999 0.2777631 0.0862999 0.2777631 0.9137001 -0.2777631
524 0.9064796 -0.2881035 0.0935204 0.2881035 0.0935204 0.2881035 0.9064796 -0.2881035
548 0.8987210 -0.2986291 0.1012790 0.2986291 0.1012790 0.2986291 0.8987210 -0.2986291
573 0.8903956 -0.3093173 0.1096044 0.3093173 0.1096044 0.3093173 0.8903956 -0.3093173
600 0.8814751 -0.3201420 0.1185249 0.3201420 0.1185249 0.3201420 0.8814751 -0.3201420
627 0.8719317 -0.3310734 0.1280683 0.3310734 0.1280683 0.3310734 0.8719317 -0.3310734
656 0.8617390 -0.3420778 0.1382610 0.3420778 0.1382610 0.3420778 0.8617390 -0.3420778
686 0.8508723 -0.3531174 0.1491277 0.3531174 0.1491277 0.3531174 0.8508723 -0.3531174
717 0.8393089 -0.3641505 0.1606911 0.3641505 0.1606911 0.3641505 0.8393089 -0.3641505
750 0.8270289 -0.3751311 0.1729711 0.3751311 0.1729711 0.3751311 0.8270289 -0.3751311
784 0.8140157 -0.3860093 0.1859843 0.3860093 0.1859843 0.3860093 0.8140157 -0.3860093
820 0.8002570 -0.3967314 0.1997430 0.3967314 0.1997430 0.3967314 0.8002570 -0.3967314
858 0.7857449 -0.4072401 0.2142551 0.4072401 0.2142551 0.4072401 0.7857449 -0.4072401
897 0.7704769 -0.4174750 0.2295231 0.4174750 0.2295231 0.4174750 0.7704769 -0.4174750
938 0.7544566 -0.4273731 0.2455434 0.4273731 0.2455434 0.4273731 0.7544566 -0.4273731
981 0.7376940 -0.4368693 0.2623060 0.4368693 0.2623060 0.4368693 0.7376940 -0.4368693
1026 0.7202064 -0.4458975 0.2797936 0.4458975 0.2797936 0.4458975 0.7202064 -0.4458975
1073 0.7020183 -0.4543909 0.2979817 0.4543909 0.2979817 0.4543909 0.7020183 -0.4543909
1122 0.6831624 -0.4622837 0.3168376 0.4622837 0.3168376 0.4622837 0.6831624 -0.4622837
1174 0.6636790 -0.4695116 0.3363210 0.4695116 0.3363210 0.4695116 0.6636790 -0.4695116
1227 0.6436166 -0.4760134 0.3563834 0.4760134 0.3563834 0.4760134 0.6436166 -0.4760134
1283 0.6230312 -0.4817317 0.3769688 0.4817317 0.3769688 0.4817317 0.6230312 -0.4817317
1342 0.6019863 -0.4866144 0.3980137 0.4866144 0.3980137 0.4866144 0.6019863 -0.4866144
1404 0.5805518 -0.4906156 0.4194482 0.4906156 0.4194482 0.4906156 0.5805518 -0.4906156
1468 0.5588039 -0.4936969 0.4411961 0.4936969 0.4411961 0.4936969 0.5588039 -0.4936969
1535 0.5368230 -0.4958279 0.4631770 0.4958279 0.4631770 0.4958279 0.5368230 -0.4958279
1606 0.5146939 -0.4969873 0.4853061 0.4969873 0.4853061 0.4969873 0.5146939 -0.4969873
1679 0.4925033 -0.4971630 0.5074967 0.4971630 0.5074967 0.4971630 0.4925033 -0.4971630
1756 0.4703391 -0.4963528 0.5296609 0.4963528 0.5296609 0.4963528 0.4703391 -0.4963528
1836 0.4482890 -0.4945644 0.5517110 0.4945644 0.5517110 0.4945644 0.4482890 -0.4945644
1920 0.4264387 -0.4918148 0.5735613 0.4918148 0.5735613 0.4918148 0.4264387 -0.4918148
2008 0.4048711 -0.4881306 0.5951289 0.4881306 0.5951289 0.4881306 0.4048711 -0.4881306
2100 0.3836646 -0.4835468 0.6163354 0.4835468 0.6163354 0.4835468 0.3836646 -0.4835468
2196 0.3628923 -0.4781062 0.6371077 0.4781062 0.6371077 0.4781062 0.3628923 -0.4781062
2297 0.3426209 -0.4718586 0.6573791 0.4718586 0.6573791 0.4718586 0.3426209 -0.4718586
2402 0.3229102 -0.4648593 0.6770898 0.4648593 0.6770898 0.4648593 0.3229102 -0.4648593
2512 0.3038123 -0.4571686 0.6961877 0.4571686 0.6961877 0.4571686 0.3038123 -0.4571686
2627 0.2853713 -0.4488501 0.7146287 0.4488501 0.7146287 0.4488501 0.2853713 -0.4488501
2748 0.2676234 -0.4399696 0.7323766 0.4399696 0.7323766 0.4399696 0.2676234 -0.4399696
2873 0.2505967 -0.4305942 0.7494033 0.4305942 0.7494033 0.4305942 0.2505967 -0.4305942
3005 0.2343117 -0.4207912 0.7656883 0.4207912 0.7656883 0.4207912 0.2343117 -0.4207912
3143 0.2187813 -0.4106268 0.7812187 0.4106268 0.7812187 0.4106268 0.2187813 -0.4106268
3287 0.2040116 -0.4001658 0.7959884 0.4001658 0.7959884 0.4001658 0.2040116 -0.4001658
3437 0.1900021 -0.3894706 0.8099979 0.3894706 0.8099979 0.3894706 0.1900021 -0.3894706
3594 0.1767469 -0.3786003 0.8232531 0.3786003 0.8232531 0.3786003 0.1767469 -0.3786003
3759 0.1642349 -0.3676110 0.8357651 0.3676110 0.8357651 0.3676110 0.1642349 -0.3676110
3931 0.1524504 -0.3565545 0.8475496 0.3565545 0.8475496 0.3565545 0.1524504 -0.3565545
4111 0.1413743 -0.3454790 0.8586257 0.3454790 0.8586257 0.3454790 0.1413743 -0.3454790
4299 0.1309842 -0.3344282 0.8690158 0.3344282 0.8690158 0.3344282 0.1309842 -0.3344282
4496 0.1212554 -0.3234418 0.8787446 0.3234418 0.8787446 0.3234418 0.1212554 -0.3234418
4702 0.1121611 -0.3125553 0.8878389 0.3125553 0.8878389 0.3125553 0.1121611 -0.3125553
4918 0.1036735 -0.3017999 0.8963265 0.3017999 0.8963265 0.3017999 0.1036735 -0.3017999
5143 0.0957636 -0.2912032 0.9042364 0.2912032 0.9042364 0.2912032 0.0957636 -0.2912032
5378 0.0884021 -0.2807888 0.9115979 0.2807888 0.9115979 0.2807888 0.0884021 -0.2807888
5625 0.0815596 -0.2705770 0.9184404 0.2705770 0.9184404 0.2705770 0.0815596 -0.2705770
5882 0.0752069 -0.2605847 0.9247931 0.2605847 0.9247931 0.2605847 0.0752069 -0.2605847
6151 0.0693152 -0.2508259 0.9306848 0.2508259 0.9306848 0.2508259 0.0693152 -0.2508259
6433 0.0638564 -0.2413116 0.9361436 0.2413116 0.9361436 0.2413116 0.0638564 -0.2413116
6728 0.0588033 -0.2320506 0.9411967 0.2320506 0.9411967 0.2320506 0.0588033 -0.2320506
7036 0.0541297 -0.2230493 0.9458703 0.2230493 0.9458703 0.2230493 0.0541297 -0.2230493
7358 0.0498104 -0.2143121 0.9501896 0.2143121 0.9501896 0.2143121 0.0498104 -0.2143121
7695 0.0458213 -0.2058415 0.9541787 0.2058415 0.9541787 0.2058415 0.0458213 -0.2058415
8047 0.0421396 -0.1976387 0.9578604 0.1976387 0.9578604 0.1976387 0.0421396 -0.1976387
8416 0.0387437 -0.1897032 0.9612563 0.1897032 0.9612563 0.1897032 0.0387437 -0.1897032
8801 0.0356131 -0.1820337 0.9643869 0.1820337 0.9643869 0.1820337 0.0356131 -0.1820337
9204 0.0327286 -0.1746274 0.9672714 0.1746274 0.9672714 0.1746274 0.0327286 -0.1746274
9626 0.0300721 -0.1674811 0.9699279 0.1674811 0.9699279 0.1674811 0.0300721 -0.1674811
10066 0.0276267 -0.1605905 0.9723733 0.1605905 0.9723733 0.1605905 0.0276267 -0.1605905
10527 0.0253764 -0.1539510 0.9746236 0.1539510 0.9746236 0.1539510 0.0253764 -0.1539510
11009 0.0233066 -0.1475573 0.9766934 0.1475573 0.9766934 0.1475573 0.0233066 -0.1475573
11514 0.0214034 -0.1414037 0.9785966 0.1414037 0.9785966 0.1414037 0.0214034 -0.1414037
12041 0.0196541 -0.1354843 0.9803459 0.1354843 0.9803459 0.1354843 0.0196541 -0.1354843
12592 0.0180466 -0.1297929 0.9819534 0.1297929 0.9819534 0.1297929 0.0180466 -0.1297929
13169 0.0165699 -0.1243230 0.9834301 0.1243230 0.9834301 0.1243230 0.0165699 -0.1243230
13772 0.0152138 -0.1190682 0.9847862 0.1190682 0.9847862 0.1190682 0.0152138 -0.1190682
14402 0.0139686 -0.1140219 0.9860314 0.1140219 0.9860314 0.1140219 0.0139686 -0.1140219
15062 0.0128256 -0.1091774 0.9871744 0.1091774 0.9871744 0.1091774 0.0128256 -0.1091774
15752 0.0117767 -0.1045282 0.9882233 0.1045282 0.9882233 0.1045282 0.0117767 -0.1045282
16473 0.0108142 -0.1000677 0.9891858 0.1000677 0.9891858 0.1000677 0.0108142 -0.1000677
17227 0.0099312 -0.0957894 0.9900688 0.0957894 0.9900688 0.0957894 0.0099312 -0.0957894
18016 0.0091213 -0.0916869 0.9908787 0.0916869 0.9908787 0.0916869 0.0091213 -0.0916869
18841 0.0083785 -0.0877538 0.9916215 0.0877538 0.9916215 0.0877538 0.0083785 -0.0877538
19704 0.0076973 -0.0839840 0.9923027 0.0839840 0.9923027 0.0839840 0.0076973 -0.0839840
20606 0.0070728 -0.0803713 0.9929272 0.0803713 0.9929272 0.0803713 0.0070728 -0.0803713
21550 0.0065001 -0.0769099 0.9934999 0.0769099 0.9934999 0.0769099 0.0065001 -0.0769099
22537 0.0059751 -0.0735939 0.9940249 0.0735939 0.9940249 0.0735939 0.0059751 -0.0735939
23569 0.0054938 -0.0704178 0.9945062 0.0704178 0.9945062 0.0704178 0.0054938 -0.0704178
24648 0.0050526 -0.0673760 0.9949474 0.0673760 0.9949474 0.0673760 0.0050526 -0.0673760
25777 0.0046481 -0.0644632 0.9953519 0.0644632 0.9953519 0.0644632 0.0046481 -0.0644632
26957 0.0042772 -0.0616744 0.9957228 0.0616744 0.9957228 0.0616744 0.0042772 -0.0616744
28191 0.0039372 -0.0590044 0.9960628 0.0590044 0.9960628 0.0590044 0.0039372 -0.0590044
29482 0.0036254 -0.0564485 0.9963746 0.0564485 0.9963746 0.0564485 0.0036254 -0.0564485
30832 0.0033395 -0.0540020 0.9966605 0.0540020 0.9966605 0.0540020 0.0033395 -0.0540020
32244 0.0030773 -0.0516604 0.9969227 0.0516604 0.9969227 0.0516604 0.0030773 -0.0516604
33721 0.0028368 -0.0494195 0.9971632 0.0494195 0.9971632 0.0494195 0.0028368 -0.0494195
35265 0.0026161 -0.0472748 0.9973839 0.0472748 0.9973839 0.0472748 0.0026161 -0.0472748
36880 0.0024137 -0.0452226 0.9975863 0.0452226 0.9975863 0.0452226 0.0024137 -0.0452226
38569 0.0022278 -0.0432588 0.9977722 0.0432588 0.9977722 0.0432588 0.0022278 -0.0432588
40335 0.0020572 -0.0413797 0.9979428 0.0413797 0.9979428 0.0413797 0.0020572 -0.0413797
42182 0.0019006 -0.0395818 0.9980994 0.0395818 0.9980994 0.0395818 0.0019006 -0.0395818
44113 0.0017567 -0.0378616 0.9982433 0.0378616 0.9982433 0.0378616 0.0017567 -0.0378616
46134 0.0016246 -0.0362158 0.9983754 0.0362158 0.9983754 0.0362158 0.0016246 -0.0362158
48246 0.0015032 -0.0346412 0.9984968 0.0346412 0.9984968 0.0346412 0.0015032 -0.0346412
50455 0.0013915 -0.0331348 0.9986085 0.0331348 0.9986085 0.0331348 0.0013915 -0.0331348
52766 0.0012889 -0.0316936 0.9987111 0.0316936 0.9987111 0.0316936 0.0012889 -0.0316936
55182 0.0011946 -0.0303148 0.9988054 0.0303148 0.9988054 0.0303148 0.0011946 -0.0303148
57709 0.0011078 -0.0289957 0.9988922 0.0289957 0.9988922 0.0289957 0.0011078 -0.0289957
60352 0.0010280 -0.0277339 0.9989720 0.0277339 0.9989720 0.0277339 0.0010280 -0.0277339
63115 0.0009546 -0.0265267 0.9990454 0.0265267 0.9990454 0.0265267 0.0009546 -0.0265267
66005 0.0008871 -0.0253719 0.9991129 0.0253719 0.9991129 0.0253719 0.0008871 -0.0253719
69028 0.0008249 -0.0242671 0.9991751 0.0242671 0.9991751 0.0242671 0.0008249 -0.0242671
72189 0.0007677 -0.0232103 0.9992323 0.0232103 0.9992323 0.0232103 0.0007677 -0.0232103
75495 0.0007150 -0.0221994 0.9992850 0.0221994 0.9992850 0.0221994 0.0007150 -0.0221994
78952 0.0006665 -0.0212323 0.9993335 0.0212323 0.9993335 0.0212323 0.0006665 -0.0212323
82567 0.0006219 -0.0203071 0.9993781 0.0203071 0.9993781 0.0203071 0.0006219 -0.0203071
86348 0.0005808 -0.0194222 0.9994192 0.0194222 0.9994192 0.0194222 0.0005808 -0.0194222
90302 0.0005430 -0.0185757 0.9994570 0.0185757 0.9994570 0.0185757 0.0005430 -0.0185757
94437 0.0005082 -0.0177660 0.9994918 0.0177660 0.9994918 0.0177660 0.0005082 -0.0177660
98762 0.0004762 -0.0169914 0.9995238 0.0169914 0.9995238 0.0169914 0.0004762 -0.0169914
103284 0.0004467 -0.0162505 0.9995533 0.0162505 0.9995533 0.0162505 0.0004467 -0.0162505
108014 0.0004195 -0.0155418 0.9995805 0.0155418 0.9995805 0.0155418 0.0004195 -0.0155418
112960 0.0003945 -0.0148640 0.9996055 0.0148640 0.9996055 0.0148640 0.0003945 -0.0148640
118133 0.0003715 -0.0142156 0.9996285 0.0142156 0.9996285 0.0142156 0.0003715 -0.0142156
123542 0.0003503 -0.0135955 0.9996497 0.0135955 0.9996497 0.0135955 0.0003503 -0.0135955
129199 0.0003308 -0.0130024 0.9996692 0.0130024 0.9996692 0.0130024 0.0003308 -0.0130024
135116 0.0003128 -0.0124350 0.9996872 0.0124350 0.9996872 0.0124350 0.0003128 -0.0124350
141303 0.0002962 -0.0118924 0.9997038 0.0118924 0.9997038 0.0118924 0.0002962 -0.0118924
147774 0.0002809 -0.0113735 0.9997191 0.0113735 0.9997191 0.0113735 0.0002809 -0.0113735
154540 0.0002667 -0.0108771 0.9997333 0.0108771 0.9997333 0.0108771 0.0002667 -0.0108771
161617 0.0002537 -0.0104024 0.9997463 0.0104024 0.9997463 0.0104024 0.0002537 -0.0104024
169018 0.0002417 -0.0099483 0.9997583 0.0099483 0.9997583 0.0099483 0.0002417 -0.0099483
176758 0.0002305 -0.0095141 0.9997695 0.0095141 0.9997695 0.0095141 0.0002305 -0.0095141
184852 0.0002202 -0.0090988 0.9997798 0.0090988 0.9997798 0.0090988 0.0002202 -0.0090988
193316 0.0002107 -0.0087016 0.9997893 0.0087016 0.9997893 0.0087016 0.0002107 -0.0087016
202169 0.0002018 -0.0083217 0.9997982 0.0083217 0.9997982 0.0083217 0.0002018 -0.0083217
211427 0.0001936 -0.0079583 0.9998064 0.0079583 0.9998064 0.0079583 0.0001936 -0.0079583
221108 0.0001860 -0.0076108 0.9998140 0.0076108 0.9998140 0.0076108 0.0001860 -0.0076108
231233 0.0001788 -0.0072784 0.9998212 0.0072784 0.9998212 0.0072784 0.0001788 -0.0072784
241822 0.0001722 -0.0069605 0.9998278 0.0069605 0.9998278 0.0069605 0.0001722 -0.0069605
252896 0.0001660 -0.0066564 0.9998340 0.0066564 0.9998340 0.0066564 0.0001660 -0.0066564
264476 0.0001602 -0.0063656 0.9998398 0.0063656 0.9998398 0.0063656 0.0001602 -0.0063656
276587 0.0001547 -0.0060874 0.9998453 0.0060874 0.9998453 0.0060874 0.0001547 -0.0060874
289253 0.0001496 -0.0058212 0.9998504 0.0058212 0.9998504 0.0058212 0.0001496 -0.0058212
302498 0.0001448 -0.0055667 0.9998552 0.0055667 0.9998552 0.0055667 0.0001448 -0.0055667
316350 0.0001402 -0.0053231 0.9998598 0.0053231 0.9998598 0.0053231 0.0001402 -0.0053231
330837 0.0001360 -0.0050901 0.9998640 0.0050901 0.9998640 0.0050901 0.0001360 -0.0050901
345986 0.0001319 -0.0048672 0.9998681 0.0048672 0.9998681 0.0048672 0.0001319 -0.0048672
361830 0.0001281 -0.0046539 0.9998719 0.0046539 0.9998719 0.0046539 0.0001281 -0.0046539
378399 0.0001245 -0.0044498 0.9998755 0.0044498 0.9998755 0.0044498 0.0001245 -0.0044498
395726 0.0001210 -0.0042545 0.9998790 0.0042545 0.9998790 0.0042545 0.0001210 -0.0042545
413847 0.0001178 -0.0040676 0.9998822 0.0040676 0.9998822 0.0040676 0.0001178 -0.0040676
432798 0.0001147 -0.0038888 0.9998853 0.0038888 0.9998853 0.0038888 0.0001147 -0.0038888
452617 0.0001118 -0.0037176 0.9998882 0.0037176 0.9998882 0.0037176 0.0001118 -0.0037176
473344 0.0001091 -0.0035537 0.9998909 0.0035537 0.9998909 0.0035537 0.0001091 -0.0035537
495019 0.0001064 -0.0033969 0.9998936 0.0033969 0.9998936 0.0033969 0.0001064 -0.0033969
517687 0.0001040 -0.0032467 0.9998960 0.0032467 0.9998960 0.0032467 0.0001040 -0.0032467
541393 0.0001016 -0.0031030 0.9998984 0.0031030 0.9998984 0.0031030 0.0001016 -0.0031030
566185 0.0000994 -0.0029654 0.9999006 0.0029654 0.9999006 0.0029654 0.0000994 -0.0029654
592111 0.0000974 -0.0028336 0.9999026 0.0028336 0.9999026 0.0028336 0.0000974 -0.0028336
619225 0.0000954 -0.0027074 0.9999046 0.0027074 0.9999046 0.0027074 0.0000954 -0.0027074
647581 0.0000935 -0.0025865 0.9999065 0.0025865 0.9999065 0.0025865 0.0000935 -0.0025865
677235 0.0000918 -0.0024707 0.9999082 0.0024707 0.9999082 0.0024707 0.0000918 -0.0024707
708247 0.0000902 -0.0023598 0.9999098 0.0023598 0.9999098 0.0023598 0.0000902 -0.0023598
740679 0.0000887 -0.0022536 0.9999113 0.0022536 0.9999113 0.0022536 0.0000887 -0.0022536
774597 0.0000873 -0.0021518 0.9999127 0.0021518 0.9999127 0.0021518 0.0000873 -0.0021518
810067 0.0000859 -0.0020542 0.9999141 0.0020542 0.9999141 0.0020542 0.0000859 -0.0020542
847162 0.0000847 -0.0019607 0.9999153 0.0019607 0.9999153 0.0019607 0.0000847 -0.0019607
885955 0.0000836 -0.0018711 0.9999164 0.0018711 0.9999164 0.0018711 0.0000836 -0.0018711
926525 0.0000825 -0.0017852 0.9999175 0.0017852 0.9999175 0.0017852 0.0000825 -0.0017852
968953 0.0000815 -0.0017028 0.9999185 0.0017028 0.9999185 0.0017028 0.0000815 -0.0017028
1013323 0.0000807 -0.0016238 0.9999193 0.0016238 0.9999193 0.0016238 0.0000807 -0.0016238
1059725 0.0000798 -0.0015480 0.9999202 0.0015480 0.9999202 0.0015480 0.0000798 -0.0015480
1108252 0.0000791 -0.0014752 0.9999209 0.0014752 0.9999209 0.0014752 0.0000791 -0.0014752
1159002 0.0000784 -0.0014054 0.9999216 0.0014054 0.9999216 0.0014054 0.0000784 -0.0014054
1212075 0.0000778 -0.0013384 0.9999222 0.0013384 0.9999222 0.0013384 0.0000778 -0.0013384
1267578 0.0000773 -0.0012740 0.9999227 0.0012740 0.9999227 0.0012740 0.0000773 -0.0012740
1325623 0.0000768 -0.0012122 0.9999232 0.0012122 0.9999232 0.0012122 0.0000768 -0.0012122
1386327 0.0000764 -0.0011528 0.9999236 0.0011528 0.9999236 0.0011528 0.0000764 -0.0011528
1449809 0.0000760 -0.0010956 0.9999240 0.0010956 0.9999240 0.0010956 0.0000760 -0.0010956
1516199 0.0000757 -0.0010407 0.9999243 0.0010407 0.9999243 0.0010407 0.0000757 -0.0010407
1585629 0.0000755 -0.0009878 0.9999245 0.0009878 0.9999245 0.0009878 0.0000755 -0.0009878
1658239 0.0000753 -0.0009368 0.9999247 0.0009368 0.9999247 0.0009368 0.0000753 -0.0009368
1734173 0.0000751 -0.0008878 0.9999249 0.0008878 0.9999249 0.0008878 0.0000751 -0.0008878
1813585 0.0000750 -0.0008405 0.9999250 0.0008405 0.9999250 0.0008405 0.0000750 -0.0008405
1896632 0.0000750 -0.0007948 0.9999250 0.0007948 0.9999250 0.0007948 0.0000750 -0.0007948
1983483 0.0000750 -0.0007508 0.9999250 0.0007508 0.9999250 0.0007508 0.0000750 -0.0007508
2074311 0.0000751 -0.0007082 0.9999249 0.0007082 0.9999249 0.0007082 0.0000751 -0.0007082
