# MHz S MA R 50

0.1	0.026488977	81.244548	0.99034386	-1.6066186	0.026503233	-94.945826	0.027093658	84.934482	
	0.99034386	-1.6066186	0.026456453	81.140921	0.027009447	85.119948	0.026207972	-95.829163	
	0.026503233	-94.945826	0.027009447	85.119948	0.0242839	74.671516	0.98919141	-1.5294684	
	0.027093658	84.934482	0.026207972	-95.829163	0.98919141	-1.5294684	0.026836032	79.452036	
	
0.102310062021247	0.026617613	80.223157	0.99023253	-1.5987737	0.02706491	-94.770618	0.027457082	84.739882	
	0.99023253	-1.5987737	0.02723311	82.362977	0.027399645	84.46631	0.02697066	-95.557126	
	0.02706491	-94.770618	0.027399645	84.46631	0.025967413	77.408621	0.98938983	-1.5268589	
	0.027457082	84.739882	0.02697066	-95.557126	0.98938983	-1.5268589	0.026281624	78.103544	
	
0.104673487907914	0.028267854	79.134867	0.98999144	-1.6423432	0.027463441	-95.513371	0.028153707	84.986872	
	0.98999144	-1.6423432	0.027110488	80.464703	0.028014632	85.044044	0.027553443	-94.978312	
	0.027463441	-95.513371	0.028014632	85.044044	0.025403695	77.889022	0.98952872	-1.5523872	
	0.028153707	84.986872	0.027553443	-94.978312	0.98952872	-1.5523872	0.027721698	78.872163	
	
0.107091510398389	0.02802521	79.322239	0.98963034	-1.6568274	0.028341962	-95.542804	0.028602691	84.619194	
	0.98963034	-1.6568274	0.028796033	80.019856	0.028886096	84.459305	0.028143938	-95.22056	
	0.028341962	-95.542804	0.028886096	84.459305	0.026352112	78.920488	0.98956783	-1.5729547	
	0.028602691	84.619194	0.028143938	-95.22056	0.98956783	-1.5729547	0.028938925	79.478688	
	
0.109565390708082	0.028334492	78.520238	0.98944419	-1.6787133	0.028607125	-95.752959	0.029327689	84.605376	
	0.98944419	-1.6787133	0.028637038	78.953491	0.02927702	84.438584	0.028650679	-95.665373	
	0.028607125	-95.752959	0.02927702	84.438584	0.027014393	78.22789	0.98882246	-1.6726747	
	0.029327689	84.605376	0.028650679	-95.665373	0.98882246	-1.6726747	0.030448018	77.81372	
	
0.112096419187261	0.030017853	77.989795	0.98919087	-1.7393875	0.029476678	-95.633195	0.029930982	84.683782	
	0.98919087	-1.7393875	0.029255175	80.105472	0.0300329	83.700088	0.029234345	-95.633429	
	0.029476678	-95.633195	0.0300329	83.700088	0.028835604	78.309986	0.9891087	-1.6811914	
	0.029930982	84.683782	0.029234345	-95.633429	0.9891087	-1.6811914	0.028113814	79.008576	
	
0.114685915994083	0.030619271	79.232754	0.9896761	-1.7934523	0.02997243	-95.939288	0.030573957	84.228545	
	0.9896761	-1.7934523	0.030878642	81.099839	0.031022821	84.501981	0.030443444	-95.863876	
	0.02997243	-95.939288	0.031022821	84.501981	0.029286801	78.795073	0.98878858	-1.7366836	
	0.030573957	84.228545	0.030443444	-95.863876	0.98878858	-1.7366836	0.030218232	77.570595	
	
0.117335231783182	0.030226004	79.573637	0.98980199	-1.8238799	0.030746167	-96.088199	0.031492619	84.841691	
	0.98980199	-1.8238799	0.031502708	81.221546	0.031372525	84.108511	0.030910857	-96.056406	
	0.030746167	-96.088199	0.031372525	84.108511	0.029638672	78.6858	0.988607	-1.7459616	
	0.031492619	84.841691	0.030910857	-96.056406	0.988607	-1.7459616	0.031084672	79.246068	
	
0.120045748410147	0.031902142	79.34964	0.98910621	-1.8908123	0.031202278	-95.982036	0.032104567	83.72146	
	0.98910621	-1.8908123	0.031686307	80.23293	0.03166741	83.983863	0.031617765	-95.433992	
	0.031202278	-95.982036	0.03166741	83.983863	0.030095465	77.101658	0.98874085	-1.7795244	
	0.032104567	83.72146	0.031617765	-95.433992	0.98874085	-1.7795244	0.030991066	79.469829	
	
0.122818879652292	0.032315837	80.621038	0.98899716	-1.8919657	0.032070257	-96.055936	0.032715677	83.973129	
	0.98899716	-1.8919657	0.03331449	78.760866	0.03313214	84.01542	0.031976047	-96.275513	
	0.032070257	-96.055936	0.03313214	84.01542	0.029804208	77.709672	0.98895876	-1.8589019	
	0.032715677	83.973129	0.031976047	-96.275513	0.98895876	-1.8589019	0.031925799	79.696566	
	
0.125656071946061	0.032807654	79.593739	0.98856897	-1.920038	0.032643582	-96.094046	0.033344266	84.076171	
	0.98856897	-1.920038	0.033816964	78.919687	0.033422859	84.077674	0.032563502	-96.214215	
	0.032643582	-96.094046	0.033422859	84.077674	0.031956804	77.739937	0.98863991	-1.8728486	
	0.033344266	84.076171	0.032563502	-96.214215	0.98863991	-1.8728486	0.033266474	79.26745	
	
0.128558805141477	0.033627328	80.933925	0.98866776	-2.0031359	0.033379847	-95.943854	0.03437118	83.701772	
	0.98866776	-2.0031359	0.033870901	81.36911	0.034255503	83.785339	0.033882998	-96.349268	
	0.033379847	-95.943854	0.034255503	83.785339	0.032228716	78.01654	0.98864302	-1.9362983	
	0.03437118	83.701772	0.033882998	-96.349268	0.98864302	-1.9362983	0.033580832	78.984743	
	
0.131528593274019	0.033735439	82.078071	0.98886682	-2.0055607	0.034057196	-96.148152	0.035188978	83.67866	
	0.98886682	-2.0055607	0.035283493	78.581114	0.035145942	83.766256	0.034140063	-95.977586	
	0.034057196	-96.148152	0.035145942	83.766256	0.032150372	75.67018	0.98804147	-1.9534498	
	0.035188978	83.67866	0.034140063	-95.977586	0.98804147	-1.9534498	0.034595992	80.127715	
	
0.134566985354323	0.034460122	79.351584	0.98895372	-2.065049	0.034695139	-96.496758	0.035727224	83.927838	
	0.98895372	-2.065049	0.036419995	80.471832	0.035734683	83.869823	0.034978001	-96.274367	
	0.034695139	-96.496758	0.035734683	83.869823	0.034095532	77.502735	0.9880709	-2.0168869	
	0.035727224	83.927838	0.034978001	-96.274367	0.9880709	-2.0168869	0.035024355	79.303063	
	
0.13767556617613	0.036096377	78.739385	0.98780377	-2.1224068	0.035828925	-96.608532	0.036501674	83.780289	
	0.98780377	-2.1224068	0.035558878	80.130209	0.036578408	83.796543	0.035732841	-96.88263	
	0.035828925	-96.608532	0.036578408	83.796543	0.034529679	77.160844	0.98701545	-2.0579815	
	0.036501674	83.780289	0.035732841	-96.88263	0.98701545	-2.0579815	0.036366276	78.711874	
	
0.140855957142902	0.037036354	79.826909	0.9884413	-2.1671257	0.036805749	-96.682498	0.037519554	83.468131	
	0.9884413	-2.1671257	0.038593974	81.336542	0.037384012	83.184398	0.036883591	-96.746339	
	0.036805749	-96.682498	0.037384012	83.184398	0.035249272	77.611234	0.98853274	-2.1225724	
	0.037519554	83.468131	0.036883591	-96.746339	0.98853274	-2.1225724	0.036985803	80.848693	
	
0.144109817113524	0.037915953	79.290292	0.98799936	-2.2315458	0.037413622	-96.749593	0.038273934	83.542646	
	0.98799936	-2.2315458	0.037840243	78.790848	0.038292159	83.169426	0.037376362	-96.780696	
	0.037413622	-96.749593	0.038292159	83.169426	0.03643271	78.530224	0.98803934	-2.1506058	
	0.038273934	83.542646	0.037376362	-96.780696	0.98803934	-2.1506058	0.037989519	78.995717	
	
0.147438843267552	0.038772207	79.376607	0.98827378	-2.2517411	0.037948562	-96.589315	0.039091421	83.012676	
	0.98827378	-2.2517411	0.039321199	80.626341	0.039070291	83.487966	0.038074894	-96.76369	
	0.037948562	-96.589315	0.039070291	83.487966	0.037230688	78.988641	0.98849036	-2.1835118	
	0.039091421	83.012676	0.038074894	-96.76369	0.98849036	-2.1835118	0.038296985	80.20807	
	
0.150844771990442	0.039066343	78.399885	0.987171	-2.2896703	0.038957757	-96.966192	0.039872544	82.915577	
	0.987171	-2.2896703	0.040590972	77.869801	0.040041458	82.974708	0.038760017	-96.778981	
	0.038957757	-96.966192	0.040041458	82.974708	0.037180839	75.896036	0.98638592	-2.2457587	
	0.039872544	82.915577	0.038760017	-96.778981	0.98638592	-2.2457587	0.038422461	79.631377	
	
0.154329379779229	0.041563589	77.838166	0.98785574	-2.3605303	0.039989954	-97.451845	0.040810043	82.736492	
	0.98785574	-2.3605303	0.041075725	80.94259	0.040664938	83.377836	0.039801405	-97.075753	
	0.039989954	-97.451845	0.040664938	83.377836	0.038304358	78.024752	0.98677455	-2.307844	
	0.040810043	82.736492	0.039801405	-97.075753	0.98677455	-2.307844	0.040599886	79.142211	
	
0.157894484169135	0.041367818	79.743422	0.98812496	-2.4502281	0.040807364	-96.95822	0.042002336	82.958946	
	0.98812496	-2.4502281	0.042006033	80.401893	0.04163518	82.874441	0.04096716	-97.062697	
	0.040807364	-96.95822	0.04163518	82.874441	0.039974457	77.333784	0.98695215	-2.3567128	
	0.042002336	82.958946	0.04096716	-97.062697	0.98695215	-2.3567128	0.040777623	79.454065	
	
0.16154194468157	0.041919998	79.330578	0.98761642	-2.4708283	0.041387317	-97.383895	0.042828805	82.801222	
	0.98761642	-2.4708283	0.043569838	79.303385	0.042721237	83.11262	0.041691286	-97.576081	
	0.041387317	-97.383895	0.042721237	83.11262	0.041751555	78.766609	0.98653163	-2.3894446	
	0.042828805	82.801222	0.041691286	-97.576081	0.98653163	-2.3894446	0.041468168	81.671002	
	
0.165273663794043	0.042824727	78.923886	0.9874042	-2.4982832	0.042770285	-97.138147	0.043612749	82.606588	
	0.9874042	-2.4982832	0.043432673	80.450561	0.043381794	82.408464	0.042527206	-97.605961	
	0.042770285	-97.138147	0.043381794	82.408464	0.040156117	77.482808	0.98698902	-2.4977531	
	0.043612749	82.606588	0.042527206	-97.605961	0.98698902	-2.4977531	0.043433871	79.67504	
	
0.169091587932473	0.04394548	80.317502	0.98788606	-2.603419	0.043740245	-97.305089	0.044569984	82.637274	
	0.98788606	-2.603419	0.046105718	80.48968	0.04457374	82.892629	0.043567466	-97.441083	
	0.043740245	-97.305089	0.04457374	82.892629	0.041534244	78.821253	0.98713588	-2.5278606	
	0.044569984	82.637274	0.043567466	-97.441083	0.98713588	-2.5278606	0.043329095	78.787103	
	
0.172997708486424	0.044315624	78.458132	0.98731111	-2.6531805	0.044520767	-97.542675	0.045443728	82.67478	
	0.98731111	-2.6531805	0.045618856	80.240921	0.045711956	82.565223	0.044807604	-97.877025	
	0.044520767	-97.542675	0.045711956	82.565223	0.043287403	77.768551	0.9868306	-2.5920539	
	0.045443728	82.67478	0.044807604	-97.877025	0.9868306	-2.5920539	0.044436782	79.779062	
	
0.176994062847797	0.046032393	79.705534	0.98635106	-2.6738708	0.045566174	-97.809385	0.046610622	82.361328	
	0.98635106	-2.6738708	0.046913653	79.497815	0.046801586	82.092597	0.045488343	-97.574529	
	0.045566174	-97.809385	0.046801586	82.092597	0.045186564	78.281444	0.98668783	-2.6372066	
	0.046610622	82.361328	0.045488343	-97.574529	0.98668783	-2.6372066	0.045599085	78.898055	
	
0.181082735473506	0.046923903	78.516398	0.98685816	-2.7944504	0.046473321	-97.718407	0.047473875	82.106551	
	0.98685816	-2.7944504	0.04770078	80.032726	0.047513582	82.39916	0.046505491	-98.092652	
	0.046473321	-97.718407	0.047513582	82.39916	0.044995393	78.546613	0.98656012	-2.7074464	
	0.047473875	82.106551	0.046505491	-98.092652	0.98656012	-2.7074464	0.046370263	78.720806	
	
0.185265858972714	0.048516118	79.675015	0.98690569	-2.8383509	0.047525392	-97.939271	0.04867551	81.740487	
	0.98690569	-2.8383509	0.048457781	80.136873	0.048454401	82.109957	0.047675609	-98.296267	
	0.047525392	-97.939271	0.048454401	82.109957	0.044520494	79.02304	0.98692481	-2.7962071	
	0.04867551	81.740487	0.047675609	-98.296267	0.98692481	-2.7962071	0.0473109	79.239669	
	
0.18954561521918	0.048847667	80.060657	0.9869257	-2.9244973	0.048900403	-98.142504	0.049602622	82.060769	
	0.9869257	-2.9244973	0.049157402	79.903426	0.049835203	82.027068	0.048900731	-98.62916	
	0.048900403	-98.142504	0.049835203	82.027068	0.046921984	78.754818	0.98631507	-2.8056378	
	0.049602622	82.060769	0.048900731	-98.62916	0.98631507	-2.8056378	0.049247508	79.153088	
	
0.193924236489297	0.050154132	78.930445	0.98611123	-2.9853018	0.049828118	-98.005015	0.050764751	82.148605	
	0.98611123	-2.9853018	0.051198483	79.616796	0.051002624	82.012939	0.049566376	-98.239542	
	0.049828118	-98.005015	0.051002624	82.012939	0.049319089	78.698437	0.98552713	-2.9021048	
	0.050764751	82.148605	0.049566376	-98.239542	0.98552713	-2.9021048	0.048881683	77.471971	
	
0.19840400662643	0.051196997	79.546778	0.9852949	-3.0053784	0.050986917	-97.980552	0.051508451	81.707147	
	0.9852949	-3.0053784	0.05113262	79.662253	0.051600318	81.769285	0.050650051	-98.097527	
	0.050986917	-97.980552	0.051600318	81.769285	0.048001034	77.75582	0.9856422	-2.9770224	
	0.051508451	81.707147	0.050650051	-98.097527	0.9856422	-2.9770224	0.049333755	77.883583	
	
0.202987262232139	0.052080397	78.765423	0.98573608	-3.0892925	0.05183309	-98.284474	0.053148401	81.68974	
	0.98573608	-3.0892925	0.054304703	79.714597	0.053030185	81.954237	0.051793982	-98.677548	
	0.05183309	-98.284474	0.053030185	81.954237	0.050761971	76.953008	0.98540763	-3.0063758	
	0.053148401	81.68974	0.051793982	-98.677548	0.98540763	-3.0063758	0.052725967	79.938574	
	
0.207676393884933	0.052703638	79.027516	0.98501049	-3.1720601	0.052981319	-98.79084	0.054069913	81.336228	
	0.98501049	-3.1720601	0.054244179	78.643165	0.053825836	81.906691	0.052663264	-98.701824	
	0.052981319	-98.79084	0.053825836	81.906691	0.051339098	76.948843	0.9843918	-3.048724	
	0.054069913	81.336228	0.052663264	-98.701824	0.9843918	-3.048724	0.05428275	77.955809	
	
0.212473847387164	0.054730331	79.085353	0.98533632	-3.2125211	0.054259053	-98.397164	0.055451008	81.481651	
	0.98533632	-3.2125211	0.054931578	79.215537	0.055462636	81.767161	0.054235276	-98.651089	
	0.054259053	-98.397164	0.055462636	81.767161	0.053536527	77.779718	0.98476209	-3.1583049	
	0.055451008	81.481651	0.054235276	-98.651089	0.98476209	-3.1583049	0.054607336	79.395053	
	
0.217382125040737	0.055925718	79.005848	0.9857588	-3.3020867	0.055487464	-98.745103	0.0565529	81.285013	
	0.9857588	-3.3020867	0.056345329	79.715864	0.056725684	80.980505	0.055562422	-99.069033	
	0.055487464	-98.745103	0.056725684	80.980505	0.054298102	77.494823	0.98467631	-3.2094681	
	0.0565529	81.285013	0.055562422	-99.069033	0.98467631	-3.2094681	0.055047488	78.769904	
	
0.222403786952283	0.05696482	78.669259	0.98525994	-3.3444942	0.056776319	-99.082895	0.058058178	81.29351	
	0.98525994	-3.3444942	0.057984899	79.582458	0.057917526	80.992978	0.056550916	-98.95008	
	0.056776319	-99.082895	0.057917526	80.992978	0.055993399	78.657703	0.98462679	-3.2975183	
	0.058058178	81.29351	0.056550916	-98.95008	0.98462679	-3.2975183	0.056796819	78.140515	
	
0.227541452368483	0.058043675	79.232447	0.98358975	-3.4703388	0.058017665	-98.99451	0.058892977	81.086218	
	0.98358975	-3.4703388	0.058727793	78.570953	0.058792106	81.226415	0.058197394	-99.435718	
	0.058017665	-98.99451	0.058792106	81.226415	0.056125337	77.01819	0.98418606	-3.3618496	
	0.058892977	81.086218	0.058197394	-99.435718	0.98418606	-3.3618496	0.057567194	78.39979	
	
0.232797801042241	0.059480955	78.219811	0.98449365	-3.5523814	0.059178788	-99.272296	0.060325287	80.64413	
	0.98449365	-3.5523814	0.061094592	79.473492	0.060464531	80.672969	0.059327801	-99.211206	
	0.059178788	-99.272296	0.060464531	80.672969	0.058141464	77.973186	0.98404556	-3.4485743	
	0.060325287	80.64413	0.059327801	-99.211206	0.98404556	-3.4485743	0.059364099	78.361587	
	
0.238175574630416	0.061096093	78.314081	0.98390627	-3.5956962	0.060328405	-99.086822	0.061798307	80.709637	
	0.98390627	-3.5956962	0.061760921	79.052585	0.061857345	80.738451	0.060460423	-99.621556	
	0.060328405	-99.086822	0.061857345	80.738451	0.059154286	76.976525	0.98344829	-3.5431977	
	0.061798307	80.709637	0.060460423	-99.621556	0.98344829	-3.5431977	0.060853006	78.45234	
	
0.24367757812384	0.062803433	78.220231	0.9829096	-3.6624834	0.061519188	-99.776591	0.063203825	80.551114	
	0.9829096	-3.6624834	0.062304625	78.431768	0.063055486	80.46775	0.061713691	-99.586681	
	0.061519188	-99.776591	0.063055486	80.46775	0.060191298	77.591969	0.98303572	-3.5830667	
	0.063203825	80.551114	0.061713691	-99.586681	0.98303572	-3.5830667	0.061910944	76.834472	
	
0.249306681310373	0.064008616	77.140691	0.98309219	-3.7601411	0.062859273	-99.625675	0.064565189	80.288978	
	0.98309219	-3.7601411	0.064457538	78.504667	0.064471355	80.67828	0.063243217	-99.892485	
	0.062859273	-99.625675	0.064471355	80.67828	0.06080849	76.672978	0.98251289	-3.6879271	
	0.064565189	80.288978	0.063243217	-99.892485	0.98251289	-3.6879271	0.062831509	77.204751	
	
0.255065820271756	0.065624475	78.419496	0.98270256	-3.8305321	0.064050734	-99.766884	0.06576075	80.164091	
	0.98270256	-3.8305321	0.065268226	77.875692	0.06560604	80.36566	0.064707318	-100.03572	
	0.064050734	-99.766884	0.06560604	80.36566	0.063591807	76.804771	0.98218375	-3.7664319	
	0.06576075	80.164091	0.064707318	-100.03572	0.98218375	-3.7664319	0.064883225	77.331867	
	
0.260957998915036	0.067387072	78.054085	0.98235479	-3.9207736	0.065767953	-99.998639	0.067401399	79.989676	
	0.98235479	-3.9207736	0.067939601	79.032642	0.067425058	80.031721	0.066212845	-100.19305	
	0.065767953	-99.998639	0.067425058	80.031721	0.065248809	77.209781	0.98236129	-3.8360174	
	0.067401399	79.989676	0.066212845	-100.19305	0.98236129	-3.8360174	0.065936688	77.244336	
	
0.266986290539378	0.068115087	77.175248	0.98212202	-3.9972525	0.067346955	-100.14244	0.069028472	79.919754	
	0.98212202	-3.9972525	0.06936027	77.914475	0.068330826	79.904108	0.06724084	-100.20204	
	0.067346955	-100.14244	0.068330826	79.904108	0.066645711	76.727333	0.98153946	-3.9109403	
	0.069028472	79.919754	0.06724084	-100.20204	0.98153946	-3.9109403	0.067572962	78.331087	
	
0.273153839439064	0.0695309	77.890934	0.98211012	-4.1016278	0.068833506	-100.33109	0.0706837	79.778061	
	0.98211012	-4.1016278	0.071079337	77.817737	0.070277208	79.601188	0.068897202	-100.35261	
	0.068833506	-100.33109	0.070277208	79.601188	0.068473168	76.59569	0.98211989	-4.0263062	
	0.0706837	79.778061	0.068897202	-100.35261	0.98211989	-4.0263062	0.068911104	78.773294	
	
0.279463862543524	0.071460195	77.75192	0.98187269	-4.2019183	0.070287153	-100.80464	0.071972933	79.763059	
	0.98187269	-4.2019183	0.071993182	78.237527	0.071861754	79.498393	0.070320812	-100.55457	
	0.070287153	-100.80464	0.071861754	79.498393	0.070220623	76.656798	0.98125009	-4.1269758	
	0.071972933	79.763059	0.070320812	-100.55457	0.98125009	-4.1269758	0.06978595	76.990104	
	
0.285919651095252	0.073717037	77.825133	0.98046174	-4.3018086	0.07198295	-100.76492	0.073373314	79.333823	
	0.98046174	-4.3018086	0.07372369	77.181371	0.073489274	79.571559	0.071809809	-101.07161	
	0.07198295	-100.76492	0.073489274	79.571559	0.070764983	76.634604	0.98058104	-4.1773352	
	0.073373314	79.333823	0.071809809	-101.07161	0.98058104	-4.1773352	0.072483723	76.546073	
	
0.292524572366485	0.075841581	77.057182	0.98048451	-4.3562318	0.073417961	-101.12818	0.075040621	79.233224	
	0.98048451	-4.3562318	0.076562472	77.3593	0.074875287	79.283071	0.073363872	-101.16581	
	0.073417961	-101.12818	0.074875287	79.283071	0.072772768	76.123634	0.98012595	-4.3394214	
	0.075040621	79.233224	0.073363872	-101.16581	0.98012595	-4.3394214	0.074134832	77.341965	
	
0.299282071415539	0.077174331	76.914664	0.9795104	-4.4817804	0.074922941	-101.12219	0.07645874	78.858369	
	0.9795104	-4.4817804	0.07839549	77.166402	0.076601148	78.982668	0.074876293	-101.5125	
	0.074922941	-101.12219	0.076601148	78.982668	0.074023899	76.21845	0.97964294	-4.3891877	
	0.07645874	78.858369	0.074876293	-101.5125	0.97964294	-4.3891877	0.076291154	76.947928	
	
0.30619567288371	0.078805452	77.506085	0.97978627	-4.5626493	0.077027068	-101.07764	0.078586539	78.767961	
	0.97978627	-4.5626493	0.07885389	77.895442	0.078306924	78.90524	0.076751212	-101.43451	
	0.077027068	-101.07764	0.078306924	78.90524	0.075454223	76.6692	0.98046917	-4.4949671	
	0.078586539	78.767961	0.076751212	-101.43451	0.98046917	-4.4949671	0.077300517	77.436846	
	
0.313268982833699	0.079962153	76.714188	0.97986473	-4.659508	0.078462266	-101.47082	0.080315214	78.613363	
	0.97986473	-4.659508	0.080123618	77.285156	0.079967608	78.840934	0.078371866	-101.51986	
	0.078462266	-101.47082	0.079967608	78.840934	0.076430899	77.08098	0.97992955	-4.5649383	
	0.080315214	78.613363	0.078371866	-101.51986	0.97992955	-4.5649383	0.078537245	77.131589	
	
0.320505690630487	0.080788103	77.658839	0.97896062	-4.7507593	0.080075857	-101.50435	0.081989135	78.360827	
	0.97896062	-4.7507593	0.081531912	77.960837	0.081996832	78.714336	0.08007917	-101.73857	
	0.080075857	-101.50435	0.081996832	78.714336	0.077355134	76.018015	0.9788565	-4.6563665	
	0.081989135	78.360827	0.08007917	-101.73857	0.9788565	-4.6563665	0.080286126	76.597527	
	
0.327909570865677	0.083043888	77.960261	0.97864691	-4.8522217	0.082176482	-101.68623	0.08369695	78.398834	
	0.97864691	-4.8522217	0.082458432	77.76555	0.083857242	78.585624	0.081865109	-101.91943	
