# MHz S MA R 50

0.1	0.014907704	62.706924	0.98919414	-0.71529778	0.012624243	-92.6739	0.012948123	87.197387	
	0.98919414	-0.71529778	0.013936441	72.067057	0.012963685	87.02224	0.012473133	-92.821829	
	0.012624243	-92.6739	0.012963685	87.02224	0.011257062	58.855501	0.98902239	-0.76037618	
	0.012948123	87.197387	0.012473133	-92.821829	0.98902239	-0.76037618	0.013794589	73.03268	
	
0.102310062021247	0.013988652	61.502608	0.98900887	-0.77304131	0.012863576	-94.521066	0.013279109	86.853037	
	0.98900887	-0.77304131	0.014239667	70.653728	0.013266866	86.992786	0.012835526	-93.346422	
	0.012863576	-94.521066	0.013266866	86.992786	0.013610983	61.377324	0.98812295	-0.75336559	
	0.013279109	86.853037	0.012835526	-93.346422	0.98812295	-0.75336559	0.013159963	68.330063	
	
0.104673487907914	0.013645494	59.443851	0.98900561	-0.77328736	0.013167161	-92.367499	0.013456435	87.05161	
	0.98900561	-0.77328736	0.013671794	70.730767	0.013863391	86.678027	0.013166035	-94.002746	
	0.013167161	-92.367499	0.013863391	86.678027	0.013125411	62.318721	0.98755013	-0.77838655	
	0.013456435	87.05161	0.013166035	-94.002746	0.98755013	-0.77838655	0.012824112	71.074924	
	
0.107091510398389	0.01500602	62.604422	0.98855777	-0.80630016	0.013274833	-93.700036	0.01376408	87.030235	
	0.98855777	-0.80630016	0.014601308	68.574758	0.014191124	86.797303	0.013803162	-93.776905	
	0.013274833	-93.700036	0.014191124	86.797303	0.013241303	60.389675	0.98819691	-0.82009084	
	0.01376408	87.030235	0.013803162	-93.776905	0.98819691	-0.82009084	0.012930649	65.338991	
	
0.109565390708082	0.014611127	63.570682	0.98785343	-0.80967052	0.013660361	-93.120194	0.014235152	86.158435	
	0.98785343	-0.80967052	0.015078423	60.868712	0.014337877	86.235283	0.013697508	-94.020898	
	0.013660361	-93.120194	0.014337877	86.235283	0.01381585	60.16462	0.98742247	-0.80372556	
	0.014235152	86.158435	0.013697508	-94.020898	0.98742247	-0.80372556	0.015224875	69.10613	
	
0.112096419187261	0.015244521	65.951722	0.98874589	-0.84098912	0.013921989	-93.527875	0.014548001	86.196167	
	0.98874589	-0.84098912	0.014447155	66.139813	0.014561853	86.869436	0.014094891	-93.399243	
	0.013921989	-93.527875	0.014561853	86.869436	0.013387294	66.459936	0.98774834	-0.83005936	
	0.014548001	86.196167	0.014094891	-93.399243	0.98774834	-0.83005936	0.016165622	67.126981	
	
0.114685915994083	0.015231568	64.378524	0.98821929	-0.86824555	0.01435783	-93.246919	0.014942103	86.056687	
	0.98821929	-0.86824555	0.015328626	69.793244	0.014753622	87.842691	0.014328836	-94.063563	
	0.01435783	-93.246919	0.014753622	87.842691	0.014173381	60.339956	0.98813215	-0.87475839	
	0.014942103	86.056687	0.014328836	-94.063563	0.98813215	-0.87475839	0.014561912	66.093909	
	
0.117335231783182	0.015638444	64.946487	0.98841531	-0.88709263	0.014602476	-92.999914	0.015249609	87.394746	
	0.98841531	-0.88709263	0.014355026	68.14203	0.015203575	85.969325	0.014607517	-93.04538	
	0.014602476	-92.999914	0.015203575	85.969325	0.01425884	62.33814	0.98744052	-0.87358054	
	0.015249609	87.394746	0.014607517	-93.04538	0.98744052	-0.87358054	0.015716947	66.805299	
	
0.120045748410147	0.017151454	67.644508	0.98916068	-0.86109906	0.01499125	-93.497693	0.015700947	86.5202	
	0.98916068	-0.86109906	0.01721278	74.461755	0.015367089	85.525445	0.015104906	-93.49793	
	0.01499125	-93.497693	0.015367089	85.525445	0.013648527	64.583119	0.98913604	-0.92566623	
	0.015700947	86.5202	0.015104906	-93.49793	0.98913604	-0.92566623	0.01648749	75.574719	
	
0.122818879652292	0.016138602	64.824964	0.98831447	-0.92896297	0.015406235	-92.853947	0.015748797	86.027098	
	0.98831447	-0.92896297	0.017471219	69.767587	0.015558078	87.020093	0.015167211	-94.214562	
	0.015406235	-92.853947	0.015558078	87.020093	0.015263505	60.27017	0.98739388	-0.89856548	
	0.015748797	86.027098	0.015167211	-94.214562	0.98739388	-0.89856548	0.015235082	66.403823	
	
0.125656071946061	0.017044272	65.106147	0.98820294	-0.9188531	0.015751022	-93.181118	0.01621691	86.695706	
	0.98820294	-0.9188531	0.017613326	70.253581	0.016289473	86.205396	0.015483715	-94.025472	
	0.015751022	-93.181118	0.016289473	86.205396	0.015997234	65.052585	0.98755639	-0.94292935	
	0.01621691	86.695706	0.015483715	-94.025472	0.98755639	-0.94292935	0.01761308	71.270713	
	
0.128558805141477	0.017830195	66.25	0.98821123	-0.95920089	0.016132133	-94.509664	0.016658873	85.87341	
	0.98821123	-0.95920089	0.01705373	70.613364	0.016563143	86.812109	0.016308467	-95.066332	
	0.016132133	-94.509664	0.016563143	86.812109	0.01602473	67.074469	0.98759358	-0.96561151	
	0.016658873	85.87341	0.016308467	-95.066332	0.98759358	-0.96561151	0.017406395	68.370796	
	
0.131528593274019	0.018174935	68.629827	0.98869012	-0.94357363	0.016155251	-93.056207	0.017279681	85.677517	
	0.98869012	-0.94357363	0.016655045	71.022308	0.016928716	87.131343	0.01641703	-93.327565	
	0.016155251	-93.056207	0.016928716	87.131343	0.015228139	66.688452	0.98821232	-0.97973092	
	0.017279681	85.677517	0.01641703	-93.327565	0.98821232	-0.97973092	0.016714344	72.830149	
	
0.134566985354323	0.017539437	66.6095	0.98868748	-1.0123653	0.016524475	-93.781483	0.017291188	86.879891	
	0.98868748	-1.0123653	0.01708651	71.879442	0.017385309	86.488516	0.016737929	-93.861805	
	0.016524475	-93.781483	0.017385309	86.488516	0.016120611	67.361634	0.98693608	-0.98382294	
	0.017291188	86.879891	0.016737929	-93.861805	0.98693608	-0.98382294	0.017657884	71.267289	
	
0.13767556617613	0.017516345	67.679055	0.98835369	-1.0293534	0.017059886	-93.976958	0.017664947	85.979044	
	0.98835369	-1.0293534	0.018873718	70.749025	0.017771105	86.148464	0.01697724	-94.406056	
	0.017059886	-93.976958	0.017771105	86.148464	0.016882297	69.67695	0.98805717	-1.0140966	
	0.017664947	85.979044	0.01697724	-94.406056	0.98805717	-1.0140966	0.017417743	70.659977	
	
0.140855957142902	0.017455086	69.421261	0.98855056	-1.0255379	0.017713032	-93.788421	0.018137444	86.394247	
	0.98855056	-1.0255379	0.018510462	71.436488	0.018251689	86.299814	0.017469545	-93.837518	
	0.017713032	-93.788421	0.018251689	86.299814	0.01760949	69.089634	0.98791132	-1.0281694	
	0.018137444	86.394247	0.017469545	-93.837518	0.98791132	-1.0281694	0.018552953	65.989454	
	
0.144109817113524	0.018800938	69.359659	0.98896642	-1.071245	0.018091961	-93.346581	0.018566482	86.117846	
	0.98896642	-1.071245	0.018681826	74.359843	0.018470608	86.315416	0.017922793	-93.457783	
	0.018091961	-93.346581	0.018470608	86.315416	0.017667462	67.600984	0.98810048	-1.0608765	
	0.018566482	86.117846	0.017922793	-93.457783	0.98810048	-1.0608765	0.01815818	74.788763	
	
0.147438843267552	0.020759008	67.758445	0.98810406	-1.0588301	0.018348575	-93.834282	0.018900015	85.954801	
	0.98810406	-1.0588301	0.020209227	74.688834	0.018728424	84.410022	0.018396332	-93.496327	
	0.018348575	-93.834282	0.018728424	84.410022	0.0178617	68.507213	0.98763684	-1.0900302	
	0.018900015	85.954801	0.018396332	-93.496327	0.98763684	-1.0900302	0.01921497	73.991109	
	
0.150844771990442	0.018427977	68.609944	0.98828339	-1.122455	0.018871186	-93.327302	0.019666206	86.624866	
	0.98828339	-1.122455	0.020480869	72.216445	0.019530257	86.282125	0.018452074	-94.052766	
	0.018871186	-93.327302	0.019530257	86.282125	0.018113956	67.95026	0.98743504	-1.1427027	
	0.019666206	86.624866	0.018452074	-94.052766	0.98743504	-1.1427027	0.019342253	72.054961	
	
0.154329379779229	0.020059199	68.585359	0.98809316	-1.1273376	0.018933748	-94.097191	0.020131217	86.796079	
	0.98809316	-1.1273376	0.020574914	72.925738	0.019968463	87.300171	0.019131592	-93.641297	
	0.018933748	-94.097191	0.019968463	87.300171	0.018150278	66.332799	0.98742537	-1.119534	
	0.020131217	86.796079	0.019131592	-93.641297	0.98742537	-1.119534	0.020015068	73.375436	
	
0.157894484169135	0.020677603	70.475612	0.98861973	-1.1687928	0.019625617	-94.329242	0.020381111	86.290367	
	0.98861973	-1.1687928	0.020374631	74.806227	0.020524729	86.212727	0.019652165	-94.930903	
	0.019625617	-94.329242	0.020524729	86.212727	0.018952267	69.827469	0.98809952	-1.1655406	
	0.020381111	86.290367	0.019652165	-94.930903	0.98809952	-1.1655406	0.021277281	74.080205	
	
0.16154194468157	0.020598976	69.707308	0.9881337	-1.1794642	0.020169726	-93.835007	0.020762186	85.490274	
	0.9881337	-1.1794642	0.020370775	71.815489	0.020523407	85.664566	0.019866727	-94.72051	
	0.020169726	-93.835007	0.020523407	85.664566	0.019239471	71.397223	0.98704582	-1.2265858	
	0.020762186	85.490274	0.019866727	-94.72051	0.98704582	-1.2265858	0.019561702	73.153377	
	
0.165273663794043	0.020649095	71.41654	0.98814495	-1.2171378	0.020491226	-94.171644	0.021210779	85.530879	
	0.98814495	-1.2171378	0.020895855	70.972884	0.0211333	85.714452	0.020509529	-93.921848	
	0.020491226	-94.171644	0.0211333	85.714452	0.020075305	69.464847	0.98753559	-1.2020064	
	0.021210779	85.530879	0.020509529	-93.921848	0.98753559	-1.2020064	0.020845667	72.892505	
	
0.169091587932473	0.021848288	69.552672	0.98730547	-1.2399171	0.021016675	-94.200009	0.021618356	86.153887	
	0.98730547	-1.2399171	0.021806616	69.724681	0.02160098	85.358615	0.02095277	-93.723268	
	0.021016675	-94.200009	0.02160098	85.358615	0.021438495	70.358222	0.98632842	-1.2038771	
	0.021618356	86.153887	0.02095277	-93.723268	0.98632842	-1.2038771	0.021943345	73.510153	
	
0.172997708486424	0.022551643	71.852409	0.98741623	-1.2635275	0.021445318	-94.176591	0.021972396	84.987231	
	0.98741623	-1.2635275	0.022544874	76.16777	0.022116667	85.15791	0.021545083	-94.120484	
	0.021445318	-94.176591	0.022116667	85.15791	0.021250363	66.542086	0.98766441	-1.2732777	
	0.021972396	84.987231	0.021545083	-94.120484	0.98766441	-1.2732777	0.022513818	75.195061	
	
0.176994062847797	0.02243352	71.196892	0.98795563	-1.3205981	0.021489725	-94.241224	0.022643476	85.342965	
	0.98795563	-1.3205981	0.022762027	72.856711	0.022491378	85.620512	0.021948625	-94.718302	
	0.021489725	-94.241224	0.022491378	85.620512	0.0211793	68.149826	0.98740313	-1.3399494	
	0.022643476	85.342965	0.021948625	-94.718302	0.98740313	-1.3399494	0.02286463	74.221639	
	
0.181082735473506	0.022913468	71.344248	0.9873955	-1.3527904	0.022244142	-94.485559	0.022876251	85.795138	
	0.9873955	-1.3527904	0.024298736	71.897347	0.023087944	85.996786	0.022157117	-94.857553	
	0.022244142	-94.485559	0.023087944	85.996786	0.021407021	68.780555	0.98671322	-1.3498483	
	0.022876251	85.795138	0.022157117	-94.857553	0.98671322	-1.3498483	0.02448116	72.174259	
	
0.185265858972714	0.02309129	72.657861	0.9879894	-1.3765153	0.022899805	-93.610786	0.023684769	85.279563	
	0.9879894	-1.3765153	0.023940338	74.156881	0.023718213	86.131339	0.022761736	-93.889048	
	0.022899805	-93.610786	0.023718213	86.131339	0.021415055	70.247364	0.98709062	-1.3855692	
	0.023684769	85.279563	0.022761736	-93.889048	0.98709062	-1.3855692	0.023259797	76.593251	
	
0.18954561521918	0.023804514	72.731509	0.98789913	-1.402099	0.023181772	-94.888057	0.02430584	85.579294	
	0.98789913	-1.402099	0.024419539	73.394655	0.0244591	85.466838	0.023731119	-95.198422	
	0.023181772	-94.888057	0.0244591	85.466838	0.0233694	72.593978	0.98704102	-1.4159455	
	0.02430584	85.579294	0.023731119	-95.198422	0.98704102	-1.4159455	0.025106776	74.247618	
	
0.193924236489297	0.025458995	72.09503	0.98794176	-1.4492383	0.023923923	-95.054011	0.024963142	85.940958	
	0.98794176	-1.4492383	0.024574768	75.413066	0.024790342	85.538587	0.023861519	-94.34195	
	0.023923923	-95.054011	0.024790342	85.538587	0.023256708	74.574808	0.98704892	-1.4415107	
	0.024963142	85.940958	0.023861519	-94.34195	0.98704892	-1.4415107	0.024568989	76.239055	
	
0.19840400662643	0.025256789	71.560732	0.98735298	-1.454589	0.024214063	-95.196518	0.02559242	86.050972	
	0.98735298	-1.454589	0.024713149	73.112841	0.025395254	85.478486	0.024492239	-94.81387	
	0.024214063	-95.196518	0.025395254	85.478486	0.023482397	72.53202	0.9874212	-1.5069157	
	0.02559242	86.050972	0.024492239	-94.81387	0.9874212	-1.5069157	0.024812609	75.277938	
	
0.202987262232139	0.025679625	72.765417	0.98758422	-1.4895832	0.025017448	-94.994979	0.025988861	85.410123	
	0.98758422	-1.4895832	0.026664282	74.387268	0.026075966	84.938523	0.025014654	-94.5524	
	0.025017448	-94.994979	0.026075966	84.938523	0.024380009	72.977162	0.98684048	-1.4953766	
	0.025988861	85.410123	0.025014654	-94.5524	0.98684048	-1.4953766	0.02586479	75.0404	
	
0.207676393884933	0.025730842	71.348487	0.98730693	-1.5044053	0.025500821	-95.006867	0.026590185	85.186595	
	0.98730693	-1.5044053	0.027588107	75.229376	0.026379068	85.054062	0.025461525	-94.500734	
	0.025500821	-95.006867	0.026379068	85.054062	0.025442003	73.517531	0.98625132	-1.5739888	
	0.026590185	85.186595	0.025461525	-94.500734	0.98625132	-1.5739888	0.02698066	74.506259	
	
0.212473847387164	0.027020697	73.519437	0.98705415	-1.5605692	0.026098127	-94.677549	0.026934954	84.957872	
	0.98705415	-1.5605692	0.02665092	73.323472	0.027040047	85.492993	0.025930078	-94.916065	
	0.026098127	-94.677549	0.027040047	85.492993	0.025947952	72.672313	0.9865589	-1.5754772	
	0.026934954	84.957872	0.025930078	-94.916065	0.9865589	-1.5754772	0.027290544	74.519901	
	
0.217382125040737	0.027872127	73.97183	0.98744692	-1.6161851	0.02675882	-95.705887	0.027741741	84.909038	
	0.98744692	-1.6161851	0.027906159	76.19253	0.0277231	86.03153	0.026725933	-95.46664	
	0.02675882	-95.705887	0.0277231	86.03153	0.02555269	72.601362	0.98689734	-1.6360941	
	0.027741741	84.909038	0.026725933	-95.46664	0.98689734	-1.6360941	0.028585247	75.125609	
	
0.222403786952283	0.027687889	72.824412	0.98671858	-1.6199889	0.027384978	-95.052486	0.028041727	84.814292	
	0.98671858	-1.6199889	0.028856868	74.14601	0.028401964	85.600259	0.027097247	-95.584525	
	0.027384978	-95.052486	0.028401964	85.600259	0.026702672	73.318057	0.98637299	-1.6428762	
	0.028041727	84.814292	0.027097247	-95.584525	0.98637299	-1.6428762	0.029821503	72.890209	
	
0.227541452368483	0.028203115	73.909019	0.987078	-1.6780787	0.028108276	-95.54385	0.028964727	84.171711	
	0.987078	-1.6780787	0.029197497	74.021256	0.02913504	84.596435	0.027889011	-95.064167	
	0.028108276	-95.54385	0.02913504	84.596435	0.027832459	73.07552	0.98596604	-1.7028848	
	0.028964727	84.171711	0.027889011	-95.064167	0.98596604	-1.7028848	0.029717722	75.021022	
	
0.232797801042241	0.029167903	73.968946	0.98701248	-1.7314269	0.028619176	-94.985731	0.029676272	84.434387	
	0.98701248	-1.7314269	0.029476579	74.189379	0.029630093	84.700732	0.02862706	-95.709902	
	0.028619176	-94.985731	0.029630093	84.700732	0.028783531	74.085346	0.98596779	-1.7667514	
	0.029676272	84.434387	0.02862706	-95.709902	0.98596779	-1.7667514	0.0301624	75.180095	
	
0.238175574630416	0.030639845	75.006328	0.98745271	-1.7251917	0.029279211	-95.329128	0.030154899	85.214201	
	0.98745271	-1.7251917	0.030618635	76.040304	0.030132494	84.917872	0.029343236	-95.465921	
	0.029279211	-95.329128	0.030132494	84.917872	0.029208161	74.397064	0.98592633	-1.7753135	
	0.030154899	85.214201	0.029343236	-95.465921	0.98592633	-1.7753135	0.031164873	77.713878	
	
0.24367757812384	0.030181867	73.831082	0.98689807	-1.7971559	0.029810817	-95.23219	0.03108626	84.401624	
	0.98689807	-1.7971559	0.030870345	75.762634	0.030891679	84.130714	0.029756962	-95.398967	
	0.029810817	-95.23219	0.030891679	84.130714	0.029940295	73.672366	0.98669759	-1.8194054	
	0.03108626	84.401624	0.029756962	-95.398967	0.98669759	-1.8194054	0.031722017	76.936135	
	
0.249306681310373	0.032168227	74.10884	0.98733358	-1.8291101	0.030362936	-95.892651	0.031379777	84.32983	
	0.98733358	-1.8291101	0.032619717	77.818989	0.031355723	84.801515	0.030578959	-95.229835	
	0.030362936	-95.892651	0.031355723	84.801515	0.03039731	75.503116	0.98651287	-1.848442	
	0.031379777	84.32983	0.030578959	-95.229835	0.98651287	-1.848442	0.032057819	78.765366	
	
0.255065820271756	0.031208853	73.459122	0.98658102	-1.8626978	0.031433383	-95.33608	0.032112256	84.782466	
	0.98658102	-1.8626978	0.032716969	75.384125	0.032089181	84.346693	0.031269006	-95.385012	
	0.031433383	-95.33608	0.032089181	84.346693	0.032026632	75.302274	0.98630691	-1.9123034	
	0.032112256	84.782466	0.031269006	-95.385012	0.98630691	-1.9123034	0.033443987	76.944894	
	
0.260957998915036	0.032617807	74.506695	0.98686662	-1.9135471	0.031842613	-95.761826	0.032966949	84.45114	
	0.98686662	-1.9135471	0.033151724	76.047735	0.032936585	84.397027	0.031871345	-95.375855	
	0.031842613	-95.761826	0.032936585	84.397027	0.03122372	75.635007	0.9860751	-1.9554978	
	0.032966949	84.45114	0.031871345	-95.375855	0.9860751	-1.9554978	0.032169053	76.629201	
	
0.266986290539378	0.033686763	73.891109	0.98648958	-1.9514507	0.032656947	-95.597494	0.033400388	84.473833	
	0.98648958	-1.9514507	0.032784051	75.580254	0.033800182	84.363865	0.032756328	-95.833125	
	0.032656947	-95.597494	0.033800182	84.363865	0.031903033	75.111931	0.9859206	-1.9837361	
	0.033400388	84.473833	0.032756328	-95.833125	0.9859206	-1.9837361	0.034284565	75.5958	
	
0.273153839439064	0.033997788	75.070268	0.98655774	-2.0003258	0.033253495	-95.808951	0.034626295	84.019333	
	0.98655774	-2.0003258	0.033852088	76.162172	0.034756637	84.333932	0.033421532	-95.454578	
	0.033253495	-95.808951	0.034756637	84.333932	0.033172248	74.198777	0.98574769	-2.0155903	
	0.034626295	84.019333	0.033421532	-95.454578	0.98574769	-2.0155903	0.035031258	75.210351	
	
0.279463862543524	0.034607752	74.845417	0.98619962	-2.0522572	0.034318346	-96.451059	0.035328575	84.149679	
	0.98619962	-2.0522572	0.035743152	75.167445	0.035499377	84.507607	0.033924354	-95.618433	
	0.034318346	-96.451059	0.035499377	84.507607	0.033405037	75.83984	0.98526624	-2.0978375	
	0.035328575	84.149679	0.033924354	-95.618433	0.98526624	-2.0978375	0.036452039	76.985186	
	
0.285919651095252	0.035880175	75.148675	0.98644387	-2.1157352	0.034897044	-95.639088	0.035912034	84.30636	
	0.98644387	-2.1157352	0.036717658	76.473084	0.036050292	84.271633	0.035114179	-95.916435	
	0.034897044	-95.639088	0.036050292	84.271633	0.034939198	74.669711	0.98552568	-2.1391934	
	0.035912034	84.30636	0.035114179	-95.916435	0.98552568	-2.1391934	0.036278349	78.23075	
	
0.292524572366485	0.036971161	72.97075	0.98522017	-2.1607373	0.035632072	-96.235636	0.03688375	84.045	
	0.98522017	-2.1607373	0.037850113	75.518751	0.036880353	83.935787	0.035648652	-96.250393	
	0.035632072	-96.235636	0.036880353	83.935787	0.035681698	74.824317	0.98456847	-2.1857134	
	0.03688375	84.045	0.035648652	-96.250393	0.98456847	-2.1857134	0.037074784	78.895054	
	
0.299282071415539	0.03783906	74.656307	0.98585188	-2.182536	0.036640542	-96.301982	0.037661108	84.086107	
	0.98585188	-2.182536	0.038690302	76.540534	0.03752557	83.891206	0.03636093	-96.185228	
	0.036640542	-96.301982	0.03752557	83.891206	0.036989315	75.460751	0.9849248	-2.2255124	
	0.037661108	84.086107	0.03636093	-96.185228	0.9849248	-2.2255124	0.038187792	77.574262	
	
0.30619567288371	0.039134615	75.11612	0.98626961	-2.2462009	0.037232616	-95.567313	0.03861655	83.548772	
	0.98626961	-2.2462009	0.040050285	78.978164	0.038578626	83.895639	0.037216215	-96.239186	
	0.037232616	-95.567313	0.038578626	83.895639	0.036996029	77.571118	0.98651906	-2.2751273	
	0.03861655	83.548772	0.037216215	-96.239186	0.98651906	-2.2751273	0.039800354	77.658834	
	
0.313268982833699	0.038715615	76.987086	0.9860714	-2.2868873	0.038014409	-95.998753	0.03949707	83.610656	
	0.9860714	-2.2868873	0.039809701	78.321631	0.039248193	83.723353	0.038196201	-96.700076	
	0.038014409	-95.998753	0.039248193	83.723353	0.037131736	75.904977	0.98595251	-2.3007154	
	0.03949707	83.610656	0.038196201	-96.700076	0.98595251	-2.3007154	0.040191184	77.208309	
	
0.320505690630487	0.038862536	77.323991	0.98658479	-2.3216373	0.039117516	-95.927759	0.040206936	83.7998	
	0.98658479	-2.3216373	0.040134766	76.699036	0.04032443	83.949289	0.039288115	-96.298863	
	0.039117516	-95.927759	0.04032443	83.949289	0.03746215	76.707726	0.98590578	-2.3458765	
	0.040206936	83.7998	0.039288115	-96.298863	0.98590578	-2.3458765	0.040234262	78.489838	
	
0.327909570865677	0.039347456	75.652105	0.98658975	-2.3672081	0.039794342	-96.430291	0.041333638	83.912394	
	0.98658975	-2.3672081	0.03972122	78.241694	0.041293329	84.144647	0.039787509	-96.147553	
